!Created with skrf (http://scikit-rf.org).
# Hz S RI R 50.0 
!freq ReS11 ImS11 ReS21 ImS21 ReS12 ImS12 ReS22 ImS22
300000.0 -0.7729581972 -0.1473336662 -0.0005758698 -0.0003516807 -0.0006216066 0.0003392337 -0.0477418112 -0.0683657158
5299970.0 -0.7846812454 -0.0071170057 -0.0001359575 1.04098e-05 -0.0003187856 1.72586e-05 -0.0494006474 0.0146457251
10299940.0 -0.7876003414 -0.003983495 -4.94044e-05 6.89273e-05 -0.0001303201 4.96817e-05 -0.0440914169 0.0322438232
15299910.0 -0.7932555278 -0.0014587032 2.8978e-06 4.03913e-05 3.3917e-05 0.0002374389 -0.0357019148 0.0462920829
20299880.0 -0.7996663497 0.0022520215 0.0002402027 8.73872e-05 7.69917e-05 -0.0001020719 -0.0256733652 0.0584757479
25299850.0 -0.8061676296 0.008133739 -6.11046e-05 9.22007e-05 2.73987e-05 0.0001589654 -0.0152420229 0.067835249
30299820.0 -0.8119661664 0.0164139141 7.86354e-05 4.21225e-05 0.0001211914 5.95822e-05 -0.0039674941 0.074741554
35299790.0 -0.8166841713 0.0249649824 0.0002036643 -8.07713e-05 -0.0001143616 6.8176e-05 0.0074784175 0.0793310924
40299760.0 -0.8216284661 0.0339680463 4.762e-05 3.88581e-05 1.21701e-05 4.0413e-05 0.0186815362 0.0821986493
45299730.0 -0.8250313656 0.0442365525 0.0001511878 2.4019e-06 -1.06492e-05 0.0001426191 0.0291727905 0.083974308
50299700.0 -0.827008702 0.0538764031 7.57862e-05 4.16306e-05 0.0001093715 0.0002189185 0.0394690826 0.0842227236
55299670.0 -0.828754693 0.0637800151 4.9422e-06 0.0001142475 4.42815e-05 -3.68e-06 0.0483891292 0.0834547583
60299640.0 -0.8301298486 0.0743395021 1.49483e-05 8.94972e-05 9.90271e-05 -9.1872e-05 0.0569196483 0.0816477973
65299610.0 -0.8312092917 0.0847605092 2.00824e-05 -8.72476e-05 0.0001475919 -4.16109e-05 0.0645388841 0.0794120495
70299580.0 -0.8312333846 0.0947921579 -0.0001198558 -0.0001537118 1.02387e-05 -6.8852e-06 0.0717592881 0.0765687342
75299550.0 -0.8318378252 0.104959451 -0.0001147862 -9.46262e-05 0.0002629469 0.0001343513 0.0782072566 0.0736424893
80299520.0 -0.8312088628 0.1140030429 -0.000151642 -5.21925e-05 0.0001748155 0.0002551313 0.0836444179 0.070206876
85299490.0 -0.8303229669 0.124279242 3.09082e-05 5.51417e-05 -1.62608e-05 -7.13189e-05 0.0888036777 0.0662942576
90299460.0 -0.8300218101 0.1339003584 4.34721e-05 0.0001402529 -8.04477e-05 0.0001824707 0.093445409 0.0629420664
95299430.0 -0.828555178 0.1436283592 0.000225912 3.48088e-05 6.04544e-05 0.0001496168 0.097523018 0.0589800319
100299400.0 -0.827861425 0.1526506776 6.1827e-05 0.0001219985 0.0001797207 -0.0001959722 0.1010452302 0.0551723976
105299370.0 -0.8269133216 0.1622019485 -7.32387e-05 8.10608e-05 -6.4606e-06 7.47694e-05 0.1046628948 0.0514689517
110299340.0 -0.825201902 0.1710460708 -8.20468e-05 0.0001702307 5.72432e-05 3.22997e-05 0.1072936134 0.0477525835
115299310.0 -0.8235623607 0.1801198188 9.37697e-05 0.0002631526 0.0001750428 -7.4665e-06 0.1100824954 0.0436392144
120299280.0 -0.8219443517 0.1895458598 0.000183194 1.8111e-06 -5.7236e-05 0.0001216291 0.1122745114 0.0400829247
125299250.0 -0.8202448215 0.1984996141 -0.0001327221 8.30926e-05 -5.12422e-05 0.0001808492 0.1144867128 0.0360201193
130299220.0 -0.8184602877 0.2074154412 7.10651e-05 0.0001975859 -5.85867e-05 0.0002110566 0.1157436458 0.0325239366
135299190.0 -0.8165069049 0.2164211169 6.04451e-05 0.0001286321 -0.0001214497 9.99485e-05 0.1175509847 0.0289394862
140299160.0 -0.814825163 0.2254474376 -8.95007e-05 0.0002052191 0.0002020587 -8.8102e-06 0.1191367506 0.0253434117
145299130.0 -0.8123995562 0.234664882 -1.67015e-05 0.0002397555 0.0002371687 0.0001551971 0.1196029458 0.0218985155
150299100.0 -0.8103837301 0.2432249155 0.0001370195 0.0002075909 -8.38609e-05 -2.94161e-05 0.1207841819 0.0185594778
155299070.0 -0.8080151135 0.2519798228 0.0001441376 0.0001570846 4.56278e-05 -1.41067e-05 0.1217030193 0.0155549156
160299040.0 -0.8051323264 0.2611312785 0.0001565314 -0.0001252062 -3.29227e-05 0.0001126159 0.1226197003 0.012324429
165299010.0 -0.8019601748 0.2689998536 -7.85178e-05 0.0002034785 0.0001595837 7.87461e-05 0.1232588543 0.00893232
170298980.0 -0.7990912194 0.2780721762 7.66907e-05 0.0001111859 0.0002063503 0.000100701 0.1236466883 0.0059570241
175298950.0 -0.7968765063 0.2868419804 0.0002172058 1.46523e-05 5.58737e-05 0.0001596101 0.1239557793 0.0029231899
180298920.0 -0.7938996604 0.2952936305 -2.15793e-05 0.0001372064 3.71402e-05 8.03635e-05 0.1242706785 4.73581e-05
185298890.0 -0.7904320677 0.3049404098 6.051e-07 6.16968e-05 7.8855e-05 9.79181e-05 0.1241784297 -0.0029986222
190298860.0 -0.7873247237 0.3119406402 0.0003002573 0.0001281655 0.000180427 0.0002328641 0.1247473211 -0.0055964819
195298830.0 -0.7841496331 0.3208261035 -3.99283e-05 0.0002367961 6.75964e-05 7.26997e-05 0.1242088924 -0.0085496655
200298800.0 -0.780633329 0.3294724448 3.0391e-05 -6.96291e-05 -4.82404e-05 3.46762e-05 0.124664925 -0.0111469038
205298770.0 -0.7773183234 0.3372108698 -5.10686e-05 5.29079e-05 -6.94657e-05 -9.7465e-06 0.1243035017 -0.0135796079
210298740.0 -0.7736142031 0.345876445 -0.0001088028 3.57159e-05 0.0002270712 1.9484e-05 0.1239683029 -0.0162418949
215298710.0 -0.7699947129 0.3540449718 0.0001110578 0.000117829 0.0002159877 0.0001778781 0.1234927347 -0.0186467722
220298680.0 -0.7671559248 0.3621284101 0.0002393767 0.0002029241 -1.04357e-05 0.0001760055 0.123705453 -0.0209586118
225298650.0 -0.7629607356 0.370850226 -0.0001024311 0.0002193259 0.0001424364 0.000298092 0.1227592681 -0.02309919
230298620.0 -0.7587702465 0.3785944038 5.44992e-05 3.36065e-05 0.0001909289 0.0002636671 0.1230606741 -0.0258701415
235298590.0 -0.7546948055 0.3868014504 -0.0001743258 0.0002218376 0.0001814345 0.0001325791 0.1223446541 -0.0280553516
240298560.0 -0.7507044372 0.3947878231 5.90259e-05 2.74403e-05 -9.7935e-05 0.0001599084 0.1217295701 -0.0303201401
245298530.0 -0.7466925214 0.4029767268 0.0001437742 8.93395e-05 -8.81068e-05 -0.0001449674 0.1209207474 -0.0324110786
250298500.0 -0.7422093144 0.4106527544 5.13627e-05 0.0001227143 -1.99329e-05 4.23566e-05 0.1209993465 -0.0344022687
255298470.0 -0.7376879897 0.4183940688 1.98041e-05 6.9739e-05 0.0002124437 0.0001247032 0.1200411058 -0.0363728657
260298440.0 -0.7340688445 0.4261875589 0.0001321108 0.0003536845 0.0001897608 0.0002984551 0.119557564 -0.0386129315
265298410.0 -0.7294931314 0.4344104852 0.0002022943 8.9151e-06 0.0001020521 0.0001262388 0.1189201461 -0.0407895019
270298380.0 -0.7249235657 0.4415974586 0.0002796515 9.46134e-05 -7.9798e-06 0.0001566616 0.1182708982 -0.0425836936
275298350.0 -0.7193325079 0.4491440473 0.0002632866 -5.05212e-05 0.0001898611 5.42262e-05 0.1178193298 -0.044050607
280298320.0 -0.7149469247 0.4564183713 9.8038e-06 4.37843e-05 0.000157631 3.39178e-05 0.1167631575 -0.0463898102
285298290.0 -0.7100936139 0.4644813226 0.0001603849 0.0001403187 0.0002909397 0.0002626577 0.1162204405 -0.0481857138
290298260.0 -0.7056561928 0.4719609042 7.36016e-05 0.0001224592 3.62913e-05 0.0002154889 0.1153728511 -0.0498267488
295298230.0 -0.7004390544 0.4790227088 0.0002838017 0.0003146837 -9.5036e-05 0.0001241102 0.1147656795 -0.0516912035
300298200.0 -0.6950287336 0.4860234886 0.0003807625 0.0002059724 9.4213e-06 0.0001592756 0.1139519706 -0.0532006544
305298170.0 -0.6901242995 0.4943185977 0.0002487498 0.0001379069 -2.51618e-05 0.0001150703 0.1133479565 -0.0548587586
310298140.0 -0.684081179 0.5007587718 6.06839e-05 0.0001404513 0.0001942942 -7.02853e-05 0.1127568992 -0.0563411474
315298110.0 -0.6794298103 0.5078623933 0.0002574654 0.0002686098 9.50419e-05 3.8998e-06 0.1117247724 -0.0582145702
320298080.0 -0.674486818 0.5156205004 0.000431926 6.67417e-05 0.00014428 0.0001012455 0.1105686628 -0.0602457988
325298050.0 -0.6683413063 0.5221758127 0.0001404256 -0.0001111958 -9.90266e-05 0.0003169439 0.1097856131 -0.0621532995
330298020.0 -0.6628009033 0.5290133336 0.0003840077 -8.84049e-05 -3.8085e-05 4.97755e-05 0.1084684107 -0.0639030553
335297990.0 -0.6570710061 0.5359502759 0.000172926 -0.0001300933 0.0001924627 9.9838e-05 0.1073779189 -0.0654308049
340297960.0 -0.6521552469 0.5428311527 0.0002208741 4.49741e-05 8.46426e-05 0.000271495 0.106269818 -0.0667569415
345297930.0 -0.646379756 0.5490961289 8.02187e-05 6.72327e-05 0.0001859837 0.0001040793 0.1049334499 -0.0679885573
350297900.0 -0.640560309 0.5563013411 0.0002178925 0.0001426681 8.18822e-05 2.9018e-05 0.1039512742 -0.0692916372
355297870.0 -0.6345223897 0.5627401672 0.000281692 8.75545e-05 0.0001981856 0.0002073705 0.1025094318 -0.070728114
360297840.0 -0.6280565076 0.5691532533 0.0001197461 0.0002794894 0.0002583539 0.00025271 0.1014664756 -0.0714677123
365297810.0 -0.6223088105 0.5758877815 0.0002102974 0.0002534481 0.0002778338 -5.60605e-05 0.1001032405 -0.073010921
370297780.0 -0.6160420438 0.5815622811 0.0002680693 -0.0001072306 3.18921e-05 0.0002859079 0.0990311797 -0.07401177
375297750.0 -0.6101532516 0.5882885398 7.72979e-05 9.71074e-05 0.0003247876 0.00023733 0.0979065391 -0.0753582413
380297720.0 -0.6041916534 0.5950292961 0.0003798684 0.0002213146 0.0001158065 3.83298e-05 0.0971384828 -0.0761509251
385297690.0 -0.5977438437 0.6004469502 0.0002659465 0.0001342045 0.0001021904 -0.0001347354 0.095471946 -0.077104263
390297660.0 -0.5916775574 0.6072089577 0.000129827 2.2785e-06 0.0002801795 -4.45692e-05 0.0943503019 -0.078500177
395297630.0 -0.5851985816 0.6129930012 0.0001396292 3.15287e-05 0.0001492032 0.0001800415 0.0931524563 -0.0795223117
400297600.0 -0.5789416424 0.6191381354 0.000206877 -5.71893e-05 0.0003382877 7.74971e-05 0.092145012 -0.0808338097
405297570.0 -0.5723924513 0.6253811726 0.0003381218 0.0001969869 3.13403e-05 0.000188861 0.0906431315 -0.0817942305
410297540.0 -0.5652810531 0.6305978194 -7.74598e-05 6.3352e-05 0.0002011367 0.0002035352 0.0897087059 -0.0823480321
415297510.0 -0.5591759722 0.6365051878 5.91455e-05 0.0002004928 0.0001008498 6.6911e-05 0.0881099739 -0.0832691352
420297480.0 -0.5516133708 0.6417991707 0.0002562244 -3.6705e-05 0.0002306268 9.64409e-05 0.0867546098 -0.0846361934
425297450.0 -0.5459573807 0.6481473155 0.0002272501 0.0002138356 0.0002373837 0.0001281972 0.0860864767 -0.0853982126
430297420.0 -0.5391509565 0.6534595327 0.0001837128 8.61134e-05 0.0002646425 4.3477e-05 0.0845476499 -0.0862836182
435297390.0 -0.5320982064 0.659300719 0.0004446149 -1.16486e-05 0.0002498162 0.0003556837 0.0834750696 -0.0870802099
440297360.0 -0.5258449143 0.6645600084 0.0002028502 0.0001156455 6.23689e-05 3.80929e-05 0.0817418438 -0.0882099035
445297330.0 -0.5185766791 0.6695484366 0.0004474829 0.0001127377 0.0002233556 4.0886e-05 0.0803800841 -0.0891188005
450297300.0 -0.5112583201 0.6745624834 0.0002408221 -1.23009e-05 0.0002455035 0.0002054632 0.0792064619 -0.0898566063
455297270.0 -0.5044401364 0.6801730469 0.0003655974 4.88238e-05 0.0003107823 -7.1797e-06 0.0778563263 -0.0905922766
460297240.0 -0.4973560551 0.6853143974 0.0001331882 8.69174e-05 0.000260165 3.9043e-05 0.0768552083 -0.0915473256
465297210.0 -0.4903310512 0.6901890471 9.9684e-05 8.81755e-05 0.0002846388 0.0001188521 0.0750104399 -0.0922870642
470297180.0 -0.4833055065 0.6948836212 0.0001855726 0.0001491023 0.0001071873 -0.0001095292 0.0734302241 -0.0930000841
475297150.0 -0.4757373283 0.6999433203 0.000494487 0.0002588058 0.0003168457 5.74598e-05 0.0724606849 -0.0936258723
480297120.0 -0.4690229991 0.7047896551 0.0002121674 0.0002462435 0.000402433 0.0002703107 0.0709828455 -0.0940740988
485297090.0 -0.4612411014 0.7092978584 0.0003094327 0.0001268892 0.0001955023 -2.319e-07 0.0694129361 -0.0951098832
490297060.0 -0.454194566 0.7142328164 0.0005091545 -0.0001790965 0.0003865707 4.72778e-05 0.0681582209 -0.0957665583
495297030.0 -0.4471986841 0.7185518485 0.0002616925 -2.3161e-05 0.0001772329 3.0276e-06 0.0669989526 -0.096621516
500297000.0 -0.4384619674 0.7234107163 0.0004370619 9.25309e-05 0.0002938648 4.85826e-05 0.0654441721 -0.0969157222
505296970.0 -0.4315234184 0.7267540504 0.0003731135 0.000344513 0.0002945607 0.0002512533 0.0635611824 -0.0975848073
510296940.0 -0.4244929465 0.7320857507 0.0004142803 7.45098e-05 0.0003300537 1.08849e-05 0.0627238342 -0.0981037121
515296910.0 -0.4174137169 0.7366281414 0.0001241703 0.0002223843 0.0004151267 -0.0002375566 0.0612376294 -0.0988045671
520296880.0 -0.4083953457 0.7400561237 0.0003703346 0.0001067057 0.0002857022 -0.0001014285 0.0598758351 -0.0994115121
525296850.0 -0.4021870019 0.7442426625 3.38437e-05 0.0001608067 0.0003111599 0.0001504555 0.0583941384 -0.1000949161
530296820.0 -0.3942192133 0.7481596625 0.0005092883 0.0001485149 0.0002940971 0.0001406962 0.0565229668 -0.1006204301
535296790.0 -0.3858897838 0.7523142 0.000381386 -4.19956e-05 0.0001884743 0.0001912814 0.0553058064 -0.1013824022
540296760.0 -0.378961149 0.7559158341 8.03009e-05 6.62904e-05 0.0002678028 4.7191e-06 0.0537498426 -0.1014801466
545296730.0 -0.3711739904 0.7597100647 4.5767e-06 0.000203583 0.0002738105 0.0001201374 0.0521461914 -0.1022312574
550296700.0 -0.3635583288 0.7638869693 0.0002585368 -0.0001624419 0.0001990319 0.0001655257 0.0508654218 -0.1024891872
555296670.0 -0.3543884612 0.7675232147 0.0002424811 4.59999e-05 0.0001870966 0.0001024343 0.0494053243 -0.1029644788
560296640.0 -0.3472372615 0.7708119939 0.0003814897 4.07323e-05 0.0003990545 3.8946e-05 0.0480932605 -0.1034015695
565296610.0 -0.3395904839 0.7740817931 0.0003013468 0.0001291215 0.0003122738 0.0001337617 0.046630287 -0.1036966736
570296580.0 -0.3315651264 0.7770042241 0.0002702928 9.00156e-05 0.0003028743 7.96881e-05 0.045157683 -0.1037452679
575296550.0 -0.3236358418 0.7806757789 0.0004261629 5.15734e-05 0.0003476266 0.0001020655 0.043498585 -0.1045528626
580296520.0 -0.3160214372 0.7840868768 0.0005029139 6.06194e-05 0.0002435477 6.6947e-05 0.0422036607 -0.1045572398
585296490.0 -0.3076651753 0.786528496 0.000370594 4.81884e-05 0.0004871243 -0.0001355769 0.0406489512 -0.1056044961
590296460.0 -0.2999221101 0.7895833592 0.0004335215 0.0001779799 0.0005398826 -4.95475e-05 0.0393678365 -0.1055235013
595296430.0 -0.2912143957 0.7936557991 0.000205929 0.000282512 0.0002173826 0.0001783878 0.0377202578 -0.1059316312
600296400.0 -0.2840845354 0.7956795241 0.0001167163 0.0002189566 -7.6501e-06 7.53596e-05 0.0362539324 -0.1060490305
605296370.0 -0.2753234391 0.7990361706 0.0004159746 -0.0001483672 0.0002022519 -3.28443e-05 0.0346879887 -0.1062476848
610296340.0 -0.2676503275 0.8016882785 0.0004708226 0.0002094182 0.000435456 0.0001141902 0.032998654 -0.1066464935
615296310.0 -0.2592582177 0.8043005238 0.0005050589 -1.11358e-05 0.0002111034 -0.0001238656 0.0315932281 -0.1068429257
620296280.0 -0.2512721843 0.8061659754 0.0002493938 -2.52232e-05 0.000575003 1.79601e-05 0.0302092547 -0.1071133916
625296250.0 -0.2425220257 0.8086428385 0.0002787692 -2.80033e-05 0.0002677869 -0.0001096036 0.0288552156 -0.1070322359
630296220.0 -0.2343166991 0.8119023498 0.0003766055 -8.95877e-05 0.000436901 0.0004263919 0.0272212821 -0.1073856402
635296190.0 -0.2261946946 0.8140794517 0.0001360527 7.9197e-06 0.0003945727 0.0001652888 0.0259764667 -0.1073870245
640296160.0 -0.2181072051 0.8152640053 0.0005481654 4.84859e-05 0.0004084456 -5.45551e-05 0.0245611266 -0.1076332158
645296130.0 -0.2097955907 0.818157456 0.0005550046 -7.0749e-05 0.0004718529 -5.30505e-05 0.0229353245 -0.107861724
650296100.0 -0.2016716169 0.8199494339 0.0004160848 0.0002183479 0.0001258491 0.0001804337 0.0213541868 -0.1075597003
655296070.0 -0.1929412991 0.8218435315 0.000104312 -6.52071e-05 0.0005049794 5.12169e-05 0.0198616095 -0.1075816623
660296040.0 -0.1851999824 0.8243793024 0.0004586103 -7.50375e-05 0.0003443704 -6.74441e-05 0.0185330063 -0.1076164826
665296010.0 -0.1771179978 0.8256115301 0.0002430563 -4.77538e-05 0.0004779292 -0.000113874 0.0170302609 -0.107798403
670295980.0 -0.1676571477 0.8274322844 0.0001613972 0.0001873977 0.0005138327 -6.4341e-05 0.0158279703 -0.1077523245
675295950.0 -0.1603125543 0.8287103882 0.0003558504 7.83776e-05 0.0006231758 -7.42109e-05 0.0144933556 -0.107544716
680295920.0 -0.1520969045 0.8307088701 0.0003653566 -0.0001338788 9.38251e-05 -3.75981e-05 0.0128974118 -0.1077697045
685295890.0 -0.1430942761 0.8317289839 0.0002093794 -0.0001139477 0.0003290558 -0.0001865755 0.0114646512 -0.1077100792
690295860.0 -0.1347297139 0.833645108 0.0002633732 -2.05188e-05 0.0002972617 0.0001987068 0.0099015349 -0.107437169
695295830.0 -0.1264755362 0.8339964927 0.0004927644 4.1566e-06 0.0003845742 8.9206e-06 0.0081789367 -0.1072841263
700295800.0 -0.1177966761 0.835777128 0.0001411699 -0.0001403912 0.0003259424 9.17535e-05 0.006972462 -0.1073013723
705295770.0 -0.108873804 0.8371799404 0.0001020024 -1.15429e-05 0.0003030421 0.0001192382 0.0053178474 -0.1068094032
710295740.0 -0.1009819083 0.838240148 0.0004564798 -0.000129599 0.0004055312 -7.24227e-05 0.0038162945 -0.1067772036
715295710.0 -0.0929521118 0.8391610606 0.0004264417 0.0001661812 0.0003546572 -5.53048e-05 0.0026771878 -0.106655096
720295680.0 -0.084386607 0.8393476116 0.0004352256 4.6448e-06 0.0004741908 0.0001055906 0.0013708483 -0.1068087016
725295650.0 -0.0750761095 0.8406220826 0.0003415646 -8.86714e-05 0.0003253506 9.67144e-05 -0.0001798407 -0.1064134646
730295620.0 -0.0675104036 0.8414586651 0.0005108544 -8.49874e-05 0.0003467997 -0.0002705768 -0.0017915844 -0.1065049044
735295590.0 -0.0583388702 0.8411984801 0.0005659922 -0.0001095335 0.0003533116 4.92813e-05 -0.0030303599 -0.1060111838
740295560.0 -0.0502559027 0.8425500822 0.0003003412 -0.0002062574 0.0003673161 1.69132e-05 -0.0043706177 -0.1060974049
745295530.0 -0.0415258161 0.8426446934 0.0002877521 -0.0003003156 0.00043423 6.70571e-05 -0.0061509489 -0.1054100735
750295500.0 -0.0337918108 0.8428669527 0.000496383 -9.74426e-05 0.0002673763 -1.25663e-05 -0.0074599647 -0.1052141232
755295470.0 -0.02507211 0.8430224091 0.000653642 -0.0002060938 0.0004237833 -0.0002216245 -0.0089659964 -0.1047109433
760295440.0 -0.0160488923 0.8435050113 0.000278105 7.02935e-05 0.0004167357 -2.24201e-05 -0.0101947285 -0.1044507295
765295410.0 -0.0076717986 0.8433667493 0.0004281602 0.0001519385 0.0003546154 -0.0001040158 -0.0113388733 -0.1038877348
770295380.0 0.0005182559 0.8440380632 0.0003627619 -5.47449e-05 0.0003971466 -0.0003166926 -0.012697146 -0.103986991
775295350.0 0.0090043285 0.8445465921 0.0005137748 -0.0001516035 0.0007417377 -8.543e-06 -0.0144652259 -0.103714793
780295320.0 0.0177682471 0.8433214862 0.0005243888 0.0001579204 0.0001863597 -0.0001748362 -0.015469996 -0.1026505717
785295290.0 0.0260363782 0.8439316605 0.0002840331 -0.0001994653 0.0003728919 -0.0002641629 -0.0172069328 -0.1021909159
790295260.0 0.0340074677 0.8431435557 0.0006361408 -0.0002110769 0.0005678008 -0.0001782839 -0.0183981062 -0.1019880472
795295230.0 0.0422493134 0.8437175894 0.0005478088 -0.0001421725 0.0002591738 -0.0002168379 -0.0194477982 -0.1016308299
800295200.0 0.0516130925 0.8423170956 0.0005563042 -8.99946e-05 0.0005087004 -0.0002492749 -0.021214537 -0.1014650019
805295170.0 0.05972444 0.8420961234 0.000267985 -9.5611e-05 0.0004486471 -0.0001751987 -0.0228186157 -0.1008407574
810295140.0 0.0681264606 0.8409664494 0.0003044477 4.65934e-05 0.0004418638 -0.000114737 -0.0237279841 -0.0996985604
815295110.0 0.076496975 0.8404493614 0.0003259356 -9.79563e-05 0.0004076767 3.43854e-05 -0.0249914676 -0.0991421392
820295080.0 0.0853033692 0.8387635386 0.0004585334 -0.0002064248 0.0004574838 4.6249e-06 -0.0266680289 -0.0988726317
825295050.0 0.0941148848 0.838288581 0.0002699537 3.2082e-05 0.0003798873 -0.0001006159 -0.0275683461 -0.0982401615
830295020.0 0.1018272378 0.8375160817 0.0005979348 -4.99457e-05 0.0005338918 -0.0002426654 -0.0292288924 -0.0978290974
835294990.0 0.109767359 0.8371153045 0.0005161479 -3.44731e-05 0.0004929113 -0.0001562917 -0.0302852966 -0.0975357066
840294960.0 0.1188193109 0.8350358971 0.0003713312 -0.0003630596 0.000493837 -0.0004448304 -0.0315995765 -0.0959627971
845294930.0 0.1269148072 0.8344853504 0.0002593807 -0.0002517533 0.0003499346 -0.0002153607 -0.0326890055 -0.0957610266
850294900.0 0.1354607303 0.8328197796 0.0005009261 2.74691e-05 0.0004384365 -0.0001550142 -0.0341369981 -0.095045711
