!Created with skrf (http://scikit-rf.org).
# Hz S RI R 50.0 
!freq ReS11 ImS11 ReS21 ImS21 ReS12 ImS12 ReS22 ImS22
300000.0 -0.2353823369 -0.1255643576 0.4642392099 0.0823220492 0.464154076 0.0839926151 -0.2301940858 -0.1317278743
5299970.0 -0.2449089892 0.0050854933 0.4734248791 0.0061066861 0.4741888868 0.0060180446 -0.2433194005 0.0048595433
10299940.0 -0.2418119196 0.0184823021 0.4759096258 0.0068337019 0.4760744074 0.0072431755 -0.2399478425 0.0179249239
15299910.0 -0.2367165098 0.0282186666 0.4791905742 0.0082925661 0.4797979895 0.0083544945 -0.2362074129 0.02756298
20299880.0 -0.231552515 0.0362558345 0.4841039077 0.0081879975 0.4844224089 0.0087630788 -0.2309257582 0.0353946916
25299850.0 -0.2255107065 0.0428326451 0.4895447777 0.0080750443 0.4897385336 0.0076553269 -0.2260463909 0.0418599338
30299820.0 -0.2202560417 0.0477660871 0.4950831914 0.0057559837 0.4952409466 0.0053568547 -0.2205497346 0.0467174035
35299790.0 -0.2141014173 0.0517321057 0.4996087313 0.0026132301 0.5005958235 0.0022738934 -0.2156854724 0.0513193807
40299760.0 -0.2092867582 0.054610171 0.5054005037 -0.0018250635 0.5058824942 -0.0017151138 -0.2104085175 0.0548708983
45299730.0 -0.2041078374 0.0571910601 0.510054244 -0.0060486548 0.5106817257 -0.0065680516 -0.2053389713 0.0577921573
50299700.0 -0.1989847578 0.0589615518 0.5144656607 -0.0119026619 0.5144374458 -0.0120674006 -0.2011344733 0.0601110255
55299670.0 -0.1948673942 0.0603484675 0.5179034994 -0.0175535666 0.5181165675 -0.0178218676 -0.1972665254 0.0619395917
60299640.0 -0.1908117863 0.0618999747 0.5217099449 -0.0240224858 0.521759677 -0.0241619933 -0.1932909425 0.0633369361
65299610.0 -0.1870731405 0.0627155157 0.5250368154 -0.0300844742 0.5249804913 -0.0306171027 -0.1898647628 0.0647208884
70299580.0 -0.1837981967 0.063080123 0.5270687309 -0.0366977036 0.5272656277 -0.0369815099 -0.1870995607 0.0658230164
75299550.0 -0.1811233392 0.0637068528 0.5289218542 -0.0440219973 0.5293696918 -0.0439749209 -0.1839033309 0.0672496705
80299520.0 -0.1783016412 0.0644390956 0.5308896718 -0.0506420504 0.5313912468 -0.0510340522 -0.1814687834 0.067955421
85299490.0 -0.1756325391 0.0648397382 0.5325208636 -0.0577474302 0.5323527429 -0.0573068229 -0.1790105489 0.0685380128
90299460.0 -0.173546393 0.0654834887 0.5334579991 -0.0647910347 0.5334080859 -0.0645142791 -0.1764661859 0.0699461125
95299430.0 -0.1715246079 0.0656830099 0.5339757233 -0.0712202194 0.5345890781 -0.0717644101 -0.1747611754 0.0708566021
100299400.0 -0.1693847154 0.0662027344 0.5344378343 -0.0783292267 0.5345823757 -0.078597329 -0.1726610304 0.0719307774
105299370.0 -0.167492731 0.0664011925 0.5346320345 -0.0851318518 0.5351446147 -0.085233357 -0.1706785427 0.0720673267
110299340.0 -0.1657164574 0.0668846857 0.5350321317 -0.0917950191 0.5354917675 -0.0918349421 -0.1695797675 0.0731678829
115299310.0 -0.1643728969 0.0677977929 0.5352524607 -0.099166365 0.5352950269 -0.0987030527 -0.1682826685 0.0744083032
120299280.0 -0.1634587234 0.0682566121 0.5354782233 -0.1059150452 0.5347126426 -0.1061682465 -0.1666485863 0.0749006382
125299250.0 -0.1617986443 0.0685906893 0.5346348819 -0.1124103035 0.5344236983 -0.1122782033 -0.1651175324 0.0761036443
130299220.0 -0.1607019784 0.0693315588 0.5340381961 -0.1191800704 0.5339685519 -0.1197329418 -0.1636587749 0.0771503577
135299190.0 -0.1596978866 0.0702127377 0.5337759549 -0.12576518 0.5337014015 -0.1261836261 -0.1626078511 0.0776264252
140299160.0 -0.1585150281 0.0710093294 0.5327591933 -0.1330636854 0.5328055549 -0.1323968518 -0.1621398531 0.0788000082
145299130.0 -0.1579043149 0.0718646752 0.5316985851 -0.1392721014 0.5316269309 -0.1393184847 -0.1606447497 0.0798468311
150299100.0 -0.1565895368 0.0724019109 0.5304692532 -0.145957342 0.530521058 -0.1458403314 -0.1596651705 0.0814535637
155299070.0 -0.1554914962 0.0733316947 0.5290047545 -0.15212363 0.5296397789 -0.1524166881 -0.1586725306 0.0824096071
160299040.0 -0.1549219695 0.0745838933 0.5278869921 -0.1588250714 0.5281922691 -0.1589509614 -0.1580115997 0.083600107
165299010.0 -0.1539813235 0.0752927385 0.5267212216 -0.1645637123 0.5267311297 -0.1654060355 -0.1566851736 0.0844617088
170298980.0 -0.1530600102 0.0761832772 0.5247677534 -0.1712683199 0.5249353644 -0.1715422437 -0.1559472747 0.0856664996
175298950.0 -0.1521570983 0.0773100495 0.5236853839 -0.1778652792 0.5236783849 -0.1782579834 -0.1547686147 0.0873808927
180298920.0 -0.1514718027 0.0785680009 0.5214013065 -0.1846445721 0.5218885354 -0.1845478904 -0.1537557083 0.0886476555
185298890.0 -0.1509361677 0.079287217 0.5203071896 -0.1903326121 0.5199004023 -0.1904895972 -0.1527913131 0.0897197166
190298860.0 -0.149743094 0.0809583893 0.5169718061 -0.1963884286 0.5181444238 -0.1965600574 -0.1519423973 0.0913815234
195298830.0 -0.1492049323 0.0819289481 0.5162124577 -0.2026296665 0.5160901093 -0.2026101196 -0.1511549814 0.0926099003
200298800.0 -0.1480581294 0.0825499233 0.5138837603 -0.2091247489 0.5138049373 -0.2089825626 -0.1499732619 0.0935601966
205298770.0 -0.1480717862 0.0839813503 0.5114820488 -0.2146422344 0.5120731836 -0.2144732177 -0.1491150528 0.0951319948
210298740.0 -0.1469394914 0.0854560371 0.5097135732 -0.2206063475 0.5093073801 -0.2208553715 -0.1485508608 0.0965520271
215298710.0 -0.1462310072 0.0866698421 0.5069277619 -0.2263869751 0.50657251 -0.2270580897 -0.1472028182 0.0978912756
220298680.0 -0.1451730497 0.0879270255 0.5044593719 -0.2326244282 0.5043958166 -0.2330137165 -0.1460505245 0.0991691925
225298650.0 -0.1445793603 0.0892158235 0.5014418021 -0.2382522004 0.5020197687 -0.2383250304 -0.1452327416 0.1005175605
230298620.0 -0.1437029898 0.090317055 0.499639646 -0.2440608072 0.5000920079 -0.2444120164 -0.1444830798 0.1019527001
235298590.0 -0.1435334949 0.0916495767 0.4975341541 -0.2502689329 0.4971335602 -0.2501419807 -0.1433229999 0.1034866028
240298560.0 -0.1423552658 0.0932264297 0.4942105339 -0.2557756784 0.4944004778 -0.2558461625 -0.1422023316 0.1048150547
245298530.0 -0.141713347 0.0941772186 0.4917970077 -0.2616922924 0.4917180019 -0.261378049 -0.1412430303 0.1060848128
250298500.0 -0.1410586627 0.0954008309 0.4890201173 -0.2668054129 0.4886879822 -0.2666638238 -0.1404405638 0.10785369
255298470.0 -0.139981295 0.0970668874 0.4861360231 -0.2723706121 0.4864483925 -0.2726665036 -0.1391895152 0.1095879341
260298440.0 -0.1391283213 0.0980140807 0.4831459476 -0.2777205915 0.4829469455 -0.2780725877 -0.1382954309 0.1104857735
265298410.0 -0.1385503211 0.0995121235 0.4800982877 -0.2839138041 0.4796521232 -0.2840200205 -0.1363648697 0.1118034002
270298380.0 -0.1378020705 0.1007624525 0.4769808672 -0.2890969607 0.4768840516 -0.2892026328 -0.1355882927 0.1137619324
275298350.0 -0.1366896907 0.1023924871 0.4735085707 -0.2940953912 0.4733777406 -0.2944914935 -0.1346683626 0.1150911602
280298320.0 -0.136212068 0.1035238464 0.4705748173 -0.299185367 0.4708751497 -0.2999373466 -0.133445423 0.1165624519
285298290.0 -0.1352761183 0.1049753986 0.4671235413 -0.3050533041 0.4674650186 -0.3047871556 -0.1323990218 0.1180447626
290298260.0 -0.1341280401 0.106708577 0.4643245089 -0.3103285145 0.4641294732 -0.3107503566 -0.1311220009 0.1197361402
295298230.0 -0.133355653 0.1075073664 0.4606261652 -0.3159746835 0.4606469595 -0.3160459122 -0.1298124241 0.1207501517
300298200.0 -0.1324264481 0.1091691504 0.4571282156 -0.3209955995 0.4570747572 -0.3209403598 -0.1286819315 0.1222402666
305298170.0 -0.1314512915 0.1099539212 0.4537323553 -0.3262020894 0.4543423977 -0.3266781412 -0.1272240128 0.1234332963
310298140.0 -0.1301945901 0.1109080546 0.4503071779 -0.3313511017 0.4506374472 -0.331331244 -0.1258699971 0.1244657522
315298110.0 -0.1296262875 0.1122353813 0.4471581097 -0.3369221157 0.44673034 -0.3370765305 -0.1243756275 0.1259241455
320298080.0 -0.1285702564 0.1137987182 0.4425241922 -0.3420387356 0.4430155716 -0.3418486251 -0.1234403534 0.1273796462
325298050.0 -0.1279885353 0.1145254938 0.4388336534 -0.347030862 0.4392160283 -0.3469285628 -0.1217150073 0.1286371387
330298020.0 -0.1275789386 0.1159397388 0.434935194 -0.3521892334 0.4356313781 -0.3518582776 -0.121036929 0.1297729884
335297990.0 -0.1267368621 0.1173308756 0.4311063259 -0.3563867622 0.4315222997 -0.356704299 -0.1200574067 0.1314711968
340297960.0 -0.1257673028 0.11862996 0.4268699909 -0.3615600025 0.4268724134 -0.3616852394 -0.1187846536 0.1329118911
345297930.0 -0.1250557013 0.1198330678 0.4228000893 -0.3664544547 0.4228533172 -0.3665621128 -0.1173073098 0.1341639572
350297900.0 -0.1242018395 0.1210489793 0.4191469049 -0.3701361253 0.4191944586 -0.3708458503 -0.1157959269 0.1353924385
355297870.0 -0.1231081976 0.122606546 0.4148603055 -0.3751730155 0.4149309095 -0.3753353557 -0.1143757162 0.1369666022
360297840.0 -0.1221353377 0.1239603037 0.4104378396 -0.3800625944 0.4105964616 -0.3802243832 -0.1131577853 0.1382156732
365297810.0 -0.1211711532 0.1252168484 0.4064947705 -0.3843622265 0.4066303531 -0.3844366238 -0.1121019669 0.1398536618
370297780.0 -0.1200447283 0.1264462226 0.4018293882 -0.3886761823 0.4022478111 -0.3886991391 -0.1105889622 0.1407889408
375297750.0 -0.1192583034 0.1279889876 0.3981701341 -0.3932750162 0.3984085118 -0.3934766035 -0.1090252576 0.142350318
380297720.0 -0.1182264828 0.1291232666 0.3939380736 -0.3980339723 0.3932631522 -0.3977197649 -0.1072846099 0.1437702845
385297690.0 -0.1170208302 0.130408036 0.3892331642 -0.4019344393 0.3893715121 -0.4022346097 -0.105910859 0.1450946949
390297660.0 -0.1156741983 0.131299093 0.3847565456 -0.4055302785 0.3847444274 -0.4061516464 -0.1040542252 0.146142632
395297630.0 -0.1145109496 0.1327443069 0.3805340448 -0.4095013739 0.3803011154 -0.4098212232 -0.1028444387 0.1475317025
400297600.0 -0.1136603523 0.133825177 0.3756701823 -0.4142988712 0.3762139671 -0.4145997781 -0.101101639 0.1491366887
405297570.0 -0.1126762489 0.1348270297 0.3717754229 -0.4183752377 0.3713975114 -0.418667382 -0.0994327499 0.1504003332
410297540.0 -0.1110995751 0.1365689714 0.3666323707 -0.4228835867 0.3670270449 -0.4227303468 -0.0979599297 0.1517276298
415297510.0 -0.109995799 0.1376246964 0.3616355691 -0.4267880169 0.362347503 -0.4268890071 -0.0960029347 0.1527383975
420297480.0 -0.1088178376 0.1383458567 0.3571805117 -0.430680509 0.3574894208 -0.4310847124 -0.094219414 0.154300652
425297450.0 -0.1072303525 0.1397599076 0.3529004714 -0.434400169 0.3525307211 -0.4346920714 -0.0926837583 0.1551415489
430297420.0 -0.1061790301 0.140772662 0.3481245637 -0.4385898336 0.3483921469 -0.4381705895 -0.0909744363 0.1563523759
435297390.0 -0.1046626929 0.1417169621 0.3427299965 -0.4425520995 0.3433177028 -0.442252134 -0.0896670014 0.1580326514
440297360.0 -0.1032330124 0.1426574858 0.3379122112 -0.4458488056 0.3380271662 -0.4460108094 -0.087728612 0.158739722
445297330.0 -0.1018972916 0.1435971883 0.3333290729 -0.4491623922 0.3335375225 -0.4497921265 -0.0857753793 0.1601127278
450297300.0 -0.1006997685 0.1447020216 0.3281791936 -0.4529075335 0.3288703703 -0.4530685919 -0.0841034429 0.1607557177
455297270.0 -0.0995151532 0.1458749014 0.3235145282 -0.4567826495 0.3237312107 -0.4569845391 -0.0824177734 0.1622208017
460297240.0 -0.0978520096 0.147046557 0.318424208 -0.4607843045 0.3186886146 -0.4602031796 -0.0808030278 0.1629483228
465297210.0 -0.0962575637 0.147811823 0.3132982665 -0.4637227152 0.3130022462 -0.4638347569 -0.0785135151 0.1644975938
470297180.0 -0.0950431152 0.14896015 0.3080193026 -0.4668027606 0.3084693323 -0.4673817565 -0.0764241026 0.1653120362
475297150.0 -0.0938472719 0.1501949626 0.3028429624 -0.4704397703 0.3033382784 -0.4702396912 -0.0748737855 0.1662642881
480297120.0 -0.0918546265 0.1512937334 0.2979041909 -0.4738823341 0.2978525779 -0.4734793633 -0.0730391445 0.167307657
485297090.0 -0.090583309 0.1518523131 0.2927120555 -0.4771490652 0.2929107643 -0.4770329022 -0.0715669534 0.1684164219
490297060.0 -0.0885228419 0.1533072259 0.2870759156 -0.4801594525 0.2874108807 -0.4804118631 -0.0693689782 0.168956873
495297030.0 -0.0875543602 0.1536396624 0.2824903961 -0.483210146 0.2824600485 -0.4832919239 -0.0674032236 0.1697939374
500297000.0 -0.0862438008 0.1548500698 0.2772661342 -0.4862226392 0.2769726273 -0.4866230123 -0.0654491261 0.1711003568
505296970.0 -0.0839530796 0.1558143156 0.2717405122 -0.4893321803 0.2716373552 -0.4888121493 -0.0636494306 0.1713063226
510296940.0 -0.0828186823 0.1567727848 0.2664294649 -0.4928264936 0.2667596501 -0.4926588328 -0.061495101 0.172596156
515296910.0 -0.0813651259 0.1578741753 0.2607767732 -0.4949252693 0.2605111249 -0.4949614303 -0.0597256997 0.173033394
520296880.0 -0.0796153391 0.1588364546 0.2554072119 -0.497512506 0.2554477245 -0.4974970499 -0.0574962638 0.1743287211
525296850.0 -0.0781297284 0.1593335915 0.2500498724 -0.5004785463 0.2497916928 -0.5005347694 -0.0554571935 0.1748829238
530296820.0 -0.0768078154 0.1604381945 0.2445622926 -0.5032782515 0.2443008552 -0.502683879 -0.0535855245 0.1754046727
535296790.0 -0.0742456585 0.161206752 0.2388165064 -0.5054802118 0.2388669437 -0.5061353764 -0.051161095 0.1766600835
540296760.0 -0.073107514 0.1624110552 0.2332983835 -0.508334849 0.2333121729 -0.5081132262 -0.0497335983 0.1766457349
545296730.0 -0.0716881498 0.1634379117 0.2279576956 -0.5109739876 0.2277733244 -0.5106849656 -0.0477750021 0.1775504342
550296700.0 -0.0694562111 0.1639378814 0.2221538043 -0.51314911 0.2223608043 -0.5133157281 -0.0456439518 0.178441879
555296670.0 -0.068040312 0.1647939193 0.2167771584 -0.5158742656 0.2166168636 -0.5157348183 -0.0435485043 0.1784923663
560296640.0 -0.0658681183 0.1657005531 0.2108109593 -0.5179368796 0.2113662944 -0.5177798076 -0.0417285587 0.1794886473
565296610.0 -0.0647323145 0.1663322657 0.2060554101 -0.5201568389 0.2056454008 -0.5199297165 -0.0394833669 0.1804994424
570296580.0 -0.0627732005 0.1674010729 0.1996596206 -0.521927616 0.1994773124 -0.5222868826 -0.0374461287 0.1806519638
575296550.0 -0.0610904993 0.1681231225 0.1945368021 -0.5240912845 0.1940235833 -0.5242707223 -0.0357086458 0.180943029
580296520.0 -0.0592905351 0.1691049408 0.1885112465 -0.5264258772 0.1882717493 -0.5268418359 -0.0336958093 0.1816285533
585296490.0 -0.0574857682 0.1696990944 0.1828203432 -0.5281346937 0.1823856544 -0.5285954986 -0.0312441931 0.1821921005
590296460.0 -0.0553088677 0.1704310143 0.1769478959 -0.5303408806 0.1766463163 -0.5306590852 -0.0297621404 0.1829399212
595296430.0 -0.0536321658 0.1709745375 0.1705365074 -0.5320772542 0.1708756857 -0.5322683496 -0.0276351888 0.1828121421
600296400.0 -0.0524224325 0.1719800888 0.1649740374 -0.5339577667 0.1648278541 -0.5340100636 -0.0254623582 0.1832433984
605296370.0 -0.0507156235 0.1727238296 0.1598613807 -0.5354751948 0.1591851782 -0.5357612243 -0.0234768095 0.184071254
610296340.0 -0.0484664277 0.1738014308 0.1535553277 -0.5370152536 0.1537093686 -0.5372365121 -0.0214608602 0.1842597164
615296310.0 -0.0468988236 0.1743636647 0.1477963175 -0.5391399957 0.1470064266 -0.5391815454 -0.0188634744 0.1848773387
620296280.0 -0.0453824299 0.1751981919 0.1418667129 -0.5405144935 0.1417165902 -0.5404530734 -0.0175557016 0.185391373
625296250.0 -0.0436325963 0.1754532706 0.1361341501 -0.5418513492 0.1361124092 -0.5421647472 -0.0152886988 0.1853780655
630296220.0 -0.041696459 0.1763018895 0.1296353869 -0.54341401 0.1297924632 -0.5429750855 -0.0131475324 0.1856142952
635296190.0 -0.0402644123 0.1773269683 0.124651112 -0.5443923818 0.1239462144 -0.5445031155 -0.0109387542 0.1858974837
640296160.0 -0.0383082868 0.1777681852 0.1182025486 -0.5462279462 0.118295746 -0.5458915509 -0.0092915706 0.1860975927
645296130.0 -0.0362387077 0.1788596803 0.1124956118 -0.5474530039 0.112220863 -0.5470015735 -0.0070935904 0.1861730477
650296100.0 -0.0344202595 0.1790930842 0.1066299362 -0.5485002743 0.1063830245 -0.5486950813 -0.0044820668 0.1867390039
655296070.0 -0.032794561 0.1798479896 0.100095348 -0.5495659112 0.1005329036 -0.5493222233 -0.0030235487 0.1868691866
660296040.0 -0.0314273155 0.1804085534 0.0947577752 -0.5503678191 0.0942418665 -0.5504697412 -0.0006784497 0.1865426726
665296010.0 -0.0290904028 0.1810536793 0.0881435875 -0.5512349857 0.0883501668 -0.5514303305 0.0011396415 0.1871286718
670295980.0 -0.0275613604 0.1815121302 0.0823166553 -0.5525107201 0.0822537219 -0.5517353694 0.0032713436 0.1869874154
675295950.0 -0.0255570305 0.181810527 0.0767387929 -0.5527523857 0.076651088 -0.5528849987 0.005333805 0.1873851537
680295920.0 -0.0241505479 0.1827284264 0.0706528881 -0.5533747201 0.0707542248 -0.5534902735 0.0078236205 0.1871698638
685295890.0 -0.0222578341 0.1832823849 0.0646085503 -0.5549531389 0.064478293 -0.5543917887 0.0096455682 0.1878324662
690295860.0 -0.0206879845 0.1836405594 0.0584831425 -0.5550786282 0.0582228032 -0.5552161617 0.0115283984 0.1874207971
695295830.0 -0.0185743372 0.1840040132 0.0529547482 -0.5556835485 0.05252415 -0.5554317404 0.0137448364 0.1876265155
700295800.0 -0.016734046 0.1846185052 0.0471466233 -0.5565478238 0.046679159 -0.5562823706 0.0157525143 0.1876674091
705295770.0 -0.0154579287 0.1851605435 0.0406974818 -0.5571216086 0.0405420153 -0.5568456758 0.0176572031 0.1878320294
710295740.0 -0.0135355357 0.1851857019 0.0349173589 -0.5569187114 0.0343991989 -0.5572426431 0.0200344152 0.187698111
715295710.0 -0.0115509009 0.1858267461 0.0290221302 -0.5570932466 0.0286964775 -0.5574523882 0.0220187049 0.1870987821
720295680.0 -0.0095207091 0.1859616819 0.0226852017 -0.5575719503 0.0226118577 -0.5578872185 0.0239669641 0.1873033897
725295650.0 -0.0083679811 0.1867211417 0.0169479344 -0.5576417055 0.016589414 -0.5579648326 0.0259250624 0.1875770934
730295620.0 -0.007114753 0.1868368874 0.0108194831 -0.5578749137 0.0108101301 -0.5575985077 0.0279103948 0.1875709592
735295590.0 -0.0048018682 0.1873047457 0.0047084939 -0.5578250648 0.0046002157 -0.5583484483 0.0299794551 0.1871066886
740295560.0 -0.0034828794 0.1873204898 -0.0007385812 -0.5579845249 -0.0008861207 -0.5581580356 0.0319700916 0.1869676161
745295530.0 -0.0017395749 0.1880273907 -0.0071534808 -0.5575545778 -0.0067007792 -0.5580041855 0.0338273164 0.18669585
750295500.0 -9.42451e-05 0.1881740129 -0.0129328938 -0.5577357659 -0.0135711176 -0.5576309465 0.0360458901 0.1865041514
755295470.0 0.0015587791 0.1883889854 -0.018456579 -0.5578290634 -0.0190931814 -0.5582744395 0.037974281 0.1868963499
760295440.0 0.0035318529 0.1887512726 -0.025265091 -0.5571838629 -0.0251537021 -0.5569233396 0.0404142078 0.1853920996
765295410.0 0.0054294442 0.1883189117 -0.0311694481 -0.5564353351 -0.031121131 -0.5568800918 0.0423993682 0.1858095335
770295380.0 0.0070019976 0.189272164 -0.0369084363 -0.5562244404 -0.0371716755 -0.5570227534 0.0439710319 0.1852557326
775295350.0 0.0086538739 0.1891350334 -0.0427042343 -0.5561994785 -0.04284788 -0.5559756767 0.0464244917 0.1849233881
780295320.0 0.010432606 0.1894246965 -0.0487725386 -0.5553698121 -0.0488516782 -0.5554374002 0.0484199058 0.1845588014
785295290.0 0.0124170284 0.1893006269 -0.0551549961 -0.5547499352 -0.0547117 -0.5551347418 0.0501956621 0.1844445802
790295260.0 0.0142185219 0.189323999 -0.0605259665 -0.5543112369 -0.0605844249 -0.5547609394 0.0520645149 0.1844705676
795295230.0 0.0158255962 0.1893747714 -0.0670011179 -0.5538958727 -0.0666836872 -0.5538456082 0.053993965 0.1833560665
800295200.0 0.0171383793 0.189367852 -0.0720869321 -0.5521389123 -0.0726602828 -0.5530576969 0.0561076854 0.1831165892
805295170.0 0.0188935958 0.1896305475 -0.0785356657 -0.55221188 -0.0787822475 -0.5522653241 0.0586971387 0.1824815738
810295140.0 0.0210078493 0.1895330503 -0.0846027399 -0.5510275659 -0.0846773072 -0.5510338973 0.0604684779 0.1820164261
815295110.0 0.0224540003 0.1896927817 -0.0900377846 -0.5500496822 -0.0900868016 -0.5502830284 0.0622875868 0.1814652324
820295080.0 0.0242015939 0.1897701841 -0.0956949699 -0.5488576844 -0.0960190578 -0.5497549659 0.0636682382 0.1817497877
825295050.0 0.0259451777 0.1892279349 -0.1020399682 -0.5483855911 -0.1022241344 -0.5480176474 0.0665251382 0.1809377608
830295020.0 0.0275019956 0.1895715366 -0.1078549717 -0.5471414202 -0.1077975108 -0.5472736942 0.0681460044 0.1798551268
