!Created with skrf (http://scikit-rf.org).
# Hz S RI R 50.0 
!freq ReS11 ImS11 ReS21 ImS21 ReS12 ImS12 ReS22 ImS22
300000.0 -0.1015978975 -0.0630382608 0.6325414043 0.0583441276 0.6256000125 0.0593180756 -0.1033843755 -0.0688865755
5299970.0 -0.1024140981 0.0134582004 0.6303175599 0.0100536509 0.6308641146 0.0099990939 -0.1012002813 0.0132350711
10299940.0 -0.0973536106 0.0292796942 0.6340084674 0.0148710283 0.6341550121 0.0158092261 -0.0962527597 0.0304536142
15299910.0 -0.0901687111 0.0424344189 0.640548233 0.0205827563 0.64076372 0.020427484 -0.0891294192 0.0436004901
20299880.0 -0.0819340817 0.0530172565 0.648480444 0.0244483911 0.6487683812 0.0245859216 -0.0801352048 0.0544556789
25299850.0 -0.0723810035 0.0622800967 0.6576287495 0.025426522 0.6577180373 0.0252692601 -0.0700890979 0.0631558221
30299820.0 -0.0623863098 0.0688349041 0.6678349594 0.0244611743 0.6670799592 0.0249834654 -0.0602632301 0.0696522914
35299790.0 -0.0527280414 0.0737630502 0.6769477696 0.0213115938 0.677180392 0.0216691885 -0.0501494342 0.0746678022
40299760.0 -0.0433030541 0.0773329643 0.6862782624 0.0174721377 0.6866950491 0.0177564934 -0.0405169238 0.0770204931
45299730.0 -0.0342350876 0.0795602904 0.6953495521 0.011877625 0.6959857069 0.0120835792 -0.0312285897 0.0795814536
50299700.0 -0.025682124 0.0802793264 0.7036835102 0.0054331271 0.7033794461 0.0057184008 -0.0229265991 0.0801573535
55299670.0 -0.017740279 0.0804662285 0.7107143421 -0.0032189542 0.7106457556 -0.002409105 -0.0148630601 0.0805621065
60299640.0 -0.009842437 0.0800057286 0.717319103 -0.0113268553 0.7176559856 -0.0104211598 -0.0076457832 0.0792760564
65299610.0 -0.0035491257 0.0789063521 0.7233215666 -0.0198367934 0.723466373 -0.0194664927 -0.0010273946 0.0784241628
70299580.0 0.0027808221 0.0778251655 0.7288134728 -0.028983878 0.7288851406 -0.0286685181 0.0048199343 0.0765764335
75299550.0 0.0083841205 0.0759072367 0.7329043405 -0.0387339128 0.7331046809 -0.038757845 0.0104286681 0.0747657561
80299520.0 0.0131836676 0.07343078 0.7369452908 -0.0487327408 0.7376339338 -0.0484558302 0.0152373289 0.0727562516
85299490.0 0.0178983039 0.0714764089 0.7403442354 -0.0580227154 0.7406288487 -0.0578871524 0.0198257734 0.0700457816
90299460.0 0.0219434279 0.0689562129 0.7430211555 -0.0687338815 0.743539994 -0.0688020134 0.0240670636 0.0680634769
95299430.0 0.0259928616 0.0664084396 0.7457678971 -0.0788488919 0.7456507807 -0.0789541196 0.0277359754 0.0654930739
100299400.0 0.0291221204 0.0645510746 0.746888118 -0.0883792876 0.7473298722 -0.0890703944 0.0314599811 0.0629581547
105299370.0 0.032410729 0.06197544 0.7485009137 -0.099129432 0.74930458 -0.0990818241 0.0343359532 0.0610415868
110299340.0 0.0349297293 0.0595614682 0.7504704849 -0.1086024 0.7496629055 -0.1085772929 0.0363032962 0.0581899828
115299310.0 0.0375814353 0.0573547472 0.7514559543 -0.1190237087 0.7510657967 -0.1191246787 0.0391865022 0.0559230163
120299280.0 0.0395990974 0.0545827663 0.7513431992 -0.1291106707 0.7516650389 -0.1292093588 0.0411556685 0.053484395
125299250.0 0.0415873826 0.0523192218 0.7519837222 -0.1388230085 0.7523826601 -0.1389801183 0.0430936286 0.0505152454
130299220.0 0.0433234783 0.0502021279 0.7514559099 -0.1491920802 0.7513021406 -0.1493341031 0.0451928168 0.0486504093
135299190.0 0.0449159334 0.048504688 0.7516819343 -0.1587381556 0.7512160829 -0.1586502704 0.0465701709 0.0467447768
140299160.0 0.0465310584 0.0461876281 0.7509888033 -0.1686612041 0.750932009 -0.1685579428 0.0479972357 0.0448107847
145299130.0 0.0481356751 0.0438641365 0.7502120145 -0.1783737268 0.7496443814 -0.1781695391 0.0491578566 0.0424184732
150299100.0 0.0494503532 0.0423136913 0.7489950379 -0.1874688759 0.7492319584 -0.1875017992 0.0505209357 0.0404752527
155299070.0 0.0500876448 0.0399063701 0.7482181287 -0.197963346 0.7478830325 -0.1976437075 0.0515630067 0.0388109928
160299040.0 0.0517302435 0.0381095424 0.7466432694 -0.2071478614 0.7459322741 -0.2070189148 0.0517607817 0.0366357457
165299010.0 0.0523886392 0.0364238579 0.7449288523 -0.2168388815 0.7450371382 -0.2167151468 0.0530425302 0.0352977105
170298980.0 0.0532049135 0.0340748583 0.743571047 -0.226018161 0.7432764635 -0.2257442344 0.0535981991 0.0334839975
175298950.0 0.0533647633 0.0325841886 0.7416537919 -0.2349094925 0.7413473362 -0.2351627091 0.0544579918 0.0314463488
180298920.0 0.0540892742 0.0308555573 0.739549832 -0.2443275107 0.7389430092 -0.2441871587 0.0550963076 0.0298610352
185298890.0 0.055351547 0.0291099849 0.7373660271 -0.2532039894 0.7366386036 -0.2535574609 0.0555231144 0.0284325136
190298860.0 0.0553295289 0.0275953162 0.7339837691 -0.2623577616 0.734589248 -0.2623791679 0.0560536591 0.0261163351
195298830.0 0.0559496598 0.0255722068 0.7319124431 -0.2719381232 0.7321986733 -0.2711062712 0.0570386795 0.0250367372
200298800.0 0.0564078597 0.0243077468 0.7287372049 -0.2810193114 0.7295354931 -0.2808372955 0.0565540527 0.023569249
205298770.0 0.0568422501 0.0229747497 0.7261876914 -0.289569557 0.7266178585 -0.2894917978 0.0573538901 0.0213872279
210298740.0 0.0571328627 0.0208953068 0.7233393677 -0.2978853253 0.7230420889 -0.2972514046 0.0575989031 0.0208839355
215298710.0 0.0567717546 0.0200009661 0.7206368408 -0.3070302489 0.7205304605 -0.3070952081 0.0576144717 0.0194176338
220298680.0 0.0578508331 0.0179484696 0.7169224626 -0.3157591607 0.7171407745 -0.3155734209 0.057700663 0.0178985545
225298650.0 0.0578601066 0.0168619684 0.7140902659 -0.3245919629 0.7139788994 -0.3242723109 0.0574877949 0.0161977731
230298620.0 0.0580814551 0.0160035869 0.7116912279 -0.3326687727 0.7110272469 -0.3326826278 0.05772637 0.0146442806
235298590.0 0.0582425774 0.0146690315 0.7070651749 -0.341567466 0.7071009597 -0.3406326222 0.0580753281 0.0136064695
240298560.0 0.0581798784 0.0136998997 0.7040439605 -0.3497910475 0.7038247926 -0.3494995788 0.0582170391 0.0126775023
245298530.0 0.0580496555 0.01204247 0.7004713077 -0.3579038314 0.7000102289 -0.3579750565 0.0588008465 0.0108323287
250298500.0 0.0585876781 0.0109167163 0.6954170798 -0.3662327247 0.6951659668 -0.3653125952 0.0579899378 0.0102172717
255298470.0 0.0583135614 0.0092672076 0.6916758457 -0.3740199468 0.692904472 -0.3740942823 0.0586647427 0.0091182585
260298440.0 0.058044058 0.0080970749 0.6876422488 -0.3827987705 0.6880576064 -0.3818192882 0.0589020242 0.0079473805
265298410.0 0.0589413742 0.0076164977 0.6839063712 -0.3906974816 0.6843653467 -0.3899557558 0.0586899116 0.0069771508
270298380.0 0.0585646623 0.0059617046 0.6803455498 -0.3979785971 0.6800977098 -0.3983503611 0.0582969238 0.0058709801
275298350.0 0.0588670889 0.0050629959 0.6756720695 -0.406957478 0.6756924585 -0.4066767701 0.0583907265 0.0046124583
280298320.0 0.0588807927 0.0044886373 0.6714662454 -0.4145991382 0.6715436586 -0.4138235506 0.0591406809 0.0037156539
285298290.0 0.0586809257 0.0031329069 0.6670571497 -0.4221523965 0.6668027231 -0.4214782339 0.0589463651 0.0026635337
290298260.0 0.0590882183 0.0023045847 0.6623331234 -0.4294065157 0.6621232909 -0.4299991399 0.0591873409 0.0021072367
295298230.0 0.0588877819 0.0009886094 0.658238901 -0.4371360109 0.6581588962 -0.4374810288 0.0595417065 0.0008270472
300298200.0 0.0582744299 -0.0003523752 0.6535926653 -0.4451302407 0.6535399608 -0.445318857 0.0588052969 -0.0003592559
305298170.0 0.0587291254 -0.0013500935 0.6478078125 -0.4534610861 0.6482761003 -0.4526631891 0.0594449608 -0.0016144599
310298140.0 0.0583560931 -0.0021460167 0.6437823793 -0.4607340991 0.6438037807 -0.4603990272 0.0591911914 -0.0027897752
315298110.0 0.0582719962 -0.0038978918 0.6384714027 -0.4680402413 0.6382188387 -0.4685656769 0.0587883529 -0.0039748663
320298080.0 0.0581400876 -0.0044501176 0.6323645468 -0.4759160082 0.6332835 -0.4755517862 0.0585090434 -0.004898163
325298050.0 0.0575106139 -0.0058377587 0.6275000167 -0.4840261244 0.6277415066 -0.4832134457 0.0578123388 -0.0058568868
330298020.0 0.0573842531 -0.0070527742 0.6219203963 -0.490368557 0.6225675296 -0.4904649071 0.0571803256 -0.0070459002
335297990.0 0.057193648 -0.0080835273 0.6165398946 -0.4976184465 0.6159116104 -0.4975988196 0.0563007539 -0.0074704428
340297960.0 0.0560956986 -0.0084956464 0.6099582475 -0.5044078229 0.6105635824 -0.5046713612 0.0564340085 -0.008273745
345297930.0 0.0558606586 -0.0085959691 0.6044214955 -0.5114021087 0.6044066184 -0.5118369085 0.0560747803 -0.0096461067
350297900.0 0.0552241008 -0.0107270771 0.5979267938 -0.5191321387 0.598531933 -0.5180620342 0.0553876427 -0.0095150247
355297870.0 0.0548723979 -0.0100846872 0.5930735056 -0.5249416685 0.5930895325 -0.5244540654 0.0549632525 -0.0107258174
360297840.0 0.0548960015 -0.0110826372 0.587910749 -0.5314345269 0.5881324285 -0.5308413985 0.0547970209 -0.0110633545
365297810.0 0.0540100566 -0.0115832253 0.5814677534 -0.538079676 0.5819120228 -0.5379659978 0.0543425199 -0.0119049376
370297780.0 0.0544145799 -0.0129351475 0.5750490417 -0.5443717914 0.5756854048 -0.5438831502 0.0537047305 -0.012577438
375297750.0 0.0542169446 -0.0135425291 0.569389878 -0.5509425734 0.5700916144 -0.550853447 0.0542505559 -0.0128256463
380297720.0 0.0537332026 -0.0139397773 0.5630983878 -0.557182396 0.5635659704 -0.5562431694 0.0534343921 -0.0142124995
385297690.0 0.0531099604 -0.0150841973 0.5564985168 -0.563660486 0.5569108022 -0.5633547612 0.053303527 -0.0144864457
390297660.0 0.05295848 -0.0150602431 0.5510535964 -0.5699544431 0.5504718592 -0.5693334069 0.0528164494 -0.015443535
395297630.0 0.0524948956 -0.0158995169 0.5447433237 -0.5759219421 0.5448539908 -0.5758045733 0.0533856614 -0.0160032293
400297600.0 0.0519096297 -0.0166808459 0.5372957472 -0.58236269 0.5386470013 -0.5823487709 0.0527323036 -0.0165144407
405297570.0 0.0514602508 -0.0174432057 0.5315928318 -0.5877812672 0.5314462378 -0.5879329948 0.0518675337 -0.0169869288
410297540.0 0.0516710586 -0.0183197309 0.5253178518 -0.5936976769 0.5258397301 -0.5939947646 0.0518648297 -0.0173634088
415297510.0 0.0515266413 -0.0188552294 0.5185586694 -0.6000027185 0.5193092043 -0.6000572038 0.0513306325 -0.0180688306
420297480.0 0.0511720718 -0.019142069 0.511697338 -0.6055417963 0.5120229493 -0.6055255127 0.0507951902 -0.0190777133
425297450.0 0.0503631831 -0.0203225622 0.505171092 -0.6113587407 0.5060371502 -0.6107574591 0.0500608757 -0.0191920326
430297420.0 0.0498853009 -0.0209655975 0.4987676509 -0.6163611029 0.4985035302 -0.616247639 0.0499536066 -0.0201162223
435297390.0 0.0495881433 -0.021159697 0.491284939 -0.6223236407 0.4916583103 -0.6222621333 0.0505148689 -0.020381718
440297360.0 0.0493606413 -0.0215889991 0.4850121704 -0.6276979575 0.4850221974 -0.6277059053 0.0496292208 -0.0213985557
445297330.0 0.0487471403 -0.02257982 0.4785550181 -0.6326667939 0.4786109256 -0.6326020626 0.0497659044 -0.0220725196
450297300.0 0.0486056789 -0.0230571001 0.4709357458 -0.6385909021 0.4708243669 -0.6386240997 0.0486932989 -0.0225031495
455297270.0 0.0482539705 -0.0234732485 0.4640859017 -0.643815694 0.4642983322 -0.643826889 0.0484463983 -0.0227577669
460297240.0 0.0477042759 -0.0241198683 0.4562355363 -0.6485811347 0.4570235638 -0.6484927846 0.0480215858 -0.0232227448
465297210.0 0.0476032084 -0.0247717395 0.4504404257 -0.6536090676 0.4500344405 -0.6542191833 0.0477514972 -0.0243711945
470297180.0 0.046842887 -0.0253359122 0.4419722308 -0.6590701303 0.4427392488 -0.6585029463 0.0471627014 -0.0244555412
475297150.0 0.0468992191 -0.0260097686 0.4349492662 -0.6625373328 0.4353148736 -0.6629027879 0.0471610576 -0.0253906707
480297120.0 0.0462593041 -0.0258038541 0.4275108252 -0.6686804322 0.4282414698 -0.668727594 0.0470466826 -0.0253387169
485297090.0 0.0455816847 -0.0264573086 0.4206611455 -0.6728865401 0.4209078496 -0.6725274121 0.0464193574 -0.0262623108
490297060.0 0.0449683287 -0.027273309 0.4141150134 -0.6778940045 0.4135998746 -0.6770045459 0.0456751528 -0.0261281003
495297030.0 0.0447688634 -0.0276683066 0.4054213181 -0.6819936467 0.4066169664 -0.6818473623 0.0451303895 -0.0269839053
500297000.0 0.0441030888 -0.0286092157 0.3980070577 -0.6859462493 0.397633607 -0.6860601393 0.0446736117 -0.0268194437
505296970.0 0.0440750926 -0.0288038182 0.3905086962 -0.6906558216 0.3904775042 -0.6906734599 0.0444019225 -0.0279955275
510296940.0 0.0435150197 -0.0290827494 0.3832889822 -0.6952736691 0.3833219204 -0.6952603955 0.0443800221 -0.0281403102
515296910.0 0.0426733425 -0.0293400047 0.3752063465 -0.6992175111 0.3755258778 -0.698926508 0.0437111063 -0.02854158
520296880.0 0.0424745344 -0.0300785946 0.3679171868 -0.7036887951 0.3678687504 -0.7034051489 0.0429851626 -0.0295090881
525296850.0 0.042147883 -0.0311454608 0.3593235182 -0.7075730266 0.360327102 -0.7072601147 0.042194575 -0.0297239043
530296820.0 0.041613485 -0.0311934019 0.3525568606 -0.711275929 0.3520233764 -0.7113795129 0.04219733 -0.0301533119
535296790.0 0.0406461732 -0.031587139 0.344527636 -0.7146576766 0.3446299659 -0.71482964 0.0418161327 -0.0310964124
540296760.0 0.0404726582 -0.0316234404 0.3360741926 -0.7194607753 0.3360132354 -0.7189665083 0.0408421299 -0.0307773806
545296730.0 0.0400683998 -0.0325019336 0.3283413292 -0.7225976986 0.3289014766 -0.7224155867 0.0404525946 -0.0315758615
550296700.0 0.0399806585 -0.0325540791 0.3207341203 -0.7260086073 0.3212422923 -0.7264109977 0.03989067 -0.0320019999
555296670.0 0.0390245241 -0.0330679106 0.3130747795 -0.729494757 0.3132249576 -0.7292078462 0.0395695962 -0.03232529
560296640.0 0.0388225916 -0.0330483861 0.30460839 -0.7332412052 0.3045774853 -0.7330441585 0.0390146506 -0.0326613497
565296610.0 0.0375869502 -0.0338084304 0.2963162853 -0.7362020143 0.2969688877 -0.7365438537 0.0382047569 -0.0333590051
570296580.0 0.037272633 -0.0339591279 0.2889004046 -0.7401784265 0.2878846978 -0.7393435253 0.0378462187 -0.0329104358
575296550.0 0.0363885913 -0.0343462158 0.2807917344 -0.7428557953 0.2806340809 -0.7428244019 0.0378337073 -0.0339554521
580296520.0 0.0362386175 -0.0346902559 0.272301484 -0.7464371245 0.272688539 -0.7453774778 0.0371737129 -0.0342654251
585296490.0 0.0356921216 -0.0359726249 0.2643312761 -0.7484706948 0.2649014716 -0.7487324008 0.0366491195 -0.034559398
590296460.0 0.0355698971 -0.0353020584 0.2561248803 -0.7508101474 0.2561839545 -0.7513803135 0.0352236911 -0.0347953653
595296430.0 0.0350544765 -0.0358446351 0.2474586951 -0.7547067928 0.2477334038 -0.7543823072 0.0355458359 -0.0355215955
600296400.0 0.0340324348 -0.0364961914 0.2397798437 -0.756846807 0.2399619502 -0.7565392066 0.0349085428 -0.0356130383
605296370.0 0.0337188991 -0.0364687774 0.2310243133 -0.7593710123 0.2317254637 -0.7593041702 0.0340863208 -0.0356645941
610296340.0 0.0331207868 -0.0366179625 0.222263998 -0.7620012117 0.2232715299 -0.7619634385 0.0340433601 -0.0362147946
615296310.0 0.0328305185 -0.037612159 0.2147037461 -0.7639813278 0.2148186888 -0.764874228 0.0337306162 -0.0363509902
620296280.0 0.0322424023 -0.037730932 0.2065840997 -0.7663184365 0.2063199425 -0.7660016759 0.032456092 -0.0363087264
625296250.0 0.0310934395 -0.0382661954 0.198390856 -0.7687877701 0.197911305 -0.7691266393 0.0329072476 -0.0367662435
630296220.0 0.0318725772 -0.0379139696 0.1888221081 -0.7711835062 0.1890606529 -0.7706238963 0.0315472612 -0.0368494137
635296190.0 0.0297682174 -0.0388303911 0.1810097251 -0.7726339512 0.1812925737 -0.772726062 0.0314368488 -0.0371657575
640296160.0 0.0295096004 -0.0385992391 0.172628278 -0.7742430503 0.1730761626 -0.7747938626 0.030546373 -0.0374395362
645296130.0 0.0292818747 -0.038955337 0.1637874561 -0.7763219976 0.1645624214 -0.776250696 0.030283603 -0.0375660014
650296100.0 0.028944713 -0.0392400237 0.1554451159 -0.7790276777 0.1564184477 -0.7784906269 0.0304188229 -0.0384934229
655296070.0 0.027834759 -0.0394139006 0.1465946255 -0.779909694 0.1475188076 -0.7799989707 0.0292841085 -0.0381432655
660296040.0 0.0268342667 -0.0403803951 0.1390149426 -0.7821258613 0.1389106194 -0.7815964245 0.029005328 -0.0387832417
665296010.0 0.0272019736 -0.040090426 0.1297577908 -0.7828526079 0.1301606965 -0.7829730813 0.0283974484 -0.037948045
670295980.0 0.0251076167 -0.0399796966 0.1213847849 -0.7840182126 0.12169928 -0.7840910361 0.0270885402 -0.0389555869
675295950.0 0.0252522688 -0.0400242471 0.1130650539 -0.7852597701 0.1133189302 -0.7850713331 0.0263601789 -0.0389668553
680295920.0 0.0243745606 -0.0409215895 0.1041884082 -0.7867049144 0.1040785744 -0.7868127977 0.0262760646 -0.038410082
685295890.0 0.0239366228 -0.040228284 0.0955321493 -0.7878405813 0.0955096046 -0.7876517393 0.0252121303 -0.0390217582
690295860.0 0.0239140185 -0.0405877126 0.0869921427 -0.7881207091 0.0872092108 -0.7892712439 0.0246444699 -0.038543494
695295830.0 0.0232359621 -0.0410862686 0.0794712299 -0.7897666169 0.078715228 -0.7893226721 0.0240063637 -0.0389707246
700295800.0 0.0224838547 -0.0415102352 0.0703736284 -0.7905155982 0.0699454106 -0.7900575657 0.0233261432 -0.0386266473
705295770.0 0.0215657305 -0.0407259854 0.0611426763 -0.7909753597 0.0614834997 -0.7913870765 0.0230644129 -0.0393752843
710295740.0 0.0215120772 -0.0412251661 0.0528477647 -0.7924264479 0.0536139326 -0.7923958543 0.0224658991 -0.0401225687
715295710.0 0.0199019851 -0.0416931351 0.0448682438 -0.7921693234 0.0447015729 -0.7923251513 0.0221425841 -0.0400995881
720295680.0 0.0199168723 -0.0416557248 0.0356699886 -0.7929422228 0.0360752635 -0.7925635296 0.0215036378 -0.039259605
725295650.0 0.019466196 -0.0415745302 0.0268388657 -0.7928497202 0.0268607383 -0.7933990089 0.0204077467 -0.0394686505
730295620.0 0.0190844417 -0.041353834 0.0185855382 -0.7931964189 0.0185569379 -0.7935722172 0.0197228996 -0.040551235
735295590.0 0.0182896876 -0.0414909853 0.0104303847 -0.7935742374 0.009789739 -0.7933576792 0.0191753934 -0.0404166276
740295560.0 0.0172826699 -0.0417952834 0.0013505217 -0.7929468052 0.0012329291 -0.7937084372 0.0189550389 -0.0400186139
745295530.0 0.0166558417 -0.0415877041 -0.0076654056 -0.7926856547 -0.0074585521 -0.7936796159 0.018377721 -0.0408226219
750295500.0 0.0165212187 -0.0416941203 -0.0155237869 -0.7924530944 -0.0160532848 -0.7932769258 0.0176958097 -0.0406143992
755295470.0 0.0158383984 -0.0420396805 -0.0244375251 -0.7931258595 -0.0246462107 -0.7931558991 0.0179709746 -0.0411898846
760295440.0 0.0149613007 -0.0415974869 -0.0334463257 -0.7927021842 -0.0332153869 -0.7931864273 0.0168776334 -0.0406621816
765295410.0 0.0142023894 -0.0419262867 -0.0419836998 -0.792136902 -0.0419311021 -0.7926486017 0.0165590139 -0.0408811817
770295380.0 0.0134685204 -0.0421891557 -0.0506772714 -0.7917029016 -0.0506874669 -0.7914132646 0.0156787571 -0.0409095594
775295350.0 0.0128860275 -0.042606007 -0.0600722889 -0.7907351007 -0.0588988814 -0.7910654477 0.0142066217 -0.0403192118
780295320.0 0.0125863305 -0.0420805428 -0.0680488913 -0.7901482944 -0.0672989137 -0.7904800392 0.0139926658 -0.041333078
785295290.0 0.0117622384 -0.0426272429 -0.0767167984 -0.7890454194 -0.0759392362 -0.7893461969 0.0140675125 -0.0405143839
790295260.0 0.0117540322 -0.0416151665 -0.0842277672 -0.7885136815 -0.0835938803 -0.7887650837 0.0130207936 -0.040830037
795295230.0 0.0108289978 -0.0425429409 -0.0929389204 -0.7878155902 -0.0930246326 -0.7876747743 0.0131496854 -0.0398968519
800295200.0 0.009853898 -0.0416527185 -0.1027093624 -0.786127696 -0.1020589707 -0.786171796 0.0122245749 -0.0407395382
805295170.0 0.0093377124 -0.0420509276 -0.1107239748 -0.7851786121 -0.1102324729 -0.7857923679 0.0114793021 -0.0404529013
810295140.0 0.0085183583 -0.0425374992 -0.1192265989 -0.7837587023 -0.1187770328 -0.7841331515 0.011473085 -0.0399720444
815295110.0 0.008172892 -0.0428343504 -0.127700485 -0.7826430917 -0.127034102 -0.7821079631 0.0103472124 -0.0399709817
820295080.0 0.0070608773 -0.0414919619 -0.1364427055 -0.7810885951 -0.1351832396 -0.780852448 0.0094677966 -0.0400784632
825295050.0 0.0073859784 -0.0416789296 -0.1439064232 -0.7796334464 -0.1439525529 -0.7798750606 0.009306925 -0.0399813613
830295020.0 0.006610059 -0.0417028868 -0.152782547 -0.7777452834 -0.1527409048 -0.7777067462 0.0092659473 -0.0398831407
