!Created with skrf (http://scikit-rf.org).
# Hz S RI R 50.0 
!freq ReS11 ImS11 ReS21 ImS21 ReS12 ImS12 ReS22 ImS22
300000.0 -0.100714677 -0.0656020224 0.6316743401 0.0619293811 0.6251037493 0.0621705721 -0.1008308641 -0.073210612
5299970.0 -0.1020062766 0.0131908687 0.6303529687 0.0100180909 0.6305625571 0.0102404153 -0.1011559998 0.0133120432
10299940.0 -0.0973547204 0.029330304 0.6336894103 0.0148969462 0.6342357001 0.0155184247 -0.0962059238 0.030260416
15299910.0 -0.0901473231 0.042588515 0.6403589429 0.0203415574 0.6407013412 0.0207652303 -0.0888944612 0.0434959971
20299880.0 -0.0818547204 0.0531207563 0.6485050202 0.0244455057 0.6487302619 0.0242569886 -0.0801496693 0.0543513636
25299850.0 -0.0724584636 0.0622967304 0.657771773 0.0255675129 0.6579889045 0.0256303897 -0.0699848398 0.0633122522
30299820.0 -0.0620901872 0.0689113328 0.6674090832 0.0245670487 0.6674904147 0.0245870042 -0.0598177059 0.0700318559
35299790.0 -0.052509189 0.0737265715 0.6773513658 0.0212759032 0.6773157522 0.0215700422 -0.0499214679 0.0746065556
40299760.0 -0.0434418609 0.0771806708 0.6861341795 0.0175077283 0.6863297771 0.0176725647 -0.0403729818 0.0772616693
45299730.0 -0.0340706313 0.0793997056 0.6949464507 0.011612828 0.6956317987 0.0118976365 -0.0314685208 0.0795833505
50299700.0 -0.0257001244 0.0802348716 0.7034240691 0.0051146482 0.7035720018 0.0051793319 -0.0228010801 0.0804828356
55299670.0 -0.0176910247 0.0806685673 0.7108156063 -0.0030558933 0.7111085003 -0.0024259624 -0.0148239685 0.0807219984
60299640.0 -0.0099112232 0.0803171939 0.7175366674 -0.0114148179 0.717739131 -0.011042412 -0.0077212842 0.079446904
65299610.0 -0.0036841723 0.0788741612 0.7234401742 -0.0199792605 0.7236031155 -0.0200716416 -0.0009862463 0.078581363
70299580.0 0.0027393201 0.0776604781 0.7289628482 -0.0292140007 0.7284433205 -0.0289174828 0.0049102433 0.0766130837
75299550.0 0.0081269684 0.0759474795 0.7327427871 -0.0384364016 0.7328239683 -0.0386991904 0.0103866697 0.0748739625
80299520.0 0.0133388082 0.0734563039 0.7373300546 -0.0487755214 0.7373078151 -0.0488315801 0.0150784755 0.0726254646
85299490.0 0.0178454474 0.0713381121 0.7402222352 -0.058284343 0.7406017184 -0.0579786346 0.0196067204 0.0697801047
90299460.0 0.0217849737 0.0687620767 0.74284074 -0.0688245534 0.7436937547 -0.0689207409 0.0239902707 0.068173281
95299430.0 0.025968004 0.0662914776 0.7458752023 -0.079025128 0.7455218501 -0.078830351 0.0274786165 0.0653905324
100299400.0 0.0291296415 0.0646360165 0.7470305572 -0.0886011706 0.7472079576 -0.0888034282 0.0312664578 0.0626063686
105299370.0 0.0322830319 0.0617584088 0.7486549009 -0.099449142 0.7494388335 -0.0992611122 0.0343858734 0.0609183643
110299340.0 0.0350844683 0.0595954003 0.7498587265 -0.1090859209 0.7497648904 -0.1090192408 0.036381706 0.0578879563
115299310.0 0.0374007047 0.0573814714 0.7509240807 -0.1190759437 0.7506986333 -0.1193293311 0.0390432621 0.0557649511
120299280.0 0.0399778988 0.0543015805 0.7510240173 -0.1286576635 0.7518853087 -0.1294404566 0.041402075 0.0533081579
125299250.0 0.0420026315 0.05216413 0.7520524989 -0.1386350894 0.7520432131 -0.138456995 0.0430528028 0.0506462422
130299220.0 0.043381778 0.0501806874 0.7514272962 -0.1489485839 0.7517048893 -0.1492023361 0.0447147071 0.0486570205
135299190.0 0.0452855482 0.0482856849 0.7516865638 -0.1588794902 0.750903823 -0.1586990124 0.0466426293 0.0462744854
140299160.0 0.0465574903 0.0461630398 0.7505993678 -0.1686246328 0.7511193993 -0.1686869868 0.0478359369 0.0446124153
145299130.0 0.0481165656 0.0438304536 0.7500030226 -0.1789615952 0.749495055 -0.1780955876 0.0491211973 0.0424797895
150299100.0 0.0496671283 0.0421542137 0.7486831464 -0.1874485132 0.749147194 -0.1877148665 0.0505310355 0.0407031598
155299070.0 0.0502119567 0.0398457254 0.7479820265 -0.1981091544 0.7477356846 -0.1974210764 0.0515718879 0.0387361875
160299040.0 0.051824339 0.0381178685 0.7464105325 -0.2073026453 0.7460036019 -0.2075185963 0.0517221129 0.0364092557
165299010.0 0.0522243324 0.0364241877 0.7445752442 -0.2165268321 0.745152966 -0.2169357108 0.053403862 0.0351360649
170298980.0 0.0530833707 0.0339410357 0.743020791 -0.2263611983 0.7435762634 -0.2262761 0.0542898604 0.0331024283
175298950.0 0.0535718352 0.0324808268 0.7413199572 -0.2351504219 0.7412068098 -0.2350578149 0.0545207647 0.0315234347
180298920.0 0.0541342477 0.030611231 0.7390331968 -0.2448080157 0.7393600328 -0.244041545 0.0550916321 0.0299090369
185298890.0 0.055278547 0.0290014681 0.7364661802 -0.2535413643 0.736701681 -0.253104821 0.0552903408 0.0284485588
190298860.0 0.0553996281 0.0275997448 0.7343823227 -0.2628834571 0.7346079549 -0.2631135059 0.0563011198 0.0262649238
195298830.0 0.055886663 0.0255371005 0.7316146641 -0.2718331401 0.7324029981 -0.2713437358 0.0571260655 0.025180524
200298800.0 0.0565579041 0.024085481 0.7288450825 -0.2810302966 0.7292810776 -0.2810204136 0.0567996913 0.0234772387
205298770.0 0.0570449467 0.0231855395 0.726069104 -0.2902354792 0.7266695981 -0.2899496036 0.0572690024 0.0213917428
210298740.0 0.0571485418 0.0210571163 0.7232123677 -0.2979794179 0.7230940242 -0.2977015222 0.0579485182 0.0209485952
215298710.0 0.0569627076 0.0199882364 0.7203132874 -0.3067698225 0.7207825484 -0.3072766905 0.0575394818 0.0193956055
220298680.0 0.0575650228 0.017948186 0.7168832529 -0.3160409593 0.7170619589 -0.3158099482 0.0576522532 0.0179999094
225298650.0 0.0579638999 0.0168559307 0.7140911729 -0.3246626643 0.7141175927 -0.3243382069 0.0577108108 0.016090747
230298620.0 0.0580272877 0.0159358545 0.7103002535 -0.3324688557 0.7109285011 -0.3334740452 0.0576694836 0.0149516751
235298590.0 0.0579884032 0.0146021215 0.7069217264 -0.3416213744 0.7071746029 -0.3404286814 0.0580183821 0.0135272782
240298560.0 0.0582478142 0.0134049291 0.7035391687 -0.3497254123 0.7034052325 -0.3500654606 0.0578022593 0.0129438866
245298530.0 0.0581802257 0.0122087108 0.7005076137 -0.3583828909 0.6999045483 -0.3579413743 0.0587597147 0.0109595386
250298500.0 0.0583630679 0.0109819477 0.6951488612 -0.3665817127 0.6952466316 -0.3656475041 0.0584148573 0.0102287356
255298470.0 0.0585455255 0.009367958 0.6918888356 -0.3740586833 0.6921502247 -0.373954233 0.0584566594 0.0089132527
260298440.0 0.0581454534 0.0081251909 0.6881198474 -0.3828822968 0.6881952032 -0.3822078564 0.0589925666 0.0079427494
265298410.0 0.0589668891 0.0075577305 0.6841802187 -0.3906049396 0.6842351644 -0.3901037436 0.0586515583 0.0070457006
270298380.0 0.0585185395 0.0062143061 0.6803519666 -0.3982648378 0.6799514267 -0.397953408 0.058182207 0.0058657083
275298350.0 0.0589347594 0.0052554278 0.6759890666 -0.4063370121 0.6757756506 -0.4067382547 0.0586224627 0.0045312745
280298320.0 0.0587817939 0.004548417 0.6711632042 -0.4141155858 0.671228559 -0.4142033565 0.0588956468 0.0037754764
285298290.0 0.058645395 0.0031409354 0.666823465 -0.4219587844 0.6665721354 -0.4220935093 0.0586076839 0.0026926295
290298260.0 0.0589928873 0.0021265691 0.6622803512 -0.4290437858 0.6622798938 -0.4300565551 0.0587283732 0.0018227883
295298230.0 0.0590828354 0.00088111 0.6576941475 -0.4375075931 0.6575699203 -0.4371010591 0.0595246728 0.0005541241
300298200.0 0.0583504649 -0.0001664838 0.6533224218 -0.4445018454 0.653470959 -0.4455266938 0.0587772996 -0.0004360654
305298170.0 0.0586494778 -0.0015340121 0.647768759 -0.4534084275 0.6482653583 -0.4526918795 0.0594725223 -0.0017163059
310298140.0 0.0583993327 -0.0023136879 0.6437307244 -0.4605939317 0.6436632981 -0.4603989636 0.0590311698 -0.0026343263
315298110.0 0.0582347597 -0.0039342562 0.638226337 -0.4686621816 0.6382122379 -0.4684401464 0.0586386004 -0.004033988
320298080.0 0.0585656392 -0.0046528774 0.6324091975 -0.476432082 0.6331839979 -0.4759941187 0.0585904828 -0.0051327576
325298050.0 0.0575170866 -0.0058229468 0.6274268278 -0.4839376535 0.6275167475 -0.4830245499 0.0578715805 -0.0060777854
330298020.0 0.0575146753 -0.0070621376 0.6213090204 -0.490958024 0.6222155947 -0.4909183659 0.0572319631 -0.0074824293
335297990.0 0.0571060871 -0.0083443114 0.6159652717 -0.4977995299 0.6156718344 -0.4976490605 0.0562536931 -0.0076554138
340297960.0 0.0561160608 -0.0086504101 0.6100260421 -0.5051199062 0.6097530147 -0.5048036034 0.0564344069 -0.00841311
345297930.0 0.0558952031 -0.0090152713 0.6047283468 -0.5118284176 0.6045411097 -0.511436079 0.0561209785 -0.0094531568
350297900.0 0.0551433259 -0.010372644 0.5976517828 -0.5184321584 0.5986746424 -0.5181239559 0.055337843 -0.0095390074
355297870.0 0.0548956985 -0.0103345575 0.592805516 -0.5246960928 0.5930729664 -0.5250293284 0.0552120031 -0.0105328902
360297840.0 0.0546069042 -0.0112284332 0.5875967324 -0.5313603256 0.5879205343 -0.5313906061 0.0548150022 -0.0112359333
365297810.0 0.0541852341 -0.0117138991 0.5813993527 -0.5384962127 0.5814921346 -0.5381607448 0.0547216057 -0.0118143154
370297780.0 0.05445543 -0.0130693399 0.5749116096 -0.5443234797 0.5755533034 -0.5441825092 0.0540314949 -0.0123663245
375297750.0 0.0539486855 -0.0136297064 0.5688436501 -0.5508852129 0.5699967908 -0.5509047334 0.0542766014 -0.013004356
380297720.0 0.0535993074 -0.0140784978 0.562626519 -0.5579075778 0.5631231621 -0.5564615472 0.0532216962 -0.014161386
385297690.0 0.0530867682 -0.015285362 0.5564884158 -0.5635922949 0.5564854865 -0.5633319299 0.0534790901 -0.0145310629
390297660.0 0.0530164448 -0.0153419609 0.5507344203 -0.5701690364 0.5505957455 -0.5695686405 0.0527665711 -0.0155106854
395297630.0 0.0524918393 -0.0158889596 0.5440864486 -0.5761188182 0.5444362279 -0.5765526892 0.0533086284 -0.0159432652
400297600.0 0.0519093793 -0.0167874355 0.5372437518 -0.5828118973 0.5383193734 -0.5819827966 0.0523856769 -0.0165112968
405297570.0 0.0512789052 -0.0177359705 0.5314071668 -0.5876198655 0.5313828418 -0.5873082994 0.0518778989 -0.0170098746
410297540.0 0.0514721372 -0.0180519317 0.5250206711 -0.5943433502 0.5258895044 -0.5939541304 0.0514700668 -0.0173350673
415297510.0 0.0514157801 -0.0187301096 0.5179135089 -0.600058307 0.5189819893 -0.5997149814 0.0513609856 -0.0179546545
420297480.0 0.0508878714 -0.0192273005 0.5116308612 -0.6055355281 0.511840589 -0.605774555 0.050892637 -0.0192298439
425297450.0 0.0502729175 -0.0207132949 0.505142557 -0.6110857175 0.5054918521 -0.61097197 0.0496658893 -0.0190716817
430297420.0 0.0497093306 -0.021211679 0.4986580642 -0.615799548 0.4985633995 -0.6162542463 0.049808472 -0.020198517
435297390.0 0.0496326916 -0.0213630972 0.4915673109 -0.6219366733 0.49123051 -0.6221580497 0.0503544844 -0.0205754077
440297360.0 0.0493388042 -0.0215189911 0.484676241 -0.6278497247 0.484995796 -0.6278506354 0.0495046016 -0.0216615689
445297330.0 0.0487405566 -0.0229061635 0.4779914523 -0.6331991883 0.4782058373 -0.6324268064 0.0491730698 -0.0220200329
450297300.0 0.0487428774 -0.0228821037 0.4707746231 -0.6379511109 0.4709656476 -0.6384697788 0.0486659845 -0.0226039374
455297270.0 0.0482323928 -0.0237775748 0.4636949359 -0.643687084 0.4642066336 -0.6435513738 0.0483412333 -0.0231058486
460297240.0 0.0475459902 -0.0242012435 0.4567762659 -0.6484988512 0.4571296339 -0.6489112913 0.047890655 -0.0235474532
465297210.0 0.0475550843 -0.025002505 0.4496678064 -0.6537603279 0.4497575522 -0.6542648775 0.0477569963 -0.024318275
470297180.0 0.047055261 -0.0255025401 0.4420305016 -0.65873132 0.442309368 -0.6585449702 0.047055671 -0.024528936
475297150.0 0.0468259809 -0.0262806983 0.4346691483 -0.6628568452 0.4352030593 -0.6627360856 0.047348528 -0.02532438
480297120.0 0.0460526317 -0.0258639152 0.4278166623 -0.6682697049 0.4276164725 -0.6685502724 0.0470130745 -0.025688585
485297090.0 0.0457397822 -0.026656687 0.4207515076 -0.6724801044 0.4206528142 -0.6728320119 0.0461715973 -0.0267101902
490297060.0 0.0448542029 -0.0274524842 0.4135547918 -0.6782404116 0.413065465 -0.6770590159 0.0457281005 -0.0264462048
495297030.0 0.044412 -0.0278141997 0.4051293811 -0.6819836063 0.4062154801 -0.6819799645 0.0453130716 -0.0272839631
500297000.0 0.0441586577 -0.0284748612 0.3978865931 -0.6862477435 0.3972365174 -0.6857995595 0.0446793595 -0.0270550948
505296970.0 0.0440951812 -0.0292424278 0.3907170786 -0.6906555247 0.3904725022 -0.6908219021 0.0442059457 -0.0276929522
510296940.0 0.0433588889 -0.0290681693 0.3825866578 -0.6949107468 0.3826250126 -0.6951370837 0.0441310826 -0.0280291786
515296910.0 0.0426877728 -0.029853679 0.3751475463 -0.6992838866 0.3751445821 -0.6988500123 0.0436300487 -0.0286460987
520296880.0 0.0422709559 -0.030385685 0.3671782366 -0.7040947857 0.3672962971 -0.7029514719 0.0430938338 -0.0296480814
525296850.0 0.04210515 -0.031396509 0.3598068448 -0.7073680146 0.3600471713 -0.7072209957 0.0425057199 -0.0300469005
530296820.0 0.0416888197 -0.0312525678 0.3514943225 -0.7114326324 0.3515015308 -0.7112020208 0.0421535406 -0.0299969405
535296790.0 0.0404735717 -0.0315895685 0.344091316 -0.7149445969 0.3446055009 -0.7146126593 0.0418765505 -0.0311351859
540296760.0 0.0403037962 -0.0317808822 0.3364077981 -0.7196292426 0.3358645185 -0.7187079959 0.0408429402 -0.0307165405
545296730.0 0.0398287897 -0.0326737442 0.328028147 -0.7223842253 0.3281793202 -0.7227643714 0.0406002753 -0.0314577459
550296700.0 0.039915924 -0.0326384105 0.3204892244 -0.7263926118 0.3201967533 -0.7264542426 0.0398269333 -0.0319574812
555296670.0 0.0387534682 -0.0331452724 0.3132447712 -0.7296006009 0.3129745193 -0.7292840975 0.0395734471 -0.0322528617
560296640.0 0.0386914095 -0.0333602719 0.3043155146 -0.7333898843 0.3042062537 -0.7334177806 0.0390486648 -0.0328977366
565296610.0 0.0376838026 -0.0339709145 0.2963021412 -0.7358445162 0.2968452405 -0.7359515437 0.0379929133 -0.0334960624
570296580.0 0.0373191612 -0.0339145325 0.2878884156 -0.7399012275 0.2879674602 -0.7392263212 0.0377912412 -0.0330702269
575296550.0 0.0364139089 -0.0344590123 0.2802388248 -0.7435364914 0.2805314989 -0.7428870768 0.0377707488 -0.033865011
580296520.0 0.0359908301 -0.0349015737 0.2718339391 -0.7463891517 0.271905027 -0.7460197932 0.0369267328 -0.0342135625
585296490.0 0.0355938848 -0.0359240963 0.2641456832 -0.748542685 0.2643801577 -0.7484393307 0.0364916916 -0.0345432489
590296460.0 0.0354200909 -0.0356960028 0.2560024524 -0.7508049901 0.255724215 -0.7513767753 0.0351773151 -0.0348044382
595296430.0 0.0348161406 -0.0356499601 0.247104086 -0.7548020496 0.2474714935 -0.7542798263 0.0353778268 -0.035523034
600296400.0 0.0339919947 -0.0363419904 0.2392370148 -0.7566774446 0.2394522924 -0.7566963802 0.0346736049 -0.0354686049
605296370.0 0.0335084889 -0.0366094914 0.2309420677 -0.7595401963 0.2307722057 -0.7591065703 0.0342012369 -0.0356747647
610296340.0 0.0329792326 -0.0369986168 0.2223610793 -0.7615778235 0.2230256039 -0.7617722775 0.0339015633 -0.0360122288
615296310.0 0.0328386196 -0.0375436336 0.2139978279 -0.7638947336 0.2141142711 -0.7644713995 0.033347458 -0.0361265384
620296280.0 0.0321824799 -0.0380300481 0.2059400873 -0.7661750203 0.2060188794 -0.7658049421 0.0323275975 -0.0365853842
625296250.0 0.0311552063 -0.0386508287 0.1984844248 -0.7690708613 0.1976693393 -0.7693634603 0.0327003305 -0.0367392296
630296220.0 0.031746472 -0.0379743633 0.1884346678 -0.7707322495 0.1885164228 -0.7703981675 0.0316194424 -0.0368522069
635296190.0 0.0297115715 -0.0392347572 0.1809385786 -0.772625206 0.1810026321 -0.7731676377 0.0314294254 -0.037362759
640296160.0 0.0295730036 -0.0385456619 0.1721855769 -0.7744263786 0.1725836931 -0.7747031692 0.0307778352 -0.0377093831
645296130.0 0.0292763893 -0.0389040232 0.1635150552 -0.776086574 0.1641361533 -0.7764294208 0.0300422335 -0.0375452591
650296100.0 0.0287678238 -0.0394346241 0.1550487805 -0.7780814615 0.1559254741 -0.7784757827 0.02998073 -0.0389416569
655296070.0 0.0275141168 -0.0400739246 0.1467969463 -0.7799143612 0.1476379352 -0.7803426956 0.0297145149 -0.0382731528
660296040.0 0.0267064876 -0.0404910453 0.1384887359 -0.7817096866 0.1388200623 -0.7816843156 0.0289742178 -0.0384890206
665296010.0 0.0271739565 -0.040299425 0.129605618 -0.7826697797 0.1298907496 -0.7829673286 0.0284184712 -0.0383146376
670295980.0 0.0252177692 -0.0403049956 0.1207101178 -0.7839480837 0.1215282663 -0.7843829909 0.0270822892 -0.038774791
675295950.0 0.0252732734 -0.0403850464 0.1130245176 -0.7852460179 0.112977519 -0.7849657489 0.0263999485 -0.0390682877
680295920.0 0.024162576 -0.0409879295 0.1037561219 -0.7864337552 0.1037034463 -0.7866107863 0.0261575695 -0.0385453278
685295890.0 0.0239948735 -0.0401811119 0.0955000096 -0.7878119988 0.0955972577 -0.7877085448 0.0254041697 -0.0390588062
690295860.0 0.0237033674 -0.0404805759 0.0873815325 -0.7879028993 0.0870849325 -0.78893314 0.0246693662 -0.0387380087
695295830.0 0.0230547143 -0.0411122272 0.0790611699 -0.7892155067 0.0779897803 -0.7894215767 0.0243847711 -0.0389367296
700295800.0 0.0225881228 -0.0415431688 0.0695769907 -0.7901624675 0.0697058085 -0.7898690349 0.0235655588 -0.0388085844
705295770.0 0.0216908365 -0.0406526402 0.0606635547 -0.790759054 0.0614504086 -0.791298391 0.0226699719 -0.0391076074
710295740.0 0.0212613042 -0.0414675954 0.0525756645 -0.7923646231 0.0531419077 -0.7921331501 0.0225530072 -0.0400374899
715295710.0 0.0198116702 -0.0415760436 0.0441787454 -0.792262542 0.0443491043 -0.7923845866 0.0222385939 -0.0396413858
720295680.0 0.0199370362 -0.0417594761 0.0352567379 -0.7930275006 0.0353793302 -0.7927391544 0.02137305 -0.0392419099
725295650.0 0.0191618189 -0.04150399 0.0266602724 -0.7927192038 0.0268406242 -0.7930049241 0.0201448705 -0.0394305987
730295620.0 0.0187450163 -0.0412710442 0.01795208 -0.7931972561 0.0184064921 -0.7930532575 0.0198177037 -0.0403266042
735295590.0 0.0179447008 -0.0413379305 0.0095191019 -0.7932298989 0.0097057595 -0.7934677498 0.0188767 -0.0405351046
740295560.0 0.0168698681 -0.0417097006 0.0005889363 -0.7930194221 0.001015347 -0.7935402325 0.0191164901 -0.0401056122
745295530.0 0.0166312098 -0.041616364 -0.0079395951 -0.7922733544 -0.0077479154 -0.7929340906 0.018575911 -0.0405730912
750295500.0 0.0161460458 -0.0415469232 -0.0164022639 -0.7928025485 -0.0165900924 -0.7929995829 0.0175705819 -0.0403647694
755295470.0 0.0154877211 -0.0422072548 -0.0244259623 -0.7928799067 -0.0244913687 -0.7930984385 0.0177350768 -0.0410332545
760295440.0 0.0147307258 -0.0417335494 -0.0334843298 -0.7930266893 -0.0334402222 -0.7936697434 0.0165261611 -0.0407342375
765295410.0 0.0140823438 -0.0417591939 -0.0423505876 -0.7920184762 -0.0425727265 -0.7924164561 0.0162786774 -0.0404851474
770295380.0 0.0133977367 -0.0423312817 -0.0509049222 -0.7916031021 -0.0511571455 -0.7913243728 0.0154367667 -0.0410364829
775295350.0 0.012847915 -0.0427885088 -0.0598106427 -0.7909461261 -0.0591786086 -0.7906937037 0.0142549085 -0.0403134379
780295320.0 0.012460177 -0.0422338272 -0.0685980948 -0.7899629505 -0.0677322185 -0.7902930628 0.0140023252 -0.0411282671
785295290.0 0.0114455355 -0.0428433473 -0.0774051998 -0.7890288152 -0.0764577425 -0.7895990399 0.0140926009 -0.0405277574
790295260.0 0.0117136176 -0.0414734772 -0.0849627485 -0.7884248844 -0.0841122918 -0.7883725127 0.013258336 -0.0407547369
795295230.0 0.0107433571 -0.0425635286 -0.0934924293 -0.7870528305 -0.0927232396 -0.7877139781 0.0129510214 -0.0401702479
800295200.0 0.0099280988 -0.0418215566 -0.1029566486 -0.786067555 -0.1022544179 -0.7863454456 0.0121079125 -0.040901929
805295170.0 0.0092727501 -0.0420956696 -0.1107326429 -0.784899038 -0.1107998627 -0.785180524 0.0115928229 -0.0404793811
810295140.0 0.0082222772 -0.0425148613 -0.1193623115 -0.7836594961 -0.119304244 -0.7842624217 0.0113255153 -0.0402163472
815295110.0 0.0081770846 -0.0425189188 -0.127764292 -0.7821889925 -0.1276808246 -0.7827978563 0.0101820408 -0.0399578687
820295080.0 0.0069703419 -0.0418075455 -0.1362565362 -0.7801755524 -0.1361675567 -0.7808502441 0.0094861045 -0.0403452998
825295050.0 0.0072122213 -0.0419149949 -0.1446941969 -0.7790631257 -0.1448992135 -0.7793032524 0.0093168905 -0.0399732381
830295020.0 0.0063478028 -0.0417243428 -0.1532107236 -0.7771327328 -0.153360627 -0.7774209521 0.0093170378 -0.0399883291
