!Created with skrf (http://scikit-rf.org).
# Hz S RI R 50.0 
!freq ReS11 ImS11 ReS21 ImS21 ReS12 ImS12 ReS22 ImS22
300000.0 -0.3156882597 -0.130381267 0.3711106239 0.06554033 0.3721054893 0.0654497028 -0.315386991 -0.133247141
5299970.0 -0.3249459976 0.0029919572 0.3784191807 0.003187946 0.3788436209 0.003172208 -0.3257069862 0.0021634249
10299940.0 -0.3224882721 0.0142175338 0.3799618458 0.0026808821 0.3795094092 0.0028273316 -0.323285544 0.0129002824
15299910.0 -0.3188789151 0.0224635419 0.3817974687 0.0026227258 0.3823878178 0.002706575 -0.3207918024 0.0198950049
20299880.0 -0.3157469413 0.0291472607 0.3851957155 0.0017367359 0.3853379397 0.0019421959 -0.3178414367 0.0260668029
25299850.0 -0.3116285515 0.0347472287 0.3886301824 0.0009537632 0.3887365573 0.0005288521 -0.3150634978 0.0311354679
30299820.0 -0.3082821817 0.0392504338 0.3919432192 -0.0020618741 0.3921872063 -0.0020878754 -0.311895217 0.0358015155
35299790.0 -0.3042776565 0.0434353817 0.3945702731 -0.0049625278 0.3953907418 -0.0054434244 -0.3091396112 0.0399900796
40299760.0 -0.3011756692 0.0467911188 0.3980545361 -0.0088659197 0.3985072028 -0.0087342663 -0.3062668282 0.0434474549
45299730.0 -0.2980969264 0.0501638459 0.4013940012 -0.0125799838 0.4015596273 -0.0126835314 -0.3036396246 0.0464950135
50299700.0 -0.2950980747 0.0526531181 0.4038497295 -0.0171103618 0.4039906624 -0.0173050862 -0.3011856101 0.0498346369
55299670.0 -0.2923267572 0.0553343926 0.40605902 -0.0213350382 0.4057529785 -0.0218235719 -0.2994884206 0.0522023835
60299640.0 -0.2897805398 0.0579597993 0.4078863666 -0.026796909 0.4078353182 -0.026946537 -0.2968629881 0.0549231531
65299610.0 -0.2874073533 0.0603341682 0.4098654531 -0.0314063749 0.4097518778 -0.0318045654 -0.2951955441 0.0573204223
70299580.0 -0.2853680893 0.0621165333 0.4107081113 -0.0367522011 0.4109338861 -0.0366717434 -0.2935659261 0.0599213222
75299550.0 -0.2834755139 0.0644084804 0.4118758371 -0.0421122845 0.4120310929 -0.0417323667 -0.2915777474 0.0621899271
80299520.0 -0.281842061 0.0664580408 0.4131296405 -0.0473179167 0.4130175786 -0.0473349049 -0.2905615641 0.0648912295
85299490.0 -0.2800303904 0.0681809634 0.413302317 -0.0523107125 0.4135265285 -0.0523187281 -0.2893369651 0.0667852262
90299460.0 -0.2781374991 0.0706752406 0.4136986604 -0.0578612742 0.4140065786 -0.0577852223 -0.2875042715 0.0694465866
95299430.0 -0.2767871387 0.0726414832 0.4139383982 -0.0630221394 0.4145123765 -0.0631380869 -0.2864223787 0.0722463252
100299400.0 -0.2755638397 0.0747196844 0.4139885265 -0.0680470925 0.4142142612 -0.0683103265 -0.2853014924 0.0745096885
105299370.0 -0.2739816551 0.0766902331 0.4140768161 -0.0732145266 0.4141336136 -0.0733584085 -0.2839056932 0.0765712096
110299340.0 -0.2725219472 0.0788566079 0.4136166195 -0.0783372647 0.4141826402 -0.0779862692 -0.2831776536 0.0785427955
115299310.0 -0.2715158598 0.0811182609 0.4134091783 -0.0833614276 0.4135260863 -0.0832005411 -0.2823236403 0.0812174968
120299280.0 -0.2705802301 0.0834480912 0.4134838485 -0.0890253422 0.4130234173 -0.0893629507 -0.2808632485 0.0832840032
125299250.0 -0.2692749216 0.0853082415 0.4122828726 -0.0935849033 0.4125415774 -0.0934681175 -0.2800946928 0.086002614
130299220.0 -0.2681683627 0.0873189067 0.4119442737 -0.0989072824 0.411913434 -0.0993489898 -0.2788724288 0.0881442873
135299190.0 -0.2674640744 0.0902620554 0.4113626502 -0.1041093036 0.4113265704 -0.1044228037 -0.2780409278 0.0903881548
140299160.0 -0.2664226835 0.0924168643 0.4105840822 -0.1091265345 0.4104256658 -0.1091699154 -0.2776533669 0.0934025416
145299130.0 -0.2654528103 0.0945907043 0.4094854645 -0.1137372891 0.4095207198 -0.1136593754 -0.2766463197 0.0957366765
150299100.0 -0.2640791444 0.0968151614 0.4083080005 -0.1189720443 0.4084275062 -0.118817365 -0.2756669759 0.09846025
155299070.0 -0.2631404094 0.0994424077 0.4070546711 -0.1241519921 0.4073111286 -0.1239909831 -0.2744669553 0.1010645051
160299040.0 -0.262186109 0.1019453343 0.406050307 -0.1288947826 0.4062198776 -0.1288690072 -0.2739043134 0.1034683163
165299010.0 -0.2611671821 0.10422443 0.4049634218 -0.133325598 0.4047561833 -0.1337704091 -0.2726607911 0.105852871
170298980.0 -0.2600964877 0.1066184795 0.4031353718 -0.1383215469 0.4036949452 -0.138366687 -0.2719775773 0.1087894938
175298950.0 -0.2591115492 0.109253468 0.402521729 -0.1429204476 0.4028196594 -0.1432577689 -0.2712595072 0.1114997009
180298920.0 -0.2580839438 0.1118952705 0.4006269985 -0.1482249546 0.4005475432 -0.1482066834 -0.2698110933 0.1142011026
185298890.0 -0.2570227133 0.1142992858 0.399377674 -0.152508816 0.3991085041 -0.1523095515 -0.2687619164 0.1164437947
190298860.0 -0.2557111458 0.1171510697 0.3973034448 -0.1574967484 0.397680971 -0.157194194 -0.2676974075 0.1193501139
195298830.0 -0.2545425775 0.1196439651 0.3960854627 -0.1620073982 0.3961306197 -0.1620460061 -0.2668893954 0.1220628265
200298800.0 -0.2534702895 0.1220375052 0.3940763666 -0.1668752337 0.3941683772 -0.1668145705 -0.2654067199 0.1247406316
205298770.0 -0.2527632561 0.1247126661 0.3923475148 -0.171022472 0.3922840844 -0.1709314899 -0.2645100745 0.1272242879
210298740.0 -0.2514138015 0.1274900859 0.3906744499 -0.1755921757 0.3905387737 -0.1756184319 -0.2637509945 0.1300359803
215298710.0 -0.2505029501 0.1302152734 0.3882873553 -0.1798812089 0.3889028902 -0.1805467937 -0.2624241623 0.1326451621
220298680.0 -0.249182138 0.1325100925 0.3865561927 -0.1844336549 0.3867175018 -0.1846321488 -0.2610837059 0.1355491353
225298650.0 -0.247799126 0.1353241808 0.3842310659 -0.1891593648 0.3846764357 -0.1889241337 -0.2598998898 0.1380878717
230298620.0 -0.2466051474 0.1381312626 0.3826125282 -0.1935684402 0.3830007103 -0.1940163308 -0.258652886 0.1409642763
235298590.0 -0.2453889321 0.1409858252 0.3805673792 -0.1983717113 0.3805492205 -0.1980111434 -0.2572542015 0.1435838566
240298560.0 -0.2439749066 0.1431460747 0.378342926 -0.2018996873 0.3786550205 -0.2022250658 -0.2562934904 0.1458095759
245298530.0 -0.2426996943 0.1457635078 0.3762583659 -0.2065255357 0.376219146 -0.2066130756 -0.254847064 0.1486245544
250298500.0 -0.2413973798 0.1482435391 0.3739151565 -0.2106077719 0.3736963659 -0.2108330845 -0.2533916137 0.1515160626
255298470.0 -0.2401613378 0.151179558 0.3715671606 -0.2145230977 0.3720977095 -0.2154194082 -0.251951714 0.1545196606
260298440.0 -0.2388110492 0.1534369636 0.3696292541 -0.2186583569 0.3694637439 -0.2189845852 -0.2505870775 0.1565187229
265298410.0 -0.2374809779 0.1561208388 0.3667714587 -0.2233834167 0.3670160605 -0.2237099239 -0.2487676361 0.1596411432
270298380.0 -0.2359065116 0.1586762344 0.364210334 -0.2271757806 0.3646198906 -0.227496627 -0.2474794383 0.1622509052
275298350.0 -0.2346130207 0.1615313085 0.361576049 -0.2312647111 0.3618830511 -0.2316632147 -0.2458917434 0.1652029255
280298320.0 -0.2331127692 0.1638797705 0.3594226125 -0.2351155417 0.3596971516 -0.235871854 -0.2444362641 0.1673774992
285298290.0 -0.2314924995 0.1666501652 0.3566720638 -0.2395568635 0.3571113138 -0.2398082701 -0.2427517569 0.170787232
290298260.0 -0.2296864887 0.1693994878 0.3545301685 -0.2438211275 0.3543558533 -0.2437223142 -0.2412839871 0.1727617011
295298230.0 -0.2283475192 0.1715242264 0.351510286 -0.2477452348 0.3517827732 -0.2481264659 -0.2395249215 0.1753140143
300298200.0 -0.2266101672 0.1743071702 0.3487124866 -0.251909633 0.3489415263 -0.2516403739 -0.2374308161 0.1779242075
305298170.0 -0.2249785252 0.176511751 0.346155382 -0.2555467246 0.3463399928 -0.255905503 -0.2356743175 0.1806470427
310298140.0 -0.2232387637 0.178940562 0.3431715711 -0.2597455392 0.3437263275 -0.259217121 -0.2340914946 0.1829414608
315298110.0 -0.2216982591 0.1813049265 0.3405629096 -0.2638681094 0.340928108 -0.2636100515 -0.2322558958 0.1856043115
320298080.0 -0.2198531231 0.1839017771 0.3372780954 -0.267438204 0.3380194689 -0.2674145891 -0.2302384453 0.1879924426
325298050.0 -0.2183661093 0.1856998007 0.3342834203 -0.2710652056 0.3350110103 -0.2713242538 -0.2284805005 0.1903920992
330298020.0 -0.217446736 0.1882783872 0.3316457863 -0.2749055014 0.3316967164 -0.2750238042 -0.2268382992 0.1929259088
335297990.0 -0.2150989014 0.1906734862 0.3281460563 -0.2785834644 0.3287148665 -0.2785822696 -0.2248477498 0.195489647
340297960.0 -0.2135064468 0.1929458391 0.3246719204 -0.2826138562 0.3251047294 -0.2824658701 -0.2229201619 0.1982075968
345297930.0 -0.2120066201 0.1955287576 0.3218563382 -0.2862441491 0.3217163019 -0.2857551324 -0.2210599471 0.2004007019
350297900.0 -0.2101827874 0.1978391922 0.3189932096 -0.2892720179 0.3189393783 -0.2890312285 -0.2193681858 0.2025994862
355297870.0 -0.2082792585 0.2002307384 0.315381486 -0.2923885711 0.3157283896 -0.2924746544 -0.217204323 0.2056803016
360297840.0 -0.2062311693 0.2026151844 0.3118656039 -0.2964021795 0.312105856 -0.2967296571 -0.2149667528 0.208106329
365297810.0 -0.2046952519 0.204942905 0.3093477496 -0.2993685724 0.3091058601 -0.2997572395 -0.2134955938 0.2102430929
370297780.0 -0.2025225324 0.2072392831 0.305399089 -0.3031568232 0.3058333598 -0.3029513922 -0.2111398124 0.2127993648
375297750.0 -0.20037671 0.209723755 0.3021513864 -0.3064652408 0.3023615793 -0.3066041827 -0.2091015835 0.2151014212
380297720.0 -0.1985146795 0.2122870601 0.2992756732 -0.3098716364 0.2989564206 -0.3097769704 -0.2066673614 0.2176056307
385297690.0 -0.1963346024 0.2140425855 0.2955768943 -0.3130174029 0.295485336 -0.3132134787 -0.2040821243 0.2200298898
390297660.0 -0.193846548 0.2159379991 0.2912339696 -0.3160946957 0.2917988667 -0.3163138558 -0.2019427678 0.2219303346
395297630.0 -0.1919727671 0.2179904006 0.2886381824 -0.318839435 0.2882265829 -0.3194453799 -0.1995447436 0.2243270833
400297600.0 -0.1901854274 0.2203913508 0.2850483705 -0.3224449903 0.2850344635 -0.3225138969 -0.1971043687 0.2267108593
405297570.0 -0.1881026861 0.2222270851 0.2815814056 -0.3254354179 0.2818227608 -0.3255917296 -0.19493487 0.2289380654
410297540.0 -0.1854171963 0.2248102419 0.2780374687 -0.3289230545 0.2779819502 -0.3285588718 -0.1926974989 0.231173748
415297510.0 -0.183592363 0.2271080297 0.2743225433 -0.3318882963 0.2745112201 -0.3319032432 -0.1902625086 0.2335549547
420297480.0 -0.1813957256 0.2283056373 0.2705036911 -0.3343281143 0.2704754414 -0.3350276732 -0.1874796711 0.2360956494
425297450.0 -0.1786373134 0.2306394782 0.2668244693 -0.3376727588 0.2666149446 -0.3374936398 -0.1854855217 0.2373299308
430297420.0 -0.176633386 0.2329484827 0.2635657062 -0.3405958934 0.2634435319 -0.3405775273 -0.1828760632 0.2401834619
435297390.0 -0.1740385708 0.2345653865 0.2591783457 -0.3434923275 0.2593166712 -0.3433458122 -0.1807544343 0.2423570467
440297360.0 -0.1714855209 0.2364747607 0.2551308851 -0.346306505 0.2555066541 -0.3464910172 -0.1782570221 0.2442829903
445297330.0 -0.1690832526 0.2382024609 0.2516549801 -0.348745713 0.2517811808 -0.3491281356 -0.1754214549 0.2461236197
450297300.0 -0.1664091484 0.2403100044 0.2476582014 -0.3515359948 0.2481254654 -0.3515165324 -0.1727481974 0.2482006977
455297270.0 -0.1644399199 0.2420840236 0.2442838229 -0.3543999123 0.2441952487 -0.3543908207 -0.1703252145 0.2501203045
460297240.0 -0.1613028187 0.2439929434 0.2400693669 -0.3574336779 0.2401041765 -0.357311031 -0.1675889243 0.2522379755
465297210.0 -0.1589115556 0.2456982637 0.2360904483 -0.3596408028 0.2357634078 -0.3600803702 -0.1646059674 0.2543789442
470297180.0 -0.1564753552 0.247574169 0.23197573 -0.3617740847 0.2322634017 -0.3622003284 -0.1625303758 0.2558608333
475297150.0 -0.1536622041 0.2495081532 0.227874155 -0.3646156287 0.2284364223 -0.3646096446 -0.1596508067 0.2579054346
480297120.0 -0.1507489204 0.2514134812 0.2238041215 -0.3671356475 0.2240937887 -0.367132562 -0.1569407732 0.259744464
485297090.0 -0.1486810556 0.2526984698 0.2198779899 -0.3695564542 0.2199441679 -0.3694892016 -0.1544438808 0.2615556888
490297060.0 -0.1454680247 0.2545198642 0.2156678881 -0.3718172746 0.2159004885 -0.3718347294 -0.1513086172 0.2629539886
495297030.0 -0.1432087891 0.2560488817 0.212194022 -0.3744769389 0.2118675858 -0.3744906107 -0.1484719603 0.2649392125
500297000.0 -0.1402569766 0.2577052931 0.2079968923 -0.3761733727 0.2078615095 -0.3765421789 -0.1458031543 0.2666030586
505296970.0 -0.1372649195 0.2594518102 0.203515336 -0.3788899259 0.20343775 -0.3782859542 -0.1429929665 0.2681094565
510296940.0 -0.1345383599 0.2610632669 0.1995755653 -0.3815145719 0.199478568 -0.3810841672 -0.1397591358 0.2701355155
515296910.0 -0.1317220163 0.2627890256 0.1952196305 -0.3830499831 0.1946554608 -0.3828673213 -0.1370622743 0.2713064433
520296880.0 -0.1286760992 0.2642483639 0.1907748693 -0.3850761288 0.1907554633 -0.3848780773 -0.1338652818 0.2734176883
525296850.0 -0.1259699687 0.2656759197 0.1863276168 -0.3873346489 0.1863696814 -0.3871227169 -0.1311162553 0.2746589364
530296820.0 -0.1232889472 0.2670300277 0.1823725588 -0.3890852967 0.1825915231 -0.3890302554 -0.128681681 0.2760610154
535296790.0 -0.119898217 0.2684016936 0.1779073255 -0.3912524369 0.1780948826 -0.3913612736 -0.1254594816 0.2781353709
540296760.0 -0.1170657695 0.2699774104 0.173471428 -0.3927667802 0.1734525743 -0.3925287282 -0.1224750397 0.2788786494
545296730.0 -0.1146482594 0.271747375 0.1698318065 -0.394574473 0.1694645563 -0.394560897 -0.1195846456 0.2806907025
550296700.0 -0.1111240566 0.2728836955 0.1652948649 -0.3967396582 0.164763523 -0.3965819097 -0.1164026108 0.2819763528
555296670.0 -0.1082899532 0.2741775334 0.1608907667 -0.3985590426 0.1606417198 -0.3982572093 -0.1137865048 0.2828876117
560296640.0 -0.1050947071 0.2754134311 0.1562985374 -0.4001876546 0.1566360221 -0.4000716016 -0.1105594763 0.2846652249
565296610.0 -0.1026151514 0.2769031643 0.1522326347 -0.4014304264 0.1521428121 -0.4012965728 -0.1072828481 0.2861402622
570296580.0 -0.0996738074 0.2783190763 0.1475541542 -0.4032454887 0.1477621611 -0.4035176673 -0.1046496914 0.2872917938
575296550.0 -0.0961803089 0.2792873871 0.143352257 -0.4046454928 0.1431171271 -0.4048513356 -0.1013463458 0.2884467965
580296520.0 -0.0932959718 0.2807039609 0.1388504168 -0.4060510025 0.1387285211 -0.4063082103 -0.098731283 0.2894853544
585296490.0 -0.090159142 0.2817641006 0.135062814 -0.4076338521 0.1340780045 -0.4075594954 -0.0950536036 0.2909434002
590296460.0 -0.0865259584 0.2829347527 0.1300200765 -0.4089474801 0.1295263297 -0.4094415576 -0.0922911312 0.2920361111
595296430.0 -0.0836376313 0.2841026538 0.1249483303 -0.4103906824 0.1248509094 -0.4106732204 -0.0892005657 0.2932037026
600296400.0 -0.080703506 0.285414032 0.1207224444 -0.4116459587 0.1205462346 -0.4115440871 -0.0863703287 0.2938414682
605296370.0 -0.0782698872 0.2865825737 0.1168517377 -0.4129558985 0.1161755175 -0.4129442663 -0.0828729915 0.2951584486
610296340.0 -0.0743549012 0.2873644935 0.1117869653 -0.4133827491 0.1121198489 -0.4140071621 -0.0801318355 0.2959792332
615296310.0 -0.0713470966 0.2886900837 0.1074063871 -0.4156181181 0.107216183 -0.4153783996 -0.0763710314 0.2971288465
620296280.0 -0.0683758891 0.2894502365 0.1025757408 -0.4161936755 0.1024084133 -0.416593921 -0.0737832196 0.2984034099
625296250.0 -0.0653833797 0.2904437901 0.0980495904 -0.4174000353 0.0981059507 -0.4174574545 -0.0706493113 0.299100408
630296220.0 -0.0622784188 0.2915012402 0.0933689432 -0.418528442 0.093489069 -0.4183631605 -0.0670435778 0.3000897733
635296190.0 -0.0589459903 0.2926733021 0.0889063488 -0.4192238836 0.0889114733 -0.4192586944 -0.0641622157 0.3005583977
640296160.0 -0.0557310567 0.2931158934 0.0841882753 -0.4204447797 0.0843140489 -0.4204366125 -0.0610073794 0.3015573701
645296130.0 -0.0526680214 0.294579889 0.0800118001 -0.4212901333 0.0800611764 -0.4209167939 -0.0581889906 0.3020609793
650296100.0 -0.0499229175 0.2952481652 0.0755765806 -0.4222356542 0.0750884756 -0.4220843345 -0.0543687014 0.3029204749
655296070.0 -0.046782643 0.295691225 0.0709165225 -0.4224993272 0.0707382794 -0.4225629563 -0.0517542167 0.304005339
660296040.0 -0.0432674404 0.2967514246 0.0662897728 -0.4234871418 0.0662160773 -0.4233016039 -0.0482737986 0.3042377932
665296010.0 -0.0404704476 0.2974302436 0.0614012018 -0.4238123012 0.0614962796 -0.4237885238 -0.0450893119 0.3047914292
670295980.0 -0.0375335667 0.2981628842 0.056773648 -0.4244665711 0.0568241297 -0.4241596724 -0.0419825289 0.3056453413
675295950.0 -0.0342361198 0.2985125887 0.0520654884 -0.4249818634 0.0523203925 -0.4252206865 -0.0389464084 0.3061970602
680295920.0 -0.0313798692 0.2996003094 0.047774415 -0.4254569187 0.0476864749 -0.4253525256 -0.035772133 0.3061724175
685295890.0 -0.027506851 0.300255317 0.0429957152 -0.4262406507 0.0425713411 -0.4262756982 -0.032103593 0.3072790031
690295860.0 -0.0246217156 0.3003468003 0.0383076294 -0.4265452353 0.038122669 -0.4265644574 -0.0292734643 0.3077197262
695295830.0 -0.0214536145 0.3009440234 0.0341694796 -0.4268462609 0.0337567249 -0.4267952831 -0.0260195848 0.3083643102
700295800.0 -0.0181278595 0.3019947838 0.0295055086 -0.427479993 0.0293602111 -0.4271266966 -0.0226645306 0.3086444064
705295770.0 -0.01538341 0.3020636601 0.0247093258 -0.4277102051 0.0244199136 -0.4273336504 -0.0192935586 0.3091004905
710295740.0 -0.0122298958 0.3022076861 0.0198731628 -0.4275801668 0.0198069792 -0.428001296 -0.0158668271 0.3094586276
715295710.0 -0.0092109653 0.3029670693 0.0158207424 -0.4278794557 0.0152120699 -0.4277617019 -0.0126936039 0.3093084655
720295680.0 -0.0055972179 0.303133119 0.0105891372 -0.4277034987 0.0105765434 -0.4281562766 -0.0094575987 0.3096293132
725295650.0 -0.0028898159 0.3037184122 0.0063673792 -0.4280882011 0.0059594445 -0.4279693955 -0.0064271553 0.3105480866
730295620.0 -0.0003359053 0.3039811442 0.0017741776 -0.427698643 0.0013458729 -0.4275717474 -0.0032236698 0.3107405342
735295590.0 0.0032131681 0.3038986265 -0.0030776808 -0.4279710234 -0.0031720538 -0.4280825292 8.20871e-05 0.3104755965
740295560.0 0.0060939326 0.3040485839 -0.0077573713 -0.4278146948 -0.007393134 -0.4278330466 0.0032281741 0.3107574867
745295530.0 0.0092123896 0.3047623504 -0.0119613393 -0.4275739589 -0.0117760643 -0.4277614309 0.0064501185 0.3106967129
750295500.0 0.0120959059 0.304847097 -0.0165373124 -0.42755852 -0.0171352682 -0.4273543139 0.0096735401 0.3109443815
755295470.0 0.0152778316 0.3045604877 -0.0207713546 -0.4271626317 -0.0214449105 -0.4275594009 0.0131534834 0.3112765178
760295440.0 0.0183915428 0.3053880076 -0.026402121 -0.4276467093 -0.0261642648 -0.4268284766 0.0164038291 0.3104396606
765295410.0 0.021323211 0.3045750165 -0.030413319 -0.4264164627 -0.0303524839 -0.4264795334 0.0195327709 0.3107560174
770295380.0 0.0244077736 0.3053098818 -0.0350512919 -0.4262439381 -0.0351968824 -0.4267143311 0.0226559832 0.3108113534
775295350.0 0.027649952 0.3049378988 -0.039783527 -0.4257701065 -0.039280738 -0.4258384771 0.026006146 0.310781691
780295320.0 0.0309029301 0.3050782007 -0.0443642435 -0.4250438452 -0.044495294 -0.4251383489 0.0293807459 0.3102900069
785295290.0 0.0333637478 0.3046037345 -0.0485461381 -0.424787155 -0.0489591225 -0.4246465486 0.0321955049 0.310594313
790295260.0 0.036615811 0.3043711063 -0.0530182049 -0.4242903349 -0.0533589055 -0.4245464428 0.0356658607 0.3108511675
795295230.0 0.0395240703 0.3042504363 -0.0581922493 -0.4235519331 -0.0580412293 -0.4238788759 0.0387048573 0.3095397046
800295200.0 0.0426105298 0.304375493 -0.0621066636 -0.4226120156 -0.06267201 -0.422937513 0.0419374691 0.3095816887
805295170.0 0.0456094963 0.3043934444 -0.066786245 -0.4224970293 -0.0673015189 -0.4226690611 0.0456610263 0.3093704073
810295140.0 0.0491991871 0.3038339528 -0.0712608152 -0.4211590761 -0.07167673 -0.421324682 0.0487285284 0.3091090873
815295110.0 0.0515599663 0.3034058414 -0.0757816355 -0.4206052056 -0.0759886092 -0.4209628583 0.0519285567 0.3087958032
820295080.0 0.0548643476 0.3029033817 -0.0802089628 -0.4195758482 -0.0805151497 -0.4202123646 0.0546096966 0.3088575094
825295050.0 0.0576152549 0.3027997714 -0.0849864767 -0.4189893351 -0.0854631983 -0.4191407293 0.0586171206 0.308218603
830295020.0 0.0610167283 0.3020606723 -0.0892999702 -0.4177494441 -0.0894239283 -0.417748487 0.0613390294 0.3072829395
