!Created with skrf (http://scikit-rf.org).
# Hz S RI R 50.0 
!freq ReS11 ImS11 ReS21 ImS21 ReS12 ImS12 ReS22 ImS22
300000.0 -0.7792655978 -0.0868763644 -0.0001870651 -0.0013444377 0.0006470662 0.0004620678 -0.2143715493 -0.0744172532
5299970.0 -0.7850911871 -0.0055282489 -0.0002269709 9.18545e-05 0.0002089373 0.0002517131 -0.2152403311 0.0086536716
10299940.0 -0.7878721357 -0.0034384532 0.0001531841 0.0001988518 -4.8171e-06 -9.60853e-05 -0.2116173392 0.0215602392
15299910.0 -0.7932860743 -0.0021761005 -2.20819e-05 8.38735e-05 -1.83229e-05 3.21791e-05 -0.2066012045 0.0312142236
20299880.0 -0.800197617 0.0020137503 4.40209e-05 -1.81949e-05 5.54267e-05 5.21047e-05 -0.2005570094 0.0388971235
25299850.0 -0.8064766266 0.0074294342 0.000196249 0.0001003207 -7.03805e-05 0.0001082274 -0.1940152941 0.0456623254
30299820.0 -0.8121721177 0.0152483656 -7.5583e-06 -3.7085e-05 -5.81245e-05 -0.0001491149 -0.1872493243 0.0504702963
35299790.0 -0.8171127254 0.0245305466 4.62349e-05 0.0002640561 0.0001858729 -1.53495e-05 -0.1810933812 0.054688782
40299760.0 -0.8212866769 0.0334180177 0.0003458419 2.80662e-05 0.0001038186 -0.0001681546 -0.1752926134 0.0572397683
45299730.0 -0.8242806147 0.0426552296 -2.27887e-05 -8.94214e-05 9.27825e-05 -6.15686e-05 -0.1696536715 0.0595569705
50299700.0 -0.8275834349 0.052864535 -0.0001447912 0.0002453607 3.63313e-05 3.95104e-05 -0.1641144 0.0604980879
55299670.0 -0.8292198375 0.0625482558 0.0001475075 8.44253e-05 0.0001787427 4.38762e-05 -0.1596655841 0.0616031264
60299640.0 -0.8304464377 0.07325553 0.00016252 3.3773e-05 -5.84777e-05 0.0001106286 -0.1548906977 0.0622922891
65299610.0 -0.8311102276 0.0831946483 -9.86261e-05 -0.0001105568 1.50224e-05 5.28147e-05 -0.1514149044 0.0623350216
70299580.0 -0.8319577665 0.0930603402 9.01959e-05 0.0001832625 -1.99547e-05 3.82996e-05 -0.1478380489 0.0628579733
75299550.0 -0.8317953167 0.1032445677 0.0002882257 0.0001729403 9.71751e-05 -4.70923e-05 -0.1443978777 0.0622004234
80299520.0 -0.8319637478 0.1136506584 0.000149139 0.0001370028 0.0003571166 -0.0001097442 -0.1417204256 0.0625009332
85299490.0 -0.8313744291 0.1220418107 -0.0001197026 -0.0001424828 0.0001262818 4.22469e-05 -0.1394093829 0.0622946302
90299460.0 -0.8300948444 0.1319947501 0.0001028492 -5.7063e-06 0.0001369379 3.25827e-05 -0.1365726211 0.0621122377
95299430.0 -0.8287705896 0.1417760363 2.213e-07 0.0001704567 -6.82895e-05 8.82178e-05 -0.1345386776 0.0621873306
100299400.0 -0.8277851986 0.1510337649 5.6242e-06 0.0004210656 3.88885e-05 -2.50646e-05 -0.1326066975 0.0620097067
105299370.0 -0.8269504553 0.1601920176 3.9544e-06 2.45247e-05 0.0002498126 3.29549e-05 -0.1305239045 0.0614690705
110299340.0 -0.8251875509 0.1692462538 4.87068e-05 -0.0002239804 5.41056e-05 -3.93281e-05 -0.1294344406 0.0616932618
115299310.0 -0.8236121709 0.178413887 3.8392e-06 -0.0001340866 -0.0001345095 8.79628e-05 -0.1279493187 0.0615811282
120299280.0 -0.8216932221 0.1871342053 -0.0001356576 3.45892e-05 -0.0001168281 0.0001131033 -0.1266971662 0.0615187251
125299250.0 -0.8205134075 0.1955582425 -4.73906e-05 -0.0001413539 -0.0003242491 0.0002207656 -0.1256877244 0.0610471794
130299220.0 -0.8188375052 0.2049815618 -8.87746e-05 0.000158676 -0.0001502396 0.0001446335 -0.1246060139 0.0608057436
135299190.0 -0.8168644532 0.2139794927 3.0123e-05 4.14279e-05 -0.0001157342 -1.09448e-05 -0.1233421073 0.0609982648
140299160.0 -0.814762588 0.2227936986 7.86392e-05 0.0001288189 9.17336e-05 -5.0111e-06 -0.1225305899 0.0616892503
145299130.0 -0.8124673338 0.2318476303 -8.51041e-05 -9.94869e-05 -0.0002055189 2.35357e-05 -0.121965069 0.0617098843
150299100.0 -0.8104871552 0.2407502415 0.0001217876 -8.11652e-05 -2.47503e-05 8.76426e-05 -0.1211598473 0.0622020876
155299070.0 -0.8075351117 0.2489198539 -7.3447e-05 0.0001810046 1.2591e-06 0.0002397888 -0.1201562503 0.0624822487
160299040.0 -0.8052762993 0.25781917 -5.2957e-05 3.50487e-05 -0.0001711002 -0.0001638866 -0.1201077682 0.062633359
165299010.0 -0.8028350918 0.2666532939 -6.2625e-06 0.0001289622 -0.0001309181 0.0001803359 -0.1191078394 0.0630386839
170298980.0 -0.7999192955 0.2749228245 0.0003691305 0.0002162603 -3.89104e-05 -5.25514e-05 -0.1186563342 0.0635547836
175298950.0 -0.7972187706 0.284091515 0.0002565183 1.90226e-05 0.0001423607 -2.5393e-06 -0.1183486994 0.0639483586
180298920.0 -0.7947327564 0.2925723766 0.0001274392 8.5689e-05 -2.79378e-05 7.43636e-05 -0.1177068312 0.0645725673
185298890.0 -0.7911498517 0.3003653376 6.45379e-05 0.0001415673 -7.48935e-05 -8.47979e-05 -0.1168412511 0.0646672713
190298860.0 -0.7884232765 0.3091745949 -0.0001266115 0.0001146541 5.92625e-05 -0.0002556657 -0.1162757105 0.0654153652
195298830.0 -0.7851419125 0.3176642185 1.89203e-05 -0.000201836 0.0003084425 -2.27914e-05 -0.115826633 0.0660001158
200298800.0 -0.7816959707 0.3259920893 0.0001262341 6.92099e-05 -1.95909e-05 0.0001365702 -0.1156042828 0.0665492084
205298770.0 -0.7785886136 0.3336655683 6.31042e-05 -0.0001607557 5.96631e-05 -3.79118e-05 -0.1151060189 0.0669767983
210298740.0 -0.7752399781 0.3417194007 5.79431e-05 0.0001319139 5.42593e-05 8.80017e-05 -0.1140550151 0.0677650365
215298710.0 -0.7719173425 0.3499737353 0.0001690955 -6.54645e-05 0.0001613831 0.0001538807 -0.1143111218 0.0683229304
220298680.0 -0.7671427787 0.3584363261 -0.0002222411 0.0001397692 -0.0001920238 7.0554e-05 -0.113970752 0.068870262
225298650.0 -0.764127196 0.3657747821 9.1401e-06 0.0002520097 -7.80456e-05 3.60026e-05 -0.1137329654 0.0696318262
230298620.0 -0.7600974161 0.3744370558 0.0002268506 -2.884e-07 6.03114e-05 -1.93629e-05 -0.1128368236 0.0706025869
235298590.0 -0.7567725031 0.3829466994 7.72699e-05 0.0002600024 -3.54641e-05 4.82698e-05 -0.1123384244 0.0714890919
240298560.0 -0.7527734102 0.3905064518 8.75854e-05 -9.8034e-06 0.0001244992 0.0001552205 -0.1118985361 0.0723753121
245298530.0 -0.7490165223 0.3983992468 9.90667e-05 0.0001228349 -2.58117e-05 -0.0001527546 -0.1113924925 0.0727090843
250298500.0 -0.7441303698 0.4059276514 -6.6128e-05 0.0002326254 9.05812e-05 1.78155e-05 -0.1111009172 0.073599747
255298470.0 -0.7394841808 0.4137864365 -1.53114e-05 -6.597e-07 -1.86671e-05 0.0002031185 -0.1105219079 0.0744511847
260298440.0 -0.7355049753 0.4208075965 -0.0002160729 0.0001476953 4.03457e-05 0.0002240983 -0.1097688727 0.0753658493
265298410.0 -0.7311212347 0.4293905639 0.0001892176 0.0001736769 -3.09607e-05 -0.0001361968 -0.1094078706 0.076377498
270298380.0 -0.7274264835 0.4370183529 0.0001214834 -4.78943e-05 -3.15771e-05 -0.0001111797 -0.1085117851 0.0771637281
275298350.0 -0.7223891022 0.4445887749 8.08583e-05 5.54479e-05 -5.0328e-06 9.44003e-05 -0.1078999522 0.0783150895
280298320.0 -0.7174320671 0.4518694807 0.0002457457 -6.01395e-05 0.0001322807 3.92585e-05 -0.1074341155 0.078972697
285298290.0 -0.7129239409 0.459787174 -6.33917e-05 -4.61051e-05 -1.2848e-05 -7.36088e-05 -0.1069850717 0.0799231512
290298260.0 -0.7080637968 0.467085449 0.0001199496 0.0001034569 0.0001091587 0.0001688361 -0.1064535985 0.0810227788
295298230.0 -0.7027282412 0.4742124476 0.0001879141 -4.43832e-05 -0.0001103907 7.22391e-05 -0.1057516441 0.0818677294
300298200.0 -0.6980305925 0.4813577083 8.21198e-05 0.0001294399 0.0001324012 0.0001499529 -0.1052081816 0.0829583766
305298170.0 -0.6930880661 0.4881164117 0.0001401366 0.000149579 0.000113653 8.83383e-05 -0.1042271601 0.0835441553
310298140.0 -0.6882235281 0.4964616274 0.0003633958 -0.0001191225 5.43612e-05 5.6752e-05 -0.1043928306 0.0842383819
315298110.0 -0.6829058158 0.5030243271 7.0143e-05 0.0001318852 0.0002453395 -0.0001970671 -0.1036688806 0.0853309749
320298080.0 -0.6776755927 0.5101354065 5.40148e-05 8.30225e-05 -2.45169e-05 0.0003129644 -0.1029373196 0.0862158498
325298050.0 -0.6719197456 0.5170189223 5.14407e-05 -2.389e-06 -8.41515e-05 -0.000162182 -0.1026377659 0.0869883534
330298020.0 -0.6667894795 0.5241973527 0.0001059386 5.60493e-05 -0.0001773531 -5.03895e-05 -0.1022652504 0.0882759033
335297990.0 -0.6613032041 0.5305308804 9.7919e-05 0.0003018826 5.38093e-05 0.0002155693 -0.1019871689 0.0893742049
340297960.0 -0.6559317558 0.5375947987 -1.51211e-05 7.93526e-05 -9.82782e-05 0.0003063022 -0.1008909735 0.0903000526
345297930.0 -0.650476485 0.543640038 4.72624e-05 -9.9318e-06 -2.90937e-05 8.81936e-05 -0.1006740515 0.0911850921
350297900.0 -0.6446212954 0.5502011202 0.0002087676 -0.0002153568 0.0001059826 0.0001050752 -0.0999742239 0.0926594028
355297870.0 -0.6384853635 0.557620267 0.0002062691 -0.0001144403 0.0001038112 0.0001279646 -0.0994628309 0.093115466
360297840.0 -0.6318446985 0.5636399161 -0.0001498644 0.0002346869 4.67211e-05 7.9221e-06 -0.0986375676 0.0944928241
365297810.0 -0.6277456373 0.5698487483 0.0001098536 -4.35758e-05 0.0001668114 0.0001773221 -0.0979752602 0.0952558001
370297780.0 -0.6212608977 0.576445561 0.000139608 7.6539e-05 3.67403e-05 2.57241e-05 -0.0970582815 0.0961592642
375297750.0 -0.6153470683 0.5827424272 7.71107e-05 -0.0001528546 0.0001763213 9.87242e-05 -0.0965006429 0.0971061177
380297720.0 -0.6088295246 0.5883036729 0.0003632575 0.0001620905 0.0001382025 -6.16028e-05 -0.0961789402 0.098046583
385297690.0 -0.6031715413 0.5947477869 6.18873e-05 0.0001636683 6.31796e-05 5.36164e-05 -0.094751745 0.0993722311
390297660.0 -0.5972380466 0.6006550661 0.0002259605 -3.88829e-05 0.0002667357 2.20283e-05 -0.0941611736 0.1005038848
395297630.0 -0.5903642882 0.6075881965 0.0002004483 0.0001862126 0.0001007554 0.0001428267 -0.093289789 0.1017060058
400297600.0 -0.5844316195 0.6136423823 -5.62302e-05 4.48148e-05 0.0002101198 -5.8162e-05 -0.0925861385 0.1024817569
405297570.0 -0.5783053095 0.6187437273 0.0002133157 -0.0001419258 0.0001720583 6.86264e-05 -0.0919723786 0.103175058
410297540.0 -0.5713807625 0.6247112761 6.6926e-06 0.0003106972 2.63562e-05 0.0001578818 -0.0911225827 0.1045221739
415297510.0 -0.5646364239 0.6307488947 0.000318283 0.000148062 0.0002183023 0.0001127982 -0.0901006076 0.1053069198
420297480.0 -0.5596988015 0.6371424391 -0.0001210196 -7.5345e-05 0.0001130925 0.0001615198 -0.0892774213 0.1063987495
425297450.0 -0.5522037832 0.6424480184 0.0001828424 0.0001684054 0.0002364022 2.84755e-05 -0.0882754338 0.1073760197
430297420.0 -0.5453560898 0.6481432163 0.0001947742 -4.93586e-05 0.0002089629 5.50807e-05 -0.0878762204 0.1080394869
435297390.0 -0.5391565613 0.6531969501 5.83311e-05 0.0001853317 0.0001667053 -3.20168e-05 -0.0863053804 0.1093109155
440297360.0 -0.5321224339 0.6583870811 0.0005081429 0.0001725208 2.74725e-05 0.0001862506 -0.0855340753 0.1105127593
445297330.0 -0.5250622515 0.6644499757 -2.32848e-05 0.000273069 0.0003392005 0.0002408938 -0.0849103886 0.1108177619
450297300.0 -0.5185527281 0.6689502795 0.0001005922 1.20375e-05 9.52768e-05 -5.07796e-05 -0.0834515771 0.1119203744
455297270.0 -0.5117972642 0.6742843886 0.0001243364 -7.6185e-06 0.0001814322 0.0001850606 -0.0828076747 0.1127941858
460297240.0 -0.5052666612 0.6788405944 1.96399e-05 7.38484e-05 0.0002404895 -2.75403e-05 -0.0820117533 0.1140974428
465297210.0 -0.4982096129 0.6848709631 0.0002429609 0.0002469488 0.0002165525 1.53397e-05 -0.0807640922 0.1148758103
470297180.0 -0.4908486798 0.6894495434 0.0002095099 0.0001088673 0.0002323992 5.94858e-05 -0.079588588 0.1158602195
475297150.0 -0.4836239811 0.6940212311 0.0001447539 6.52221e-05 -2.41175e-05 -0.0001942151 -0.0788107174 0.1165397755
480297120.0 -0.4773803552 0.6990124678 -3.55938e-05 5.90371e-05 -6.14099e-05 0.0001951894 -0.077642086 0.117560217
485297090.0 -0.4698082985 0.703840548 0.0002783652 0.0001156485 0.0001302243 -3.5981e-06 -0.0765721265 0.1184703165
490297060.0 -0.4623952387 0.7084135117 0.0001870668 5.78416e-05 8.56807e-05 -2.052e-05 -0.0759240872 0.1196200851
495297030.0 -0.4552344294 0.7130346685 0.0002244093 -5.98062e-05 4.66737e-05 -5.36881e-05 -0.0750889251 0.1203665899
500297000.0 -0.4476603471 0.7173943274 4.92742e-05 7.36053e-05 0.0001023113 0.0001147255 -0.0736924175 0.1217429207
505296970.0 -0.440492447 0.7226015269 0.0002583337 0.0002656655 0.0001004606 -0.000181108 -0.0727597328 0.1223984755
510296940.0 -0.4336214761 0.7267311003 0.0002833954 0.0003261645 0.0001894845 0.0001905367 -0.0718860725 0.122777515
515296910.0 -0.4253487739 0.7303016762 -1.50592e-05 0.0001016792 0.0001407443 -0.0001252444 -0.0706108505 0.1240305847
520296880.0 -0.4187457789 0.7354780788 0.000166494 9.33129e-05 0.000189009 4.2113e-05 -0.0697586074 0.1247922251
525296850.0 -0.4106923445 0.7384661709 0.0002326764 3.77935e-05 0.0001585338 -4.78573e-05 -0.0684272419 0.1258225914
530296820.0 -0.4030624806 0.7427950128 -0.0001003654 6.03619e-05 0.0003748771 0.0001297298 -0.0675190918 0.1264527056
535296790.0 -0.3964878051 0.7471166899 0.00012777 -0.000139335 0.0002308857 7.47522e-05 -0.0668668737 0.1272784518
540296760.0 -0.3892039983 0.7507262882 0.0002151049 7.29876e-05 9.11532e-05 -0.0001877386 -0.0653971626 0.1278953015
545296730.0 -0.3812613102 0.7549531524 0.000196192 4.86215e-05 0.0001676952 5.11059e-05 -0.064347699 0.1285820282
550296700.0 -0.3734274907 0.7588691003 0.0001380608 -5.29324e-05 0.0002164879 0.0001033513 -0.063262194 0.1298351284
555296670.0 -0.3650910417 0.7614379548 0.0002233528 -0.0001716089 0.0003079932 0.0001391804 -0.0618331432 0.1308470555
560296640.0 -0.3576232357 0.7661243069 7.41035e-05 -0.0002172051 0.0002696057 7.31498e-05 -0.0609296439 0.1312600979
565296610.0 -0.3498055456 0.7691964769 0.0001304969 -9.32474e-05 7.36043e-05 0.0001748965 -0.0595211089 0.1317347235
570296580.0 -0.3423969943 0.7723820686 0.0001283858 1.69218e-05 0.00015151 -3.27548e-05 -0.0582974589 0.1325745849
575296550.0 -0.3353789821 0.7764971474 -2.59118e-05 7.48688e-05 0.0002999108 -0.0001018618 -0.0571402338 0.1335050708
580296520.0 -0.3266470618 0.7791559034 0.0001277724 0.0002821838 6.78297e-05 -9.7523e-06 -0.056116812 0.1340478735
585296490.0 -0.3193458846 0.7825219498 0.0003481781 0.0001747587 0.0001823289 4.35755e-05 -0.0547952079 0.1347752542
590296460.0 -0.3109817392 0.7855312606 0.0002381112 0.0002166543 0.0003428116 9.79491e-05 -0.0536984287 0.1356799785
595296430.0 -0.3035478103 0.7880238286 0.0002405072 -2.29197e-05 3.13826e-05 -0.0001470233 -0.0521951245 0.1360693516
600296400.0 -0.295473544 0.7914511969 0.0002480055 -1.79632e-05 0.0001786547 0.0001111693 -0.0508630273 0.1367936777
605296370.0 -0.2879358124 0.794607277 0.0003715486 6.75321e-05 0.0001312678 -0.0001290426 -0.0494085145 0.137219209
610296340.0 -0.27962773 0.7974183303 8.98938e-05 9.0424e-06 0.0001185356 -4.20415e-05 -0.048265544 0.1383218259
615296310.0 -0.2705736716 0.799861549 0.0002344847 0.0002588859 0.0003899435 -1.43321e-05 -0.0467879323 0.1382998023
620296280.0 -0.2631541786 0.8023922699 0.0001981404 0.0002282829 3.95933e-05 2.24031e-05 -0.045761612 0.1394498084
625296250.0 -0.2556488906 0.8049641578 0.0002565122 -0.0001384737 0.0002164536 0.0002429103 -0.044315699 0.1400726632
630296220.0 -0.2465523994 0.8078928051 -0.0002195614 0.0002271625 5.0386e-06 -2.27456e-05 -0.0432876851 0.140851339
635296190.0 -0.2389472205 0.8101517043 0.0002824964 -6.85407e-05 0.0002285782 -1.30383e-05 -0.0420595378 0.1416347212
640296160.0 -0.2314008233 0.8125494145 0.0001474344 8.04052e-05 0.0001453923 -8.87656e-05 -0.0405718409 0.1419438299
645296130.0 -0.2230521057 0.8151806344 0.0001228293 -6.16e-07 0.0002116151 0.0002079892 -0.0391944516 0.1429753905
650296100.0 -0.2149041022 0.816780366 0.0001767341 0.0001055681 0.0003165736 -6.27545e-05 -0.0379716138 0.1430604101
655296070.0 -0.2065702213 0.8189586662 0.0003384078 8.84495e-05 0.0003152596 0.0002412088 -0.0364711789 0.1438203156
660296040.0 -0.1981640118 0.8203008229 0.0001845622 -7.1002e-06 0.0002964512 0.0001762985 -0.034700524 0.1444401119
665296010.0 -0.1897987314 0.822222139 0.0002119691 -3.30842e-05 8.28841e-05 -0.0001866917 -0.0340639202 0.1450542234
670295980.0 -0.1824488198 0.8242297805 0.0001552898 1.25997e-05 0.0003782241 1.78128e-05 -0.0327566377 0.1454454581
675295950.0 -0.1734841722 0.8264264734 -4.09244e-05 1.504e-07 0.000205904 -8.1067e-06 -0.0316659811 0.1461138053
680295920.0 -0.1654684376 0.8276300684 0.0003045528 -0.0001069185 0.0003019561 -0.000242925 -0.0299758599 0.1466977301
685295890.0 -0.1566839441 0.8305514971 0.0001942692 3.99523e-05 0.0001558568 6.95719e-05 -0.0285933164 0.1471410653
690295860.0 -0.1490226245 0.8309662573 0.0003370899 -0.0001500714 0.0003424731 2.67939e-05 -0.0273436484 0.1480139678
695295830.0 -0.1411323222 0.8319338391 0.0003159497 -7.31791e-05 0.0003222834 -6.69606e-05 -0.0258611736 0.1479970142
700295800.0 -0.1324117203 0.8340242565 1.13492e-05 5.07052e-05 0.0001867288 -9.57502e-05 -0.0246097901 0.1486216434
705295770.0 -0.124580392 0.8353787135 0.0002221934 -0.000168561 0.0002068273 8.69495e-05 -0.0233405092 0.1495801498
710295740.0 -0.1163898951 0.8361052124 0.0003376639 -0.0001311587 0.0003471321 1.00236e-05 -0.0219855475 0.1494086676
715295710.0 -0.108108659 0.8373922342 0.0001997732 -0.0001069931 0.0004453294 -0.0001406087 -0.0204480207 0.1499853147
720295680.0 -0.099486539 0.8383615286 0.0002214457 -0.0001430688 0.0001855247 0.0001006101 -0.0190697932 0.1499616274
725295650.0 -0.0915121154 0.8393006676 -6.2394e-05 8.77266e-05 0.000414757 0.0001024182 -0.0177784766 0.1508755109
730295620.0 -0.0832825123 0.8400820046 0.0001396455 -9.10211e-05 0.0003323545 4.47265e-05 -0.0166332872 0.1512704375
735295590.0 -0.0750048834 0.8411185897 0.0001925686 -0.0003592784 0.000327314 -2.95125e-05 -0.0153620587 0.1512601491
740295560.0 -0.0658457986 0.8423464245 8.34033e-05 1.10698e-05 0.0004008415 -7.13022e-05 -0.0131729216 0.1516434805
745295530.0 -0.0574783926 0.8427015246 0.0002704711 0.0001524847 0.0001869644 0.0001245989 -0.0117915938 0.1518766274
750295500.0 -0.0492955984 0.8428450085 0.0004597659 9.78826e-05 0.0003212639 -0.000103796 -0.0103852764 0.152515107
755295470.0 -0.0414232903 0.8427786086 0.0003338057 -9.65841e-05 0.0002075697 -9.27089e-05 -0.0089839202 0.1522478492
760295440.0 -0.0330855686 0.8432989999 0.0002949725 -6.39858e-05 0.0001938193 -4.03186e-05 -0.0078279074 0.1528247811
765295410.0 -0.0249370511 0.8440913693 0.0003846115 0.0002077284 0.0004725174 -0.0003034424 -0.0061028224 0.1531607426
770295380.0 -0.0163486419 0.8439554193 0.0004071943 0.0001041935 0.0001118285 9.01577e-05 -0.0046831282 0.1533045028
775295350.0 -0.0083325949 0.8438954932 0.0003055991 2.86355e-05 0.0003282354 -0.0001025503 -0.0037228676 0.1536751554
780295320.0 0.0007051607 0.8442166883 0.0002421678 -1.69448e-05 0.0002690175 -6.62579e-05 -0.0019315672 0.1539959355
785295290.0 0.0086653941 0.8434295815 0.0002843461 0.00012076 0.0001971417 0.0001067635 -0.0002935041 0.1541040109
790295260.0 0.0179534708 0.8438652166 0.0003589876 -7.26003e-05 0.0003093426 4.06401e-05 0.0012524373 0.1544910243
795295230.0 0.0253956435 0.8435832575 0.0001213509 -0.0001156327 0.0003274553 9.5809e-06 0.002654933 0.1545867274
800295200.0 0.0333210962 0.8430496687 0.0001574989 3.8362e-06 0.0001000239 -0.0003030471 0.0039839272 0.1548844336
805295170.0 0.04219391 0.8433283866 0.000450297 9.62032e-05 3.39126e-05 0.0002225204 0.0060186329 0.1552443728
810295140.0 0.0504537208 0.8427606016 0.0002542874 -8.10516e-05 0.0004326726 -0.0002034341 0.0076205303 0.1552052801
815295110.0 0.0586973542 0.8421305718 0.0002502612 -0.0001123343 0.0003311348 -0.0001511053 0.008647786 0.155320082
820295080.0 0.0664866298 0.8415453562 0.0001257137 2.6857e-06 0.0003491065 5.22726e-05 0.0102916331 0.1554905687
825295050.0 0.0764025927 0.84055631 0.0003170913 -0.0001168279 0.0003759682 9.9373e-05 0.0116971759 0.1557031273
830295020.0 0.0841148729 0.8396542274 0.0001781956 -5.1055e-05 0.0001787471 2.47051e-05 0.0135884095 0.1555650732
835294990.0 0.0920871748 0.8391129444 0.0001296018 -0.0001860514 0.0001455803 -0.0001614019 0.0146221121 0.1560220204
840294960.0 0.0998587299 0.8384563974 0.0002629783 -0.0002518162 3.26231e-05 -2.58495e-05 0.0161078008 0.1562751966
845294930.0 0.1077147088 0.8371287316 0.0001678102 -1.04945e-05 0.0003508312 0.0001591334 0.0174246678 0.1558005357
850294900.0 0.1163665795 0.8364505102 -8.41686e-05 -0.0001307159 0.0003667687 1.28134e-05 0.0189925282 0.156242601
