!Created with skrf (http://scikit-rf.org).
# Hz S RI R 50.0 
!freq ReS11 ImS11 ReS21 ImS21 ReS12 ImS12 ReS22 ImS22
300000.0 -0.2125382291 -0.0562631174 -0.0009508942 0.0008192749 -0.0009178136 0.0021244975 -0.7765327275 -0.1199170549
5299970.0 -0.2168616582 0.0083909219 8.7403e-06 0.0002896014 -3.97153e-05 8.04201e-05 -0.785128366 -0.006947415
10299940.0 -0.2136264718 0.0194907415 -5.1476e-05 1.04004e-05 2.41916e-05 0.0001806096 -0.7878432464 -0.0035830948
15299910.0 -0.2087380796 0.0285433996 5.2577e-05 5.84467e-05 -6.38395e-05 -0.0001547799 -0.793900679 -0.0015987111
20299880.0 -0.2033892938 0.0359140214 -0.000197581 0.0001577096 8.58638e-05 0.0001658623 -0.8000105294 0.0020007185
25299850.0 -0.1978109082 0.0419113116 -8.609e-06 8.6481e-05 -6.7324e-06 7.82745e-05 -0.8061811148 0.0082635547
30299820.0 -0.1922486094 0.0466950423 -2.16256e-05 0.000147586 -1.38784e-05 -0.0001652224 -0.8125935644 0.0160596295
35299790.0 -0.1864864846 0.0504796035 -0.0001354987 -4.50158e-05 0.0001081695 4.62186e-05 -0.8172490436 0.0248963737
40299760.0 -0.1805713202 0.053563012 8.62148e-05 -8.29287e-05 -0.0002166703 0.0001856327 -0.8216194058 0.0343299763
45299730.0 -0.1754314493 0.055608535 0.0001513975 -0.000101185 -2.65919e-05 8.57426e-05 -0.8254614483 0.0433968936
50299700.0 -0.1708317635 0.056734963 -2.3143e-05 -8.09125e-05 -0.0001703259 0.0001935225 -0.8273366917 0.0541668735
55299670.0 -0.1664487996 0.0575886895 0.0001734359 1.97868e-05 0.0001214781 0.0001887997 -0.8298571048 0.0641128942
60299640.0 -0.1624178137 0.0588058438 -1.01078e-05 -1.10911e-05 2.65354e-05 -8.11152e-05 -0.8306135381 0.0736699366
65299610.0 -0.1589090215 0.0591925534 -2.38397e-05 7.5037e-06 -5.73582e-05 0.0001574834 -0.8318359349 0.083933262
70299580.0 -0.155797129 0.0595681112 6.90017e-05 7.21998e-05 -0.0001033569 -9.82708e-05 -0.8316146084 0.0942012428
75299550.0 -0.1526626376 0.0599965586 0.0002483903 -6.6761e-06 0.0001305644 2.2499e-06 -0.8323375529 0.103892069
80299520.0 -0.1499544442 0.0601910239 0.0001046975 1.74994e-05 0.0001267485 7.925e-06 -0.8318464395 0.1136677023
85299490.0 -0.1476833157 0.0596306953 0.0001495426 8.5817e-06 -1.3043e-06 9.82956e-05 -0.8311795341 0.1234313651
90299460.0 -0.1453826469 0.0599839009 1.6497e-06 5.89533e-05 -0.0001034405 0.000198926 -0.8308254039 0.1326405445
95299430.0 -0.1432856181 0.0597324232 -4.38487e-05 5.18057e-05 -8.84727e-05 -4.9432e-05 -0.8292390898 0.1430109768
100299400.0 -0.1417221003 0.0598839444 0.000266305 -7.59319e-05 -0.0001040505 -1.96622e-05 -0.8282488129 0.1524204042
105299370.0 -0.140131004 0.0598782354 -7.07935e-05 0.0001479597 0.0003121201 -7.82561e-05 -0.8271414636 0.1609275575
110299340.0 -0.1385242903 0.0600234824 0.0001294956 0.0001312393 -5.90631e-05 -0.0001095566 -0.8256701369 0.1708104678
115299310.0 -0.1369665801 0.0598811057 0.0001303535 4.632e-06 6.63643e-05 -6.726e-06 -0.8242163506 0.1797739265
120299280.0 -0.1359651205 0.0598257893 4.10423e-05 0.000318582 1.84494e-05 -3.56143e-05 -0.8224847007 0.188453337
125299250.0 -0.1350486337 0.0598522692 -0.000221631 0.0001934011 1.96897e-05 0.0001284944 -0.8210661961 0.198055509
130299220.0 -0.1344740958 0.060388236 0.0001055862 0.0003154431 -1.69355e-05 1.78744e-05 -0.8190432389 0.2073459231
135299190.0 -0.1332581837 0.0605257503 -4.29126e-05 8.14052e-05 -0.0001310991 0.0001895745 -0.817390444 0.2162128853
140299160.0 -0.1326119859 0.0607358905 0.000136963 -0.0001030934 2.08592e-05 -0.0002049561 -0.8151963749 0.2248021464
145299130.0 -0.1314047258 0.0611094266 -3.30803e-05 3.5875e-05 0.0001268941 0.0001061297 -0.8128076177 0.2344981101
150299100.0 -0.1306615032 0.0613836507 5.80745e-05 0.000141255 6.01382e-05 -4.28316e-05 -0.8114357363 0.2431497254
155299070.0 -0.130256772 0.0618707324 -7.2196e-06 0.0002087064 -1.51354e-05 0.000231985 -0.8079125091 0.2518599386
160299040.0 -0.1298207146 0.0626555454 8.90499e-05 0.0001054988 0.0001398579 5.66238e-05 -0.8062018698 0.2609033045
165299010.0 -0.1289643931 0.0627294349 -0.0001191005 0.0002341178 5.31581e-05 -4.2158e-05 -0.8031480518 0.2692429488
170298980.0 -0.1285183317 0.0635965801 5.5293e-06 0.0002012435 0.0003563242 0.0002086414 -0.8006162431 0.278126161
175298950.0 -0.1280380079 0.0639023842 0.0001332163 2.7306e-06 4.52401e-05 -6.60991e-05 -0.7978656522 0.2864247835
180298920.0 -0.1274701729 0.0648741192 0.0002918468 -0.0002420589 4.79862e-05 0.0001051389 -0.794320466 0.2952960877
185298890.0 -0.1267273978 0.0650990303 -9.82018e-05 -9.19303e-05 1.00205e-05 0.000115547 -0.7907280959 0.3037503212
190298860.0 -0.1260464504 0.065933905 -4.11708e-05 0.0002774628 -8.4486e-06 0.000209737 -0.7885083257 0.312188251
195298830.0 -0.1261572401 0.0667476766 0.0001809142 6.9097e-06 -3.77948e-05 0.0001585008 -0.7848556227 0.3207151433
200298800.0 -0.1251789187 0.0674413767 3.27988e-05 0.0003656479 -0.00023039 6.35907e-05 -0.7819206626 0.3289466805
205298770.0 -0.1249098224 0.0680649149 2.00505e-05 -0.0001199021 0.0001004619 0.0001720698 -0.7780456383 0.3371540386
210298740.0 -0.1243956889 0.0687528872 -6.73337e-05 0.0002066277 1.56743e-05 0.0001207431 -0.7745418126 0.3458412165
215298710.0 -0.1241790578 0.0694715281 0.0001074651 0.0001692337 1.28736e-05 0.0001915487 -0.7711425681 0.3540846548
220298680.0 -0.1235636845 0.0704079118 -0.000106595 -9.75232e-05 0.0001277192 -6.43229e-05 -0.7677378031 0.3614826195
225298650.0 -0.1233513708 0.0713529517 0.0002654322 -4.73509e-05 -0.0001511224 1.012e-06 -0.7637113048 0.3696828459
230298620.0 -0.1229095854 0.0721705899 0.0001445959 0.000156637 -2.82048e-05 -3.72564e-05 -0.7600825535 0.378147275
235298590.0 -0.1222245578 0.0732968069 9.42412e-05 0.0001498305 5.0634e-05 9.6666e-06 -0.7557657506 0.3862455811
240298560.0 -0.1219425704 0.0736708444 0.0001129636 0.0001871476 0.0001601547 0.0001776936 -0.7518054673 0.3950253264
245298530.0 -0.1215033381 0.0747299042 -0.0001358517 8.16262e-05 -2.69492e-05 -4.03392e-05 -0.7480357578 0.4024459483
250298500.0 -0.1210774272 0.075946174 6.40005e-05 8.96315e-05 -1.7107e-06 0.0002912824 -0.7432159755 0.4095886538
255298470.0 -0.1205420331 0.0766660422 3.42332e-05 0.0001453427 -7.06039e-05 0.0001799882 -0.7387121591 0.417494454
260298440.0 -0.1202336836 0.0775228835 0.0001780382 7.19011e-05 0.0002559331 2.71418e-05 -0.7347882441 0.425757914
265298410.0 -0.1195831445 0.078860807 -0.0001152825 9.22493e-05 -5.39867e-05 -0.0001239003 -0.7301256613 0.4336876674
270298380.0 -0.1190008574 0.0797522568 3.84416e-05 0.0001948005 -1.73853e-05 -3.44366e-05 -0.7257765727 0.4410019776
275298350.0 -0.1185022095 0.0807723496 -2.2809e-05 -3.61761e-05 -6.5513e-05 0.0001216491 -0.7210414973 0.4486381356
280298320.0 -0.1178106132 0.0816550825 6.51627e-05 2.62057e-05 3.52981e-05 2.07466e-05 -0.7161478102 0.4562939461
285298290.0 -0.1171527185 0.0832007962 0.0001323467 -0.0001036891 4.01997e-05 9.09283e-05 -0.7111018902 0.4637622837
290298260.0 -0.1163608341 0.0839528606 8.48165e-05 3.75177e-05 0.0001546907 9.27557e-05 -0.7068908412 0.4710675846
295298230.0 -0.1159686668 0.0846017652 4.27572e-05 2.18921e-05 0.0001461644 -7.69416e-05 -0.7017593648 0.4783633812
300298200.0 -0.1154291676 0.085853617 0.0001829937 0.0001397942 7.74286e-05 0.0002631608 -0.6967751919 0.4854566889
305298170.0 -0.1146410555 0.08667241 0.0002763612 8.02984e-05 -3.6622e-06 -2.87425e-05 -0.6908412632 0.4934770847
310298140.0 -0.1141193524 0.0879548479 -4.9411e-05 0.0001238383 0.0001499109 -1.7124e-05 -0.686210199 0.4999077621
315298110.0 -0.1130717793 0.0887905826 8.81733e-05 2.34449e-05 0.0001794537 9.25276e-05 -0.6807140795 0.5068648596
320298080.0 -0.1125501925 0.0895693484 0.0001946064 0.0001832667 0.0001264313 0.0002604011 -0.6754098583 0.5144141115
325298050.0 -0.1120500653 0.0904100366 -5.59824e-05 -8.0301e-05 5.60681e-05 0.0001146422 -0.6698341936 0.5214013742
330298020.0 -0.1114209784 0.0915918954 0.0002503761 0.0001011036 0.000168062 6.82596e-05 -0.663844098 0.5289794402
335297990.0 -0.1109331165 0.0925355437 4.64863e-05 -1.46463e-05 3.64814e-05 0.0001398147 -0.6592008419 0.5355059685
340297960.0 -0.1107953474 0.0936906539 0.0001922528 9.44983e-05 0.0001051172 0.0002354763 -0.6532907425 0.5420353747
345297930.0 -0.1100290109 0.0948453075 -0.000171305 2.15889e-05 0.0002876224 4.06477e-05 -0.6475820856 0.5485168733
350297900.0 -0.109282614 0.0958510508 0.0001891451 0.0002032966 -4.3372e-06 0.0003577088 -0.6420881568 0.5558276352
355297870.0 -0.1085027917 0.0972070386 5.52793e-05 0.0001603925 -0.0001296011 0.0002129392 -0.6360090687 0.5621404051
360297840.0 -0.1078089689 0.0983717213 4.54965e-05 0.0001176399 0.0002251559 -4.92339e-05 -0.6299584481 0.568582156
365297810.0 -0.1073418631 0.0994576657 0.0002699619 4.80559e-05 0.0002293372 5.5323e-06 -0.6240045813 0.5751160609
370297780.0 -0.1065700698 0.1004585186 0.0002735434 -2.91541e-05 6.89581e-05 -3.45748e-05 -0.6181352514 0.5813710929
375297750.0 -0.1055773211 0.1017186646 0.0002288245 1.40629e-05 2.35689e-05 -3.77832e-05 -0.6119257139 0.5875645145
380297720.0 -0.1048965309 0.1023649356 0.0001634682 0.0001322923 0.0001832404 0.0002108544 -0.6063980987 0.5940417638
385297690.0 -0.1041089114 0.1038232296 0.0002417464 0.0002098577 0.0002327811 5.80997e-05 -0.5992499257 0.6006158888
390297660.0 -0.1033810319 0.1051897574 0.0001578995 8.46594e-05 0.0001584594 -2.0319e-06 -0.5934573012 0.6067053893
395297630.0 -0.1021693982 0.1061015152 8.68901e-05 1.85899e-05 0.0003212814 -9.39907e-05 -0.5866938121 0.6128637508
400297600.0 -0.10146906 0.1072194065 0.0001630477 0.0002653229 0.0001885892 0.0001739432 -0.5805545144 0.6186213456
405297570.0 -0.1010879854 0.1080742999 0.0001503274 -1.57486e-05 6.53488e-05 2.77931e-05 -0.5741033411 0.6244764543
410297540.0 -0.0999782446 0.1092972735 0.0001333442 -0.0001009676 0.0002933001 0.0001520543 -0.5676995542 0.630455647
415297510.0 -0.0991193452 0.1099710641 3.26057e-05 -3.99546e-05 0.0002151363 0.0001134122 -0.5615845243 0.6359625647
420297480.0 -0.0982997044 0.1113832371 9.70021e-05 1.80919e-05 0.0001393762 -8.59149e-05 -0.5542998281 0.6419185539
425297450.0 -0.0970841738 0.112570783 0.0001266494 0.0001543975 0.0001345531 0.0002193325 -0.5482796791 0.6474973956
430297420.0 -0.0961294215 0.1134232466 0.0001392282 9.3128e-06 9.06865e-05 0.0001883972 -0.5411576929 0.652843022
435297390.0 -0.0951983738 0.1145226275 0.0001700295 1.60667e-05 0.0002789158 -6.03361e-05 -0.5344573865 0.6585395128
440297360.0 -0.0945437487 0.115451453 0.0003185015 0.0002184282 0.0001292932 0.0001691686 -0.5270564838 0.663777457
445297330.0 -0.0936548112 0.1164058244 0.000236053 -0.0001554361 0.0002672747 -1.99729e-05 -0.5206759343 0.6688003403
450297300.0 -0.0924835524 0.1173223127 0.0001679124 0.0001899454 9.59523e-05 8.04004e-05 -0.5137224855 0.6742549324
455297270.0 -0.0916613013 0.1187149116 0.0002993799 -8.0156e-06 0.0002340887 0.0001099195 -0.5069914371 0.67886707
460297240.0 -0.0907663782 0.1197447681 0.0001216031 0.0001179047 0.0002743935 1.18575e-05 -0.5000588434 0.6841779773
465297210.0 -0.089429663 0.1207275683 0.0001826901 -5.14903e-05 2.50125e-05 4.21723e-05 -0.4921529913 0.6892906627
470297180.0 -0.0884619793 0.1217460057 -2.16815e-05 -4.38999e-05 6.76333e-05 0.0001749153 -0.4851841979 0.694627563
475297150.0 -0.0874481773 0.1226204381 0.0003205225 6.4517e-06 -5.06061e-05 0.0001417041 -0.4783998188 0.6991581523
480297120.0 -0.0861972594 0.1237638473 0.0002868577 0.0001993034 0.000151708 1.85389e-05 -0.4706788695 0.7037169466
485297090.0 -0.0854983024 0.1246964329 0.0001599288 6.99145e-05 -5.81079e-05 0.0002728141 -0.4637908904 0.7086091637
490297060.0 -0.0842549464 0.125873103 0.0003498282 -7.71856e-05 0.0001880056 0.0001904827 -0.4564531336 0.7129325495
495297030.0 -0.083339016 0.1267366833 8.35119e-05 6.99329e-05 1.09646e-05 -9.70432e-05 -0.4489810593 0.7178253888
500297000.0 -0.082114422 0.1275204684 0.0002201622 4.20088e-05 6.88098e-05 0.0001314154 -0.4417101934 0.722814139
505296970.0 -0.0808718385 0.1285198426 0.0002821817 0.0002394035 0.0001913962 2.25682e-05 -0.4342794067 0.7270135981
510296940.0 -0.0798676307 0.1293849274 0.0003520599 -0.0001664013 0.0002336254 0.0001690542 -0.4263697861 0.7312029815
515296910.0 -0.0783611985 0.1301474492 0.0003138182 0.0001039337 0.0002055297 6.13133e-05 -0.4194712757 0.735590159
520296880.0 -0.0777991816 0.1313983344 0.0001008754 5.59231e-05 5.1486e-05 0.0001677167 -0.4117716033 0.7394247205
525296850.0 -0.0765349605 0.1317448504 0.0002106303 -3.391e-05 0.0002941097 0.0002846377 -0.4046018434 0.7437609893
530296820.0 -0.0751642998 0.1332050396 0.0001671025 5.49968e-05 9.42877e-05 0.0001339247 -0.3969409602 0.747624153
535296790.0 -0.0742374009 0.1339930267 0.0002133741 1.39987e-05 0.0001455131 9.60039e-05 -0.3896441977 0.7510090358
540296760.0 -0.0733336538 0.1346714213 0.0002387111 -0.0001395073 0.0003956524 0.0001911215 -0.3816200837 0.7554642152
545296730.0 -0.0718714106 0.1355328341 0.0001599303 -0.0002608072 0.00032205 8.04721e-05 -0.3744239072 0.7590674464
550296700.0 -0.0704624721 0.1368080818 0.0002342241 5.68067e-05 9.52279e-05 3.01877e-05 -0.3657525965 0.7629077293
555296670.0 -0.0695221407 0.1371986923 0.0001617906 8.12095e-05 0.000278878 6.90311e-05 -0.3585463102 0.7670970394
560296640.0 -0.068077305 0.1381306025 0.0003609709 3.58686e-05 0.0002319139 0.0002061787 -0.3508913076 0.7707636696
565296610.0 -0.0668178018 0.1392551886 0.0001576545 5.74795e-05 0.0003453617 -2.94047e-05 -0.3429750888 0.7734137097
570296580.0 -0.065965532 0.1397298253 4.989e-05 0.0001344537 0.000293845 9.17693e-05 -0.3354462068 0.7778574531
575296550.0 -0.0644394494 0.1406544773 0.0001360238 -4.72788e-05 7.56264e-05 -1.57067e-05 -0.3270669402 0.7806071594
580296520.0 -0.063179316 0.1413761206 0.0002305877 8.4022e-06 0.0001764035 -3.52947e-05 -0.3185977639 0.7834477147
585296490.0 -0.0619743577 0.1419880773 0.0004409402 -6.31581e-05 0.0002933519 0.0001789004 -0.3109858527 0.7870521255
590296460.0 -0.0605795272 0.1427483289 0.0002181591 9.28911e-05 0.0003384114 0.000175176 -0.3034367508 0.7896297429
595296430.0 -0.0595343496 0.1435714827 0.0002150452 0.0001286009 0.0002273703 -0.0001496016 -0.2947442425 0.7922776654
600296400.0 -0.0581515078 0.1444038898 0.0001507513 -1.18144e-05 0.0002205361 0.0002503402 -0.287124448 0.7957720345
605296370.0 -0.0568932111 0.144893096 0.0001019885 -5.91831e-05 0.000247089 -8.91387e-05 -0.278408409 0.7989321966
610296340.0 -0.0557110296 0.1457517153 0.0003457071 -8.28892e-05 0.0001761445 5.53622e-05 -0.2707012142 0.8013093962
615296310.0 -0.0538473992 0.1466594123 -5.21093e-05 -0.0001455486 0.0002927018 2.2331e-05 -0.2622457294 0.8034865697
620296280.0 -0.0529241933 0.147215795 0.0002334331 0.0001997117 0.0001732251 0.0001787647 -0.2548788745 0.8064024363
625296250.0 -0.0516494341 0.1478367415 0.0001044709 -4.78206e-05 0.0001238261 -4.75204e-05 -0.2457140157 0.808429559
630296220.0 -0.0500672512 0.1483799716 0.0002059818 0.0001505246 0.0003466066 -5.35835e-05 -0.2379041035 0.8112079676
635296190.0 -0.0488099647 0.1490798515 0.0001459892 8.50014e-05 -1.26248e-05 -6.96351e-05 -0.2301219866 0.8131943531
640296160.0 -0.0475755279 0.1498287016 0.0001971491 5.19947e-05 0.0002073325 -0.0001948573 -0.221549324 0.8159143142
645296130.0 -0.0460605141 0.1509811243 0.0001975508 6.82437e-05 0.0004989962 0.0002783767 -0.2136698368 0.8178564213
650296100.0 -0.0445511936 0.1512827623 0.0003676397 0.0001484835 -2.41655e-05 0.0001479445 -0.2053531251 0.8199673626
655296070.0 -0.0433442355 0.1520332945 0.0001518062 0.0001131059 0.0004291724 -0.0001074385 -0.1969700036 0.8215835693
660296040.0 -0.0418769189 0.1524473602 6.06416e-05 0.0003391343 0.0002299767 -9.56721e-05 -0.1881935364 0.8237204622
665296010.0 -0.0401724193 0.1528566796 0.0002042104 -9.76818e-05 0.000294174 -0.0001335469 -0.1796563263 0.8259829448
670295980.0 -0.0393641973 0.1537325708 0.0001076695 -5.8e-05 0.0001557718 -0.0001715319 -0.172539929 0.8272289938
675295950.0 -0.037820512 0.1541026134 9.21254e-05 -1.95349e-05 0.0003409169 -9.86222e-05 -0.1641461574 0.8291948253
680295920.0 -0.0362830773 0.1547367233 0.0003851778 -0.0001233365 0.0002681773 5.55722e-05 -0.1559152197 0.8316831258
685295890.0 -0.0347977827 0.1553749557 0.0002851127 -7.80161e-05 0.0001743159 5.96273e-05 -0.1467965162 0.8317360687
690295860.0 -0.0336532797 0.155820441 0.000206635 0.0001401977 0.0002300483 -0.0001208163 -0.1388474135 0.8338749941
695295830.0 -0.0321467851 0.1563492239 0.0005011895 -9.0875e-06 0.0001477189 2.53306e-05 -0.1303354956 0.8348878791
700295800.0 -0.0305839654 0.1567617254 0.0003177192 -2.45284e-05 0.0003037091 5.26623e-05 -0.1226690385 0.8368358176
705295770.0 -0.0293705407 0.1574016046 0.0004162772 0.0001104415 0.0003338231 0.0001181774 -0.1137051527 0.8381988821
710295740.0 -0.0276104144 0.1581630609 0.0004182696 6.21954e-05 0.0002642508 3.05375e-05 -0.1054621669 0.8384721267
715295710.0 -0.0264281529 0.1582888342 0.0003791706 -0.0001014859 8.79891e-05 7.25846e-05 -0.0970736328 0.8394637362
720295680.0 -0.0247883293 0.1587376985 -2.45786e-05 -7.3415e-05 0.0002854965 0.0001052206 -0.0887793115 0.8405429839
725295650.0 -0.0233981149 0.1592971537 0.0003205179 -0.0001855947 0.0003719261 -6.48092e-05 -0.0807460812 0.8418535364
730295620.0 -0.0219375856 0.1598233463 0.0001147653 -4.6305e-05 0.0001505525 0.0002116574 -0.0721671953 0.8420409808
735295590.0 -0.0202962246 0.1598721884 0.0002900181 -6.7988e-06 0.0002588461 -6.78618e-05 -0.063892559 0.8423864947
740295560.0 -0.0192058521 0.1607705724 0.0001523965 -0.0001159769 0.0002389165 -3.12829e-05 -0.0544815762 0.8436025331
745295530.0 -0.0178563314 0.1609018539 0.0004519977 -8.82693e-05 0.0003177742 -6.3746e-06 -0.0461145842 0.8437526228
750295500.0 -0.0159836728 0.1613588734 0.0002853477 0.0002304058 0.0002815244 -0.0001444392 -0.0381553316 0.8443849457
755295470.0 -0.0143639703 0.1615836552 0.0003187858 -6.30061e-05 0.0003601068 -7.81952e-05 -0.0295969932 0.8439396902
760295440.0 -0.013259935 0.1620028048 0.0001470404 0.0001130206 0.0003300527 -0.0001022804 -0.021183177 0.8443945583
765295410.0 -0.0115184063 0.1620800258 0.0004108974 -8.09467e-05 0.0002735013 -6.62739e-05 -0.0130035178 0.844796423
770295380.0 -0.0102357316 0.1623993488 0.0004395304 -0.000114238 0.0003524638 2.3938e-06 -0.0044066628 0.8450917485
775295350.0 -0.0086905803 0.1625033846 0.0002671208 -6.68667e-05 0.0002455698 -0.0001446961 0.0033387618 0.8447528967
780295320.0 -0.0069942763 0.1629506122 0.0002357068 0.0001108265 -8.75474e-05 3.18797e-05 0.0120268513 0.8447338537
785295290.0 -0.0056695941 0.1629075218 5.72433e-05 -1.9749e-05 0.0003187509 6.10836e-05 0.0209097316 0.8444206985
790295260.0 -0.0036958114 0.1636594927 0.0002390545 -2.18416e-05 0.0002498594 -0.0001238263 0.0298559211 0.8446450745
795295230.0 -0.0024692496 0.1637914119 0.0006981682 -3.2305e-06 0.000327521 -8.09381e-05 0.0381343433 0.8434880814
800295200.0 -0.0010351646 0.1639895059 0.0003621285 -0.0002209313 0.0002285183 -3.1494e-06 0.0470825085 0.843661065
805295170.0 0.0007135125 0.1642327941 8.99483e-05 -1.31848e-05 0.0001522159 5.3645e-06 0.055023983 0.8430442988
810295140.0 0.002327545 0.164425249 0.000443407 -0.0001174822 0.000273568 -0.0001454802 0.0630915123 0.8422180606
815295110.0 0.0037717369 0.1645261535 0.0004816207 -0.0001154084 0.0003936237 6.9954e-06 0.0712887835 0.8416565054
820295080.0 0.0051755095 0.1649226132 0.000334142 -0.0001213741 0.0006061146 -7.92335e-05 0.0800983913 0.8414499145
825295050.0 0.0070773039 0.1647535614 0.0001238388 2.42801e-05 0.0004318195 -4.18041e-05 0.0881558932 0.8401852596
830295020.0 0.0083649337 0.1649890276 0.0002358522 3.87556e-05 0.0003736123 -5.28613e-05 0.0976707746 0.8391416271
835294990.0 0.0099204186 0.1651886106 0.0005966017 -2.47896e-05 0.0002742866 -0.0001146052 0.1051344773 0.8383942892
840294960.0 0.0114636124 0.1654818924 0.0004779634 -9.27159e-05 0.0002112086 -0.0001843304 0.1135440572 0.8372197711
845294930.0 0.0131996565 0.1651152683 0.000355855 0.0001441943 0.0004166031 9.21e-05 0.1211238233 0.8354470506
850294900.0 0.0145327434 0.1657571775 1.52789e-05 -0.0001087712 0.000240407 -0.0001366827 0.1296173655 0.8343127431
