!Created with skrf (http://scikit-rf.org).
# Hz S RI R 50.0 
!freq ReS11 ImS11 ReS21 ImS21 ReS12 ImS12 ReS22 ImS22
300000.0 -0.7719468982 -0.1345474339 -0.0013245194 0.0009744473 0.0015347019 0.0027064763 -0.7682470844 -0.1493253212
5299970.0 -0.7853517268 -0.0069522921 -7.33224e-05 0.0001079772 0.0002507913 1.30401e-05 -0.7849449282 -0.0083122347
10299940.0 -0.7879603116 -0.0041493167 6.51643e-05 4.34274e-05 -0.0002263977 -3.7109e-05 -0.7883168586 -0.0049118283
15299910.0 -0.7934356749 -0.0015123812 -1.52731e-05 -7.42719e-05 -0.0001024235 -0.0002227332 -0.793789691 -0.0030683457
20299880.0 -0.799490396 0.0025957716 9.44824e-05 -7.7412e-05 -4.45661e-05 -0.000259362 -0.8003820906 0.0016545523
25299850.0 -0.8064582501 0.0084172857 -3.33499e-05 -0.0001908356 -0.0001226105 8.41176e-05 -0.8066089541 0.0073715702
30299820.0 -0.8117320619 0.0164062672 -6.98137e-05 0.0001576646 -5.53045e-05 2.25868e-05 -0.8127302169 0.0144017901
35299790.0 -0.8169130141 0.0246680048 -5.37381e-05 -7.38246e-05 0.0001091752 -6.97132e-05 -0.8179481448 0.0236349044
40299760.0 -0.8210555365 0.034175548 -1.10178e-05 -0.000118449 0.000103266 -3.23306e-05 -0.8216948414 0.0332139424
45299730.0 -0.825223214 0.0441181541 0.0001558442 -1.4596e-05 -4.90297e-05 -8.67871e-05 -0.8255003921 0.0424747391
50299700.0 -0.8265940494 0.0536789025 4.43e-05 -0.0002125657 0.0001891319 -6.8962e-06 -0.8275244877 0.0527750618
55299670.0 -0.8286089919 0.0643160514 -0.0001753038 4.37686e-05 -0.0002270829 -8.35955e-05 -0.8302139183 0.0628421072
60299640.0 -0.8297981902 0.0740824081 6.89219e-05 0.0001331842 -7.25428e-05 -7.96424e-05 -0.8308566424 0.0729888208
65299610.0 -0.8315201456 0.0846145316 0.0001038415 -6.98749e-05 0.0002026126 9.15905e-05 -0.8312830548 0.0827443545
70299580.0 -0.8311852511 0.0948662169 0.0001839658 -1.93336e-05 -0.0001185336 5.87168e-05 -0.8323429446 0.0924032091
75299550.0 -0.8313638387 0.1051749058 -0.0001015071 6.72378e-05 5.02332e-05 -7.65368e-05 -0.8322462515 0.1025708948
80299520.0 -0.8311389318 0.1145981834 0.0001849286 -0.0001085352 -0.0001263514 -0.0001345378 -0.832056339 0.1124533578
85299490.0 -0.8307069663 0.1241651554 0.000109772 0.0001103771 8.73993e-05 0.0001643677 -0.8318398947 0.1219315429
90299460.0 -0.8296794638 0.1339429734 4.27048e-05 -0.0001413844 9.74599e-05 -3.3772e-05 -0.831028954 0.1311570201
95299430.0 -0.828269012 0.1430506739 9.54264e-05 0.0001005016 0.000109765 -0.0002506326 -0.8299996433 0.1410908468
100299400.0 -0.827685304 0.1529722519 0.0001785389 -3.76254e-05 1.35238e-05 -4.11168e-05 -0.8285660439 0.1496948489
105299370.0 -0.8263858632 0.1620766761 -4.69282e-05 6.12661e-05 -6.86531e-05 9.33562e-05 -0.8275777972 0.1590249747
110299340.0 -0.8251305562 0.170779082 2.48241e-05 -2.95275e-05 3.8184e-06 7.5073e-06 -0.8265466698 0.168260558
115299310.0 -0.8237131944 0.1804695173 -0.0001859735 2.4427e-06 -0.0001107865 0.00012179 -0.8245229339 0.1770511456
120299280.0 -0.8219851789 0.189475385 0.0001250158 0.0001504762 -3.14635e-05 0.0002657933 -0.8239049399 0.1863390459
125299250.0 -0.8205657042 0.1984927067 -3.08781e-05 -0.0001048313 9.46974e-05 -1.89819e-05 -0.8211923368 0.195259633
130299220.0 -0.8183263361 0.2074467562 6.442e-06 -0.000178748 5.5815e-06 0.0001295638 -0.8203721332 0.2042561542
135299190.0 -0.8166466228 0.2166678008 -0.0001199923 -5.16399e-05 -4.99303e-05 -7.17365e-05 -0.8180411147 0.2131055778
140299160.0 -0.8148479094 0.2254613863 9.96357e-05 0.000181069 3.89761e-05 -2.02468e-05 -0.8154810573 0.2214592196
145299130.0 -0.8125332225 0.234545746 -6.91383e-05 0.0001610793 0.0001113072 -1.26838e-05 -0.8138298947 0.230307461
150299100.0 -0.8100082175 0.243455425 -1.32913e-05 -0.0001545688 -2.36864e-05 -6.66995e-05 -0.8114328886 0.238779613
155299070.0 -0.8076607028 0.2524055758 3.70376e-05 -0.0001424502 -8.03437e-05 -0.0001280865 -0.8091263991 0.2475092195
160299040.0 -0.8046968204 0.2612697823 1.24006e-05 0.0001424351 -0.0001525894 3.33988e-05 -0.8070572212 0.2570389147
165299010.0 -0.8023651771 0.2692810824 -5.30802e-05 0.000158756 5.50383e-05 2.40382e-05 -0.804589134 0.2654583851
170298980.0 -0.7990667934 0.2777669274 -0.0001580514 2.15326e-05 -4.0781e-06 9.7856e-06 -0.8018550386 0.2730802328
175298950.0 -0.7964869627 0.2871058661 -0.0001582443 0.0001022673 0.000112511 3.57085e-05 -0.7992056291 0.2817597096
180298920.0 -0.7936216829 0.2954170135 -0.0001022576 0.0001359801 -0.0001248638 -5.95117e-05 -0.7951621744 0.2902883071
185298890.0 -0.7908399979 0.3042150558 -5.3674e-05 -9.18124e-05 5.83524e-05 -7.6651e-06 -0.7927152111 0.2988898284
190298860.0 -0.7877701163 0.3121959461 0.0001081218 7.80825e-05 -7.38779e-05 0.0001582001 -0.7895694981 0.3070889058
195298830.0 -0.7836623154 0.320988755 2.11166e-05 -5.85194e-05 -0.0001536381 4.91356e-05 -0.7865285171 0.3157701114
200298800.0 -0.7811997881 0.329274577 0.0001947774 -0.0001549419 6.931e-06 -6.59392e-05 -0.7828562487 0.3243281257
205298770.0 -0.7775894253 0.3374457969 8.99612e-05 6.71619e-05 4.84587e-05 0.0001057505 -0.7797267069 0.3325448259
210298740.0 -0.7737777357 0.3455647361 -1.45103e-05 9.95922e-05 0.0001348784 -0.0001200267 -0.7769370054 0.3408009762
215298710.0 -0.7700712467 0.35441271 -0.0001859032 2.16921e-05 0.0001068917 8.41793e-05 -0.7737811073 0.3487266958
220298680.0 -0.766897344 0.3624482412 1.38513e-05 -0.0003000078 -3.55877e-05 0.0002565402 -0.7696821794 0.3568379586
225298650.0 -0.7626430952 0.3709396503 -0.0001017189 -7.30201e-05 -2.00727e-05 -2.58775e-05 -0.7657631182 0.3651270759
230298620.0 -0.7588555518 0.379021101 0.0001513222 -9.90997e-05 8.4063e-05 -0.0001628872 -0.7614009367 0.3728321791
235298590.0 -0.7548553376 0.3871750932 0.0001215679 0.0001230824 -3.81234e-05 -0.0001127278 -0.7577058104 0.3809291176
240298560.0 -0.7509977617 0.3952134618 3.04432e-05 0.0002293018 -0.0001425365 -3.39217e-05 -0.753818133 0.3888032323
245298530.0 -0.7459193591 0.402890884 -0.0002311818 -0.0001441629 -2.25435e-05 -1.08145e-05 -0.749949826 0.3967431561
250298500.0 -0.7427188278 0.410830489 -0.0001489862 0.0001054404 1.67649e-05 -7.21768e-05 -0.745780792 0.4047342017
255298470.0 -0.7375837104 0.4186025547 -0.000117337 -8.79251e-05 -0.0001428915 -0.0002055031 -0.7413116921 0.4128051131
260298440.0 -0.7336508267 0.4260067766 0.0001800907 -3.45629e-05 -0.0003241897 2.23892e-05 -0.736934978 0.4203836071
265298410.0 -0.7294795132 0.4339546753 9.48031e-05 0.0001333783 -2.61359e-05 -5.50561e-05 -0.7323778318 0.427847884
270298380.0 -0.7240227346 0.4421368206 -9.36125e-05 -0.0002664793 0.000136997 3.69534e-05 -0.7274026644 0.4352516329
275298350.0 -0.7195315305 0.4487428342 -0.0001978686 -0.0001043797 0.0001314658 -4.96043e-05 -0.7230066467 0.4432981152
280298320.0 -0.7150940863 0.456851009 -6.76204e-05 -0.0001159341 -7.35407e-05 2.97098e-05 -0.7184782491 0.4505077762
285298290.0 -0.7103939944 0.4645994694 0.0002067036 1.8373e-06 8.74842e-05 -0.0002062222 -0.713638201 0.4579972404
290298260.0 -0.705907589 0.4716176135 0.0001677662 0.0002265161 8.35945e-05 1.51797e-05 -0.7084886324 0.4658077709
295298230.0 -0.7008009179 0.4792935079 -0.000121591 -1.31286e-05 0.0001201186 -1.3002e-06 -0.7039467611 0.4728428025
300298200.0 -0.6951001657 0.4862319253 6.39439e-05 0.00010993 -0.0001469033 8.2422e-05 -0.6990021703 0.4802208342
305298170.0 -0.6901500461 0.4940460354 -0.0003117173 0.000196772 0.0001121986 0.0001092809 -0.6931621495 0.4872455264
310298140.0 -0.6842252685 0.5014228179 0.0001494491 -0.0001213788 0.0001555148 7.7857e-05 -0.6886301408 0.4951215024
315298110.0 -0.6792387039 0.5078968933 -0.0001915354 -3.89681e-05 0.000135281 5.09697e-05 -0.6832305374 0.5019804233
320298080.0 -0.6739606404 0.5157123588 -4.66309e-05 2.57895e-05 0.0001391997 9.9202e-06 -0.6782940648 0.5098494756
325298050.0 -0.668593336 0.5216994353 -4.45441e-05 4.58673e-05 6.90725e-05 5.74439e-05 -0.6721121786 0.5161618767
330298020.0 -0.6631316024 0.529342007 -0.0001993789 -0.0001421822 4.1376e-05 0.0001663155 -0.6666673506 0.5239834989
335297990.0 -0.6570427489 0.5361548705 0.0001606571 -8.0728e-05 7.77422e-05 -4.81805e-05 -0.6616910849 0.5300730748
340297960.0 -0.651805707 0.542824457 1.53988e-05 -9.4698e-06 -9.58528e-05 1.68102e-05 -0.6557690706 0.5370338274
345297930.0 -0.6465192861 0.5486681698 -4.04667e-05 4.20982e-05 4.16767e-05 -4.49815e-05 -0.6497752271 0.5444270424
350297900.0 -0.6392789035 0.5564205889 2.27347e-05 0.0001036954 -0.0001532723 -5.64134e-05 -0.6440840326 0.5506827133
355297870.0 -0.6346583557 0.5630825518 -0.0002060362 0.0001218179 4.40724e-05 -0.0002400039 -0.6378557864 0.5573377712
360297840.0 -0.6286291288 0.5690828159 0.0001754826 0.0001253942 -3.5414e-06 -8.99921e-05 -0.6320270117 0.5638334505
365297810.0 -0.6223243104 0.5755797421 5.6865e-06 -8.2731e-05 8.68944e-05 -0.0001988052 -0.6263435417 0.5703440899
370297780.0 -0.6163419782 0.581427434 0.0001550681 8.63697e-05 3.87893e-05 -3.15987e-05 -0.6206979222 0.5764624179
375297750.0 -0.6102418554 0.5884409173 -0.0001294324 4.5859e-05 0.0001642562 4.0921e-06 -0.614412911 0.5834086159
380297720.0 -0.6037016314 0.5946457676 5.07417e-05 -0.0001379416 6.92021e-05 2.31212e-05 -0.6072699623 0.5901365755
385297690.0 -0.5979741344 0.6008294941 -5.8436e-05 0.0001057032 -8.76184e-05 -0.0001376078 -0.6016636504 0.5959198252
390297660.0 -0.5911366473 0.6067789446 6.79334e-05 -0.0001387887 7.25238e-05 6.82864e-05 -0.5955087949 0.6015364218
395297630.0 -0.5849756899 0.6131854348 -0.0004365938 -0.000181064 4.9487e-05 3.3179e-05 -0.5890367817 0.6082784945
400297600.0 -0.5785924984 0.6198348001 0.0001493664 6.68221e-05 -0.0001843448 -3.28898e-05 -0.5831788433 0.6140195094
405297570.0 -0.5723878487 0.6250147344 2.56047e-05 0.0002369311 2.62255e-05 -4.93736e-05 -0.5768433144 0.6196046171
410297540.0 -0.5654114757 0.6306592127 7.88048e-05 0.0001850721 2.72679e-05 -2.48607e-05 -0.5696443667 0.6254631118
415297510.0 -0.5594981419 0.6366739178 4.23015e-05 -5.6797e-05 -1.0917e-05 4.46438e-05 -0.5637414221 0.6319383071
420297480.0 -0.5518215504 0.6424371713 -0.0001620602 0.0001319242 -7.08629e-05 -2.88105e-05 -0.5567088963 0.6367688388
425297450.0 -0.5457317197 0.6482120102 -7.03653e-05 -5.5443e-05 -5.22449e-05 0.0002330643 -0.5496943297 0.6432015114
430297420.0 -0.539427844 0.6535172101 1.46921e-05 -0.0002154757 4.85396e-05 -3.94137e-05 -0.5435833354 0.6487186926
435297390.0 -0.5323909145 0.6587787703 -5.76831e-05 -0.0001638818 -0.0001231419 -0.0003318539 -0.5368452271 0.6535155802
440297360.0 -0.5250066194 0.6645916553 3.44066e-05 -6.17955e-05 -6.12065e-05 -5.7063e-05 -0.5301733731 0.6593028706
445297330.0 -0.5186509046 0.6698586542 -1.45638e-05 -5.07627e-05 -1.94254e-05 -7.42396e-05 -0.5235619983 0.6641144562
450297300.0 -0.5112250977 0.6744754953 3.66772e-05 0.0001663176 -8.47849e-05 -6.45388e-05 -0.5166490994 0.669840449
455297270.0 -0.5041385397 0.6798886303 -1.86043e-05 -3.19872e-05 0.0001156345 2.34376e-05 -0.5099009775 0.6749657705
460297240.0 -0.4976232358 0.6854910616 8.1893e-05 0.0001422713 -1.82442e-05 7.7017e-05 -0.5025434049 0.680428275
465297210.0 -0.4896874504 0.6900816764 -0.0002291934 0.0001367774 -6.4465e-05 7.69696e-05 -0.4961001197 0.6850643525
470297180.0 -0.4826222034 0.6947236734 -3.41002e-05 0.0001939221 -2.32912e-05 -1.02213e-05 -0.4892743913 0.6900526804
475297150.0 -0.4754895068 0.7005980845 0.0001055974 -5.44291e-05 8.54637e-05 0.0001023266 -0.4818179587 0.6950678774
480297120.0 -0.4692109384 0.7047307606 -1.6814e-06 -0.0003734781 4.813e-06 7.65081e-05 -0.4749970379 0.700247793
485297090.0 -0.461059259 0.7094467818 1.28427e-05 -0.0003168076 0.0001312203 -0.0001289416 -0.4674434682 0.7039736175
490297060.0 -0.4541797612 0.7143658839 0.0002033121 9.42517e-05 -6.78072e-05 7.6457e-05 -0.4605532129 0.7085820767
495297030.0 -0.4470048357 0.7188465372 -1.63362e-05 -3.70112e-05 -7.0126e-06 2.0079e-05 -0.4526988324 0.7127579966
500297000.0 -0.4387875259 0.7235019503 0.0001128916 -0.0001007777 -9.03757e-05 -0.0001034026 -0.4462491116 0.7182882468
505296970.0 -0.4316130073 0.7266878954 2.24365e-05 1.21782e-05 0.0001790921 -5.77501e-05 -0.4400320067 0.7221033317
510296940.0 -0.4241845031 0.7317868985 0.000220202 -3.58062e-05 -1.73e-06 -0.0001265042 -0.431368744 0.7264914206
515296910.0 -0.4171711627 0.736261774 0.0002110378 -1.02019e-05 7.83687e-05 5.20459e-05 -0.4242166278 0.7308924288
520296880.0 -0.4085331016 0.7413068951 -0.0001308495 0.0001730357 -7.75552e-05 1.66587e-05 -0.4172579541 0.7349751726
525296850.0 -0.4017088967 0.7447563588 -0.0003442646 7.68115e-05 0.0001473395 -0.0001395534 -0.4092495156 0.7399116531
530296820.0 -0.3945020298 0.7481095915 -1.74018e-05 -0.0002296173 0.0001180427 2.90254e-05 -0.402911027 0.7431393316
535296790.0 -0.3862698157 0.7520783587 -2.0903e-05 8.9498e-06 8.7567e-06 -4.88634e-05 -0.3949758522 0.746524359
540296760.0 -0.3779667038 0.7563856721 7.36445e-05 -3.1289e-05 6.6775e-06 -1.80265e-05 -0.3879575178 0.7509646903
545296730.0 -0.3711791516 0.7596599883 4.35607e-05 0.0002709425 5.61624e-05 0.0001415895 -0.3800371237 0.7546392837
550296700.0 -0.3631790882 0.7642623972 0.0001474046 9.12734e-05 -0.0001111321 4.0726e-06 -0.3728250658 0.7585138528
555296670.0 -0.3545464411 0.7668698042 8.60946e-05 -0.0001326484 -5.65732e-05 -0.0001498572 -0.3650431691 0.7619550563
560296640.0 -0.3469246498 0.770463328 -6.77509e-05 0.0002602637 -6.32951e-05 -8.36051e-05 -0.3575930277 0.7653171769
565296610.0 -0.3396483404 0.774114485 0.0002239762 0.0001500513 2.37431e-05 7.49163e-05 -0.3502246716 0.7693220026
570296580.0 -0.3317619276 0.7775855498 -4.2288e-06 -6.65152e-05 -0.0001204672 7.72869e-05 -0.3428154506 0.7726550918
575296550.0 -0.3238385534 0.7807852209 -0.0002622504 5.58357e-05 7.09425e-05 4.89651e-05 -0.3339641438 0.7760216859
580296520.0 -0.31541291 0.7838489807 0.0002466716 7.74319e-05 2.22604e-05 8.29687e-05 -0.3267235994 0.7793047384
585296490.0 -0.3075862207 0.7863820473 -2.79462e-05 -3.1293e-06 -0.000115551 0.0001077507 -0.3190752348 0.7822572087
590296460.0 -0.2996373814 0.7895884093 -4.56885e-05 -6.73338e-05 9.29533e-05 -2.23981e-05 -0.3113815618 0.7853248229
595296430.0 -0.2909169145 0.7931633908 -4.9776e-06 -0.0001220162 -5.9072e-06 0.0001513799 -0.3037502786 0.7879529049
600296400.0 -0.2837528911 0.7958853731 -7.03824e-05 0.0001806493 0.0002183363 8.70861e-05 -0.2960681172 0.7911669088
605296370.0 -0.2751814403 0.7989358238 0.0001892636 6.93392e-05 -0.0001482091 -3.67899e-05 -0.2881866835 0.7939810921
610296340.0 -0.2671813416 0.8015883923 -1.769e-05 -5.48348e-05 -0.0001762946 -9.2794e-05 -0.2798930373 0.7975337849
615296310.0 -0.2593770788 0.8041534834 -0.0002435349 -0.0001177148 -5.4345e-06 0.0002059797 -0.2723383685 0.799925515
620296280.0 -0.2506369474 0.8057439568 9.73121e-05 -5.26523e-05 -6.57937e-05 8.51374e-05 -0.2644447448 0.8016576737
625296250.0 -0.242538055 0.8092361082 -0.0001989668 -0.000142647 0.0001723267 -2.0147e-06 -0.2563826508 0.8047558068
630296220.0 -0.2344769091 0.8115208461 5.92084e-05 0.0001103531 4.95367e-05 -0.0001141428 -0.2482605266 0.8074989799
635296190.0 -0.2264636689 0.8140141142 -9.50609e-05 -1.15159e-05 0.000109889 8.90826e-05 -0.2404912494 0.8093715285
640296160.0 -0.2178475488 0.8148353093 -1.15012e-05 -4.7981e-05 9.2855e-06 -0.0001449362 -0.2321594655 0.8118398254
645296130.0 -0.2103604156 0.8176719211 5.1281e-06 0.0001083018 -0.0001092438 -1.30452e-05 -0.2250225223 0.8142599484
650296100.0 -0.2016690874 0.8201456776 -0.0001060464 -0.000119682 -8.48252e-05 -0.0001722815 -0.2166248745 0.8163543209
655296070.0 -0.1928947526 0.8219250909 -0.0002658873 -3.1258e-06 -0.0001010496 -0.0001191564 -0.2081451965 0.8179428556
660296040.0 -0.1849822012 0.8235201185 5.4221e-05 2.90982e-05 -0.0002218031 0.0002549032 -0.2003474384 0.820073819
665296010.0 -0.1771092802 0.8260524933 -3.95677e-05 -9.41349e-05 -6.93772e-05 4.53434e-05 -0.1929491945 0.82225108
670295980.0 -0.1677330958 0.8267617082 -7.23628e-05 5.07167e-05 6.30806e-05 1.90928e-05 -0.1853064783 0.8241833178
675295950.0 -0.1594961676 0.8287074923 9.94148e-05 0.0001289391 1.50807e-05 -4.4536e-05 -0.1762904165 0.8263822285
680295920.0 -0.1516920762 0.8305524066 0.0001217221 0.0001426721 2.49668e-05 5.66872e-05 -0.1679425785 0.8276937993
685295890.0 -0.1431649017 0.8321657803 -3.86736e-05 0.0001562314 0.0001692777 -9.94873e-05 -0.1594355567 0.8291083584
690295860.0 -0.1342600732 0.8337366815 0.0002017665 4.53487e-05 -2.91238e-05 -0.0001502442 -0.1516100245 0.8307898092
695295830.0 -0.1257860067 0.8338751318 2.04115e-05 -0.0001717861 -0.0001703929 0.0001036956 -0.1433942553 0.8322321667
700295800.0 -0.1175856153 0.8354031035 -1.55303e-05 -4.82338e-05 -5.8179e-05 -6.86205e-05 -0.1349742466 0.8332864518
705295770.0 -0.108846427 0.8372229017 -0.0001432351 1.14749e-05 -8.75411e-05 1.65667e-05 -0.1275496254 0.8350725021
710295740.0 -0.1011424651 0.8383798646 0.0001288232 6.34292e-05 1.20727e-05 0.0001436368 -0.1187630693 0.8364719297
715295710.0 -0.0933507943 0.8390850682 -5.36124e-05 -1.00997e-05 -0.0001027878 -9.03429e-05 -0.1109458873 0.8378547339
720295680.0 -0.0840532854 0.8394967099 -9.82881e-05 -2.0698e-05 -3.14071e-05 2.0542e-06 -0.1021279094 0.838298889
725295650.0 -0.0749577962 0.8407886693 -3.4227e-05 5.68571e-05 -0.0001356279 -1.12136e-05 -0.0934785045 0.8396465476
730295620.0 -0.0670334135 0.8415061475 0.0001029883 -0.0001779734 0.0001605085 8.71585e-05 -0.0853553509 0.8402268118
735295590.0 -0.0580921031 0.8419005567 -1.41718e-05 9.44581e-05 -3.01373e-05 -3.73437e-05 -0.0758428245 0.8406435876
740295560.0 -0.050020717 0.8425605366 -0.0001714551 -0.0001003453 5.84853e-05 -0.000166587 -0.0684899002 0.840954506
745295530.0 -0.0414818237 0.8428184217 -2.20371e-05 -5.76002e-05 -8.32476e-05 -3.44743e-05 -0.0603942724 0.8419874593
750295500.0 -0.033617104 0.8430696788 7.05771e-05 -2.1912e-05 0.0001551211 0.0003158999 -0.0522499625 0.8423176601
755295470.0 -0.0243617998 0.8437351101 0.000233204 -0.0001464927 -0.0002129596 6.73746e-05 -0.0440779926 0.8429796442
760295440.0 -0.0161187659 0.8436100094 -3.70135e-05 -0.0001284257 -5.42273e-05 2.48856e-05 -0.0357970408 0.8436490708
765295410.0 -0.0080851751 0.8436381754 0.0001129705 -4.91828e-05 0.0001249452 1.25646e-05 -0.0267009894 0.8436594804
770295380.0 0.0004045243 0.8438172641 7.61845e-05 0.000177955 0.0001336675 -4.79016e-05 -0.0184058847 0.8439950248
775295350.0 0.0093998085 0.8439369915 -6.2198e-06 0.0001233459 -3.54195e-05 8.90978e-05 -0.0110220677 0.8443545002
780295320.0 0.0180067239 0.8433919664 -0.0001276769 0.0001057002 0.0001328047 9.78369e-05 -0.0022134086 0.8446091568
785295290.0 0.0261133313 0.843824975 0.0001441726 9.7731e-06 -5.37987e-05 0.0001343 0.0056888201 0.8443295895
790295260.0 0.0343941731 0.8431470618 -9.13737e-05 5.95268e-05 8.42622e-05 5.3466e-06 0.0152002345 0.8440973127
795295230.0 0.0431790134 0.8430985388 -9.45668e-05 -5.0484e-05 0.0001030176 -5.00025e-05 0.0236373171 0.8444319348
800295200.0 0.0515485773 0.8425872433 1.03652e-05 2.24667e-05 -0.0001356374 0.0002078141 0.0312983335 0.8437450027
805295170.0 0.0602691862 0.8421671998 3.49432e-05 0.0001880878 -1.84303e-05 2.65633e-05 0.0388080365 0.8433699668
810295140.0 0.0684309061 0.8410537258 0.0001613374 0.0001333778 -0.0001231518 2.21322e-05 0.0476278938 0.8435395213
815295110.0 0.0770420246 0.8402282974 0.0001035822 -0.0001357352 0.0001299343 -3.5798e-05 0.0561714718 0.8424870975
820295080.0 0.0852883144 0.8388677096 -3.0164e-06 -0.0001625539 8.92544e-05 -2.8699e-06 0.0640984779 0.8420022846
825295050.0 0.0939282801 0.8386256753 6.3093e-06 0.0002609731 0.0001416162 0.0001731601 0.0725615355 0.8412040179
830295020.0 0.1022251633 0.8376192051 -2.8822e-06 0.0001296455 5.46077e-05 3.0728e-06 0.0802544156 0.8405986711
835294990.0 0.1105282634 0.8368269572 5.36979e-05 -8.64301e-05 0.0001085014 -4.31604e-05 0.0889322839 0.8397981127
840294960.0 0.1184494951 0.8353711682 -4.39755e-05 7.0672e-06 9.6537e-06 0.000146704 0.0969948683 0.8386841889
845294930.0 0.1270490251 0.8341521488 1.48623e-05 -6.65448e-05 -0.0001268658 -4.016e-05 0.1053462672 0.8375221276
850294900.0 0.1354372222 0.8326862335 -9.94422e-05 7.67039e-05 -0.00016601 -2.7085e-06 0.1134777512 0.8369712548
