!Created with skrf (http://scikit-rf.org).
# Hz S RI R 50.0 
!freq ReS11 ImS11 ReS21 ImS21 ReS12 ImS12 ReS22 ImS22
300000.0 -0.2405837584 -0.08406851 0.4726326029 0.055405322 0.4673129372 0.0545280986 -0.241086553 -0.0940638188
5299970.0 -0.2441070331 0.0069117183 0.4737511763 0.0051288825 0.4736044468 0.005269939 -0.2439815517 0.0071776597
10299940.0 -0.2409099383 0.0187142477 0.4752854892 0.0060288873 0.4756884431 0.0065532302 -0.2406284269 0.0200947059
15299910.0 -0.2367059069 0.0280036388 0.4791219955 0.0075089344 0.4792613432 0.0076543165 -0.2360678317 0.0296259329
20299880.0 -0.2320271309 0.0354803825 0.4839480442 0.0086507674 0.4839039785 0.0084706254 -0.2308079653 0.0374196743
25299850.0 -0.2268787469 0.0421284238 0.4890002355 0.0076775588 0.488764441 0.0075308078 -0.2248737492 0.0439838135
30299820.0 -0.2215630621 0.0472017101 0.4946779547 0.0053968226 0.4944203435 0.0053419198 -0.2189734106 0.0492038215
35299790.0 -0.2161989338 0.0513793143 0.4996086303 0.0017607116 0.5002419921 0.0022264509 -0.2135238079 0.0538195754
40299760.0 -0.2114091041 0.0549792637 0.5046301494 -0.0020842323 0.5049206816 -0.0015483927 -0.2082180427 0.0559664826
45299730.0 -0.2065481633 0.0576869628 0.509466777 -0.0065504922 0.5099873357 -0.0063382306 -0.2033254958 0.0590288327
50299700.0 -0.2022328318 0.0599253322 0.5142978007 -0.0122573697 0.514152753 -0.0115840394 -0.1984499882 0.0604986648
55299670.0 -0.1983255687 0.0617404416 0.5183616238 -0.0188112009 0.5177847186 -0.0178450451 -0.1944848772 0.0622254057
60299640.0 -0.1943135839 0.0633671659 0.5211922145 -0.0243114329 0.5215802915 -0.0236674406 -0.190666662 0.0630614228
65299610.0 -0.1912895988 0.0646896276 0.5241588217 -0.0307208577 0.5242874816 -0.0304620777 -0.1869769484 0.0642638081
70299580.0 -0.1880141018 0.0661658629 0.5271299555 -0.0370796754 0.5264914187 -0.0370759182 -0.1838030941 0.0647063672
75299550.0 -0.1851700923 0.067242592 0.5284898817 -0.0442908405 0.5282036756 -0.0441389611 -0.1809967886 0.0654049275
80299520.0 -0.1825931246 0.0681070932 0.5305282419 -0.0510223317 0.5307562085 -0.0510533628 -0.1784275574 0.0660502592
85299490.0 -0.1801551192 0.0691340706 0.531932877 -0.0574311169 0.53160235 -0.0575339372 -0.1760857476 0.0662629024
90299460.0 -0.1778413116 0.0696672313 0.532537082 -0.0647296101 0.5328219338 -0.0646780039 -0.1739627735 0.0670863291
95299430.0 -0.1756265608 0.0703807809 0.533903118 -0.0718002552 0.5332654342 -0.0717957341 -0.1712106868 0.0674800454
100299400.0 -0.1738117194 0.0716541859 0.5334547045 -0.0784551521 0.5339079381 -0.078486377 -0.1693005551 0.0671769585
105299370.0 -0.1720577639 0.0723246164 0.5342962541 -0.0856581971 0.5343871163 -0.0855263979 -0.167285703 0.0680621728
110299340.0 -0.1704062342 0.0734311269 0.5345252703 -0.0918658356 0.534316645 -0.0919020253 -0.1666149186 0.0684975212
115299310.0 -0.1687353652 0.0742090097 0.534618506 -0.0991950978 0.5344522855 -0.0994089735 -0.1648739623 0.0689076104
120299280.0 -0.1672762989 0.0746888741 0.5337571041 -0.1061256784 0.5342931446 -0.1060837275 -0.163470551 0.0694263501
125299250.0 -0.1662701203 0.0754399985 0.5337532221 -0.1125587902 0.5340998479 -0.1122989983 -0.1624280774 0.0696518907
130299220.0 -0.1650031152 0.0768673761 0.533310052 -0.1196092808 0.5331490269 -0.1195838628 -0.161171582 0.0702015068
135299190.0 -0.163652957 0.0779246598 0.5329978631 -0.1261762046 0.5324975399 -0.125770522 -0.1596730033 0.071065583
140299160.0 -0.1627730667 0.0789804188 0.53177009 -0.1329200892 0.5318362957 -0.1330393421 -0.1585119609 0.0717707432
145299130.0 -0.1613426151 0.0797978939 0.5309822402 -0.1391968289 0.5309139451 -0.1391384482 -0.1576586378 0.0725824176
150299100.0 -0.1601546808 0.0812813131 0.5295500694 -0.1452397623 0.5296364721 -0.1453413547 -0.1568681145 0.0738144722
155299070.0 -0.1594823965 0.0822978832 0.5287791736 -0.1526984464 0.5285576712 -0.1522404084 -0.1557708628 0.0744364032
160299040.0 -0.1583352208 0.0834660494 0.5271943021 -0.1587735979 0.527033943 -0.1587669751 -0.1552626569 0.0753835066
165299010.0 -0.1570767229 0.0846364205 0.5256228073 -0.16564777 0.5260719849 -0.1655721007 -0.1539545765 0.0766224494
170298980.0 -0.1564877004 0.0856410369 0.5236726136 -0.1719323875 0.524457704 -0.1717431935 -0.1532761628 0.0776295937
175298950.0 -0.1557359907 0.0870585507 0.5229843593 -0.1774764694 0.5222994305 -0.1781994217 -0.1525509993 0.0787183631
180298920.0 -0.1546563518 0.0882852774 0.5212281873 -0.1842522013 0.5206408825 -0.1837921085 -0.1520585634 0.0799810589
185298890.0 -0.1534867212 0.0894590675 0.5193654103 -0.1900850004 0.5191888276 -0.1902937409 -0.151180352 0.0809242327
190298860.0 -0.1526276551 0.0910495575 0.5172477408 -0.1963924177 0.5173375856 -0.1965662664 -0.1503589695 0.0819186208
195298830.0 -0.1515711287 0.09232442 0.5151413833 -0.2024256005 0.5153505083 -0.2028222868 -0.1494353443 0.0831858351
200298800.0 -0.150841534 0.093428199 0.51314622 -0.2090465256 0.5131473421 -0.2090435063 -0.1493918124 0.0841223047
205298770.0 -0.1499328015 0.0950418636 0.5107584157 -0.2149994653 0.5105930808 -0.214680883 -0.1484618944 0.0845922036
210298740.0 -0.148958432 0.096160634 0.5083141969 -0.2205819818 0.5082557739 -0.2206352169 -0.1473461634 0.0869478055
215298710.0 -0.1483563737 0.0979348518 0.5065552982 -0.2268407012 0.5062170434 -0.227016291 -0.1475472635 0.0878611351
220298680.0 -0.1470627606 0.0987160491 0.5034878311 -0.2327371523 0.5035187132 -0.2328235947 -0.1467872022 0.0887757242
225298650.0 -0.1462359318 0.1004130732 0.5010621072 -0.2388367517 0.5015724401 -0.2386119817 -0.1463299425 0.0899262711
230298620.0 -0.145005032 0.1020886792 0.4984690492 -0.2441350937 0.4991249044 -0.2445459958 -0.1456835022 0.0907524899
235298590.0 -0.1439219589 0.1036076762 0.4960863921 -0.2502182716 0.4965432702 -0.2495286913 -0.1446421898 0.0923812337
240298560.0 -0.1430779739 0.1051937833 0.4932996113 -0.2561107088 0.4933670548 -0.2559741991 -0.1441477318 0.0936651814
245298530.0 -0.1422967967 0.1063973787 0.4910580257 -0.2614276656 0.4906655386 -0.2617124598 -0.1430284471 0.0941494379
250298500.0 -0.1408338727 0.1080967935 0.4870365166 -0.2675112274 0.4873705149 -0.267036936 -0.1424001466 0.0960205406
255298470.0 -0.1399461087 0.1092017539 0.4845452011 -0.2724878236 0.4848357358 -0.2725657909 -0.1415918994 0.0968699902
260298440.0 -0.1390191495 0.1105884186 0.4819949407 -0.2785091384 0.4820523083 -0.2783229219 -0.1406629489 0.0984473515
265298410.0 -0.1375260362 0.1125723892 0.478561676 -0.2838545611 0.4791322366 -0.2839908744 -0.1396787751 0.0994828005
270298380.0 -0.1365488077 0.1139434665 0.4759750126 -0.2890504835 0.4761285112 -0.2891234282 -0.1391735464 0.1005589675
275298350.0 -0.1354132594 0.115130034 0.4724066311 -0.2949743892 0.4727536973 -0.2945363568 -0.1377286047 0.1018086943
280298320.0 -0.1340610138 0.1167234933 0.4699919344 -0.2998190305 0.4695140454 -0.3002805117 -0.1367645056 0.1029647133
285298290.0 -0.1328558 0.1181689187 0.466245409 -0.3050038121 0.4662866952 -0.3056309913 -0.1359187562 0.1040950448
290298260.0 -0.1315624213 0.1197380635 0.4630675667 -0.3107238065 0.4630026253 -0.3107569256 -0.1349179006 0.1058907905
295298230.0 -0.1303151852 0.1207688574 0.459561837 -0.3156039951 0.4598075902 -0.3159920996 -0.133474984 0.106593564
300298200.0 -0.1291796036 0.1224244042 0.4565166532 -0.3209984985 0.4567523236 -0.3213018003 -0.1325945087 0.1078258344
305298170.0 -0.1277617737 0.1235856102 0.4521226786 -0.326885011 0.4527840248 -0.326426724 -0.1311088407 0.1089561242
310298140.0 -0.1264696446 0.1251086971 0.4489007229 -0.3317129775 0.4492077538 -0.331431389 -0.1303961884 0.1102971577
315298110.0 -0.1253806185 0.1261877804 0.4459025937 -0.3366470513 0.4457643245 -0.3364856661 -0.1293496371 0.1112598199
320298080.0 -0.1237333941 0.1274610855 0.441094632 -0.3422673381 0.4418712295 -0.3420211943 -0.1285507772 0.1129171229
325298050.0 -0.1226831277 0.1289191806 0.4377018594 -0.3469751605 0.4381868459 -0.3470166336 -0.1277375808 0.113724381
330298020.0 -0.1212600658 0.1302311241 0.433734787 -0.3520017798 0.4338204446 -0.3517388229 -0.1270389271 0.1150788391
335297990.0 -0.1201111117 0.1311759538 0.4298827985 -0.3564539149 0.4296101874 -0.3569641577 -0.1263799881 0.1168957597
340297960.0 -0.1195343747 0.1329107676 0.4255712504 -0.3615985369 0.4254068836 -0.3616614737 -0.1248325259 0.1179271348
345297930.0 -0.1177006343 0.1346123918 0.4214406651 -0.3666054009 0.42180555 -0.3665830502 -0.1239916129 0.1190307421
350297900.0 -0.1166927252 0.1353042533 0.4167466241 -0.3713100618 0.4169101925 -0.3707031597 -0.1235179326 0.1209314888
355297870.0 -0.1149921139 0.1375646723 0.4131625613 -0.3756787316 0.4132959448 -0.3756598529 -0.1223129477 0.1221500191
360297840.0 -0.1137234909 0.1388004861 0.4098187854 -0.379823519 0.4091606993 -0.3797427193 -0.1210613206 0.123769787
365297810.0 -0.1125781866 0.1405308233 0.4048951411 -0.3847189527 0.4051819815 -0.3848083457 -0.1200765987 0.1252241452
370297780.0 -0.1106720607 0.141517561 0.4000998718 -0.3887959984 0.4010699436 -0.3882094854 -0.1190537155 0.1264880962
375297750.0 -0.1090795814 0.1428416015 0.3960328418 -0.3932494028 0.3971214617 -0.3933379679 -0.1181829716 0.1273313965
380297720.0 -0.1079424466 0.1442000842 0.3919183164 -0.397962721 0.3919968809 -0.3971210009 -0.1169545561 0.1288595204
385297690.0 -0.1063314376 0.1455122717 0.3870802241 -0.4017683339 0.3870905776 -0.4020053998 -0.1155955682 0.130264231
390297660.0 -0.1050385091 0.1473267244 0.3833902114 -0.406352108 0.3830357824 -0.405959745 -0.114742839 0.1311418306
395297630.0 -0.1032530298 0.148349288 0.3786867154 -0.4104831403 0.3786787511 -0.4104724928 -0.1128887975 0.1326176871
400297600.0 -0.1017375209 0.1496807445 0.3737180277 -0.4148295863 0.3741783519 -0.4146941755 -0.1121019414 0.1340380299
405297570.0 -0.1005291464 0.15085905 0.3696409029 -0.418328568 0.3695903356 -0.4183679603 -0.1114296904 0.1352226189
410297540.0 -0.0984893404 0.1521588576 0.3651140808 -0.4227850257 0.3654081409 -0.4227387164 -0.1100913096 0.1366447266
415297510.0 -0.0966174765 0.152868061 0.3602782559 -0.4268342598 0.3603056429 -0.4269755509 -0.1087940408 0.1374806347
420297480.0 -0.0953007798 0.154747131 0.3552204667 -0.4307780225 0.3554003416 -0.4308664737 -0.1075606168 0.138374603
425297450.0 -0.0933916275 0.1554856745 0.3508866416 -0.4344780453 0.3510823665 -0.4346784788 -0.1067304529 0.1399868937
430297420.0 -0.0918644547 0.1565873444 0.345985756 -0.4374969034 0.3460825726 -0.438057998 -0.1054860912 0.1411187273
435297390.0 -0.0901148999 0.1577089494 0.3410520285 -0.4419550668 0.3411012568 -0.4417911875 -0.1032824874 0.1418767945
440297360.0 -0.0883724302 0.1592053946 0.3360185994 -0.4456618986 0.336060581 -0.4457183362 -0.1024238247 0.1429077273
445297330.0 -0.0866871242 0.1599821603 0.3316458294 -0.4492456435 0.3319201192 -0.4487309692 -0.1009853069 0.1436854154
450297300.0 -0.0847286673 0.160974137 0.3264639847 -0.4530945459 0.3264926303 -0.4528712456 -0.0996004354 0.1449081104
455297270.0 -0.083107908 0.1621695089 0.3214638149 -0.4560614045 0.3216144844 -0.4564313871 -0.098166222 0.1458405175
460297240.0 -0.0816255847 0.1631763752 0.3165048349 -0.4599399403 0.3167577417 -0.4601920152 -0.0969051908 0.1468688362
465297210.0 -0.0793654116 0.1643964515 0.3116830061 -0.4633460674 0.3116965326 -0.4634289289 -0.0952915343 0.1477308007
470297180.0 -0.0777801045 0.1652787696 0.3060391562 -0.4667246383 0.3063105678 -0.4666519658 -0.0936410274 0.149022889
475297150.0 -0.0759290166 0.1658515248 0.3012430878 -0.4690882524 0.3014255845 -0.4696192931 -0.0918772662 0.1497315864
480297120.0 -0.0741980417 0.1673335342 0.2960657031 -0.4730113564 0.2959094171 -0.4734091422 -0.0904526055 0.151153507
485297090.0 -0.0723163691 0.1679883721 0.2907725464 -0.4760689518 0.2911435228 -0.4759359247 -0.0889330434 0.1519584116
490297060.0 -0.0707796337 0.1689966618 0.2860495956 -0.4791982252 0.2858815087 -0.4790562815 -0.0873475514 0.153243746
495297030.0 -0.0685465724 0.169738159 0.2797640139 -0.4821426385 0.2808947306 -0.4823880292 -0.0863124999 0.1543234486
500297000.0 -0.0670190259 0.1707559914 0.275547682 -0.485218032 0.2746739786 -0.4850461397 -0.0843147336 0.1558217722
505296970.0 -0.0647374725 0.1715075742 0.2699174311 -0.4882623805 0.2695463328 -0.4883967555 -0.0831093683 0.1562838365
510296940.0 -0.063145222 0.1724475435 0.2646568593 -0.4913818925 0.2644603057 -0.4916451757 -0.081488384 0.1576068713
515296910.0 -0.0611172671 0.1733128752 0.2586319916 -0.4941342628 0.2593817309 -0.4941152755 -0.0798608008 0.1586412328
520296880.0 -0.059525356 0.1739704701 0.253792488 -0.4972180908 0.253809424 -0.4967580083 -0.0782740374 0.1593657507
525296850.0 -0.0572092776 0.1745170384 0.2478888299 -0.4993855602 0.2487629366 -0.4997207621 -0.0773475435 0.1604518152
530296820.0 -0.0552186327 0.1756098355 0.2427861525 -0.5020489625 0.243034246 -0.502199953 -0.0752754688 0.1615071547
535296790.0 -0.0537280207 0.1766093234 0.2376685828 -0.5047313147 0.2376214141 -0.5048698148 -0.0739933652 0.1620443131
540296760.0 -0.0519153915 0.1774341283 0.2318980068 -0.5077514218 0.2320713136 -0.5071964546 -0.0728284587 0.1634059316
545296730.0 -0.0498598485 0.1780474219 0.2258016584 -0.5096726228 0.2264880074 -0.509970427 -0.0712325343 0.1641355535
550296700.0 -0.0475343522 0.1789119993 0.2206464373 -0.5120684871 0.2208260781 -0.5125690448 -0.0696586805 0.1649150174
555296670.0 -0.0457809367 0.1792102573 0.2150574863 -0.5148915567 0.215422073 -0.5143623651 -0.0683111444 0.1658088544
560296640.0 -0.0434966479 0.180409222 0.2094304873 -0.5171781953 0.2099055756 -0.5169169707 -0.0666079787 0.166752501
565296610.0 -0.0419141615 0.1808705447 0.2037787519 -0.5193248878 0.2042173894 -0.5191320661 -0.0650256262 0.167008998
570296580.0 -0.040040615 0.1811966327 0.197978984 -0.5220583748 0.1979345098 -0.5211823491 -0.0636104315 0.1682507635
575296550.0 -0.0383189924 0.182198136 0.1930793355 -0.5237705314 0.192409402 -0.5233281043 -0.0616903635 0.1689748865
580296520.0 -0.035387078 0.1822948323 0.1867901947 -0.5256174386 0.1871288488 -0.5253143624 -0.060262893 0.1694907612
585296490.0 -0.0340739855 0.1828035485 0.1815593273 -0.5275084697 0.1812720432 -0.5275104036 -0.0585377676 0.170451939
590296460.0 -0.0315264722 0.1836787305 0.1754950023 -0.5290939419 0.1752873719 -0.5291987046 -0.0576032671 0.1709147211
595296430.0 -0.029525254 0.1842103967 0.1691644055 -0.5318241088 0.1694225059 -0.5311485508 -0.0552756909 0.171320475
600296400.0 -0.0278958313 0.1843633193 0.1635486871 -0.5328891557 0.1635340537 -0.5327929783 -0.0540300199 0.1722494945
605296370.0 -0.0260701137 0.1849960413 0.1578459829 -0.5346128185 0.1580831665 -0.5347880103 -0.0519803133 0.1728764534
610296340.0 -0.0237491583 0.1854500185 0.1517995135 -0.5361711713 0.152144945 -0.5363999655 -0.0502171279 0.1731703234
615296310.0 -0.0214163034 0.1855689662 0.1460972016 -0.5373458013 0.1461032284 -0.5383745533 -0.0485925491 0.1736753879
620296280.0 -0.0195676073 0.1857821361 0.1408693975 -0.5393488547 0.1407192653 -0.5392367442 -0.0473003649 0.1745203604
625296250.0 -0.0176077263 0.1859002967 0.1349948908 -0.5410923917 0.1346159005 -0.5411854035 -0.0448841315 0.1749741061
630296220.0 -0.0147492253 0.1866516803 0.1282885968 -0.5421448237 0.1284334921 -0.5420637506 -0.0433905844 0.1757924987
635296190.0 -0.0137148481 0.1867168426 0.1226322137 -0.5438599402 0.1227836318 -0.5436397537 -0.0414299248 0.1758968794
640296160.0 -0.0115058168 0.1870847657 0.1169444132 -0.5446729352 0.1174640627 -0.5446623776 -0.0398286957 0.176678293
645296130.0 -0.0093490476 0.1876394168 0.1110875018 -0.5456340683 0.1115273322 -0.5461581427 -0.0379944949 0.1771347924
650296100.0 -0.0072222414 0.1875504006 0.1050180128 -0.5466378942 0.1055616268 -0.5470956143 -0.0359258229 0.1773814874
655296070.0 -0.0052784706 0.1876321121 0.0992377877 -0.5478923133 0.099636539 -0.5480648193 -0.034185709 0.1780871577
660296040.0 -0.0039075095 0.1874972652 0.093764577 -0.5492941698 0.0937439375 -0.5495598293 -0.0322392473 0.1786208582
665296010.0 -0.0010675899 0.1877417179 0.0871514545 -0.5500259032 0.0871796849 -0.5498164538 -0.0305570936 0.1793043556
670295980.0 0.0003741562 0.1884294614 0.0815749802 -0.5509023081 0.0818767592 -0.5509837431 -0.0292139449 0.1799097322
675295950.0 0.0027986764 0.1886238152 0.075695144 -0.5516946031 0.0757313967 -0.5512915389 -0.0278860232 0.180323561
680295920.0 0.004630757 0.1883541679 0.0693949333 -0.5525606119 0.0691066978 -0.5529742572 -0.0253949672 0.1812863656
685295890.0 0.0070315134 0.1891302422 0.0638127999 -0.5533327596 0.0633990435 -0.5531846121 -0.0239153474 0.1814154403
690295860.0 0.0092635422 0.1888119375 0.0575458967 -0.5532037547 0.0577257907 -0.5543684775 -0.0222083974 0.182439394
695295830.0 0.0112457193 0.1888161672 0.05225004 -0.554039495 0.051505217 -0.554517043 -0.0204177694 0.182699263
700295800.0 0.0133323238 0.188397326 0.0458287257 -0.5544568448 0.0453587461 -0.554509378 -0.0188513192 0.1835808327
705295770.0 0.0150941401 0.1891607038 0.039788338 -0.555251613 0.0399937097 -0.5549576084 -0.0171524546 0.1836321517
710295740.0 0.0176385778 0.1890185134 0.0341519144 -0.5557098538 0.034214744 -0.5560960062 -0.0152361658 0.1835354387
715295710.0 0.019172687 0.1887715091 0.0281945227 -0.5562763787 0.02763839 -0.5557620142 -0.0131482131 0.1840820182
720295680.0 0.0213219921 0.1884106353 0.0214457898 -0.5559760604 0.0220592141 -0.5564261012 -0.0115110303 0.184759142
725295650.0 0.02379137 0.1887566761 0.0154428223 -0.5564759236 0.0157707573 -0.5565821844 -0.0103449416 0.1850863125
730295620.0 0.0260103181 0.1887466407 0.0094028825 -0.5562498237 0.0095409353 -0.5566508298 -0.0082630387 0.1849667285
735295590.0 0.0277582979 0.1886731403 0.0037756713 -0.5566455969 0.0035657646 -0.5568350771 -0.0067975927 0.1849454874
740295560.0 0.029614918 0.1883107465 -0.0020795823 -0.5563748797 -0.0021594158 -0.5569904866 -0.004841823 0.1856203124
745295530.0 0.0317705969 0.1884317507 -0.0085147092 -0.5559422415 -0.0085690962 -0.5565253839 -0.002824142 0.1855208403
750295500.0 0.0339967489 0.1881254497 -0.0140533896 -0.5560986821 -0.0141008974 -0.5564881763 -0.0012669457 0.185619818
755295470.0 0.0363756857 0.1874376221 -0.0201536148 -0.5561053878 -0.020246839 -0.5562253761 0.0008385348 0.1852348253
760295440.0 0.0378631388 0.1873700903 -0.0263001867 -0.556216472 -0.0263583295 -0.5561898568 0.0024326786 0.1856674824
765295410.0 0.0400825115 0.1872087488 -0.0323827808 -0.555616612 -0.0325335417 -0.5557698092 0.0043295629 0.185943667
770295380.0 0.0418404033 0.1864958762 -0.0381315918 -0.5547129026 -0.0385348033 -0.5549017636 0.0057294166 0.1858518063
775295350.0 0.0440697917 0.1859058967 -0.0448113159 -0.5540482582 -0.0436667135 -0.5548187217 0.0072877511 0.1862442617
780295320.0 0.0462384834 0.185971068 -0.0503992859 -0.5537336709 -0.0495597854 -0.5538423412 0.0094682288 0.1855019226
785295290.0 0.0479709699 0.1851482433 -0.0567357236 -0.5530244483 -0.0559893378 -0.5534150619 0.0118529825 0.185739335
790295260.0 0.0506573418 0.1852934655 -0.0616866459 -0.5528372472 -0.061237194 -0.5527478435 0.013385268 0.1858771323
795295230.0 0.0522493703 0.1845548318 -0.0681338691 -0.5518440083 -0.0676458807 -0.5520956933 0.0153509665 0.1859539809
800295200.0 0.0540861874 0.1844472538 -0.0743694524 -0.5510051036 -0.0737640085 -0.551175368 0.0170682715 0.1855826284
805295170.0 0.0563650048 0.1836462427 -0.0797330605 -0.5499307782 -0.079972643 -0.5503616178 0.018859309 0.1858563946
810295140.0 0.0582818908 0.1829993182 -0.0854997678 -0.5489811119 -0.0859770175 -0.549473301 0.0212436998 0.1860079181
815295110.0 0.0602186266 0.1822446373 -0.091602025 -0.5478175489 -0.0913978183 -0.5483310078 0.022737146 0.1857122704
820295080.0 0.061824949 0.1823419967 -0.0972657309 -0.5467894649 -0.0972647853 -0.5471162031 0.0248030198 0.1856725936
825295050.0 0.064681652 0.1814299404 -0.1026429211 -0.5457354312 -0.1031237994 -0.5462212809 0.026766452 0.1857418566
830295020.0 0.0664392641 0.1811346603 -0.1089999035 -0.5448786729 -0.1093289219 -0.544745308 0.0292187068 0.1857494508
