!Created with skrf (http://scikit-rf.org).
# Hz S RI R 50.0 
!freq ReS11 ImS11 ReS21 ImS21 ReS12 ImS12 ReS22 ImS22
300000.0 -0.2302965179 -0.1292588671 0.4659384593 0.0853540957 0.4669415785 0.0840670146 -0.2356775554 -0.1304244361
5299970.0 -0.2421546736 0.0053319325 0.4748468293 0.0060179668 0.4755179925 0.0061856726 -0.2442872475 0.0044030398
10299940.0 -0.2387719205 0.0189855005 0.4772346674 0.0063465583 0.4770497777 0.0067424403 -0.241130523 0.0171370854
15299910.0 -0.2337173846 0.0288012037 0.4808320818 0.0078701483 0.4807808929 0.0082412492 -0.2370109168 0.0265944239
20299880.0 -0.2285249752 0.0368171081 0.4853801278 0.0081730584 0.4855734629 0.0080983059 -0.2318638085 0.033934983
25299850.0 -0.2225851336 0.0435849249 0.491018451 0.0078571238 0.4906728535 0.0074254563 -0.2269524237 0.0401763088
30299820.0 -0.2171859732 0.0486983964 0.4959278531 0.0052192688 0.4961133084 0.0050179475 -0.2218199508 0.0450523659
35299790.0 -0.2111046719 0.0526883104 0.5008504553 0.0021365978 0.5013219869 0.0018424949 -0.2167388184 0.0492518179
40299760.0 -0.2060096941 0.0559371843 0.5063633701 -0.0021137005 0.5068061762 -0.0024267286 -0.2118002749 0.0522520515
45299730.0 -0.2009805319 0.0587040646 0.5111965112 -0.006497211 0.5112421604 -0.0071149702 -0.2068993766 0.0547368889
50299700.0 -0.1961416384 0.0606917265 0.5152903058 -0.0122990155 0.5153286133 -0.0124327008 -0.2024160384 0.0570370617
55299670.0 -0.1918295563 0.0625258705 0.5190199066 -0.0182169093 0.5189339478 -0.0187524403 -0.1991336307 0.0586321022
60299640.0 -0.1876756793 0.064067606 0.5224565443 -0.0248238075 0.5227159241 -0.0246039681 -0.1952763331 0.0599185581
65299610.0 -0.1841610091 0.0652058209 0.5255897132 -0.030787372 0.5255048731 -0.0309016679 -0.1920909657 0.0612679867
70299580.0 -0.180875706 0.0657256103 0.5278133934 -0.0370621799 0.5280184511 -0.0374049156 -0.1889850976 0.0618755749
75299550.0 -0.177836847 0.0668830375 0.5297102965 -0.0447676764 0.5296921989 -0.0442148347 -0.1860821523 0.0625736006
80299520.0 -0.1751435022 0.0677213693 0.5313126284 -0.0513321253 0.5316969511 -0.0513588578 -0.1836065932 0.0635244543
85299490.0 -0.1724869812 0.0680055874 0.5324602722 -0.0580878848 0.5327867593 -0.0581960117 -0.1814551192 0.064068337
90299460.0 -0.1699755335 0.0688602969 0.5332703791 -0.065043681 0.533402488 -0.0650310273 -0.1790609795 0.0648788623
95299430.0 -0.1679164342 0.069389449 0.5342664315 -0.0717842405 0.5347524684 -0.0720270737 -0.1775375702 0.0656149915
100299400.0 -0.1659258095 0.0701423855 0.5347482766 -0.0785681587 0.5349538332 -0.0790921334 -0.1759073027 0.0665580139
105299370.0 -0.1640039989 0.0708420224 0.5351119648 -0.0860807892 0.5357867207 -0.0855881823 -0.1738611884 0.0667282528
110299340.0 -0.1621388277 0.0712881337 0.5353977916 -0.0919203097 0.5359163604 -0.0923265989 -0.1728836323 0.0673143074
115299310.0 -0.161073363 0.0723398149 0.5353971306 -0.0988374319 0.5356577154 -0.0992510805 -0.1716171688 0.0684947461
120299280.0 -0.1594286468 0.0732479231 0.5355870167 -0.1066659328 0.5352242869 -0.1064922418 -0.1701472677 0.0685402208
125299250.0 -0.1581810282 0.0739186448 0.534882538 -0.1129339492 0.5349645932 -0.1127468463 -0.1688888726 0.06968471
130299220.0 -0.1563554398 0.0745116379 0.5340316945 -0.1196094631 0.5342888425 -0.1201063272 -0.1676850879 0.0704882829
135299190.0 -0.1556091519 0.0759371668 0.5338046577 -0.1263724092 0.5342087817 -0.1266291524 -0.1668658562 0.0711929597
140299160.0 -0.1544397384 0.0766789475 0.533104233 -0.1329893234 0.5329979852 -0.1325180615 -0.1661849389 0.0718664365
145299130.0 -0.1534834329 0.0777951131 0.5321258863 -0.1392505061 0.5320251514 -0.1394930593 -0.164940387 0.0728714584
150299100.0 -0.152112229 0.0788524297 0.5307064631 -0.1460497154 0.530595108 -0.1459803185 -0.1642639631 0.0740665921
155299070.0 -0.1509465313 0.0799588839 0.5290324838 -0.1527354426 0.5297195829 -0.1525223853 -0.1630684651 0.0746934875
160299040.0 -0.1499757969 0.0812026525 0.528317457 -0.1587970371 0.5281778656 -0.1591716612 -0.1625194097 0.0761664589
165299010.0 -0.1487263824 0.0819855336 0.5271219235 -0.1651328853 0.5265616961 -0.1657545385 -0.1613680441 0.0766270799
170298980.0 -0.1479396451 0.0834988892 0.5251014926 -0.1718872403 0.5253638339 -0.1718226294 -0.1611599488 0.0778282507
175298950.0 -0.1468460758 0.0846962445 0.5239615441 -0.1780635919 0.5239622511 -0.1782171539 -0.1602145964 0.0790983291
180298920.0 -0.1460852746 0.0858111821 0.5216732484 -0.1842597411 0.5220882424 -0.1848144659 -0.1593562959 0.0803405191
185298890.0 -0.1450412278 0.0872727435 0.5204808824 -0.1905480491 0.5199562434 -0.1904682266 -0.1583866429 0.0812729455
190298860.0 -0.143657174 0.0888140122 0.5174378216 -0.1969112816 0.5181969147 -0.1962326699 -0.1579608807 0.0824574644
195298830.0 -0.1429395127 0.0900326102 0.5164487744 -0.2023070227 0.5164462049 -0.2028726256 -0.1573105798 0.0835114513
200298800.0 -0.1420791276 0.0910078519 0.5139031328 -0.2089281809 0.5140517041 -0.2087122687 -0.1562449297 0.0845021807
205298770.0 -0.1411966259 0.0924682969 0.5119431385 -0.214754856 0.5121588589 -0.2145042142 -0.1553692632 0.085980273
210298740.0 -0.1402729376 0.0942971846 0.5098053429 -0.2207313822 0.5091876794 -0.2211174907 -0.1551488825 0.0870475235
215298710.0 -0.1393442465 0.0957223464 0.5073301581 -0.2263721145 0.5073539969 -0.2271290572 -0.1541095755 0.0884574819
220298680.0 -0.1381547234 0.0967812248 0.5048071979 -0.2324700721 0.5047256109 -0.2330200725 -0.1534150422 0.0896947514
225298650.0 -0.1371376075 0.098167474 0.5018858641 -0.2382867552 0.5024328571 -0.2382771664 -0.1526987401 0.090719734
230298620.0 -0.1360503843 0.0998625936 0.4998736319 -0.2447457548 0.4998393355 -0.244302309 -0.1523593985 0.0919254057
235298590.0 -0.1354540244 0.1013963874 0.4970875439 -0.2502645176 0.4974300297 -0.2502313867 -0.1511937621 0.0934509574
240298560.0 -0.1341383829 0.1028746391 0.4943816138 -0.2559049747 0.4946644368 -0.2556988912 -0.1504975197 0.0944506868
245298530.0 -0.1331918271 0.1038412232 0.4916953549 -0.2615604807 0.4918066374 -0.2617249905 -0.1497681773 0.0961202011
250298500.0 -0.1324355972 0.1052654609 0.48906349 -0.2666587022 0.4886979687 -0.2669078005 -0.1488162274 0.0973448902
255298470.0 -0.1311483038 0.1071104785 0.4860780642 -0.2721480305 0.4867146082 -0.2732046086 -0.1479760536 0.0991848767
260298440.0 -0.1300441539 0.1084747496 0.4833105387 -0.2777555804 0.4833988258 -0.2779154328 -0.1474454253 0.099813737
265298410.0 -0.1293009203 0.1101067625 0.4799807368 -0.2840433026 0.4801992405 -0.2841736692 -0.1458928992 0.1012698378
270298380.0 -0.1281751728 0.1111513895 0.477158918 -0.2891087807 0.4771157465 -0.2888727524 -0.1452136686 0.102598703
275298350.0 -0.1270903056 0.1133851754 0.4736008066 -0.294475218 0.4737711144 -0.2943807402 -0.144499758 0.1041981458
280298320.0 -0.1260847693 0.1144876816 0.4706955512 -0.2995587491 0.4712002253 -0.2999304025 -0.143349555 0.1054154793
285298290.0 -0.1249218131 0.1159436621 0.4674384064 -0.3049954659 0.4679119527 -0.3050230409 -0.1425329993 0.106858864
290298260.0 -0.1236535254 0.1173239309 0.4649264338 -0.3103869434 0.4641983214 -0.3106233378 -0.1413739214 0.1082314111
295298230.0 -0.1227105131 0.1184510627 0.4611848244 -0.3156985099 0.4607040889 -0.3162878565 -0.1406031811 0.1092416921
300298200.0 -0.1213136463 0.1202623526 0.4578060364 -0.3212496196 0.4576679135 -0.3212332767 -0.1397271255 0.1107008913
305298170.0 -0.1201608321 0.1212485835 0.4540802255 -0.3264857827 0.4545876118 -0.3264741931 -0.1386723423 0.1118038155
310298140.0 -0.1186182599 0.1226656612 0.4506654762 -0.3312523559 0.4509444104 -0.3315701593 -0.1374714208 0.112816164
315298110.0 -0.1177752039 0.1238034691 0.4470645545 -0.3367885666 0.4471160848 -0.3369987402 -0.1363843758 0.1143393045
320298080.0 -0.1162221774 0.1253650703 0.4424555229 -0.3420479614 0.4435689199 -0.3421681062 -0.1358046732 0.1155361237
325298050.0 -0.1157084394 0.1260989233 0.4390173124 -0.3465899021 0.4400935649 -0.3468796894 -0.134658385 0.1165186658
330298020.0 -0.1148798659 0.1276417526 0.4352386381 -0.3520413256 0.4356298136 -0.3519422858 -0.1338808256 0.1180571551
335297990.0 -0.113428258 0.1290899498 0.4315781589 -0.3567348335 0.4316141686 -0.3562881986 -0.1330377888 0.1192588754
340297960.0 -0.1124396004 0.1303108206 0.4269039445 -0.361706759 0.4273920258 -0.3616988839 -0.1322440783 0.1209856618
345297930.0 -0.1113954342 0.1316857525 0.42316344 -0.3666526134 0.4232200518 -0.3661067133 -0.1310523933 0.1217892439
350297900.0 -0.1101162586 0.1328821595 0.4195926863 -0.3703959157 0.4197081382 -0.3706530767 -0.1300478555 0.1228794555
355297870.0 -0.1087661012 0.1342156716 0.4148021662 -0.3750040604 0.4150482939 -0.3747666455 -0.128810289 0.1245836657
360297840.0 -0.1076109856 0.1359208228 0.4109019139 -0.3797623878 0.4110797473 -0.3803575017 -0.127753235 0.1263417013
365297810.0 -0.1064810494 0.1369075522 0.4066609086 -0.3841579668 0.4067826249 -0.3847086663 -0.1269728778 0.1274455138
370297780.0 -0.1047164287 0.1385902675 0.4021071663 -0.3886602233 0.4025758135 -0.3889410378 -0.1257614239 0.1288089579
375297750.0 -0.1033287171 0.1397644379 0.3982770228 -0.393026729 0.398268277 -0.3933572939 -0.124136257 0.129949745
380297720.0 -0.1023548185 0.1409988059 0.3941139186 -0.397807374 0.3938940725 -0.3976648156 -0.1233381896 0.1318877266
385297690.0 -0.1008309552 0.1421234765 0.3896551696 -0.4013064048 0.3895244645 -0.402224026 -0.1220471546 0.1332117305
390297660.0 -0.0988927811 0.1433293919 0.3846186555 -0.4056795461 0.3852574521 -0.4061134687 -0.1206402633 0.1340782551
395297630.0 -0.0974422263 0.1448387545 0.3810136287 -0.4099276943 0.3807812357 -0.4101324665 -0.1196071252 0.1353284918
400297600.0 -0.0964993216 0.1457516508 0.3762186633 -0.4142271906 0.3766468439 -0.4145835458 -0.1180531149 0.1367737772
405297570.0 -0.0948764365 0.1466909244 0.371617249 -0.4182511546 0.3717992149 -0.4184996616 -0.1167044075 0.1381692422
410297540.0 -0.0933234384 0.1483991514 0.3671115656 -0.4228076712 0.3674962695 -0.4225364024 -0.1157270429 0.1397915381
415297510.0 -0.0917390202 0.1493960734 0.3624237524 -0.4265476185 0.362556241 -0.4269902658 -0.1136616333 0.1410849783
420297480.0 -0.0901200981 0.1500510207 0.3573733604 -0.4305085866 0.3577702473 -0.4305589355 -0.1126819461 0.1423359452
425297450.0 -0.0882721638 0.1514099988 0.3528613595 -0.4343352993 0.3531256231 -0.4340986699 -0.111467027 0.142825237
430297420.0 -0.0871139507 0.15233448 0.348420292 -0.4384171133 0.3486674286 -0.4379336949 -0.1098349257 0.1444280718
435297390.0 -0.0853056352 0.1534553511 0.3435332232 -0.4428122647 0.3437825242 -0.441926189 -0.1090370672 0.1461737349
440297360.0 -0.0834339078 0.1544900182 0.3382930781 -0.4459280411 0.3384947096 -0.4455627624 -0.1074344916 0.1468390809
445297330.0 -0.0817783627 0.1551456934 0.3335450443 -0.4493364525 0.333644031 -0.449428253 -0.1057799774 0.1482814062
450297300.0 -0.0801741552 0.1564158042 0.328954113 -0.4532400717 0.3293401187 -0.4527917516 -0.1042023749 0.1494484174
455297270.0 -0.0785740342 0.1569529652 0.3236429358 -0.456155351 0.3240783738 -0.4568364703 -0.1027737965 0.1507618314
460297240.0 -0.0766576891 0.1584357739 0.3195473196 -0.4604236627 0.3188878355 -0.4600961645 -0.1014935152 0.1513995505
465297210.0 -0.0747867029 0.1589449022 0.3134830127 -0.4636844099 0.3134872486 -0.4638704395 -0.0997405556 0.153329928
470297180.0 -0.0733412358 0.1599978268 0.3087921535 -0.4664184793 0.3088609647 -0.4669007869 -0.0980735082 0.1539827943
475297150.0 -0.0717807051 0.1614306928 0.3035088769 -0.470145709 0.3039925597 -0.4701946686 -0.0965405658 0.1550023177
480297120.0 -0.0692373051 0.1621872586 0.2984263739 -0.4734422749 0.2987133907 -0.473663767 -0.0954435315 0.1562083601
485297090.0 -0.0678180333 0.1626812798 0.2928391086 -0.476706728 0.2934174271 -0.4767097859 -0.0942797315 0.1576194622
490297060.0 -0.0653562307 0.1637744785 0.2874509901 -0.4800100269 0.2882528975 -0.4801847159 -0.092403305 0.1579911818
495297030.0 -0.0640551536 0.1642421137 0.2832622707 -0.4830040413 0.282770644 -0.4833252406 -0.090497451 0.1591635782
500297000.0 -0.0621736047 0.1654377238 0.27765787 -0.4858109114 0.277291337 -0.4863644751 -0.0889843749 0.1604666004
505296970.0 -0.0598747338 0.1660533667 0.2726232559 -0.4892785711 0.2722179533 -0.4886653614 -0.0875546043 0.1607519927
510296940.0 -0.0581534744 0.1667919439 0.266902669 -0.492497175 0.2674181036 -0.4924262823 -0.0856161851 0.1622174975
515296910.0 -0.0562925497 0.1678807684 0.2610298686 -0.4949329814 0.261165195 -0.494962215 -0.0842850711 0.1627256185
520296880.0 -0.0541396854 0.1684843131 0.2557554115 -0.4972909514 0.2559664111 -0.4973461275 -0.082327391 0.1642569262
525296850.0 -0.0522379875 0.1691222388 0.2506887747 -0.5002667318 0.2504237377 -0.5001904432 -0.080759336 0.1650971885
530296820.0 -0.0506555962 0.1700038858 0.2450776725 -0.5034770931 0.2451595789 -0.5032966996 -0.0793701973 0.1659327706
535296790.0 -0.0480420341 0.1707255971 0.2395846176 -0.5053423609 0.2393063015 -0.5057334567 -0.0769000406 0.1670574002
540296760.0 -0.0462219622 0.1716513494 0.2338635234 -0.5079765795 0.2338271554 -0.5079465281 -0.0758303272 0.1673595426
545296730.0 -0.044714933 0.1724682793 0.2287970876 -0.5106305012 0.2283864707 -0.5102001902 -0.0741585601 0.1684482115
550296700.0 -0.0421463025 0.1730755344 0.2230078736 -0.5131740751 0.2228267141 -0.5133656075 -0.0725990814 0.1694304989
555296670.0 -0.0402447148 0.1736058643 0.2175861091 -0.5155584677 0.2173058682 -0.51539025 -0.0709192245 0.1698069566
560296640.0 -0.0379983161 0.1739311238 0.2111610183 -0.5177824805 0.2121386407 -0.5178122617 -0.0692916329 0.1711711681
565296610.0 -0.0363596064 0.1746909233 0.2065180983 -0.5198403079 0.206087961 -0.5196063514 -0.0672090783 0.1718544115
570296580.0 -0.0343348785 0.1751207368 0.19982528 -0.5222673654 0.2002254482 -0.5223651452 -0.065658087 0.1725200201
575296550.0 -0.0319005895 0.1757817024 0.1948750146 -0.524259115 0.1946394265 -0.5243465331 -0.06387895 0.1731987066
580296520.0 -0.0301077802 0.1765632857 0.1891665978 -0.5262496786 0.1889192862 -0.5264491534 -0.0623390649 0.1739061814
585296490.0 -0.0282367505 0.176892817 0.1837967651 -0.5280322808 0.18306604 -0.5280940275 -0.0603518877 0.1748383668
590296460.0 -0.0253510634 0.1775335312 0.1777416109 -0.5303612741 0.1775078593 -0.5303423302 -0.0588430876 0.1756741253
595296430.0 -0.0236658533 0.1778709936 0.1714809394 -0.5321854941 0.1713991186 -0.5321719126 -0.0569383074 0.1759686977
600296400.0 -0.0215825444 0.1784058756 0.1657773483 -0.533653685 0.1656667129 -0.5341066108 -0.0553405841 0.1769158054
605296370.0 -0.0198282545 0.1787888065 0.160583206 -0.5353080519 0.160180898 -0.5358183647 -0.0535382639 0.1775910931
610296340.0 -0.0172312545 0.1797941002 0.1544212233 -0.5366900678 0.1543616317 -0.5369597373 -0.0520133935 0.1783382737
615296310.0 -0.015242065 0.1800112183 0.1484060128 -0.5388647218 0.1481011456 -0.539067329 -0.0498306034 0.1788090938
620296280.0 -0.0136853505 0.1806370723 0.1420958145 -0.5402302007 0.142517519 -0.5403883567 -0.0486419383 0.1796581049
625296250.0 -0.0110945655 0.1806927497 0.1364961666 -0.5417853752 0.1368713417 -0.5422352286 -0.0470480692 0.1801586253
630296220.0 -0.0094762277 0.181336548 0.1307720794 -0.5433059847 0.1305585683 -0.5432825084 -0.0447675138 0.1805629391
635296190.0 -0.007409218 0.1819496742 0.1248630845 -0.5447299189 0.1251607874 -0.5444000478 -0.0432226223 0.1812327252
640296160.0 -0.0052616066 0.1821071491 0.118827269 -0.5460834146 0.1190867529 -0.5461707943 -0.0416309834 0.1816741853
645296130.0 -0.0028957303 0.1826396406 0.1133502063 -0.5470093166 0.1131829771 -0.5468134568 -0.0399106481 0.1819309282
650296100.0 -0.0011210779 0.1825137104 0.1076333861 -0.5485698022 0.1071192715 -0.5487898558 -0.0374003519 0.1828126654
655296070.0 0.0010913549 0.1830604468 0.10113564 -0.5493453838 0.1010186062 -0.5494652134 -0.0364343217 0.1837587084
660296040.0 0.0030754754 0.1833428888 0.0957150354 -0.5506523901 0.0954037779 -0.5507487782 -0.0342099747 0.1833941539
665296010.0 0.0052609348 0.1834926289 0.0888881638 -0.551069154 0.0888610462 -0.5514051385 -0.0324634351 0.1839922762
670295980.0 0.007150722 0.1837000519 0.083260551 -0.5522298046 0.0833883406 -0.5519310009 -0.0312253873 0.1846400884
675295950.0 0.0091184305 0.1838635403 0.0778091024 -0.5527978825 0.0775984937 -0.5531496374 -0.0291919853 0.1852182302
680295920.0 0.0110261629 0.1843656729 0.0714594822 -0.5535425525 0.0714631614 -0.5536522484 -0.0268373176 0.1853177585
685295890.0 0.0133182721 0.1847927777 0.0651516883 -0.5548756356 0.0652489104 -0.5547278829 -0.0251906134 0.1862084759
690295860.0 0.0151099847 0.1844757235 0.0596580645 -0.5552783378 0.0590596021 -0.5554458228 -0.0235379093 0.1865637961
695295830.0 0.0175571598 0.1845749422 0.053915039 -0.5557180075 0.0536765249 -0.5556490762 -0.0217762786 0.1868092448
700295800.0 0.0192235408 0.1847306119 0.0482263567 -0.5564255627 0.0476984554 -0.5562722458 -0.0199598339 0.1869727432
705295770.0 0.0210561743 0.1849004148 0.041544856 -0.5571263554 0.0411443149 -0.5567953223 -0.0182858959 0.1877611053
710295740.0 0.0230904948 0.1846436216 0.036261657 -0.5570885727 0.0353696307 -0.5574351259 -0.0161648435 0.187995113
715295710.0 0.0253813779 0.1850364562 0.0297859961 -0.5575093739 0.0297746107 -0.5577352743 -0.0144732674 0.1879180725
720295680.0 0.0277603824 0.1845963517 0.0233336475 -0.5578376342 0.0232040114 -0.5581145336 -0.0125949508 0.1883168877
725295650.0 0.0291331216 0.1849883471 0.0177747247 -0.5580368168 0.0176123943 -0.5579821067 -0.0110542701 0.1891189573
730295620.0 0.0307390826 0.1848178527 0.0119391253 -0.5577240021 0.0114870205 -0.5578337011 -0.0094174974 0.1893453617
735295590.0 0.0331167834 0.1846838313 0.0055355127 -0.5582459555 0.0055311408 -0.5582527996 -0.0072895476 0.1891599997
740295560.0 0.0346490533 0.1846444854 -0.0003961435 -0.5584012774 -0.0003085664 -0.5585041514 -0.0054479906 0.1896027768
745295530.0 0.0369877707 0.1845667523 -0.0061555469 -0.5574858259 -0.0055900184 -0.5580220141 -0.0043796218 0.1895931989
750295500.0 0.038553966 0.1844987217 -0.0117201618 -0.5578985245 -0.0124797329 -0.5581140037 -0.0020564375 0.1902382857
755295470.0 0.0406297067 0.1841624746 -0.0181453625 -0.5579798072 -0.017741794 -0.5580671967 -0.0002217085 0.1905349694
760295440.0 0.0425912744 0.1844340883 -0.0246883977 -0.5574255241 -0.0240617968 -0.557424092 0.0018737904 0.1896942127
765295410.0 0.0448157014 0.1834664441 -0.0305044582 -0.5569671295 -0.0299313146 -0.5573376796 0.0035883749 0.1902360672
770295380.0 0.0464150085 0.1836355237 -0.0355405994 -0.556588648 -0.036162153 -0.5573387859 0.0050851686 0.1907212739
775295350.0 0.0483364763 0.183206554 -0.0417668465 -0.5565592062 -0.0418239032 -0.5561167079 0.0074853856 0.1905920042
780295320.0 0.0502956111 0.1830352855 -0.047457314 -0.5554882221 -0.0480267753 -0.5557599564 0.0093393428 0.1906458883
785295290.0 0.0521802256 0.1824887309 -0.0539800647 -0.5551051215 -0.0538770988 -0.5555706359 0.0106153013 0.1910027689
790295260.0 0.0540751297 0.1820272234 -0.0597684232 -0.5547060014 -0.0597820936 -0.5551166271 0.0126711475 0.1914608257
795295230.0 0.0561348726 0.1814551429 -0.0659058605 -0.5540739039 -0.0657318375 -0.55380881 0.0146968777 0.1906651686
800295200.0 0.0575569029 0.1815538038 -0.0711501187 -0.5528054103 -0.0717600871 -0.553230183 0.0163471562 0.1910682799
805295170.0 0.0597098705 0.1809653402 -0.0775434709 -0.5525423716 -0.0775407851 -0.5528658457 0.018878441 0.1908847696
810295140.0 0.0618796573 0.1805314252 -0.0836041243 -0.5515737287 -0.0834039895 -0.5515155965 0.0204638309 0.1908604077
815295110.0 0.0635843973 0.1800302553 -0.0891920913 -0.550481538 -0.0891370002 -0.5507423214 0.0221584129 0.1909114846
820295080.0 0.0652969903 0.1796536387 -0.0949933197 -0.5493157398 -0.0953159608 -0.5498886064 0.0231717462 0.1913788931
825295050.0 0.0670038569 0.1788508693 -0.1010822531 -0.5487430936 -0.1011308435 -0.5485000494 0.0258368211 0.1912270075
830295020.0 0.0691686159 0.1784158356 -0.107048378 -0.5475494534 -0.1071459099 -0.5475742775 0.0275924757 0.1907116445
