!Created with skrf (http://scikit-rf.org).
# Hz S RI R 50.0 
!freq ReS11 ImS11 ReS21 ImS21 ReS12 ImS12 ReS22 ImS22
300000.0 -0.094329531 -0.1038963843 0.6216433441 0.0961188969 0.6207263739 0.0965939273 -0.0945175171 -0.1087243146
5299970.0 -0.1012955953 0.011287411 0.6305294209 0.0113635637 0.6309968246 0.0111674773 -0.1017942158 0.0111129974
10299940.0 -0.0969099847 0.0284770028 0.6348667288 0.0162501947 0.6347643543 0.0168666785 -0.0965328752 0.0284527142
15299910.0 -0.0891391994 0.0424380462 0.6404283104 0.0212212993 0.6406558629 0.0211986421 -0.0895503316 0.0416738229
20299880.0 -0.0804735536 0.0534065245 0.6486455619 0.023894483 0.6490737686 0.0241248826 -0.0808049133 0.05286124
25299850.0 -0.0702636173 0.0623824066 0.6583438121 0.0255625596 0.658481972 0.0256038192 -0.0715282182 0.0621948677
30299820.0 -0.0607947317 0.0688810187 0.6680552537 0.0244436044 0.6676899889 0.0246771272 -0.0617236088 0.0685189051
35299790.0 -0.0503917829 0.0735048872 0.6768062716 0.0219846847 0.6776009942 0.0218699475 -0.052136825 0.0736290136
40299760.0 -0.0412696606 0.0764346933 0.6870170303 0.0178772122 0.6869938753 0.0177362093 -0.0426275816 0.0769378943
45299730.0 -0.0318339712 0.078460176 0.6958642459 0.0126004561 0.6961435536 0.0120202854 -0.0331339158 0.0790182957
50299700.0 -0.0228768047 0.0791579264 0.7039464084 0.0054626198 0.7042356467 0.0047176936 -0.0242641385 0.080182975
55299670.0 -0.0151887794 0.078891888 0.7111413032 -0.0020341251 0.7109650918 -0.0026946213 -0.0171039138 0.0803438067
60299640.0 -0.0075419804 0.0787253685 0.7181612282 -0.0109313743 0.7179693066 -0.0113094101 -0.0093629938 0.0795146424
65299610.0 -0.0013419907 0.0772340237 0.7244327725 -0.019527132 0.7242899813 -0.0197645979 -0.0024379933 0.0786414112
70299580.0 0.0053742877 0.0752428821 0.7290398199 -0.0285944047 0.7288200774 -0.0289485792 0.0027710803 0.077027162
75299550.0 0.0104071945 0.0733532061 0.733447745 -0.0391824699 0.7335566676 -0.0388281608 0.0086734149 0.0752872432
80299520.0 0.0154623225 0.0711889596 0.7375123639 -0.0485604712 0.7376659178 -0.0485704731 0.014067561 0.073653447
85299490.0 0.0201548857 0.069159552 0.7410350353 -0.058697172 0.740972695 -0.0584282723 0.0179527692 0.0709655356
90299460.0 0.0239528138 0.0666887048 0.7432635313 -0.0688378193 0.7436761785 -0.0681985204 0.0225107228 0.0693004296
95299430.0 0.0280685551 0.064191827 0.7458738028 -0.0788673173 0.7464792134 -0.0792726069 0.02608958 0.0667080338
100299400.0 0.0314116744 0.0615620112 0.74743706 -0.088575 0.7478276122 -0.0888543765 0.0292821976 0.0646047002
105299370.0 0.0344208944 0.0591642976 0.7490907986 -0.0987965254 0.7494777793 -0.0988273193 0.0327287373 0.0618458609
110299340.0 0.0374747725 0.0565987208 0.7506628871 -0.1084239666 0.7510972469 -0.1085936078 0.0350417113 0.0593617717
115299310.0 0.0394294898 0.0542762941 0.7513942033 -0.1188687356 0.7516065006 -0.1183970204 0.0375804077 0.0579008248
120299280.0 0.0417434594 0.0519395398 0.7517223401 -0.1298384167 0.7516393033 -0.1296814313 0.0399221841 0.0543549561
125299250.0 0.0439281177 0.0495972201 0.7519704389 -0.1390564648 0.7519188199 -0.1384002269 0.0420104175 0.052918686
130299220.0 0.0458588825 0.0471213119 0.7523908425 -0.1491211723 0.7521696518 -0.14932859 0.0437872854 0.0506999438
135299190.0 0.0468515957 0.0452347808 0.7518444392 -0.1585609864 0.7519717364 -0.1586265107 0.0455534973 0.0479665731
140299160.0 0.048963327 0.0433688005 0.7518058088 -0.1686462273 0.7510083921 -0.1683312176 0.0463484771 0.0456139456
145299130.0 0.04938576 0.0413036959 0.7500354932 -0.1780887994 0.750612411 -0.1780662461 0.0481543028 0.0436057061
150299100.0 0.0510455778 0.0392331119 0.7494442045 -0.1880706569 0.7492628991 -0.1882624521 0.049403551 0.0419047191
155299070.0 0.0525570604 0.0371359422 0.7474172695 -0.1972747801 0.7483612214 -0.1976809325 0.0504493891 0.0398059126
160299040.0 0.0533273062 0.0354114027 0.7470190184 -0.2073080102 0.7466555089 -0.2071156218 0.0509737781 0.0378970678
165299010.0 0.0543841274 0.0333027901 0.7450595165 -0.2161268186 0.7450370861 -0.2165430288 0.0521031845 0.0358830026
170298980.0 0.0551904979 0.032114168 0.7431864504 -0.2260847776 0.7432335819 -0.2261897517 0.052671438 0.0339549358
175298950.0 0.0559629488 0.0302951015 0.7421248292 -0.2348770464 0.7418760248 -0.2356631707 0.0534678682 0.0324090449
180298920.0 0.0563360661 0.0286740099 0.739747166 -0.2443904421 0.7393544183 -0.244795876 0.0541358266 0.0309658873
185298890.0 0.0568133739 0.0270722473 0.737098682 -0.2530485173 0.7374695178 -0.2531381894 0.0551209257 0.0292890587
190298860.0 0.0579213716 0.0256792307 0.7345234784 -0.2628871362 0.7351036063 -0.2628332187 0.0555323913 0.0274490064
195298830.0 0.0577518344 0.024150479 0.7330638373 -0.2717709557 0.7327767844 -0.2714811776 0.0555990532 0.026019088
200298800.0 0.0586391419 0.0222640026 0.7299224611 -0.2808899086 0.7296276025 -0.2807008956 0.0563397771 0.0241225704
205298770.0 0.0583425815 0.0207486952 0.7270231715 -0.2891740609 0.7270790389 -0.2889512119 0.0569790364 0.0229188556
210298740.0 0.0588575613 0.0201171828 0.7242323718 -0.2983851038 0.7235114333 -0.2987142189 0.0565187917 0.0209269855
215298710.0 0.0593621387 0.0185584583 0.7211434377 -0.3067878242 0.7209590941 -0.3070084099 0.057512669 0.0197972649
220298680.0 0.0597828822 0.0175775859 0.7177556591 -0.3153672141 0.7173902092 -0.315796493 0.0575609004 0.0181189884
225298650.0 0.0598358178 0.0159163108 0.7138228225 -0.3235127916 0.7144013534 -0.3238945878 0.0577246226 0.0163876294
230298620.0 0.0603254791 0.0151952073 0.7112356006 -0.3328661435 0.7113956155 -0.3328143119 0.0573895702 0.0152919715
235298590.0 0.0596963783 0.0137030103 0.7080236746 -0.3414858959 0.707903047 -0.3415579101 0.0579421161 0.0141816527
240298560.0 0.0603409655 0.0128683033 0.7039054618 -0.3490094768 0.7038307876 -0.3495336178 0.0576518659 0.0130763983
245298530.0 0.0602863927 0.0111238422 0.7005042444 -0.3581163631 0.700169603 -0.3580755317 0.0579603298 0.0116274786
250298500.0 0.0599611907 0.0101977324 0.6965145553 -0.3663151258 0.6967497893 -0.3655233707 0.0576694934 0.0106159699
255298470.0 0.0605722236 0.009495524 0.6935280259 -0.3740311802 0.6929871975 -0.3743800226 0.0579776301 0.0099595675
260298440.0 0.0605666718 0.0082877951 0.6891193676 -0.3817105882 0.6886231972 -0.3819390471 0.0577109856 0.0078575012
265298410.0 0.060096463 0.0074437283 0.6845172315 -0.390527244 0.6844883161 -0.3906643812 0.0586691806 0.0065617888
270298380.0 0.0602421134 0.0061220023 0.6806705123 -0.3985368386 0.6804914789 -0.3981133336 0.0581961914 0.0060939178
275298350.0 0.0606841058 0.0056444222 0.6761033752 -0.4059147245 0.6753685841 -0.4058727764 0.057907254 0.0051057785
280298320.0 0.0597720108 0.0046537056 0.6716492442 -0.4137010511 0.6723170647 -0.4140850079 0.0584435372 0.0037879272
285298290.0 0.0597904529 0.0033409163 0.666819099 -0.4221382611 0.6676228609 -0.421305621 0.0581011386 0.0028678227
290298260.0 0.0596933671 0.0026816422 0.663083741 -0.4294623227 0.6630406777 -0.4294233216 0.0583483238 0.0016807684
295298230.0 0.060023465 0.001090623 0.6583458596 -0.437886002 0.6582535101 -0.4377698513 0.0578458978 0.0004078099
300298200.0 0.0602249024 0.0008007567 0.6537201674 -0.4449140811 0.6535014448 -0.4452472035 0.0577104491 -0.000610951
305298170.0 0.0600051001 -0.0009102601 0.6494653225 -0.4533940857 0.6494173029 -0.4530985107 0.0576678786 -0.0021678809
310298140.0 0.0603294799 -0.001621268 0.6443949523 -0.4605351133 0.6444249367 -0.4599575367 0.0578892009 -0.00371939
315298110.0 0.0599113493 -0.0030823691 0.6393651049 -0.4686977746 0.6388701829 -0.4687050573 0.0576647344 -0.0044040691
320298080.0 0.0594819281 -0.0038138842 0.6334269289 -0.4753956737 0.6341362793 -0.4760503389 0.0572626888 -0.0056440567
325298050.0 0.058587245 -0.0054654159 0.6284953284 -0.4829467519 0.629036034 -0.482995453 0.056911333 -0.0066980639
330298020.0 0.0577693077 -0.0058947352 0.6222330997 -0.4910532519 0.6233605536 -0.4908205875 0.0559525471 -0.0079522738
335297990.0 0.0576929262 -0.006854935 0.6173674934 -0.4975188713 0.6171543319 -0.4976536863 0.0557110059 -0.0090168773
340297960.0 0.0570561232 -0.0078079214 0.6109033028 -0.5054837155 0.6109475238 -0.5047393712 0.0551945501 -0.0091867839
345297930.0 0.0563231006 -0.0086125846 0.6056716914 -0.511729759 0.6053055667 -0.5117850241 0.0550062191 -0.0103154207
350297900.0 0.0557770128 -0.0089547722 0.6000614371 -0.5177000593 0.600615467 -0.5178273444 0.0545786838 -0.0113740027
355297870.0 0.0555867108 -0.0097104925 0.5946997372 -0.5243638026 0.5942955841 -0.524391795 0.054538907 -0.012123635
360297840.0 0.0552506185 -0.0104566359 0.5878411763 -0.5306344757 0.5883325652 -0.5318449359 0.0534799373 -0.0123419729
365297810.0 0.0544627733 -0.0110297369 0.5830059209 -0.5382540168 0.5818073542 -0.5380789956 0.0529912477 -0.0133132737
370297780.0 0.0545369824 -0.0114789185 0.5756689652 -0.5444584914 0.5763960535 -0.544237542 0.0529499821 -0.0141910007
375297750.0 0.0544437258 -0.0122593514 0.5708642001 -0.551057035 0.5704880237 -0.5508554013 0.0527753317 -0.0146166766
380297720.0 0.0531470408 -0.0127176629 0.5646673763 -0.5577182482 0.5642121962 -0.5573828173 0.0521959122 -0.015106051
385297690.0 0.053143032 -0.0136625826 0.5580105056 -0.563531256 0.5584340777 -0.5641859573 0.0519808846 -0.0153678259
390297660.0 0.0530379007 -0.0144931758 0.5524629671 -0.5698174721 0.5523364809 -0.569860696 0.0521820181 -0.016926869
395297630.0 0.052892063 -0.014817904 0.5460668022 -0.5751899295 0.5454992749 -0.575419722 0.051391354 -0.0170588931
400297600.0 0.0521963884 -0.0159804911 0.5395764113 -0.5822981029 0.5397267952 -0.5819464799 0.051476192 -0.0170880266
405297570.0 0.0519632238 -0.0168311127 0.5331830203 -0.5874647995 0.5332742177 -0.5880462022 0.0507516294 -0.0178460483
410297540.0 0.0513609923 -0.0167736553 0.5268027289 -0.5939556286 0.5268778128 -0.593787896 0.0505216538 -0.0187034154
415297510.0 0.050863988 -0.0173547006 0.5197647038 -0.599674421 0.5206916788 -0.5996745833 0.0504256337 -0.0191101755
420297480.0 0.0505520137 -0.0185345697 0.5135190412 -0.6053190368 0.5134055827 -0.6053383541 0.0503708814 -0.0195049957
425297450.0 0.0508372532 -0.018952439 0.5071376839 -0.610936663 0.5069555093 -0.6111541627 0.0498081882 -0.0206001183
430297420.0 0.049874175 -0.0192418529 0.5009116906 -0.6165423507 0.5004105356 -0.615907649 0.0500707089 -0.0210495881
435297390.0 0.0497485223 -0.0204735701 0.4929818818 -0.6227436934 0.4935661204 -0.6220357957 0.0486845746 -0.0213627579
440297360.0 0.0496011407 -0.0210846983 0.4862614359 -0.6277709924 0.4862210753 -0.6276041492 0.0487475707 -0.0217777569
445297330.0 0.0493199511 -0.0219269145 0.479501158 -0.632930299 0.4793762076 -0.6332143317 0.0483441125 -0.0221400129
450297300.0 0.0488450192 -0.0221169724 0.4727273198 -0.6379419801 0.4730605374 -0.6379259216 0.0480906414 -0.022563349
455297270.0 0.0480579192 -0.0229521275 0.4654679983 -0.6429961532 0.4657692105 -0.643731137 0.0477941657 -0.0233269265
460297240.0 0.0481810939 -0.0234818042 0.4587632606 -0.6492486214 0.4585429157 -0.6489178111 0.0473936278 -0.0237695487
465297210.0 0.0475730317 -0.0242067371 0.4510951855 -0.6542330434 0.4506978681 -0.6540403802 0.0476325108 -0.0238529751
470297180.0 0.0474832808 -0.0249994209 0.4436548625 -0.6588010442 0.4447282623 -0.658657674 0.0470519184 -0.0251443085
475297150.0 0.0466399651 -0.0250811156 0.4371567443 -0.664166311 0.4373289115 -0.6635448654 0.0466971306 -0.0257110154
480297120.0 0.046741019 -0.0252318591 0.4292693585 -0.6679196483 0.4299411368 -0.6685423827 0.0458499906 -0.0262510225
485297090.0 0.0459756647 -0.0269028609 0.422175108 -0.6733283307 0.4222521149 -0.6730334136 0.0457118457 -0.0263086438
490297060.0 0.0462101779 -0.0266766376 0.4141347619 -0.6777873237 0.4149156764 -0.6783246614 0.045294173 -0.0270193502
495297030.0 0.0450963933 -0.0276063913 0.4076334338 -0.6825843795 0.407854889 -0.6827334699 0.0455871121 -0.0277881601
500297000.0 0.0447647855 -0.0277052348 0.4000455066 -0.6865168219 0.3999027132 -0.6866503424 0.0447534402 -0.0278829717
505296970.0 0.0451021075 -0.0282972014 0.3923257046 -0.6911199874 0.3926682934 -0.6914128005 0.0442891829 -0.028990573
510296940.0 0.044009795 -0.0290971628 0.3846759847 -0.6959753811 0.3850375289 -0.6964376764 0.0444428494 -0.0288588721
515296910.0 0.0437598477 -0.0291230471 0.3768274246 -0.6996315326 0.3764737287 -0.7002264865 0.0437669309 -0.0301675426
520296880.0 0.0436996555 -0.029435842 0.3698967121 -0.7034333795 0.3692751534 -0.703524044 0.0437433001 -0.029703538
525296850.0 0.0433332743 -0.0304632475 0.3618959539 -0.7077654745 0.3614947609 -0.7080730797 0.0436131276 -0.0302835877
530296820.0 0.0426626273 -0.0311578125 0.3535368944 -0.7121199379 0.354092341 -0.7120060843 0.0431976896 -0.0315226511
535296790.0 0.0429524491 -0.0313081095 0.3458155819 -0.7151927416 0.346603319 -0.715670555 0.0427207875 -0.0309205939
540296760.0 0.0419247311 -0.0313213028 0.3380488591 -0.7192216927 0.338576709 -0.7194434847 0.0420941621 -0.0324267205
545296730.0 0.0409147956 -0.0318908491 0.3302953204 -0.7226401612 0.3300852763 -0.7231728516 0.0419519213 -0.0323554568
550296700.0 0.0415654026 -0.0321466904 0.3220722604 -0.726619371 0.322201548 -0.7268764728 0.0417551519 -0.0330249867
555296670.0 0.0406125991 -0.0325572344 0.3144158818 -0.7308110067 0.3144103696 -0.7303366619 0.040979449 -0.0344194824
560296640.0 0.0409419621 -0.0332287687 0.3060133137 -0.7332086547 0.3066157955 -0.7341380833 0.0405507783 -0.0339162187
565296610.0 0.0396492326 -0.0334562654 0.2989044719 -0.7365973177 0.2987286991 -0.7367085805 0.0402958486 -0.0341153703
570296580.0 0.0392589473 -0.0339001764 0.2900606755 -0.7401417788 0.2904708325 -0.740306379 0.0394599693 -0.0351418046
575296550.0 0.0392136429 -0.0343214532 0.2825609268 -0.7436251893 0.2823177871 -0.7432486562 0.039219535 -0.0350188889
580296520.0 0.0386916491 -0.0342475615 0.2738886903 -0.7465293089 0.273890818 -0.7468710074 0.0384753225 -0.0357500302
585296490.0 0.0381730438 -0.0348048398 0.2664090091 -0.7493049141 0.2657807408 -0.7489797833 0.0386259987 -0.0356147159
590296460.0 0.0387649636 -0.0351236787 0.2571437497 -0.7520105968 0.2578773483 -0.7528993903 0.0373056704 -0.0359837571
595296430.0 0.0378773293 -0.0352097953 0.2486658959 -0.7550682918 0.2488611337 -0.7549483448 0.0371651249 -0.0371110212
600296400.0 0.0377289451 -0.0354851194 0.2409350573 -0.7574227113 0.2413000004 -0.7578200959 0.0368796183 -0.0373563291
605296370.0 0.036379323 -0.0358233527 0.2334187673 -0.7604209334 0.2325733777 -0.760534726 0.0364180104 -0.0374215747
610296340.0 0.0367231578 -0.0358422706 0.2244966 -0.7619177505 0.2248832157 -0.7622769038 0.0356688166 -0.0375905662
615296310.0 0.0363065557 -0.0363635191 0.2161361225 -0.7656168586 0.2160386135 -0.7653268105 0.0354256312 -0.0375323653
620296280.0 0.0350453731 -0.036086356 0.2073321085 -0.7676583823 0.2077569677 -0.7675278004 0.0346371551 -0.0378957472
625296250.0 0.0344613206 -0.0368348272 0.1994396847 -0.7699328635 0.1998039115 -0.7702185787 0.0336849108 -0.0386046357
630296220.0 0.0342017823 -0.0367271208 0.1902737815 -0.772011851 0.1908946729 -0.7717160376 0.0338435136 -0.0388948296
635296190.0 0.033172257 -0.0368869252 0.1824512079 -0.7736463736 0.1825449518 -0.7737013921 0.0329601445 -0.0394275105
640296160.0 0.0328015356 -0.0370337584 0.1736604187 -0.7759865024 0.1738001969 -0.7760643686 0.0320423477 -0.0397721156
645296130.0 0.0329430227 -0.0370384561 0.1655517639 -0.7774972606 0.1655448803 -0.7776743986 0.0313468079 -0.0405344977
650296100.0 0.0322092043 -0.0373751683 0.1576584792 -0.7794057658 0.1566600258 -0.7797928989 0.0320059114 -0.0403337852
655296070.0 0.03163853 -0.0374812123 0.1480150096 -0.7814354297 0.1486038543 -0.7809222194 0.0301141612 -0.0403315602
660296040.0 0.0311068355 -0.0376669837 0.1392221163 -0.7828885159 0.1398363491 -0.7830317593 0.02967345 -0.0411189752
665296010.0 0.0307231683 -0.0378036531 0.1307849212 -0.7838794548 0.1313685111 -0.7838933651 0.0294926521 -0.0409298564
670295980.0 0.0301131157 -0.0379740229 0.1219785724 -0.7854574585 0.1223920861 -0.7853518353 0.0282901326 -0.0415941993
675295950.0 0.0294458533 -0.0381473778 0.1140487841 -0.7868821268 0.1144638449 -0.786889146 0.0278744841 -0.0413071409
680295920.0 0.0289978197 -0.0379862789 0.105733844 -0.7881996413 0.1061475966 -0.7876530201 0.0279202055 -0.0419621123
685295890.0 0.0285660515 -0.0378752846 0.0968624351 -0.7895408597 0.0973766289 -0.7889408992 0.0271940187 -0.041389993
690295860.0 0.0275276744 -0.0380067837 0.0880242094 -0.7901794507 0.0876284085 -0.7899938319 0.0264070976 -0.0423885586
695295830.0 0.0275147595 -0.0384958953 0.0802093625 -0.7911052429 0.0798203896 -0.7907622409 0.0256798967 -0.0421472534
700295800.0 0.0269127758 -0.0382393159 0.0714928191 -0.7919272131 0.0713187629 -0.7915829472 0.025024378 -0.0422504633
705295770.0 0.0259663125 -0.0382314373 0.0627280005 -0.7927759878 0.0628607226 -0.7922853305 0.0243732356 -0.0422269941
710295740.0 0.0253100756 -0.038447395 0.0543386562 -0.7933942543 0.0541645713 -0.7932844266 0.0239481945 -0.042369267
715295710.0 0.0248409488 -0.0382651379 0.0458037454 -0.7936551572 0.045356373 -0.7936465085 0.0231820856 -0.0428470188
720295680.0 0.0247882751 -0.038358986 0.0369330933 -0.793816962 0.0371118119 -0.7945497335 0.0226377923 -0.0430265637
725295650.0 0.0232204846 -0.0382416308 0.0283058023 -0.7943674659 0.0282675482 -0.7945623685 0.0213837355 -0.0423483752
730295620.0 0.022409467 -0.0385906194 0.0196706425 -0.7944163559 0.019562543 -0.7936832469 0.0210601204 -0.0418225778
735295590.0 0.0222731903 -0.0386630813 0.0105613418 -0.7949375382 0.0107919691 -0.7947594195 0.0200390413 -0.0428872242
740295560.0 0.0217331833 -0.0389459923 0.0024068184 -0.7951847827 0.0026456997 -0.7951570377 0.0194276995 -0.0427066603
745295530.0 0.0208783476 -0.0385850184 -0.0065125401 -0.7941152758 -0.0053506554 -0.7942001514 0.0182377948 -0.0429351667
750295500.0 0.0199060551 -0.0383971874 -0.0145962202 -0.7950014484 -0.0151600522 -0.7945360079 0.017861109 -0.0424331239
755295470.0 0.0193541326 -0.0385963654 -0.0228663161 -0.7950415272 -0.0232735526 -0.7946740883 0.0176669217 -0.0422978967
760295440.0 0.0190342764 -0.0379490432 -0.0329276618 -0.7939857819 -0.0320771279 -0.7934280831 0.0170042855 -0.0434208672
765295410.0 0.0187097017 -0.0386786875 -0.0410057714 -0.7930938307 -0.0400323807 -0.7933286837 0.0162500023 -0.0429665729
770295380.0 0.0177592295 -0.0383396576 -0.0489947298 -0.7928341642 -0.0491148041 -0.7934397145 0.0149228014 -0.0428066338
775295350.0 0.0170449881 -0.0385916519 -0.057768449 -0.7927363945 -0.0575281037 -0.7918332087 0.0152121055 -0.0425073675
780295320.0 0.0166506556 -0.0379211825 -0.0662978777 -0.7913263203 -0.0662697149 -0.7917783923 0.0146181916 -0.0428051863
785295290.0 0.0157954214 -0.0383881072 -0.0745154259 -0.7911745129 -0.0745199721 -0.7910381295 0.012926808 -0.0422682254
790295260.0 0.0155196648 -0.0386465594 -0.0831846773 -0.7903605844 -0.082932864 -0.7905022674 0.0128225228 -0.0418369914
795295230.0 0.0146845134 -0.0385703273 -0.0923167066 -0.7898630522 -0.0918939851 -0.7891794635 0.0122640298 -0.0429224115
800295200.0 0.0133633679 -0.0377482615 -0.1005159423 -0.7874513719 -0.1005992322 -0.7884841989 0.0112262191 -0.0423425353
805295170.0 0.0127474043 -0.0381968967 -0.1091316237 -0.7873951724 -0.1086804018 -0.7871909974 0.0114926541 -0.0422421891
810295140.0 0.0128637705 -0.0377980873 -0.1176332499 -0.7857015647 -0.1175756926 -0.7855214996 0.0104745316 -0.0422163575
815295110.0 0.0117684812 -0.0374301895 -0.1258761447 -0.7843028594 -0.1255765846 -0.7847606354 0.0095241936 -0.0421887793
820295080.0 0.0114651375 -0.0376761472 -0.1338111898 -0.7825229927 -0.1340993493 -0.7828004802 0.0077070691 -0.0413339603
825295050.0 0.0102700886 -0.0378600297 -0.1430462229 -0.7819613826 -0.1431017855 -0.7811219742 0.0089411006 -0.0410704602
830295020.0 0.0098042554 -0.0378042835 -0.1509608598 -0.7793764174 -0.1512505749 -0.7800870488 0.0076603126 -0.0418875707
