!Created with skrf (http://scikit-rf.org).
# Hz S RI R 50.0 
!freq ReS11 ImS11 ReS21 ImS21 ReS12 ImS12 ReS22 ImS22
300000.0 -0.0471098238 -0.0469958639 -0.0008800474 0.0006520232 -0.0010292113 0.00098207 -0.773770866 -0.1401790245
5299970.0 -0.0499150598 0.0157635822 9.19463e-05 7.26277e-05 0.0001764934 -1.42729e-05 -0.7837584099 -0.0075373756
10299940.0 -0.0441406165 0.0325497523 -1.449e-06 0.0001787782 6.50901e-05 -4.82967e-05 -0.7868137823 -0.0037000264
15299910.0 -0.035928927 0.0470079517 2.08909e-05 0.0001015985 -0.0001717428 -3.24711e-05 -0.7923939062 -0.0017134627
20299880.0 -0.0261201202 0.0589033162 7.76177e-05 2.2968e-06 7.41641e-05 7.21569e-05 -0.7993003904 0.0022226701
25299850.0 -0.0152330531 0.0681551157 -0.0003261619 0.0002566371 0.0002380411 -0.0001495956 -0.8053159349 0.0084094613
30299820.0 -0.0038959296 0.0748342996 0.0002672038 3.04323e-05 2.43072e-05 -5.06043e-05 -0.8115942706 0.01682227
35299790.0 0.0070584628 0.0797413245 5.33949e-05 -0.0001613945 0.0001252041 -3.91813e-05 -0.8165564338 0.0255693685
40299760.0 0.0186616165 0.0829535566 -3.97144e-05 7.31027e-05 -0.0001194221 0.0001674151 -0.8206200271 0.0349019241
45299730.0 0.0294662634 0.0842642829 5.2539e-06 5.39015e-05 6.66692e-05 -2.97676e-05 -0.8250795731 0.0443047044
50299700.0 0.0390921024 0.0844721648 4.32379e-05 5.61156e-05 -0.0001505862 8.41156e-05 -0.8269561535 0.0539582804
55299670.0 0.0481371413 0.083558445 6.3057e-05 -0.0002063739 0.000286345 0.0002154996 -0.8291406026 0.0646147873
60299640.0 0.0569262572 0.0821392638 0.0001113443 4.09109e-05 -4.01657e-05 1.2877e-06 -0.8301279607 0.0741909512
65299610.0 0.0647124822 0.0796708063 -3.53965e-05 0.000105691 6.62847e-05 1.26776e-05 -0.8318325777 0.0844081887
70299580.0 0.0714547659 0.0771848522 -1.26848e-05 0.0001473683 0.0001134183 -7.4587e-06 -0.8319742905 0.0948275225
75299550.0 0.077847585 0.0739958564 -0.0001440316 0.0001157208 0.0002085356 1.51032e-05 -0.8319376916 0.104594066
80299520.0 0.0837997462 0.0707655902 -8.65262e-05 2.59244e-05 -3.19712e-05 0.0003616127 -0.832082631 0.1138615828
85299490.0 0.0887142511 0.0666189902 4.37653e-05 0.0001716373 5.95067e-05 -4.43519e-05 -0.8313355456 0.1237266793
90299460.0 0.093014635 0.0633189443 5.90647e-05 2.97866e-05 0.0002169086 -5.25337e-05 -0.8306173803 0.1330681431
95299430.0 0.0975211252 0.0590682833 -9.11267e-05 0.0001100165 2.10476e-05 2.7171e-05 -0.8290019968 0.1428398569
100299400.0 0.1009300002 0.0555932994 -8.1323e-06 0.0002704371 0.0002170525 2.77075e-05 -0.8288659039 0.1524921289
105299370.0 0.1044546556 0.0517788472 2.42455e-05 0.0001409384 0.0001112792 4.3397e-05 -0.8268640146 0.161229036
110299340.0 0.1073713302 0.0478515824 -0.0001101364 -8.46484e-05 -3.08363e-05 3.8916e-05 -0.825270492 0.1709792823
115299310.0 0.1101293642 0.0439342602 -5.3657e-06 0.000125157 -6.5504e-06 0.0001103693 -0.8237672737 0.1798329383
120299280.0 0.1122338149 0.0402320868 0.0001714082 5.6888e-05 0.0001547069 -4.09894e-05 -0.8220275703 0.1890691215
125299250.0 0.1141453067 0.0363267738 -6.1633e-06 1.0172e-05 -1.68427e-05 -4.04557e-05 -0.8204833741 0.1977325916
130299220.0 0.1159315292 0.0331439924 8.07353e-05 0.0001531141 -0.0001728429 0.0002727906 -0.8181956173 0.2069082766
135299190.0 0.1174437971 0.0298223494 0.0002750539 0.0001429278 -0.0001332309 0.0002116803 -0.8156149398 0.2156194906
140299160.0 0.1185826778 0.0259617875 4.96855e-05 4.04938e-05 0.0001325959 0.000280237 -0.813836406 0.2248987052
145299130.0 0.1201622574 0.0224516624 -9.42734e-05 -0.0001552681 1.91931e-05 0.0002443799 -0.8118175325 0.2338071471
150299100.0 0.1211727603 0.0191039684 -0.0001020138 -8.49653e-05 4.54614e-05 4.73889e-05 -0.8100154237 0.2432983282
155299070.0 0.1216761295 0.0158302283 0.0001230437 0.0002450876 2.91767e-05 4.7221e-06 -0.8065403857 0.2519994626
160299040.0 0.1222738573 0.0130669407 0.0001998306 0.0001682826 -1.08779e-05 0.0001225586 -0.8047899298 0.2603815967
165299010.0 0.1229696206 0.0095655988 -1.94499e-05 2.09743e-05 0.0001534004 0.0001994519 -0.8020535502 0.2692617379
170298980.0 0.1232187228 0.0069369123 0.000158886 4.7809e-05 -5.85368e-05 0.0001657461 -0.7986066249 0.2779114151
175298950.0 0.123544895 0.0038317975 -5.01978e-05 0.0001370981 -1.49684e-05 0.0002671086 -0.7965267916 0.2867215462
180298920.0 0.1240721889 0.0010789828 -0.0001353038 -8.51392e-05 2.94726e-05 7.77744e-05 -0.7929438638 0.295495429
185298890.0 0.1240879326 -0.0017392935 8.68119e-05 2.99761e-05 -9.91332e-05 0.0001538915 -0.7898399003 0.3037514083
190298860.0 0.1241301831 -0.0044690529 0.0002008168 7.81054e-05 -5.98056e-05 -2.4356e-06 -0.7871174642 0.3124815929
195298830.0 0.1240817274 -0.0075048882 0.00013536 0.0001045874 -5.1033e-06 0.0001524348 -0.7839681558 0.3209976054
200298800.0 0.1242416492 -0.0098688167 1.15517e-05 0.00021982 1.67564e-05 8.2542e-05 -0.7810129722 0.3292471054
205298770.0 0.1238072054 -0.0122995958 -2.67294e-05 0.0003139082 0.0002021765 9.32096e-05 -0.7776397048 0.3374448747
210298740.0 0.1234576763 -0.0149098688 0.0003347829 0.0001633271 0.000189939 0.0002506948 -0.7737310788 0.3458772996
215298710.0 0.1230314349 -0.0173536034 0.0001397697 0.0001492803 -3.06304e-05 0.0001754106 -0.770897659 0.3538626427
220298680.0 0.1227233077 -0.0199067247 0.0001392805 -1.59221e-05 0.0003227013 0.000268814 -0.7672203793 0.3619496359
225298650.0 0.1221356809 -0.022309784 0.0001749123 9.16027e-05 4.98624e-05 -3.0667e-05 -0.763516588 0.3704717049
230298620.0 0.1218965129 -0.0244416445 0.0002357925 8.30579e-05 0.0001945831 0.0002235413 -0.7598070767 0.3790188732
235298590.0 0.1214850662 -0.0268125854 0.0002101029 4.3298e-05 2.88098e-05 8.9362e-05 -0.7553073504 0.3870672938
240298560.0 0.1208633493 -0.0290587122 6.64495e-05 7.97739e-05 0.0001051426 0.0002309643 -0.7515011199 0.3954869541
245298530.0 0.1205016571 -0.0309352916 0.0001111601 0.0002470566 0.000213686 0.0002126202 -0.747322901 0.4024845124
250298500.0 0.1197678047 -0.0332304341 -6.24856e-05 0.0001643585 5.44073e-05 0.0001887862 -0.7434108375 0.4101936406
255298470.0 0.1187379459 -0.0356230524 0.0001061264 0.0001731957 0.0001217268 0.0001050473 -0.7383312333 0.4177873652
260298440.0 0.1180672252 -0.0375498029 0.0001796965 0.0002675593 0.0001191442 1.4718e-05 -0.7348026693 0.4265029233
265298410.0 0.1175091039 -0.039030461 0.0002423203 0.0003708226 1.62627e-05 0.0001584277 -0.7299065171 0.4338456215
270298380.0 0.116758332 -0.0408989592 0.000235762 -3.40501e-05 0.0003207378 6.25326e-05 -0.7253823106 0.4409049496
275298350.0 0.1160088627 -0.0429217244 0.000116122 2.96759e-05 4.0478e-05 -7.14824e-05 -0.7203628658 0.4482416084
280298320.0 0.1153063861 -0.0450983618 0.0001310442 8.21511e-05 0.0001504907 -2.1135e-06 -0.7156834644 0.4560910843
285298290.0 0.1145824661 -0.0465956407 0.0001224988 -6.1928e-05 0.0001977184 9.99008e-05 -0.7106020266 0.4632937626
290298260.0 0.1138983796 -0.0488918132 -0.0001890976 -8.21547e-05 8.76012e-05 0.0001147121 -0.7059840584 0.4713041733
295298230.0 0.1128762939 -0.0505943092 0.0002276849 -4.54385e-05 0.0001336926 0.0002568855 -0.7006865925 0.4778396358
300298200.0 0.1122244321 -0.0522897286 0.0001309904 0.0001771231 3.41684e-05 5.02017e-05 -0.6957688605 0.4853443172
305298170.0 0.1112584935 -0.0541382546 0.0003889327 9.95779e-05 0.0001618151 -1.49357e-05 -0.6897136786 0.4926113638
310298140.0 0.1103151299 -0.0556589265 0.000217101 0.0003782961 0.000107838 0.0003139732 -0.6853358107 0.499066273
315298110.0 0.1096350175 -0.0575998485 -0.0001761846 0.0002387295 0.0001757273 -3.12446e-05 -0.6794158426 0.5068094932
320298080.0 0.1087739329 -0.0595401812 0.0001376641 5.77702e-05 -5.0527e-06 5.67509e-05 -0.6743668675 0.5141850805
325298050.0 0.10790809 -0.0611433801 0.0002099727 0.0001902243 0.0002998199 0.0001279528 -0.6682572019 0.5208444652
330298020.0 0.106322723 -0.0631471374 0.0002100216 6.28071e-05 -1.04916e-05 -5.0337e-05 -0.6634447322 0.5279858266
335297990.0 0.1050466256 -0.0647026366 0.0002365706 -3.25388e-05 0.0002118142 8.08141e-05 -0.6577362229 0.5350310427
340297960.0 0.1035135834 -0.0659685068 0.0001539961 5.86421e-05 0.0002943094 5.78551e-05 -0.6520013595 0.5421593628
345297930.0 0.1024908633 -0.0672117552 0.0001782089 6.8419e-06 0.0002051628 0.0002898435 -0.6463189944 0.5480341702
350297900.0 0.1013260448 -0.068700545 0.0002488416 0.0001865054 3.75234e-05 -9.42305e-05 -0.6405789775 0.5550954282
355297870.0 0.099976968 -0.0698902865 9.43068e-05 0.0001138023 5.12037e-05 5.9797e-06 -0.6354511369 0.561748542
360297840.0 0.098772501 -0.0710301821 -5.49903e-05 -1.14588e-05 7.71993e-05 2.80543e-05 -0.6291494209 0.5689988637
365297810.0 0.0974519833 -0.0723126103 0.0004337961 7.51077e-05 0.0003002262 0.000237387 -0.6229459966 0.5754480283
370297780.0 0.096520561 -0.0735437096 0.0001368442 0.0001735872 0.0001439901 0.0001469924 -0.616638539 0.5817713631
375297750.0 0.0952453787 -0.0745603781 -3.80203e-05 0.0001975303 0.0002366193 -9.96489e-05 -0.6115114141 0.5877701732
380297720.0 0.0943226642 -0.0763033653 0.0004536772 0.0002218507 0.0001176938 -1.334e-05 -0.605304722 0.5943950215
385297690.0 0.0929212294 -0.0770294423 0.000222512 0.0002329382 0.0001199521 9.16532e-05 -0.5990817477 0.6010680137
390297660.0 0.0914757034 -0.0783091256 0.0001127348 2.13494e-05 0.0002534973 0.0002312652 -0.5927571724 0.6068275122
395297630.0 0.0903401823 -0.0796032735 0.0002055523 5.97053e-05 0.0002071187 0.000272522 -0.5866477571 0.6132938234
400297600.0 0.089200594 -0.0805802943 0.0001963471 0.0002099957 0.0003696732 5.57245e-05 -0.5804095242 0.6192337823
405297570.0 0.0878562873 -0.0814745264 0.0002775866 5.89812e-05 0.0002490322 -2.21327e-05 -0.5741108579 0.6252218383
410297540.0 0.0864376283 -0.0828345356 8.14435e-05 0.0001889635 3.53959e-05 6.86428e-05 -0.5670937637 0.631092899
415297510.0 0.0853464185 -0.0841125666 0.0002481388 0.0003228159 0.000267827 7.07141e-05 -0.5609176252 0.6365149452
420297480.0 0.0840739924 -0.08464108 0.000439129 -2.49173e-05 0.0001892795 0.0001114104 -0.553840435 0.6420422287
425297450.0 0.0827060358 -0.0857513235 7.73717e-05 9.26519e-05 0.0002869151 0.0001239115 -0.5478896765 0.6482583429
430297420.0 0.081693654 -0.0867837251 0.0001803716 0.0002465446 8.94501e-05 0.0001896053 -0.5406906505 0.6532273932
435297390.0 0.0801262496 -0.0876913933 0.0003488083 0.0001523131 0.0002185626 0.0002510826 -0.5338095302 0.6583767854
440297360.0 0.0788179203 -0.0888884954 0.0001072228 3.40011e-05 0.0002546814 0.0002427753 -0.5270589537 0.6636450072
445297330.0 0.0774636926 -0.0896485227 0.000309557 0.0001824064 0.0002880987 0.0001739882 -0.5197649995 0.6684954661
450297300.0 0.0760393009 -0.0905945821 0.0004065013 0.0001971091 0.0002682498 0.0001207502 -0.5126332646 0.6739964865
455297270.0 0.07475552 -0.0916223052 0.0002160373 0.0002116464 0.0002390584 -0.0001233338 -0.5061419361 0.6783076645
460297240.0 0.0734787906 -0.0922623596 0.0001795565 6.53369e-05 0.0002695042 0.0001785 -0.4988655027 0.6839430999
465297210.0 0.0721661135 -0.0932544184 9.48096e-05 0.0001402666 0.0004350089 3.20179e-05 -0.4917091647 0.6885172811
470297180.0 0.070767255 -0.0938039295 0.0001420583 0.0001195552 0.0003882949 -1.89094e-05 -0.4841313676 0.6941466617
475297150.0 0.0692331647 -0.0947374365 0.0004069835 -0.0001435342 1.43231e-05 9.53131e-05 -0.4773132163 0.6984528551
480297120.0 0.068022732 -0.0955442382 0.0005591361 9.1882e-05 4.03537e-05 0.0002516193 -0.4695079676 0.7032345108
485297090.0 0.0665933963 -0.0960802829 0.0001863109 0.0001406693 0.00034253 0.0001203827 -0.4626106926 0.7077835711
490297060.0 0.0650831126 -0.096431151 0.0003370694 7.00866e-05 0.0001562266 0.0001239513 -0.4554932791 0.7122591605
495297030.0 0.0638941027 -0.0972994767 0.0002715854 6.08222e-05 0.0004966942 5.17845e-05 -0.448091563 0.7173791152
500297000.0 0.0622609742 -0.0983159629 7.07963e-05 4.37306e-05 0.0001871043 9.54519e-05 -0.4405910008 0.7219653986
505296970.0 0.0613915137 -0.0988564894 0.0002902573 8.64617e-05 0.0002526013 0.0002324563 -0.4330477629 0.7263485026
510296940.0 0.0597826498 -0.0996005166 5.70553e-05 0.0001720699 0.0002238245 -3.12948e-05 -0.4254493742 0.7305165334
515296910.0 0.0584683152 -0.1002903481 0.0002892871 0.0001710309 0.0002495141 0.0001045818 -0.4178812848 0.7348266688
520296880.0 0.0568648202 -0.100518683 0.0003595775 -3.40358e-05 0.0002296485 0.0001581065 -0.4107296156 0.738887133
525296850.0 0.0556950938 -0.1015865936 0.0003998764 -3.78866e-05 0.000276402 1.84552e-05 -0.4032335323 0.7435701439
530296820.0 0.0542488969 -0.1018832169 0.0005809228 -2.8201e-05 0.0003880334 0.0002361732 -0.3957516857 0.7476564619
535296790.0 0.0526106452 -0.102347182 0.0002262827 0.0001883502 0.0002275353 0.0001091177 -0.3882200956 0.7514319203
540296760.0 0.0512468561 -0.1028520186 0.0005218078 8.5352e-05 0.0001537546 8.95724e-05 -0.3805435962 0.755689621
545296730.0 0.0496773374 -0.1031053408 0.0004728696 -3.3076e-06 0.000353314 9.51047e-05 -0.3730429511 0.759343729
550296700.0 0.0487554972 -0.1035763172 0.0002236965 0.0002503671 0.0003345108 0.0001804595 -0.3652609672 0.7632629047
555296670.0 0.0470308421 -0.1043983463 0.0003528415 -9.32706e-05 0.0002434412 -2.84225e-05 -0.3569947248 0.767538399
560296640.0 0.0454801882 -0.1046108432 0.0003725249 -6.0007e-05 0.0004520862 0.0001076132 -0.3498499814 0.770957439
565296610.0 0.0441939176 -0.1048879222 0.0003695125 0.0002085508 0.0003856894 4.09773e-05 -0.3415696768 0.7738256507
570296580.0 0.0425575708 -0.1053313599 0.0003217456 8.30349e-05 0.0005648741 0.0001830772 -0.3342371423 0.7774078963
575296550.0 0.0412959845 -0.1054618476 0.0002322492 1.65636e-05 0.0003801027 -0.0001183676 -0.3262067065 0.7811198417
580296520.0 0.0399417549 -0.1061704727 0.0001581514 0.000142193 0.0005321723 0.0001200809 -0.3178438851 0.7838393572
585296490.0 0.0380366263 -0.1065663642 0.000457297 -3.01338e-05 0.0001805679 -2.93034e-05 -0.3102846675 0.7873032083
590296460.0 0.037062945 -0.1064506612 0.0003013279 4.87407e-05 0.0002892397 -5.4169e-05 -0.3026459586 0.7903359426
595296430.0 0.0351172338 -0.1066478404 0.0004852507 0.000215778 0.0003007983 9.87028e-05 -0.2940650667 0.7926461914
600296400.0 0.03373543 -0.1071226282 0.0004050168 0.000158539 0.0005045622 0.0001410034 -0.2865925931 0.7956971768
605296370.0 0.0324655849 -0.1072376984 0.0004115147 -0.000127905 0.0002869524 5.40126e-05 -0.2778290812 0.7984861254
610296340.0 0.0308245949 -0.107776175 0.0005051822 0.0001647288 0.0002289875 -1.01122e-05 -0.2701860096 0.8010662424
615296310.0 0.0296834328 -0.1080368449 0.0002719963 2.398e-07 0.0002622586 1.05203e-05 -0.2612306135 0.803325994
620296280.0 0.0281654944 -0.1082967468 0.0004181605 1.73271e-05 0.000255256 0.0001465055 -0.2537478995 0.8058766462
625296250.0 0.0265982212 -0.1083249361 0.0004001168 -1.78696e-05 0.000263276 0.0001100479 -0.244683464 0.8077869593
630296220.0 0.025447466 -0.1086371543 0.0004007873 0.0001491379 0.000293267 0.0002850476 -0.2370913426 0.8101284609
635296190.0 0.0235919084 -0.1084679453 0.0001162532 -1.29814e-05 0.0003905098 0.0002134142 -0.2291789181 0.8123834648
640296160.0 0.0223336102 -0.1089546576 0.0003119886 -2.64931e-05 0.0004032821 8.58894e-05 -0.2206548287 0.8150818322
645296130.0 0.0210071908 -0.1086276318 0.0003777489 0.0001284602 0.0003622554 0.0001069946 -0.2125001601 0.8170727107
650296100.0 0.0193275536 -0.1087460085 0.0003528463 3.19076e-05 0.0005170634 6.35296e-05 -0.2041740115 0.8183950302
655296070.0 0.0178891724 -0.1087776827 0.0002906842 -0.000119307 0.0003683661 6.33798e-05 -0.1956455151 0.8203893623
660296040.0 0.0163697335 -0.109081893 0.0003372054 -2.28094e-05 0.0002636773 8.28852e-05 -0.1872734165 0.8228713893
665296010.0 0.0151861096 -0.1092825565 0.0004793414 0.0001528922 0.00012447 5.22784e-05 -0.1788188272 0.8243507964
670295980.0 0.0132971124 -0.1089239851 0.0004753618 8.58387e-05 0.0001361645 6.40773e-05 -0.1711765112 0.826290582
675295950.0 0.0118427138 -0.1086556187 0.0003089588 -0.0002760934 0.0002577664 3.37253e-05 -0.1628877449 0.8280975052
680295920.0 0.0107240187 -0.1088411154 0.000433204 0.0001147875 0.0002890345 -0.0001299514 -0.1542920078 0.8302915413
685295890.0 0.0093834739 -0.1085464794 0.0004393879 -4.05129e-05 0.0002038613 -4.65344e-05 -0.1457043403 0.8313419546
690295860.0 0.0079304736 -0.1087143467 0.0003814335 7.54748e-05 0.0003361909 -0.0001072889 -0.1379185998 0.8333379452
695295830.0 0.0062395467 -0.1083188234 0.0003647985 -0.0002529546 0.000326794 0.0001998312 -0.1291312171 0.8341566964
700295800.0 0.0048880468 -0.1084286949 0.000379723 -0.0001450058 0.0006168435 0.0001093974 -0.121404717 0.8356169941
705295770.0 0.0036853689 -0.1079382815 0.000420265 -3.49477e-05 0.0005292006 0.0001838766 -0.112749232 0.8377887117
710295740.0 0.0021148919 -0.1079245667 0.0004672348 -0.0001307439 0.0006062673 -3.66454e-05 -0.1041418184 0.8386168354
715295710.0 0.0003520409 -0.1080383037 0.0004262046 -0.0001693674 0.0002031177 0.0001352833 -0.0960213404 0.8391239643
720295680.0 -0.0009292572 -0.1076674064 0.0002293879 6.52254e-05 0.0001534506 -6.5694e-06 -0.0875477073 0.8409455392
725295650.0 -0.0020546658 -0.1072916972 0.0004138562 -0.0001407441 0.0002721928 0.0001239532 -0.0795397924 0.8419083598
730295620.0 -0.0036190747 -0.1068473376 0.0002947298 0.0001690298 0.0004175035 6.9153e-06 -0.0710186477 0.8424452919
735295590.0 -0.0047442114 -0.1068491833 0.0005546646 -0.0001753401 0.0005588028 0.0001886886 -0.0627197211 0.8424001431
740295560.0 -0.0062931032 -0.1064082087 0.0004696468 -8.08039e-05 0.0004860133 -4.57948e-05 -0.0538468314 0.8438878145
745295530.0 -0.0078943557 -0.1059641231 0.0003721701 4.16241e-05 0.000439808 -0.0001053083 -0.0455077778 0.843591903
750295500.0 -0.0092707502 -0.1058847883 0.0004493485 -7.8133e-05 0.0004446886 -7.23161e-05 -0.0374937962 0.8438937568
755295470.0 -0.0107477155 -0.1055322844 0.0006129055 3.43e-06 0.0003791628 -5.64333e-05 -0.0288259677 0.8435027989
760295440.0 -0.0118834373 -0.1052551043 0.0006580357 -6.0505e-05 0.0004292491 -6.60685e-05 -0.0201236768 0.8439769445
765295410.0 -0.0132435241 -0.1047789428 0.0005318359 1.9069e-06 0.0005068593 1.06359e-05 -0.0122070615 0.8449275437
770295380.0 -0.0150441185 -0.1045688961 0.0005255211 -0.0002016457 0.0002054222 -0.0002186269 -0.0035296902 0.8444187877
775295350.0 -0.0166386172 -0.1040073507 0.0004282501 -3.12967e-05 0.0002048428 -9.96179e-05 0.0045704459 0.8436775325
780295320.0 -0.0175725552 -0.1035613695 0.0003173654 -0.0001977908 0.00029205 -0.0001646236 0.0123753218 0.8440792542
785295290.0 -0.0192766654 -0.1035994881 0.0005748987 -2.209e-06 0.0004846718 -0.0001012724 0.0213266225 0.8436691523
790295260.0 -0.0201749284 -0.1026058671 0.0006777795 -1.23734e-05 0.0003143382 -0.0001819178 0.0301505252 0.8431859935
795295230.0 -0.0218938524 -0.1020916839 0.0004444323 5.5792e-05 0.0006317723 -4.396e-05 0.0390458595 0.8422170283
800295200.0 -0.0233146101 -0.1016441358 0.0005565397 -7.75656e-05 0.0004852351 -0.0001579601 0.0475102068 0.8420711141
805295170.0 -0.0242665643 -0.1016647645 0.0004834713 8.57125e-05 0.0003899692 -0.000106803 0.0548723029 0.8418252773
810295140.0 -0.0255196265 -0.1007518389 0.0004201436 -7.6893e-05 0.0002408181 9.09175e-05 0.0640438294 0.8408722542
815295110.0 -0.0269956153 -0.1006039937 0.0002985509 -0.0002792136 0.0005107034 -0.000104816 0.0722655705 0.8403764933
820295080.0 -0.0280517438 -0.0998141189 0.000613445 -0.0002247915 0.0005973089 -0.0001209161 0.0805687047 0.8401129185
825295050.0 -0.0293094337 -0.0993733631 0.0002703949 2.41759e-05 0.0002810413 -0.0001650168 0.089224249 0.8390698399
830295020.0 -0.0308739331 -0.098637389 0.0002180753 1.68226e-05 0.0005934641 -0.0001995538 0.0979015715 0.8380236406
835294990.0 -0.0322786108 -0.0979907912 0.0005380723 -4.31137e-05 0.0003155474 -0.0002221694 0.105901778 0.8372456961
840294960.0 -0.0334177376 -0.0972589049 0.0004500243 0.0001790452 0.0005658408 -7.38132e-05 0.1144859017 0.8360319725
845294930.0 -0.0346343647 -0.096658868 0.0004087003 -4.9332e-05 0.0005052035 -0.0001418573 0.122336301 0.8345456001
850294900.0 -0.0357901096 -0.0957951294 0.000391481 -6.99456e-05 0.0005755087 -8.40173e-05 0.1305511656 0.8335063736
