!Created with skrf (http://scikit-rf.org).
# Hz S RI R 50.0 
!freq ReS11 ImS11 ReS21 ImS21 ReS12 ImS12 ReS22 ImS22
300000.0 0.8606212403 -0.0014959812 -0.0006423231 -0.0003923183 -9.90865e-05 0.0005371758 -0.7675791996 -0.1765425009
5299970.0 0.8592196508 -0.0094533756 -3.13842e-05 0.0001391142 -1.63056e-05 -8.57703e-05 -0.7844869934 -0.0084363723
10299940.0 0.8586023551 -0.0192624162 8.13755e-05 -0.0001767664 5.15677e-05 -0.000201118 -0.7882977466 -0.0054046298
15299910.0 0.8582721859 -0.0278340772 9.15362e-05 -0.0001285433 -0.000166774 0.0001199565 -0.7931350561 -0.0031067842
20299880.0 0.856872516 -0.0355403484 -0.0001953089 0.0001026409 -0.0001933713 5.179e-07 -0.8003055655 0.0015872247
25299850.0 0.8568315321 -0.0433257123 -0.0001325395 -0.0001114851 3.19215e-05 -0.0001160837 -0.8061511157 0.0071866347
30299820.0 0.8558908676 -0.0520238307 3.1168e-06 4.20302e-05 6.6842e-06 -6.64845e-05 -0.8123973464 0.0147926134
35299790.0 0.8553872784 -0.0605296808 0.0001629589 -0.0001388541 0.0002091785 -5.30613e-05 -0.8177465982 0.0243198743
40299760.0 0.8542818597 -0.0680436776 7.68244e-05 -0.0001774508 -0.0001030971 -6.08686e-05 -0.8211615544 0.0334669104
45299730.0 0.8535723169 -0.0764392384 -8.63819e-05 9.03138e-05 6.12153e-05 0.0001186721 -0.8250647314 0.0423501619
50299700.0 0.8525775281 -0.0852090685 -0.0001499104 0.0001129712 0.0001172574 0.0001408196 -0.8278730553 0.0529909569
55299670.0 0.8518992696 -0.0930185017 -4.3806e-05 3.79426e-05 -4.77791e-05 6.88096e-05 -0.8295578629 0.0629147008
60299640.0 0.8509724637 -0.1008067206 8.02404e-05 0.0001254981 -5.22338e-05 9.13821e-05 -0.8311818049 0.0731258633
65299610.0 0.8503974893 -0.109235708 0.0002029504 0.0001282923 -7.39147e-05 5.09104e-05 -0.8312018776 0.0828216255
70299580.0 0.8490809936 -0.1179311322 0.0001833004 0.0001488464 0.0001315339 -3.82199e-05 -0.8321105991 0.0927009836
75299550.0 0.8474774809 -0.1267750573 9.0139e-06 0.0002852226 4.2383e-06 3.44908e-05 -0.8325328413 0.1027513649
80299520.0 0.845899558 -0.1341874018 8.4677e-06 5.49022e-05 8.88857e-05 2.42796e-05 -0.8318693309 0.1125156074
85299490.0 0.8445418053 -0.1428857407 3.41951e-05 0.0001395161 -0.0001206205 0.0001868125 -0.8317591337 0.121689945
90299460.0 0.8431285549 -0.150790511 -1.55859e-05 -0.0001111458 0.0001941136 5.94345e-05 -0.8303190223 0.1312530312
95299430.0 0.8419040685 -0.1589277616 2.16657e-05 -0.0001964471 0.0001043766 0.0001291873 -0.8299191752 0.1415254666
100299400.0 0.8397405343 -0.1662607374 9.47628e-05 0.0001095016 -0.0001916881 -0.0002897878 -0.8289541607 0.1497885764
105299370.0 0.8379852719 -0.175625899 0.0001293508 4.02537e-05 6.1655e-05 3.54738e-05 -0.8275614687 0.159468913
110299340.0 0.8367134999 -0.1835712957 -0.000132145 -3.12224e-05 -5.25207e-05 6.28003e-05 -0.8270888086 0.1678435999
115299310.0 0.834883721 -0.1918950231 -3.9866e-06 -4.60247e-05 2.53857e-05 -6.12706e-05 -0.8251102252 0.176700313
120299280.0 0.8326603338 -0.1990495658 -0.0001039356 -1.48685e-05 -5.16537e-05 5.25651e-05 -0.8231321847 0.1863220543
125299250.0 0.8303657031 -0.2083553863 5.1531e-06 1.57163e-05 -7.8151e-05 3.05687e-05 -0.821953839 0.1951645672
130299220.0 0.8283812334 -0.215693458 -0.0001909605 0.0001337676 -2.94614e-05 -4.8311e-05 -0.8200204802 0.2043774989
135299190.0 0.826335075 -0.2231609729 0.0001780226 2.76592e-05 1.3595e-05 -1.84909e-05 -0.8180495731 0.2131144993
140299160.0 0.8248986319 -0.2316773899 7.36317e-05 -4.3113e-06 -0.0001199349 -0.0002188306 -0.8160760756 0.2217989492
145299130.0 0.822069082 -0.2394202713 5.29176e-05 5.01995e-05 5.37955e-05 6.77732e-05 -0.8135251237 0.2303725417
150299100.0 0.8198550077 -0.2474212951 -0.0001116783 -1.3049e-06 -4.81396e-05 -0.0001020821 -0.8115677933 0.238582295
155299070.0 0.8164573353 -0.2559304639 4.32027e-05 1.47996e-05 2.96506e-05 -9.69876e-05 -0.8097150166 0.2476964451
160299040.0 0.8144652814 -0.2635231334 -0.0001301262 7.46801e-05 -1.83104e-05 -0.0002694656 -0.8076390768 0.2568802159
165299010.0 0.8122614078 -0.2710238178 9.85524e-05 -5.81687e-05 -0.0001954147 9.05264e-05 -0.8045487105 0.2649667757
170298980.0 0.8093324855 -0.2791111587 -2.24879e-05 -9.49784e-05 1.28034e-05 0.0002308066 -0.8019133773 0.2734210967
175298950.0 0.8065882044 -0.2868270612 -0.0001481886 4.61211e-05 0.0001437374 0.0001098913 -0.7991775416 0.2823370447
180298920.0 0.804133976 -0.2948755204 -8.8506e-06 6.92051e-05 -0.0001208766 1.14327e-05 -0.7958094942 0.2906987523
185298890.0 0.8001478373 -0.3030786184 0.0001092114 -0.0001893066 -4.65988e-05 -9.9481e-06 -0.793139987 0.2983127955
190298860.0 0.7977232075 -0.310735884 -0.0002021866 -9.60641e-05 0.0002022326 -0.0001970734 -0.789497943 0.3074317572
195298830.0 0.7945789887 -0.3176858711 0.000224279 -0.0003445147 4.2564e-06 -0.0002066231 -0.7870067511 0.315356578
200298800.0 0.7906637967 -0.3262713162 4.38734e-05 -5.56261e-05 5.64107e-05 -2.20577e-05 -0.7834458311 0.3240763077
205298770.0 0.7884165956 -0.3339022252 0.0001231762 -0.0002371297 -3.91503e-05 -2.0962e-05 -0.7800183576 0.3320264476
210298740.0 0.7851960893 -0.3411048734 -3.2806e-06 0.0001348488 -1.22289e-05 5.71629e-05 -0.7766418874 0.3403431463
215298710.0 0.7817841966 -0.3489419234 -0.0002649233 0.0001305008 -0.0001504806 -9.13167e-05 -0.7732616775 0.3484737766
220298680.0 0.7782190724 -0.3567171265 0.0001217012 -9.81742e-05 1.75062e-05 -2.4833e-05 -0.7699014932 0.357006566
225298650.0 0.7739957774 -0.3636347462 -6.46866e-05 6.06934e-05 -9.58909e-05 9.04991e-05 -0.7658167629 0.3647052426
230298620.0 0.771372718 -0.3711885171 -0.0001857022 -8.90755e-05 -8.50859e-05 3.90426e-05 -0.7617156491 0.3727334028
235298590.0 0.7671328336 -0.3790829676 -0.000341926 8.45483e-05 -5.8139e-06 2.14514e-05 -0.7571967198 0.3802715359
240298560.0 0.7630795583 -0.3876107673 2.69328e-05 0.0002209278 -6.39528e-05 5.27795e-05 -0.7540473065 0.3884666227
245298530.0 0.7598632104 -0.3935850086 0.0002173767 -3.5338e-06 -6.6129e-05 0.0002447761 -0.7500686751 0.3966750935
250298500.0 0.7557553941 -0.4014317668 -0.0001920914 -4.80225e-05 -0.0001930738 0.0002006616 -0.7456215294 0.4045018194
255298470.0 0.7518817019 -0.4082057945 -5.05592e-05 -0.000232929 -6.83171e-05 -6.52057e-05 -0.7411101333 0.4124223449
260298440.0 0.7477202541 -0.4155326555 -2.22743e-05 -9.89873e-05 1.1156e-05 -0.0001928837 -0.7372037675 0.4200034578
265298410.0 0.7435704633 -0.4226567227 0.0001077064 -0.0001495747 -5.93841e-05 0.0001660318 -0.7320765384 0.4275060311
270298380.0 0.7397143214 -0.4298549373 2.70217e-05 -6.81117e-05 -2.28172e-05 -0.0001535868 -0.7272758366 0.4350124679
275298350.0 0.736328881 -0.4367687988 5.92863e-05 1.8519e-06 -0.0001223003 8.97196e-05 -0.7224851766 0.4429029453
280298320.0 0.7317691111 -0.4441401753 0.0001557686 5.1609e-06 9.71007e-05 0.0001041743 -0.7181146027 0.4502411681
285298290.0 0.7269196951 -0.4514971848 6.72397e-05 3.961e-06 -1.05115e-05 6.92484e-05 -0.7132908571 0.4575786924
290298260.0 0.7234782796 -0.4587636548 -0.000199567 -2.17879e-05 0.0001406684 0.0001258416 -0.7081811006 0.4651501998
295298230.0 0.7186035774 -0.4661282441 1.70088e-05 9.14636e-05 -6.83758e-05 9.09049e-05 -0.7036407101 0.473032775
300298200.0 0.7145121336 -0.4735565436 7.99838e-05 -0.0002559339 -9.20767e-05 -4.39018e-05 -0.6984431061 0.4796833253
305298170.0 0.7100264559 -0.4795947504 4.04725e-05 -0.0003063528 -7.05716e-05 9.91331e-05 -0.6931249539 0.4875695887
310298140.0 0.7057577909 -0.4880529464 -0.0001102149 4.16118e-05 0.0001107728 0.0001822888 -0.6888415409 0.4948619031
315298110.0 0.7006562406 -0.4956028036 -5.75546e-05 6.89242e-05 -0.0001145796 -0.0001573566 -0.6830473106 0.5017718333
320298080.0 0.6950002613 -0.5025111187 -1.49476e-05 0.0001924184 3.41482e-05 -0.000140634 -0.6780680607 0.5092609018
325298050.0 0.6898067449 -0.5098399685 -0.0001363658 -0.0001624925 3.12199e-05 -7.2631e-05 -0.6718565259 0.5164482946
330298020.0 0.6839769016 -0.5165146891 -0.0001253983 -0.0001674847 5.535e-06 0.0002726895 -0.6665492675 0.5231433201
335297990.0 0.678311185 -0.5231032708 0.0001011175 5.09332e-05 -1.5872e-06 -9.32893e-05 -0.6613903876 0.529422498
340297960.0 0.672542661 -0.5294992053 0.0001116402 -0.0001582329 -5.34221e-05 -0.0001046488 -0.6553621542 0.5371603192
345297930.0 0.6667393547 -0.5358313231 -1.3634e-06 4.91296e-05 4.76649e-05 -0.000137931 -0.6496116857 0.5437095336
350297900.0 0.6617772882 -0.5418214257 3.20555e-05 -6.80266e-05 2.46953e-05 -1.26694e-05 -0.643987219 0.5513034659
355297870.0 0.6564184018 -0.5482332221 -6.86823e-05 -5.64957e-05 -5.18378e-05 -7.84779e-05 -0.6378489564 0.5575685888
360297840.0 0.6505332278 -0.5546255557 -0.0001256606 0.0001102808 -3.71738e-05 0.0001708025 -0.6317081384 0.5635933077
365297810.0 0.6451711193 -0.5604254777 -7.66103e-05 0.0002327842 -3.01296e-05 -8.92666e-05 -0.6262999813 0.5708924183
370297780.0 0.6395843762 -0.5666230896 -1.13369e-05 0.0001023628 9.7219e-05 -4.29565e-05 -0.6204498603 0.5765284552
375297750.0 0.6337134373 -0.5722976939 -4.11036e-05 0.0001725538 -1.2109e-06 -4.55056e-05 -0.6146125756 0.5836093619
380297720.0 0.6296432789 -0.5780052912 -4.4616e-05 -0.0002117399 -1.0287e-06 -2.0202e-06 -0.608028816 0.5902214607
385297690.0 0.6221807702 -0.5843320815 1.65634e-05 -6.46733e-05 1.0011e-05 2.59616e-05 -0.6021858687 0.5966893487
390297660.0 0.6170028202 -0.5901234491 3.92567e-05 -8.6703e-06 -9.32187e-05 0.0001003751 -0.595082724 0.6019991435
395297630.0 0.611224696 -0.5965743867 -0.0001083049 -0.0001323726 8.22475e-05 -0.0002140031 -0.5891349413 0.6084048231
400297600.0 0.6046655354 -0.6016470477 8.22243e-05 -8.32881e-05 0.0001398669 5.8157e-05 -0.5828936197 0.6140362458
405297570.0 0.5994506154 -0.607923923 0.0001743009 9.01806e-05 -9.69908e-05 0.0001069426 -0.5766872372 0.6200415234
410297540.0 0.5933536785 -0.6137263311 -0.0001573408 1.17124e-05 -0.0001234222 -6.63182e-05 -0.5695141945 0.6258519605
415297510.0 0.5878943245 -0.619180065 5.6589e-05 -3.78417e-05 -4.1436e-05 4.23404e-05 -0.5638361417 0.6320377404
420297480.0 0.5809875871 -0.6249089476 -8.49907e-05 0.0001228754 -2.17879e-05 0.0001061375 -0.5571203418 0.6369284013
425297450.0 0.5745643974 -0.6305434753 -3.44007e-05 0.0001282896 -4.95948e-05 0.0002512515 -0.5501438774 0.6433805866
430297420.0 0.5685650952 -0.6362905088 2.76592e-05 0.000102222 0.0001071851 3.0288e-05 -0.5437239393 0.6487714206
435297390.0 0.5625401466 -0.6417544847 -5.17515e-05 -0.0001589687 -2.21269e-05 -8.78414e-05 -0.536656318 0.6536424092
440297360.0 0.5563302997 -0.647414649 0.0001560532 -9.16311e-05 1.83028e-05 -5.19745e-05 -0.5298802841 0.6585459794
445297330.0 0.5498070969 -0.6522577719 -3.41232e-05 -0.000236461 0.0001605124 -4.69781e-05 -0.5232885223 0.6642532255
450297300.0 0.5434611235 -0.6575538122 -3.19566e-05 1.42967e-05 4.40245e-05 0.0001166983 -0.5171047515 0.6697091635
455297270.0 0.5364915847 -0.6625139512 7.33966e-05 -0.0001169674 -8.91928e-05 6.95849e-05 -0.5098183259 0.6750320866
460297240.0 0.5296300547 -0.6675999868 0.0001618127 3.50836e-05 0.0001298413 0.0001191658 -0.5028471367 0.6804211031
465297210.0 0.5231463 -0.6726859854 -0.0002317109 -2.3681e-05 -0.00014699 -8.37706e-05 -0.4963421764 0.6849841586
470297180.0 0.5166013926 -0.6786121052 -8.70906e-05 -3.48096e-05 -9.05444e-05 -2.39947e-05 -0.4895079486 0.6895715085
475297150.0 0.510128842 -0.6827543745 6.71542e-05 0.0001192443 9.78212e-05 -0.0001480584 -0.4818586054 0.6946128333
480297120.0 0.5034067778 -0.6878497923 -0.0001589158 -8.80613e-05 2.1551e-05 3.6187e-06 -0.475654422 0.6997414637
485297090.0 0.4968076703 -0.692194477 -4.72477e-05 -3.31795e-05 -0.0002128112 -4.11004e-05 -0.4678079475 0.7038039506
490297060.0 0.4898482096 -0.6975591974 0.000302801 -0.0001549851 6.143e-06 -0.0002138672 -0.4611929509 0.7083564319
495297030.0 0.4828863228 -0.7022024751 -0.0002555306 3.77555e-05 4.73732e-05 0.0001991549 -0.4533519774 0.7124910976
500297000.0 0.4765053595 -0.7071276002 -0.0001161336 0.0001633349 -0.0001501643 0.0001658683 -0.4464312816 0.7176077718
505296970.0 0.4683057599 -0.7117432691 -0.0001893851 1.2327e-06 -0.0001095877 -7.26098e-05 -0.4402041863 0.7220511244
510296940.0 0.4619928397 -0.7153409341 -1.1754e-06 -0.0001754601 6.66964e-05 -0.000123932 -0.4319816268 0.726121521
515296910.0 0.4548524379 -0.7202386707 -0.0001483583 0.0002145734 -5.41192e-05 -0.0001188368 -0.4252283485 0.7304820195
520296880.0 0.4480504578 -0.7241885709 -7.74133e-05 -0.000186425 0.0001057211 -1.08439e-05 -0.4174925616 0.734532447
525296850.0 0.4406322831 -0.7286435165 1.48865e-05 -0.0001185242 3.46385e-05 -6.5123e-06 -0.4098712433 0.7393108209
530296820.0 0.4329260147 -0.7324473409 7.95277e-05 0.0003063266 -8.60013e-05 -0.0001154103 -0.4031428078 0.7429026305
535296790.0 0.4263012921 -0.736516517 -6.6593e-05 -0.0001966246 -1.33282e-05 -9.6465e-06 -0.3955046486 0.7458536981
540296760.0 0.4189532221 -0.7410456805 0.000232955 -4.95179e-05 0.0001236222 -8.02129e-05 -0.3881089893 0.7505951992
545296730.0 0.4112859086 -0.7444076873 -5.83393e-05 -1.92388e-05 -4.81113e-05 -1.13302e-05 -0.3807893774 0.7536213542
550296700.0 0.403491544 -0.7487712473 7.55606e-05 -1.37954e-05 -4.56691e-05 -0.0001923123 -0.3730972232 0.7581355245
555296670.0 0.3964881138 -0.7531054653 -0.0002133638 -9.98068e-05 -3.7845e-06 1.36129e-05 -0.3656541004 0.7614913228
560296640.0 0.3894508845 -0.7568421144 -4.6879e-05 0.0001415182 -0.0001663446 -0.000105846 -0.3578672003 0.7653271194
565296610.0 0.3819682951 -0.7606579338 -6.05374e-05 7.45793e-05 0.0003271041 -2.88304e-05 -0.3501018315 0.7684619979
570296580.0 0.3746282 -0.7640683059 5.55409e-05 0.0001638778 2.34838e-05 6.99286e-05 -0.3429557867 0.7726021314
575296550.0 0.3670913296 -0.7667391454 7.7741e-06 -6.64073e-05 1.66325e-05 3.42716e-05 -0.3349943779 0.7756484161
580296520.0 0.3597759841 -0.7706170728 0.0001543547 -1.99861e-05 -4.34243e-05 4.48253e-05 -0.3270673827 0.7788940117
585296490.0 0.3510851177 -0.7742128559 7.97163e-05 7.87339e-05 -1.49065e-05 -2.0777e-06 -0.3197536169 0.7813472257
590296460.0 0.3434958522 -0.7775850332 -4.21113e-05 3.0365e-05 4.95859e-05 -0.0001555747 -0.3120238388 0.7850113983
595296430.0 0.3360958817 -0.7806135082 6.03408e-05 -5.31781e-05 -9.80527e-05 -0.0001129862 -0.3034105757 0.7877217749
600296400.0 0.3281053561 -0.7838014792 8.40108e-05 -0.0001748025 0.0001627298 0.0001406456 -0.2963075913 0.7905985636
605296370.0 0.3207090041 -0.7866991641 6.8874e-05 -5.08862e-05 -7.3009e-06 -1.31579e-05 -0.2886773138 0.794090456
610296340.0 0.3130707961 -0.7903577522 0.0002307684 4.26579e-05 -9.60239e-05 -1.51741e-05 -0.2802842894 0.7969018155
615296310.0 0.3048130274 -0.7925993782 9.4513e-06 -5.087e-07 -0.0002597885 0.0002399501 -0.2722693119 0.7992184233
620296280.0 0.2970945382 -0.795831545 0.0001466131 0.0001206272 -0.0002499031 -0.0001705726 -0.2649995621 0.8012978556
625296250.0 0.2895534741 -0.798517301 -0.0001349384 -1.0521e-05 4.19441e-05 2.75361e-05 -0.2562441648 0.8043359793
630296220.0 0.2812302214 -0.8009907943 5.09596e-05 9.19418e-05 0.0001706891 -5.94251e-05 -0.2487992689 0.8074156157
635296190.0 0.2733414044 -0.804068893 5.60455e-05 -2.1056e-06 -0.0001497997 6.78712e-05 -0.2407252172 0.8094467129
640296160.0 0.2660534069 -0.8063516557 -3.19412e-05 0.0001516846 -0.0001410306 -0.0001815563 -0.2321548671 0.8117816571
645296130.0 0.2576822293 -0.8087675682 2.8629e-05 0.0001700258 0.0001224448 -7.51185e-05 -0.2246690599 0.8139484222
650296100.0 0.2490771509 -0.8112310393 0.0002258516 0.0001084418 -0.0001263978 -3.51468e-05 -0.2167160793 0.8165754603
655296070.0 0.2419762174 -0.8132583329 6.19434e-05 0.00022746 8.122e-06 4.88339e-05 -0.2081505477 0.8181092616
660296040.0 0.2330072052 -0.8157011511 -2.06011e-05 0.0001122583 3.0114e-06 6.62162e-05 -0.2005545122 0.8202037645
665296010.0 0.2250716454 -0.8176512177 8.57063e-05 0.0001060108 4.07551e-05 -1.9455e-06 -0.1927550004 0.8222821493
670295980.0 0.2177833741 -0.8199098312 2.2812e-06 -5.63895e-05 1.54698e-05 0.0001472543 -0.1847266471 0.8242398828
675295950.0 0.209866793 -0.8219210931 -6.10269e-05 1.8385e-06 0.000116782 -3.4092e-06 -0.176087287 0.8264870371
680295920.0 0.200664093 -0.8236767998 -3.1627e-05 8.47987e-05 -1.62038e-05 -3.36419e-05 -0.167584833 0.8274578241
685295890.0 0.1927820669 -0.8255294385 -1.54363e-05 8.88592e-05 6.05877e-05 9.13232e-05 -0.1598424165 0.8284094308
690295860.0 0.1856310835 -0.8272507492 -0.0001186811 -6.80585e-05 -7.877e-07 9.87951e-05 -0.1515072637 0.8305706233
695295830.0 0.1765671922 -0.8289369001 -7.3547e-06 2.17312e-05 7.061e-07 3.60038e-05 -0.1436833816 0.8324061258
700295800.0 0.1687206814 -0.8305311365 5.81924e-05 -0.0001444609 0.0002697868 -3.65151e-05 -0.1348051355 0.8328352341
705295770.0 0.1603532471 -0.8321538148 -2.11267e-05 0.0001824385 -3.43158e-05 7.39682e-05 -0.1271906488 0.8353763612
710295740.0 0.1522218844 -0.8328680404 1.1907e-06 -3.48493e-05 2.48764e-05 0.0002255211 -0.1190283237 0.8360043085
715295710.0 0.1431702272 -0.8345145811 0.0001050065 -9.59225e-05 1.12156e-05 0.0001431234 -0.1107430434 0.8376146268
720295680.0 0.1355477512 -0.8359831866 -0.0001115577 -0.0002724248 7.34615e-05 -0.000143047 -0.1023940774 0.8385659933
725295650.0 0.1272345842 -0.8373319737 -8.81643e-05 0.0001008627 -3.40498e-05 -1.64511e-05 -0.0942692247 0.8398430867
730295620.0 0.1193253197 -0.8389460944 0.0001062058 8.23921e-05 -4.27786e-05 1.3044e-06 -0.0858104513 0.8401064402
735295590.0 0.1109653779 -0.8390607671 3.0025e-05 7.18335e-05 -4.62191e-05 -4.76178e-05 -0.0769601667 0.8407704405
740295560.0 0.102759603 -0.8407016145 0.0001727735 -0.0001114863 -0.0001379949 4.50381e-05 -0.0693042497 0.8413650926
745295530.0 0.0943330983 -0.8416005634 5.63429e-05 5.94687e-05 5.31236e-05 0.0001196176 -0.060938381 0.8421735213
750295500.0 0.0860565479 -0.8415371274 8.06742e-05 -0.0001037601 -9.07961e-05 -7.24785e-05 -0.0523308345 0.8427011933
755295470.0 0.0771897619 -0.8427154501 0.0001144823 0.0001315869 0.0001406698 -0.0001024397 -0.044532074 0.8436273331
760295440.0 0.0693336078 -0.843132599 0.0002160253 -5.50852e-05 7.54687e-05 -0.0001889936 -0.0362505097 0.8437226188
765295410.0 0.0608192264 -0.8436446856 8.5247e-06 -5.84457e-05 4.56905e-05 0.0001501028 -0.0269069207 0.8439945647
770295380.0 0.052489064 -0.8439122716 -5.16432e-05 -4.74247e-05 -2.24524e-05 -3.43088e-05 -0.0185600579 0.8443812303
775295350.0 0.0444704124 -0.8444232176 -2.8028e-05 5.55257e-05 7.31181e-05 5.3609e-05 -0.0115429098 0.8439220225
780295320.0 0.0353948455 -0.8448437503 0.000241957 8.50421e-05 0.0001291812 -3.35897e-05 -0.0025038002 0.8444750934
785295290.0 0.0276855407 -0.8444097428 -2.41435e-05 -0.0001250466 7.62453e-05 9.6471e-05 0.0051437456 0.8442037047
790295260.0 0.0191630426 -0.8448656946 -6.40999e-05 -6.67391e-05 0.0001197454 7.60751e-05 0.0141702355 0.8444038314
795295230.0 0.0107389038 -0.8439992875 -0.0001824228 0.0001862727 9.56822e-05 -7.48e-05 0.0224958834 0.8444826251
800295200.0 0.0025118385 -0.8446260267 5.9725e-06 -0.0002370965 -0.0001054611 7.068e-06 0.0300749572 0.84342829
805295170.0 -0.0060864566 -0.8444083628 -0.0001293398 -5.95932e-05 8.12043e-05 -3.60719e-05 0.0391623077 0.8428387779
810295140.0 -0.0144501192 -0.8439051221 8.71086e-05 9.86492e-05 -9.9193e-06 9.05596e-05 0.0468761621 0.8436299922
815295110.0 -0.0219795314 -0.843448677 -2.75145e-05 -6.88128e-05 -0.0001489214 0.0001454492 0.0554139121 0.8430685961
820295080.0 -0.0312493898 -0.8436012361 0.0001627882 9.98969e-05 9.91312e-05 6.25542e-05 0.0634192363 0.842014636
825295050.0 -0.0393042227 -0.8434369863 0.0001181319 0.0001924473 6.19335e-05 0.0002872727 0.071552188 0.8416153802
830295020.0 -0.0475609139 -0.8425553295 -5.81924e-05 0.0001245166 7.0205e-05 -0.000123365 0.0794560556 0.8404881906
835294990.0 -0.0553165529 -0.841925577 -0.0001342899 -0.0001420444 5.17658e-05 -0.0001337629 0.0881295581 0.8399169893
840294960.0 -0.0640698361 -0.8413849564 8.38531e-05 0.0001297343 -0.0001033864 -7.38841e-05 0.0962143863 0.8393715918
845294930.0 -0.0722368591 -0.8406847509 0.0001942919 9.90509e-05 -0.0001622125 0.0001826089 0.1047121803 0.837816205
