!Created with skrf (http://scikit-rf.org).
# Hz S RI R 50.0 
!freq ReS11 ImS11 ReS21 ImS21 ReS12 ImS12 ReS22 ImS22
300000.0 -0.2379049734 -0.10825345 0.4676378634 0.0696971935 0.4705708959 0.0726753292 -0.2365871674 -0.1106459241
5299970.0 -0.2409563646 0.0069753123 0.4754133425 0.0050360148 0.4749697719 0.0054973297 -0.2445962478 0.0057247401
10299940.0 -0.2370756792 0.0201725985 0.4771666041 0.0062030675 0.4771395453 0.0064112224 -0.2417518903 0.017593347
15299910.0 -0.2328426637 0.0299029726 0.4802915359 0.0074130832 0.4804864047 0.0078959813 -0.2372808357 0.0262482381
20299880.0 -0.2271716232 0.0378373051 0.4850987571 0.0077218291 0.4853221264 0.0077687162 -0.2330132098 0.0341053366
25299850.0 -0.2219678827 0.044436231 0.4908276194 0.0065329452 0.4907232326 0.0071516652 -0.2277607093 0.0399329323
30299820.0 -0.2158660525 0.0495550478 0.4964677692 0.0050333708 0.4957939881 0.004781355 -0.2225260375 0.0450053614
35299790.0 -0.2099821104 0.054100884 0.5013240051 0.0016083335 0.5010377408 0.0016249245 -0.2174560961 0.0487103577
40299760.0 -0.2046205995 0.0571598655 0.5062741387 -0.0023757617 0.5066254795 -0.0021381427 -0.2125641412 0.0520524355
45299730.0 -0.1993643702 0.0599670541 0.5108713298 -0.0074241195 0.5111875159 -0.0067981266 -0.208119268 0.0543735025
50299700.0 -0.1945293277 0.0619561472 0.5151085069 -0.0127417736 0.5153669104 -0.0130501327 -0.203568453 0.0566466848
55299670.0 -0.1906698525 0.0638739395 0.5186649912 -0.0188580216 0.5187150469 -0.018501448 -0.2001333138 0.0582731656
60299640.0 -0.1864171516 0.0649375755 0.5220132001 -0.0246255362 0.5220072573 -0.0248874067 -0.1961310378 0.0595394507
65299610.0 -0.183118361 0.0665364682 0.5251008279 -0.0307892613 0.5250997182 -0.0311857972 -0.1928891044 0.0606232043
70299580.0 -0.1794981784 0.0672668082 0.5268105721 -0.0376260508 0.5273883907 -0.0380538838 -0.1899760829 0.0617836491
75299550.0 -0.1765040377 0.0680671543 0.5290802205 -0.0443756795 0.5291582411 -0.0448339258 -0.1872487592 0.0627057972
80299520.0 -0.1738866979 0.0689700622 0.53131251 -0.0515809701 0.5311644681 -0.0514567424 -0.1844770037 0.0626403182
85299490.0 -0.1714738642 0.0693411979 0.5326639711 -0.0583094322 0.532284158 -0.0584303215 -0.1825021719 0.063527484
90299460.0 -0.1693011399 0.0702230579 0.5334210255 -0.0649406021 0.5338209751 -0.0652478656 -0.1801025302 0.0644017147
95299430.0 -0.1672388118 0.0709531254 0.5347861422 -0.0723705836 0.5345902072 -0.0722036937 -0.1787010492 0.065295478
100299400.0 -0.1651103445 0.0717050229 0.5344995449 -0.0792899937 0.5348078206 -0.0790925186 -0.1769399961 0.0654103606
105299370.0 -0.1634512694 0.0723995725 0.5346256719 -0.0860399192 0.5352137565 -0.0862376055 -0.1749237249 0.06640466
110299340.0 -0.1619297038 0.073143976 0.5348624187 -0.0925987212 0.5351428737 -0.0930666879 -0.1736946863 0.0670151852
115299310.0 -0.1602334488 0.0735781542 0.5350216463 -0.0994825922 0.5353190027 -0.0994362484 -0.1722358511 0.0670410006
120299280.0 -0.1590707926 0.0744377782 0.5352620412 -0.106624611 0.5347775114 -0.1066100754 -0.1711293592 0.0680634488
125299250.0 -0.1576206854 0.0753596115 0.5347543198 -0.1131131622 0.5346156275 -0.1131712761 -0.1698374547 0.0683411516
130299220.0 -0.1565251048 0.0761528739 0.5337384167 -0.1192940235 0.5337776463 -0.1199576236 -0.1687323231 0.0693396734
135299190.0 -0.1553135952 0.0766233814 0.533600112 -0.1260832698 0.5329834506 -0.1264945215 -0.1678480098 0.0704025359
140299160.0 -0.1543719671 0.0782316846 0.5322674743 -0.1330429326 0.5327726439 -0.1331715009 -0.1669193097 0.0710373133
145299130.0 -0.1530081203 0.0787529558 0.5316783391 -0.1399227042 0.5315985069 -0.1395130775 -0.1662965597 0.0717132878
150299100.0 -0.1519213067 0.0800089538 0.5304886856 -0.1459656249 0.5302515612 -0.146278803 -0.1650097909 0.0728728845
155299070.0 -0.1513392897 0.0814055246 0.5295149345 -0.1529074332 0.5292244025 -0.1529318662 -0.1646014113 0.0736060402
160299040.0 -0.150141894 0.0819481481 0.5276610031 -0.1585354075 0.5278132961 -0.159166886 -0.1633681921 0.0749776545
165299010.0 -0.1494251111 0.0831607557 0.5265416305 -0.1658441001 0.5262977108 -0.1656106858 -0.1626182786 0.0753360793
170298980.0 -0.1483779394 0.0844516104 0.5239341163 -0.1719714609 0.5248419399 -0.1717584552 -0.1617935437 0.0764772635
175298950.0 -0.1473375597 0.0855915498 0.5236538636 -0.1780645943 0.5232625755 -0.1780105611 -0.1608690318 0.0774881871
180298920.0 -0.1461881002 0.0867336796 0.5218501658 -0.1847026845 0.5215929264 -0.1841496306 -0.1603259436 0.0789288206
185298890.0 -0.145257771 0.0878172967 0.5194911905 -0.1908178387 0.5196147207 -0.1905858823 -0.1596236035 0.0795302577
190298860.0 -0.1443370171 0.0891715134 0.5173342209 -0.1968143566 0.5179069685 -0.1970302534 -0.1584744648 0.0808050128
195298830.0 -0.1433783638 0.0901342131 0.5156797027 -0.202460316 0.5158268807 -0.2032808889 -0.1578276817 0.0817737624
200298800.0 -0.1425962126 0.0916906204 0.5138502135 -0.2086544421 0.5135779969 -0.2089196568 -0.1570855376 0.0834655069
205298770.0 -0.1415479937 0.0928989176 0.5114718458 -0.2147275009 0.5118412023 -0.2149413323 -0.1565707185 0.0840026544
210298740.0 -0.140810766 0.0942079835 0.5093555351 -0.2211650841 0.5095948769 -0.2214225516 -0.1557000563 0.0857722022
215298710.0 -0.1396134511 0.0955491495 0.5067367677 -0.2269912184 0.5067916694 -0.226705672 -0.1549911175 0.0865586661
220298680.0 -0.1388874061 0.0969181881 0.5042586592 -0.2326339008 0.5045554427 -0.2327367622 -0.1541888561 0.088102235
225298650.0 -0.1375665828 0.0985468628 0.5017891317 -0.2385515262 0.5016961546 -0.2385738011 -0.1534993343 0.0892842598
230298620.0 -0.136880674 0.0997791337 0.4996434587 -0.2446775519 0.4998723982 -0.2445753359 -0.1524958451 0.0906596233
235298590.0 -0.135977486 0.101193861 0.4969889691 -0.2503753145 0.4972722776 -0.2503898185 -0.1517445529 0.0917486429
240298560.0 -0.1349949551 0.1023730714 0.4941866301 -0.2553568725 0.4944233331 -0.2556880022 -0.1509149189 0.0934746614
245298530.0 -0.1337046366 0.1039254775 0.4906927256 -0.2616825723 0.4914441072 -0.2618526644 -0.1502559366 0.094732752
250298500.0 -0.1330387391 0.1049072871 0.4884435125 -0.2669447241 0.4889301758 -0.2667675513 -0.1489081724 0.0957709247
255298470.0 -0.1320128632 0.1067820754 0.4855293729 -0.2732208018 0.4853697529 -0.2726738387 -0.1483017716 0.0969889225
260298440.0 -0.1309510291 0.1080709088 0.4830648223 -0.2779733534 0.482713668 -0.2782613664 -0.1471488698 0.0983077788
265298410.0 -0.1297438128 0.1098174803 0.4799014483 -0.284152302 0.4797003617 -0.283905841 -0.1465501903 0.0993918395
270298380.0 -0.1282776499 0.1109122284 0.4761374698 -0.2893256918 0.4768991761 -0.2891353678 -0.1455977641 0.1009296012
275298350.0 -0.1274296925 0.1123844053 0.473634873 -0.2950327584 0.4738056253 -0.2947929945 -0.1442523879 0.1021691702
280298320.0 -0.1260582231 0.1140310027 0.470191523 -0.2995371705 0.4701144226 -0.3003862471 -0.1433363543 0.103736117
285298290.0 -0.1246999053 0.1156009477 0.4667783107 -0.3055866008 0.466741489 -0.3054651946 -0.142500851 0.1053485843
290298260.0 -0.123678329 0.116720256 0.4637462998 -0.3108330887 0.4638162677 -0.310607043 -0.1412029686 0.1065484678
295298230.0 -0.1226183431 0.1180270895 0.4604378352 -0.3160752306 0.4604249585 -0.3159545445 -0.140249195 0.1079139242
300298200.0 -0.1208967428 0.1193728512 0.4567693884 -0.3212697355 0.4568309077 -0.3214583663 -0.139620558 0.1094011073
305298170.0 -0.1196909549 0.1205470144 0.4536299736 -0.3263927964 0.4537782363 -0.3267389512 -0.1380862876 0.1107877206
310298140.0 -0.1180510927 0.1217112627 0.4500300089 -0.3315551588 0.4500627925 -0.3320935392 -0.137162805 0.1124964728
315298110.0 -0.1172186536 0.1232871784 0.4463377338 -0.3368734955 0.4462679076 -0.3371881789 -0.1357431019 0.1130211271
320298080.0 -0.1157706146 0.1246172272 0.4423532529 -0.3424368585 0.4426783139 -0.3420149383 -0.1349362504 0.1145488191
325298050.0 -0.1148145141 0.1256820119 0.4392263977 -0.3475393279 0.4389615771 -0.3477019763 -0.1336412671 0.115657357
330298020.0 -0.1134661519 0.126768916 0.4341539023 -0.3520575267 0.4344888147 -0.3516614248 -0.1332364471 0.1170426086
335297990.0 -0.1124321304 0.1280121543 0.430620175 -0.3572088942 0.4307165877 -0.357199052 -0.1323054628 0.1187014239
340297960.0 -0.1115396625 0.1297691393 0.4261187134 -0.3621780998 0.426757548 -0.3616135975 -0.1313141179 0.1198345757
345297930.0 -0.1101076506 0.1312766083 0.422405858 -0.3661706576 0.4221076766 -0.3660688559 -0.130059688 0.120951629
350297900.0 -0.1082316825 0.1325362065 0.4179996897 -0.3707842153 0.4183309953 -0.3709985098 -0.1289911156 0.1229292212
355297870.0 -0.1071717656 0.1337841376 0.4135265949 -0.3758529528 0.4141852913 -0.3760392813 -0.1280167789 0.1242271557
360297840.0 -0.105617697 0.1349692114 0.4094083769 -0.380251655 0.409738794 -0.3802440871 -0.1264391378 0.1255766497
365297810.0 -0.1042525625 0.1363115172 0.4057798975 -0.3845665434 0.4057203504 -0.3846102065 -0.1257011721 0.1273715734
370297780.0 -0.1025626822 0.1376263163 0.4014218023 -0.3890221096 0.4015297257 -0.3891803082 -0.1242248815 0.1285725974
375297750.0 -0.1012776686 0.1391802843 0.3975203317 -0.3935151073 0.3969130531 -0.3938162506 -0.1230128972 0.1302800448
380297720.0 -0.0995292302 0.1403582002 0.3926794125 -0.3974755203 0.392555788 -0.3976233416 -0.1216394953 0.131842179
385297690.0 -0.0980942541 0.141585887 0.3882353645 -0.4017391795 0.3880204103 -0.4022776958 -0.1204828394 0.1330452435
390297660.0 -0.09691239 0.1427807389 0.3838226357 -0.4062153346 0.3839243433 -0.4069293999 -0.1190689414 0.1341372469
395297630.0 -0.0949099814 0.143839913 0.3796651547 -0.4102664123 0.3796283466 -0.4102950493 -0.1182261455 0.1359260976
400297600.0 -0.093577257 0.1452775411 0.3750438928 -0.4148872487 0.3752721695 -0.4149139782 -0.1172525921 0.1367884894
405297570.0 -0.0919197251 0.1466625907 0.3705488248 -0.4189556398 0.3704069889 -0.4189784327 -0.1156196962 0.1386570294
410297540.0 -0.090248406 0.1475100655 0.3653530482 -0.4228719761 0.3653633376 -0.4226379461 -0.1143687642 0.1396528603
415297510.0 -0.0885319385 0.1488149922 0.3613205423 -0.4268098448 0.3609482659 -0.4267548417 -0.1131306088 0.1414500193
420297480.0 -0.0870741833 0.1496332713 0.3563267631 -0.4312365834 0.3564246792 -0.4304855576 -0.1115777729 0.1419075065
425297450.0 -0.0848980692 0.1506657325 0.3513028908 -0.4342386714 0.3521130137 -0.4346790505 -0.1104248919 0.1438506659
430297420.0 -0.0836152029 0.1520214971 0.3472214149 -0.4388900755 0.3469886473 -0.438882318 -0.1090781837 0.1448759664
435297390.0 -0.0817062745 0.1528935153 0.3421312465 -0.44209287 0.3423758029 -0.4418727496 -0.1076242266 0.146599528
440297360.0 -0.0799141461 0.154084524 0.3370698395 -0.4456707054 0.3367484482 -0.4457361733 -0.1062332765 0.1472320903
445297330.0 -0.078018349 0.1550273421 0.3316757463 -0.4495893008 0.3322870096 -0.4495353519 -0.1049420253 0.1484987478
450297300.0 -0.0764966695 0.1559973951 0.3272585423 -0.4530765356 0.3272809098 -0.4535417713 -0.1036931467 0.1499796349
455297270.0 -0.0749821971 0.1569136718 0.3226298277 -0.4567955387 0.3225813907 -0.4566314315 -0.1018033274 0.1511257945
460297240.0 -0.0732338937 0.1580759502 0.3173177976 -0.4599403638 0.3170139674 -0.460171149 -0.1003071117 0.1525861863
465297210.0 -0.0712501529 0.1589629075 0.3124143879 -0.4637140115 0.3123809999 -0.4632693011 -0.0993323861 0.1532417577
470297180.0 -0.0695753588 0.1597884857 0.3072651729 -0.4668329928 0.3075702236 -0.4668707543 -0.0982735109 0.1545342927
475297150.0 -0.0679493337 0.1604464449 0.301871614 -0.470104654 0.302119993 -0.4699580523 -0.0964961746 0.1559990121
480297120.0 -0.0659315108 0.1610434685 0.2966247903 -0.4731365118 0.297324014 -0.4731731716 -0.0951039219 0.1572823615
485297090.0 -0.0640673205 0.1623212004 0.2920375323 -0.4765700125 0.292070638 -0.4766865132 -0.0936399002 0.1581366161
490297060.0 -0.0621427219 0.163056146 0.286638863 -0.479675734 0.2866452583 -0.4798144984 -0.0922251558 0.159234388
495297030.0 -0.0606230335 0.1642151044 0.2812522287 -0.4827648741 0.2811876511 -0.4825733357 -0.0904232848 0.1600798195
500297000.0 -0.0584466354 0.1645429646 0.2762484837 -0.4858036472 0.2762065415 -0.486039149 -0.0894349584 0.1612506622
505296970.0 -0.0570786622 0.1653536024 0.2707223428 -0.4884726529 0.2706910537 -0.4886551547 -0.088391523 0.1624498212
510296940.0 -0.0553230724 0.1662578885 0.2656575294 -0.4915373202 0.2653217956 -0.4916231776 -0.0860667564 0.1637026166
515296910.0 -0.0533188862 0.1672796421 0.2597637666 -0.4940750313 0.2598796028 -0.4944328876 -0.0847555909 0.1643687231
520296880.0 -0.0513715586 0.1677505514 0.254492946 -0.4971144273 0.2549547722 -0.4967831258 -0.0831072105 0.1653646886
525296850.0 -0.049587427 0.1681911824 0.2494698092 -0.4996735379 0.2493161193 -0.5001916114 -0.0810869965 0.1666404442
530296820.0 -0.0476761751 0.1690652727 0.2440312478 -0.5022995033 0.2434104462 -0.5024539012 -0.0800426672 0.16692479
535296790.0 -0.0458212511 0.1696703793 0.2381396758 -0.5047207933 0.2386614731 -0.504641698 -0.078320974 0.1679936551
540296760.0 -0.0436565273 0.169995338 0.232515682 -0.5076940617 0.2324290065 -0.5074938761 -0.0771745046 0.1695762133
545296730.0 -0.0420512312 0.1709465718 0.2274199817 -0.5097084871 0.2272208244 -0.5102142393 -0.0755012464 0.1696987888
550296700.0 -0.0402412359 0.1716720029 0.2215153277 -0.5126781755 0.2218965602 -0.5125272264 -0.0742062974 0.17112404
555296670.0 -0.0377458016 0.1719080491 0.2160599968 -0.5149566629 0.2164919776 -0.5151148327 -0.0724197415 0.1722525227
560296640.0 -0.0364051414 0.1727515945 0.2107951211 -0.5168748754 0.2109829782 -0.5167201114 -0.0706012418 0.1727034159
565296610.0 -0.0346064032 0.1730420448 0.2050425909 -0.5192852313 0.2048127283 -0.5192621128 -0.0691183606 0.1735346427
570296580.0 -0.0320557845 0.1734173369 0.1994656846 -0.5212337864 0.1995738557 -0.5213409343 -0.0673864552 0.1750311476
575296550.0 -0.030383041 0.1744389619 0.1938268261 -0.5230800059 0.194085175 -0.523428187 -0.0652778898 0.1756387788
580296520.0 -0.0283132621 0.1749870742 0.1880601482 -0.5257680074 0.18780093 -0.5256570221 -0.0641557296 0.1759929582
585296490.0 -0.0264628541 0.1748624806 0.1825198247 -0.5275709917 0.1821201704 -0.5274758957 -0.0626627711 0.1765196515
590296460.0 -0.0249370643 0.1752632511 0.1765262939 -0.5294750404 0.1762895842 -0.5294856448 -0.0606051249 0.1778762418
595296430.0 -0.0226631062 0.1758308532 0.1710708358 -0.53142532 0.1706354314 -0.5317177914 -0.0587400913 0.178231873
600296400.0 -0.0206715222 0.1762459209 0.165282103 -0.5332761392 0.1654341108 -0.5332833562 -0.0574639499 0.1790657879
605296370.0 -0.0186484751 0.1770734279 0.1593212202 -0.5351929194 0.1596446618 -0.5349656381 -0.0558480565 0.1798385311
610296340.0 -0.016636656 0.1771014473 0.1540919122 -0.5361295859 0.1537638856 -0.5366676988 -0.0538645456 0.1806948345
615296310.0 -0.0148387784 0.1775637653 0.1473629117 -0.5380563995 0.1475991251 -0.5381329824 -0.0521233417 0.1811704041
620296280.0 -0.0126886142 0.1775141218 0.1420409536 -0.5395598518 0.1419028551 -0.5394897108 -0.0503936217 0.1814236854
625296250.0 -0.0107466367 0.1779556264 0.1358389744 -0.5410611383 0.1359736046 -0.5412060096 -0.0489638498 0.1827181246
630296220.0 -0.0087016753 0.1784005018 0.1296886783 -0.5431161361 0.1307542603 -0.5426861286 -0.047382757 0.1830663867
635296190.0 -0.0068928454 0.1786134891 0.1240221446 -0.5434647294 0.1245019887 -0.543981158 -0.0455158208 0.1837381287
640296160.0 -0.0048220576 0.1786281567 0.1187490441 -0.5450131785 0.1185520307 -0.5453368827 -0.0432334926 0.1844265516
645296130.0 -0.0030619733 0.1790528263 0.1123535937 -0.5464382231 0.1125580485 -0.5461176178 -0.0424546545 0.1843568213
650296100.0 -0.0011701511 0.1794812443 0.1073065997 -0.5472930756 0.1071725305 -0.5472972175 -0.0403210345 0.1851157642
655296070.0 0.0008871651 0.1790259319 0.1007751457 -0.5480612016 0.1009076903 -0.5485227365 -0.0381521768 0.1860913117
660296040.0 0.0025132829 0.1797796578 0.0954602385 -0.5493114267 0.0951063614 -0.5495419301 -0.0366799033 0.1862241266
665296010.0 0.0049231023 0.1794470836 0.0891470347 -0.5507722045 0.0893556844 -0.5508724151 -0.0352633483 0.1870310738
670295980.0 0.0074284992 0.1797325169 0.0833243056 -0.5516054722 0.0835219484 -0.5511955967 -0.0333998995 0.1872160875
675295950.0 0.0092636972 0.1796293886 0.0770348184 -0.5523439963 0.077129421 -0.5523122878 -0.0312033585 0.1877105588
680295920.0 0.0110877087 0.1800035997 0.0709151791 -0.5530841272 0.0705021538 -0.5532714484 -0.0292704305 0.1883264788
685295890.0 0.0128698343 0.1799545804 0.0655042084 -0.5535815046 0.0648318333 -0.5542949708 -0.027416083 0.1889068365
690295860.0 0.0152986436 0.1796952264 0.059516279 -0.5536428815 0.0589539822 -0.5541981602 -0.0259259149 0.1892992378
695295830.0 0.0177838438 0.1796507874 0.0524966756 -0.5549083633 0.0531831302 -0.5550203291 -0.0243978678 0.1893343002
700295800.0 0.0196497217 0.1797966119 0.0470703901 -0.55518798 0.0471926502 -0.5555906234 -0.0224024093 0.1894233026
705295770.0 0.0213137927 0.1797811577 0.040670084 -0.5557013952 0.0413283442 -0.556042219 -0.0207093655 0.1904693162
710295740.0 0.0232540052 0.1798850222 0.0350563273 -0.5560184408 0.0353220776 -0.5560607679 -0.019624262 0.1909213264
715295710.0 0.0252906147 0.1795729639 0.0289932653 -0.5565097455 0.0293397318 -0.5567027756 -0.0170820699 0.1906162331
720295680.0 0.0272908185 0.1792909835 0.02273443 -0.5567096989 0.0231303238 -0.5572436496 -0.0146676254 0.1913435654
725295650.0 0.0296770267 0.1793698654 0.0168644502 -0.5568443279 0.0172046214 -0.5569844172 -0.0132834379 0.1913092912
730295620.0 0.0310375947 0.1790687824 0.0110127788 -0.5569829502 0.0113037539 -0.5569564991 -0.0112736698 0.1912841458
735295590.0 0.0334951278 0.1788741444 0.0051311008 -0.557443773 0.0059511853 -0.5573588737 -0.0096606952 0.191820986
740295560.0 0.0353463087 0.1788568779 -0.0011793674 -0.5566346221 -0.0009161474 -0.5569497084 -0.0073133485 0.1918946293
745295530.0 0.0375928992 0.1784193564 -0.0064353994 -0.5572069497 -0.0066880296 -0.5572094561 -0.0057804068 0.1922767905
750295500.0 0.0392568501 0.1780485111 -0.0125014589 -0.5568431819 -0.0128997761 -0.5568413834 -0.0038473432 0.1921180727
755295470.0 0.0419241862 0.1781237247 -0.0186355052 -0.5563073147 -0.0188081803 -0.5569768249 -0.0024677954 0.1930511191
760295440.0 0.0434361962 0.1776093577 -0.0250788177 -0.5560507202 -0.0248132662 -0.5565642524 -0.0008223908 0.1928200296
765295410.0 0.0452483074 0.1771936627 -0.0305303929 -0.5558787257 -0.0306161366 -0.556551773 0.0019433027 0.1935361925
770295380.0 0.0476892248 0.1769715043 -0.0369363528 -0.5554498096 -0.0368543051 -0.5558534818 0.0039260467 0.1933173465
775295350.0 0.0494140666 0.1769010277 -0.0429106401 -0.5551987146 -0.042462796 -0.5548613237 0.0052814996 0.1926658734
780295320.0 0.0517343895 0.1760548365 -0.0488731705 -0.554651045 -0.0484039423 -0.5546789561 0.0070277153 0.1936075162
785295290.0 0.0532657616 0.1758001012 -0.0545656208 -0.5535636064 -0.0542753957 -0.5540299801 0.008486959 0.1933984156
790295260.0 0.0551407439 0.1755265179 -0.0605026615 -0.5532949286 -0.0606206076 -0.5536429881 0.0111460443 0.1935921702
795295230.0 0.0572519643 0.1750490545 -0.0662185642 -0.552485225 -0.0661132113 -0.5528941057 0.0129323286 0.1939957786
800295200.0 0.0594732104 0.1746510835 -0.0728306114 -0.5520717478 -0.0729639083 -0.5521768589 0.0148408584 0.1936648764
805295170.0 0.0608205619 0.1740687442 -0.0782684346 -0.5509208684 -0.0781846303 -0.5511579536 0.0159999123 0.193492462
810295140.0 0.0632337023 0.1733264931 -0.0843175625 -0.5504042361 -0.0842354681 -0.5507235835 0.0185291932 0.1940348087
815295110.0 0.0653190789 0.1729275786 -0.090582046 -0.5490983081 -0.0906851743 -0.549242276 0.0200951604 0.1936797731
820295080.0 0.0670196878 0.1719880635 -0.095868924 -0.5482093329 -0.0960030154 -0.5484384196 0.0215552027 0.193537955
825295050.0 0.0691948642 0.1714283442 -0.1016989064 -0.5465740244 -0.1021292784 -0.5470709839 0.0243187432 0.1934450066
830295020.0 0.0710723342 0.1712906236 -0.107999308 -0.5458134457 -0.1083065372 -0.5461381711 0.0254954432 0.1935183378
