!Created with skrf (http://scikit-rf.org).
# Hz S RI R 50.0 
!freq ReS11 ImS11 ReS21 ImS21 ReS12 ImS12 ReS22 ImS22
300000.0 -0.0988203592 -0.0826964861 0.6239653067 0.0788591734 0.6256408104 0.0821064134 -0.0967135267 -0.0928003062
5299970.0 -0.1003144626 0.0129396764 0.6307691231 0.0101063902 0.6303949459 0.0107155304 -0.1019783797 0.0117956607
10299940.0 -0.0952597629 0.0297090282 0.6343873453 0.0155338623 0.6338856593 0.0157587873 -0.0970223737 0.0290101882
15299910.0 -0.0884828951 0.0430336175 0.640489539 0.0205122215 0.640162966 0.0210726073 -0.0899375211 0.0416481698
20299880.0 -0.0795580214 0.0543219751 0.6485786802 0.0243673331 0.6486437043 0.0243172547 -0.0814847412 0.0533146164
25299850.0 -0.0696859462 0.0628028101 0.6582732976 0.0249953939 0.6580861295 0.0251373967 -0.0723241091 0.0618818409
30299820.0 -0.0595865603 0.0693201167 0.6680287719 0.0241891876 0.6674708634 0.0242266981 -0.0624797933 0.0683392662
35299790.0 -0.0492588567 0.074431748 0.6772976498 0.0214978699 0.6775120183 0.021535446 -0.0525127277 0.073368601
40299760.0 -0.0397880015 0.0770476027 0.6862223176 0.0176297137 0.6866472546 0.0178678485 -0.0436780717 0.0771407298
45299730.0 -0.0302295986 0.0796726009 0.6956839876 0.0115892056 0.6955793912 0.0121831617 -0.0340771973 0.0792131175
50299700.0 -0.0215411134 0.0797119008 0.7035090691 0.0048048327 0.7038005186 0.0046285141 -0.0253274238 0.0801504453
55299670.0 -0.0142208769 0.0799417513 0.7107134213 -0.0032126266 0.7111569145 -0.0027010985 -0.017763876 0.0798520893
60299640.0 -0.0063994577 0.0788374732 0.7173283342 -0.0115183687 0.7172965259 -0.0110852059 -0.0102907824 0.0798919415
65299610.0 -0.0003752465 0.0780033474 0.7234372177 -0.0192076635 0.7237066895 -0.020062745 -0.0037784278 0.0786458168
70299580.0 0.0061689918 0.075895054 0.7285291958 -0.0290901889 0.7284962886 -0.02918559 0.0025554065 0.0770614052
75299550.0 0.0116059837 0.0741710822 0.7328901646 -0.0387185577 0.7331052471 -0.0391875504 0.0083197358 0.0757092372
80299520.0 0.0162680095 0.0720582127 0.7376704969 -0.0492562634 0.7376431435 -0.0491262579 0.0129483459 0.0731114605
85299490.0 0.020751305 0.0695867237 0.7405013735 -0.0589324666 0.7404673558 -0.0589031881 0.0174734759 0.0709109382
90299460.0 0.0247127921 0.0673042983 0.7433044897 -0.0687153901 0.7435369334 -0.0688616488 0.0222815758 0.0688814262
95299430.0 0.0281240345 0.0652433519 0.7461137956 -0.0790343248 0.7464598371 -0.0789652976 0.0255081012 0.0666760396
100299400.0 0.0314029121 0.0626367938 0.7470538082 -0.089286111 0.7476044784 -0.0891996595 0.0286430311 0.0639563974
105299370.0 0.0345464281 0.060195167 0.7486666004 -0.0993638799 0.7490226036 -0.099486255 0.031888301 0.0616458094
110299340.0 0.0369300016 0.0577802392 0.750027189 -0.1088087924 0.750385606 -0.1100491258 0.0346306658 0.0593211084
115299310.0 0.0398207997 0.0549271327 0.7510369745 -0.1193039779 0.7511479145 -0.1189088634 0.0372742977 0.0564460449
120299280.0 0.0415621229 0.052658567 0.7518273953 -0.1297114814 0.7514848638 -0.1296897063 0.0387730641 0.0542541379
125299250.0 0.0432931317 0.0503256344 0.7518829684 -0.1393115992 0.7518744937 -0.1399477252 0.0413131768 0.0513474127
130299220.0 0.045059113 0.0479644035 0.7515169531 -0.1484809416 0.7519061797 -0.1492545547 0.0433669546 0.0492281242
135299190.0 0.0467238338 0.0455786303 0.751000388 -0.1586802779 0.7506880787 -0.1587434262 0.0443340684 0.0474315627
140299160.0 0.0477494273 0.0442609861 0.7510478093 -0.16871994 0.7512667786 -0.1687638897 0.0460045992 0.0452646106
145299130.0 0.0493486101 0.041731539 0.7507709255 -0.1784245677 0.7497725842 -0.1784159286 0.0472861449 0.0426788577
150299100.0 0.0506205512 0.0397357539 0.7492744698 -0.1884527903 0.7489427739 -0.1880088145 0.0486476963 0.0409214723
155299070.0 0.0512734672 0.0382321406 0.747562945 -0.1982574077 0.7479651873 -0.1982088546 0.0493476811 0.0387331978
160299040.0 0.0523700561 0.0359102602 0.7462154421 -0.2070203619 0.746104972 -0.2073241031 0.0507912481 0.0372174906
165299010.0 0.052884959 0.0341514349 0.745266721 -0.216936028 0.7452411375 -0.2170600274 0.0513348335 0.0349859849
170298980.0 0.0535476243 0.0325626426 0.7421807025 -0.2263313479 0.7428129396 -0.2260215047 0.0527011697 0.0325965344
175298950.0 0.054527769 0.0305879439 0.7413572865 -0.2354735713 0.7410642078 -0.2349427569 0.0530296796 0.0310359971
180298920.0 0.0552651182 0.0291616918 0.7391057731 -0.2448329489 0.7388373145 -0.2440401265 0.053944944 0.0298971035
185298890.0 0.0559311916 0.0271692588 0.7365429056 -0.2543623842 0.7368721034 -0.2537301703 0.0544653839 0.0275387287
190298860.0 0.0561684469 0.0258340209 0.7344473279 -0.2631224158 0.7345698868 -0.2628642734 0.0552247561 0.0260485219
195298830.0 0.0563107159 0.0237714961 0.7320141366 -0.271555847 0.7322206026 -0.2722216269 0.0557590557 0.0241611839
200298800.0 0.0569908199 0.0226729809 0.7295966351 -0.2801428776 0.7289728601 -0.280260216 0.0562119973 0.0229791244
205298770.0 0.057113719 0.0214294419 0.7266412816 -0.2897270317 0.7263808767 -0.2897200479 0.0563594104 0.0208650398
210298740.0 0.0571437468 0.0197428546 0.7239268675 -0.2995623127 0.7235496525 -0.2990542868 0.0568907352 0.0198639715
215298710.0 0.0575745094 0.0186797612 0.7202976812 -0.3072108549 0.720856169 -0.3074996527 0.0567564976 0.0181715757
220298680.0 0.0581471694 0.0172215135 0.7177373277 -0.3162107444 0.7168955327 -0.3156406776 0.0574388437 0.0173934689
225298650.0 0.0584758945 0.0159646184 0.713606714 -0.3237749172 0.7140118755 -0.3243838589 0.0574682118 0.0156788373
230298620.0 0.058151684 0.0146924563 0.7107429433 -0.3332831478 0.7112801247 -0.3326221725 0.0579262465 0.0141122106
235298590.0 0.0584288272 0.0132157444 0.7076450011 -0.3408880823 0.7072295034 -0.3416884651 0.0578750313 0.0127674618
240298560.0 0.0582173129 0.0117314121 0.7036012673 -0.3493531199 0.7039593613 -0.3490223276 0.0578109514 0.0116488133
245298530.0 0.0588389327 0.0112866796 0.6993141295 -0.3578245541 0.6997929688 -0.358035974 0.0583724133 0.0105431585
250298500.0 0.0581828999 0.0096420855 0.6963313426 -0.3654567781 0.6961958332 -0.3656161461 0.0585678713 0.0090071016
255298470.0 0.0582641061 0.0088509216 0.6917680593 -0.3743682791 0.6919046882 -0.3743003549 0.0586062233 0.0076223006
260298440.0 0.0583391513 0.0077946196 0.6881178046 -0.3819690222 0.6881871659 -0.3824108937 0.0594615738 0.0069952314
265298410.0 0.058929214 0.0070197609 0.6837715296 -0.3910680329 0.6837977949 -0.3906852759 0.0589276625 0.005172597
270298380.0 0.0590154622 0.0055970716 0.6791029152 -0.3983502319 0.6800575623 -0.3986126664 0.0590691976 0.0048779099
275298350.0 0.0585656083 0.0047079363 0.675520656 -0.4065878681 0.675837778 -0.4065360351 0.0591241183 0.0036264709
280298320.0 0.058560062 0.0039212012 0.6708134425 -0.4137529331 0.670893664 -0.4148903755 0.0591906114 0.0027149956
285298290.0 0.0588082357 0.0030734391 0.6670061879 -0.4215669213 0.6664811844 -0.4221022305 0.0588516719 0.0015264079
290298260.0 0.0588227195 0.0015915986 0.662238416 -0.4298455077 0.6622210418 -0.4301397958 0.0593778917 0.000380251
295298230.0 0.0587015421 0.0006975156 0.6578901553 -0.4376571648 0.6573488857 -0.4373589537 0.0595742384 -0.0004227684
300298200.0 0.0589821524 -0.0001737274 0.6526106589 -0.4455355744 0.6533251859 -0.4452296415 0.0592264126 -0.0012179463
305298170.0 0.0587885279 -0.0014530336 0.6479953579 -0.4533465374 0.648766555 -0.4531783243 0.0598207108 -0.0024305975
310298140.0 0.0595262676 -0.0023371285 0.6440013981 -0.4609272908 0.643494856 -0.4609200347 0.0595529676 -0.0029635529
315298110.0 0.0587728313 -0.0034823069 0.6379456423 -0.4684673923 0.6385514473 -0.4684604709 0.0597925412 -0.0046686133
320298080.0 0.0588651664 -0.0044575435 0.6333281258 -0.4757437524 0.6333191993 -0.4759262163 0.0594155793 -0.0057699147
325298050.0 0.0581760271 -0.0059053482 0.6285845585 -0.4837789067 0.6281624033 -0.4839963319 0.0591918588 -0.0070787847
330298020.0 0.0578099079 -0.0067321369 0.6214550045 -0.491029137 0.6220463583 -0.4909409302 0.058542557 -0.0082245298
335297990.0 0.0575151335 -0.0079515229 0.6161423603 -0.4978350796 0.6165047058 -0.4981014238 0.0580430435 -0.008995011
340297960.0 0.0566740654 -0.0081290687 0.6104421571 -0.5045181188 0.6106515636 -0.5044552514 0.0574787231 -0.0097533091
345297930.0 0.0561538986 -0.0086231841 0.6046322658 -0.5108347314 0.6043396957 -0.5111172162 0.0576156506 -0.010818693
350297900.0 0.0563355897 -0.0092998165 0.5991892819 -0.5177499169 0.5993259186 -0.5180840575 0.0567547533 -0.0108849348
355297870.0 0.0559814257 -0.0104765843 0.5930838436 -0.5247668279 0.5931723103 -0.5249786902 0.0560210226 -0.0116358495
360297840.0 0.0558278791 -0.010848098 0.5877395684 -0.5316830954 0.5871368514 -0.5315732028 0.0564782632 -0.0120989879
365297810.0 0.0557501594 -0.0116070295 0.5812920703 -0.5377793746 0.5810507098 -0.5380786903 0.0562295915 -0.0125362065
370297780.0 0.0555666849 -0.0122630434 0.575334716 -0.5442006504 0.5756079168 -0.544731311 0.0561438323 -0.0131310115
375297750.0 0.0549398179 -0.0125196854 0.5702106284 -0.5507789103 0.5695205386 -0.5514934499 0.0555609156 -0.0134917344
380297720.0 0.0549909465 -0.0138246503 0.5635458726 -0.556656678 0.5634621857 -0.5571144039 0.0550803968 -0.0143277594
385297690.0 0.0548619889 -0.0139362051 0.5570458178 -0.5633114604 0.5570002869 -0.56365008 0.0549612978 -0.0149610015
390297660.0 0.0542597059 -0.0149391821 0.550401309 -0.5700072735 0.5511401723 -0.5706980014 0.0547750653 -0.0157884305
395297630.0 0.0542645372 -0.0157936481 0.5450824689 -0.5757760283 0.5444138771 -0.576361026 0.0544550406 -0.015960044
400297600.0 0.0536383911 -0.0159735189 0.538307189 -0.5815934956 0.5385846543 -0.5823694536 0.0534538617 -0.0169767849
405297570.0 0.0536790808 -0.0164811558 0.5319667484 -0.5881324081 0.5317650898 -0.5884222786 0.0536945568 -0.0167724951
410297540.0 0.0535291056 -0.0176206675 0.5245628489 -0.5932902305 0.5253928279 -0.5943305663 0.0530973167 -0.0178975824
415297510.0 0.0531869274 -0.0172213971 0.5184712978 -0.5992945597 0.5188210272 -0.5999095719 0.0526728984 -0.018043145
420297480.0 0.0529796062 -0.0189715867 0.5122010104 -0.6056400732 0.5123176695 -0.6056327369 0.0528997706 -0.0193359007
425297450.0 0.0534125157 -0.0196580973 0.5057035706 -0.6109555235 0.5058565436 -0.6109348064 0.0523894437 -0.0192784217
430297420.0 0.0524799681 -0.0196773377 0.4988142088 -0.617311616 0.4990063286 -0.6173418015 0.0515708807 -0.0206752248
435297390.0 0.0523286949 -0.0208535884 0.4922083262 -0.6219850054 0.4918652584 -0.6220936961 0.0510766844 -0.0206094983
440297360.0 0.0521308219 -0.0213641446 0.4848305133 -0.6278023535 0.4850402553 -0.6279322508 0.0508947225 -0.0215089738
445297330.0 0.0523871763 -0.0221339361 0.4781981499 -0.6334191478 0.4784478002 -0.6333691797 0.0507397092 -0.0218634422
450297300.0 0.0518688792 -0.0225065422 0.471005376 -0.6387096251 0.4709289448 -0.6383489674 0.050171381 -0.0221529927
455297270.0 0.0508800189 -0.0233901812 0.4641715166 -0.6430279482 0.4650581539 -0.6437334215 0.0503371162 -0.0229386701
460297240.0 0.0504494502 -0.0238274368 0.4568006862 -0.6485445424 0.456732605 -0.6489432205 0.0498097418 -0.0228348686
465297210.0 0.0505313034 -0.0246685102 0.4502590227 -0.6541117159 0.4503756003 -0.6542224958 0.0486474935 -0.0240271543
470297180.0 0.0500706016 -0.0253153474 0.442942399 -0.6586757036 0.4429677217 -0.6590525508 0.048037958 -0.0243300904
475297150.0 0.0493305976 -0.0263965753 0.4353757736 -0.6633093881 0.4354610053 -0.6632369757 0.0481475995 -0.0245506546
480297120.0 0.0496992783 -0.0267308095 0.4281360204 -0.6679417487 0.4283874343 -0.6678997296 0.0477395273 -0.0245784145
485297090.0 0.0493877022 -0.0271565054 0.4215022457 -0.6730461043 0.4209060971 -0.6733848766 0.0470060242 -0.0258588549
490297060.0 0.0488889399 -0.0282189873 0.4136929549 -0.6775780416 0.4135078079 -0.6778120952 0.0470087741 -0.0253506726
495297030.0 0.0476756445 -0.0280543474 0.4057579836 -0.682208926 0.4059162452 -0.6824621644 0.04680257 -0.0264236268
500297000.0 0.0475831977 -0.0293500558 0.3983472343 -0.6862584109 0.3985825086 -0.6870997087 0.0453645941 -0.0269693387
505296970.0 0.0470540262 -0.0297137873 0.3905993669 -0.6904682621 0.3907166598 -0.690961562 0.0447300447 -0.0274354513
510296940.0 0.0467636554 -0.0300234532 0.3834229045 -0.6953190227 0.3831402617 -0.6957070345 0.0448802314 -0.0272123542
515296910.0 0.0461290711 -0.0304180395 0.3753493352 -0.6992256026 0.3755728085 -0.6999311681 0.0439268286 -0.0282837021
520296880.0 0.0458625074 -0.0315252158 0.3677484719 -0.7034178409 0.3681718371 -0.7032331693 0.0440187218 -0.0283849142
525296850.0 0.0453318114 -0.0322595763 0.3601308744 -0.7075381293 0.3603338421 -0.7079109418 0.04374231 -0.0289944497
530296820.0 0.0448729029 -0.0324927273 0.3530702989 -0.7104646306 0.3522515672 -0.7113927238 0.0429029899 -0.0300084469
535296790.0 0.0440478372 -0.032939829 0.3445241051 -0.7148612505 0.3449668267 -0.7154311248 0.0426413456 -0.03016641
540296760.0 0.0440215353 -0.0337170253 0.3370097504 -0.7198545951 0.3360684221 -0.7196297058 0.041468457 -0.0303510537
545296730.0 0.043270464 -0.0335567775 0.328742239 -0.7222108809 0.3288838792 -0.7232824978 0.0412313414 -0.0310295156
550296700.0 0.0425644116 -0.034689564 0.3214398318 -0.7265979985 0.3219368653 -0.7267608997 0.0404156538 -0.0306664197
555296670.0 0.0425487426 -0.0353187544 0.3130919882 -0.7302395109 0.3128075245 -0.7301403778 0.0399464864 -0.0311166399
560296640.0 0.0416371675 -0.0357252552 0.3055092822 -0.7329090444 0.3052393023 -0.7329398394 0.0395618356 -0.0317040871
565296610.0 0.0405542788 -0.0363180878 0.2968611006 -0.7366677497 0.2963809332 -0.7370731908 0.0387898811 -0.0324258389
570296580.0 0.0410808287 -0.0364082857 0.2887980922 -0.7398151637 0.2892126251 -0.7399765273 0.0388227198 -0.0316905332
575296550.0 0.0401011785 -0.0362868891 0.2810440226 -0.7423784594 0.280862596 -0.7424270104 0.038084047 -0.032207488
580296520.0 0.0396851961 -0.037175608 0.2732393685 -0.7457542099 0.2724416506 -0.746390627 0.037434582 -0.0334911311
585296490.0 0.039231632 -0.0380434417 0.2648241346 -0.7494975446 0.2647664038 -0.7489255138 0.0370777438 -0.0338850654
590296460.0 0.0379001296 -0.0386699483 0.2564442477 -0.7519831393 0.2560506718 -0.7518634956 0.0364613498 -0.0335309862
595296430.0 0.0374746475 -0.0384317657 0.2482097493 -0.754451295 0.2483250446 -0.7550355097 0.0364814925 -0.0340644198
600296400.0 0.0369607485 -0.0386128495 0.2402349584 -0.7576025737 0.2405330245 -0.7573209926 0.0352700009 -0.0342462746
605296370.0 0.0366312686 -0.0385452503 0.2316603415 -0.7598476656 0.2319890275 -0.7594472549 0.034971182 -0.0350271761
610296340.0 0.0358524012 -0.0395585618 0.2239254439 -0.7625694857 0.2236464228 -0.7627806367 0.0345170462 -0.0343824942
615296310.0 0.0353949061 -0.0393755484 0.2148689418 -0.7646003285 0.2150031693 -0.7644405552 0.0337871477 -0.035265372
620296280.0 0.0345700881 -0.0401427833 0.2069150654 -0.7671499759 0.2072972971 -0.7667434402 0.0332597946 -0.0359992806
625296250.0 0.0344172433 -0.0404145459 0.1981229686 -0.7693479645 0.1981023616 -0.7689016332 0.0329118008 -0.0356636537
630296220.0 0.033519564 -0.0405948445 0.1893413213 -0.771644261 0.1899548413 -0.7713580937 0.0318888385 -0.0358974717
635296190.0 0.0330448643 -0.0409152141 0.1812938442 -0.7724777948 0.1810082538 -0.7725677772 0.0313071843 -0.0364047961
640296160.0 0.0323852518 -0.0413221062 0.1733961826 -0.7752626972 0.1731589833 -0.7752921522 0.0311565396 -0.0366906961
645296130.0 0.0319081459 -0.0410871273 0.164107156 -0.7776880635 0.1644905164 -0.7768404525 0.0296148998 -0.037375281
650296100.0 0.0308717807 -0.0410430861 0.1566287724 -0.7786292326 0.156453253 -0.7785917223 0.0295545272 -0.0371291579
655296070.0 0.0301668571 -0.0421455135 0.1476740305 -0.7804143153 0.1474486946 -0.779964906 0.0296619716 -0.0368518726
660296040.0 0.0291689573 -0.041702238 0.1392220801 -0.781310697 0.1393610694 -0.7816618818 0.0284037619 -0.0377394289
665296010.0 0.0290608288 -0.0425057842 0.1308319308 -0.7835644954 0.1311581801 -0.7832833715 0.0274615214 -0.0374987425
670295980.0 0.029149669 -0.0422596394 0.1225415884 -0.7848405656 0.1221446471 -0.7848363571 0.0270534783 -0.037939533
675295950.0 0.0282277438 -0.0424806997 0.113867632 -0.7858534367 0.1138533953 -0.7863913896 0.0267731626 -0.0376680256
680295920.0 0.0272595256 -0.0424895952 0.104376479 -0.7872058184 0.1047325928 -0.7874798465 0.0265692873 -0.0386752103
685295890.0 0.0264421893 -0.0427257883 0.0967648702 -0.7880102098 0.096087456 -0.7884844556 0.0257409047 -0.0382081367
690295860.0 0.0265875504 -0.0432322447 0.0879956491 -0.7886104894 0.0872949239 -0.7888828866 0.025574533 -0.0380060343
695295830.0 0.0262169419 -0.0433951378 0.0784898163 -0.790268938 0.078946962 -0.7902704202 0.0238885951 -0.0386336967
700295800.0 0.0256012078 -0.0435128421 0.0704226279 -0.7907144344 0.0703605764 -0.7913572503 0.0233864012 -0.0392640227
705295770.0 0.02450216 -0.043435547 0.0615902792 -0.7915812603 0.0619709342 -0.7918480883 0.0227470161 -0.0392188573
710295740.0 0.0241390956 -0.0434181329 0.0528828737 -0.7917308017 0.052861024 -0.7921517501 0.0214246914 -0.0390227523
715295710.0 0.0234298109 -0.0435970904 0.0445599388 -0.7924863669 0.0450471447 -0.7923934661 0.0215673456 -0.0398795694
720295680.0 0.0226523734 -0.0442013819 0.0359570631 -0.792712821 0.0359836943 -0.793602723 0.0215981954 -0.0393972054
725295650.0 0.0223466087 -0.0440878944 0.0269234032 -0.793305894 0.0271991368 -0.7932167436 0.0205815655 -0.0392992006
730295620.0 0.0212954696 -0.044405502 0.0186588117 -0.7939335041 0.0188580247 -0.7935591603 0.0203545026 -0.0401825078
735295590.0 0.0213805294 -0.0440980903 0.0107332896 -0.7935486235 0.0102017955 -0.7938541464 0.019439966 -0.0395320423
740295560.0 0.0202457548 -0.0443278537 0.0013088917 -0.7936815636 0.0012303932 -0.7939693536 0.0193373802 -0.0402812662
745295530.0 0.0198796466 -0.044902153 -0.0072669122 -0.7939933211 -0.0065729003 -0.7942279118 0.0180314688 -0.0401090617
750295500.0 0.0192874615 -0.0446968393 -0.0156502797 -0.793500595 -0.0158117468 -0.7933875602 0.017902015 -0.0405452333
755295470.0 0.0189595945 -0.0444118127 -0.02432799 -0.7935556225 -0.0243140702 -0.7936423411 0.016586224 -0.040165761
760295440.0 0.0178079284 -0.0445245748 -0.0329788846 -0.7930595163 -0.0331247369 -0.7934646379 0.0158860044 -0.0404092127
765295410.0 0.0171503275 -0.0450423287 -0.0409102312 -0.7921168977 -0.0413068836 -0.7928395117 0.0165129312 -0.0400038622
770295380.0 0.0169575237 -0.0449005877 -0.050407721 -0.7917641941 -0.0499654078 -0.7925638882 0.0157271848 -0.0400219569
775295350.0 0.0160605372 -0.0445873827 -0.0586679475 -0.7910495024 -0.0585114927 -0.7917014794 0.0146766828 -0.0410820635
780295320.0 0.0157155919 -0.0449697635 -0.0672773592 -0.7906332066 -0.0670387803 -0.7909853576 0.0141939805 -0.0400578363
785295290.0 0.0147907733 -0.0443821589 -0.0762071486 -0.7892379097 -0.0759306862 -0.7904017318 0.0130572066 -0.0407481434
790295260.0 0.0140411158 -0.0446186295 -0.0839307702 -0.789105559 -0.084366037 -0.7897307722 0.0131097416 -0.0402708404
795295230.0 0.0133321593 -0.0447271457 -0.0922741654 -0.7874918756 -0.0925652414 -0.787724774 0.012396119 -0.03956798
800295200.0 0.0130340355 -0.0443759866 -0.102364122 -0.7871613065 -0.1021828803 -0.7872244406 0.0118043029 -0.0403336044
805295170.0 0.0117457169 -0.044863425 -0.1100079717 -0.785654723 -0.1105554408 -0.7855731237 0.0107186478 -0.040776165
810295140.0 0.0112964497 -0.044842266 -0.1186421448 -0.7847760475 -0.1183072946 -0.7854996289 0.0105679278 -0.0399103289
815295110.0 0.010589456 -0.0442365546 -0.1273943859 -0.7831003525 -0.1280273841 -0.7835063055 0.0095362008 -0.0405985515
820295080.0 0.0102948178 -0.0447472082 -0.1356817266 -0.7821334184 -0.1358402859 -0.7822250146 0.0091638449 -0.0401145979
825295050.0 0.0094301304 -0.0446533399 -0.1442152932 -0.7798922532 -0.1445264915 -0.7799690851 0.0089685318 -0.0399217278
830295020.0 0.0087254128 -0.0442561337 -0.1530121943 -0.7782043834 -0.1533297655 -0.7790495925 0.0079401346 -0.0402754105
