!Created with skrf (http://scikit-rf.org).
# Hz S RI R 50.0 
!freq ReS11 ImS11 ReS21 ImS21 ReS12 ImS12 ReS22 ImS22
300000.0 -0.0973009748 -0.0791574736 0.6239547921 0.0745426887 0.6248498711 0.0804904836 -0.096773761 -0.0908797187
5299970.0 -0.1003060487 0.0129916402 0.6305675812 0.010311576 0.6305619075 0.0114540238 -0.1022697673 0.0119847391
10299940.0 -0.0953484437 0.0297648856 0.634585159 0.0158790914 0.6344239891 0.0159579922 -0.0973010414 0.029175938
15299910.0 -0.0883292383 0.0429976081 0.6407298742 0.0205594137 0.6403506715 0.0208804497 -0.0903172254 0.0421852388
20299880.0 -0.0795622603 0.0542212813 0.6489685751 0.0242522054 0.6491709485 0.0239905924 -0.0821690905 0.0532460574
25299850.0 -0.0695819174 0.0629151116 0.6580252021 0.0246556699 0.6579970634 0.0248507091 -0.0726122139 0.0619021937
30299820.0 -0.0597982306 0.069221803 0.6678244319 0.0248967313 0.6676681889 0.0244958753 -0.0625516872 0.0689976547
35299790.0 -0.049412307 0.0740403399 0.6771115684 0.0213480599 0.6776493773 0.0215646326 -0.052526456 0.0735629786
40299760.0 -0.0398154026 0.0771614773 0.6868014988 0.0177304279 0.6871560448 0.0178294722 -0.0434639339 0.0772376411
45299730.0 -0.0303682956 0.0792908532 0.6957219543 0.0117575885 0.6958751124 0.0119762907 -0.0341119185 0.0791429308
50299700.0 -0.0218858234 0.0799468217 0.7032619169 0.004682178 0.7038541406 0.0047209181 -0.0257363269 0.080084648
55299670.0 -0.0143401863 0.0800331056 0.7102547036 -0.0032865039 0.7112918777 -0.0025923371 -0.0179962815 0.0798558815
60299640.0 -0.0065984595 0.0788926529 0.7172597681 -0.0117433538 0.7174587412 -0.0110636183 -0.0103259739 0.079821708
65299610.0 -0.0003646325 0.0780441769 0.7236251212 -0.0193618957 0.7241313635 -0.020017292 -0.0039394382 0.0784373527
70299580.0 0.0058251033 0.0760296518 0.7286197765 -0.0288194664 0.7288229216 -0.029275262 0.0023402867 0.0769602002
75299550.0 0.0115437027 0.0742601282 0.7327207007 -0.0391879737 0.7330526897 -0.0386650614 0.0079171492 0.075654094
80299520.0 0.0160242606 0.0721802277 0.7377051891 -0.0491395146 0.7376683491 -0.048978138 0.0134449344 0.0728545563
85299490.0 0.0209916183 0.0696205643 0.7406320765 -0.0587357688 0.7407350446 -0.0589703109 0.0176433706 0.0709898836
90299460.0 0.0247724381 0.0673588275 0.7432434826 -0.0688411075 0.7437896913 -0.0687765378 0.0220727005 0.0685767375
95299430.0 0.0281520314 0.0653337253 0.7463522423 -0.0794601283 0.7462362144 -0.0793332226 0.0254069708 0.0664434786
100299400.0 0.031478279 0.0627492181 0.7477113784 -0.0894634012 0.7475486602 -0.0890984763 0.0284880174 0.0638332329
105299370.0 0.0344725345 0.0600257063 0.7487561459 -0.0988552643 0.7489607555 -0.0986090983 0.031747117 0.0616518148
110299340.0 0.0371939486 0.0578497159 0.7497805341 -0.1090246568 0.7502287475 -0.1097073886 0.0348377127 0.0592602361
115299310.0 0.0396629271 0.0549746955 0.7504230402 -0.1190028661 0.7513789195 -0.1188984108 0.0373054896 0.0559380267
120299280.0 0.0412359112 0.0527619024 0.7517402033 -0.1295663058 0.7513779134 -0.1295862713 0.0391042399 0.0541212875
125299250.0 0.0431242701 0.0503458878 0.7521103328 -0.1389190476 0.7519975835 -0.139461185 0.0410719103 0.0512014536
130299220.0 0.0450534669 0.0479384814 0.7512584826 -0.1487350612 0.7516943354 -0.1491900587 0.0433742403 0.0494304284
135299190.0 0.0467337668 0.0455098322 0.7515464487 -0.1588272695 0.751012175 -0.158815771 0.0446087175 0.0473976219
140299160.0 0.0476844815 0.0442550329 0.7509273426 -0.1687642647 0.7509877129 -0.1688144291 0.0464209122 0.045351699
145299130.0 0.0493237017 0.0419857613 0.7502681761 -0.1785470247 0.7502510083 -0.1781391731 0.0473885232 0.0426352048
150299100.0 0.0507067517 0.0399551143 0.7493017058 -0.1883027159 0.7493524676 -0.1881328732 0.0485636469 0.0406925135
155299070.0 0.051218106 0.0381423785 0.7475643588 -0.1982849193 0.747981366 -0.1984434232 0.0493674465 0.038950345
160299040.0 0.0522684335 0.0357110954 0.7458904267 -0.2068064026 0.7462410062 -0.2068449332 0.0509302729 0.0371281359
165299010.0 0.0528742542 0.0342238232 0.7451888559 -0.2165861797 0.7449275758 -0.216452467 0.0515046005 0.0347900866
170298980.0 0.0532900261 0.0325939939 0.7422223396 -0.2255580498 0.742958453 -0.2263886568 0.0529223896 0.0328892185
175298950.0 0.0543468214 0.0306186476 0.7416991734 -0.2350288599 0.74136598 -0.2352597534 0.0533347905 0.0311877032
180298920.0 0.0553896542 0.0291614744 0.7395721138 -0.2448284715 0.7393961758 -0.2440087947 0.0536947213 0.0300150039
185298890.0 0.0558446889 0.0273487688 0.7367966455 -0.2536773856 0.7371363086 -0.2531540809 0.0543297032 0.0277633576
190298860.0 0.0560424545 0.0257250566 0.7343224823 -0.2631839528 0.7348236438 -0.262670125 0.0557528289 0.0260752566
195298830.0 0.0563271664 0.0242189189 0.7317357299 -0.2714233543 0.7317009651 -0.2719765921 0.0560624495 0.024225112
200298800.0 0.0569395015 0.0229205196 0.7296733401 -0.2798787425 0.7292390222 -0.2804792048 0.0562270547 0.0234263355
205298770.0 0.0570546965 0.0213663666 0.7268619957 -0.2895339766 0.7269801228 -0.2896890125 0.0564329797 0.0206956974
210298740.0 0.0571161449 0.0196904438 0.7237867579 -0.2986981924 0.7238597283 -0.2990891497 0.0568925273 0.0198091842
215298710.0 0.0575984932 0.0187219824 0.7206305637 -0.3071106518 0.7207312994 -0.3072511178 0.0569640139 0.0185016401
220298680.0 0.0581893417 0.0173709662 0.7174485459 -0.3160238436 0.7175445417 -0.3155899048 0.0575922322 0.0175955391
225298650.0 0.0585654615 0.0159602081 0.714018951 -0.3236227009 0.7140039791 -0.3239166252 0.0576419944 0.0158085117
230298620.0 0.058017212 0.0148919401 0.7113465388 -0.3327131223 0.7111483567 -0.3328162026 0.0578081073 0.0144519352
235298590.0 0.0584551878 0.0131743612 0.7076163415 -0.3407627171 0.7076212953 -0.3412972664 0.0580247198 0.0129629202
240298560.0 0.058243071 0.0119632913 0.7038091051 -0.349205274 0.7043153909 -0.3493276911 0.0580811775 0.012006293
245298530.0 0.0585825241 0.0113798566 0.6996533286 -0.3574227498 0.6999938214 -0.3581515308 0.0582136097 0.0107560536
250298500.0 0.0580654702 0.0096623913 0.6960907285 -0.3650871992 0.6970033174 -0.3657282112 0.0588032499 0.0089942009
255298470.0 0.0581255302 0.0089763892 0.691845025 -0.3745008043 0.6925382335 -0.3745326079 0.0587152418 0.0076085588
260298440.0 0.0583255944 0.0077810253 0.6885199853 -0.3820372951 0.6885828801 -0.3823280031 0.0594276769 0.0072321896
265298410.0 0.0588639134 0.0070795743 0.6842814608 -0.3907399477 0.6841629056 -0.3904969496 0.0588992322 0.0056643904
270298380.0 0.0591669003 0.0055091311 0.6795688883 -0.3981668524 0.6797289294 -0.3981828691 0.0588398937 0.0051199057
275298350.0 0.058297998 0.0048266107 0.6753573696 -0.4067275542 0.675781413 -0.4067289202 0.0589088103 0.0038302857
280298320.0 0.0585409787 0.0042012471 0.6714273809 -0.4132896983 0.6712272983 -0.4144881731 0.0592899231 0.0029247554
285298290.0 0.0588024085 0.0030977874 0.6665584888 -0.4215411702 0.667018965 -0.4219838465 0.0588614072 0.0017738155
290298260.0 0.0587924035 0.0020069335 0.6622963138 -0.4297994609 0.6621018686 -0.4298349388 0.0596906073 0.0007652971
295298230.0 0.0584986485 0.0008900177 0.657859395 -0.4373993389 0.6576906855 -0.4377080942 0.0595968668 -8.48359e-05
300298200.0 0.0593651472 0.0002672557 0.6530157487 -0.4448198582 0.6530877255 -0.4453077645 0.0590597425 -0.0011553454
305298170.0 0.0589327005 -0.0012860306 0.6482941846 -0.4526412341 0.6487892389 -0.4532972749 0.0594878798 -0.0022093755
310298140.0 0.0593778599 -0.0022988485 0.6439621828 -0.4599982566 0.6434964965 -0.4609951431 0.0594507347 -0.0027011577
315298110.0 0.058889925 -0.0034003062 0.6384509118 -0.4684739286 0.6387025097 -0.4681512204 0.0596627306 -0.0044277453
320298080.0 0.0587164564 -0.004429036 0.6330126267 -0.4756203381 0.6336944582 -0.4757304239 0.0593032324 -0.0055488013
325298050.0 0.0582257152 -0.0059190394 0.6283838525 -0.4838657581 0.6279944725 -0.4836747511 0.0592804429 -0.007063885
330298020.0 0.0581296657 -0.0064944394 0.6217602936 -0.4906256987 0.6220242271 -0.4909943072 0.0585236196 -0.0081419557
335297990.0 0.0574845135 -0.007871141 0.6167304369 -0.4977241302 0.616747667 -0.4981492568 0.0581634192 -0.009146455
340297960.0 0.0565239302 -0.0079780817 0.6108793068 -0.5045203963 0.611281204 -0.5046137495 0.0574748335 -0.009408
345297930.0 0.0560825791 -0.0082556425 0.605056818 -0.5103313715 0.604792926 -0.5111211982 0.057836822 -0.0107345555
350297900.0 0.0564765643 -0.0093268021 0.5990877195 -0.5175546243 0.5996607218 -0.517759803 0.0564517735 -0.0104939915
355297870.0 0.0559983509 -0.0101547179 0.5937894027 -0.5245414314 0.5933074515 -0.5251113195 0.0563667903 -0.0113731107
360297840.0 0.0561878137 -0.0104472463 0.5880443874 -0.5317131066 0.5875782061 -0.5316607024 0.0563031788 -0.0118358447
365297810.0 0.0556342913 -0.0115599663 0.5815246392 -0.5376678979 0.5812566599 -0.5379430569 0.0557822813 -0.0123827301
370297780.0 0.0556419875 -0.012219781 0.5761356312 -0.5439624019 0.5755624285 -0.5442467632 0.0559736088 -0.0130650217
375297750.0 0.0552056058 -0.012343606 0.5708163801 -0.5508984713 0.5698155098 -0.5511446785 0.0556715986 -0.0134904552
380297720.0 0.0552959142 -0.0136560092 0.5637143403 -0.5568783571 0.5635478318 -0.5571151642 0.0553216207 -0.0146613315
385297690.0 0.0548922803 -0.0138612158 0.5575712624 -0.5632260856 0.5574585982 -0.5633463571 0.0551753411 -0.0148391861
390297660.0 0.0543576663 -0.0147778252 0.5514054748 -0.5696733819 0.5516417361 -0.5702483636 0.0550681687 -0.0156666166
395297630.0 0.0545693983 -0.0156520331 0.5452405306 -0.5754153789 0.5448271407 -0.575765081 0.0544053225 -0.0157770343
400297600.0 0.0538959054 -0.0159223854 0.5384860241 -0.5824017641 0.5392884928 -0.5824563599 0.0532923445 -0.0168745041
405297570.0 0.0539513158 -0.0165032976 0.5322501479 -0.587996617 0.5325692988 -0.5883966417 0.0537667643 -0.0169286973
410297540.0 0.0536839372 -0.017405719 0.525231162 -0.5937616592 0.5254433238 -0.5937630255 0.0532358462 -0.0179167353
415297510.0 0.053218237 -0.0173834934 0.5187415932 -0.599151296 0.5192995541 -0.5997287071 0.0527893049 -0.0181573604
420297480.0 0.0529960752 -0.0188531221 0.512224529 -0.6051819067 0.5125354662 -0.6056409707 0.0530439677 -0.0192205891
425297450.0 0.0533727973 -0.0196831429 0.5059848102 -0.6107234601 0.5065874043 -0.6110980382 0.052026817 -0.0189766377
430297420.0 0.0524578088 -0.0196825223 0.4992086093 -0.6171621847 0.499177983 -0.6172315982 0.0516027938 -0.0202554378
435297390.0 0.0523260166 -0.0207146921 0.4925735325 -0.6215728777 0.4923806362 -0.6219646452 0.051108387 -0.0199907253
440297360.0 0.0520988086 -0.0214846736 0.4846976388 -0.6273215687 0.4850112589 -0.6276360328 0.0512767887 -0.0215158814
445297330.0 0.0523625022 -0.0220675741 0.4782057886 -0.6335910572 0.4782253733 -0.6331176368 0.050882346 -0.0217266278
450297300.0 0.0517720841 -0.022491106 0.4713300633 -0.6384588668 0.4718656803 -0.6385481495 0.0505104232 -0.0223588697
455297270.0 0.0509691904 -0.0233302247 0.4649923106 -0.643664065 0.4655203081 -0.6437653519 0.05060499 -0.0229249645
460297240.0 0.050604745 -0.0240879815 0.4571841481 -0.6486497184 0.4569369553 -0.6491026213 0.0498068305 -0.0227525647
465297210.0 0.0506251224 -0.0247632015 0.4505418112 -0.6532446821 0.4507301644 -0.6540991143 0.0488000076 -0.023717055
470297180.0 0.0498747841 -0.025270969 0.4429457596 -0.6586492737 0.4433834568 -0.6591950789 0.048305483 -0.0240964878
475297150.0 0.0494149501 -0.0263292435 0.4353381714 -0.6629726305 0.4361695086 -0.6629192643 0.0484661497 -0.0243478772
480297120.0 0.0496480406 -0.0267968473 0.4289436349 -0.6682270303 0.4288346657 -0.6684287306 0.0477693305 -0.0245143025
485297090.0 0.0493322322 -0.0272730133 0.4214609801 -0.6730966666 0.4213143293 -0.673153389 0.0470838524 -0.025654972
490297060.0 0.0489954969 -0.0282112362 0.4142614553 -0.6778361845 0.4141068433 -0.6779586271 0.0471667837 -0.0255353793
495297030.0 0.0479643097 -0.0280145058 0.4062052587 -0.6822765504 0.4063788834 -0.6824677415 0.0468180272 -0.0263185669
500297000.0 0.0480649288 -0.0292079694 0.3994612383 -0.6864563422 0.399008789 -0.6867877877 0.0457835981 -0.0268841807
505296970.0 0.0470859492 -0.0296940705 0.3905001845 -0.6904503493 0.3910094623 -0.6909459455 0.0451056652 -0.0269735476
510296940.0 0.0466757217 -0.0299787393 0.383736691 -0.6951490475 0.3838472282 -0.6953151367 0.0451311593 -0.0269253196
515296910.0 0.0461048666 -0.0302872296 0.3756579326 -0.699126599 0.3761726418 -0.6996606666 0.0441413408 -0.0279339804
520296880.0 0.0461518347 -0.0313572095 0.3677248423 -0.7032453322 0.3685891326 -0.7034225994 0.0444729351 -0.028337925
525296850.0 0.0451422184 -0.0323042852 0.3609695828 -0.7074499154 0.3608673243 -0.7080656235 0.0440746845 -0.0288871031
530296820.0 0.045118126 -0.0323038159 0.3534252705 -0.7104741635 0.3527157846 -0.7118254578 0.0426247271 -0.029691909
535296790.0 0.0440680714 -0.0328618037 0.3448372369 -0.7146697295 0.3455033265 -0.7151602287 0.0425540346 -0.0299819533
540296760.0 0.0437341782 -0.03385083 0.3371810327 -0.7193878207 0.3367303375 -0.7194690286 0.0415788754 -0.0299423173
545296730.0 0.0433967417 -0.0334217095 0.3291185739 -0.722434712 0.3294015245 -0.7233985908 0.0411599205 -0.0309317595
550296700.0 0.0426690964 -0.0344588278 0.3217160821 -0.726494924 0.3219425312 -0.7268323167 0.0405514625 -0.0305354795
555296670.0 0.0426004379 -0.0351456122 0.3134130539 -0.7299068407 0.3136310929 -0.7299669571 0.0401296809 -0.0309033665
560296640.0 0.0417498725 -0.0355421918 0.3059558391 -0.7325517001 0.3053749927 -0.7327590241 0.0397076025 -0.0316021193
565296610.0 0.0407544157 -0.0362717335 0.2973213393 -0.736877601 0.2971013046 -0.7370925335 0.0390838837 -0.0322252387
570296580.0 0.0412739399 -0.0364577422 0.2894442445 -0.7394920387 0.2898316997 -0.7400749929 0.0390101252 -0.0316113091
575296550.0 0.0401695596 -0.0361158199 0.2810818308 -0.7429017025 0.2818531949 -0.7426219187 0.0385299737 -0.0326225802
580296520.0 0.0393828928 -0.0371016117 0.2736983514 -0.7458063992 0.2726249263 -0.746107493 0.0377957403 -0.033117684
585296490.0 0.0394604681 -0.0378516457 0.2655801285 -0.7489350635 0.2650681359 -0.7491851842 0.0369913929 -0.0338173284
590296460.0 0.0381902334 -0.0383783852 0.2566605702 -0.7522186838 0.2561108955 -0.751852877 0.0365154666 -0.0333190359
595296430.0 0.0377856941 -0.0383513322 0.2491403503 -0.7544510748 0.2485935375 -0.7548942708 0.0363592196 -0.0340951292
600296400.0 0.037080931 -0.0384664983 0.2404428746 -0.7575451462 0.2407660689 -0.7572724974 0.0358253705 -0.0343181162
605296370.0 0.0368953219 -0.0385579971 0.2323303261 -0.7598393162 0.2322068072 -0.7601078537 0.0349483641 -0.0351531574
610296340.0 0.0361778249 -0.0394283001 0.2240647244 -0.7623255069 0.2239181269 -0.7625624559 0.034245257 -0.0341078711
615296310.0 0.0355437715 -0.0394476392 0.2153278047 -0.7643206763 0.2156793676 -0.7648974466 0.0339522341 -0.0351612357
620296280.0 0.0345517045 -0.0400712762 0.2072158782 -0.767099592 0.2073427109 -0.7669306996 0.0334995309 -0.0355932401
625296250.0 0.034428947 -0.0402457802 0.1984547074 -0.7690270039 0.1988154412 -0.769357398 0.0331958092 -0.0353842999
630296220.0 0.033841586 -0.0405862241 0.1900980396 -0.7716400658 0.1909141909 -0.771536502 0.0317466565 -0.0358493717
635296190.0 0.0332102487 -0.040915278 0.1819027186 -0.7727058043 0.1815912329 -0.7729895029 0.0314433553 -0.036700047
640296160.0 0.0326093847 -0.0408095051 0.1736339714 -0.7748813165 0.1738085261 -0.775416498 0.0313475558 -0.0367219221
645296130.0 0.0319942495 -0.0414687662 0.1653106038 -0.7777865176 0.1646574114 -0.777320658 0.0297114607 -0.0374155036
650296100.0 0.0311191672 -0.0408135109 0.1569487994 -0.7786559745 0.1565171223 -0.7786930244 0.0299051381 -0.0373919567
655296070.0 0.030368501 -0.0417513586 0.1475130366 -0.7799246715 0.1480775396 -0.7805108355 0.029908395 -0.0367779869
660296040.0 0.0293112577 -0.041556316 0.1396109898 -0.7811518146 0.1399168057 -0.7816181257 0.0283870734 -0.0381066945
665296010.0 0.0296057357 -0.0425022177 0.1314085955 -0.7834253487 0.131738368 -0.7833624643 0.0279179103 -0.0375558835
670295980.0 0.0290322962 -0.0422608907 0.1227192282 -0.7843832301 0.1225580882 -0.7846710229 0.0268836405 -0.0382285143
675295950.0 0.0284989255 -0.0425060813 0.1141257817 -0.7859555777 0.1143954379 -0.7866926535 0.0275221407 -0.0379415441
680295920.0 0.0275655838 -0.0424903117 0.1052634441 -0.7871073909 0.1051292755 -0.7876091889 0.0268059438 -0.0385260433
685295890.0 0.0266784278 -0.0427920878 0.0970804377 -0.7882042136 0.0964134269 -0.7885810571 0.0259643908 -0.0383870328
690295860.0 0.0268090152 -0.0432190604 0.0884084324 -0.788988697 0.0878761804 -0.7891760592 0.0257689094 -0.0380768662
695295830.0 0.0263989425 -0.0434516755 0.0791453434 -0.7901762953 0.0793864427 -0.7904658226 0.0242625035 -0.0387018561
700295800.0 0.0258356269 -0.0436999302 0.0708474716 -0.7909724008 0.0710333658 -0.7914523739 0.0240188777 -0.039566936
705295770.0 0.024858814 -0.0434896454 0.0623084682 -0.7913360035 0.0625789244 -0.7920663763 0.0231727996 -0.039182091
710295740.0 0.0240548114 -0.0433457179 0.0537124716 -0.7916728014 0.0532838867 -0.7921714902 0.0216343149 -0.0387502494
715295710.0 0.023567373 -0.043779891 0.0451934819 -0.7929984852 0.0453212994 -0.7934020572 0.0219939795 -0.039879338
720295680.0 0.0227205038 -0.044090689 0.036809928 -0.7929992957 0.0363984969 -0.7934989381 0.021951744 -0.0391675707
725295650.0 0.0223693161 -0.0440636259 0.0276107332 -0.7932789736 0.0274995016 -0.7935266497 0.0207286206 -0.0388782756
730295620.0 0.0212586026 -0.0445474625 0.0192243001 -0.7936860964 0.0190811582 -0.7938803334 0.0209417902 -0.0403961502
735295590.0 0.0212581702 -0.0443423842 0.0106290215 -0.7941863513 0.0105365483 -0.7940852011 0.0197499852 -0.039588606
740295560.0 0.0202169098 -0.044177138 0.001725206 -0.7933861674 0.0018730346 -0.7940113241 0.0195661109 -0.0399275533
745295530.0 0.019860135 -0.0447145568 -0.0066503241 -0.7941697536 -0.006435745 -0.7944917649 0.0183541079 -0.0398115308
750295500.0 0.0193480621 -0.0447425429 -0.0150709463 -0.7934686526 -0.0151546511 -0.7935741898 0.0184223535 -0.0403755205
755295470.0 0.0189445587 -0.0445578621 -0.023867928 -0.7933162869 -0.0232855847 -0.793784961 0.0169652447 -0.0400439292
760295440.0 0.0178420317 -0.0442906414 -0.0328491302 -0.7934218647 -0.032651562 -0.7933947527 0.0156791814 -0.0402808834
765295410.0 0.0170400152 -0.0452466058 -0.0402549289 -0.7924981804 -0.0406696553 -0.7932618918 0.016606767 -0.0399925258
770295380.0 0.0169741804 -0.0448569203 -0.0496371026 -0.7920980119 -0.0496657183 -0.7925698873 0.0161174113 -0.0399714275
775295350.0 0.01610471 -0.0448135671 -0.0578544613 -0.7915046362 -0.0581525589 -0.7917572433 0.0148391987 -0.0407424145
780295320.0 0.0156039452 -0.0447196964 -0.0669187519 -0.7910817441 -0.0664517156 -0.7909516217 0.0146000912 -0.039946812
785295290.0 0.0145513788 -0.0443946311 -0.07537482 -0.7893996029 -0.0755755738 -0.7904739028 0.0131171614 -0.040242092
790295260.0 0.0140638919 -0.04432118 -0.0843230328 -0.789555015 -0.0841230591 -0.7898929593 0.0129506215 -0.040359981
795295230.0 0.013353191 -0.0447002168 -0.0918605778 -0.787936003 -0.0926796806 -0.7883431676 0.012315844 -0.0395428044
800295200.0 0.0127924511 -0.0444421181 -0.1013702359 -0.7879279165 -0.1016932113 -0.787845825 0.012047006 -0.0399673155
805295170.0 0.0118476791 -0.0445667506 -0.1096764646 -0.7856153319 -0.1094675056 -0.7859969862 0.0108281408 -0.040282927
810295140.0 0.0115451905 -0.0446836726 -0.1176107827 -0.7850311532 -0.1181489922 -0.7855013786 0.010894346 -0.0395785557
815295110.0 0.0109570311 -0.0443038574 -0.126860343 -0.7829326248 -0.1274492919 -0.7837124142 0.0097737606 -0.0404296852
820295080.0 0.0103622987 -0.0447103169 -0.1349738988 -0.7824344638 -0.1353244002 -0.7828602719 0.0092292352 -0.0399025687
825295050.0 0.0094061914 -0.0448191829 -0.1434421631 -0.780010464 -0.1436668065 -0.7803231029 0.0086704991 -0.0394378977
830295020.0 0.0088828751 -0.0442517652 -0.1522456996 -0.7791214882 -0.1525435728 -0.7791011296 0.0080084374 -0.0398778576
