!Created with skrf (http://scikit-rf.org).
# Hz S RI R 50.0 
!freq ReS11 ImS11 ReS21 ImS21 ReS12 ImS12 ReS22 ImS22
300000.0 -0.0462088623 -0.0425404141 0.0007225687 -0.0015218981 -0.0005377821 0.001359629 -0.775273786 -0.1277023553
5299970.0 -0.0487241935 0.0155703534 -0.0001401877 0.0002688396 0.0001152902 4.11362e-05 -0.7842742314 -0.007046117
10299940.0 -0.0430696472 0.0320175773 -0.0002618379 -0.000336508 -0.0001619991 -2.75357e-05 -0.7875165578 -0.0034809123
15299910.0 -0.0350299401 0.0459543892 0.00013917 0.0001517628 6.30447e-05 0.0001716709 -0.7930678117 -0.0014976195
20299880.0 -0.0254118291 0.0575381563 3.28676e-05 5.83377e-05 -9.38277e-05 -0.0001320445 -0.7995783364 0.0020501491
25299850.0 -0.0145136412 0.0665749882 -0.0001215336 -1.70384e-05 0.0001816007 3.8753e-05 -0.8058535696 0.0085019755
30299820.0 -0.0034709601 0.072837334 -1.93445e-05 0.0002402455 6.97912e-05 1.24678e-05 -0.811930448 0.0164497294
35299790.0 0.0077301859 0.0776077695 -4.1836e-06 8.8067e-06 -0.0001597213 -0.0001337695 -0.8170408551 0.0255767563
40299760.0 0.0191292262 0.0805303098 2.11316e-05 -1.51668e-05 8.73413e-05 0.0001210033 -0.8214948439 0.0347307041
45299730.0 0.0296456536 0.081471276 1.16613e-05 0.0001626341 -0.000135672 3.38425e-05 -0.825609478 0.0441650738
50299700.0 0.0390984874 0.0814261567 0.0001623546 -7.26563e-05 9.37694e-05 3.62446e-05 -0.8275389622 0.0540591662
55299670.0 0.0481240555 0.0802043262 0.0002164331 3.02629e-05 -0.0001436097 0.0001018629 -0.8299839248 0.064672504
60299640.0 0.0567434872 0.0786785058 -5.5488e-06 7.6594e-05 -7.26755e-05 -0.0001300158 -0.8305415281 0.0745069327
65299610.0 0.0643849545 0.0758994524 -0.0001779466 -8.26049e-05 -0.0001642146 0.0001556339 -0.8322023368 0.0846688335
70299580.0 0.0710953409 0.0734688428 -0.0001003883 2.0738e-05 2.8631e-05 2.1501e-05 -0.8319786916 0.0945386769
75299550.0 0.0774263874 0.0701319547 4.8975e-06 -0.0001148115 0.0001168124 0.0001199353 -0.8326164718 0.1040584571
80299520.0 0.0829336875 0.0665132909 1.80425e-05 0.0002083681 -4.54839e-05 -2.26828e-05 -0.8320895431 0.1140305634
85299490.0 0.0878053885 0.0626094238 -0.0001094636 4.21999e-05 -2.72843e-05 0.0001614329 -0.8317365484 0.1238783099
90299460.0 0.0921722525 0.0589106689 -0.0001274086 4.14266e-05 -8.87139e-05 0.0001494445 -0.8310264546 0.1331906724
95299430.0 0.0963541598 0.0547305095 -8.8388e-06 -0.0001116639 -5.33224e-05 -0.0001187191 -0.8291314819 0.1429060801
100299400.0 0.0996341955 0.0510464749 6.40183e-05 -4.80153e-05 -7.74102e-05 -9.48827e-05 -0.828301395 0.1525617751
105299370.0 0.1029193342 0.0473093331 -0.0001802243 6.14892e-05 4.0782e-05 0.0001349225 -0.8273048423 0.1614551544
110299340.0 0.1057367998 0.0429953764 -0.0001176071 7.43282e-05 -0.0001418703 0.0001149529 -0.8257434839 0.1710188674
115299310.0 0.1085083432 0.0391843689 -2.8837e-05 -1.7117e-05 -0.0001553201 0.0001715977 -0.8241917479 0.1803953577
120299280.0 0.1104633697 0.0352008063 1.47704e-05 -0.0001584858 -6.62918e-05 -0.0001157497 -0.8223741259 0.1893204342
125299250.0 0.1121484179 0.0312521468 -3.16442e-05 0.0001440099 -5.5567e-05 0.0001848736 -0.8210672319 0.1976571776
130299220.0 0.113539339 0.027885718 -6.9691e-05 3.27326e-05 -2.92913e-05 -0.0001050881 -0.8185710818 0.2069539305
135299190.0 0.115146644 0.0242590032 -0.0002457266 -0.0001202538 8.2792e-06 -1.8896e-05 -0.8165848894 0.2160403849
140299160.0 0.1162528776 0.0205236555 7.80476e-05 0.0001160861 0.0001242479 2.47866e-05 -0.8140967615 0.2249948109
145299130.0 0.117751263 0.0168553397 -0.0001065969 0.000110914 0.0001014144 -1.13864e-05 -0.8120482221 0.2344448711
150299100.0 0.1183781171 0.0133312276 8.19536e-05 -0.0001512983 -2.00684e-05 -9.65036e-05 -0.8102847614 0.2430437689
155299070.0 0.1188350136 0.0102087794 0.0002655122 -0.0001558332 -5.92192e-05 5.16271e-05 -0.8067780152 0.2521703111
160299040.0 0.1192877616 0.0070823268 -4.79681e-05 7.7823e-05 7.89055e-05 0.0001493645 -0.805244687 0.2613000591
165299010.0 0.1198438016 0.0034940001 0.0002092493 7.18212e-05 0.000137225 6.99656e-05 -0.8021791116 0.2697856169
170298980.0 0.1198564881 0.0006243004 8.27785e-05 -7.88105e-05 4.05585e-05 -5.5366e-05 -0.7992216531 0.2782570869
175298950.0 0.120432363 -0.0025573112 -2.3227e-05 -0.0001116131 8.94481e-05 -6.45211e-05 -0.7968967346 0.2868120991
180298920.0 0.1205576137 -0.0053057412 9.82976e-05 4.78453e-05 3.51779e-05 -0.0001239115 -0.7934515026 0.2951723805
185298890.0 0.1205263765 -0.0084042391 1.89858e-05 -6.9743e-06 0.0001584632 0.0002267289 -0.789778065 0.3039181354
190298860.0 0.1204948384 -0.0112178026 -1.58522e-05 9.65809e-05 -1.98019e-05 -0.0002369426 -0.7873768989 0.312284595
195298830.0 0.1200995397 -0.0138731826 4.22703e-05 -9.60973e-05 -1.62319e-05 6.34604e-05 -0.7845787528 0.3212291129
200298800.0 0.1199576221 -0.0166745457 2.05798e-05 -0.0001298665 -8.7851e-06 2.16956e-05 -0.7817055399 0.3295000801
205298770.0 0.1196152917 -0.0191697852 -1.71524e-05 -0.0001281737 -1.60224e-05 1.20819e-05 -0.7772337275 0.3379373757
210298740.0 0.1189958306 -0.0219903561 0.0002845847 -8.50791e-05 0.0001419311 0.0002288477 -0.7744452356 0.3464445413
215298710.0 0.1187422461 -0.0243635712 6.12231e-05 -8.5089e-05 0.0001277665 3.45548e-05 -0.7710041254 0.3540079826
220298680.0 0.1180213893 -0.0272055101 -1.52915e-05 0.0002814898 7.22641e-05 -4.84771e-05 -0.7672077653 0.3619434473
225298650.0 0.1176314204 -0.0295705394 -0.0001063283 -0.0001197363 4.98236e-05 0.000112846 -0.7638111976 0.370940188
230298620.0 0.1168653435 -0.0317106615 5.37369e-05 0.0002152328 -0.0001219206 -3.04418e-05 -0.7600491348 0.3783109404
235298590.0 0.1164796281 -0.034061501 0.0001363971 4.68516e-05 4.94683e-05 -6.23615e-05 -0.7558902829 0.3874541481
240298560.0 0.1155429118 -0.0365038753 -2.85884e-05 4.49225e-05 3.99811e-05 -3.84237e-05 -0.7518386263 0.3961701142
245298530.0 0.1148191908 -0.0386064958 2.22386e-05 2.20257e-05 2.82159e-05 2.77905e-05 -0.7480032756 0.40240276
250298500.0 0.1142599217 -0.0408924211 -2.12465e-05 8.20227e-05 -9.72323e-05 5.99203e-05 -0.7437836446 0.4104203153
255298470.0 0.1130827523 -0.043231499 0.0002645242 -7.02522e-05 5.09315e-05 0.0001063331 -0.7389064708 0.4179191834
260298440.0 0.1123275955 -0.0451734988 0.0002136242 -0.0001035173 6.31745e-05 0.0001922085 -0.7349724995 0.4264872252
265298410.0 0.1112452295 -0.0470173948 0.0001347776 0.0001212144 0.0001530569 3.7201e-05 -0.7302799301 0.433987883
270298380.0 0.1104191675 -0.0493656601 0.0002850221 -1.30032e-05 0.0001346597 4.99009e-05 -0.725312575 0.441210939
275298350.0 0.1095946539 -0.0510363566 7.85787e-05 3.08747e-05 5.84609e-05 0.0001010646 -0.7207038087 0.4490306969
280298320.0 0.1088290312 -0.053234088 1.46638e-05 -0.0003577746 0.0001776063 0.0002016601 -0.7158921867 0.4566708983
285298290.0 0.1080772095 -0.054963776 6.80132e-05 -0.0001115662 8.09111e-05 0.0001754839 -0.7103246838 0.4637196262
290298260.0 0.107064416 -0.05685501 1.97047e-05 2.09466e-05 2.3445e-05 9.98047e-05 -0.7056529987 0.4711769135
295298230.0 0.1061126008 -0.058887971 4.5202e-05 0.0002499914 0.0001720479 8.37458e-05 -0.7013568741 0.4781138466
300298200.0 0.1048717815 -0.0606370552 0.0002211856 -1.93548e-05 0.0001346003 0.00017649 -0.6960900132 0.4856333443
305298170.0 0.1039320273 -0.0624088516 -3.27766e-05 -1.29814e-05 8.03061e-05 -7.96119e-05 -0.6902487481 0.4929161201
310298140.0 0.1027833528 -0.0642412791 0.0001300913 -0.0001132785 -0.0002001489 0.0001423071 -0.6858799874 0.4998287962
315298110.0 0.1021204892 -0.0661987167 0.0002141987 7.26356e-05 0.0002020839 0.0001830529 -0.6799302243 0.5071090143
320298080.0 0.1007571336 -0.0682004071 0.0002485388 -3.97472e-05 -1.44034e-05 6.6571e-06 -0.6744954826 0.5144393794
325298050.0 0.0995132109 -0.0698674667 0.0002192755 7.81769e-05 2.91682e-05 -7.03075e-05 -0.6688917244 0.5214084567
330298020.0 0.0979411078 -0.0717524167 -1.08675e-05 8.53009e-05 0.0002129354 0.0001271406 -0.6633184705 0.5283648024
335297990.0 0.0963936247 -0.0735284092 3.78743e-05 1.40644e-05 -0.0001773544 -4.3165e-06 -0.6582922234 0.535679505
340297960.0 0.0950193348 -0.0747592318 7.77909e-05 1.40952e-05 0.0001698893 -8.07993e-05 -0.6524199496 0.5425592253
345297930.0 0.0934803397 -0.0762388042 0.0001168406 0.000186914 7.70066e-05 0.0001193034 -0.6470280907 0.5487459347
350297900.0 0.0921013794 -0.0775035896 6.54668e-05 -4.33942e-05 8.95634e-05 -8.22751e-05 -0.6412683985 0.5554444786
355297870.0 0.0909799424 -0.0787132295 0.0001011145 2.52595e-05 0.0001464245 3.41915e-05 -0.6350640765 0.5620414928
360297840.0 0.0894879218 -0.0799536467 0.0001525595 -0.0001173356 0.0002212465 5.58491e-05 -0.6292510531 0.5690633367
365297810.0 0.0875171017 -0.0810607326 8.73423e-05 0.0001877537 0.0001660106 4.04103e-05 -0.6227201557 0.5752382915
370297780.0 0.08672848 -0.0825859798 -0.0001311019 0.0001740792 5.1731e-05 -0.0001119283 -0.6167959651 0.5817654081
375297750.0 0.0850963641 -0.0839053709 -2.16128e-05 -3.75848e-05 -1.3898e-06 -6.80094e-05 -0.6113181476 0.5879216288
380297720.0 0.0836667247 -0.0851214784 1.68682e-05 -4.328e-06 4.5702e-06 9.43126e-05 -0.6054779675 0.5946378829
385297690.0 0.0822207174 -0.0861549818 -0.0001264762 -0.0001376196 0.0001585733 3.84188e-05 -0.5988150611 0.6007695244
390297660.0 0.0807224206 -0.0871259217 0.0001285417 0.0002344191 5.54639e-05 -0.0001065002 -0.5931993077 0.6071868421
395297630.0 0.0794956297 -0.0886768373 0.0001731467 0.000299313 2.66342e-05 3.96022e-05 -0.586267897 0.6131735365
400297600.0 0.0782348696 -0.0895623161 0.0002972524 0.0001371723 2.94e-08 2.63169e-05 -0.5801543124 0.6188010208
405297570.0 0.0761781727 -0.0909340664 0.0001299543 7.88334e-05 7.76766e-05 -8.84522e-05 -0.5735088321 0.6252320311
410297540.0 0.0747858509 -0.0920471461 -9.6822e-06 8.20443e-05 0.0002834415 0.000141512 -0.567090043 0.6312739328
415297510.0 0.0734143418 -0.0930366369 -2.25666e-05 -4.16096e-05 0.0001330032 8.62709e-05 -0.5613390709 0.6369575092
420297480.0 0.0718976495 -0.0935954465 2.24442e-05 -0.0001492052 -9.66295e-05 -9.26378e-05 -0.5544397486 0.6426906496
425297450.0 0.070734026 -0.0948491493 0.0002399165 9.344e-05 5.94365e-05 3.13731e-05 -0.5480454307 0.6481279403
430297420.0 0.0690734353 -0.0958733111 0.000171797 5.6191e-06 5.97052e-05 -2.63256e-05 -0.5411147074 0.6536533096
435297390.0 0.0675508996 -0.0966570254 -1.79e-07 0.0001375007 7.77774e-05 8.7525e-06 -0.5337277447 0.6586427583
440297360.0 0.0659950161 -0.0978971079 0.000115676 3.87907e-05 0.0002009711 5.70388e-05 -0.5269425781 0.6640062653
445297330.0 0.0643346908 -0.0989483309 1.81624e-05 3.12962e-05 4.94142e-05 -0.0001361742 -0.5203628524 0.6684483011
450297300.0 0.0630047731 -0.099686234 0.0001472869 -0.0002101682 -7.24411e-05 -2.9872e-05 -0.5132605908 0.6742828054
455297270.0 0.061197323 -0.100476313 -6.19957e-05 -0.000119818 8.0776e-06 1.06429e-05 -0.5062607674 0.6784680158
460297240.0 0.0596590394 -0.1012546047 3.39274e-05 2.82643e-05 -5.6374e-06 7.57033e-05 -0.4995169164 0.6842047619
465297210.0 0.0581041641 -0.1019476981 2.42218e-05 8.94843e-05 3.99285e-05 -8.04576e-05 -0.491807191 0.6891993315
470297180.0 0.0565320258 -0.1027357974 3.24567e-05 -4.30057e-05 5.93366e-05 0.0001940804 -0.4848536752 0.6943858883
475297150.0 0.0547665434 -0.1036729862 0.0001076993 0.0001445985 0.0001363885 0.0001791655 -0.4773693209 0.6987416096
480297120.0 0.053544894 -0.1041019249 3.112e-06 -8.76762e-05 -0.0001778969 0.0004047339 -0.470123878 0.7036271508
485297090.0 0.0517555335 -0.1050634065 0.000123536 0.0001188092 0.0001719747 -0.0001864417 -0.4628960229 0.70805629
490297060.0 0.0499753412 -0.1052583769 -9.11846e-05 -4.1681e-06 0.0001783718 4.85429e-05 -0.4556054828 0.7128374545
495297030.0 0.0483813164 -0.105931358 0.0002268374 -0.0002501337 8.70829e-05 0.0002047323 -0.4484106226 0.7177766786
500297000.0 0.0468936955 -0.1068151673 0.0002603241 2.46707e-05 3.62917e-05 -2.16962e-05 -0.4404576511 0.7228090075
505296970.0 0.0455582224 -0.1073882626 0.0003825686 5.23386e-05 0.0001762076 5.48308e-05 -0.4332631827 0.7267978675
510296940.0 0.0435701953 -0.1080400125 9.5582e-06 -0.0001607313 0.0001533028 -0.0001536487 -0.4253237309 0.7304842151
515296910.0 0.0422423987 -0.1084704255 0.0001620052 0.0001256379 6.87309e-05 -0.0002070797 -0.4182486319 0.7350890274
520296880.0 0.0403099089 -0.108903979 0.0002912574 0.000283841 8.1852e-06 4.96666e-05 -0.4108939284 0.738832099
525296850.0 0.0388929096 -0.1099874757 7.42727e-05 0.0001253731 0.0002553901 -4.11825e-05 -0.4036010617 0.7438590152
530296820.0 0.0374345102 -0.110142253 2.62244e-05 -0.0001090633 -1.3543e-06 0.0002765303 -0.3961561878 0.7475644609
535296790.0 0.035647625 -0.1103377798 0.0001301577 2.74737e-05 0.000245743 -0.0001529372 -0.3889707874 0.7521109049
540296760.0 0.033708964 -0.1108050258 -1.92208e-05 0.0001019751 -6.47033e-05 8.2131e-06 -0.3812027656 0.7560184989
545296730.0 0.031859762 -0.1112738051 4.01633e-05 6.02974e-05 0.0002260387 -0.0001301765 -0.3735396171 0.7593797859
550296700.0 0.0308360485 -0.1114565238 0.0001362568 -0.0002426275 0.000183415 5.73582e-05 -0.3655418937 0.7633629231
555296670.0 0.0287440153 -0.1118982552 -0.0001013097 3.86299e-05 1.41933e-05 -0.0002076605 -0.3579260773 0.7675284382
560296640.0 0.0273699647 -0.1119432704 0.0001183682 -7.01386e-05 0.0001189721 -0.0001331864 -0.350136784 0.7708904105
565296610.0 0.0254918259 -0.11245268 0.0003116124 -0.0001102812 0.0003171067 -9.10198e-05 -0.3422088911 0.7734178557
570296580.0 0.0237554836 -0.1126796911 7.48866e-05 4.02696e-05 9.33365e-05 4.96455e-05 -0.3345577508 0.7781997268
575296550.0 0.0221835156 -0.1126633182 0.0002337213 9.5127e-06 -0.0001710651 -9.27772e-05 -0.3262679915 0.7808835787
580296520.0 0.0205173438 -0.1133836024 4.99931e-05 -1.29247e-05 -6.1252e-05 0.000150095 -0.3179123051 0.7845849497
585296490.0 0.0186559507 -0.1134313367 0.0001143685 -0.0001190244 3.4226e-06 0.0002762159 -0.3100673324 0.7876880642
590296460.0 0.0172815779 -0.1133706377 1.40801e-05 -0.0001538034 0.0003710106 1.3059e-06 -0.3027674364 0.7904523205
595296430.0 0.0155129083 -0.1138553437 0.0002278249 3.393e-07 3.484e-06 -6.33138e-05 -0.2944032978 0.7927767651
600296400.0 0.0136146662 -0.1137197145 0.0003489945 -0.0001643277 7.03473e-05 0.0002135922 -0.2862241633 0.7956472849
605296370.0 0.0119342213 -0.1141465134 0.0001102027 -0.0001434061 1.9338e-06 -4.87953e-05 -0.2777830236 0.7985513071
610296340.0 0.0102099047 -0.1140920459 0.0003258424 6.3632e-05 0.0002519136 0.0001435285 -0.2700823539 0.801311349
615296310.0 0.0085348956 -0.1143026049 0.0001417348 5.4748e-06 0.0001375038 2.97258e-05 -0.2611098579 0.8034858088
620296280.0 0.006758398 -0.1143058328 6.38507e-05 0.000176127 0.0001028339 8.5318e-05 -0.2539719361 0.8060644478
625296250.0 0.0053734584 -0.1140610026 0.0002908137 -8.40671e-05 0.000317022 6.06777e-05 -0.2448389784 0.8078754948
630296220.0 0.0038001969 -0.1144514023 0.0002506446 0.0001197026 0.0002123162 -6.63866e-05 -0.2373684016 0.8108168919
635296190.0 0.0016939544 -0.1141559934 6.62172e-05 -4.13073e-05 4.3627e-06 3.70624e-05 -0.2291376793 0.8128951074
640296160.0 0.0001934652 -0.1140347603 -5.51326e-05 5.50207e-05 4.40394e-05 0.0001484822 -0.2210114969 0.8152693869
645296130.0 -0.0012550327 -0.1138032804 -8.96892e-05 -0.0001008546 7.56628e-05 9.14015e-05 -0.2126696333 0.8174944078
650296100.0 -0.0030452072 -0.1137207047 0.0004666811 -0.000102466 0.0002564973 -4.9235e-05 -0.2045369409 0.8186615847
655296070.0 -0.0050219219 -0.1137088027 0.0001073178 0.0001607381 0.0002706127 -0.0001286052 -0.1956811529 0.8206265821
660296040.0 -0.0067001018 -0.1135940587 4.08762e-05 -0.0001060162 0.0001879828 -9.72183e-05 -0.1867577705 0.8233685394
665296010.0 -0.0079395016 -0.1136575897 8.36394e-05 -0.0001287801 0.0002320016 0.0001455471 -0.178604191 0.824944033
670295980.0 -0.010176295 -0.1132639707 0.0001045735 0.0001814809 0.0002754888 5.86391e-05 -0.1711049685 0.8265857279
675295950.0 -0.0115158541 -0.1130061507 0.0002703581 7.533e-06 0.0002233201 0.0002187785 -0.1633374614 0.8285381206
680295920.0 -0.0131248817 -0.1125863165 0.0002809376 5.31031e-05 7.13658e-05 -6.06645e-05 -0.154630081 0.8303939527
685295890.0 -0.0145908154 -0.1123166776 0.0001171999 -9.83714e-05 0.0002279343 0.0001711394 -0.1457334503 0.8320596905
690295860.0 -0.0165169533 -0.1119445185 0.0002787046 3.44053e-05 0.000194133 0.0002166862 -0.1381283748 0.8336644549
695295830.0 -0.0182632216 -0.1116213223 0.0002315642 -0.0002379807 0.0001760468 -6.43032e-05 -0.1291074633 0.8343668812
700295800.0 -0.0195306313 -0.1115712642 6.72884e-05 -6.78974e-05 0.0001025165 7.19553e-05 -0.1217825516 0.8364757318
705295770.0 -0.0215586778 -0.1109480513 1.60967e-05 -1.67084e-05 0.0002482399 4.96141e-05 -0.1126141295 0.83805591
710295740.0 -0.0227870933 -0.110541183 -0.0001246558 -1.06052e-05 0.0001322994 8.25839e-05 -0.1042364494 0.8380489291
715295710.0 -0.0247942677 -0.110401144 0.0001216464 -0.0001260923 0.0002853573 -6.0797e-05 -0.0956652763 0.8397516404
720295680.0 -0.0262759097 -0.109960279 0.0001691382 -0.0001245368 0.0002769855 3.2367e-05 -0.0870560682 0.8407278416
725295650.0 -0.0278786695 -0.1094404213 0.0001247697 0.0001723547 0.0002647244 -1.75079e-05 -0.0795062388 0.8421859395
730295620.0 -0.0294828067 -0.108699572 0.0001029876 0.0002214493 7.97372e-05 -7.0987e-05 -0.0714467874 0.8419491357
735295590.0 -0.0310300285 -0.1082410886 0.0001915544 0.0002355383 0.0002116425 8.86789e-05 -0.0626832614 0.8425619325
740295560.0 -0.0326436482 -0.1077043161 7.37153e-05 8.4571e-06 0.0001168158 -0.0001791227 -0.0536580533 0.843914652
745295530.0 -0.0343083651 -0.1072175986 8.05633e-05 -2.38933e-05 0.0002195379 -9.57419e-05 -0.0453632998 0.8438442554
750295500.0 -0.0358144715 -0.1065508084 0.0001082958 -0.0001003089 0.0001291945 -4.49851e-05 -0.0376501538 0.8443030615
755295470.0 -0.0373352484 -0.1062138813 0.0002510672 0.0001812189 0.0001601483 -6.16955e-05 -0.0288176932 0.8438886048
760295440.0 -0.0389907475 -0.1054229138 0.0002060887 -0.0002975126 0.0001550297 -9.98678e-05 -0.0202259805 0.8445227068
765295410.0 -0.0404129066 -0.1046550742 1.12937e-05 -0.0001502695 0.0003292365 0.0001675724 -0.0118339791 0.8444829103
770295380.0 -0.0422124634 -0.1041930085 0.0002457242 1.97455e-05 0.0001468343 -0.0001254268 -0.0041917267 0.8445454372
775295350.0 -0.0439325196 -0.1036557515 0.0001534198 1.63564e-05 9.02e-08 4.05586e-05 0.0041676745 0.8444049368
780295320.0 -0.045439603 -0.1029102816 0.0001666846 2.7919e-06 7.9463e-05 -7.63951e-05 0.0130467507 0.8441513302
785295290.0 -0.0471339456 -0.1022354256 0.0003353507 -0.0001131718 1.01781e-05 6.11927e-05 0.0215239819 0.843797961
790295260.0 -0.0483086324 -0.1012857514 4.45406e-05 -6.048e-05 0.0002581499 0.0001087042 0.0300429207 0.8439542522
795295230.0 -0.0496589795 -0.1004832207 0.0002089451 -0.0001403434 7.2235e-06 -6.48281e-05 0.0391645443 0.8430306384
800295200.0 -0.051124417 -0.0995946687 0.0003072066 -6.64463e-05 0.0001214811 0.0001237878 0.0472566071 0.8426947467
805295170.0 -0.0529032753 -0.0992056268 0.0003152198 -0.0002707689 -6.34125e-05 -0.0001050763 0.0551603664 0.8421089588
810295140.0 -0.0541280755 -0.0982351557 0.0003869532 0.0001095104 2.39436e-05 7.52354e-05 0.0637713089 0.841266546
815295110.0 -0.0559547721 -0.0977371598 0.0002736787 0.0001452995 0.0002362722 -0.0001317616 0.0723686109 0.84101306
820295080.0 -0.057328908 -0.0964456678 -8.3435e-05 -4.84232e-05 5.17672e-05 -8.40093e-05 0.0805375865 0.8400837252
825295050.0 -0.0583131836 -0.0961049253 3.74105e-05 2.58219e-05 0.0002605537 3.56614e-05 0.0893903772 0.8393146802
830295020.0 -0.0600552667 -0.0947287528 5.28479e-05 -0.0001076947 -4.7624e-05 -9.85968e-05 0.0983289702 0.8384686304
835294990.0 -0.0615980701 -0.0937704116 0.0003009119 -0.000112536 0.0001654268 5.45122e-05 0.1057608161 0.8374798799
840294960.0 -0.0629415933 -0.0929338936 0.0001341333 8.46455e-05 -8.20563e-05 -0.0002169711 0.1141899847 0.836453243
845294930.0 -0.064344563 -0.0918809404 0.0001299584 0.0002046348 3.17212e-05 -4.35943e-05 0.1225239877 0.8352062843
850294900.0 -0.0654294497 -0.0907762204 0.0004389118 -8.01623e-05 9.22972e-05 -0.0001331564 0.1304269621 0.8338224757
