!Created with skrf (http://scikit-rf.org).
# Hz S RI R 50.0 
!freq ReS11 ImS11 ReS21 ImS21 ReS12 ImS12 ReS22 ImS22
300000.0 -0.7738013773 -0.1373942431 -0.0005421804 0.0004194313 -0.0012100629 -1.30321e-05 -0.0465562606 -0.068906181
5299970.0 -0.7855177407 -0.0075083691 3.60683e-05 -5.82791e-05 0.0001674888 5.97658e-05 -0.0493881532 0.0148426468
10299940.0 -0.7875504344 -0.0042748202 -2.19971e-05 0.0001649671 -6.00088e-05 2.10375e-05 -0.0436499554 0.0321153217
15299910.0 -0.79337694 -0.0015529108 -0.0001062467 8.71614e-05 3.33142e-05 5.38026e-05 -0.0353321918 0.046467463
20299880.0 -0.7996277438 0.0024394536 0.0002461664 7.8399e-05 0.0002402706 -6.43424e-05 -0.0259201214 0.058237068
25299850.0 -0.8062094991 0.008274924 1.39767e-05 7.1658e-06 -0.000176457 -8.7297e-05 -0.0148187472 0.0677806946
30299820.0 -0.8119519309 0.0163050183 -3.35766e-05 0.0001708305 -4.68852e-05 9.90634e-05 -0.0035465433 0.0745355738
35299790.0 -0.8174032648 0.0251345887 -0.0001409323 1.58923e-05 3.7515e-06 -3.34756e-05 0.0078860337 0.0792244565
40299760.0 -0.8215136272 0.0342143505 -4.06643e-05 7.55378e-05 -0.0001902339 0.0001883062 0.0190433196 0.0822483797
45299730.0 -0.8250139529 0.0442865432 0.0001554086 0.0001684486 2.66241e-05 2.45815e-05 0.0294957936 0.0839562663
50299700.0 -0.8267350728 0.0540797799 1.9777e-05 8.70059e-05 8.79895e-05 7.76663e-05 0.039604654 0.0843347098
55299670.0 -0.8286316981 0.064615183 -4.44871e-05 -4.85725e-05 0.0002253939 -2.79527e-05 0.048292871 0.0833471368
60299640.0 -0.8302201741 0.0745332219 -5.51638e-05 0.0002120504 6.80393e-05 5.02146e-05 0.0571208801 0.0816405434
65299610.0 -0.8313409728 0.0845789446 0.0002711481 9.71351e-05 0.0001334135 9.31155e-05 0.0647857898 0.0796081522
70299580.0 -0.8315977297 0.094700012 9.11961e-05 0.0001999644 -0.0001274846 0.0001199012 0.0717026104 0.076477804
75299550.0 -0.8316378337 0.1050103948 -2.04917e-05 -5.41391e-05 2.80712e-05 -0.0001530652 0.0780348933 0.0737022974
80299520.0 -0.8310421772 0.11478189 0.000258002 4.25771e-05 -6.32886e-05 -0.000132083 0.0835358235 0.0702671376
85299490.0 -0.8311903832 0.1240352527 0.0001221539 8.04618e-05 -0.0001530872 -1.6278e-05 0.0887133276 0.0666441596
90299460.0 -0.8297508124 0.1338667213 1.74711e-05 0.0001522464 -6.10876e-05 4.60715e-05 0.0932977467 0.062909053
95299430.0 -0.8289265402 0.1436926496 2.38601e-05 6.19925e-05 0.0001319221 2.38901e-05 0.0978190568 0.0590163186
100299400.0 -0.8275017821 0.153260352 1.44491e-05 0.0002945475 1.55012e-05 1.27135e-05 0.1010185486 0.0554052414
105299370.0 -0.8267400469 0.1622348896 1.53759e-05 0.0002131301 -6.26394e-05 0.000138727 0.1048094927 0.0513097879
110299340.0 -0.8252957608 0.1709459855 8.90188e-05 2.24077e-05 2.21535e-05 4.05094e-05 0.1073092549 0.0478456932
115299310.0 -0.8238095732 0.1804371893 -7.69669e-05 0.0001659135 0.0001464201 0.0002309668 0.110045905 0.0437285656
120299280.0 -0.8217260812 0.1892458332 -1.6866e-06 0.0002937743 4.9196e-06 -1.32761e-05 0.1122853303 0.0401179878
125299250.0 -0.8203916944 0.1983642054 -5.49235e-05 0.0002135637 -1.06001e-05 -0.000219215 0.1141766914 0.036137623
130299220.0 -0.8187403302 0.2075290576 -8.05502e-05 0.0001585713 5.06981e-05 5.09478e-05 0.115515871 0.032820717
135299190.0 -0.8166680666 0.2168652602 -1.7938e-06 -6.34336e-05 0.0002328408 4.76629e-05 0.1171475041 0.0289837323
140299160.0 -0.8143683626 0.2253635959 -6.41176e-05 -3.96651e-05 4.2691e-06 0.0002179386 0.1189072866 0.0253092492
145299130.0 -0.8122062226 0.2342778226 -7.42523e-05 7.26956e-05 -0.0001387149 -0.0001170733 0.1194728663 0.0222272352
150299100.0 -0.8101581343 0.2433393782 -0.0001902035 0.000124455 0.0002254074 3.33151e-05 0.1205098982 0.0186149925
155299070.0 -0.8077892898 0.2523860232 9.03851e-05 4.85409e-05 5.1387e-05 8.36085e-05 0.1214777705 0.0154484022
160299040.0 -0.8051925444 0.2608809301 -5.6193e-06 -0.0001325029 0.0001553544 0.000246827 0.1222973402 0.012039938
165299010.0 -0.8021305295 0.269121383 5.00344e-05 5.3167e-05 -0.0001212649 7.80669e-05 0.1230838983 0.0089462106
170298980.0 -0.7996303986 0.2784314997 -1.7507e-06 0.0002207022 1.79408e-05 0.000130928 0.1234659119 0.0058244258
175298950.0 -0.796456395 0.2868696356 -0.0001124027 2.42718e-05 -2.22063e-05 8.09412e-05 0.1237646521 0.0025883821
180298920.0 -0.7939372936 0.2953955759 -1.0971e-06 0.000162618 0.0001222271 0.0002389552 0.124248879 -0.0002215269
185298890.0 -0.7908180343 0.3041874529 0.0001631601 9.78975e-05 0.0001836768 0.0001061891 0.1238558071 -0.0031177536
190298860.0 -0.7872378544 0.3123209888 0.0001732358 0.000153716 -0.0001077008 0.0001298886 0.1243657689 -0.0057656031
195298830.0 -0.7836503169 0.3208241738 7.13829e-05 0.0001188981 0.0001448957 0.0002766695 0.1242817777 -0.0084932975
200298800.0 -0.7806624233 0.3295998637 2.27729e-05 7.0047e-06 -7.50948e-05 7.33783e-05 0.1244728685 -0.0111939306
205298770.0 -0.7771243692 0.3370108401 0.0001503697 3.78602e-05 0.000198993 -2.83767e-05 0.1241981955 -0.0138461471
210298740.0 -0.7734516672 0.346071607 -8.03913e-05 0.0002365251 0.0002973033 -3.2613e-06 0.1241422026 -0.0163933732
215298710.0 -0.770504041 0.3544706627 3.93808e-05 0.000149142 9.49449e-05 0.0001177814 0.1234447846 -0.0187329082
220298680.0 -0.7670516462 0.3621765959 9.13672e-05 6.70126e-05 4.9239e-06 0.0001622418 0.1235685015 -0.0210659601
225298650.0 -0.762814237 0.3710220815 0.0003024166 0.0002339998 -6.83146e-05 0.0001176438 0.1228581054 -0.0233719365
230298620.0 -0.7587182366 0.3787768878 0.0001800294 9.9222e-05 0.0001309895 0.0001492159 0.1227139205 -0.0258558344
235298590.0 -0.7544189605 0.3873385937 0.0002752391 0.000212029 7.04367e-05 0.0001913632 0.1220204038 -0.0283554336
240298560.0 -0.7503881612 0.3950925658 -5.22282e-05 0.0001324039 9.429e-06 5.41386e-05 0.1215926379 -0.0303304049
245298530.0 -0.7465624586 0.4031168859 0.0001063567 2.16377e-05 0.0002883103 0.0001524884 0.121321646 -0.0324417373
250298500.0 -0.7427078053 0.411196597 3.42711e-05 0.0002715714 0.0002418035 3.51131e-05 0.121024912 -0.0344492069
255298470.0 -0.7375753612 0.4191291376 0.0002124833 1.56918e-05 2.36152e-05 0.0002337955 0.1204557402 -0.0368262874
260298440.0 -0.7340681736 0.4260845214 0.0002674908 8.16905e-05 0.0001693765 -5.59973e-05 0.1194669939 -0.0384631286
265298410.0 -0.7288895962 0.4343231742 -3.06118e-05 0.0002524938 7.01549e-05 -8.22277e-05 0.1187180197 -0.040882944
270298380.0 -0.7245354939 0.44145218 0.0003683583 0.0001342691 5.67049e-05 0.0001947529 0.1184992387 -0.0427695239
275298350.0 -0.718978635 0.4490468642 0.0001142561 8.04616e-05 0.0002066584 6.71536e-05 0.1178553309 -0.0443304564
280298320.0 -0.7152527223 0.4571713809 0.0001732501 0.0001841482 0.0001642347 0.0002019892 0.1170708018 -0.0465556667
285298290.0 -0.710290856 0.4649689012 5.07572e-05 0.0002172254 -1.04539e-05 0.0002283526 0.1161804048 -0.0481122367
290298260.0 -0.7054191348 0.4716380874 -7.782e-06 0.0003102911 9.3774e-05 0.0002003047 0.115796106 -0.0499211296
295298230.0 -0.7009255555 0.4795883848 -1.342e-07 5.07965e-05 4.27194e-05 3.45806e-05 0.1145858122 -0.0514708887
300298200.0 -0.6949765893 0.4865813347 3.1622e-06 6.38418e-05 0.0001548802 0.0002540366 0.1137904536 -0.0530741288
305298170.0 -0.6903163842 0.494333671 0.0003334143 -6.00162e-05 8.87147e-05 0.0002409129 0.1133734891 -0.0548820262
310298140.0 -0.6847508646 0.5010672588 9.38891e-05 0.0001698633 0.0001561845 0.0002652109 0.1127457305 -0.056507974
315298110.0 -0.6799309504 0.5080973185 0.0002454506 5.63564e-05 6.8533e-05 0.0001986273 0.1118939936 -0.0583283438
320298080.0 -0.6744534205 0.5158361505 7.02751e-05 0.0002692704 -2.47076e-05 0.0001619348 0.1109965616 -0.0604526024
325298050.0 -0.6686234091 0.5223304867 -1.11781e-05 0.0001622158 0.0002148778 0.0001261989 0.1098506393 -0.0620016712
330298020.0 -0.6628868714 0.529176475 3.83401e-05 0.0002444481 -2.55975e-05 0.0003588823 0.1085877329 -0.0638630416
335297990.0 -0.6574052191 0.5364567437 0.0002950218 -3.31055e-05 8.84535e-05 -1.16287e-05 0.1074749753 -0.0653314952
340297960.0 -0.6521279259 0.5427540704 6.0869e-06 0.000105889 2.82771e-05 0.0002325832 0.1062599319 -0.0667301178
345297930.0 -0.646302649 0.5489422731 0.0002142243 0.0001104385 0.0003090745 0.0001931209 0.105134223 -0.0682372894
350297900.0 -0.6402426423 0.556241866 0.0005477562 0.0001674307 8.72184e-05 8.63072e-05 0.1041094622 -0.0691994868
355297870.0 -0.634333516 0.562685836 6.25386e-05 4.30696e-05 0.0001035874 9.31386e-05 0.1026933537 -0.0703615065
360297840.0 -0.6281546488 0.5693866973 0.0002358239 3.18473e-05 7.07388e-05 7.8168e-05 0.1016959258 -0.0714703361
365297810.0 -0.6221795544 0.5759435632 0.0001696113 0.0001656182 0.0002287051 0.0001345232 0.100274077 -0.0728755912
370297780.0 -0.6162811491 0.5821071617 0.0002494948 -0.0001659958 0.0001039108 0.0001504481 0.0992173514 -0.0740149447
375297750.0 -0.6100875193 0.5880552931 -5.82886e-05 0.0001414398 0.0002347844 0.0003211298 0.0980757762 -0.0751900961
380297720.0 -0.6040911748 0.5948917883 -8.70129e-05 0.0002524328 0.000228731 0.0001310579 0.0969339413 -0.0761025884
385297690.0 -0.5970371707 0.6008988894 0.0004166369 -6.0896e-05 0.000306752 4.91418e-05 0.0956456616 -0.0773033027
390297660.0 -0.5910749736 0.6074175245 0.0002638093 0.0001208576 0.0002043425 4.7449e-05 0.0944997104 -0.078553589
395297630.0 -0.5847883739 0.6137599678 0.0001134915 9.03002e-05 1.99557e-05 4.2891e-06 0.0930574345 -0.0793955558
400297600.0 -0.5785812902 0.6195254737 0.0001125167 0.0001225275 0.0003960164 7.40998e-05 0.0919430348 -0.0806348068
405297570.0 -0.5724431263 0.6251507247 0.0003213174 -0.0001334611 0.0002744151 0.0002251289 0.0907387973 -0.0817497164
410297540.0 -0.5659557668 0.6306587799 0.0001272787 0.0001657385 0.0001287622 0.0001740335 0.0894763923 -0.0826789655
415297510.0 -0.5588961313 0.636479551 0.0002779624 1.57597e-05 0.0002474044 0.000224509 0.0881679002 -0.0833546848
420297480.0 -0.5517394635 0.6420952797 0.0002725831 6.254e-06 0.0001364247 1.1577e-06 0.0868150915 -0.0844514321
425297450.0 -0.5452566405 0.6480804118 -1.60509e-05 6.55337e-05 0.000115374 0.0001554164 0.0859789347 -0.0853894158
430297420.0 -0.538761696 0.6533806581 0.0002303559 0.0003652105 1.41598e-05 0.0001229102 0.0844254306 -0.0864250096
435297390.0 -0.5320224629 0.6590906332 7.59837e-05 -0.0001325367 0.0001461801 0.0001835234 0.0834021629 -0.0870815915
440297360.0 -0.5252425031 0.6645313337 0.0001523171 0.0001759204 0.0002580771 1.7912e-05 0.0812982871 -0.0885131375
445297330.0 -0.518594651 0.6702885013 0.0002189671 0.0002249296 0.0001257995 6.36781e-05 0.0806852247 -0.0890388627
450297300.0 -0.5111154176 0.6749385439 9.92739e-05 9.51686e-05 0.0002138782 0.000200944 0.0790678242 -0.0901108193
455297270.0 -0.5042156411 0.6804982424 0.0001637553 7.17397e-05 0.0001957672 0.000326412 0.07794234 -0.0906659404
460297240.0 -0.49763479 0.6856308639 0.0001891979 0.0001996625 9.60904e-05 0.0001509534 0.0766942198 -0.0915045869
465297210.0 -0.4899047422 0.6907071458 6.37312e-05 -1.39704e-05 0.0003218421 3.31519e-05 0.0748245259 -0.0924545549
470297180.0 -0.4823799083 0.6945313966 0.0003466138 9.13416e-05 0.0003388739 0.0002079808 0.0733663497 -0.0931548173
475297150.0 -0.4758466303 0.7004069688 0.0001932751 -9.30932e-05 0.0002333982 0.0001937076 0.0723455623 -0.0936549111
480297120.0 -0.4690253832 0.7045999231 0.0002451785 0.0001326161 0.000335736 9.22446e-05 0.070859502 -0.0942798208
485297090.0 -0.4611869617 0.70967154 0.0002310567 6.81832e-05 0.0002022798 7.50471e-05 0.0695005266 -0.0951131274
490297060.0 -0.4537843763 0.7142348322 0.0003125468 4.79692e-05 -3.92511e-05 9.59101e-05 0.0681108863 -0.0958947343
495297030.0 -0.4473046166 0.7189306419 0.0003029832 1.18964e-05 0.0001483847 -1.93639e-05 0.0665689495 -0.096734629
500297000.0 -0.4386815149 0.7232685143 0.0004904222 -3.12138e-05 0.0004220257 0.0002574908 0.0652541203 -0.0972486752
505296970.0 -0.4313798473 0.7272021253 0.000318546 9.7611e-06 0.0003290729 -6.63705e-05 0.0636857549 -0.0978748876
510296940.0 -0.4245984638 0.7320255616 0.0002373256 0.00022532 0.0002647996 0.000162148 0.0624546843 -0.098042211
515296910.0 -0.4169401684 0.73619819 0.000553881 5.65943e-05 0.000236311 0.0002316397 0.0610202142 -0.0990365956
520296880.0 -0.4089069238 0.7407895774 1.79245e-05 1.5646e-06 0.0002652055 3.11658e-05 0.0594494928 -0.0997278712
525296850.0 -0.4016631467 0.7442638678 0.0005475779 0.0002106898 0.0003587307 -0.0001326573 0.0582563218 -0.1002683534
530296820.0 -0.3939512694 0.7482893059 0.0002704595 -8.87071e-05 0.0003350792 0.00022746 0.0565431843 -0.1008438172
535296790.0 -0.3861877596 0.7519537719 0.0001668633 -9.705e-07 0.0002763495 -1.29162e-05 0.0552635362 -0.1012971618
540296760.0 -0.378516725 0.7557293241 0.0004627806 0.0001452407 0.0003016007 1.92362e-05 0.0537885441 -0.1016417312
545296730.0 -0.3706867221 0.7600405126 0.0003772406 -2.31587e-05 0.0003140427 -1.60958e-05 0.0522329719 -0.1023825379
550296700.0 -0.3629658879 0.763474556 0.0003981417 1.72076e-05 0.0002634038 0.0001213553 0.050874673 -0.102691033
555296670.0 -0.3551333765 0.7672388325 0.0001752759 -0.0001329438 0.0004780611 5.83052e-05 0.0492686558 -0.1030749177
560296640.0 -0.3473083706 0.7707918008 0.0003405283 -0.0001122142 0.0003659381 7.5974e-05 0.0480366225 -0.1034735012
565296610.0 -0.339448981 0.7739884034 0.000248336 0.0001487989 0.0001678851 -1.63178e-05 0.0463485952 -0.1038974358
570296580.0 -0.3318871824 0.7776246095 0.00036525 9.128e-07 0.0001861454 -4.34869e-05 0.0448144212 -0.1043096194
575296550.0 -0.3232231984 0.7808813458 0.0003785685 0.0001473387 0.0002510597 1.98805e-05 0.0436971654 -0.1046973128
580296520.0 -0.3155707419 0.7841045325 0.000213222 1.80226e-05 0.0003986333 0.0001862118 0.0421052624 -0.1048465777
585296490.0 -0.3072529005 0.7866509462 0.0002778664 0.0001732652 0.0002471693 0.000103743 0.0406369558 -0.1056636718
590296460.0 -0.2991848551 0.7893972503 0.0004075372 0.0001856885 0.0003748768 -0.0001143173 0.0392383905 -0.10538464
595296430.0 -0.2911637897 0.7935550142 0.0003128982 -8.38081e-05 0.0003351081 -5.84946e-05 0.0373316599 -0.1059316516
600296400.0 -0.2829940798 0.7959503421 0.0002813974 0.0002307262 0.0004871528 0.0002167465 0.036520742 -0.1063320622
605296370.0 -0.2756214795 0.7989079624 0.0001878962 0.0002928744 0.0003403341 6.3371e-06 0.0347587081 -0.106325542
610296340.0 -0.2677488107 0.8013418564 0.0003361045 -0.000358789 0.0002884747 0.0002321 0.0332783125 -0.1065442401
615296310.0 -0.258855734 0.804144942 0.0004419565 -5.19854e-05 0.0002533643 0.0001643619 0.0317901048 -0.1069730864
620296280.0 -0.2505899882 0.8058148722 0.0003544722 9.78951e-05 0.0002190852 -4.70691e-05 0.0301861342 -0.1073337569
625296250.0 -0.2427469379 0.8093814673 0.0001981951 8.59316e-05 0.0003216585 0.0001050002 0.028912395 -0.1070504934
630296220.0 -0.2344307341 0.8117103664 0.0002479305 1.1335e-06 0.0001125857 -5.52066e-05 0.0272932194 -0.1069912428
635296190.0 -0.2262778572 0.814083793 0.0001320077 8.76783e-05 0.0002779444 5.80271e-05 0.0260325432 -0.1071944605
640296160.0 -0.2177351722 0.8154051654 0.0003378677 1.34166e-05 0.0001694441 -5.47251e-05 0.0243559148 -0.1075907864
645296130.0 -0.210333114 0.8179625187 0.0003531124 -0.0001921142 0.0003628308 -3.17076e-05 0.0226660758 -0.1078403649
650296100.0 -0.2016037056 0.820054935 0.000519784 -0.0002672831 0.0003286775 -1.09225e-05 0.0212121252 -0.1076257394
655296070.0 -0.1926982781 0.8223159937 0.0004081366 -4.17282e-05 0.0003383069 -0.0001246149 0.0198257233 -0.10755318
660296040.0 -0.1850328476 0.8240157897 0.0004273459 0.0001701735 0.0004143953 -5.5038e-05 0.0182957144 -0.1079221829
665296010.0 -0.1768070262 0.8259753417 0.0003898907 -0.0001147669 0.0001515587 9.6518e-06 0.0168463458 -0.1075056157
670295980.0 -0.1675216881 0.8274952777 0.000417861 0.0001741967 0.0005943836 6.2472e-05 0.0156022805 -0.1078204753
675295950.0 -0.1603132745 0.8289425053 0.0003887003 3.01332e-05 0.0003398352 -0.0001325149 0.0143370959 -0.1079567968
680295920.0 -0.1518246089 0.8309727853 0.0002184157 1.1302e-05 0.0003891481 0.0001131827 0.0126789243 -0.107537088
685295890.0 -0.1426506903 0.8323431947 0.0003457911 -8.32644e-05 0.0004699598 0.0001561847 0.0109731786 -0.1075260783
690295860.0 -0.1343485636 0.8335761599 0.0004425239 -0.0001265999 0.0003397773 0.0001656097 0.0098404743 -0.1077576772
695295830.0 -0.1257429383 0.8341843273 0.0004677278 -5.85772e-05 0.0003752531 8.175e-06 0.008049467 -0.1072443194
700295800.0 -0.1178145701 0.8355596241 0.0001617776 -5.14713e-05 0.0002750196 6.19726e-05 0.0066125738 -0.1073008228
705295770.0 -0.1085935993 0.8376098454 0.0004168135 -0.0001772444 0.0003023759 -1.00824e-05 0.0055419845 -0.107046269
710295740.0 -0.1009258683 0.8382481206 0.0003353545 -0.0001772978 0.0003573831 2.16989e-05 0.0035180835 -0.1068117799
715295710.0 -0.0931511402 0.8392442903 0.0003698841 -9.1092e-05 0.0004879818 3.15331e-05 0.0023109516 -0.1066422543
720295680.0 -0.0842190997 0.8393445866 0.0005394324 -0.0001921842 0.0004489352 6.13576e-05 0.0011748578 -0.1064609348
725295650.0 -0.0750271568 0.8413614357 0.0002595482 6.6631e-06 0.0003951492 -8.37999e-05 -0.0006226372 -0.1063708094
730295620.0 -0.0667839454 0.8415823552 0.0002513986 2.63407e-05 0.0005128915 3.5094e-06 -0.0019125396 -0.1062814694
735295590.0 -0.0579599721 0.8419258095 0.0004608826 -9.76297e-05 0.0003027964 4.12514e-05 -0.0031726703 -0.1060551623
740295560.0 -0.0500270367 0.842633777 0.0004030605 1.6197e-06 0.0005262401 3.83384e-05 -0.0047777377 -0.1058247461
745295530.0 -0.0416165308 0.8423314338 0.0005133581 7.83395e-05 0.0004168741 0.0001210203 -0.0065634979 -0.105367336
750295500.0 -0.0338796642 0.8433714708 0.0004813404 -3.95555e-05 0.0004518513 -8.12999e-05 -0.0076711755 -0.1055387347
755295470.0 -0.0242290527 0.8433546372 0.0002686998 -2.24258e-05 0.0003491013 7.92e-08 -0.0090187597 -0.1048413174
760295440.0 -0.0158110325 0.843505359 0.0005354969 9.5468e-06 0.0003085503 -1.28744e-05 -0.0106611531 -0.1047599377
765295410.0 -0.0079872926 0.8436656437 0.0002456451 3.3163e-06 0.0003751642 -0.0001375595 -0.0114577471 -0.1040277364
770295380.0 0.0007109855 0.8441567458 0.0005028341 -0.0001720194 0.0003776746 -2.4119e-06 -0.012916327 -0.1037422928
775295350.0 0.0091574398 0.8447720057 0.0003240785 7.15193e-05 0.0003411181 -8.42419e-05 -0.0148330705 -0.1037764779
780295320.0 0.0180629331 0.8429770488 0.0003979166 2.06274e-05 0.000399632 6.01885e-05 -0.0160045384 -0.102946833
785295290.0 0.0265668555 0.844213674 0.0002028037 -0.000138315 0.0005574713 -0.0001153599 -0.0176300537 -0.1024177442
790295260.0 0.034019604 0.8430548092 0.0004000619 -0.0001014385 0.0002535817 -0.0001765643 -0.0186274088 -0.102376172
795295230.0 0.0432916021 0.8433408073 0.0004341044 -9.4027e-05 0.0003721716 2.92151e-05 -0.0198045357 -0.1016909224
800295200.0 0.0515995962 0.8428853106 0.0002938574 -7.17494e-05 0.0004157708 -4.11867e-05 -0.0210621951 -0.1013809181
805295170.0 0.0601182495 0.841875024 0.000317837 -3.75246e-05 0.0005155759 -0.0001378325 -0.0230505339 -0.100907924
810295140.0 0.0682017088 0.8413226655 0.0004952482 -0.0003988905 0.0004609886 -2.63171e-05 -0.0241141853 -0.0999165286
815295110.0 0.0769630012 0.8403199884 0.000389961 -6.27132e-05 0.0005530949 -0.0002487338 -0.0253519337 -0.0994789481
820295080.0 0.0853825432 0.8383307997 0.0003573188 -0.0001254097 0.0003897537 -0.0001992006 -0.0270005913 -0.0988616904
825295050.0 0.0944559642 0.8385045482 0.000535721 -7.89045e-05 0.0004569084 -5.50361e-05 -0.0277207497 -0.098501654
830295020.0 0.1021403554 0.8377451454 0.0002678492 -0.0001918717 0.0004083369 5.2809e-05 -0.029318191 -0.0978577698
835294990.0 0.1101853451 0.836900724 0.0004853536 -0.0002323092 0.0005136049 5.52921e-05 -0.0303422637 -0.0977249046
840294960.0 0.1189744631 0.8357562824 0.0004153488 -9.22834e-05 0.000259047 -0.0002378098 -0.031806677 -0.0964909473
845294930.0 0.1271161904 0.8344872071 0.0004232927 -0.0002771172 0.0004429935 -0.0002188689 -0.0329986281 -0.0959567595
850294900.0 0.1351930595 0.8324392533 0.0006014981 -0.0001854939 0.0005567852 -0.000198022 -0.0343864824 -0.0953429737
