!Created with skrf (http://scikit-rf.org).
# Hz S RI R 50.0 
!freq ReS11 ImS11 ReS21 ImS21 ReS12 ImS12 ReS22 ImS22
300000.0 -0.3196135666 -0.0797896874 0.3737041828 0.0432862943 0.3728026893 0.0396094608 -0.3187386664 -0.0978566351
5299970.0 -0.326482665 0.0042993327 0.3783362281 0.0024092828 0.3783354108 0.0023867823 -0.3239171225 0.0049463711
10299940.0 -0.3241417793 0.0133392423 0.3796257057 0.0021676906 0.3796273135 0.0020328242 -0.3214943723 0.0159726856
15299910.0 -0.3214064435 0.0203138663 0.3818555824 0.0018895809 0.3818717967 0.00221232 -0.3184237585 0.0236849852
20299880.0 -0.3185105279 0.0264403251 0.3847445086 0.0015332078 0.384903903 0.0017464285 -0.3148685292 0.0304285266
25299850.0 -0.3156421457 0.0315496513 0.3880585005 2.7831e-06 0.3881021293 6.30849e-05 -0.3107988095 0.0361920817
30299820.0 -0.3126919554 0.0358467922 0.3915054058 -0.0022549832 0.3914203549 -0.002121158 -0.3071424839 0.0406796008
35299790.0 -0.309974754 0.0399050683 0.3949951487 -0.0054979697 0.3950962327 -0.0052536744 -0.303538245 0.0454149725
40299760.0 -0.3070465378 0.0436672948 0.3979741366 -0.0090487055 0.3981635629 -0.0089642912 -0.3003802844 0.0485074295
45299730.0 -0.3046834943 0.0467968443 0.4008913445 -0.0127923886 0.4010323944 -0.0126472053 -0.2972680181 0.0519775526
50299700.0 -0.3024780589 0.0496045474 0.4036824975 -0.0172687835 0.4036845748 -0.0172112676 -0.2940463696 0.0546323172
55299670.0 -0.3005347148 0.0524356425 0.4059669491 -0.0226844976 0.4052888052 -0.0218446162 -0.2915116327 0.057095994
60299640.0 -0.2978682389 0.0551722812 0.4073806448 -0.0275696959 0.4078544819 -0.0268272132 -0.2893622105 0.0595982504
65299610.0 -0.2964710107 0.0572899437 0.4090881668 -0.031814042 0.4090317433 -0.0319565926 -0.2875160941 0.0614679974
70299580.0 -0.294604794 0.0600706983 0.4104597576 -0.037038189 0.4101524565 -0.0368921514 -0.2849557061 0.0640551533
75299550.0 -0.2928583437 0.0625310228 0.4114378688 -0.0423977876 0.4112497935 -0.0424397841 -0.2831379776 0.0659370602
80299520.0 -0.2914363512 0.0646991879 0.4123739298 -0.047220668 0.4123583886 -0.0476888116 -0.281511591 0.0683203308
85299490.0 -0.2901760339 0.0668846083 0.4129466786 -0.0523625652 0.4129196151 -0.052524254 -0.2799557412 0.0702127755
90299460.0 -0.2887681394 0.0694484029 0.4129372675 -0.0580932361 0.4134927284 -0.0578441697 -0.2783164013 0.0720166769
95299430.0 -0.2878353357 0.0715988712 0.4138282159 -0.0631305682 0.4134396346 -0.0633066091 -0.2768057252 0.0742489082
100299400.0 -0.2863765685 0.0742419924 0.4131512549 -0.0684190331 0.4132350477 -0.0684137259 -0.2751470057 0.0759188245
105299370.0 -0.285051893 0.0762938239 0.4130546423 -0.0736258677 0.4135138794 -0.0738006954 -0.2739729877 0.078418986
110299340.0 -0.2841148929 0.0788085107 0.4131816405 -0.078627344 0.4131348235 -0.0784265996 -0.2730282416 0.0801609668
115299310.0 -0.2829559661 0.080986214 0.4132264098 -0.0836524034 0.412855375 -0.0838128132 -0.2715964644 0.0822058647
120299280.0 -0.2821666678 0.0828048057 0.4124452802 -0.0888605657 0.4122139053 -0.0888589003 -0.2702666876 0.0844857536
125299250.0 -0.2808920875 0.0854307575 0.411644007 -0.0938271544 0.4120144795 -0.0937104378 -0.2696600461 0.0863778953
130299220.0 -0.2803808755 0.0883483717 0.4113084507 -0.0992110563 0.4110277082 -0.0991127028 -0.2685638568 0.0884490255
135299190.0 -0.2790337507 0.0908781254 0.4104974693 -0.1039980676 0.4104030219 -0.1039746755 -0.2673270391 0.0909959208
140299160.0 -0.2784974733 0.0928525163 0.4097146312 -0.1091529616 0.4098933692 -0.1090233163 -0.266367422 0.0934435827
145299130.0 -0.2774905523 0.0955887962 0.4089584904 -0.1139494362 0.4087011964 -0.1140195915 -0.2652960634 0.0959148974
150299100.0 -0.2763176668 0.0981758736 0.4073427401 -0.1188521837 0.4076800989 -0.1188814094 -0.264440698 0.0985016929
155299070.0 -0.2754042657 0.100563063 0.4069099026 -0.1239556452 0.4066384363 -0.1239087088 -0.2631105809 0.1005455302
160299040.0 -0.2746179823 0.1034326541 0.4052252677 -0.1290000807 0.4051489958 -0.1287310528 -0.2625015432 0.1030258281
165299010.0 -0.2738207283 0.1060350184 0.4041974469 -0.1338341487 0.4043284969 -0.133671654 -0.2612909975 0.1057554032
170298980.0 -0.2727861818 0.1084817413 0.4027699251 -0.1385279756 0.4031104411 -0.1387185612 -0.2603429014 0.1081980108
175298950.0 -0.2716769375 0.1111558432 0.4016914282 -0.1430038558 0.401081981 -0.1434916023 -0.2594449715 0.1108317942
180298920.0 -0.2711146597 0.1140142841 0.4001809187 -0.1480424929 0.3995982514 -0.1477150937 -0.258402501 0.1133710045
185298890.0 -0.2694975972 0.1164829077 0.3982663592 -0.152554806 0.3982369984 -0.1523248387 -0.2573251076 0.1158097123
190298860.0 -0.2686371014 0.1193364425 0.3973084277 -0.1576964357 0.3970352488 -0.1571741082 -0.2563885107 0.1181913984
195298830.0 -0.2676903031 0.1215037906 0.3952555742 -0.1619175785 0.3953077337 -0.1621203147 -0.2548959241 0.1210340867
200298800.0 -0.2663305301 0.124613428 0.3935029501 -0.1667826082 0.3933314113 -0.1669416936 -0.25444937 0.1232837987
205298770.0 -0.2655652994 0.127286102 0.3913190468 -0.1713281884 0.3915470182 -0.1712150309 -0.2533723295 0.1255779105
210298740.0 -0.264244219 0.1299448045 0.3898494674 -0.1755657522 0.389762838 -0.175694469 -0.2519551647 0.1288398865
215298710.0 -0.2631640816 0.132647813 0.3881245025 -0.1801711941 0.3880008781 -0.1804278264 -0.251121059 0.1311341333
220298680.0 -0.2618685929 0.1351260273 0.3856977247 -0.1847848992 0.385835719 -0.1846578675 -0.2499020946 0.1331599179
225298650.0 -0.2610580831 0.1378487731 0.3837446965 -0.1892626228 0.3840009155 -0.1889937425 -0.2491415041 0.136013423
230298620.0 -0.2596132107 0.1408095169 0.3819629731 -0.1934322684 0.3822788371 -0.1934432997 -0.2478375896 0.1383590191
235298590.0 -0.2581713193 0.1434306922 0.3798938448 -0.197698243 0.3800247561 -0.1974480938 -0.2464998649 0.1411513575
240298560.0 -0.2570354823 0.1464289415 0.377688041 -0.2025860165 0.3776786591 -0.2023930429 -0.2453391548 0.1439382314
245298530.0 -0.2558345131 0.1491849969 0.3755561097 -0.2065750897 0.37536358 -0.2069009444 -0.2440312603 0.1460479966
250298500.0 -0.2541133276 0.1518892594 0.3725475443 -0.211072046 0.3728076673 -0.2105982607 -0.2428047895 0.1486343829
255298470.0 -0.2526774501 0.1540578578 0.3705529312 -0.2145593383 0.3707195512 -0.2151691837 -0.2412561572 0.1510921329
260298440.0 -0.2516587851 0.1568111577 0.3682748198 -0.2195790359 0.3685864578 -0.2190289597 -0.2398243473 0.1536182551
265298410.0 -0.2499652454 0.1598867968 0.3661294045 -0.2235830101 0.3661928738 -0.2231886635 -0.2383387407 0.156108479
270298380.0 -0.2486240247 0.1626579378 0.3636584084 -0.2274382597 0.3636652312 -0.2274963987 -0.2369773535 0.1586607244
275298350.0 -0.2467294412 0.1649416957 0.3609093698 -0.2316669884 0.3613945433 -0.2316766571 -0.2353133153 0.1608819817
280298320.0 -0.2451942583 0.1681303175 0.35863258 -0.2361974635 0.3585367616 -0.2357712403 -0.2334874336 0.1636573775
285298290.0 -0.2437066356 0.1705788993 0.355870479 -0.2396725644 0.3560123587 -0.2401746205 -0.2319260842 0.1660611353
290298260.0 -0.2417965636 0.1732089854 0.3531796009 -0.2435581007 0.3534726286 -0.2440887604 -0.2303920944 0.1690186436
295298230.0 -0.2398074827 0.1756420492 0.3503788248 -0.2478480166 0.350320659 -0.2476764323 -0.2283072968 0.1707842416
300298200.0 -0.2384897266 0.1780754983 0.3482791863 -0.2515128882 0.3479643846 -0.2520473484 -0.2266879889 0.1734244396
305298170.0 -0.2368218543 0.1805804752 0.3450177898 -0.255855574 0.3450546696 -0.2559321766 -0.2244255388 0.1756560822
310298140.0 -0.2346414037 0.1836150349 0.342149965 -0.2600236518 0.3420711853 -0.2595399822 -0.2230305902 0.1784008917
315298110.0 -0.2334435429 0.1858660813 0.3393705805 -0.2633727424 0.339417305 -0.2636777712 -0.221347794 0.1805935837
320298080.0 -0.2311695345 0.1882001031 0.3358821302 -0.267472668 0.3363902657 -0.2674261692 -0.2195003961 0.1830597149
325298050.0 -0.2293990118 0.1908982309 0.3333538859 -0.2716595087 0.3333233249 -0.2714676909 -0.2180187391 0.1853821495
330298020.0 -0.2275807969 0.1930810917 0.3299986827 -0.2748586713 0.3305458871 -0.2751199484 -0.2162307507 0.1878432219
335297990.0 -0.2255245779 0.1953559179 0.3269694586 -0.2784012459 0.3270496772 -0.2785232598 -0.2149606139 0.190772182
340297960.0 -0.2241358124 0.1982328802 0.3236555174 -0.2824727925 0.3235657792 -0.2823954939 -0.2121706364 0.193197684
345297930.0 -0.2223772014 0.2008339198 0.3205553807 -0.2862604145 0.320378231 -0.2859945719 -0.210515937 0.1949980045
350297900.0 -0.2201112125 0.2032679235 0.3168877986 -0.2893888932 0.3174929899 -0.2892177347 -0.2089734997 0.1980321363
355297870.0 -0.2179068855 0.2057821699 0.3139583592 -0.2930739637 0.3143264857 -0.2927160048 -0.2069461726 0.2003985652
360297840.0 -0.2162368667 0.2079559683 0.3113415276 -0.2959467396 0.3113942279 -0.2961182745 -0.2048364641 0.2026295459
365297810.0 -0.2140152905 0.2107329374 0.3075922054 -0.299874492 0.3079545076 -0.3000428177 -0.202786911 0.2050064962
370297780.0 -0.2116461661 0.2128794102 0.3038102822 -0.3031213081 0.3045020543 -0.3027009883 -0.2006850124 0.2073606427
375297750.0 -0.2094135165 0.215445356 0.3006147642 -0.3061650035 0.3012281831 -0.3065399501 -0.1988077897 0.2093342252
380297720.0 -0.2074431163 0.217923644 0.2973814806 -0.310146098 0.2975981637 -0.3090462115 -0.1969936294 0.2117811018
385297690.0 -0.2054816673 0.2203464471 0.2939350598 -0.3128349087 0.2937509158 -0.3130979507 -0.1947288833 0.2143587866
390297660.0 -0.2033065142 0.2228326087 0.290735543 -0.316189877 0.2908165399 -0.31599826 -0.1925847831 0.2167882909
395297630.0 -0.2005832106 0.2251617075 0.2870232782 -0.3196658729 0.2870276962 -0.3196337162 -0.1899905149 0.2185036776
400297600.0 -0.1983615354 0.2276526286 0.2834270878 -0.3228923183 0.2837343514 -0.3226413407 -0.1883062655 0.2207339437
405297570.0 -0.1963043523 0.2295017209 0.2798197885 -0.3256733997 0.2797667228 -0.3251510222 -0.18605962 0.2226936387
410297540.0 -0.1937044293 0.2317797711 0.2763230775 -0.3286447178 0.2766872524 -0.3287981482 -0.1838283959 0.2252100746
415297510.0 -0.1912095215 0.2334853417 0.2724018635 -0.3318847672 0.2728117516 -0.3317201832 -0.1815392184 0.2274088583
420297480.0 -0.1892213014 0.2364504111 0.268602794 -0.3346488766 0.26895638 -0.3348112595 -0.1793206383 0.2289841249
425297450.0 -0.1865378617 0.2380066296 0.2653839999 -0.3375114974 0.2654614585 -0.3377087466 -0.1769012891 0.2314105844
430297420.0 -0.1841435921 0.24029356 0.2616105446 -0.3401621894 0.2615875312 -0.3401029125 -0.1750206108 0.2331218836
435297390.0 -0.1820065163 0.2424077586 0.2575141537 -0.3429421023 0.2574861861 -0.3431229178 -0.1715813005 0.2348991496
440297360.0 -0.1789717104 0.2443894127 0.253750552 -0.3458693139 0.2541624146 -0.3457638057 -0.1697711287 0.2366379009
445297330.0 -0.1767147396 0.2464467879 0.2506205201 -0.3489233133 0.2501988669 -0.3484922113 -0.1669982532 0.2386204815
450297300.0 -0.1739268931 0.2482140466 0.246352697 -0.3515314039 0.2463457107 -0.3514140849 -0.1649133645 0.2404093608
455297270.0 -0.1715165925 0.250485658 0.242050111 -0.3540229252 0.242634829 -0.3543810355 -0.1621916056 0.2421324476
460297240.0 -0.1689784389 0.252095036 0.238214373 -0.3565779526 0.2386928325 -0.3566484643 -0.1595682715 0.2444006495
465297210.0 -0.1661657418 0.2543793191 0.2343234643 -0.3590604586 0.2346359584 -0.3595076465 -0.1567160504 0.2461848435
470297180.0 -0.1634854012 0.2560262442 0.2302548132 -0.3617931957 0.230536655 -0.3619396074 -0.1541646574 0.2480138508
475297150.0 -0.160946495 0.2581215637 0.2264291179 -0.3639178621 0.2269445263 -0.3639912329 -0.1514290116 0.249214953
480297120.0 -0.1580689731 0.2600332886 0.2225812962 -0.3667785411 0.2224422112 -0.3669806539 -0.1489271639 0.2515140207
485297090.0 -0.1556630089 0.2618160299 0.2185930834 -0.3690640902 0.2186529652 -0.3687750465 -0.1463135355 0.2530075042
490297060.0 -0.1531675576 0.2636502574 0.2147238473 -0.3714356635 0.2147001657 -0.3710363502 -0.1435514592 0.2549327982
495297030.0 -0.1501692671 0.2653374232 0.2102563934 -0.3732967132 0.2104420794 -0.3735529782 -0.1410838468 0.2565177826
500297000.0 -0.1473819571 0.2668505036 0.2060014309 -0.3755594932 0.2059837372 -0.3756739583 -0.1380630134 0.2588317666
505296970.0 -0.144252959 0.2687841095 0.2020871964 -0.3778862037 0.2018591881 -0.3780916783 -0.135371603 0.2597699371
510296940.0 -0.1417106177 0.2702998921 0.1977998843 -0.380214052 0.197768827 -0.3803647186 -0.1325674056 0.2618209522
515296910.0 -0.1389854862 0.271705952 0.1937858201 -0.3822176204 0.1938209069 -0.3824625856 -0.129965212 0.2634801475
520296880.0 -0.1360685823 0.2735527611 0.1897797805 -0.3843545031 0.1895176199 -0.3840950527 -0.1272367138 0.2646366136
525296850.0 -0.1327937368 0.274783073 0.1849373179 -0.3862145732 0.1853995481 -0.3865992147 -0.1244110769 0.2664523339
530296820.0 -0.1299420714 0.2768163209 0.1811411856 -0.388559135 0.1811284888 -0.3883900865 -0.1217193388 0.2678302997
535296790.0 -0.1278090056 0.2783966422 0.177069948 -0.3903404589 0.1765261798 -0.3899196352 -0.1194257201 0.2687887285
540296760.0 -0.1243426078 0.2796784235 0.1725730554 -0.3922647163 0.172644159 -0.3923370858 -0.116449837 0.2709348328
545296730.0 -0.1216483548 0.2811921134 0.1678656299 -0.3939600464 0.1681397756 -0.3941322976 -0.1133531057 0.2722379004
550296700.0 -0.1187628257 0.282625153 0.1639711517 -0.3956696727 0.1641748688 -0.3958248914 -0.110990523 0.2739089652
555296670.0 -0.1157423897 0.283607637 0.1597052433 -0.3973017204 0.159664393 -0.3973892149 -0.1075863168 0.2755156272
560296640.0 -0.1127789515 0.2851990509 0.1554259334 -0.3993335798 0.1552890722 -0.3994162301 -0.1050252324 0.2765841167
565296610.0 -0.1099479723 0.2869395388 0.1507689008 -0.4011259101 0.1510000218 -0.4007144921 -0.1023782822 0.2774829833
570296580.0 -0.1069048803 0.2877757778 0.1465488804 -0.4028453401 0.146208839 -0.4027017841 -0.0994352468 0.2790858318
575296550.0 -0.1042719609 0.2895521037 0.1423064214 -0.4044215844 0.142145572 -0.4038143268 -0.0966446919 0.2800394215
580296520.0 -0.1006137186 0.290559971 0.1376125885 -0.4057557012 0.1375612576 -0.405543713 -0.0936440582 0.2811563203
585296490.0 -0.0979018271 0.2914776073 0.1335799783 -0.4064511939 0.133427956 -0.4070132054 -0.0907086011 0.2823634098
590296460.0 -0.0947319126 0.2926662249 0.1289946314 -0.407958565 0.1288952174 -0.4079419676 -0.0878789477 0.2834698335
595296430.0 -0.0915806036 0.2938634001 0.1240472529 -0.4096204313 0.1243048619 -0.4094809121 -0.084800967 0.2839825096
600296400.0 -0.0887319815 0.2950714024 0.1201559252 -0.411051946 0.1201003412 -0.4109561945 -0.082078756 0.2853690897
605296370.0 -0.0857790599 0.2963442505 0.1155275284 -0.4122153831 0.1154586944 -0.4122030015 -0.078586607 0.2861653637
610296340.0 -0.0822693055 0.2967069585 0.1106620347 -0.4131451552 0.1109138603 -0.4134919388 -0.0756880258 0.287321857
615296310.0 -0.0790323306 0.2980595697 0.1061641007 -0.4143748472 0.1061287467 -0.4147905553 -0.0723943796 0.2879354871
620296280.0 -0.0761403838 0.2987151871 0.1016613932 -0.4152388609 0.1017534425 -0.4150999539 -0.0698991317 0.2886607194
625296250.0 -0.0731565047 0.2994839378 0.097530655 -0.4166223182 0.0971344912 -0.4168576681 -0.0662384958 0.2897604056
630296220.0 -0.0692703259 0.3005428511 0.0922195815 -0.417684328 0.0925758239 -0.4176697306 -0.0632729865 0.2907903043
635296190.0 -0.0667753129 0.3016464407 0.0884132581 -0.4185954427 0.0881268413 -0.4181158257 -0.0601258152 0.2913404166
640296160.0 -0.0636909075 0.3023563816 0.0837507678 -0.418994656 0.0838362651 -0.4195353265 -0.0569924654 0.2920802134
645296130.0 -0.0602527674 0.3035283192 0.0789105784 -0.4200613848 0.0793453723 -0.4201927841 -0.0540383456 0.2929626394
650296100.0 -0.0573349674 0.3038961816 0.0746605061 -0.4207879686 0.0743321173 -0.4207156389 -0.0504134856 0.2932406693
655296070.0 -0.0540013266 0.3045273267 0.0700345581 -0.4216843951 0.0697973 -0.4215850318 -0.0474423541 0.2940378182
660296040.0 -0.051123581 0.3052863595 0.0656195509 -0.4222167147 0.0653479134 -0.4228072987 -0.0440670949 0.2951979619
665296010.0 -0.0474026232 0.3058531874 0.0604972816 -0.4227051872 0.0606932124 -0.4230272596 -0.0410340618 0.2959382875
670295980.0 -0.0449908517 0.3069291785 0.0564980971 -0.4234045369 0.0562946132 -0.4234352331 -0.0383011405 0.2962170751
675295950.0 -0.0414262484 0.3072006889 0.0517033479 -0.4240754137 0.0517606735 -0.4237808727 -0.0354562066 0.296845279
680295920.0 -0.0382717754 0.3077667876 0.0469581589 -0.4245214606 0.0464903289 -0.4250989543 -0.0319334675 0.2979372305
685295890.0 -0.0348527308 0.3084718783 0.0423364868 -0.4249104515 0.0422014692 -0.4248996392 -0.0292512424 0.2979277652
690295860.0 -0.0314975066 0.308994811 0.037711668 -0.4249293402 0.0375768977 -0.4255971869 -0.0258082436 0.2993829506
695295830.0 -0.0284606005 0.3090926182 0.0334413888 -0.4258055743 0.0331100023 -0.4256059138 -0.0226404284 0.2993300913
700295800.0 -0.0248999039 0.3098204523 0.0283257173 -0.426047438 0.0284104013 -0.4257565329 -0.0201024027 0.2998285915
705295770.0 -0.0221662792 0.3104608485 0.0239024099 -0.4264114222 0.0242559445 -0.4263245564 -0.0165603613 0.3001840967
710295740.0 -0.0183979734 0.3106872157 0.019098844 -0.426908131 0.0194580901 -0.4268144488 -0.0130695273 0.3001799625
715295710.0 -0.0156733623 0.3107434316 0.0149215581 -0.4268564825 0.0145606371 -0.426570184 -0.0102523719 0.3007402569
720295680.0 -0.0119475802 0.3114587477 0.0098403432 -0.426862323 0.0101618605 -0.4271319569 -0.0066551935 0.3012046024
725295650.0 -0.0088728958 0.3115304576 0.0054230827 -0.426846708 0.0054801941 -0.4269828835 -0.0045772951 0.3015622863
730295620.0 -0.0056390098 0.311876018 0.0007703283 -0.4266296323 0.0007711271 -0.4268576542 -0.0012551606 0.3016834504
735295590.0 -0.0025506905 0.312236239 -0.0034440278 -0.4269503425 -0.004168091 -0.4269223741 0.0019974489 0.3015963947
740295560.0 0.0005727579 0.3123368265 -0.0081630535 -0.4267040497 -0.0084438684 -0.4269455225 0.0056209573 0.3017987225
745295530.0 0.0038014876 0.3122629515 -0.0130979938 -0.4261981038 -0.0134200942 -0.4265692767 0.0086153714 0.3015885791
750295500.0 0.0076481479 0.3122807841 -0.0173537817 -0.4262193956 -0.0175982175 -0.4265277905 0.0114777501 0.3017030764
755295470.0 0.0105846332 0.3121065897 -0.021966654 -0.4259502053 -0.0221857198 -0.4261538504 0.0150433218 0.3015666505
760295440.0 0.0140467055 0.3125845953 -0.0267093977 -0.425948199 -0.0269666422 -0.4257614865 0.0178325336 0.3014304869
765295410.0 0.0170719612 0.312529504 -0.0313557737 -0.4254784976 -0.0315353435 -0.4253614599 0.0209547237 0.3015602338
770295380.0 0.0203290917 0.3122138236 -0.0360954719 -0.4247080158 -0.0361461823 -0.4248586488 0.0240645438 0.3014087097
775295350.0 0.0235323337 0.3119002388 -0.0409833057 -0.4241017624 -0.0404333158 -0.4246966648 0.0269103097 0.3012303049
780295320.0 0.0268043795 0.3121999521 -0.0450896936 -0.4238694515 -0.0446958532 -0.4235588904 0.0299742304 0.3007274765
785295290.0 0.0299676194 0.3112481323 -0.0499566336 -0.4228545067 -0.0499880786 -0.4237070249 0.0337805672 0.3010325426
790295260.0 0.0337830463 0.3116237318 -0.0543987232 -0.4225931091 -0.0541400091 -0.4226968339 0.037051191 0.300702999
795295230.0 0.0365624814 0.3114029342 -0.0589175429 -0.422261715 -0.0587940937 -0.4222029108 0.0403821761 0.3001384253
800295200.0 0.0399684366 0.311062469 -0.0639818175 -0.4213291659 -0.0634923503 -0.4211857583 0.0436415921 0.3000125385
805295170.0 0.0432113677 0.3104634095 -0.0680743854 -0.4204498151 -0.0680463062 -0.4208580687 0.0465865266 0.2995787462
810295140.0 0.0462406304 0.3101266251 -0.0719094818 -0.4196832811 -0.0724918413 -0.4198636607 0.0499899031 0.299483864
815295110.0 0.049239859 0.3097347287 -0.0768184928 -0.4188630676 -0.0768010106 -0.4190441856 0.0527857516 0.2987213801
820295080.0 0.0525531653 0.3098341819 -0.0815182889 -0.4180555587 -0.0811040845 -0.4183558069 0.0563294714 0.298566288
825295050.0 0.0564147766 0.3092899575 -0.0858264107 -0.41685979 -0.0862054061 -0.4172090334 0.0598656283 0.2982698467
830295020.0 0.0591740677 0.3090629962 -0.0906805186 -0.4162657182 -0.0903599592 -0.4160382841 0.063223835 0.2976420459
