!Created with skrf (http://scikit-rf.org).
# Hz S RI R 50.0 
!freq ReS11 ImS11 ReS21 ImS21 ReS12 ImS12 ReS22 ImS22
300000.0 -0.7777408771 -0.1040456589 -4.45975e-05 -0.000654855 0.0001874489 0.0012614289 -0.7711695344 -0.1491899312
5299970.0 -0.7847255469 -0.0060753663 0.0002170697 5.59249e-05 8.35012e-05 5.60727e-05 -0.7832414067 -0.0073820204
10299940.0 -0.7878926141 -0.0037738649 0.00010182 -8.814e-06 -6.49629e-05 -8.14986e-05 -0.7871794764 -0.0038259615
15299910.0 -0.7934509237 -0.0021502617 -5.4458e-05 8.593e-05 4.06034e-05 4.031e-06 -0.7922613593 -0.0009402002
20299880.0 -0.7999340472 0.0019893606 9.14422e-05 0.0001282336 -8.55201e-05 6.84475e-05 -0.7990486698 0.0022757589
25299850.0 -0.8064598779 0.0078894402 -5.2653e-05 0.0002628291 -2.41208e-05 -8.1859e-05 -0.8050183856 0.008545989
30299820.0 -0.8122191541 0.0155742388 4.25119e-05 -2.80712e-05 -4.55767e-05 -3.71338e-05 -0.8111087865 0.0169526168
35299790.0 -0.8178524092 0.0248070478 -0.0001416162 8.05352e-05 0.0001170923 0.0001811153 -0.8167709088 0.0254684136
40299760.0 -0.8216007832 0.0342786686 -0.0001212965 0.0001193692 -1.56997e-05 0.0001067874 -0.820747434 0.035018821
45299730.0 -0.8246496249 0.0433178043 0.0002672156 6.6829e-06 -0.0001581034 0.0001200896 -0.8245689811 0.0444150606
50299700.0 -0.8275283971 0.0533428053 -1.77682e-05 -3.76702e-05 3.52507e-05 9.14789e-05 -0.8271593092 0.0543799396
55299670.0 -0.8298214579 0.0633230575 8.31631e-05 -6.75363e-05 -6.48218e-05 -9.46591e-05 -0.8299001259 0.0651581803
60299640.0 -0.8300591399 0.0738625428 -5.41938e-05 0.0001070231 -0.0001349849 4.96545e-05 -0.8303237446 0.074613916
65299610.0 -0.8310144832 0.0838325419 -0.0002479336 1.7145e-06 0.0001119077 4.9391e-06 -0.8321560857 0.0843307904
70299580.0 -0.8319272862 0.0937166766 -0.0002797237 -0.0001109476 0.0001241942 -4.08241e-05 -0.832029566 0.0944961203
75299550.0 -0.8318486173 0.1038594718 3.25917e-05 0.0001051695 -8.13546e-05 1.24013e-05 -0.8323817478 0.1042847338
80299520.0 -0.8322834116 0.113452166 -3.10009e-05 0.0001943077 0.0001237675 2.24194e-05 -0.8320495118 0.1137987104
85299490.0 -0.8311343349 0.1227079504 4.82752e-05 -9.27601e-05 0.0001769963 0.0001195231 -0.8315317924 0.123819444
90299460.0 -0.8298764032 0.1325416883 0.0001540931 -0.0001059849 1.79952e-05 -1.92117e-05 -0.8310838522 0.1332941627
95299430.0 -0.8293352214 0.1420323325 -3.16202e-05 -0.0002584238 6.83648e-05 -0.000184475 -0.8294047788 0.1430751006
100299400.0 -0.8285367096 0.1512598908 -4.29533e-05 -0.0001279704 -0.0001155678 -0.0002044119 -0.8287767346 0.1527133021
105299370.0 -0.827314743 0.1605928341 -4.94182e-05 2.43044e-05 5.2883e-05 1.59264e-05 -0.8265743216 0.161189334
110299340.0 -0.8254681936 0.1699226571 -3.3881e-05 -0.0001741659 0.0002289153 6.5929e-05 -0.8255525762 0.1702794066
115299310.0 -0.8240231218 0.1788208927 -5.02962e-05 -0.0001444449 -1.42007e-05 -0.0001168576 -0.824154406 0.1796852176
120299280.0 -0.8221589113 0.1872803883 4.29518e-05 -5.52241e-05 0.00010783 1.3171e-05 -0.8218826808 0.1890437829
125299250.0 -0.8202763695 0.1963516605 5.54556e-05 -4.55446e-05 -0.0001652391 -9.95296e-05 -0.8203760913 0.1979700809
130299220.0 -0.8186492673 0.2055108308 1.94692e-05 0.0002008477 -0.0001342094 3.32713e-05 -0.8181124078 0.206663236
135299190.0 -0.8167793805 0.2143412764 -6.852e-05 0.0001610637 -2.78529e-05 -5.54967e-05 -0.8161446778 0.2159090937
140299160.0 -0.8149785948 0.2234523206 2.76709e-05 -3.49868e-05 -0.0001822209 1.9382e-06 -0.8137704672 0.2251884698
145299130.0 -0.8124521275 0.2323134603 6.76389e-05 7.96775e-05 -1.67108e-05 -3.42644e-05 -0.8115031753 0.2341916785
150299100.0 -0.8097118545 0.2409725695 1.03858e-05 -0.000110883 3.71636e-05 1.1476e-05 -0.8096437559 0.242959807
155299070.0 -0.8076813958 0.2496515417 -0.0003224398 -8.61247e-05 -0.000187064 -2.23488e-05 -0.806208945 0.2514847758
160299040.0 -0.8051747813 0.2578382557 0.0003092164 0.0001315046 7.13219e-05 -0.0001503609 -0.8041640389 0.2608372967
165299010.0 -0.8026352804 0.2670208399 7.56023e-05 -1.73275e-05 4.90318e-05 3.04162e-05 -0.8014006419 0.269448322
170298980.0 -0.7999806438 0.2754302328 -0.0001906453 1.76045e-05 -3.5933e-05 -9.17106e-05 -0.7983548681 0.2777587288
175298950.0 -0.797058298 0.2843168746 0.0001223124 -5.8531e-05 3.21229e-05 -0.0001650761 -0.796373134 0.2864080005
180298920.0 -0.7945433421 0.2929543717 -2.65011e-05 0.0001867543 -9.71976e-05 5.18311e-05 -0.7932596915 0.2948487928
185298890.0 -0.7907328975 0.3009374067 -0.0001525126 4.45553e-05 -1.71275e-05 -0.0001479555 -0.7891633611 0.303564425
190298860.0 -0.7883301861 0.3099890169 1.9368e-05 -5.98051e-05 0.0002558573 8.6829e-05 -0.7873541587 0.3124268029
195298830.0 -0.7847393717 0.3183743341 -9.96666e-05 -0.0001524051 -0.0001005543 -4.31636e-05 -0.7835434328 0.3211136208
200298800.0 -0.7816034643 0.3259060341 -1.49516e-05 8.89301e-05 8.19309e-05 0.0001938509 -0.7812464071 0.3293838621
205298770.0 -0.7783309014 0.3346406028 -6.45668e-05 -0.0002442206 -0.0001833953 -8.0036e-06 -0.7767148527 0.3374501377
210298740.0 -0.7750277868 0.3428132504 -1.57654e-05 0.0001160291 -8.71782e-05 0.0001593722 -0.7738430285 0.3465077327
215298710.0 -0.7716499041 0.35062944 -2.33346e-05 -3.41626e-05 -7.91308e-05 -4.53958e-05 -0.770575947 0.3544758122
220298680.0 -0.7668682298 0.3592805996 5.1497e-06 -0.0001449487 -0.0002741893 2.06558e-05 -0.767338738 0.3622149282
225298650.0 -0.7638791227 0.3672843144 0.0001502637 -9.4988e-06 0.0003253896 -0.0001406014 -0.7634165578 0.3703673415
230298620.0 -0.7600164776 0.3750553899 0.0001271792 8.96222e-05 -0.0002797445 0.0001287903 -0.7597384423 0.3792142771
235298590.0 -0.7565440704 0.3839027841 -0.0001218099 8.49781e-05 -3.20824e-05 1.67147e-05 -0.7558828782 0.3869150816
240298560.0 -0.7521557849 0.3914814149 -0.0001993989 2.46611e-05 5.65019e-05 -1.83116e-05 -0.7515474665 0.3955830967
245298530.0 -0.7487120612 0.3992181166 -0.000116668 -1.16022e-05 -3.34723e-05 6.8651e-05 -0.7481577289 0.4030621757
250298500.0 -0.7437467404 0.4074519779 -1.41528e-05 -0.0002069493 -0.0001209523 7.6791e-06 -0.7434534951 0.4106503937
255298470.0 -0.7389471619 0.4141553584 -0.0002174653 0.0001064983 8.0219e-06 6.62276e-05 -0.7386994003 0.4183455344
260298440.0 -0.7358275419 0.4218967922 -3.66678e-05 8.51678e-05 -9.42192e-05 1.0769e-05 -0.7347492162 0.4262753817
265298410.0 -0.7315891251 0.4300419704 0.0001690937 -0.000183065 -1.76857e-05 -3.5409e-05 -0.7305659485 0.4336846586
270298380.0 -0.7266780803 0.4376839838 -0.0001156704 -0.0001246166 -0.0002379269 -2.27406e-05 -0.7247577755 0.440950878
275298350.0 -0.7216024191 0.4451704739 4.16344e-05 0.0001360098 0.0001383734 -4.90982e-05 -0.720735692 0.4487438086
280298320.0 -0.7172627563 0.4526780927 1.03324e-05 -7.16549e-05 -1.6992e-06 -6.31968e-05 -0.7157146622 0.4558473027
285298290.0 -0.712749668 0.4607333865 -0.0001650268 -0.0001585002 3.12237e-05 -4.30979e-05 -0.7101587161 0.4635080491
290298260.0 -0.7078575404 0.4678581681 0.0001298313 -0.0002257268 -1.48619e-05 4.91656e-05 -0.7054482034 0.4705752525
295298230.0 -0.7025653582 0.4743557695 -0.0001246887 0.000136805 2.1411e-06 -8.9447e-06 -0.7003567297 0.4778148545
300298200.0 -0.697723413 0.4821726001 5.60852e-05 5.58189e-05 -9.12814e-05 7.70097e-05 -0.6951961048 0.4849948998
305298170.0 -0.6924355003 0.4884654855 3.58956e-05 -0.000346365 4.12127e-05 -0.0001610526 -0.6895603589 0.4926207419
310298140.0 -0.6873246292 0.4966631196 -4.48233e-05 -2.86881e-05 8.97476e-05 -0.0001527046 -0.6849840601 0.4995226343
315298110.0 -0.6827735185 0.5033336709 0.0001492024 2.85919e-05 7.38405e-05 0.0001230717 -0.6792916817 0.5067351148
320298080.0 -0.6768954321 0.510076176 7.40081e-05 -3.2243e-05 -6.68082e-05 0.0002376043 -0.6739920041 0.5142966816
325298050.0 -0.6716772735 0.5174780417 7.2516e-06 -6.45817e-05 5.25642e-05 7.44458e-05 -0.668203408 0.5207422441
330298020.0 -0.6661215868 0.5243230758 -9.25466e-05 0.0002351198 -1.67935e-05 -5.69511e-05 -0.6629123158 0.5279851913
335297990.0 -0.6607343903 0.5310608472 -0.0001663102 -0.0001336871 9.55985e-05 8.71379e-05 -0.6571280583 0.534853624
340297960.0 -0.6554912082 0.5378108284 0.0002627318 0.0001445959 7.4695e-06 5.49623e-05 -0.6517343153 0.5421338559
345297930.0 -0.6495541465 0.5443261888 8.28831e-05 -0.0001588288 0.000135111 -1.59522e-05 -0.6460555325 0.5487435797
350297900.0 -0.6438566636 0.5512631559 0.0001462212 -0.0002358876 -3.25039e-05 3.08312e-05 -0.6402295884 0.5551249596
355297870.0 -0.6382302884 0.5582896071 0.0001273969 -5.179e-06 0.0001115311 0.0001774793 -0.6351878735 0.5618216956
360297840.0 -0.6318697956 0.5635367719 -9.41497e-05 0.0002660568 0.0001202589 0.0001439641 -0.628961733 0.5684940244
365297810.0 -0.6270200435 0.5706659548 6.77072e-05 6.64656e-05 -9.96632e-05 -2.40073e-05 -0.6227432295 0.5752571793
370297780.0 -0.6207214483 0.5766737352 0.0001439723 -8.98844e-05 2.9902e-05 7.73165e-05 -0.617218035 0.5820836608
375297750.0 -0.6145801031 0.583587566 -0.0001078309 -4.2834e-06 7.11944e-05 -5.50303e-05 -0.6108350635 0.5878239199
380297720.0 -0.6088186717 0.5893537042 3.5676e-06 -6.37674e-05 -2.19669e-05 -7.54009e-05 -0.605016196 0.5946549714
385297690.0 -0.603142021 0.5954504857 -3.46267e-05 0.0001000118 -0.0001914987 -4.20734e-05 -0.5985807159 0.6015174197
390297660.0 -0.5965322267 0.6011097732 -0.0001146838 0.000107187 0.0002116762 1.02053e-05 -0.5925665419 0.607018018
395297630.0 -0.5902373717 0.6080128593 -0.0001194227 8.67309e-05 5.66044e-05 0.0001620124 -0.586135559 0.6135997024
400297600.0 -0.5839594382 0.6143357928 -2.30906e-05 -3.75779e-05 9.0433e-05 -1.80658e-05 -0.5801833688 0.619271554
405297570.0 -0.5780107361 0.6198799011 -5.51265e-05 8.25926e-05 6.381e-07 4.57711e-05 -0.573965226 0.6252956001
410297540.0 -0.5708812359 0.625740265 2.74981e-05 4.69788e-05 0.0001064672 -5.9988e-05 -0.5670802007 0.6313124798
415297510.0 -0.5641872203 0.6315479005 -3.68439e-05 -0.000121216 0.0001966435 -5.17365e-05 -0.5606735467 0.6367333336
420297480.0 -0.5586966402 0.6372228913 -2.468e-07 -0.0002145268 -0.0001447715 0.0001487164 -0.5539491516 0.6427430024
425297450.0 -0.5513902181 0.6432682863 0.0001854269 -8.53316e-05 8.86683e-05 2.46429e-05 -0.547898863 0.6481905875
430297420.0 -0.5450257478 0.6489377638 9.13239e-05 8.08658e-05 -6.8643e-05 -0.0001515819 -0.5406523743 0.6529980976
435297390.0 -0.5382188826 0.6535582895 -0.0002276421 4.70522e-05 0.0001717694 5.41035e-05 -0.5332402635 0.6583175924
440297360.0 -0.5314059836 0.6590825467 -0.0001692311 -0.0001152155 -0.0001323908 -7.19305e-05 -0.527146679 0.6634344322
445297330.0 -0.5246233068 0.6643760431 -7.6254e-06 7.99961e-05 0.0001925032 3.58331e-05 -0.5197087297 0.6680700984
450297300.0 -0.5178101969 0.6695463249 -1.63351e-05 8.89452e-05 2.60339e-05 5.6702e-06 -0.5127260099 0.6735712399
455297270.0 -0.5110678903 0.6749652628 0.0002567801 -3.16532e-05 -6.67404e-05 0.0002336996 -0.5058508541 0.6781530221
460297240.0 -0.5050470455 0.6797003718 2.95861e-05 9.19361e-05 -6.53312e-05 -6.0251e-05 -0.4991027484 0.683863984
465297210.0 -0.4976107919 0.6851363084 7.99261e-05 -5.15589e-05 6.86349e-05 0.0001517558 -0.4911551769 0.6885063494
470297180.0 -0.4897463973 0.6896941894 0.0001552701 7.01258e-05 -4.19218e-05 5.21924e-05 -0.4839450498 0.6940863185
475297150.0 -0.4827844332 0.6941835915 5.78382e-05 -0.0003473582 -0.0001592907 0.0001600547 -0.476652699 0.6978317765
480297120.0 -0.4762329381 0.6998230043 1.57992e-05 8.93793e-05 5.81692e-05 -7.67746e-05 -0.4694109706 0.7029392436
485297090.0 -0.4687484892 0.7041986593 -0.0001670553 0.0001401407 -8.96698e-05 -9.64791e-05 -0.4622640152 0.7080365407
490297060.0 -0.4617351606 0.7088192723 7.06351e-05 7.83183e-05 2.5011e-06 0.0001610756 -0.4552985276 0.7124086098
495297030.0 -0.4548609138 0.7131908111 -8.92094e-05 -6.06678e-05 -3.98299e-05 -2.75733e-05 -0.4480797183 0.7169019388
500297000.0 -0.4472164308 0.7178534132 0.0001698278 0.0001068248 -0.0001679823 -2.1602e-06 -0.4402561876 0.7223074354
505296970.0 -0.440170228 0.7224565987 0.0001266997 -9.7079e-06 -0.0001501899 5.18935e-05 -0.4330761714 0.7260321977
510296940.0 -0.4326634598 0.7266260585 0.0001762603 -6.728e-06 0.0002039621 4.90064e-05 -0.4249951567 0.7310905095
515296910.0 -0.4244192513 0.730730445 -0.0001174393 -3.38652e-05 0.0001034054 -0.0001240629 -0.4180682778 0.7348747043
520296880.0 -0.4181121791 0.7356908183 0.0001445956 0.0002032913 -7.00994e-05 -6.4613e-05 -0.410673589 0.7389855032
525296850.0 -0.4099408369 0.7390190969 9.44639e-05 3.82828e-05 0.0001567965 -0.0001626046 -0.4028961497 0.74357257
530296820.0 -0.4024812629 0.7435967274 -3.16587e-05 -6.41935e-05 -4.27411e-05 0.0002115842 -0.3953791292 0.7473866836
535296790.0 -0.3955086383 0.7469228616 -9.01601e-05 -0.0002196255 -5.022e-06 2.69151e-05 -0.3886863856 0.7511996807
540296760.0 -0.3874156754 0.7512511461 3.96973e-05 6.29238e-05 0.000102267 -0.0001038851 -0.3804059887 0.7556891944
545296730.0 -0.3798964624 0.7554942876 -0.0001627018 -0.0002008135 5.02459e-05 1.13395e-05 -0.3727943713 0.7596232939
550296700.0 -0.3733574517 0.7592119842 0.000198878 5.42229e-05 -9.50786e-05 0.0001775556 -0.3649480713 0.7628331521
555296670.0 -0.3639386046 0.7617520324 7.15342e-05 -0.000116178 2.51224e-05 -1.54401e-05 -0.3575669749 0.7674616049
560296640.0 -0.3570699334 0.7665230123 0.0001032468 0.0001583261 0.000165434 7.2759e-06 -0.3493472649 0.7709157796
565296610.0 -0.3494243243 0.7699854622 0.0001958215 6.2112e-05 -3.58651e-05 -3.73139e-05 -0.3416137567 0.773836106
570296580.0 -0.3417924278 0.7724282638 4.48288e-05 -6.23338e-05 -0.0002079674 -2.5508e-06 -0.3345495917 0.7779435197
575296550.0 -0.3337773951 0.7769808035 -4.57323e-05 0.0001684611 -0.000167426 8.81586e-05 -0.3264517631 0.7808673112
580296520.0 -0.3253162605 0.7799934211 -1.98904e-05 -5.1733e-06 0.0001194453 9.15577e-05 -0.317371017 0.7838346762
585296490.0 -0.3183453594 0.7823687381 0.0001247212 -0.000210957 -6.5564e-06 -3.45274e-05 -0.3102630613 0.7873709122
590296460.0 -0.310117221 0.7859103122 -0.0001497069 -4.7623e-05 -0.000119435 2.13751e-05 -0.3024685454 0.7903006579
595296430.0 -0.3022937195 0.7887708333 -4.18062e-05 -0.0002448606 6.68961e-05 -0.000190534 -0.2937782761 0.7923523645
600296400.0 -0.2944265757 0.791887204 -0.0001429581 -0.0001179133 -2.1366e-05 8.96626e-05 -0.28622193 0.7951425913
605296370.0 -0.2868509699 0.7948975312 -0.0001492796 -0.000137832 9.49572e-05 -0.0001341211 -0.2773709952 0.7983741863
610296340.0 -0.2784388308 0.7970471596 -0.0001221273 0.0001614752 -9.385e-06 0.0001373591 -0.2696530222 0.8005394455
615296310.0 -0.269943671 0.8000323078 -8.4163e-06 0.0001714287 -3.63725e-05 -0.0001465762 -0.2613463532 0.803108115
620296280.0 -0.262492751 0.8021803754 -0.0001657037 -4.16919e-05 -2.79977e-05 -2.40452e-05 -0.2540475551 0.8054920131
625296250.0 -0.2544224693 0.8051889028 6.06807e-05 8.61466e-05 -0.0001113318 0.0001788791 -0.2448232726 0.8072819086
630296220.0 -0.2454464198 0.8078353792 0.0001694488 -2.13805e-05 -1.75367e-05 -3.55998e-05 -0.2369430347 0.8104049629
635296190.0 -0.2380451688 0.810134376 -0.0001511288 -8.76249e-05 9.09928e-05 0.0002534498 -0.2290904102 0.8120418476
640296160.0 -0.2307728256 0.8123527175 1.79026e-05 -4.58896e-05 -0.0001066907 0.0001480329 -0.2209448327 0.8149957737
645296130.0 -0.2219875211 0.8151970711 2.71572e-05 0.0001797741 4.20611e-05 -4.58095e-05 -0.212131429 0.816771572
650296100.0 -0.2141946488 0.8168523659 9.26057e-05 -0.0001147888 3.54611e-05 -2.77806e-05 -0.2041977217 0.8179962695
655296070.0 -0.2060838942 0.8189618242 -9.005e-07 2.01004e-05 4.8735e-06 -0.0001369426 -0.1956967189 0.8201124898
660296040.0 -0.1974581826 0.8205419012 4.81924e-05 -0.000101223 -7.31067e-05 -6.8125e-05 -0.1869039255 0.8225042804
665296010.0 -0.1891382108 0.8219840853 -0.0001555534 -0.0001406238 -4.50511e-05 0.0001563656 -0.1784906083 0.8247974695
670295980.0 -0.1815570695 0.8243833164 -0.0002430899 0.0001881863 0.0001868444 0.0001850678 -0.1704502905 0.8261104992
675295950.0 -0.1725179986 0.8261408177 -0.000179242 7.3002e-06 -9.47538e-05 4.3871e-05 -0.16298258 0.8279026121
680295920.0 -0.1643036426 0.8277882372 1.62217e-05 5.03765e-05 -7.87986e-05 3.97452e-05 -0.1537368375 0.83039957
685295890.0 -0.1562580918 0.83020292 6.22889e-05 5.49014e-05 -0.0001686695 -0.0001071694 -0.1449162511 0.8308994301
690295860.0 -0.1478282023 0.83078031 0.0001651965 2.10483e-05 5.15344e-05 -0.0002403176 -0.1374371469 0.8331951699
695295830.0 -0.1402942797 0.8320940264 -0.0003726302 0.0001615619 -2.22282e-05 0.0001127044 -0.1283245634 0.8345223524
700295800.0 -0.1308950827 0.834320352 4.43328e-05 9.24147e-05 -8.84459e-05 0.0001553485 -0.1214847911 0.8360377638
705295770.0 -0.1234085226 0.8353705407 -6.09984e-05 0.0002558041 7.16617e-05 0.00022126 -0.112415354 0.8380055476
710295740.0 -0.1147034963 0.8358517825 -0.0001912676 -6.97863e-05 -2.03354e-05 7.07121e-05 -0.1035249811 0.8383114602
715295710.0 -0.1065186809 0.8374621273 -8.38007e-05 -1.46241e-05 0.0001010823 -0.0001423895 -0.0960605254 0.8393420371
720295680.0 -0.0984345632 0.8386088942 -5.80574e-05 4.56761e-05 8.152e-06 3.88761e-05 -0.0870464899 0.8405907982
725295650.0 -0.0891855384 0.8398123292 -0.0002555081 4.59626e-05 -0.0001907227 -4.13019e-05 -0.0791647957 0.8418053417
730295620.0 -0.0817394692 0.8402526261 -0.0001784 0.0003445669 0.0002044256 1.93204e-05 -0.0717041177 0.8421745677
735295590.0 -0.0735622689 0.8412504701 4.58547e-05 -3.59663e-05 5.70297e-05 -0.0001991241 -0.0622043036 0.8423585142
740295560.0 -0.0645588177 0.8424737727 -1.17287e-05 -0.000117911 1.25047e-05 -0.0001655497 -0.0533741246 0.8435627625
745295530.0 -0.056539794 0.8429402949 -8.04167e-05 5.8761e-06 3.7316e-05 9.615e-07 -0.0457761611 0.8434435878
750295500.0 -0.0482501886 0.8428293199 9.14141e-05 -0.0002212295 -6.4184e-06 2.7389e-06 -0.0375311347 0.844282027
755295470.0 -0.0394978479 0.8426420498 -9.61774e-05 4.29356e-05 -1.73244e-05 0.0001426543 -0.0288381122 0.843453077
760295440.0 -0.0318976891 0.8433496524 -1.5692e-06 -3.63296e-05 -0.0001776983 0.0001466999 -0.0204890953 0.844325654
765295410.0 -0.0237818985 0.8437637283 0.0001004064 -1.2545e-05 0.0001402094 6.82833e-05 -0.0118635226 0.8445145079
770295380.0 -0.0155174807 0.8436713997 -0.0001400473 3.48003e-05 0.0001832489 0.0001347169 -0.0038589931 0.8442810791
775295350.0 -0.006978403 0.8439772906 0.000178736 0.0001819415 -0.0001482249 -0.0001714833 0.0042954696 0.8436026472
780295320.0 0.0016173127 0.8444034501 -4.21153e-05 1.67561e-05 0.0001504038 -1.7606e-06 0.0128467813 0.843726947
785295290.0 0.0097172638 0.8433934974 6.73632e-05 2.71365e-05 0.0001877207 2.70994e-05 0.0216852206 0.8429012887
790295260.0 0.0192120179 0.843779167 -0.0001764795 -0.0002932999 9.38493e-05 1.59019e-05 0.0305705305 0.8433889586
795295230.0 0.0264419372 0.8433850171 -0.0001615937 3.43188e-05 -7.75466e-05 4.90189e-05 0.0386721437 0.8423266192
800295200.0 0.0353404136 0.8427353177 7.92345e-05 -0.0002338302 -3.31489e-05 0.0001955921 0.0475833551 0.8417460006
805295170.0 0.0435917693 0.8428136422 -4.7038e-06 0.0001319261 0.0001635441 1.1673e-05 0.0548382201 0.8416830779
810295140.0 0.0515978359 0.8420372148 -0.0001265222 0.0002204996 4.37751e-05 -0.0001980363 0.0638403717 0.8403191574
815295110.0 0.05952231 0.8412501671 9.886e-06 8.37738e-05 -0.0001124548 1.29024e-05 0.0722441988 0.8401572911
820295080.0 0.0681864515 0.841194324 -0.0001976266 0.0001754846 -0.0002430313 -0.0002558351 0.0808854737 0.8393525504
825295050.0 0.0774027293 0.84012808 -5.11081e-05 -7.81018e-05 0.0002727955 -0.0002763997 0.0891839887 0.8388762164
830295020.0 0.0847147047 0.8390739321 -5.41954e-05 -0.0001899519 6.34827e-05 1.3035e-06 0.0981556588 0.8374879968
835294990.0 0.0925979992 0.8390010813 -0.0003607129 -2.32053e-05 5.75994e-05 -0.0001738674 0.1053025967 0.8367869614
840294960.0 0.100718242 0.8379675225 -4.47894e-05 -1.156e-07 4.9543e-06 0.000166605 0.1146164078 0.835561584
845294930.0 0.1096282485 0.836447756 7.02996e-05 8.70699e-05 0.0001745702 -6.5279e-05 0.1224961011 0.8345288296
850294900.0 0.1173435446 0.8358321562 4.62464e-05 -3.98376e-05 -0.000151011 -0.0001856596 0.1306574566 0.8334794506
