!Created with skrf (http://scikit-rf.org).
# Hz S RI R 50.0 
!freq ReS11 ImS11 ReS21 ImS21 ReS12 ImS12 ReS22 ImS22
300000.0 -0.3194450801 -0.0798348081 0.3754196439 0.0436407032 0.3733790514 0.0416823537 -0.3206508773 -0.099615142
5299970.0 -0.3264895816 0.0045264359 0.3783036154 0.002601023 0.3784299191 0.0022539547 -0.3240920558 0.0048138939
10299940.0 -0.3241475896 0.013321472 0.3794097965 0.0019099609 0.3795882124 0.002366592 -0.3216400888 0.0161310559
15299910.0 -0.3213352378 0.0203941663 0.381877297 0.0021919732 0.3820220829 0.0017848641 -0.318232304 0.023548051
20299880.0 -0.3186238155 0.0263304002 0.3844171314 0.0017677226 0.384785306 0.0015994211 -0.3149044439 0.0304261022
25299850.0 -0.315551486 0.0314406749 0.38835943 -8.93414e-05 0.3881263738 -1.00254e-05 -0.3105770748 0.0359256158
30299820.0 -0.312803581 0.0361097961 0.3915386705 -0.0021280873 0.391364468 -0.0025816526 -0.3069254279 0.0408616924
35299790.0 -0.3099949998 0.0397771494 0.3949373815 -0.0053833039 0.3946832321 -0.0055970791 -0.303541805 0.0454467891
40299760.0 -0.307019259 0.0437718544 0.3979880041 -0.0088646619 0.3977382962 -0.0089455007 -0.3000147241 0.0483709163
45299730.0 -0.3046485334 0.0468545324 0.4007540839 -0.0127931422 0.4009650808 -0.0128594309 -0.2969228365 0.0518816835
50299700.0 -0.3022021969 0.0491539738 0.4033498532 -0.0169781559 0.4032737029 -0.0172868415 -0.293953554 0.0545229834
55299670.0 -0.3002486288 0.0521503545 0.40570638 -0.0224972515 0.4054940095 -0.022037411 -0.2916631315 0.0573687947
60299640.0 -0.2980567273 0.0550966514 0.4074584047 -0.0272918247 0.4077165049 -0.0269268151 -0.2891882791 0.0596743653
65299610.0 -0.2963753145 0.0572703695 0.4088191275 -0.0321494128 0.409135419 -0.0319500505 -0.2872347875 0.061642275
70299580.0 -0.294339163 0.0600688022 0.4102995137 -0.0372518584 0.4105195382 -0.0371771191 -0.285028253 0.0640250595
75299550.0 -0.293014182 0.0627483122 0.4111934842 -0.0425731121 0.4112611773 -0.0424295903 -0.2832440035 0.0659261725
80299520.0 -0.2916831714 0.0649294202 0.4124055367 -0.0474851535 0.4125899534 -0.0474901853 -0.2816052536 0.0682560459
85299490.0 -0.2900780077 0.0670634947 0.4125238912 -0.0529102911 0.4131464508 -0.0523285256 -0.2802009346 0.0700663525
90299460.0 -0.2888866025 0.0695429721 0.4132700773 -0.0581250749 0.4133602039 -0.0581259257 -0.2784277437 0.0723428062
95299430.0 -0.2872992926 0.0715907278 0.4136374258 -0.0630728653 0.4134731936 -0.0631387286 -0.2764264086 0.0743597371
100299400.0 -0.2865390716 0.0739997517 0.4135566705 -0.0683110686 0.4131805232 -0.0686619472 -0.2750585999 0.0759660718
105299370.0 -0.2852199049 0.0766019884 0.4132428352 -0.0741537706 0.4134422416 -0.0737727274 -0.2739307894 0.0784248905
110299340.0 -0.2842699664 0.0791103095 0.4134081461 -0.0786470402 0.4130101295 -0.0785190332 -0.2729390619 0.0803527333
115299310.0 -0.2828019094 0.081154094 0.4130611733 -0.0841971333 0.4128305357 -0.0839051512 -0.2715764496 0.0824684638
120299280.0 -0.2822628362 0.0830874409 0.4119681471 -0.0889651778 0.4123068916 -0.0889723298 -0.2705318924 0.0843556761
125299250.0 -0.2812328926 0.0853820539 0.4119023743 -0.0938064896 0.4120551171 -0.0939000854 -0.2695929444 0.0863213001
130299220.0 -0.2802940429 0.0884043838 0.4108983036 -0.0992551021 0.4111356631 -0.0993712348 -0.2686032785 0.0885027636
135299190.0 -0.2791772047 0.090718 0.4102868593 -0.1042945719 0.4102255861 -0.104292435 -0.2670137584 0.0909836388
140299160.0 -0.2786481777 0.0937203209 0.4095577658 -0.109331146 0.4101174926 -0.1095298461 -0.2665144036 0.0933833964
145299130.0 -0.2772780817 0.0957707693 0.4087916982 -0.1142670689 0.4084828865 -0.1140616821 -0.2653246157 0.0957177809
150299100.0 -0.2760901732 0.098348101 0.4075143961 -0.11909249 0.4075489964 -0.1186290907 -0.2643501767 0.0986195828
155299070.0 -0.2756337545 0.100752527 0.4068412532 -0.124508781 0.4063418572 -0.1240365154 -0.2629772938 0.1005524814
160299040.0 -0.2745524653 0.1034286977 0.4052288345 -0.1290685371 0.4050498759 -0.1292241498 -0.2627890017 0.1032196564
165299010.0 -0.2737129635 0.1060825071 0.4043001634 -0.1340889024 0.4040284498 -0.1341147016 -0.2610996195 0.1057782321
170298980.0 -0.2729182246 0.1084348041 0.4026374831 -0.1383431618 0.4029597137 -0.1387692481 -0.2600926606 0.1083064311
175298950.0 -0.27183853 0.1112662127 0.4018515711 -0.1430640819 0.4011312635 -0.1433928592 -0.2592036994 0.1105147822
180298920.0 -0.2710391906 0.1138199973 0.4002755341 -0.1479002649 0.3998813996 -0.1480825075 -0.2581653086 0.1133372531
185298890.0 -0.2693718867 0.116343577 0.3986255291 -0.1525989488 0.3983071171 -0.1528892239 -0.2571263208 0.1160970295
190298860.0 -0.268833318 0.1194809119 0.3970842826 -0.1575802454 0.3969603504 -0.1573832844 -0.2560257219 0.1182186446
195298830.0 -0.2677979418 0.1219907291 0.3953135917 -0.1620865602 0.394975974 -0.1618771931 -0.2552225003 0.1210553905
200298800.0 -0.266406784 0.1243764237 0.3937330801 -0.166377671 0.3933565205 -0.1663981337 -0.2544338887 0.123141352
205298770.0 -0.2656780711 0.1271914089 0.391480934 -0.1714873844 0.3912665691 -0.1711502454 -0.2530660337 0.1255775009
210298740.0 -0.264294086 0.1297660696 0.3897478047 -0.175471686 0.3897915467 -0.1756516141 -0.2517304137 0.1287282268
215298710.0 -0.2634958119 0.1323938767 0.3879984907 -0.1803495206 0.3881146701 -0.1804299662 -0.2510461029 0.1310613447
220298680.0 -0.2618832169 0.1350269182 0.3853058657 -0.1845643375 0.3858333645 -0.1849302141 -0.2497222929 0.1333778333
225298650.0 -0.2608936574 0.1380678132 0.3839488879 -0.1893663803 0.3839001308 -0.1890861289 -0.2490480517 0.1357072563
230298620.0 -0.2596411739 0.1408720467 0.3817331272 -0.1934861977 0.3822400842 -0.1934124998 -0.247787959 0.138227797
235298590.0 -0.2583900225 0.1439137044 0.3800178581 -0.1977945893 0.3798898138 -0.1977879632 -0.2464384393 0.1413106489
240298560.0 -0.2570870265 0.1462543383 0.3778091582 -0.2024603866 0.3777359192 -0.2027260276 -0.2453917758 0.1441014179
245298530.0 -0.2556753803 0.1492185542 0.3758644785 -0.206733342 0.3752869665 -0.2067955089 -0.2438343395 0.1459043959
250298500.0 -0.2541586612 0.1517463396 0.3726261971 -0.211383083 0.3727891435 -0.2107418568 -0.2428383423 0.1485651652
255298470.0 -0.2529804031 0.1541157555 0.3702529104 -0.2148741443 0.3705031488 -0.2150964923 -0.2412878502 0.1513397709
260298440.0 -0.2515527064 0.1569066139 0.3680460895 -0.2192738351 0.3681736667 -0.2192713565 -0.2395613295 0.1538587252
265298410.0 -0.2499189779 0.1600484376 0.3657147317 -0.2237269704 0.3658631002 -0.2234279078 -0.2381682486 0.1559837495
270298380.0 -0.248577051 0.1625870975 0.3635220766 -0.2274487762 0.3636918619 -0.2273238666 -0.2369511403 0.1585305656
275298350.0 -0.2468791598 0.1651582757 0.3606576375 -0.2316913883 0.3611799999 -0.2316982899 -0.2353303241 0.1608622246
280298320.0 -0.2450556986 0.1681174112 0.3585465853 -0.2358792717 0.3585316957 -0.2359271641 -0.2334348705 0.1633484891
285298290.0 -0.2435484925 0.1708060709 0.3557817119 -0.2397576631 0.3557837006 -0.2398980673 -0.2318068701 0.1663175489
290298260.0 -0.2418651493 0.1732694812 0.3531566244 -0.2437245158 0.3534413298 -0.2440154362 -0.2302775926 0.168655784
295298230.0 -0.2400581977 0.175879278 0.3507575094 -0.2481548194 0.3502760906 -0.2477652222 -0.2284204408 0.1707493695
300298200.0 -0.2385135682 0.178144463 0.3482109176 -0.2516003996 0.3478639808 -0.2519350259 -0.2267262211 0.1734421208
305298170.0 -0.2364265778 0.1805909509 0.3448253922 -0.255955223 0.3448613019 -0.2558130975 -0.2243808779 0.175783142
310298140.0 -0.2349831126 0.1834265252 0.34210108 -0.2597998444 0.3418884279 -0.2596865228 -0.2229825742 0.1783105907
315298110.0 -0.2329840939 0.1856742931 0.3394216493 -0.2636319902 0.339080811 -0.2636928208 -0.2211882963 0.1803726214
320298080.0 -0.2310569114 0.1883489873 0.335813653 -0.267695876 0.3362608107 -0.267520409 -0.2192597479 0.1829944007
325298050.0 -0.2294158604 0.1908034065 0.3333985801 -0.2713870707 0.3335017432 -0.2715721463 -0.2178656862 0.1851437097
330298020.0 -0.2275724146 0.1932526881 0.3300960336 -0.2752056573 0.3302230218 -0.27502278 -0.2159098546 0.1877406475
335297990.0 -0.2255432033 0.1953818582 0.3270625204 -0.2784759453 0.3271060813 -0.2786086077 -0.2146312671 0.1904706776
340297960.0 -0.2240319337 0.1982084187 0.3232808265 -0.2821920399 0.3234201696 -0.2824298554 -0.2119093572 0.1928188153
345297930.0 -0.222299294 0.2008764893 0.3207653466 -0.2861133727 0.3202493767 -0.2861000695 -0.2107113855 0.1952023456
350297900.0 -0.2200662506 0.2030819071 0.316923816 -0.2895825336 0.3169046809 -0.2896846636 -0.2085953914 0.197938951
355297870.0 -0.2178251812 0.2061919635 0.3136527071 -0.2929494925 0.3139436819 -0.2927694688 -0.2068860678 0.1999222937
360297840.0 -0.2158901962 0.2083134075 0.311033092 -0.2961747897 0.3107417069 -0.296326151 -0.2047965355 0.2025881405
365297810.0 -0.2141057795 0.2108925174 0.3074739492 -0.3000310835 0.3074462085 -0.2999930555 -0.2027566552 0.2052006205
370297780.0 -0.2116273274 0.2129070966 0.3039645017 -0.3030211145 0.3043655919 -0.3030610246 -0.2007515384 0.2073384898
375297750.0 -0.2093950298 0.2154745955 0.3006806225 -0.3064495107 0.30102394 -0.3065964525 -0.198893585 0.2093631441
380297720.0 -0.2075891307 0.2179450449 0.2973659104 -0.3100727 0.2974621106 -0.3093728728 -0.19674699 0.2117985052
385297690.0 -0.205509371 0.2203925055 0.2940870101 -0.3125715815 0.2938714346 -0.3131144417 -0.1944570093 0.2142702528
390297660.0 -0.2030887935 0.2228318461 0.290706089 -0.3163805604 0.2906119072 -0.3161161739 -0.1927871027 0.2166641963
395297630.0 -0.2007581581 0.2252171924 0.2871105245 -0.3195926789 0.2870760022 -0.3194969553 -0.1901338415 0.2189545919
400297600.0 -0.1984100518 0.2274863853 0.2831228172 -0.322751086 0.2835934154 -0.3228286499 -0.188036385 0.2208930291
405297570.0 -0.1962508762 0.2294957597 0.2797221568 -0.3257257386 0.2797730966 -0.3253647206 -0.1861088116 0.2227381503
410297540.0 -0.1936582617 0.2317335498 0.276408586 -0.3287950282 0.2764562345 -0.3288681678 -0.1837797804 0.2253440094
415297510.0 -0.190966772 0.2337658287 0.2723916869 -0.3319900021 0.2727488156 -0.3319045395 -0.1813894626 0.2273714744
420297480.0 -0.1888662544 0.2362489465 0.2687623058 -0.3349230853 0.2688062301 -0.3347653683 -0.1793082262 0.2291846152
425297450.0 -0.1864468534 0.237981644 0.265190933 -0.3373476425 0.265066902 -0.3375548555 -0.1771633707 0.2315109901
430297420.0 -0.1842581324 0.2405357686 0.2613424989 -0.3402043311 0.2609752451 -0.3401306083 -0.1747251944 0.2330425794
435297390.0 -0.1818114504 0.2424169748 0.2571749735 -0.3434388431 0.2571721793 -0.343476672 -0.171985391 0.2352111185
440297360.0 -0.179212796 0.2446015326 0.2537188176 -0.3459701071 0.2539259982 -0.3459858225 -0.1697873956 0.2370624045
445297330.0 -0.1767335399 0.2463392527 0.2504414375 -0.348897126 0.2499253317 -0.3483509573 -0.1669378905 0.2383565356
450297300.0 -0.1740930697 0.2484710723 0.2461110676 -0.3516817403 0.2462680469 -0.3514725641 -0.1646189197 0.240337052
455297270.0 -0.1713322594 0.2505100622 0.2422495406 -0.3537295711 0.2425389035 -0.3542775534 -0.1624183112 0.242154185
460297240.0 -0.1690241657 0.2523841205 0.2380577553 -0.3562763846 0.2385254661 -0.3567967965 -0.1596621557 0.2443766471
465297210.0 -0.1663252641 0.2545499502 0.2340645383 -0.3594071439 0.2342684364 -0.359648393 -0.1570360915 0.246147291
470297180.0 -0.1632994289 0.2562487871 0.2301349827 -0.3616386753 0.230579838 -0.3620082348 -0.1541694918 0.2481732235
475297150.0 -0.1607536744 0.2576686342 0.2260742642 -0.3640014791 0.2263429279 -0.3637567941 -0.1514385846 0.2494823453
480297120.0 -0.1583056165 0.2599914833 0.2226133553 -0.3670843321 0.2222532139 -0.3667844526 -0.1486190157 0.2514009986
485297090.0 -0.1554994585 0.2617022985 0.2184129325 -0.3690844674 0.2184769358 -0.3689279606 -0.1463694346 0.2528091161
490297060.0 -0.1532686106 0.2635985639 0.2145955672 -0.3715183563 0.2146566859 -0.3713785738 -0.1434422062 0.2548931264
495297030.0 -0.1503855417 0.2651058163 0.2100168549 -0.37347583 0.2105722514 -0.3735171773 -0.1409304769 0.2567597914
500297000.0 -0.1471738811 0.2669250609 0.2059073998 -0.3754855262 0.2056770339 -0.37544626 -0.1380089774 0.2586794426
505296970.0 -0.1445643079 0.2689033072 0.2020435745 -0.378207377 0.2018921729 -0.378332302 -0.1353006625 0.259888655
510296940.0 -0.1416659302 0.2702293906 0.1982480657 -0.3803591471 0.1976302753 -0.380408475 -0.1327087783 0.2618092907
515296910.0 -0.1386070626 0.2719958288 0.1935674551 -0.382303156 0.1933587852 -0.3822781709 -0.1296514143 0.2632318114
520296880.0 -0.1360359099 0.2736689823 0.189494447 -0.3845024749 0.1892761935 -0.3845565202 -0.1268372293 0.264870432
525296850.0 -0.132889323 0.2745146769 0.1850346763 -0.3860127449 0.1854283333 -0.3861666699 -0.1244007339 0.2663602454
530296820.0 -0.1301550999 0.2768047085 0.1808668006 -0.3885542815 0.1808948934 -0.388196907 -0.1218751799 0.2680484195
535296790.0 -0.1275239589 0.2781421286 0.1770623056 -0.39012415 0.1769691964 -0.389844002 -0.1191288153 0.2691855104
540296760.0 -0.1247163371 0.2795991777 0.172499135 -0.3925248836 0.1723244518 -0.392349999 -0.1161899609 0.2711909081
545296730.0 -0.121639932 0.2812168784 0.1678331385 -0.3939437038 0.1680307257 -0.3938133845 -0.1134268355 0.2720883633
550296700.0 -0.1186248658 0.282702471 0.1637856633 -0.3959039471 0.1639103468 -0.3958249582 -0.1107744233 0.273809219
555296670.0 -0.1157204209 0.2838117597 0.1595337037 -0.3976516132 0.1597164954 -0.3975976308 -0.1078395479 0.2756292236
560296640.0 -0.1125451672 0.2856000445 0.155096946 -0.3996009403 0.1550133755 -0.3993940214 -0.1045743893 0.2766048457
565296610.0 -0.1098055208 0.2868030662 0.1509451291 -0.4009025264 0.1507795548 -0.400751085 -0.1022418438 0.2774854915
570296580.0 -0.1069322826 0.2880457014 0.1466968335 -0.4028855632 0.1458948561 -0.4025192199 -0.099334355 0.2791882418
575296550.0 -0.103888296 0.2897027525 0.1418262169 -0.4043163671 0.1415392233 -0.4042829451 -0.0961889599 0.2803308779
580296520.0 -0.1005416031 0.2906273811 0.1372123358 -0.4057391736 0.137382881 -0.4056310842 -0.0932773054 0.2810807067
585296490.0 -0.0978900449 0.2915051391 0.1332824334 -0.4066807483 0.1330498499 -0.4070111162 -0.090481935 0.2823696324
590296460.0 -0.0941241881 0.2927579665 0.1284209708 -0.4080863342 0.1288846877 -0.408382443 -0.0879930311 0.2833585243
595296430.0 -0.0912983327 0.2939623741 0.123869087 -0.4095717266 0.1239584866 -0.4096249773 -0.0848752423 0.2838427855
600296400.0 -0.0886724554 0.2950750659 0.1197211766 -0.4108366523 0.1197252068 -0.4107434994 -0.0819026328 0.284968956
605296370.0 -0.085488768 0.2961148176 0.1154669062 -0.4121922561 0.1154184034 -0.4122653194 -0.0786916081 0.2863429098
610296340.0 -0.0821932456 0.2970809532 0.1106949097 -0.4131334613 0.1108167763 -0.4131841564 -0.0758872806 0.287128048
615296310.0 -0.0789908557 0.2979738765 0.1061675882 -0.4141479502 0.1058185667 -0.4146032083 -0.0724735505 0.2880303591
620296280.0 -0.0760893508 0.2985971465 0.1017054965 -0.4155300265 0.1015878073 -0.4153750855 -0.0699872834 0.2891222047
625296250.0 -0.0730324217 0.2996811789 0.0974674706 -0.4165560819 0.0971735746 -0.4168964066 -0.0662796889 0.2896911835
630296220.0 -0.0690590874 0.3006397561 0.0919684477 -0.4175936142 0.0922107839 -0.4175120173 -0.0633525344 0.2905166055
635296190.0 -0.0669683556 0.3015276541 0.0880855468 -0.41832058 0.0880723012 -0.4184435436 -0.0600095444 0.2914098494
640296160.0 -0.063488191 0.3023274194 0.0836794919 -0.4190370243 0.083314943 -0.419398149 -0.0570788194 0.2918483913
645296130.0 -0.060235217 0.3035329229 0.0789832878 -0.4201085988 0.0791027783 -0.4201731291 -0.0540571789 0.2930801576
650296100.0 -0.0571033129 0.3040981002 0.0745145351 -0.4206333862 0.0743763333 -0.42081789 -0.0510558414 0.2929103343
655296070.0 -0.0539903648 0.3047847469 0.069781661 -0.421717703 0.0698997506 -0.4215598736 -0.0477309172 0.2938545732
660296040.0 -0.0511149616 0.3050694376 0.0655760436 -0.4220891368 0.0653028176 -0.4226140067 -0.0441379764 0.2948443141
665296010.0 -0.0473551644 0.3057213414 0.0604600228 -0.4234144281 0.060306299 -0.4230102058 -0.0410313157 0.2956145458
670295980.0 -0.0449005709 0.3067107606 0.0560747746 -0.4234407471 0.0561422266 -0.4236288636 -0.0382867746 0.2960164077
675295950.0 -0.0413085566 0.3071234194 0.0514220468 -0.4239975677 0.0515079304 -0.4236600303 -0.0352471246 0.2969568864
680295920.0 -0.0381040016 0.3076962805 0.0468996168 -0.424188231 0.0465114058 -0.4247972646 -0.0320567971 0.2978851897
685295890.0 -0.0346074216 0.309090344 0.0421542271 -0.4257055939 0.04213107 -0.4252017563 -0.0288570532 0.2981494534
690295860.0 -0.031394078 0.3088041587 0.0377050283 -0.4250698114 0.0373598537 -0.4258292666 -0.025714011 0.2991280708
695295830.0 -0.0285892442 0.3093966701 0.0329995469 -0.4254761882 0.0328447681 -0.4256409179 -0.0226140649 0.2992458069
700295800.0 -0.0249732761 0.3092847132 0.0281639205 -0.425751141 0.0281988158 -0.4260010039 -0.0195953569 0.3000030598
705295770.0 -0.0219497166 0.3105158332 0.0236911451 -0.4267001041 0.0240725509 -0.4264797938 -0.0164811167 0.3003079408
710295740.0 -0.0184837906 0.3105937643 0.0192182166 -0.4269477112 0.0192242906 -0.4267602568 -0.0135089744 0.300150681
715295710.0 -0.0157148225 0.3107143061 0.0150625572 -0.426878058 0.0145308762 -0.4268551753 -0.0099089669 0.3007053337
720295680.0 -0.0122596509 0.3112799672 0.0100611005 -0.4270005588 0.0100467131 -0.4269985403 -0.0068202614 0.3013771463
725295650.0 -0.0086162271 0.31145584 0.0052326346 -0.4272355208 0.0054679606 -0.4272090414 -0.0041579134 0.3017340577
730295620.0 -0.0055180769 0.3116418737 0.000828171 -0.4262890024 0.0006660012 -0.4270966398 -0.0010980464 0.3016189242
735295590.0 -0.0025380577 0.3121509438 -0.0038936093 -0.4271751324 -0.0040075844 -0.426605089 0.0021583122 0.3016569432
740295560.0 0.0010795946 0.3124190089 -0.0086193634 -0.4267124626 -0.0084567252 -0.4267555926 0.0057818881 0.3019271491
745295530.0 0.0040927963 0.3125000809 -0.0132432457 -0.4262540529 -0.0132356086 -0.4263345346 0.0089808903 0.3015582136
750295500.0 0.0078056366 0.3122239977 -0.0179479055 -0.4263483809 -0.0175903071 -0.4262072543 0.0115639011 0.3018334819
755295470.0 0.011079692 0.3121562102 -0.0222646277 -0.4260532597 -0.0225062655 -0.4261048055 0.0150934152 0.3012970884
760295440.0 0.0135566277 0.3122195067 -0.0268646891 -0.4259906095 -0.0271825708 -0.4258467744 0.0178833731 0.3015533173
765295410.0 0.0172882303 0.3123991713 -0.0317235799 -0.4254418342 -0.031740784 -0.4255410549 0.0212099032 0.3017744932
770295380.0 0.0204440491 0.3121553257 -0.0365749304 -0.4251115218 -0.0366600643 -0.4248509467 0.0243573266 0.3015292493
775295350.0 0.0233734317 0.3119602221 -0.0409952383 -0.4241911593 -0.0407853318 -0.4244138214 0.0270430382 0.3013242248
780295320.0 0.0270118431 0.3120213568 -0.0459224926 -0.4236776474 -0.0451311001 -0.4239293267 0.0304146099 0.3009101089
785295290.0 0.0299423206 0.3112393791 -0.0504257721 -0.4229331397 -0.0498585081 -0.4232989116 0.0340566477 0.3006711299
790295260.0 0.0336357883 0.311607483 -0.0541080097 -0.4229467032 -0.0540197479 -0.4225999502 0.0371735428 0.3005434811
795295230.0 0.0365126018 0.3111050831 -0.0589196458 -0.4219797839 -0.0588543186 -0.4223047744 0.0404574438 0.3000978501
800295200.0 0.0397364146 0.3108670268 -0.0639828597 -0.4212616688 -0.0636056446 -0.4211653011 0.043704543 0.2998303936
805295170.0 0.0432450711 0.3107081637 -0.0681905556 -0.4206412736 -0.0684035453 -0.4209822483 0.046351557 0.2996851734
810295140.0 0.0462875294 0.3098601261 -0.0725246243 -0.4197121843 -0.0727072738 -0.4199663061 0.0500784037 0.2992758215
815295110.0 0.0495410794 0.3097811356 -0.0773998585 -0.4188810388 -0.0769710989 -0.4188600441 0.0533651319 0.2986116609
820295080.0 0.0527244024 0.3096816241 -0.0815800535 -0.4178597092 -0.0812106988 -0.4185500274 0.0562833638 0.2987519793
825295050.0 0.0563454618 0.3088657238 -0.0860546184 -0.416868139 -0.0860079828 -0.4169358065 0.0595196572 0.2982116328
830295020.0 0.0593023373 0.3087008038 -0.0909908472 -0.4161581463 -0.0909266967 -0.4161286318 0.0634167397 0.2976378683
