!Created with skrf (http://scikit-rf.org).
# Hz S RI R 50.0 
!freq ReS11 ImS11 ReS21 ImS21 ReS12 ImS12 ReS22 ImS22
300000.0 -0.7721697786 -0.1867940534 6.98971e-05 7.70396e-05 -0.000711111 0.0003987528 0.859729276 -0.0023045535
5299970.0 -0.7862509576 -0.0094507885 0.0002317457 0.000129575 -0.0002095794 -0.0001196179 0.8597945663 -0.0101964222
10299940.0 -0.7892320089 -0.0061315532 -0.0001173567 8.04905e-05 -1.10734e-05 4.34197e-05 0.8583821429 -0.0194518201
15299910.0 -0.7943395179 -0.0034989139 -6.30148e-05 -4.62992e-05 5.67037e-05 -8.31248e-05 0.857184872 -0.0278929174
20299880.0 -0.8013496451 0.0006123436 -4.14123e-05 -6.20977e-05 -0.0001306909 4.4341e-05 0.8560768698 -0.0360446222
25299850.0 -0.8077621787 0.0066531668 6.96744e-05 6.55968e-05 7.745e-07 4.33976e-05 0.8557264595 -0.0438316037
30299820.0 -0.8139705256 0.0142045384 -0.0001445356 0.0001536077 2.18471e-05 -1.4166e-06 0.8551033202 -0.0525577541
35299790.0 -0.8186172914 0.0229770967 -7.72651e-05 0.0001349324 8.39301e-05 -0.0001646489 0.8544801895 -0.0613277174
40299760.0 -0.8233553668 0.0319828407 3.79529e-05 7.97964e-05 0.0001194744 -1.23843e-05 0.8540374299 -0.0684594964
45299730.0 -0.8268157234 0.0419479724 -0.0002106689 -0.0001201244 -1.20738e-05 -4.49134e-05 0.8527123617 -0.077335658
50299700.0 -0.8293912282 0.051877707 -5.58221e-05 -0.0001166582 -0.0001035478 -4.12051e-05 0.85264871 -0.0857524607
55299670.0 -0.8313831785 0.0611282642 -3.6697e-05 -6.49704e-05 -2.0585e-05 6.27127e-05 0.8508977542 -0.09342438
60299640.0 -0.8325488285 0.0720049153 0.0001364392 -1.8151e-06 -5.02258e-05 -7.36369e-05 0.8499620837 -0.1023797732
65299610.0 -0.8336077325 0.0814013354 4.73266e-05 -2.36938e-05 0.0001139828 -4.35459e-05 0.8489943208 -0.1107330211
70299580.0 -0.8337577939 0.0917141001 0.0001146979 -0.0001191338 1.49453e-05 -5.07469e-05 0.8478070053 -0.1187449631
75299550.0 -0.833886014 0.1019736477 9.9383e-06 -7.36785e-05 -1.56672e-05 5.997e-06 0.8460871852 -0.1268392949
80299520.0 -0.8339124874 0.1126743694 -4.0801e-06 0.0001244311 -1.5592e-06 -2.55865e-05 0.8450188225 -0.1354662767
85299490.0 -0.8325622201 0.1213146916 2.14152e-05 -0.0001986202 -1.4922e-05 -0.0001558639 0.8438471188 -0.1432053579
90299460.0 -0.8323813229 0.1315407142 0.0002105725 1.5687e-06 7.91659e-05 0.0001088108 0.8427184476 -0.1511903448
95299430.0 -0.8315414104 0.1403442286 -8.86638e-05 4.035e-06 5.1414e-06 -0.0001569859 0.8403369418 -0.1601863702
100299400.0 -0.8303262102 0.1495368469 0.0001875695 3.91283e-05 0.0001165073 -2.41831e-05 0.8392238111 -0.1678862789
105299370.0 -0.8288389662 0.159223672 -4.67222e-05 0.0001338562 4.69925e-05 -2.1115e-05 0.8371631798 -0.1762337108
110299340.0 -0.8272138422 0.1682627378 3.81305e-05 0.000152741 0.0001388092 8.45088e-05 0.8354059692 -0.1847381742
115299310.0 -0.8256622545 0.1777878284 -8.47824e-05 -3.92915e-05 -0.000164859 3.28828e-05 0.8332291784 -0.1926558066
120299280.0 -0.8246783039 0.186894796 -0.0001713303 -1.77805e-05 2.72082e-05 4.9086e-05 0.8313783442 -0.2010581635
125299250.0 -0.8226853587 0.1953845718 2.68162e-05 0.0002244641 -8.96845e-05 5.29902e-05 0.8295789219 -0.2088295452
130299220.0 -0.8213711399 0.2049040404 -0.000105068 -4.24477e-05 0.0002438926 -9.46719e-05 0.8279179539 -0.216491201
135299190.0 -0.818890449 0.2142955187 -0.0001786553 -0.000130884 -2.35927e-05 0.0001211107 0.8256939306 -0.2247682538
140299160.0 -0.8169873082 0.2234492265 3.5522e-06 0.0001485347 -0.0001168278 -2.22071e-05 0.8232502693 -0.2332768533
145299130.0 -0.8148369959 0.2322128525 0.0001369009 5.19686e-05 -1.33892e-05 4.68893e-05 0.8204453581 -0.2411337711
150299100.0 -0.8120251346 0.2410645589 7.02858e-05 -3.01754e-05 6.09548e-05 5.81807e-05 0.8184403474 -0.2488177759
155299070.0 -0.8101766211 0.2502167626 0.000166531 -0.0001653018 7.48281e-05 6.76003e-05 0.8159364303 -0.2575385544
160299040.0 -0.8075631337 0.2592061228 0.0001011116 -2.63924e-05 -8.65516e-05 0.0001427272 0.8133543408 -0.2651511554
165299010.0 -0.8043627117 0.2674827994 0.0002170874 -0.00013577 0.0001189965 -0.0001465613 0.8109025525 -0.2729376657
170298980.0 -0.8021404058 0.2763888711 -0.0001798153 4.91277e-05 8.8807e-06 9.13328e-05 0.8076177164 -0.2812698672
175298950.0 -0.7992297151 0.2842773372 -0.0001364154 -0.0001205475 -0.0001059149 9.69264e-05 0.8048683107 -0.2887956748
180298920.0 -0.7959528297 0.2936562222 -4.99454e-05 -5.30343e-05 3.86488e-05 -0.0001017596 0.8020919565 -0.2967135592
185298890.0 -0.7926387985 0.301751848 -0.0001464188 -0.0001976361 0.0001777414 4.98058e-05 0.7988719564 -0.3047878442
190298860.0 -0.7896385844 0.3108222103 6.32459e-05 0.0001318946 0.0001211225 -0.0001914184 0.7959764411 -0.3124768473
195298830.0 -0.7864531404 0.3189688644 -8.12169e-05 0.0002104705 -0.0001735416 1.67618e-05 0.7930950773 -0.3203949069
200298800.0 -0.7825640021 0.3280376889 2.01131e-05 0.0001399972 -6.01607e-05 -0.0001398859 0.7895136597 -0.3275404167
205298770.0 -0.7791968009 0.3359779621 0.0002180121 -4.14858e-05 -0.0001273401 -4.37243e-05 0.7868629615 -0.3360514833
210298740.0 -0.776010008 0.3449379945 0.0001644844 -2.74652e-05 -8.38516e-05 0.0001138723 0.7835093057 -0.3432316286
215298710.0 -0.7721621025 0.353420158 9.47664e-05 0.0001871426 2.57887e-05 -0.0001337933 0.7795028343 -0.3512702163
220298680.0 -0.7689135265 0.3607530518 -0.0001134762 6.11696e-05 -1.15687e-05 -0.0001228095 0.7760708558 -0.358410079
225298650.0 -0.7646403233 0.3693066398 -0.000217406 -0.0001624872 -5.61886e-05 0.000265416 0.7719081037 -0.3663638503
230298620.0 -0.7609875829 0.3776099161 -2.64374e-05 4.19658e-05 4.91089e-05 -0.000167534 0.7692807638 -0.3734680934
235298590.0 -0.7571995264 0.3861005622 4.42443e-05 0.0001467441 -0.0001098401 -6.8774e-06 0.7651229459 -0.3807734817
240298560.0 -0.7527206066 0.3933881292 -3.18073e-05 6.98678e-05 5.67357e-05 -6.7445e-06 0.7614282158 -0.3885488532
245298530.0 -0.748908226 0.4016147163 0.0001781308 -3.07664e-05 0.0001296376 -6.19312e-05 0.7575598361 -0.3955881175
250298500.0 -0.7448427917 0.4094867913 -0.0001176868 0.0001007627 3.34755e-05 1.29837e-05 0.7531249457 -0.4030423886
255298470.0 -0.7404668359 0.4172094458 7.1861e-05 7.4463e-05 0.0001195664 6.51582e-05 0.7496964542 -0.4107047477
260298440.0 -0.7364050797 0.4248918065 -0.000134164 0.0001271624 9.46773e-05 0.0001594019 0.745373907 -0.4177649686
265298410.0 -0.7318189614 0.4321743837 -5.6173e-06 -9.58883e-05 -0.0001936851 -0.0001206008 0.741633921 -0.4251395876
270298380.0 -0.7273025051 0.4402004769 0.0001064848 6.20517e-05 -0.0002067268 1.96739e-05 0.7377255611 -0.4320604371
275298350.0 -0.7232011366 0.4483870227 -7.15787e-05 -0.0001386397 -2.4332e-06 -6.38969e-05 0.7328857399 -0.4396046756
280298320.0 -0.7184908308 0.4554841177 -0.0001102537 -9.06191e-05 -0.0001587501 1.80353e-05 0.7286821986 -0.4461690324
285298290.0 -0.7132748944 0.462923369 -0.0002758742 -7.34829e-05 6.97628e-05 -9.35726e-05 0.7245471668 -0.4539872442
290298260.0 -0.7085968094 0.4704761713 -5.12512e-05 2.48597e-05 -0.0002282315 6.63937e-05 0.7203122459 -0.4607146043
295298230.0 -0.7042039 0.4781479248 -4.55771e-05 6.27109e-05 -8.183e-05 3.89064e-05 0.7163534772 -0.4675545141
300298200.0 -0.699580775 0.4856673484 -4.06621e-05 0.0002086898 0.000109572 -3.3337e-06 0.7113307929 -0.4749632771
305298170.0 -0.6945156893 0.4922746124 -9.8058e-06 -0.0001519748 -0.0001370965 -9.59662e-05 0.7063870421 -0.48182067
310298140.0 -0.6889678771 0.4994876431 0.0002058966 -0.0001421882 -0.0001437192 6.11919e-05 0.7023621593 -0.4889021361
315298110.0 -0.6849671126 0.5067361149 -0.0001041569 -4.28086e-05 -4.22826e-05 -1.81755e-05 0.6975825473 -0.4963658621
320298080.0 -0.6788702415 0.5141528919 5.95468e-05 4.1657e-05 -6.262e-05 0.0001610482 0.6926776808 -0.5041017952
325298050.0 -0.6737801572 0.520499238 0.0002610926 2.09867e-05 0.0001303001 0.0001056186 0.6878814408 -0.5116386701
330298020.0 -0.6682056642 0.5274434198 2.35093e-05 -4.62904e-05 -0.000232357 -0.0001271199 0.6818916249 -0.51905965
335297990.0 -0.6631290042 0.5345259008 -0.0003214473 -5.34876e-05 -3.44771e-05 2.80524e-05 0.6758928888 -0.5257128616
340297960.0 -0.6577765821 0.5414900658 -3.2248e-05 -3.10828e-05 0.0001488157 4.82295e-05 0.6703459425 -0.5320271815
345297930.0 -0.6519255907 0.5479523144 8.61345e-05 0.000166029 -3.89024e-05 2.37024e-05 0.6644861873 -0.5384072629
350297900.0 -0.6466065101 0.5549799579 0.0001074162 -4.04388e-05 -8.38155e-05 -3.04222e-05 0.6587067063 -0.544845552
355297870.0 -0.6408921441 0.5618391619 0.0001384245 -6.1561e-06 0.0001019069 6.3868e-06 0.6532019008 -0.551290359
360297840.0 -0.6349636171 0.5677727669 -5.59469e-05 2.99202e-05 -0.0001902539 -5.18317e-05 0.6470625644 -0.5570913242
365297810.0 -0.6295072344 0.574783119 -0.0001241058 0.0001454355 -0.0001488794 -0.0001070514 0.6419348395 -0.5635649795
370297780.0 -0.6236325039 0.5806643173 2.00817e-05 0.0001046083 -0.0001198644 0.0002898755 0.6356142153 -0.5693051418
375297750.0 -0.6178694996 0.5871760247 3.33079e-05 3.87568e-05 -3.65104e-05 -0.000161034 0.6303677767 -0.5760777933
380297720.0 -0.611838791 0.5931778511 -6.6686e-05 -5.26196e-05 -7.58391e-05 1.07583e-05 0.6248373439 -0.5808513107
385297690.0 -0.6063051271 0.5989992403 -0.000283172 -4.81531e-05 -0.0001975971 0.0001438728 0.6185500951 -0.5873801445
390297660.0 -0.598175507 0.605216178 1.97554e-05 0.0002404605 -1.5593e-06 0.0001408304 0.6124085931 -0.5932247316
395297630.0 -0.5933102075 0.612009723 6.36759e-05 -0.0002030693 8.2711e-06 3.21043e-05 0.6067969809 -0.5990922434
400297600.0 -0.5866270266 0.6185086963 -0.0001618829 -0.0001632655 -9.011e-05 5.35398e-05 0.6007621638 -0.6046658714
405297570.0 -0.580760069 0.6230252598 4.25345e-05 -6.52306e-05 -8.05944e-05 -3.26148e-05 0.5944497722 -0.6107130966
410297540.0 -0.5738419659 0.6294310201 -0.0002409721 -8.79185e-05 1.82432e-05 0.0001636495 0.588320895 -0.6165440199
415297510.0 -0.5678855231 0.635559712 0.0002497236 -0.0001448889 3.17786e-05 0.0001136121 0.5823313724 -0.6220010433
420297480.0 -0.5610905979 0.6412541381 4.73058e-05 -0.0001068581 -0.000293843 6.76242e-05 0.5767010518 -0.6265969886
425297450.0 -0.5549719943 0.6464530947 1.63249e-05 -0.0001215775 -4.00323e-05 3.9985e-05 0.5706681839 -0.6335643209
430297420.0 -0.5476272374 0.6520458586 -5.40147e-05 0.0001658704 7.43282e-05 -6.38937e-05 0.5635843457 -0.6391745962
435297390.0 -0.5412578451 0.6573069154 7.5382e-05 4.85432e-05 6.00199e-05 0.0001754551 0.5569758073 -0.6446752501
440297360.0 -0.5341988714 0.6630693499 0.0002060562 -0.0001411529 0.000246667 7.96565e-05 0.5511161988 -0.6493520252
445297330.0 -0.5276458067 0.6678149973 -0.0001958468 1.22255e-05 0.0001006599 0.0001608382 0.5441940791 -0.6543445154
450297300.0 -0.5205837128 0.6737034278 4.87562e-05 -1.40139e-05 -0.0001009708 0.000114395 0.5376066852 -0.6596281768
455297270.0 -0.5140271165 0.6783227689 -0.0001624305 -3.46879e-05 7.56e-06 -7.5843e-05 0.5314489902 -0.6648865034
460297240.0 -0.5058980649 0.6837525294 -0.0001009324 -7.61668e-05 0.0001908644 0.0001978526 0.5243118084 -0.6707334104
465297210.0 -0.4996823102 0.6892233545 9.4381e-06 -0.0001290359 5.5105e-05 0.0001052595 0.5178803296 -0.6745315131
470297180.0 -0.4918968146 0.6941717708 -0.0001988835 0.0001216406 -4.29385e-05 0.0001658234 0.5114131079 -0.6799888069
475297150.0 -0.4850578194 0.6986646565 0.0001050015 2.60384e-05 -2.3754e-05 0.0002040203 0.504900129 -0.6849011812
480297120.0 -0.4770514091 0.7038229096 0.0001010538 0.0003219413 8.43333e-05 -0.0001010098 0.497389958 -0.6902735331
485297090.0 -0.4698774687 0.708654384 3.37897e-05 -9.5043e-05 -6.16355e-05 -0.0001213977 0.4910779306 -0.6954341983
490297060.0 -0.4624033877 0.7139536233 3.79469e-05 2.84724e-05 5.47602e-05 0.0001540839 0.4837020147 -0.6994059234
495297030.0 -0.4546721423 0.7180192945 0.0002732169 2.98182e-05 -4.73121e-05 -9.18843e-05 0.4768982974 -0.7041159973
500297000.0 -0.4473996213 0.7219687424 -0.0002023654 0.0001287523 0.0001429915 -0.0001908711 0.4701742034 -0.7083820349
505296970.0 -0.439601301 0.7274377593 2.5694e-06 0.0001005078 0.0001458872 8.77072e-05 0.4623579944 -0.7131159015
510296940.0 -0.4317262824 0.7315120033 4.97984e-05 -6.85311e-05 -5.96662e-05 -1.5732e-06 0.4551990177 -0.7174960163
515296910.0 -0.4244197931 0.7357784117 5.01694e-05 -0.0001419248 -0.0002248742 -0.0002039955 0.4482655134 -0.7222324158
520296880.0 -0.4165661709 0.7400746622 -1.40731e-05 -0.0001666208 7.60234e-05 -1.24677e-05 0.4415756823 -0.7263562201
525296850.0 -0.4087257967 0.7439953857 0.0002578277 -2.27711e-05 -3.7798e-06 4.81586e-05 0.434137216 -0.7304976412
530296820.0 -0.4012677169 0.7478419101 -0.0001149449 -8.7531e-06 4.16558e-05 -6.81935e-05 0.4268770349 -0.7349105021
535296790.0 -0.392849848 0.7519166664 3.71223e-05 -4.65417e-05 -0.0001785891 -1.8526e-06 0.4200480835 -0.7385181954
540296760.0 -0.3851855224 0.7562059764 6.00739e-05 -2.54666e-05 1.4518e-06 -0.0001624869 0.4124617575 -0.7428953079
545296730.0 -0.3779154232 0.7601383896 -8.45261e-05 7.05728e-05 -5.4528e-05 -0.0001031463 0.4047888328 -0.7471918981
550296700.0 -0.3690532899 0.7642421618 2.87906e-05 -5.2223e-06 -8.73618e-05 -0.0002435443 0.3970575142 -0.7505654877
555296670.0 -0.3614785634 0.7674603785 -1.63183e-05 -0.0003463728 -6.8871e-06 2.48782e-05 0.3899734409 -0.7545582546
560296640.0 -0.3529911598 0.7709828687 0.0003596924 0.000223551 -9.15142e-05 -3.46106e-05 0.3824102052 -0.7582456946
565296610.0 -0.3459704009 0.7744035585 -1.51697e-05 -0.0002383708 -0.0001247274 5.94187e-05 0.3748056815 -0.7615227849
570296580.0 -0.3369756515 0.7775628281 2.5458e-05 -0.0001943075 -8.59986e-05 -0.0001143749 0.3668653206 -0.7658699597
575296550.0 -0.3282972028 0.7812192417 6.96806e-05 -0.0001001043 4.92289e-05 -4.18583e-05 0.359617652 -0.7692232958
580296520.0 -0.3214459611 0.7845008198 2.56172e-05 -0.000140278 -7.29023e-05 -8.771e-06 0.3515612509 -0.7723087607
585296490.0 -0.3125069657 0.7874435725 -1.18152e-05 0.0002118199 9.20155e-05 0.0001334706 0.3443582052 -0.7749897404
590296460.0 -0.3043017033 0.7905509356 0.0002837857 0.000107746 -3.64672e-05 -0.000113957 0.33536305 -0.7787883767
595296430.0 -0.2959764718 0.793249792 -3.02653e-05 -0.0001830386 6.22004e-05 -8.57966e-05 0.3286756611 -0.7816710607
600296400.0 -0.2881983377 0.7968749561 5.61979e-05 -0.0001089337 -1.90379e-05 0.0001825326 0.3210195823 -0.7852474178
605296370.0 -0.2802138939 0.7992678739 -0.0001193848 -8.4768e-05 0.0002141313 -7.06315e-05 0.313225536 -0.7883247389
610296340.0 -0.2715853965 0.8030481387 -0.0002510128 9.26345e-05 -0.0001342904 -0.0002467487 0.3045046711 -0.7911210757
615296310.0 -0.2627647555 0.8057077057 -0.0001139406 0.0001004792 -0.0001671889 0.0001295748 0.296971012 -0.7941206644
620296280.0 -0.2556283472 0.8080761503 -3.44319e-05 0.0003246406 0.0001987249 -4.76076e-05 0.2890937449 -0.7966386102
625296250.0 -0.2472389456 0.8101573415 0.0001230421 9.93772e-05 -2.3119e-05 -0.0001282182 0.2807038293 -0.8001019827
630296220.0 -0.2388764733 0.8131457505 0.000184001 -0.0001941094 -5.77967e-05 -3.81532e-05 0.2732571716 -0.8022370333
635296190.0 -0.2304680385 0.8154793853 -0.0001341083 0.000186724 -0.0001995618 -8.23575e-05 0.2651573421 -0.8041585394
640296160.0 -0.221418355 0.8178045285 6.95616e-05 0.000135852 2.67005e-05 -0.0002121546 0.257386478 -0.8066597359
645296130.0 -0.2137287367 0.8202435103 -0.0002184302 -0.0002080202 6.98124e-05 0.0001286676 0.2485615095 -0.8096192342
650296100.0 -0.2057685412 0.8218925242 -0.0001599775 9.19076e-05 -0.0001435819 -0.0001130469 0.240729272 -0.8111271293
655296070.0 -0.1976757489 0.824563316 -0.0001196802 2.11912e-05 8.5835e-06 -0.0001096202 0.2329168507 -0.8145133996
660296040.0 -0.1896018843 0.8264275393 0.0002004848 0.0003506574 0.000247529 5.68607e-05 0.2248974876 -0.8162469127
665296010.0 -0.1810071494 0.8282399049 6.29189e-05 0.0001184716 0.0002315712 -0.000190912 0.2174583925 -0.8179489433
670295980.0 -0.1729202076 0.8311244375 4.01448e-05 -4.2506e-06 6.98034e-05 0.0001062543 0.2083325777 -0.8202665193
675295950.0 -0.1640942455 0.8317747584 0.0001574867 9.1961e-05 -9.07275e-05 4.92676e-05 0.2003283378 -0.8221859366
680295920.0 -0.1564135915 0.8339363185 7.72969e-05 -0.0001382755 -0.0001031882 8.1701e-06 0.1922601484 -0.8241122328
685295890.0 -0.1478089097 0.835499277 5.03835e-05 8.28559e-05 -0.0001883643 -2.67222e-05 0.1839865167 -0.8253707665
690295860.0 -0.1394210445 0.8373366999 2.87224e-05 0.0002650481 -0.0001315328 -3.47311e-05 0.1757698405 -0.8278926044
695295830.0 -0.1305155669 0.8387269527 5.59575e-05 4.10577e-05 -0.0001603731 -2.82072e-05 0.1672479532 -0.8285698433
700295800.0 -0.1224234937 0.840207699 3.52503e-05 -8.02637e-05 3.22923e-05 1.66376e-05 0.1591044508 -0.8305778437
705295770.0 -0.1146632042 0.8415851043 7.44598e-05 -0.0001045584 -8.13758e-05 -4.31841e-05 0.1509130806 -0.8313960352
710295740.0 -0.1065274503 0.8419056838 6.79553e-05 -6.88781e-05 -6.96511e-05 1.6923e-06 0.1426597935 -0.8325994968
715295710.0 -0.0980640613 0.8432726122 2.0808e-05 -0.0002428278 -0.0001005164 0.0001673574 0.1347162833 -0.8343529557
720295680.0 -0.0891886617 0.8441861628 0.0001116822 -3.26839e-05 1.72121e-05 8.714e-05 0.1260792252 -0.8350173457
725295650.0 -0.0814282146 0.8458939059 -0.0002099677 -9.69464e-05 0.0001438808 7.55424e-05 0.1176940854 -0.8361406731
730295620.0 -0.0736208581 0.846577951 0.0001810948 -0.0002752908 -7.76863e-05 -0.0002700987 0.1092876767 -0.8372499055
735295590.0 -0.0654437576 0.8475967958 1.3093e-05 2.52564e-05 -9.8916e-05 0.000141602 0.1012087654 -0.8380845274
740295560.0 -0.0574568254 0.8475123754 0.0001349934 -6.52549e-05 -0.0002425321 0.0001241818 0.0926921115 -0.8388076361
745295530.0 -0.0489595455 0.8489148809 7.53061e-05 0.0002209256 -4.87394e-05 -0.0001012541 0.0836779065 -0.8395934387
750295500.0 -0.0408724769 0.8492514672 -4.41606e-05 -0.0001587459 -6.45417e-05 -0.0001381229 0.0752284434 -0.8406336741
755295470.0 -0.0324570587 0.8496627415 -1.76638e-05 2.57397e-05 -1.85555e-05 8.5617e-05 0.0673009854 -0.8405750687
760295440.0 -0.0242477941 0.8506509338 -0.0001339447 0.0001771958 -0.0001065611 -9.97413e-05 0.0591766839 -0.8414518772
765295410.0 -0.0159767053 0.851065026 -0.0002218688 0.0001055171 -0.000136613 3.67981e-05 0.0504951772 -0.841570443
770295380.0 -0.0083908662 0.851305104 -3.6359e-06 -6.87515e-05 0.0001207754 -2.30446e-05 0.0425167816 -0.8419748082
775295350.0 -8.28482e-05 0.8515454686 0.0001157707 8.42349e-05 0.0001876591 1.3196e-06 0.0345544977 -0.8423984422
780295320.0 0.0091968022 0.8516269859 1.5672e-06 -0.0001283856 -0.0002196929 4.3744e-06 0.0256267025 -0.8426370408
785295290.0 0.016920708 0.8512694151 -9.73924e-05 -0.0002765103 -0.000188924 -9.14728e-05 0.0166472674 -0.8424622923
790295260.0 0.0249123706 0.8507500378 0.0001258341 -0.0003164668 -0.0001068198 5.06416e-05 0.009224879 -0.8417633025
795295230.0 0.0332404609 0.8505874696 -4.25985e-05 -1.89393e-05 -7.39805e-05 -5.20829e-05 -0.0002293867 -0.8430536269
800295200.0 0.0411039797 0.8506532881 -0.0001547243 4.09736e-05 -2.33509e-05 7.18774e-05 -0.0083049306 -0.8423335692
805295170.0 0.0489804092 0.8506410683 0.0002235991 0.0001482382 1.59601e-05 1.58747e-05 -0.015971224 -0.8423673463
810295140.0 0.0575199108 0.8504426511 -0.000167581 7.42725e-05 -0.0001498843 0.0002848934 -0.0248740042 -0.8414231219
815295110.0 0.065110424 0.8498997652 -8.9927e-05 3.6763e-05 -5.3742e-06 0.0001766969 -0.0337521988 -0.8411241173
820295080.0 0.0736012133 0.8488234646 -0.0002680373 -2.585e-06 0.0001456531 0.0001428835 -0.042291428 -0.840089453
825295050.0 0.0817989159 0.8479514639 5.86964e-05 0.0001263686 -9.38291e-05 0.0001682803 -0.0504710004 -0.8400879416
830295020.0 0.0907458765 0.8476658804 0.0001166198 -5.76427e-05 -0.0001512392 -0.000266248 -0.0590993859 -0.839445339
835294990.0 0.0979967822 0.846529378 0.0001372243 -5.90427e-05 -3.59617e-05 -0.0001415945 -0.0665620699 -0.8384539899
840294960.0 0.1070093181 0.8459480793 1.87315e-05 6.58774e-05 0.0001514321 -0.0001857986 -0.0754294322 -0.8376031504
845294930.0 0.1145240006 0.8448028889 3.49133e-05 6.21239e-05 0.000143324 0.0003309367 -0.0837091852 -0.8360341032
