!Created with skrf (http://scikit-rf.org).
# Hz S RI R 50.0 
!freq ReS11 ImS11 ReS21 ImS21 ReS12 ImS12 ReS22 ImS22
300000.0 -0.2120319971 -0.0562252412 -0.0011277802 0.0021661529 0.0008647307 0.0014019247 -0.7793773866 -0.1264613221
5299970.0 -0.2167324296 0.0085326615 -0.0003018615 9.112e-06 0.0002794321 -0.0001116244 -0.7847242824 -0.0070503818
10299940.0 -0.2133735284 0.0194772067 5.09727e-05 -3.11111e-05 0.0001210378 1.59429e-05 -0.7872751028 -0.0034588808
15299910.0 -0.2087103315 0.0285450137 -8.22602e-05 -8.4055e-06 -0.0001597902 -7.30421e-05 -0.7930335861 -0.0013407019
20299880.0 -0.2034470782 0.035959412 -2.659e-06 0.0001163432 7.93627e-05 9.69268e-05 -0.7996504122 0.002002525
25299850.0 -0.1976556136 0.0422238908 0.0001293535 0.0001944209 -5.08152e-05 5.84182e-05 -0.8059633447 0.0082590445
30299820.0 -0.191980085 0.0468067467 0.0002323574 -7.4387e-06 2.44761e-05 0.0001220587 -0.812221477 0.0161714682
35299790.0 -0.1864341943 0.0507789275 1.65482e-05 0.0001035923 8.89596e-05 -6.95582e-05 -0.8172628795 0.0256510901
40299760.0 -0.1805967842 0.053569471 -7.54203e-05 0.0001630412 -4.70255e-05 -5.69417e-05 -0.8208765918 0.0346997706
45299730.0 -0.1752879516 0.0553466967 6.4051e-05 -0.0001278317 -5.4223e-06 -0.0001886348 -0.8252365236 0.0435969793
50299700.0 -0.1709039377 0.0569679106 8.16836e-05 1.54695e-05 -9.88292e-05 0.0001391123 -0.8275627451 0.0540519669
55299670.0 -0.1666319555 0.0581060455 7.377e-07 2.22815e-05 -8.67524e-05 -9.97946e-05 -0.8293202665 0.0644811753
60299640.0 -0.162265135 0.058889797 -0.0002414494 -2.93012e-05 -1.16066e-05 1.8601e-06 -0.8305704291 0.0745068147
65299610.0 -0.1590284363 0.0593118909 0.0001108562 1.35426e-05 0.0001863498 0.0001095707 -0.8317589856 0.0843128657
70299580.0 -0.1556541166 0.059992024 9.29785e-05 -5.12592e-05 -8.399e-05 -7.91596e-05 -0.8320689357 0.0944362085
75299550.0 -0.1525387798 0.0601155048 -6.16739e-05 -7.6323e-06 -5.85621e-05 1.6572e-05 -0.8325081915 0.1044552697
80299520.0 -0.1501682084 0.0601491366 -0.0001416939 0.0001674493 -2.538e-05 7.47296e-05 -0.8322478009 0.1139275743
85299490.0 -0.1479368725 0.0598404319 -0.0002634703 9.55357e-05 -6.22607e-05 1.39472e-05 -0.8316738774 0.1237738133
90299460.0 -0.1455471744 0.0601956147 -0.0001522464 -1.36668e-05 7.09608e-05 0.0001064613 -0.8311337649 0.1333931615
95299430.0 -0.143293208 0.0597806068 0.0001558171 0.000263812 1.22285e-05 1.29552e-05 -0.8293737423 0.1428164815
100299400.0 -0.1419816809 0.0599202844 0.0001610021 -3.80826e-05 0.0001493395 6.90935e-05 -0.8287718475 0.1523701446
105299370.0 -0.1400417577 0.0600101273 -8.46717e-05 6.22483e-05 -8.15892e-05 -8.714e-06 -0.826816698 0.1610159388
110299340.0 -0.1386940172 0.0597955793 -8.14736e-05 -0.0001793719 3.11046e-05 -1.42672e-05 -0.825809891 0.170882196
115299310.0 -0.136931876 0.0599341503 0.0001501333 -0.0001129875 -6.3679e-06 5.28482e-05 -0.8240386051 0.1795139226
120299280.0 -0.1359875211 0.0594419477 -3.71589e-05 -8.41066e-05 -3.78535e-05 3.2818e-06 -0.8222681215 0.1890044989
125299250.0 -0.135025971 0.0598631189 -1.01492e-05 -0.0001074618 0.0001702049 0.0001575963 -0.821284918 0.1981996702
130299220.0 -0.13422799 0.0603640168 2.13364e-05 -1.84971e-05 4.46273e-05 -0.0002632127 -0.8189599697 0.2067913842
135299190.0 -0.1332390424 0.0605559857 -8.20932e-05 8.16534e-05 0.0002172419 -0.0001968268 -0.816231222 0.2160094303
140299160.0 -0.1325447473 0.0607428924 9.27845e-05 2.47104e-05 0.0001164978 0.0001322422 -0.8142836588 0.2252169575
145299130.0 -0.1316143509 0.0610890792 -3.622e-06 2.86876e-05 0.0002192932 0.000234254 -0.8125779775 0.2337131914
150299100.0 -0.1307177892 0.061403061 0.000240304 0.0004876398 0.0002300231 9.26141e-05 -0.8104359591 0.2430598184
155299070.0 -0.1302551834 0.0619087108 -9.12937e-05 -5.19354e-05 7.5372e-05 -8.32065e-05 -0.8071739713 0.2522330295
160299040.0 -0.1296322145 0.0624523081 -5.09286e-05 -1.93026e-05 -6.26544e-05 5.90841e-05 -0.8054947616 0.260732551
165299010.0 -0.1289227122 0.0627962722 -2.8639e-05 -3.9763e-06 0.0003498498 1.96393e-05 -0.8024517993 0.2696982661
170298980.0 -0.1285872574 0.0637224957 6.8258e-05 -0.0001070546 7.42274e-05 0.0001004141 -0.7993262347 0.2782298526
175298950.0 -0.1277180261 0.0637340449 -7.98347e-05 0.0002714329 -3.58851e-05 -4.30878e-05 -0.7966840502 0.2870236203
180298920.0 -0.1273147862 0.0646731295 0.0003099951 0.0001283017 -3.79193e-05 -8.363e-06 -0.793278205 0.2952660973
185298890.0 -0.1267010934 0.0651352966 -9.72277e-05 -0.0002849586 0.0001278656 -3.24051e-05 -0.7900887227 0.3041107485
190298860.0 -0.1261177682 0.0659642728 -1.07657e-05 0.0001037535 9.75949e-05 0.0001338625 -0.787957652 0.312558274
195298830.0 -0.1259904052 0.0664379336 -3.19574e-05 9.36159e-05 9.0278e-06 -0.0001012063 -0.7843440899 0.3212300686
200298800.0 -0.1250439009 0.067319275 -0.0001560907 2.49061e-05 6.49541e-05 -1.55237e-05 -0.7814634331 0.3294367431
205298770.0 -0.1248834516 0.0681383792 -3.96118e-05 0.0001988356 1.62471e-05 2.88861e-05 -0.7773046695 0.3378087846
210298740.0 -0.1243958011 0.0689607 3.88107e-05 -5.29637e-05 0.0001047544 1.9104e-05 -0.7740471685 0.3460708131
215298710.0 -0.1241557477 0.069633897 0.000112316 0.0002063574 -1.97308e-05 -8.26371e-05 -0.771198825 0.3540012221
220298680.0 -0.1236139597 0.0704483464 -5.50026e-05 0.0001397784 0.0001501737 0.000188806 -0.7673740273 0.3624589664
225298650.0 -0.1232674541 0.071287666 0.0001761606 -0.0001195316 0.0001783993 4.7803e-06 -0.7634440939 0.3702089354
230298620.0 -0.1226725216 0.0723255469 6.98383e-05 5.57217e-05 2.48597e-05 0.000198399 -0.7598348781 0.378681581
235298590.0 -0.1220907963 0.0734613226 3.8444e-06 0.0001072895 0.0002749873 0.0001593244 -0.7554923321 0.3874177374
240298560.0 -0.1216175621 0.0739884365 8.96049e-05 2.18767e-05 -5.13916e-05 0.0001278661 -0.7511490866 0.394982056
245298530.0 -0.1213785171 0.0747323942 2.71796e-05 -4.97103e-05 4.8355e-05 -4.0056e-05 -0.7479648081 0.402532765
250298500.0 -0.1208369228 0.0760919501 3.02479e-05 2.62938e-05 8.73274e-05 6.52714e-05 -0.7436823943 0.4101275929
255298470.0 -0.1204213053 0.0765051415 5.07826e-05 9.14504e-05 0.00020645 -0.0001433089 -0.7384166521 0.4182416487
260298440.0 -0.120206092 0.0775498353 6.5026e-05 0.0001649142 3.09382e-05 0.0001269794 -0.7344680768 0.4263537687
265298410.0 -0.1193968614 0.0789588229 1.34841e-05 0.0001021222 8.52608e-05 4.82082e-05 -0.7298302089 0.4337288341
270298380.0 -0.1191316508 0.0796217561 -0.0001019226 0.0001883391 8.71683e-05 3.82212e-05 -0.7253936316 0.4408032499
275298350.0 -0.1183801921 0.0809216078 -0.0001197135 3.12112e-05 4.80211e-05 0.0001466851 -0.7210318005 0.4485113802
280298320.0 -0.1175488149 0.0816325705 0.0001371667 0.0003253416 7.20831e-05 0.0002503366 -0.7157934268 0.4558579465
285298290.0 -0.1171887884 0.08297783 -0.0001408803 0.0003155384 7.67763e-05 8.62201e-05 -0.7108685815 0.4635885549
290298260.0 -0.1165628635 0.0837689706 2.3583e-05 -7.39832e-05 0.0001959284 0.0001409333 -0.7060854831 0.4711460573
295298230.0 -0.116016768 0.0843972083 7.37159e-05 0.0001392245 0.000223009 -8.82283e-05 -0.701019273 0.4783777117
300298200.0 -0.1151462857 0.0859059302 0.0001644609 -1.46565e-05 8.4577e-05 0.0002609463 -0.6957535189 0.4855817314
305298170.0 -0.1145673564 0.0865865531 0.0001445652 3.99463e-05 0.0001646766 5.46869e-05 -0.690324257 0.4929895672
310298140.0 -0.113919792 0.0879513289 0.0002603457 -0.0001860797 -0.0001635385 6.00521e-05 -0.6856625161 0.5000502443
315298110.0 -0.1132588841 0.0887387908 -7.41555e-05 9.77814e-05 0.0001778218 -0.0001982723 -0.6797988624 0.5069737936
320298080.0 -0.1125442858 0.0896231221 -0.0001500243 0.0002152147 -1.48701e-05 0.0001997332 -0.6745303526 0.5146024888
325298050.0 -0.1119949223 0.0904697351 1.17543e-05 0.0003171248 4.08521e-05 -1.03468e-05 -0.6688982518 0.5211004478
330298020.0 -0.1114050345 0.0914438407 0.0004304761 0.0001631051 8.449e-05 0.0002736814 -0.663602929 0.5285457943
335297990.0 -0.1109192178 0.092433135 7.91146e-05 6.56647e-05 0.0001164567 0.0001129927 -0.6582349413 0.5357341164
340297960.0 -0.1107702113 0.0936733005 -0.0001981142 -3.40007e-05 0.0001174273 0.0002000323 -0.6522377355 0.5423842763
345297930.0 -0.1099751247 0.0946716491 8.33684e-05 4.49382e-05 0.0001576198 0.0001974653 -0.6469527366 0.5483921017
350297900.0 -0.1093887115 0.0956934952 0.000204304 0.0001031589 0.0001981474 4.46572e-05 -0.6414906596 0.5553682058
355297870.0 -0.1084952702 0.0969974621 0.0001087015 5.47195e-05 5.57271e-05 8.51959e-05 -0.6359363903 0.5618462252
360297840.0 -0.1078052056 0.0980654874 0.0001149935 0.0001504382 -8.88404e-05 0.0001435699 -0.6297602655 0.5688400503
365297810.0 -0.1070648008 0.0996694824 0.0002444311 3.11073e-05 -1.92548e-05 -4.01028e-05 -0.6230124221 0.5751377635
370297780.0 -0.1063415463 0.1004018047 0.0003833758 -2.59882e-05 0.0001268818 -2.56297e-05 -0.6174379037 0.5823399482
375297750.0 -0.1053698636 0.1015824191 7.89648e-05 6.71479e-05 6.928e-05 0.0001905463 -0.6112918479 0.5876431314
380297720.0 -0.1047060404 0.1024372471 4.66973e-05 7.2995e-06 0.0001312079 -3.2138e-06 -0.6059550172 0.5948998053
385297690.0 -0.1042487345 0.1036408148 0.000304621 0.0001157805 2.09514e-05 3.67636e-05 -0.5992699327 0.6014137902
390297660.0 -0.1034274021 0.1048257786 -2.1451e-06 0.0002499696 0.0001095272 -0.0002476409 -0.5933892564 0.6062365563
395297630.0 -0.1020310903 0.1059426084 0.000188617 0.0001925754 0.0003595201 0.0002269613 -0.586198555 0.613376515
400297600.0 -0.1015522115 0.1072404396 0.0001080162 1.7332e-05 8.2227e-05 -7.28668e-05 -0.5803402944 0.6191622874
405297570.0 -0.1010776638 0.1079721076 1.51324e-05 1.86269e-05 0.0002181024 4.99065e-05 -0.5740158047 0.6247891608
410297540.0 -0.0998536992 0.1093485547 0.0001051499 -9.88308e-05 6.33792e-05 -7.17946e-05 -0.5675996414 0.6308115294
415297510.0 -0.0989654334 0.1096827097 6.72177e-05 0.0001926245 1.42467e-05 -3.22235e-05 -0.5612980642 0.6367802599
420297480.0 -0.0982111627 0.1114657044 0.0001872324 6.4002e-06 0.0001127144 0.0001278025 -0.5544295904 0.642642981
425297450.0 -0.0970920737 0.1127941749 -1.88236e-05 -0.0001482812 0.0002739147 4.05852e-05 -0.5480496516 0.6480838814
430297420.0 -0.0963868342 0.1134026222 0.0001179472 8.81645e-05 0.0001730434 0.0002403538 -0.5408831623 0.6530772407
435297390.0 -0.095232655 0.1143851966 2.62444e-05 6.44759e-05 0.0001326318 0.0001735516 -0.5336990266 0.6588956979
440297360.0 -0.0945584922 0.1153721321 0.0001741109 0.0001317623 0.0001707888 5.471e-05 -0.5271686016 0.663256243
445297330.0 -0.0933927938 0.1163443668 0.0003330834 -2.31488e-05 0.0001188156 0.0001051499 -0.5201127991 0.6688257071
450297300.0 -0.0923954318 0.11733635 0.0003061793 -8.12664e-05 8.62996e-05 9.2495e-06 -0.5131686141 0.6740601354
455297270.0 -0.0916126865 0.1185383615 0.0002768197 6.92979e-05 7.38221e-05 0.0001323852 -0.5063889066 0.6787830889
460297240.0 -0.090761964 0.1195780064 -1.57809e-05 0.0001037604 0.0001549992 7.86644e-05 -0.4994592514 0.6841436717
465297210.0 -0.0893135913 0.1206084978 9.13583e-05 1.70082e-05 0.0003799554 1.94558e-05 -0.4919925775 0.6889392028
470297180.0 -0.0882702163 0.1215411826 0.0001932806 0.0001263975 0.0002121505 0.0002237817 -0.4847201019 0.6942688523
475297150.0 -0.0873819923 0.1223212008 0.0002584943 0.0002129345 0.0002396535 3.11052e-05 -0.4773079268 0.698666512
480297120.0 -0.0865807463 0.1235184157 0.0001897821 -0.0001210802 0.0001169864 0.0002635554 -0.4698814528 0.7039272749
485297090.0 -0.0852776091 0.1242702476 9.85415e-05 -0.0001257357 0.0001691854 -0.0002277257 -0.4627866597 0.708591016
490297060.0 -0.0844275963 0.1257423859 5.76642e-05 3.26876e-05 0.0003230537 -5.68452e-05 -0.4555265437 0.712659124
495297030.0 -0.0833887527 0.1263178836 0.0003357969 -0.000126367 -1.2103e-05 5.03836e-05 -0.4483975448 0.7182497171
500297000.0 -0.0823106359 0.1274499353 0.0001010672 -0.0002087323 7.83809e-05 2.89386e-05 -0.4409726283 0.7226153595
505296970.0 -0.0808548835 0.1280967552 0.0001500655 6.89028e-05 0.0001863282 -1.42346e-05 -0.4334871481 0.7265481331
510296940.0 -0.0799087968 0.1292448313 0.0002394438 0.0001038541 3.43931e-05 0.000221127 -0.4257206672 0.7310451532
515296910.0 -0.0785952349 0.1299791244 0.0001477811 -8.06449e-05 2.25264e-05 0.000236116 -0.4180976539 0.735526311
520296880.0 -0.0774914562 0.1310815285 0.00036908 0.0001347238 0.0002687481 5.62763e-05 -0.4109377668 0.738898575
525296850.0 -0.0764462197 0.131634699 0.0003175087 0.0002211294 0.0002411483 0.0003036914 -0.4038692749 0.7441580377
530296820.0 -0.0751818608 0.1328167997 0.0005469708 6.90213e-05 0.0005361915 9.6621e-06 -0.3965287517 0.7474739414
535296790.0 -0.074111504 0.1336512391 -8.5217e-06 -4.63351e-05 8.15582e-05 -8.80526e-05 -0.3888565035 0.750974149
540296760.0 -0.0730017264 0.1346482177 0.0003150937 -4.38127e-05 0.0002055129 9.02644e-05 -0.3806771352 0.7555790803
545296730.0 -0.071864438 0.1355975076 -3.78009e-05 -1.20786e-05 -3.16511e-05 -6.38538e-05 -0.3735666742 0.7591823417
550296700.0 -0.0703264395 0.1363130355 0.0001979505 3.46729e-05 0.0002583188 0.0001156197 -0.3654612937 0.7631160356
555296670.0 -0.0693220467 0.1369375698 0.0001548636 -1.7523e-06 0.0003903011 0.0002032107 -0.357648128 0.7674310778
560296640.0 -0.0678878526 0.1380594629 -5.7754e-06 -4.77284e-05 0.0002478452 8.35778e-05 -0.3496470339 0.7709276129
565296610.0 -0.0668718652 0.1390924079 0.0002095145 0.000174192 5.61629e-05 0.0001040657 -0.341880282 0.7739359437
570296580.0 -0.0657348774 0.139332371 0.0002639119 -0.0002092646 0.0004242515 -5.15052e-05 -0.3346283048 0.7780070279
575296550.0 -0.0646098238 0.1409176266 0.0001597055 -7.09132e-05 0.0001561799 9.27193e-05 -0.3265971748 0.7809349187
580296520.0 -0.0630900982 0.141038961 0.0003448963 5.47633e-05 0.0001445294 4.91679e-05 -0.3180864366 0.7840454683
585296490.0 -0.0621517028 0.1420706957 0.0002140726 6.69704e-05 0.0002300196 0.0001146819 -0.3103744532 0.7875447453
590296460.0 -0.0603377015 0.1425555179 0.0001769109 -8.81067e-05 0.0001842544 8.65874e-05 -0.3027414335 0.7905976294
595296430.0 -0.0594159715 0.1435306358 0.0001674616 8.00601e-05 8.46866e-05 0.0003027142 -0.2943099923 0.7926480709
600296400.0 -0.0583540211 0.1444524793 0.0003999332 5.5424e-05 7.28545e-05 -4.24819e-05 -0.2866132665 0.7956161968
605296370.0 -0.0572236093 0.1447560705 0.0002300117 -0.0001860643 0.0002034193 5.35291e-05 -0.2781085916 0.7985199998
610296340.0 -0.0555168938 0.145722015 0.0001838311 0.0003225107 0.0004952215 6.57161e-05 -0.2698412591 0.8014409299
615296310.0 -0.0541002147 0.146302931 0.0003483038 -0.0002090049 0.0003156891 8.89694e-05 -0.2614703596 0.8036284435
620296280.0 -0.0530634146 0.1470338812 2.29105e-05 0.0001187009 0.0001876807 5.582e-05 -0.2541342616 0.8065488371
625296250.0 -0.0514769606 0.1477936013 0.0003666309 0.0002382503 -4.31186e-05 0.0001903259 -0.2449154528 0.8081968454
630296220.0 -0.0498647659 0.148191126 0.0001550837 0.0002850033 6.21051e-05 6.02151e-05 -0.2373026732 0.8109158024
635296190.0 -0.048918217 0.1492384712 0.0001487295 0.0001450012 5.39552e-05 0.0001155361 -0.2295621531 0.8124993632
640296160.0 -0.0475148785 0.1496983044 7.34643e-05 6.51119e-05 0.0001313635 -9.37748e-05 -0.221084494 0.8153907362
645296130.0 -0.0459217342 0.1509721545 0.000440567 0.0001755461 -1.42321e-05 0.0001362176 -0.2130893514 0.817720101
650296100.0 -0.0447898233 0.1510868508 0.0003252598 -7.75304e-05 0.0001266661 -6.16535e-05 -0.2042326969 0.8183686508
655296070.0 -0.0434026258 0.15145206 0.0001910333 0.0001739126 0.0002358159 -3.44922e-05 -0.1957214838 0.8204549333
660296040.0 -0.0419949576 0.1520718894 0.0003893026 -6.83994e-05 -8.592e-06 5.00763e-05 -0.1872523006 0.8234354506
665296010.0 -0.040444222 0.1521973834 0.0003653174 -0.0002631881 0.0003155338 -0.0001565419 -0.1789773909 0.8254818504
670295980.0 -0.0395492221 0.1533796712 0.0003061073 0.0002504338 0.0003048275 0.0001524916 -0.1712290135 0.8268249606
675295950.0 -0.0379702228 0.1538025996 1.60689e-05 -3.75353e-05 0.0002992176 4.7565e-05 -0.1632932809 0.8283675868
680295920.0 -0.0362006413 0.1545767135 0.0002783069 -0.0002186147 3.73466e-05 5.6755e-05 -0.1547001316 0.8310183103
685295890.0 -0.0347869612 0.1553785791 0.0001494151 -3.01152e-05 8.33798e-05 -0.0001513964 -0.1457749967 0.8317734616
690295860.0 -0.0334156955 0.1556125633 0.0002613822 -1.54121e-05 0.0002748304 -0.0001350358 -0.1380257779 0.8336846348
695295830.0 -0.0321982894 0.1563063653 0.0003002936 -6.22966e-05 0.0002569021 -0.0002935269 -0.1291195762 0.8346734937
700295800.0 -0.0305185571 0.1567287146 7.63356e-05 -0.0002366717 0.000209309 6.19271e-05 -0.1215573076 0.8360278469
705295770.0 -0.0293599658 0.157152841 0.000375066 -6.94029e-05 0.0003162095 2.38284e-05 -0.1127694707 0.8383198792
710295740.0 -0.0278591183 0.1576551666 0.0002914635 0.0002324132 0.0002138621 -2.15142e-05 -0.1044745122 0.8383227998
715295710.0 -0.0263460811 0.1580220126 0.0001870487 -0.0002189658 0.0001605058 -3.59203e-05 -0.0959296286 0.8394093191
720295680.0 -0.0244704879 0.1587369654 0.0003932486 4.32576e-05 0.0002725789 0.0001395109 -0.0873471568 0.8406331055
725295650.0 -0.0234253699 0.159044347 0.0003508978 4.4211e-05 0.000115727 6.45519e-05 -0.0797731297 0.8421421366
730295620.0 -0.0218506112 0.1596833255 5.92909e-05 0.0001563587 0.0003073709 1.64301e-05 -0.0714101415 0.8422209127
735295590.0 -0.020633105 0.1598370419 0.0004258003 -0.0002621389 0.0003589624 -0.0001038135 -0.0626978484 0.8422512185
740295560.0 -0.0189247763 0.1603334186 0.0005639655 0.0002034753 5.12881e-05 6.94813e-05 -0.0537867413 0.8442442198
745295530.0 -0.0175824989 0.1603638578 0.0001771967 -0.0001371344 0.0003349759 -6.4385e-05 -0.0455379298 0.8438909154
750295500.0 -0.015608578 0.1609940584 0.0004468345 -0.0001085903 0.0001732331 0.0001254835 -0.0369891377 0.8445352739
755295470.0 -0.0144971698 0.1612184247 0.0004857993 -5.54235e-05 0.0003194701 4.40666e-05 -0.028722989 0.8439929245
760295440.0 -0.0128829338 0.1616583958 0.0001528748 3.85688e-05 0.0003413783 0.0001368344 -0.020618551 0.844170096
765295410.0 -0.0116293736 0.162109631 0.0002593194 -9.07878e-05 0.0002803127 -0.0002354723 -0.0118793599 0.8448994838
770295380.0 -0.0103036767 0.1623292344 0.0002075062 -4.0094e-06 0.0003315262 -0.0001862555 -0.0037260529 0.8444317179
775295350.0 -0.0088924459 0.16211585 0.0005289152 -9.93615e-05 0.0003041518 5.47641e-05 0.0042732016 0.8441521565
780295320.0 -0.0070467854 0.1628782521 0.0001581735 -0.000171147 0.0005083596 -2.08298e-05 0.0129252761 0.8439968588
785295290.0 -0.0055921717 0.1626906896 0.0002184045 4.89674e-05 0.0003468234 -0.0002343029 0.0217071953 0.8439660384
790295260.0 -0.0037312975 0.1635109757 0.0002066671 -0.0001876202 0.0003843372 -0.0001074941 0.0303918324 0.8441306707
795295230.0 -0.0024362067 0.1636366604 0.0003662475 0.0002548432 0.0002063084 0.0001294317 0.0390083696 0.8431380344
800295200.0 -0.0011495121 0.163840594 0.0002001062 -0.0001633166 0.0002474776 -2.3989e-05 0.04719894 0.8426037483
805295170.0 0.0005679534 0.1640637331 0.0002396091 -4.1614e-05 0.0002461404 -7.64478e-05 0.0552620938 0.8422894685
810295140.0 0.0021683094 0.1639902593 0.0001024731 4.30099e-05 6.22197e-05 -0.000126565 0.063892552 0.8416262773
815295110.0 0.0033133822 0.1641684079 0.0002287046 0.0001580273 0.0002397241 -3.62948e-05 0.0721021861 0.8406509823
820295080.0 0.0053027749 0.164741612 0.0001476678 -0.0001786819 0.0003527614 9.2765e-06 0.0808867377 0.8403871984
825295050.0 0.0072479763 0.1643906687 8.78523e-05 -0.0001483244 0.0003323021 -0.0001718867 0.0890947045 0.8393797982
830295020.0 0.0081909801 0.1647465228 0.0001324202 -0.0001461338 9.73299e-05 -5.27083e-05 0.0983792912 0.8382237052
835294990.0 0.0100222207 0.1647917073 0.0002517766 -4.16084e-05 0.0003145605 -5.37497e-05 0.1059777407 0.8375850637
840294960.0 0.0116071336 0.1652632717 0.0003104655 -0.0001025047 0.0002213832 -0.0001259375 0.1145200409 0.8363939918
845294930.0 0.0129265655 0.1651820475 0.0001694536 -0.0001522161 0.0002889203 -3.28546e-05 0.122238757 0.8347881651
850294900.0 0.0144899017 0.1652858099 0.000279553 -0.0003059777 0.0001974596 -0.000173693 0.1306583941 0.8339395271
