!Created with skrf (http://scikit-rf.org).
# Hz S RI R 50.0 
!freq ReS11 ImS11 ReS21 ImS21 ReS12 ImS12 ReS22 ImS22
300000.0 0.8592073067 -0.0024829352 -0.000772313 0.0014440894 -7.14597e-05 0.0007879477 -0.7728634246 -0.1374411427
5299970.0 0.8589077703 -0.0096201772 8.49277e-05 0.0003026588 -4.85478e-05 3.4796e-05 -0.7845661897 -0.0071741504
10299940.0 0.8578689574 -0.0192549606 0.0001913107 -0.0002596151 -6.69928e-05 0.0001195243 -0.78756791 -0.0036086515
15299910.0 0.8569207818 -0.026739437 8.13296e-05 4.1526e-05 -9.40396e-05 -2.68543e-05 -0.7930330157 -0.0013183292
20299880.0 0.8563385578 -0.0352495085 0.0001712611 -8.5535e-05 0.0001690113 -0.0001618433 -0.7994176013 0.0020634813
25299850.0 0.8557822637 -0.0437244974 -6.92607e-05 0.000208377 -6.98686e-05 0.000165936 -0.8061207484 0.0080003492
30299820.0 0.8550144448 -0.0518854555 -5.8607e-06 8.47615e-05 -4.67256e-05 -0.0002597664 -0.8119635104 0.0166897226
35299790.0 0.8541565476 -0.0603160169 0.0001319058 5.7551e-06 -5.953e-05 3.534e-05 -0.8173590318 0.0253557183
40299760.0 0.8529775015 -0.069352936 -0.0001499288 5.78026e-05 -9.80927e-05 -0.0002068985 -0.8207555865 0.0340310393
45299730.0 0.8526495588 -0.0769181469 -0.0001667787 -8.56912e-05 -0.0001166489 -7.14777e-05 -0.824867192 0.0441104571
50299700.0 0.8523178915 -0.0850860985 -3.93417e-05 -4.60542e-05 3.26341e-05 0.00013333 -0.8273714602 0.05402873
55299670.0 0.8506806892 -0.0934804752 -2.0789e-06 -0.0001927007 -2.05086e-05 9.94123e-05 -0.8291647524 0.0644910229
60299640.0 0.8496740846 -0.1013258465 2.37018e-05 6.0071e-06 0.0002597952 1.42833e-05 -0.8301578824 0.0744335672
65299610.0 0.848282045 -0.1101676675 5.56555e-05 -8.06017e-05 -0.0001088772 0.000131189 -0.8319431981 0.0841508596
70299580.0 0.8476950887 -0.1188194727 9.1286e-06 0.0001587486 -6.99227e-05 0.0001290249 -0.8322922858 0.0943940276
75299550.0 0.8464120709 -0.1265651085 9.232e-07 2.4398e-06 -2.7436e-06 -6.7491e-05 -0.832752475 0.1043009186
80299520.0 0.8444388703 -0.1349178882 -0.0001281188 -5.93667e-05 -1.96826e-05 -1.36081e-05 -0.8320466583 0.1139779289
85299490.0 0.8436145902 -0.143014224 0.000196126 -0.0001145372 0.0001040918 0.0001238796 -0.8317806693 0.1236176315
90299460.0 0.8415391339 -0.1512422869 -4.64267e-05 -3.25061e-05 -1.46483e-05 2.63826e-05 -0.8307549116 0.1335225707
95299430.0 0.8402847769 -0.1600385384 0.0001022092 6.0999e-06 4.12742e-05 -3.9405e-05 -0.829380068 0.143205258
100299400.0 0.8385518904 -0.1676173835 0.0002214575 -3.03602e-05 -0.0001993986 -0.0001169583 -0.8288235845 0.1524490537
105299370.0 0.8370437786 -0.1760039709 2.1021e-05 -0.0001770251 -0.000206603 0.0001196554 -0.826934816 0.1610576876
110299340.0 0.8352100506 -0.1842187204 4.53228e-05 -0.0001462003 -2.52739e-05 7.12294e-05 -0.8252776285 0.1705018084
115299310.0 0.8333460019 -0.1924785228 3.6181e-06 1.76922e-05 -8.20341e-05 3.45085e-05 -0.8243676648 0.1798729305
120299280.0 0.8312249228 -0.2001824352 -1.7825e-06 -0.0001126289 0.0001315067 9.48744e-05 -0.8225048353 0.1892839659
125299250.0 0.8293533891 -0.2082895538 -4.54152e-05 -9.27442e-05 -3.42274e-05 -3.5314e-06 -0.8208594415 0.1978246836
130299220.0 0.8275056946 -0.2163839817 0.0001920632 -5.27782e-05 0.000110468 -0.0001063669 -0.8191855942 0.2067383592
135299190.0 0.8254671136 -0.2239954678 -0.0001634019 -0.000109665 3.12274e-05 4.78212e-05 -0.8167237964 0.2160136312
140299160.0 0.8234297189 -0.2325557913 -0.0001200957 9.89193e-05 -5.0603e-06 0.0001257381 -0.8141249106 0.2250860337
145299130.0 0.8203353455 -0.2408278228 9.27524e-05 -4.69388e-05 9.42394e-05 -0.0001674586 -0.8123860363 0.2345867945
150299100.0 0.8182291457 -0.2481427288 0.0001678523 -0.0001630086 -2.97868e-05 7.39061e-05 -0.8101538014 0.2430559131
155299070.0 0.815327739 -0.2561574222 1.7127e-06 0.0002206518 -1.59858e-05 -2.32649e-05 -0.8075237799 0.2520817538
160299040.0 0.813428244 -0.2646489882 -6.4584e-06 -3.2568e-06 -0.0001089006 9.08958e-05 -0.8048521424 0.2602878773
165299010.0 0.8105063235 -0.2725136557 -0.000196794 0.0001239377 0.0001470859 -0.0001220449 -0.8020409803 0.2695354856
170298980.0 0.8073135856 -0.2805742526 -7.67967e-05 0.000251636 -8.60861e-05 -4.83618e-05 -0.7991803511 0.2781272533
175298950.0 0.804815258 -0.2885821759 1.2909e-06 -0.0001870867 -5.48049e-05 -5.49556e-05 -0.7967659325 0.286629067
180298920.0 0.8020171134 -0.2956377504 1.03986e-05 -0.0002398256 0.0002140705 -4.26159e-05 -0.7938261529 0.2949057527
185298890.0 0.7988104649 -0.3038198033 -0.0002330965 4.7675e-06 -7.39819e-05 0.0001421116 -0.7902802812 0.3037011276
190298860.0 0.7960045163 -0.311891009 7.35514e-05 0.0001795693 5.74994e-05 7.33219e-05 -0.7882835122 0.3129319931
195298830.0 0.792950633 -0.3193361711 -2.5466e-05 -7.05139e-05 -8.34029e-05 -0.0002132879 -0.7845085002 0.3206847382
200298800.0 0.7898010577 -0.3268527469 -0.0002257008 -4.14312e-05 1.49303e-05 -0.0001064996 -0.7815158187 0.3294911252
205298770.0 0.7857692575 -0.3346471028 -2.71423e-05 -5.864e-05 -2.24304e-05 2.06919e-05 -0.7776874077 0.337575126
210298740.0 0.7822719189 -0.3421578189 2.8639e-06 -0.0001261904 -6.95349e-05 0.0001584843 -0.7741964782 0.3462503461
215298710.0 0.7791512814 -0.3502959627 -0.0002232195 0.0001349635 0.0001273255 2.63057e-05 -0.7709496637 0.3538823064
220298680.0 0.7756176438 -0.3574352326 -7.31242e-05 -4.05626e-05 8.4635e-06 1.40262e-05 -0.7676518384 0.3622207458
225298650.0 0.7725673801 -0.3654221857 -1.65947e-05 -5.7406e-06 -1.35789e-05 7.7531e-06 -0.7635265977 0.3700899144
230298620.0 0.7684404204 -0.3726560209 -3.79636e-05 -0.0001481208 -9.31705e-05 6.8869e-05 -0.760012633 0.3789403108
235298590.0 0.7648018385 -0.3805843945 7.4166e-06 3.38339e-05 -0.0001020862 5.8947e-06 -0.7557077058 0.3871788556
240298560.0 0.7615399355 -0.3873516227 -4.0501e-05 -0.0001444369 -0.0001007491 6.10484e-05 -0.7518198442 0.3956250942
245298530.0 0.7568459275 -0.3952394024 -6.23531e-05 -0.0002919666 -2.66728e-05 0.0001496239 -0.7483611756 0.4023751127
250298500.0 0.7530763503 -0.4023388328 -8.88629e-05 -0.0001718626 0.0001439373 -0.0001818059 -0.7435343691 0.4102057785
255298470.0 0.7490247718 -0.4104752505 1.43129e-05 -3.25727e-05 -3.71908e-05 8.20796e-05 -0.7384119401 0.4181886033
260298440.0 0.7448089764 -0.4170946799 9.91705e-05 -0.0001798506 -2.2551e-05 -3.6169e-05 -0.7349590448 0.4262244184
265298410.0 0.7411949274 -0.4241629964 8.21789e-05 -3.0668e-06 -2.67491e-05 -0.0001451481 -0.7300217563 0.4335855936
270298380.0 0.7366151616 -0.431745909 -0.0001719433 -0.0001066825 0.0001344512 -7.01079e-05 -0.7252826462 0.441283589
275298350.0 0.7330606218 -0.4388736579 -0.0002023807 5.77098e-05 -2.64027e-05 -2.0168e-06 -0.7203698827 0.4488074019
280298320.0 0.7277560731 -0.4459586301 -6.1514e-06 -0.0001828393 -3.63733e-05 -5.30402e-05 -0.7157973256 0.4556645037
285298290.0 0.7242075046 -0.453227991 7.47133e-05 2.7759e-06 7.0377e-06 2.11475e-05 -0.710636005 0.4637365659
290298260.0 0.7203358441 -0.4596428883 0.0001126717 0.0001385905 -0.0001974762 0.0001908554 -0.7061703534 0.4708228126
295298230.0 0.7161763841 -0.4672627783 0.0002632862 -0.0001451238 -5.65784e-05 0.0001100158 -0.701086808 0.477442927
300298200.0 0.7111670423 -0.4747837183 0.0003859868 -0.0001164058 5.49353e-05 0.0001555309 -0.6958972904 0.4852905927
305298170.0 0.7070317564 -0.4812462861 0.0003303292 -0.0001817143 2.14658e-05 8.39243e-05 -0.6901751371 0.4929298616
310298140.0 0.7020237818 -0.4886439169 -0.0002020302 0.0001788441 -0.0001859437 3.11362e-05 -0.6858394794 0.4999370755
315298110.0 0.6979462161 -0.4965803427 -9.52361e-05 0.0001862281 -0.0001567751 -0.0001448866 -0.6799144604 0.5066815334
320298080.0 0.6928929546 -0.5038083195 7.05497e-05 3.05398e-05 -0.0001114608 -2.79069e-05 -0.6745499089 0.5144929602
325298050.0 0.6876931879 -0.5106524282 -8.783e-05 -6.41701e-05 3.01198e-05 7.7355e-06 -0.66902958 0.5207487856
330298020.0 0.681542248 -0.5184300434 0.0003015418 6.82723e-05 0.0001182646 5.74961e-05 -0.6635800535 0.5282430886
335297990.0 0.6754988335 -0.5251710995 -0.0002334491 0.0002162937 -0.0001013006 0.0001952181 -0.6587403914 0.5352324081
340297960.0 0.6696730418 -0.5316896767 0.0001173449 -8.16972e-05 4.60869e-05 0.0002707925 -0.6525990107 0.5424238712
345297930.0 0.6634745544 -0.5378330557 5.28879e-05 6.34519e-05 3.5313e-06 9.086e-06 -0.6469990463 0.5484925331
350297900.0 0.6583832391 -0.5439042154 1.85093e-05 6.20314e-05 2.95084e-05 -9.21952e-05 -0.6416682409 0.5553938381
355297870.0 0.6525360168 -0.5506276855 -5.3528e-05 7.9319e-05 -0.0002288602 -9.93474e-05 -0.6352088011 0.5617244777
360297840.0 0.6469604895 -0.5560103672 -0.0004889541 9.66131e-05 -2.93716e-05 -6.35947e-05 -0.6293892005 0.5687363673
365297810.0 0.6407640428 -0.5621531071 -0.0001114842 -9.71549e-05 9.92154e-05 0.0001187055 -0.623131048 0.5754771379
370297780.0 0.6360267907 -0.568570121 -1.43502e-05 -9.01098e-05 -4.61528e-05 -3.42009e-05 -0.6173378035 0.581880802
375297750.0 0.6293754925 -0.574579045 0.0002063339 1.6567e-05 3.4714e-06 0.0002226299 -0.611751979 0.587685551
380297720.0 0.624351979 -0.580578959 0.000285448 9.46261e-05 6.6705e-05 -2.25901e-05 -0.6054146948 0.5940723302
385297690.0 0.6177484878 -0.5867034896 6.23642e-05 7.6503e-06 2.96518e-05 0.0001971323 -0.5992153174 0.6006645209
390297660.0 0.6122240055 -0.5925686908 2.11139e-05 -9.6811e-05 -2.0241e-06 3.06046e-05 -0.5930468071 0.6067346139
395297630.0 0.6062244783 -0.5986175012 0.0001362633 3.40612e-05 -0.0001228713 -0.0001898688 -0.5864673023 0.6134324056
400297600.0 0.6008432629 -0.6040361748 -9.50974e-05 0.0001076382 8.72624e-05 -1.21418e-05 -0.5803808076 0.6185886789
405297570.0 0.5939234119 -0.6093986953 -7.89369e-05 -4.61805e-05 -2.15066e-05 0.0001016302 -0.5739274433 0.6247861309
410297540.0 0.5878756553 -0.6158556222 2.6219e-06 -8.40407e-05 -7.76932e-05 -3.13323e-05 -0.5672707423 0.6311742485
415297510.0 0.5821953679 -0.6214462559 3.33282e-05 8.61443e-05 0.0001444133 -7.11576e-05 -0.561556213 0.6362963489
420297480.0 0.576037675 -0.6266844325 7.75471e-05 3.89543e-05 -0.0002401077 -6.75586e-05 -0.5543677259 0.6421427555
425297450.0 0.5693264629 -0.6322503902 -4.53254e-05 6.00651e-05 -0.0001450136 8.19996e-05 -0.5480572807 0.647735484
430297420.0 0.5635630201 -0.6379334058 0.0001130623 -0.0001212538 0.0002507072 0.0002595788 -0.540991547 0.6530865936
435297390.0 0.5569628643 -0.6438429 -0.0001384145 0.000120609 0.0001056634 2.47175e-05 -0.5335204866 0.6587053492
440297360.0 0.5504787694 -0.6491392547 2.91142e-05 -5.78202e-05 -9.12989e-05 4.01195e-05 -0.5276602744 0.6637307049
445297330.0 0.5436652638 -0.6542075598 -6.0401e-05 3.6904e-05 5.82511e-05 1.93291e-05 -0.520290911 0.668690446
450297300.0 0.5380022917 -0.659274049 -9.35992e-05 -0.0001931627 6.91751e-05 3.45643e-05 -0.5130492936 0.6738242366
455297270.0 0.5305343185 -0.6647853841 4.88463e-05 6.76059e-05 -6.38388e-05 0.0001620852 -0.5062105956 0.6787832343
460297240.0 0.524517933 -0.6697420852 -2.12069e-05 2.62285e-05 -1.65869e-05 5.81857e-05 -0.4993596115 0.6841337472
465297210.0 0.5177731118 -0.6750049768 2.42852e-05 -0.000149127 -3.83183e-05 1.42481e-05 -0.4918021983 0.6890880379
470297180.0 0.5108965878 -0.6791161742 -0.0002970617 0.0001560951 -4.43613e-05 2.45303e-05 -0.4845653073 0.6943493272
475297150.0 0.5039866708 -0.6847911615 -2.6874e-06 0.0001055244 0.0001372516 -2.2388e-06 -0.4774142207 0.6983799256
480297120.0 0.4965627395 -0.6896196925 -6.40721e-05 -0.0001009035 0.000186011 -7.20334e-05 -0.4699995392 0.7036907647
485297090.0 0.4900925347 -0.6937835753 2.3118e-05 0.0002775144 0.0001228108 -4.0107e-06 -0.4630845649 0.708130455
490297060.0 0.4829850766 -0.6990440654 -0.0001157173 -6.02022e-05 -0.0001149816 0.0001230591 -0.4557423565 0.7129002872
495297030.0 0.4757652441 -0.7040673907 -0.0001060641 -0.0003496701 -8.28335e-05 2.47563e-05 -0.4484432865 0.7180009294
500297000.0 0.4691162414 -0.7086126527 -4.29045e-05 -3.7064e-06 6.60609e-05 -1.42321e-05 -0.4404530346 0.7229331622
505296970.0 0.4627797482 -0.713185119 -1.72545e-05 8.43274e-05 -6.416e-05 0.0001847618 -0.4337056711 0.7265318503
510296940.0 0.4550831968 -0.7172117319 6.59762e-05 -0.0001973247 0.0001497602 0.0002292198 -0.4260465895 0.7304513337
515296910.0 0.4488682127 -0.7216579552 6.5321e-06 2.20923e-05 -5.56654e-05 0.0002304059 -0.4186244879 0.7352875782
520296880.0 0.4407769027 -0.7257619237 -7.29807e-05 0.0001412328 5.74133e-05 -0.0001852877 -0.4109819697 0.7393267508
525296850.0 0.4333625902 -0.7296730844 -4.7093e-06 2.9623e-05 -3.8041e-06 -0.0001093989 -0.4038207288 0.743849124
530296820.0 0.4265006773 -0.7338112015 5.57747e-05 1.79729e-05 9.8147e-06 6.87599e-05 -0.3959386394 0.747409405
535296790.0 0.4190873661 -0.7383908761 -0.000107513 0.0001384736 3.1499e-05 1.0614e-05 -0.3894144849 0.7507979107
540296760.0 0.4118125489 -0.7421996511 9.7878e-05 0.0001254566 -4.57478e-05 0.0001994888 -0.3806102694 0.7555329007
545296730.0 0.404129978 -0.7465444261 9.1187e-06 -1.4139e-05 -2.35456e-05 -0.0001312014 -0.3733262647 0.7593405012
550296700.0 0.3972166631 -0.749718131 0.0002328943 -9.29e-06 0.0001239355 0.000111537 -0.3654853945 0.7630669049
555296670.0 0.3890563452 -0.7537574951 0.000111707 0.0002892995 7.36024e-05 9.70807e-05 -0.3576484532 0.7672030227
560296640.0 0.3817635689 -0.7574766588 6.1894e-05 5.35853e-05 -1.11378e-05 -0.0002110344 -0.3497912111 0.7711283236
565296610.0 0.3739614358 -0.7605717122 0.0001001152 1.94938e-05 3.59127e-05 -0.0001166353 -0.3420256341 0.7744877293
570296580.0 0.3665053761 -0.7642250421 -5.97847e-05 0.0001339668 4.51107e-05 4.91484e-05 -0.3347751273 0.7778093878
575296550.0 0.3588339525 -0.7675484936 -2.287e-07 0.000151278 -3.10953e-05 0.0001913066 -0.3264017976 0.7809047555
580296520.0 0.3513581146 -0.7715742927 6.70508e-05 0.000130611 1.26194e-05 1.41064e-05 -0.3181713903 0.7838439356
585296490.0 0.3429641725 -0.7753329525 -4.0084e-06 4.4488e-06 4.37899e-05 -8.1961e-06 -0.310203936 0.7872472506
590296460.0 0.3359161912 -0.7773484567 0.0001714117 0.0001107492 -0.0001721763 7.35946e-05 -0.3028413414 0.7903628252
595296430.0 0.3278712451 -0.7811578914 4.60664e-05 0.0001347657 -3.34016e-05 4.64325e-05 -0.2946270889 0.7926198205
600296400.0 0.3199767975 -0.7842128928 -0.000100921 8.58324e-05 -8.31789e-05 1.28661e-05 -0.2865012494 0.7957376513
605296370.0 0.311997702 -0.7874045298 0.0003779648 4.31833e-05 1.74982e-05 0.0001072199 -0.2776705214 0.7981410153
610296340.0 0.3045474498 -0.7904084978 -0.0003406773 -4.97621e-05 8.42234e-05 -0.0001466642 -0.2697310294 0.800748116
615296310.0 0.2971395591 -0.7934377197 -4.724e-05 8.02813e-05 -7.72197e-05 -8.38154e-05 -0.262126058 0.803430132
620296280.0 0.28914453 -0.7956533018 -2.28479e-05 -0.0001367117 5.11226e-05 0.0002528453 -0.2543985757 0.8064526973
625296250.0 0.2805565468 -0.7987243771 0.0001691798 3.78134e-05 -0.0001555613 -4.00733e-05 -0.2451929048 0.8078751749
630296220.0 0.2732406748 -0.8017834034 -0.0001699869 -0.0001373269 5.37084e-05 2.58158e-05 -0.2373697112 0.8106082998
635296190.0 0.2649077223 -0.8040397321 0.0002512795 -1.90515e-05 -5.11826e-05 0.000291047 -0.2291074205 0.8125910117
640296160.0 0.2566278724 -0.8065621801 -0.0002333807 3.96035e-05 0.0002237309 -0.0001253411 -0.2210948266 0.8155699053
645296130.0 0.2488652732 -0.808429939 -7.1236e-06 -0.0001856285 -5.83607e-05 0.0002905513 -0.2133776377 0.8173542742
650296100.0 0.2402487628 -0.810889033 0.0001412445 6.82525e-05 6.37121e-05 0.0001223311 -0.204589039 0.818753641
655296070.0 0.2325712334 -0.8134641653 -0.000182859 2.2905e-06 -2.40455e-05 -2.5939e-05 -0.1962934152 0.8210855373
660296040.0 0.224272884 -0.8157523903 6.0491e-06 0.0001493084 0.0001327354 -5.3523e-05 -0.1874609366 0.8232991426
665296010.0 0.2165299829 -0.8183654714 -0.0002695583 0.0001534857 0.0001006495 5.99414e-05 -0.1792075674 0.8254779717
670295980.0 0.208189268 -0.8197176272 -8.59892e-05 -0.0001094086 4.12689e-05 3.49555e-05 -0.1718225049 0.8262597375
675295950.0 0.1998558125 -0.8210882179 1.19301e-05 -5.47861e-05 8.6013e-05 -9.02806e-05 -0.1630509368 0.82842715
680295920.0 0.1913737487 -0.8226678312 -6.8404e-06 -4.30392e-05 -0.0001462716 -0.0001308334 -0.1549170516 0.8314276176
685295890.0 0.183975945 -0.8238695365 -6.34751e-05 -9.45801e-05 0.000145741 5.198e-05 -0.1458008297 0.8313684459
690295860.0 0.1750738599 -0.8260431583 0.0001603055 0.0001026471 -0.0001005473 1.15987e-05 -0.1380845648 0.8332138922
695295830.0 0.1673199813 -0.8281357764 -0.00020083 -3.76486e-05 -1.18145e-05 3.02713e-05 -0.1291737139 0.8346959147
700295800.0 0.1591366887 -0.8297995024 -7.01009e-05 -0.0001795467 -1.21671e-05 -2.40229e-05 -0.1216714745 0.8360749233
705295770.0 0.1501755758 -0.8310012199 -3.7222e-05 3.65331e-05 4.0851e-05 -7.78294e-05 -0.1132454248 0.8377864737
710295740.0 0.1418088323 -0.83203587 -2.59489e-05 6.29766e-05 -2.69764e-05 -0.000177056 -0.1041993239 0.8387551003
715295710.0 0.1333135565 -0.8340054117 0.0001703923 4.04971e-05 4.21647e-05 -0.0001699388 -0.0960935406 0.8396220215
720295680.0 0.1257700239 -0.8347554457 0.0001380661 -2.9542e-06 -3.28526e-05 8.7628e-05 -0.0876807312 0.8407329709
725295650.0 0.1170929088 -0.8350035701 1.85882e-05 -4.89467e-05 -0.0001157068 5.22893e-05 -0.0797343194 0.8418014434
730295620.0 0.1086057943 -0.8359878869 -8.50544e-05 5.88987e-05 7.52828e-05 -3.61166e-05 -0.0720764606 0.8423267671
735295590.0 0.0999873188 -0.836835738 -4.22517e-05 0.0002785207 5.07858e-05 -9.302e-07 -0.0631010538 0.8422407449
740295560.0 0.0916737307 -0.8377293271 -5.0859e-05 3.76647e-05 5.7455e-06 3.05414e-05 -0.0539541885 0.843954271
745295530.0 0.0832154871 -0.8387784991 7.16894e-05 -2.72023e-05 -3.30579e-05 -1.25883e-05 -0.0458076998 0.8434858013
750295500.0 0.0748460617 -0.8393881309 6.65112e-05 -1.77758e-05 5.52937e-05 4.57761e-05 -0.0376661489 0.8446343176
755295470.0 0.066284128 -0.8396529606 -0.0001103297 -6.37183e-05 -1.1453e-05 0.0001182641 -0.0290024249 0.8438643104
760295440.0 0.0585319142 -0.8402157757 0.0001197287 -5.0768e-05 0.0001424708 -5.83614e-05 -0.020489579 0.844413436
765295410.0 0.0500907368 -0.8410473004 6.16933e-05 -0.0001119535 -0.0001365106 -6.65394e-05 -0.0119718633 0.8450273174
770295380.0 0.0412195201 -0.841040421 -0.0001792826 -7.77219e-05 7.40423e-05 0.000113632 -0.0041420121 0.8444104866
775295350.0 0.0326756166 -0.8415470718 0.0001043394 0.0002248889 0.0002659141 -0.0001161353 0.0038916511 0.8440407569
780295320.0 0.0253200539 -0.8411311303 0.0001289691 1.87143e-05 0.0001326156 0.0002078228 0.0127036092 0.8441039278
785295290.0 0.0165318402 -0.8419967319 0.0001470796 0.0001924261 -0.0002389195 0.0002174907 0.0213596028 0.8439861388
790295260.0 0.0076065857 -0.8420897707 0.0001068489 0.0002046074 -1.21452e-05 0.0001444565 0.029831634 0.8438702407
795295230.0 -0.0007781098 -0.8418337471 7.01011e-05 -0.0002125944 -1.65589e-05 5.96146e-05 0.0388297343 0.8427036549
800295200.0 -0.0092557884 -0.841080609 0.0001286184 0.0002954224 4.26328e-05 1.8682e-05 0.0470771029 0.8426798831
805295170.0 -0.0182486803 -0.8410672931 -3.16003e-05 -7.45784e-05 -7.31173e-05 0.0001534281 0.0550440664 0.8423458789
810295140.0 -0.0256305865 -0.840262551 1.4386e-06 -0.0001248805 0.0002163147 -0.0001278483 0.0635329112 0.8413623508
815295110.0 -0.0341350378 -0.8398401548 -1.66039e-05 -2.19867e-05 -4.8395e-06 0.0002134593 0.0721188094 0.8405877781
820295080.0 -0.0423654631 -0.8392064847 -0.0001280011 -1.23797e-05 0.0001165568 3.13426e-05 0.0807537244 0.8403179155
825295050.0 -0.0508466433 -0.8391288838 9.61309e-05 -7.63769e-05 -0.0001496086 -8.4971e-06 0.0883523402 0.8397782898
830295020.0 -0.0592301759 -0.8383078345 -7.76842e-05 0.000220973 -0.0002410162 0.0001932212 0.0979716648 0.8382185751
835294990.0 -0.0673439221 -0.8370799687 -0.0001698356 4.3685e-05 0.0001846522 8.54158e-05 0.1054631982 0.837344217
840294960.0 -0.0760011704 -0.836497492 6.94067e-05 0.0002581528 -5.66975e-05 -9.60679e-05 0.1138350047 0.8366099614
845294930.0 -0.0844158267 -0.8356072995 0.0001695712 2.82062e-05 3.10955e-05 -0.0001507484 0.1219106294 0.8352046898
850294900.0 -0.0915492372 -0.8343863429 0.0001399883 -3.74266e-05 7.85779e-05 1.51018e-05 0.1301768374 0.8336952786
