!Created with skrf (http://scikit-rf.org).
# Hz S RI R 50.0 
!freq ReS11 ImS11 ReS21 ImS21 ReS12 ImS12 ReS22 ImS22
300000.0 -0.2411574664 -0.081985773 0.4721814943 0.0556615309 0.4718364978 0.0527061967 -0.2412733862 -0.092983664
5299970.0 -0.2452171032 0.0068757924 0.4749491056 0.0049948195 0.4750064795 0.004962492 -0.2415013691 0.0077262527
10299940.0 -0.2418326017 0.0178306484 0.4769892551 0.0059930349 0.4769834702 0.0060786731 -0.2382759513 0.0205339408
15299910.0 -0.2377201517 0.0268836674 0.4808175377 0.0073718408 0.4803475376 0.0071903719 -0.23352495 0.0298271449
20299880.0 -0.2331913904 0.034069421 0.4850191903 0.0080305787 0.4852981277 0.0080440536 -0.2283541062 0.037968828
25299850.0 -0.2282462442 0.0401621046 0.4905085231 0.0072147807 0.4900805839 0.007194074 -0.2220994062 0.0443322634
30299820.0 -0.2227491107 0.0451053754 0.4953091178 0.0051298115 0.4956251916 0.0052144345 -0.2163485739 0.0498874566
35299790.0 -0.2176663071 0.0490504893 0.5010125294 0.0016196835 0.5008817613 0.0015522028 -0.2108934144 0.0539963861
40299760.0 -0.2127479297 0.0524794818 0.5059373753 -0.0028033127 0.5061264127 -0.0019097952 -0.2053959506 0.0572556519
45299730.0 -0.2077349895 0.0549738868 0.5104603783 -0.0071606583 0.5107836087 -0.0068503415 -0.2004174856 0.0602577322
50299700.0 -0.2037110164 0.0565388658 0.5148372249 -0.0123779599 0.5150962288 -0.0123052681 -0.1958173313 0.062512338
55299670.0 -0.1998521785 0.058512273 0.5189087115 -0.0189425331 0.5185560177 -0.0184466598 -0.1912762464 0.0637768744
60299640.0 -0.1958642821 0.0599280031 0.5217002441 -0.025043753 0.5222956388 -0.0245637981 -0.1873879893 0.0652473072
65299610.0 -0.1930284176 0.0608131211 0.5249839049 -0.0307610572 0.5246694835 -0.031009744 -0.1839462995 0.066250268
70299580.0 -0.1899590467 0.0622953697 0.527595579 -0.037883037 0.5270222634 -0.0377230958 -0.1807192232 0.0674117547
75299550.0 -0.1869072221 0.0629455503 0.5285632736 -0.0447403797 0.5288627468 -0.0442275338 -0.1775849429 0.0683121332
80299520.0 -0.1845639607 0.0632502537 0.5309302712 -0.0514900819 0.5309747827 -0.051365489 -0.1747662777 0.0690699879
85299490.0 -0.182428263 0.0639373912 0.5321647252 -0.0580477831 0.5323536462 -0.0580383632 -0.1727649646 0.0698407496
90299460.0 -0.1803775621 0.0648542709 0.532776259 -0.0655279617 0.5333203533 -0.0651784694 -0.1701036861 0.0703911318
95299430.0 -0.1780949113 0.0652082585 0.5346973922 -0.0719496611 0.5339047147 -0.0721669789 -0.1680090979 0.0713357125
100299400.0 -0.1765204898 0.0659449426 0.5337495339 -0.0786354105 0.534108913 -0.0789608767 -0.1656851528 0.0716171844
105299370.0 -0.1747890387 0.0667607435 0.5347259663 -0.0857745638 0.5349033929 -0.0857369227 -0.1639148438 0.0724658989
110299340.0 -0.1732412293 0.0673657668 0.5350707847 -0.0923663057 0.5345993945 -0.0923592452 -0.1629527202 0.0734549817
115299310.0 -0.1718154416 0.068166693 0.534920094 -0.0995290416 0.5344696755 -0.0994223226 -0.1610039818 0.0741704887
120299280.0 -0.1705700605 0.0682711185 0.5347130423 -0.1062812649 0.5348110854 -0.1063071353 -0.1596490794 0.074979084
125299250.0 -0.1695385281 0.0692446191 0.5341012513 -0.1125622782 0.5341493177 -0.1126858284 -0.1584670383 0.0752094755
130299220.0 -0.168724683 0.0702273098 0.5336009172 -0.1201110226 0.5338913998 -0.1198581951 -0.1571202723 0.0759785821
135299190.0 -0.1677324022 0.0712478404 0.5332128024 -0.1262640669 0.5326338733 -0.1263443864 -0.1558396011 0.0772590372
140299160.0 -0.1667616753 0.0720405803 0.5321499978 -0.1332006259 0.5322622924 -0.1331651096 -0.1547241136 0.0784750768
145299130.0 -0.16555795 0.0728820823 0.531261343 -0.1394440955 0.5311351455 -0.1396791345 -0.1536116186 0.0792047367
150299100.0 -0.1646227395 0.0738270723 0.530237727 -0.145406865 0.5301113454 -0.1457265257 -0.152911022 0.0805380663
155299070.0 -0.1639617442 0.0747584333 0.529157235 -0.1528031947 0.5288595032 -0.152566976 -0.1516126907 0.0815823263
160299040.0 -0.1629230639 0.0759203048 0.5272711661 -0.1588994352 0.5272662831 -0.1589684045 -0.1511126787 0.0823378411
165299010.0 -0.1624731326 0.0770118699 0.5260920673 -0.165744777 0.5260975723 -0.165177669 -0.149664453 0.0839170793
170298980.0 -0.1615938462 0.077819499 0.5240809636 -0.1715018121 0.5249810775 -0.1718230027 -0.1489556329 0.085026234
175298950.0 -0.1607584674 0.0789816991 0.5234214367 -0.1781395736 0.5227276947 -0.1778859492 -0.1480635873 0.0861260499
180298920.0 -0.1603508711 0.0802213581 0.5214879387 -0.1841855693 0.5212320014 -0.1837698442 -0.1469691733 0.0871792648
185298890.0 -0.1590534381 0.0810647992 0.5190028218 -0.190401963 0.5191737109 -0.1902928181 -0.146302195 0.0888425436
190298860.0 -0.1586683119 0.08240584 0.5178178834 -0.1971967779 0.5176229856 -0.1968785685 -0.1450735473 0.0895899933
195298830.0 -0.1576902763 0.0832868623 0.5154542006 -0.2028787422 0.5158750561 -0.2025273914 -0.1440987257 0.0910090264
200298800.0 -0.1569209668 0.084626783 0.5132109625 -0.20916754 0.5132606096 -0.2090723102 -0.1433664254 0.0923405018
205298770.0 -0.1561353424 0.0859644432 0.5110975665 -0.2153305699 0.5109884748 -0.214905045 -0.1423431558 0.0929136863
210298740.0 -0.1555308976 0.0869280622 0.5089065141 -0.2206018602 0.5087130885 -0.2204880287 -0.1410502026 0.0949261267
215298710.0 -0.1550257871 0.088138387 0.5063906048 -0.2266111865 0.5065876138 -0.2267337694 -0.1406773536 0.0961918973
220298680.0 -0.1540707516 0.0891337672 0.5033286313 -0.2324890308 0.5039655774 -0.2326207805 -0.1397759218 0.0974281681
225298650.0 -0.1534010135 0.090832008 0.5013652132 -0.2387787623 0.501942584 -0.2384243645 -0.1390351599 0.0984411423
230298620.0 -0.1523325569 0.0922170669 0.4991696782 -0.2442083625 0.4995869095 -0.2442524573 -0.1380046384 0.0996837622
235298590.0 -0.1517599985 0.093554538 0.4966306576 -0.2499130002 0.4968737291 -0.2496626799 -0.1364892857 0.1016503242
240298560.0 -0.1509111699 0.0948083041 0.4938529516 -0.2556455663 0.4938835922 -0.2559636706 -0.1358100657 0.1031478205
245298530.0 -0.1504135408 0.0960327391 0.4915958083 -0.2615531973 0.4909224726 -0.261284165 -0.1345434413 0.1040140925
250298500.0 -0.1491705064 0.0971076205 0.4877665203 -0.2672256105 0.4876139472 -0.2667477637 -0.1338375278 0.1055647013
255298470.0 -0.1485811035 0.098593476 0.4847845473 -0.2722169089 0.4852178318 -0.2721060866 -0.132532631 0.1067010996
260298440.0 -0.147776297 0.0999531685 0.4820902733 -0.2780393887 0.4826357702 -0.2779377402 -0.1315684828 0.108133099
265298410.0 -0.1464638146 0.1016036542 0.4791185297 -0.2838540484 0.4797168586 -0.2830855306 -0.1302012426 0.1098840732
270298380.0 -0.1460798311 0.1029596311 0.476788257 -0.2889261248 0.4764727389 -0.2887803955 -0.1291192514 0.1112019498
275298350.0 -0.1450223298 0.1043358077 0.4733436938 -0.2946872027 0.4731874003 -0.2943589571 -0.1280562166 0.1126120976
280298320.0 -0.1439983191 0.1057907149 0.4701145209 -0.3002688668 0.4700605528 -0.299594171 -0.1266457816 0.1139220487
285298290.0 -0.1433337593 0.107224013 0.4667797118 -0.3049507988 0.4668748196 -0.3054577855 -0.1257759887 0.1153870307
290298260.0 -0.1421357478 0.1084709718 0.4631598673 -0.3101192526 0.4635504796 -0.310738105 -0.1245684407 0.116996051
295298230.0 -0.1409080277 0.1094059589 0.4601720118 -0.3158497024 0.4600530518 -0.3155782795 -0.1229045008 0.117883805
300298200.0 -0.1404487804 0.1110772898 0.4570153372 -0.3206302716 0.4569655178 -0.3212524232 -0.1218669624 0.1192985718
305298170.0 -0.1390639658 0.1120425151 0.4527541985 -0.3263234633 0.4532231937 -0.3261027193 -0.1201068911 0.1207160628
310298140.0 -0.1382099864 0.1137113268 0.4497042922 -0.3313287575 0.4497804014 -0.3314967864 -0.1190339787 0.1222101453
315298110.0 -0.1372069245 0.1146057647 0.4460654834 -0.3366127025 0.4464509533 -0.3366521766 -0.1178121214 0.1233035158
320298080.0 -0.1359835641 0.1159690939 0.4414906378 -0.3420461662 0.442526767 -0.3415810646 -0.1166937955 0.1243452395
325298050.0 -0.135174893 0.1172291728 0.4381401285 -0.3467771077 0.4383883015 -0.3465457628 -0.1158631636 0.1256492891
330298020.0 -0.1341739157 0.1182522693 0.4340299876 -0.35193064 0.4344443082 -0.3517549372 -0.1146755084 0.1270814035
335297990.0 -0.1330240566 0.119595598 0.4303617309 -0.3564066639 0.4303215023 -0.3563210201 -0.1137838424 0.1287543845
340297960.0 -0.1323634192 0.1213624114 0.4258313095 -0.3614981407 0.4259332346 -0.3613818731 -0.1118256845 0.1298956243
345297930.0 -0.1315287523 0.1226338981 0.422250046 -0.3663133786 0.4217444098 -0.3659104781 -0.1108324557 0.1308585225
350297900.0 -0.130475479 0.1237659571 0.4174652766 -0.3711025621 0.417657677 -0.3707078756 -0.1100974329 0.1325838268
355297870.0 -0.1293400719 0.1257652947 0.4139151193 -0.3752870607 0.4139335837 -0.3750671216 -0.1088678904 0.133718227
360297840.0 -0.1283653747 0.1269086901 0.4098929522 -0.3795937565 0.4102265438 -0.3792576741 -0.1072727714 0.1354009992
365297810.0 -0.1273316969 0.128518553 0.4053000706 -0.3846086583 0.4059587358 -0.3845647221 -0.1054022119 0.1367552354
370297780.0 -0.1255211118 0.1295751926 0.4012081863 -0.3888083701 0.4016676149 -0.3884555232 -0.1042913017 0.1381540399
375297750.0 -0.1243728216 0.1306660429 0.396788984 -0.3929912651 0.3974791065 -0.3930414078 -0.1027412213 0.1391457475
380297720.0 -0.123369274 0.1320073823 0.3920550549 -0.3972894722 0.392741724 -0.3968164811 -0.1014016022 0.1402485889
385297690.0 -0.1225369053 0.1333730972 0.3878735692 -0.4016555722 0.3880556065 -0.4017551381 -0.0996976227 0.141644495
390297660.0 -0.1213265635 0.1350404985 0.3839567823 -0.4060803747 0.3838656403 -0.4056310428 -0.0990888205 0.1430818475
395297630.0 -0.1197078699 0.136270909 0.3792935515 -0.4102130093 0.3793953871 -0.4102426672 -0.0960239757 0.1439394393
400297600.0 -0.1185761489 0.1375207833 0.3743237509 -0.4147656464 0.3750673157 -0.4144676419 -0.0950637808 0.1453970489
405297570.0 -0.1178221249 0.1384374055 0.3700207045 -0.4181815978 0.3706011312 -0.4183245121 -0.093567532 0.1467778865
410297540.0 -0.1161539837 0.1397914025 0.3657159236 -0.4224978585 0.3661533661 -0.4222716795 -0.0921840912 0.1476757048
415297510.0 -0.1145991018 0.1408841641 0.3605299763 -0.4265153426 0.361288484 -0.4265961517 -0.0903031966 0.1494140129
420297480.0 -0.1136468791 0.1428944003 0.3561315789 -0.430639858 0.3562551323 -0.4302182886 -0.0886785879 0.149998154
425297450.0 -0.1122453295 0.1432763256 0.351894527 -0.4340224707 0.3522286012 -0.4339159912 -0.0875835012 0.151548774
430297420.0 -0.1108874528 0.1445709854 0.3469998752 -0.4376964461 0.3468743124 -0.4373830738 -0.0857514623 0.1524321669
435297390.0 -0.1097714147 0.1460478253 0.3418246431 -0.4419645633 0.3419177209 -0.4417078372 -0.0834391634 0.1535365055
440297360.0 -0.1080237324 0.1472884572 0.3370593405 -0.445181191 0.3372784949 -0.4454632763 -0.0826391802 0.1545678441
445297330.0 -0.1070337273 0.1482933273 0.3328400531 -0.4490647223 0.3324004362 -0.4486435008 -0.0805002873 0.1552190288
450297300.0 -0.1052317435 0.1493678237 0.3274103774 -0.4528842242 0.3273454043 -0.4531332206 -0.0788435975 0.1564407413
455297270.0 -0.1036641799 0.1507511162 0.3223826412 -0.4560514514 0.3224289322 -0.4564928743 -0.0772079549 0.1574324158
460297240.0 -0.1024761367 0.1518641771 0.3170430877 -0.4594933406 0.3177380858 -0.4597688725 -0.0752375992 0.1587602185
465297210.0 -0.1006749047 0.153220144 0.3124311252 -0.4629737636 0.3125696511 -0.4632856363 -0.0735897677 0.1594700141
470297180.0 -0.099188449 0.1539158267 0.3069705417 -0.4663919912 0.3073444995 -0.4667375072 -0.071745753 0.1607074273
475297150.0 -0.0979024313 0.1549494592 0.3018374319 -0.4689666087 0.3020522624 -0.4695289853 -0.0698035413 0.1611661148
480297120.0 -0.0963282417 0.1563489384 0.2967163821 -0.4734158838 0.2968573001 -0.4730642486 -0.0677647557 0.1624540158
485297090.0 -0.0952105047 0.1573623639 0.291991813 -0.4758938755 0.2921788839 -0.4758517363 -0.0664792971 0.1632378311
490297060.0 -0.0939582339 0.1583343546 0.2868787156 -0.4791220138 0.2869128087 -0.4793327296 -0.0645081231 0.1642975485
495297030.0 -0.0920128541 0.1596018329 0.2810954407 -0.4824277986 0.2817237926 -0.4824338071 -0.063249931 0.1653520601
500297000.0 -0.090522565 0.1605813741 0.2762046955 -0.4851934161 0.2760992744 -0.4849169571 -0.0610109849 0.1665188909
505296970.0 -0.0888474821 0.1615035064 0.2707308839 -0.4882484384 0.2705139107 -0.4880464025 -0.059195052 0.1670811705
510296940.0 -0.0875110271 0.1625013033 0.2653371654 -0.4911688285 0.265424894 -0.4914311379 -0.0574580496 0.1677597528
515296910.0 -0.0857996782 0.1634341447 0.2600830901 -0.4939196939 0.260118269 -0.4938438995 -0.0554661018 0.1685330274
520296880.0 -0.08416024 0.1644245999 0.2545557685 -0.4973523803 0.2551269068 -0.4966085992 -0.0537986991 0.169151353
525296850.0 -0.0823287151 0.1648844145 0.2489093525 -0.4994983184 0.2494870631 -0.4993393478 -0.0519809859 0.1698717883
530296820.0 -0.0810612546 0.1663786139 0.243818795 -0.5024364617 0.2439710975 -0.5019673675 -0.050177549 0.171010296
535296790.0 -0.0795599193 0.1672406811 0.2385651291 -0.5046088737 0.2385785204 -0.5044398468 -0.0483070749 0.1711774504
540296760.0 -0.0779762379 0.1682592137 0.2329747185 -0.507530017 0.2325936786 -0.5075040828 -0.0464789176 0.1724446204
545296730.0 -0.0763566515 0.169002426 0.2272905682 -0.5094548911 0.2273843846 -0.5100389176 -0.044619638 0.1726292761
550296700.0 -0.0742019858 0.1701938578 0.2213605813 -0.5121881221 0.2220030696 -0.5123868364 -0.0427886479 0.1734520068
555296670.0 -0.0730653343 0.1707601169 0.2162607085 -0.5145010672 0.216549916 -0.5141569659 -0.0408358202 0.1739299991
560296640.0 -0.0713843419 0.1720226439 0.2105490585 -0.5171951518 0.2106074116 -0.5169253605 -0.0385467411 0.1744231357
565296610.0 -0.0699334682 0.1723788602 0.2045388442 -0.5189678481 0.2053611235 -0.5188897061 -0.0369734877 0.1748974115
570296580.0 -0.0681104959 0.1732266691 0.1992854759 -0.5215273429 0.1992209414 -0.5211104648 -0.035349713 0.1759759269
575296550.0 -0.0665840744 0.1743386665 0.1938835635 -0.5238905965 0.1933764637 -0.5235781624 -0.0327163536 0.1763545348
580296520.0 -0.0647316091 0.1750286418 0.1877772193 -0.5254846473 0.1881612084 -0.5255945352 -0.0308652338 0.1766897048
585296490.0 -0.0631161418 0.1754349956 0.182401706 -0.52700057 0.1823877689 -0.5276677645 -0.0289709731 0.1772284283
590296460.0 -0.061014289 0.1761491647 0.1765915186 -0.5288164516 0.1769060066 -0.5289069368 -0.0276355657 0.1778341237
595296430.0 -0.0595203103 0.1768244332 0.1704867129 -0.5313474411 0.1707895087 -0.5312739462 -0.0251836104 0.1780032211
600296400.0 -0.0582280313 0.1776526713 0.1650247921 -0.5328380427 0.1651579691 -0.5327667781 -0.0236949081 0.1783746893
605296370.0 -0.0561970133 0.1785847433 0.1591957389 -0.5347513695 0.1593799472 -0.5344549086 -0.0208698557 0.1789110746
610296340.0 -0.0544164207 0.179296039 0.1530699362 -0.5364299803 0.153373192 -0.5362964877 -0.0187603974 0.1790058975
615296310.0 -0.0523275997 0.17974598 0.1471489239 -0.5377850804 0.1473909094 -0.5382475133 -0.0168411531 0.1799017007
620296280.0 -0.0510168472 0.1802716916 0.1415514759 -0.5394315991 0.1419335209 -0.5389110151 -0.0152173532 0.1802072926
625296250.0 -0.0493168862 0.1807707149 0.1364483545 -0.5411855681 0.1361689073 -0.541280913 -0.0127466015 0.1803827261
630296220.0 -0.0468484276 0.1816223749 0.1296451595 -0.5423625332 0.1296010749 -0.5423179398 -0.010965405 0.1811603866
635296190.0 -0.0459706898 0.1822290063 0.124306525 -0.543590852 0.1246397986 -0.5437856249 -0.0088539264 0.1812236431
640296160.0 -0.0441063281 0.1828480804 0.1183140954 -0.5446317706 0.1187838408 -0.5447521175 -0.0069741494 0.1812935669
645296130.0 -0.0420416997 0.1835826098 0.11216288 -0.5463342793 0.1125268989 -0.5461446267 -0.0045362174 0.1818703503
650296100.0 -0.0403498038 0.1839412772 0.1065091838 -0.5473409441 0.1066488389 -0.5470825357 -0.0025409134 0.1814014031
655296070.0 -0.038640311 0.1843196875 0.100664257 -0.5481859375 0.1006239626 -0.5485553019 -0.000721382 0.1818987407
660296040.0 -0.0372726002 0.1844477854 0.0948343325 -0.549110913 0.095154216 -0.5495201007 0.0012470679 0.1820102992
665296010.0 -0.0348352274 0.1850837099 0.0883716961 -0.5503111733 0.088628527 -0.5504611191 0.0034927085 0.1827425271
670295980.0 -0.0339284895 0.1857744812 0.0828277362 -0.5507949503 0.08268303 -0.5510539126 0.0049503201 0.1824851306
675295950.0 -0.0317824329 0.1864158346 0.0770131168 -0.5517808185 0.0771042376 -0.5517099152 0.0072143021 0.1827118337
680295920.0 -0.03003555 0.1866923522 0.0707094058 -0.5525428286 0.0704859249 -0.5529682315 0.0093474607 0.1830595367
685295890.0 -0.0280366861 0.1875380867 0.0646667109 -0.5533270824 0.0647748376 -0.5540862322 0.0114304994 0.1829320856
690295860.0 -0.0260729072 0.1877011346 0.0586871333 -0.5533519015 0.0592654686 -0.5545998941 0.0128975759 0.1837802387
695295830.0 -0.0244624648 0.1879029042 0.0532144268 -0.5545529069 0.0529337684 -0.5547842995 0.0154549083 0.1832857809
700295800.0 -0.0225515761 0.1881444737 0.0468455479 -0.5550651003 0.0468656122 -0.5548446739 0.0168031151 0.1834144755
705295770.0 -0.0209097273 0.1890322449 0.0410362426 -0.5554894669 0.041198287 -0.5558039199 0.0188628371 0.1834312532
710295740.0 -0.0186685913 0.1891220261 0.0352116485 -0.556340677 0.0352163377 -0.5565946766 0.0212497776 0.1826414102
715295710.0 -0.017554085 0.1891902507 0.029263009 -0.5561856691 0.0291128717 -0.5564999438 0.0231773046 0.182812477
720295680.0 -0.0155336633 0.1899298766 0.023281455 -0.5568368693 0.0234173844 -0.5566603994 0.025509192 0.1832115748
725295650.0 -0.0133314773 0.1900447318 0.0171211857 -0.5568202729 0.0173912528 -0.5568287176 0.0268967636 0.1827935231
730295620.0 -0.0111844996 0.1905991766 0.0107398011 -0.556830644 0.0111560139 -0.5572512282 0.0289724644 0.182283533
735295590.0 -0.0098231413 0.1907791501 0.0049856954 -0.557155811 0.0049454458 -0.5569382729 0.0310368251 0.1820949707
740295560.0 -0.0082320216 0.1910809094 -0.0007943401 -0.5570252989 -0.0010901134 -0.5571142784 0.0339589622 0.182233064
745295530.0 -0.0060666407 0.1910721052 -0.0073463399 -0.5559477496 -0.0070531831 -0.5566751304 0.0355315137 0.1815761164
750295500.0 -0.0040039705 0.1913173961 -0.0125298918 -0.5566215007 -0.0125474614 -0.556749364 0.0372610033 0.1816002412
755295470.0 -0.002141894 0.1912033263 -0.0186944829 -0.5561283503 -0.0187994835 -0.5565204167 0.0399935867 0.1809713626
760295440.0 -0.000533368 0.1915568196 -0.0248902527 -0.5562740369 -0.0249033606 -0.5564966245 0.0415652622 0.1808610643
765295410.0 0.001200131 0.191792278 -0.031058018 -0.5560288648 -0.0310415705 -0.556046763 0.0435786439 0.180641918
770295380.0 0.0029815758 0.1919202324 -0.0373750071 -0.5555644108 -0.0367936203 -0.5555836517 0.0453932823 0.1801548075
775295350.0 0.005057204 0.1916363591 -0.0431052075 -0.5543058789 -0.0425609893 -0.5547062874 0.0471327091 0.179796711
780295320.0 0.0069655301 0.1919401707 -0.0487255804 -0.5539851229 -0.0480628372 -0.5546613967 0.0489858158 0.1793499064
785295290.0 0.0084033473 0.191639073 -0.0548781207 -0.5535143351 -0.0545185512 -0.5538744082 0.0519002289 0.1790564198
790295260.0 0.0106682308 0.1921846721 -0.0602869328 -0.5530436023 -0.0601710953 -0.5532291058 0.0538149181 0.1785362348
795295230.0 0.0125799143 0.1921214628 -0.0666073442 -0.552439313 -0.0660837808 -0.5525861454 0.0558792705 0.1785009198
800295200.0 0.0142590673 0.1921469646 -0.0732885613 -0.5515151788 -0.0724003814 -0.5514225648 0.0576128442 0.1778043527
805295170.0 0.0164460912 0.1919934709 -0.0787161638 -0.5508499443 -0.0785346098 -0.5510326094 0.0596244386 0.1776002546
810295140.0 0.0180994504 0.1918599493 -0.0844365264 -0.5500099216 -0.084390325 -0.5499846384 0.0618703039 0.1769822445
815295110.0 0.0199338914 0.1919171713 -0.0905030027 -0.5485072421 -0.0901192964 -0.5490458744 0.0636338342 0.1765135291
820295080.0 0.0216403965 0.1922219476 -0.0964090742 -0.5475514751 -0.095727741 -0.5477609456 0.0656874343 0.1759931891
825295050.0 0.0240047329 0.1916948417 -0.1016830835 -0.5464968744 -0.1016350941 -0.5472032946 0.0674618219 0.1756788743
830295020.0 0.0255261786 0.1920187044 -0.1084058908 -0.5455477166 -0.1076713727 -0.5457367091 0.0700441472 0.1752717787
