!Created with skrf (http://scikit-rf.org).
# Hz S RI R 50.0 
!freq ReS11 ImS11 ReS21 ImS21 ReS12 ImS12 ReS22 ImS22
300000.0 -0.2396044945 -0.0744980064 0.4731674073 0.0508678966 0.4702254266 0.0501601275 -0.2442913053 -0.0910119944
5299970.0 -0.2441184697 0.007658207 0.4736896575 0.0047736254 0.4737244251 0.0046764838 -0.2438018143 0.0074512078
10299940.0 -0.240978236 0.0188458586 0.475286566 0.006034223 0.4754070714 0.0063100314 -0.2406399567 0.0203939126
15299910.0 -0.2367583573 0.0279412869 0.479270637 0.0075645633 0.4794284699 0.0077533837 -0.2360166498 0.0296383972
20299880.0 -0.2318263722 0.0354956249 0.4839446811 0.0083559537 0.4840926451 0.0084063586 -0.2308477593 0.0373802415
25299850.0 -0.2268148521 0.0421875054 0.4891627292 0.0072482484 0.4887938752 0.0074749407 -0.2250921493 0.0439868267
30299820.0 -0.2216329839 0.0471094122 0.4947480205 0.005330476 0.494332896 0.0054339953 -0.2189422784 0.0492806497
35299790.0 -0.2164659828 0.0515168939 0.5000477201 0.0016701376 0.500246884 0.0019659863 -0.2135701601 0.053384096
40299760.0 -0.2116188855 0.0547843144 0.5049446103 -0.0018718396 0.5050558274 -0.0017704293 -0.2081106612 0.0558473422
45299730.0 -0.2066771859 0.057607244 0.5098483403 -0.0063632334 0.5098769635 -0.0066206886 -0.2035392809 0.0588708143
50299700.0 -0.2024325247 0.0600855968 0.5143638505 -0.0124385495 0.5139414093 -0.0121648134 -0.1985445548 0.0608107922
55299670.0 -0.1980749294 0.0616883197 0.5181206118 -0.0183526338 0.517687734 -0.0182470703 -0.1943531846 0.0624636038
60299640.0 -0.1942144189 0.063571736 0.5211599017 -0.024615234 0.5215416293 -0.0241419953 -0.1906062632 0.0631618855
65299610.0 -0.1912428113 0.0647027163 0.524321002 -0.030862594 0.524387682 -0.0305624129 -0.1872044773 0.0645234835
70299580.0 -0.187889365 0.0660705239 0.52650679 -0.0376205187 0.5264707396 -0.0372647676 -0.1836430099 0.0650081251
75299550.0 -0.1852044724 0.0672955294 0.5287972423 -0.0439005553 0.5284530464 -0.0443207912 -0.1810195188 0.0652300466
80299520.0 -0.1826549278 0.0682204652 0.5305282216 -0.0512905857 0.5306407263 -0.0511507872 -0.1786224373 0.066083765
85299490.0 -0.1801154904 0.0689099329 0.5318667961 -0.0579354405 0.5320191892 -0.0576600904 -0.1761459605 0.0662489913
90299460.0 -0.1777705518 0.069860527 0.5324621606 -0.0649123858 0.5329910655 -0.0649768328 -0.1739486395 0.0667283959
95299430.0 -0.1754339154 0.0703654057 0.5337743622 -0.0718377757 0.5336763415 -0.0721123099 -0.1716525995 0.0673777906
100299400.0 -0.1738536735 0.0717183679 0.5334603322 -0.0787639934 0.5337653683 -0.0788053558 -0.1694341621 0.0674483624
105299370.0 -0.1720688356 0.0724678503 0.5343071281 -0.0857091565 0.5344231892 -0.0855596333 -0.1673744937 0.0679198854
110299340.0 -0.1703554012 0.0732409876 0.5346491022 -0.092146358 0.5343646252 -0.0921582117 -0.1664966212 0.0685186847
115299310.0 -0.1686196484 0.0740596633 0.5343537595 -0.0993705297 0.5343358178 -0.0993838762 -0.1647385397 0.0692294528
120299280.0 -0.1673798263 0.0746908486 0.5340967715 -0.1064352182 0.5342663691 -0.1060466455 -0.1633987414 0.0694452433
125299250.0 -0.1661447149 0.0756369154 0.5341202866 -0.1126505888 0.5341426103 -0.1126576196 -0.1623824476 0.0695934568
130299220.0 -0.1649774821 0.0767338796 0.5329636426 -0.1195094215 0.5332801519 -0.1195473455 -0.1611351606 0.0701058089
135299190.0 -0.1640093327 0.0778726692 0.5330597699 -0.1262001952 0.5323844907 -0.1261333983 -0.1598726783 0.070928315
140299160.0 -0.1628009583 0.0788735083 0.5318453883 -0.1327346191 0.5320967977 -0.1329482966 -0.1589162018 0.0719054626
145299130.0 -0.1614356146 0.0800296359 0.5309500095 -0.1393796181 0.5309582249 -0.1394927733 -0.158032005 0.0729425864
150299100.0 -0.1602926798 0.081030107 0.5299219499 -0.1453497237 0.5295298821 -0.1455053423 -0.157224315 0.0738254463
155299070.0 -0.1594292108 0.0821146913 0.5287558848 -0.1528820866 0.5282618486 -0.1525935574 -0.1558697142 0.0745871458
160299040.0 -0.158222267 0.0835466621 0.5270306894 -0.1586106906 0.5272901288 -0.1589389967 -0.1553598521 0.0754130327
165299010.0 -0.1573114009 0.0847634578 0.525990746 -0.1657933382 0.5256572447 -0.1657843906 -0.1542624094 0.0766996306
170298980.0 -0.1564360221 0.085692871 0.5241058783 -0.1717350396 0.5246602713 -0.1716186056 -0.1535055679 0.0774282929
175298950.0 -0.1557561275 0.0870430547 0.5230521421 -0.1782504842 0.5224324713 -0.1779340981 -0.1527267446 0.0787537795
180298920.0 -0.1547930563 0.0883847778 0.5206710099 -0.184624174 0.520652085 -0.184432796 -0.1519188041 0.0799038414
185298890.0 -0.1532741556 0.0892584611 0.5188732956 -0.190158016 0.5187225996 -0.1904277973 -0.1511385345 0.0808775054
190298860.0 -0.1527590696 0.0910199419 0.5175280134 -0.1966735565 0.5174650056 -0.196698267 -0.150330596 0.0816763622
195298830.0 -0.1518080339 0.0921067595 0.5153428744 -0.2028547263 0.5152010744 -0.2025656088 -0.149445449 0.082983152
200298800.0 -0.1507745719 0.0934143613 0.5132045492 -0.2089593354 0.5131250909 -0.2088333785 -0.1496285026 0.0841603903
205298770.0 -0.1497259885 0.0950637706 0.5109441729 -0.215507765 0.5108196272 -0.2149177554 -0.1485648163 0.0845447755
210298740.0 -0.1490899665 0.0962263996 0.5083505394 -0.2206601755 0.5084624637 -0.220664207 -0.1476896187 0.0866160686
215298710.0 -0.148248196 0.0979452662 0.5062215607 -0.2274716584 0.5059307278 -0.2271621529 -0.1473219905 0.087543496
220298680.0 -0.146973038 0.0989086268 0.5033683411 -0.2326643435 0.5036112667 -0.2328536782 -0.1468160786 0.0888079736
225298650.0 -0.1461675661 0.1004031791 0.5010403155 -0.2387010984 0.5013477866 -0.2385863901 -0.1461569291 0.0894709927
230298620.0 -0.1452464363 0.1019748904 0.4990076392 -0.2442839915 0.4992162603 -0.2446839541 -0.1455570545 0.0907059148
235298590.0 -0.1439008321 0.1033858268 0.4958635173 -0.2504656455 0.4962091187 -0.2502553058 -0.1447541902 0.0924016649
240298560.0 -0.1430596268 0.1051763172 0.4936777883 -0.2563855039 0.4932009933 -0.256366941 -0.1437916786 0.0937249003
245298530.0 -0.1421910953 0.1064284349 0.4908818592 -0.2618402032 0.4904251172 -0.2618298758 -0.1429720005 0.0944405648
250298500.0 -0.1407829399 0.1079382554 0.4868747711 -0.2676651967 0.4871378759 -0.267068904 -0.1425855802 0.095793523
255298470.0 -0.1400308994 0.1091208143 0.484624228 -0.2728420673 0.4848937932 -0.2729531184 -0.141518282 0.0966068641
260298440.0 -0.1393496899 0.1104678936 0.4819857745 -0.2784806983 0.4821558093 -0.2785948367 -0.1406425031 0.098243931
265298410.0 -0.137553033 0.1124022175 0.4789986581 -0.2845303667 0.4791455071 -0.2837278579 -0.1400365239 0.0994703675
270298380.0 -0.1365042148 0.1134923925 0.4759204394 -0.2888760756 0.4761447268 -0.2892080048 -0.1391037638 0.1006809798
275298350.0 -0.1352836974 0.1151285781 0.4725213684 -0.2951576135 0.4728162894 -0.2949132498 -0.1380219848 0.101594279
280298320.0 -0.1339291778 0.1167708038 0.4696821252 -0.3005024763 0.469656914 -0.3003444254 -0.136817999 0.1029186196
285298290.0 -0.1328963197 0.1182077125 0.4664898864 -0.3056277607 0.4661505314 -0.3055088516 -0.1360592733 0.1039191507
290298260.0 -0.1314731476 0.1198454458 0.4625172587 -0.3108875864 0.4632151646 -0.3108563034 -0.135091998 0.1056797477
295298230.0 -0.1302998138 0.1208406343 0.4599554814 -0.3162694019 0.4593286154 -0.3158817348 -0.1334136652 0.1067352202
300298200.0 -0.1292906141 0.1224724602 0.4561713737 -0.3212715124 0.4561477735 -0.3215861704 -0.1326020165 0.1079397101
305298170.0 -0.1278853151 0.1236717046 0.4523611231 -0.3268620033 0.4523943135 -0.3267053346 -0.1314816755 0.1089754778
310298140.0 -0.1267113946 0.1251748728 0.4494110526 -0.3320151967 0.4493389452 -0.3315277034 -0.1306877882 0.1101949851
315298110.0 -0.125184919 0.1259748758 0.4454885868 -0.3368100813 0.4456499238 -0.3370948619 -0.129548747 0.1113459441
320298080.0 -0.1234645525 0.1276841434 0.4411994015 -0.3424409488 0.4417014678 -0.3420325384 -0.1286696624 0.1126014697
325298050.0 -0.1227447905 0.1287381358 0.4378294457 -0.3474711972 0.4377277693 -0.3472861224 -0.12785427 0.1139735529
330298020.0 -0.1213408259 0.1299006385 0.4335415892 -0.3518696629 0.4337642407 -0.3521268026 -0.1270937663 0.1150160249
335297990.0 -0.1199844381 0.1312242628 0.4298125887 -0.3569090833 0.4295677075 -0.3570713267 -0.1261656787 0.1168591193
340297960.0 -0.1192447884 0.1327417426 0.4253547521 -0.3613724559 0.4251720742 -0.3619798616 -0.1248018872 0.1180977084
345297930.0 -0.1181167929 0.1344788666 0.4216591908 -0.3663818777 0.4210820174 -0.3663295186 -0.1241004845 0.1189619772
350297900.0 -0.1165381862 0.1355537351 0.4164977354 -0.3711986161 0.4167606499 -0.3710721419 -0.1232966563 0.1207307642
355297870.0 -0.1151017154 0.1374602111 0.4128300328 -0.3755862558 0.4131543501 -0.3754106497 -0.1224521176 0.1218332022
360297840.0 -0.113614744 0.1390546779 0.4093706804 -0.3801836691 0.4093594362 -0.3800704856 -0.121222906 0.1237918323
365297810.0 -0.1123739405 0.1401387213 0.4044803487 -0.384747943 0.4053082691 -0.3850031385 -0.1202566339 0.1250917075
370297780.0 -0.1106851022 0.1413520327 0.4002997379 -0.3888976598 0.4008408155 -0.3885530411 -0.1190466855 0.1265719035
375297750.0 -0.1092490992 0.1428508655 0.3960988899 -0.3936893436 0.3964086375 -0.3934571646 -0.1180316688 0.1275773524
380297720.0 -0.1078235164 0.1441319022 0.3924173723 -0.3981758454 0.3919570145 -0.3975455739 -0.11717876 0.1287688547
385297690.0 -0.1065367785 0.1454472828 0.3872848075 -0.4018931828 0.3871609738 -0.4022890156 -0.1156474565 0.1303183483
390297660.0 -0.1048083906 0.147173556 0.3829614441 -0.4065275994 0.3828946052 -0.40624553 -0.1149739054 0.1313924495
395297630.0 -0.1033599063 0.1483184965 0.3782665573 -0.4106312771 0.3782714628 -0.4106287841 -0.1129200808 0.1326493237
400297600.0 -0.1015628316 0.1494922718 0.373290755 -0.4151009502 0.3741686467 -0.414794902 -0.1120768557 0.1337271626
405297570.0 -0.1004214273 0.1505690276 0.369249831 -0.4184980947 0.3696446515 -0.4185127516 -0.1113604907 0.1353967211
410297540.0 -0.0982893894 0.1517362073 0.3650906811 -0.4223767768 0.3651905056 -0.4230178214 -0.109882616 0.1364592349
415297510.0 -0.0966929869 0.1530302 0.3601825536 -0.4268658306 0.360190675 -0.4266030803 -0.1087250891 0.1378008875
420297480.0 -0.0952128171 0.154665388 0.3548377465 -0.430580589 0.3555253548 -0.4310612766 -0.1079191484 0.1384933106
425297450.0 -0.0932945096 0.1553905777 0.3506211246 -0.4342722072 0.3509982094 -0.4346032846 -0.1066047605 0.1399599732
430297420.0 -0.0916771813 0.1564270467 0.3458556437 -0.4377639041 0.3459186013 -0.4379402405 -0.1053323377 0.140805873
435297390.0 -0.0902172632 0.157838972 0.3406432995 -0.4422385954 0.3406759024 -0.4421628149 -0.1032229052 0.1420161091
440297360.0 -0.0881561737 0.1591199842 0.3361174737 -0.4456552872 0.3357826277 -0.445464022 -0.102375026 0.1428473844
445297330.0 -0.0864816368 0.1598492109 0.3314770919 -0.449663601 0.3313484847 -0.4493906148 -0.1008266795 0.1435995431
450297300.0 -0.0848089396 0.1609291022 0.3264456084 -0.4530825454 0.32651766 -0.4530847999 -0.0994974574 0.1447304723
455297270.0 -0.083100324 0.1622237967 0.3212149957 -0.4563325911 0.3214578225 -0.4567184797 -0.0981740819 0.1455734471
460297240.0 -0.0816953656 0.1632060375 0.3163237074 -0.4601336398 0.3163096112 -0.4600226877 -0.096777986 0.1472635514
465297210.0 -0.0794001483 0.1641703704 0.3111566861 -0.4635838642 0.3114055256 -0.4640326544 -0.0953277614 0.1479481279
470297180.0 -0.0776639195 0.1647558223 0.3057328739 -0.4663455043 0.306348812 -0.4668807752 -0.0934244751 0.149371634
475297150.0 -0.0759391296 0.1660280205 0.3010331094 -0.4696207219 0.3009175624 -0.4697541494 -0.0920791112 0.1496612997
480297120.0 -0.07421741 0.1673868113 0.2960697501 -0.4736421165 0.2958442971 -0.4738708972 -0.0902839444 0.1511621441
485297090.0 -0.0725384726 0.1680269116 0.291084122 -0.4760373669 0.2907122415 -0.4761740276 -0.0890353358 0.15207288
490297060.0 -0.0706829387 0.1687758249 0.2858444574 -0.4798800815 0.2854202198 -0.4793397132 -0.087683242 0.153275366
495297030.0 -0.068786092 0.1699254876 0.2797396483 -0.4828045378 0.2803703001 -0.4826148058 -0.086378983 0.1543026349
500297000.0 -0.0668951529 0.1707466031 0.274880989 -0.4853857157 0.2747102407 -0.4856124864 -0.0845575563 0.1557052263
505296970.0 -0.0649822763 0.1717204531 0.2700275354 -0.4885983717 0.2691710275 -0.4886841865 -0.0832708282 0.1562203908
510296940.0 -0.0631163802 0.1723884253 0.26435968 -0.4917234311 0.2640997979 -0.4917606562 -0.0815766991 0.1575807019
515296910.0 -0.0611654423 0.173179062 0.2585536609 -0.4942188116 0.2589112652 -0.494338622 -0.0798944477 0.158424586
520296880.0 -0.0593206145 0.1742815413 0.2530196623 -0.4976889627 0.2534494087 -0.4972445064 -0.0787000293 0.1594833676
525296850.0 -0.0573677336 0.1745211066 0.2478700481 -0.4996862498 0.2482403215 -0.4995297541 -0.0773643597 0.1600749882
530296820.0 -0.0555394911 0.1755826319 0.242751522 -0.5025004637 0.2424557989 -0.5024303469 -0.07514331 0.1613357973
535296790.0 -0.0537910648 0.1763851207 0.2373596553 -0.5049060359 0.2370916355 -0.5046206945 -0.0739155544 0.1618297647
540296760.0 -0.0517484476 0.1771608683 0.2314445101 -0.5078364742 0.2317139106 -0.5077713775 -0.0728050636 0.1635196473
545296730.0 -0.0498092076 0.1777129592 0.225658961 -0.510066945 0.2256709225 -0.5099725944 -0.0708909335 0.1639658022
550296700.0 -0.0472720085 0.1784811368 0.2204987344 -0.5120124978 0.2205919394 -0.513082589 -0.0696258565 0.1651083321
555296670.0 -0.0458975292 0.1789265487 0.2150237459 -0.514544901 0.2150628619 -0.5147846432 -0.0680790158 0.1661770089
560296640.0 -0.0436179555 0.1802842373 0.2091473065 -0.5174883051 0.209259742 -0.5174849548 -0.0662010453 0.1670243038
565296610.0 -0.0421227057 0.180660975 0.2035695962 -0.5196982291 0.2035315177 -0.5193464921 -0.0650949624 0.1672224465
570296580.0 -0.0400694109 0.1812153145 0.198323223 -0.5215301007 0.1975407172 -0.5214762795 -0.0635049881 0.1687598511
575296550.0 -0.0381673607 0.1821587098 0.1923575203 -0.5240198825 0.192143082 -0.5233125981 -0.0617746942 0.1685976871
580296520.0 -0.0357073255 0.182438235 0.1865368863 -0.5259087736 0.1866271508 -0.5257511479 -0.0603164354 0.1697500583
585296490.0 -0.0342643822 0.1827618282 0.1814734095 -0.5274339344 0.1810834783 -0.5275088357 -0.0586932609 0.1703809173
590296460.0 -0.0315718439 0.1832904453 0.1755104107 -0.5288440471 0.1752567494 -0.5293626517 -0.0573824117 0.1709976446
595296430.0 -0.0295381226 0.1838467507 0.1689934247 -0.5318336935 0.1691567362 -0.5313674788 -0.0556164791 0.1711805656
600296400.0 -0.0280195908 0.184290593 0.1634852338 -0.5332435439 0.1634936327 -0.5328985404 -0.0539899157 0.172110985
605296370.0 -0.0258187258 0.184606733 0.15777362 -0.5346264624 0.1578125532 -0.5346927419 -0.0521572167 0.1727011382
610296340.0 -0.0238598643 0.1849561329 0.1517553783 -0.5362233861 0.1524137603 -0.5362568753 -0.0503696251 0.1734579759
615296310.0 -0.0211475715 0.1854132234 0.1459347357 -0.538022473 0.1457781428 -0.5384445024 -0.0485986831 0.1741354237
620296280.0 -0.0195442199 0.1854708567 0.140315088 -0.539037107 0.1402272239 -0.5392479442 -0.0469390628 0.1749192143
625296250.0 -0.0176764548 0.1857349954 0.1349532983 -0.5410991133 0.1343803753 -0.5412794146 -0.0448696252 0.1750032594
630296220.0 -0.0148182886 0.1864628766 0.127742936 -0.5424248498 0.1282023781 -0.5423061134 -0.0435290048 0.1760759935
635296190.0 -0.0137724941 0.1864659982 0.122885376 -0.5437253016 0.1226103888 -0.5436428171 -0.0416582028 0.1763780399
640296160.0 -0.0115913338 0.1869031521 0.1169089338 -0.5445460282 0.1168307846 -0.5448429936 -0.0398054246 0.176930206
645296130.0 -0.0094989218 0.187336035 0.1105380834 -0.5459208721 0.1109968138 -0.5461928185 -0.0381685866 0.1774863291
650296100.0 -0.0071301305 0.1872410884 0.1047183879 -0.5468180215 0.1051690888 -0.5471966958 -0.036223255 0.1775270312
655296070.0 -0.0054415726 0.1876555707 0.0991893815 -0.5485293709 0.0988257075 -0.5481171761 -0.0342695489 0.1785020651
660296040.0 -0.0037012309 0.1875018919 0.0932810853 -0.5489484746 0.0931638667 -0.5492490278 -0.0322831748 0.178731629
665296010.0 -0.0010628034 0.1876615444 0.0868928648 -0.5502348333 0.0869898417 -0.5501846973 -0.0305485939 0.1796475546
670295980.0 3.83615e-05 0.1879557571 0.081129124 -0.5510743745 0.0814423204 -0.5508298787 -0.029165602 0.1798516516
675295950.0 0.0028837319 0.188305583 0.0756141145 -0.5517194658 0.0757362384 -0.5516102607 -0.027669952 0.1802340064
680295920.0 0.0047884579 0.1882020039 0.0693326105 -0.5521914919 0.0690679085 -0.5528570243 -0.0256927088 0.1811703245
685295890.0 0.007217117 0.1890633135 0.0631448454 -0.553709477 0.0630151894 -0.5533313794 -0.0240055789 0.1818286184
690295860.0 0.0090897463 0.1889461259 0.0571031497 -0.5535459251 0.057218576 -0.5540154387 -0.0222341052 0.1822005128
695295830.0 0.0107649755 0.188720886 0.0516756478 -0.55447332 0.0511560124 -0.5544823256 -0.0204951462 0.1828887871
700295800.0 0.0132270375 0.1881774917 0.0452128958 -0.5546113819 0.0449685218 -0.5543679153 -0.0187014829 0.1834587891
705295770.0 0.0152606674 0.1891182462 0.0390005872 -0.5556895035 0.039329464 -0.555427133 -0.017159003 0.1836910394
710295740.0 0.0174338128 0.1887389767 0.033581341 -0.556390323 0.0333800431 -0.5559603822 -0.0150903866 0.1835902722
715295710.0 0.0191130041 0.188451381 0.0280846714 -0.5557821365 0.0270961141 -0.556097205 -0.0127812003 0.1839152301
720295680.0 0.021505233 0.188440197 0.0215359503 -0.5566576188 0.0214479845 -0.5564883412 -0.0114423034 0.1847871949
725295650.0 0.0234140983 0.1886240673 0.0152280507 -0.5567582932 0.0152935705 -0.5568905645 -0.0101400406 0.1852351018
730295620.0 0.0259243933 0.1884853474 0.0095415048 -0.5567534284 0.009343918 -0.5564376773 -0.0086579439 0.1850216742
735295590.0 0.0278077537 0.1885538468 0.003396526 -0.5568492173 0.0032052957 -0.5568048412 -0.0069513736 0.1848837193
740295560.0 0.0297364333 0.1881520387 -0.002802761 -0.5563289083 -0.002608711 -0.5565572088 -0.0043779812 0.1855154935
745295530.0 0.0314956179 0.1879950222 -0.0086130929 -0.5563646562 -0.0086641187 -0.5562492275 -0.0027677866 0.1852011557
750295500.0 0.0340295742 0.1878280731 -0.0147396984 -0.5563976283 -0.0145425938 -0.5561843651 -0.0010545495 0.1852607462
755295470.0 0.0360537558 0.1872909676 -0.0207230756 -0.5561100583 -0.0206748977 -0.5562398118 0.0009183834 0.1852729684
760295440.0 0.0380343442 0.1872864839 -0.026618904 -0.556204469 -0.0266509494 -0.5561487636 0.0024038813 0.1855902227
765295410.0 0.0401002879 0.1865200972 -0.0322866402 -0.5555432437 -0.0330064562 -0.5561333444 0.004256139 0.1858351262
770295380.0 0.0421989278 0.1863435548 -0.0388293308 -0.5552811631 -0.0388117613 -0.5548949984 0.0059021942 0.1857380029
775295350.0 0.0439043526 0.1857956919 -0.0450002396 -0.5543294136 -0.0444261211 -0.5543966163 0.0071585457 0.1861370504
780295320.0 0.0459056701 0.1856657803 -0.0504944933 -0.5538751469 -0.050257538 -0.5537675261 0.0094849412 0.1858411905
785295290.0 0.0479559991 0.1848063946 -0.0567309995 -0.552793471 -0.0565160418 -0.5533154884 0.0117997746 0.1859298318
790295260.0 0.0505155293 0.1850388612 -0.0620069567 -0.5526057829 -0.0618824386 -0.5523799757 0.0132430139 0.186216766
795295230.0 0.0522490547 0.1842988895 -0.0686250374 -0.5515984737 -0.067965891 -0.5521607632 0.015288768 0.1861722374
800295200.0 0.0539647645 0.1841249787 -0.0745234431 -0.5508635705 -0.0746190333 -0.5513522193 0.0170660577 0.1857976771
805295170.0 0.0563416364 0.1834743517 -0.0803020658 -0.5502860509 -0.0804057001 -0.550306095 0.0188672591 0.1862160674
810295140.0 0.0580731032 0.1827322128 -0.0858558088 -0.5488560383 -0.0864515307 -0.5491306077 0.021075622 0.186010403
815295110.0 0.0600249758 0.1822017846 -0.0919862159 -0.5480370443 -0.0917128863 -0.5482434036 0.0225583304 0.1858417217
820295080.0 0.0618372086 0.1819391736 -0.0976242275 -0.5472461287 -0.0973649726 -0.5470128542 0.0245001339 0.1857283126
825295050.0 0.0647212435 0.1814043485 -0.1031949141 -0.5455893594 -0.1037624412 -0.5463245501 0.0264961316 0.1860084593
830295020.0 0.0664766343 0.1808968581 -0.1102214659 -0.5445467125 -0.1097954354 -0.5444910848 0.0289072127 0.1859699434
