!Created with skrf (http://scikit-rf.org).
# Hz S RI R 50.0 
!freq ReS11 ImS11 ReS21 ImS21 ReS12 ImS12 ReS22 ImS22
300000.0 -0.3212589607 -0.0752050752 0.3757996731 0.0401979886 0.3729598324 0.0395086174 -0.3199792383 -0.0929542386
5299970.0 -0.3267563452 0.0045129871 0.37841323 0.0025852722 0.3782669583 0.0024402643 -0.3244228709 0.0052828029
10299940.0 -0.3241803749 0.0136088867 0.3794562317 0.0020471454 0.3795261094 0.0027328211 -0.3219709677 0.0158756044
15299910.0 -0.321707697 0.0206552948 0.381994529 0.0021228256 0.3819605622 0.0021280877 -0.3186253655 0.0238199844
20299880.0 -0.3186289157 0.025988825 0.3846618859 0.0022340453 0.3850646618 0.0015837367 -0.3150730591 0.0304062149
25299850.0 -0.3156649555 0.031497826 0.3882016233 0.0002982733 0.3879995742 0.0003493321 -0.311007806 0.0356586929
30299820.0 -0.3126660139 0.0356790554 0.3913808851 -0.0020425879 0.3914917612 -0.0024287835 -0.3071830555 0.041006302
35299790.0 -0.3101683932 0.0398720762 0.3951287798 -0.0051788122 0.394886554 -0.0056572969 -0.3038596651 0.045089124
40299760.0 -0.3071716012 0.043676165 0.397841437 -0.0088687304 0.3982999734 -0.0087246492 -0.3004472477 0.0481567319
45299730.0 -0.304672539 0.0466613654 0.4006975625 -0.0128365144 0.4010419839 -0.0126676389 -0.297680489 0.0516030198
50299700.0 -0.302563953 0.0493598781 0.4036760444 -0.0171088896 0.403447312 -0.0169792961 -0.2943661928 0.0544419592
55299670.0 -0.3004454648 0.0521090128 0.4057853505 -0.0223353826 0.4056053747 -0.0219894559 -0.2915838598 0.0570836076
60299640.0 -0.2978334671 0.0546956218 0.4073425795 -0.0269388214 0.4077426707 -0.0267352461 -0.2890126517 0.0592483342
65299610.0 -0.2963894651 0.0572082453 0.4090539328 -0.0318587664 0.4093948946 -0.0318189747 -0.2870544841 0.0615008016
70299580.0 -0.294697518 0.0598803485 0.410444683 -0.0369340429 0.4102003298 -0.0368615003 -0.2847839362 0.063930153
75299550.0 -0.2929606928 0.06260468 0.4112000502 -0.0422292599 0.4113296044 -0.0423122003 -0.2832150995 0.0657472847
80299520.0 -0.291396409 0.064821963 0.412387399 -0.0475075093 0.4125371661 -0.0475434049 -0.2812705016 0.068190986
85299490.0 -0.2904767868 0.0667234334 0.4128085504 -0.0523113094 0.4129283139 -0.0523292249 -0.2800332209 0.0699373582
90299460.0 -0.2888638293 0.0691880927 0.4130009849 -0.0580253244 0.4131823662 -0.0578675102 -0.2783635089 0.0718835867
95299430.0 -0.2873507139 0.0716629087 0.4133422622 -0.063288387 0.4135073862 -0.0627530165 -0.2763839255 0.0742248749
100299400.0 -0.286243683 0.0740763822 0.4132716443 -0.0683183547 0.4132844897 -0.0680101958 -0.2751820551 0.0759831545
105299370.0 -0.2850323922 0.0765345645 0.4134406509 -0.0739362053 0.4134325618 -0.0736201178 -0.2736939458 0.0782028106
110299340.0 -0.2839885041 0.0787827037 0.4130066479 -0.0785093033 0.4130589577 -0.0783505058 -0.2724946716 0.0803776249
115299310.0 -0.2827831761 0.0808398423 0.4131548388 -0.0838409014 0.412913629 -0.0837143097 -0.2715612179 0.0828159237
120299280.0 -0.2821828273 0.0830884978 0.4123822988 -0.0887461081 0.4126674222 -0.0888469029 -0.2704761725 0.0847723775
125299250.0 -0.2810003189 0.0853278013 0.4119901265 -0.0938111013 0.4123788104 -0.0937774056 -0.2697917027 0.086747723
130299220.0 -0.2803145633 0.0881771465 0.4109980882 -0.0992405129 0.4112168578 -0.0988940352 -0.268347459 0.0888459049
135299190.0 -0.2793484204 0.0904131665 0.4107076397 -0.1039412412 0.4106478113 -0.1037086794 -0.2674467736 0.0911250184
140299160.0 -0.2786657352 0.0931720975 0.410193228 -0.1089662538 0.4097039554 -0.1090483437 -0.2665776053 0.0938876029
145299130.0 -0.2775222609 0.0955159204 0.4091853857 -0.1142487743 0.4089197217 -0.1141942006 -0.2657386327 0.0961246301
150299100.0 -0.2760819951 0.0981571755 0.4074391092 -0.1184814591 0.4077668804 -0.1184065684 -0.2646144336 0.0984310634
155299070.0 -0.2757272138 0.10088022 0.4070643943 -0.1241584861 0.4065597079 -0.123799103 -0.2634017053 0.1009343356
160299040.0 -0.2744757179 0.1034915923 0.4053678213 -0.1286696999 0.4049562803 -0.1288430265 -0.2629476612 0.1033507959
165299010.0 -0.2736131893 0.105814003 0.4038501079 -0.1335669132 0.4045154998 -0.1336526087 -0.2616217478 0.1059501425
170298980.0 -0.2729354847 0.1086063214 0.4029388576 -0.1384454345 0.4029263899 -0.1385917297 -0.2608822473 0.1084602241
175298950.0 -0.2719059811 0.1112953598 0.4019127016 -0.1427924646 0.4012648895 -0.142796046 -0.2600631889 0.1106305941
180298920.0 -0.2711953122 0.1139090351 0.4002426766 -0.1479374576 0.4000859032 -0.1477758282 -0.2586507649 0.1134898886
185298890.0 -0.2695063492 0.1162274924 0.3983180855 -0.1524862313 0.3983747878 -0.1525995179 -0.2574267276 0.1159511078
190298860.0 -0.2686376477 0.119581405 0.3969525826 -0.1576845735 0.3970854327 -0.1572613513 -0.2565414445 0.1180593203
195298830.0 -0.2677107865 0.1218075435 0.3952270074 -0.161819777 0.3951541799 -0.1618830912 -0.2552837426 0.1205856992
200298800.0 -0.2664893995 0.1247294681 0.3935559195 -0.1666140491 0.3936437892 -0.166549741 -0.2547177049 0.1231071449
205298770.0 -0.2655271673 0.1274842841 0.3915700298 -0.171408607 0.3916019405 -0.1711565981 -0.2531258949 0.1251482119
210298740.0 -0.2644825258 0.1296006168 0.3899285387 -0.1754252985 0.3895870112 -0.1755067099 -0.2518128726 0.1284747669
215298710.0 -0.2637686832 0.1326650025 0.3880061553 -0.1799331755 0.3878327566 -0.1800686512 -0.2513387232 0.1306951913
220298680.0 -0.2617575131 0.1352170651 0.3857075518 -0.18447291 0.3858300398 -0.1845800669 -0.2502859316 0.1330629799
225298650.0 -0.2610450668 0.1376112591 0.3838813518 -0.1891865895 0.3840211044 -0.1891218743 -0.2490154204 0.1357647236
230298620.0 -0.2597109799 0.1408382005 0.3818270591 -0.1933212078 0.382654639 -0.1932317974 -0.2477651461 0.1381229894
235298590.0 -0.2582577064 0.1435348155 0.3797156761 -0.1977532339 0.3800163304 -0.1973823311 -0.2464357524 0.1408532101
240298560.0 -0.257161398 0.1460998346 0.3778698968 -0.2022211802 0.3777098638 -0.2024843631 -0.2449829348 0.144099925
245298530.0 -0.2557798969 0.1489051943 0.3759856422 -0.2065146792 0.3755306062 -0.2063935898 -0.2437743467 0.1454432957
250298500.0 -0.25438819 0.1516625222 0.3729979001 -0.2110719462 0.3728820156 -0.2105850761 -0.2427469706 0.1485229177
255298470.0 -0.2528984325 0.1542076182 0.3705725088 -0.214826075 0.3711032809 -0.2147745308 -0.2411541999 0.1509314345
260298440.0 -0.2517938883 0.156674406 0.3684585568 -0.2193312258 0.3687200619 -0.2192431713 -0.2394940796 0.1537515741
265298410.0 -0.2498260349 0.1598347791 0.3662080527 -0.2233298207 0.3662695928 -0.2233198297 -0.2382432855 0.1563771709
270298380.0 -0.2487742828 0.162578168 0.3639085179 -0.2275455744 0.3640482251 -0.2271217299 -0.2367028934 0.1584687324
275298350.0 -0.2468735761 0.1651208706 0.3611588492 -0.2316247526 0.361280042 -0.2315316519 -0.2349971281 0.1612325699
280298320.0 -0.2450478049 0.1676711035 0.3588885763 -0.2356269714 0.3586987266 -0.2357140274 -0.2336028418 0.1637692686
285298290.0 -0.2435796762 0.1706258768 0.3562181717 -0.2393926431 0.3557091997 -0.2396661188 -0.2317374507 0.1663942791
290298260.0 -0.2417674667 0.1732831524 0.3533227743 -0.2433133261 0.3534285636 -0.24373574 -0.2302479778 0.1689188574
295298230.0 -0.2400335147 0.1754311037 0.3506813547 -0.2474333874 0.3510429445 -0.2477459529 -0.2283865015 0.1710286969
300298200.0 -0.2388064071 0.1781914348 0.3482820801 -0.2515250054 0.3482806274 -0.2517976055 -0.2270238697 0.1738313102
305298170.0 -0.2368797948 0.1805343625 0.3450642204 -0.2557499635 0.3453158058 -0.2558429924 -0.2244329039 0.1759103012
310298140.0 -0.2348212436 0.1835276684 0.3425615833 -0.2597949274 0.3427095533 -0.2594668056 -0.223286627 0.1784213363
315298110.0 -0.2330318259 0.1855895693 0.3396147737 -0.2632765342 0.3396925544 -0.2634404104 -0.22147308 0.1808229305
320298080.0 -0.2312928239 0.1881223956 0.3359897032 -0.2675247653 0.3367847249 -0.2675133858 -0.2195716204 0.1832942202
325298050.0 -0.2294792298 0.1908663578 0.3336280011 -0.2712606283 0.333260492 -0.2712198262 -0.2179234762 0.1855869897
330298020.0 -0.2275871077 0.1931438473 0.329923604 -0.2752249113 0.3304357999 -0.2748873777 -0.2164549388 0.1877595855
335297990.0 -0.2256486314 0.1953927588 0.3269049038 -0.2784904306 0.3271618731 -0.27873355 -0.2147016627 0.1905696051
340297960.0 -0.2242725846 0.1983723525 0.323820581 -0.2823394249 0.323499171 -0.2825750414 -0.2125257639 0.1931117936
345297930.0 -0.2221698636 0.2009592385 0.3205621157 -0.2861337625 0.3206359628 -0.2858174178 -0.2109763244 0.1951158463
350297900.0 -0.220165497 0.2032895436 0.3173714935 -0.2895376431 0.3174837695 -0.2893078264 -0.2092016797 0.1978452675
355297870.0 -0.218019704 0.2060993624 0.3142087718 -0.2929374538 0.3144491212 -0.2929618995 -0.2074723531 0.2003092019
360297840.0 -0.216164347 0.2082125819 0.3110486055 -0.2962360659 0.3113614122 -0.2962991781 -0.2049788611 0.2026502013
365297810.0 -0.214356539 0.2108945587 0.3075680424 -0.3000729171 0.3080922815 -0.2997036206 -0.2032904815 0.2050209882
370297780.0 -0.2117637166 0.2130168953 0.3038929847 -0.3028515959 0.3045380826 -0.302732711 -0.2008223756 0.2072784796
375297750.0 -0.2096309271 0.2155178683 0.3010095505 -0.3063101941 0.301305602 -0.30632926 -0.1988178453 0.2092388718
380297720.0 -0.2071734292 0.2176727971 0.2972186229 -0.3096337294 0.2979192092 -0.3090266532 -0.1971654943 0.2116967508
385297690.0 -0.2056051731 0.2203478532 0.2939852911 -0.3128798304 0.2939315035 -0.3127293039 -0.1947396117 0.2141137743
390297660.0 -0.2032990238 0.2223881752 0.2908452159 -0.3158580851 0.2906519431 -0.3156827629 -0.1926888245 0.2158816066
395297630.0 -0.2006998824 0.2248727567 0.2874078324 -0.3194085266 0.2875291834 -0.3192338204 -0.1903001754 0.2182462167
400297600.0 -0.1987996559 0.2273429354 0.283387268 -0.3228028287 0.2836874555 -0.3225315587 -0.1879810969 0.2206026815
405297570.0 -0.1966805721 0.229419694 0.2798115954 -0.3251898569 0.2800084894 -0.3254389824 -0.1860804221 0.2226203083
410297540.0 -0.1939527772 0.2315706984 0.2765724055 -0.3284713641 0.2767199206 -0.3287485972 -0.1835505468 0.2252176513
415297510.0 -0.1913212384 0.2332466709 0.2725345021 -0.331519447 0.2728689282 -0.3318735764 -0.1814705404 0.2269848992
420297480.0 -0.1892726145 0.2365591516 0.2694045557 -0.3347196086 0.2690834627 -0.3350405449 -0.1790300214 0.2290784512
425297450.0 -0.1864075746 0.2381781199 0.2654539931 -0.3371268513 0.2656570414 -0.337158004 -0.1769317096 0.2312652369
430297420.0 -0.1843526651 0.2402592457 0.2617735223 -0.3400544106 0.262166765 -0.3401756026 -0.1749973849 0.2328682225
435297390.0 -0.1820034388 0.242322359 0.2579490189 -0.3430627553 0.2575130179 -0.3430813555 -0.1718298664 0.2350103027
440297360.0 -0.1792618058 0.2443720423 0.2541467864 -0.3457058424 0.2544030198 -0.3454975245 -0.1697026252 0.2369776252
445297330.0 -0.176694863 0.2462941854 0.2505955388 -0.3485840359 0.2503758603 -0.3483829863 -0.1670742448 0.2386988308
450297300.0 -0.1741536973 0.2483335853 0.2465315788 -0.3513618911 0.2468972009 -0.3514393529 -0.1646012905 0.240607981
455297270.0 -0.1717787635 0.2505934189 0.242487731 -0.3537730889 0.2427317749 -0.3539309773 -0.1620121635 0.2423844036
460297240.0 -0.1691880705 0.252627877 0.2385313585 -0.356346814 0.2388645724 -0.3566382716 -0.1596894186 0.2445781569
465297210.0 -0.1662656908 0.2545903469 0.2351391877 -0.3588658664 0.2348777503 -0.359173696 -0.1569276772 0.2461997812
470297180.0 -0.1637032632 0.2561440719 0.230564579 -0.3618209237 0.2307587049 -0.3617185473 -0.154587511 0.2484266365
475297150.0 -0.1611334704 0.2580216973 0.2266773592 -0.3636814144 0.2267300502 -0.3637731986 -0.1516079372 0.2495272747
480297120.0 -0.1583240239 0.2600320683 0.2228801292 -0.3669127681 0.2226427501 -0.3668190083 -0.1489106977 0.2515975021
485297090.0 -0.1558182415 0.2616842981 0.2190131692 -0.3686174184 0.2185586947 -0.3686215809 -0.1464517278 0.2533028301
490297060.0 -0.1533565451 0.2637922636 0.2149398913 -0.3711475665 0.2146982457 -0.3714347952 -0.1435950101 0.255299062
495297030.0 -0.1504589401 0.2653487236 0.2104557429 -0.3732493349 0.2106156348 -0.3734213309 -0.1412941175 0.2570171624
500297000.0 -0.1473675701 0.2671818025 0.2064398277 -0.3755128537 0.2064328613 -0.3757180763 -0.138294083 0.2592065278
505296970.0 -0.144338579 0.2689699441 0.2021144573 -0.3780498819 0.2021384177 -0.3781929314 -0.135749843 0.2603207222
510296940.0 -0.1418295705 0.270731788 0.1980669975 -0.3804608893 0.1980830652 -0.380442237 -0.1330469885 0.2618480372
515296910.0 -0.1388177131 0.2718076577 0.1935988778 -0.3820556888 0.1937986552 -0.3823446541 -0.1300899145 0.263306569
520296880.0 -0.1359441211 0.2738383391 0.1897548671 -0.3847745336 0.1899812894 -0.3841520275 -0.1278154768 0.2648229497
525296850.0 -0.133225462 0.2748330176 0.1850253675 -0.3860664685 0.1859039638 -0.3863255627 -0.1249135606 0.2665561181
530296820.0 -0.1303321506 0.2769145608 0.1813497898 -0.3885486154 0.181067814 -0.3886121664 -0.1219816231 0.2681025081
535296790.0 -0.1276569041 0.2780602875 0.1773466127 -0.3898398873 0.177342652 -0.3897312809 -0.1196517879 0.2692188513
540296760.0 -0.1245780186 0.2796627782 0.1729303514 -0.3921243456 0.1725203954 -0.3922794209 -0.116521141 0.2708926038
545296730.0 -0.1217035523 0.2810122313 0.1680332493 -0.3936295556 0.1685996614 -0.3940208625 -0.1139394056 0.2719969658
550296700.0 -0.1187183367 0.2826791106 0.1641347171 -0.3955331223 0.1640997018 -0.3956817592 -0.1108349237 0.2736428252
555296670.0 -0.1161404429 0.2839849565 0.1598041108 -0.3975528369 0.1599203571 -0.3976766485 -0.1079955401 0.2752893516
560296640.0 -0.1125411396 0.2856361766 0.1553992213 -0.399380447 0.155730288 -0.3990912074 -0.1051307065 0.276081261
565296610.0 -0.1100106743 0.2867181539 0.1512690629 -0.4007064617 0.1515501714 -0.4007547451 -0.1026707076 0.2771276283
570296580.0 -0.1073295985 0.2878015512 0.1472030796 -0.4026331843 0.1464743871 -0.4024506851 -0.0993349617 0.2788518705
575296550.0 -0.1040052428 0.289421815 0.1423165579 -0.4040904673 0.1424874762 -0.4041517531 -0.0965327734 0.2798694265
580296520.0 -0.100733122 0.2905252142 0.1379346541 -0.4054735388 0.1381780427 -0.4052491665 -0.0934414629 0.281000901
585296490.0 -0.0980901587 0.2913320318 0.1336176463 -0.4064994611 0.1336965062 -0.4070835505 -0.0904447911 0.2822492484
590296460.0 -0.094653457 0.2929012956 0.1293356747 -0.4079548075 0.1291727779 -0.4080827366 -0.0880044035 0.2834863356
595296430.0 -0.0916299817 0.293732942 0.1241712376 -0.4095965125 0.1246340346 -0.4094695726 -0.0847673296 0.284038259
600296400.0 -0.0887672254 0.2951940641 0.1199181081 -0.4111247677 0.1202522647 -0.4107886048 -0.0818124475 0.2849220105
605296370.0 -0.0858258533 0.2959320873 0.1157011945 -0.4119507686 0.1158737344 -0.4121857749 -0.0785318168 0.2863811681
610296340.0 -0.0823713961 0.2974308296 0.11100496 -0.4129850768 0.1116027621 -0.41321267 -0.0755733293 0.2872061007
615296310.0 -0.0791739297 0.2981719382 0.1065338771 -0.4140202463 0.106461343 -0.4146908358 -0.0722250733 0.2880424532
620296280.0 -0.0762487645 0.2987325213 0.1021819948 -0.4150507574 0.10201321 -0.4155121997 -0.06985446 0.2889576889
625296250.0 -0.0732341156 0.2997529299 0.0980412071 -0.4165638624 0.0974589331 -0.4166796081 -0.0661779432 0.2899227397
630296220.0 -0.0693224282 0.3006884776 0.0925040515 -0.417509401 0.0927671761 -0.4173871937 -0.0634291933 0.2911681887
635296190.0 -0.0668992942 0.3014345465 0.0883552287 -0.4183437523 0.088471468 -0.4185397893 -0.0605165779 0.2915331697
640296160.0 -0.0636149351 0.3026509748 0.0838604515 -0.4193705874 0.0845115457 -0.4193627856 -0.0573127485 0.2926825093
645296130.0 -0.0602303331 0.3037926626 0.0793944785 -0.4199852735 0.0795394033 -0.4204307429 -0.0540115169 0.2932812054
650296100.0 -0.0572480359 0.3041134957 0.0752530104 -0.4207692168 0.0746510503 -0.4206525317 -0.0509411601 0.2937541675
655296070.0 -0.0539409359 0.3048100892 0.0699915269 -0.4214055827 0.070388206 -0.421486307 -0.0478598963 0.2945598847
660296040.0 -0.0511079818 0.3052703837 0.0656576525 -0.4220867031 0.065582594 -0.422550392 -0.0445573475 0.2953867714
665296010.0 -0.0474067383 0.3057447706 0.0606794236 -0.4230221804 0.0609851492 -0.4232263728 -0.0415780277 0.2964578913
670295980.0 -0.0449821608 0.3070931377 0.0567321281 -0.4235113844 0.0566804522 -0.4234805813 -0.0388222274 0.2964056601
675295950.0 -0.0413235622 0.3074893604 0.052103713 -0.4240352325 0.0521757496 -0.4237755002 -0.0358873948 0.2972729202
680295920.0 -0.0381381172 0.3080950017 0.0470106 -0.4245982188 0.0468642538 -0.4248040282 -0.0322699215 0.2980819547
685295890.0 -0.0347875071 0.3089771283 0.0425668352 -0.4248908046 0.0425555891 -0.4251762787 -0.0293346567 0.2981622681
690295860.0 -0.0317400313 0.3092138142 0.0383477102 -0.4253392401 0.0383058306 -0.4257491654 -0.0261980267 0.2993193831
695295830.0 -0.0284828353 0.3094214055 0.0337300335 -0.425689711 0.0334486713 -0.4256201221 -0.0230370874 0.2993571563
700295800.0 -0.0250637149 0.309662441 0.02843168 -0.4261455527 0.0285852148 -0.4259659639 -0.0200538159 0.2999041371
705295770.0 -0.0220948676 0.3106107177 0.0239370472 -0.4265980885 0.0245376258 -0.4265269623 -0.0168718257 0.3004938715
710295740.0 -0.0185616093 0.3105874941 0.0196098303 -0.4269183403 0.0200145045 -0.4270540637 -0.0138550907 0.3003404447
715295710.0 -0.0155344501 0.3110479781 0.0153359831 -0.4269543334 0.0146777062 -0.4266228245 -0.010316146 0.3006479303
720295680.0 -0.0123486547 0.3111849465 0.010400192 -0.4269386708 0.0105314163 -0.4270449035 -0.00704678 0.3012263091
725295650.0 -0.0090111913 0.3115896433 0.0058333366 -0.4271831644 0.0059269311 -0.4269929812 -0.0043700752 0.3016740109
730295620.0 -0.0055036743 0.3119422177 0.0010593512 -0.4267792418 0.0012249326 -0.4268607852 -0.001657405 0.3011249146
735295590.0 -0.0024420496 0.3121287861 -0.0033463525 -0.4271258128 -0.0033614404 -0.4270440072 0.001611632 0.3014071282
740295560.0 0.0003433992 0.312588085 -0.0080795188 -0.4270914371 -0.0081998669 -0.4268103639 0.0054364622 0.3018317494
745295530.0 0.0037486327 0.3128607181 -0.0128274455 -0.4261164217 -0.0125587208 -0.4266335952 0.0084643233 0.3012220113
750295500.0 0.0074029294 0.3124806155 -0.0173252399 -0.4261551084 -0.0170758779 -0.4266333499 0.0112026841 0.3019677846
755295470.0 0.0106731684 0.3122468407 -0.0220752045 -0.4261518889 -0.0218113496 -0.4259344323 0.0147325798 0.3010300998
760295440.0 0.0136602837 0.3124341908 -0.0264234569 -0.4263133475 -0.0265385746 -0.4260349847 0.0179274048 0.3015424768
765295410.0 0.0166733312 0.3127075228 -0.0310294654 -0.4255398123 -0.0315500152 -0.4258112745 0.0211821504 0.3016695845
770295380.0 0.0201553611 0.3125470429 -0.035635456 -0.4250757263 -0.0357850934 -0.4249102087 0.0239738913 0.3015023344
775295350.0 0.0231998769 0.312142661 -0.0407162374 -0.4243232321 -0.0401988984 -0.42481118 0.0269453515 0.3012771297
780295320.0 0.0265427962 0.3120129533 -0.0451421408 -0.4238698498 -0.0447404743 -0.4241877265 0.0305159844 0.3009423508
785295290.0 0.0295018865 0.3117908581 -0.0495992405 -0.4232198781 -0.0492400693 -0.4237089172 0.0340561996 0.3008512266
790295260.0 0.0336985457 0.3119223777 -0.0539129026 -0.4229439693 -0.0535032378 -0.4229493566 0.0372502667 0.3008585104
795295230.0 0.0362946699 0.311346762 -0.0586088625 -0.4218964656 -0.0581892437 -0.4223844106 0.040397094 0.3007964002
800295200.0 0.0398069215 0.3114090635 -0.0635078878 -0.4214171017 -0.0630811166 -0.4213245099 0.0434946424 0.3001904934
805295170.0 0.04313379 0.3109566606 -0.0677657893 -0.4208534941 -0.067454678 -0.4208219556 0.0464566662 0.3004479628
810295140.0 0.0462309253 0.310515518 -0.072133865 -0.4198280326 -0.072164513 -0.4202289254 0.0501434303 0.2998132412
815295110.0 0.0493961382 0.3099345101 -0.0769345515 -0.4186078316 -0.0765172669 -0.4191691934 0.0527110387 0.2991263341
820295080.0 0.0525359301 0.3099933666 -0.0812879423 -0.4182072969 -0.0805663621 -0.4181060104 0.0558636522 0.2993472581
825295050.0 0.056546097 0.3091675508 -0.0856146719 -0.4173166755 -0.085833504 -0.4174773728 0.0594781576 0.2985144227
830295020.0 0.059203499 0.3089492018 -0.0904933582 -0.4160550195 -0.090366081 -0.4160446588 0.0629449969 0.2981890965
