!Created with skrf (http://scikit-rf.org).
# Hz S RI R 50.0 
!freq ReS11 ImS11 ReS21 ImS21 ReS12 ImS12 ReS22 ImS22
300000.0 -0.2149219733 -0.0555953709 -0.0008276541 4.9947e-05 0.0005398383 0.0008230767 -0.771908922 -0.1392755682
5299970.0 -0.2169751049 0.0081930109 0.0002472967 0.0002185267 0.0001771222 0.0001862005 -0.784298091 -0.0074653144
10299940.0 -0.2133824709 0.019265671 3.28681e-05 6.45222e-05 -4.3073e-05 -4.14352e-05 -0.7874894526 -0.003469205
15299910.0 -0.2086423888 0.0286444332 0.0001564115 -9.204e-06 -0.0001300492 -6.59253e-05 -0.7928049706 -0.0017431732
20299880.0 -0.2034989488 0.036054184 8.14e-07 -0.0001739711 2.1901e-06 -0.0001713444 -0.799526634 0.0020451799
25299850.0 -0.1976726433 0.0420803572 -0.0001210732 8.13613e-05 -6.13408e-05 2.81839e-05 -0.8057298474 0.0082257704
30299820.0 -0.1918375749 0.0469484469 -0.0001511832 -5.90719e-05 0.0001254445 -0.0001449838 -0.8120362796 0.0165363054
35299790.0 -0.1863274086 0.0506038653 1.37637e-05 4.2748e-06 1.04747e-05 0.000160918 -0.8170792521 0.0248662457
40299760.0 -0.1806604355 0.0535747926 -9.85906e-05 9.26864e-05 -5.45808e-05 0.0001107564 -0.8212385196 0.034453463
45299730.0 -0.1753811385 0.0553913183 0.0001076761 0.0002533163 -2.64193e-05 0.0001233558 -0.8250250546 0.0441865643
50299700.0 -0.1709121696 0.0570489583 -0.0001572808 -6.04753e-05 4.04718e-05 -0.0001368075 -0.8275608617 0.0538821645
55299670.0 -0.1666610132 0.0577541527 -0.0001476857 -0.0001018957 7.28781e-05 -2.01206e-05 -0.8289423929 0.0646100935
60299640.0 -0.1624704501 0.0589674935 0.0001200185 0.0002321245 1.53262e-05 0.0001040421 -0.8303736952 0.0743334267
65299610.0 -0.1588685579 0.059385627 -0.0001223558 0.0002038252 4.92691e-05 -0.0001141717 -0.8319816522 0.0842622607
70299580.0 -0.1557410617 0.0597854816 -0.0001917423 0.0001626102 -0.0001356637 -0.0001702111 -0.8319227859 0.0945716194
75299550.0 -0.1527241315 0.059988077 9.44483e-05 -0.00013225 -8.4967e-06 1.01459e-05 -0.8324041175 0.1041803154
80299520.0 -0.1500473951 0.0599473321 -4.66833e-05 0.0001005228 1.92337e-05 1.3855e-05 -0.8320880073 0.1139328136
85299490.0 -0.1477857262 0.0595786075 0.0002495054 -0.000116116 2.74156e-05 -0.0001024819 -0.831381265 0.1238320466
90299460.0 -0.1454755272 0.0599767531 9.79175e-05 -8.20673e-05 -1.83115e-05 -2.6772e-06 -0.8305026299 0.1331028516
95299430.0 -0.143300567 0.0597476136 2.67684e-05 4.70337e-05 9.08115e-05 2.29959e-05 -0.8294017808 0.1431761417
100299400.0 -0.1416629476 0.0599203205 3.08262e-05 2.74875e-05 -2.9119e-05 0.000114372 -0.8285867855 0.1521904523
105299370.0 -0.1399649325 0.0598940812 7.92865e-05 -0.0001968966 -6.59873e-05 -8.3908e-06 -0.8268156248 0.1613806682
110299340.0 -0.13849367 0.0601319233 1.0047e-06 0.0001121113 0.000106124 0.0001169864 -0.825672533 0.1706574616
115299310.0 -0.1368786818 0.0599569446 -0.000158124 0.0002005048 3.50167e-05 0.0001107643 -0.8240231145 0.180166052
120299280.0 -0.1359444668 0.059844209 0.0001352154 -1.36225e-05 5.73777e-05 0.0001453079 -0.8224103438 0.1888484713
125299250.0 -0.13506905 0.059836882 8.8942e-05 -1.71567e-05 8.79268e-05 -7.4369e-05 -0.8209781599 0.1974615754
130299220.0 -0.1339642747 0.0604619457 0.000105303 3.57275e-05 0.0001175459 -9.8411e-05 -0.8182646633 0.2067249011
135299190.0 -0.1330810087 0.0608771957 0.0001428819 0.0001357339 -0.0001993671 0.0001080524 -0.8163971969 0.2158991247
140299160.0 -0.1323297167 0.060797552 0.0002329771 -0.000160561 0.0002388102 -7.37601e-05 -0.8140069319 0.2246636745
145299130.0 -0.131305546 0.0611710264 1.91004e-05 4.68295e-05 5.16376e-05 0.0001399501 -0.812076228 0.2340013906
150299100.0 -0.1306929155 0.0615166442 6.84137e-05 0.000204281 0.0001365505 0.0002743136 -0.8104002198 0.2429821111
155299070.0 -0.1300602841 0.0617770381 -7.21691e-05 0.0002754828 -5.4198e-06 1.75086e-05 -0.8069450388 0.2519964835
160299040.0 -0.1297645907 0.0625427071 -9.13323e-05 -4.21023e-05 8.7672e-06 1.38028e-05 -0.8046650399 0.2606473274
165299010.0 -0.1288415572 0.0627904476 -0.0002277606 -1.52077e-05 -1.3883e-05 -0.0002645565 -0.802350923 0.2692890062
170298980.0 -0.1285019008 0.0636783711 -3.17462e-05 0.0001209899 0.000120563 0.000104805 -0.7990099463 0.277600163
175298950.0 -0.1277588152 0.0640813724 0.000126672 4.33184e-05 2.55729e-05 5.98222e-05 -0.7967635043 0.2868231005
180298920.0 -0.1274815084 0.0646172944 8.02091e-05 -3.65808e-05 -1.8612e-06 -3.9513e-06 -0.793332567 0.29493399
185298890.0 -0.1265847424 0.0650862032 -7.57389e-05 0.0001809596 5.19837e-05 -8.52404e-05 -0.7900598611 0.3038073648
190298860.0 -0.1260609581 0.0660772388 -0.0001326081 6.5336e-05 -5.37647e-05 0.0002110015 -0.7875898419 0.3123375338
195298830.0 -0.125969721 0.0666528177 0.000233858 3.94594e-05 1.80639e-05 0.0002210305 -0.7844421871 0.320867387
200298800.0 -0.1251396167 0.0675086852 7.1634e-05 -0.0001123718 -4.35127e-05 -8.48181e-05 -0.7819790879 0.3292268798
205298770.0 -0.1249585948 0.0681637868 0.0001821552 0.0003068448 0.0001093958 1.24948e-05 -0.777347258 0.3373976976
210298740.0 -0.1243146618 0.0690206311 4.82065e-05 2.1442e-06 3.33538e-05 3.8424e-05 -0.7740799417 0.3456593746
215298710.0 -0.1239469682 0.0698243791 0.0001944936 0.000129014 -1.1421e-06 -0.0001935732 -0.7704856857 0.3537999547
220298680.0 -0.1236111276 0.0703036627 5.21687e-05 5.24727e-05 -2.74844e-05 0.0002842895 -0.7672381845 0.3617141751
225298650.0 -0.1233837285 0.0710605493 7.5234e-05 6.8273e-06 5.25195e-05 5.44852e-05 -0.763725331 0.3701098
230298620.0 -0.1227446729 0.0721391826 -0.000107643 8.41669e-05 -8.74779e-05 0.0002633337 -0.7598029522 0.3782612822
235298590.0 -0.1222565339 0.0733073198 -0.0001498434 -4.68344e-05 9.63415e-05 0.0001779552 -0.7556969064 0.3871296942
240298560.0 -0.1218761151 0.0738657588 0.0001576995 1.2304e-05 8.56174e-05 7.1734e-05 -0.7515512642 0.3952116854
245298530.0 -0.1213824684 0.074734004 -0.000213686 0.0002625897 8.74432e-05 0.0001448594 -0.7480820002 0.4024033067
250298500.0 -0.1207466204 0.0758780197 5.94788e-05 0.0002383917 0.0002003163 7.3554e-05 -0.7436797063 0.4106693546
255298470.0 -0.1206155094 0.0764707524 1.84573e-05 9.66409e-05 0.0001343198 0.0002846378 -0.7386152472 0.4180009126
260298440.0 -0.1199949587 0.0776165406 0.0001573669 0.0001147457 0.0001500668 0.000110348 -0.7345318907 0.4262924295
265298410.0 -0.119474662 0.0789441496 0.0001181769 0.0001253453 0.0001391528 0.0003492235 -0.7302329427 0.4336212615
270298380.0 -0.1191854224 0.0800323097 6.45308e-05 4.57357e-05 1.63283e-05 0.0001222669 -0.7254366413 0.4408728853
275298350.0 -0.1185043634 0.0807085127 0.0001468212 7.67754e-05 -3.59296e-05 -0.0001125682 -0.7208309222 0.4489163508
280298320.0 -0.1177393407 0.0816171966 3.94671e-05 0.0002335521 9.34992e-05 0.0001138503 -0.7153323348 0.4560350955
285298290.0 -0.1171093501 0.08292442 4.49718e-05 0.0001873371 6.3772e-06 0.0001209433 -0.7107510104 0.4635748552
290298260.0 -0.1164466872 0.0837263577 0.0003821781 8.72253e-05 0.0002372075 0.0001669925 -0.7060418493 0.4710777995
295298230.0 -0.1159795574 0.0845186481 -6.33054e-05 -1.67384e-05 0.0002984526 0.0002619621 -0.7011237727 0.4779009482
300298200.0 -0.1155026267 0.085798579 0.0001816446 0.0002207519 -5.3956e-05 7.46862e-05 -0.6958428512 0.4851429372
305298170.0 -0.1145628531 0.0863874405 -0.0001255494 6.1292e-05 0.0002322118 3.25418e-05 -0.6902176917 0.4927281663
310298140.0 -0.1142060196 0.0879523816 -2.30877e-05 0.0001086589 0.0002632988 0.0001365831 -0.6853139603 0.499715199
315298110.0 -0.1132666502 0.0889375367 0.0003300398 0.0002596022 0.0001278001 -3.22554e-05 -0.6799809898 0.5068115149
320298080.0 -0.1128692174 0.0895872569 0.0001498357 0.0002636974 0.000341585 -6.17607e-05 -0.674615947 0.5145781485
325298050.0 -0.11199651 0.0905215264 0.0002242306 -0.0001817587 0.0001359426 7.67214e-05 -0.6689552666 0.5209082284
330298020.0 -0.111358707 0.0912586338 0.0001320571 -4.5881e-05 5.6732e-06 0.0002278595 -0.6634235117 0.5283055412
335297990.0 -0.1108430299 0.0924640189 0.0001906107 -9.56821e-05 9.30996e-05 0.0001559325 -0.6586368068 0.5351421491
340297960.0 -0.1106598735 0.0936581921 -1.09074e-05 0.0001297224 2.9471e-05 0.0001655958 -0.6523285167 0.5422430343
345297930.0 -0.1099531062 0.0947359158 0.0002593105 -5.13839e-05 0.000213951 -3.10382e-05 -0.6466983285 0.5480297449
350297900.0 -0.1091396719 0.0959735302 0.0002897296 9.62257e-05 -0.0001677355 4.53859e-05 -0.6411914195 0.5553004994
355297870.0 -0.1084136453 0.0969684003 5.78331e-05 0.0002654093 0.0002191188 0.0001809361 -0.6356967621 0.5621006544
360297840.0 -0.1077355408 0.0980132411 0.0002413654 0.0001871298 -4.38894e-05 4.42627e-05 -0.6294650154 0.5686005388
365297810.0 -0.1072481376 0.0997021231 3.64009e-05 0.0001633607 0.0002840712 4.43575e-05 -0.6231240565 0.5756408641
370297780.0 -0.1062266831 0.1005786596 0.0001081098 0.0002480037 7.94307e-05 1.08846e-05 -0.6172116698 0.5816802704
375297750.0 -0.1052472437 0.1017939164 0.0003185132 2.94027e-05 0.0001192801 -7.82896e-05 -0.6113559434 0.5876518427
380297720.0 -0.1048473443 0.1024095497 5.75197e-05 0.0001812865 5.31612e-05 -9.31776e-05 -0.6055142474 0.5942580881
385297690.0 -0.104311326 0.1039705597 0.000178289 0.0002835398 0.0001162887 0.0001381067 -0.599071238 0.6007512651
390297660.0 -0.1034080872 0.1048872758 0.0001552291 0.0001892691 3.6684e-05 -0.0001050688 -0.5929255063 0.6067014725
395297630.0 -0.1023317647 0.1060321914 0.0001388372 9.39173e-05 0.0002086809 3.253e-05 -0.5864915242 0.612928127
400297600.0 -0.1013825542 0.1072798409 0.0001616281 -3.13661e-05 0.0002155404 0.0002660921 -0.5804030617 0.6187664278
405297570.0 -0.1009261793 0.1081861688 0.0001799791 6.85413e-05 6.43963e-05 7.75708e-05 -0.5740017879 0.6246974888
410297540.0 -0.0999091235 0.1093613178 0.000242635 0.0001164453 0.0001971801 -5.6494e-05 -0.5670978317 0.6309093014
415297510.0 -0.0987947926 0.1100667792 0.0001529131 0.0001249533 -2.7386e-05 0.0001572194 -0.5612414504 0.636575355
420297480.0 -0.098313289 0.1115668861 0.0002237965 -9.19808e-05 0.0002544061 6.34102e-05 -0.5542828174 0.6420892932
425297450.0 -0.097376268 0.1126286829 0.000187361 0.0001370335 9.08752e-05 2.60044e-05 -0.5479709339 0.6482176029
430297420.0 -0.0964256642 0.1133047206 5.112e-05 0.0001232264 0.0002168839 3.26402e-05 -0.5411194196 0.6530986217
435297390.0 -0.095380236 0.1148070568 7.0061e-05 5.45932e-05 0.000197968 5.83355e-05 -0.53390475 0.6584946023
440297360.0 -0.0944810312 0.1154599513 0.0001646956 7.97017e-05 0.0001570785 -0.0001214875 -0.5270352286 0.6637165017
445297330.0 -0.0935115494 0.1168272061 0.0001551999 0.0001456967 0.0002950385 9.97256e-05 -0.5200933292 0.6684879419
450297300.0 -0.0924528522 0.1173178922 0.0001944537 -2.6268e-06 0.0003477124 3.31419e-05 -0.5128024821 0.6738576378
455297270.0 -0.0916959489 0.1187131624 6.91226e-05 0.0001094648 -0.0001144913 0.0002088129 -0.5063723396 0.6784541291
460297240.0 -0.0906747142 0.1196027479 0.0003678913 -4.74918e-05 0.0001401912 0.0002260435 -0.4997865917 0.6840507501
465297210.0 -0.0894603208 0.1206296921 0.0002705697 1.17654e-05 0.0003202779 3.43534e-05 -0.491838938 0.6890994501
470297180.0 -0.0885256498 0.1215524837 0.0001949156 0.0003708231 0.0001847765 -0.000148257 -0.4845793488 0.6943682097
475297150.0 -0.0873267571 0.1224131478 -5.418e-06 0.0001979399 0.0001431234 0.0001066202 -0.4774026523 0.6985843512
480297120.0 -0.0862735246 0.1235740048 0.0003453778 8.55365e-05 0.0001725563 7.0975e-06 -0.4701866709 0.7037354939
485297090.0 -0.0852727529 0.12458939 1.57088e-05 -1.52267e-05 2.8477e-06 0.0002335784 -0.4629020185 0.7084257544
490297060.0 -0.0845662116 0.1257037691 0.0001564004 7.29022e-05 -3.35907e-05 -0.0001463588 -0.4557963542 0.7125887349
495297030.0 -0.0832396027 0.126425453 0.0002525944 -0.0001609922 0.0002089707 8.31992e-05 -0.4481750801 0.7176955999
500297000.0 -0.0819426368 0.1272637075 0.0002008097 -0.0001113244 0.0002798689 0.0001165018 -0.4407127685 0.7218137294
505296970.0 -0.0807962834 0.1284196948 0.0004343432 4.70624e-05 0.0002316685 0.0001056018 -0.4334998992 0.7264770192
510296940.0 -0.0798942213 0.1294065055 0.0002060419 -1.04414e-05 1.42902e-05 0.0001181217 -0.4260280986 0.7307329974
515296910.0 -0.0787184643 0.1302350521 0.0002129568 3.83644e-05 0.0001677022 0.0001221152 -0.4185245815 0.7347314105
520296880.0 -0.0776152828 0.1311942987 0.0001558198 4.268e-06 0.0001748659 -0.0001089937 -0.4110541467 0.7395926809
525296850.0 -0.0763956969 0.1318747614 0.0002190766 -4.69241e-05 3.41217e-05 0.0001319565 -0.4036585351 0.7436186573
530296820.0 -0.0752948161 0.1329691969 0.0003661627 -5.54828e-05 0.0001707319 8.38989e-05 -0.396731877 0.7476163503
535296790.0 -0.0741621818 0.134054562 0.0002389626 1.31027e-05 0.0001657846 0.0001034403 -0.3888001817 0.7511609635
540296760.0 -0.073149492 0.1346029617 0.0001511782 0.0001815627 0.0003252622 0.0002596822 -0.3806990828 0.7559677287
545296730.0 -0.0719444845 0.135717611 4.68164e-05 -8.19467e-05 0.0001406427 0.000102305 -0.3733106162 0.75945363
550296700.0 -0.0701621423 0.1365008619 0.0003120621 0.0001366759 0.0003142987 6.40497e-05 -0.3655131726 0.7629004876
555296670.0 -0.0694670629 0.1369922713 0.0003911566 -0.0001447463 0.0001788463 2.39139e-05 -0.3575956975 0.7669012528
560296640.0 -0.0678768251 0.1384374187 0.0003419408 4.52991e-05 0.000118158 -0.0001091048 -0.349792096 0.7710553395
565296610.0 -0.0668817338 0.1390950687 0.0001706522 7.88071e-05 0.0001394185 3.41836e-05 -0.3420495958 0.7738364659
570296580.0 -0.0658546271 0.1396259795 0.0002852422 0.0001269614 0.000442272 0.0001350241 -0.3343146207 0.7775957645
575296550.0 -0.0644505859 0.1406927782 0.0001027875 3.0105e-06 0.000115144 -3.545e-05 -0.326629287 0.780818949
580296520.0 -0.0628865845 0.1411979845 0.0004189072 0.0001861985 4.45387e-05 0.0001997211 -0.31788908 0.7841738617
585296490.0 -0.0621967992 0.1419038894 0.0001501477 0.0001312641 0.0002071552 9.12448e-05 -0.309974217 0.787080578
590296460.0 -0.0605083928 0.1429913672 7.51799e-05 4.29113e-05 7.1217e-06 0.0001365201 -0.3025761055 0.7904370313
595296430.0 -0.0593886638 0.1436871884 0.0002158918 -1.15568e-05 0.0002735029 0.0001396813 -0.2947474748 0.7925162533
600296400.0 -0.058105091 0.1442889811 0.0003331537 -0.0001226054 0.0002092872 -1.9649e-05 -0.2866892369 0.7954707711
605296370.0 -0.0566597657 0.1449244233 0.0002525869 -0.0001317413 0.000247067 -1.24557e-05 -0.2782674432 0.7988486973
610296340.0 -0.0554322684 0.1456556735 0.0002073831 0.0001664963 0.000315332 0.000129455 -0.2701686972 0.8013094287
615296310.0 -0.0540165567 0.1463917511 0.000150283 9.80813e-05 0.0001682837 0.0002284923 -0.2616442559 0.8031435386
620296280.0 -0.0531797528 0.1468377894 0.0004328255 -0.0001394261 8.10416e-05 -0.0001076168 -0.2546695386 0.805962897
625296250.0 -0.0514890447 0.147871115 0.0003296714 -7.77563e-05 0.0002398309 1.7385e-05 -0.2452253538 0.8079808276
630296220.0 -0.0497635154 0.1483180816 2.69648e-05 8.86222e-05 0.0003311124 0.0002006747 -0.2373242161 0.8107971318
635296190.0 -0.0491219633 0.1493010122 0.0004368819 -1.37662e-05 0.000229264 -0.0001970395 -0.2295528211 0.812819914
640296160.0 -0.0473877105 0.1497199513 0.0002696671 -5.11365e-05 0.0004774484 1.13618e-05 -0.2210151475 0.815562727
645296130.0 -0.0461082395 0.1506906171 0.000172083 -2.29357e-05 0.000315966 0.0002092892 -0.2131341705 0.8175316691
650296100.0 -0.0446265769 0.1513109983 0.0002567482 9.42508e-05 1.73488e-05 1.29298e-05 -0.2045030308 0.8187085904
655296070.0 -0.0434173788 0.1517838701 6.97404e-05 -4.15234e-05 0.0003427699 0.0001626252 -0.1960481442 0.8207492248
660296040.0 -0.0419765148 0.1523303531 0.0003067261 1.98222e-05 0.0002061306 0.0001586878 -0.1876349537 0.822938072
665296010.0 -0.0404131488 0.1526205831 0.0001317618 -3.54085e-05 0.0003135504 -0.0001288153 -0.1787498733 0.8251901786
670295980.0 -0.039311945 0.1538904101 0.0001183775 0.0001234586 0.0002189927 0.0001343536 -0.1712307721 0.8267695676
675295950.0 -0.0377253369 0.1539699533 0.0004182377 5.16533e-05 0.0004695018 -1.83142e-05 -0.1634808501 0.8288485207
680295920.0 -0.0363367268 0.1548452642 0.0002057912 -0.0001391094 0.0001457283 -0.0001120292 -0.1545348852 0.8307600721
685295890.0 -0.0347891317 0.1551568382 0.000230203 -2.63874e-05 0.0003368798 0.000154767 -0.1461557152 0.8308901631
690295860.0 -0.0334352188 0.1555547266 0.0002769556 0.0003471252 0.0001405207 1.47926e-05 -0.1383554843 0.833629146
695295830.0 -0.0322079705 0.1562355741 0.0002463078 3.86118e-05 0.0002645011 7.32339e-05 -0.1291062758 0.8348825055
700295800.0 -0.0305144021 0.1565397258 0.0002751649 -0.0001019665 0.0002368436 -3.8889e-06 -0.1220711796 0.8362618068
705295770.0 -0.0295994535 0.1573036372 0.0002848524 -0.0002207654 5.19542e-05 5.07613e-05 -0.1130280971 0.8376577054
710295740.0 -0.0276069565 0.1578612983 0.0002373211 -0.0002465312 0.0002355349 9.33187e-05 -0.1044299558 0.8383323468
715295710.0 -0.0261605501 0.1580907381 0.0003084321 -8.60042e-05 0.0002507362 -4.91823e-05 -0.0965100211 0.8388833153
720295680.0 -0.0248156154 0.1585998642 0.0003897098 -0.0001617903 0.0003944503 -1.86122e-05 -0.0880618186 0.8405769122
725295650.0 -0.0235197094 0.1593181831 0.0003136012 -4.07312e-05 0.0003232537 6.85518e-05 -0.0796478024 0.8418999009
730295620.0 -0.0216524196 0.1593588386 0.0001407002 -0.0001009048 0.0002257472 -6.05155e-05 -0.072226001 0.8420013949
735295590.0 -0.0202975621 0.1600542258 0.0001985556 0.0001674443 9.3652e-05 3.8643e-06 -0.0630105775 0.8422268875
740295560.0 -0.0191067613 0.1604128001 0.0002492113 0.0001008341 0.0001535157 -7.39707e-05 -0.0543833048 0.8435666269
745295530.0 -0.0177342318 0.1609922055 0.0003584802 -8.14908e-05 0.0005593491 7.54443e-05 -0.0456109554 0.8435089433
750295500.0 -0.0160937985 0.1609657357 0.0001098895 -1.66907e-05 0.0001855032 -2.75995e-05 -0.0376503951 0.844170045
755295470.0 -0.0143043479 0.1618431387 0.0001558957 5.23464e-05 8.1566e-05 -0.0001322154 -0.0292643722 0.844101045
760295440.0 -0.0127812132 0.1618124602 0.000226942 3.11297e-05 0.0002265405 -0.0001182425 -0.0204259142 0.8441134343
765295410.0 -0.0116764311 0.1618821487 0.000266059 -1.41292e-05 0.000315551 8.09919e-05 -0.0122110465 0.8449305122
770295380.0 -0.0102182104 0.1623359457 0.0003735586 -0.0002882074 0.0003594619 0.0001564465 -0.0040032467 0.8444688531
775295350.0 -0.008778672 0.1625862154 0.0001710974 -3.88724e-05 0.0003061932 0.0001257152 0.0039935734 0.8440565745
780295320.0 -0.0070068611 0.1630641103 0.0002454359 -2.49094e-05 0.0001575969 -0.0001382217 0.0127319072 0.8440155612
785295290.0 -0.0056125441 0.1631410274 0.0003090544 3.1934e-06 0.0001821059 -0.0001229041 0.021048073 0.8436301576
790295260.0 -0.0038453385 0.1632584441 0.0004309722 4.66386e-05 0.0003905825 -0.00025335 0.0302315807 0.8440322502
795295230.0 -0.0024331073 0.1634203079 0.0002267192 -2.19489e-05 0.0004415554 -0.0001549933 0.0387402406 0.8427247054
800295200.0 -0.000959917 0.1636799154 0.0001822227 5.9167e-05 0.0001881326 0.0001008462 0.0472355924 0.8425203848
805295170.0 0.0006450441 0.163844052 0.0002538693 -9.44128e-05 0.0004007107 -0.0001267975 0.0549503128 0.8428407886
810295140.0 0.00234139 0.1641018308 7.1831e-05 4.9094e-05 0.000311487 7.09456e-05 0.0636662493 0.8416513258
815295110.0 0.0035151772 0.1645066177 0.0002072847 -0.0001966924 0.0003036339 -0.0001590774 0.0718510361 0.8405005777
820295080.0 0.005217356 0.1645655161 0.0005035455 -7.86842e-05 0.0003550308 -0.0001631362 0.0807371932 0.8397240759
825295050.0 0.0070013373 0.1647985117 0.0003148797 -0.000150963 -8.98392e-05 3.84294e-05 0.0888435451 0.8394862255
830295020.0 0.0084756037 0.1647880101 9.78082e-05 -9.19561e-05 0.0001563034 -0.0002420654 0.0974434944 0.8381133753
835294990.0 0.0099956258 0.16518757 0.0003779979 -3.06912e-05 0.0006370108 -0.0001785537 0.1054539 0.8375386808
840294960.0 0.0114215595 0.1652980622 8.88888e-05 4.6523e-05 0.0002722533 4.66948e-05 0.1141136846 0.8362789497
845294930.0 0.0126366195 0.1651800438 0.000217339 -5.10903e-05 1.38588e-05 0.0001116228 0.1217792629 0.8350283184
850294900.0 0.0147858325 0.1652724728 0.0005269052 -0.000152854 0.0002301629 -0.0002128013 0.1303237988 0.8334182667
