!Created with skrf (http://scikit-rf.org).
# Hz S RI R 50.0 
!freq ReS11 ImS11 ReS21 ImS21 ReS12 ImS12 ReS22 ImS22
300000.0 -0.2384296022 -0.0994873497 0.467571423 0.066073791 0.4676686305 0.0686295464 -0.2356127406 -0.1092162816
5299970.0 -0.243733368 0.0071455218 0.4735575684 0.0052032722 0.4736801695 0.0058644374 -0.2439802 0.00590466
10299940.0 -0.240142086 0.0200570688 0.4758607538 0.0059202977 0.4757458662 0.0065144644 -0.2410759258 0.0181807531
15299910.0 -0.2360373274 0.0292975697 0.4790735204 0.0075227296 0.4794332645 0.0080327869 -0.2368111366 0.0274097796
20299880.0 -0.2305321346 0.0370915593 0.4843191584 0.0083283395 0.4841469262 0.008267969 -0.2319047527 0.035516292
25299850.0 -0.2245920638 0.0433715411 0.48932159 0.0071472289 0.4896455238 0.0072330666 -0.2269397033 0.0416080508
30299820.0 -0.2188393506 0.0485598619 0.4953815443 0.005493531 0.494701207 0.0052403117 -0.2216975917 0.0469573495
35299790.0 -0.2130829627 0.0529322873 0.5004274468 0.0023771162 0.500464215 0.0024882651 -0.2164465776 0.0511577691
40299760.0 -0.2075476829 0.0556520019 0.5055823793 -0.0012112546 0.505778386 -0.001600217 -0.2115702487 0.0544217059
45299730.0 -0.2025381088 0.0586327904 0.510178122 -0.0067191918 0.5103268598 -0.0063959367 -0.2066368516 0.0574793236
50299700.0 -0.1977670498 0.0601908063 0.5141933153 -0.0120895362 0.5142635575 -0.0121817345 -0.2022383544 0.0595282185
55299670.0 -0.1936509636 0.0618369116 0.5179699328 -0.0181141397 0.5183128375 -0.0178426287 -0.1983941625 0.0614571548
60299640.0 -0.1893837962 0.0625676463 0.5211697988 -0.0239145873 0.5213834184 -0.0242322271 -0.1945811467 0.0631675757
65299610.0 -0.1861674753 0.0637771643 0.524499581 -0.0301367098 0.5244474956 -0.0302991124 -0.1910924379 0.0644473085
70299580.0 -0.1825970127 0.0643317118 0.5268499574 -0.0370871237 0.5267736145 -0.0371321492 -0.1881539551 0.0658726277
75299550.0 -0.1794922513 0.0651089465 0.5284722329 -0.0441179004 0.5285954771 -0.0442402469 -0.1850391769 0.0668975661
80299520.0 -0.1771086147 0.0656885055 0.5311547727 -0.0509707146 0.5306575378 -0.0508608984 -0.1826074019 0.0671985619
85299490.0 -0.1744509827 0.0659132049 0.5320066209 -0.0580791579 0.5323958716 -0.0579691996 -0.1802444107 0.0685062031
90299460.0 -0.172355539 0.0665613936 0.5330126986 -0.0644657962 0.5334510503 -0.0648432542 -0.177883373 0.0690727216
95299430.0 -0.1704319513 0.0671876746 0.5337717761 -0.0720461711 0.533963534 -0.071692192 -0.1758433591 0.0701931113
100299400.0 -0.1685789051 0.0674790337 0.5343350222 -0.0783109687 0.5342762433 -0.0786023137 -0.1741424259 0.0709463988
105299370.0 -0.166961018 0.0680162284 0.5347430255 -0.0851826096 0.5345742855 -0.0858532958 -0.1719934569 0.0717877097
110299340.0 -0.1653297577 0.0684564519 0.534794015 -0.0918932954 0.534900372 -0.0926085025 -0.1707584892 0.0727617521
115299310.0 -0.1638642604 0.0687254346 0.534764138 -0.0984851723 0.5350779625 -0.0989887871 -0.1689801922 0.0732697496
120299280.0 -0.1629494124 0.0696309494 0.5348049002 -0.1057476985 0.534858236 -0.1059414653 -0.1680979684 0.073844808
125299250.0 -0.1618279563 0.0699384153 0.5344198497 -0.1123544886 0.5344140999 -0.1130326044 -0.1662894203 0.07460217
130299220.0 -0.1604564646 0.07066849 0.5334279842 -0.1192444434 0.5337054478 -0.1195273167 -0.1653346804 0.0759853172
135299190.0 -0.159383068 0.07104196 0.5328577857 -0.1255754787 0.5329723335 -0.1259258463 -0.1641740954 0.0768801647
140299160.0 -0.1587689059 0.0722237698 0.5322564468 -0.1326337847 0.5324818396 -0.1327196596 -0.1629852017 0.0778595158
145299130.0 -0.1575480769 0.0727557571 0.5314399366 -0.1394404528 0.5312342872 -0.1391413598 -0.162270351 0.078983852
150299100.0 -0.1566592285 0.0734356282 0.5304083368 -0.1458440198 0.5305700959 -0.1458609364 -0.1609203484 0.0798069647
155299070.0 -0.1559868882 0.0750080573 0.5289115409 -0.152826027 0.5290398701 -0.1525191403 -0.1601981212 0.0812658233
160299040.0 -0.1546274642 0.0753224285 0.5274211506 -0.1585831994 0.5279866433 -0.1586692107 -0.1588240217 0.0825697076
165299010.0 -0.1542727267 0.0763854894 0.526796625 -0.1652411052 0.5263648807 -0.165352808 -0.1578977254 0.0832301287
170298980.0 -0.1536957246 0.0772497932 0.5238866563 -0.1717311595 0.5245051591 -0.1715869084 -0.1567228033 0.0846880036
175298950.0 -0.1526769503 0.0782958629 0.5235055538 -0.1776495838 0.5233091771 -0.1780176705 -0.1558276991 0.0857020284
180298920.0 -0.1518754595 0.0791110293 0.5217591051 -0.184286894 0.5213385117 -0.1842014539 -0.1548095108 0.0872625242
185298890.0 -0.1508315926 0.0802053508 0.519103053 -0.1907864909 0.5196338034 -0.1902356073 -0.1542783085 0.0882368443
190298860.0 -0.1504594976 0.0812560628 0.5175392729 -0.1966676138 0.5177127011 -0.1966929543 -0.1525299757 0.0893925327
195298830.0 -0.1494513069 0.0821229224 0.5158518394 -0.2026475687 0.5155987538 -0.2029219919 -0.1517364667 0.0907806972
200298800.0 -0.1489266393 0.0838082552 0.5137172415 -0.2084506246 0.513307388 -0.2083553908 -0.150695989 0.0919540293
205298770.0 -0.1482954475 0.084335488 0.5117747576 -0.2145833113 0.5115022111 -0.2149642882 -0.149923225 0.0932917389
210298740.0 -0.1476419924 0.085378626 0.5094076321 -0.2206652021 0.509264397 -0.2210907718 -0.1492359647 0.0946068246
215298710.0 -0.146658149 0.0869040829 0.5068295913 -0.2268707198 0.506711169 -0.2267248849 -0.1480411417 0.0960475672
220298680.0 -0.1458158884 0.0879459164 0.5042053097 -0.233100582 0.5045657414 -0.2325463228 -0.1470086869 0.0976272181
225298650.0 -0.1447752654 0.0892997038 0.5018494967 -0.2384115706 0.5015759851 -0.2382739617 -0.1462584469 0.0989340941
230298620.0 -0.1444730156 0.0903377068 0.4996554995 -0.2441978674 0.4997179275 -0.244770082 -0.1451538722 0.1002211312
235298590.0 -0.143798013 0.0914419371 0.4972520878 -0.2499080351 0.4968749323 -0.2507846849 -0.1439160633 0.101602088
240298560.0 -0.1430369861 0.0929790676 0.4943674134 -0.255726555 0.4940210583 -0.2555935083 -0.1430412476 0.1033017396
245298530.0 -0.1420174718 0.0942189007 0.4908982289 -0.2616501485 0.4913457584 -0.2615539315 -0.1420905566 0.1046463651
250298500.0 -0.1415176572 0.0950961084 0.4888138759 -0.2667311513 0.4887307775 -0.2666062158 -0.1405890971 0.1058441374
255298470.0 -0.1403392112 0.0967122196 0.4852628849 -0.272731566 0.4856767629 -0.2725154036 -0.1396466364 0.1072431667
260298440.0 -0.1399231526 0.0979641611 0.4826538169 -0.2781323179 0.4825491348 -0.2781991162 -0.1379927265 0.1091411416
265298410.0 -0.1387763362 0.0995987868 0.4796406589 -0.2842403884 0.4794199431 -0.283973874 -0.1374336182 0.1103396927
270298380.0 -0.1376599408 0.1005994441 0.4761066071 -0.2893281302 0.4766109937 -0.2893639295 -0.1360463474 0.1119069055
275298350.0 -0.1369776142 0.1017234327 0.4734363428 -0.2949128041 0.4736740621 -0.294704802 -0.1347373225 0.1133099981
280298320.0 -0.136306428 0.1031770871 0.4698502196 -0.2997346256 0.4697021994 -0.3001137588 -0.1334869206 0.1148593092
285298290.0 -0.1352403014 0.1048147399 0.46657175 -0.3052214995 0.4671685792 -0.3056864086 -0.1326867388 0.11630244
290298260.0 -0.1344044796 0.105759466 0.4636242286 -0.3106799705 0.4637428319 -0.3104693771 -0.1308950681 0.1179120757
295298230.0 -0.1332070239 0.1070801731 0.4603554329 -0.3157844514 0.4596608163 -0.3159886259 -0.1296654483 0.119180121
300298200.0 -0.1320915297 0.1084040913 0.4566572537 -0.3213806125 0.4571736233 -0.3211553096 -0.128618857 0.1208547942
305298170.0 -0.1311966576 0.1094474355 0.4534178169 -0.3261850943 0.4535956287 -0.3267291243 -0.1266174013 0.1222433945
310298140.0 -0.1297877784 0.1103972929 0.449592355 -0.3317445982 0.4496921503 -0.332192756 -0.1255062758 0.1239335522
315298110.0 -0.1293558713 0.1118940643 0.4458757417 -0.3366081995 0.4461619941 -0.3370585598 -0.124036382 0.1247953862
320298080.0 -0.1280373914 0.1130928548 0.4422650185 -0.3420431115 0.4425016118 -0.3420700185 -0.1227564435 0.126159609
325298050.0 -0.1271064542 0.1139878213 0.4390350775 -0.3471722712 0.4387840807 -0.3475478037 -0.1214468414 0.1275081051
330298020.0 -0.1261241769 0.1154195889 0.4340208853 -0.3521285895 0.4343137542 -0.3525102718 -0.1202694993 0.1286647243
335297990.0 -0.1253780507 0.1166571407 0.4301378564 -0.3570105115 0.4302116255 -0.357261555 -0.1188695698 0.1305011355
340297960.0 -0.1249831204 0.1181540422 0.4259738911 -0.3618998735 0.4264222921 -0.3617355195 -0.1177583792 0.1319384119
345297930.0 -0.1239049912 0.1194380458 0.4224067616 -0.3662310946 0.4217676324 -0.3662582063 -0.1164941122 0.1328212805
350297900.0 -0.1222208356 0.1210443545 0.4178035803 -0.3707557681 0.4180091158 -0.3710332564 -0.1151083141 0.1348483145
355297870.0 -0.1212884468 0.121937747 0.4135443079 -0.3756859534 0.4139170209 -0.3757266977 -0.1136317756 0.1363808398
360297840.0 -0.120104539 0.1235194658 0.4093357831 -0.3801349473 0.4097686581 -0.380532692 -0.1122727265 0.1381958986
365297810.0 -0.1190117757 0.124747497 0.4051671466 -0.3848838242 0.4053098409 -0.3850598862 -0.1109037945 0.1395283045
370297780.0 -0.1178598893 0.1259313494 0.4012181747 -0.3889011832 0.4012992525 -0.3895782126 -0.1092304735 0.1408853558
375297750.0 -0.1167751535 0.1274737917 0.3974555588 -0.3936128998 0.3968952622 -0.3935075396 -0.107370417 0.1422174394
380297720.0 -0.1155801714 0.1283256317 0.3926876929 -0.3976879593 0.3926484041 -0.3977602842 -0.1059496747 0.1437336062
385297690.0 -0.1143613173 0.129631731 0.3879534101 -0.4018298155 0.3882956109 -0.4021321609 -0.1046634329 0.1453214756
390297660.0 -0.1133179042 0.1311449189 0.383357229 -0.4066341027 0.3836295537 -0.4067030527 -0.102960279 0.1462198446
395297630.0 -0.1118132092 0.1322245741 0.3795542254 -0.4106340084 0.3796107077 -0.4105287741 -0.1015790201 0.1478666602
400297600.0 -0.1109033454 0.1335633757 0.3746554731 -0.4153039882 0.3748587381 -0.4153304082 -0.1000669674 0.1490021287
405297570.0 -0.1091668713 0.1347029139 0.3701169111 -0.4188898194 0.3701260548 -0.419256036 -0.0984398973 0.1507432766
410297540.0 -0.1078842288 0.1357874488 0.3648580203 -0.4227193668 0.3650316746 -0.4231068931 -0.0965029214 0.1517913765
415297510.0 -0.1066833066 0.1373013447 0.3609715252 -0.4267112972 0.3610848144 -0.4270158998 -0.0954113746 0.1533807496
420297480.0 -0.1053904711 0.1379409887 0.3560317731 -0.4309000192 0.3559698755 -0.4309387414 -0.0932015265 0.1543881651
425297450.0 -0.1039326208 0.1391006311 0.3511121445 -0.4348520214 0.3518039834 -0.4349046186 -0.0915386222 0.1560222589
430297420.0 -0.1027064659 0.1407335647 0.3465871029 -0.439004062 0.3470959961 -0.4388829829 -0.0902385258 0.1567195329
435297390.0 -0.1011292195 0.1414570737 0.3417297866 -0.4421311929 0.3416794014 -0.4421848019 -0.0885340251 0.1583936076
440297360.0 -0.0997073341 0.1426371084 0.3364630802 -0.4460477672 0.3368490363 -0.4457052018 -0.0869878459 0.1587939371
445297330.0 -0.0982766269 0.1436568026 0.3315918824 -0.4499150191 0.3318886043 -0.4496454447 -0.0850328858 0.1603822582
450297300.0 -0.0970762525 0.1448867096 0.3267984829 -0.4531730494 0.3268067528 -0.4532922465 -0.0831439362 0.1614004886
455297270.0 -0.0956972734 0.1457970514 0.3224819779 -0.4569200539 0.3223062815 -0.456898137 -0.0815532206 0.1630167519
460297240.0 -0.0944057498 0.1468530867 0.3169922988 -0.4603691495 0.3164905682 -0.4604994945 -0.0795631877 0.1642164075
465297210.0 -0.0926119885 0.1477363386 0.3121640168 -0.4633499563 0.3121375509 -0.4639017117 -0.0783209899 0.1648697823
470297180.0 -0.0913632543 0.1491550666 0.307365496 -0.4669589882 0.3070008528 -0.4670577329 -0.0768836098 0.1659618895
475297150.0 -0.0903579661 0.1494457805 0.3017271098 -0.4700290854 0.3022720264 -0.4698131806 -0.0747349465 0.1668593099
480297120.0 -0.0885195713 0.1504634617 0.2967681734 -0.4733120055 0.296825506 -0.4735764758 -0.0729050068 0.1685303663
485297090.0 -0.0868806657 0.1515291827 0.2919455264 -0.476602292 0.2917711464 -0.4769457672 -0.0712573848 0.168990111
490297060.0 -0.0855123662 0.152497932 0.2862175737 -0.4795833839 0.2866424662 -0.4799934641 -0.0694502672 0.1700514189
495297030.0 -0.0843308921 0.1540336422 0.2807359937 -0.4830408941 0.2806539529 -0.4831093815 -0.0675235181 0.1706964791
500297000.0 -0.0823453055 0.1544315193 0.2756629449 -0.4856571936 0.2757949951 -0.4860344449 -0.0661434009 0.171927044
505296970.0 -0.0811259096 0.155069021 0.2700340936 -0.4880433379 0.2702601313 -0.4885073033 -0.0644788918 0.1727761575
510296940.0 -0.0795130244 0.1566126623 0.2649243586 -0.491938715 0.2650206718 -0.4916561081 -0.0616236885 0.1739999477
515296910.0 -0.0783392179 0.1572804528 0.2594530215 -0.4941020256 0.2600477219 -0.4945879231 -0.0604904797 0.1746556462
520296880.0 -0.0765513157 0.158116866 0.2535525205 -0.4969855949 0.2544415765 -0.4971458817 -0.0582214407 0.1755749482
525296850.0 -0.0750777474 0.1588991989 0.2488345221 -0.4998325436 0.2491267339 -0.499754046 -0.0562636854 0.1763622745
530296820.0 -0.0736490924 0.159634443 0.2434872677 -0.5021594491 0.2434091442 -0.5025200791 -0.0549956655 0.1769398508
535296790.0 -0.0718340406 0.1605350715 0.2378227662 -0.5045755785 0.2381646767 -0.5046781589 -0.0525543959 0.1774843483
540296760.0 -0.070676436 0.161270454 0.2324176012 -0.5080738047 0.2322539587 -0.5079688083 -0.051067411 0.1784576209
545296730.0 -0.0689838844 0.1624619315 0.2267065823 -0.5098258228 0.226696547 -0.5101388854 -0.0489082376 0.1790279389
550296700.0 -0.0676114006 0.1631794316 0.2215297539 -0.5125059123 0.2216789796 -0.5128931232 -0.0473159604 0.1803945562
555296670.0 -0.06539789 0.1639570428 0.2157081075 -0.5151857913 0.2155315387 -0.5145387595 -0.0452363534 0.1806322955
560296640.0 -0.064188067 0.1643718769 0.2102058564 -0.5168780584 0.2100794384 -0.5170645883 -0.04270405 0.1812353533
565296610.0 -0.0628331742 0.1650462103 0.2046515904 -0.5192351758 0.2040968374 -0.519487697 -0.0413855865 0.1818567751
570296580.0 -0.0608207149 0.1656424237 0.1986248628 -0.5213968971 0.1992172079 -0.5213519202 -0.0392492927 0.1829822316
575296550.0 -0.0592069293 0.1668827427 0.1930020202 -0.5230245173 0.1934931226 -0.5235638469 -0.0373557814 0.1833132261
580296520.0 -0.0577245364 0.1673382104 0.1877801057 -0.5253402962 0.187354417 -0.5259296176 -0.0353063042 0.1836279192
585296490.0 -0.0559689589 0.167632839 0.1823149173 -0.527462022 0.1815822598 -0.5275174475 -0.0334041747 0.1840811119
590296460.0 -0.0545301002 0.1685280877 0.1761065504 -0.5294938368 0.1761817228 -0.5296871222 -0.0313883377 0.1849862859
595296430.0 -0.0529555137 0.1695810155 0.1703833726 -0.5316338007 0.1704226837 -0.5315238995 -0.0292936692 0.1851312568
600296400.0 -0.0510646606 0.1700768662 0.1643465609 -0.532978326 0.1649794314 -0.5333238221 -0.0271944647 0.1859222823
605296370.0 -0.0494803304 0.170769615 0.1587647562 -0.5351506785 0.1589879217 -0.5348403567 -0.025273745 0.1863195976
610296340.0 -0.0481606775 0.1714369685 0.1532414774 -0.5368661105 0.1532496643 -0.5365431985 -0.0234044586 0.1871225014
615296310.0 -0.0462221239 0.1720037751 0.1472182295 -0.5380120201 0.1471320624 -0.5383772672 -0.0208514134 0.1871209403
620296280.0 -0.044456414 0.1724363094 0.1417384445 -0.5395732266 0.1414644918 -0.5397850506 -0.01936649 0.187325393
625296250.0 -0.0427844604 0.1729152368 0.135240109 -0.5410862628 0.1352570745 -0.5412305443 -0.0171245462 0.1879984925
630296220.0 -0.0411379821 0.1734197449 0.1298739654 -0.5422951651 0.1300849655 -0.5426247438 -0.0152873028 0.1883569202
635296190.0 -0.0395458058 0.1741721481 0.123478084 -0.5432002839 0.1235131587 -0.5433842365 -0.013477839 0.1884570128
640296160.0 -0.0378857435 0.1745951765 0.1182861223 -0.5448633955 0.1178165537 -0.5449079448 -0.0110757314 0.1886497777
645296130.0 -0.0362453263 0.1752913325 0.1118563119 -0.5464685842 0.1121480091 -0.5465125887 -0.0096080386 0.1889100762
650296100.0 -0.0347579369 0.1760507293 0.1066020429 -0.547264257 0.1063439241 -0.5475077388 -0.0072101318 0.1894400812
655296070.0 -0.0329803236 0.1759398058 0.1001670771 -0.5483227839 0.1000378499 -0.5486146716 -0.0045735878 0.1898488928
660296040.0 -0.0312625815 0.1770259956 0.0942367951 -0.5492370738 0.0944380103 -0.5495325004 -0.0030081608 0.1898126229
665296010.0 -0.0295078566 0.1770350191 0.08883762 -0.5504267207 0.0890553679 -0.5503145201 -0.0010603016 0.1898961676
670295980.0 -0.0271249654 0.177819768 0.0822769828 -0.5511386763 0.082886518 -0.5513087491 0.0007006107 0.1899268586
675295950.0 -0.0255973846 0.178457041 0.0764699652 -0.55221327 0.0769939882 -0.5525195508 0.0031147747 0.1902984785
680295920.0 -0.0241170022 0.1787861073 0.0704363966 -0.5530893249 0.0703330801 -0.5531761886 0.0052291612 0.1901466144
685295890.0 -0.0223886308 0.17878038 0.064505387 -0.5532488022 0.0643954151 -0.5542652128 0.0072293295 0.1905993227
690295860.0 -0.0202894492 0.1792864311 0.0586332812 -0.5537859608 0.0584738712 -0.5540838178 0.0093559091 0.1905544472
695295830.0 -0.0184506802 0.1794922661 0.0517252513 -0.5547103833 0.0522606351 -0.5552423301 0.0110741143 0.190938985
700295800.0 -0.0166366749 0.180080047 0.0461257643 -0.5552418036 0.0464652184 -0.5555375435 0.0135385543 0.190381943
705295770.0 -0.015032715 0.1804247837 0.0402484055 -0.5557309662 0.0405731019 -0.5555222475 0.0153384008 0.1905051949
710295740.0 -0.0134216095 0.1805679203 0.0347161039 -0.5558523654 0.0347207953 -0.5561760094 0.016934668 0.1908910158
715295710.0 -0.0116048228 0.1808580813 0.0284718926 -0.556435185 0.0287326341 -0.5563624482 0.0192794001 0.1902902606
720295680.0 -0.0098993634 0.1809149712 0.0225985138 -0.5565014961 0.0223156759 -0.5569639813 0.0219848866 0.1904279743
725295650.0 -0.0078086654 0.1814800221 0.016102224 -0.5566596221 0.0166142919 -0.5570153785 0.0235136786 0.1904852333
730295620.0 -0.0064431401 0.1814018948 0.0104776394 -0.5567833331 0.0106738064 -0.5569880666 0.026126131 0.1899161285
735295590.0 -0.0040012327 0.1818513963 0.0045000702 -0.5569396527 0.0044895406 -0.5572449138 0.0277646956 0.1900693356
740295560.0 -0.0026262551 0.1822834871 -0.0013846831 -0.5567201242 -0.0014074288 -0.5567015729 0.0300720908 0.1896385152
745295530.0 -0.0008048787 0.1820036624 -0.0074836719 -0.5567923313 -0.0071553311 -0.5570760517 0.031759959 0.1898548958
750295500.0 0.0009201929 0.1820804149 -0.0133118641 -0.5562637914 -0.0135231588 -0.556867254 0.0342299653 0.1892585767
755295470.0 0.0030145947 0.1826656559 -0.0190444309 -0.5564785176 -0.0189710891 -0.5565224999 0.035792015 0.189148404
760295440.0 0.0042311632 0.1826880591 -0.0254549439 -0.5563005078 -0.0253869537 -0.5563662829 0.0376328336 0.188597202
765295410.0 0.0061974531 0.1826231849 -0.0309756915 -0.5556384217 -0.0312937041 -0.5561012379 0.0409279429 0.1889865732
770295380.0 0.0082497296 0.183107889 -0.0373830613 -0.5552779811 -0.037236073 -0.5561071196 0.042661884 0.1886983605
775295350.0 0.010029566 0.1831293172 -0.0438580232 -0.5545124088 -0.0431910313 -0.5549455811 0.0440078442 0.1876810082
780295320.0 0.0120108566 0.182715094 -0.0490506353 -0.5539255958 -0.0492834458 -0.5547661996 0.046424778 0.1878914906
785295290.0 0.0133702815 0.1834671304 -0.0551440854 -0.5538014351 -0.0550846411 -0.5540228271 0.0481438266 0.187613487
790295260.0 0.0151968397 0.1830909263 -0.0612640714 -0.5528202334 -0.0612400411 -0.5538321738 0.0505909006 0.1870785175
795295230.0 0.0170409978 0.1833355296 -0.0667449846 -0.5522849623 -0.0667327651 -0.5523995416 0.0523776286 0.1871636339
800295200.0 0.0191301432 0.1832312331 -0.0733555918 -0.5517736889 -0.0735795344 -0.5520834046 0.054492848 0.1860977771
805295170.0 0.0205777959 0.1828867369 -0.0789775979 -0.5505013168 -0.0788244987 -0.5506553712 0.0565193323 0.185754748
810295140.0 0.0226513301 0.1830684906 -0.0844285172 -0.5497870406 -0.0849508551 -0.5505587031 0.0586609565 0.1856057429
815295110.0 0.0242850529 0.1829181259 -0.0910351289 -0.5488532636 -0.0912422535 -0.5492280877 0.0605479853 0.1847813087
820295080.0 0.0262332558 0.1827058791 -0.0968961918 -0.5482764738 -0.0966232881 -0.5484809895 0.0622022652 0.184292693
825295050.0 0.0279268744 0.1822904338 -0.1021645148 -0.5465683918 -0.1028481105 -0.5469447599 0.0647386011 0.1836632088
830295020.0 0.0299276763 0.182892416 -0.1089910554 -0.5455318804 -0.1090827945 -0.54585013 0.0665464035 0.1831726176
