!Created with skrf (http://scikit-rf.org).
# Hz S RI R 50.0 
!freq ReS11 ImS11 ReS21 ImS21 ReS12 ImS12 ReS22 ImS22
300000.0 -0.0923723576 -0.1033457272 0.6217859491 0.0953788222 0.618793823 0.0957949993 -0.0941705815 -0.107155298
5299970.0 -0.1014033968 0.0110647013 0.6297921095 0.0114246064 0.6306798693 0.0115984503 -0.1016583836 0.0109296585
10299940.0 -0.0968150418 0.0285530894 0.6346448888 0.016345088 0.634076339 0.0168175914 -0.0962562513 0.0284088891
15299910.0 -0.0890457443 0.0422319595 0.6406224074 0.0214510897 0.6409299436 0.0213251127 -0.0895890503 0.0419093262
20299880.0 -0.0803238595 0.0534319354 0.6486521077 0.0242893024 0.6491004608 0.024198003 -0.0808019526 0.0528434093
25299850.0 -0.0704168508 0.062228439 0.6579458742 0.0262439619 0.6582576073 0.0256534267 -0.0716402375 0.0616762569
30299820.0 -0.0607882029 0.0688940154 0.668268284 0.0245164453 0.6681266209 0.0247867128 -0.0616683581 0.0680605062
35299790.0 -0.0505721184 0.0734445152 0.6771817239 0.0222455642 0.6772538832 0.02188528 -0.0524232413 0.0736566486
40299760.0 -0.0411672643 0.0761388379 0.6867522349 0.0176769726 0.687166496 0.0178580813 -0.0426946869 0.0770434476
45299730.0 -0.0318617207 0.0783676725 0.6958509213 0.0121680763 0.696337405 0.012363805 -0.0330862408 0.0790906883
50299700.0 -0.0230338311 0.0790754413 0.7038478389 0.0049379705 0.7040135536 0.0051741446 -0.0243128828 0.0803218424
55299670.0 -0.0151630787 0.0789537436 0.7112051337 -0.0020910625 0.7109142964 -0.0029177077 -0.0171961824 0.0804100883
60299640.0 -0.007671598 0.0788572697 0.718231807 -0.0109102043 0.7178453161 -0.0112366312 -0.0095983076 0.0796112025
65299610.0 -0.0012492372 0.0772397131 0.7240565208 -0.0197115507 0.7242846383 -0.0195079082 -0.0026859992 0.078734555
70299580.0 0.0051507001 0.0750440842 0.7289917209 -0.0284871696 0.7295643501 -0.0288562146 0.0030958272 0.0774267077
75299550.0 0.0105107423 0.0734174194 0.7333143121 -0.0392858378 0.7336280792 -0.0388494186 0.0086159272 0.0754248229
80299520.0 0.0154165387 0.071419665 0.7377403396 -0.0484215972 0.7380669283 -0.0485308807 0.013753259 0.073545679
85299490.0 0.0200801299 0.0691060187 0.740836459 -0.058928261 0.740773646 -0.0585018423 0.01814764 0.0712078853
90299460.0 0.0238268623 0.0664386173 0.7431377977 -0.0687340687 0.7433611144 -0.0682143908 0.0224792802 0.0691971232
95299430.0 0.0279511748 0.0642749848 0.7462045134 -0.0786494079 0.7462540901 -0.0790127915 0.0259986615 0.06661804
100299400.0 0.0314958501 0.061452798 0.747472034 -0.088816013 0.7477032555 -0.088812346 0.0292475985 0.0645806812
105299370.0 0.0343483826 0.0592686945 0.7493667659 -0.0986630082 0.7497990331 -0.0991370365 0.0325638901 0.0618189528
110299340.0 0.0373490434 0.0564109286 0.7501571938 -0.1082687605 0.7507239422 -0.1087485902 0.0349934008 0.0593977028
115299310.0 0.0397227947 0.0543595786 0.75141147 -0.1187694265 0.7514533409 -0.1190266596 0.0377354164 0.0574530122
120299280.0 0.0414476415 0.0520639729 0.7522890714 -0.1301119813 0.7519855302 -0.1292888882 0.0397428504 0.0549486777
125299250.0 0.0439195712 0.0497098127 0.7523599071 -0.1388324197 0.7522558319 -0.138735842 0.041916415 0.0528079931
130299220.0 0.0457657403 0.0471445863 0.7518495391 -0.14914687 0.7519286123 -0.148985887 0.0438791131 0.0510399104
135299190.0 0.0471219487 0.0456090464 0.7521547947 -0.1582598635 0.7521286096 -0.1593555053 0.0456415945 0.0479995341
140299160.0 0.0489873925 0.0432091098 0.7518645649 -0.1685207661 0.7509850871 -0.1685689498 0.0462568393 0.0457022026
145299130.0 0.0494675914 0.0409746995 0.7501665972 -0.1785618041 0.7505189828 -0.1781371581 0.0480857466 0.0438429634
150299100.0 0.0509925655 0.039042904 0.7489118547 -0.188028993 0.7493938506 -0.1878303938 0.0492435936 0.0422142137
155299070.0 0.0526642413 0.0370710264 0.7475404768 -0.1973193973 0.7482053067 -0.197599651 0.0504994508 0.0397368405
160299040.0 0.0534827683 0.0356302105 0.7467246801 -0.2067190439 0.746432763 -0.2070381099 0.0509996365 0.0383547742
165299010.0 0.0541613079 0.0334314581 0.7456623824 -0.2160653072 0.7452188697 -0.2167034287 0.052440367 0.0359877771
170298980.0 0.0553620078 0.0319661187 0.7430019855 -0.2255544551 0.7434924148 -0.2261698221 0.0527798817 0.034143441
175298950.0 0.0560757753 0.0302257498 0.7418263473 -0.2350673518 0.7420221855 -0.235608783 0.0534975096 0.032704862
180298920.0 0.0564944933 0.0287419439 0.7397165393 -0.2447525991 0.7395409173 -0.244755507 0.0543423546 0.031029308
185298890.0 0.0569187718 0.02715411 0.7380860294 -0.2535219463 0.7373077531 -0.2537183632 0.0551820639 0.0291312704
190298860.0 0.0579892695 0.0258169335 0.7349462012 -0.2627845768 0.7348251856 -0.2625690927 0.0549739279 0.027549253
195298830.0 0.0579545992 0.0243144286 0.7326058574 -0.2713961259 0.7326592972 -0.2712579567 0.0555801216 0.0260435098
200298800.0 0.0586039019 0.0224514411 0.7296995567 -0.280939428 0.7300703844 -0.2808187546 0.0560443695 0.024250613
205298770.0 0.0583806443 0.0206179851 0.7265665024 -0.2892549936 0.727192994 -0.2890732222 0.05692817 0.0229127678
210298740.0 0.0589622346 0.0201462878 0.724880924 -0.2981062289 0.7235085539 -0.298273014 0.0566154375 0.0208656733
215298710.0 0.0594607424 0.018530001 0.721168619 -0.3068213693 0.7211649059 -0.307159482 0.0572457454 0.0200223461
220298680.0 0.0595545582 0.0176953015 0.7172536837 -0.3152475796 0.7172903283 -0.315438461 0.0575337745 0.018227829
225298650.0 0.0597041197 0.0160780198 0.7142472168 -0.3242101126 0.7146771479 -0.3237986397 0.0574582163 0.0167540792
230298620.0 0.0605218829 0.014997426 0.7115090428 -0.3327240815 0.7113993883 -0.3331246868 0.057685194 0.0154487443
235298590.0 0.0597903214 0.0138048382 0.7078433544 -0.3419650745 0.7079355551 -0.3412459623 0.0579026692 0.0144047874
240298560.0 0.0605223432 0.0131026542 0.704160305 -0.3493383804 0.7042454943 -0.3494660005 0.0579433337 0.013172586
245298530.0 0.0604090941 0.0113591667 0.7004628482 -0.3584286186 0.700810656 -0.3580035465 0.0580313732 0.0117311693
250298500.0 0.0602601452 0.0101883263 0.6967638003 -0.3662193441 0.6966998674 -0.3660474705 0.0578766177 0.0109087412
255298470.0 0.0606402175 0.0096110174 0.6931339412 -0.3736437425 0.6932382795 -0.3743715603 0.0579588151 0.00998979
260298440.0 0.0604590632 0.0081954462 0.6890964663 -0.3814784064 0.6888417406 -0.382253889 0.057671499 0.0079874628
265298410.0 0.0602583618 0.0075273323 0.6846581318 -0.3905466224 0.684786697 -0.3909249365 0.0588037606 0.0069214487
270298380.0 0.0598306042 0.0060630979 0.6806350226 -0.3980296123 0.6806042589 -0.3981869917 0.0583767929 0.006164836
275298350.0 0.0606478822 0.0059278956 0.675813251 -0.4060493522 0.6753106338 -0.4061146461 0.0580235777 0.0047344841
280298320.0 0.0598912932 0.0045361326 0.6716500384 -0.4135598527 0.672337584 -0.4143248096 0.0584846262 0.0039185944
285298290.0 0.0600589719 0.0035600184 0.6672424891 -0.4217223351 0.6676084883 -0.4218141729 0.0580512341 0.0029252748
290298260.0 0.0598027794 0.0026403264 0.6634271257 -0.4301070252 0.6632220658 -0.4295983649 0.0584998999 0.0017562405
295298230.0 0.0600154009 0.0012652019 0.6586418567 -0.4378226082 0.6584198264 -0.4378075071 0.0579823115 0.0002438568
300298200.0 0.0602782016 0.0009810871 0.6538375822 -0.445323718 0.6535472125 -0.4447464223 0.0576780048 -0.0006966353
305298170.0 0.0601241245 -0.0006150837 0.6488795758 -0.4531109319 0.6496036432 -0.4531693225 0.0576568158 -0.0020925743
310298140.0 0.0605242987 -0.0016692781 0.6444691726 -0.4604886083 0.6448195864 -0.4599535854 0.0581968101 -0.0033495017
315298110.0 0.0600466252 -0.0029919369 0.6395217579 -0.4683831601 0.6390576993 -0.4683317871 0.0577533498 -0.0043651355
320298080.0 0.0596480299 -0.0037868365 0.6334840544 -0.4757214815 0.6343284334 -0.4763514471 0.0576040548 -0.0055151757
325298050.0 0.0586602204 -0.0052399473 0.6288949168 -0.4831177497 0.6295211746 -0.4831994213 0.0571757104 -0.0065443169
330298020.0 0.0574412685 -0.0058999949 0.6228708248 -0.4912007668 0.6233065427 -0.4909549902 0.0564851347 -0.0077482185
335297990.0 0.0577357486 -0.006559967 0.6174367961 -0.4970007412 0.6176950631 -0.4976702752 0.0557548347 -0.0088219894
340297960.0 0.0568581885 -0.0075171315 0.6109445415 -0.5048523926 0.6108444991 -0.5045036195 0.0553255966 -0.0090262623
345297930.0 0.0565198968 -0.008301187 0.6061468996 -0.5116921607 0.6054214817 -0.5116584901 0.0550304492 -0.0103941023
350297900.0 0.0558369251 -0.0091691804 0.6008205384 -0.5178843123 0.6003841593 -0.5180769546 0.0547125757 -0.0112686762
355297870.0 0.0556592929 -0.0098533453 0.5945456625 -0.5243294471 0.5945894813 -0.5244681141 0.0544638851 -0.0117639035
360297840.0 0.0553652513 -0.0101848764 0.5881904016 -0.5314997997 0.5884007041 -0.5317244006 0.0536973082 -0.012231041
365297810.0 0.0546822553 -0.0109724802 0.5824017546 -0.5378008208 0.5825495406 -0.5381112638 0.0528226787 -0.0132323073
370297780.0 0.0546961548 -0.0113179646 0.5758344209 -0.54384643 0.5766177933 -0.5445779963 0.0529771354 -0.0137384271
375297750.0 0.0543296193 -0.012175507 0.5703655618 -0.5507903055 0.5707517013 -0.5512261354 0.053051558 -0.0144133487
380297720.0 0.0534496298 -0.0127348063 0.5645754863 -0.5573712611 0.564752966 -0.5572802812 0.0524226043 -0.0148072828
385297690.0 0.0532115031 -0.0135826649 0.5577533035 -0.5636240552 0.5585687687 -0.564133701 0.0521625686 -0.0153761774
390297660.0 0.0530800765 -0.0142474598 0.5517841142 -0.5690037353 0.5523869706 -0.5702192607 0.0523619921 -0.0165146715
395297630.0 0.0529272536 -0.0147019443 0.5460234993 -0.575313577 0.5457884512 -0.5755729766 0.051297649 -0.0168616552
400297600.0 0.0520859624 -0.0158534925 0.5397744837 -0.5818430006 0.5399419355 -0.5821124883 0.0515065953 -0.0172316093
405297570.0 0.0520152648 -0.016774814 0.533417559 -0.5870074859 0.533156752 -0.5879149464 0.0509212719 -0.0177498923
410297540.0 0.0515776819 -0.0164394888 0.5264468837 -0.5933793762 0.5267402252 -0.5939315583 0.0504826007 -0.0185790117
415297510.0 0.051116882 -0.0172317223 0.5199926677 -0.5997689688 0.5208739532 -0.5998930289 0.0505096802 -0.0189359258
420297480.0 0.0506246474 -0.0183820705 0.5138106439 -0.6051083865 0.5136484869 -0.6057569206 0.0503846179 -0.0194499104
425297450.0 0.050917193 -0.0187213375 0.5073644622 -0.610374062 0.5067798295 -0.6111023947 0.0499422709 -0.0204860201
430297420.0 0.0500274563 -0.0192629098 0.5010817391 -0.6163608483 0.5009670163 -0.6160904767 0.0498776019 -0.0206724368
435297390.0 0.0498659687 -0.0204404104 0.4929228322 -0.6231357696 0.4931488994 -0.6224125927 0.0487108011 -0.0209242793
440297360.0 0.0499303136 -0.0211881729 0.4862037136 -0.6279654323 0.4863206414 -0.627628166 0.0486888917 -0.0216979728
445297330.0 0.0494712995 -0.0219090044 0.4802239019 -0.6326086086 0.4795122166 -0.6331450378 0.048562474 -0.0217776644
450297300.0 0.0489541386 -0.0220866333 0.473038048 -0.6380527887 0.4730580349 -0.6379507987 0.0481287132 -0.0226758596
455297270.0 0.0481303882 -0.0230321885 0.4660644594 -0.6436032953 0.4658844853 -0.6435172266 0.047930434 -0.023349032
460297240.0 0.0479908032 -0.0231922794 0.458851056 -0.6491489144 0.4587883991 -0.6488020523 0.0472854976 -0.023704649
465297210.0 0.0480630416 -0.0240083103 0.4510783545 -0.6535984748 0.4511641732 -0.6541121391 0.0477040432 -0.0237853431
470297180.0 0.047363536 -0.0249230137 0.4444197549 -0.6580849619 0.4447797833 -0.6589357696 0.0470401032 -0.0249251449
475297150.0 0.0467234762 -0.0250239638 0.4374657961 -0.6637040067 0.4379464352 -0.6642760254 0.0462943538 -0.0255800947
480297120.0 0.0469294532 -0.0252379708 0.4298626789 -0.6677876983 0.4301629424 -0.6682614611 0.0461028021 -0.0259446851
485297090.0 0.0462772971 -0.0267239194 0.4224981004 -0.6735077868 0.4225675513 -0.6731265715 0.0457550738 -0.0261943548
490297060.0 0.0462753388 -0.0266462772 0.4144908 -0.6778842036 0.4149184771 -0.6781543056 0.0452876242 -0.026922338
495297030.0 0.0450587598 -0.0277047575 0.4075374405 -0.6820868677 0.4079399053 -0.6827396885 0.0456959311 -0.0275941119
500297000.0 0.0445582143 -0.0276996553 0.400072857 -0.6861957983 0.4001050155 -0.6868655433 0.0449570872 -0.0275675141
505296970.0 0.0451447475 -0.0285600035 0.3928242342 -0.691661425 0.3927684131 -0.6913588944 0.0445304743 -0.0291082243
510296940.0 0.0444053523 -0.0290519705 0.3851377979 -0.6959733733 0.3853514075 -0.6964962888 0.0442430264 -0.0287568675
515296910.0 0.0436148646 -0.0288623379 0.3771864357 -0.6999666466 0.3768826776 -0.699821201 0.0436058603 -0.0300035675
520296880.0 0.0434852407 -0.0294183255 0.3695847815 -0.7036358712 0.3694834809 -0.7034749402 0.043871447 -0.0294365763
525296850.0 0.0433017132 -0.0305811916 0.3618486455 -0.7074461158 0.3619388055 -0.7080456189 0.0438518011 -0.03019178
530296820.0 0.0424991462 -0.0310673785 0.3539029054 -0.711794401 0.3539700631 -0.7119479241 0.0431289678 -0.0313234617
535296790.0 0.0429772837 -0.0312497989 0.3462573019 -0.7153404421 0.3464990056 -0.7160625195 0.0433658868 -0.0309298416
540296760.0 0.0419585007 -0.0313422227 0.338160145 -0.7192085469 0.3382068627 -0.7193382665 0.0423091017 -0.0321153754
545296730.0 0.040969147 -0.0320845002 0.3301896451 -0.7231302439 0.3307398385 -0.7227268474 0.0419888105 -0.0324086335
550296700.0 0.0413903213 -0.0323614117 0.3225749421 -0.7264528567 0.3222177782 -0.727209526 0.0416609853 -0.0329642834
555296670.0 0.0406423242 -0.0328132364 0.3144587886 -0.7305442736 0.3151643355 -0.7302588555 0.0408711761 -0.0337784825
560296640.0 0.0411796537 -0.0333289911 0.3060083621 -0.7336395452 0.3068912166 -0.7337596859 0.0404745631 -0.033512427
565296610.0 0.0398505636 -0.033778113 0.2991176183 -0.7371167617 0.2989320982 -0.7364066438 0.0401821386 -0.0340683517
570296580.0 0.0393738681 -0.033691003 0.2903467395 -0.7400997363 0.2905630389 -0.7406107321 0.0396319542 -0.0349560029
575296550.0 0.0389953698 -0.0344583628 0.282562617 -0.743388419 0.2824744959 -0.7435324866 0.0392869305 -0.0352064197
580296520.0 0.0388615573 -0.0342107268 0.2742333665 -0.7466285338 0.273671781 -0.7468131024 0.0382758173 -0.0355149058
585296490.0 0.0384969021 -0.034552906 0.2660827341 -0.7492709089 0.2656101236 -0.7492131435 0.0386875462 -0.0356219297
590296460.0 0.0385657613 -0.0349643125 0.2580519199 -0.7520075169 0.2578649368 -0.7524470567 0.0375673645 -0.0359362525
595296430.0 0.0380253286 -0.0354411344 0.2490088923 -0.7547780471 0.2491635977 -0.7554536862 0.0373411339 -0.0368959192
600296400.0 0.0379352789 -0.0358095186 0.2411339578 -0.7575994706 0.2407750591 -0.7577716105 0.0370196025 -0.0372843241
605296370.0 0.0365425632 -0.0360547942 0.2335851948 -0.760255577 0.2323755488 -0.7604245201 0.0364558947 -0.0370381577
610296340.0 0.0363600618 -0.0358310316 0.224415183 -0.7622618516 0.2250325864 -0.7624888567 0.0356239008 -0.0374925896
615296310.0 0.0362492594 -0.0365545416 0.2162898046 -0.7658667191 0.2161001987 -0.7653008932 0.0352156727 -0.0377891658
620296280.0 0.0348716123 -0.0363194026 0.207737072 -0.7677769036 0.2080859817 -0.7674763673 0.0344047145 -0.0383190118
625296250.0 0.034839048 -0.0367570683 0.1991530839 -0.7701610471 0.1996241264 -0.7698729931 0.0336767244 -0.0385648893
630296220.0 0.034214851 -0.0367220623 0.1907207923 -0.7718630475 0.1907508506 -0.7718808666 0.0333833157 -0.0387929751
635296190.0 0.0334459474 -0.0367306224 0.1826536514 -0.7738674793 0.1827644465 -0.773614713 0.033038598 -0.0389408883
640296160.0 0.03310097 -0.0370577125 0.1741535119 -0.7766410352 0.1739113328 -0.7759522745 0.03195628 -0.0397441906
645296130.0 0.0330492293 -0.0369567577 0.1653825646 -0.7774620481 0.1662090029 -0.7776181771 0.0313328964 -0.0404111277
650296100.0 0.03235177 -0.0374213374 0.1575849122 -0.7797905827 0.1569322517 -0.7798182716 0.0320788043 -0.0403698416
655296070.0 0.0317649883 -0.0376242226 0.1481454699 -0.7815532058 0.1487012289 -0.7808043653 0.0306057439 -0.040229545
660296040.0 0.0312034106 -0.0376321321 0.1402945307 -0.7829542198 0.1402499203 -0.7831455749 0.0299836019 -0.0412607427
665296010.0 0.0308680664 -0.0379501538 0.1303753421 -0.7839236243 0.13103971 -0.784000859 0.0297228369 -0.0407579855
670295980.0 0.0303407817 -0.0377607175 0.12325966 -0.785538624 0.1227375641 -0.7851241475 0.0283211923 -0.0416886509
675295950.0 0.0292603215 -0.0381081641 0.1144285451 -0.7866673975 0.1143865744 -0.7871827572 0.0275636931 -0.0414050912
680295920.0 0.0291357113 -0.0380630699 0.1060013402 -0.7881224961 0.1061149387 -0.7877958724 0.0278127353 -0.0419166435
685295890.0 0.0287624977 -0.0378212859 0.0967742112 -0.7891953119 0.0972013071 -0.789328914 0.0269834091 -0.0413624351
690295860.0 0.0277259733 -0.0382419916 0.0887694499 -0.7899257406 0.0881983267 -0.7905535278 0.0263691712 -0.0422515066
695295830.0 0.0272989214 -0.0383332178 0.0804099416 -0.7908989155 0.0800723236 -0.7910700843 0.0257493333 -0.0419421761
700295800.0 0.0268905391 -0.0383761624 0.0716210968 -0.7918443598 0.0714013874 -0.7919054691 0.0249055613 -0.0419360552
705295770.0 0.0260842486 -0.03858553 0.0624346727 -0.7929382841 0.0628362059 -0.7923978619 0.0242583434 -0.0417974015
710295740.0 0.0254956076 -0.0386945357 0.0541006515 -0.7933710059 0.0542097049 -0.7937189855 0.023960563 -0.0420769215
715295710.0 0.0247978112 -0.0380425043 0.0453433683 -0.793979156 0.0456108302 -0.7939034484 0.0235154416 -0.0426776523
720295680.0 0.0249496071 -0.038275744 0.0367373992 -0.7938314832 0.0370132452 -0.7943001946 0.0225574993 -0.0426546388
725295650.0 0.0234857676 -0.0382767511 0.0282898407 -0.7945808011 0.0283614774 -0.7946277844 0.0214249175 -0.0424920891
730295620.0 0.0220981155 -0.0387099987 0.0195263079 -0.7945176137 0.01973401 -0.7937412896 0.0210786941 -0.0420572977
735295590.0 0.0225430179 -0.0383868109 0.0112011736 -0.7947323316 0.0111560244 -0.7949858051 0.0201336245 -0.0430167932
740295560.0 0.0217764539 -0.0388552285 0.0025032719 -0.7952054601 0.0032054627 -0.7949375244 0.0192320991 -0.0423130559
745295530.0 0.02100996 -0.0384211318 -0.0063930437 -0.7943214785 -0.0052760001 -0.7948242719 0.0180318668 -0.0429135857
750295500.0 0.0199485093 -0.0383307622 -0.0146134713 -0.7950806641 -0.0149955825 -0.7947025377 0.0180749449 -0.0427308911
755295470.0 0.0194335015 -0.0384112565 -0.0230639401 -0.7952052064 -0.022915905 -0.7944071632 0.0179484677 -0.0421595045
760295440.0 0.0187900346 -0.0380123992 -0.0327549957 -0.7940479798 -0.0319614361 -0.7937629678 0.0170641472 -0.0437373407
765295410.0 0.0188394603 -0.0385067252 -0.0407316651 -0.7935781479 -0.0405218542 -0.7937479634 0.0161075048 -0.0428732118
770295380.0 0.0178981105 -0.0382240961 -0.0487863601 -0.7928284924 -0.0488666492 -0.7937847672 0.0154151524 -0.0427937712
775295350.0 0.0172644337 -0.0385253811 -0.0576332582 -0.7929886332 -0.057250474 -0.7920697692 0.0151214721 -0.0424598941
780295320.0 0.0165054765 -0.0380793102 -0.06565837 -0.791470153 -0.0658158022 -0.7916738698 0.0146542737 -0.0426876435
785295290.0 0.0156118723 -0.0385287384 -0.0753290963 -0.7913392823 -0.0748979456 -0.7911339382 0.0131797171 -0.0420863679
790295260.0 0.0155845302 -0.0384370693 -0.0829897591 -0.7901045645 -0.0832883007 -0.7908160844 0.0124921202 -0.0417850618
795295230.0 0.0147041958 -0.0385926057 -0.0919336705 -0.7896353237 -0.0921645138 -0.7900413774 0.0121597313 -0.0428686253
800295200.0 0.0136381691 -0.0378584605 -0.1002180289 -0.7877004577 -0.1003577633 -0.7885412323 0.0113140952 -0.0423305084
805295170.0 0.012762369 -0.0383848355 -0.1091757571 -0.7873104242 -0.1084410127 -0.7876136216 0.0114063196 -0.0420473743
810295140.0 0.0127763769 -0.0377869953 -0.1170219529 -0.7855984535 -0.1176303113 -0.785989598 0.0104779621 -0.0423591553
815295110.0 0.0121879327 -0.0377786389 -0.125983164 -0.7843351193 -0.1257347519 -0.7846237397 0.0095053477 -0.0420262814
820295080.0 0.0114307174 -0.0379619634 -0.1335794816 -0.7830091621 -0.1336914752 -0.7831428841 0.0082270137 -0.0409139936
825295050.0 0.010454852 -0.0379451651 -0.1429029929 -0.7812155244 -0.1427878005 -0.7811585606 0.0088278582 -0.0408787812
830295020.0 0.0098030585 -0.0378157079 -0.1517106853 -0.780564135 -0.1515862018 -0.7799488872 0.0075065025 -0.0416575048
