!Created with skrf (http://scikit-rf.org).
# Hz S RI R 50.0 
!freq ReS11 ImS11 ReS21 ImS21 ReS12 ImS12 ReS22 ImS22
300000.0 -0.7768766914 -0.0917597622 -0.0005880246 0.0014091509 0.0010211106 0.0005262601 -0.213653181 -0.0797919963
5299970.0 -0.7849854688 -0.0056799515 0.0003920655 0.0001652949 -2.27473e-05 8.04676e-05 -0.2150710419 0.0081741941
10299940.0 -0.7878041854 -0.003768989 -8.64191e-05 -0.0003004796 -5.02885e-05 0.0001481387 -0.2114393896 0.0218352054
15299910.0 -0.7932563875 -0.0023651363 0.0001593117 0.0001989848 0.0001728997 -3.88261e-05 -0.2061985981 0.0311504125
20299880.0 -0.8004049697 0.0021472565 -0.0001617185 8.87691e-05 2.47394e-05 0.0001257166 -0.2000955686 0.0392560827
25299850.0 -0.8063502139 0.007658115 7.89296e-05 9.01831e-05 -2.71525e-05 0.0001625302 -0.1939259634 0.0457577363
30299820.0 -0.812075846 0.0150606403 4.66091e-05 -5.9678e-06 -7.63326e-05 7.40891e-05 -0.1872621554 0.0505204408
35299790.0 -0.8176759225 0.0245738393 3.41786e-05 -1.30277e-05 -2.91457e-05 0.0001045775 -0.181236097 0.0546890132
40299760.0 -0.8216409632 0.0334594626 8.5753e-05 -0.0001283457 3.17519e-05 6.27034e-05 -0.1752172039 0.0575135623
45299730.0 -0.824796482 0.0427492688 5.32386e-05 3.2115e-05 5.53089e-05 7.50416e-05 -0.1696391097 0.05981895
50299700.0 -0.8272531507 0.0529178013 0.0002015554 -1.58056e-05 -1.05473e-05 0.000116534 -0.1640938922 0.0607279739
55299670.0 -0.829197065 0.0628707849 -0.0003264754 -0.0001993797 -8.42617e-05 -0.0001083329 -0.1593129549 0.0618628511
60299640.0 -0.8302759141 0.0735539475 -7.32258e-05 -8.84295e-05 0.0001168359 3.81573e-05 -0.15513441 0.0624419716
65299610.0 -0.8311880832 0.0831884379 0.0001924986 2.33761e-05 7.86646e-05 3.9797e-05 -0.15133279 0.0625078649
70299580.0 -0.8319134341 0.0932912253 0.0001755471 -8.83724e-05 5.685e-07 0.0001346085 -0.1479748128 0.0628009771
75299550.0 -0.8314718537 0.1038891494 4.58739e-05 -4.88493e-05 0.000172186 -0.0001568846 -0.1444370221 0.0625412885
80299520.0 -0.8320961439 0.1133635938 0.0002026192 9.56616e-05 1.9592e-05 0.0001967315 -0.1418548634 0.0628727985
85299490.0 -0.831262071 0.1225294515 0.000127403 8.37862e-05 0.000223739 0.0001315576 -0.1393049198 0.062413414
90299460.0 -0.8302840301 0.1319934442 0.0002442931 9.01832e-05 -6.52876e-05 4.02361e-05 -0.1367544887 0.0622126385
95299430.0 -0.8297788378 0.141859372 0.0001628729 0.0001147588 -0.0001785833 4.89961e-05 -0.1346871174 0.0618124784
100299400.0 -0.8281326663 0.1507123377 0.0002171862 -1.79397e-05 0.0001897957 0.0001144325 -0.132681109 0.0617655
105299370.0 -0.8268990934 0.1601425102 -4.44201e-05 5.07149e-05 -0.0001185023 0.0002144167 -0.1307032622 0.0616937822
110299340.0 -0.825532521 0.1694993743 0.0001746453 7.35872e-05 -1.07134e-05 0.0001078602 -0.1296242837 0.0613924032
115299310.0 -0.8239595663 0.1781325698 5.16817e-05 -0.0002575176 0.0001078876 3.29848e-05 -0.1277286656 0.0613937024
120299280.0 -0.8222049211 0.1870100271 4.33411e-05 -7.31983e-05 -2.28197e-05 2.4801e-06 -0.1266756399 0.0611533203
125299250.0 -0.8202032504 0.1961702556 -0.0001326338 0.0001981 -4.75219e-05 5.27035e-05 -0.1258602381 0.0607783224
130299220.0 -0.8186188643 0.2052115451 -0.0001544911 4.45207e-05 9.1969e-06 -3.7583e-05 -0.1246370841 0.0606760814
135299190.0 -0.8169255155 0.2136797214 -0.0001150445 0.0002166519 4.5844e-06 5.15784e-05 -0.1233038798 0.0611826242
140299160.0 -0.8145481096 0.2231203297 -8.23545e-05 6.53972e-05 0.0001116374 8.80341e-05 -0.1225636476 0.0613840083
145299130.0 -0.8127491798 0.2321668203 0.0001041396 -0.0001458223 5.33623e-05 -1.01954e-05 -0.1218754964 0.0616115648
150299100.0 -0.8099654244 0.2407242134 -0.0001413203 0.0002733265 0.000156361 0.0002122899 -0.1209867828 0.0623293658
155299070.0 -0.8081942844 0.2497305731 9.05813e-05 3.20736e-05 0.0001217091 7.76059e-05 -0.1201764209 0.0624271521
160299040.0 -0.8052816642 0.2581011962 -6.95863e-05 0.0001339283 4.36338e-05 0.0001160526 -0.1200327201 0.0628535323
165299010.0 -0.8031054636 0.2671201352 -1.38293e-05 0.0002736098 -3.0229e-05 0.0002652162 -0.1189017566 0.0631223007
170298980.0 -0.7999155326 0.2752871559 9.52824e-05 0.000137234 -1.281e-06 2.93281e-05 -0.1182553416 0.0633689754
175298950.0 -0.7978618642 0.2843895997 -2.45183e-05 -6.92043e-05 -0.0002031245 -3.86959e-05 -0.1177757536 0.0640518134
180298920.0 -0.7946369356 0.2922158499 0.0001303863 0.0002057285 -0.000103468 -6.41048e-05 -0.1174263345 0.0647119014
185298890.0 -0.7911629602 0.3009150422 2.44882e-05 2.36581e-05 8.68053e-05 0.0001932942 -0.1168863106 0.0650652168
190298860.0 -0.7886797452 0.3094702849 -0.0001938476 0.0001376192 -2.61897e-05 0.0001445183 -0.1161385387 0.0655566445
195298830.0 -0.7851595775 0.3177164104 7.81793e-05 6.54756e-05 -5.9085e-05 -0.0001861 -0.1156515631 0.0663405316
200298800.0 -0.7814802308 0.3260670064 0.0001946907 0.0002502764 -4.38863e-05 -9.8196e-06 -0.1153208596 0.0669149039
205298770.0 -0.778481009 0.3346325943 -0.000117169 -4.765e-07 2.5789e-05 7.24453e-05 -0.1149662508 0.0672733929
210298740.0 -0.7749117409 0.3421558592 7.21363e-05 0.000147731 0.0001418747 -1.5722e-05 -0.1145129056 0.0680262413
215298710.0 -0.7721993063 0.3506961843 -4.63804e-05 0.0004470835 2.05369e-05 -0.0001494031 -0.1141916305 0.0685753986
220298680.0 -0.7673825911 0.3585998998 0.0002970242 0.0001379192 2.9706e-06 0.0002624903 -0.1138612697 0.0690945945
225298650.0 -0.7642441577 0.3666254891 0.0003686684 0.0001634524 0.000333761 0.0001583744 -0.1134063539 0.0699354269
230298620.0 -0.7602814551 0.3749232681 7.57011e-05 0.0001824372 3.01108e-05 0.0001137074 -0.1128979066 0.0707767526
235298590.0 -0.7561777362 0.3826381947 0.0002164264 -8.20866e-05 6.25444e-05 0.000186295 -0.112374044 0.0719817955
240298560.0 -0.752389224 0.3907039205 4.11056e-05 0.0001790413 1.29023e-05 0.0001568873 -0.1117730523 0.0724264701
245298530.0 -0.7488693605 0.3985922744 0.0001238039 8.72924e-05 0.0001821025 -1.33244e-05 -0.1114486812 0.0729935435
250298500.0 -0.7447050109 0.4065364566 0.0001612358 0.0001874828 1.13111e-05 0.0001437514 -0.1114226444 0.0738250557
255298470.0 -0.7399694783 0.4134589994 0.0001768112 0.0001329987 -8.196e-07 0.0001403149 -0.1106972611 0.0744191089
260298440.0 -0.7356689813 0.4218665941 -0.0001257994 6.91588e-05 0.0001042716 0.0001284072 -0.109630764 0.0754739284
265298410.0 -0.7311639444 0.4295260426 0.0001056642 5.22433e-05 1.86441e-05 -6.81251e-05 -0.1094786043 0.07633997
270298380.0 -0.7269170299 0.4368836745 0.0001821659 0.0002392557 2.37669e-05 -7.10538e-05 -0.1091075337 0.0771215055
275298350.0 -0.722260841 0.4443860416 -2.65211e-05 7.28777e-05 0.0002017173 0.0001794775 -0.1082995352 0.0782879026
280298320.0 -0.7171802701 0.4523134766 5.14699e-05 -9.85411e-05 5.70986e-05 -0.0001031185 -0.1076302223 0.0790834829
285298290.0 -0.7131946865 0.4596549862 0.0002196755 0.0001303893 2.13351e-05 0.0001708546 -0.1071537375 0.0799292876
290298260.0 -0.7079049516 0.4668954317 0.0001997707 0.0001179423 -1.92891e-05 7.19822e-05 -0.1064539556 0.0809004548
295298230.0 -0.7027552698 0.474103186 5.6676e-06 0.0001396116 6.60616e-05 0.0002780939 -0.1060693341 0.0814987556
300298200.0 -0.6984287093 0.481727131 0.0001845279 0.000126667 0.0001339134 0.0001184567 -0.1052827834 0.0828791854
305298170.0 -0.6929851797 0.4881620594 -7.0214e-05 0.0002102474 0.0001310174 0.0001131037 -0.1042163112 0.0831949579
310298140.0 -0.6876711049 0.4960844575 0.0002571467 0.0002117665 7.6834e-05 -1.76403e-05 -0.1038876617 0.0841839149
315298110.0 -0.682834573 0.503167278 0.0002863858 0.0003837665 0.0002788826 0.0002622104 -0.1033066757 0.0849983876
320298080.0 -0.6775510578 0.5102511931 6.38667e-05 -3.06042e-05 8.6339e-06 -4.74437e-05 -0.1027231172 0.0858877747
325298050.0 -0.6721013018 0.5173131846 0.0001318076 -4.4752e-06 -6.4409e-05 0.0003681029 -0.1026636541 0.0866511235
330298020.0 -0.6664732167 0.5235388788 0.0001632367 -5.64927e-05 5.9682e-05 8.1741e-05 -0.1018301215 0.0880410681
335297990.0 -0.6610623505 0.5303118884 -5.02e-08 0.0001106948 0.0001682231 7.3087e-05 -0.1018335313 0.0891759705
340297960.0 -0.6560004008 0.5376083122 0.0001014997 0.0001851045 0.0002576241 0.0001304527 -0.1006303515 0.0904112303
345297930.0 -0.6499930558 0.5439263359 0.0001921587 -3.78328e-05 6.6734e-05 1.69408e-05 -0.100259692 0.0911448413
350297900.0 -0.6445398705 0.5508153552 0.0001317739 0.0001277703 7.00939e-05 9.16032e-05 -0.0999253028 0.0924319654
355297870.0 -0.6382106099 0.5580396062 0.0001857099 -9.94483e-05 -0.0001460963 4.08835e-05 -0.0991864981 0.0932202559
360297840.0 -0.632741933 0.5633287606 -6.94817e-05 -4.7258e-05 0.0001752794 0.0001750456 -0.0984073803 0.0946968852
365297810.0 -0.6274832249 0.5707023522 8.03027e-05 0.0001179437 0.0002603727 -3.85423e-05 -0.0976620724 0.095256809
370297780.0 -0.6213817157 0.5767121188 0.0001939156 -0.0001367801 2.3705e-05 0.0003128582 -0.0967465974 0.0964915936
375297750.0 -0.6151122653 0.5829624584 1.37984e-05 0.0001224406 0.0002170471 -1.06506e-05 -0.0966729453 0.0970727674
380297720.0 -0.6087969631 0.5892246957 0.0002438636 6.77055e-05 5.57558e-05 0.0001145428 -0.0958563916 0.0984574963
385297690.0 -0.6038554781 0.5949137936 0.0003076274 0.0001891171 7.85092e-05 0.0001109606 -0.094612863 0.0995105963
390297660.0 -0.5971286044 0.6010399631 0.0002193292 -0.000281157 -4.35373e-05 0.0002941344 -0.0943193946 0.100586971
395297630.0 -0.5909047827 0.6079385833 -3.2877e-06 0.0001151529 0.0002613259 2.9423e-05 -0.0933770182 0.1017088998
400297600.0 -0.5843093284 0.6138461019 0.0001491052 0.0001716308 0.0003184632 0.0002202764 -0.0922846775 0.102734385
405297570.0 -0.5786462139 0.619783822 0.0001739646 -0.0001525061 0.0002206642 -7.43884e-05 -0.0917483885 0.103380019
410297540.0 -0.5711648797 0.6251949549 0.000138075 -0.0001885536 0.0002019518 0.0003158492 -0.0909742809 0.1046319299
415297510.0 -0.5648306745 0.6311294777 5.86433e-05 1.67257e-05 -2.0843e-05 0.0001988495 -0.0902701396 0.1052784764
420297480.0 -0.559106186 0.6372889989 0.0002208574 -1.80911e-05 0.0001305163 -9.5982e-06 -0.0893228407 0.1065332921
425297450.0 -0.5518453513 0.642582722 5.40262e-05 0.0002408597 0.0003240211 5.4681e-06 -0.0884088223 0.1074648375
430297420.0 -0.5457977142 0.6483622701 4.83275e-05 -6.19794e-05 0.0002415581 1.59117e-05 -0.0880733909 0.1084841193
435297390.0 -0.538819525 0.6531201335 4.28053e-05 0.0001203399 1.63564e-05 0.0002708099 -0.0868300804 0.1092092183
440297360.0 -0.5318886503 0.6590962417 0.0001616374 9.7551e-05 -5.07537e-05 2.90858e-05 -0.0858683043 0.1100967521
445297330.0 -0.5251141925 0.6642798306 0.0001752556 0.000224604 0.000195815 2.41037e-05 -0.085067882 0.1108522264
450297300.0 -0.5183881123 0.6692034592 4.3706e-05 -5.5036e-05 6.23335e-05 -3.59095e-05 -0.0839797866 0.1120750792
455297270.0 -0.5117289561 0.6742723632 7.60073e-05 0.0001454784 -8.57845e-05 -2.70749e-05 -0.083082533 0.1126816596
460297240.0 -0.5054074416 0.679950855 7.60247e-05 6.94146e-05 0.0001834303 3.226e-07 -0.0820710978 0.1140872353
465297210.0 -0.4976658497 0.6845709887 0.0001440343 0.0001373443 0.0001661687 0.0001228031 -0.0808708738 0.1148472375
470297180.0 -0.490214566 0.6900533767 0.0001716122 -0.0001519444 0.0001188727 6.31595e-05 -0.0795838316 0.1159119262
475297150.0 -0.4836989101 0.6942724185 0.000125711 0.0003050081 0.0001381301 -8.38734e-05 -0.0787044927 0.116158856
480297120.0 -0.4768591597 0.6994015955 0.0001772306 0.0002161639 0.0001967813 -0.000117839 -0.0777873082 0.1174327619
485297090.0 -0.4695532355 0.7043455836 8.21351e-05 -0.0001620418 0.0002414137 3.70549e-05 -0.0766624512 0.1183788313
490297060.0 -0.4623808545 0.7085985073 0.0001659631 0.0001735766 0.0001089126 0.0001983856 -0.0755230834 0.1193394037
495297030.0 -0.4554553944 0.7130795043 0.0001821089 0.0002980132 0.0002686454 0.0002589833 -0.0750275364 0.1203988807
500297000.0 -0.4480657114 0.7182645521 0.0001672455 -2.71926e-05 0.000295715 8.95815e-05 -0.0737203333 0.121279578
505296970.0 -0.4406371054 0.7225618594 2.10802e-05 2.55717e-05 0.0003540444 -6.43288e-05 -0.0728198079 0.1220386229
510296940.0 -0.4334038307 0.7269515713 0.0003220809 -5.74557e-05 0.0003809814 3.96443e-05 -0.0713848786 0.123004605
515296910.0 -0.4247679672 0.7306884057 0.000347215 9.74615e-05 0.0001526722 5.9167e-06 -0.07038932 0.1238314012
520296880.0 -0.418461677 0.7354327051 0.0001846164 -2.11918e-05 0.0001063043 -4.19638e-05 -0.0690629601 0.1246714794
525296850.0 -0.4103355703 0.7389400485 8.76293e-05 0.0002207767 0.0001431683 -5.22062e-05 -0.0684128751 0.1254297026
530296820.0 -0.403105321 0.7431643172 0.000180233 0.0001292003 0.0002030079 9.75777e-05 -0.0673448363 0.1266269841
535296790.0 -0.3959133426 0.7474351028 0.0002498566 -9.38912e-05 0.0003353134 -4.05055e-05 -0.0665350754 0.1274631758
540296760.0 -0.3882260542 0.7514630307 0.0002243307 4.75323e-05 0.0002764396 -9.66006e-05 -0.0654946212 0.1281034154
545296730.0 -0.3809626349 0.7556717545 6.14178e-05 6.46258e-05 0.0002659752 4.8551e-05 -0.0640518709 0.1287029629
550296700.0 -0.3727751034 0.7594066902 0.0001792354 0.0001836575 0.0002188665 0.0001790074 -0.0630155919 0.1298067935
555296670.0 -0.3648161094 0.7617956187 0.0002285899 0.0001093406 6.8259e-05 8.0801e-06 -0.0619333067 0.1305711019
560296640.0 -0.3574183852 0.7664082992 0.0001544499 5.09471e-05 0.0002643406 -0.0002212023 -0.0604928373 0.1314611075
565296610.0 -0.3498015662 0.7697914652 0.0001828165 0.0001217263 0.0001872364 1.69384e-05 -0.0593229054 0.1323185044
570296580.0 -0.3425375734 0.7723766258 0.0002956052 0.0002423288 4.32202e-05 -6.34736e-05 -0.0584051629 0.1327766898
575296550.0 -0.3346509727 0.7767413323 0.0002556228 0.0002918446 7.90349e-05 5.93063e-05 -0.0571306406 0.1334077828
580296520.0 -0.3263176454 0.7796794677 0.0001781697 6.37618e-05 0.0001956045 7.1014e-05 -0.0557606721 0.1341722163
585296490.0 -0.3191280184 0.7825104449 0.0004750844 7.43132e-05 0.0003135253 0.0002780823 -0.0547505863 0.1349701696
590296460.0 -0.3108895417 0.7857376881 8.49333e-05 -2.19571e-05 9.69277e-05 4.7202e-05 -0.0533176453 0.1358138186
595296430.0 -0.3031017104 0.7886223637 0.0001166562 6.31585e-05 0.0001294542 0.0001911102 -0.0523972851 0.1360593001
600296400.0 -0.29521565 0.7917354312 0.0003235642 8.66318e-05 0.0003036681 3.33693e-05 -0.0511936277 0.1367810747
605296370.0 -0.2877388075 0.7945552626 0.0001943194 5.123e-06 0.000168824 -7.60857e-05 -0.0496496096 0.1376732451
610296340.0 -0.2793773136 0.7973913169 0.0002374426 -3.6574e-06 0.0003770543 -0.0001074764 -0.0486749048 0.1384491614
615296310.0 -0.2707905824 0.7997599477 0.0001800625 -1.69723e-05 0.0002405816 0.0001877041 -0.0468627502 0.1385649893
620296280.0 -0.2631828584 0.8021760203 1.33069e-05 -5.11845e-05 0.0001675507 0.000142234 -0.0456983729 0.1394859157
625296250.0 -0.2549127291 0.8051254561 0.0001089275 -3.93288e-05 0.0001551969 0.0001079957 -0.0445228003 0.1399058503
630296220.0 -0.2463620633 0.8077038789 0.0002425276 0.0001599311 0.0004466074 5.52309e-05 -0.0432155437 0.140880888
635296190.0 -0.2392756827 0.8101863917 0.0002205572 5.63029e-05 0.0002701533 -0.0001051852 -0.0416367859 0.1412787598
640296160.0 -0.2314532472 0.8124762272 0.0002049582 -0.0001801103 0.0002558696 -2.66176e-05 -0.0403300034 0.1418162166
645296130.0 -0.2229001444 0.8151575263 0.0002133514 1.62331e-05 0.0001209578 -0.0001714165 -0.0390814748 0.1425503298
650296100.0 -0.2146860776 0.816828433 7.15844e-05 4.02589e-05 0.0001819422 -9.72967e-05 -0.0379982715 0.1429279843
655296070.0 -0.2060626176 0.8192132333 0.0002502347 -1.50046e-05 0.0003062516 2.70987e-05 -0.0364830417 0.1439621636
660296040.0 -0.1976840775 0.8208842659 0.0001914112 7.56567e-05 0.0002759485 -4.07801e-05 -0.0350535933 0.1442275052
665296010.0 -0.1896894013 0.8222074745 0.0002869071 -5.5984e-06 0.0001635319 -0.0001306503 -0.0338242726 0.1450096151
670295980.0 -0.1824886411 0.8243122125 0.0001013797 0.0001831955 0.0003684442 0.000155408 -0.0325032591 0.145275721
675295950.0 -0.1735466659 0.826656432 9.768e-05 9.79645e-05 0.0001044111 4.17846e-05 -0.0314799 0.145895551
680295920.0 -0.1650165479 0.8283761055 0.0001485046 9.05124e-05 0.0002111005 -5.25491e-05 -0.0295900428 0.1467839233
685295890.0 -0.1566124128 0.8300932437 0.0003188274 -7.97469e-05 0.0002485546 0.0001805131 -0.0284031891 0.1470252813
690295860.0 -0.1491127473 0.8308545236 9.41956e-05 -6.2489e-05 0.000228876 -8.33612e-05 -0.0273104027 0.1479676431
695295830.0 -0.140777075 0.8324118667 9.66025e-05 1.69051e-05 0.0001116964 -1.63943e-05 -0.0255371876 0.1480920976
700295800.0 -0.1315008116 0.8339481851 0.0001611935 -0.0001836856 0.0003949009 0.0001322545 -0.0246204407 0.1486005377
705295770.0 -0.124431777 0.8353240451 0.0001686165 -0.0002937923 0.0001599333 0.000110902 -0.0230145814 0.149412735
710295740.0 -0.115757697 0.836327017 0.0001702519 8.1552e-06 0.0003144283 -2.0846e-05 -0.0218831954 0.1494898783
715295710.0 -0.1072737956 0.8373191822 0.0003942587 0.0001355755 0.0001746419 0.000134449 -0.0202424264 0.1498182206
720295680.0 -0.0989574838 0.8383593952 0.0004812439 -8.7766e-06 0.000425146 -1.00349e-05 -0.0185612533 0.1505007219
725295650.0 -0.0911831196 0.8398791064 0.0003890713 -6.45185e-05 0.0003059904 1.78645e-05 -0.0176272799 0.1511956547
730295620.0 -0.0817893047 0.8405233781 0.0002074806 4.46987e-05 0.0004203897 9.03607e-05 -0.0162726576 0.1514089842
735295590.0 -0.074320059 0.841406838 0.0002557214 0.000102755 0.0002167958 -0.0002133512 -0.0149612648 0.1514905944
740295560.0 -0.0662161916 0.8421570098 0.0001922089 1.18632e-05 0.0004083542 9.04194e-05 -0.0132166183 0.1519139377
745295530.0 -0.0574735023 0.8427893104 0.0002431392 6.6736e-06 3.35685e-05 1.09287e-05 -0.0118541817 0.1518970375
750295500.0 -0.0492747754 0.8427795728 0.0003609709 -7.93385e-05 0.0003610364 -8.14889e-05 -0.0107606545 0.1524942295
755295470.0 -0.0406884756 0.8431698412 0.0002425444 6.65534e-05 6.38856e-05 -0.0001118657 -0.0092138059 0.1524450294
760295440.0 -0.0324617541 0.8435290018 -8.6151e-06 -5.63397e-05 0.0004450909 7.58448e-05 -0.0073964181 0.1529393118
765295410.0 -0.0240151431 0.8442655802 0.0002497146 0.0001442747 0.0001787381 -7.04165e-05 -0.0062059908 0.1531063938
770295380.0 -0.0159691698 0.8438593872 0.0002339571 -0.000292699 0.0001019152 5.04132e-05 -0.005100529 0.1533830128
775295350.0 -0.0079367279 0.8446112732 0.0002946433 -0.0001307202 0.0001871578 -0.0001857983 -0.0035916652 0.1535132016
780295320.0 0.0010799774 0.8442784332 4.74196e-05 -0.0002997069 0.0002107084 -0.0003612182 -0.0020863821 0.1536338079
785295290.0 0.0088348791 0.8432009863 0.000333286 -0.0001617153 0.0001521707 -0.0003219279 -0.0003738117 0.153777821
790295260.0 0.017660975 0.8442204684 0.0001659262 -0.0002894131 0.0002351147 -9.54052e-05 0.0012267773 0.1543795185
795295230.0 0.0255940095 0.8436967274 0.0003557847 4.59129e-05 0.0002319891 -9.99966e-05 0.0027252075 0.1543951128
800295200.0 0.0336972924 0.8431423223 0.0003434468 8.56706e-05 0.0002748269 -0.0001575079 0.0043784248 0.1547108798
805295170.0 0.0426956585 0.8434035317 0.0001999726 -0.0001657659 0.0002058154 0.0001024923 0.0056450175 0.1549121018
810295140.0 0.0505792245 0.8424520932 0.0002991425 -0.0002058653 0.0001230993 -1.90471e-05 0.0075968837 0.1548604156
815295110.0 0.0593320584 0.8416941428 0.000216725 -0.0001139354 0.0003929726 0.0001669036 0.0087876205 0.1553490815
820295080.0 0.0671190657 0.841344271 0.0004177409 -8.48935e-05 1.75787e-05 3.6702e-05 0.0103428027 0.1552706814
825295050.0 0.0765178736 0.8406518287 0.0003436409 -0.0002598665 0.000328575 0.0001628312 0.0118034215 0.1553768333
830295020.0 0.0841258641 0.8402508672 0.0002118359 -0.0002815736 0.0003657208 1.84371e-05 0.0138828979 0.1555344575
835294990.0 0.0920451141 0.8391302951 0.0003843024 -0.0003489406 0.0005065535 6.756e-06 0.0146051366 0.155518027
840294960.0 0.1002025874 0.8389236017 0.0004560307 -8.36225e-05 0.0002730672 -0.0001577217 0.016435444 0.1559451233
845294930.0 0.1084129139 0.8369231775 0.0001533321 -0.0001549734 0.0003405667 -7.0229e-05 0.0178256819 0.1558502145
850294900.0 0.1170307516 0.8366493072 0.0001383705 7.4957e-06 0.0003153013 -0.0001811909 0.0191424733 0.1557880329
