!Created with skrf (http://scikit-rf.org).
# Hz S RI R 50.0 
!freq ReS11 ImS11 ReS21 ImS21 ReS12 ImS12 ReS22 ImS22
300000.0 -0.3198421247 -0.1068736311 0.3726927509 0.0530515135 0.3748725828 0.05486484 -0.3176847119 -0.1108362392
5299970.0 -0.3237762078 0.0050480118 0.3787441445 0.002689144 0.378525531 0.003100236 -0.3263133489 0.0029127242
10299940.0 -0.3207828307 0.0156670395 0.379914499 0.0024482639 0.3797250104 0.0023649497 -0.3243289562 0.0127018753
15299910.0 -0.3180238171 0.0236003574 0.3819077892 0.0023784158 0.3820930774 0.0022472629 -0.3212602875 0.0197422187
20299880.0 -0.314243175 0.0301740189 0.3847751494 0.0014333035 0.3852263959 0.001470162 -0.3185639685 0.0260707785
25299850.0 -0.3106111541 0.0358798066 0.3882000575 -0.0001430506 0.3883227904 0.0003092809 -0.315758757 0.0310127404
30299820.0 -0.3064829125 0.0407082392 0.3920978034 -0.0021384973 0.3915132672 -0.0023625066 -0.3128398665 0.0354033005
35299790.0 -0.303102653 0.045035743 0.3950956103 -0.0053697264 0.395394918 -0.0050400318 -0.3098588362 0.0392618833
40299760.0 -0.299663537 0.0480490745 0.3983752539 -0.0085524485 0.3983235023 -0.0089642166 -0.3070501497 0.0432364925
45299730.0 -0.2965167791 0.0513730575 0.4012200015 -0.0129579556 0.4011320318 -0.0127298809 -0.3048962395 0.0461505179
50299700.0 -0.2931223199 0.0539721192 0.4035075544 -0.017463724 0.4039975288 -0.0174953895 -0.3022162488 0.0492208623
55299670.0 -0.2908161356 0.056756905 0.4055245817 -0.0217631458 0.4059145135 -0.021940854 -0.3006139304 0.0519566116
60299640.0 -0.2880064648 0.0590194048 0.4073800055 -0.0271948186 0.4079819584 -0.0271233843 -0.2981686257 0.0546403864
65299610.0 -0.2860411835 0.0614965053 0.4093068573 -0.0318456029 0.4094504456 -0.0316098128 -0.2962424805 0.0571688472
70299580.0 -0.2838314871 0.0635343991 0.4105416664 -0.0366130245 0.4106962603 -0.0370094812 -0.2945598162 0.0596674653
75299550.0 -0.2819383988 0.0657955041 0.4116386637 -0.0419364143 0.4114664487 -0.0423348605 -0.293084329 0.0619782389
80299520.0 -0.2800017839 0.0682211816 0.4128751073 -0.0474902483 0.4128620555 -0.0473973523 -0.2915478535 0.064105313
85299490.0 -0.2783742161 0.0700248096 0.4132656517 -0.0531804261 0.4128348082 -0.0528228217 -0.2901490198 0.0663991283
90299460.0 -0.277116409 0.0721812457 0.4134228487 -0.0574664395 0.4136356988 -0.0583490482 -0.2888463733 0.0688378062
95299430.0 -0.2754144231 0.0743900553 0.4138404242 -0.0635712076 0.413839745 -0.0630401148 -0.2874236482 0.0710615139
100299400.0 -0.2743542272 0.0763785659 0.4137256957 -0.0681514271 0.4138010588 -0.0682743881 -0.2866808208 0.0729897557
105299370.0 -0.2730284443 0.078450232 0.4136149519 -0.0732738473 0.4137990405 -0.0735967277 -0.2852300898 0.0756804922
110299340.0 -0.2716598358 0.0803725664 0.413327664 -0.0782705244 0.4137904333 -0.078761845 -0.2847706304 0.0783618269
115299310.0 -0.2707959035 0.0824052306 0.412947131 -0.0838195115 0.4132464649 -0.0834790244 -0.2831562984 0.0795778797
120299280.0 -0.2698435573 0.0848081371 0.4126209162 -0.0891123148 0.4130623996 -0.0891031996 -0.2827428611 0.0825492351
125299250.0 -0.268986733 0.0866306918 0.412280414 -0.0937743799 0.4123976703 -0.0941232429 -0.2811596075 0.0845936855
130299220.0 -0.2675219674 0.0890747649 0.4114171119 -0.0984433278 0.4115952572 -0.0991644527 -0.2804032054 0.087353728
135299190.0 -0.2665328386 0.0912062743 0.4108982439 -0.103954018 0.4104693294 -0.103726912 -0.2796229738 0.0894497684
140299160.0 -0.2657822969 0.0936648648 0.4099117753 -0.1089650615 0.4105383693 -0.109380717 -0.2786843374 0.0918775638
145299130.0 -0.2647456085 0.0957423609 0.4094184117 -0.1138396283 0.4091007174 -0.1134636777 -0.2782092287 0.0946114784
150299100.0 -0.2637009158 0.0981976839 0.4082716178 -0.1191255749 0.4082903384 -0.1190510316 -0.276987243 0.0968336095
155299070.0 -0.263007154 0.1008853335 0.4072665636 -0.1240508959 0.4073405194 -0.123959071 -0.2763911161 0.0992112742
160299040.0 -0.2618123828 0.1030584713 0.4055552143 -0.1285810605 0.4058338046 -0.1289538884 -0.2750334227 0.1024777694
165299010.0 -0.2606716824 0.1054400341 0.4047745609 -0.133822528 0.4047119902 -0.1335000884 -0.2741685071 0.1044133107
170298980.0 -0.2602518028 0.1077087216 0.4027890124 -0.1380876581 0.4029331564 -0.13852985 -0.2732071812 0.1075060115
175298950.0 -0.2590075973 0.1103455458 0.4020970884 -0.1430690036 0.4020669664 -0.1430872089 -0.2722172369 0.1098669905
180298920.0 -0.2579512886 0.1126192771 0.4005551011 -0.1481836612 0.4005058782 -0.1478501594 -0.2708607472 0.1122735992
185298890.0 -0.2568265419 0.1154457077 0.3983821132 -0.1529068978 0.3991345915 -0.1523178851 -0.2705016686 0.1147308432
190298860.0 -0.2557717823 0.1177041452 0.3970283921 -0.1573720961 0.3973098766 -0.1574624922 -0.2687976396 0.1178884258
195298830.0 -0.2547790716 0.120206483 0.3959582558 -0.1619133922 0.3956390404 -0.162308413 -0.2679339257 0.1203639637
200298800.0 -0.2538466137 0.1228042714 0.3940078813 -0.1657071149 0.3941610733 -0.1662914974 -0.2667120599 0.1229405704
205298770.0 -0.2527319749 0.1252502291 0.3925814927 -0.1711555934 0.3922567424 -0.171035909 -0.265747457 0.1254703597
210298740.0 -0.2517953372 0.1278348793 0.3905433685 -0.1755466642 0.3906760892 -0.176004745 -0.2645791593 0.1282072694
215298710.0 -0.2502820685 0.1303913018 0.3886238403 -0.1801823223 0.3885571293 -0.1801781325 -0.2639266745 0.1309258337
220298680.0 -0.2492036588 0.1328943522 0.3865034347 -0.1848312438 0.3865235848 -0.1848387525 -0.2623482262 0.1338880904
225298650.0 -0.2479817964 0.1356793447 0.3842890409 -0.1888745054 0.3843774173 -0.1889571191 -0.2612416248 0.1364208847
230298620.0 -0.2468640351 0.1384121278 0.3828966151 -0.1936494225 0.3826910754 -0.1934493053 -0.2598442086 0.139085792
235298590.0 -0.2454896109 0.1406170176 0.3805256713 -0.197754602 0.3804743192 -0.1980096698 -0.258306668 0.1414137354
240298560.0 -0.2442024578 0.1432683815 0.3780585072 -0.2019142099 0.3782628358 -0.2021473372 -0.2569688893 0.1447082235
245298530.0 -0.2426771829 0.1458285594 0.3757307197 -0.2065014902 0.3761741477 -0.2065175332 -0.2557789916 0.1471325052
250298500.0 -0.2418253919 0.1481558699 0.3740326897 -0.2103616061 0.3738483071 -0.2103933411 -0.2541314965 0.1499188175
255298470.0 -0.2402736169 0.1512222842 0.3713846103 -0.2154079769 0.3715586337 -0.2149834663 -0.2527300522 0.1520394919
260298440.0 -0.2386114111 0.1534336954 0.3692725313 -0.2188488888 0.3688590012 -0.2194448082 -0.25094031 0.1552127261
265298410.0 -0.2372609117 0.1560500053 0.3666246057 -0.2237464431 0.3663174828 -0.2234020944 -0.2497282524 0.1576297026
270298380.0 -0.2356477389 0.1586908928 0.3639620725 -0.2276750316 0.3642089972 -0.227530424 -0.2481495076 0.1604614878
275298350.0 -0.2342872417 0.16109454 0.3614832942 -0.2319881072 0.3620194644 -0.2319413834 -0.246444842 0.1633045421
280298320.0 -0.2326125277 0.163996419 0.3592787577 -0.2354583001 0.3588204518 -0.2360621944 -0.2448337025 0.1660598471
285298290.0 -0.2311486279 0.1666959389 0.3567946897 -0.2396935764 0.3565503307 -0.2398589687 -0.2436315348 0.168612766
290298260.0 -0.2295779029 0.1688429982 0.3541762934 -0.2440745697 0.3539890428 -0.2439575628 -0.241308938 0.1712175235
295298230.0 -0.2275727107 0.1713785272 0.3513965509 -0.2478012423 0.3513004955 -0.2478325394 -0.2396548544 0.1738150107
300298200.0 -0.225622577 0.1735574416 0.3478759129 -0.2516959913 0.3483479889 -0.2517690706 -0.2379022764 0.1764608895
305298170.0 -0.2239544899 0.1762235312 0.3456915498 -0.255967994 0.3460394808 -0.2561761339 -0.2355872371 0.1794221502
310298140.0 -0.2221777529 0.1783325661 0.3430177122 -0.2599867006 0.3429897708 -0.2602784631 -0.2341929921 0.1820152377
315298110.0 -0.2205914638 0.1807454248 0.3400226 -0.2634088827 0.340084694 -0.2635916533 -0.2321212207 0.1844388805
320298080.0 -0.2187934601 0.1836314862 0.3373294678 -0.2679665665 0.337298963 -0.2677829535 -0.2304473419 0.1869319597
325298050.0 -0.216878621 0.1855922514 0.3341590211 -0.2718192312 0.3344394374 -0.27173795 -0.2285764712 0.189292199
330298020.0 -0.2153039492 0.1883315711 0.3303773013 -0.2753772099 0.3308824532 -0.2752760197 -0.2266920286 0.191818804
335297990.0 -0.2133815826 0.1904892715 0.3277735432 -0.2791310511 0.327586474 -0.2788210369 -0.224617592 0.1942994195
340297960.0 -0.2117815841 0.1929904648 0.3244336275 -0.2827878792 0.3249615127 -0.2828584665 -0.2228984855 0.197066964
345297930.0 -0.2099872731 0.1952068468 0.32169511 -0.2861802223 0.3209472457 -0.2858652905 -0.2208130556 0.1992275674
350297900.0 -0.2077708049 0.19762667 0.3179654095 -0.289602913 0.3180330985 -0.2895281029 -0.2188700028 0.2020097561
355297870.0 -0.2057019112 0.1998789319 0.3147364525 -0.2930980686 0.3147773791 -0.2932293554 -0.2170195377 0.2047919331
360297840.0 -0.2039141931 0.2022550838 0.3115700847 -0.2967263718 0.3114162453 -0.2967940586 -0.214881541 0.2076120325
365297810.0 -0.2013773594 0.2045999358 0.3075853981 -0.2999878308 0.3084765654 -0.3003632043 -0.2123908381 0.2101212611
370297780.0 -0.1996671396 0.2064808962 0.305009924 -0.303001238 0.3049198436 -0.3035835163 -0.2104228744 0.2120089148
375297750.0 -0.197552126 0.2092141317 0.3015498006 -0.3070354133 0.3014130595 -0.3069568858 -0.2081220863 0.2147353829
380297720.0 -0.1954176036 0.2112169445 0.298172231 -0.3096729502 0.2981519191 -0.3100284324 -0.2060409601 0.217495744
385297690.0 -0.1933506432 0.2137545219 0.294649105 -0.3129905263 0.2944872234 -0.313140327 -0.2038093886 0.2198255896
390297660.0 -0.1911036578 0.2156641707 0.2910671855 -0.316357197 0.2910424974 -0.3168156696 -0.201525828 0.2217584897
395297630.0 -0.1889210406 0.217788341 0.2876712003 -0.3193175478 0.2873655287 -0.31945678 -0.1989537056 0.2242632264
400297600.0 -0.1864997331 0.2204073092 0.2839134261 -0.3229136148 0.2843818629 -0.3229579714 -0.1973537893 0.2263889931
405297570.0 -0.1841156723 0.2224764897 0.2800224382 -0.3262104478 0.2805447179 -0.3258617351 -0.1946886485 0.2289310022
410297540.0 -0.1819867083 0.2244950426 0.2765579019 -0.3288481667 0.2767376105 -0.3286031976 -0.1924830318 0.2312524503
415297510.0 -0.1794716302 0.2265211471 0.2733859833 -0.3319571646 0.2731871228 -0.3318722253 -0.1900140312 0.2337721641
420297480.0 -0.1773255355 0.2284275953 0.2691746861 -0.335112821 0.2694337353 -0.3349989208 -0.1875345912 0.2358135669
425297450.0 -0.1746529227 0.2305616321 0.2659792604 -0.3379620742 0.2658974686 -0.3380994947 -0.1847483599 0.2384687052
430297420.0 -0.1724496218 0.2326315574 0.2620889669 -0.34113419 0.2621453924 -0.3406496793 -0.1828013147 0.2402445166
435297390.0 -0.1698766087 0.2344572246 0.2582263082 -0.3433216479 0.2584973794 -0.3432764269 -0.1802103107 0.2429676693
440297360.0 -0.1672980218 0.2365510231 0.2540380701 -0.3463440413 0.2541765291 -0.3461275679 -0.1778899046 0.2442359727
445297330.0 -0.1648772225 0.2383905692 0.2502210367 -0.3489460823 0.2504850624 -0.3489140067 -0.1750928372 0.2461042137
450297300.0 -0.1621200112 0.2400928 0.2463359143 -0.3518804035 0.2467262957 -0.3518322411 -0.1726996956 0.2486139806
455297270.0 -0.1597856064 0.2422566645 0.2427550598 -0.3546746002 0.2430776469 -0.3542138603 -0.1699909475 0.2506926517
460297240.0 -0.1575147078 0.2440135806 0.2386953837 -0.3568568136 0.2384904908 -0.3571963088 -0.1670371563 0.2531050816
465297210.0 -0.1544785345 0.2459465993 0.2346225435 -0.3598243986 0.2352263022 -0.3597666938 -0.1651439512 0.2548934241
470297180.0 -0.1519861962 0.2475444316 0.2309411852 -0.3616655364 0.2311341906 -0.3619255771 -0.1627938424 0.25671033
475297150.0 -0.1497639554 0.249274707 0.226838013 -0.3643521774 0.2271532937 -0.3641252285 -0.1594957491 0.258668486
480297120.0 -0.1470995999 0.251013716 0.2228640571 -0.3667249331 0.2232857664 -0.3667058399 -0.1570128869 0.2607272347
485297090.0 -0.144030288 0.2526300105 0.2190225528 -0.3693690228 0.2189771358 -0.3690207346 -0.1542274617 0.2622615984
490297060.0 -0.1416553199 0.254443302 0.2146144621 -0.371370512 0.2148176356 -0.3715054189 -0.1517474303 0.2642512185
495297030.0 -0.1392262073 0.2561641441 0.2107470566 -0.3739897195 0.2103473961 -0.3740213135 -0.1487846945 0.2658013362
500297000.0 -0.1364150487 0.2575021938 0.2060867882 -0.3762066859 0.2067360982 -0.3760960475 -0.1465260607 0.2679817293
505296970.0 -0.1337548181 0.2589170211 0.2022758918 -0.3780112813 0.2022297644 -0.3781166809 -0.1440904635 0.2697324996
510296940.0 -0.1310918846 0.2608555369 0.1980226545 -0.3806483884 0.1983633859 -0.3805646663 -0.1408308827 0.2716658873
515296910.0 -0.1283995949 0.2622180242 0.1938324411 -0.3823252762 0.1943415728 -0.3824385762 -0.1381085855 0.2727308711
520296880.0 -0.1253471088 0.2636722991 0.1897838168 -0.38435843 0.1900135832 -0.3845843283 -0.1350795403 0.2743907239
525296850.0 -0.1228660311 0.2651681147 0.1857976453 -0.3862616898 0.1859887231 -0.3869135544 -0.131923361 0.276072844
530296820.0 -0.1199922219 0.2666488431 0.1818897134 -0.3883548176 0.1816269736 -0.388328028 -0.1299339589 0.2776200234
535296790.0 -0.117009425 0.2679207194 0.1773227461 -0.3903871227 0.1774526892 -0.3902562609 -0.1269353819 0.2790744186
540296760.0 -0.1140948478 0.2691080092 0.1728126345 -0.3922229963 0.1728248482 -0.3921980949 -0.1242236381 0.2806520293
545296730.0 -0.1114094452 0.2707323231 0.1684698936 -0.3937340279 0.1687109247 -0.394049192 -0.1213294114 0.2817265717
550296700.0 -0.1088427067 0.2724322508 0.1644198935 -0.3959634345 0.1648050047 -0.3960790752 -0.1185441984 0.2837560378
555296670.0 -0.1054587231 0.2733843397 0.1599812566 -0.3975253219 0.1602185643 -0.397388683 -0.1156034906 0.2851431393
560296640.0 -0.1027045736 0.2746838573 0.1555899096 -0.3993703173 0.1560076058 -0.3989568509 -0.1127717282 0.2863315333
565296610.0 -0.1002497704 0.27564983 0.1514535513 -0.4005771891 0.1513041795 -0.4008942514 -0.1096717434 0.2872762437
570296580.0 -0.0967638094 0.2769577073 0.1468059559 -0.4021987735 0.1468921985 -0.402574513 -0.106595924 0.2892212117
575296550.0 -0.0940134397 0.2784091421 0.1424356674 -0.4038253074 0.1429537426 -0.4037290228 -0.1037392348 0.290468492
580296520.0 -0.0910824427 0.2793587513 0.1382057102 -0.4056156019 0.1381971143 -0.4053298247 -0.1006785248 0.2916762333
585296490.0 -0.088097236 0.2803493175 0.1340506794 -0.4070732802 0.1337900156 -0.4067691641 -0.0976269859 0.2923886537
590296460.0 -0.0853487166 0.2811947497 0.1293087218 -0.4080246201 0.1293026117 -0.4084754029 -0.094450589 0.2939782991
595296430.0 -0.0824111928 0.2827130119 0.1251171145 -0.4096149348 0.125094748 -0.4098664137 -0.0917226102 0.2945914952
600296400.0 -0.0793318183 0.2834659855 0.1205410915 -0.4109197752 0.1208101636 -0.4112228665 -0.0887160987 0.2963512386
605296370.0 -0.0760327454 0.2844328561 0.1159058552 -0.4124098114 0.1160347276 -0.4126332125 -0.0853153442 0.2975493241
610296340.0 -0.0733272638 0.2855842228 0.1116803409 -0.4133037319 0.1116741821 -0.4135690132 -0.0822092681 0.2986006781
615296310.0 -0.069992791 0.2866902336 0.1066399175 -0.41434433 0.107075307 -0.4148223434 -0.0793990354 0.299402662
620296280.0 -0.0671933409 0.2871294263 0.1025931542 -0.415491034 0.1025316259 -0.4155112919 -0.076336194 0.2999363053
625296250.0 -0.0641494952 0.2882079125 0.0977235411 -0.417057178 0.0980693186 -0.4169658199 -0.0730629487 0.3012039667
630296220.0 -0.0609830274 0.2892196135 0.0930890276 -0.4176790961 0.0938103174 -0.4177142471 -0.0700285029 0.3023434413
635296190.0 -0.0580283209 0.290030565 0.0888138085 -0.4184795933 0.0891049631 -0.4182390409 -0.0675139309 0.3028719199
640296160.0 -0.0548602412 0.2904000438 0.0843180913 -0.4195490252 0.084236304 -0.4196638827 -0.063726594 0.3039606669
645296130.0 -0.0519401611 0.2913664157 0.0795562762 -0.4202949333 0.0798036548 -0.4202232962 -0.0609911383 0.3041710457
650296100.0 -0.0493034128 0.2922236355 0.0754605795 -0.4209313475 0.0755106324 -0.4207895923 -0.0579507811 0.3053407093
655296070.0 -0.0455605085 0.2927432914 0.070666615 -0.4217848174 0.0704803721 -0.4220657378 -0.0540860009 0.3061170129
660296040.0 -0.0430157415 0.2935636595 0.0664784717 -0.4223060406 0.066223985 -0.4224221517 -0.0516181837 0.306639301
665296010.0 -0.0398745084 0.2939487875 0.0619064518 -0.4230743068 0.0619655239 -0.4231359865 -0.048553245 0.3074941812
670295980.0 -0.036118837 0.2944927857 0.0569884133 -0.4236774771 0.0571477652 -0.4236448821 -0.0453557422 0.3080996864
675295950.0 -0.0331630687 0.2949785363 0.0520039823 -0.4244273073 0.0524477993 -0.4245682142 -0.0416517449 0.3089129872
680295920.0 -0.0303076563 0.2958079074 0.0479414075 -0.4249474786 0.0476616779 -0.4249080088 -0.0385540735 0.3093648341
685295890.0 -0.0271401246 0.2960400273 0.0438274566 -0.4253250489 0.0430461393 -0.4255813596 -0.0353554793 0.3097838012
690295860.0 -0.024071864 0.2965635388 0.0387547173 -0.4254058791 0.0381196104 -0.4256027601 -0.0322433349 0.310404281
695295830.0 -0.0207743501 0.2966979164 0.0334083194 -0.4258753074 0.0340453307 -0.4260491849 -0.0293801638 0.3109059295
700295800.0 -0.0173941757 0.2970529063 0.0288126496 -0.426283117 0.0292000575 -0.4268339852 -0.0256630497 0.3111590761
705295770.0 -0.0144051111 0.2975390253 0.0245588224 -0.4266657146 0.0250304688 -0.4266789568 -0.0230715482 0.3118196806
710295740.0 -0.0114172358 0.2980351353 0.0201156386 -0.4268335243 0.0201317014 -0.4266170203 -0.0197913088 0.3121580993
715295710.0 -0.0083592039 0.2981214584 0.0151213449 -0.4268106325 0.0157964555 -0.4268354087 -0.016273982 0.3120009918
720295680.0 -0.0052232086 0.2981899862 0.0107456315 -0.4271444611 0.0107936412 -0.4274417876 -0.0126947764 0.312639348
725295650.0 -0.0017013116 0.2987004896 0.0054059538 -0.42684266 0.0061026059 -0.4272541499 -0.0093417394 0.3131754707
730295620.0 0.0010803976 0.2986213556 0.0014633831 -0.4271806912 0.0013901651 -0.4272453668 -0.0064747978 0.3128127582
735295590.0 0.0046204271 0.2985538195 -0.0027495807 -0.4271489941 -0.0029444976 -0.4273811236 -0.0030647987 0.3135376534
740295560.0 0.0076437281 0.2989842945 -0.0079562382 -0.4268124771 -0.0075905985 -0.4269202697 -3.40227e-05 0.313172067
745295530.0 0.010809949 0.298949891 -0.0126067153 -0.4270471793 -0.0120282261 -0.4271310337 0.0033388618 0.3135788371
750295500.0 0.0139872465 0.2987824319 -0.0168690221 -0.42625501 -0.0167888543 -0.426577702 0.0065251895 0.313317
755295470.0 0.0176237882 0.2989220352 -0.0215336021 -0.426273809 -0.0213446196 -0.42664052 0.0095261995 0.3137776516
760295440.0 0.0206280608 0.2990168537 -0.0267164726 -0.4258916945 -0.0262261698 -0.4260206955 0.0128537004 0.3138299181
765295410.0 0.0234312632 0.2987330842 -0.0303587947 -0.4255042984 -0.0306727835 -0.4258690654 0.0167635645 0.3138536676
770295380.0 0.0269129531 0.2988010626 -0.0354783385 -0.4251202636 -0.0352536602 -0.4254133487 0.0199355494 0.3141420078
775295350.0 0.0297778631 0.2987283653 -0.0399951527 -0.4247458569 -0.0397317672 -0.4247108139 0.0225677049 0.313356314
780295320.0 0.0332369886 0.2981451845 -0.0444058885 -0.4244375281 -0.044289738 -0.4245776601 0.0260018001 0.3139447944
785295290.0 0.0361957282 0.2985175371 -0.0490230161 -0.4232701258 -0.0491107702 -0.4237996403 0.0292441836 0.3136081432
790295260.0 0.0392511773 0.298042707 -0.0535345216 -0.4232347868 -0.0536935653 -0.4236026853 0.0325408892 0.3133097734
795295230.0 0.0423927814 0.2979418339 -0.057739845 -0.4224028092 -0.0578745057 -0.4227573779 0.0360052436 0.3137351402
800295200.0 0.0457646001 0.2976390524 -0.062777644 -0.4219984588 -0.0626291594 -0.4219328492 0.0391641136 0.3128554245
805295170.0 0.0487289323 0.2971283882 -0.0668149151 -0.420787287 -0.0674760356 -0.4212299503 0.0421636133 0.3126878536
810295140.0 0.0520032902 0.2969217968 -0.0717697868 -0.4203711896 -0.0717885626 -0.4206481766 0.0453511761 0.3127198615
815295110.0 0.0553267412 0.2963196096 -0.0768141314 -0.4191605693 -0.0762755191 -0.419778971 0.0487140494 0.3123294598
820295080.0 0.0582769838 0.2955546089 -0.080654502 -0.4184899675 -0.0805408327 -0.4186574656 0.0517057682 0.3116698742
825295050.0 0.0613272733 0.295408364 -0.0855407173 -0.4173232204 -0.0851355972 -0.4175685716 0.0551783209 0.3113557185
830295020.0 0.0648691561 0.2950113148 -0.0902262521 -0.4164356269 -0.0902929006 -0.4168587448 0.0582023108 0.3106415316
