!Created with skrf (http://scikit-rf.org).
# Hz S RI R 50.0 
!freq ReS11 ImS11 ReS21 ImS21 ReS12 ImS12 ReS22 ImS22
300000.0 -0.2388204554 -0.0921270483 0.4673434285 0.060939113 0.4703156314 0.0652759828 -0.2373675742 -0.1047333125
5299970.0 -0.2436999839 0.007787238 0.4737691636 0.0048388762 0.4737826082 0.005525643 -0.2438157995 0.0062377116
10299940.0 -0.2404091474 0.0200528034 0.4757890584 0.006111569 0.4756681261 0.0065201386 -0.2408271213 0.0183850956
15299910.0 -0.2360181352 0.0298637508 0.4793400337 0.0076480161 0.4794558762 0.0078606322 -0.2365523296 0.0278714558
20299880.0 -0.2305375058 0.0374601257 0.4839881477 0.0080063301 0.4841380657 0.0082107481 -0.2321102846 0.0356054508
25299850.0 -0.2250130079 0.0434809256 0.4895637408 0.0073847238 0.4894636191 0.0073447115 -0.2268178616 0.0417762927
30299820.0 -0.2188062574 0.0487877824 0.4950253844 0.0051371852 0.4950688465 0.0053730427 -0.2215733934 0.0468032955
35299790.0 -0.2126988817 0.0531551003 0.500480186 0.0020563831 0.5002664577 0.0019650488 -0.2162132645 0.0511148282
40299760.0 -0.2075683221 0.055781534 0.5052572532 -0.0014342512 0.505437579 -0.0018002909 -0.2114915071 0.0547310009
45299730.0 -0.2025641034 0.0587183572 0.5100618974 -0.0066143384 0.5105950378 -0.0066579387 -0.2068345956 0.0573370402
50299700.0 -0.1976404356 0.0602923209 0.5140611071 -0.0120461511 0.5145090732 -0.0122578755 -0.2020404809 0.0596505153
55299670.0 -0.1936721528 0.0617142178 0.5175817684 -0.0176989397 0.5181561736 -0.0179702074 -0.1982615034 0.0614013538
60299640.0 -0.1893021945 0.0627022408 0.5209399924 -0.024360895 0.5216053945 -0.0243105518 -0.1945751775 0.0630110037
65299610.0 -0.1861014298 0.063915882 0.5245371407 -0.0307138533 0.5242514618 -0.0307862495 -0.1906873883 0.06437054
70299580.0 -0.1826973862 0.0643596652 0.5268156507 -0.037041022 0.5268914709 -0.037267103 -0.1877418962 0.0655365839
75299550.0 -0.1794990221 0.0653517412 0.528795051 -0.0439925844 0.528762462 -0.0441776837 -0.1849303694 0.0671151831
80299520.0 -0.1772329361 0.0658867607 0.5307855513 -0.0510472094 0.5307868368 -0.0511051319 -0.1823198724 0.0674616363
85299490.0 -0.1746087819 0.0658958256 0.5322931723 -0.0579912214 0.5317900997 -0.0578702033 -0.1802602311 0.0684557053
90299460.0 -0.1726744559 0.0665007307 0.5330986572 -0.0645587033 0.5332219077 -0.064792449 -0.17746549 0.06898323
95299430.0 -0.1706634562 0.0673780695 0.534245134 -0.0718571889 0.5341863945 -0.0717535389 -0.1758269035 0.0702430807
100299400.0 -0.1688981866 0.0676615141 0.5341718691 -0.0788279231 0.5343827187 -0.0787208585 -0.174200816 0.0709969511
105299370.0 -0.1669014726 0.0682527363 0.5344634303 -0.0854696657 0.5343570039 -0.0855690365 -0.1720646747 0.0718863123
110299340.0 -0.1654998301 0.0684038402 0.5343839766 -0.0925726318 0.5346465913 -0.0925353981 -0.1706118407 0.0725959239
115299310.0 -0.1641848064 0.0683549217 0.5346291459 -0.098641729 0.5347837926 -0.0990609179 -0.1688163037 0.0733841406
120299280.0 -0.1630792716 0.0695472301 0.5348517535 -0.1060372404 0.5348616314 -0.1060051789 -0.1678137335 0.0741682922
125299250.0 -0.1618998383 0.0698374085 0.5341459911 -0.1127533525 0.5344682523 -0.1132887821 -0.1661046158 0.0749619505
130299220.0 -0.1606126662 0.0704631924 0.533314424 -0.1188559312 0.5336703001 -0.1195360604 -0.1652786489 0.0760953808
135299190.0 -0.1594316751 0.071002546 0.5329497122 -0.1258250279 0.5327480066 -0.1261850726 -0.164102912 0.0772052222
140299160.0 -0.1586694071 0.0721136355 0.5323793053 -0.132698174 0.5324088564 -0.1326456108 -0.1628606092 0.0781259547
145299130.0 -0.1575941396 0.0727714643 0.5313719717 -0.1394493905 0.5313798136 -0.1392718176 -0.1622781824 0.0787913504
150299100.0 -0.1566778285 0.0735490806 0.53032912 -0.145797976 0.5302949157 -0.1458652485 -0.1608781745 0.0798086262
155299070.0 -0.1559601391 0.0747225994 0.528795982 -0.1525305565 0.528986144 -0.1524609542 -0.1601613246 0.0811463076
160299040.0 -0.1548346095 0.0754719717 0.5275950367 -0.1584951905 0.5275547335 -0.159073434 -0.158851789 0.0825627668
165299010.0 -0.1542398833 0.0761551095 0.5265044367 -0.1650658322 0.5265429183 -0.1654724969 -0.1579635859 0.0834155935
170298980.0 -0.1536512008 0.0771453941 0.5240828202 -0.1716118182 0.5246205282 -0.1719183692 -0.1569707584 0.084660119
175298950.0 -0.1527357058 0.0781327794 0.5232815674 -0.1778000055 0.5231067303 -0.1777171507 -0.1556935484 0.085932229
180298920.0 -0.1518019726 0.0793444351 0.5214562084 -0.1843696512 0.5211483401 -0.1843618357 -0.1548555451 0.0874458045
185298890.0 -0.150906908 0.0802805793 0.5193552145 -0.1908751597 0.5195655748 -0.1902250948 -0.1540777494 0.0880656144
190298860.0 -0.1502454492 0.0811810236 0.5172909115 -0.1970842511 0.5179422782 -0.1969370699 -0.1527274887 0.089417141
195298830.0 -0.1495426605 0.0819375146 0.5155176115 -0.2025401185 0.515795281 -0.2030583193 -0.1521235361 0.0904051092
200298800.0 -0.148730142 0.083212461 0.5135212622 -0.2085400699 0.5136420569 -0.2085497509 -0.1507506716 0.092388263
205298770.0 -0.14829897 0.0843860466 0.5113732723 -0.2146037491 0.511509514 -0.2148645341 -0.1500743693 0.0933662448
210298740.0 -0.1474897964 0.085366497 0.5093610405 -0.2216417929 0.5092668905 -0.2209919813 -0.1487797365 0.0951205068
215298710.0 -0.1463708721 0.0869658256 0.5066894428 -0.2267026782 0.5069450305 -0.226661457 -0.1484958448 0.0963405542
220298680.0 -0.1458758227 0.0880088881 0.504037542 -0.2328677043 0.5044421953 -0.232849392 -0.1471986265 0.0977886064
225298650.0 -0.1448775865 0.0893804731 0.5012895268 -0.2383578177 0.5016765983 -0.2384180811 -0.1465595172 0.0990800869
230298620.0 -0.1444300449 0.0907232141 0.4992446091 -0.244442613 0.4997386604 -0.2446921798 -0.1449566038 0.1004251054
235298590.0 -0.1435334706 0.0915403777 0.4968072859 -0.2500203801 0.4969341278 -0.2501780901 -0.1442547384 0.1015060022
240298560.0 -0.1430075707 0.0928683374 0.4943220306 -0.2554380856 0.494251305 -0.2555795141 -0.1431825893 0.103213855
245298530.0 -0.1419546806 0.0941622483 0.4911957286 -0.2615659139 0.4913941364 -0.2620379598 -0.1419056323 0.1048192821
250298500.0 -0.1413452194 0.0953739603 0.488446022 -0.2669423138 0.4886413728 -0.2667454353 -0.1408669164 0.1059036327
255298470.0 -0.1406164643 0.0967849656 0.4850702909 -0.2730723486 0.4852643921 -0.2727660807 -0.139908942 0.1075308638
260298440.0 -0.1396832801 0.0979068755 0.482839099 -0.2778244655 0.4825629641 -0.2784276928 -0.1381109929 0.1090305782
265298410.0 -0.1387396055 0.0994652795 0.4795657052 -0.2842214091 0.4791577899 -0.2837645316 -0.1375344232 0.1102989943
270298380.0 -0.137914446 0.1004983281 0.4759908485 -0.2889087597 0.4764017754 -0.2896920789 -0.1359109079 0.1121218244
275298350.0 -0.137143728 0.1019648436 0.4726305092 -0.2952709656 0.4737012938 -0.2952077452 -0.1349233661 0.1133791776
280298320.0 -0.1362809644 0.1030750315 0.4700707321 -0.2997156201 0.4699042556 -0.3001971376 -0.1334954004 0.1148834379
285298290.0 -0.1351886946 0.104771131 0.4666138438 -0.3055677054 0.4668955932 -0.3054102414 -0.1325724695 0.1164440439
290298260.0 -0.1343484777 0.1058749059 0.4638213187 -0.3108641397 0.4635077384 -0.3109238434 -0.1310278557 0.1180395728
295298230.0 -0.1332959827 0.1070407231 0.4608948345 -0.3160518773 0.4601078695 -0.3162223257 -0.129898453 0.1192630128
300298200.0 -0.1318694856 0.10805552 0.4562126438 -0.3211087197 0.4565443291 -0.3216379305 -0.1283357699 0.1206672573
305298170.0 -0.1309558202 0.1094767984 0.4533452917 -0.326675326 0.4533500243 -0.3269282154 -0.1265805302 0.1222893017
310298140.0 -0.1298142576 0.1104968614 0.449783921 -0.3320380596 0.4498428127 -0.3323682175 -0.1255056181 0.1240509524
315298110.0 -0.1293904832 0.111977052 0.446180942 -0.3370637993 0.4462092102 -0.3373921577 -0.1239076205 0.1248755761
320298080.0 -0.1283426277 0.1131327601 0.4423161377 -0.3421718423 0.4426416243 -0.3421837911 -0.1230736936 0.1260862165
325298050.0 -0.1273013957 0.1140442436 0.4388563332 -0.3471809672 0.4386862643 -0.3476309754 -0.1215991474 0.1277778772
330298020.0 -0.1264633287 0.1153585483 0.4339567272 -0.3522432446 0.4341767985 -0.3525024832 -0.120180487 0.1286909038
335297990.0 -0.1252914159 0.116646193 0.4303196042 -0.3572028102 0.4304172861 -0.357296297 -0.1191590109 0.1302448366
340297960.0 -0.1247348932 0.1181808351 0.4258751141 -0.3621173302 0.4267584335 -0.3617484395 -0.1181009747 0.1317513945
345297930.0 -0.1239655471 0.1194219784 0.4220075917 -0.3660777707 0.4218580523 -0.3662025198 -0.1164781563 0.1327487103
350297900.0 -0.1225432523 0.1208011501 0.4177017501 -0.3712106991 0.4180381218 -0.3712815229 -0.1152016071 0.1347426389
355297870.0 -0.1216866558 0.1218745259 0.4134457891 -0.3756271654 0.4139372577 -0.3760175988 -0.1136922988 0.13645055
360297840.0 -0.1202188618 0.1234345641 0.4093467803 -0.3805992401 0.409304081 -0.3803098029 -0.1119825115 0.1377307634
365297810.0 -0.1190550583 0.1245210605 0.4051059916 -0.3848329769 0.4052434005 -0.3850255349 -0.1108436314 0.1393071062
370297780.0 -0.1177775412 0.1256930924 0.4006759092 -0.3890894948 0.4010457977 -0.3895730357 -0.1092708188 0.1404976943
375297750.0 -0.1166514321 0.127472815 0.3974096507 -0.3942914557 0.3963788862 -0.3940509077 -0.1074814056 0.142192193
380297720.0 -0.1157463798 0.1282239755 0.3926225273 -0.397777206 0.3923849062 -0.3979519154 -0.1060398512 0.1435034518
385297690.0 -0.1144207844 0.1296379202 0.3880794316 -0.4018799372 0.3878489027 -0.4022883988 -0.1044050195 0.1452657275
390297660.0 -0.1133312725 0.1308446027 0.3834891072 -0.4067558736 0.3835009347 -0.4066996254 -0.102879347 0.1457642477
395297630.0 -0.1117507081 0.1320132413 0.379326874 -0.4102535364 0.3792019042 -0.4109935141 -0.1015357177 0.1478325231
400297600.0 -0.111042913 0.1334841773 0.3747036463 -0.4149528556 0.3750159712 -0.4154168916 -0.1000534529 0.1490414008
405297570.0 -0.1091935318 0.1347735458 0.3699280321 -0.4191767201 0.3696989342 -0.419181004 -0.0985381368 0.1501351281
410297540.0 -0.1079798445 0.1359744403 0.3645838982 -0.4229171381 0.3649860844 -0.4226499797 -0.0967837695 0.1515384933
415297510.0 -0.1067652441 0.1372115986 0.3606831477 -0.4270973747 0.3610573038 -0.4269298972 -0.0953151119 0.1533368403
420297480.0 -0.1054916566 0.1380793493 0.3557861332 -0.4309982059 0.3558863261 -0.4310368162 -0.09337096 0.1539034126
425297450.0 -0.1035689087 0.1388567904 0.3509865118 -0.4345551914 0.3517408259 -0.4346926039 -0.0917636343 0.155621999
430297420.0 -0.1026556859 0.1404840638 0.3465107679 -0.4388742381 0.3463425548 -0.438573134 -0.0897765537 0.1563901749
435297390.0 -0.1012233533 0.1415069063 0.3416527351 -0.4421401881 0.3417568407 -0.4420653316 -0.0883747264 0.1579843736
440297360.0 -0.0999431167 0.1424702085 0.3363937424 -0.4457956147 0.3363931872 -0.4460712463 -0.0867396133 0.1586640866
445297330.0 -0.0981727067 0.1438002759 0.3313352908 -0.4500754482 0.3314274618 -0.4497012426 -0.0847035738 0.1600928699
450297300.0 -0.0970020615 0.1447113732 0.3266332207 -0.4533921347 0.3268881764 -0.4534949007 -0.0834971657 0.1612062618
455297270.0 -0.0955374045 0.1456838103 0.3219038454 -0.4568377543 0.3222115744 -0.4570100737 -0.0811619519 0.1625684675
460297240.0 -0.0945476565 0.1470229472 0.3166475836 -0.4598475697 0.3166183647 -0.4603894424 -0.0796362085 0.1639541224
465297210.0 -0.0926421615 0.1476163613 0.3119390819 -0.4639915692 0.311778055 -0.463749383 -0.0782566199 0.1647428679
470297180.0 -0.0915132191 0.1488295188 0.3068421454 -0.4668683265 0.3069115502 -0.4670306759 -0.0764382622 0.165668261
475297150.0 -0.0899738215 0.1496913651 0.3013453434 -0.4698378458 0.3014751667 -0.4700501017 -0.0744843892 0.1669265383
480297120.0 -0.0884575596 0.1505324071 0.2961316622 -0.4733639768 0.2965903917 -0.4734616123 -0.0727020788 0.1683417985
485297090.0 -0.0865987585 0.1514792152 0.2911608698 -0.4765973184 0.2914663712 -0.4768520731 -0.0710279872 0.1688172511
490297060.0 -0.0853492507 0.1523519814 0.2861040498 -0.4798061905 0.2861200708 -0.4798381211 -0.0688834723 0.1701885171
495297030.0 -0.0843092477 0.1536193817 0.2807471344 -0.4827607666 0.2808500096 -0.4829784823 -0.0671858105 0.1708420975
500297000.0 -0.0822423914 0.1542230116 0.2753870865 -0.4856836251 0.2752548452 -0.4856847997 -0.0655664048 0.1717149418
505296970.0 -0.0811941165 0.1551753446 0.26980321 -0.4885274648 0.2700058602 -0.4886524061 -0.0641502476 0.1729131157
510296940.0 -0.0797322282 0.1563498214 0.2645741764 -0.4921624035 0.2647345205 -0.4919519854 -0.0617580794 0.174185811
515296910.0 -0.0782331334 0.1573511688 0.2590373474 -0.4942200888 0.2594619705 -0.4946823043 -0.0600969264 0.1744742022
520296880.0 -0.0765144552 0.1578809373 0.2541819829 -0.4971863072 0.2540481207 -0.4969908069 -0.0582103517 0.1755123882
525296850.0 -0.0752551191 0.1588046894 0.2485984731 -0.5002166183 0.2486404105 -0.500172102 -0.0560321395 0.1764673229
530296820.0 -0.0736188684 0.1597012568 0.2429536241 -0.5020938462 0.2434630254 -0.5026627179 -0.0544756491 0.1768552503
535296790.0 -0.0719890419 0.1606270437 0.2378033905 -0.5048459307 0.2380644423 -0.5049487921 -0.0524678175 0.177473985
540296760.0 -0.0705545916 0.1611051635 0.2323155112 -0.5081015159 0.2315833693 -0.5076544214 -0.0509032613 0.1785117758
545296730.0 -0.0690988628 0.1620955522 0.2265533951 -0.509847317 0.2267468052 -0.5103433963 -0.0487999778 0.1789209514
550296700.0 -0.0677246181 0.1627833153 0.2212732556 -0.5124876609 0.2215476294 -0.5124863622 -0.0473185053 0.1801929464
555296670.0 -0.0656781169 0.1636383834 0.2154287869 -0.5150443099 0.2158631214 -0.5147427507 -0.0453024983 0.1809155119
560296640.0 -0.063953143 0.1642964313 0.2098222569 -0.5170875954 0.2100754817 -0.5169275006 -0.0431088788 0.1811810598
565296610.0 -0.0626814391 0.1653721132 0.2039544356 -0.519674541 0.2039253452 -0.5195171386 -0.0414676483 0.1821252665
570296580.0 -0.0607708614 0.1657394601 0.1986259299 -0.5214332167 0.1990431673 -0.5216923756 -0.0393150446 0.1830938029
575296550.0 -0.0590429504 0.1667371288 0.1929604201 -0.5232407115 0.1929929854 -0.5237034628 -0.0368186053 0.1837063841
580296520.0 -0.057986339 0.1672684471 0.1876959203 -0.5253892297 0.187037062 -0.5258699182 -0.0353194005 0.1837919153
585296490.0 -0.0560071834 0.1676414384 0.1815851519 -0.5274771822 0.1815082222 -0.5273320263 -0.0333719534 0.1840581024
590296460.0 -0.0545196133 0.1681881807 0.1757538723 -0.5293295993 0.1757915894 -0.5298355771 -0.0311613519 0.1850462634
595296430.0 -0.0527177902 0.1693659294 0.1702954542 -0.5315289745 0.1698908563 -0.5317258376 -0.0292689252 0.1850337931
600296400.0 -0.051172787 0.1696836662 0.1643080213 -0.5331438593 0.1649806253 -0.5332046052 -0.0275135955 0.1860580628
605296370.0 -0.0496154387 0.1709090483 0.1585958217 -0.5350679786 0.1589947611 -0.5347118668 -0.0252719008 0.1865036542
610296340.0 -0.048113749 0.1711252007 0.1532867947 -0.5364703151 0.1527665922 -0.5364484165 -0.0234443751 0.1869521742
615296310.0 -0.0464134863 0.1718920112 0.1470102416 -0.538302423 0.1468899716 -0.5384742928 -0.0214013004 0.1871475638
620296280.0 -0.0445782662 0.1722870661 0.1412124559 -0.5394585357 0.1411240327 -0.5395572125 -0.019324265 0.1872580767
625296250.0 -0.0428958825 0.1730562498 0.1351699179 -0.5410364332 0.1352088809 -0.5414441252 -0.0172310918 0.1880467042
630296220.0 -0.0409792318 0.1737096574 0.1292181737 -0.5429576171 0.1297892053 -0.5426387899 -0.0154100791 0.1883264919
635296190.0 -0.0395806246 0.1740380203 0.1238314274 -0.543115298 0.1231692983 -0.5434887747 -0.0134368372 0.1883452024
640296160.0 -0.0378659758 0.1744352338 0.1175036012 -0.5448137131 0.1174264772 -0.5452173228 -0.0108227324 0.1888645095
645296130.0 -0.0363268307 0.1753147358 0.1114251334 -0.5464277166 0.1119266886 -0.5463505128 -0.0096129865 0.1885811147
650296100.0 -0.0345088954 0.1762585955 0.1064453512 -0.5472619542 0.1064669345 -0.5474110182 -0.0073707467 0.1890607751
655296070.0 -0.0331220789 0.1761779586 0.1000944834 -0.5480840011 0.0998519437 -0.5484844393 -0.0047697301 0.189712178
660296040.0 -0.0316679317 0.1769871897 0.0942161699 -0.5493955646 0.094123119 -0.5491853625 -0.003240395 0.1890357327
665296010.0 -0.0293271885 0.1769277034 0.088220697 -0.5502257583 0.0886409264 -0.5504601336 -0.0013517567 0.1899450357
670295980.0 -0.0272842963 0.1776233957 0.0820704068 -0.5512176637 0.0825762389 -0.5512037288 0.0005122622 0.189871338
675295950.0 -0.0257959326 0.177724364 0.0759320291 -0.5519787933 0.0764862345 -0.5525816696 0.0030420878 0.1903159967
680295920.0 -0.0242246143 0.1788947766 0.0702857013 -0.5529190428 0.0699270111 -0.5533389809 0.0053285792 0.1902311257
685295890.0 -0.0222280914 0.1788095756 0.064435915 -0.5538074323 0.0640397884 -0.5539672734 0.0071098436 0.1903818443
690295860.0 -0.0203274006 0.178919485 0.0583914212 -0.5536860795 0.0578020185 -0.5538752149 0.0094995552 0.1905086737
695295830.0 -0.0185978528 0.1795082515 0.0518082176 -0.5545624127 0.0521186087 -0.5547118959 0.0110845882 0.1903903025
700295800.0 -0.0169305944 0.1799930817 0.0461678291 -0.5554304833 0.0459660791 -0.5555151403 0.013756729 0.1900992964
705295770.0 -0.0150590368 0.1802318211 0.0402762835 -0.5556842153 0.0408291868 -0.5559824845 0.0151093253 0.190464834
710295740.0 -0.0131151429 0.1808182058 0.0340550337 -0.555897014 0.0338091332 -0.5557806508 0.0168803767 0.1903893963
715295710.0 -0.0116747469 0.180989032 0.0281119196 -0.5563891067 0.0286711543 -0.5566213413 0.0193493191 0.1902473771
720295680.0 -0.010007558 0.1809561783 0.0222323696 -0.5563061776 0.0220687105 -0.5570129905 0.0216708504 0.1904012514
725295650.0 -0.007973812 0.1815371338 0.0157591175 -0.5567252634 0.0162805046 -0.5566908113 0.0237351832 0.1901482745
730295620.0 -0.0067432119 0.1814624589 0.0102580616 -0.5569372959 0.0101686672 -0.5569177332 0.025961183 0.1895553331
735295590.0 -0.0042890392 0.1818944331 0.0044354507 -0.5568988943 0.0042495228 -0.5572462318 0.0279388022 0.1897869341
740295560.0 -0.002597984 0.1820972571 -0.0019222815 -0.5564841904 -0.0022294885 -0.556845991 0.0300675503 0.1893054988
745295530.0 -0.0009943786 0.1821365126 -0.0076447875 -0.5570087534 -0.0076382998 -0.5571026108 0.0320405279 0.1893038382
750295500.0 0.0009289732 0.1822243663 -0.0135699638 -0.5562005521 -0.0138400382 -0.5564960464 0.0344249543 0.1888939528
755295470.0 0.0031232594 0.1827716968 -0.0195577319 -0.5566642266 -0.0195930361 -0.5568518773 0.0357686308 0.1890695641
760295440.0 0.0044820912 0.1827482635 -0.0260066006 -0.5562315817 -0.0256165021 -0.5565269229 0.0378465754 0.188655131
765295410.0 0.0061529542 0.1824495454 -0.0315086004 -0.5557645874 -0.0320128589 -0.5558694343 0.0410009442 0.1886852698
770295380.0 0.0083818034 0.1828780769 -0.0378319196 -0.555005388 -0.0375749606 -0.5558691803 0.042899468 0.1883549336
775295350.0 0.0098727244 0.1830253641 -0.0438925713 -0.5548324468 -0.0435879012 -0.5548942342 0.0439523965 0.1872142962
780295320.0 0.011895298 0.1828982677 -0.0491877007 -0.5542599189 -0.0492103925 -0.5546021357 0.0464154966 0.1878385958
785295290.0 0.0134423197 0.1833578094 -0.0560279949 -0.5532242497 -0.0555203477 -0.5539480015 0.0484030178 0.1871186622
790295260.0 0.0152936531 0.1831871546 -0.0617181279 -0.5532369853 -0.0617930275 -0.5535929739 0.051023612 0.1865079022
795295230.0 0.0169969594 0.1833020504 -0.0674596988 -0.5522909279 -0.0676025232 -0.552702642 0.0528530728 0.1867344095
800295200.0 0.0191490498 0.1831991963 -0.0738576678 -0.5517547672 -0.0736630467 -0.5517265741 0.0548809318 0.1861092667
805295170.0 0.0205515982 0.1831839517 -0.0789237915 -0.5503422266 -0.0792820424 -0.5506541341 0.0566494167 0.1852344284
810295140.0 0.0227790872 0.1832939914 -0.0850705635 -0.5502469674 -0.0852580933 -0.550504149 0.0589896121 0.185269963
815295110.0 0.0243375023 0.1831524096 -0.091468558 -0.5482889776 -0.0917315679 -0.5488050047 0.0608950075 0.1841854831
820295080.0 0.0261516899 0.1824121623 -0.0969965047 -0.5478244285 -0.0971379517 -0.5482043679 0.0624929876 0.1838945932
825295050.0 0.027873091 0.1825504757 -0.1030529513 -0.5459493715 -0.1031020471 -0.5469291781 0.0650399119 0.1836124694
830295020.0 0.0299516411 0.1828106258 -0.1090586644 -0.5455187011 -0.1095609645 -0.5453599341 0.0665065252 0.1825736109
