!Created with skrf (http://scikit-rf.org).
# Hz S RI R 50.0 
!freq ReS11 ImS11 ReS21 ImS21 ReS12 ImS12 ReS22 ImS22
300000.0 -0.2423311972 -0.0938138935 0.4736394013 0.0636364517 0.4712487553 0.0595574497 -0.2407041522 -0.1010911045
5299970.0 -0.2447261687 0.0062742286 0.4749166382 0.0051777408 0.474885653 0.0052107558 -0.2404746321 0.0070795575
10299940.0 -0.2413193659 0.0177849629 0.476276578 0.0059642673 0.4765170118 0.0062479352 -0.2371441868 0.0205333014
15299910.0 -0.2372490911 0.026833111 0.4804491137 0.0071733805 0.4805303635 0.0074680971 -0.2328902947 0.0302437654
20299880.0 -0.2327545534 0.0341262126 0.4850050405 0.0082035679 0.4850003071 0.0078016074 -0.2273287024 0.0382041839
25299850.0 -0.2273854628 0.0403802517 0.4898856164 0.0068390922 0.4901532064 0.0072981457 -0.221566882 0.0447928466
30299820.0 -0.2222346318 0.0450717304 0.4953366318 0.0049803277 0.4956236058 0.0045086366 -0.2156973959 0.0505533421
35299790.0 -0.2175305299 0.0492699117 0.5009135443 0.0013362569 0.5009804559 0.0013619661 -0.2102381798 0.0547408051
40299760.0 -0.2126862393 0.052460511 0.5057513332 -0.0022867173 0.5060722862 -0.0024837468 -0.2051204495 0.0578215151
45299730.0 -0.2080373214 0.054891933 0.5102749464 -0.0069847295 0.5105172745 -0.0069624122 -0.200036537 0.0606872927
50299700.0 -0.2036645583 0.0567414102 0.5149013402 -0.0126951555 0.5149767712 -0.0122524335 -0.1955279781 0.0627355541
55299670.0 -0.1999460573 0.0583973222 0.5186959218 -0.0190565846 0.5184906286 -0.0187171976 -0.1914023204 0.0646351595
60299640.0 -0.1960760207 0.0601620183 0.5218917204 -0.0248875365 0.5218852181 -0.0245922626 -0.1874958705 0.0654196186
65299610.0 -0.1929476818 0.0610550089 0.5245193226 -0.031330978 0.5246464512 -0.031074113 -0.1841381619 0.0669416706
70299580.0 -0.1901271573 0.0620158847 0.5269871309 -0.0381341342 0.5270038375 -0.0379914295 -0.1806521462 0.0677866813
75299550.0 -0.1870506342 0.0628478626 0.528738107 -0.0446480645 0.5287052879 -0.0449240387 -0.1780578735 0.0686220683
80299520.0 -0.1847466189 0.0638231343 0.5307867188 -0.0517050624 0.5309484329 -0.0517091389 -0.1754606564 0.0691153844
85299490.0 -0.1827415362 0.0640252625 0.531993606 -0.0577580525 0.5320625033 -0.0581380525 -0.1729842811 0.0694282788
90299460.0 -0.1802746966 0.0648815454 0.5325058073 -0.0653399019 0.5331659912 -0.0657200467 -0.1706287973 0.0707225764
95299430.0 -0.1781481629 0.0654298737 0.5337231414 -0.0725051026 0.53401023 -0.072524333 -0.168303532 0.071234742
100299400.0 -0.1768288788 0.0664513983 0.5335365666 -0.0790854979 0.5339042438 -0.0791081224 -0.1661330174 0.0713843372
105299370.0 -0.174975497 0.0667948251 0.5341441694 -0.0864038888 0.5345748755 -0.0862037546 -0.1640963376 0.0724185169
110299340.0 -0.1734888187 0.0674446836 0.5348634749 -0.0929519047 0.534780503 -0.0925627851 -0.1630528815 0.0729768045
115299310.0 -0.1720293042 0.0682347936 0.5349064296 -0.0999211697 0.5346011949 -0.1001206963 -0.161186127 0.0734625993
120299280.0 -0.1706254031 0.0685860674 0.5343794039 -0.1066897606 0.5339622869 -0.1065470945 -0.1595055202 0.0741167202
125299250.0 -0.1694729739 0.0691712874 0.5340500303 -0.1128514821 0.5341723934 -0.1131027639 -0.1584673327 0.0747058033
130299220.0 -0.1685007119 0.0702164212 0.533097179 -0.120062254 0.5333326571 -0.1201457275 -0.1570270845 0.0754646011
135299190.0 -0.1674921037 0.0712568001 0.5331317711 -0.1265962251 0.5325705162 -0.1262097652 -0.1552483175 0.0764707986
140299160.0 -0.1666576481 0.0720703476 0.5319034449 -0.1332237681 0.5320938116 -0.1334230091 -0.1543085864 0.077629201
145299130.0 -0.1655657236 0.072871541 0.5309947335 -0.1399288802 0.5305424056 -0.1396951257 -0.1530781839 0.0787889963
150299100.0 -0.164262648 0.0739346395 0.5299179111 -0.1458809559 0.5296083592 -0.1458870824 -0.1521594615 0.079973701
155299070.0 -0.1639681202 0.0747080347 0.5290561537 -0.1531162902 0.5283326331 -0.1528155064 -0.1507386788 0.0810659646
160299040.0 -0.1627931289 0.0760811485 0.5270687977 -0.1594501044 0.5267872863 -0.1590182581 -0.150312115 0.0821550698
165299010.0 -0.1621338106 0.0768368665 0.5258961618 -0.1659454871 0.5259808779 -0.1658791441 -0.1488668259 0.0835987367
170298980.0 -0.1613464165 0.0777443242 0.5241908126 -0.1723574965 0.524491879 -0.1718929771 -0.1480440636 0.0846118316
175298950.0 -0.160688707 0.0788277263 0.522756947 -0.1781930868 0.5222048739 -0.1783251248 -0.1471130357 0.0861726802
180298920.0 -0.1600202817 0.0798619495 0.5211301977 -0.1847009459 0.5205961452 -0.1843573259 -0.1461524016 0.0874638765
185298890.0 -0.1586318671 0.0810691137 0.5188905423 -0.1910285372 0.5187225086 -0.190332027 -0.1452574963 0.0887615326
190298860.0 -0.1583985765 0.0822938327 0.5171625054 -0.1971948182 0.5172858912 -0.196714335 -0.1443382535 0.0899463613
195298830.0 -0.1576583175 0.0832248242 0.515024732 -0.2030893665 0.5150255049 -0.2029283262 -0.1434519192 0.0912815246
200298800.0 -0.156564333 0.0845549549 0.5127590346 -0.2089467946 0.5127713929 -0.2094696854 -0.1428272114 0.0924485596
205298770.0 -0.1561815863 0.0859584098 0.5104760931 -0.2154217537 0.5106914701 -0.2151436073 -0.1417044382 0.0934566722
210298740.0 -0.1552361383 0.0868970607 0.5080262165 -0.2210238828 0.5086944051 -0.2209416339 -0.140870469 0.0958198591
215298710.0 -0.1549836441 0.0886034593 0.5060210343 -0.2271432124 0.5060775004 -0.2273528887 -0.1402710689 0.0967136939
220298680.0 -0.1539291801 0.0891303405 0.5033075189 -0.2327993007 0.5036768751 -0.233001666 -0.1395445505 0.0980918378
225298650.0 -0.1534149588 0.0907706786 0.5015204853 -0.2390050018 0.5015062013 -0.2388258155 -0.1388991773 0.099063682
230298620.0 -0.1525898542 0.0923977659 0.4989363905 -0.2442434268 0.4990716314 -0.2447347499 -0.1378460286 0.1004159575
235298590.0 -0.1519390876 0.0938828655 0.4965505173 -0.2504229496 0.4961946202 -0.2499677799 -0.1366390958 0.1018710541
240298560.0 -0.1512570307 0.0950660817 0.4935574823 -0.2564670558 0.4934187786 -0.2562772039 -0.1362150436 0.1035286215
245298530.0 -0.150574644 0.0964717471 0.490889249 -0.2617595841 0.4909146797 -0.2617565281 -0.1350170048 0.1042079444
250298500.0 -0.1491401521 0.0976177927 0.4875147201 -0.2675558912 0.487182397 -0.2670911876 -0.1342616496 0.105713039
255298470.0 -0.1485873205 0.098636338 0.4844303018 -0.2724715766 0.4847955853 -0.2729282086 -0.1328360446 0.1071028506
260298440.0 -0.1480497728 0.099961994 0.4815234654 -0.278629255 0.4818038812 -0.2781019525 -0.1314448829 0.1083780847
265298410.0 -0.1464639714 0.1020433361 0.4785041766 -0.2843714276 0.4790060963 -0.2838477383 -0.1307020889 0.1095211227
270298380.0 -0.1460842758 0.103071136 0.4759186198 -0.2890845289 0.4759569844 -0.2892515034 -0.1296470765 0.110884887
275298350.0 -0.1448233726 0.1043272857 0.4726175645 -0.2948084387 0.4730182102 -0.2948384345 -0.1283428 0.1120904976
280298320.0 -0.144054048 0.105743092 0.4698108952 -0.3005825665 0.4695413275 -0.3000683067 -0.1269744196 0.1134428927
285298290.0 -0.1430919434 0.1071555683 0.4667243649 -0.3054654388 0.4662930497 -0.3053301797 -0.1254796972 0.1144643541
290298260.0 -0.1417915899 0.1086431657 0.4627025212 -0.3108078272 0.4628288534 -0.3107977975 -0.1242228195 0.1164247652
295298230.0 -0.1409623767 0.1098260604 0.4599092465 -0.3159348133 0.4594896652 -0.3159923831 -0.122687483 0.1173166656
300298200.0 -0.1403262023 0.1111656986 0.4563257659 -0.321225515 0.4564841579 -0.3217125206 -0.1215154025 0.1187999428
305298170.0 -0.1390038329 0.1119930598 0.4525233966 -0.3268554705 0.4526208766 -0.326458343 -0.1197695431 0.1197505176
310298140.0 -0.1379551694 0.1137171274 0.4492285665 -0.3318154305 0.4496316199 -0.3314508538 -0.1187903378 0.1211782599
315298110.0 -0.1369694237 0.1146116231 0.4453536312 -0.3368883235 0.4454039139 -0.3366123161 -0.1174150134 0.1224172713
320298080.0 -0.1357369672 0.1156782927 0.4411946895 -0.341893687 0.4414585641 -0.3415174391 -0.1163459717 0.1237346333
325298050.0 -0.1348377503 0.1170701072 0.4375678026 -0.3471924061 0.4375965498 -0.3472412137 -0.1152066336 0.1250587676
330298020.0 -0.1341415847 0.1181849819 0.4333852771 -0.3518199453 0.4337800181 -0.3518033327 -0.1139878394 0.1262768986
335297990.0 -0.1329730022 0.11937879 0.4296342638 -0.3567533434 0.4296913928 -0.356950284 -0.1129221315 0.1283712443
340297960.0 -0.1325028811 0.1207360702 0.4256829603 -0.3614833313 0.4254344889 -0.3616690153 -0.1111137495 0.1293553336
345297930.0 -0.1313537067 0.122664961 0.4214438532 -0.3667655036 0.4214724745 -0.3663127203 -0.110085432 0.1307797791
350297900.0 -0.1303309216 0.1235793232 0.416906639 -0.3710368288 0.4169323097 -0.3710985653 -0.1091956302 0.1322512731
355297870.0 -0.1294244411 0.1256132889 0.4130593461 -0.3754647776 0.413429358 -0.3754216617 -0.1076087197 0.1338512916
360297840.0 -0.1282187873 0.1266947448 0.4094890583 -0.3798292058 0.4095660079 -0.3800113475 -0.1063786101 0.1357521391
365297810.0 -0.1271576235 0.1281239404 0.4046885272 -0.3846139438 0.4051466286 -0.3847881543 -0.1051531087 0.1367999414
370297780.0 -0.1256415406 0.129101961 0.4003039531 -0.3888244526 0.4009725898 -0.3884715761 -0.1037790484 0.1381540238
375297750.0 -0.1246670186 0.1307955335 0.3964119204 -0.3930984817 0.3965432081 -0.3934983153 -0.1020724881 0.1395652744
380297720.0 -0.1231901574 0.132191122 0.3917123353 -0.3974663609 0.3919915636 -0.3968384909 -0.1012138628 0.1406910362
385297690.0 -0.1226756903 0.1334585599 0.3878525747 -0.4018084321 0.3872869633 -0.4016857192 -0.0993832015 0.1424158523
390297660.0 -0.1211710501 0.1349452805 0.3832042348 -0.4059974615 0.3830198604 -0.4058189304 -0.0984251142 0.1430946428
395297630.0 -0.1197326265 0.1362851584 0.3784960755 -0.4103299616 0.378614966 -0.4105278217 -0.0961942471 0.1450292329
400297600.0 -0.1186381957 0.1378906532 0.3734728912 -0.4149976362 0.3741162521 -0.4145760005 -0.0948967798 0.1459551421
405297570.0 -0.1176039868 0.1387758567 0.369719419 -0.4181609092 0.3693620472 -0.4181798348 -0.0937836613 0.1470410903
410297540.0 -0.1158562944 0.1398960131 0.3650010186 -0.4223468631 0.3655239903 -0.4227209609 -0.0924664403 0.1486475266
415297510.0 -0.1144538049 0.1410253682 0.3601747157 -0.4267849532 0.3606313423 -0.4266028037 -0.0906669651 0.1493319778
420297480.0 -0.1134582382 0.14288029 0.3552264492 -0.4307573672 0.3555774098 -0.4306134606 -0.0893657966 0.1501283321
425297450.0 -0.1120485872 0.1435874713 0.3513377894 -0.4346571464 0.351073183 -0.4347562098 -0.0878729511 0.1516891641
430297420.0 -0.110727034 0.1448830905 0.3461249921 -0.4376618963 0.3459736269 -0.4377185072 -0.0862187853 0.1524116665
435297390.0 -0.109454884 0.1463710958 0.3411079527 -0.4418400596 0.3406139039 -0.4420387611 -0.0838639113 0.1534726712
440297360.0 -0.1077096759 0.1475199943 0.336008998 -0.445693571 0.3365210616 -0.4456749666 -0.0825991025 0.1541102908
445297330.0 -0.10670987 0.1480850237 0.3320465239 -0.4492832421 0.3317818507 -0.4487612128 -0.0806063182 0.154762827
450297300.0 -0.1049766738 0.1495371312 0.326633131 -0.4530157022 0.3266250702 -0.4529662383 -0.0792018805 0.1556639457
455297270.0 -0.1035162999 0.1506659992 0.3214975256 -0.4560496115 0.3218778681 -0.4563883472 -0.0773612941 0.1569468548
460297240.0 -0.1022296919 0.1516284876 0.3164724959 -0.4595038295 0.3168403761 -0.4596983881 -0.0754453587 0.1580187592
465297210.0 -0.10067703 0.152766952 0.3120227848 -0.4632227788 0.3117164916 -0.4637894916 -0.073654351 0.1587060474
470297180.0 -0.099188876 0.1537357895 0.3062318939 -0.4663158832 0.3066553063 -0.4665307617 -0.0717151955 0.1599080175
475297150.0 -0.0979339278 0.1546519597 0.3011312289 -0.469239345 0.3015739574 -0.4693032959 -0.0695848072 0.1603930493
480297120.0 -0.096370722 0.1563023689 0.2962486665 -0.4733428111 0.2960703901 -0.4730202438 -0.0676685903 0.1619750055
485297090.0 -0.0949500461 0.1572183643 0.2913794685 -0.4761990456 0.2911984771 -0.4757708982 -0.0658928613 0.1623744156
490297060.0 -0.093906137 0.1580252255 0.2860092967 -0.4793756794 0.2864468563 -0.4792691111 -0.0642010602 0.1638222789
495297030.0 -0.0921414802 0.1591708482 0.2805547996 -0.4822886132 0.2813477946 -0.4820674981 -0.0625359723 0.164647294
500297000.0 -0.0904161268 0.160127183 0.2752193455 -0.4851695217 0.275170196 -0.4853004172 -0.0603515309 0.1659747645
505296970.0 -0.0885731258 0.1610792141 0.2700607391 -0.4880509781 0.2696998422 -0.4883827226 -0.058499264 0.1662468292
510296940.0 -0.0874324441 0.1621223444 0.2646131332 -0.4913800758 0.2645429539 -0.4913164957 -0.0565588219 0.1675329388
515296910.0 -0.0856749347 0.1632854235 0.2591725831 -0.4942329014 0.2591050664 -0.4939375997 -0.0548183686 0.1681310461
520296880.0 -0.0842800566 0.1642574458 0.2540194265 -0.4972426297 0.2539304419 -0.4966323112 -0.0530309758 0.1689458292
525296850.0 -0.0825019146 0.1649585316 0.2482464557 -0.4994902207 0.2489002547 -0.4998109223 -0.0513664461 0.1699129696
530296820.0 -0.0810441076 0.166008704 0.2430948372 -0.5023265204 0.2429096249 -0.5022133843 -0.0493670983 0.1706463042
535296790.0 -0.07976456 0.1669808643 0.2378328671 -0.5048148491 0.2377828979 -0.5044100861 -0.0477764751 0.1711215118
540296760.0 -0.0779616207 0.1681550243 0.2322570867 -0.5073955029 0.2321006935 -0.507457676 -0.0458423467 0.1726053655
545296730.0 -0.0761881069 0.168637688 0.2263656844 -0.509789392 0.2263358205 -0.5096779853 -0.0439435139 0.1728266405
550296700.0 -0.0743745375 0.1699265 0.2209060526 -0.5121707448 0.2209473362 -0.5125100101 -0.0422750194 0.1738837776
555296670.0 -0.0731201711 0.1704309867 0.215322786 -0.5145010318 0.2157042322 -0.5144565438 -0.0404870777 0.174626112
560296640.0 -0.0710360332 0.1719376194 0.2097667565 -0.5169069506 0.2100287281 -0.5169009857 -0.0384702447 0.1749711151
565296610.0 -0.0695748227 0.172407021 0.2040964823 -0.5191812111 0.2044887508 -0.5188707998 -0.0372776141 0.175051087
570296580.0 -0.0682601824 0.1731822015 0.1986433655 -0.5214086667 0.1982250939 -0.5212694109 -0.0349049537 0.176272578
575296550.0 -0.0663153357 0.1741707236 0.1928219962 -0.5235470058 0.1928669196 -0.5236178086 -0.0329598627 0.1768233616
580296520.0 -0.0645706492 0.1749912574 0.1871384989 -0.5258829805 0.1870304778 -0.5252669901 -0.0311051368 0.1771921772
585296490.0 -0.0630056474 0.1752742712 0.181898183 -0.5270222835 0.1815282747 -0.5273555654 -0.0291382027 0.1775324068
590296460.0 -0.0609833137 0.1764492204 0.1757120872 -0.5288872588 0.1757708681 -0.5290892801 -0.0277070477 0.1778767293
595296430.0 -0.0592503375 0.1768903494 0.1699874207 -0.5312693809 0.1699425244 -0.530960661 -0.0255520219 0.1779408009
600296400.0 -0.0578369309 0.1779662582 0.1638296697 -0.5329032286 0.1639857678 -0.5325856441 -0.0235177665 0.17855185
605296370.0 -0.0560569976 0.1782670329 0.1584202219 -0.5343498821 0.1584712817 -0.5342551711 -0.0213619117 0.1787844078
610296340.0 -0.0543083907 0.1791449804 0.1521203614 -0.5362015485 0.1525545089 -0.5361301024 -0.0195387167 0.179049012
615296310.0 -0.0523558797 0.179557443 0.1467127608 -0.5374874473 0.1465484699 -0.5381296085 -0.0173911424 0.179329266
620296280.0 -0.0507142447 0.1798781735 0.1409930228 -0.5395420033 0.14087505 -0.5390619982 -0.0155337463 0.1793138957
625296250.0 -0.0492966885 0.1804320733 0.135504432 -0.5408678437 0.1352490624 -0.5408869 -0.0128908237 0.1797207235
630296220.0 -0.0467604636 0.1812081857 0.1285165423 -0.5424794174 0.1287972384 -0.5419000407 -0.0111061502 0.1800406011
635296190.0 -0.0460332833 0.181741362 0.1237817532 -0.5433138186 0.1231874024 -0.5436851659 -0.0090321051 0.1804469949
640296160.0 -0.0440028752 0.1824769999 0.1175199455 -0.5447095407 0.118028412 -0.5447152126 -0.0068434551 0.1806385441
645296130.0 -0.0419554962 0.1833198877 0.1115158894 -0.5460296845 0.111776073 -0.5460472584 -0.0048160027 0.1807351887
650296100.0 -0.0400997823 0.1833978385 0.1054949172 -0.5464636467 0.1060031545 -0.5472967969 -0.0024152878 0.1803550793
655296070.0 -0.0387509158 0.1840565211 0.0997052055 -0.5481371071 0.0998863223 -0.5480547097 -0.0003963878 0.1809341248
660296040.0 -0.0372466389 0.1841788297 0.0938748633 -0.5491369722 0.0941730069 -0.5494911823 0.0018031206 0.1812348751
665296010.0 -0.0347466346 0.1847446043 0.087421801 -0.5498844983 0.0880276003 -0.5503657802 0.0040665164 0.1817231347
670295980.0 -0.0336752798 0.1856425721 0.0817462963 -0.550797517 0.0819015937 -0.5509427888 0.0057087997 0.1816883242
675295950.0 -0.031674468 0.186103782 0.0762689569 -0.5518897806 0.0763639186 -0.5512384545 0.0074167245 0.1821540861
680295920.0 -0.0301326453 0.1863406872 0.0701899687 -0.5523417551 0.0696194653 -0.5529640931 0.0099334135 0.1825544892
685295890.0 -0.0279282585 0.1872944278 0.0643015448 -0.5530532115 0.0638626683 -0.5530243651 0.0116764224 0.1826063416
690295860.0 -0.0259868248 0.1873780873 0.0579122824 -0.5538084748 0.0578774634 -0.554062033 0.0138635471 0.1830065389
695295830.0 -0.0245179456 0.1878894612 0.0526185919 -0.5540505249 0.0517608954 -0.5545579024 0.0157886907 0.1829474358
700295800.0 -0.0222884773 0.1878473495 0.0461678363 -0.5547610885 0.046070496 -0.5547389827 0.0175285297 0.1836406028
705295770.0 -0.0209514564 0.1890453537 0.0398884112 -0.5548765391 0.040542279 -0.555415279 0.0196163508 0.183287631
710295740.0 -0.0185158838 0.1888718044 0.0341802258 -0.5562521829 0.034218589 -0.5560892829 0.0218613294 0.1828157665
715295710.0 -0.0175523658 0.1890919051 0.0288978391 -0.5564298775 0.0281800329 -0.5558859685 0.0235296459 0.182507505
720295680.0 -0.0150337465 0.1895567917 0.0225192983 -0.5565242174 0.0223057454 -0.5561274005 0.0256781349 0.1832811847
725295650.0 -0.0133158058 0.1900804187 0.0160423185 -0.5563187925 0.0161461074 -0.5569123963 0.0274651048 0.1832086467
730295620.0 -0.0112636744 0.1904453386 0.0101925078 -0.5565124632 0.0101762576 -0.5569462172 0.0291019786 0.1826817134
735295590.0 -0.0092805994 0.1905727543 0.0042286108 -0.5569193582 0.0039582496 -0.5566129374 0.0310928812 0.1824547111
740295560.0 -0.0079440131 0.191016485 -0.0019835671 -0.5565892071 -0.0017474347 -0.5567508641 0.0335883378 0.1826055362
745295530.0 -0.0057234485 0.1914278345 -0.0078613227 -0.5558989293 -0.0081352555 -0.556355337 0.0354636209 0.1819750688
750295500.0 -0.0038450475 0.1909528104 -0.0135421007 -0.5559779656 -0.0139148662 -0.5566234142 0.0371390752 0.1818343207
755295470.0 -0.0020407021 0.1910935974 -0.0195473239 -0.5562402427 -0.0197393127 -0.5561599773 0.0392841911 0.1810414104
760295440.0 -0.000242691 0.1915070429 -0.0256699871 -0.5561947514 -0.0258109344 -0.5563317494 0.0412277112 0.1805627125
765295410.0 0.001614595 0.1917882771 -0.0318775525 -0.5556707357 -0.0318469057 -0.5556712596 0.0433535772 0.1809567376
770295380.0 0.0031437774 0.1916187276 -0.0379653403 -0.5555075854 -0.0378395128 -0.5549969704 0.0449768928 0.1797858972
775295350.0 0.0049126218 0.191294447 -0.0440599438 -0.5542364411 -0.0434635311 -0.5541643758 0.046670291 0.1796621564
780295320.0 0.0072077895 0.1918994832 -0.0502171428 -0.5535128212 -0.0492278394 -0.5540181762 0.0484003686 0.1789217349
785295290.0 0.0087965391 0.1912238517 -0.055964023 -0.5531221707 -0.0552271312 -0.553290132 0.0512972601 0.1788583705
790295260.0 0.0111208919 0.1920659621 -0.061502745 -0.5527450489 -0.0608268602 -0.5528030204 0.0532940666 0.1780962257
795295230.0 0.0126770102 0.1918572292 -0.0676298311 -0.5518976838 -0.0672931799 -0.5520275465 0.0554637007 0.1777665441
800295200.0 0.014190702 0.1921014631 -0.0740215231 -0.551006818 -0.0731707074 -0.5510757837 0.0570885769 0.1770468774
805295170.0 0.0163557935 0.1913976663 -0.0792052306 -0.5502115301 -0.0795895141 -0.5504221878 0.0591879661 0.1765204494
810295140.0 0.0180614641 0.1914317003 -0.0849610231 -0.5492978799 -0.0854174894 -0.549781447 0.0617308747 0.1759475505
815295110.0 0.0198682697 0.1910778339 -0.0910571467 -0.5477588262 -0.0909855696 -0.5484716755 0.0634009173 0.1754822547
820295080.0 0.0214296974 0.1919843757 -0.0969211051 -0.5471144889 -0.0968452239 -0.5473350141 0.0656271466 0.1751075404
825295050.0 0.0239484777 0.1914014324 -0.1022395223 -0.5457485883 -0.1026573087 -0.5460695951 0.0677278052 0.1747435098
830295020.0 0.0255417559 0.1916252148 -0.1084864098 -0.5452545804 -0.1087149024 -0.5448902975 0.0700820783 0.1740651287
