!Created with skrf (http://scikit-rf.org).
# Hz S RI R 50.0 
!freq ReS11 ImS11 ReS21 ImS21 ReS12 ImS12 ReS22 ImS22
300000.0 -0.0997377044 -0.0659031268 0.6305092567 0.0621871735 0.6228632062 0.0637990149 -0.1003506603 -0.0749085199
5299970.0 -0.1021056153 0.0133318882 0.6303563563 0.0100484116 0.6306864072 0.0105598209 -0.1008813308 0.0132566532
10299940.0 -0.0973673113 0.0291750347 0.6342297879 0.014972906 0.6344021019 0.0158463754 -0.0961776894 0.0305574935
15299910.0 -0.089967275 0.042516597 0.640465589 0.0205385643 0.640509782 0.0207424075 -0.0886067312 0.0434582372
20299880.0 -0.081688893 0.0530279289 0.6488272551 0.0243919474 0.648376052 0.0243319865 -0.0801204046 0.0546823829
25299850.0 -0.0723635185 0.0623530001 0.6577886311 0.0253917686 0.657773946 0.025415912 -0.0697706428 0.0633845011
30299820.0 -0.0622258197 0.0686564957 0.6671596054 0.0242804328 0.667170983 0.0247583534 -0.0598875268 0.0699585175
35299790.0 -0.0523879416 0.0738879852 0.6774665109 0.0215095417 0.6771450829 0.021661169 -0.0499330634 0.0751244347
40299760.0 -0.0434320277 0.0772914773 0.6861882139 0.0172433799 0.6866443463 0.0177607221 -0.0403751166 0.0775181025
45299730.0 -0.0339714193 0.0793963656 0.6947436606 0.0120775555 0.6958114947 0.0123222277 -0.0313902787 0.0800079759
50299700.0 -0.0256197461 0.0803265557 0.7033538185 0.0049632315 0.7037262595 0.0054464292 -0.0227098394 0.0804994246
55299670.0 -0.017469614 0.0803515852 0.7109092824 -0.0032921474 0.7110132331 -0.0029643201 -0.0144386294 0.0809192348
60299640.0 -0.0098891765 0.0800666987 0.7169517475 -0.0113641308 0.7180288994 -0.0108018028 -0.0075561671 0.0795530465
65299610.0 -0.0035658034 0.0787502686 0.7227877084 -0.0198777058 0.7235522491 -0.0201825269 -0.0010822732 0.0786568883
70299580.0 0.0026699245 0.0774362765 0.7288459091 -0.0289822547 0.7282676402 -0.0291401123 0.005087164 0.0767352651
75299550.0 0.0078124217 0.0757792911 0.7324389691 -0.0383920751 0.7327910152 -0.0390173599 0.0104626489 0.0749243716
80299520.0 0.0132352851 0.0736942014 0.7366713093 -0.0488128662 0.7369516984 -0.0486044202 0.0154145573 0.0727725281
85299490.0 0.0178906363 0.0717103686 0.740155201 -0.0582353893 0.740194374 -0.0581950622 0.0195245432 0.0699721454
90299460.0 0.0219304418 0.0689606573 0.7426203524 -0.0694490681 0.7434397401 -0.0686818079 0.0238126186 0.0682361242
95299430.0 0.026008636 0.0665357605 0.7455075857 -0.0788124607 0.7453564912 -0.0787742495 0.0275932657 0.065534143
100299400.0 0.0288877497 0.0645955094 0.7465211649 -0.0890404042 0.7468953574 -0.0889105368 0.031130949 0.0626038598
105299370.0 0.0323594649 0.0619317299 0.7486691537 -0.099593881 0.7490603893 -0.0990403437 0.0342373883 0.0606679224
110299340.0 0.0351118471 0.0599613221 0.749951348 -0.1093635759 0.7494608146 -0.1086880566 0.0361878778 0.0580763009
115299310.0 0.0373718455 0.0572576227 0.7506981687 -0.1190731365 0.7508414828 -0.1192681737 0.0391724607 0.055616308
120299280.0 0.0398681414 0.0545803486 0.7511217306 -0.1291239229 0.7515712706 -0.1292101492 0.0416895563 0.0533199384
125299250.0 0.0418743276 0.0522865142 0.7515678921 -0.1386610102 0.751335027 -0.1385678133 0.0427622437 0.0505134791
130299220.0 0.0436381309 0.0503189966 0.7510663446 -0.1490449435 0.7513071492 -0.1491672084 0.0448757503 0.0483113474
135299190.0 0.0453926934 0.0482220629 0.7512390136 -0.1584126735 0.751241314 -0.1585428351 0.0467384201 0.0464414159
140299160.0 0.0467831775 0.046335475 0.7510875542 -0.1686937607 0.7509292581 -0.1685058266 0.0479783284 0.0447134463
145299130.0 0.0480293914 0.0439062416 0.7500247784 -0.1782966523 0.749669538 -0.1781757589 0.0493224306 0.0422135569
150299100.0 0.0498140593 0.0421052116 0.7486437186 -0.1870681645 0.749078465 -0.1876912801 0.0506931784 0.0401794046
155299070.0 0.0501370666 0.0397431391 0.7473704689 -0.1982154562 0.7478579283 -0.1973717556 0.0517770599 0.0384262608
160299040.0 0.0518464649 0.0379329819 0.7464645473 -0.2070468032 0.7456872017 -0.2073284996 0.0518498635 0.0365043365
165299010.0 0.0523886029 0.0365186748 0.7443901379 -0.2170032635 0.7446018928 -0.2168415468 0.0535075671 0.0350920894
170298980.0 0.0532381315 0.033935322 0.7429167308 -0.2265955622 0.7434885953 -0.225803647 0.0542409499 0.0331464183
175298950.0 0.0537950529 0.0325547527 0.7418712853 -0.2351042407 0.7408760507 -0.2351834859 0.0546402788 0.0316427344
180298920.0 0.0542615873 0.0305487796 0.7389583334 -0.2447242363 0.7390251261 -0.2444138112 0.0553713915 0.0299300465
185298890.0 0.0556171325 0.0286533438 0.7368954487 -0.2537742521 0.7361673833 -0.2531333495 0.0560128953 0.0286348339
190298860.0 0.0556033575 0.0274434923 0.7344321152 -0.2629155685 0.7345663049 -0.2631317879 0.0562857895 0.0263664675
195298830.0 0.056138229 0.0253514562 0.732160654 -0.2715070893 0.7318546415 -0.2714470876 0.0571787048 0.0248845586
200298800.0 0.0565986512 0.0240327806 0.7291037391 -0.2810604399 0.7291640102 -0.2808984986 0.0568197094 0.0236145406
205298770.0 0.0570045854 0.0229479616 0.7261923995 -0.2900578216 0.7258885261 -0.2894715912 0.0576133212 0.0211568436
210298740.0 0.0571539185 0.0211011492 0.7235197361 -0.2980392101 0.723390775 -0.2979896586 0.0576313127 0.0210147072
215298710.0 0.0571208396 0.0198449929 0.7203891917 -0.3076620039 0.720297588 -0.3076786626 0.0579216426 0.0196877811
220298680.0 0.0577191035 0.0177022567 0.7164455416 -0.3156946696 0.7168345524 -0.3157099808 0.0578803957 0.0179094569
225298650.0 0.0580054612 0.0168919488 0.7137314482 -0.3246427342 0.7139108492 -0.3244310749 0.0571980526 0.0163302215
230298620.0 0.0578035508 0.0158455317 0.7104135034 -0.332708605 0.7110539862 -0.3327491136 0.0578551948 0.0151997143
235298590.0 0.057928013 0.0148071063 0.7067441575 -0.3412969925 0.706921146 -0.340613348 0.0577995426 0.013717669
240298560.0 0.0580432326 0.0132710635 0.7034582019 -0.3498735122 0.7028769888 -0.3495011126 0.0577323496 0.0130557255
245298530.0 0.0580575445 0.0119317827 0.6993885245 -0.3578877699 0.6998959556 -0.3583148878 0.0585845925 0.0110522561
250298500.0 0.0586011235 0.0110691207 0.6951497218 -0.3664915394 0.694844232 -0.3656800539 0.0582030983 0.01028165
255298470.0 0.058549734 0.0092516277 0.691204469 -0.3740588809 0.6918115616 -0.3739609505 0.0581317102 0.0089586948
260298440.0 0.0579700608 0.0081772105 0.687848711 -0.3832649321 0.6878680271 -0.382197186 0.0589969439 0.008075259
265298410.0 0.0591194432 0.0077396549 0.6837132159 -0.3907641842 0.6839718627 -0.3901683467 0.0584612338 0.007077137
270298380.0 0.0586090246 0.0061240561 0.6800312485 -0.3985920408 0.6798472422 -0.3981336179 0.0581326733 0.0056971267
275298350.0 0.0591311069 0.0051902581 0.6753110063 -0.4065886463 0.6757539373 -0.4062297916 0.0586986904 0.0043672948
280298320.0 0.0587386632 0.0043979668 0.6714552955 -0.4144360737 0.6714219005 -0.4139927779 0.0588817541 0.0033807466
285298290.0 0.0587569104 0.003301831 0.6664750435 -0.4220460649 0.6663131173 -0.4223234627 0.0587803723 0.0023996439
290298260.0 0.0590875826 0.0022205136 0.662266887 -0.4297817914 0.6620790496 -0.4298042542 0.0589284852 0.0019742185
295298230.0 0.0588938953 0.0008196933 0.6576224357 -0.437761441 0.6576942924 -0.4372261671 0.0594239618 0.000515618
300298200.0 0.0584041947 -0.0002535442 0.6526016194 -0.4448847771 0.6530259152 -0.4455177266 0.0585162959 -0.0008949273
305298170.0 0.05872255 -0.0013248154 0.64789279 -0.4527412063 0.6480467864 -0.4527361414 0.0593360927 -0.001925463
310298140.0 0.0583395008 -0.0025902248 0.6431880982 -0.4608469235 0.6430205607 -0.4605088924 0.0590274578 -0.0028911271
315298110.0 0.0583797922 -0.0043874369 0.6383398023 -0.4680830808 0.6381829878 -0.4683174157 0.0588452467 -0.0040865662
320298080.0 0.0585066719 -0.0047672604 0.6321804623 -0.4762169756 0.6325551499 -0.4755827225 0.0586343301 -0.0052238701
325298050.0 0.0577377369 -0.0059568345 0.6273783958 -0.4836169317 0.6273638699 -0.4832869971 0.0578641532 -0.0063984375
330298020.0 0.0573261443 -0.0072141 0.6209347595 -0.4906678394 0.6214289616 -0.490680517 0.0572376117 -0.0074212944
335297990.0 0.05691 -0.0085023623 0.6160523929 -0.4974809586 0.6158049529 -0.4980698222 0.0568052361 -0.0078212441
340297960.0 0.0560853795 -0.009144292 0.6097444181 -0.504698924 0.6096491056 -0.5048209403 0.0568806434 -0.0086623686
345297930.0 0.0558368937 -0.0091168509 0.6038485148 -0.511956801 0.6043619096 -0.5119512034 0.0563161719 -0.0099531467
350297900.0 0.0554189259 -0.0106962944 0.5978257403 -0.5182724347 0.5983592054 -0.5181115464 0.0554302437 -0.0097132353
355297870.0 0.0549995599 -0.0103688742 0.5917410769 -0.525028013 0.5929862063 -0.5250195227 0.055034397 -0.0105684677
360297840.0 0.0547662131 -0.0113238118 0.5871870793 -0.5313450521 0.5877474652 -0.5312421195 0.0546853198 -0.0110183408
365297810.0 0.0540889619 -0.011912144 0.580528782 -0.5383206312 0.5813099103 -0.5382713118 0.0545744311 -0.0118301225
370297780.0 0.0544943572 -0.012904311 0.5744176493 -0.5446830661 0.5750859393 -0.5443201754 0.0542453797 -0.0123601419
375297750.0 0.0540612474 -0.0137382201 0.5691692698 -0.5510454475 0.5698744136 -0.550783358 0.0542212744 -0.0128691363
380297720.0 0.0535533944 -0.0143251279 0.562755757 -0.5576101139 0.5630716617 -0.5564945927 0.053555069 -0.0140948841
385297690.0 0.0531045396 -0.0151405828 0.556729155 -0.5640794884 0.5562679373 -0.5631535035 0.05350973 -0.0142533654
390297660.0 0.052738252 -0.0153515363 0.5510320199 -0.5705106926 0.5501934213 -0.5693998196 0.0525265196 -0.0154807799
395297630.0 0.0525159462 -0.016014782 0.5438058079 -0.5761030762 0.5442297388 -0.5758786502 0.0531841167 -0.0160091577
400297600.0 0.052035918 -0.0165869653 0.5374273059 -0.5825020726 0.5376799917 -0.5820047056 0.0523565705 -0.0164800517
405297570.0 0.05105876 -0.0174373154 0.5310180278 -0.5879994566 0.5316056021 -0.5875822042 0.0518336268 -0.016946403
410297540.0 0.0513911619 -0.0183027133 0.5248382894 -0.5941570376 0.5254538516 -0.5941573332 0.0514987219 -0.0170652695
415297510.0 0.0513922071 -0.018756003 0.5183109375 -0.5997396674 0.5183641494 -0.6001418977 0.051204041 -0.0178084606
420297480.0 0.0509353994 -0.0191313541 0.5112358727 -0.6060546121 0.5115271435 -0.6055765972 0.0505916532 -0.0190415865
425297450.0 0.0501548032 -0.0205133424 0.5048848367 -0.6111712558 0.5052510126 -0.6114930962 0.0497866958 -0.0189870402
430297420.0 0.0498683206 -0.0208888818 0.4979771047 -0.6162394224 0.4980518898 -0.6161318708 0.0496257351 -0.0199537139
435297390.0 0.0494620798 -0.0213146227 0.4907658125 -0.622381506 0.4911604396 -0.6218994742 0.0504760701 -0.0203839997
440297360.0 0.0494085187 -0.0217358063 0.4844517951 -0.6276797687 0.484838664 -0.6275597487 0.049037566 -0.0216910497
445297330.0 0.0487896663 -0.0228264386 0.477955554 -0.6331590877 0.4774875005 -0.6324706405 0.0493615525 -0.0222262323
450297300.0 0.0488750428 -0.0232956577 0.4712959648 -0.6384108958 0.4706575405 -0.6384277724 0.0484155664 -0.0229234259
455297270.0 0.0483548996 -0.0238401492 0.4633625024 -0.6433175579 0.4638658992 -0.6435079292 0.0481098038 -0.0230556429
460297240.0 0.0476628156 -0.024233117 0.4562908076 -0.6487384748 0.4564083038 -0.6487803614 0.0478449635 -0.0237088218
465297210.0 0.047496247 -0.0248944547 0.4492674233 -0.6535700318 0.4493557872 -0.6544791913 0.0476512224 -0.0243930667
470297180.0 0.0470984217 -0.0254887795 0.4418607668 -0.6585020395 0.4422502487 -0.6589281252 0.0471172966 -0.0249474984
475297150.0 0.0468957912 -0.0262779223 0.4344991521 -0.662916119 0.4351134586 -0.6629120279 0.0472959372 -0.0259224182
480297120.0 0.0461511888 -0.0260394909 0.4273997833 -0.6681545009 0.4272149388 -0.6684673256 0.0467143616 -0.0257702107
485297090.0 0.0454881056 -0.0267301969 0.4206940419 -0.6725297951 0.4199896279 -0.6727148876 0.0465698733 -0.0266782688
490297060.0 0.0446213864 -0.0276689262 0.4126302291 -0.6782135651 0.4134039431 -0.6771730499 0.0459029517 -0.0264519849
495297030.0 0.0446363481 -0.0279576785 0.4048995683 -0.6818384884 0.4061478966 -0.6817533497 0.0450887227 -0.0274014132
500297000.0 0.04399162 -0.0287138447 0.3976906476 -0.6860593416 0.3977315245 -0.6855389602 0.0450823739 -0.0269897035
505296970.0 0.0440677043 -0.0292260552 0.3899798411 -0.6905519797 0.3897461825 -0.6908951501 0.0445707904 -0.0281410042
510296940.0 0.0433304788 -0.0293482677 0.3823286783 -0.6951559682 0.3823169701 -0.695054486 0.0442240688 -0.0283750503
515296910.0 0.0424811444 -0.0297310767 0.3743020673 -0.6992251372 0.3752388093 -0.6990950356 0.0438282483 -0.0288002158
520296880.0 0.0423133389 -0.0302928085 0.3671602688 -0.7037030608 0.367561545 -0.7034461399 0.043421576 -0.0294921608
525296850.0 0.0420123192 -0.0315445739 0.3592912511 -0.7070861451 0.3600219771 -0.7070447622 0.0425075017 -0.029899039
530296820.0 0.0413794288 -0.0313417677 0.3518193694 -0.7113770966 0.3517049957 -0.7112753452 0.0424988285 -0.0299903839
535296790.0 0.0404142344 -0.031501141 0.3443388818 -0.7148627623 0.3444279313 -0.7147258223 0.0417099485 -0.0313963369
540296760.0 0.0400782047 -0.0318519798 0.3358590097 -0.719481338 0.3356686934 -0.7186023128 0.0408581935 -0.0305573693
545296730.0 0.0397660469 -0.0323284394 0.3280888608 -0.7221279465 0.3280101421 -0.7223949851 0.0404114967 -0.031307569
550296700.0 0.0398128506 -0.0325771147 0.3201947006 -0.7258807733 0.3202400404 -0.7264730108 0.0398558915 -0.0316070841
555296670.0 0.0387427429 -0.0333659957 0.3125587518 -0.7296195226 0.3124808691 -0.7291540576 0.0395652579 -0.0320032709
560296640.0 0.0387293701 -0.033208342 0.3040586981 -0.7331039498 0.3042576479 -0.7327558643 0.0386084805 -0.0326935775
565296610.0 0.0376743036 -0.0339061629 0.2959118191 -0.736145622 0.2966969129 -0.7363266745 0.0381240469 -0.0331048374
570296580.0 0.0371889539 -0.0339942057 0.2881457646 -0.7395726829 0.2878504116 -0.7392496212 0.0379500683 -0.0329736291
575296550.0 0.0362951063 -0.034217504 0.2803402097 -0.7431253434 0.2794650202 -0.742926329 0.0377402954 -0.0337686021
580296520.0 0.0361661511 -0.0348265982 0.2717445897 -0.7461619446 0.2720998628 -0.7454301493 0.0371776123 -0.0342055459
585296490.0 0.035592037 -0.0358759972 0.2642779015 -0.7482688192 0.264623399 -0.7483193989 0.0362219368 -0.0341541146
590296460.0 0.0355548332 -0.0353700553 0.2553783002 -0.7505018617 0.2557993711 -0.7509410407 0.0348337066 -0.0346317675
595296430.0 0.0349425636 -0.035763706 0.2471134755 -0.754447005 0.2473546133 -0.7539454277 0.0353193659 -0.0352696653
600296400.0 0.0339474416 -0.036440922 0.2392622466 -0.7572614143 0.239450051 -0.755919564 0.034413073 -0.0355658976
605296370.0 0.0337107843 -0.0364844274 0.2306705616 -0.7592503332 0.2311542002 -0.7593806607 0.0340125554 -0.0359134334
610296340.0 0.0331295797 -0.0367982929 0.2221201263 -0.761736904 0.2223748133 -0.7615707379 0.0336538927 -0.0361000813
615296310.0 0.0327592849 -0.0373977282 0.2138527879 -0.7637654913 0.2139265643 -0.7647501556 0.033400543 -0.0364657517
620296280.0 0.032118412 -0.0379170497 0.2061505455 -0.7662251233 0.2058460262 -0.766401989 0.0319686836 -0.0368159901
625296250.0 0.0312155167 -0.0386184173 0.1978827348 -0.7695058608 0.1973219253 -0.7691054468 0.03255431 -0.0368730971
630296220.0 0.0318483347 -0.0385028596 0.1883583921 -0.7712402853 0.1885989513 -0.7700363192 0.031613346 -0.0369448549
635296190.0 0.0299789637 -0.0389618003 0.1804319525 -0.7728109778 0.1809423677 -0.7725337279 0.0314848866 -0.0374212199
640296160.0 0.0294853759 -0.0389391367 0.1721463135 -0.774031126 0.1724936483 -0.7744780624 0.0305679238 -0.0376999548
645296130.0 0.0291840221 -0.0391813173 0.1630331162 -0.776475483 0.1640709616 -0.7763668869 0.0301987775 -0.0377920962
650296100.0 0.0286912946 -0.0392057241 0.1551913883 -0.7777653976 0.1551138311 -0.7781247644 0.0301853654 -0.0389484841
655296070.0 0.0276858785 -0.0399102883 0.1468910018 -0.7802275063 0.1473748139 -0.7797659879 0.02937471 -0.038455326
660296040.0 0.0265679812 -0.0404770799 0.1377830704 -0.7812008283 0.1390170901 -0.7811517276 0.0291282568 -0.0388256553
665296010.0 0.0268910705 -0.0403289625 0.1291242541 -0.7825001222 0.1301872977 -0.7825407567 0.0284196672 -0.0384046468
670295980.0 0.0252453951 -0.040358079 0.1210798132 -0.7842609675 0.1209802972 -0.7841018345 0.0272302354 -0.0390683114
675295950.0 0.0252509666 -0.0402722497 0.1126072649 -0.7854026315 0.1128540424 -0.7847179799 0.0263959486 -0.039294139
680295920.0 0.0241106782 -0.0409750518 0.1033855281 -0.7864089378 0.1030701475 -0.786945624 0.0261826853 -0.0387297731
685295890.0 0.0239295593 -0.040313784 0.095584971 -0.787219762 0.0950436808 -0.7877928171 0.0255230605 -0.0390680298
690295860.0 0.0238241654 -0.0407537972 0.086533846 -0.7881191136 0.0868365472 -0.7888719335 0.0249259272 -0.0385632066
695295830.0 0.0230240587 -0.0411999821 0.0782917782 -0.7894508362 0.0780120254 -0.7890653425 0.0239448493 -0.0390585379
700295800.0 0.0223955139 -0.0416471973 0.0693899651 -0.7900110808 0.0690949269 -0.7891586328 0.023687643 -0.0385678463
705295770.0 0.0214138102 -0.040906292 0.060430383 -0.7906913601 0.0610358358 -0.790889117 0.0230835778 -0.039248848
710295740.0 0.0210721021 -0.0413465034 0.0528379772 -0.7922264441 0.0528345946 -0.7919327693 0.022532669 -0.0402277909
715295710.0 0.0198149766 -0.0416080693 0.0440968345 -0.7920934886 0.0437931583 -0.7917676553 0.021971885 -0.0399399417
720295680.0 0.0196279746 -0.0418060087 0.0349209774 -0.7928870101 0.0355214439 -0.7924915421 0.0212667374 -0.039179499
725295650.0 0.0191343113 -0.0417950622 0.0266772315 -0.7926869141 0.0268412654 -0.7929657785 0.0201855036 -0.0393032371
730295620.0 0.0188874886 -0.0412964091 0.0177957497 -0.7921749738 0.0180689726 -0.7931918181 0.0193516482 -0.0401196386
735295590.0 0.017861553 -0.0416076351 0.0094510167 -0.7931993771 0.0092814458 -0.7929672676 0.0189946399 -0.0402716672
740295560.0 0.0169335959 -0.0416035755 0.0003246303 -0.7933372915 0.0008714781 -0.7932782863 0.0188141013 -0.0400242268
745295530.0 0.0167864035 -0.0416910995 -0.008171515 -0.7925754517 -0.0077291491 -0.79309238 0.0181181143 -0.0405602013
750295500.0 0.0161926326 -0.0419054275 -0.016552719 -0.7925262801 -0.0161619477 -0.7931369058 0.0174021581 -0.0402716109
755295470.0 0.0156243502 -0.0421922818 -0.0246138659 -0.792777091 -0.0247781239 -0.7927542835 0.0177290995 -0.0410057223
760295440.0 0.0148425699 -0.0418297785 -0.0338284151 -0.7928384498 -0.0334189896 -0.7928340417 0.0165533356 -0.0406322339
765295410.0 0.0143999216 -0.0419584591 -0.0427309593 -0.7921495159 -0.0428023679 -0.7924553108 0.0162656117 -0.0403788652
770295380.0 0.0132532058 -0.0424365973 -0.051729202 -0.791601884 -0.0513462006 -0.7911171146 0.0149986683 -0.0409226856
775295350.0 0.0129694895 -0.0428219838 -0.0599807986 -0.7905552317 -0.0591279757 -0.7904850112 0.0140586325 -0.04038523
780295320.0 0.012429467 -0.0423069226 -0.0684882657 -0.7898975554 -0.0675367724 -0.7901271582 0.0135849434 -0.0414971658
785295290.0 0.0114647203 -0.0431111688 -0.0772341654 -0.7892283979 -0.0764961553 -0.7888705694 0.0141491181 -0.0404966831
790295260.0 0.0114714554 -0.041974212 -0.0848574386 -0.788473923 -0.0839447078 -0.7879899329 0.0128555162 -0.0410326221
795295230.0 0.0106697599 -0.0426399891 -0.0942759017 -0.7871096009 -0.0930440578 -0.7876936811 0.0126641918 -0.0402515389
800295200.0 0.0097083575 -0.041891977 -0.1030299156 -0.7862560562 -0.1021117043 -0.7862395187 0.0119464436 -0.0406669123
805295170.0 0.0093166974 -0.0423075323 -0.1113283124 -0.7849248705 -0.1112082743 -0.7851516568 0.0112265812 -0.0404700868
810295140.0 0.0083836186 -0.0426354332 -0.1192657968 -0.7834114312 -0.1194506917 -0.7839933582 0.0112426935 -0.0401900971
815295110.0 0.0081201243 -0.0427657059 -0.1281733824 -0.7820052007 -0.1277240454 -0.7823694881 0.0100435088 -0.0404305878
820295080.0 0.0071032856 -0.0416292956 -0.1365982135 -0.780521777 -0.1362543881 -0.7805802591 0.009416916 -0.0404705716
825295050.0 0.0071588777 -0.0419640412 -0.1445049441 -0.7791143 -0.1447700054 -0.7793831631 0.0092466446 -0.0404038776
830295020.0 0.0062154582 -0.0417036619 -0.1533822694 -0.7772766574 -0.1532724711 -0.7776180533 0.0094394672 -0.0398724914
