!Created with skrf (http://scikit-rf.org).
# Hz S RI R 50.0 
!freq ReS11 ImS11 ReS21 ImS21 ReS12 ImS12 ReS22 ImS22
300000.0 -0.7705437397 -0.1551775003 -0.0016615452 0.0025559227 -2.39343e-05 0.0002353238 -0.0475202789 -0.0717802017
5299970.0 -0.7852513072 -0.007652169 -3.87926e-05 0.000286427 -6.09715e-05 2.07501e-05 -0.0493956758 0.0144586775
10299940.0 -0.7878034372 -0.0042509892 -0.0001409692 -0.0002953866 0.0001214953 0.0001019012 -0.0435953294 0.0320480743
15299910.0 -0.7930989499 -0.0016607769 1.72621e-05 -6.67813e-05 0.000143763 6.48717e-05 -0.0352578711 0.0464973547
20299880.0 -0.7995135563 0.0024443883 0.000123601 5.36747e-05 -2.32056e-05 4.0615e-05 -0.0258278895 0.0584066221
25299850.0 -0.8063117936 0.0082663233 -4.74157e-05 0.0001750392 2.33497e-05 0.0001501233 -0.0150801332 0.0676257921
30299820.0 -0.8117476715 0.0161652617 4.0506e-05 -2.65415e-05 0.0002479951 -0.0001619006 -0.0037331379 0.074614235
35299790.0 -0.817024165 0.0251771789 0.0001200614 -4.48315e-05 7.807e-06 0.0001557473 0.0077516385 0.0794463778
40299760.0 -0.8213788389 0.0339682693 6.71811e-05 3.5327e-05 -7.47178e-05 3.1882e-05 0.0189308583 0.082534205
45299730.0 -0.8248136975 0.0441020235 4.72791e-05 1.57839e-05 -5.60697e-05 -9.40155e-05 0.0294543414 0.0841619863
50299700.0 -0.8263108478 0.0539975251 0.0001885031 0.0001234763 0.0001343232 0.0001832373 0.0395558129 0.0844752799
55299670.0 -0.8286479041 0.0641252307 0.0001505439 0.0002462756 7.1146e-06 -1.81678e-05 0.0484371147 0.0835314037
60299640.0 -0.8298561277 0.0743503641 -1.80703e-05 -3.90496e-05 -6.82119e-05 4.63734e-05 0.0571026977 0.0818567295
65299610.0 -0.8311657776 0.084728551 6.89366e-05 0.0002288443 3.31232e-05 1.34005e-05 0.0650671203 0.0794794056
70299580.0 -0.8311428404 0.0943135917 0.0002822858 0.0002371324 0.0002805173 -5.10431e-05 0.0718862789 0.0766347705
75299550.0 -0.8314527761 0.1048726659 0.0002306282 -2.5748e-05 -2.12606e-05 7.52958e-05 0.0783921224 0.0737886647
80299520.0 -0.8311667036 0.1144415296 1.81269e-05 0.0001496747 2.62037e-05 2.86746e-05 0.083659551 0.0705653524
85299490.0 -0.8306335067 0.124407925 8.67251e-05 5.07246e-05 -6.603e-05 -6.33225e-05 0.0887185437 0.0668728964
90299460.0 -0.8296458827 0.133776354 -6.9616e-06 -9.63425e-05 9.1189e-05 3.29419e-05 0.0935936286 0.0629050844
95299430.0 -0.8285875685 0.1437635283 -0.0001083117 0.0001891287 6.04957e-05 0.0001159287 0.09757253 0.0592276791
100299400.0 -0.8276990154 0.1536141715 -8.348e-07 -0.0001041713 -0.0002214937 0.0001462734 0.1010026397 0.0554066329
105299370.0 -0.8266449731 0.1620733144 -8.19824e-05 4.96376e-05 6.10358e-05 -3.0549e-05 0.1048587396 0.0513774322
110299340.0 -0.8256930704 0.1711281601 -3.9976e-05 0.0001396119 5.94996e-05 -8.2336e-06 0.1071405363 0.0480264073
115299310.0 -0.8234541994 0.1804394962 0.0002002186 -3.58738e-05 0.0001180408 0.0001757057 0.1100029433 0.0438018859
120299280.0 -0.8220480205 0.1893830628 0.000195875 0.0001165686 -1.32276e-05 -0.0001586699 0.1120667868 0.0401490722
125299250.0 -0.8207211793 0.1987497173 4.70236e-05 0.0001207901 0.0001065028 6.47563e-05 0.1141555131 0.0362478759
130299220.0 -0.8181678567 0.2076854786 -0.0001405512 0.0002923016 4.56394e-05 4.51644e-05 0.1155670988 0.0329563775
135299190.0 -0.8163173636 0.2164983985 -0.0002191482 -6.80922e-05 -0.0001991867 0.0001308189 0.1174132343 0.0292538008
140299160.0 -0.8145846548 0.2256671396 5.26189e-05 0.0002456275 7.81168e-05 0.0001496868 0.1188425055 0.025490103
145299130.0 -0.8123879404 0.2345637508 -5.83528e-05 0.0001064307 3.65733e-05 5.64252e-05 0.119519951 0.0222836021
150299100.0 -0.810169133 0.2429197514 -8.64336e-05 6.6276e-06 3.6475e-06 0.0001248148 0.1207735777 0.0187217066
155299070.0 -0.8075393208 0.2526685654 -9.90532e-05 -6.82075e-05 7.35679e-05 5.92399e-05 0.1214754525 0.0156940164
160299040.0 -0.8048811839 0.2613505534 3.07837e-05 0.0002059105 0.0001913961 0.0001677119 0.1223739239 0.0122748422
165299010.0 -0.8024199848 0.2694329644 -0.0001054627 0.0001138665 -6.21312e-05 3.5947e-06 0.122683098 0.0087741956
170298980.0 -0.7991510238 0.2781568741 4.73902e-05 0.0001585862 3.56489e-05 1.32952e-05 0.1233874683 0.0059785425
175298950.0 -0.7969571158 0.2870090789 0.0001860949 0.0001991071 0.0001527487 0.0001665646 0.1235798351 0.0029117199
180298920.0 -0.7933802298 0.2950459914 0.0001414091 -4.17041e-05 -5.57263e-05 0.0002219404 0.1241860053 -0.0003254923
185298890.0 -0.7908447409 0.3045582107 0.0001693701 0.0001658155 4.66297e-05 0.0001196054 0.1239364096 -0.0031433709
190298860.0 -0.7872794066 0.3124385973 9.18417e-05 0.0003436644 0.0003473302 0.0001481178 0.1244628344 -0.0058191951
195298830.0 -0.7842159879 0.321005346 5.18418e-05 -3.72087e-05 0.0001102121 0.0001408792 0.1242466467 -0.0085731794
200298800.0 -0.7805548967 0.3294186854 -1.43577e-05 8.00284e-05 0.0001578392 6.86096e-05 0.1243556035 -0.0111061723
205298770.0 -0.7773701382 0.3373889373 0.0001413173 0.0001418644 5.6429e-06 -0.0001454502 0.1240391535 -0.0138228669
210298740.0 -0.7731963824 0.3460931634 7.96793e-05 0.0002385072 6.69102e-05 0.0001131689 0.124310873 -0.0162041747
215298710.0 -0.770421247 0.3539650012 7.58121e-05 -0.0001376522 0.0001434276 0.0001566041 0.1232172171 -0.0188098491
220298680.0 -0.7673796226 0.3622250708 -2.35131e-05 9.00244e-05 -5.20272e-05 3.53168e-05 0.1234770514 -0.0213864362
225298650.0 -0.7629086875 0.3709304671 0.0004571185 0.0002105437 9.18116e-05 0.0001287232 0.1226490365 -0.0233672742
230298620.0 -0.7591319512 0.3785866337 0.0003214189 0.0001442893 0.0002446316 0.0002899583 0.1227436497 -0.0259703477
235298590.0 -0.754561827 0.3872330873 0.0001955429 0.0001017755 7.96407e-05 7.7667e-05 0.1220816851 -0.0284644156
240298560.0 -0.7509883791 0.395621792 0.0002680308 3.56802e-05 0.0001990647 0.0002098369 0.1217219632 -0.0305151038
245298530.0 -0.7464126642 0.4026539435 5.19658e-05 5.73873e-05 0.0002295692 0.0001672306 0.1211334655 -0.0323792578
250298500.0 -0.7423714653 0.4108722595 0.0003289684 6.92586e-05 0.000332649 0.000187486 0.1208567412 -0.0347148454
255298470.0 -0.7379310244 0.4189189191 0.000222666 0.0002533233 0.000212078 -7.08358e-05 0.1203367984 -0.0368026688
260298440.0 -0.7337116156 0.4260779318 0.0001497027 -8.43584e-05 0.0002830447 -5.2551e-06 0.1197167043 -0.038882891
265298410.0 -0.7293381155 0.4340719965 0.0002036624 9.08895e-05 3.53997e-05 0.0001553022 0.1190628342 -0.0409588466
270298380.0 -0.7244024488 0.4419751037 -2.0033e-06 0.0001644588 -9.57932e-05 0.0001466964 0.1183793049 -0.0429994579
275298350.0 -0.7196389548 0.4492864843 0.0002204262 0.0001676802 9.88205e-05 0.0002637021 0.1179080809 -0.0447025586
280298320.0 -0.7149399948 0.4568662826 0.0001122826 0.0003444621 0.0001461838 0.0001557297 0.1170141538 -0.0463932625
285298290.0 -0.7100482459 0.4643065396 -2.13862e-05 0.0001538817 0.0002663685 0.0002092145 0.1161284346 -0.048208866
290298260.0 -0.7054542699 0.4722995151 0.0002795644 0.0001552755 0.0001091422 -1.28633e-05 0.11560891 -0.0500776246
295298230.0 -0.700817638 0.4793941227 8.1644e-05 3.73551e-05 4.543e-05 0.0002448979 0.1148605695 -0.0517545104
300298200.0 -0.6950462593 0.4867213352 -4.008e-07 0.0002709544 -1.77653e-05 0.0001063739 0.1139945353 -0.0531554249
305298170.0 -0.6901471528 0.4944594364 0.0001586399 0.000255324 8.30271e-05 0.0001297758 0.1137511865 -0.0550409021
310298140.0 -0.6847442029 0.5011434743 0.0003180066 0.0003419514 6.48686e-05 0.0002319464 0.1128291212 -0.0564244601
315298110.0 -0.6795562533 0.5076985707 -3.68744e-05 0.000307839 0.0001836007 0.0001942063 0.1120763166 -0.0584126538
320298080.0 -0.6742220599 0.5159133357 0.0001233796 8.86879e-05 0.0002745384 0.000185106 0.1109137195 -0.0603064242
325298050.0 -0.6680940783 0.5220690555 0.0001645525 0.0001599048 0.0004182506 0.0003873494 0.1099040939 -0.0619469899
330298020.0 -0.6631242883 0.5291104459 1.55418e-05 0.0001689784 0.0001287725 -7.91283e-05 0.1087548779 -0.0638043648
335297990.0 -0.6573750749 0.5366674496 9.82784e-05 0.0002454353 0.0002011645 2.2744e-06 0.1074797234 -0.0653482369
340297960.0 -0.6517166252 0.5426720674 0.0001487665 9.3452e-05 0.0002013002 5.01363e-05 0.1065611681 -0.0667241335
345297930.0 -0.6458372312 0.54896753 0.0001047579 6.53491e-05 0.0002068593 0.0001723245 0.104937414 -0.0680687913
350297900.0 -0.6403389206 0.5557689749 -3.94329e-05 -1.83631e-05 0.0001852353 0.0002130634 0.1038754597 -0.0692276324
355297870.0 -0.6342724013 0.5629145024 0.000141316 2.58655e-05 0.0001861492 0.0001053252 0.1029065356 -0.070302156
360297840.0 -0.6280048951 0.5692732212 0.0001286635 0.0001211076 0.0001458471 1.84101e-05 0.1015068928 -0.0715854959
365297810.0 -0.6221013699 0.5758268815 0.0002887715 -8.96836e-05 0.0001692081 0.0001107824 0.1004187399 -0.072682403
370297780.0 -0.6161585123 0.581890326 3.82399e-05 6.89132e-05 0.0002239503 0.0002906083 0.0989300336 -0.0740119045
375297750.0 -0.6105193047 0.5880169019 0.0002833508 7.59154e-05 0.0004329253 4.15533e-05 0.0982132484 -0.0751422621
380297720.0 -0.6038153535 0.5950900628 0.0003059825 0.0003058011 0.0002690791 5.538e-07 0.097093749 -0.076202511
385297690.0 -0.5979573878 0.6010884294 0.0003199852 0.0001398081 0.0001653986 0.0002176636 0.0956072111 -0.076933667
390297660.0 -0.5914678521 0.6075387654 0.0001911464 -7.10098e-05 0.00023233 4.80998e-05 0.0945890632 -0.0782494951
395297630.0 -0.5853218281 0.6131603233 0.0001325212 -3.74949e-05 0.0001352375 3.95495e-05 0.0932966346 -0.0794543091
400297600.0 -0.578767389 0.619114392 0.0005205113 1.17336e-05 0.0003172163 -5.11566e-05 0.0920903976 -0.0806013181
405297570.0 -0.5723598269 0.6256412934 0.0002632121 0.0001307968 0.0002406473 0.0002684887 0.0908964359 -0.0815476885
410297540.0 -0.5657139343 0.6303848802 0.0003015366 0.000106084 0.0002018693 2.3504e-06 0.0893984499 -0.0822567759
415297510.0 -0.5587275317 0.6362477463 0.0001367129 0.000222221 0.0001260009 0.0001867573 0.0880946735 -0.0833339506
420297480.0 -0.5521556018 0.6421133998 0.0002222613 0.0001701254 0.0002388647 0.0002127939 0.0868735328 -0.0842017787
425297450.0 -0.5456859648 0.6484174573 6.0982e-05 0.0003141145 0.0003043197 0.0002812152 0.0858134998 -0.0853873757
430297420.0 -0.5392704645 0.6531417832 0.0003759955 0.0001643996 7.6553e-05 0.0001242681 0.0843205176 -0.086291975
435297390.0 -0.5324203098 0.6590263033 7.75874e-05 -2.68067e-05 0.0001823234 0.0001836695 0.0831771669 -0.0872525017
440297360.0 -0.5252381434 0.6638637846 8.76048e-05 5.95156e-05 6.4546e-06 0.0002281396 0.0815780499 -0.0881791146
445297330.0 -0.5185904055 0.6703293868 0.0001522201 6.68626e-05 0.0001719589 0.0002080786 0.0804593808 -0.0888728717
450297300.0 -0.5111771835 0.6748050166 0.000159187 2.42906e-05 0.0003282743 0.0001670582 0.0788440392 -0.0896443408
455297270.0 -0.5045454225 0.6801009075 0.0002499869 -0.0001201585 0.0002085942 0.0001898496 0.0776329004 -0.0906286087
460297240.0 -0.4975239009 0.6856700446 0.0002224072 0.000196949 0.0001072666 3.36698e-05 0.0768666582 -0.0913361241
465297210.0 -0.4899979559 0.691069191 0.0004885108 0.000306451 0.0002630419 1.16702e-05 0.0748229601 -0.0921892216
470297180.0 -0.4824777586 0.6944945961 0.0005305224 1.48007e-05 7.06107e-05 -7.73586e-05 0.0734002971 -0.0928696857
475297150.0 -0.4759015201 0.6998084758 0.0003483506 -6.56764e-05 0.0003662961 6.43083e-05 0.0724352797 -0.0937337931
480297120.0 -0.4690943039 0.70447129 0.0003943123 1.06148e-05 0.0002172067 1.77816e-05 0.0708476667 -0.0941497908
485297090.0 -0.4610124385 0.7093999636 0.0003203114 0.0001617372 8.73795e-05 0.0001357145 0.0692065615 -0.0951137103
490297060.0 -0.4538950944 0.7139542311 7.36881e-05 0.0002229538 0.0002989704 -1.86106e-05 0.0681202025 -0.0958544675
495297030.0 -0.4469491173 0.718851357 0.0003200049 -0.0002016164 0.0001748597 0.0003463354 0.0667898145 -0.0968541316
500297000.0 -0.4387185239 0.7231413155 0.0002695436 -4.00171e-05 0.0002635834 0.0002560644 0.0652148233 -0.097247671
505296970.0 -0.4313936279 0.7273202794 9.84726e-05 0.0001931755 0.0002395289 0.0001187637 0.0633212047 -0.0975103666
510296940.0 -0.4241533843 0.7323703735 0.0003797382 -0.0001195153 0.0001980296 0.0001884647 0.0625605617 -0.098353889
515296910.0 -0.4169434206 0.7361622905 0.0003832542 0.0002985806 0.0002644215 6.72783e-05 0.0609795606 -0.0987782706
520296880.0 -0.4089777106 0.7409216706 0.0001732565 -3.19359e-05 0.0004219065 -4.28417e-05 0.0596819156 -0.0997725494
525296850.0 -0.4020538135 0.744574393 0.0003497937 9.41457e-05 0.0002460266 2.09238e-05 0.0585038852 -0.1002553874
530296820.0 -0.3939121787 0.7480378269 0.0004589713 4.70272e-05 0.0002972908 9.2983e-05 0.0562895236 -0.1009056366
535296790.0 -0.385709004 0.7526185118 0.0001105271 7.69821e-05 7.72203e-05 0.0001514687 0.0552210234 -0.101728498
540296760.0 -0.3784687518 0.7561769826 0.0003402605 0.0001853491 0.0004178809 0.0001797164 0.0536452893 -0.1017736221
545296730.0 -0.3709030552 0.7599429571 0.0003348209 -0.0001977652 0.0001940223 7.5887e-05 0.0523446457 -0.1026883445
550296700.0 -0.363675619 0.7636189853 0.0001761025 1.1916e-06 0.0003709587 -3.444e-07 0.0508325415 -0.102873187
555296670.0 -0.3549779092 0.7672171605 0.0001148169 7.66055e-05 0.0004158805 0.0001421827 0.0491990431 -0.1029426927
560296640.0 -0.3471396125 0.7710177317 0.0001013906 0.0002265569 0.0004736923 4.97977e-05 0.0478651047 -0.103729011
565296610.0 -0.3396187962 0.7746296751 0.0002640389 0.0001610286 0.0003134527 0.0001072306 0.0465929668 -0.1037958834
570296580.0 -0.3318709209 0.7770985522 0.0001715677 0.0001385082 0.000300665 -8.75516e-05 0.0453336608 -0.1037734794
575296550.0 -0.3234265324 0.7813008977 0.0003877428 -8.43466e-05 0.0003579582 0.0002297419 0.0435220532 -0.1048440226
580296520.0 -0.3160551199 0.7841054364 0.0003827954 9.74352e-05 0.000409147 2.78627e-05 0.0420089217 -0.1047926134
585296490.0 -0.3074869216 0.7868266811 0.0003497705 0.0002068923 0.0003509135 0.0001378952 0.0406384884 -0.1056740495
590296460.0 -0.2996250034 0.7902199366 0.0002220696 0.0003108126 0.0003509522 0.0001154842 0.0394712816 -0.1056512846
595296430.0 -0.2915728 0.7939538514 0.0004337533 4.22648e-05 0.0003336045 0.000271822 0.0377874981 -0.1060408299
600296400.0 -0.2834387745 0.7961526934 0.0003102336 0.0001049094 0.0004125091 -1.39339e-05 0.0363168522 -0.1063181865
605296370.0 -0.2754736123 0.7987002118 0.0003979842 3.59986e-05 0.0002343008 3.35756e-05 0.0349066957 -0.1061854114
610296340.0 -0.2672940546 0.8013245619 0.000257186 0.0001718893 0.0002454105 0.0002448153 0.0334246459 -0.1065582185
615296310.0 -0.2591346729 0.804302115 0.0003533108 0.0002179247 0.0003336654 0.000111513 0.0321759355 -0.1068709993
620296280.0 -0.250770448 0.806717957 0.0001212582 8.17448e-05 0.0002095219 0.0002408956 0.0304487169 -0.1070308153
625296250.0 -0.2420592542 0.8090343189 0.0005807272 0.0001226459 0.0003731256 -5.3805e-05 0.0288146134 -0.1071819036
630296220.0 -0.2342389893 0.812141247 0.0003090125 0.0001302999 0.0004373927 0.0001109532 0.0273797594 -0.1069476005
635296190.0 -0.2260106925 0.8144770889 0.0002589712 -0.0001192748 0.0004673052 9.98298e-05 0.0259975686 -0.1072075285
640296160.0 -0.217675258 0.8156773686 0.0002531808 9.90899e-05 0.0002594421 -6.82793e-05 0.0246038096 -0.1076454567
645296130.0 -0.2097283952 0.8178235929 0.000314532 -6.03875e-05 0.0003799643 6.60674e-05 0.0229710428 -0.1077758181
650296100.0 -0.2016042339 0.8208677087 0.0002737784 -3.57485e-05 0.0002578545 0.0001369761 0.0214317554 -0.1075314738
655296070.0 -0.1930292843 0.8221343181 0.0001572794 9.85445e-05 0.0003827658 4.87293e-05 0.0200977273 -0.1076152931
660296040.0 -0.185709059 0.824321741 0.0003949626 -0.0002356114 0.0003911055 0.0001550924 0.0184232549 -0.1074898977
665296010.0 -0.1767743421 0.8260869961 0.0002321601 -7.83138e-05 0.0005148934 5.18025e-05 0.0170704703 -0.1076078529
670295980.0 -0.1676761087 0.8271320317 0.0004081948 0.0002824976 0.0002933412 -2.60213e-05 0.0155844641 -0.107431437
675295950.0 -0.1602153973 0.8282977418 0.0004381853 4.118e-05 0.0005131564 -3.2064e-06 0.0143837151 -0.1074941081
680295920.0 -0.1518201129 0.8309650874 9.97749e-05 -3.22436e-05 0.0004498318 -5.83318e-05 0.0128230176 -0.1075222181
685295890.0 -0.1433000615 0.8322010597 0.0002126593 4.1208e-05 0.0006701504 -3.75704e-05 0.0111129112 -0.1074545642
690295860.0 -0.134140314 0.8337529675 0.0005430564 1.38316e-05 0.00035585 -3.05287e-05 0.0100601201 -0.1073442966
695295830.0 -0.1255281052 0.8342639787 0.0003885898 -0.0002045277 0.0004291182 4.3894e-05 0.0082033043 -0.107136047
700295800.0 -0.1178252993 0.8355861092 0.0003884512 5.81828e-05 0.0001943046 -0.0001266017 0.0066936933 -0.1072787915
705295770.0 -0.1086933795 0.8374762988 0.0001982928 9.8323e-05 0.0003082029 -1.22091e-05 0.0052678064 -0.1068150136
710295740.0 -0.1011870905 0.8381555279 0.0006381972 -0.0002345289 0.0005561604 0.0001891917 0.0037166246 -0.1065144118
715295710.0 -0.0926463601 0.8394439168 0.0005352632 0.0001621446 0.0002952093 1.20157e-05 0.0025249644 -0.1066042717
720295680.0 -0.0842313088 0.840152145 0.0005447996 -7.55068e-05 0.0003160254 0.0001153892 0.0008933443 -0.1062101075
725295650.0 -0.0751412137 0.8409429078 0.0005305447 -4.14119e-05 0.0004114561 2.46906e-05 -0.0003144383 -0.1063440417
730295620.0 -0.0674206471 0.8412451118 0.000220634 -5.65757e-05 0.00026006 -8.34164e-05 -0.0017703507 -0.1061791613
735295590.0 -0.0580226815 0.8421796652 0.0005563531 -0.0001433644 0.0002245124 -0.0001818072 -0.0030604531 -0.1058514112
740295560.0 -0.0500894831 0.8429941166 0.0004063498 2.01835e-05 0.0005802857 -3.67777e-05 -0.004673606 -0.1057381431
745295530.0 -0.0418030176 0.8429424762 0.0003486218 -0.0001129791 0.0002303046 -0.0001037459 -0.0063103932 -0.1050490007
750295500.0 -0.0336019553 0.8433808989 0.0003443005 -3.89958e-05 0.0004397164 0.0002257525 -0.0076927229 -0.1053125628
755295470.0 -0.024458415 0.8435759649 0.0003683528 -2.672e-06 0.0004772282 -0.0002305576 -0.0090481968 -0.1045168212
760295440.0 -0.0158603333 0.8435617345 0.0003343461 -2.25605e-05 0.0004142572 -0.0001202477 -0.0107520491 -0.1042402485
765295410.0 -0.0076715254 0.8436647597 0.0003548037 -9.54155e-05 0.0004360267 -6.54261e-05 -0.0115616296 -0.1039555889
770295380.0 0.000313028 0.8441006294 0.0002076883 -0.0002797516 0.0003654218 0.0001617751 -0.0127163303 -0.1038263334
775295350.0 0.0089236642 0.8437450219 0.0002220737 8.4248e-06 0.0002580071 -6.08167e-05 -0.0150096101 -0.1034606771
780295320.0 0.0180741076 0.8431669254 0.000507135 1.71382e-05 0.0005109402 -0.0002177977 -0.0162854048 -0.102730772
785295290.0 0.0266846851 0.8434712761 0.000322946 -0.0002253001 0.0003533991 -0.0001191315 -0.0173865999 -0.1023762691
790295260.0 0.0342719446 0.8429258781 0.0004164642 -9.82909e-05 0.0004645554 -0.0001686629 -0.0186919376 -0.1020039394
795295230.0 0.0426460976 0.8435479762 0.0005284783 -4.55351e-05 0.0005325648 4.64156e-05 -0.0198769582 -0.1013719128
800295200.0 0.0516416776 0.8428073336 0.0003489573 -0.0001385955 0.0004080745 -0.0001318685 -0.0214077937 -0.1013177101
805295170.0 0.0599505323 0.8419557641 0.0004598058 -0.0001789457 0.0003655534 1.25701e-05 -0.0228480973 -0.1006053483
810295140.0 0.0680987998 0.8417897658 0.0004596904 -0.0002870625 0.0004663243 -0.0002539184 -0.0238696824 -0.099925997
815295110.0 0.0770420084 0.8399099563 0.0004943823 -0.0002565592 0.0004709541 -0.0002603812 -0.0252375604 -0.0992799697
820295080.0 0.0849998866 0.8388000217 0.0004513161 -0.0003253281 0.0005186806 -7.04352e-05 -0.026813442 -0.099272889
825295050.0 0.0939476948 0.8385089907 0.0005945079 -0.0001485377 0.0003260182 -8.29293e-05 -0.0279472302 -0.0986207797
830295020.0 0.10255164 0.8381454374 0.0003182486 -0.0002036172 0.0006684229 -0.0001700048 -0.0294891121 -0.0976187302
835294990.0 0.1100548332 0.8368138609 0.0005078693 -0.0003019183 0.000373567 -4.74979e-05 -0.0304188531 -0.0975036042
840294960.0 0.1187613766 0.8353469234 0.0004216889 -0.0001735754 0.0003487494 -0.0001332447 -0.0317824015 -0.0962729586
845294930.0 0.127231978 0.834112048 0.0005558047 -0.0001660814 0.0004802736 -0.0001886994 -0.0329848106 -0.0956368295
