!Created with skrf (http://scikit-rf.org).
# Hz S RI R 50.0 
!freq ReS11 ImS11 ReS21 ImS21 ReS12 ImS12 ReS22 ImS22
300000.0 -0.2402484438 -0.088656717 0.4719442802 0.0602349434 0.4692979673 0.0560329611 -0.2355227037 -0.0967078722
5299970.0 -0.2448955792 0.0067041268 0.4748258193 0.0048793297 0.4745921908 0.0049189753 -0.2408505819 0.0073177586
10299940.0 -0.2418500661 0.0179525272 0.476716626 0.0057885535 0.4768387046 0.0059900057 -0.237475639 0.0207225065
15299910.0 -0.2373503232 0.0269678057 0.4804759224 0.00717905 0.4801647108 0.0072017469 -0.2326864293 0.0301496309
20299880.0 -0.2326551647 0.0341176937 0.4850247181 0.0080968282 0.484953122 0.0080251838 -0.2273980878 0.0380354889
25299850.0 -0.2275828324 0.040284815 0.4904121463 0.0069192175 0.4899240948 0.0067687294 -0.2217271071 0.0450144188
30299820.0 -0.2222934889 0.0450456517 0.4955015931 0.0049831461 0.4954354134 0.0045243298 -0.2159128909 0.0502979541
35299790.0 -0.2174497632 0.0490406221 0.5009449558 0.0014362753 0.5007966757 0.0011461702 -0.2103919727 0.0544615164
40299760.0 -0.2127135274 0.0525879307 0.5060822063 -0.0026290458 0.5060539299 -0.0025210763 -0.2052579029 0.0577391354
45299730.0 -0.2078895297 0.0551088857 0.5102174634 -0.0072537717 0.5107759906 -0.0073105093 -0.2002240136 0.0606884485
50299700.0 -0.2037117645 0.0568554408 0.5151420583 -0.0127817783 0.5150257398 -0.0126510177 -0.195680369 0.06279882
55299670.0 -0.1997971418 0.0582790038 0.5185401055 -0.019317308 0.5184067061 -0.0185644942 -0.191339297 0.0643027176
60299640.0 -0.1959481592 0.0601331268 0.5217876978 -0.0251812272 0.52204813 -0.024873147 -0.1873865024 0.0655248442
65299610.0 -0.1931466973 0.0609057751 0.5243241669 -0.0313744674 0.5248539111 -0.031163295 -0.184279166 0.0667482806
70299580.0 -0.1901786177 0.0622445918 0.5273140315 -0.0379968862 0.5267761243 -0.038126112 -0.1807489788 0.0680581943
75299550.0 -0.1872171727 0.0633064978 0.5287970941 -0.044676335 0.5287905318 -0.044844469 -0.1779771494 0.0683963131
80299520.0 -0.1846955215 0.0639350374 0.5309723044 -0.051786009 0.5308860535 -0.0514949039 -0.1753392542 0.0692245602
85299490.0 -0.1826514452 0.064154371 0.5319975448 -0.0581021593 0.5323513421 -0.0582583455 -0.1731812887 0.0695766876
90299460.0 -0.1804798597 0.0646892527 0.5326974975 -0.065748961 0.533308969 -0.0653515291 -0.1704898029 0.0704339493
95299430.0 -0.1780876517 0.0652859061 0.5343030485 -0.072032857 0.5341151488 -0.0728123613 -0.1683853197 0.0713513963
100299400.0 -0.176652061 0.0662679421 0.5342539617 -0.0790072678 0.5339657247 -0.0796759251 -0.1661472753 0.0715568495
105299370.0 -0.1748206879 0.0669291955 0.5341969564 -0.0865021618 0.5349626596 -0.0861254093 -0.1639478194 0.0722820391
110299340.0 -0.1734326405 0.0673996041 0.5349866115 -0.0927448816 0.5344516083 -0.0926623342 -0.1629652172 0.0729870133
115299310.0 -0.1720979414 0.0682474892 0.5348825072 -0.0998092534 0.5343808485 -0.0996708796 -0.1609656275 0.0738847814
120299280.0 -0.170753792 0.0685754359 0.5344838564 -0.1063904537 0.5345125467 -0.1067329338 -0.1595979935 0.0745145763
125299250.0 -0.1695627833 0.0691707176 0.5339337511 -0.1131830031 0.5341677084 -0.1132863354 -0.1584414726 0.0746699142
130299220.0 -0.1684165655 0.0704812993 0.5334714013 -0.1201670799 0.5334362605 -0.1199003239 -0.1571620418 0.0756070969
135299190.0 -0.1676313016 0.0712454498 0.5328454673 -0.1266080272 0.5322744837 -0.1263840351 -0.1556264196 0.0766764086
140299160.0 -0.1666760204 0.0721474141 0.5321134116 -0.1335869681 0.5317666864 -0.1337576449 -0.154427029 0.0779244788
145299130.0 -0.1654277013 0.0726223169 0.5313684815 -0.1397029046 0.5309601703 -0.1396019594 -0.153530807 0.0788427094
150299100.0 -0.1642454622 0.0736498034 0.5299164932 -0.1458814004 0.5299429014 -0.1456824678 -0.1524050139 0.080204206
155299070.0 -0.1638957951 0.0745362908 0.528558865 -0.1529831435 0.5285514373 -0.1528981372 -0.1509635481 0.080891117
160299040.0 -0.1627846536 0.0756759466 0.5272041985 -0.1592341967 0.5271690616 -0.1592078873 -0.1504444226 0.0822209392
165299010.0 -0.1620661264 0.0767941632 0.5257251267 -0.1658659011 0.5257425591 -0.16610721 -0.1488634323 0.0833006211
170298980.0 -0.1613844176 0.0777492601 0.5240053852 -0.1720434016 0.5243240004 -0.172171211 -0.1481110579 0.0845490444
175298950.0 -0.1604575182 0.0786857599 0.5229601737 -0.1781794552 0.5224270447 -0.178548344 -0.1473265224 0.0858573285
180298920.0 -0.1601782446 0.0799751858 0.5211963701 -0.1846711413 0.5206281933 -0.1845573665 -0.1464353273 0.08720754
185298890.0 -0.1589327809 0.0809850048 0.5191456003 -0.1903987063 0.5189104591 -0.1908295144 -0.1452339684 0.0886733357
190298860.0 -0.1586220577 0.0825964338 0.5175596401 -0.1973340804 0.5175618868 -0.1971703109 -0.1444701602 0.0897732354
195298830.0 -0.1576360285 0.0832872079 0.5150379505 -0.2029719602 0.5152756704 -0.2028399904 -0.1435007422 0.0912569596
200298800.0 -0.1565760428 0.0843134517 0.5130197989 -0.2095178899 0.5127869138 -0.2093101996 -0.1432498689 0.0923094025
205298770.0 -0.1560084521 0.0857057086 0.5105421211 -0.2153791539 0.5106535432 -0.2154370359 -0.1416665565 0.0933198549
210298740.0 -0.155587718 0.0868918695 0.5082728532 -0.2208515671 0.5086858187 -0.2211634624 -0.1409588257 0.0952414595
215298710.0 -0.1550971203 0.0884066823 0.5065117684 -0.2271608141 0.5063002641 -0.2273464227 -0.1403384672 0.0967482101
220298680.0 -0.1538610553 0.0890269078 0.5034593877 -0.2326143008 0.5034152216 -0.2329278181 -0.1393879424 0.0975105064
225298650.0 -0.1535296365 0.0906293659 0.5015416027 -0.2389337567 0.5016264156 -0.2388708893 -0.1390457778 0.0990651318
230298620.0 -0.1525702663 0.0921110591 0.4988281697 -0.244455012 0.4993038578 -0.2445029313 -0.1380186915 0.1002322213
235298590.0 -0.1516956884 0.0935264768 0.4960852779 -0.2502181855 0.496196593 -0.2500884485 -0.1368807688 0.1017180939
240298560.0 -0.1510638692 0.0949930848 0.493648426 -0.256167612 0.4934351082 -0.2559200571 -0.135979248 0.1034319223
245298530.0 -0.1502295541 0.0962555243 0.4909512985 -0.2620524971 0.4909122781 -0.2619445197 -0.1348752992 0.1037378527
250298500.0 -0.1492848804 0.0976624081 0.4873803485 -0.2676869462 0.4872261614 -0.2672090386 -0.1340286295 0.1056596503
255298470.0 -0.1485296531 0.0988769356 0.4842213135 -0.2726628225 0.4846373534 -0.272857501 -0.1329487538 0.1069431787
260298440.0 -0.1482762085 0.0999161408 0.4816859109 -0.2786906567 0.4820056405 -0.2786222669 -0.1318315301 0.1082698868
265298410.0 -0.1466557661 0.1016416847 0.4790164521 -0.2839462409 0.4791572877 -0.2838791223 -0.130512087 0.1096545185
270298380.0 -0.1460022589 0.1029618239 0.4759365934 -0.2891430323 0.4759820914 -0.2894278522 -0.1297391038 0.1110334631
275298350.0 -0.1447003764 0.1045894368 0.4726972314 -0.2951393791 0.4729299965 -0.2946365451 -0.1283387426 0.1122023005
280298320.0 -0.1437486847 0.105823155 0.4695371116 -0.3002661865 0.4699607043 -0.3002406908 -0.127091732 0.1136217861
285298290.0 -0.1428881265 0.1072053338 0.4664424063 -0.3055693713 0.4662029587 -0.3057494851 -0.1261280653 0.1147566512
290298260.0 -0.1419029362 0.1086184134 0.463002477 -0.3108584901 0.4628820016 -0.3108901537 -0.1244788723 0.116559618
295298230.0 -0.140852001 0.1095502772 0.4599196341 -0.3161599981 0.459816105 -0.3160699575 -0.1229114514 0.1174636106
300298200.0 -0.1402551193 0.1110266503 0.4567380018 -0.3208633514 0.4565817188 -0.3215163748 -0.1219330249 0.1185754899
305298170.0 -0.1388840491 0.1120090523 0.4525307706 -0.3263425881 0.4524924505 -0.3266480235 -0.1199281589 0.1201437168
310298140.0 -0.1380330157 0.1135290387 0.4489491534 -0.3313837133 0.4491018929 -0.3313745964 -0.118736547 0.1212160632
315298110.0 -0.1371965697 0.1145083047 0.4453600598 -0.3368590988 0.4455871639 -0.3368773202 -0.1177448317 0.1224603662
320298080.0 -0.1358756957 0.1158620793 0.4416042722 -0.342063597 0.4421224601 -0.3420249168 -0.1162923574 0.1241333281
325298050.0 -0.1349524218 0.1171527536 0.4376849858 -0.34733399 0.4374755526 -0.3468522133 -0.1156706867 0.1251327693
330298020.0 -0.1341092392 0.1183477631 0.4338185931 -0.3517856376 0.4338310785 -0.3521490814 -0.1141718913 0.1263117208
335297990.0 -0.1331087662 0.1191062934 0.4295686946 -0.3569865176 0.4297633385 -0.3569150183 -0.1132071582 0.1282467226
340297960.0 -0.1324671965 0.1209341964 0.4253454567 -0.3614946073 0.4254491996 -0.3616574303 -0.1113515474 0.1293768958
345297930.0 -0.131530552 0.1227086472 0.4214873346 -0.3665481146 0.4212200819 -0.3667738535 -0.1103351613 0.1306150695
350297900.0 -0.1305388143 0.1236635867 0.4170213444 -0.3712109536 0.4172972098 -0.3709217513 -0.1094293475 0.1325593581
355297870.0 -0.1291814106 0.1256610946 0.4133925322 -0.3756845815 0.4135493952 -0.3756169812 -0.1080800161 0.1340103041
360297840.0 -0.1282769612 0.1266779928 0.409642898 -0.3795358309 0.4096186004 -0.3796290901 -0.1067023112 0.135367459
365297810.0 -0.1272599462 0.1280412798 0.4047009054 -0.3847254439 0.4052997072 -0.3846574912 -0.1051576298 0.1368174161
370297780.0 -0.1255629694 0.1293330366 0.4001879259 -0.3888482397 0.4011846696 -0.3885965737 -0.1035480759 0.138031947
375297750.0 -0.1245503936 0.1305377869 0.3963732253 -0.3933411539 0.3965165857 -0.3933237986 -0.1023203175 0.1392366779
380297720.0 -0.1234050882 0.1320833071 0.391852085 -0.3977834802 0.392424014 -0.3972219338 -0.1012292159 0.1407432461
385297690.0 -0.1226311555 0.1334343575 0.3874672848 -0.4019621985 0.3874684128 -0.4020511434 -0.099410257 0.1422284304
390297660.0 -0.1211763641 0.1349069234 0.383260698 -0.4064328566 0.3832009965 -0.405713075 -0.0983502447 0.1432739282
395297630.0 -0.119870605 0.1361852692 0.3788429259 -0.4102143253 0.3789631216 -0.4106714469 -0.0965399092 0.1447108857
400297600.0 -0.1187905644 0.1375971895 0.3742791508 -0.4152129669 0.3741746385 -0.4147144592 -0.0950124033 0.1458798101
405297570.0 -0.1175301621 0.1387893922 0.3694151813 -0.4184477207 0.3697992441 -0.4180644975 -0.0939075 0.1468609645
410297540.0 -0.1158002296 0.1399431867 0.3650784733 -0.4224963275 0.3652462314 -0.4228443287 -0.0921153017 0.1481496955
415297510.0 -0.1145444555 0.1412859259 0.3602299877 -0.4270562363 0.3607782754 -0.4269975248 -0.0905488122 0.1496037522
420297480.0 -0.1131937703 0.1429394549 0.3555595497 -0.4308531183 0.3555409458 -0.4307459185 -0.089203582 0.1498090833
425297450.0 -0.1119476337 0.1436204621 0.350694949 -0.434330634 0.3513165038 -0.4346059689 -0.0879292108 0.1518391914
430297420.0 -0.1108197806 0.1446656904 0.346130559 -0.4376942118 0.34615527 -0.4380766218 -0.0861366032 0.1522433935
435297390.0 -0.1093199795 0.1460030627 0.3408621142 -0.4418734737 0.3411097756 -0.4418693844 -0.0839745969 0.1532596622
440297360.0 -0.1080382288 0.1472719488 0.3366220391 -0.4455482154 0.3363149708 -0.4457332304 -0.0826629353 0.1544441607
445297330.0 -0.1066790056 0.1480403673 0.3318713572 -0.449254443 0.3316227504 -0.4487310528 -0.0808810348 0.1548942359
450297300.0 -0.1050385935 0.1493239481 0.3266827117 -0.452496712 0.3268161538 -0.4531802513 -0.0789998543 0.1560731
455297270.0 -0.1036593785 0.1506622444 0.3214497499 -0.4563004348 0.3218637027 -0.4567062227 -0.0775470686 0.1570888281
460297240.0 -0.1025098752 0.1516211148 0.3166493403 -0.4597192347 0.3168862567 -0.4599570668 -0.0754665359 0.1583904546
465297210.0 -0.1007750251 0.1529606492 0.3117974273 -0.4629305865 0.3115028692 -0.4637626874 -0.0737252772 0.158748962
470297180.0 -0.0994149486 0.1538256355 0.3062185174 -0.4664206421 0.3064765154 -0.4670524106 -0.0721542575 0.160246532
475297150.0 -0.09801094 0.1546436307 0.300948752 -0.4696607806 0.3012694454 -0.4696715119 -0.069886402 0.1605402403
480297120.0 -0.0964296075 0.1560756827 0.2961898151 -0.4733109282 0.2956207436 -0.4734264351 -0.068002681 0.1619634343
485297090.0 -0.0949001552 0.1572841914 0.2912152939 -0.4762516158 0.2915078559 -0.4762421512 -0.0664464162 0.1627119382
490297060.0 -0.0938933557 0.1579877826 0.2865230886 -0.4795098909 0.2860105381 -0.4795348997 -0.0642062334 0.1638975115
495297030.0 -0.0919272205 0.1591712098 0.2805422612 -0.4823335664 0.280896445 -0.4825081655 -0.0625034752 0.1646984875
500297000.0 -0.0903730825 0.1600439906 0.2753599794 -0.4853780213 0.2748850015 -0.4854021361 -0.0605593281 0.166085637
505296970.0 -0.0886904608 0.1610609365 0.2700315491 -0.4885204236 0.2698179648 -0.4885002977 -0.0591078726 0.1665240421
510296940.0 -0.0874293478 0.1622543201 0.2644160708 -0.4914685857 0.2647212855 -0.4917664436 -0.0569207102 0.1676277618
515296910.0 -0.085827929 0.1628293195 0.2590638154 -0.4940969174 0.2592421079 -0.4941900128 -0.0553164138 0.16816971
520296880.0 -0.0844212912 0.1641231494 0.2539321994 -0.4973237597 0.2539906694 -0.4969155092 -0.0531104738 0.1686222752
525296850.0 -0.0824605418 0.1645933942 0.2481297563 -0.499499097 0.2488334967 -0.4993993532 -0.0514314246 0.1700756494
530296820.0 -0.0810963818 0.1659855132 0.2427890205 -0.5023314708 0.2428660214 -0.5023048092 -0.0494135391 0.1705773819
535296790.0 -0.0797393172 0.1671604115 0.2382084372 -0.5044818516 0.2378031828 -0.5044816991 -0.0478818854 0.1711341443
540296760.0 -0.0781424944 0.1680128015 0.2321275718 -0.5076391468 0.2319589963 -0.5075438168 -0.0460717552 0.1724020962
545296730.0 -0.0766070668 0.168712775 0.2261580768 -0.5094258655 0.2266948308 -0.509707352 -0.0443388835 0.1728045056
550296700.0 -0.0744366275 0.1697751988 0.2210154871 -0.5122096196 0.220932631 -0.5128038598 -0.0424289505 0.1738205324
555296670.0 -0.0729441389 0.1704584646 0.2153839839 -0.514419729 0.2153918598 -0.5147227308 -0.0403637888 0.1745369865
560296640.0 -0.0710690908 0.1716051029 0.2098235535 -0.5172449619 0.2096668724 -0.5169989857 -0.0384914949 0.1750710905
565296610.0 -0.0698421484 0.1726668813 0.2039323304 -0.5193008553 0.2041508259 -0.5191590111 -0.0368419874 0.175230644
570296580.0 -0.0679953052 0.1733089871 0.1985719577 -0.5218451122 0.1980317111 -0.5212750443 -0.0349723264 0.1764842195
575296550.0 -0.0667643534 0.1741846461 0.1927382632 -0.5238380719 0.1925036787 -0.5236421887 -0.0327895635 0.1766740255
580296520.0 -0.0645351407 0.1749222921 0.1870570529 -0.5254566125 0.1871609186 -0.5254365656 -0.030905033 0.1770099994
585296490.0 -0.06309079 0.175127739 0.1816456536 -0.527058056 0.1814594293 -0.5276429366 -0.0289490165 0.1777123324
590296460.0 -0.0610145836 0.1763891268 0.1758498433 -0.5290989447 0.1757162117 -0.5295157668 -0.0276958358 0.1780385256
595296430.0 -0.059240101 0.1770071173 0.1693575463 -0.5315012367 0.1696260011 -0.5315081321 -0.0253841374 0.1780822778
600296400.0 -0.0580059783 0.1774245712 0.164401714 -0.5332235579 0.1640042897 -0.5327217288 -0.0236972471 0.1787495161
605296370.0 -0.0563745841 0.1784814676 0.1579701624 -0.5348273497 0.1583624961 -0.5346514658 -0.021398239 0.1787372347
610296340.0 -0.0542124034 0.178826356 0.1520379795 -0.5359864257 0.1526642322 -0.5362074402 -0.0191709502 0.1789478527
615296310.0 -0.0521541144 0.1794885878 0.1464471914 -0.5375781547 0.1464352746 -0.5382321043 -0.01728694 0.1794360009
620296280.0 -0.0507459918 0.180009374 0.1407223011 -0.5394910077 0.1406874624 -0.539345202 -0.0155170652 0.1796420939
625296250.0 -0.0495561934 0.1804860081 0.1355444627 -0.540929064 0.1344890482 -0.5412238708 -0.0127969863 0.1799637804
630296220.0 -0.0465421849 0.1814307279 0.1287128278 -0.5423727072 0.1284918586 -0.5421137404 -0.011141849 0.1804405377
635296190.0 -0.045927235 0.181685883 0.1233684517 -0.5435794965 0.1233694742 -0.5433154016 -0.0090693217 0.1806145386
640296160.0 -0.0441740254 0.1822404383 0.1171784997 -0.5443860012 0.1175599453 -0.5448642776 -0.0071083612 0.1806856572
645296130.0 -0.0422472119 0.1831264639 0.1115245585 -0.5455974552 0.112110434 -0.5464689595 -0.0050889744 0.1809552756
650296100.0 -0.0403535357 0.1835204337 0.1053863329 -0.5471765872 0.1055380719 -0.5471813765 -0.002526405 0.1807843422
655296070.0 -0.0389211084 0.1838235347 0.1001340513 -0.5482167779 0.0996740028 -0.5483844945 -0.000216743 0.1814061598
660296040.0 -0.0372439275 0.1842014375 0.0937815059 -0.5493248113 0.0938521308 -0.5492618091 0.001867127 0.1815865013
665296010.0 -0.0350073906 0.1848765496 0.0877927978 -0.5502297739 0.087787565 -0.5505029005 0.003912465 0.1819720907
670295980.0 -0.033952443 0.1855288391 0.0821004861 -0.5507978624 0.0817890548 -0.5510831882 0.0053671178 0.18207527
675295950.0 -0.0318295253 0.1859316387 0.0762724663 -0.5517495216 0.0760856677 -0.5514071171 0.0073734987 0.1822208931
680295920.0 -0.0298714024 0.186075093 0.0700246189 -0.55241814 0.0694982017 -0.5531040921 0.0094486463 0.1826441337
685295890.0 -0.0278433918 0.1874263492 0.0640464256 -0.5534461837 0.0639516785 -0.5536849103 0.0117303858 0.1825998579
690295860.0 -0.0259913738 0.1875057836 0.0578833285 -0.5537041534 0.0579073634 -0.5543387592 0.0133653463 0.183024624
695295830.0 -0.0242563261 0.1873825861 0.0522912602 -0.5545731834 0.0518253909 -0.5541527992 0.0156557669 0.1832374069
700295800.0 -0.0222775445 0.1877568026 0.0461541252 -0.5546934051 0.0456346015 -0.5550187655 0.0176913094 0.1836176361
705295770.0 -0.0208721755 0.1888307895 0.0397176275 -0.5556370902 0.0402521701 -0.5554248191 0.0195003048 0.1831117816
710295740.0 -0.0187330671 0.1891519166 0.0343143081 -0.5562858445 0.0344499709 -0.5561945236 0.0217746062 0.1826462198
715295710.0 -0.0174898573 0.1888351629 0.0284275032 -0.5562726192 0.0280966346 -0.5560103302 0.0235270466 0.182856891
720295680.0 -0.0151608245 0.189626351 0.0218352106 -0.5567753484 0.0223101106 -0.5565512091 0.02561751 0.1831949792
725295650.0 -0.0133240306 0.1900096092 0.0160271687 -0.556591751 0.016096717 -0.5567418911 0.0271831095 0.1831545621
730295620.0 -0.0114878403 0.190374975 0.0099247282 -0.5568751472 0.0100452017 -0.556729294 0.0291652012 0.182767701
735295590.0 -0.0093624555 0.1904449392 0.0041053179 -0.5569852797 0.003801682 -0.556512443 0.0310073979 0.1821420988
740295560.0 -0.0080762309 0.1905695039 -0.0016875102 -0.5567964615 -0.001729578 -0.5567561147 0.0335514963 0.1822779215
745295530.0 -0.0060380094 0.1909166681 -0.0077135784 -0.556319072 -0.0082308191 -0.5567133231 0.0352744081 0.1817338307
750295500.0 -0.0038670264 0.191144698 -0.0136653382 -0.5561614159 -0.0139071858 -0.5567445495 0.0371995971 0.181459342
755295470.0 -0.0021530487 0.1909922386 -0.0197253849 -0.5561691194 -0.0197921431 -0.5561208226 0.0397490194 0.1811287645
760295440.0 -0.0003968913 0.1914718031 -0.02596241 -0.5563073755 -0.0261012548 -0.5562485006 0.04113906 0.1808515608
765295410.0 0.0016319736 0.1915461504 -0.031973724 -0.5554929019 -0.032332574 -0.5558975523 0.0434391746 0.1807494402
770295380.0 0.0029976164 0.19178016 -0.038151065 -0.5553410794 -0.0381076436 -0.5553389609 0.0450608396 0.1799628913
775295350.0 0.0049749033 0.191397639 -0.0440699751 -0.5543730171 -0.0435397973 -0.5543165399 0.0467622758 0.1801460457
780295320.0 0.0072912074 0.1915646069 -0.0501040469 -0.5534545089 -0.0495646534 -0.5536555104 0.0488751653 0.1788769699
785295290.0 0.0085914073 0.1912955312 -0.055927954 -0.552846224 -0.055839591 -0.5536775537 0.051396027 0.1787190284
790295260.0 0.011033383 0.1920910319 -0.0614388139 -0.5528474882 -0.0611424236 -0.552744999 0.0532952268 0.1784399897
795295230.0 0.0125465334 0.1915266511 -0.0677120243 -0.5517523102 -0.0673719595 -0.5519981985 0.0555044249 0.177931293
800295200.0 0.0141468656 0.1920122195 -0.0739601135 -0.5510756946 -0.0738039855 -0.5511542985 0.0572048584 0.1773556282
805295170.0 0.0164432164 0.1916446693 -0.0799359851 -0.5501446594 -0.0796474606 -0.5505820272 0.059188101 0.1770308936
810295140.0 0.017889919 0.1912765422 -0.0848948617 -0.5494864145 -0.0851892698 -0.5495983768 0.0617902252 0.1765972008
815295110.0 0.0198483313 0.1911180072 -0.0913046224 -0.5481603787 -0.0912394028 -0.5485552095 0.0634459729 0.1759952724
820295080.0 0.021472577 0.1917293415 -0.096699271 -0.5472984228 -0.0969337802 -0.5475007729 0.065764357 0.1753447407
825295050.0 0.0242629285 0.1912727127 -0.1028704544 -0.545876407 -0.103237678 -0.5463601637 0.0678534253 0.1745395137
830295020.0 0.0252143798 0.1913891641 -0.1090478533 -0.5450972367 -0.1088785355 -0.5451991272 0.0701500371 0.1742122319
