!Created with skrf (http://scikit-rf.org).
# Hz S RI R 50.0 
!freq ReS11 ImS11 ReS21 ImS21 ReS12 ImS12 ReS22 ImS22
300000.0 -0.7796489924 -0.1393752492 0.0010101324 0.0025742542 -0.0010727925 0.0021148334 -0.7652788226 -0.1606649222
5299970.0 -0.7853709593 -0.0072191778 -1.65172e-05 -4.13559e-05 6.1107e-06 -7.45029e-05 -0.7851985483 -0.0087146413
10299940.0 -0.787544071 -0.0040950743 -5.91749e-05 -7.26901e-05 2.27053e-05 -2.11841e-05 -0.7886997563 -0.0047730354
15299910.0 -0.7931848662 -0.0015200362 8.21247e-05 -7.75562e-05 -0.0001316896 6.67018e-05 -0.7936603731 -0.0031592564
20299880.0 -0.7995613443 0.001846862 -2.31681e-05 -4.50465e-05 -0.0001860849 -1.84746e-05 -0.8002506013 0.001345591
25299850.0 -0.8063898915 0.0082230423 0.0001902253 0.0002486499 -7.44103e-05 -5.22075e-05 -0.8070124834 0.0072800077
30299820.0 -0.8113898024 0.0159875084 0.0002339502 9.97972e-05 -9.72293e-05 -0.0001380666 -0.8127297344 0.0148411754
35299790.0 -0.8167527728 0.025287482 -4.621e-06 2.3858e-06 -3.34496e-05 0.0001414002 -0.8177650587 0.0240897287
40299760.0 -0.8214108481 0.0338666118 0.00010572 8.61394e-05 7.5388e-06 -9.34505e-05 -0.8219068956 0.0330127143
45299730.0 -0.8245896362 0.0441234663 0.0001111261 3.80905e-05 -4.90655e-05 0.0001139867 -0.8257359319 0.04250333
50299700.0 -0.8267654 0.054387402 7.45916e-05 -8.57488e-05 9.98222e-05 8.62674e-05 -0.8277476345 0.0526397624
55299670.0 -0.8288216696 0.0645232877 -3.27215e-05 -0.0001074017 -7.7063e-06 2.0493e-05 -0.8298429283 0.0630476923
60299640.0 -0.8298249806 0.0744547451 -1.58386e-05 0.0001169655 0.0001261386 5.17172e-05 -0.8311352856 0.0730605996
65299610.0 -0.8311004751 0.0847548046 -5.19976e-05 5.1949e-05 -7.58234e-05 -5.68453e-05 -0.8314579164 0.0829758162
70299580.0 -0.831223519 0.0947754172 -0.0002116308 -0.0001151298 7.2272e-06 -0.0001200012 -0.8324711324 0.0925143767
75299550.0 -0.8313789613 0.1051581947 -9.80188e-05 -7.70732e-05 -3.3953e-05 5.28677e-05 -0.83283413 0.1023869998
80299520.0 -0.8312871109 0.1140704323 -5.01723e-05 5.35189e-05 0.0001455202 5.95274e-05 -0.8320852654 0.1119380334
85299490.0 -0.830533473 0.1234956893 4.98887e-05 4.7493e-05 1.2093e-06 -0.0001202511 -0.8317523976 0.1217874632
90299460.0 -0.8299464709 0.1339255295 1.422e-06 -8.35248e-05 -8.44059e-05 -9.27522e-05 -0.8307313967 0.1311736506
95299430.0 -0.828892773 0.1436277057 -0.0002302164 -0.0002032374 -5.38186e-05 5.57388e-05 -0.829808155 0.1414352469
100299400.0 -0.82765616 0.1527909001 3.97307e-05 4.9581e-05 -6.8985e-06 4.7452e-06 -0.8288943442 0.1493768224
105299370.0 -0.8264905104 0.1621480463 -7.99619e-05 -6.86317e-05 -0.0002388511 -5.87227e-05 -0.8270584964 0.158689589
110299340.0 -0.8252141441 0.1709785075 -1.42237e-05 -2.2081e-06 -0.0001910979 9.16961e-05 -0.8265259184 0.1681170589
115299310.0 -0.8235086001 0.1803937321 3.97085e-05 -0.0001395244 2.56632e-05 1.12977e-05 -0.8243795108 0.1771423715
120299280.0 -0.8218225526 0.1896058987 1.47156e-05 -0.0001631204 -3.18268e-05 -5.27729e-05 -0.8233340934 0.1862092007
125299250.0 -0.8203581011 0.1981751835 0.0002284849 -8.65632e-05 0.0001981258 8.48918e-05 -0.821912312 0.195417327
130299220.0 -0.8181305562 0.2077023131 -0.0002133385 -3.52308e-05 6.3238e-05 4.26538e-05 -0.8194304112 0.2037414298
135299190.0 -0.8170275004 0.2163351092 -0.0002581961 -7.65368e-05 -7.16964e-05 2.65679e-05 -0.8178891227 0.2127822316
140299160.0 -0.8140988928 0.2258106532 -0.0002819509 -6.408e-05 -2.59948e-05 -8.1021e-06 -0.8155917364 0.2215328947
145299130.0 -0.8121446111 0.2343328322 8.61642e-05 0.0001263304 3.5248e-05 0.0002665459 -0.8134431924 0.229935361
150299100.0 -0.809821525 0.2426494693 -6.0576e-05 -8.10151e-05 6.24639e-05 0.0001405567 -0.8116160715 0.238207959
155299070.0 -0.8078803194 0.2525206812 -0.0001103088 1.41914e-05 -5.38898e-05 3.27506e-05 -0.809251289 0.2475557689
160299040.0 -0.8049669758 0.2608638028 7.35493e-05 -0.0002177011 0.0001527665 -9.35786e-05 -0.8072399884 0.2567373743
165299010.0 -0.8019288073 0.2691585163 -5.38838e-05 1.84565e-05 8.08046e-05 -1.12081e-05 -0.8042626825 0.2648651343
170298980.0 -0.7991815773 0.278005435 -7.4303e-06 -6.76105e-05 6.756e-07 0.0001583424 -0.8016134 0.2734496
175298950.0 -0.7964129165 0.2872303533 0.0001973739 -1.1155e-05 -0.0001200385 0.000168214 -0.7984127692 0.2819227752
180298920.0 -0.7937609197 0.2951394573 -4.76758e-05 0.000138725 7.65018e-05 -4.17007e-05 -0.7956650737 0.2903259915
185298890.0 -0.790637724 0.3041936221 4.7209e-06 3.31254e-05 3.14935e-05 -8.73194e-05 -0.7931707059 0.297965006
190298860.0 -0.787350756 0.3124547387 7.4968e-06 3.11825e-05 4.7452e-06 -0.0001079078 -0.7900337865 0.3073435789
195298830.0 -0.7837654938 0.3212829889 6.15012e-05 -9.77632e-05 0.0001223608 0.0001218203 -0.7867086255 0.3156494988
200298800.0 -0.7808172211 0.3289538822 3.07027e-05 -5.8036e-06 -3.91704e-05 6.7982e-05 -0.7834810892 0.323936331
205298770.0 -0.7770603934 0.3373896535 7.9188e-05 -2.88572e-05 -2.02705e-05 9.27878e-05 -0.7802104519 0.3320298775
210298740.0 -0.7736787255 0.3457315612 0.0001010422 -0.0001896162 -4.37762e-05 -6.63998e-05 -0.7762182499 0.340764769
215298710.0 -0.7705079676 0.3545153412 8.52821e-05 -8.38554e-05 -0.0001534252 -0.0001063629 -0.773403129 0.3485882786
220298680.0 -0.7670225325 0.3625781556 3.24771e-05 4.83776e-05 -8.14239e-05 -0.0001114662 -0.7694929787 0.3570984992
225298650.0 -0.7632338124 0.3704907385 -4.07564e-05 0.0001153073 0.0001877566 0.0001707978 -0.7659462995 0.3648659637
230298620.0 -0.758296428 0.3788123079 -4.61747e-05 -0.0003604612 2.72209e-05 -0.0001311847 -0.7614488972 0.3725221116
235298590.0 -0.7542760291 0.387323901 -4.02391e-05 7.46864e-05 -6.97592e-05 -9.12569e-05 -0.7579745362 0.3803793685
240298560.0 -0.7507603823 0.394995642 0.0003406927 0.0002032549 5.15924e-05 0.0001655815 -0.7541590426 0.3886539321
245298530.0 -0.7462547803 0.4026672289 -0.0003583773 2.3279e-06 0.000159151 0.0003103814 -0.7502090257 0.3964569584
250298500.0 -0.7425310721 0.4106979216 5.39474e-05 0.0002236085 -0.0002424277 -9.88004e-05 -0.7455653266 0.4051452694
255298470.0 -0.7374353772 0.4187277759 -5.63566e-05 9.61363e-05 -8.77977e-05 0.0001397446 -0.7416498798 0.4125108421
260298440.0 -0.7336830469 0.4263365679 -0.0001132953 -5.34127e-05 5.44212e-05 -0.0001381701 -0.7371981115 0.4199735445
265298410.0 -0.7292046565 0.4341374305 3.73308e-05 -2.66698e-05 -0.0001448817 4.81581e-05 -0.7325780211 0.4277031559
270298380.0 -0.7243998559 0.4418122121 7.26428e-05 0.0001676178 0.0002443202 -0.0001924959 -0.7281725807 0.4353376826
275298350.0 -0.7195046028 0.4491329114 4.02068e-05 -6.2155e-06 4.98658e-05 -0.0001230502 -0.7229976325 0.4429073511
280298320.0 -0.7149557367 0.456339882 -0.0001705542 -8.81066e-05 4.36277e-05 -1.45062e-05 -0.7183755526 0.450361878
285298290.0 -0.7103226408 0.4641850077 -7.85009e-05 3.31134e-05 9.1888e-06 0.0001032831 -0.7137586397 0.4574730262
290298260.0 -0.7056584313 0.4713359639 -0.0001907776 -3.8914e-06 -5.02625e-05 0.0001006623 -0.7090035227 0.4657543051
295298230.0 -0.7002989 0.4792267045 -4.18354e-05 -3.37673e-05 0.0001867623 -0.0001380879 -0.7042065424 0.4730180746
300298200.0 -0.6945854559 0.4865899152 -0.0001480801 -0.0001486996 0.0001173721 -0.000152477 -0.6990602752 0.4799854322
305298170.0 -0.6897911291 0.4940120988 -0.0001966351 -7.33458e-05 2.30706e-05 1.4132e-06 -0.6937252993 0.487715913
310298140.0 -0.684580888 0.5005284254 8.69648e-05 0.0001315485 -7.24131e-05 -8.43655e-05 -0.6890822429 0.4949214122
315298110.0 -0.679267686 0.5081687749 0.0001166724 -4.3695e-05 0.0001104026 8.95527e-05 -0.6829283487 0.5022824875
320298080.0 -0.6742232995 0.5158097129 -0.0001801999 -0.0003232438 0.0002472754 -2.28401e-05 -0.6779400123 0.5090684419
325298050.0 -0.6685956592 0.5222244328 -0.0001916546 -1.26593e-05 0.0003190139 -4.42738e-05 -0.6724277522 0.5164079686
330298020.0 -0.6627727602 0.5293405946 7.5162e-06 -0.0001202426 2.68324e-05 8.05825e-05 -0.6670756113 0.5229813373
335297990.0 -0.6572266699 0.5362932738 0.0001602735 5.9898e-05 -0.000222988 9.2924e-06 -0.6618996063 0.5297209806
340297960.0 -0.6521785185 0.5428345312 4.30934e-05 0.0001748273 -3.4373e-05 -6.80723e-05 -0.6558179448 0.5372703091
345297930.0 -0.6460466892 0.5483471876 -0.0002822808 0.0001073343 1.90503e-05 -0.0001916167 -0.6503800895 0.5437114158
350297900.0 -0.6400658988 0.5560713748 9.05269e-05 -1.89026e-05 -0.0001382338 0.0001090339 -0.6442888936 0.5504279699
355297870.0 -0.6340165567 0.5626674005 -0.0002468714 3.95828e-05 7.96139e-05 7.97583e-05 -0.6382305997 0.5569231282
360297840.0 -0.6282009691 0.5686395031 4.7732e-05 -0.0001305463 -0.0001036733 -4.36335e-05 -0.63257208 0.5633083728
365297810.0 -0.6223031818 0.5757688966 6.68387e-05 7.87462e-05 -0.000142127 -3.28774e-05 -0.6261815871 0.5709273639
370297780.0 -0.6160222982 0.5815638699 0.0001650303 -2.01328e-05 -1.35526e-05 1.93514e-05 -0.6213029341 0.5766028106
375297750.0 -0.6103556167 0.5881749045 9.63868e-05 3.9785e-05 1.47281e-05 -1.60642e-05 -0.6143909494 0.5832974317
380297720.0 -0.6038815812 0.5951555777 -7.4297e-05 -4.99217e-05 4.87361e-05 0.0002721392 -0.6079967137 0.5899866939
385297690.0 -0.5978605591 0.6007876947 0.000228599 -0.0001163633 -0.0001897361 1.32198e-05 -0.6015030898 0.5962492103
390297660.0 -0.5912570562 0.6072080438 3.63421e-05 -6.24287e-05 -3.06868e-05 7.27789e-05 -0.5954730125 0.6016829529
395297630.0 -0.5851063231 0.6132402322 -0.0001400735 -0.0001996616 0.0002364915 -8.77776e-05 -0.5893199076 0.6084937154
400297600.0 -0.5787073182 0.6193485637 0.0001018943 3.15612e-05 -4.96983e-05 1.6261e-06 -0.5838699886 0.6137132906
405297570.0 -0.57256315 0.6252300064 1.04781e-05 3.55909e-05 -2.15693e-05 2.03958e-05 -0.5773336781 0.6197756907
410297540.0 -0.5652726069 0.6306831707 4.63504e-05 2.58825e-05 6.04566e-05 -8.26899e-05 -0.5698833816 0.6251133476
415297510.0 -0.5593585964 0.6364409925 0.000175978 -0.0001250871 9.1804e-06 3.49516e-05 -0.5639702336 0.6322717413
420297480.0 -0.5517801992 0.6420491667 -0.0001988544 -7.7583e-05 0.0001302822 7.01033e-05 -0.5572486168 0.6364918089
425297450.0 -0.5450130955 0.6482078814 0.0002549366 4.02615e-05 0.000114931 0.0001599699 -0.5502167212 0.6431053887
430297420.0 -0.5396729333 0.6531997329 -4.6383e-06 -0.0001275606 -0.0001015777 -1.33863e-05 -0.5442173052 0.6488038956
435297390.0 -0.5322404555 0.6592647954 0.0001112916 -0.0001208433 -1.6483e-05 -3.15428e-05 -0.537263317 0.6535306401
440297360.0 -0.5252560816 0.6640831678 8.3921e-06 -0.0001477063 0.0001976196 2.68883e-05 -0.5305728832 0.6586935784
445297330.0 -0.518282438 0.6696259409 0.0001911347 0.0001929437 -3.01358e-05 -0.0001190527 -0.5241521899 0.6642759535
450297300.0 -0.5111581371 0.6750095512 5.73232e-05 0.0001473608 0.0002586531 9.33546e-05 -0.5169801264 0.6699161095
455297270.0 -0.5042818674 0.6798651782 -0.0001062624 -0.0001313528 8.35441e-05 -0.000124924 -0.5098376865 0.6752777429
460297240.0 -0.4969486754 0.6855328842 9.25653e-05 0.0001246105 -0.0001607126 8.98777e-05 -0.5030161431 0.6800803189
465297210.0 -0.4902320718 0.689945985 -0.0001302163 -0.0001829176 0.0002061193 0.0001852949 -0.4964725917 0.6845737389
470297180.0 -0.4828474401 0.6947252454 -8.51645e-05 0.0001240305 0.0001226067 -9.76271e-05 -0.4898456333 0.6896128569
475297150.0 -0.4757010775 0.7001871703 -2.57696e-05 -3.19601e-05 -0.0001174387 0.0002065336 -0.4823760953 0.6944010749
480297120.0 -0.4691381023 0.7047226654 0.0001468347 0.0001425278 -2.67977e-05 7.97688e-05 -0.4754302689 0.7000809379
485297090.0 -0.4611995188 0.7091824334 0.000110057 4.31488e-05 -2.68555e-05 -0.0001881781 -0.4680428275 0.7039677074
490297060.0 -0.4541097643 0.7142099112 9.56729e-05 -7.44432e-05 -3.95631e-05 -0.0001161919 -0.4611818601 0.7083099036
495297030.0 -0.4469751114 0.7190837477 -2.81585e-05 -6.0195e-05 -2.09249e-05 2.34277e-05 -0.4537813808 0.7129410696
500297000.0 -0.4385126943 0.7238204612 -6.35877e-05 2.08652e-05 0.000310208 2.65815e-05 -0.4467314786 0.7178341134
505296970.0 -0.4312896204 0.7270665935 -4.82947e-05 0.0001058651 -0.0001926569 8.24442e-05 -0.4405327737 0.722078933
510296940.0 -0.4244230031 0.7319582037 -0.0001979898 -0.0001026134 3.13982e-05 -0.0001051661 -0.4321253461 0.7264545703
515296910.0 -0.4170744882 0.7362866691 3.38936e-05 6.43571e-05 -3.06335e-05 6.40615e-05 -0.4248645068 0.7306635019
520296880.0 -0.4092538456 0.7404341122 5.5988e-06 -8.83899e-05 -0.000221233 -4.68964e-05 -0.4178470792 0.734838327
525296850.0 -0.4022801993 0.7444206238 -5.00037e-05 9.00179e-05 0.0001468827 4.5175e-05 -0.4101455101 0.7397256027
530296820.0 -0.3944061003 0.7479109732 5.0818e-06 0.0002430179 -4.44336e-05 5.12334e-05 -0.4035261899 0.742894653
535296790.0 -0.3858766945 0.7529049092 -9.29711e-05 -2.52436e-05 -0.0002350234 -0.0003404985 -0.3959757371 0.7467087289
540296760.0 -0.3782935801 0.7558447587 0.0001038211 0.0001288589 0.0001146812 5.67601e-05 -0.3882978852 0.7510103262
545296730.0 -0.3709428716 0.7595565263 0.0001663884 -1.11464e-05 -0.0002345206 7.73909e-05 -0.3811711 0.7541577161
550296700.0 -0.3635160049 0.76366941 8.29014e-05 0.0001223149 8.8926e-06 -7.3544e-05 -0.3734491948 0.7581249962
555296670.0 -0.3546919197 0.7671416401 0.0002308315 0.0001106433 -3.7561e-05 7.86985e-05 -0.3659448875 0.7616090008
560296640.0 -0.3471142383 0.7709345786 7.60678e-05 -7.05977e-05 -6.35731e-05 -0.0001071571 -0.3578041399 0.7653857265
565296610.0 -0.3398509771 0.773696098 -4.2355e-06 0.0001566096 -0.0002275507 9.33007e-05 -0.3504647972 0.7689157841
570296580.0 -0.3317404616 0.7771259451 -2.4369e-05 9.07914e-05 1.79837e-05 2.7968e-06 -0.3429920353 0.7726224588
575296550.0 -0.3237799535 0.7807455573 -0.0001215519 0.0001443983 5.54226e-05 -7.32563e-05 -0.3349903503 0.7755473968
580296520.0 -0.3155481955 0.7838848101 0.0002196693 0.0001514752 7.65697e-05 -1.83755e-05 -0.3275940246 0.7792857326
585296490.0 -0.3074617746 0.786507175 -8.9814e-06 -0.0001842639 0.0001441936 -9.06776e-05 -0.3196763137 0.7818452529
590296460.0 -0.2997128812 0.789984928 0.0001490107 -9.73381e-05 -0.0002079972 -5.91166e-05 -0.3118462976 0.7846596898
595296430.0 -0.2911331427 0.7931045199 0.000123615 0.0001834442 -8.90783e-05 -1.21912e-05 -0.304131661 0.7873187674
600296400.0 -0.2837485607 0.7954033159 -3.88233e-05 1.31594e-05 -0.0001988371 8.5126e-06 -0.2960620441 0.7914053363
605296370.0 -0.2753475315 0.7987415879 -1.82082e-05 -6.46054e-05 -0.0001630492 -2.7939e-05 -0.288428191 0.7944881248
610296340.0 -0.2672809122 0.8013858112 6.33163e-05 -4.61801e-05 0.0001274446 -0.0001741141 -0.2803369416 0.7968502988
615296310.0 -0.2590076171 0.8041220408 0.0002380864 0.0001059097 4.36223e-05 7.50478e-05 -0.2729939739 0.7997784164
620296280.0 -0.2509428185 0.8061705719 -0.0002022383 2.3761e-06 6.50262e-05 -4.27556e-05 -0.2646805935 0.8019425409
625296250.0 -0.2428271323 0.8091607281 1.98865e-05 0.0001792564 7.5925e-06 5.76972e-05 -0.2566755635 0.8045201369
630296220.0 -0.2341493055 0.8116351906 -0.0001026318 -3.86568e-05 0.0001158044 0.0001745797 -0.2483547586 0.8070664967
635296190.0 -0.2261912158 0.8136501765 -6.75592e-05 2.866e-05 9.56635e-05 2.07052e-05 -0.2410323798 0.8092563725
640296160.0 -0.2174780643 0.8149459178 -7.78653e-05 -9.6616e-06 3.46231e-05 0.0002759234 -0.2319883337 0.8113585681
645296130.0 -0.2098445187 0.8177522292 -6.29176e-05 0.0001000462 -9.52385e-05 -6.49302e-05 -0.2255504852 0.8139476803
650296100.0 -0.2014621994 0.8195001621 0.0002026163 -0.0001106932 5.68119e-05 9.12499e-05 -0.2169606821 0.816892596
655296070.0 -0.1930374798 0.8221158403 -0.0002302423 2.80331e-05 -0.0001830349 -0.0001074956 -0.2083503989 0.8184577732
660296040.0 -0.185189544 0.8242031754 -0.0001085896 5.7297e-05 8.44519e-05 -0.0001167857 -0.2004580944 0.8205207898
665296010.0 -0.1770800213 0.8256777436 -0.0002890662 3.05734e-05 2.06266e-05 -0.0001394439 -0.1928097408 0.8220894594
670295980.0 -0.1680220176 0.827186675 -7.42772e-05 6.87667e-05 8.05191e-05 0.0001848653 -0.1853149438 0.8239220888
675295950.0 -0.1598788938 0.828262498 5.1187e-05 3.17029e-05 -3.30401e-05 -8.49943e-05 -0.1763042875 0.8260988209
680295920.0 -0.1518752993 0.830786333 0.0001047776 -3.13769e-05 0.000169994 -0.0001701519 -0.1685342704 0.8275076083
685295890.0 -0.1431017246 0.8318266379 -2.75214e-05 4.66161e-05 6.0943e-06 4.6243e-05 -0.1601438552 0.8296041077
690295860.0 -0.1344656648 0.8330682392 -7.23377e-05 8.09618e-05 7.11597e-05 0.000102371 -0.1516472055 0.8304920734
695295830.0 -0.1262117371 0.8343551186 9.19451e-05 -4.559e-05 2.503e-05 -6.5566e-06 -0.1434293772 0.8326516228
700295800.0 -0.1176811396 0.8351738466 -0.0001119201 0.0001103922 0.0001227248 -8.95112e-05 -0.1349001413 0.8333454333
705295770.0 -0.1090209645 0.8373034854 0.000109427 2.38953e-05 2.38649e-05 -5.74895e-05 -0.1270554003 0.8346202735
710295740.0 -0.1013084924 0.8380670321 9.85136e-05 5.9719e-06 0.000128379 -0.000154839 -0.1193522313 0.8366547815
715295710.0 -0.0932104451 0.8387846829 -0.0001320725 -8.53647e-05 7.61931e-05 -0.0001093427 -0.1108700878 0.8377625119
720295680.0 -0.0845198639 0.8397944023 7.18042e-05 -4.79863e-05 1.33663e-05 -1.14302e-05 -0.1024127543 0.8382205453
725295650.0 -0.075026144 0.8412135001 -0.0001754662 -0.0002750829 3.35715e-05 1.69327e-05 -0.0939589401 0.8394978684
730295620.0 -0.0674009417 0.841071653 0.0001134267 4.29087e-05 -1.65286e-05 0.0001043229 -0.0852978419 0.8405064784
735295590.0 -0.0583241933 0.8415791401 -1.1052e-05 -4.996e-05 0.0001118007 6.288e-06 -0.0768609646 0.8407270222
740295560.0 -0.0499516882 0.8423147818 2.60651e-05 2.84375e-05 -7.3734e-06 0.0001841313 -0.0690983787 0.8414370311
745295530.0 -0.0418991042 0.8426016391 2.306e-07 0.0001781848 -0.0001236306 -8.4939e-06 -0.0612192927 0.8421122766
750295500.0 -0.0338424295 0.8430077634 -5.25648e-05 8.03773e-05 -0.0001237994 1.39387e-05 -0.0528664646 0.8423721929
755295470.0 -0.0243668199 0.8431538506 -4.34033e-05 0.0001083606 7.24054e-05 -7.73647e-05 -0.0445866356 0.8436082192
760295440.0 -0.0161919663 0.8437907177 -0.0001525319 -7.3303e-06 -1.39128e-05 -0.0001149363 -0.0365960833 0.8443560849
765295410.0 -0.0079422532 0.8431541961 -8.57596e-05 -3.63678e-05 -4.90279e-05 -0.0002441386 -0.0273094967 0.8442907416
770295380.0 0.0003635109 0.843939214 -4.66908e-05 -6.31361e-05 4.41705e-05 1.567e-07 -0.0191304931 0.844050171
775295350.0 0.0085389461 0.8442360726 8.29229e-05 -0.0001277724 6.83843e-05 -4.73408e-05 -0.0115875886 0.8442688379
780295320.0 0.0173667344 0.8432169591 -0.0001327413 1.16859e-05 -7.76202e-05 0.0001158984 -0.0031179429 0.8445144443
785295290.0 0.0257729435 0.8434638425 -0.0001651824 0.0002061321 9.9938e-06 0.0001147138 0.0051310677 0.8444253539
790295260.0 0.0346207759 0.8430939203 -2.55471e-05 1.3911e-05 2.5257e-06 0.0002330727 0.0139968397 0.8444284954
795295230.0 0.0430053816 0.8432515478 -1.34865e-05 2.62263e-05 -9.07851e-05 3.84129e-05 0.0223445767 0.8443901594
800295200.0 0.0514455511 0.8423713716 -2.96505e-05 -3.18805e-05 5.83238e-05 3.32812e-05 0.0301493509 0.8439000637
805295170.0 0.0594525347 0.8416383786 9.04014e-05 0.0001983087 -2.16735e-05 0.000108816 0.0387393702 0.8428716139
810295140.0 0.0684729862 0.8415147292 0.0002190189 6.87994e-05 -0.0001686135 3.51161e-05 0.046978252 0.8443869267
815295110.0 0.0768718838 0.8404000916 9.72673e-05 9.42243e-05 0.0001731171 -0.0001070712 0.0551427437 0.843122709
820295080.0 0.0850062679 0.838657963 -0.00023041 0.0002062439 5.11838e-05 0.0001170514 0.0626717037 0.8423855702
825295050.0 0.0938890871 0.8381720402 0.0002227027 -0.0001768407 -3.01576e-05 -0.0002012491 0.0715828159 0.8420308705
830295020.0 0.1020858583 0.837777534 -0.0001749135 6.10939e-05 0.0001529739 0.0001233813 0.0788946039 0.8406150433
835294990.0 0.1095196737 0.8369285256 -0.000106554 0.000132535 2.67485e-05 -5.38061e-05 0.0878120155 0.839941513
840294960.0 0.1186726031 0.8353839263 -1.04327e-05 0.0001667194 8.03029e-05 -0.0001040618 0.0959825762 0.8394789852
845294930.0 0.1270887864 0.8343760168 3.61188e-05 -0.0001654308 0.0001214925 -5.22287e-05 0.1045396009 0.8381151561
850294900.0 0.1347504418 0.832390081 0.0001952679 -2.9904e-06 -0.0001212471 -0.000181656 0.1129681459 0.8372744177
