!Created with skrf (http://scikit-rf.org).
# Hz S RI R 50.0 
!freq ReS11 ImS11 ReS21 ImS21 ReS12 ImS12 ReS22 ImS22
300000.0 -0.2355591415 -0.119110869 0.4651769665 0.077904542 0.4638851276 0.0785993578 -0.2336654955 -0.1243265229
5299970.0 -0.2448600455 0.0052015007 0.4734647594 0.0060664649 0.4741819198 0.0058326367 -0.2436877124 0.0053064962
10299940.0 -0.2417921355 0.0185078747 0.4760321898 0.0070586427 0.4758665838 0.0074171217 -0.2400732106 0.0180166025
15299910.0 -0.2368807837 0.0282428167 0.479598297 0.0082858771 0.4798207306 0.0085126343 -0.2361391689 0.0277012856
20299880.0 -0.2318815301 0.0362800416 0.4841202391 0.0082116194 0.4845195 0.0088438323 -0.2313873314 0.0352618743
25299850.0 -0.2256386812 0.0428413715 0.4896441134 0.0081355018 0.4897838042 0.0075869346 -0.2263823283 0.0417912566
30299820.0 -0.2203192016 0.0476727775 0.4951467962 0.0055827523 0.4950061835 0.0055131532 -0.2207929653 0.0469118921
35299790.0 -0.2142490486 0.0517131371 0.5000059998 0.0026298936 0.5002520701 0.0024090482 -0.2158847002 0.0514640208
40299760.0 -0.2091980267 0.0546427629 0.5055261077 -0.0017589898 0.505692862 -0.0014091879 -0.2105932561 0.0546666424
45299730.0 -0.2041425167 0.0571481711 0.5101494399 -0.0060583053 0.5108766184 -0.006365667 -0.2057542619 0.0574479296
50299700.0 -0.1991480086 0.0589560423 0.5146799071 -0.0116443085 0.5143820632 -0.0120197124 -0.2013941819 0.0600434828
55299670.0 -0.1949755987 0.0601771918 0.5181593776 -0.0172219403 0.5180351646 -0.0175584128 -0.1975703029 0.0617804436
60299640.0 -0.1905408977 0.0615864941 0.5216454684 -0.0238166818 0.5217238206 -0.024037495 -0.1934599398 0.0633383561
65299610.0 -0.1873316044 0.062696965 0.5248690461 -0.0299115427 0.5249405368 -0.0303631358 -0.1902511205 0.0646346168
70299580.0 -0.1839154814 0.0631078731 0.5274073879 -0.0366324791 0.5273141758 -0.0369396674 -0.187225074 0.0657787202
75299550.0 -0.1811404082 0.0639190257 0.5287890736 -0.0439432787 0.529130103 -0.043901486 -0.1841681097 0.0669119202
80299520.0 -0.1782741868 0.0644970658 0.5310307823 -0.0507392311 0.5313959902 -0.0509964881 -0.1816393705 0.0679516165
85299490.0 -0.175840867 0.0647915979 0.5321572137 -0.058003509 0.532426073 -0.0577772452 -0.1792333933 0.0686649629
90299460.0 -0.1736491401 0.0654094983 0.5334489601 -0.0644437222 0.5333433327 -0.0645754121 -0.1767475833 0.0696976089
95299430.0 -0.1714084435 0.0659143741 0.5339089925 -0.0715362071 0.5347986245 -0.0715213408 -0.1750244268 0.0706728001
100299400.0 -0.1693707406 0.0660534595 0.5344693241 -0.0782887856 0.5344864741 -0.0783522323 -0.172851517 0.0720383082
105299370.0 -0.167686536 0.0666153314 0.5347522804 -0.0851880412 0.5354658422 -0.085525356 -0.1709042642 0.072216796
110299340.0 -0.1658173991 0.0668073466 0.5351092533 -0.0916132676 0.5353592274 -0.0917058756 -0.1700532734 0.07310394
115299310.0 -0.1646836082 0.0676406731 0.5349650211 -0.098619611 0.5354531563 -0.0987440666 -0.1684181075 0.0746165084
120299280.0 -0.1633803882 0.0682368519 0.5354059927 -0.1060500588 0.5347161886 -0.105947837 -0.1669197835 0.0748398223
125299250.0 -0.1615798545 0.0685083145 0.5345804474 -0.1125060418 0.5346919407 -0.1123555715 -0.1651806381 0.0760747962
130299220.0 -0.1608434439 0.0692483008 0.5341382768 -0.1192789916 0.5338987074 -0.1196525416 -0.1640121913 0.0770141703
135299190.0 -0.1596148736 0.0702325213 0.5337420301 -0.1257144032 0.5337786379 -0.126103472 -0.1630108574 0.0776040872
140299160.0 -0.1586152306 0.0708677445 0.5329097891 -0.1329702479 0.5329113564 -0.1323491526 -0.1622944482 0.0788847829
145299130.0 -0.1578520848 0.0716378841 0.5317018922 -0.1390474661 0.5317973733 -0.1389754131 -0.1607839481 0.0799096137
150299100.0 -0.1566701632 0.0726833327 0.5305689473 -0.1460900019 0.530568515 -0.1456820805 -0.1597497125 0.0812195741
155299070.0 -0.1555052555 0.0731244358 0.5288113088 -0.152161829 0.5294236971 -0.1520941018 -0.1589706597 0.0822474855
160299040.0 -0.1547063941 0.0746120578 0.5278827953 -0.1589890751 0.5279711033 -0.1588936379 -0.157743295 0.0835910048
165299010.0 -0.1537235181 0.0751805371 0.5269585322 -0.1649711245 0.5265817747 -0.1655840593 -0.1567645518 0.0847573115
170298980.0 -0.1530750291 0.0765377587 0.5247101528 -0.1715292802 0.525086489 -0.1714052398 -0.1562694779 0.0857425629
175298950.0 -0.1521464269 0.0772741379 0.5235275948 -0.1775726174 0.5240311868 -0.178000631 -0.155141586 0.0873159027
180298920.0 -0.1516130938 0.0783982694 0.5215804941 -0.1843582759 0.5216999431 -0.1841186957 -0.1540682613 0.0883936237
185298890.0 -0.1509363639 0.0795032882 0.5201771449 -0.1902259558 0.519751077 -0.190165688 -0.1528265598 0.0896345669
190298860.0 -0.1496076287 0.0810720682 0.5176695777 -0.1965899707 0.5182549206 -0.196383073 -0.1520430375 0.0909227921
195298830.0 -0.1491406297 0.0819194049 0.5162058218 -0.2025985642 0.5162253537 -0.2024850579 -0.1512702941 0.092382707
200298800.0 -0.1480701843 0.0827657575 0.5139776188 -0.2091735132 0.5143315909 -0.2087973119 -0.150103679 0.0936387494
205298770.0 -0.1477515255 0.0839333497 0.5116698545 -0.2144197621 0.5120261599 -0.2143634738 -0.1492955637 0.0950913336
210298740.0 -0.1467843559 0.0855178194 0.5096946386 -0.2207654171 0.5092333696 -0.2210710752 -0.1484372046 0.0960576348
215298710.0 -0.1461692268 0.0866879558 0.5069829048 -0.2265302918 0.5072030424 -0.2267670283 -0.1475401497 0.0976778104
220298680.0 -0.1451383051 0.0878150036 0.504451823 -0.2327803965 0.5045492584 -0.2326006632 -0.14639288 0.0992251594
225298650.0 -0.1445817439 0.0889510426 0.5016684862 -0.2382025752 0.5025440087 -0.2383915919 -0.1454123365 0.100616804
230298620.0 -0.1437072975 0.0906098687 0.4999985693 -0.2446459576 0.5002784095 -0.2441418581 -0.1448439756 0.1017392658
235298590.0 -0.1433212173 0.091735653 0.4973133912 -0.2502307287 0.4973009135 -0.2500279683 -0.1434143856 0.103376354
240298560.0 -0.1423641338 0.0930644311 0.4944771292 -0.2555190756 0.4941921423 -0.2557206632 -0.1424846394 0.1044748159
245298530.0 -0.1415530153 0.0941739068 0.491566029 -0.2613771729 0.4917298359 -0.26183901 -0.1413447001 0.1063161778
250298500.0 -0.1408485341 0.0952788003 0.4887182724 -0.2666179535 0.4889930172 -0.2668558697 -0.1407248009 0.1080026799
255298470.0 -0.1397087198 0.097065394 0.4858553043 -0.2723737513 0.4865595846 -0.2727866067 -0.1393635016 0.1095221933
260298440.0 -0.1389712931 0.0979825403 0.483187216 -0.2777651978 0.4833500478 -0.2779104672 -0.1384393369 0.1103649936
265298410.0 -0.1383751325 0.0994751919 0.4795564161 -0.2836552865 0.4799193513 -0.2841985604 -0.1365364914 0.1116921254
270298380.0 -0.1379025018 0.1007696585 0.4767531398 -0.2886944235 0.477049329 -0.2891273334 -0.1357266685 0.1134496135
275298350.0 -0.1366184143 0.1025226067 0.473282474 -0.2941563242 0.4737817922 -0.2943753602 -0.1347992542 0.114837499
280298320.0 -0.1360125185 0.103554641 0.4706622561 -0.2993180858 0.4708928122 -0.2998373332 -0.1335310569 0.1164368224
285298290.0 -0.1352497657 0.1049861224 0.4669980048 -0.3050667054 0.4676785112 -0.3054353972 -0.1325788125 0.1179118659
290298260.0 -0.1344228185 0.1066501503 0.4645143192 -0.3102421383 0.464255306 -0.3105630864 -0.131357911 0.1194315479
295298230.0 -0.1332886902 0.1074090483 0.4606132748 -0.3158791149 0.4607662252 -0.316144019 -0.1297983956 0.1204134953
300298200.0 -0.1324240257 0.1091372039 0.4576788248 -0.3206632185 0.4574438267 -0.3208820491 -0.1285627734 0.1218737295
305298170.0 -0.1315222336 0.1102099869 0.4541083813 -0.3263650638 0.4545306613 -0.3261330097 -0.1276326832 0.1230475971
310298140.0 -0.13016364 0.1112329335 0.4502469954 -0.3315065752 0.4509213356 -0.3312676794 -0.1257473708 0.1243901048
315298110.0 -0.1298347349 0.112345771 0.4468631795 -0.3366284263 0.4466461961 -0.3367797601 -0.1247688643 0.1257335056
320298080.0 -0.128689661 0.1138446573 0.442424421 -0.341777466 0.4433907459 -0.3418604505 -0.1238323487 0.1271213516
325298050.0 -0.1282298014 0.1144782561 0.4392971237 -0.3465393042 0.4395980591 -0.3469596749 -0.1223577505 0.1284775137
330298020.0 -0.1277092238 0.1159154705 0.4350089491 -0.3517861239 0.4356195814 -0.3520539136 -0.1213436596 0.1293467417
335297990.0 -0.1266532571 0.117167305 0.4314154952 -0.3566562537 0.4315981865 -0.3568682451 -0.1200194428 0.130925515
340297960.0 -0.1257825124 0.1187649259 0.4269046114 -0.3618314863 0.4271119271 -0.3614968699 -0.1187458013 0.1325021755
345297930.0 -0.1251408193 0.1198462403 0.4228957891 -0.3662157843 0.4232331808 -0.3664323209 -0.1173269288 0.1341012357
350297900.0 -0.1242972787 0.1210222453 0.4193123618 -0.3704446587 0.4195899542 -0.3705240084 -0.1161203073 0.1350448249
355297870.0 -0.1231371155 0.1226811133 0.4152074841 -0.3748009304 0.4153296417 -0.3747641801 -0.1144837285 0.1365165611
360297840.0 -0.1221300037 0.1238583958 0.4106229795 -0.3799089787 0.4108232326 -0.3802670768 -0.1134848171 0.1381099819
365297810.0 -0.121299091 0.1252870768 0.4065107714 -0.3843950006 0.4065083246 -0.3844944145 -0.1124751601 0.1393537395
370297780.0 -0.1203325255 0.1265960196 0.4018538581 -0.3888409419 0.4023493621 -0.3888992838 -0.1105249283 0.1406293963
375297750.0 -0.1190203006 0.1279451184 0.3979758196 -0.3934242126 0.3979810916 -0.3931508462 -0.1089719399 0.1420556118
380297720.0 -0.1181370093 0.1292934074 0.3942101538 -0.3980152976 0.3935547358 -0.3980576412 -0.1072916395 0.1438334895
385297690.0 -0.1169666745 0.1302540429 0.3891614644 -0.4018336832 0.3893069673 -0.4023574042 -0.1058399524 0.1450645408
390297660.0 -0.115660158 0.1312990974 0.3846299255 -0.4057281921 0.3849346374 -0.4060591592 -0.1043139598 0.1461018117
395297630.0 -0.1144807505 0.1328854629 0.3805951048 -0.4098167477 0.3803903655 -0.4100770707 -0.1031091598 0.1472644108
400297600.0 -0.1133143814 0.1337612669 0.3758514562 -0.4143831355 0.3763584668 -0.414770477 -0.1013608647 0.1490133065
405297570.0 -0.1121607858 0.1347001292 0.3715935846 -0.4184984955 0.3715840502 -0.4186451383 -0.0994653346 0.1502838416
410297540.0 -0.1111349861 0.1364690608 0.3672150401 -0.4230775335 0.366600787 -0.4225053723 -0.0977856386 0.1515437066
415297510.0 -0.110051403 0.1375667458 0.3623167357 -0.4267538218 0.3624532024 -0.4269853544 -0.0960573814 0.1529528299
420297480.0 -0.1086478758 0.1382887236 0.3573810273 -0.430650796 0.3576616058 -0.4307085774 -0.094517378 0.1538118613
425297450.0 -0.1071066711 0.1393497434 0.3526961279 -0.4345806339 0.3525244096 -0.434557707 -0.0928426138 0.1549096548
430297420.0 -0.1062550253 0.1407107163 0.348184195 -0.4386215056 0.3483458614 -0.4380705782 -0.0910212646 0.1561453267
435297390.0 -0.1047465282 0.141636163 0.3432097243 -0.4425422995 0.343196889 -0.442318091 -0.0896880737 0.1578353445
440297360.0 -0.1034875114 0.1427410851 0.3379124899 -0.4458566695 0.3379967429 -0.446281721 -0.0877108663 0.1588555038
445297330.0 -0.101812185 0.1434278398 0.3333433269 -0.4492852643 0.333527787 -0.4497903725 -0.0860832771 0.1599447317
450297300.0 -0.1007826587 0.1446413275 0.3285463258 -0.4528368477 0.3287220391 -0.453083349 -0.0840350897 0.160833391
455297270.0 -0.0997759108 0.1458436841 0.3235967621 -0.4567960165 0.3236629306 -0.4568099693 -0.0822914027 0.1617366892
460297240.0 -0.0979760193 0.1468835638 0.3185301754 -0.4608384331 0.3186376009 -0.4604469786 -0.0805971122 0.1628970237
465297210.0 -0.0963469734 0.147945924 0.3131570153 -0.4639049971 0.3130152452 -0.4637506873 -0.0785602368 0.1643980226
470297180.0 -0.0951043126 0.1489594793 0.308131004 -0.466747566 0.3085027319 -0.4670105751 -0.076709345 0.1650125752
475297150.0 -0.0938858746 0.1500535434 0.3032803378 -0.4703021156 0.3034962093 -0.4703919612 -0.075026593 0.1661016123
480297120.0 -0.0919528568 0.1512425763 0.2977844783 -0.4736119378 0.2980411122 -0.4738006075 -0.0732273642 0.1670598619
485297090.0 -0.0904212169 0.1516741376 0.2927766592 -0.4768743083 0.2928477571 -0.4768023572 -0.0715840707 0.1681569855
490297060.0 -0.088676781 0.1530149851 0.2871336844 -0.4803526509 0.2876974044 -0.4801423628 -0.0696585312 0.1686726357
495297030.0 -0.0876487034 0.1535907015 0.2823760116 -0.4832357402 0.2825772491 -0.483302502 -0.0672200814 0.1697095409
500297000.0 -0.0862045867 0.1550903579 0.27722481 -0.4861333198 0.27720746 -0.4864247287 -0.0654916458 0.171160765
505296970.0 -0.0841340983 0.1559225083 0.2717932152 -0.4892152439 0.2718691338 -0.4888690534 -0.0634898774 0.171362801
510296940.0 -0.0828576367 0.1565011788 0.2665869881 -0.4925724365 0.266892039 -0.4924657552 -0.0611788194 0.1726041545
515296910.0 -0.0814180841 0.1579569309 0.2608830371 -0.4952310563 0.2606023844 -0.4949988339 -0.0598619512 0.1728990831
520296880.0 -0.0796811038 0.1587272963 0.2552559618 -0.4976977583 0.2552410433 -0.4976798048 -0.0573636293 0.1740398732
525296850.0 -0.0778506468 0.1593838723 0.2498275538 -0.5001505149 0.2499527984 -0.5003482951 -0.0555843033 0.1746221769
530296820.0 -0.0766353372 0.1603759957 0.2443753838 -0.5033955247 0.24460843 -0.5033076558 -0.053606019 0.1753070439
535296790.0 -0.0744063744 0.1613078725 0.2390916046 -0.5056635557 0.2390658219 -0.5057081453 -0.0513158645 0.1762618734
540296760.0 -0.0729432067 0.1622145961 0.2333944106 -0.5085614153 0.2332056263 -0.5081246481 -0.049426864 0.1767437886
545296730.0 -0.0714909532 0.1633478974 0.2280426158 -0.5104597567 0.2278718577 -0.5103775616 -0.0476392295 0.1773165057
550296700.0 -0.069451194 0.1640074219 0.222236523 -0.5131891674 0.2221552318 -0.5135383465 -0.0458711345 0.1780159916
555296670.0 -0.0679064898 0.164812954 0.21666561 -0.5157961267 0.2169122803 -0.5155188893 -0.0435593998 0.1783225416
560296640.0 -0.0658739711 0.1654113281 0.2108188494 -0.518134291 0.2114311526 -0.5182222674 -0.0417204503 0.1794933732
565296610.0 -0.064904664 0.1663448944 0.2060337572 -0.520241938 0.2057315555 -0.5197259179 -0.039503158 0.1802862134
570296580.0 -0.0631104219 0.1674584122 0.1995887103 -0.5221926902 0.199819482 -0.5222785869 -0.0378024243 0.180400645
575296550.0 -0.061152612 0.1679515172 0.1946259417 -0.5244309888 0.1937101762 -0.524483378 -0.0354164625 0.1811695503
580296520.0 -0.059382958 0.1690950958 0.188388672 -0.5264361132 0.1885983751 -0.5264555141 -0.0337549995 0.181541394
585296490.0 -0.057630789 0.1697199424 0.1833198912 -0.5284197096 0.1824323234 -0.5284712209 -0.0311759877 0.1822684362
590296460.0 -0.0554415533 0.1704089724 0.1767856695 -0.5305156988 0.1769092176 -0.5309039988 -0.0296521458 0.1828568071
595296430.0 -0.0539329912 0.1711925034 0.1705185006 -0.5320432614 0.17062803 -0.5321719569 -0.0272280455 0.1828131204
600296400.0 -0.0520992737 0.1718174639 0.1648901091 -0.5335528998 0.1651961082 -0.5339761231 -0.0252009999 0.1835079762
605296370.0 -0.0508430195 0.1727244708 0.1597625315 -0.5355215436 0.1589606207 -0.5361064903 -0.0230716127 0.1839063016
610296340.0 -0.0485008203 0.1738708856 0.1539267872 -0.536914882 0.153981842 -0.5374204466 -0.0214672376 0.1843360958
615296310.0 -0.0467458169 0.1744377677 0.1480296297 -0.5389506922 0.1473824537 -0.5388479806 -0.0190661511 0.1846757449
620296280.0 -0.0454332784 0.1752656155 0.1421163688 -0.5405655397 0.1419785587 -0.5402708201 -0.0174096665 0.1853603659
625296250.0 -0.0437829043 0.1755255215 0.1361371639 -0.542137572 0.1360435183 -0.5419385115 -0.0152546046 0.1851652806
630296220.0 -0.0416112189 0.1765566378 0.1298647091 -0.5434800035 0.1300309627 -0.5432834405 -0.0131463782 0.1855911029
635296190.0 -0.0403466333 0.1773744927 0.1245812761 -0.544636722 0.1242363536 -0.5445432205 -0.0108571579 0.1856667571
640296160.0 -0.0382438331 0.1776246077 0.1186451744 -0.5457996373 0.1181260081 -0.546063551 -0.0089297418 0.1860454349
645296130.0 -0.0362117996 0.1787633658 0.1121834509 -0.54736928 0.1122487947 -0.5468927193 -0.0071276322 0.1861024456
650296100.0 -0.0345748538 0.1789840382 0.1068033722 -0.5482925355 0.1063740026 -0.5489424665 -0.0044022348 0.1864874707
655296070.0 -0.0328897194 0.1797272764 0.0999384944 -0.5497723676 0.1004204251 -0.5491234252 -0.0032551244 0.1865983132
660296040.0 -0.030984056 0.1801630552 0.0945894125 -0.5508362344 0.0944923408 -0.5507415642 -0.0003101249 0.1866933046
665296010.0 -0.0294039885 0.1809875188 0.0879537723 -0.5510233194 0.088166727 -0.5511792743 0.0013076403 0.18690447
670295980.0 -0.0275758032 0.1813563968 0.0822191119 -0.5522734253 0.0823085507 -0.5519778326 0.0029725988 0.1868197231
675295950.0 -0.0259900122 0.1819278921 0.076706624 -0.553072541 0.0767429822 -0.5530854242 0.0054127581 0.1873526462
680295920.0 -0.0243444544 0.1828010411 0.0711530196 -0.5541250676 0.0706531498 -0.5538910803 0.0077589211 0.1870039388
685295890.0 -0.0221476435 0.1833644008 0.0647242601 -0.5547597886 0.0647746243 -0.5548735429 0.009648529 0.187685651
690295860.0 -0.0205763467 0.183542548 0.0587848488 -0.5548230622 0.0583597892 -0.5552523258 0.0116596812 0.1874814407
695295830.0 -0.01859952 0.1837939359 0.0531023144 -0.5558195871 0.0528197791 -0.5557544749 0.0136587538 0.1874902325
700295800.0 -0.0166854308 0.1846845375 0.0472693412 -0.5561987867 0.0470785846 -0.5563997392 0.0157770167 0.1873985088
705295770.0 -0.0155317545 0.1848237302 0.0412045165 -0.5569123291 0.0407298674 -0.5566889122 0.0179977775 0.1874849731
710295740.0 -0.0136148565 0.1851539427 0.0346947409 -0.5571084518 0.0344915338 -0.557551843 0.0202018855 0.1876136269
715295710.0 -0.0118639158 0.1859772406 0.0289754195 -0.5576373605 0.0286290935 -0.5573679988 0.0221931086 0.1873652778
720295680.0 -0.0096845117 0.1864194631 0.0223526022 -0.5573036643 0.0224349929 -0.558095691 0.0240508538 0.1872586928
725295650.0 -0.0082491883 0.1868396809 0.0170368637 -0.558028918 0.0171972332 -0.5581530526 0.0255858845 0.1873137991
730295620.0 -0.0075361238 0.1867849732 0.0109861043 -0.557428331 0.0106929443 -0.5573249789 0.0279772609 0.1876922915
735295590.0 -0.0050054472 0.1872546287 0.0049449326 -0.5581660118 0.0046737651 -0.5581180261 0.030127851 0.186822117
740295560.0 -0.0033667939 0.1873545487 -0.0013506354 -0.558131308 -0.0009804162 -0.5583040789 0.0321409742 0.1870753311
745295530.0 -0.0017492789 0.1877727874 -0.0070143663 -0.5573698496 -0.0063252627 -0.5578372591 0.0337322708 0.1864818693
750295500.0 -3.19765e-05 0.1880178649 -0.012694087 -0.5577135448 -0.0132023837 -0.5575472912 0.0359184283 0.1864274091
755295470.0 0.0015339594 0.1881501441 -0.0186424591 -0.5576777101 -0.0192326505 -0.5580085628 0.038157152 0.1865729847
760295440.0 0.0036072803 0.1889921003 -0.0252825633 -0.5574885079 -0.0249978041 -0.5569291773 0.040287871 0.185532648
765295410.0 0.0053188965 0.1886485458 -0.0307742924 -0.5567995316 -0.0309487192 -0.5571143322 0.0423636302 0.1856428275
770295380.0 0.0069736266 0.1892499779 -0.0369315163 -0.5564258468 -0.0369549544 -0.5570020934 0.0440936581 0.1853599573
775295350.0 0.0089105442 0.1891067381 -0.0426032202 -0.5561802445 -0.042854301 -0.5556840172 0.0467086255 0.1851067832
780295320.0 0.0102768524 0.1893718415 -0.0487561514 -0.5552115555 -0.0487010579 -0.5557667983 0.0487167611 0.1844765896
785295290.0 0.0121593716 0.1892990953 -0.0547852807 -0.5549006333 -0.0547100113 -0.5551161283 0.0501619497 0.1846445326
790295260.0 0.0138986156 0.189166864 -0.060636004 -0.554307147 -0.060529299 -0.5549882556 0.0519117053 0.1845254275
795295230.0 0.0155578949 0.1891845879 -0.0666476031 -0.5540034649 -0.0667733298 -0.5538454013 0.0545043216 0.1831820042
800295200.0 0.0169120316 0.1896959629 -0.0719977784 -0.5525716392 -0.0724524053 -0.5535123595 0.0561270843 0.1832796867
805295170.0 0.0189131119 0.1897593927 -0.0783820977 -0.5519791483 -0.0783847356 -0.55240922 0.0589574578 0.1827005702
810295140.0 0.0206470315 0.1897535083 -0.0841072068 -0.5509289362 -0.0845093757 -0.5512187845 0.0604734874 0.1821636485
815295110.0 0.0223406092 0.1898355965 -0.0903141205 -0.5502584082 -0.0901863428 -0.5501766068 0.0624637677 0.1816469532
820295080.0 0.0241573888 0.1897924393 -0.0958258357 -0.5491960016 -0.0958702923 -0.5492535013 0.0637315375 0.181696571
825295050.0 0.0255657436 0.1895935606 -0.1017258448 -0.548134067 -0.1020971655 -0.5481916344 0.0667060197 0.1812338156
830295020.0 0.0276772006 0.1893270249 -0.1079327973 -0.5471438388 -0.1077841116 -0.5471180723 0.0682080666 0.1799013739
