!Created with skrf (http://scikit-rf.org).
# Hz S RI R 50.0 
!freq ReS11 ImS11 ReS21 ImS21 ReS12 ImS12 ReS22 ImS22
300000.0 -0.0436923416 -0.0591130107 -0.0009896147 0.0023804485 1.19198e-05 -0.0012057341 -0.7720511379 -0.1729338334
5299970.0 -0.0450306836 0.0158384162 3.62902e-05 -7.50002e-05 2.95195e-05 3.1168e-06 -0.7851300461 -0.0089210702
10299940.0 -0.0390241232 0.0334648362 -0.0001173802 -9.5481e-06 -7.62633e-05 3.63186e-05 -0.7881144953 -0.005133732
15299910.0 -0.0308669043 0.0480651132 0.0001478537 -0.0001016234 0.0001351526 -0.0001529315 -0.7942006248 -0.0029341849
20299880.0 -0.0205017247 0.0599605015 -3.0985e-06 -3.43417e-05 -0.0001129254 -3.76274e-05 -0.8004859632 0.0016284236
25299850.0 -0.0093075542 0.0691613127 0.0001395871 -0.000181429 -6.02942e-05 0.0001048773 -0.8068913204 0.0073748323
30299820.0 0.0024979383 0.0759538296 0.0001452202 0.000196508 0.0001085251 -5.81122e-05 -0.8127488992 0.014965159
35299790.0 0.0144479268 0.0809664873 -0.000106921 -7.49325e-05 6.41294e-05 3.30533e-05 -0.8179663117 0.0240839115
40299760.0 0.0257274054 0.0834985244 -7.53884e-05 7.066e-05 5.35278e-05 -2.72504e-05 -0.8217813377 0.0334575863
45299730.0 0.0365212527 0.0853162198 0.0001402804 -8.0459e-05 0.0001225164 -3.59834e-05 -0.8254699785 0.0425178512
50299700.0 0.0466282706 0.0850239323 1.70333e-05 0.0001114143 -0.0002209918 -0.0001117807 -0.8278639865 0.0525735951
55299670.0 0.0557816111 0.0842091923 8.39608e-05 4.41276e-05 -0.0001196208 0.0002082967 -0.8297135917 0.0630865207
60299640.0 0.0643774909 0.0820930945 0.0002060971 0.000245756 6.42732e-05 9.36363e-05 -0.8310190163 0.0731060007
65299610.0 0.0723217387 0.0800607484 0.0001153323 -5.2348e-05 0.0002084595 0.0001163811 -0.8312885999 0.0827982011
70299580.0 0.0791271175 0.0767844979 -6.49881e-05 0.0001712596 4.93046e-05 3.56422e-05 -0.8324052844 0.0928552703
75299550.0 0.0857024746 0.0735363505 0.0002143008 2.42457e-05 2.49265e-05 0.0001299924 -0.8323687088 0.1027654547
80299520.0 0.0909388302 0.0702224767 8.07819e-05 4.75672e-05 0.0002651382 0.0003561137 -0.8321696137 0.1124478449
85299490.0 0.0964435891 0.0663660982 -6.78681e-05 0.0001243748 -7.94513e-05 3.6911e-06 -0.8317819234 0.1216507249
90299460.0 0.100679497 0.0628279679 4.9641e-06 0.0001698368 5.49704e-05 3.36676e-05 -0.830488062 0.1312565799
95299430.0 0.1049936794 0.0588497879 7.8002e-06 -3.08867e-05 6.65455e-05 -4.6062e-05 -0.8300406972 0.1411951801
100299400.0 0.1081574714 0.0552507827 -0.000109215 -0.0001344989 0.0001694534 -1.38065e-05 -0.8285206388 0.1492800276
105299370.0 0.1117094469 0.0511693909 4.5466e-06 -8.4539e-06 7.06696e-05 0.0001914731 -0.8278974376 0.1590518726
110299340.0 0.1145101022 0.0472748416 6.1034e-06 4.0154e-05 -2.17058e-05 5.70488e-05 -0.8269005377 0.1684663275
115299310.0 0.1172749265 0.0430346523 6.0448e-06 4.47446e-05 -0.0002077126 0.0001371405 -0.8246752243 0.1768294759
120299280.0 0.1192363968 0.0395105597 0.0001660688 -1.93346e-05 -6.93851e-05 6.51891e-05 -0.8232458339 0.1862696242
125299250.0 0.1209562985 0.0354950939 -8.00817e-05 2.02671e-05 0.0001755099 1.25796e-05 -0.8221985161 0.1954092424
130299220.0 0.1231349174 0.0322884871 0.0001466394 3.24889e-05 5.5998e-05 -0.0001613318 -0.8201830765 0.2041568487
135299190.0 0.1243957864 0.0284032622 9.05918e-05 5.01954e-05 -9.45108e-05 -0.0001505387 -0.8178642693 0.2124270103
140299160.0 0.126173491 0.0251724093 -7.4113e-06 -3.04705e-05 1.63008e-05 7.99839e-05 -0.8159527927 0.2214708409
145299130.0 0.1269019476 0.0216060645 -8.44591e-05 6.13543e-05 6.51718e-05 -2.90628e-05 -0.8137743909 0.2296943786
150299100.0 0.1277980866 0.0181722202 0.000100055 0.0002102294 -3.03256e-05 0.0001130673 -0.8116061581 0.2386933144
155299070.0 0.1284179558 0.0149533933 -0.0001236195 6.7781e-06 -1.63546e-05 0.0001564761 -0.809689223 0.2475222447
160299040.0 0.1294804801 0.0116303371 -0.000121667 8.55962e-05 0.0001168753 1.82488e-05 -0.8075423821 0.2569480191
165299010.0 0.1297664519 0.0086972218 0.0001997805 -1.56152e-05 8.8989e-06 0.0002023368 -0.8042068794 0.2649892644
170298980.0 0.1300956193 0.005421809 1.22193e-05 0.000174163 0.0001930661 1.61098e-05 -0.802142726 0.2736119759
175298950.0 0.1307691919 0.0029048936 1.52685e-05 0.0001495181 -1.70096e-05 0.0001822196 -0.7991955088 0.2820705654
180298920.0 0.1306370834 -0.0004577801 0.0002111778 0.0001882964 0.000205381 0.0001403929 -0.7956630612 0.2899763961
185298890.0 0.130747682 -0.0032029533 -2.41955e-05 0.0001560986 4.17199e-05 1.32046e-05 -0.7932607216 0.2982309926
190298860.0 0.1309767556 -0.0059623048 4.37795e-05 4.34956e-05 -1.01393e-05 0.000220421 -0.7895299976 0.3073198817
195298830.0 0.1312200757 -0.008731747 0.0001765183 0.0003085576 -1.90335e-05 0.000155441 -0.7871970388 0.3155388294
200298800.0 0.1307241575 -0.0113165763 -0.0001447922 7.87494e-05 2.72438e-05 0.0001885652 -0.7839295152 0.324089848
205298770.0 0.1308252508 -0.0142437423 0.0002078951 3.29918e-05 0.0001183547 0.0001194883 -0.7798527852 0.3323430148
210298740.0 0.1306070406 -0.0164859374 2.06739e-05 0.0003626673 2.04891e-05 0.000289893 -0.7769742806 0.3403919535
215298710.0 0.1301938663 -0.0188918886 0.0001290728 9.229e-05 -5.49603e-05 0.0001633506 -0.7734922279 0.3481643238
220298680.0 0.1298692628 -0.0215433543 1.80265e-05 0.0001460849 0.0001425944 -5.52419e-05 -0.7699052464 0.356740622
225298650.0 0.1295679932 -0.0238191782 0.0001888347 0.0001497703 -1.39682e-05 8.2398e-06 -0.7657781902 0.3643916803
230298620.0 0.1290047751 -0.0262202548 0.0001483019 -1.21905e-05 0.0001212605 4.76436e-05 -0.7616985507 0.3726777377
235298590.0 0.1282507277 -0.028719616 0.0001230638 0.0002232289 2.63022e-05 -8.364e-07 -0.7580318127 0.3804490395
240298560.0 0.1279446022 -0.0308057691 0.0001942132 6.08904e-05 8.63164e-05 0.0001010224 -0.7545323715 0.3885476619
245298530.0 0.1275127066 -0.032845174 5.66418e-05 0.0002179966 0.0003443375 0.0002928087 -0.7502874064 0.3968961414
250298500.0 0.1269565647 -0.0348511699 8.95666e-05 0.0003914429 -0.0001084834 7.56687e-05 -0.746470053 0.404372112
255298470.0 0.126187602 -0.0369370446 3.67748e-05 2.93542e-05 2.99662e-05 0.0001764871 -0.7417822086 0.4125284256
260298440.0 0.1256338888 -0.0388860571 -5.12443e-05 8.35971e-05 0.000217606 0.000183283 -0.7367422578 0.4198801609
265298410.0 0.124911885 -0.0412338396 -0.0001385763 -6.42219e-05 0.0002817737 0.0001703376 -0.7324465624 0.4274454301
270298380.0 0.1241583789 -0.0430755597 4.635e-05 0.0002636316 5.5501e-06 0.0002478128 -0.7279243297 0.435318895
275298350.0 0.1235977064 -0.0449733695 6.32531e-05 -5.77994e-05 -2.86654e-05 0.0002144303 -0.723232151 0.443028832
280298320.0 0.1227344155 -0.0468753951 2.45126e-05 0.000213395 0.0001055965 -8.12037e-05 -0.7183013228 0.4502588549
285298290.0 0.1220572343 -0.0486624602 0.0001930999 0.0001472529 -9.6567e-06 -2.48269e-05 -0.7135241429 0.4579218539
290298260.0 0.121261735 -0.0503971538 0.0002357547 0.000168861 7.84551e-05 0.0002458005 -0.7093936597 0.4654307629
295298230.0 0.1203196689 -0.0523788507 0.0002076359 1.6214e-06 0.0002931127 2.28993e-05 -0.7039253124 0.4726015835
300298200.0 0.1196245782 -0.0545173934 0.0002629782 0.0004063582 0.0001209313 5.0119e-05 -0.6989409894 0.4798501316
305298170.0 0.1191087079 -0.0561585918 4.47668e-05 0.0001224137 0.0001577044 0.0002669066 -0.6936067052 0.4877300177
310298140.0 0.1181677365 -0.0585301959 -0.0001831343 0.000341948 -6.10336e-05 9.03504e-05 -0.688820508 0.494812149
315298110.0 0.1168582465 -0.0602188691 0.0002540306 0.000280949 0.0001665322 -8.08442e-05 -0.6834018153 0.5016544393
320298080.0 0.1157209923 -0.0617860649 2.61156e-05 -0.0001473315 -7.2445e-06 0.0003342666 -0.6781004661 0.5098060275
325298050.0 0.1145121194 -0.0638596558 0.0002229572 0.0001974056 8.76809e-05 0.0001187321 -0.6725804803 0.516171656
330298020.0 0.1130723801 -0.065126326 4.64972e-05 0.0001096363 4.79079e-05 -6.54191e-05 -0.6669075197 0.5230288068
335297990.0 0.1117119201 -0.0669005692 2.85587e-05 0.0001519982 0.0001391541 -7.16894e-05 -0.6614960199 0.5302904338
340297960.0 0.1107655425 -0.0681413563 0.0001437736 0.0001975297 0.0001375252 0.0001000303 -0.6554995252 0.5370824795
345297930.0 0.1091334554 -0.0697728261 0.000209648 0.0001159658 0.0001285971 0.00021354 -0.6502038394 0.5438417263
350297900.0 0.1085967949 -0.0708933033 0.0002254461 9.96364e-05 8.50223e-05 0.0003091462 -0.6443063373 0.5505245733
355297870.0 0.107035076 -0.0724821186 0.0002015045 9.2839e-05 -0.0001525158 -3.20572e-05 -0.6382559671 0.5577022901
360297840.0 0.1061493091 -0.0736512328 0.0001244693 8.20402e-05 0.0001251218 7.48607e-05 -0.6322674727 0.5635207287
365297810.0 0.1052184869 -0.0751828912 0.0001007205 0.0001282914 0.0001101582 0.0002064169 -0.6268197144 0.5702203205
370297780.0 0.103760412 -0.0762423506 0.0001208637 3.70806e-05 -8.4982e-05 0.0002705289 -0.6209355151 0.5762958437
375297750.0 0.1025093393 -0.0772804712 7.45087e-05 -0.0001137225 0.0002031125 0.0002924846 -0.6149294036 0.5831213359
380297720.0 0.1017519056 -0.0789151349 0.0004114945 -4.69146e-05 0.000400326 0.0001654793 -0.6078121139 0.5896968957
385297690.0 0.1000808977 -0.0801207714 0.0001552189 0.0001126591 9.27251e-05 -6.53715e-05 -0.6023693874 0.5961186105
390297660.0 0.0990282219 -0.0812011886 0.0001041272 0.0001538961 0.000121309 0.0003419846 -0.5959232395 0.6020150733
395297630.0 0.0977877808 -0.0825066853 0.0004734903 9.71461e-05 0.0001459936 -1.2459e-06 -0.5891836131 0.6081681659
400297600.0 0.0964306638 -0.0833060519 -1.01446e-05 8.35263e-05 0.0001068267 0.0001014489 -0.5832192453 0.6137734595
405297570.0 0.0956402697 -0.0847007594 0.0001613968 0.0002185022 5.10237e-05 0.0001340812 -0.5772836366 0.6200195047
410297540.0 0.0942064524 -0.0857819176 0.000406219 0.0002456917 7.42336e-05 5.73752e-05 -0.5700287829 0.625812033
415297510.0 0.0930803951 -0.0869679324 6.8748e-05 0.0001719197 0.0001716465 4.3125e-05 -0.5638741293 0.6319718573
420297480.0 0.0915964923 -0.0881496514 0.0002771722 0.0001102872 0.0001191369 6.83598e-05 -0.5574852145 0.6365042171
425297450.0 0.0903003235 -0.0891085968 0.0002997482 0.0001149806 0.0001412744 0.0002601355 -0.5506157378 0.6433781876
430297420.0 0.0889613053 -0.0901271727 0.00011308 0.0001561517 5.91756e-05 0.0002435647 -0.5440663153 0.6489303441
435297390.0 0.0879010678 -0.0911381981 3.9693e-05 0.0001056699 0.0003169877 0.0001178277 -0.5372936628 0.6534232401
440297360.0 0.0867016025 -0.0921163636 0.0002248528 0.000252372 0.0004092033 4.7973e-05 -0.5304493759 0.6589656526
445297330.0 0.0851283181 -0.09310794 0.0003325388 0.0002686149 0.0003476387 1.82493e-05 -0.5242769166 0.6640278728
450297300.0 0.0836523607 -0.0944197348 0.0001166706 8.75933e-05 0.0002886901 0.0001355386 -0.51726351 0.6694861532
455297270.0 0.0825895195 -0.094925968 0.0001170467 6.10038e-05 -4.26361e-05 4.62059e-05 -0.5098600765 0.6751227122
460297240.0 0.0811432789 -0.0954653366 0.0001851307 3.4923e-05 0.0001920363 0.0002321047 -0.5026066802 0.6806344857
465297210.0 0.0801345939 -0.0966085544 0.0003038039 0.0003845621 2.98287e-05 0.0002824971 -0.4964251318 0.6846333075
470297180.0 0.0786167175 -0.0974851529 0.0003127084 0.000120077 0.0001484035 0.0001322124 -0.4897671652 0.6898856799
475297150.0 0.0773014096 -0.098055964 6.64993e-05 3.47812e-05 0.000163887 4.16277e-05 -0.482236136 0.6950127537
480297120.0 0.0759606442 -0.0991032988 0.0002074654 0.0001211642 0.0002470005 9.86557e-05 -0.4753548692 0.6997749455
485297090.0 0.074570929 -0.1001614728 9.65294e-05 3.13114e-05 0.0003493204 3.24767e-05 -0.4681156587 0.703987344
490297060.0 0.0733852728 -0.1006022355 0.0002517574 4.55773e-05 0.0001279604 6.00997e-05 -0.4616606703 0.7081529596
495297030.0 0.0718425989 -0.1014420586 1.05396e-05 -0.0001213126 0.0002431042 0.0002100885 -0.4535714158 0.7125187688
500297000.0 0.0703647305 -0.1025320072 0.0002635062 4.00732e-05 0.0001664649 6.88936e-05 -0.4469192011 0.7175780405
505296970.0 0.0687617324 -0.1029581551 0.000279587 0.0001123726 0.0002501296 8.49785e-05 -0.4404543182 0.7218011318
510296940.0 0.0676498475 -0.1036475775 0.000477335 0.0002637903 0.0001896287 0.0002782669 -0.4321779464 0.7265462141
515296910.0 0.0661608496 -0.1043416596 0.000323218 5.14032e-05 0.0002760332 0.0001989638 -0.4252590702 0.7308183389
520296880.0 0.0648994084 -0.105017698 6.91346e-05 0.0001182724 0.0001213207 0.0001329571 -0.4180112464 0.7348632803
525296850.0 0.0633951064 -0.1056068058 0.0001252931 -6.36237e-05 0.0003355832 -5.25433e-05 -0.4101689529 0.7393284132
530296820.0 0.0619694992 -0.1061737626 0.0003324053 -8.00033e-05 0.000290118 0.0001721409 -0.4033960683 0.7429919589
535296790.0 0.0607060037 -0.1068175728 0.0001455803 0.0001552982 0.0004525725 -8.21784e-05 -0.396333509 0.7465089239
540296760.0 0.0590525507 -0.107622102 0.0002486778 0.0001087756 0.000283663 9.56572e-05 -0.3885056186 0.7507328735
545296730.0 0.0577269172 -0.1077735885 0.0002368612 -5.05099e-05 0.0001594341 -4.10543e-05 -0.380823762 0.7540415151
550296700.0 0.0562378349 -0.1084171379 0.0003087657 9.25678e-05 0.0003475606 6.54145e-05 -0.3731336857 0.7581612884
555296670.0 0.0550734334 -0.108881686 0.0003665195 -2.15191e-05 0.0003441758 -0.000174021 -0.3658388645 0.7615439912
560296640.0 0.0536272527 -0.1095721335 0.0003059531 -7.56399e-05 0.000430912 0.0002022109 -0.3577595677 0.7650984732
565296610.0 0.0519639876 -0.1099282649 0.0003827558 -0.0001129064 0.0005503862 4.96409e-05 -0.3502177487 0.7688584028
570296580.0 0.0506942771 -0.1104197716 6.54774e-05 7.40877e-05 0.0001763483 2.16396e-05 -0.3431205834 0.7727603025
575296550.0 0.0493021437 -0.1106142227 0.0001495049 0.0001277054 0.0002561459 -3.9905e-06 -0.3353459849 0.7758643785
580296520.0 0.0480841913 -0.1111102867 0.0004391513 0.0001234613 0.0004471879 -5.45397e-05 -0.3272457879 0.779101532
585296490.0 0.0461142881 -0.1115794525 0.0003655583 -0.000179621 0.0005215535 9.15478e-05 -0.3198217164 0.7819243584
590296460.0 0.0444995848 -0.1119056963 6.31545e-05 0.0002327375 0.0003396136 9.44533e-05 -0.3120097744 0.7847757962
595296430.0 0.0435380173 -0.1122166838 0.0002494178 9.84263e-05 0.0003727058 -7.6792e-06 -0.3039972978 0.7878303465
600296400.0 0.0419442497 -0.1126860371 0.0003414201 -5.35634e-05 0.0001777446 9.49419e-05 -0.2969190677 0.7909321455
605296370.0 0.0402842655 -0.1130183802 0.0002960426 4.9148e-05 0.000335668 5.00774e-05 -0.2887116467 0.794484638
610296340.0 0.0390524099 -0.1132465662 0.0004336831 4.3847e-05 0.0003124875 -0.0001834106 -0.2804946209 0.7969277585
615296310.0 0.0376527759 -0.113232222 0.0003231519 -2.75101e-05 0.0002488258 8.96037e-05 -0.273130912 0.7997764718
620296280.0 0.0360874279 -0.1136267188 0.0001737888 1.35572e-05 0.0002809784 -0.0001527021 -0.2650481608 0.8013582842
625296250.0 0.035013894 -0.1139858631 0.0001794407 9.002e-06 0.0001820903 -4.37671e-05 -0.2570919993 0.8048599608
630296220.0 0.0331356133 -0.1142835721 0.0003600999 -0.0003163392 0.0002645748 6.01278e-05 -0.2493005514 0.8075133124
635296190.0 0.031667435 -0.1144015486 0.0002105976 -4.07514e-05 0.000214241 -0.0001507274 -0.2413930807 0.8089417537
640296160.0 0.030557196 -0.1145713421 0.0003739783 0.0002093881 0.0004319834 0.0001700672 -0.2326040849 0.8122405957
645296130.0 0.028675418 -0.1145438984 0.0004131105 0.0001735823 0.0003109599 6.64109e-05 -0.2252850497 0.8142710048
650296100.0 0.0273800967 -0.1146162511 0.0003253335 2.87857e-05 0.0003213607 0.0001391084 -0.2170367603 0.8169267536
655296070.0 0.0258715298 -0.1150537449 0.0002434807 0.000116397 0.0002263923 6.76846e-05 -0.2088141606 0.8179196486
660296040.0 0.0243461562 -0.114717394 8.18473e-05 -6.9383e-06 0.0002200242 7.8676e-05 -0.200485044 0.8199514955
665296010.0 0.0229707467 -0.115136247 0.0002336752 -0.0002014005 0.0002879063 6.77292e-05 -0.1932293449 0.822238013
670295980.0 0.0216410519 -0.1152742189 0.0001524373 0.0002420255 0.0003104989 6.36494e-05 -0.1855473776 0.8240465009
675295950.0 0.0202580838 -0.115365709 0.0002521379 -0.0001844119 0.00029611 -0.0001486182 -0.1767049651 0.8255954649
680295920.0 0.018448542 -0.1150611118 0.0002637252 0.0001335367 0.00033529 0.0001332192 -0.168183194 0.8278684077
685295890.0 0.0169407683 -0.1152227987 0.0002462926 -5.29953e-05 0.0004089122 -0.000139522 -0.1598774546 0.8290397185
690295860.0 0.0161394489 -0.1153178535 0.000490499 -5.30185e-05 0.0004052609 -4.81645e-05 -0.1521302461 0.8308756076
695295830.0 0.0144836116 -0.1151666712 0.0003531784 -5.67711e-05 0.0005871348 2.09766e-05 -0.1438331946 0.8320387171
700295800.0 0.0129705005 -0.1151556049 0.0002642409 -1.87663e-05 0.0005305192 -0.0001000506 -0.1349999795 0.8332309158
705295770.0 0.0114481672 -0.1152204237 0.000364888 9.38527e-05 0.0003039084 -8.18247e-05 -0.1278031485 0.8348792252
710295740.0 0.0099521153 -0.1148218454 0.0005003223 -0.0001399619 0.000311702 2.63649e-05 -0.1195343682 0.8363147132
715295710.0 0.0083759111 -0.114711049 0.0004396961 -0.000139136 0.0003397993 -5.52013e-05 -0.1111122047 0.8380022332
720295680.0 0.0071414216 -0.1147830711 0.0003012595 -7.01352e-05 0.0003088074 -0.0001782699 -0.1028114314 0.8387299908
725295650.0 0.0058234165 -0.114544741 0.0003868048 -5.19381e-05 0.0003087232 8.9904e-06 -0.0943405309 0.8395343203
730295620.0 0.0039672275 -0.1144709229 0.000365235 5.77456e-05 0.0002805903 -4.50039e-05 -0.0859576967 0.8402642617
735295590.0 0.0031574843 -0.1140763131 0.0003958977 -5.11047e-05 0.0004269329 -5.05203e-05 -0.0771690388 0.8405519107
740295560.0 0.0016013738 -0.1139586866 0.0004932578 -0.0001934836 0.0004480436 0.0002281259 -0.0699103314 0.8417468483
745295530.0 -0.0002388577 -0.1138339733 0.0004918395 -6.3843e-06 0.0003591828 -7.9529e-06 -0.0610778356 0.8422846668
750295500.0 -0.0014316393 -0.1134453426 0.0005122034 -0.0001872296 0.0003136244 -2.47507e-05 -0.0526707923 0.8426835529
755295470.0 -0.002742951 -0.1132104499 0.0003424526 -0.0001208658 0.0001664143 -0.0001350723 -0.0444161751 0.8436637529
760295440.0 -0.0043469515 -0.1128745588 0.0001594301 -0.0001494977 0.0004735911 4.82768e-05 -0.0368788618 0.8439261375
765295410.0 -0.0056724883 -0.1129251234 0.0001737584 -0.0003431773 0.0003197169 4.1571e-06 -0.0276881448 0.8444126486
770295380.0 -0.0070503016 -0.1124469961 0.000361463 -6.20466e-05 0.0003730506 -2.55658e-05 -0.0192335955 0.844261659
775295350.0 -0.0085090343 -0.1121444773 0.000294237 0.0001283077 0.0004541765 -0.0001595627 -0.0119246201 0.844232298
780295320.0 -0.0099639546 -0.11196822 0.0003162964 -0.0001229978 0.0002552063 -4.12897e-05 -0.0033951108 0.8451001325
785295290.0 -0.0111871936 -0.1113635941 0.0003338194 -1.64828e-05 0.0004205694 0.0001012285 0.0048277494 0.8446947048
790295260.0 -0.0124704245 -0.1110981036 0.0002221631 -0.0001905127 0.0001611448 -0.0001663702 0.0139986591 0.8445586911
795295230.0 -0.0138885792 -0.1104298837 0.0005431831 -6.62685e-05 0.000654608 -7.29206e-05 0.0218859168 0.8445166662
800295200.0 -0.0149884319 -0.1100274068 0.0004374483 -5.12372e-05 0.0003694382 -2.98666e-05 0.0301936941 0.843769763
805295170.0 -0.0167908903 -0.1098203975 0.0004435838 2.62535e-05 0.0002977811 2.84397e-05 0.0385774028 0.8436706234
810295140.0 -0.0179093558 -0.1091951771 0.0006050931 -8.38328e-05 0.0003153134 -9.1284e-05 0.0462940224 0.843953773
815295110.0 -0.019240977 -0.1088035312 0.0003478257 -4.16292e-05 0.0004609359 -0.0003978687 0.0551865833 0.8431041454
820295080.0 -0.0206053899 -0.1083496915 0.0003517033 -0.0004034051 0.000266415 -0.0001517786 0.0628479425 0.8423731756
825295050.0 -0.0218984381 -0.1079019961 0.0002166089 -0.0002477261 0.0005109339 -0.0001281822 0.071426288 0.8419109309
830295020.0 -0.0231243377 -0.1072388761 0.0003758501 -1.33316e-05 0.0003487089 -2.12963e-05 0.0790716742 0.8407436775
835294990.0 -0.0246387607 -0.1065566863 0.0004972775 -5.07206e-05 0.0003422606 3.39458e-05 0.0880249505 0.8402145393
840294960.0 -0.0258867855 -0.1063961806 0.0003192232 -0.0001776703 0.0005205024 -8.44263e-05 0.0954322792 0.8395490543
845294930.0 -0.0273465145 -0.1054513186 0.0002618641 -0.0001651539 0.0003446872 -0.0001342253 0.1040922637 0.8381917504
850294900.0 -0.0283111433 -0.105121589 0.0004554739 -0.0001137446 0.0004064853 -0.0002075205 0.112252573 0.8371953188
