!Created with skrf (http://scikit-rf.org).
# Hz S RI R 50.0 
!freq ReS11 ImS11 ReS21 ImS21 ReS12 ImS12 ReS22 ImS22
300000.0 -0.7742275657 -0.1695424774 -0.0007084172 0.0003596774 0.0003374829 0.0014590003 -0.7650121747 -0.1817896976
5299970.0 -0.7861408259 -0.0091270785 8.49803e-05 -0.0001829197 9.94098e-05 7.45885e-05 -0.7847375269 -0.0090243378
10299940.0 -0.7892723221 -0.0059169066 -7.68893e-05 6.1932e-05 1.77091e-05 2.11704e-05 -0.7872941696 -0.0054026012
15299910.0 -0.793733216 -0.0027981993 2.48182e-05 0.0002350263 0.0003016074 8.76969e-05 -0.7928375573 -0.0028102781
20299880.0 -0.8009697371 0.0007066881 -7.5127e-06 -1.83754e-05 0.0001198151 -9.11822e-05 -0.7993555097 0.0016044137
25299850.0 -0.8078314576 0.0065452828 -9.12567e-05 -2.73775e-05 6.0099e-06 8.74147e-05 -0.805777594 0.0077021736
30299820.0 -0.8140335246 0.0140972843 0.000141405 0.0002093972 0.0001368418 0.0001501196 -0.8117675248 0.0158647703
35299790.0 -0.8184935978 0.0227398859 -1.59899e-05 -0.0001916357 0.000133975 -9.08681e-05 -0.8169492242 0.0248492897
40299760.0 -0.8236835221 0.0318305699 4.96374e-05 -4.76973e-05 -2.9688e-06 -0.0001187888 -0.8208585439 0.0338091656
45299730.0 -0.8266404864 0.0417182858 4.11115e-05 -7.0359e-05 0.0001087497 -0.0001103264 -0.8241471291 0.0437578948
50299700.0 -0.8294474167 0.0517929243 0.0001288191 -0.0001317429 5.82238e-05 -5.8862e-05 -0.8266098378 0.0540185807
55299670.0 -0.8315579382 0.0612941693 -7.11285e-05 0.0001092884 7.94033e-05 0.0001733949 -0.8287077449 0.0635640595
60299640.0 -0.8328317854 0.0720943461 -7.41404e-05 -0.000160926 -0.0001669332 -0.0001111898 -0.8295674639 0.0740958291
65299610.0 -0.833186937 0.0820117477 -4.38974e-05 8.44581e-05 -0.0001131617 0.0002290922 -0.8302518523 0.0840828036
70299580.0 -0.8337775022 0.0916928996 -6.23635e-05 9.78235e-05 -0.0001391531 -7.70986e-05 -0.8309904233 0.0933549706
75299550.0 -0.8338597386 0.1021088542 0.0001201604 2.51018e-05 -7.55257e-05 0.0001724727 -0.8306907995 0.103539259
80299520.0 -0.8338743094 0.1116874056 -0.000177371 -0.0001851076 -0.0001410799 4.84063e-05 -0.8307675384 0.1142460915
85299490.0 -0.8325225658 0.1211002566 -3.93279e-05 -0.0001448909 0.0001420086 -8.47139e-05 -0.8301077242 0.1233756738
90299460.0 -0.8320703382 0.1314377758 8.78249e-05 -7.94275e-05 -5.64006e-05 0.0002567493 -0.8291965882 0.1327079888
95299430.0 -0.8314257936 0.1408442965 -0.0001203614 0.0002033187 -0.0001631508 -1.57596e-05 -0.8281314504 0.1427251749
100299400.0 -0.8305030035 0.1500168338 0.0004075618 -0.0002002518 8.24676e-05 -2.6732e-06 -0.8270473459 0.1514712827
105299370.0 -0.829267022 0.159171019 -0.0001259353 -3.37463e-05 0.0001233468 -0.0002840262 -0.8257308777 0.1608457793
110299340.0 -0.8274822338 0.1684508016 -3.08439e-05 -9.17e-08 0.0001487385 2.11676e-05 -0.8245744604 0.1698115532
115299310.0 -0.8261068991 0.1777153318 -3.83163e-05 -4.6684e-06 -0.0001079088 -0.0001909574 -0.8230439145 0.1793259491
120299280.0 -0.8245290304 0.1866972861 -4.4028e-05 -1.01916e-05 9.57598e-05 -0.0001015545 -0.8209723691 0.1878753498
125299250.0 -0.8226137943 0.1955338751 -0.0002072313 -0.0001574316 5.19597e-05 0.0001217565 -0.8195478905 0.1971820932
130299220.0 -0.8208342794 0.2049460478 -0.0003080673 -9.381e-07 -3.27748e-05 -0.0001590734 -0.8174760941 0.2057899321
135299190.0 -0.8191420591 0.2141913364 -0.0001289152 7.86314e-05 -6.94805e-05 0.0001187864 -0.8158995858 0.2154387388
140299160.0 -0.8170839812 0.222916801 8.6785e-06 -1.7171e-06 -0.0001007552 5.47648e-05 -0.8139682782 0.2232250395
145299130.0 -0.8143554428 0.2322056002 3.86745e-05 -0.0001104016 -8.55476e-05 7.1139e-05 -0.8116635894 0.2322763701
150299100.0 -0.8122740083 0.2412215607 -0.0002508873 6.89694e-05 -2.42975e-05 -7.24088e-05 -0.8095218226 0.2412554421
155299070.0 -0.8103498836 0.2501887093 -8.89731e-05 -0.0001779033 0.0001167688 8.87051e-05 -0.8068396528 0.2505633134
160299040.0 -0.8073246001 0.2588557892 -0.0001674731 5.13741e-05 3.2436e-06 1.87285e-05 -0.8042975638 0.2591609705
165299010.0 -0.8048486581 0.2678301177 9.16356e-05 -1.58442e-05 -2.87173e-05 -1.96864e-05 -0.801721134 0.2673122726
170298980.0 -0.8015301234 0.2761091815 1.47711e-05 -5.59303e-05 7.34687e-05 -3.45246e-05 -0.7992414085 0.2757816971
175298950.0 -0.7996107094 0.284530358 3.71676e-05 0.000107207 1.11074e-05 6.16675e-05 -0.7963358396 0.2845396448
180298920.0 -0.7960907483 0.2939761485 0.0001116262 3.9209e-06 -0.0002520357 6.29082e-05 -0.7932283307 0.2931166633
185298890.0 -0.793150627 0.3019711414 3.08063e-05 -0.0001081968 8.19718e-05 0.0001164839 -0.7902423545 0.3018098457
190298860.0 -0.7893948268 0.3115120945 -0.0001343427 2.62485e-05 -9.96559e-05 -0.0001240119 -0.7871102155 0.3097228735
195298830.0 -0.7864144095 0.319236344 -0.0001384534 5.32203e-05 5.07299e-05 -3.77684e-05 -0.7838312006 0.3179264766
200298800.0 -0.7829855627 0.3276729427 2.55158e-05 -8.88242e-05 -0.000149517 -5.71042e-05 -0.78125013 0.3269667079
205298770.0 -0.7790325515 0.3362935102 -4.15931e-05 -2.30641e-05 -6.04191e-05 6.75881e-05 -0.7775917299 0.3348806403
210298740.0 -0.7760835264 0.3446676159 0.0001683625 3.83459e-05 -4.0993e-06 4.30335e-05 -0.7738802876 0.3431317707
215298710.0 -0.7720563538 0.3530542064 0.0001401085 0.0001162753 0.000103983 0.0001003135 -0.7701808886 0.3513449264
220298680.0 -0.7689775646 0.3612402494 9.01454e-05 9.70917e-05 -2.62732e-05 4.91724e-05 -0.7663111598 0.3596353847
225298650.0 -0.7646043271 0.3701970813 2.57052e-05 4.48775e-05 -7.82612e-05 5.8174e-06 -0.7629861198 0.367509417
230298620.0 -0.7606962327 0.3781868568 6.85947e-05 -1.41814e-05 5.7395e-06 -3.7087e-06 -0.7590169927 0.3754375526
235298590.0 -0.7572758183 0.3861646756 5.86833e-05 0.0002383685 -9.9006e-06 -9.46996e-05 -0.7549523422 0.3830802722
240298560.0 -0.7524862976 0.3935176865 9.43327e-05 7.44541e-05 -2.65283e-05 -0.0001391864 -0.7514213641 0.3908290829
245298530.0 -0.7489793504 0.4021122817 -4.63926e-05 -6.05249e-05 0.0001744024 -0.0001420222 -0.7476093809 0.3988602225
250298500.0 -0.7446177937 0.4094155109 0.0001202647 -0.0001680769 -8.47561e-05 0.000111735 -0.7428217163 0.4070432921
255298470.0 -0.7401657893 0.4176100546 -8.60457e-05 -0.0001736514 -1.16448e-05 5.48751e-05 -0.7387788696 0.414980546
260298440.0 -0.7365073272 0.4252554163 -6.25839e-05 1.8709e-06 0.0001777739 -5.11306e-05 -0.7342492704 0.4217829788
265298410.0 -0.7316286942 0.4333618052 -1.55655e-05 -0.0001584408 1.61367e-05 -2.44494e-05 -0.729764068 0.4299727174
270298380.0 -0.727210691 0.4402399731 0.0001372929 -2.32e-06 -0.0001273359 2.37977e-05 -0.7253012067 0.4376712392
275298350.0 -0.7232179328 0.4477403813 -0.0001153887 -2.66706e-05 1.77576e-05 0.0001212914 -0.7203352671 0.4457399445
280298320.0 -0.7180830561 0.4558720183 0.0001490139 -3.21677e-05 -3.7944e-06 -0.0001013429 -0.7159539848 0.4527492291
285298290.0 -0.7133308761 0.463351516 -2.2227e-05 7.61949e-05 -0.0001675288 -5.43045e-05 -0.7120322742 0.4608463239
290298260.0 -0.7085599979 0.4710632618 0.0001111463 -0.0001048328 -5.09702e-05 3.95317e-05 -0.7067220408 0.4679031691
295298230.0 -0.7039210468 0.4779716798 8.1657e-05 -0.0002184807 1.45626e-05 0.0001353356 -0.7014366216 0.4746825364
300298200.0 -0.6992118613 0.4856159286 6.87242e-05 -4.13331e-05 3.3972e-06 0.0001184797 -0.6966407765 0.4822268097
305298170.0 -0.6942244065 0.492604445 2.40782e-05 -6.85271e-05 4.26239e-05 -2.36369e-05 -0.6912975718 0.4892818079
310298140.0 -0.6888294446 0.4998684112 1.5384e-06 5.44847e-05 6.34333e-05 0.0001446887 -0.6862051702 0.4967195521
315298110.0 -0.6845075751 0.5074975417 0.0001176575 -0.00017408 9.99365e-05 -1.77639e-05 -0.6810331245 0.503669827
320298080.0 -0.679237527 0.5143658467 3.24885e-05 9.39408e-05 -0.0001552828 0.0001596986 -0.6758489039 0.5107864485
325298050.0 -0.6735872998 0.5209767688 -0.000133252 -8.12658e-05 -3.32794e-05 0.0002271065 -0.6700946212 0.5180122381
330298020.0 -0.6679503588 0.5275464034 0.0001551684 -8.79894e-05 -8.3525e-06 -9.86101e-05 -0.6646558133 0.524717286
335297990.0 -0.6628645953 0.5347527863 -8.06338e-05 -0.0002176674 2.66063e-05 -0.0001405481 -0.659438868 0.5317735895
340297960.0 -0.6579888246 0.5412724757 -0.0001009871 0.0001413528 -0.0001024349 -0.0002074316 -0.6538555968 0.5386459548
345297930.0 -0.6519616418 0.5483005251 4.04167e-05 -6.18975e-05 -0.0001141025 3.18874e-05 -0.6486996455 0.5443530187
350297900.0 -0.6461548583 0.5548089908 8.80583e-05 -0.0001721993 0.0001739226 4.6092e-06 -0.6432800051 0.5512160815
355297870.0 -0.6409802453 0.5614261249 -3.8402e-05 0.0001169748 0.0001376219 0.0001405143 -0.6368226669 0.5583386194
360297840.0 -0.6346491555 0.568045283 -0.0001307004 -2.27831e-05 -9.57396e-05 -6.30565e-05 -0.6303624559 0.5653588589
365297810.0 -0.6296420942 0.5749299315 1.54311e-05 -3.39154e-05 7.5224e-06 7.8838e-05 -0.6258783475 0.5707593425
370297780.0 -0.6231973236 0.5802603442 -0.0002938525 -3.49574e-05 -0.000129849 -5.07872e-05 -0.6198030433 0.5779564872
375297750.0 -0.6181146998 0.5876849285 -0.0001120801 -4.98839e-05 -6.7641e-05 -0.0001479366 -0.6130404607 0.5835296322
380297720.0 -0.6114884998 0.593529352 -0.0001678269 9.68367e-05 7.835e-05 -6.92902e-05 -0.6071288499 0.5901968349
385297690.0 -0.6056718375 0.5995366833 -0.0002113376 -0.0002094342 -5.30843e-05 -8.25732e-05 -0.6012695524 0.5966509783
390297660.0 -0.5984407679 0.6052169566 4.55524e-05 -1.85082e-05 -0.0001610194 5.7347e-06 -0.5946768712 0.6019708076
395297630.0 -0.5925317144 0.6118544838 2.13761e-05 -0.0001305255 -0.000178043 -5.237e-06 -0.5878074417 0.6078725468
400297600.0 -0.5868081325 0.6180629334 1.86064e-05 -3.3887e-06 3.78622e-05 -0.0001837631 -0.5823203572 0.614059683
405297570.0 -0.5807647004 0.6231322627 -2.61255e-05 5.29755e-05 0.0001335281 -0.0001512313 -0.5754784819 0.6197593812
410297540.0 -0.5738225719 0.6294860921 0.0001288697 -4.70578e-05 -0.0001173646 -0.0002317892 -0.5687587445 0.6259991406
415297510.0 -0.5678771375 0.6351143075 -1.07229e-05 -3.59867e-05 -0.0001335941 -0.0001478815 -0.5625094541 0.6315567425
420297480.0 -0.5603631096 0.6413813188 5.03692e-05 6.97405e-05 2.94746e-05 0.0002301831 -0.5552336313 0.6377680879
425297450.0 -0.5537835585 0.6466538633 5.48006e-05 -5.78499e-05 0.0002698687 -9.69108e-05 -0.5491507111 0.6429456125
430297420.0 -0.5481080546 0.6521036461 -4.4374e-06 0.0001947923 6.69811e-05 -0.000161358 -0.542882437 0.6484078475
435297390.0 -0.5415273631 0.6576117769 5.9536e-05 6.31133e-05 -7.07437e-05 -9.31834e-05 -0.5366531689 0.6545416784
440297360.0 -0.5336038335 0.6633660224 -0.0001737733 -7.92479e-05 2.74745e-05 -4.02895e-05 -0.5299716904 0.6593789594
445297330.0 -0.5270732656 0.6682782768 -7.73861e-05 9.7078e-05 -6.77095e-05 0.0001161723 -0.5228821421 0.664695177
450297300.0 -0.5200278839 0.6734433824 -0.0002618661 -3.91398e-05 0.0002290386 -7.44955e-05 -0.5158946028 0.6694668978
455297270.0 -0.5136601195 0.6786582433 8.66313e-05 -0.0002478598 6.07917e-05 0.0001741903 -0.5093276189 0.674894282
460297240.0 -0.5056888056 0.6839830035 2.61825e-05 -0.0002105986 5.28684e-05 -2.05578e-05 -0.5021495317 0.6801292364
465297210.0 -0.4989515389 0.6890624881 -8.25308e-05 -0.0003194792 4.55001e-05 0.0001013049 -0.4948885385 0.6859502946
470297180.0 -0.4916955837 0.6938840229 -0.0002366263 -0.0001475049 3.77138e-05 6.39058e-05 -0.4881790779 0.6909480156
475297150.0 -0.4848141697 0.6984762654 0.000140092 3.7741e-06 -2.58255e-05 4.82908e-05 -0.480854297 0.6954449124
480297120.0 -0.4770268692 0.7040338953 -1.97656e-05 -7.24027e-05 -4.53429e-05 -8.28851e-05 -0.4743987151 0.7003188521
485297090.0 -0.4703677448 0.708700791 0.0001185778 8.673e-06 -4.54111e-05 -6.76421e-05 -0.467528415 0.7045144571
490297060.0 -0.4619365443 0.7139042122 -1.0918e-05 2.90713e-05 0.0001444366 1.15682e-05 -0.4594365054 0.7088511101
495297030.0 -0.4550886315 0.7182303151 0.0001005566 -0.0001752859 -3.38639e-05 -0.0001318504 -0.4518973304 0.7135574934
500297000.0 -0.4474759669 0.7222364659 3.45036e-05 -4.44835e-05 3.22743e-05 -3.09892e-05 -0.4452665781 0.7189485438
505296970.0 -0.4394954763 0.727014335 3.12023e-05 -0.0002290506 2.46983e-05 -0.0001592445 -0.4374297034 0.7226138673
510296940.0 -0.4319962343 0.7314334772 8.36826e-05 0.0001688887 -7.9423e-06 2.0958e-05 -0.4300257947 0.727473109
515296910.0 -0.424392963 0.7358871258 -0.0001129821 -1.5963e-05 -0.0001395295 0.000135728 -0.4228221118 0.7311776193
520296880.0 -0.4162333603 0.7398163902 -0.0001392276 -2.42676e-05 0.0001035036 2.3773e-06 -0.4148191124 0.7355627416
525296850.0 -0.4086555087 0.7436514055 -0.0001125588 3.30648e-05 -4.14332e-05 -0.000101403 -0.4078136674 0.7396373312
530296820.0 -0.4011029991 0.7478387657 0.000160201 -4.54122e-05 3.43611e-05 -3.29353e-05 -0.4001390342 0.7438201772
535296790.0 -0.3925657575 0.7519885126 -1.88835e-05 8.5301e-06 0.0001728086 0.000266138 -0.3930082121 0.7476855888
540296760.0 -0.384910656 0.7559088847 0.0002453367 -9.70087e-05 7.94671e-05 -3.96368e-05 -0.3847731834 0.7511963221
545296730.0 -0.3776818152 0.7605115584 0.0001700705 7.2242e-05 1.6854e-05 5.96456e-05 -0.3773238546 0.7554626494
550296700.0 -0.3691119826 0.763798505 -5.88724e-05 9.8709e-06 -3.39172e-05 2.17461e-05 -0.3697971849 0.759297874
555296670.0 -0.3614667108 0.7674437115 9.74796e-05 -2.12308e-05 3.85006e-05 3.852e-07 -0.3625104838 0.7620982708
560296640.0 -0.3530275091 0.7707397343 4.11187e-05 1.68511e-05 -6.60982e-05 0.0002574838 -0.3544061068 0.7665222702
565296610.0 -0.3458099911 0.7738292489 -0.000157474 -9.22917e-05 -0.0001545592 -1.91366e-05 -0.3467469095 0.7700748277
570296580.0 -0.3371715339 0.7779704282 3.01098e-05 7.04422e-05 -0.0001532746 -7.20419e-05 -0.3385990109 0.7728914707
575296550.0 -0.3284063244 0.7816074808 -0.0001178375 9.39142e-05 0.0001611091 -8.08839e-05 -0.3309651813 0.7758549521
580296520.0 -0.3211965162 0.7848655219 -2.28298e-05 -4.17386e-05 -3.3902e-05 -5.6687e-05 -0.3233883573 0.7794277863
585296490.0 -0.3126507114 0.7875522001 -6.2215e-05 -4.62201e-05 -9.94296e-05 8.07822e-05 -0.3153537077 0.7833650692
590296460.0 -0.3037860545 0.7908670898 0.0002721144 -0.000115443 -7.2148e-06 0.0002042852 -0.3076239109 0.7858326478
595296430.0 -0.295757486 0.7933908333 -5.38332e-05 -0.0001629149 -0.0001273744 0.0001331135 -0.2996333029 0.7893357219
600296400.0 -0.2883897811 0.7970253149 -0.0001273305 8.05558e-05 5.24534e-05 -2.6732e-06 -0.291793941 0.7915841177
605296370.0 -0.2796528641 0.799187663 -1.41807e-05 -0.000143106 7.98905e-05 6.98073e-05 -0.2835216679 0.7953337481
610296340.0 -0.2718991736 0.8033321332 -3.70684e-05 -5.891e-05 4.75258e-05 0.0001074818 -0.2761217303 0.7982250445
615296310.0 -0.2628114526 0.8055518949 -5.75515e-05 -3.63056e-05 0.0001519884 9.42476e-05 -0.2670262962 0.8004300426
620296280.0 -0.2553464578 0.8080079703 9.6914e-05 -4.75712e-05 0.0001749471 -4.62971e-05 -0.2596096779 0.8033619999
625296250.0 -0.2472931319 0.8099119591 0.0001728175 -3.19538e-05 9.08648e-05 -4.29681e-05 -0.2514527456 0.8051256789
630296220.0 -0.2388154021 0.8132956906 0.0001131035 -0.0003316619 -6.53443e-05 8.8896e-06 -0.2431003846 0.8080506942
635296190.0 -0.2302839222 0.815876087 -0.0001213684 -0.0002593508 -3.13064e-05 7.97318e-05 -0.235200164 0.8100007816
640296160.0 -0.2218089012 0.8176815853 7.63135e-05 -0.0001453054 -5.57587e-05 -4.44297e-05 -0.2270170392 0.8124854322
645296130.0 -0.2136969856 0.8205853576 7.52883e-05 -0.0001516883 5.77902e-05 -0.0001274498 -0.2194351455 0.8143135501
650296100.0 -0.2048959997 0.8218265096 -4.16483e-05 -0.0001358512 8.192e-07 -7.29406e-05 -0.2106085967 0.8169120864
655296070.0 -0.1973044092 0.8243397429 0.0001373892 -0.0001627521 -1.9225e-06 -2.77953e-05 -0.2032486142 0.8191819056
660296040.0 -0.1890228617 0.8258422111 0.0001896395 8.09339e-05 -1.60886e-05 -1.49578e-05 -0.1941739966 0.8211361918
665296010.0 -0.1810657936 0.8286496987 3.1688e-06 -6.42731e-05 -0.0001728738 3.2859e-06 -0.186140902 0.8224458288
670295980.0 -0.1724197015 0.8303388394 3.95259e-05 -0.0001964795 -3.68207e-05 -2.13201e-05 -0.1784111727 0.8242775624
675295950.0 -0.1638084974 0.8322487761 6.08489e-05 -6.94452e-05 1.5745e-06 -0.0001659526 -0.1697140243 0.8263070084
680295920.0 -0.1566650242 0.8335392455 3.03634e-05 8.46711e-05 -0.0001031635 0.0001386805 -0.160958942 0.8277642181
685295890.0 -0.1470817448 0.8354850321 -7.3613e-06 -8.48874e-05 -0.0001740655 -1.07699e-05 -0.1531637022 0.8297525987
690295860.0 -0.1391197959 0.8376001031 0.00013585 -5.43079e-05 -5.551e-05 1.69704e-05 -0.1455671002 0.8311293709
695295830.0 -0.1306359939 0.8391475287 -0.0001291564 7.97396e-05 1.65645e-05 4.63574e-05 -0.1366045294 0.8330366568
700295800.0 -0.1226892666 0.8399235212 -0.0002185064 -4.65565e-05 6.9489e-05 0.0001577798 -0.1281957281 0.8337020761
705295770.0 -0.1145589538 0.841546079 -4.34309e-05 0.0001122034 8.59914e-05 1.7691e-05 -0.1199494385 0.8355719241
710295740.0 -0.10685382 0.8420791759 -5.6234e-05 -2.6152e-05 -0.0001047732 -7.11513e-05 -0.1115757873 0.8357807561
715295710.0 -0.0976911453 0.8436675054 -6.50593e-05 -0.0002156199 7.62733e-05 -4.96288e-05 -0.1028464585 0.8366191173
720295680.0 -0.0888918242 0.8440506224 3.28675e-05 -8.64284e-05 7.40602e-05 4.29456e-05 -0.0944429723 0.8378796561
725295650.0 -0.0814035913 0.8457087624 6.33238e-05 -8.40737e-05 -9.58716e-05 6.4354e-05 -0.0869853554 0.8393953657
730295620.0 -0.0731821116 0.8465035694 8.0931e-06 0.0003953764 -2.22171e-05 9.21403e-05 -0.0785179377 0.8400438059
735295590.0 -0.0651987685 0.8478260329 9.92185e-05 0.0001025402 0.0001690991 -2.89337e-05 -0.0690184011 0.8403199751
740295560.0 -0.0572421153 0.8478510703 -5.10717e-05 3.53901e-05 -6.18156e-05 8.13742e-05 -0.0610875136 0.8415149573
745295530.0 -0.0490689186 0.84868871 -1.67009e-05 0.0001953722 -9.828e-06 -2.70752e-05 -0.0532487062 0.8415980474
750295500.0 -0.0406952649 0.8491842116 -6.87743e-05 -0.0001523265 -0.0001060739 8.64874e-05 -0.0452237272 0.8423728969
755295470.0 -0.0322298761 0.8497694926 -5.80991e-05 5.32282e-05 2.59496e-05 0.0001156871 -0.0365601407 0.8424548063
760295440.0 -0.0241741157 0.8506611105 0.0002218302 -6.33182e-05 6.07444e-05 -9.98951e-05 -0.0281218639 0.8426139595
765295410.0 -0.0159227308 0.8503982956 1.9369e-05 -0.0001995237 5.00542e-05 -0.0001007094 -0.0194527014 0.8432109932
770295380.0 -0.0079447372 0.8512567679 -7.41791e-05 -7.57343e-05 7.34178e-05 1.82716e-05 -0.0111162682 0.8429084006
775295350.0 0.0006466192 0.8512388889 -3.60385e-05 -8.1673e-05 -8.6235e-05 2.98348e-05 -0.0029143259 0.8430095186
780295320.0 0.0087195407 0.8518915265 -0.000123946 7.82748e-05 0.0001687605 0.0001094516 0.0052603994 0.8432429074
785295290.0 0.0173779237 0.8510324645 3.36043e-05 -0.0001445472 -0.0001607711 -8.7748e-06 0.0135826557 0.8436026926
790295260.0 0.0252247892 0.8506482327 4.09523e-05 0.000186945 -6.81805e-05 5.99452e-05 0.0219739463 0.843037441
795295230.0 0.0332461743 0.850356505 -7.48103e-05 -3.04925e-05 2.10773e-05 0.0001182739 0.0304635148 0.8421557931
800295200.0 0.0410978529 0.8507025253 -0.0001590918 -0.0001054082 5.69268e-05 0.000234165 0.0382290771 0.8421634074
805295170.0 0.0488815323 0.850863997 -9.38098e-05 0.0001796143 4.80405e-05 0.0001026718 0.0471628746 0.8418105058
810295140.0 0.0578570679 0.8504800074 -3.6837e-06 -6.5375e-06 -3.33267e-05 0.0002762306 0.0558732471 0.8409700491
815295110.0 0.0652759003 0.8496137528 9.04664e-05 -1.43802e-05 0.0003028272 -8.03703e-05 0.0636411503 0.8407257619
820295080.0 0.0738820577 0.8486707228 -7.2984e-06 -2.44755e-05 -9.59927e-05 -0.0001094288 0.0716623211 0.8404618462
825295050.0 0.0821294779 0.8484365505 -0.000135711 7.42396e-05 -5.28674e-05 0.0001267371 0.0802027434 0.8391276332
830295020.0 0.0905265427 0.8472930469 7.29397e-05 -0.0001432641 -8.16099e-05 -2.18447e-05 0.088085062 0.8377390265
835294990.0 0.0985238594 0.8462975531 2.72755e-05 -3.05978e-05 -0.0001562266 -1.91571e-05 0.0966811867 0.8375698921
840294960.0 0.1066304491 0.8452581747 -0.0001757874 0.0002134737 5.83066e-05 -9.364e-06 0.1055741495 0.8363769998
845294930.0 0.1150413139 0.8442080837 2.09457e-05 5.29293e-05 7.29814e-05 2.526e-06 0.1139121601 0.8352344378
850294900.0 0.1242212006 0.8432500514 -7.13259e-05 -7.09736e-05 1.61104e-05 -0.0001820866 0.1217075682 0.8347073735
