!Created with skrf (http://scikit-rf.org).
# Hz S RI R 50.0 
!freq ReS11 ImS11 ReS21 ImS21 ReS12 ImS12 ReS22 ImS22
300000.0 -0.7763029384 -0.0997183557 0.0003576428 0.0018092042 -0.000261502 0.0003559364 -0.2127601086 -0.084334937
5299970.0 -0.7849965878 -0.0057076377 -0.0001724106 3.29195e-05 0.0001468106 -2.10729e-05 -0.2145991961 0.0085217892
10299940.0 -0.7882812015 -0.0034824762 0.0001615307 6.00222e-05 6.97712e-05 -5.45468e-05 -0.2109332269 0.0216355461
15299910.0 -0.7934092753 -0.002042106 0.0001208831 7.90258e-05 7.49437e-05 -6.07089e-05 -0.2057341177 0.0312563682
20299880.0 -0.800323117 0.0021458364 -5.53433e-05 0.0001333037 0.0001954215 -5.7394e-06 -0.1999879981 0.0392584607
25299850.0 -0.8063345459 0.0079377579 -2.47462e-05 1.90651e-05 -4.39318e-05 2.49184e-05 -0.1935657283 0.0458229444
30299820.0 -0.8127393567 0.0157175474 -4.3352e-06 2.07977e-05 -7.56211e-05 -4.43344e-05 -0.1867162393 0.0505836091
35299790.0 -0.8172608281 0.0248097403 -0.0001306059 0.0001025863 -0.000132388 -0.0001221044 -0.1809609681 0.0549619587
40299760.0 -0.8212546198 0.0339400755 4.18382e-05 0.0001284255 -5.98988e-05 -7.79765e-05 -0.1748514248 0.0576627219
45299730.0 -0.8246470537 0.0429397049 -4.18783e-05 1.85721e-05 7.51845e-05 0.0001208451 -0.169336093 0.0599221982
50299700.0 -0.8269899258 0.053162248 8.43524e-05 -0.0001077882 -0.0001400487 -3.84114e-05 -0.1640036144 0.0610355803
55299670.0 -0.8294141076 0.0634379976 5.46645e-05 -9.70661e-05 4.06529e-05 2.82031e-05 -0.1595414081 0.0617117098
60299640.0 -0.8300901641 0.0733126626 0.0001002214 -0.0001552204 6.74699e-05 -1.41325e-05 -0.1550662865 0.0627665458
65299610.0 -0.8317101389 0.0841920229 -0.0001175477 0.0001282771 4.82643e-05 0.0001291574 -0.1513955207 0.0628575128
70299580.0 -0.8313972702 0.0935684767 0.0001115181 8.83114e-05 0.0001886999 -7.33102e-05 -0.1477759455 0.0630252097
75299550.0 -0.8323089348 0.1037290566 3.4471e-05 5.28038e-05 -1.26018e-05 4.0971e-05 -0.1447549852 0.0628957284
80299520.0 -0.8319534497 0.1135898335 0.0002606924 0.0001568031 1.12591e-05 -7.28697e-05 -0.1417075975 0.0628187426
85299490.0 -0.8309095602 0.1228683834 -4.23057e-05 0.0001772724 0.0001427309 2.57854e-05 -0.1395111361 0.0624061044
90299460.0 -0.830210459 0.1323009623 0.0002325196 0.0002869867 1.49904e-05 -7.64855e-05 -0.1372666572 0.0619331935
95299430.0 -0.828942394 0.1423137409 -9.7066e-06 -0.0001715213 -0.0002271092 -2.30848e-05 -0.1347070759 0.0620787427
100299400.0 -0.8281263876 0.1510351636 -0.0001535569 7.18336e-05 0.0002660535 -9.90012e-05 -0.1323425876 0.0615605557
105299370.0 -0.8272187526 0.1607161206 -9.8838e-05 0.0002447405 4.32262e-05 5.9639e-05 -0.1306667091 0.0613195336
110299340.0 -0.8252456203 0.1698046984 3.07011e-05 3.00561e-05 3.53604e-05 2.19704e-05 -0.1296058205 0.061190112
115299310.0 -0.823934439 0.1788916878 0.0001261279 -5.247e-06 -0.0001445002 1.5014e-05 -0.1281250602 0.0612419127
120299280.0 -0.8220948851 0.187345131 3.39216e-05 0.0001495692 -0.0001774179 3.84922e-05 -0.1267191087 0.0611127913
125299250.0 -0.8202504162 0.1965774819 -3.47131e-05 3.14515e-05 -0.0001829735 0.0001047965 -0.1256356235 0.0606991478
130299220.0 -0.8185725731 0.2057137072 -8.41034e-05 0.0002068211 -8.22446e-05 0.0002814685 -0.1244804366 0.0607383909
135299190.0 -0.8170316308 0.2142105113 0.000117536 -0.000177857 4.14994e-05 -5.8115e-06 -0.1232519448 0.0608522996
140299160.0 -0.8147031095 0.2235452393 0.0001522729 7.20865e-05 4.58564e-05 3.42355e-05 -0.122430667 0.0612857887
145299130.0 -0.812749645 0.2328111781 -0.0002394112 0.0001254857 -0.0001121358 0.0002323822 -0.1217375694 0.0612782574
150299100.0 -0.8101935649 0.2410363275 0.0001144226 0.0002017856 0.0001323623 0.0001026949 -0.1207961089 0.0620409297
155299070.0 -0.8079747203 0.2495869804 8.84614e-05 -9.47691e-05 3.14047e-05 -2.7544e-05 -0.1195859702 0.0619179114
160299040.0 -0.8049815372 0.2584498556 -5.66603e-05 1.02643e-05 0.0001992235 0.0001283636 -0.119720391 0.0627297651
165299010.0 -0.8026537212 0.2676484867 -0.0001254767 -5.61138e-05 -6.87341e-05 5.39767e-05 -0.1186111762 0.0630366588
170298980.0 -0.8000344097 0.2757254879 8.51686e-05 9.20002e-05 4.02972e-05 8.77659e-05 -0.1176357393 0.0633435517
175298950.0 -0.7971999537 0.2848548257 4.99807e-05 -2.6682e-06 -4.06945e-05 2.62059e-05 -0.1175829004 0.063911834
180298920.0 -0.7947817823 0.2927324769 -3.83422e-05 1.26952e-05 -2.77232e-05 8.60071e-05 -0.1170842959 0.0647289156
185298890.0 -0.7905124347 0.3012083617 0.000331457 0.0001055317 -0.000161446 -0.0002722398 -0.1164521693 0.065053584
190298860.0 -0.7888374371 0.3101804961 -6.57894e-05 0.0001974501 -7.26799e-05 -0.0001336669 -0.1157959031 0.0656668006
195298830.0 -0.785417732 0.3184665077 0.0001763028 8.85146e-05 0.0001184622 0.0002169775 -0.1152169134 0.0662736586
200298800.0 -0.7815019364 0.3258826002 5.47731e-05 7.8833e-05 2.9426e-05 0.000109058 -0.1153829894 0.066966185
205298770.0 -0.7782791181 0.3341964128 0.0001652084 0.0003314167 -8.68009e-05 -7.65735e-05 -0.1146982739 0.0675222299
210298740.0 -0.7753006929 0.3426441939 8.52568e-05 0.0002197395 0.0003433113 6.81374e-05 -0.1143198546 0.0684090991
215298710.0 -0.7715309146 0.3505307089 2.6909e-06 0.000108406 5.93536e-05 -3.40347e-05 -0.1141899419 0.0689717877
220298680.0 -0.7677113744 0.3587004682 8.7218e-05 -0.0001352889 0.000158891 5.77068e-05 -0.1135175817 0.0694403929
225298650.0 -0.7637504314 0.36688843 7.14811e-05 0.000102103 0.000154923 5.95479e-05 -0.1134535592 0.0701597807
230298620.0 -0.7600348691 0.3753790071 -0.0001426845 7.855e-07 7.02514e-05 -0.0001010582 -0.1131281608 0.0709966132
235298590.0 -0.7563520519 0.384113975 2.35573e-05 8.40428e-05 -0.0001032995 -2.8345e-05 -0.1124523096 0.071770226
240298560.0 -0.7521249999 0.3912384179 -8.3519e-06 0.0001450656 0.0003893841 0.0001868415 -0.1120282901 0.0725308066
245298530.0 -0.7488920849 0.3993289029 0.0002591651 0.0001931609 0.0002765383 4.46636e-05 -0.111879102 0.0731363145
250298500.0 -0.7442830819 0.4069727427 0.0001827285 4.99509e-05 3.56284e-05 0.0001148888 -0.1113478133 0.0736876979
255298470.0 -0.7392050478 0.4142509968 0.0001409289 0.0002996187 -2.78921e-05 8.68764e-05 -0.1108309884 0.074511739
260298440.0 -0.7358082918 0.4218960038 -0.0001187272 0.0001610748 -1.90321e-05 9.862e-05 -0.110098494 0.0754004665
265298410.0 -0.731085592 0.4301097985 0.0001475881 0.0003100742 0.0002562397 0.0002111799 -0.1095808294 0.0762461351
270298380.0 -0.7270281839 0.4371757786 -0.0001578132 0.0001101242 0.0001238157 0.000202508 -0.1090861613 0.0771017914
275298350.0 -0.7218066393 0.4448760232 -1.93476e-05 -6.5809e-05 9.138e-06 0.0001962345 -0.1087078139 0.0779203696
280298320.0 -0.7168202044 0.4526754851 1.1399e-06 -0.0001112962 0.0001186051 5.13584e-05 -0.107903665 0.0787644413
285298290.0 -0.7128379974 0.4602915876 0.0001074349 1.46239e-05 1.908e-05 8.53383e-05 -0.107203128 0.0796097389
290298260.0 -0.7077602918 0.4676977157 0.0001950418 0.0001833749 1.08763e-05 -1.7597e-06 -0.1064797048 0.0807410984
295298230.0 -0.7025851372 0.4741780218 5.02544e-05 6.47193e-05 -8.59987e-05 -2.71525e-05 -0.1060450222 0.0811471631
300298200.0 -0.6978292726 0.4818441291 0.0002023922 8.33218e-05 4.30571e-05 0.0001287738 -0.1054350421 0.0823102421
305298170.0 -0.6927304878 0.4885390671 -7.51308e-05 1.49658e-05 -5.00107e-05 2.4183e-06 -0.1041810157 0.0831668522
310298140.0 -0.6874589539 0.4965909356 0.0001390476 6.81064e-05 7.70033e-05 -5.48563e-05 -0.1042160905 0.0837298048
315298110.0 -0.6824016331 0.5032922657 0.0002173959 -3.35361e-05 0.000142935 8.9422e-05 -0.1031700864 0.0849618665
320298080.0 -0.6771146665 0.5104335219 -5.24667e-05 3.2464e-05 0.0001742253 0.0001099196 -0.1023703775 0.0856159215
325298050.0 -0.6715497142 0.5173057891 0.0002127252 0.0002219132 -0.0001475648 -7.20223e-05 -0.102161169 0.0866091702
330298020.0 -0.666074772 0.5241377304 7.98183e-05 -0.0001094226 5.25107e-05 -6.97899e-05 -0.1016188406 0.0877598294
335297990.0 -0.6603833066 0.5309605934 8.15523e-05 4.8568e-06 0.0001603547 0.000212335 -0.1013344628 0.0892322463
340297960.0 -0.6556479226 0.5380066962 0.0002411027 0.0002237048 -2.02068e-05 0.0002192306 -0.1001912372 0.0900011308
345297930.0 -0.6499852671 0.5446110716 0.0001909465 0.0001553239 1.9328e-06 0.000231635 -0.0999769088 0.0908548726
350297900.0 -0.644446034 0.5515362362 0.0001837074 0.0001217503 -3.05271e-05 0.0001111568 -0.0991357403 0.0924839298
355297870.0 -0.6381911174 0.558259341 0.0002389555 0.0001638112 0.0001104279 -8.39094e-05 -0.0990031392 0.093405459
360297840.0 -0.6321097475 0.5642703907 -0.0001693248 0.0002752975 0.0001754687 6.76788e-05 -0.0981039815 0.0944698365
365297810.0 -0.627130697 0.5709252101 7.74852e-05 5.91304e-05 -7.1061e-06 0.0001403021 -0.097436708 0.0953833574
370297780.0 -0.6208798895 0.5773621848 0.0001433584 4.5094e-06 9.10818e-05 0.0003523099 -0.0965219056 0.0966213657
375297750.0 -0.6141305622 0.583446599 0.0003811548 0.0001991942 0.0001654544 -0.0001531671 -0.0961408601 0.0971994842
380297720.0 -0.608252217 0.5889571895 0.0003294187 4.77079e-05 0.0002109946 9.25331e-05 -0.0957249278 0.0986583831
385297690.0 -0.60278886 0.5952823303 0.0001678871 3.43903e-05 0.0002304759 2.0092e-06 -0.0947613837 0.099449799
390297660.0 -0.5964761586 0.601650303 -6.854e-06 -5.63371e-05 0.0001866025 3.27142e-05 -0.0942858899 0.1008303837
395297630.0 -0.5896713413 0.6088128926 0.0001963203 0.000414532 7.45076e-05 4.36808e-05 -0.0931415898 0.1016749574
400297600.0 -0.5834509527 0.6144943393 0.0001215201 0.0002712501 1.84781e-05 0.0001226832 -0.0924220855 0.1025282152
405297570.0 -0.5779078285 0.6196806336 0.0001585093 0.0003305845 0.0002181974 0.0001870007 -0.0921197613 0.1037450198
410297540.0 -0.5706839132 0.6257194823 0.0003183797 -3.48874e-05 -5.361e-06 0.0002372701 -0.090718284 0.1047049592
415297510.0 -0.5641506208 0.6312281599 0.0001360212 6.75884e-05 0.0001447831 0.0001270727 -0.0903176225 0.1056488654
420297480.0 -0.5585831675 0.637698284 0.0001919559 1.14997e-05 9.18459e-05 -2.3229e-06 -0.0893482724 0.1065080525
425297450.0 -0.5511778351 0.642876147 0.000260163 0.0002026541 0.0001430302 6.08081e-05 -0.0887780401 0.1074002498
430297420.0 -0.544204393 0.6484798833 0.0001825227 7.32296e-05 6.9803e-06 -4.08381e-05 -0.0877944396 0.1082248216
435297390.0 -0.5383123617 0.6536170311 6.58167e-05 0.0001075215 2.70715e-05 0.000137932 -0.0864796589 0.1092154748
440297360.0 -0.5317350462 0.6594550948 -9.53706e-05 0.0001204919 3.45766e-05 -2.40634e-05 -0.0858939495 0.1101390729
445297330.0 -0.5244119981 0.6645523556 0.0001343995 4.24034e-05 1.63682e-05 0.0001902776 -0.084789337 0.1104658266
450297300.0 -0.5182246501 0.669423564 0.0001675499 -1.7129e-05 9.94029e-05 4.48525e-05 -0.0837917375 0.1115542767
455297270.0 -0.5113631989 0.674480036 0.0001549763 -0.0001241941 0.0002399201 0.0001376095 -0.083004163 0.1125323877
460297240.0 -0.504759245 0.6800486181 0.0001992103 6.57899e-05 9.59139e-05 3.25927e-05 -0.082110719 0.1136975696
465297210.0 -0.4976506078 0.6851162799 0.0001734029 2.16078e-05 1.51711e-05 0.0001227652 -0.0808078738 0.1144309148
470297180.0 -0.4900705729 0.6897048979 2.73444e-05 0.0003625298 0.0001158623 0.0002005006 -0.0798004276 0.1155791611
475297150.0 -0.4835035999 0.6948086791 0.0003223371 -7.92955e-05 0.0003144501 4.993e-07 -0.0787106213 0.1158640376
480297120.0 -0.4761475524 0.6995022497 0.0002098001 0.0002047598 4.47851e-05 7.66354e-05 -0.0776524643 0.1172501617
485297090.0 -0.4688883373 0.7044616205 0.0001846447 -7.30899e-05 0.0002642643 5.75478e-05 -0.0765739043 0.1182165682
490297060.0 -0.4622801947 0.7089454808 0.0003596289 0.000245609 0.0001723665 0.0001102002 -0.0756854394 0.1189401968
495297030.0 -0.4548519754 0.713150436 -1.45161e-05 0.0001067729 0.0002798344 0.0001534182 -0.0746687355 0.1199856454
500297000.0 -0.4469459873 0.7182574998 0.0001551456 2.87769e-05 3.91542e-05 -1.64093e-05 -0.0732791747 0.1213698123
505296970.0 -0.4401082834 0.7225751927 5.00452e-05 6.08116e-05 0.0001598535 0.0001872539 -0.0725891809 0.1218369374
510296940.0 -0.4321064842 0.7271271169 0.0001579361 0.0001097292 0.0001548642 0.0002167863 -0.0711217988 0.1227950454
515296910.0 -0.4242753947 0.7309490935 0.0002371083 0.0002372237 0.0002500256 -5.92855e-05 -0.0699466323 0.1234757211
520296880.0 -0.4180354259 0.735375655 0.0002421768 0.0001124624 0.0002242643 -2.46929e-05 -0.0692399033 0.1243460029
525296850.0 -0.4099578658 0.739292048 0.0001517236 0.000184889 0.0001935275 0.0002503176 -0.0678259816 0.1255554171
530296820.0 -0.4023310073 0.7439171609 0.0004105772 0.0001818683 0.0002252922 0.0001580671 -0.0670219798 0.1264335191
535296790.0 -0.394993499 0.7471797952 0.000259343 8.12758e-05 0.0002343515 0.0002367894 -0.0660060624 0.1270370383
540296760.0 -0.3875995777 0.7508834842 4.94154e-05 0.0002266706 0.000226094 -0.0001265961 -0.0647699455 0.1281721264
545296730.0 -0.3801047433 0.7551957132 0.0001605636 5.63904e-05 0.0001195742 -7.8771e-05 -0.0636297844 0.1287338735
550296700.0 -0.3724138874 0.7588058637 0.0001490147 6.35139e-05 0.0002140126 0.0001503298 -0.0626747252 0.1296325919
555296670.0 -0.3639843628 0.762260371 7.54664e-05 -3.42787e-05 0.0002272438 6.50065e-05 -0.0617709567 0.1306635977
560296640.0 -0.3570392199 0.7660262602 5.7972e-05 0.0002030172 0.0002268684 -1.47081e-05 -0.0602662287 0.1314831605
565296610.0 -0.3491541592 0.7698026559 7.42305e-05 4.997e-06 4.31988e-05 -5.39099e-05 -0.0594957274 0.131876423
570296580.0 -0.3413838547 0.7725691535 -3.74752e-05 -8.57e-07 0.0001127519 -0.0001295457 -0.058427923 0.1330114181
575296550.0 -0.3337529212 0.7772576302 0.0001979373 -4.48306e-05 0.0002458653 4.91448e-05 -0.0571269063 0.1337396591
580296520.0 -0.3257320013 0.7798983923 0.0001411952 0.0001179475 -1.27039e-05 -5.72549e-05 -0.0558765106 0.134438504
585296490.0 -0.318261202 0.7825500259 8.49722e-05 7.6931e-06 0.0003125085 0.0003247151 -0.0548881097 0.1349479247
590296460.0 -0.3103105944 0.7863960752 0.0002155447 0.0001275346 0.0002663145 -0.0001255446 -0.0538794234 0.1358716448
595296430.0 -0.3020937162 0.7885923838 0.0005334576 -0.0002247853 0.0001986409 6.19705e-05 -0.0526240144 0.1363599525
600296400.0 -0.2943787946 0.7920093739 0.0002454061 -0.0002274053 8.05289e-05 0.0001009104 -0.051239293 0.136662593
605296370.0 -0.2869334275 0.7949503867 0.000369714 0.0001373913 0.0002714413 -6.09848e-05 -0.049954162 0.137663736
610296340.0 -0.2787068056 0.7972038833 0.0003769233 0.0001301896 0.00030262 0.0001207114 -0.0487352989 0.1381412131
615296310.0 -0.2697414085 0.8008007465 0.0002364939 -3.726e-05 -8.0618e-05 0.0001449984 -0.0472248932 0.1385761916
620296280.0 -0.2623284373 0.8023312406 0.0002760288 0.0002366207 0.0002495079 1.0914e-05 -0.0460223086 0.1391899874
625296250.0 -0.2542455225 0.8053692323 0.0002586379 -0.0001034585 2.94338e-05 -6.83826e-05 -0.0444594066 0.1396267442
630296220.0 -0.2453792554 0.8076785854 0.0003181513 8.06401e-05 0.0001286765 2.57896e-05 -0.0433220879 0.1404761152
635296190.0 -0.2381073557 0.8102134689 0.000281655 -0.000135288 0.0002056213 3.53557e-05 -0.0418963142 0.1409856164
640296160.0 -0.2306697327 0.8122074598 0.0004208388 -1.6193e-06 0.0004198267 -0.0001162253 -0.04055646 0.1414605136
645296130.0 -0.2222277842 0.8155037185 0.0003066521 0.000138829 0.0002759933 -0.0001876077 -0.0391933613 0.1422010055
650296100.0 -0.2135900596 0.8167858406 0.0001849451 -4.44282e-05 6.58775e-05 0.0001031748 -0.0379627619 0.142202965
655296070.0 -0.2056965541 0.8192412006 0.0002414829 0.0001044513 0.0001567446 -0.0001696156 -0.0363861936 0.1432927225
660296040.0 -0.1971886722 0.8200172936 0.0003599648 -4.25201e-05 0.0002331873 0.0001676411 -0.0351171446 0.1435655535
665296010.0 -0.188992801 0.8224628595 0.0003484042 -8.40156e-05 0.0003078014 -0.0001469714 -0.0334560399 0.1442862497
670295980.0 -0.1815388984 0.824191836 0.000326387 -0.0001646919 0.0003686095 0.0001795709 -0.032284599 0.1449217075
675295950.0 -0.172900337 0.8261391908 0.0002476089 -0.0001398622 0.0003595504 -9.40401e-05 -0.0311213103 0.1458221904
680295920.0 -0.1645102903 0.8280804259 0.0003481912 4.37159e-05 0.0003156568 -8.77307e-05 -0.0295555418 0.1462457931
685295890.0 -0.1554292304 0.8304852644 0.0002406722 -0.0001131134 0.0003264804 -8.75533e-05 -0.0279270204 0.1466887959
690295860.0 -0.147924349 0.8312226826 6.36355e-05 0.0002647335 -1.30245e-05 9.38e-05 -0.0266285494 0.1475942427
695295830.0 -0.1398494553 0.8320416991 0.0002118504 0.0001470802 0.0004637082 0.0001391987 -0.0254746306 0.1478046203
700295800.0 -0.131154206 0.8334223674 0.0002122506 -0.0001641915 0.0001194447 7.42582e-05 -0.0243911581 0.1483427789
705295770.0 -0.1236049851 0.8355095065 0.0002225978 0.0001204561 0.0003120986 -9.65781e-05 -0.0225635515 0.1493412765
710295740.0 -0.1150646091 0.836506481 0.00021363 0.0001250437 0.0001313256 0.0001070616 -0.0214801939 0.1492756143
715295710.0 -0.1063479202 0.8377101791 0.0002099016 -1.62381e-05 0.0001979199 -0.000143973 -0.0200419671 0.1499405725
720295680.0 -0.0982598846 0.8386376297 0.0003928065 9.6194e-06 -5.9628e-06 -1.29157e-05 -0.0185383151 0.1503517055
725295650.0 -0.09025578 0.8392629173 0.0003214201 0.0002158959 0.0001828504 -8.10199e-05 -0.0173910504 0.1509081067
730295620.0 -0.0817361857 0.8407767488 0.0002076714 0.0001066753 0.0003571184 -1.71215e-05 -0.0163145119 0.1513651718
735295590.0 -0.0738410144 0.8409846717 0.0005197574 6.18891e-05 0.0004159573 0.0003158101 -0.0149909324 0.1514762985
740295560.0 -0.0651394565 0.8419321246 0.0003858508 -3.14989e-05 0.0003184565 -0.0002409779 -0.0132646211 0.1521529945
745295530.0 -0.0568840272 0.8425728418 0.0003436953 -0.0001189771 0.0002960929 -0.0001540177 -0.0119611782 0.1519911553
750295500.0 -0.048094481 0.8426041783 0.000113065 -4.42621e-05 0.0003290679 -0.000126306 -0.0105952145 0.1527380097
755295470.0 -0.0398094846 0.8428079278 0.0003092933 1.7827e-05 1.22496e-05 7.2655e-05 -0.0090580953 0.1523025872
760295440.0 -0.0316896735 0.8427211534 0.0003846188 5.5991e-05 0.0003029497 -0.0002217991 -0.0079119275 0.1526139505
765295410.0 -0.0229338381 0.8440133316 2.88468e-05 -8.15899e-05 0.0004214945 0.0002144046 -0.006264734 0.1533873624
770295380.0 -0.0149875238 0.844213552 0.0005437363 -0.000147958 8.76153e-05 -3.62223e-05 -0.0051090868 0.1531715002
775295350.0 -0.0068904869 0.8439184694 0.0003452714 -0.0001964305 0.000353313 4.44302e-05 -0.0039975139 0.1533212468
780295320.0 0.0015372891 0.8440256283 0.0003256986 3.06553e-05 0.0003408575 0.0001264059 -0.002056196 0.1535331962
785295290.0 0.0098878863 0.8432168413 0.0002026782 -2.64354e-05 0.0004171772 0.0001669509 -0.0002776641 0.1537322057
790295260.0 0.018375961 0.8438735059 0.0002128268 0.000122973 0.0003572202 0.0001179885 0.0011634218 0.1541492313
795295230.0 0.0267915887 0.8435109862 0.0003926823 6.00706e-05 0.0003601333 4.76824e-05 0.0027514502 0.1540676763
800295200.0 0.034769726 0.8426763772 0.0003861631 -4.87236e-05 0.000166388 4.7127e-06 0.0040636732 0.154505623
805295170.0 0.0436992745 0.8431119897 0.0002809279 0.0003513066 0.0004179849 -8.72803e-05 0.0054267573 0.1543302752
810295140.0 0.0520652676 0.8422908747 0.0003398486 -0.0001495884 5.65404e-05 -0.0001226419 0.0071165918 0.1545300426
815295110.0 0.0601004472 0.8414868457 0.0002384956 -0.0002928525 0.0004251423 0.0001837373 0.0086673268 0.1547660812
820295080.0 0.0677302839 0.8409191418 0.0005036747 -0.0001724581 0.0004630127 -6.67327e-05 0.0103827491 0.1546554819
825295050.0 0.0770679204 0.8401038714 0.0003232963 -9.00748e-05 0.0001767752 -0.0001322382 0.0116882276 0.1550114721
830295020.0 0.0847797855 0.8397214866 0.0002274115 -0.0001322817 0.0003129768 -6.17209e-05 0.0137847381 0.155218109
835294990.0 0.0933101261 0.8386930447 0.0003446098 -0.0002646932 0.0002806632 -1.62636e-05 0.0148453798 0.1554222951
840294960.0 0.1011497863 0.8378243953 0.000344188 -0.0001542825 1.71938e-05 0.0001205742 0.0163134525 0.1550813613
845294930.0 0.1096151652 0.8365813932 9.2973e-05 0.0001137032 0.0003728442 8.19709e-05 0.0178955075 0.1554379075
850294900.0 0.1180747665 0.8358029397 0.000245607 -0.0002503786 0.0004811841 -0.0003123864 0.0195462953 0.1554691785
