!Created with skrf (http://scikit-rf.org).
# Hz S RI R 50.0 
!freq ReS11 ImS11 ReS21 ImS21 ReS12 ImS12 ReS22 ImS22
300000.0 0.8588600894 -0.0027404684 -0.0004145239 0.0004752357 4.19336e-05 5.03993e-05 -0.7694134584 -0.13592135
5299970.0 0.858919299 -0.0096873243 -9.1648e-05 -9.09972e-05 6.21158e-05 7.49497e-05 -0.7849429202 -0.0074952572
10299940.0 0.8578526035 -0.0180968781 0.000170521 -0.0001194405 -5.56461e-05 -0.0001359298 -0.7878850037 -0.0036094211
15299910.0 0.8570947017 -0.0266025519 -2.2927e-05 -3.23994e-05 -0.0001365396 -0.0001175417 -0.7932530083 -0.0017532979
20299880.0 0.8564324932 -0.035149098 -0.0001595231 0.0003421505 0.0001758424 -4.0966e-06 -0.800167953 0.002357975
25299850.0 0.8558661006 -0.0434866415 0.0001332408 4.72014e-05 0.0001090642 6.03924e-05 -0.8060980585 0.0080826593
30299820.0 0.8547061608 -0.0520998608 -0.0001119471 0.0001258449 0.0001084329 -0.0001817013 -0.8116634564 0.0161606975
35299790.0 0.8538765138 -0.0602442636 0.0001141024 -0.0002586199 -0.0001869171 3.87638e-05 -0.8169146524 0.0251415906
40299760.0 0.8528170415 -0.0688138952 5.66423e-05 0.0001093072 -0.0001082622 -7.06242e-05 -0.8217613858 0.0348968932
45299730.0 0.8529165615 -0.0770990405 -1.71021e-05 -0.0001477246 0.0001104645 6.24688e-05 -0.8254195649 0.0439772866
50299700.0 0.8520315795 -0.0844802965 0.0001105006 6.94738e-05 6.98613e-05 -8.59371e-05 -0.8272631414 0.0538881857
55299670.0 0.8509857569 -0.0932819394 -1.44671e-05 5.44419e-05 4.53838e-05 0.0001251336 -0.8292968152 0.0641234701
60299640.0 0.8494000854 -0.1011358687 8.93e-06 1.5019e-05 -0.0001107891 -5.0395e-06 -0.8306621482 0.0742442554
65299610.0 0.8481413891 -0.1097939937 -5.71479e-05 -5.312e-06 -0.0001006532 -8.1557e-06 -0.8321816937 0.0836881396
70299580.0 0.8471803084 -0.1184627423 0.0001132957 -0.0002313925 0.0001035996 7.8457e-06 -0.831919051 0.0946270815
75299550.0 0.8463538361 -0.1261264801 3.4541e-06 -2.00648e-05 -0.0001107186 8.82564e-05 -0.8322378216 0.1041788151
80299520.0 0.844483274 -0.1347788344 8.4688e-06 9.93978e-05 6.87695e-05 3.46437e-05 -0.8318939535 0.1132626599
85299490.0 0.8435597735 -0.1428038441 -0.0001571126 -8.01045e-05 -0.0001398426 3.90903e-05 -0.8318456378 0.1238796821
90299460.0 0.841848645 -0.1511429749 0.0001337183 9.8591e-06 0.0001792996 4.13342e-05 -0.8305742081 0.1334984439
95299430.0 0.8401018411 -0.1595214213 0.0001265799 5.10495e-05 -0.0001310127 -0.0001295622 -0.8290821164 0.1435343235
100299400.0 0.8385425678 -0.1672289281 2.49305e-05 -3.93442e-05 -8.12022e-05 -3.90706e-05 -0.8285365441 0.1522740969
105299370.0 0.8373038524 -0.1754746745 0.0001690855 0.0001455407 0.000142455 3.50756e-05 -0.8266129725 0.160830348
110299340.0 0.8355755254 -0.1840488988 0.0001015733 4.0148e-05 -7.7026e-05 -0.0001173508 -0.8259511901 0.1705278161
115299310.0 0.8334079384 -0.1918223331 -6.51752e-05 6.44295e-05 1.78786e-05 -3.69692e-05 -0.8239532874 0.1795331816
120299280.0 0.8316643353 -0.1998531583 0.0002370839 0.0001312344 4.37996e-05 5.5874e-06 -0.8222135735 0.1886809905
125299250.0 0.829763804 -0.2080821366 0.0001683542 -0.0001238335 -3.9727e-05 4.95279e-05 -0.8207374757 0.1978622683
130299220.0 0.8276279248 -0.2159804146 5.86353e-05 4.24481e-05 5.93177e-05 0.0001602693 -0.8187816612 0.2063645554
135299190.0 0.8258702386 -0.2241669512 -0.000140769 -0.0002209673 6.4312e-06 -4.45355e-05 -0.8167331591 0.215966989
140299160.0 0.8233580572 -0.2319500327 -3.19206e-05 0.0001324701 -0.0002306453 4.30365e-05 -0.8144629257 0.2248999589
145299130.0 0.8201928107 -0.2396546038 -0.0001259711 -0.0003526807 2.83005e-05 -2.33873e-05 -0.8123840822 0.2337275558
150299100.0 0.8184624245 -0.2481491056 4.29459e-05 -0.0001290069 4.03775e-05 -5.13494e-05 -0.8106176208 0.2431110247
155299070.0 0.8152822348 -0.2561175581 0.0001671779 -3.59408e-05 0.0001035669 2.63918e-05 -0.8075941152 0.2516686593
160299040.0 0.8133550724 -0.2642056501 -0.0001296215 0.0001535863 -0.0001208893 -1.22402e-05 -0.8052504165 0.2604972381
165299010.0 0.8104447796 -0.2724775142 -0.0003048948 -0.0001233958 6.19195e-05 -6.91242e-05 -0.8023116717 0.268993576
170298980.0 0.8078134449 -0.2798774067 0.000137202 -9.96382e-05 -8.9885e-06 6.6491e-06 -0.7995311769 0.2783106303
175298950.0 0.804472426 -0.2881693946 0.000144761 0.0001341424 -0.0001930321 -8.74994e-05 -0.7966821803 0.2866419391
180298920.0 0.8025090049 -0.2955396465 -8.3506e-06 0.0002719969 -4.26948e-05 8.10493e-05 -0.7939595739 0.2952029956
185298890.0 0.798706321 -0.3035177319 -4.50474e-05 0.0001734569 -0.000136216 7.22326e-05 -0.7902616561 0.3038950813
190298860.0 0.795942216 -0.3114277051 -0.0002455587 -1.24765e-05 3.76495e-05 -4.81293e-05 -0.7881401088 0.3124093
195298830.0 0.7927038617 -0.318609388 -0.0001403024 -0.0001214491 5.7869e-06 7.89173e-05 -0.7846428482 0.3201506283
200298800.0 0.7892871345 -0.3266302209 0.0001898079 -2.66132e-05 -0.0001239468 0.0001837119 -0.78205433 0.3291208961
205298770.0 0.7857092095 -0.3334819604 2.25229e-05 8.93439e-05 2.40038e-05 -2.75115e-05 -0.7773207311 0.3374927664
210298740.0 0.7832318697 -0.341642367 0.0001534003 1.76487e-05 5.73392e-05 -0.0002858746 -0.7746822463 0.3453552234
215298710.0 0.7794191057 -0.3497436801 0.0002077058 5.88812e-05 -1.42457e-05 0.0001262404 -0.7708743353 0.3539115066
220298680.0 0.776153023 -0.3573119925 -6.90975e-05 0.0001891537 1.5088e-06 -7.38473e-05 -0.7678965414 0.3612728063
225298650.0 0.7720727981 -0.3653178639 -9.84802e-05 -5.67179e-05 0.0001382562 -0.0001038125 -0.7634591524 0.3699804814
230298620.0 0.7687022568 -0.3722743245 0.0001075101 -0.0001689831 -0.0001223608 6.44368e-05 -0.759752444 0.3786635086
235298590.0 0.7653446381 -0.3793619665 -7.08841e-05 -9.79749e-05 3.83039e-05 -2.9084e-06 -0.7560891444 0.3866997299
240298560.0 0.7615629266 -0.3873636404 0.0001030235 -1.84917e-05 3.858e-05 -4.31778e-05 -0.7515626849 0.3950676046
245298530.0 0.757500083 -0.3945926459 -0.0001188298 8.57663e-05 -0.0001040023 6.68566e-05 -0.7475465126 0.4017593611
250298500.0 0.7536942797 -0.4016662429 8.57954e-05 5.37339e-05 5.73323e-05 0.0001236768 -0.7438318524 0.4101074036
255298470.0 0.7490394128 -0.4100888774 -4.842e-07 -0.0001533045 -0.0001165265 -8.7558e-05 -0.7391227531 0.4177269445
260298440.0 0.7452599628 -0.4170020984 7.38209e-05 -0.0001006839 3.2551e-05 0.0001391237 -0.7347972059 0.4257894884
265298410.0 0.7410120473 -0.4243327767 7.2668e-05 -0.0001400065 8.12973e-05 -2.29319e-05 -0.7300923944 0.4329284836
270298380.0 0.7367604153 -0.4310263646 1.78828e-05 7.8394e-06 -8.60302e-05 0.0001746489 -0.7257286464 0.4408149687
275298350.0 0.7327917301 -0.4381151469 -7.85796e-05 6.96101e-05 0.0001278363 4.57357e-05 -0.7206340578 0.4487585851
280298320.0 0.7284845434 -0.4458502111 5.39205e-05 -3.66078e-05 -0.0001134859 -6.0494e-06 -0.7159628971 0.4558210771
285298290.0 0.7247694382 -0.4520997052 -0.0002005854 -6.84511e-05 -0.0001423236 -3.37829e-05 -0.7108446651 0.4637363152
290298260.0 0.7202619969 -0.4597545539 -8.43663e-05 0.0001025122 -5.37888e-05 -5.38224e-05 -0.7060750885 0.4706632538
295298230.0 0.7159221189 -0.4663643044 1.40239e-05 9.09872e-05 5.41097e-05 6.06343e-05 -0.7011518222 0.4781340861
300298200.0 0.7116014591 -0.4737041673 3.54216e-05 8.49884e-05 7.31137e-05 5.6696e-05 -0.696023778 0.4855361078
305298170.0 0.7069276568 -0.4809776282 0.0001364339 -0.0001254061 0.0002556513 -2.57585e-05 -0.6901637357 0.4931114225
310298140.0 0.7027941598 -0.4882998843 -0.0001525245 0.0001748079 -5.82066e-05 -2.97914e-05 -0.686215641 0.4997994586
315298110.0 0.6977797304 -0.4959478629 0.000182561 8.47833e-05 9.53375e-05 -1.62837e-05 -0.6805920907 0.5068395781
320298080.0 0.6935604979 -0.5031163732 -1.68792e-05 -3.61277e-05 -4.92007e-05 0.0002096741 -0.674768635 0.5148485068
325298050.0 0.6879931938 -0.5106220836 -0.0003483705 -0.0002945588 9.862e-07 -0.0002352657 -0.6690653229 0.5209414737
330298020.0 0.6819702642 -0.5176225854 -4.63523e-05 5.81445e-05 0.0001499402 0.0001923838 -0.6636064517 0.5283496247
335297990.0 0.6758950121 -0.5247578192 0.0002392034 -0.0002995396 0.0001106076 5.69576e-05 -0.6586134791 0.5353063972
340297960.0 0.6703115669 -0.5314646881 -9.33263e-05 0.0001373872 -0.0001442886 -0.0002592811 -0.6528702882 0.5422519519
345297930.0 0.6644958714 -0.5371316688 -2.85701e-05 -3.14264e-05 -9.21966e-05 7.58631e-05 -0.646884556 0.5482978548
350297900.0 0.6587174822 -0.5431833298 -8.21994e-05 0.000212933 -0.0002118692 -7.20054e-05 -0.6417397275 0.5551603045
355297870.0 0.6533484089 -0.5498936021 -4.83492e-05 3.49378e-05 -1.24024e-05 -8.9158e-06 -0.6359965529 0.5618011958
360297840.0 0.6476596434 -0.5555823678 -2.26326e-05 -9.461e-06 -7.55742e-05 2.65846e-05 -0.6292208654 0.5685207809
365297810.0 0.6412999733 -0.5623251996 1.036e-07 7.16812e-05 0.0001356295 -0.0001358776 -0.6231430467 0.5752678716
370297780.0 0.6364763414 -0.5684106591 6.59284e-05 0.0001310464 0.0002648273 -0.0001914892 -0.6173435234 0.5813485042
375297750.0 0.6301522868 -0.5740916474 1.55942e-05 -7.297e-06 -7.53071e-05 2.03654e-05 -0.6116820611 0.5875583881
380297720.0 0.6249130144 -0.5802807449 2.27396e-05 -1.98835e-05 7.2738e-05 0.0001710206 -0.6059331773 0.5936982962
385297690.0 0.6188552834 -0.5865364207 3.59127e-05 -6.34051e-05 9.49036e-05 4.8469e-06 -0.5994866314 0.6006173706
390297660.0 0.6131510256 -0.5917604387 0.0001745522 0.0001489215 8.32905e-05 0.0001373981 -0.5933711637 0.6064299967
395297630.0 0.6067763314 -0.5981556681 4.28184e-05 1.32408e-05 -1.71642e-05 -0.0001787646 -0.5866938758 0.6130003501
400297600.0 0.600834329 -0.603368892 -9.88908e-05 -3.49601e-05 0.0001588255 9.3426e-06 -0.5806982373 0.6187665206
405297570.0 0.595078727 -0.6092269062 -5.22973e-05 -5.71125e-05 -2.72239e-05 0.0002339178 -0.574128158 0.6244406708
410297540.0 0.5886514146 -0.6156092059 2.04172e-05 0.0001680125 8.6778e-06 -0.000104076 -0.5675960422 0.630602551
415297510.0 0.5828152102 -0.620615577 0.0002359415 4.52281e-05 6.33064e-05 -0.0001497605 -0.5610401572 0.6358774144
420297480.0 0.5763869021 -0.6261287969 -6.57396e-05 6.9775e-05 -0.000166267 0.0001479881 -0.554436908 0.6419235438
425297450.0 0.569993272 -0.6318773011 0.000149729 7.02753e-05 3.45275e-05 0.0001156931 -0.5479766434 0.647816689
430297420.0 0.5640017385 -0.6372731344 3.67635e-05 -9.30409e-05 -0.000147508 8.79462e-05 -0.5416724278 0.6527265657
435297390.0 0.5576377895 -0.6430466161 -1.69858e-05 6.32939e-05 1.249e-06 4.85593e-05 -0.534063294 0.6583508679
440297360.0 0.5508064507 -0.6486672659 9.78205e-05 9.3315e-05 3.79539e-05 -0.0001045892 -0.5272760183 0.6635564771
445297330.0 0.544962732 -0.6536666906 0.0001309083 0.0001316071 0.0001037922 6.84143e-05 -0.5206475342 0.6684437586
450297300.0 0.5389996567 -0.6584908279 9.81164e-05 -9.79531e-05 -5.20769e-05 0.0002222857 -0.5132441743 0.6740161405
455297270.0 0.5318673395 -0.6640708735 3.45881e-05 -5.35081e-05 -0.0002426387 -2.86361e-05 -0.506703792 0.6785893295
460297240.0 0.5258592187 -0.6695101886 -2.97054e-05 3.21888e-05 -7.80238e-05 -6.30678e-05 -0.4996522675 0.6836173212
465297210.0 0.5179826113 -0.6742501718 -2.09793e-05 0.0002556272 2.2874e-06 -3.3245e-06 -0.4920625661 0.6889171359
470297180.0 0.5113201895 -0.6788038962 -1.5052e-06 5.1878e-05 -2.28587e-05 1.45289e-05 -0.4846287204 0.6939710441
475297150.0 0.5052560299 -0.6842047208 2.76114e-05 0.0002639987 1.20347e-05 2.76289e-05 -0.4775769859 0.6984350685
480297120.0 0.497531702 -0.6892730366 -6.88241e-05 -2.96029e-05 -2.7668e-05 0.0001705659 -0.470538172 0.7036882265
485297090.0 0.4916191401 -0.6942081249 -8.4576e-06 -0.0001079427 1.4708e-05 0.000325919 -0.4633163462 0.7081299272
490297060.0 0.4837819033 -0.6991176436 8.82182e-05 -0.0002855103 -4.96541e-05 1.46129e-05 -0.4559871812 0.712826776
495297030.0 0.4774815947 -0.703330232 7.10404e-05 -5.331e-05 5.14746e-05 1.41647e-05 -0.4486731679 0.7176040287
500297000.0 0.4700599013 -0.7077083827 6.7344e-06 2.26813e-05 -4.4043e-06 -8.51023e-05 -0.440842479 0.7221869227
505296970.0 0.4631645228 -0.7125188561 1.0787e-05 0.0001911724 2.4879e-05 8.63586e-05 -0.4337583303 0.7270528309
510296940.0 0.4560824714 -0.717020502 1.04731e-05 0.0002773025 -0.0002368121 0.0001198568 -0.4263645736 0.7309113261
515296910.0 0.4495245773 -0.7207908343 0.0001096367 0.0001334746 -0.0001648765 9.29371e-05 -0.4187419574 0.7350119269
520296880.0 0.441710008 -0.7252744326 -1.9728e-05 -4.0202e-05 -0.000179639 -6.51896e-05 -0.4116365888 0.7393064247
525296850.0 0.4345550622 -0.7299272669 -0.0001149276 -1.76625e-05 -5.03046e-05 5.51279e-05 -0.4040797289 0.7435680228
530296820.0 0.4275178466 -0.7337008932 8.18621e-05 -4.48736e-05 -0.0001983191 0.0003483367 -0.3966460655 0.7473555444
535296790.0 0.4200442497 -0.7380130923 7.15933e-05 -0.0001255253 2.09371e-05 6.60259e-05 -0.3892863933 0.7519667846
540296760.0 0.4130649289 -0.7417497661 1.49428e-05 0.0001671503 7.2955e-05 1.37244e-05 -0.3812804623 0.7553508638
545296730.0 0.4052056929 -0.7457357899 3.0372e-06 0.0001103081 -5.88322e-05 2.69699e-05 -0.3740934585 0.7588801949
550296700.0 0.398222481 -0.7489361165 -2.1961e-05 7.6281e-06 7.91202e-05 1.57086e-05 -0.365868463 0.7626288884
555296670.0 0.3899119244 -0.7532473691 5.8648e-05 -0.0001462302 0.0001674556 -0.0001345695 -0.3580051633 0.7667371672
560296640.0 0.382648159 -0.7571780472 -4.7442e-06 -9.53912e-05 -2.6065e-05 -7.69786e-05 -0.3500457535 0.7707981022
565296610.0 0.375083105 -0.7604621541 -3.78936e-05 6.29817e-05 -3.27258e-05 0.0001111594 -0.3424730549 0.7735988757
570296580.0 0.3672433028 -0.7638585822 -9.21506e-05 0.0002358558 8.4356e-05 -7.42324e-05 -0.3353727606 0.7775484038
575296550.0 0.3598004531 -0.7670365242 3.34826e-05 -0.0001338515 -0.0001279311 -1.30786e-05 -0.3268018694 0.7807991787
580296520.0 0.352420481 -0.7710796554 9.28461e-05 -0.0002186114 0.0001187504 -1.88538e-05 -0.3181751883 0.7836468999
585296490.0 0.3443778756 -0.7750154728 -0.0001364045 -7.09296e-05 -4.91854e-05 -0.0001162818 -0.3109215554 0.7866629379
590296460.0 0.3374008686 -0.777028599 -5.79919e-05 -0.0001313304 0.0002605322 0.0001383694 -0.3032477379 0.7901167587
595296430.0 0.3287477613 -0.7811012037 9.29807e-05 0.0001139475 -1.91295e-05 -1.36514e-05 -0.2951433642 0.7925221974
600296400.0 0.3210762716 -0.7835850807 -0.0001593694 -7.6243e-05 -1.82596e-05 -3.07104e-05 -0.2869853974 0.7959247608
605296370.0 0.3133722268 -0.787221701 -8.34968e-05 -0.000146497 8.46929e-05 -0.0001391257 -0.2781270636 0.7985811038
610296340.0 0.3051688353 -0.7904006957 -5.33606e-05 -8.22248e-05 0.0001236054 3.63433e-05 -0.2703119251 0.801016241
615296310.0 0.297886133 -0.7930631026 -0.0001063656 4.01127e-05 4.28324e-05 0.0001251342 -0.2619127371 0.8034157494
620296280.0 0.2896082927 -0.7955619839 -0.0001506991 0.0001591311 -0.0001377392 6.5471e-05 -0.2545136251 0.8061992849
625296250.0 0.2820586248 -0.798790962 -1.0212e-05 1.83111e-05 4.12128e-05 -0.0001531196 -0.2452909337 0.8080656155
630296220.0 0.2745103524 -0.8014964248 5.2224e-06 -4.02537e-05 1.43401e-05 -3.4136e-05 -0.2379595791 0.8108864022
635296190.0 0.2661558789 -0.8034691214 -0.0001323723 3.64185e-05 4.69512e-05 0.0002081022 -0.2298141774 0.8127263046
640296160.0 0.2578883665 -0.806352397 0.0002411367 -3.25028e-05 6.73426e-05 0.0001891648 -0.22158589 0.8155797538
645296130.0 0.2499071556 -0.8083118881 -7.52088e-05 -0.0001414332 -0.0001044072 -7.11591e-05 -0.2131999592 0.8175947544
650296100.0 0.2412005168 -0.8108019473 0.0002850638 -6.00081e-05 -0.0001537357 -0.0002324431 -0.2050182562 0.8190303804
655296070.0 0.2333208814 -0.8138720563 0.0001781601 6.1294e-05 -0.0002983947 0.0001892281 -0.1963377198 0.8212515861
660296040.0 0.2257242924 -0.8150577405 0.0001528521 0.0002270217 -0.0001111305 -0.0001170267 -0.1878414699 0.8231297447
665296010.0 0.2178823983 -0.8175511605 -3.80541e-05 -0.0002258486 -3.16379e-05 8.37635e-05 -0.179110068 0.8248970129
670295980.0 0.2089631429 -0.8194393018 1.63506e-05 -3.50042e-05 -0.0001396827 -9.99545e-05 -0.1720332598 0.826507836
675295950.0 0.2017613038 -0.8209180335 -7.8758e-06 5.40457e-05 3.52342e-05 0.0001290094 -0.1640593464 0.8287890078
680295920.0 0.1924912404 -0.8226032673 -0.0001307848 -0.0002204254 7.70535e-05 -4.34338e-05 -0.1549982772 0.8304379495
685295890.0 0.185018012 -0.8239727862 -3.44159e-05 4.24257e-05 -0.0001220088 -0.0001521703 -0.1467617738 0.8315272713
690295860.0 0.1761946776 -0.8264826132 0.0001262413 2.52635e-05 -0.0001835931 6.58409e-05 -0.1384650309 0.8335412949
695295830.0 0.1681645212 -0.8281754551 -0.000132285 -5.79721e-05 3.2307e-05 -0.0002019466 -0.129792736 0.8349275842
700295800.0 0.1599634892 -0.8298322933 -5.09963e-05 5.23589e-05 0.0001473192 2.89311e-05 -0.1226858518 0.835875257
705295770.0 0.1516447816 -0.8305359537 -2.07272e-05 -1.70893e-05 -9.99871e-05 -4.9358e-06 -0.1136906388 0.8375780947
710295740.0 0.142899957 -0.8321084591 -8.28877e-05 -6.47692e-05 -0.0001100654 -0.0001671503 -0.1059097212 0.8380580838
715295710.0 0.1343903392 -0.8338788779 -1.47002e-05 -2.25298e-05 -0.0001001629 0.0001223642 -0.0967758147 0.8397448488
720295680.0 0.1266292108 -0.834699455 -0.0001428462 0.00017416 -3.328e-05 2.0902e-05 -0.0880516808 0.840558183
725295650.0 0.1177571885 -0.8349299002 0.0001966957 4.07738e-05 0.0001001548 6.0429e-05 -0.0802506562 0.8421202066
730295620.0 0.1096713646 -0.8359701285 -0.0001785792 0.0001631344 3.42867e-05 -3.95509e-05 -0.0723021002 0.8423963284
735295590.0 0.1016219787 -0.8369770221 -0.0002088507 -5.26198e-05 0.000111696 -6.55306e-05 -0.0634987888 0.8424497682
740295560.0 0.092886947 -0.8376172045 0.0002456155 -0.0001198453 1.51894e-05 -2.09733e-05 -0.0542742511 0.8436340024
745295530.0 0.0844778823 -0.8387872435 -9.12852e-05 -0.0001642885 -1.84943e-05 -8.5065e-06 -0.0460358071 0.8438017688
750295500.0 0.0759921093 -0.8392475196 -5.81769e-05 0.0002029663 9.81761e-05 -3.76628e-05 -0.0377061822 0.8444838923
755295470.0 0.0673557729 -0.8401492015 8.6552e-06 -3.06311e-05 7.47405e-05 0.0001929997 -0.0291118454 0.8437373161
760295440.0 0.059159682 -0.8402444184 1.58262e-05 -4.67961e-05 8.6771e-06 -3.81448e-05 -0.0213069027 0.8441526602
765295410.0 0.0509887296 -0.8409922784 -5.24163e-05 -7.88138e-05 5.26111e-05 0.0001655596 -0.0126056707 0.8450477253
770295380.0 0.042250665 -0.8415379208 1.91679e-05 2.00188e-05 -0.0001384491 -7.64036e-05 -0.004326065 0.8447789438
775295350.0 0.0341825995 -0.8415992785 -0.0001616956 1.69464e-05 0.0001280022 1.67451e-05 0.0033984388 0.843993098
780295320.0 0.0260169322 -0.8411725194 1.51311e-05 3.16475e-05 -2.1392e-06 5.30075e-05 0.0122414827 0.8442956328
785295290.0 0.0173799557 -0.8420777986 -0.0001834883 -4.44124e-05 -5.1471e-05 7.5847e-05 0.0205808525 0.8440552407
790295260.0 0.0088407195 -0.8415095853 0.0001613796 9.3979e-06 -8.02547e-05 7.53017e-05 0.0292895193 0.8438613379
795295230.0 0.0006815113 -0.8412242101 -0.0001616136 -1.3531e-06 3.58011e-05 -8.7451e-06 0.0381496694 0.8430656293
800295200.0 -0.0079555771 -0.841307695 -4.82692e-05 -0.0001217841 -9.17103e-05 9.68498e-05 0.0469129933 0.8427778317
805295170.0 -0.0162303232 -0.8414465012 7.4145e-05 7.28319e-05 0.0001490315 0.0001134891 0.0546395913 0.8429964194
810295140.0 -0.0243235073 -0.8400453288 -0.0001169954 -1.27497e-05 -1.75067e-05 9.9923e-05 0.0636234327 0.8415646993
815295110.0 -0.0330496928 -0.8407851317 0.0002012948 0.0001727814 9.87405e-05 -0.0001674824 0.0717956475 0.841108407
820295080.0 -0.0414117873 -0.8398133866 0.0001471052 7.01518e-05 8.35635e-05 0.0002126982 0.0803087509 0.8402048574
825295050.0 -0.0490911376 -0.8391744953 0.000327338 6.53336e-05 3.56231e-05 0.0001365265 0.0883368564 0.8396774782
830295020.0 -0.0580544584 -0.8385780886 -0.0001746246 -1.86314e-05 -7.26056e-05 -0.0001046604 0.097434885 0.8384279124
835294990.0 -0.0664113848 -0.8369344874 -4.62314e-05 -0.0001129305 -2.02381e-05 0.0001847575 0.1046732148 0.8377596107
840294960.0 -0.0749571885 -0.8366821552 -5.36597e-05 0.0001162303 -2.68225e-05 0.0001448276 0.1136182255 0.8367582728
845294930.0 -0.0827516547 -0.8356907053 -6.53789e-05 -2.7962e-05 -7.91645e-05 0.0002483411 0.1214456928 0.8350481244
850294900.0 -0.090744198 -0.8351673955 9.7806e-06 -0.0001021251 9.00807e-05 -0.0001080358 0.1296798383 0.8342229514
