!Created with skrf (http://scikit-rf.org).
# Hz S RI R 50.0 
!freq ReS11 ImS11 ReS21 ImS21 ReS12 ImS12 ReS22 ImS22
300000.0 -0.7695946012 -0.1723435878 -0.0002834857 -0.0004710281 -2.08235e-05 -0.0010337002 -0.2107308138 -0.1053637349
5299970.0 -0.7860503606 -0.0091452482 1.51688e-05 -6.13665e-05 7.1726e-06 0.0002806309 -0.2162666948 0.0061452346
10299940.0 -0.7889916231 -0.0058095631 -0.0001031925 -4.94548e-05 4.66461e-05 8.7539e-06 -0.2123081807 0.0188182473
15299910.0 -0.7943400498 -0.0032577037 2.56476e-05 7.66182e-05 -5.14776e-05 -0.000139812 -0.2076446031 0.0282348087
20299880.0 -0.800828678 0.001025038 -0.0003046875 8.20154e-05 -0.0001265713 0.0001568152 -0.2025727546 0.0358539647
25299850.0 -0.8076350517 0.0064944843 -0.0003302675 -7.98012e-05 -0.000241354 3.9813e-06 -0.1972089026 0.0419416203
30299820.0 -0.8140113863 0.0139544758 0.0001569786 -7.00703e-05 -9.05069e-05 4.15274e-05 -0.1911288169 0.0465309079
35299790.0 -0.8186327264 0.0227265524 3.37151e-05 -0.0001496073 -3.12575e-05 -2.21807e-05 -0.1851851511 0.0504123969
40299760.0 -0.8235443084 0.0315037467 -8.28377e-05 0.0002394183 0.0001078518 4.68095e-05 -0.1798659881 0.0532186966
45299730.0 -0.8264275725 0.0417936608 -8.78798e-05 2.84576e-05 -1.0586e-06 4.33053e-05 -0.1744001476 0.055250721
50299700.0 -0.8292949872 0.0519777374 0.0001316757 0.0001028758 0.0001460245 0.0001687928 -0.1698301667 0.0569226464
55299670.0 -0.8312531087 0.0613562899 9.5137e-06 1.81916e-05 -0.0001761225 0.0001366541 -0.1656305795 0.0581506479
60299640.0 -0.8325035078 0.072301096 -1.42916e-05 -7.41414e-05 8.0428e-05 0.0002491462 -0.161432962 0.0587120117
65299610.0 -0.833052499 0.081585604 6.77104e-05 0.0001942313 0.0001713061 -0.0001262916 -0.1578081727 0.0593791969
70299580.0 -0.8337599004 0.0912904664 -3.09216e-05 0.0001525196 -4.88549e-05 3.65341e-05 -0.1544754269 0.0597274365
75299550.0 -0.8336331975 0.1018052914 -0.0001574585 8.72407e-05 8.49833e-05 1.9492e-05 -0.1513909105 0.0599584242
80299520.0 -0.8341522067 0.1115390761 -0.0002842389 0.0001842499 -0.0001834873 -3.30851e-05 -0.1488685268 0.0598964266
85299490.0 -0.833081227 0.1211688821 6.50295e-05 -2.9712e-06 0.0001242187 -3.06232e-05 -0.1465682276 0.059759435
90299460.0 -0.8320431326 0.1310761613 -6.77814e-05 -0.0001173664 0.0001621732 -6.11565e-05 -0.1443578222 0.0595876483
95299430.0 -0.8314975538 0.1404528454 0.0001428848 -8.03777e-05 1.43852e-05 -1.56797e-05 -0.1421337646 0.0599812859
100299400.0 -0.8304046627 0.1499592145 -3.6225e-06 -0.0001384648 -6.74034e-05 8.79144e-05 -0.1407166002 0.0601202731
105299370.0 -0.8290373671 0.1587093092 -3.14748e-05 -8.0676e-06 -4.43586e-05 0.0002185857 -0.138684774 0.0599381541
110299340.0 -0.827540892 0.1681084617 8.0287e-06 1.17762e-05 2.82038e-05 4.30362e-05 -0.1375376336 0.0597791277
115299310.0 -0.8255369244 0.1776151231 0.0001144654 -7.78956e-05 0.000126065 9.78233e-05 -0.1362475093 0.0599618944
120299280.0 -0.8248323047 0.1865580655 -7.1434e-05 -9.60861e-05 -0.0001764425 -2.9136e-05 -0.135101449 0.0598616573
125299250.0 -0.8223623459 0.1956978807 0.000206128 -4.95619e-05 -5.3684e-06 9.84293e-05 -0.1339724037 0.0600474419
130299220.0 -0.8207600673 0.2051535079 3.20273e-05 -0.0001037827 0.000160058 0.0001051422 -0.1328207228 0.0603240979
135299190.0 -0.8185811089 0.214429156 -2.97296e-05 0.000160568 -0.000112227 5.85268e-05 -0.1320880866 0.0604111844
140299160.0 -0.8168477493 0.2230789696 0.0002277921 3.13519e-05 4.63204e-05 0.0001678094 -0.1313867348 0.0607432567
145299130.0 -0.8148917374 0.2321147498 9.4748e-06 -3.3538e-05 -0.0001284978 0.000162228 -0.130672803 0.0609746652
150299100.0 -0.8118136529 0.240784627 -9.19829e-05 0.0002427474 0.0001811514 9.01722e-05 -0.1299327568 0.0613574837
155299070.0 -0.8096384013 0.249653878 0.0001127969 8.28689e-05 6.71673e-05 0.0001766935 -0.1291846859 0.0619655108
160299040.0 -0.807602342 0.2593561562 0.0001157686 3.48984e-05 -0.0003300081 0.0003073402 -0.128545211 0.0622415007
165299010.0 -0.8043912571 0.2672347179 0.0001876043 -3.40062e-05 8.74281e-05 2.14494e-05 -0.1277392472 0.0624169057
170298980.0 -0.801867123 0.2763153407 0.0001441528 -3.19449e-05 -0.0001349306 -5.23251e-05 -0.1272750437 0.0631227051
175298950.0 -0.7993777179 0.2845847787 2.9296e-06 -1.12608e-05 -0.0001332869 0.0002095999 -0.1266376231 0.064048225
180298920.0 -0.7960376678 0.2936970479 2.49059e-05 0.0001175438 3.95165e-05 0.0002212772 -0.1262453335 0.0643744806
185298890.0 -0.7926401752 0.3020360173 -7.9523e-05 0.0001070875 -1.48758e-05 0.0002702282 -0.1256955235 0.0647915725
190298860.0 -0.7890683401 0.3110757567 -0.00013084 0.0002295649 0.0001565088 8.34016e-05 -0.124918749 0.0654435197
195298830.0 -0.7866320881 0.319362663 4.16564e-05 0.000161142 -0.0001230032 0.0001939679 -0.1247999234 0.0662562174
200298800.0 -0.7826424275 0.3276131779 0.0001327231 -1.1764e-05 2.93103e-05 8.70366e-05 -0.1240482928 0.067097657
205298770.0 -0.7794047767 0.3361845108 0.0002577007 8.11035e-05 0.0002855134 0.0001655831 -0.1238823054 0.0678261616
210298740.0 -0.7760690047 0.344483043 0.0001812658 1.05386e-05 0.0002325245 6.21972e-05 -0.1233895848 0.0683541999
215298710.0 -0.7723290537 0.3534438123 0.0001595418 9.0821e-06 0.0002264476 -3.28431e-05 -0.1230431333 0.0691892857
220298680.0 -0.7685054306 0.3605498612 0.0002054997 0.0001788563 0.0002008975 9.08993e-05 -0.1222546244 0.0701587129
225298650.0 -0.7645656018 0.3694708916 -0.000120748 -6.60869e-05 0.0002261791 7.91848e-05 -0.1220996761 0.0709566965
230298620.0 -0.7611577944 0.377798061 -5.16472e-05 7.8284e-05 4.44992e-05 -3.79922e-05 -0.1214961966 0.0716848266
235298590.0 -0.7573206513 0.3860469235 -7.80073e-05 -3.11642e-05 -0.0001154841 0.0002121237 -0.1210247006 0.0728362691
240298560.0 -0.7526818584 0.3937893429 0.0001135741 3.4892e-06 0.0002059824 -9.16185e-05 -0.1204562486 0.073340298
245298530.0 -0.7488536538 0.4014780354 0.0001506096 0.0001455439 7.76729e-05 -0.0001278012 -0.1200598988 0.074491284
250298500.0 -0.7445444429 0.4093883269 0.0001599803 9.0464e-06 0.0001594802 0.0001333423 -0.1197628498 0.0754682069
255298470.0 -0.7404576196 0.4175677722 0.0001365876 0.0001169769 2.12761e-05 -3.8227e-06 -0.1191385347 0.0765242731
260298440.0 -0.7364986534 0.4251009471 1.33646e-05 -6.10532e-05 7.21055e-05 -0.0001146936 -0.118914228 0.0774009633
265298410.0 -0.7322492358 0.4328682821 1.94425e-05 0.0001419788 0.0001241517 6.80775e-05 -0.1176804114 0.078067451
270298380.0 -0.7272069716 0.4406887515 9.19641e-05 -3.57437e-05 0.0002051102 0.0001505945 -0.1175681245 0.079169214
275298350.0 -0.7232510522 0.4476192041 -2.93878e-05 -1.14606e-05 9.0314e-05 0.0002200898 -0.1168541094 0.0801600682
280298320.0 -0.7185207622 0.455328526 5.75636e-05 9.10117e-05 0.0003762192 8.92578e-05 -0.1163689926 0.0811631062
285298290.0 -0.7131784497 0.4632210392 0.0001171028 8.2669e-05 9.89998e-05 2.41068e-05 -0.1161543903 0.0824026738
290298260.0 -0.7086251588 0.4711847914 -6.55882e-05 7.66664e-05 0.0001663874 0.0001363408 -0.1156728769 0.0832845907
295298230.0 -0.7038852523 0.4778006972 5.05895e-05 0.0002129259 -2.23985e-05 0.000176129 -0.114677553 0.0842890731
300298200.0 -0.6995300367 0.4852229427 0.0002102529 0.0001769821 5.75406e-05 2.81361e-05 -0.1141187214 0.0855145707
305298170.0 -0.6950815666 0.4923888693 0.0001265313 0.0001806216 8.47542e-05 0.0001591787 -0.1132841692 0.0863757148
310298140.0 -0.6887884622 0.4996656177 -0.0001334969 0.0001189075 3.28365e-05 0.0001224091 -0.112696719 0.0871054502
315298110.0 -0.6843660858 0.5072160763 7.33972e-05 0.0001706352 1.0637e-06 0.0001347815 -0.1117732324 0.0880150505
320298080.0 -0.6787419994 0.5143809781 -4.49909e-05 5.30077e-05 6.4711e-06 0.0001026642 -0.1116715583 0.0893336314
325298050.0 -0.6736472906 0.5210608077 0.0001474634 0.0001205474 0.000211746 0.0001125147 -0.1107615791 0.0901409268
330298020.0 -0.6683194183 0.5280435074 0.0001815891 9.15663e-05 7.8959e-05 0.0001728091 -0.1102287786 0.0910640382
335297990.0 -0.6625096501 0.5343757789 1.1077e-06 5.11756e-05 8.61763e-05 8.86384e-05 -0.1095405688 0.0920846693
340297960.0 -0.6578822893 0.541688055 0.000398271 5.3545e-06 0.0001560068 3.11709e-05 -0.1090410222 0.0932789746
345297930.0 -0.652158424 0.5479392443 0.0001873702 1.4887e-06 -5.87471e-05 6.0686e-06 -0.1084882857 0.0943983234
350297900.0 -0.6462137041 0.5548440242 1.70713e-05 -9.32819e-05 9.05513e-05 0.000221177 -0.1080813827 0.0952233963
355297870.0 -0.6410596839 0.5612471889 0.0001618788 5.9337e-05 -1.33706e-05 -0.0001047363 -0.1071501031 0.0966040234
360297840.0 -0.6345910582 0.5679990608 0.0003179503 8.15966e-05 0.0002631527 0.000404928 -0.106504413 0.0975895547
365297810.0 -0.62940802 0.5739308231 0.0001483339 0.0001058708 0.0001770329 -2.29609e-05 -0.1058651088 0.0984222949
370297780.0 -0.6235592628 0.5801917208 0.0002596004 0.0001576585 0.0001938211 0.0001653307 -0.1050536456 0.0998696265
375297750.0 -0.6180710197 0.5869776131 0.0003913314 -1.4967e-05 0.000108175 0.0002040732 -0.104500154 0.1007938695
380297720.0 -0.6118037013 0.5932261598 0.0002772118 1.61469e-05 4.577e-07 0.0001263378 -0.1036951684 0.1019533333
385297690.0 -0.605910531 0.5991396319 -2.68232e-05 0.0001085304 0.0001698135 0.0001659063 -0.1026324482 0.1030258026
390297660.0 -0.5985809192 0.6056672455 0.0002540279 -0.0001256103 9.29427e-05 8.43279e-05 -0.1019924815 0.1043283352
395297630.0 -0.5928496383 0.6122331398 0.0001565258 -8.0451e-06 0.0001823339 0.0001275415 -0.1012951686 0.1049511046
400297600.0 -0.5866837807 0.6182713515 -6.0198e-05 5.7259e-06 -1.1085e-06 0.0001462096 -0.1002561726 0.106234258
405297570.0 -0.5805602663 0.6227695926 0.0003932778 0.0001735631 1.49473e-05 -1.79496e-05 -0.0993383864 0.1076184199
410297540.0 -0.5740102723 0.6292284124 0.0003588969 0.0003542878 0.0001561652 9.13287e-05 -0.0986474544 0.1086995521
415297510.0 -0.5677663817 0.634948057 0.0002770566 8.48169e-05 4.56245e-05 0.0002988701 -0.0977020573 0.1095059252
420297480.0 -0.5608741075 0.6407952612 0.0001584343 -2.79257e-05 0.0001813026 0.0002303428 -0.0963536675 0.1109949521
425297450.0 -0.5545478531 0.646610938 0.0001161288 6.21142e-05 0.0001606086 -6.6309e-05 -0.0957238121 0.1116362223
430297420.0 -0.5481577183 0.6515409561 6.07609e-05 0.0001333604 0.0001278962 0.0003789466 -0.0951228138 0.1126499456
435297390.0 -0.541429953 0.6582238986 0.000120941 0.0003013261 0.000225378 -0.0002403525 -0.0943924954 0.1138598471
440297360.0 -0.5340617503 0.6626237246 2.13262e-05 4.40385e-05 8.32958e-05 -5.35004e-05 -0.0930093253 0.1149129122
445297330.0 -0.5272587427 0.6678215205 0.0001571392 0.0001959513 0.000287924 5.78207e-05 -0.0919409375 0.1156549266
450297300.0 -0.5200629048 0.6737176572 0.000190254 0.0001704938 0.0001787379 7.79377e-05 -0.0906034974 0.1166911806
455297270.0 -0.5137516833 0.6780934438 2.47387e-05 0.0002307535 0.000130314 8.92356e-05 -0.08982823 0.1178295701
460297240.0 -0.5057368444 0.6842045398 0.0004077893 4.79766e-05 0.000152536 0.000184554 -0.0889985182 0.1186194056
465297210.0 -0.4993017283 0.6889737948 0.0001692883 0.0001556626 0.0002765619 2.23876e-05 -0.0877772266 0.1201513372
470297180.0 -0.49160134 0.6937024612 0.0002782071 0.0001081668 0.0001451202 -9.66162e-05 -0.0869355942 0.1208590371
475297150.0 -0.484795609 0.6986232854 4.93952e-05 0.0001229989 0.0001792627 0.0001243788 -0.085841467 0.1217356942
480297120.0 -0.4769768984 0.7039841711 0.0002215194 -4.53792e-05 0.0001680161 5.10563e-05 -0.0851137015 0.1228721506
485297090.0 -0.4701880511 0.7086234694 0.0001477476 -2.82288e-05 0.0001804987 9.86932e-05 -0.0840650611 0.1238361752
490297060.0 -0.4623156985 0.7137071631 0.0003382481 6.31128e-05 -5.59523e-05 0.0001362429 -0.0826366367 0.1242771586
495297030.0 -0.455173684 0.7181264747 0.0001558022 3.01524e-05 0.0001601643 8.20663e-05 -0.0816964633 0.125541687
500297000.0 -0.4478754769 0.7223332525 0.0002116335 1.32205e-05 0.0002674533 2.92608e-05 -0.0806694293 0.1266540105
505296970.0 -0.4393036339 0.7270253285 0.0002212876 9.44765e-05 0.0003116286 6.67351e-05 -0.0795212811 0.1273863348
510296940.0 -0.432185685 0.7316025258 0.000343082 -0.0001661594 0.000242982 5.3345e-05 -0.0781373548 0.1286759821
515296910.0 -0.4242607217 0.7356123712 0.00017629 -1.64723e-05 0.0001798604 0.0002125812 -0.0771121932 0.1293811839
520296880.0 -0.416328354 0.7394435434 2.33816e-05 -0.0001404265 0.0002343742 1.3342e-05 -0.0759180604 0.1303102062
525296850.0 -0.4085351105 0.7441349489 0.0001635246 -6.00379e-05 9.97144e-05 0.0002272421 -0.0747127846 0.1311225688
530296820.0 -0.4015390156 0.7478588965 0.0001023819 0.0001546529 0.0002764275 -3.22606e-05 -0.0735743682 0.1319475577
535296790.0 -0.3930357529 0.7517809402 0.0001866896 2.30758e-05 0.0002593334 -1.35898e-05 -0.0723444901 0.13289615
540296760.0 -0.3849979335 0.7557380025 4.86186e-05 1.01707e-05 0.0003223907 3.36748e-05 -0.07130392 0.1337368168
545296730.0 -0.3774363814 0.7603203634 7.29291e-05 0.0001213308 0.0002400316 -0.0001252675 -0.0701362906 0.1346422979
550296700.0 -0.3692290933 0.7637260109 0.0002984012 7.6259e-05 0.0001197518 -5.70067e-05 -0.0690576301 0.13545307
555296670.0 -0.3615076172 0.7675776228 0.0002179653 1.53285e-05 0.000229783 -8.12562e-05 -0.0679013759 0.1359982345
560296640.0 -0.3533945688 0.770548869 0.0001671145 -4.90287e-05 0.0002443409 -0.0001146362 -0.0663666973 0.1372482496
565296610.0 -0.3459094539 0.7744276263 9.15586e-05 -0.000166636 0.0002145793 1.99348e-05 -0.06530445 0.1382118086
570296580.0 -0.3372316796 0.7779046177 0.0001582743 -0.000101232 0.0001131639 0.0001221442 -0.0642559294 0.1388300721
575296550.0 -0.3282904173 0.7810292384 8.25609e-05 2.83195e-05 0.0002898498 3.5394e-06 -0.0627781493 0.1396315021
580296520.0 -0.321233825 0.7847843574 0.0002156548 0.0002589887 0.0002176806 -0.0001728581 -0.0614549215 0.1400976234
585296490.0 -0.3129989115 0.7877175327 0.0003250035 0.0002553395 0.000151447 0.000176467 -0.060181791 0.1410384439
590296460.0 -0.3035244245 0.7908668498 0.0002954414 0.0001838516 0.0003581944 2.68855e-05 -0.0591133521 0.1418616536
595296430.0 -0.2957471168 0.7940394877 0.0001520956 4.3499e-06 0.0001475217 -5.75976e-05 -0.0577887168 0.1425091332
600296400.0 -0.2882037564 0.7969156858 0.0002242614 0.0002247023 0.0003583602 -0.0001086384 -0.0563909307 0.1431348856
605296370.0 -0.2800410495 0.7994783268 0.0003840685 5.2012e-06 0.0001275446 -4.23351e-05 -0.055060659 0.1438426267
610296340.0 -0.2717363733 0.8028168285 0.0002712058 8.01966e-05 0.0001208263 0.0001320755 -0.0541440389 0.1447787075
615296310.0 -0.2628432369 0.8055741472 0.0002524212 -2.41851e-05 5.29329e-05 4.67095e-05 -0.0522598476 0.1456905062
620296280.0 -0.2553997748 0.808448893 0.0001724802 -0.0001764093 8.19917e-05 8.42527e-05 -0.0512249667 0.1464022291
625296250.0 -0.24758884 0.8102936002 0.000163864 8.0723e-06 0.0002261254 7.95472e-05 -0.0499539178 0.1467933353
630296220.0 -0.2392730222 0.8131022365 0.0001066003 8.63911e-05 0.0003052646 7.14647e-05 -0.0482609996 0.1474999242
635296190.0 -0.2303945392 0.8155373958 0.0001919638 3.05673e-05 0.0003669195 6.89852e-05 -0.0471988953 0.1481891973
640296160.0 -0.2215446756 0.8172289713 9.94373e-05 -0.0001459216 0.0001836188 6.66806e-05 -0.0457012119 0.1488099376
645296130.0 -0.2141499577 0.8204728946 0.0001280908 -6.5225e-06 0.0002281046 8.78178e-05 -0.0446688613 0.1492533417
650296100.0 -0.205753829 0.8219273794 0.0002832052 -1.21447e-05 0.0003294764 6.57845e-05 -0.0430950492 0.1501702097
655296070.0 -0.1975666256 0.8245672477 0.0002746965 6.37912e-05 0.0002006934 0.0001192049 -0.0418576004 0.1507103472
660296040.0 -0.1891770291 0.8259863286 0.0004218734 0.0001482297 0.0001163235 -0.0002425555 -0.0402149041 0.1510427561
665296010.0 -0.1808604051 0.8283369121 0.0003224519 2.06842e-05 0.0003391438 -1.27421e-05 -0.0389981956 0.1516973507
670295980.0 -0.1727746861 0.8303874344 0.0003003054 -0.0001003342 0.0003440447 -8.49819e-05 -0.0376452897 0.1522621003
675295950.0 -0.1637640539 0.8317627012 0.0003707557 0.0001792002 0.0001645427 -0.0001384956 -0.0361913466 0.1529073916
680295920.0 -0.1569042426 0.8333904722 0.0003180522 1.96738e-05 0.000340742 0.0001813085 -0.0345272894 0.1531731302
685295890.0 -0.1478624965 0.835637514 0.0002785994 3.69268e-05 0.000415225 -0.0001172462 -0.0334560535 0.153876616
690295860.0 -0.1391233153 0.8367897975 0.0002288416 -3.10593e-05 0.0003608228 0.0001936394 -0.0320926912 0.1546229343
695295830.0 -0.1311130235 0.838629714 0.0002251758 -4.81775e-05 0.0003632756 1.85352e-05 -0.0305323898 0.1548624878
700295800.0 -0.1226966334 0.8399445804 0.0002541422 -0.0002774247 0.0002610884 1.69786e-05 -0.028754034 0.1552777742
705295770.0 -0.1145112135 0.8416013543 0.0001125764 3.81813e-05 0.0002588118 -0.0001620827 -0.027405986 0.1558429347
710295740.0 -0.1070492868 0.8421751757 0.0001098259 -6.85447e-05 0.0003048077 -7.12985e-05 -0.0258593692 0.1564934447
715295710.0 -0.0977817182 0.8434005823 0.0004876533 -4.01406e-05 0.0003041999 1.8999e-06 -0.0241791601 0.1565011081
720295680.0 -0.0893054139 0.8443892802 0.0003402764 4.0324e-06 0.0001938013 -6.68155e-05 -0.0232386924 0.1573471258
725295650.0 -0.0816134453 0.8457818801 0.0001164822 8.86417e-05 0.000300997 1.98283e-05 -0.0218406527 0.1577273315
730295620.0 -0.0734517247 0.846553323 0.0002492763 0.0002030236 0.0001989372 -3.49152e-05 -0.0202377293 0.1583399254
735295590.0 -0.0659491963 0.8475133554 0.0001787932 0.0001349304 0.000565306 6.52347e-05 -0.018493398 0.1584156665
740295560.0 -0.0571484551 0.8475924384 0.0003521063 -0.0001191315 0.0002081578 3.99962e-05 -0.0172396874 0.1589377712
745295530.0 -0.049000915 0.8492166637 0.0003155224 -0.0001451106 0.0002885258 -0.0001430528 -0.0155717799 0.1591989551
750295500.0 -0.0409297741 0.8491957448 0.0002894327 -0.0002022138 0.0004276285 0.0002263037 -0.0142738672 0.1596404458
755295470.0 -0.032010257 0.8498022513 0.0003685187 -0.0001198 0.0003394455 -8.51217e-05 -0.0127259616 0.1602792693
760295440.0 -0.0243917797 0.8507564116 0.0001703481 -6.78016e-05 0.0003789885 -0.0001435469 -0.0111359831 0.1601460644
765295410.0 -0.0160627925 0.8509705774 0.0002637855 -4.54498e-05 0.0005400224 -0.0001208536 -0.0095826447 0.1604936803
770295380.0 -0.0088153185 0.8513769022 0.0003186034 -0.0002263375 0.0002967178 9.4166e-06 -0.0083844501 0.1608325927
775295350.0 -0.0003420107 0.8508338469 8.68381e-05 7.32828e-05 0.0002059503 0.0001307352 -0.0067448482 0.1612162099
780295320.0 0.00889747 0.8514151235 0.0002505356 0.0001638963 0.0003176819 -5.61593e-05 -0.0050530841 0.1615094537
785295290.0 0.0170079951 0.8513340394 0.0002655554 4.56301e-05 0.0001071759 -1.73037e-05 -0.0036896267 0.1616949349
790295260.0 0.0250114657 0.8506293949 0.0003618677 0.0001070195 0.0003550631 9.84278e-05 -0.0021477661 0.1621814822
795295230.0 0.0332439597 0.850208406 0.0003490039 3.49675e-05 0.0003264474 2.30443e-05 -0.0009920038 0.1619298233
800295200.0 0.040948676 0.8508168276 0.0002359921 -8.17105e-05 0.000130399 -0.0002192457 0.0009193684 0.1619924554
805295170.0 0.0489983854 0.8506536683 0.0002752347 -3.79424e-05 0.0003172577 -3.8059e-06 0.0027682335 0.1621306954
810295140.0 0.0577426003 0.8505369478 0.0004052813 -0.0001988622 0.0001562568 -9.04249e-05 0.0039776995 0.1627673793
815295110.0 0.0652665548 0.8494900798 0.0003264 -9.04815e-05 0.0003969419 -6.50889e-05 0.0054052425 0.1629249672
820295080.0 0.0738785705 0.8492124403 0.0002764082 -1.86263e-05 0.0002697693 -4.16924e-05 0.0067151946 0.1630146777
825295050.0 0.0817016648 0.8484692227 0.0003393741 4.3901e-05 0.0003322751 -7.63971e-05 0.0087404593 0.1633155228
830295020.0 0.0905101442 0.8478011972 0.0005105716 -0.0001418636 0.0002209692 -1.35157e-05 0.0101277101 0.163217693
835294990.0 0.0978640971 0.8467680661 0.0001155848 -0.0001299591 0.000353118 -0.0001393319 0.0116943541 0.1634629318
840294960.0 0.1066786783 0.8453628887 0.0002034782 -9.69291e-05 0.000492985 -8.91615e-05 0.0134855762 0.1634557287
845294930.0 0.1147380337 0.8441016173 4.97783e-05 -0.0002511085 0.0003263333 -5.72376e-05 0.0149989715 0.1636357851
850294900.0 0.1238644245 0.8435452075 0.0003212829 0.0001388552 0.0002198297 -6.05938e-05 0.0163078591 0.163869918
