!Created with skrf (http://scikit-rf.org).
# Hz S RI R 50.0 
!freq ReS11 ImS11 ReS21 ImS21 ReS12 ImS12 ReS22 ImS22
300000.0 -0.7751021119 -0.0952283009 -0.0005558312 0.000598979 -0.0006627727 0.0012604954 -0.2121992959 -0.0829741143
5299970.0 -0.7850478552 -0.0055970479 -0.0002792239 4.39708e-05 -2.86799e-05 -0.0001694328 -0.2147899184 0.0084780745
10299940.0 -0.7877624995 -0.0040468966 5.31981e-05 -6.07773e-05 -0.000134002 -7.95923e-05 -0.2108298813 0.0214154205
15299910.0 -0.793458468 -0.0022081916 9.02937e-05 -6.3103e-05 0.0001031668 -0.0002658455 -0.2060112128 0.0313625451
20299880.0 -0.8002718201 0.0021607597 0.0002403443 4.23671e-05 0.0001411794 6.6358e-06 -0.1998976223 0.0393399472
25299850.0 -0.8064513876 0.007864148 0.0001290347 -2.96556e-05 -2.08263e-05 -0.0001251769 -0.1935239524 0.0457024339
30299820.0 -0.8125403337 0.015532386 -0.0002500287 0.0001065526 -0.0001334784 7.35002e-05 -0.1871132444 0.0506176772
35299790.0 -0.8172799519 0.0247669627 -0.0001578617 -5.47208e-05 0.0001573697 -7.81773e-05 -0.1808668349 0.0547150323
40299760.0 -0.8214292394 0.0336244388 9.20918e-05 0.0001070562 9.46562e-05 -8.8031e-06 -0.1751059203 0.0572536798
45299730.0 -0.8246960705 0.0435051612 7.6743e-06 -3.35742e-05 5.76866e-05 -5.68589e-05 -0.1694779574 0.0600632413
50299700.0 -0.8272548076 0.0529642737 8.94415e-05 -7.95096e-05 3.55108e-05 -0.000155199 -0.1641912542 0.0607496527
55299670.0 -0.829082885 0.0632763578 5.4621e-06 -0.0001254849 3.34803e-05 0.0002012468 -0.1597627777 0.0620691119
60299640.0 -0.8302942259 0.0734837544 -5.95457e-05 9.9227e-06 6.52877e-05 6.05726e-05 -0.1550593334 0.062554351
65299610.0 -0.8308303229 0.0835739877 0.0001088145 1.69757e-05 -6.68574e-05 1.47121e-05 -0.1513960229 0.0626573526
70299580.0 -0.8314915208 0.0934671989 -2.11792e-05 -0.0001403963 0.0001238981 -0.0001159947 -0.1478206487 0.0630340208
75299550.0 -0.8320783754 0.1036880046 -0.000128084 -9.29726e-05 2.4437e-06 0.0001385614 -0.1446848956 0.0624726181
80299520.0 -0.8318853403 0.113540488 -2.6458e-05 -1.19893e-05 0.0001457907 0.0001334479 -0.142036785 0.0627494423
85299490.0 -0.8312983225 0.1229179849 3.84594e-05 0.0001261587 -7.10499e-05 4.09297e-05 -0.1391994171 0.0624574637
90299460.0 -0.8303153552 0.1325561166 0.0002108138 -0.0002105961 -4.12023e-05 -0.0001109141 -0.1368351922 0.0623208663
95299430.0 -0.8291336271 0.1420603525 9.94747e-05 -7.61695e-05 1.34489e-05 0.0002907487 -0.1348102194 0.0620819011
100299400.0 -0.8277139182 0.150931025 -5.57979e-05 -0.0002694215 -0.0001225157 0.000113695 -0.1327163679 0.0618899753
105299370.0 -0.8269900734 0.1602029014 -8.5138e-06 -0.0002357849 -3.68292e-05 1.45741e-05 -0.1309916009 0.0614085725
110299340.0 -0.8252812261 0.1698479313 -1.55909e-05 3.5749e-05 -0.0001212495 2.04403e-05 -0.1297005866 0.061453359
115299310.0 -0.8238829076 0.1790384695 4.0257e-06 0.000172443 -1.75291e-05 -0.0001003418 -0.1278861197 0.0612003071
120299280.0 -0.8220022619 0.1874387679 2.2577e-05 3.38634e-05 -5.88446e-05 0.0001694704 -0.1268188936 0.0611555519
125299250.0 -0.8200482372 0.1961726582 0.0003002072 0.0002135557 0.0001763102 7.9015e-05 -0.125582017 0.0606918322
130299220.0 -0.8186289143 0.2051813559 6.84764e-05 0.000229044 9.52395e-05 5.70803e-05 -0.1247397906 0.0603972308
135299190.0 -0.8165520514 0.2141552068 9.6878e-05 -8.40046e-05 0.0002240381 7.66504e-05 -0.1232903953 0.0608855641
140299160.0 -0.8150228414 0.2234607288 -5.19663e-05 -0.0001656012 -9.3467e-06 4.51531e-05 -0.1224501057 0.061206155
145299130.0 -0.8124386064 0.2319503123 5.48909e-05 -0.0001774626 -2.47977e-05 -0.0002581626 -0.1215910802 0.0615045424
150299100.0 -0.8102228992 0.2413097469 5.36944e-05 5.20925e-05 0.0001312017 8.82934e-05 -0.1208092087 0.0620428477
155299070.0 -0.8074721457 0.2499159246 0.000104919 0.0001903449 9.32304e-05 0.0001814662 -0.1200861924 0.0621957216
160299040.0 -0.8050937894 0.2579910408 7.76751e-05 0.0001709959 -1.90193e-05 -7.55194e-05 -0.1197926623 0.0624087314
165299010.0 -0.8029027546 0.2669463057 0.0001526883 1.27168e-05 0.0001752024 -6.9506e-06 -0.1189975901 0.0631352951
170298980.0 -0.7999059786 0.2754507443 1.7738e-05 -3.96445e-05 -0.0002400483 0.0001681992 -0.118129614 0.0631773021
175298950.0 -0.7971465474 0.2839789583 -0.0001266739 -5.70885e-05 4.03887e-05 5.80013e-05 -0.1175658046 0.0639802874
180298920.0 -0.7945806383 0.2929879505 1.76926e-05 -6.45336e-05 2.1016e-05 0.0001393056 -0.1173975783 0.064799683
185298890.0 -0.7914150835 0.3010216344 1.52377e-05 0.0001103061 4.89994e-05 0.0001841898 -0.1165419359 0.0650648217
190298860.0 -0.7886817765 0.3095495822 0.0001841538 7.33358e-05 1.58595e-05 9.599e-06 -0.1159587084 0.0658135564
195298830.0 -0.7851887529 0.318138349 1.86378e-05 3.12999e-05 0.0003091778 3.16805e-05 -0.1156360459 0.0661719403
200298800.0 -0.7810968205 0.3257913564 2.75458e-05 2.21152e-05 -5.33921e-05 7.29e-05 -0.1153763312 0.0668196324
205298770.0 -0.7782943852 0.3342423665 0.0001272397 9.88846e-05 0.000165513 0.0002325094 -0.1144941098 0.0671728749
210298740.0 -0.7746108283 0.3426518872 -4.89229e-05 -3.43815e-05 0.0002857327 0.0002820749 -0.1140895111 0.068065517
215298710.0 -0.771981358 0.3508355397 0.0001692537 -6.9665e-06 0.0001723595 5.36957e-05 -0.114025185 0.0687243151
220298680.0 -0.7674719717 0.3586683387 0.0001526618 0.0001622558 0.0001578606 0.0001937343 -0.1136929953 0.0693537328
225298650.0 -0.7645677763 0.3666151814 -6.38607e-05 0.0001750039 0.0001727286 0.0001496673 -0.1132935212 0.0699496987
230298620.0 -0.75984844 0.3747922642 4.06023e-05 3.23451e-05 4.01696e-05 -9.96777e-05 -0.1127702033 0.0708614298
235298590.0 -0.7561156884 0.3832362969 -7.96961e-05 -0.0001341202 1.70911e-05 8.33709e-05 -0.1126296037 0.0715340247
240298560.0 -0.7525660486 0.3907506627 -3.17188e-05 8.5489e-05 1.47929e-05 -6.63313e-05 -0.1119032874 0.0726519179
245298530.0 -0.7482757487 0.3988251039 -6.56545e-05 4.9896e-06 0.0002285934 0.0001581586 -0.1114685631 0.0730459553
250298500.0 -0.744296458 0.4069467976 5.2732e-06 0.0003256483 5.8628e-05 0.0001173775 -0.1111374499 0.0739944992
255298470.0 -0.739426047 0.4142380786 -0.0002234291 0.000139705 8.59313e-05 6.44983e-05 -0.1108246594 0.0744434981
260298440.0 -0.7352794109 0.4219617026 0.0002294262 -5.41831e-05 -5.45134e-05 0.0001293134 -0.1099599862 0.0755062336
265298410.0 -0.7314353474 0.4301214685 9.07438e-05 5.31392e-05 -0.0001453544 0.0002536994 -0.1097136863 0.0764392532
270298380.0 -0.7264219039 0.4377306403 4.26453e-05 1.08667e-05 1.60755e-05 0.0001268511 -0.1089408525 0.0769781206
275298350.0 -0.7223144029 0.4448224882 -0.000210029 7.62057e-05 -1.34666e-05 0.000100017 -0.1083351115 0.0780585014
280298320.0 -0.7174328583 0.4526037738 0.0001191056 -0.0002057515 5.8304e-05 -4.15147e-05 -0.1073901718 0.0789953578
285298290.0 -0.7127301382 0.4600432179 2.94302e-05 -7.60493e-05 9.14318e-05 0.0001066671 -0.1072740429 0.0797227855
290298260.0 -0.7078141511 0.4674242889 5.26523e-05 -6.393e-05 7.54272e-05 0.0002075897 -0.1066342877 0.0805839184
295298230.0 -0.7023105847 0.4745201867 0.0002391745 0.0001948925 6.2735e-06 3.59179e-05 -0.1060192848 0.0813618984
300298200.0 -0.6974169658 0.4820407584 0.0003357421 0.0002242238 0.0002210481 0.0002014419 -0.1053688902 0.0825554369
305298170.0 -0.6926955487 0.4880763332 4.52625e-05 0.0001932194 -6.77603e-05 2.61152e-05 -0.1042414574 0.0832619522
310298140.0 -0.687451593 0.4962888411 4.78711e-05 8.32171e-05 2.40157e-05 0.0002375153 -0.1039795631 0.083836287
315298110.0 -0.6824064326 0.5033702869 0.0002721162 0.0001230724 0.0001592041 -7.452e-05 -0.1036805928 0.0851019077
320298080.0 -0.6770892924 0.5101669516 0.0001089956 0.0001154852 0.0002532879 -2.00191e-05 -0.1029031681 0.0859398999
325298050.0 -0.6717350301 0.5175254933 1.8769e-06 -1.21174e-05 -0.0001176661 7.2155e-05 -0.102527605 0.0867499357
330298020.0 -0.6660074424 0.5239265524 -1.15476e-05 0.0001433466 4.10021e-05 -4.70895e-05 -0.102254327 0.0878007536
335297990.0 -0.6603283842 0.5305512436 0.0001049163 8.25775e-05 2.06625e-05 2.77939e-05 -0.1015551299 0.0892909418
340297960.0 -0.6557964603 0.5380846984 0.0001580097 8.91103e-05 0.0001848771 0.0001700795 -0.1003088376 0.0902463032
345297930.0 -0.6499272349 0.5440397079 -0.0002585708 1.30995e-05 2.31801e-05 0.0001571228 -0.1002086982 0.0911619944
350297900.0 -0.6444919935 0.550912452 0.0001655659 0.0003213236 0.0002377623 -0.0001148395 -0.099602985 0.0923155647
355297870.0 -0.6381774029 0.5578719818 -0.0001961413 0.0001841503 0.0002519921 0.000145692 -0.0990399604 0.0932044056
360297840.0 -0.6321583452 0.5639333417 -0.0001081859 -0.0001495515 9.21982e-05 3.25864e-05 -0.0984369643 0.0947209488
365297810.0 -0.6273894849 0.5705602635 0.0001281067 -2.18491e-05 3.09787e-05 -5.09217e-05 -0.0973851347 0.0950707006
370297780.0 -0.6211570518 0.576875015 -0.0001091024 0.0002207115 0.0001077718 6.1166e-05 -0.0967275023 0.0966958131
375297750.0 -0.6141556207 0.5834357627 -1.32767e-05 -8.8644e-05 0.0001659373 0.00010524 -0.0962585945 0.0973886123
380297720.0 -0.6084265843 0.5892684385 0.0002685765 0.000277574 -2.6738e-05 0.0001211286 -0.0960639781 0.0982916371
385297690.0 -0.6028212032 0.5954127512 0.0001709637 0.0001963864 0.0002563615 0.0001447409 -0.0947504964 0.0993520729
390297660.0 -0.5964058416 0.6015397954 0.0001322884 2.08338e-05 -0.0001301648 -2.19701e-05 -0.094277872 0.1008335462
395297630.0 -0.5897332804 0.608461479 3.64072e-05 -1.85042e-05 -0.0002245261 3.4325e-05 -0.0929700501 0.1017777304
400297600.0 -0.5836247662 0.6144497674 0.0001374679 -0.0001309982 0.0002238698 0.000150701 -0.092314827 0.1025254798
405297570.0 -0.5776286093 0.6196853382 0.0002287107 0.0002627642 0.0001429298 0.0001606354 -0.0917817263 0.1035291877
410297540.0 -0.5708084106 0.6250896662 0.0002570978 0.0002050312 0.0001883903 -9.0475e-06 -0.0908539257 0.1047713164
415297510.0 -0.5642941622 0.6312160546 0.0001450395 0.0001893997 0.0002331878 0.0001265318 -0.0904137449 0.1054456461
420297480.0 -0.5589675498 0.6371294482 0.0001765067 0.000105621 0.0001213586 4.46022e-05 -0.0893329609 0.1067605031
425297450.0 -0.5514681411 0.6426076441 -0.0001584047 -0.0001434755 0.0002170211 0.0001154951 -0.0886670565 0.1074437388
430297420.0 -0.5453022424 0.6481260647 -3.17486e-05 6.50153e-05 -5.38952e-05 8.43097e-05 -0.0879449574 0.1083420697
435297390.0 -0.53846462 0.6533197516 0.0001463637 0.0001130656 0.0002095977 0.0003222859 -0.0868289731 0.1089918851
440297360.0 -0.5315553274 0.6588887947 0.0002201008 8.20049e-05 0.0001682774 0.0001411116 -0.0858194872 0.1101856167
445297330.0 -0.5245707289 0.6644481538 -6.44755e-05 -8.03101e-05 0.000109175 0.0001171056 -0.0849553893 0.110675525
450297300.0 -0.5181020301 0.6693611127 0.0001670278 -0.000116946 0.0001399833 0.0001623357 -0.0837833863 0.1118059904
455297270.0 -0.5112224814 0.6743618983 0.0001938553 -7.47804e-05 0.0002083846 -4.0085e-05 -0.0828884737 0.1125268038
460297240.0 -0.5049131028 0.6795438387 0.0001151824 0.0001708696 7.16149e-05 4.22814e-05 -0.0819335602 0.1138675181
465297210.0 -0.4976530566 0.6850865421 6.42826e-05 9.9663e-05 0.0002511037 -2.73927e-05 -0.0809800279 0.1143028964
470297180.0 -0.4898902407 0.6894927167 3.27446e-05 9.52478e-05 0.0002072938 1.44415e-05 -0.0797181013 0.1156720611
475297150.0 -0.4832536866 0.6942714047 -0.000160804 2.87397e-05 0.000297514 0.0001529068 -0.0789044634 0.1161675432
480297120.0 -0.4767851392 0.6994956412 0.0003477073 -2.71425e-05 0.0002112955 0.0001170979 -0.0774723985 0.1172334447
485297090.0 -0.4689118119 0.7043503213 0.0002087422 6.72589e-05 0.0001994756 -1.71265e-05 -0.0765603738 0.1183385829
490297060.0 -0.4620833806 0.7087244742 0.0003197489 0.0001469193 0.0002769518 0.0001208069 -0.0758484442 0.1189110085
495297030.0 -0.4546557209 0.7129687349 0.0003261085 8.9959e-06 9.44892e-05 3.08706e-05 -0.0745340404 0.1203407006
500297000.0 -0.4477176466 0.7179380222 0.0002646717 3.79243e-05 0.0002073457 4.8102e-05 -0.0732359451 0.1212818832
505296970.0 -0.440165891 0.7227459005 -0.0001124453 -0.0001031696 0.0004574953 -0.0001079856 -0.0725612742 0.1222048227
510296940.0 -0.4327170135 0.7267905063 2.7832e-05 5.40934e-05 0.0002211068 -8.56881e-05 -0.0715195232 0.1225792986
515296910.0 -0.4245626314 0.7302599359 0.0003084928 0.0001043382 0.0003469785 -4.07229e-05 -0.0702859388 0.1235323621
520296880.0 -0.4180543148 0.7351792193 0.0002814691 3.06191e-05 0.0001468765 9.36756e-05 -0.0692482917 0.1245554929
525296850.0 -0.4101526173 0.7388153038 0.0003473178 -5.27473e-05 0.0001210908 9.3856e-05 -0.0681663762 0.1257370644
530296820.0 -0.4024835627 0.7435108259 0.0001687553 4.9319e-05 8.26979e-05 3.1983e-05 -0.0668491508 0.1263438148
535296790.0 -0.39574817 0.7472800181 0.0001797266 -4.36225e-05 0.0003235099 0.000388025 -0.0664295215 0.1274095014
540296760.0 -0.3878950628 0.7512232968 0.0001925705 -3.7817e-06 0.0001126786 -0.0001209142 -0.0651750365 0.1281568653
545296730.0 -0.3807862396 0.7551457972 0.000357292 3.17468e-05 0.00019526 0.0001288921 -0.063791223 0.1287013611
550296700.0 -0.3729679624 0.7589122601 5.69103e-05 4.43609e-05 0.0002699274 0.0001207971 -0.0628326757 0.1298917409
555296670.0 -0.3650244095 0.7621868687 0.0001273371 0.0001595682 0.0001580769 -1.38888e-05 -0.0616695674 0.1306977033
560296640.0 -0.3574625171 0.7665765503 2.58611e-05 0.0001381275 0.000124801 5.12581e-05 -0.0604875123 0.1313757714
565296610.0 -0.3492914906 0.7694924982 0.0004040565 0.0003224052 0.0002350785 6.07981e-05 -0.0591850641 0.132066284
570296580.0 -0.3418431394 0.7721850085 0.0003786707 2.71651e-05 0.0002281557 0.0001456754 -0.0583252905 0.1326189837
575296550.0 -0.3344995564 0.7764347715 4.1976e-05 0.0001202252 0.0002093755 -0.0001258023 -0.0570325427 0.1337987729
580296520.0 -0.3256407293 0.7796075888 9.90611e-05 -7.05207e-05 0.0001355026 6.54843e-05 -0.0556754528 0.1339090489
585296490.0 -0.3186701159 0.7825196682 0.0001090011 2.12761e-05 0.0003485495 0.0001187702 -0.0548182637 0.1349212225
590296460.0 -0.3104586395 0.7857846055 7.95425e-05 0.0001207143 0.0001111481 -5.88467e-05 -0.0538281933 0.1358818685
595296430.0 -0.3027699044 0.788678717 0.0003144319 0.0001550061 0.0002958584 0.0001026763 -0.0524000963 0.1362998555
600296400.0 -0.2948350378 0.7916524213 0.0002078196 0.0001602471 0.0001311781 9.26429e-05 -0.0511578568 0.1366404531
605296370.0 -0.2872607686 0.7947534212 0.0002771624 -2.2759e-05 0.0002738217 3.19031e-05 -0.0497612715 0.1375120115
610296340.0 -0.278766163 0.7971927684 0.000163745 -2.97401e-05 0.000293384 0.000324863 -0.0483050774 0.138372668
615296310.0 -0.2701986686 0.7996681852 0.0001313285 0.0002127905 0.0001527593 0.0001507433 -0.047202519 0.1384829973
620296280.0 -0.2626746068 0.8019882565 0.0001158322 -6.42377e-05 0.0003701733 0.0001236935 -0.0459519387 0.1393991441
625296250.0 -0.2542302792 0.8050439536 8.65717e-05 -1.29169e-05 0.0001314617 -6.1046e-05 -0.0443529449 0.1397208813
630296220.0 -0.2459620302 0.8078275342 0.0001542427 7.04385e-05 0.0001663479 0.0001303187 -0.0432518159 0.1404272898
635296190.0 -0.2383424635 0.8106363566 0.0001873154 7.49562e-05 0.0002509648 0.0001121849 -0.042083575 0.1411728804
640296160.0 -0.2308744011 0.8124987668 0.0003773703 1.12036e-05 0.0001796194 -7.72871e-05 -0.0405491773 0.1417279251
645296130.0 -0.2221382846 0.8152558316 0.0002019239 -5.4712e-06 9.75705e-05 0.0001005849 -0.0394966096 0.1420705845
650296100.0 -0.21429362 0.816294152 0.000245435 1.51308e-05 0.0003260055 -0.00011764 -0.0379468505 0.1426163831
655296070.0 -0.2058879014 0.8186658962 0.0001979175 7.13251e-05 0.0002943517 0.0001156357 -0.0363275128 0.1432499027
660296040.0 -0.1976977001 0.8205492033 0.0002611278 -0.0002058159 0.000235745 -6.99852e-05 -0.0351012358 0.1437619377
665296010.0 -0.1890100229 0.822032172 0.0001783829 0.0001495638 0.000110332 -0.0002169506 -0.0335855357 0.1447357444
670295980.0 -0.1818114133 0.8241241113 0.0003329346 -1.38174e-05 0.0002284564 4.81625e-05 -0.0323217388 0.1451470655
675295950.0 -0.1725320046 0.8260996851 0.0002752385 0.0001850896 0.0002847661 1.73256e-05 -0.0312454187 0.1461491953
680295920.0 -0.1644236345 0.8278542212 0.0002045236 -0.0002617085 9.86337e-05 0.0001049491 -0.0296727662 0.1463609054
685295890.0 -0.1561129309 0.8298647419 0.0002789774 -3.73898e-05 -4.52755e-05 2.62595e-05 -0.0282006135 0.1468699747
690295860.0 -0.1482556164 0.830445845 0.0002681835 -0.0002176062 0.0002398753 5.66649e-05 -0.0269524447 0.1476957221
695295830.0 -0.1402860497 0.8318232412 -2.91786e-05 2.7096e-05 0.000106119 -0.0002080834 -0.0256370555 0.1477861297
700295800.0 -0.1312667 0.8334896919 0.0002708897 1.27517e-05 0.0001817171 -8.28797e-05 -0.0245042447 0.1486344767
705295770.0 -0.1236252732 0.835140198 0.0003163148 5.85885e-05 0.0002338053 8.60123e-05 -0.0230546067 0.1495559867
710295740.0 -0.1152262092 0.8360590114 0.0003114542 -1.21424e-05 9.88616e-05 -7.86737e-05 -0.0217967428 0.149607044
715295710.0 -0.1067330118 0.8369150615 0.0004512522 -1.29276e-05 0.0002968399 -2.18484e-05 -0.0204430322 0.1498737967
720295680.0 -0.0983774756 0.8382531569 0.0003594028 -0.0002214617 0.0001002923 -0.0001096466 -0.0188336613 0.1503988913
725295650.0 -0.0906774706 0.8394600548 0.0003362125 -0.0001204614 0.0002253919 -0.0001080744 -0.0176036505 0.1512366415
730295620.0 -0.0819978758 0.8406889771 0.0002362475 0.0001351686 0.0002060525 -4.99784e-05 -0.0163811536 0.151268245
735295590.0 -0.0735884755 0.8408163584 0.0004181581 -0.0001590132 0.0003924862 0.0001403863 -0.015235612 0.151269736
740295560.0 -0.0653309801 0.8417907979 0.0002687163 -0.0001089708 0.0002791355 -0.0003706435 -0.0131250089 0.1515646644
745295530.0 -0.0570145038 0.8424537021 -3.99422e-05 0.0001486121 0.0003096047 -0.0001697706 -0.0119266346 0.1520546402
750295500.0 -0.048208494 0.8426059823 0.0001548839 0.000117914 0.0002157311 -0.0001880427 -0.0104977011 0.1527991985
755295470.0 -0.0399942581 0.8426173422 7.5885e-05 -0.0002633851 0.0003285063 0.0001034817 -0.0092354694 0.1522008979
760295440.0 -0.0321941556 0.843292834 0.0003516658 3.96421e-05 0.0001349984 -0.0002217057 -0.0079031545 0.1525771872
765295410.0 -0.0239181405 0.8440092031 0.0005007416 -0.0001600179 0.0002723752 -0.0001360999 -0.0063371137 0.1531747184
770295380.0 -0.0156425096 0.8440123112 0.0002169475 -0.0001532092 0.0002331793 0.0001180877 -0.0048607784 0.153622792
775295350.0 -0.0071161442 0.84362874 9.21945e-05 -0.0001902842 0.0001827025 -5.42957e-05 -0.0040983053 0.1535598371
780295320.0 0.0013734063 0.8439038079 0.0001075134 2.17339e-05 0.0002962791 -0.0002694211 -0.0021216264 0.1534802996
785295290.0 0.0096179571 0.8430836389 0.0002081487 -7.84147e-05 0.00038056 -5.5023e-05 -0.0005089153 0.1535949514
790295260.0 0.018582481 0.8437955185 3.56889e-05 -9.13703e-05 0.0003458659 0.000133731 0.0012668564 0.1542832725
795295230.0 0.0263460694 0.8431084356 0.0005020643 -6.07978e-05 0.000248652 -2.66234e-05 0.0026820501 0.1541277854
800295200.0 0.0345958255 0.8432492207 0.0001294197 -0.0001230658 0.0004401475 -0.0002031454 0.004137299 0.1545222625
805295170.0 0.0432115807 0.8433118479 0.0004686975 -9.15395e-05 0.0002846817 -0.0002643021 0.0053539777 0.1547315629
810295140.0 0.0513946196 0.8424292981 0.000278433 -1.0439e-06 0.0002649634 -0.0001113875 0.0073809748 0.1545293703
815295110.0 0.0595461264 0.8419775967 0.0001139847 9.59573e-05 0.0002087044 -0.0002661517 0.0085490558 0.1547147258
820295080.0 0.0675519046 0.8410499573 0.0004174513 2.59983e-05 0.000391394 -1.12696e-05 0.0101382665 0.1551446574
825295050.0 0.0768188402 0.8401769779 0.0001163549 -2.34221e-05 0.0003095865 -0.0002634617 0.0119205444 0.1549826168
830295020.0 0.0845848029 0.8391877374 0.0003533008 -8.47854e-05 0.0001294044 7.7195e-05 0.0136320085 0.1553096742
835294990.0 0.0928461443 0.8385481648 0.0002091367 -0.0003176701 0.0003470534 -8.62714e-05 0.0149269026 0.1554573273
840294960.0 0.1005633969 0.837888868 0.0002521307 0.0001065909 0.0002386267 0.0001322884 0.0163205862 0.1555345678
845294930.0 0.1090276981 0.8367579002 3.61187e-05 -1.59621e-05 0.0003295987 3.44247e-05 0.017892169 0.155374418
850294900.0 0.1175080505 0.8356870291 0.0004034082 0.0001686872 0.0001182587 -9.25834e-05 0.0195409273 0.155728009
