!Created with skrf (http://scikit-rf.org).
# Hz S RI R 50.0 
!freq ReS11 ImS11 ReS21 ImS21 ReS12 ImS12 ReS22 ImS22
300000.0 -0.2315106844 -0.1374122876 0.4667038975 0.0891725466 0.4685676795 0.0882461616 -0.2359842664 -0.1355681072
5299970.0 -0.2419294588 0.0051268071 0.4747546369 0.0060775006 0.4752960713 0.0058693576 -0.2442356181 0.0044827868
10299940.0 -0.2387630637 0.0184106429 0.4775550184 0.0069879503 0.4771992511 0.007171695 -0.2405544831 0.0172507922
15299910.0 -0.2335373354 0.02858396 0.480524795 0.0084403268 0.4810035871 0.0080833872 -0.2366259227 0.0262013249
20299880.0 -0.2283548846 0.0368746879 0.4852082902 0.0082029524 0.4856087469 0.0082516847 -0.2317364204 0.0338332972
25299850.0 -0.222378721 0.0436100901 0.4908366048 0.0077488711 0.4909459118 0.0075907043 -0.2267623273 0.0400941095
30299820.0 -0.2173644618 0.0488533382 0.4962961221 0.0051609014 0.4963264167 0.0050531447 -0.2214892434 0.0449492342
35299790.0 -0.2112451544 0.0527808945 0.5010324115 0.0019383154 0.5012785168 0.001768413 -0.2165409724 0.0491833203
40299760.0 -0.2061218903 0.0560924114 0.5066793846 -0.002111449 0.5061652754 -0.0023321316 -0.212076339 0.0520541991
45299730.0 -0.2010879747 0.058843055 0.5113363755 -0.006396449 0.5113701462 -0.0070340813 -0.2068713094 0.0546543858
50299700.0 -0.1958146046 0.0607340792 0.5153678114 -0.012464294 0.5155090937 -0.0126197892 -0.2025454875 0.0571226109
55299670.0 -0.1920603681 0.0626447256 0.5189520138 -0.017822435 0.5187774836 -0.0187115213 -0.1990013753 0.0586982365
60299640.0 -0.1877496173 0.064248495 0.5223088116 -0.0246026418 0.5223846216 -0.0247304873 -0.1949664097 0.0597493501
65299610.0 -0.1840186237 0.065150649 0.5252919609 -0.0310436686 0.525329912 -0.0309040338 -0.1914007898 0.0608759783
70299580.0 -0.1807543816 0.0660091605 0.5276769792 -0.0374867481 0.5279735167 -0.0376374174 -0.1887632326 0.0619225716
75299550.0 -0.1780034839 0.0667286347 0.5292840234 -0.0446628575 0.5296894423 -0.04443175 -0.186136206 0.0627289088
80299520.0 -0.1748255803 0.0677772803 0.531156914 -0.0513037453 0.5316897898 -0.0516657832 -0.1834278024 0.063502269
85299490.0 -0.1726316594 0.0680595237 0.532806264 -0.0584379695 0.5329298409 -0.0581692565 -0.1815020196 0.0638647442
90299460.0 -0.1702746056 0.0694283734 0.5336215731 -0.0651657304 0.5337234859 -0.064637558 -0.1790695854 0.0649587304
95299430.0 -0.1681099018 0.0694876827 0.5345448188 -0.0719910279 0.5345204627 -0.0724524273 -0.1773066234 0.0658395943
100299400.0 -0.1659607477 0.0704890971 0.5346628127 -0.078909002 0.5349959143 -0.0789949901 -0.1754839369 0.0665205365
105299370.0 -0.1640223181 0.0710802439 0.535272666 -0.0857393144 0.5354022155 -0.0857113624 -0.1735726607 0.0667702512
110299340.0 -0.162250289 0.071544948 0.5355891272 -0.0925542084 0.5356016398 -0.0923276558 -0.1726753883 0.0675654271
115299310.0 -0.1609628844 0.072449142 0.5352585845 -0.0991440023 0.5354005038 -0.0993635853 -0.1713837177 0.0686329809
120299280.0 -0.1595058581 0.0731308147 0.5353475428 -0.1068065534 0.5350742281 -0.1067447861 -0.1696511585 0.0688357
125299250.0 -0.1580539137 0.0737790478 0.5348681708 -0.1128298764 0.5347082292 -0.1126093363 -0.1685959836 0.0697569389
130299220.0 -0.1567049224 0.0747454644 0.5344959253 -0.119800318 0.5340437001 -0.1200446708 -0.1675703914 0.0708531182
135299190.0 -0.1555474947 0.0761103606 0.5337927551 -0.1259904877 0.5338240108 -0.1264151211 -0.1665006869 0.0711758182
140299160.0 -0.1541757452 0.0768603978 0.5327207352 -0.1330056533 0.5328570152 -0.1327383849 -0.166150651 0.0718814758
145299130.0 -0.1532706162 0.0779620496 0.5318238254 -0.1395630122 0.5321755764 -0.1394862484 -0.164745412 0.0731963611
150299100.0 -0.1520412155 0.0788427416 0.5306848933 -0.1461656026 0.5306837618 -0.1461804093 -0.163931485 0.0740802621
155299070.0 -0.1506995215 0.0800632768 0.5288403093 -0.1527010144 0.5298614544 -0.1527657776 -0.1626578164 0.0748228411
160299040.0 -0.1498678168 0.0811430626 0.5279990594 -0.1591386115 0.5280561183 -0.1592172219 -0.1622349174 0.076145647
165299010.0 -0.1487856985 0.0822414452 0.5266505632 -0.1651967969 0.5264609734 -0.1653941872 -0.16128576 0.076789657
170298980.0 -0.1477421237 0.0835321425 0.524574395 -0.1715043695 0.5255858543 -0.171895313 -0.1609754122 0.07809963
175298950.0 -0.1468246941 0.0847588055 0.5237263738 -0.1780233751 0.523579932 -0.1787408262 -0.1599538569 0.0793888949
180298920.0 -0.1460575577 0.0859675209 0.5216685868 -0.1845290013 0.5216335597 -0.1845149878 -0.1592633361 0.080091604
185298890.0 -0.145104936 0.0871031669 0.5202605347 -0.1906170334 0.5197361181 -0.1901123521 -0.1583948934 0.0811253716
190298860.0 -0.1438506782 0.0887692767 0.5176835052 -0.1966757279 0.5182071119 -0.196627291 -0.1577916726 0.082343206
195298830.0 -0.142951646 0.0901278376 0.516240783 -0.2028090338 0.5163096557 -0.2027118116 -0.1571564763 0.0838172814
200298800.0 -0.1420230678 0.0911206024 0.5141724373 -0.2094257535 0.5139363868 -0.2090394143 -0.1563574593 0.084566502
205298770.0 -0.1414334767 0.0923852881 0.5114557523 -0.2148428544 0.5117874155 -0.2145613417 -0.1555176456 0.085854349
210298740.0 -0.1402758182 0.0940251901 0.509747757 -0.2211718119 0.5091707727 -0.2207338061 -0.1547995878 0.0868184541
215298710.0 -0.1392494815 0.0955898412 0.5068445237 -0.226741088 0.5074230776 -0.2271084442 -0.1540263551 0.0884952352
220298680.0 -0.1381788502 0.0967778528 0.5043781091 -0.2327828806 0.5047735891 -0.232985687 -0.1530198298 0.0897324585
225298650.0 -0.1373617541 0.0981748717 0.5016458857 -0.2382291857 0.5023190278 -0.2383116327 -0.1523822313 0.0909226751
230298620.0 -0.1361268244 0.1000088724 0.4996554382 -0.2449398104 0.499902434 -0.2445985745 -0.1521232253 0.0919045086
235298590.0 -0.1353115013 0.1013077047 0.4972276294 -0.2508464409 0.4975447505 -0.2500858008 -0.1508789647 0.0934970232
240298560.0 -0.134322489 0.1028037177 0.4945139956 -0.2555986448 0.4943885168 -0.2556448577 -0.150270853 0.0946896347
245298530.0 -0.1332291905 0.1036942235 0.4916362012 -0.2614970725 0.4918972604 -0.2616137396 -0.1495218932 0.0961486175
250298500.0 -0.1324945127 0.1053337166 0.4889563391 -0.2668677463 0.4888685488 -0.2671011607 -0.1485898366 0.0973895534
255298470.0 -0.1312480918 0.1072649451 0.4864139287 -0.272626926 0.4864377477 -0.2727696682 -0.1484336853 0.098967151
260298440.0 -0.1299520565 0.1083615599 0.4830754528 -0.2778043459 0.4830190565 -0.2779919043 -0.1470226757 0.0999427213
265298410.0 -0.1294311311 0.1100296129 0.4797650542 -0.2838509036 0.4799110318 -0.2839716855 -0.1455516391 0.101118397
270298380.0 -0.1284262159 0.1112711122 0.4768323822 -0.2892560538 0.4772215525 -0.2890854454 -0.1449773228 0.1029367385
275298350.0 -0.1271126378 0.112914452 0.4733779469 -0.2941840729 0.4736758822 -0.2944508756 -0.144458789 0.1043620233
280298320.0 -0.1261210765 0.1141501782 0.4707992343 -0.2994577616 0.4711486143 -0.3001074644 -0.1431432278 0.1054058754
285298290.0 -0.1249480897 0.1157290605 0.4671071584 -0.3050420074 0.467744635 -0.3050659518 -0.1425097167 0.1069249556
290298260.0 -0.1236733225 0.1173293002 0.4644344009 -0.3105412935 0.4644185483 -0.3102988146 -0.1416047874 0.1081109836
295298230.0 -0.1225138005 0.1184726987 0.4608249102 -0.3159865207 0.4610732473 -0.3158871248 -0.1406471504 0.1095473126
300298200.0 -0.1213741647 0.1203550395 0.4576595853 -0.3208181176 0.4577495338 -0.3208909417 -0.1396086728 0.1109990287
305298170.0 -0.1202557765 0.121034868 0.4541768685 -0.3262883339 0.454141733 -0.3262960299 -0.138371608 0.1116688218
310298140.0 -0.1186363172 0.1222766652 0.4504341861 -0.3312507536 0.4508024739 -0.3313115025 -0.1377140554 0.1130177015
315298110.0 -0.1179061822 0.1234749514 0.4471628286 -0.3365588284 0.4469142282 -0.3368784095 -0.1364963259 0.1143859706
320298080.0 -0.1163410662 0.125209287 0.4426253881 -0.3419300151 0.44381994 -0.3420906117 -0.1353212418 0.1158774044
325298050.0 -0.1158016656 0.1259175996 0.438999268 -0.346455103 0.4397072229 -0.3467007348 -0.1343892097 0.116603048
330298020.0 -0.1148058743 0.1277618382 0.4351781687 -0.3520073894 0.4360223585 -0.3521684871 -0.1337818205 0.1179915654
335297990.0 -0.1132464028 0.1289978759 0.431304356 -0.3562523383 0.4315272796 -0.3567199245 -0.1327774075 0.1193073662
340297960.0 -0.112380428 0.1304808078 0.4271100936 -0.3614978255 0.4271054587 -0.361620605 -0.1321258505 0.1208885737
345297930.0 -0.1114875042 0.1312592626 0.4233601333 -0.3661597192 0.4233211621 -0.3664115836 -0.1307977427 0.1221557871
350297900.0 -0.1100837696 0.1328820912 0.4189877947 -0.3704075984 0.4193669913 -0.3707095285 -0.1298356953 0.1233429538
355297870.0 -0.1087096139 0.1343832886 0.4152157666 -0.3747977781 0.4149395723 -0.3748464574 -0.1286817812 0.1247330025
360297840.0 -0.1074705198 0.1357127172 0.4105689297 -0.3799744098 0.4110614544 -0.3800601345 -0.1279451915 0.1265245675
365297810.0 -0.1065520004 0.1371593176 0.4066803372 -0.3846063383 0.40669788 -0.3843292663 -0.1270286787 0.1275332167
370297780.0 -0.1046352064 0.138461302 0.402123042 -0.388836144 0.402852677 -0.3884086896 -0.125665745 0.1288140998
375297750.0 -0.103353601 0.1396233859 0.3980738944 -0.3929117288 0.3983792515 -0.3934472292 -0.1239931906 0.1303466826
380297720.0 -0.1021771149 0.1411310492 0.3940055752 -0.3977629841 0.3937781042 -0.3973764445 -0.1231450656 0.1318890553
385297690.0 -0.100591106 0.1423751394 0.3893970743 -0.4020432822 0.3896762642 -0.4018502584 -0.1219165611 0.1332724771
390297660.0 -0.0988898982 0.1431536869 0.3850400067 -0.4053669955 0.3854297302 -0.4060175622 -0.1206341155 0.133964569
395297630.0 -0.0975968965 0.144552003 0.3808358491 -0.4098003711 0.380395454 -0.4099291069 -0.1196360076 0.1354271703
400297600.0 -0.0963579661 0.1459707999 0.3760383176 -0.4146226423 0.3763486618 -0.4145793781 -0.1182224053 0.1373439571
405297570.0 -0.0945636394 0.1467099833 0.37158617 -0.4180104126 0.3717960302 -0.418455122 -0.1167013431 0.1383434383
410297540.0 -0.0932272239 0.1483068019 0.3672076366 -0.4222838779 0.3672141251 -0.4224016044 -0.1154077789 0.1397885395
415297510.0 -0.0917706997 0.1493827471 0.3625292329 -0.4266790277 0.3627624541 -0.4266342712 -0.1140312079 0.14090489
420297480.0 -0.0904667637 0.1501367263 0.3576834217 -0.4304477775 0.357602324 -0.4305784651 -0.1124424206 0.142304424
425297450.0 -0.0884738846 0.1511372844 0.3530987593 -0.4341347801 0.3528932483 -0.434503234 -0.1115389315 0.1432376379
430297420.0 -0.0866852271 0.1524148592 0.3485014904 -0.438422298 0.3487641576 -0.4378527139 -0.1096667774 0.1446145902
435297390.0 -0.0853358498 0.1533126164 0.3433403695 -0.4425002037 0.3436352171 -0.441931248 -0.1088219704 0.1460846753
440297360.0 -0.0833913456 0.1542721955 0.338436314 -0.4459197376 0.3382082422 -0.4457637646 -0.1071998155 0.1470783147
445297330.0 -0.0818486565 0.1550165579 0.333724851 -0.4491205696 0.3338770327 -0.4495053737 -0.1058400133 0.148406851
450297300.0 -0.0801530266 0.1564680809 0.3292310304 -0.4532075997 0.3288216943 -0.4527208245 -0.1040812531 0.1492495576
455297270.0 -0.0787808122 0.1571721931 0.3241212162 -0.4564459808 0.3246767209 -0.4565200007 -0.1029844008 0.1505898582
460297240.0 -0.0766094068 0.1584247736 0.3188264611 -0.4606764312 0.3189678429 -0.460122313 -0.1014833187 0.1513838449
465297210.0 -0.0747211798 0.1592292787 0.3136856319 -0.4634945057 0.3134223919 -0.4638778881 -0.0998646131 0.1533579736
470297180.0 -0.0730308381 0.1599531911 0.3084147663 -0.466785838 0.308873604 -0.4669178856 -0.0979017584 0.1539650738
475297150.0 -0.0716672036 0.1613566018 0.3034531379 -0.4700517468 0.3037561196 -0.4705425965 -0.0968705108 0.1553584866
480297120.0 -0.0693578226 0.1622897324 0.2984062211 -0.4736331393 0.2984488229 -0.4733944454 -0.0955803934 0.1560448138
485297090.0 -0.0678501053 0.1627387076 0.2930097928 -0.4767209293 0.2929671536 -0.4764879093 -0.0940636409 0.1575474776
490297060.0 -0.065397104 0.1639918522 0.28722736 -0.4802792912 0.2880815814 -0.4800398566 -0.0924572667 0.1582371286
495297030.0 -0.0639850677 0.1645808612 0.2830822465 -0.4830551573 0.2827225194 -0.4832960582 -0.0903798658 0.1592036737
500297000.0 -0.0624427111 0.1655533679 0.2779377165 -0.4858300505 0.2773842662 -0.4865911427 -0.0892201417 0.1605299433
505296970.0 -0.0599569132 0.166242196 0.2723330501 -0.4893154829 0.2723352655 -0.4888847698 -0.0874918195 0.1611664686
510296940.0 -0.0582875532 0.1666095985 0.2672575324 -0.4921823591 0.267214781 -0.4926813741 -0.0854771909 0.1626546206
515296910.0 -0.0562174775 0.1677000587 0.2612880169 -0.4944439673 0.2609691493 -0.4946464727 -0.084218806 0.1628094552
520296880.0 -0.0544177028 0.1685606151 0.2561369111 -0.4975413764 0.2559577367 -0.4974830651 -0.082462415 0.1643631049
525296850.0 -0.0524084552 0.1691466538 0.2504711905 -0.5003702529 0.2502046196 -0.5001133181 -0.080459198 0.1652137465
530296820.0 -0.0504523323 0.1699731979 0.2450673345 -0.5030898809 0.2452809677 -0.5029077238 -0.0793447748 0.1656391061
535296790.0 -0.0480216947 0.1705409118 0.2393817829 -0.5056303435 0.2394568799 -0.5055830952 -0.0772106338 0.1669449996
540296760.0 -0.0462558166 0.1715620773 0.2338250811 -0.5079311233 0.2338420893 -0.5081519168 -0.0758386425 0.1675299886
545296730.0 -0.0447484136 0.1723371478 0.228567025 -0.5106535732 0.2283634511 -0.5105667967 -0.074301381 0.1687079537
550296700.0 -0.0423067696 0.1729771181 0.2228707323 -0.512930587 0.2225729581 -0.5132571813 -0.0723564657 0.1693243313
555296670.0 -0.0403978707 0.1734318499 0.2169980449 -0.5159016814 0.217509692 -0.5151632687 -0.0711283644 0.1700110295
560296640.0 -0.0378285011 0.1740504904 0.2111919127 -0.5175225849 0.2118427138 -0.5176240882 -0.0691414015 0.1713322161
565296610.0 -0.0364096209 0.1746577227 0.2064624819 -0.5200944141 0.2061495735 -0.5196979141 -0.0672912092 0.1720448767
570296580.0 -0.0344929221 0.1753541107 0.2000704605 -0.5221329431 0.2001384652 -0.5222642291 -0.0655332093 0.1723634405
575296550.0 -0.031950451 0.1758489864 0.1946829655 -0.5242920113 0.1946029802 -0.5245040932 -0.0643259244 0.1735806285
580296520.0 -0.0302631671 0.17664638 0.1887807808 -0.5264511452 0.1890010753 -0.5264440773 -0.0627611876 0.1740407987
585296490.0 -0.0279472033 0.1770097184 0.183870126 -0.5282215945 0.1826671001 -0.5283513613 -0.0600240612 0.1751280091
590296460.0 -0.0254904847 0.1773571428 0.1778214236 -0.530212157 0.1777563086 -0.5302020346 -0.0588437339 0.1757691234
595296430.0 -0.0235981278 0.1779673441 0.1712437173 -0.5320819668 0.1714314292 -0.532127667 -0.0570014948 0.1759877177
600296400.0 -0.021411027 0.1782632142 0.1654890912 -0.5333378357 0.1659169453 -0.5337774742 -0.0554904672 0.1767338018
605296370.0 -0.0198904244 0.1790205134 0.1604588327 -0.5357206529 0.1598145307 -0.5360389512 -0.0535603001 0.1778747949
610296340.0 -0.0174239523 0.1799076288 0.1542255417 -0.5363733897 0.1546083543 -0.5369138573 -0.0521664265 0.1785146177
615296310.0 -0.0152484462 0.1798487925 0.1484056064 -0.5386918437 0.1481800979 -0.5389978201 -0.0499006096 0.1790086933
620296280.0 -0.0135153627 0.1806248855 0.1423908031 -0.5404494959 0.1422984327 -0.5402242588 -0.0486520944 0.1797293093
625296250.0 -0.0116713714 0.1804499854 0.1369763949 -0.5418484414 0.1366529362 -0.5420827652 -0.0469707386 0.1802118129
630296220.0 -0.0091998104 0.1809907122 0.1306668224 -0.5436260315 0.130799125 -0.5432929773 -0.0450387246 0.1806446938
635296190.0 -0.0075937536 0.181707075 0.1253248274 -0.5444806236 0.1248814917 -0.54429122 -0.0432155055 0.1812304605
640296160.0 -0.005279928 0.1820133463 0.1193173889 -0.5464125291 0.1190150622 -0.5458058723 -0.0416989764 0.1813305059
645296130.0 -0.0028525829 0.1827072907 0.1132184513 -0.5471665967 0.1132431532 -0.5468386648 -0.0399391789 0.1822458503
650296100.0 -0.0009042163 0.1827212585 0.107404453 -0.5487315142 0.1069988363 -0.5487277905 -0.0375706087 0.1828435097
655296070.0 0.0008809017 0.1826134065 0.1010596344 -0.5491805986 0.1012047388 -0.5492948534 -0.0363900067 0.1836277402
660296040.0 0.002910028 0.18325315 0.0954855033 -0.5505680505 0.0951946799 -0.551009168 -0.034173677 0.1836082846
665296010.0 0.0053606321 0.1834251272 0.0888951622 -0.5510321147 0.089162088 -0.551066994 -0.0326986323 0.1844119605
670295980.0 0.0070920529 0.1838750201 0.0831158982 -0.5523071588 0.083309019 -0.5520578381 -0.0313497131 0.1845189765
675295950.0 0.0091860586 0.1840503813 0.0772328564 -0.5527334343 0.0774527129 -0.5531075879 -0.0291024278 0.1851496075
680295920.0 0.0107989414 0.1843006524 0.0718276319 -0.553452052 0.0713418194 -0.553531129 -0.0269910951 0.1855471326
685295890.0 0.0133640676 0.18441831 0.0652297582 -0.5547505687 0.0654550819 -0.554671295 -0.0252712323 0.1863327768
690295860.0 0.0148987879 0.1844752659 0.0598681134 -0.5550613621 0.059494442 -0.5553059821 -0.0239613433 0.1864483567
695295830.0 0.0173990206 0.1843260098 0.0540877238 -0.5556935334 0.0534971117 -0.5556492275 -0.0222407135 0.1867289222
700295800.0 0.0194843299 0.1848143034 0.0479415773 -0.5564559799 0.0477737682 -0.556106275 -0.0199271677 0.1872763425
705295770.0 0.0211343427 0.1846740198 0.0416909113 -0.556938872 0.0413463618 -0.5565683999 -0.0182801125 0.1877637681
710295740.0 0.0232311529 0.1846437612 0.0355400229 -0.5570154872 0.035534574 -0.5575644838 -0.0161193801 0.1881213081
715295710.0 0.0253377103 0.1848503462 0.0295404237 -0.5574098004 0.0298017937 -0.5576621817 -0.0147396267 0.1879126646
720295680.0 0.027530953 0.1846929551 0.0236449478 -0.5574260382 0.0232635206 -0.5579765301 -0.0124756893 0.1885491186
725295650.0 0.0287854448 0.1849542111 0.0179645627 -0.5578558698 0.0176557771 -0.5580738091 -0.0112210752 0.1892661944
730295620.0 0.0306795306 0.1846489671 0.0117777767 -0.5579166437 0.0117455978 -0.5575432934 -0.0090324371 0.189487364
735295590.0 0.033171465 0.1847087242 0.0057534738 -0.5584212994 0.0053370463 -0.5579806352 -0.0071307212 0.1891223902
740295560.0 0.0350045861 0.1841412385 -0.0002807187 -0.5581209121 -0.0004654469 -0.5579427863 -0.0056368167 0.1896658119
745295530.0 0.0370054773 0.1843310918 -0.0058559822 -0.5572726019 -0.0055926623 -0.5580302004 -0.0040016921 0.1899951653
750295500.0 0.0385847149 0.184495722 -0.0118943978 -0.5574436819 -0.0126996058 -0.5580067468 -0.0020655226 0.1901748797
755295470.0 0.0405667542 0.183942436 -0.0176537799 -0.5578553543 -0.0182189871 -0.5580432474 -3.99332e-05 0.1907691435
760295440.0 0.0426893537 0.1843539522 -0.0248514829 -0.5576796272 -0.0242540015 -0.5571614185 0.0020627066 0.1897224647
765295410.0 0.044607263 0.1834286353 -0.0297434973 -0.5570800679 -0.0300100297 -0.5572477268 0.0036169498 0.1906616153
770295380.0 0.0464089717 0.1837149235 -0.0358178786 -0.5568177665 -0.0360277349 -0.5570879846 0.0053309903 0.1906102596
775295350.0 0.0484373916 0.1831950742 -0.0420256306 -0.5564262214 -0.0422312751 -0.5559254055 0.0072050971 0.1907440411
780295320.0 0.0506946783 0.1828439287 -0.0478679047 -0.5553045787 -0.0478243792 -0.5557598365 0.0090008986 0.1908738294
785295290.0 0.0521742594 0.1822741239 -0.0540772363 -0.5551791077 -0.0537845523 -0.5553248865 0.0105363563 0.1913611418
790295260.0 0.0543015868 0.1817400693 -0.0596367957 -0.5546671213 -0.0597242024 -0.5553024279 0.0123669235 0.1913966257
795295230.0 0.0559268198 0.1813574225 -0.0659368309 -0.5538735377 -0.0661560963 -0.5540939464 0.0146271574 0.1907245203
800295200.0 0.0575203792 0.1812901145 -0.0709838502 -0.5527160737 -0.0718249049 -0.5536370165 0.0158644327 0.1908822585
805295170.0 0.059303171 0.1808292621 -0.0775381094 -0.5524742776 -0.0776319254 -0.55254105 0.0187756494 0.1912829888
810295140.0 0.0616828805 0.1805858403 -0.0833881907 -0.5513894853 -0.0837104236 -0.551575819 0.0201467799 0.1912151545
815295110.0 0.0633996129 0.1798886954 -0.0895519988 -0.5502418946 -0.0893182049 -0.5509778029 0.0220035185 0.1912634163
820295080.0 0.0654466703 0.1794429155 -0.094559202 -0.5490157537 -0.0951292466 -0.5499892767 0.0232617877 0.1914558283
825295050.0 0.0668406316 0.1787652038 -0.1009693617 -0.5485992275 -0.1014619068 -0.5484466746 0.026041609 0.1914497736
830295020.0 0.0689724021 0.1781019159 -0.1068990887 -0.5473639909 -0.1070906375 -0.54738005 0.0274891044 0.1906481785
