!Created with skrf (http://scikit-rf.org).
# Hz S RI R 50.0 
!freq ReS11 ImS11 ReS21 ImS21 ReS12 ImS12 ReS22 ImS22
300000.0 -0.2419837799 -0.0884148305 0.4726148168 0.0589531736 0.4708468461 0.056007932 -0.2392230688 -0.0962640198
5299970.0 -0.2450745348 0.0069899326 0.4750052889 0.0046658036 0.4745769697 0.0046627079 -0.240838912 0.0074326128
10299940.0 -0.2418106049 0.0179559711 0.4768531965 0.0057334482 0.476646151 0.0060144326 -0.2374159178 0.0208590334
15299910.0 -0.2374403115 0.0269056005 0.4802085384 0.0074433578 0.4807683768 0.0071911797 -0.2328207933 0.0301838836
20299880.0 -0.232814182 0.0340721206 0.4848844314 0.0078648395 0.4850161591 0.0075799861 -0.2276146225 0.038096776
25299850.0 -0.2279097487 0.0402441174 0.4904372297 0.0071628202 0.490208239 0.0068441418 -0.2217170386 0.0447115028
30299820.0 -0.2225323965 0.0450135347 0.4956424836 0.0051330563 0.4954499916 0.0048091553 -0.2159612233 0.050357709
35299790.0 -0.2173055777 0.0491162089 0.5008194445 0.0009095727 0.500854793 0.00129498 -0.210445641 0.0546145316
40299760.0 -0.2125659123 0.0524898211 0.5057509776 -0.0025172682 0.5059748881 -0.0024974268 -0.2055009145 0.0574904344
45299730.0 -0.2080528986 0.0546389615 0.5103464917 -0.0070021906 0.5106175426 -0.0070585352 -0.2003751972 0.0605032251
50299700.0 -0.2038896637 0.0566385505 0.5147196884 -0.0126523256 0.5150293038 -0.0127571835 -0.1954217519 0.062587579
55299670.0 -0.1999531198 0.0583038685 0.5187967787 -0.0188635628 0.518329141 -0.0184271817 -0.1915296607 0.0643060099
60299640.0 -0.1961318803 0.0600591318 0.5220032751 -0.0253734881 0.5221735641 -0.0247927764 -0.1873499665 0.0655884899
65299610.0 -0.1927177019 0.0609424245 0.5244675631 -0.0316347743 0.5246697267 -0.0314042916 -0.1842835509 0.0667928725
70299580.0 -0.1899913057 0.0620346497 0.5275177333 -0.0378485039 0.5269497169 -0.0379649139 -0.1807295473 0.0676363569
75299550.0 -0.1869671649 0.0630186513 0.5288481706 -0.044672353 0.5288434959 -0.0450790018 -0.1778232578 0.0683737289
80299520.0 -0.1847201989 0.0637330723 0.5307702412 -0.0514783412 0.5309780091 -0.0515672821 -0.1753547047 0.0691491574
85299490.0 -0.1826477914 0.0642996236 0.53217675 -0.0582118007 0.5321888637 -0.0582951391 -0.1729631742 0.0695556018
90299460.0 -0.1803867516 0.0648062106 0.5327323786 -0.0655097422 0.5336001583 -0.0655277477 -0.1704658339 0.0706144986
95299430.0 -0.1784166393 0.0651985808 0.5340223688 -0.0721963133 0.5339712749 -0.0727127737 -0.1682917127 0.071270182
100299400.0 -0.1767437279 0.0663267237 0.5339585128 -0.0790739738 0.5339438001 -0.0797147664 -0.166055644 0.0714988046
105299370.0 -0.1746993665 0.0668389237 0.5344727019 -0.0864832159 0.5350018658 -0.0864473533 -0.1640782919 0.0724391277
110299340.0 -0.1734477018 0.0676419156 0.5347293647 -0.0927251781 0.5344184715 -0.0926859044 -0.1628723155 0.0728267753
115299310.0 -0.1719954139 0.0682875289 0.5346881074 -0.0999496786 0.5345204113 -0.0994502747 -0.1612182141 0.0734504456
120299280.0 -0.1706880735 0.06844268 0.5343823379 -0.1066749435 0.5345738774 -0.1065891451 -0.159625664 0.0742526826
125299250.0 -0.1695111017 0.0693253262 0.5338685344 -0.1132132016 0.5345750052 -0.1130824547 -0.1584372901 0.074882578
130299220.0 -0.1686068756 0.0703904963 0.5333430951 -0.1201323224 0.5338195254 -0.1202384932 -0.1571058275 0.0755664797
135299190.0 -0.1676775316 0.071230661 0.5331641569 -0.1267364746 0.5326800519 -0.1264990681 -0.1556460742 0.0766569072
140299160.0 -0.1667207523 0.0721218015 0.5321282415 -0.1336280729 0.53203751 -0.1334761689 -0.154559057 0.0778117943
145299130.0 -0.1655529088 0.0730286839 0.530974478 -0.1400700909 0.5305690981 -0.1397129253 -0.1534999595 0.0786632316
150299100.0 -0.1643766136 0.0738570305 0.5299461998 -0.1459821806 0.5300929844 -0.1459129952 -0.1523747738 0.0802781246
155299070.0 -0.1638652421 0.0747733629 0.5290341076 -0.1533918888 0.5285387308 -0.1528618913 -0.1511341491 0.0812646525
160299040.0 -0.1626352467 0.0759172515 0.5271101797 -0.1594939077 0.5272037354 -0.1592702877 -0.150628082 0.0821470594
165299010.0 -0.1622706727 0.0768004604 0.5257240701 -0.1658547387 0.525876065 -0.1660956334 -0.1489207636 0.0835574953
170298980.0 -0.1614730809 0.0777367606 0.5242730064 -0.1720028324 0.5244961645 -0.1721582847 -0.1483941609 0.0846848989
175298950.0 -0.1605458079 0.0788793148 0.5232147129 -0.1783193807 0.5223203035 -0.1782331474 -0.1476052363 0.0859430031
180298920.0 -0.1599294777 0.0799173583 0.5211132368 -0.1845848694 0.5210558555 -0.1844140515 -0.1464849886 0.0875039337
185298890.0 -0.1586206597 0.0808449568 0.5187712775 -0.1909722448 0.5189709508 -0.1911145268 -0.145295329 0.0886956834
190298860.0 -0.158407874 0.0823125626 0.5174139459 -0.1966093225 0.5173231556 -0.1969803558 -0.1445631518 0.0899180086
195298830.0 -0.1578268766 0.0832575839 0.5150167466 -0.2027821328 0.5151860129 -0.202971318 -0.1433762576 0.0912554459
200298800.0 -0.1570779726 0.0845839448 0.5129203982 -0.2091404746 0.513024626 -0.209498766 -0.1429907504 0.0925701347
205298770.0 -0.1561793489 0.0860168496 0.5108214803 -0.215425136 0.5107243456 -0.2150265647 -0.1419861657 0.0929856857
210298740.0 -0.1552601859 0.086844163 0.5083677323 -0.2207983427 0.5086600869 -0.2209861262 -0.1410211742 0.0952135149
215298710.0 -0.1549616319 0.0884632441 0.5067173859 -0.2273988099 0.5061539682 -0.2274039648 -0.1403806263 0.0965471782
220298680.0 -0.1542898842 0.0892070427 0.5035583253 -0.2328549052 0.5033306222 -0.2327676935 -0.1395383282 0.0975834799
225298650.0 -0.1536862892 0.090594888 0.501295304 -0.239056753 0.5016531391 -0.2390777946 -0.1390071454 0.0989302349
230298620.0 -0.1525961119 0.0923434553 0.4990107896 -0.2442312513 0.4989009086 -0.2445049881 -0.1379544957 0.1001029781
235298590.0 -0.1518274474 0.0937895327 0.4966254903 -0.2503728294 0.4960850315 -0.2501774326 -0.1367511934 0.1019995348
240298560.0 -0.151169291 0.0948466838 0.4939189719 -0.2561005135 0.4934348794 -0.2562396314 -0.1360694803 0.1032827704
245298530.0 -0.1503774344 0.096271749 0.4912513119 -0.2621425514 0.4907060189 -0.2619160639 -0.1349289895 0.103978555
250298500.0 -0.1494261148 0.0976605921 0.4873601882 -0.2673797153 0.4874649863 -0.2671929588 -0.1341628254 0.1055549765
255298470.0 -0.1486664843 0.098865812 0.4844692097 -0.2724607498 0.4848741088 -0.2729567579 -0.1328424017 0.1068662563
260298440.0 -0.148214742 0.0999136779 0.4819213909 -0.2790941412 0.4820729715 -0.278667789 -0.1314930218 0.1085855362
265298410.0 -0.1466283279 0.1019079747 0.4786721582 -0.2841751909 0.4790695728 -0.2839667699 -0.1308194188 0.1097955163
270298380.0 -0.1459778021 0.1031189371 0.4759798573 -0.289422054 0.4760894178 -0.289118265 -0.1295895186 0.1108965084
275298350.0 -0.1447896094 0.1042655108 0.4723500418 -0.2950147578 0.4730840589 -0.2949515607 -0.1281596856 0.1123609962
280298320.0 -0.1438012697 0.1054516158 0.4700168104 -0.3001736324 0.4695688054 -0.3001437053 -0.1271177895 0.1138617904
285298290.0 -0.1431632332 0.1072618615 0.4665193298 -0.305482673 0.4658290824 -0.3057741571 -0.1256891741 0.1146279804
290298260.0 -0.1419573604 0.1086138939 0.4630038694 -0.3106795017 0.4630038436 -0.3110987886 -0.1243110249 0.1164378448
295298230.0 -0.1407662742 0.1095639701 0.4593175635 -0.3159083566 0.4596364816 -0.3156495759 -0.1226671867 0.1175081992
300298200.0 -0.140259301 0.1108001062 0.4567604817 -0.3206668763 0.4565199192 -0.3213696942 -0.1218685377 0.1189215908
305298170.0 -0.1388893388 0.112008429 0.4522250935 -0.3267685861 0.4525627526 -0.3263786461 -0.1199590287 0.1200365169
310298140.0 -0.1381535308 0.1136221562 0.4490753709 -0.3319420172 0.449074607 -0.3317998595 -0.1189977269 0.1214095041
315298110.0 -0.137254811 0.1145170326 0.4457710731 -0.3369119551 0.4455063686 -0.3368080688 -0.117509766 0.1227452091
320298080.0 -0.1359348732 0.1157556255 0.4416522576 -0.3419135265 0.4415344237 -0.3420505927 -0.1162993944 0.1239592766
325298050.0 -0.1350302066 0.1169549405 0.4376901324 -0.3474180449 0.4380077833 -0.3470130409 -0.1154120218 0.1249314619
330298020.0 -0.1341262371 0.1179318752 0.4336006507 -0.351929811 0.4341845384 -0.3521224922 -0.1140239363 0.1268540691
335297990.0 -0.1332184351 0.1192120753 0.4295551843 -0.3564335155 0.4297602611 -0.357306149 -0.112973869 0.1281877594
340297960.0 -0.1324299726 0.1210540256 0.4255125615 -0.3617002046 0.4253966034 -0.3619313862 -0.1113216344 0.1296717549
345297930.0 -0.1314826696 0.1226291375 0.4213880161 -0.3665728427 0.4211907369 -0.3667799328 -0.1101974711 0.1305840518
350297900.0 -0.1306632143 0.123498118 0.4171385079 -0.3708610408 0.4170661308 -0.3708362688 -0.1092224566 0.13257472
355297870.0 -0.1292731352 0.1254883076 0.4128496857 -0.3755998474 0.4131625509 -0.3755679051 -0.108068649 0.1338334387
360297840.0 -0.1280318508 0.1269124299 0.4095637852 -0.3801880884 0.4098082087 -0.3796982895 -0.1067200872 0.1354756802
365297810.0 -0.1271485451 0.1283015554 0.4049613835 -0.3851381661 0.4050151123 -0.384679197 -0.105108915 0.1367457622
370297780.0 -0.1257402296 0.1290699357 0.4005603743 -0.388761432 0.4007786144 -0.3885699405 -0.1036976828 0.1381297741
375297750.0 -0.1245340049 0.130863012 0.3963690845 -0.3934853059 0.3971991891 -0.3935550074 -0.1024110629 0.1394032788
380297720.0 -0.1232284878 0.1320576581 0.3919733468 -0.3975705758 0.3919027842 -0.3972453771 -0.1013406536 0.1406073076
385297690.0 -0.1224202876 0.1333490719 0.3873883253 -0.4021782952 0.3876179771 -0.4019663004 -0.0996623883 0.1422148849
390297660.0 -0.1211994419 0.1350257937 0.3831665029 -0.4066093443 0.3830425637 -0.4062334371 -0.0980608237 0.143480133
395297630.0 -0.1197021554 0.1361736784 0.3790302956 -0.4102786809 0.3788014513 -0.4106284136 -0.0963887448 0.1444161062
400297600.0 -0.1184470758 0.1374270345 0.3737816754 -0.4148206415 0.3740459359 -0.4146502509 -0.0950430209 0.1459255878
405297570.0 -0.1175674908 0.1387679708 0.3694439582 -0.4185183601 0.3697815964 -0.4183735194 -0.0937329634 0.1469160665
410297540.0 -0.1160511759 0.1399565625 0.3652254266 -0.4231456052 0.3654906364 -0.4228192542 -0.0921701714 0.1483481399
415297510.0 -0.1144879023 0.1410658614 0.3600955842 -0.4268191883 0.360941869 -0.4269300469 -0.0907645457 0.1494230791
420297480.0 -0.1135340465 0.1427790143 0.3557949019 -0.4307749367 0.3555040339 -0.4310439935 -0.0892958454 0.1500718343
425297450.0 -0.1119376726 0.1436282228 0.3513071909 -0.4346297739 0.3514803998 -0.434554417 -0.0879664392 0.1517403778
430297420.0 -0.1107140132 0.1448762559 0.3462532203 -0.437916347 0.3463232984 -0.4382215685 -0.0861911256 0.1522568936
435297390.0 -0.1094341898 0.1460064161 0.3408841018 -0.4421119836 0.3411055529 -0.4421604829 -0.0838923302 0.1535779549
440297360.0 -0.1078782132 0.1473583215 0.3360774443 -0.4454644581 0.3367547415 -0.4457952177 -0.0827802707 0.1543606961
445297330.0 -0.1068062084 0.1480433436 0.3320776929 -0.4494095494 0.3318279296 -0.4491168909 -0.0807218671 0.1549825494
450297300.0 -0.1051912666 0.1494323366 0.3264670063 -0.4527810043 0.3265083533 -0.453082526 -0.0791522969 0.1562623213
455297270.0 -0.1036626404 0.1506048254 0.321465835 -0.456409749 0.3215983622 -0.4564544119 -0.07730017 0.1569138367
460297240.0 -0.1026365169 0.151787405 0.3168170248 -0.4600407792 0.3164329691 -0.459821376 -0.0755990126 0.1583411563
465297210.0 -0.1006813671 0.1528284845 0.311887281 -0.4633433359 0.3117704431 -0.4635420654 -0.0740172405 0.158790922
470297180.0 -0.099503931 0.1538225473 0.3066513889 -0.4670386282 0.3063911484 -0.4669066859 -0.0720734421 0.1601572452
475297150.0 -0.0979619556 0.1546736169 0.3011667476 -0.4696876298 0.3013120169 -0.4696416535 -0.0695260268 0.1606726037
480297120.0 -0.0965240212 0.1563044757 0.2962935116 -0.4731705499 0.2960504527 -0.4735682824 -0.0679046616 0.1618394266
485297090.0 -0.095092277 0.1569200015 0.2914056145 -0.4758545198 0.291131846 -0.4761728332 -0.0662614132 0.1625910444
490297060.0 -0.0940124194 0.1581067202 0.2863471124 -0.4797070814 0.2858060898 -0.4789753148 -0.0645710072 0.1636231911
495297030.0 -0.0922658668 0.1591874811 0.2806494622 -0.4823106679 0.2811804585 -0.4823248117 -0.0627701445 0.1646175541
500297000.0 -0.0903392915 0.160003004 0.275143282 -0.4850154447 0.2752257204 -0.4853246332 -0.0605866115 0.1658351469
505296970.0 -0.0885932806 0.1610871241 0.2698696431 -0.4881433856 0.2698059304 -0.4885164328 -0.0590173872 0.1663388241
510296940.0 -0.0872274881 0.1623470524 0.2648381746 -0.4913877949 0.2646101389 -0.491675578 -0.0568030668 0.167627663
515296910.0 -0.0857360345 0.1633009872 0.2593132563 -0.4942363615 0.2591934386 -0.4938026364 -0.0548190093 0.1683122298
520296880.0 -0.0843350324 0.164234493 0.2540725254 -0.4971532672 0.2537584336 -0.4967162012 -0.0533035783 0.1690054329
525296850.0 -0.0824176868 0.1647620911 0.2481398607 -0.4997439047 0.2489188632 -0.499846301 -0.0515565163 0.1702179074
530296820.0 -0.08105828 0.166233373 0.2430526819 -0.5026452552 0.2432051947 -0.5025209968 -0.0493203177 0.1710143793
535296790.0 -0.0796879258 0.1668954156 0.2382261935 -0.5048104936 0.2378975266 -0.5046038282 -0.0477374518 0.171332057
540296760.0 -0.0779508197 0.1682779869 0.2322528456 -0.5079028415 0.2318018979 -0.5076368681 -0.0461630575 0.1722448059
545296730.0 -0.0762406991 0.1689813254 0.2265640222 -0.5101017087 0.2265571466 -0.5100219363 -0.0444866951 0.1727745282
550296700.0 -0.0742903093 0.169962228 0.2208195449 -0.5122621465 0.220678155 -0.512462685 -0.0422733974 0.1736922815
555296670.0 -0.0729042543 0.170515009 0.2156158648 -0.514597227 0.21580379 -0.5147085308 -0.0403666502 0.1744936002
560296640.0 -0.0709349029 0.1716984573 0.2095646484 -0.5171524169 0.2102321682 -0.5168523566 -0.0387940425 0.174847485
565296610.0 -0.0695874968 0.172286984 0.204081297 -0.5191905549 0.2044119326 -0.5194182261 -0.0369799423 0.1755646385
570296580.0 -0.0679782916 0.1729932635 0.198531713 -0.5219383076 0.1983695876 -0.5216234451 -0.0350397623 0.1764457961
575296550.0 -0.0666479381 0.1740852003 0.1929768131 -0.523803096 0.1925032578 -0.523657129 -0.0327104667 0.1766251344
580296520.0 -0.0644316158 0.1747017023 0.1871222945 -0.5258864445 0.1869382323 -0.5257086947 -0.0308039803 0.1772278698
585296490.0 -0.0630499723 0.175126423 0.1816564346 -0.5272064269 0.1816372002 -0.5276135229 -0.0292159051 0.1775388996
590296460.0 -0.0608317792 0.1762474439 0.1758466253 -0.5288373069 0.1759632043 -0.5293642433 -0.027930084 0.1780775816
595296430.0 -0.0592166739 0.1771505646 0.1697639326 -0.5317384976 0.1696074922 -0.5310288907 -0.0252923079 0.1780070247
600296400.0 -0.0579059806 0.1775535812 0.1644862617 -0.5331551467 0.1641437071 -0.5327049302 -0.0234304902 0.1786155436
605296370.0 -0.0561987378 0.1780669942 0.1585368859 -0.5347182198 0.1584161307 -0.5346891516 -0.0212765484 0.1788641957
610296340.0 -0.054328393 0.1792936729 0.1521689962 -0.5361571416 0.1524801533 -0.5362661548 -0.0193081134 0.1791930104
615296310.0 -0.0525021477 0.179498437 0.1467199568 -0.5378982534 0.1464855224 -0.5382277813 -0.0172878532 0.1796681434
620296280.0 -0.0508958936 0.1801046098 0.1409431972 -0.5390423444 0.140861766 -0.5393398979 -0.0156656201 0.1798678992
625296250.0 -0.0495622987 0.1804735908 0.1356764467 -0.5411961657 0.1350839334 -0.5409841963 -0.012901074 0.1801327709
630296220.0 -0.0466636504 0.1811818018 0.128314034 -0.5427344032 0.128803099 -0.5422951861 -0.0111599632 0.1806733963
635296190.0 -0.046110853 0.1816388138 0.1234267872 -0.5437534671 0.1233274949 -0.5437468891 -0.0092179742 0.180635971
640296160.0 -0.044181798 0.1824609793 0.1179817074 -0.5447405116 0.1175156702 -0.5451195605 -0.0071339671 0.1806546174
645296130.0 -0.0422126721 0.1831862428 0.1113714275 -0.54579863 0.1118525 -0.545980856 -0.0048840374 0.1810190549
650296100.0 -0.0403591108 0.1833317712 0.1056078182 -0.5468214972 0.1054967095 -0.5469933423 -0.0024989195 0.1807615571
655296070.0 -0.0386995192 0.1840201324 0.0996605226 -0.5482034778 0.0998225814 -0.5485320543 -0.0006196175 0.1813537679
660296040.0 -0.0372573675 0.1843126434 0.094064197 -0.5494366559 0.0939255586 -0.5496303003 0.0019103317 0.181587696
665296010.0 -0.034835207 0.1844876483 0.0876574855 -0.5497422689 0.0877621488 -0.5501952087 0.0037754604 0.1818559897
670295980.0 -0.0340669047 0.1856202128 0.0822230181 -0.5510487422 0.0817234114 -0.5510210314 0.0051764183 0.1818891554
675295950.0 -0.0316037832 0.1860665257 0.0762104927 -0.5518528457 0.076230861 -0.551768901 0.0073141219 0.1822130433
680295920.0 -0.030165706 0.1863417984 0.0698246465 -0.5525593601 0.0696806862 -0.5531353308 0.0096002985 0.1828671695
685295890.0 -0.0280236782 0.187212202 0.0640576413 -0.5533367092 0.063666518 -0.5535402534 0.011395168 0.1825453715
690295860.0 -0.0259823596 0.1872893399 0.057769011 -0.55337341 0.0579252896 -0.5542918489 0.0135827089 0.1830772878
695295830.0 -0.0241617217 0.187632348 0.0525096639 -0.554273736 0.0517471252 -0.5543840498 0.0157563814 0.1826035613
700295800.0 -0.0224034712 0.1876160341 0.0457161046 -0.5545789458 0.0456943109 -0.5546105415 0.0175307744 0.1830783047
705295770.0 -0.020742929 0.1887111316 0.0397630739 -0.555149248 0.0403292401 -0.5556556824 0.019463845 0.1832596873
710295740.0 -0.0187179555 0.188990081 0.0343671454 -0.5564840327 0.0341360742 -0.5562226793 0.021409683 0.1826268024
715295710.0 -0.0172026131 0.1892343791 0.0287613211 -0.5561130977 0.027759235 -0.556247514 0.023789294 0.1828000523
720295680.0 -0.0149437224 0.1891513677 0.0222144502 -0.5566270326 0.021979013 -0.5568542183 0.0257493486 0.1832411249
725295650.0 -0.0133177728 0.1896690221 0.0159626975 -0.5565536982 0.0161642672 -0.5569338165 0.0272051835 0.1831555018
730295620.0 -0.0111912417 0.1903756906 0.0102237775 -0.5565063706 0.0104278915 -0.5568849362 0.0287162285 0.1826470849
735295590.0 -0.0096614027 0.1904521317 0.004161527 -0.5570031654 0.0038577234 -0.5567085957 0.0310001067 0.1820280908
740295560.0 -0.007994103 0.1909989503 -0.0016228231 -0.5565554951 -0.001960738 -0.5567030567 0.0337749425 0.1826912275
745295530.0 -0.0062521904 0.1907708954 -0.0074925685 -0.5560609643 -0.0082121188 -0.5563740442 0.0353020299 0.1817521605
750295500.0 -0.003872207 0.1910982322 -0.013676564 -0.5562806988 -0.0137810962 -0.5564923149 0.0371448337 0.181831354
755295470.0 -0.0021527189 0.1912082579 -0.0195204328 -0.5562525693 -0.0197900765 -0.556520573 0.0395180411 0.1810818051
760295440.0 -0.000307133 0.1914226074 -0.0258642642 -0.5566528286 -0.0260105636 -0.5563067536 0.0412151989 0.1810393051
765295410.0 0.0015679916 0.1913293007 -0.0319073389 -0.5555961585 -0.0322733133 -0.5561738033 0.0432669534 0.1807337633
770295380.0 0.0029578752 0.1918096207 -0.0378913536 -0.5555499532 -0.0377251003 -0.5550800699 0.0448602283 0.1800352079
775295350.0 0.0047861769 0.1911256458 -0.0437638972 -0.5543934995 -0.0435348385 -0.5548823371 0.0465672508 0.1803092076
780295320.0 0.0071688555 0.1916853621 -0.0499075672 -0.5539936709 -0.0495336215 -0.554082344 0.0488253388 0.1789391535
785295290.0 0.0086058063 0.1912936676 -0.05635525 -0.5528901127 -0.0559021688 -0.5535413846 0.0515268729 0.178788354
790295260.0 0.0111198919 0.1920859105 -0.0614555567 -0.5528017202 -0.0610162632 -0.552484985 0.0532530006 0.1781239277
795295230.0 0.0127423315 0.1915747545 -0.0676006238 -0.5515735553 -0.0671223411 -0.5521790204 0.0553389888 0.1780958683
800295200.0 0.0141887275 0.1917599415 -0.0739983013 -0.5511996749 -0.0735844902 -0.5507839591 0.0571906177 0.1771241011
805295170.0 0.0161448204 0.1915182834 -0.0793431163 -0.5502495705 -0.0797620761 -0.5506926894 0.0592140345 0.1771335787
810295140.0 0.01786664 0.1912692276 -0.0852232708 -0.5491152023 -0.0853504202 -0.5496560327 0.0617149135 0.176391043
815295110.0 0.0198825733 0.1910641006 -0.0911743797 -0.5478687298 -0.0913859759 -0.5487602869 0.0632778096 0.1756430607
820295080.0 0.0213713794 0.1916577582 -0.0970472426 -0.5473197092 -0.096750894 -0.547626342 0.0654039087 0.1752444887
825295050.0 0.0236817565 0.1913607412 -0.1027814868 -0.5459754054 -0.102871471 -0.5465518205 0.0676520905 0.1748593132
830295020.0 0.0255427364 0.1915284617 -0.1089374923 -0.5450308019 -0.1086565695 -0.5451292732 0.0702355695 0.1743602321
