!Created with skrf (http://scikit-rf.org).
# Hz S RI R 50.0 
!freq ReS11 ImS11 ReS21 ImS21 ReS12 ImS12 ReS22 ImS22
300000.0 -0.091753205 -0.1043403606 0.6197484155 0.095887944 0.6182828926 0.0976015456 -0.0933047765 -0.1087645055
5299970.0 -0.1014708792 0.0111525054 0.6303705043 0.0113614768 0.6309584583 0.0111945206 -0.1015571211 0.0112614196
10299940.0 -0.0969223918 0.0285329927 0.6345053621 0.0162358953 0.6340515726 0.0164482398 -0.0961835927 0.028507467
15299910.0 -0.0892381689 0.0422537784 0.6404545932 0.021139021 0.6409581765 0.0213560296 -0.0894795105 0.0417565393
20299880.0 -0.0803791393 0.0534372208 0.6486716285 0.024205544 0.6489549895 0.0243707392 -0.0805805927 0.0526114514
25299850.0 -0.0701672195 0.0622537398 0.658177409 0.0261525494 0.6583211415 0.025542968 -0.0713592469 0.0616901284
30299820.0 -0.0606552033 0.0687815403 0.6681462473 0.024491706 0.6677521967 0.0245704514 -0.061500019 0.0682049362
35299790.0 -0.0504313984 0.0734343184 0.6767827215 0.0218500512 0.6775735238 0.0218899173 -0.0520122146 0.0735332536
40299760.0 -0.0410795546 0.076373546 0.6868894403 0.017814005 0.6870475479 0.0176791259 -0.0425164675 0.0768450683
45299730.0 -0.0318764578 0.0783570162 0.6961733123 0.0124239808 0.6960793416 0.0118013962 -0.0329546274 0.0789255324
50299700.0 -0.0227918472 0.0791063114 0.7034317743 0.004826148 0.7038607272 0.0052870347 -0.0243653909 0.0803816439
55299670.0 -0.0149770921 0.078870181 0.7113107816 -0.0022580588 0.7106586568 -0.0027317278 -0.0170796916 0.0806318559
60299640.0 -0.0075686328 0.0785659134 0.7177215138 -0.0110559796 0.7178330799 -0.0110755787 -0.0094248654 0.079638381
65299610.0 -0.0010950797 0.0772926373 0.7240361564 -0.0194861371 0.7243321492 -0.0197371686 -0.0024716156 0.078593031
70299580.0 0.0053264703 0.0752835769 0.729295099 -0.0285412869 0.7292666153 -0.0289155136 0.0032200707 0.0772141089
75299550.0 0.0104846847 0.0733114998 0.7333957758 -0.0390373758 0.7334014615 -0.0387624955 0.0087498954 0.0755801332
80299520.0 0.0157137424 0.0712070382 0.7373602332 -0.0486114736 0.7373210131 -0.0487639524 0.0137724565 0.0734976315
85299490.0 0.020227362 0.0690507029 0.7410602159 -0.0585928862 0.7408251724 -0.0579959043 0.0178226132 0.0707602597
90299460.0 0.0243152003 0.066677094 0.7433278885 -0.0687901568 0.7437254077 -0.0680631201 0.022569854 0.0693401087
95299430.0 0.0282136785 0.0641505569 0.7460789095 -0.0787000694 0.7463982273 -0.078805544 0.0260389616 0.0664878425
100299400.0 0.0313272825 0.0615907894 0.7476972336 -0.088570857 0.747643483 -0.0892998125 0.0294890674 0.0645422587
105299370.0 0.0347041546 0.0591444695 0.7491186802 -0.0991573815 0.7500280836 -0.0989845627 0.0331055869 0.0620197968
110299340.0 0.037445357 0.0564191607 0.7509182726 -0.1087295397 0.7510976715 -0.108357966 0.0353254303 0.0595080347
115299310.0 0.0396163127 0.0542104313 0.7510448439 -0.1186701518 0.7513486995 -0.1184573561 0.0376679859 0.0575741201
120299280.0 0.041775598 0.0520269851 0.7520540915 -0.1298533514 0.7517201203 -0.1291178464 0.0397796519 0.0545329989
125299250.0 0.0438402449 0.049851233 0.7521269461 -0.1389481171 0.7522570344 -0.1391081598 0.0422425206 0.0527594586
130299220.0 0.0458025782 0.047021136 0.7525457325 -0.1493318213 0.7517875726 -0.1491454991 0.04403431 0.0509930117
135299190.0 0.0471509552 0.0453211381 0.7518636282 -0.1583322987 0.7519584673 -0.1586712319 0.0457493815 0.0480035332
140299160.0 0.0490698347 0.043046553 0.7514824862 -0.1690728984 0.7511207832 -0.1683385986 0.0462536563 0.0455807545
145299130.0 0.0494271707 0.0411541091 0.7506379049 -0.1780368011 0.7503218752 -0.178138622 0.0481512872 0.0436939705
150299100.0 0.0508279158 0.0392174152 0.7496265593 -0.1876769718 0.7488764766 -0.1879120219 0.0492900033 0.0420256429
155299070.0 0.0526069552 0.0371926856 0.7477834671 -0.1974464105 0.7484289604 -0.1979081709 0.0506123933 0.0395424616
160299040.0 0.053576191 0.0354315786 0.7468231085 -0.2069685776 0.7467945333 -0.2071831175 0.0511524634 0.0380130156
165299010.0 0.0541489295 0.0333014678 0.7455144602 -0.2166148248 0.7447780647 -0.2166486151 0.0523465137 0.035896769
170298980.0 0.0550218599 0.0319663911 0.7432995657 -0.2263266373 0.7431460196 -0.2260238318 0.0525289979 0.0339049994
175298950.0 0.0558982128 0.0302533573 0.7418399851 -0.2354357078 0.7418186807 -0.2355482242 0.053581189 0.0326956475
180298920.0 0.0563982055 0.0287739724 0.739581029 -0.2444354885 0.7393671395 -0.2448142991 0.0544854088 0.0309058675
185298890.0 0.0566220343 0.0270030355 0.7376060328 -0.2536977817 0.7374965905 -0.2534228406 0.0554656879 0.0292183881
190298860.0 0.0580053743 0.0257385562 0.7343773687 -0.2626340001 0.7348136132 -0.2626830789 0.0554228681 0.0273545721
195298830.0 0.0576957354 0.0241771192 0.7328280211 -0.2712825704 0.7326884743 -0.2721417861 0.0556501891 0.0260045811
200298800.0 0.0586377909 0.0223153806 0.7299153502 -0.2815818547 0.729805971 -0.2808681686 0.0564936803 0.024097797
205298770.0 0.0581477296 0.0206019789 0.7266730714 -0.2893746275 0.7274193731 -0.2894183662 0.057271665 0.0228348098
210298740.0 0.0590450897 0.0199850432 0.7240357719 -0.2973953207 0.7236075012 -0.2984636917 0.0569232579 0.021032372
215298710.0 0.0596196234 0.0184856376 0.7210093187 -0.3068394086 0.7204463373 -0.307191906 0.0572634843 0.0198525447
220298680.0 0.0600259514 0.0174673066 0.7175323249 -0.3153755732 0.7171645902 -0.316048445 0.0576257869 0.0182899036
225298650.0 0.0596565294 0.0160284096 0.713949675 -0.324276053 0.7145265464 -0.3235624337 0.057611282 0.0165575758
230298620.0 0.0602182638 0.01505522 0.7112649659 -0.3330423377 0.7114282923 -0.3330004755 0.0575047352 0.0153026384
235298590.0 0.0600168432 0.0137094188 0.7081307805 -0.3418151756 0.7076538222 -0.3411743637 0.0581819793 0.0144375871
240298560.0 0.0604756985 0.0129466174 0.7040867626 -0.3491196137 0.7038549467 -0.3491775098 0.0578426704 0.0130960842
245298530.0 0.0600842779 0.0110776315 0.7005777609 -0.3583341516 0.7003005619 -0.3582568449 0.0580892185 0.0119651869
250298500.0 0.0602048434 0.0100952681 0.6968194948 -0.3658894489 0.6962564818 -0.3659295851 0.0579666817 0.0107396079
255298470.0 0.0606013755 0.0096203805 0.6929288331 -0.3742147093 0.693214585 -0.3740458482 0.0579988726 0.0099441237
260298440.0 0.0607089497 0.0081891332 0.6894935133 -0.381980346 0.6891011755 -0.3822626912 0.0578603973 0.0080210117
265298410.0 0.0600194374 0.0076763868 0.684631663 -0.3907940835 0.6843860119 -0.3906032899 0.0586096476 0.0069052519
270298380.0 0.0600709215 0.0061774202 0.6804663922 -0.3983619353 0.6803703552 -0.3983281007 0.0583370807 0.0060835087
275298350.0 0.0605245479 0.0056154678 0.6752835659 -0.4059094234 0.6754193622 -0.4060445087 0.057958718 0.0049516474
280298320.0 0.059777913 0.0044100497 0.6719241259 -0.4141365969 0.6721205783 -0.4142071664 0.058673901 0.0042994436
285298290.0 0.0598521997 0.0034145948 0.667108755 -0.4221066759 0.6675488524 -0.4216351627 0.058112808 0.0027270674
290298260.0 0.0599254844 0.0027472633 0.6634873545 -0.4296522313 0.6631881339 -0.4296205613 0.0582030142 0.0020751076
295298230.0 0.0597676958 0.0013641939 0.658628003 -0.437934355 0.6587710321 -0.4377717681 0.0580372987 0.0004392284
300298200.0 0.0599371186 0.0008426933 0.6538214608 -0.4450355473 0.6533122362 -0.4451852687 0.0578654351 -0.000592475
305298170.0 0.0601459965 -0.0007994266 0.649173007 -0.4528850998 0.6490668551 -0.4531722437 0.0578197542 -0.0022838812
310298140.0 0.0601072643 -0.0017539848 0.6441119427 -0.4603147629 0.644245143 -0.4605023909 0.0581004038 -0.0037259726
315298110.0 0.0599056244 -0.0031664834 0.6395008688 -0.4687803574 0.6388511026 -0.4682730146 0.0577159881 -0.0043191071
320298080.0 0.0594955244 -0.0038097214 0.633430336 -0.4760922557 0.6341377598 -0.4761098097 0.0575466099 -0.0055197868
325298050.0 0.0585817109 -0.0053796741 0.6284335547 -0.4831410409 0.6287447205 -0.4829220766 0.0571878257 -0.0068903328
330298020.0 0.0572555364 -0.0060356845 0.6228896274 -0.4911035922 0.6232775361 -0.4908027184 0.0561236685 -0.0075104608
335297990.0 0.0576961338 -0.0068924035 0.6174757116 -0.4976990615 0.6171760777 -0.4975656142 0.0555802708 -0.0088142563
340297960.0 0.0570376386 -0.0076971459 0.6109211027 -0.5051536315 0.6113110821 -0.5049409835 0.0552313374 -0.0089165859
345297930.0 0.0563452034 -0.0085009626 0.6055318888 -0.5118949759 0.6054588043 -0.511809113 0.0553013589 -0.0103031195
350297900.0 0.0558147921 -0.0091758176 0.6001337302 -0.5180648848 0.6005000542 -0.5181901214 0.0548253867 -0.0111143585
355297870.0 0.0555200693 -0.0097069858 0.594692036 -0.5240025602 0.5941558185 -0.52434153 0.054820259 -0.0117805653
360297840.0 0.0551941887 -0.010308053 0.5875274853 -0.5315553917 0.5885920241 -0.5315918579 0.0536384205 -0.0121564877
365297810.0 0.0545066187 -0.010892421 0.5819958926 -0.5380834017 0.5821933647 -0.5382207765 0.0530025734 -0.013195656
370297780.0 0.0547768533 -0.0113661879 0.5758388201 -0.5448586241 0.5766868339 -0.5443278115 0.052992319 -0.0140861876
375297750.0 0.0542910124 -0.0122082666 0.5703884083 -0.5505096125 0.5705682083 -0.5508538694 0.0527224713 -0.0144868447
380297720.0 0.053539978 -0.0128622911 0.5644108139 -0.5581061069 0.5639800062 -0.5572786354 0.0520935143 -0.015067528
385297690.0 0.0531589976 -0.0134892717 0.5582013684 -0.5632507695 0.5583597429 -0.5641414213 0.0521163381 -0.0155152045
390297660.0 0.0530373191 -0.0143281655 0.5520876898 -0.5692420503 0.5523334366 -0.5698321228 0.0520944091 -0.0167583481
395297630.0 0.0530791342 -0.0150976899 0.545907165 -0.5751061709 0.5456450534 -0.5756274738 0.0516413264 -0.0171201297
400297600.0 0.0517099872 -0.0156856711 0.5396154487 -0.5820270136 0.5397875021 -0.5822776068 0.051684945 -0.017226468
405297570.0 0.0520195575 -0.0166089992 0.5334820603 -0.5877922024 0.5329262271 -0.587992562 0.050973414 -0.017661361
410297540.0 0.0514193086 -0.0165887372 0.5264867865 -0.59415748 0.5269237948 -0.5939256992 0.0504844459 -0.0187342058
415297510.0 0.0509945621 -0.0176440543 0.5197905726 -0.5994234769 0.5207085963 -0.6001842066 0.0505851629 -0.0191078291
420297480.0 0.0505122804 -0.0186323915 0.5136103063 -0.6054397237 0.5138714682 -0.6053652513 0.0502543504 -0.019477244
425297450.0 0.0507662528 -0.0190775272 0.5070482834 -0.6108892686 0.506821548 -0.6111886856 0.0499404197 -0.0205205598
430297420.0 0.0499522522 -0.0191593335 0.5009509249 -0.6166447175 0.5006862748 -0.6162837742 0.0497864128 -0.0209582705
435297390.0 0.0496936377 -0.0201640797 0.4931862653 -0.6229280281 0.493242292 -0.622077988 0.0486205327 -0.0214015477
440297360.0 0.0495360978 -0.0210135026 0.4857041559 -0.6278793089 0.485849098 -0.6277859161 0.0488110924 -0.0217314542
445297330.0 0.0492975715 -0.0221162626 0.4797112527 -0.632717004 0.4795744863 -0.633211662 0.0483818395 -0.021998319
450297300.0 0.0489103588 -0.0221452755 0.4727443407 -0.6381687495 0.4730222332 -0.6377459388 0.0480943224 -0.0227990183
455297270.0 0.0481321905 -0.0230576245 0.4658714043 -0.6433606433 0.4658893971 -0.6435202776 0.0478892045 -0.0234647701
460297240.0 0.0482981377 -0.023361452 0.4592273474 -0.6495878139 0.4586370871 -0.6489013093 0.0474051444 -0.0240161009
465297210.0 0.0476599211 -0.0240698057 0.4511227767 -0.6538099998 0.4509146669 -0.6541332203 0.0475854927 -0.0235115889
470297180.0 0.0471691654 -0.025156657 0.4436891523 -0.6581738063 0.4446606109 -0.6584891398 0.0472272561 -0.0248482393
475297150.0 0.0463601494 -0.0250181275 0.4370980524 -0.6636489582 0.4377169954 -0.6638901028 0.0466147135 -0.0256037101
480297120.0 0.0467371706 -0.0251335205 0.4293314478 -0.668646 0.4301244296 -0.6682400687 0.0458593599 -0.0260184505
485297090.0 0.0461637522 -0.0268256851 0.4218055897 -0.6733577416 0.422485119 -0.6728776433 0.0458886893 -0.0264279435
490297060.0 0.0463923669 -0.0266566617 0.4143348761 -0.6780515714 0.4146964966 -0.6778652961 0.0450446436 -0.0268037254
495297030.0 0.0451731963 -0.0277633586 0.4073669188 -0.682622916 0.4076630303 -0.6825177532 0.0455058591 -0.0274268195
500297000.0 0.0447398583 -0.0278034777 0.4000549079 -0.6868086056 0.3997356043 -0.6868493077 0.0450342386 -0.0275738972
505296970.0 0.0449625534 -0.0282093007 0.3927327771 -0.6911957712 0.3928176647 -0.6912409147 0.0442850437 -0.0289478658
510296940.0 0.044296202 -0.0290105032 0.3846740145 -0.6964681276 0.3854531817 -0.6964232657 0.0443003086 -0.028677304
515296910.0 0.0438542881 -0.0289949787 0.3767041152 -0.6996859665 0.376448256 -0.6996748544 0.043885158 -0.0299735491
520296880.0 0.0434455462 -0.0296537329 0.3697908017 -0.7033605133 0.3690639563 -0.7036596389 0.0437334879 -0.0296292401
525296850.0 0.0432931797 -0.0303840387 0.3614755031 -0.7078247572 0.3615702297 -0.7079304653 0.0436104905 -0.0303977761
530296820.0 0.0424374578 -0.0310916362 0.3536802391 -0.7122273827 0.3540153224 -0.7120380498 0.0431845011 -0.0311416381
535296790.0 0.0428457523 -0.0309981726 0.3459533087 -0.7153370032 0.3463504394 -0.7155758889 0.043032945 -0.0313036222
540296760.0 0.0421024479 -0.031515929 0.3384864505 -0.7192186902 0.3384029606 -0.7194112167 0.0422238785 -0.032430537
545296730.0 0.0406910738 -0.031744434 0.3300003427 -0.7231966547 0.3299837432 -0.7230642574 0.0418237398 -0.0325253806
550296700.0 0.0414476909 -0.032367914 0.322216401 -0.7264264976 0.3219899661 -0.7272729139 0.041509814 -0.0326848038
555296670.0 0.0407354961 -0.0327313725 0.3141360031 -0.7306404259 0.3144008247 -0.7306229276 0.0409972882 -0.0339734125
560296640.0 0.0410223391 -0.0334000175 0.3061389671 -0.7335597471 0.3067659944 -0.7335805052 0.040437261 -0.0336478188
565296610.0 0.0397818249 -0.0337930682 0.2987320326 -0.7377051562 0.2989730061 -0.7367109914 0.040365693 -0.0337980152
570296580.0 0.0394600402 -0.0338042119 0.2897756765 -0.740039876 0.2902980441 -0.7404131411 0.0397895706 -0.0347731739
575296550.0 0.0388338911 -0.0342525528 0.2827615365 -0.7436091139 0.2825238981 -0.7438268925 0.0390334293 -0.0352433842
580296520.0 0.0388277495 -0.0341826946 0.2744682071 -0.7467758876 0.274092898 -0.7462524956 0.0381296566 -0.0355983145
585296490.0 0.0385109241 -0.0345621639 0.2665070967 -0.7490922057 0.2653556195 -0.7494410896 0.0384755492 -0.0357042291
590296460.0 0.0385179737 -0.0348573654 0.2578477241 -0.7519148674 0.2579328434 -0.7526445449 0.0372548541 -0.0360360313
595296430.0 0.0376678261 -0.035352311 0.2488520992 -0.7549459692 0.2490284133 -0.7552407656 0.037095388 -0.0369941411
600296400.0 0.0375401281 -0.0357597028 0.2406304795 -0.7577076119 0.2409080677 -0.7577403398 0.0369468959 -0.0370735068
605296370.0 0.0362281934 -0.0360294364 0.2331861903 -0.76028111 0.2322722096 -0.7602912701 0.0362726898 -0.0373754274
610296340.0 0.036478619 -0.0358425647 0.2241632389 -0.7619838745 0.2248533927 -0.762510786 0.0356020303 -0.0374421988
615296310.0 0.0362138291 -0.0364624174 0.215791922 -0.7656072664 0.2156842794 -0.7652921698 0.0353464256 -0.0380065433
620296280.0 0.0350963621 -0.0360318414 0.2075065998 -0.7676041816 0.2070995879 -0.7673643859 0.0342205581 -0.0381277809
625296250.0 0.0347315415 -0.0366298397 0.1988612441 -0.7700013866 0.1991915713 -0.7696805789 0.0336101623 -0.0387261586
630296220.0 0.0342565589 -0.0367840972 0.1904728421 -0.7720448643 0.190692819 -0.7718497985 0.0334802384 -0.038932638
635296190.0 0.0333139558 -0.0367110545 0.1823933717 -0.7739251099 0.1827478316 -0.7735322507 0.0329284938 -0.0393401724
640296160.0 0.0329411675 -0.0371029989 0.1737803454 -0.7756254945 0.1738641407 -0.7761537381 0.0318671042 -0.0397753214
645296130.0 0.0329985091 -0.0367593435 0.1652714456 -0.7773794037 0.1656277196 -0.7777276643 0.0312453181 -0.0402621853
650296100.0 0.0321545579 -0.0373584452 0.1566958932 -0.779619839 0.1568277384 -0.7798633528 0.0320561676 -0.0402959905
655296070.0 0.031730536 -0.0376668526 0.1475008926 -0.7815935277 0.1482300114 -0.7806383146 0.0302584436 -0.0403534672
660296040.0 0.0311668759 -0.0375008456 0.1404955593 -0.7830097739 0.1397309908 -0.7830355336 0.0295125475 -0.0411131838
665296010.0 0.0308791796 -0.0379198145 0.1303840825 -0.7838125855 0.1312950579 -0.7839290123 0.0293665818 -0.0409826932
670295980.0 0.0303655367 -0.0379008086 0.1223695023 -0.7857516603 0.1226594763 -0.7850922495 0.0281648519 -0.0416793102
675295950.0 0.0295896151 -0.0379339994 0.1140746739 -0.7865754372 0.1141177349 -0.7864148443 0.0278446248 -0.0411303639
680295920.0 0.0290682525 -0.0379098115 0.1057947415 -0.7877097157 0.1060103129 -0.787704065 0.027825043 -0.0419287949
685295890.0 0.0286336358 -0.037847146 0.0970079456 -0.7893939476 0.0971765938 -0.7889648364 0.027158919 -0.0417238547
690295860.0 0.0273693576 -0.0379923149 0.0882456437 -0.7900531717 0.0879785236 -0.7902269988 0.0263017118 -0.0420819663
695295830.0 0.0274137297 -0.0383586777 0.0802688621 -0.791442928 0.0796550542 -0.7908455351 0.0256466265 -0.0420363505
700295800.0 0.0268458303 -0.0382093962 0.0716521013 -0.792176825 0.0708122451 -0.7918254474 0.0250275077 -0.0424301726
705295770.0 0.025781072 -0.0381636064 0.0625175411 -0.7927496963 0.062623518 -0.7921595865 0.0242713718 -0.042090555
710295740.0 0.0253802452 -0.0386799685 0.0541725026 -0.7934214064 0.0537195223 -0.7933635225 0.0238400197 -0.0422667745
715295710.0 0.0246484156 -0.0381419521 0.0456028683 -0.793760312 0.04516312 -0.7935986419 0.0231746412 -0.0428427368
720295680.0 0.0246712123 -0.0384501655 0.036552021 -0.7940352907 0.036607424 -0.794237006 0.0224522176 -0.0427690639
725295650.0 0.0232141579 -0.0383422191 0.0282595659 -0.7946482074 0.0281006384 -0.7942380043 0.0214285003 -0.0424926913
730295620.0 0.0224976555 -0.0386831036 0.0190681367 -0.7944513969 0.0197071037 -0.7936815689 0.0208693518 -0.0421059481
735295590.0 0.022522863 -0.0385675481 0.0105303885 -0.7950155841 0.010845744 -0.7945832826 0.0200812516 -0.0428523445
740295560.0 0.0218217259 -0.0390230365 0.0021392893 -0.7951678917 0.0028055198 -0.795141179 0.0190810344 -0.0424314935
745295530.0 0.0208954699 -0.038526357 -0.0062056772 -0.7939851021 -0.0056376244 -0.7946125381 0.0179989499 -0.0428464163
750295500.0 0.0198210563 -0.0383414479 -0.0147569695 -0.7946077364 -0.0150868892 -0.7947532726 0.017633506 -0.0425473891
755295470.0 0.019492298 -0.0383612292 -0.0229046621 -0.7951639514 -0.0232463055 -0.7943993797 0.0176744545 -0.0420440134
760295440.0 0.0187858877 -0.0378208899 -0.0330784363 -0.7943892373 -0.032154603 -0.7936094084 0.0167769055 -0.0436841544
765295410.0 0.0189388293 -0.0389668782 -0.0405651038 -0.7935162971 -0.0404234544 -0.7937859609 0.0159693793 -0.0427877263
770295380.0 0.0178284782 -0.0384845841 -0.0490746579 -0.7923070284 -0.0489257472 -0.7935396326 0.0150849089 -0.0426603064
775295350.0 0.0169795103 -0.0384797686 -0.0578135089 -0.7927537359 -0.0577733913 -0.7918529234 0.0150115068 -0.0426244101
780295320.0 0.0162726462 -0.0380683765 -0.0662032289 -0.7912883475 -0.0662031035 -0.7919603631 0.0146832055 -0.0428029177
785295290.0 0.01564009 -0.0383267355 -0.0750421608 -0.7911377772 -0.0747686173 -0.7913309581 0.0128244534 -0.0424889649
790295260.0 0.0153934467 -0.0386392149 -0.0835621096 -0.7900667242 -0.0833750229 -0.7903934764 0.0122448814 -0.0418875774
795295230.0 0.0144496792 -0.0385363998 -0.0920324874 -0.789513143 -0.0923214875 -0.7896408297 0.0120326934 -0.0432221398
800295200.0 0.0133286869 -0.0379502663 -0.1001676256 -0.7874112678 -0.1005527154 -0.7879353169 0.0109895377 -0.0422676312
805295170.0 0.013016801 -0.0380422197 -0.1091836567 -0.7874862485 -0.1084383849 -0.7870596651 0.01136897 -0.0419016608
810295140.0 0.0126889433 -0.0380056979 -0.1173606323 -0.785656128 -0.1176822496 -0.7858140346 0.0103889118 -0.0419697788
815295110.0 0.0119671908 -0.0375976355 -0.1260589771 -0.784626324 -0.1253765755 -0.7845617869 0.0096539871 -0.0421342478
820295080.0 0.0114541825 -0.037751141 -0.1337993748 -0.7823459509 -0.1340459242 -0.7826998457 0.0080160683 -0.0410970952
825295050.0 0.0106319095 -0.0379329178 -0.1429387175 -0.7817940783 -0.1430632617 -0.7814586741 0.0085475159 -0.041171026
830295020.0 0.0098061099 -0.0377120506 -0.1513123084 -0.7794989495 -0.1516011212 -0.7795950613 0.0076362193 -0.0416685473
