!Created with skrf (http://scikit-rf.org).
# Hz S RI R 50.0 
!freq ReS11 ImS11 ReS21 ImS21 ReS12 ImS12 ReS22 ImS22
300000.0 -0.235073978 -0.1111336605 0.4671823735 0.0718863816 0.4698852336 0.0753028591 -0.2382335164 -0.1148042831
5299970.0 -0.2408094388 0.0072186769 0.4752126222 0.0051304101 0.4749645346 0.0056893863 -0.2447324583 0.0057163889
10299940.0 -0.2372892833 0.0198564923 0.4775010097 0.0064730691 0.4771827044 0.0065752946 -0.2417445986 0.017597513
15299910.0 -0.2330640694 0.0296189103 0.480385404 0.0075997805 0.4807769396 0.0077064054 -0.2377205068 0.0263067589
20299880.0 -0.227264156 0.0379733118 0.4851816378 0.0079964163 0.4852667534 0.0079933975 -0.2329352798 0.034000828
25299850.0 -0.2217784163 0.0444491241 0.49049382 0.006700942 0.490484541 0.0069084976 -0.2277892416 0.0400451495
30299820.0 -0.2158723863 0.0497514825 0.4961710446 0.0049097033 0.4958142397 0.004947609 -0.2227433868 0.0448618596
35299790.0 -0.2099735979 0.0542144617 0.5012130215 0.0016094193 0.5009634388 0.0017331427 -0.2174293928 0.0484514973
40299760.0 -0.2045678733 0.0569629545 0.5064370539 -0.0018163211 0.5063431006 -0.0017705391 -0.2127888792 0.0518020358
45299730.0 -0.199416196 0.0602899066 0.5110351449 -0.0075468179 0.5112190269 -0.0069575394 -0.208238135 0.0544120333
50299700.0 -0.1948295556 0.0617232096 0.514851613 -0.0124618657 0.5151108176 -0.0128682604 -0.2035886722 0.0565571091
55299670.0 -0.1905848264 0.0638003151 0.5182911702 -0.018731308 0.5192543344 -0.018498551 -0.2001832587 0.0582066876
60299640.0 -0.1863122218 0.0650418104 0.521869396 -0.0248972178 0.522251905 -0.0249092472 -0.1963041751 0.0597384687
65299610.0 -0.1830622034 0.0663704728 0.5249046915 -0.0305026696 0.5253007074 -0.0311208515 -0.1930813152 0.0610554368
70299580.0 -0.1796855496 0.0672212749 0.5275680978 -0.0373890757 0.5278369058 -0.0377465993 -0.1899920275 0.0617292711
75299550.0 -0.1764620618 0.0682113541 0.5292010817 -0.0443663416 0.5293948417 -0.0446679743 -0.1872579376 0.0625402459
80299520.0 -0.1741034421 0.069164886 0.5316786915 -0.0515837744 0.5310838953 -0.0513989453 -0.1846332082 0.0627430403
85299490.0 -0.1711187555 0.0695958663 0.5322914218 -0.0586925335 0.5325878608 -0.0581445709 -0.1830039144 0.0636529521
90299460.0 -0.1692645957 0.0703898579 0.5334662433 -0.0650429738 0.5336071548 -0.0653684607 -0.1801103933 0.0642081122
95299430.0 -0.1671344574 0.0710052572 0.5345220752 -0.0723823629 0.5347866689 -0.0721977405 -0.1785462704 0.0649598352
100299400.0 -0.1654190956 0.0717027828 0.5343691522 -0.0788855882 0.5347918658 -0.078962453 -0.1770371418 0.0652519975
105299370.0 -0.1635291397 0.0724403938 0.5349485179 -0.0858646549 0.5354414244 -0.0860958232 -0.175161427 0.066060304
110299340.0 -0.1619252172 0.0728872341 0.5348014994 -0.09210043 0.5350456734 -0.0929512509 -0.173801337 0.0669430471
115299310.0 -0.1602189273 0.0735401531 0.5348737339 -0.0992664126 0.5355502485 -0.0997184007 -0.1719481717 0.0672267458
120299280.0 -0.1591968204 0.0745865871 0.5348946244 -0.1063075528 0.5349669159 -0.1065350679 -0.1714050794 0.0683093844
125299250.0 -0.1578855083 0.0752065411 0.5348219642 -0.1129188813 0.5347106417 -0.1132960026 -0.1697554191 0.0684339913
130299220.0 -0.1563716261 0.075937297 0.5336267996 -0.1194608411 0.5341397469 -0.1197348188 -0.1692063475 0.0694665366
135299190.0 -0.1550600732 0.0766648425 0.5332187285 -0.125915124 0.5332328138 -0.1264762496 -0.1683043213 0.0703017619
140299160.0 -0.1543631141 0.0779942156 0.5324257277 -0.1327249789 0.5325861906 -0.1330974176 -0.16667548 0.0709598985
145299130.0 -0.1529095418 0.0787792319 0.5316934977 -0.1394707943 0.53152807 -0.1393293115 -0.1662583633 0.071714535
150299100.0 -0.1521776351 0.0799051341 0.5305683707 -0.1459087127 0.5302517953 -0.1462700335 -0.1651359289 0.0727362549
155299070.0 -0.1511114953 0.0815625224 0.5294931934 -0.1530106917 0.5292900276 -0.1529452761 -0.1647167708 0.0736449417
160299040.0 -0.1500056663 0.0820893794 0.5276441232 -0.1586739437 0.5279527459 -0.1588878421 -0.163572386 0.0747097511
165299010.0 -0.1493227939 0.0832059063 0.5265221747 -0.1654086185 0.5268336147 -0.1654501235 -0.1628462258 0.0754762903
170298980.0 -0.1482487549 0.0842549943 0.52438859 -0.1718893442 0.5249389349 -0.1717944233 -0.1621579079 0.0764800338
175298950.0 -0.1468858807 0.0854725165 0.5233196649 -0.1779683345 0.5236509135 -0.1779314773 -0.1612026656 0.0773779807
180298920.0 -0.146208041 0.0866042091 0.5215554197 -0.1845544766 0.5217240551 -0.1841022953 -0.1601734746 0.0787038883
185298890.0 -0.1453170406 0.0878720722 0.5193705742 -0.1907642026 0.5199300418 -0.1902948719 -0.159784107 0.079243087
190298860.0 -0.1443127426 0.0890669205 0.5174463436 -0.1967248135 0.5179024425 -0.1968751643 -0.158354026 0.0808983964
195298830.0 -0.1431374848 0.0900209981 0.5154826111 -0.2023494706 0.5158510046 -0.2031326503 -0.1578934296 0.0814191204
200298800.0 -0.142701706 0.0917810238 0.5139713672 -0.2082255633 0.5139053862 -0.2087802368 -0.156951626 0.0832865054
205298770.0 -0.1417133037 0.0931789326 0.5117673299 -0.2151400458 0.5119611591 -0.2147786662 -0.1564531447 0.0840112931
210298740.0 -0.1408487452 0.0940635908 0.5091924378 -0.2206267328 0.5096391229 -0.2213295598 -0.1557750927 0.0854031133
215298710.0 -0.1396833625 0.0956802846 0.5069328252 -0.2268284829 0.5071861409 -0.2267117253 -0.1551798416 0.0866560946
220298680.0 -0.1388616085 0.0969737545 0.5043531697 -0.2328560623 0.5047092704 -0.2328356095 -0.1540213617 0.0882577057
225298650.0 -0.1375387963 0.0984702406 0.5019275455 -0.2382056331 0.5024498217 -0.2382085234 -0.1536551563 0.0891720447
230298620.0 -0.136994221 0.0997724352 0.4994556527 -0.2441078702 0.4998454237 -0.2443873361 -0.1523456161 0.0903645019
235298590.0 -0.1359578821 0.1010505221 0.4968727715 -0.24964581 0.4973583538 -0.2504051122 -0.1519937035 0.0916396025
240298560.0 -0.1350217977 0.1025569382 0.4944186383 -0.2555327942 0.4944482501 -0.2555343818 -0.1509486114 0.0933040733
245298530.0 -0.133806669 0.1040581107 0.491009382 -0.2614888387 0.4914316668 -0.2615161501 -0.1503240805 0.0945015045
250298500.0 -0.1331201182 0.1051279674 0.4886700649 -0.2662908312 0.4889458732 -0.2664607495 -0.1490842482 0.0957134104
255298470.0 -0.1319382872 0.1068281149 0.4858549925 -0.2733182654 0.4859389715 -0.2725767664 -0.1483149937 0.0967349258
260298440.0 -0.1308262684 0.1080171582 0.4830972546 -0.2780136807 0.4830001695 -0.278319618 -0.1468282934 0.0983674888
265298410.0 -0.1295701247 0.1096467409 0.479552303 -0.2837501219 0.4797599049 -0.2835811537 -0.1465978432 0.0996119877
270298380.0 -0.1281300553 0.1112335432 0.4762365988 -0.2892913524 0.4768752227 -0.2894494304 -0.1452248099 0.1011802018
275298350.0 -0.1275520014 0.1123648755 0.4734804566 -0.2945531723 0.4739630748 -0.2948535992 -0.144307004 0.1026640077
280298320.0 -0.1260489397 0.1138174184 0.4700451179 -0.2993510512 0.4702035396 -0.3002712738 -0.1433803425 0.1037696322
285298290.0 -0.1247968732 0.1153708942 0.4670642658 -0.3050739209 0.4671164373 -0.3053375124 -0.1427009878 0.1053385375
290298260.0 -0.1234605038 0.116897351 0.4637901956 -0.3107345543 0.4638263174 -0.3102212617 -0.141236851 0.1067682798
295298230.0 -0.1225950528 0.1180249499 0.4608055325 -0.3158264825 0.4600945386 -0.3156792075 -0.1402140509 0.1079604799
300298200.0 -0.1209152593 0.1196038563 0.4567082918 -0.3212621104 0.4569383654 -0.3213249744 -0.1394570289 0.1094503944
305298170.0 -0.119533333 0.1205162555 0.4534603351 -0.326081064 0.4540002019 -0.3266032673 -0.1380034763 0.1109486886
310298140.0 -0.1180985792 0.1220145519 0.4500829231 -0.3318926944 0.4502984605 -0.3320406485 -0.1372991063 0.1123972225
315298110.0 -0.1171777245 0.123195867 0.4465516675 -0.3369258004 0.4466676838 -0.3368868281 -0.1359260432 0.1133532704
320298080.0 -0.1158707607 0.1246850269 0.4427023723 -0.3423132915 0.4429180977 -0.3420217687 -0.1348137006 0.114584248
325298050.0 -0.1146903212 0.1255640804 0.4388814765 -0.3472065958 0.4390073821 -0.3473874302 -0.1338184663 0.1159423816
330298020.0 -0.1133473828 0.1271345831 0.43407103 -0.3521295586 0.4348643733 -0.3522862095 -0.1329007428 0.1168641073
335297990.0 -0.1122203191 0.1280376303 0.4306384086 -0.3567696645 0.4308240277 -0.3573578059 -0.1321648584 0.1184317702
340297960.0 -0.1112640693 0.1297320992 0.4266087413 -0.3619772702 0.4267458442 -0.3617216805 -0.1313098037 0.1204090794
345297930.0 -0.1101470854 0.1311487511 0.4225865071 -0.3658538342 0.4222053233 -0.3659655858 -0.129942621 0.1212178695
350297900.0 -0.1082160885 0.1327357899 0.4180562396 -0.3706395021 0.418642942 -0.371161258 -0.1290539528 0.1228557005
355297870.0 -0.1072352112 0.1338050899 0.4141152614 -0.375224895 0.4143892358 -0.375759587 -0.1280822432 0.124508956
360297840.0 -0.105629264 0.1353855456 0.4104147655 -0.3802669694 0.4099898609 -0.3803761246 -0.1269044451 0.1262556722
365297810.0 -0.1039004878 0.136619688 0.4055469946 -0.3844006341 0.4061128974 -0.3845362113 -0.1257168971 0.1275191001
370297780.0 -0.1025521899 0.1377244238 0.4017006395 -0.3887996835 0.4018493092 -0.3891340422 -0.1242004864 0.1284498487
375297750.0 -0.1012075403 0.1394807269 0.3975507362 -0.3934055289 0.3975042143 -0.393703542 -0.1230387953 0.1303177599
380297720.0 -0.0995624195 0.1402018319 0.3931020125 -0.3976419164 0.3930860485 -0.3975818294 -0.1216484176 0.1317213997
385297690.0 -0.0983013259 0.1416847871 0.3882864341 -0.4015633297 0.3883864799 -0.4019098728 -0.1206053567 0.1329970856
390297660.0 -0.0965233718 0.142863861 0.3841263832 -0.4062558458 0.3843584971 -0.4070106796 -0.1194761341 0.1343745705
395297630.0 -0.0946637937 0.1439654434 0.3795281111 -0.4100397087 0.3797173765 -0.4103889141 -0.1179852927 0.1359565899
400297600.0 -0.0934798159 0.1455188499 0.3751496445 -0.4149218773 0.375703471 -0.4146333504 -0.1175476316 0.1367400611
405297570.0 -0.0916928937 0.1466784139 0.3702013073 -0.4188179156 0.3708317264 -0.4187968879 -0.1158293876 0.1385342924
410297540.0 -0.0900732955 0.1476435734 0.3657777323 -0.422435122 0.3657153541 -0.4223951727 -0.1142410678 0.1397778212
415297510.0 -0.0883801941 0.1491295208 0.3613921821 -0.4267722519 0.3614641162 -0.4269570352 -0.1133217977 0.1415784366
420297480.0 -0.0867500492 0.1497571802 0.3560735234 -0.4310030831 0.3565336446 -0.4306987445 -0.1115752133 0.1421445556
425297450.0 -0.0847380512 0.1506900027 0.3515410465 -0.4343351966 0.3521445369 -0.4345091608 -0.110335888 0.1440599071
430297420.0 -0.0835460021 0.152367316 0.3472140599 -0.4385807876 0.3475844344 -0.4383694976 -0.1092526918 0.1447277256
435297390.0 -0.0816289653 0.1531590946 0.3422019776 -0.4419227483 0.3423295087 -0.4419489992 -0.1075595432 0.1469302402
440297360.0 -0.0799066116 0.1541397505 0.3373586742 -0.4453635616 0.3372412334 -0.4458616309 -0.1065274317 0.1470407024
445297330.0 -0.0777748141 0.1549002708 0.3317931997 -0.4495093123 0.332414214 -0.4492730487 -0.1048674362 0.1484003965
450297300.0 -0.0762745272 0.1558943958 0.3272078485 -0.452941265 0.32779998 -0.4534209912 -0.103917984 0.1502698475
455297270.0 -0.0750092903 0.1569662846 0.3229021532 -0.4562208271 0.3229951913 -0.4565263819 -0.1018823509 0.1512994662
460297240.0 -0.0732434254 0.158186132 0.3176418389 -0.4600953425 0.3174557274 -0.460103805 -0.1006304099 0.1527433512
465297210.0 -0.0713026171 0.1588765045 0.3131131293 -0.4632569108 0.3125088703 -0.4634380264 -0.0994443738 0.1535886539
470297180.0 -0.0698099523 0.1600825352 0.3077141632 -0.466658366 0.3076110695 -0.4672538305 -0.09825057 0.155003631
475297150.0 -0.0680712021 0.1602603627 0.3020985534 -0.4694892052 0.3026681379 -0.47000232 -0.0965403226 0.1560039071
480297120.0 -0.0660328707 0.1611192262 0.2973056683 -0.472904574 0.2973647168 -0.4733941407 -0.0953088295 0.1574359371
485297090.0 -0.0638770949 0.1621829324 0.2921627871 -0.4761586912 0.2922013868 -0.4764907761 -0.0938395768 0.1578322387
490297060.0 -0.062076814 0.1630188324 0.286705676 -0.4792655439 0.2869258942 -0.4794267787 -0.0921638773 0.1593178092
495297030.0 -0.0606914167 0.1642171296 0.2815355312 -0.4824136459 0.2814813873 -0.4825396634 -0.0906351002 0.1602297184
500297000.0 -0.0584242103 0.1645927391 0.2765022327 -0.4861221416 0.2764854439 -0.4855693105 -0.0894775678 0.1613541313
505296970.0 -0.0569198532 0.1654878936 0.2707212972 -0.4885299011 0.270939684 -0.4882968749 -0.0880345161 0.1623911525
510296940.0 -0.0547800766 0.1663199955 0.2656550552 -0.4915540626 0.2660650661 -0.4914221343 -0.0859378401 0.163865798
515296910.0 -0.0531617632 0.1672054533 0.2601278352 -0.4942563032 0.2604942222 -0.4942122449 -0.0849158702 0.1647721575
520296880.0 -0.0512997305 0.1674868911 0.2548479314 -0.4968008237 0.2550125109 -0.4969595162 -0.0829373124 0.1654958799
525296850.0 -0.049508324 0.1681650185 0.2492757524 -0.4998348422 0.2495270151 -0.5000678392 -0.0812635184 0.1665281002
530296820.0 -0.047389905 0.1690295032 0.2441981565 -0.501894297 0.2440605953 -0.50219621 -0.0804245071 0.1672061157
535296790.0 -0.0458049261 0.1697513716 0.2384551479 -0.5045182901 0.2390948746 -0.5047514131 -0.0785188342 0.16808574
540296760.0 -0.043773189 0.1700723578 0.2330457811 -0.5076941664 0.233093496 -0.5076795715 -0.0770495538 0.1696434941
545296730.0 -0.042184147 0.1709934466 0.2272565266 -0.5098907307 0.2276286558 -0.51003293 -0.0756645859 0.1698449788
550296700.0 -0.0401162316 0.1717987765 0.2220353216 -0.5123694622 0.2227213099 -0.512935433 -0.07416502 0.1712507078
555296670.0 -0.0377428279 0.1721643652 0.2162254765 -0.5145846798 0.2164182076 -0.5147482754 -0.0724355337 0.1720022107
560296640.0 -0.036098875 0.1725912411 0.21104694 -0.5168180328 0.2114629041 -0.516832817 -0.0705317473 0.1730745028
565296610.0 -0.0343734478 0.1732664352 0.2050212864 -0.5193199658 0.2049149598 -0.5194595926 -0.0692872346 0.1737465555
570296580.0 -0.032221169 0.1735580879 0.1996286902 -0.5212947297 0.2001688366 -0.5215130785 -0.0677715109 0.174984993
575296550.0 -0.0303712014 0.1744553006 0.1936832992 -0.5232076909 0.1941687145 -0.5231874738 -0.0655395545 0.1753366735
580296520.0 -0.0284007887 0.174741771 0.1881620482 -0.5257666553 0.1883226261 -0.5252064679 -0.0642220316 0.1760727408
585296490.0 -0.0262294459 0.1749238975 0.1828790214 -0.5271681869 0.1824190689 -0.5277439274 -0.0628830914 0.1766720519
590296460.0 -0.0248947001 0.1751555368 0.176830751 -0.5292883428 0.1769270587 -0.5295616888 -0.0610126869 0.177572686
595296430.0 -0.0223738012 0.1758518272 0.17131184 -0.5312505611 0.1711442966 -0.5316619392 -0.0592078568 0.1782002202
600296400.0 -0.0206428161 0.1764443309 0.1652553158 -0.5328871437 0.1657724395 -0.5332719737 -0.0575608143 0.179371973
605296370.0 -0.0185687993 0.1770094457 0.159755724 -0.5351177163 0.1596499629 -0.5350495363 -0.0557329849 0.1799027371
610296340.0 -0.0166615982 0.1770295594 0.1539919921 -0.5364569308 0.1540638207 -0.5365260582 -0.0540167751 0.1807922339
615296310.0 -0.0146030081 0.1777022952 0.1478894378 -0.5378832852 0.14776157 -0.538232359 -0.0521757505 0.181357948
620296280.0 -0.0129045532 0.1775356567 0.1423549842 -0.5392375658 0.1417948165 -0.5396923885 -0.0505107716 0.1815496039
625296250.0 -0.0104338553 0.1780915299 0.1357680894 -0.5410915377 0.1363495703 -0.5412914702 -0.0487222814 0.1825972742
630296220.0 -0.0086531468 0.1784234814 0.1301926355 -0.5423996724 0.1311093204 -0.5424941766 -0.0475147463 0.1832361248
635296190.0 -0.0067636506 0.1785671979 0.1243165334 -0.5434121691 0.1244711185 -0.5435264768 -0.0456449438 0.1835900792
640296160.0 -0.0049965525 0.1784750256 0.1192711598 -0.5450111255 0.1186622231 -0.5452117894 -0.0432525177 0.184134859
645296130.0 -0.0028520308 0.1793305464 0.1128530141 -0.5464362064 0.112997071 -0.546400432 -0.0424458033 0.1845808007
650296100.0 -0.0012221936 0.1795636906 0.1076765525 -0.5472093928 0.1073241185 -0.5469786992 -0.0402890512 0.1852560801
655296070.0 0.0009238793 0.179049445 0.1011605169 -0.5481154855 0.1009520488 -0.5484120569 -0.0380775589 0.1858094924
660296040.0 0.0025283954 0.17982346 0.0953220753 -0.5494549203 0.0956024882 -0.5492068346 -0.0367666708 0.1861986637
665296010.0 0.0049383328 0.1794332671 0.0900566396 -0.550405113 0.0895754427 -0.5502328815 -0.0350522471 0.1870415972
670295980.0 0.007398794 0.1798545966 0.0834622343 -0.5512588118 0.0839578035 -0.5514170772 -0.0339004452 0.1872740192
675295950.0 0.0093359796 0.1799979378 0.0773060014 -0.5522451779 0.0779459115 -0.5528360458 -0.0314098617 0.1881478541
680295920.0 0.0111411346 0.1803219956 0.0709597661 -0.5530440613 0.0713315653 -0.5532043411 -0.0291604046 0.1881500531
685295890.0 0.013121246 0.1799430327 0.0656098092 -0.5537627931 0.0651889682 -0.5540956314 -0.0275583829 0.1889497025
690295860.0 0.0151668483 0.179879851 0.0596402598 -0.5538261961 0.0592276648 -0.5539960006 -0.0255180159 0.1892612121
695295830.0 0.0176160156 0.1798284612 0.0528214183 -0.5549463235 0.0533360969 -0.5553777148 -0.0243539576 0.189617813
700295800.0 0.0193885255 0.1800290033 0.0471642591 -0.5550694752 0.0476194065 -0.5555369059 -0.0225133935 0.1895397075
705295770.0 0.0215760501 0.1797006913 0.0413213824 -0.5557032735 0.041752013 -0.556129309 -0.0208043415 0.1903764795
710295740.0 0.0234589945 0.1800720436 0.0355124825 -0.5559034125 0.0356279478 -0.556239501 -0.0192037784 0.1907247916
715295710.0 0.0252227211 0.1796397061 0.0295272352 -0.5563953649 0.0298887071 -0.556634223 -0.0170559089 0.1907174294
720295680.0 0.0272464298 0.1793923126 0.0232991713 -0.5566678636 0.0233922719 -0.5572820446 -0.0148340748 0.1913103517
725295650.0 0.0296510725 0.1793208442 0.017060621 -0.55642917 0.0177397495 -0.5571610062 -0.0134258772 0.1918228649
730295620.0 0.0310066422 0.1791688659 0.0114313351 -0.5571788721 0.0112329848 -0.5570132253 -0.011191085 0.1912774711
735295590.0 0.0334615794 0.1791116012 0.0058941112 -0.5572461514 0.0057794209 -0.5570503772 -0.0096092526 0.1921379272
740295560.0 0.0354860948 0.1791187048 -0.0003267377 -0.5567666451 -0.0009903574 -0.557306686 -0.0073375681 0.1921065084
745295530.0 0.0375558678 0.1784677296 -0.0061708771 -0.5569470536 -0.0059930024 -0.5574788776 -0.0062130625 0.1923933654
750295500.0 0.0393133389 0.1780351443 -0.0125102957 -0.5563820114 -0.0124454497 -0.5569146483 -0.0041135504 0.19242422
755295470.0 0.041606107 0.177953563 -0.0181771313 -0.5566947027 -0.0183055839 -0.5573768463 -0.002344672 0.1929402262
760295440.0 0.0434750264 0.177708188 -0.0244827432 -0.5565310152 -0.0246113182 -0.5563028185 -0.0008062856 0.1931250175
765295410.0 0.0450496917 0.1770671215 -0.0299022124 -0.5559668055 -0.0301395252 -0.5563561096 0.0020616353 0.1935995869
770295380.0 0.0475899801 0.1769718378 -0.0365181254 -0.555737876 -0.0361547938 -0.556138972 0.0038402675 0.1934129591
775295350.0 0.0494837885 0.1765662621 -0.0422807799 -0.5549424593 -0.0421188279 -0.5548717334 0.0050115143 0.1929602956
780295320.0 0.051547418 0.175992274 -0.048025989 -0.5545784534 -0.0480999974 -0.555185986 0.0070575585 0.1938048164
785295290.0 0.0533449648 0.1760497672 -0.054329871 -0.5534693014 -0.0542481702 -0.5542738365 0.0087677612 0.1938319168
790295260.0 0.0553605446 0.1755925664 -0.0601992976 -0.5538785637 -0.0599741647 -0.5540194643 0.0109656964 0.1935805124
795295230.0 0.0573044072 0.1751798792 -0.0660554164 -0.5524139622 -0.0659018485 -0.5532357449 0.0128873298 0.1942342193
800295200.0 0.059322066 0.1746548422 -0.0724266823 -0.5521305596 -0.0724167165 -0.5525135101 0.0145778554 0.1941143491
805295170.0 0.0608273781 0.1740119395 -0.0779157678 -0.5506204988 -0.0780864376 -0.5513104965 0.0159923077 0.1937997243
810295140.0 0.0630693016 0.1735425389 -0.0837370494 -0.5501814215 -0.0837118963 -0.5508614633 0.0184006489 0.1943015242
815295110.0 0.0654476449 0.1728939719 -0.0903431735 -0.5487961605 -0.0900315697 -0.5494536684 0.0198299878 0.1938602937
820295080.0 0.0671544583 0.1722094131 -0.0955832194 -0.5483895715 -0.0958160546 -0.5488468135 0.0216782717 0.1941055427
825295050.0 0.0691857636 0.1716569239 -0.1015935681 -0.5470268132 -0.1014016153 -0.5473082205 0.0239545259 0.1936614373
830295020.0 0.0709982311 0.171133904 -0.1076684991 -0.5455849397 -0.1077387718 -0.546335258 0.0255564792 0.1935341273
