!Created with skrf (http://scikit-rf.org).
# Hz S RI R 50.0 
!freq ReS11 ImS11 ReS21 ImS21 ReS12 ImS12 ReS22 ImS22
300000.0 -0.3171165762 -0.1279062943 0.3702944486 0.0633875331 0.3711779508 0.0650076832 -0.3125782337 -0.128935837
5299970.0 -0.3247126546 0.0027712957 0.3784506483 0.0030652246 0.3791351272 0.0033558653 -0.3261289763 0.0020557063
10299940.0 -0.3227762608 0.0142198692 0.3801293488 0.0025310781 0.3800620734 0.0030440568 -0.3232724323 0.0123840498
15299910.0 -0.3191337192 0.0223574222 0.3820017933 0.0027169733 0.3823869446 0.0028422105 -0.3207717205 0.0200610269
20299880.0 -0.3155094125 0.0289718689 0.3849174827 0.0016621972 0.3852776648 0.0017383841 -0.3180369089 0.0262292512
25299850.0 -0.3115608364 0.0347815831 0.3883512426 0.0007906594 0.3891138614 0.0003714996 -0.315070161 0.0311238533
30299820.0 -0.3081294879 0.039184986 0.3920659765 -0.0021509605 0.3921272325 -0.0020271308 -0.3118749152 0.0357423318
35299790.0 -0.3044136768 0.0435559569 0.3951170548 -0.0049009562 0.3953710369 -0.0051652407 -0.3090875185 0.0398254459
40299760.0 -0.3014837158 0.0469457121 0.3986267213 -0.0084352964 0.398669288 -0.0085114381 -0.306645524 0.0430356712
45299730.0 -0.2982917601 0.0502217224 0.4014398362 -0.0126642441 0.4016205785 -0.0127939681 -0.3037052301 0.0466845376
50299700.0 -0.2949664572 0.052627166 0.4036376155 -0.0171776117 0.4038325106 -0.0172822914 -0.3012169494 0.0499274133
55299670.0 -0.2923197693 0.0552609867 0.4058738468 -0.0213140728 0.4062454238 -0.0218894524 -0.2994697566 0.0523104739
60299640.0 -0.2897047595 0.0576660108 0.4079623135 -0.026501336 0.4080811623 -0.0268929359 -0.2973211909 0.05503388
65299610.0 -0.287350244 0.0599627792 0.4099879268 -0.0317995339 0.409785931 -0.0318074175 -0.2953586914 0.0575432061
70299580.0 -0.2850834544 0.062132414 0.4103674805 -0.0366885853 0.4109896482 -0.0364437797 -0.2938815228 0.059948297
75299550.0 -0.2837315672 0.0639944702 0.4118318776 -0.0416634958 0.4119983074 -0.0420106903 -0.2917925446 0.0625046154
80299520.0 -0.281846796 0.0664538303 0.4127435895 -0.047344677 0.4131154445 -0.0473966354 -0.2903902016 0.0649233402
85299490.0 -0.2797107771 0.0683021158 0.4134488166 -0.0526340913 0.4138137319 -0.0524220037 -0.2893827871 0.0672012193
90299460.0 -0.2783465585 0.0707972233 0.4136490514 -0.057950033 0.4137482638 -0.0576211546 -0.287780118 0.0694134122
95299430.0 -0.2770336377 0.0723891865 0.4142620989 -0.0627065392 0.4142236238 -0.0631194647 -0.2867944615 0.072056306
100299400.0 -0.2751130916 0.0746861459 0.4139206233 -0.0682579719 0.4142418498 -0.068550792 -0.2855648564 0.0746609173
105299370.0 -0.274013958 0.0767135647 0.4139686565 -0.0733394767 0.4141967339 -0.0734900631 -0.2839521966 0.0764548263
110299340.0 -0.2726647913 0.0786787692 0.4135747369 -0.0777247178 0.4140078334 -0.0779533153 -0.2834756659 0.0786964455
115299310.0 -0.2716155174 0.0809724868 0.4135132955 -0.0832636033 0.4137580538 -0.083602027 -0.2823479797 0.0813851784
120299280.0 -0.2703039453 0.083398191 0.4130955505 -0.0889708268 0.4130074658 -0.0892545746 -0.2811230773 0.0830708489
125299250.0 -0.2693072473 0.084913809 0.4122267206 -0.093902567 0.412739534 -0.0933721789 -0.2801756213 0.085999817
130299220.0 -0.2683206847 0.0872625763 0.4121648117 -0.0990316049 0.4122824191 -0.0995641642 -0.2790580399 0.0883420013
135299190.0 -0.2672471986 0.0897905 0.411322841 -0.1037229953 0.4116383394 -0.1040541849 -0.2782578919 0.090669741
140299160.0 -0.2664320739 0.092055776 0.4105659677 -0.1093005139 0.4104149284 -0.1089131539 -0.2776467925 0.093387993
145299130.0 -0.2654648793 0.0944578762 0.4098110779 -0.1139214844 0.409611472 -0.1139784088 -0.2764417683 0.0956890011
150299100.0 -0.2642707915 0.0968987711 0.4086268904 -0.1187685372 0.4084146946 -0.1189264167 -0.275780723 0.0983852746
155299070.0 -0.2632596885 0.0994010413 0.4071619794 -0.1235644834 0.4075166268 -0.1238258495 -0.2748919053 0.1010835852
160299040.0 -0.2621829516 0.1017995345 0.4062586519 -0.128519611 0.4059500553 -0.1289489702 -0.2740711042 0.1036932571
165299010.0 -0.261319692 0.1044651938 0.4048564217 -0.1333892402 0.4051840499 -0.1336571034 -0.272742812 0.1059495697
170298980.0 -0.2600846053 0.1067117189 0.4032155878 -0.1382689903 0.4037759246 -0.1383395949 -0.2723643352 0.1086148151
175298950.0 -0.2588461897 0.10917164 0.4022288943 -0.142769035 0.4026015778 -0.1433983491 -0.2711299558 0.1114107399
180298920.0 -0.2584860917 0.111736157 0.4010223516 -0.147793867 0.4007774622 -0.1483011897 -0.2700097614 0.1140806016
185298890.0 -0.2571296602 0.1144278756 0.3997670291 -0.1524590891 0.3994134772 -0.1529288784 -0.2685934254 0.1167112687
190298860.0 -0.2557477298 0.1173494532 0.3971064236 -0.1575549473 0.3978618778 -0.1572373109 -0.2679800421 0.1192401052
195298830.0 -0.25468634 0.1198034269 0.3958982168 -0.1617364657 0.3960708874 -0.1619641749 -0.2669987881 0.1218711456
200298800.0 -0.2534222967 0.1220801879 0.394434832 -0.1668686515 0.3944844111 -0.1666611129 -0.265831308 0.1246267369
205298770.0 -0.2526232912 0.1245116183 0.3923345956 -0.1706867335 0.3926030613 -0.1709443996 -0.2646679998 0.1272819158
210298740.0 -0.2514438788 0.1276417263 0.3908425901 -0.1754896701 0.3906950097 -0.1756097002 -0.2637407389 0.1298014398
215298710.0 -0.2504730316 0.1301343465 0.3886026062 -0.1796705894 0.3887375183 -0.1801648809 -0.262470491 0.1324684349
220298680.0 -0.2489456328 0.1325512049 0.3863307275 -0.1845020545 0.3866735999 -0.1847178556 -0.2608585348 0.135427962
225298650.0 -0.2477256132 0.1352038351 0.3845521368 -0.1890173823 0.3849386365 -0.1888652214 -0.2597678008 0.1380924777
230298620.0 -0.24629181 0.1380888188 0.3825644736 -0.1933498242 0.3830093571 -0.1932302196 -0.2587902268 0.1404950767
235298590.0 -0.2456984396 0.1409144408 0.3806811732 -0.1983078916 0.3808066318 -0.1981238035 -0.2575281468 0.1434307239
240298560.0 -0.2438149052 0.1432472988 0.3783698524 -0.2018106651 0.3784286329 -0.202230648 -0.2563096917 0.1459195276
245298530.0 -0.242666945 0.1456405266 0.3759857224 -0.2062475729 0.3761300239 -0.2066891097 -0.254918129 0.1486751244
250298500.0 -0.2414201538 0.148214439 0.3740659303 -0.2107002475 0.3741262655 -0.2107710655 -0.2535094253 0.1517659632
255298470.0 -0.2399049929 0.1514035996 0.3718024971 -0.2145652345 0.3721935096 -0.2151434526 -0.2519277684 0.1540551093
260298440.0 -0.2385868303 0.1535925584 0.36951902 -0.2185315786 0.3697478861 -0.2191643887 -0.2506874441 0.1566329866
265298410.0 -0.237423002 0.156419963 0.3667400906 -0.2237073661 0.3669390098 -0.2234815101 -0.2487724226 0.1593164425
270298380.0 -0.23600324 0.1588118504 0.3644417857 -0.2272348889 0.3646498706 -0.2276614142 -0.24733928 0.1624607742
275298350.0 -0.2343973325 0.1616860636 0.3614008336 -0.2311946459 0.3618763978 -0.2312565577 -0.2456188102 0.1647516273
280298320.0 -0.2331407871 0.1639476226 0.3594388424 -0.2351065006 0.3596781258 -0.2356242755 -0.2443047641 0.1674295998
285298290.0 -0.2314815358 0.166609664 0.3566971297 -0.2393287892 0.3573187156 -0.2394402857 -0.2428931623 0.1706776248
290298260.0 -0.2300860278 0.1692618041 0.3546947059 -0.2437774636 0.354507236 -0.2439724698 -0.2413048888 0.1726981403
295298230.0 -0.2285849203 0.1715421189 0.3515888261 -0.2475552237 0.3517286045 -0.248047389 -0.2392493359 0.1753760114
300298200.0 -0.226941432 0.1744085522 0.3491060433 -0.2514624345 0.3492376325 -0.2515374292 -0.2376920879 0.1780628348
305298170.0 -0.2253050531 0.1765611986 0.3464542494 -0.2556079616 0.3464053098 -0.2557836049 -0.2356957004 0.1804552069
310298140.0 -0.2232080601 0.1789564665 0.3437681841 -0.2595516678 0.3437350301 -0.2595038189 -0.2339749356 0.1832194959
315298110.0 -0.2216533276 0.1812348252 0.3405734725 -0.2637722889 0.3410328947 -0.2637840054 -0.2323353442 0.1857880313
320298080.0 -0.2199763897 0.1836928032 0.3369276356 -0.2672602766 0.3380056611 -0.2675853625 -0.2307854452 0.1879273672
325298050.0 -0.2185060126 0.1857585856 0.3341472428 -0.2710866605 0.3352468488 -0.2713086979 -0.2286869876 0.1904094618
330298020.0 -0.2170766878 0.1884049918 0.3315391617 -0.2750536966 0.3317079216 -0.2749508615 -0.2269380615 0.192702682
335297990.0 -0.215309952 0.1907426821 0.3284071737 -0.278501531 0.328849316 -0.2789764654 -0.2250356824 0.195346363
340297960.0 -0.2138499871 0.1933863714 0.3248141519 -0.2823341012 0.3252339001 -0.2821966368 -0.2230937275 0.198158814
345297930.0 -0.2120979967 0.1957327738 0.3221557087 -0.2860678958 0.3221421662 -0.2860893577 -0.2211879792 0.2003693039
350297900.0 -0.2104631028 0.1978941919 0.3187544756 -0.2891275712 0.3193293842 -0.2891925789 -0.219577053 0.2027133131
355297870.0 -0.2084899644 0.2002618627 0.3152686024 -0.2923444852 0.3159373441 -0.2925261537 -0.2172597006 0.2055896618
360297840.0 -0.2061718119 0.2027489079 0.3122227091 -0.2964667218 0.3122218667 -0.2964666301 -0.2150556803 0.2078729691
365297810.0 -0.2046579311 0.2050645521 0.30903803 -0.2995906432 0.3090976434 -0.2998550199 -0.2133411169 0.2105444283
370297780.0 -0.2024104465 0.2074218366 0.3052355572 -0.3029992643 0.3057958189 -0.3028834943 -0.2111588539 0.2124978841
375297750.0 -0.2007414047 0.2097825956 0.3025666912 -0.3064288728 0.3024385871 -0.3060326319 -0.2088562458 0.214853358
380297720.0 -0.198623674 0.2122601804 0.299269901 -0.3098279443 0.2991097931 -0.309807173 -0.2066328521 0.2171564167
385297690.0 -0.1968882206 0.2139094707 0.2954558476 -0.3125794154 0.2956390363 -0.3134265033 -0.2044824558 0.2201800176
390297660.0 -0.1943132873 0.2161367144 0.2921407241 -0.3157232878 0.2924767701 -0.3162548913 -0.2022111247 0.222349908
395297630.0 -0.1921128791 0.2182102431 0.2884382401 -0.3191068364 0.288499284 -0.3192381026 -0.1997748592 0.2243144409
400297600.0 -0.1901686387 0.2209112164 0.2850166326 -0.3228346425 0.2853273636 -0.3226490262 -0.19771022 0.2269159277
405297570.0 -0.1884527819 0.2223105919 0.2816616527 -0.3252311305 0.2816580011 -0.32564628 -0.1952934233 0.2289662945
410297540.0 -0.1854899953 0.2247040841 0.2780329481 -0.3286635844 0.2779544355 -0.3289722155 -0.1927210038 0.2315691984
415297510.0 -0.1836845649 0.2267903826 0.2743015596 -0.3317991632 0.2746968951 -0.3317099085 -0.1903890117 0.2334010179
420297480.0 -0.1813096147 0.22841963 0.2707164342 -0.3347335209 0.2707172482 -0.3350212205 -0.1877440225 0.2359443384
425297450.0 -0.1784218865 0.2307238809 0.266899416 -0.3375104609 0.2668374265 -0.3374123744 -0.1854220502 0.2373883044
430297420.0 -0.1766281977 0.2327406482 0.2633610227 -0.3406320343 0.2634242803 -0.33998592 -0.1829183588 0.2401616334
435297390.0 -0.1739574412 0.2346827163 0.2592977569 -0.3440354632 0.2596471284 -0.3433078977 -0.1809338554 0.242323989
440297360.0 -0.1717256693 0.2363244568 0.2553606282 -0.3459441806 0.2556155643 -0.3462820166 -0.1783445523 0.2444293745
445297330.0 -0.1691341169 0.2382084857 0.2517285303 -0.3488663855 0.2522285793 -0.3492475456 -0.1753882225 0.2463016415
450297300.0 -0.1666469701 0.2402393448 0.2480857803 -0.3518655502 0.2484286567 -0.3516371969 -0.1724871934 0.2480900306
455297270.0 -0.1645720051 0.2420641839 0.2441419992 -0.354108058 0.2445108133 -0.354427512 -0.1703588639 0.2506613099
460297240.0 -0.1615055702 0.2440110464 0.2405208895 -0.3572370243 0.2401051314 -0.3573280336 -0.1677007561 0.2524296871
465297210.0 -0.1592248776 0.2455541004 0.2361048826 -0.3593753817 0.2360976068 -0.3599241738 -0.1648721145 0.2544995915
470297180.0 -0.1567084457 0.247627194 0.2323113821 -0.3623441555 0.2324704205 -0.3619967062 -0.1622433219 0.2558690165
475297150.0 -0.1541610295 0.2494631119 0.2284784514 -0.3645549278 0.2284909284 -0.3649034869 -0.1595926598 0.2582662929
480297120.0 -0.1507988035 0.2513435811 0.2241486822 -0.3672949328 0.2244358432 -0.3669859795 -0.1571098208 0.2596772399
485297090.0 -0.1488194237 0.2522738293 0.2201873643 -0.3691582437 0.2202512682 -0.3696138655 -0.1543686914 0.2619774758
490297060.0 -0.145355154 0.2546077253 0.2158660046 -0.3719870246 0.2164496158 -0.3720429777 -0.1513793516 0.2636281991
495297030.0 -0.1430170487 0.2560047578 0.2120689641 -0.3741346866 0.2119711886 -0.3744053705 -0.1486201102 0.2649898319
500297000.0 -0.1403652621 0.257799258 0.2080032408 -0.376286501 0.2082716097 -0.3767458689 -0.1457698964 0.2668749487
505296970.0 -0.1371445347 0.2594231241 0.203807611 -0.3790038371 0.2035638444 -0.378478395 -0.1427495097 0.2682637464
510296940.0 -0.1345944556 0.2609197692 0.1997513582 -0.3812592532 0.199949816 -0.3815109513 -0.1399239854 0.270417094
515296910.0 -0.1318010775 0.2629434619 0.1951816567 -0.3832375274 0.1952915051 -0.3829028041 -0.1374622845 0.2714921845
520296880.0 -0.128737685 0.2641620838 0.1910943861 -0.3851112183 0.1909049415 -0.385159222 -0.1340976586 0.2736813717
525296850.0 -0.1261555922 0.2654569135 0.1868650015 -0.3874849144 0.1866883394 -0.3869740895 -0.1311521672 0.2748706487
530296820.0 -0.1234926495 0.2670402271 0.1823347656 -0.3892957512 0.1825536785 -0.3891730875 -0.1281989131 0.2763127816
535296790.0 -0.1200421126 0.268430442 0.1782151381 -0.3910536144 0.1782631507 -0.391218774 -0.1252255969 0.2781194117
540296760.0 -0.1169111884 0.2700937126 0.1736617284 -0.3930615276 0.1739430475 -0.3926894974 -0.1222750042 0.2791210261
545296730.0 -0.1146194018 0.2717934932 0.1700637411 -0.3946164344 0.1696944892 -0.3943325719 -0.1195141306 0.2808391708
550296700.0 -0.1112950532 0.2726681569 0.1654814986 -0.3963745862 0.1650286616 -0.3968134066 -0.1163729249 0.2821798738
555296670.0 -0.1084647106 0.2740996186 0.1611541757 -0.398479273 0.1609118171 -0.3981122652 -0.1135467271 0.2827859636
560296640.0 -0.1050618706 0.27535685 0.1562970286 -0.4001255399 0.1565315831 -0.3999512499 -0.1108220593 0.2847595005
565296610.0 -0.1026331017 0.2767213204 0.1526602273 -0.4016589167 0.1521812103 -0.401360814 -0.1072136296 0.2862346069
570296580.0 -0.099637961 0.2782293717 0.1479076088 -0.4030657957 0.147631042 -0.4033308721 -0.1045937367 0.287329763
575296550.0 -0.0962088649 0.2791287566 0.1435757645 -0.4046215503 0.1435262293 -0.4046965331 -0.1013603902 0.2883935019
580296520.0 -0.0932828 0.2806406059 0.1390481662 -0.40634019 0.1390123186 -0.4063155685 -0.0987439587 0.289492071
585296490.0 -0.0899178977 0.2818976999 0.1347829497 -0.4076490392 0.134428379 -0.4077331718 -0.0951709024 0.291004223
590296460.0 -0.0865259785 0.2829602339 0.1301470501 -0.4088020499 0.1301237533 -0.409604518 -0.0924287832 0.2922140707
595296430.0 -0.0838263235 0.2841906327 0.1250999117 -0.4101399611 0.1251830951 -0.4104345455 -0.089335611 0.2929941668
600296400.0 -0.0807286428 0.2853177772 0.1207792859 -0.4115163708 0.1208759106 -0.4117539879 -0.0861850689 0.2939807152
605296370.0 -0.0778637123 0.2865289739 0.1167001943 -0.4129914875 0.116420683 -0.4133371567 -0.0832818483 0.2953240503
610296340.0 -0.0745649033 0.2877302046 0.1123684337 -0.4135956392 0.1124015638 -0.4140496772 -0.0799231195 0.296413384
615296310.0 -0.0710699307 0.2882215502 0.1076787883 -0.4154282006 0.1073508316 -0.4156157263 -0.0769265714 0.297436158
620296280.0 -0.068515996 0.2898861283 0.1031073202 -0.4165919261 0.1026922632 -0.4163819684 -0.0736943336 0.2984995211
625296250.0 -0.0654084399 0.2903916663 0.0982789078 -0.4174311847 0.0984600729 -0.4176272569 -0.0708509219 0.2989739826
630296220.0 -0.0621323002 0.2916492961 0.0938489335 -0.4183077806 0.0938807154 -0.4187092393 -0.0673600698 0.3000068073
635296190.0 -0.0591001187 0.2923972612 0.0896202798 -0.4192252388 0.0890852488 -0.4194173354 -0.0643383636 0.3009256032
640296160.0 -0.0561119262 0.2933523453 0.0847399248 -0.4204854821 0.0846674359 -0.4204936371 -0.0612262128 0.3019010772
645296130.0 -0.0527234602 0.2944744603 0.0803551781 -0.4209185588 0.0802449117 -0.4210069057 -0.0581367641 0.3020154375
650296100.0 -0.0496132278 0.2950252882 0.075826236 -0.422325988 0.075160311 -0.4220107766 -0.0542549332 0.3031766138
655296070.0 -0.0465954239 0.2958790807 0.0709471082 -0.4227389615 0.070770033 -0.4226978507 -0.0517194918 0.3039358553
660296040.0 -0.0436680813 0.2967899241 0.0666719109 -0.4238467301 0.0661549654 -0.4234198705 -0.0483394354 0.3042984271
665296010.0 -0.0403407369 0.2970479711 0.0617361291 -0.4235596021 0.061462346 -0.4239131741 -0.0451951096 0.3052480268
670295980.0 -0.0373115018 0.2980966927 0.0569715317 -0.4245452978 0.0570961865 -0.4244293546 -0.0422233106 0.305547513
675295950.0 -0.0341129156 0.2987719121 0.0524637461 -0.4250454131 0.0524877078 -0.4253405249 -0.0387831193 0.306486227
680295920.0 -0.0314875227 0.2995499399 0.0481320235 -0.4255777728 0.0479725573 -0.425343918 -0.0353068861 0.3066687188
685295890.0 -0.0277780516 0.2999698748 0.0430525483 -0.4263513745 0.0432189444 -0.4263400773 -0.0324506762 0.3077897808
690295860.0 -0.0250838034 0.3005207142 0.0387050398 -0.4266195488 0.0384793553 -0.4266766867 -0.0292308041 0.307988768
695295830.0 -0.0216760429 0.3011362988 0.0342544241 -0.4269585344 0.0340356742 -0.4267940474 -0.0260140683 0.3086427427
700295800.0 -0.0184688592 0.3016390427 0.0298730585 -0.4271369273 0.0295800129 -0.4275041169 -0.0221208857 0.3088460621
705295770.0 -0.0157963084 0.3023092775 0.0250338033 -0.4276547969 0.0248998641 -0.4273809866 -0.019445399 0.3094038019
710295740.0 -0.0127947441 0.3024252602 0.0206733373 -0.4278096906 0.0199691122 -0.4279239595 -0.0158453543 0.3095346628
715295710.0 -0.0090479958 0.3030352184 0.0159698229 -0.4279302049 0.0155323714 -0.4278514565 -0.0128869383 0.3095342536
720295680.0 -0.0059520919 0.3032887614 0.0109731858 -0.4277656392 0.010744242 -0.4280738893 -0.0095639635 0.3098935432
725295650.0 -0.0032153285 0.3036780023 0.0067330679 -0.428004421 0.0065223275 -0.4283111413 -0.0066039581 0.3106165547
730295620.0 -0.0001725226 0.3041247941 0.001949371 -0.4279375376 0.0016831519 -0.4277669653 -0.0033449098 0.3110385214
735295590.0 0.0030720252 0.3045039476 -0.0028260823 -0.4280971679 -0.0028121547 -0.4280482332 7.16233e-05 0.3107423539
740295560.0 0.0057181829 0.3042778832 -0.0074048058 -0.4277610316 -0.0072240543 -0.4282578955 0.0031520501 0.311239726
745295530.0 0.0091055441 0.304635748 -0.0120026787 -0.4270706212 -0.0114770441 -0.4276165949 0.0061520573 0.3109340459
750295500.0 0.0119739964 0.304898406 -0.0161966817 -0.4277036745 -0.0166960272 -0.4277123159 0.0095269861 0.311096798
755295470.0 0.0150200404 0.3050079111 -0.0202913571 -0.4274283746 -0.0210311736 -0.4279168352 0.0128862285 0.3119073326
760295440.0 0.0181104862 0.305401494 -0.0258508276 -0.4270053445 -0.0258538022 -0.4267797007 0.0163651445 0.3109891751
765295410.0 0.0214305079 0.304895444 -0.0302873899 -0.4267920567 -0.030060448 -0.4269330069 0.0194831858 0.3109146794
770295380.0 0.0243387631 0.3054802441 -0.0349018111 -0.4261542438 -0.0348330721 -0.4268826049 0.0225582351 0.3109169056
775295350.0 0.0272032014 0.3053299812 -0.0395970533 -0.4261617251 -0.0394721078 -0.4256337207 0.0262016144 0.3107008061
780295320.0 0.030319466 0.3053105279 -0.0437494363 -0.4250230577 -0.0442022794 -0.4252043776 0.029324891 0.3107901271
785295290.0 0.0334966807 0.3045322815 -0.048230551 -0.4246209356 -0.0486087275 -0.4250889474 0.0323765095 0.3109842653
790295260.0 0.0365409918 0.3046031371 -0.0532610381 -0.4245932106 -0.052903052 -0.4247452134 0.0356257738 0.3109658154
795295230.0 0.0394439213 0.3044532642 -0.0575605695 -0.4240407509 -0.0576594445 -0.4240184888 0.0386264367 0.310069075
800295200.0 0.0424337591 0.3042093963 -0.061773487 -0.4229673905 -0.0623001979 -0.4236956355 0.0420888604 0.3101330132
805295170.0 0.0453348601 0.3045538218 -0.0661131851 -0.4223062838 -0.0667817436 -0.4227751226 0.0458711749 0.3098210652
810295140.0 0.0488291048 0.3041851025 -0.0712687506 -0.4216651475 -0.0712377178 -0.421834475 0.0489179814 0.3094391422
815295110.0 0.0514960936 0.3036090998 -0.0755056025 -0.4205942438 -0.0756091952 -0.4210885482 0.0517612423 0.3090074163
820295080.0 0.054360568 0.3032036847 -0.079765271 -0.4199580057 -0.080147141 -0.4202860239 0.0548109683 0.3091577016
825295050.0 0.0576972005 0.3025705104 -0.0848886884 -0.4190565438 -0.0847763248 -0.419373818 0.0585546702 0.3085234858
830295020.0 0.0608222061 0.3020748831 -0.0888729168 -0.4179664419 -0.0893971125 -0.4181975287 0.0613645788 0.3075730344
