!Created with skrf (http://scikit-rf.org).
# Hz S RI R 50.0 
!freq ReS11 ImS11 ReS21 ImS21 ReS12 ImS12 ReS22 ImS22
300000.0 -0.32010116 -0.0810622945 0.3761571384 0.0436237088 0.3720446499 0.0420210334 -0.3191755566 -0.1000656448
5299970.0 -0.3265718151 0.0040912158 0.3784278364 0.0027318514 0.378306484 0.0028489464 -0.3237652453 0.004883533
10299940.0 -0.3242288794 0.0132646222 0.3792943223 0.0018139443 0.3795522551 0.0024374051 -0.3214404232 0.0158873546
15299910.0 -0.3213887895 0.0203373011 0.381760649 0.002265052 0.3819264087 0.0020957878 -0.3184465792 0.0237852322
20299880.0 -0.3186618539 0.0260623187 0.3849385388 0.0019790093 0.3848685827 0.0015505405 -0.3145160917 0.0304252448
25299850.0 -0.3158826897 0.0315126163 0.388313658 0.000277035 0.387904079 8.7065e-05 -0.3107563261 0.0360062191
30299820.0 -0.3128639301 0.0359874897 0.3916956678 -0.0022531004 0.3913147742 -0.0024747549 -0.3068034732 0.0411083858
35299790.0 -0.3100092639 0.0397811263 0.3950416772 -0.0053503466 0.3946670235 -0.005511392 -0.3034114092 0.045220893
40299760.0 -0.3071433683 0.0436501804 0.3978070311 -0.0087716822 0.3981024722 -0.008743405 -0.3001394985 0.0485232904
45299730.0 -0.304621923 0.0467294587 0.4007715318 -0.0128296557 0.4006727039 -0.0127345543 -0.2972172089 0.0520594297
50299700.0 -0.3024498734 0.0495444451 0.403567575 -0.0173337648 0.4035202177 -0.017367571 -0.294251351 0.0545785437
55299670.0 -0.3003551662 0.0520715975 0.40576628 -0.0223033281 0.4055833921 -0.0218517246 -0.2919742513 0.0572132496
60299640.0 -0.2979840113 0.054891037 0.4073601514 -0.0272588564 0.4075284209 -0.0268367283 -0.2892648903 0.0588810965
65299610.0 -0.296304586 0.0574903777 0.4090511488 -0.0319133536 0.4090067293 -0.0319267915 -0.2871973636 0.061752439
70299580.0 -0.2948652691 0.0601644394 0.4104782411 -0.0369867188 0.4101610933 -0.0369656169 -0.2850686986 0.0640931403
75299550.0 -0.2929288207 0.0627475886 0.4109998257 -0.0421142437 0.4113039986 -0.0423844923 -0.2830395674 0.0658158401
80299520.0 -0.2917124006 0.0647892733 0.4122470432 -0.0474879908 0.4123560436 -0.0474536499 -0.2815978588 0.0682711752
85299490.0 -0.2902000553 0.0670584495 0.4126893572 -0.0526550074 0.4129902199 -0.0525315142 -0.2800309091 0.0699590429
90299460.0 -0.2888801476 0.0691915715 0.412714899 -0.0576997288 0.41332164 -0.0578383781 -0.2782526922 0.0721970662
95299430.0 -0.2873641102 0.0714110871 0.4133850784 -0.0630066522 0.4134921133 -0.0630626934 -0.2767862531 0.0741520715
100299400.0 -0.2865045716 0.0741950014 0.4132726019 -0.0684651677 0.4129926888 -0.0683850097 -0.275073932 0.0760456235
105299370.0 -0.2851944473 0.0763971106 0.4130950235 -0.0739186904 0.4133837858 -0.0734669117 -0.2734310679 0.0781380498
110299340.0 -0.2840611401 0.0787540945 0.4133719819 -0.0789694139 0.4132236162 -0.0785154232 -0.2729065751 0.0799308883
115299310.0 -0.2828719953 0.0810386761 0.4129105488 -0.0839801262 0.4127117163 -0.0838522906 -0.2714279027 0.0820730565
120299280.0 -0.2821376411 0.0829919569 0.4122150145 -0.0887192846 0.4125380289 -0.0888233083 -0.2702916193 0.0844439144
125299250.0 -0.2810596101 0.085387809 0.4119366208 -0.0940537794 0.4119255444 -0.0938806984 -0.2697503017 0.0862669326
130299220.0 -0.280417657 0.0880829208 0.4110291605 -0.0992786748 0.411060933 -0.0992458406 -0.2680213004 0.0886084112
135299190.0 -0.2792544917 0.0908842556 0.4106483054 -0.1041850857 0.4106028935 -0.1040391401 -0.267145705 0.0909079811
140299160.0 -0.2782734448 0.0933589037 0.4093899722 -0.1093989446 0.4097587494 -0.1094708851 -0.2661071229 0.0934901094
145299130.0 -0.2773544915 0.0954693572 0.4088980651 -0.1141484681 0.4084233406 -0.1140193048 -0.2650963089 0.0954316696
150299100.0 -0.2763211729 0.0983588441 0.4077597849 -0.1188542032 0.4078287021 -0.1187040441 -0.264354725 0.0983085355
155299070.0 -0.2755620369 0.1007949871 0.4067425186 -0.124317836 0.4065064107 -0.1239487825 -0.2630979084 0.1009122799
160299040.0 -0.2746960487 0.1034243858 0.4054850611 -0.1287097859 0.4051973699 -0.1290149827 -0.2625884751 0.1030812595
165299010.0 -0.2736246905 0.1061447809 0.4039100703 -0.1337619097 0.4042706792 -0.1337159496 -0.2612603661 0.1057475972
170298980.0 -0.2728296394 0.108672277 0.4028213077 -0.1384857777 0.4027719223 -0.1385852457 -0.2600109084 0.1081006316
175298950.0 -0.2718456442 0.1110213263 0.401637985 -0.1432309103 0.4011783668 -0.1432135621 -0.2593212335 0.11043293
180298920.0 -0.2709622071 0.1140788115 0.3999804198 -0.1479525426 0.3997875981 -0.1477496682 -0.2582050987 0.1135115184
185298890.0 -0.2696111844 0.1164347528 0.3984373068 -0.15268027 0.3983147824 -0.1524741525 -0.2568651528 0.1158172298
190298860.0 -0.2687212741 0.1194538183 0.3967426193 -0.1576771569 0.3969757716 -0.1570907302 -0.2564243634 0.1183981184
195298830.0 -0.2676820776 0.1219571629 0.3949207757 -0.1622014681 0.3951619486 -0.1616835414 -0.2549751712 0.1209451623
200298800.0 -0.2662086414 0.1245969833 0.3933993911 -0.1666483773 0.3931950678 -0.1668803415 -0.254278986 0.123385051
205298770.0 -0.2654476358 0.1272580567 0.3916573392 -0.17135054 0.3915953225 -0.170951572 -0.2530571116 0.12559939
210298740.0 -0.2644295952 0.1298713042 0.3897645477 -0.1753777848 0.3897613607 -0.1752322773 -0.2520699447 0.1286943161
215298710.0 -0.2635179932 0.1328778311 0.3879018723 -0.1803069184 0.3876375726 -0.1806304068 -0.2510065366 0.1313606664
220298680.0 -0.2618343916 0.1352184594 0.3855344497 -0.1848007035 0.3857992127 -0.1845127083 -0.2501011252 0.1335635364
225298650.0 -0.2612185388 0.1382849943 0.3836888029 -0.1893774749 0.383966811 -0.1890074753 -0.2490912224 0.1359460837
230298620.0 -0.259754262 0.1408038182 0.3820282428 -0.1934223768 0.3824089585 -0.1937484419 -0.2480509585 0.1383807118
235298590.0 -0.2583026577 0.1437979381 0.3794550815 -0.1977238027 0.3798440853 -0.1977572069 -0.2465125416 0.141175595
240298560.0 -0.2569808899 0.1464166316 0.3776114743 -0.2022517204 0.377694336 -0.2023551199 -0.2452878105 0.1440825264
245298530.0 -0.255906726 0.1489365799 0.3755376966 -0.2066751256 0.375476494 -0.2066954333 -0.2439358573 0.1458918686
250298500.0 -0.2541558039 0.1518843144 0.3726978559 -0.2110857853 0.3728378162 -0.2108374288 -0.242573111 0.1486183791
255298470.0 -0.2530631448 0.1542269222 0.3701826249 -0.2146754862 0.3705301765 -0.2151094501 -0.2411835707 0.1511293314
260298440.0 -0.2516279281 0.1568963271 0.3684255552 -0.2193829397 0.368631821 -0.2189473193 -0.2395855339 0.1536795756
265298410.0 -0.2498700003 0.1599632546 0.3654264738 -0.2236442363 0.3661994732 -0.2235861899 -0.2382224948 0.1562374598
270298380.0 -0.2486167799 0.1625068329 0.3635302585 -0.2273616 0.363732048 -0.2276440444 -0.2368245792 0.1585704673
275298350.0 -0.2469304624 0.1652923375 0.3606736272 -0.2319674194 0.3612852879 -0.2317719027 -0.2351506306 0.1610080069
280298320.0 -0.2450088528 0.1679480004 0.3584964301 -0.2359022109 0.3584595053 -0.235658151 -0.2337452816 0.1635663879
285298290.0 -0.2433520418 0.1707803189 0.355994099 -0.2397138897 0.3556312063 -0.2399903753 -0.2318237281 0.1660787659
290298260.0 -0.2417434405 0.1731934626 0.352992265 -0.2437279702 0.3530961854 -0.2437618923 -0.2300116349 0.1685766351
295298230.0 -0.2398434041 0.1754619693 0.3503540902 -0.2478852273 0.3505484529 -0.2476950363 -0.2281736476 0.1706903579
300298200.0 -0.2383680041 0.1784286732 0.3479028039 -0.2517321279 0.3479618937 -0.252124317 -0.2267489563 0.1733333375
305298170.0 -0.2365772396 0.1804440032 0.3448514209 -0.2558848088 0.3449682199 -0.255734583 -0.2245686436 0.17561331
310298140.0 -0.2348860297 0.1833701746 0.3423921073 -0.2595823732 0.3424102969 -0.2594636792 -0.2231535692 0.1781883026
315298110.0 -0.2330145606 0.1858531296 0.3396316792 -0.2636194589 0.3395722495 -0.2635769018 -0.2213432341 0.180492039
320298080.0 -0.2311894759 0.1880213463 0.3358441247 -0.2675226309 0.3362448098 -0.2673771626 -0.2191673133 0.1828941217
325298050.0 -0.2295384465 0.1907862247 0.3331859387 -0.2714332349 0.3334102892 -0.2711274817 -0.2177116125 0.1851371737
330298020.0 -0.227411703 0.1929939852 0.3299357968 -0.2751285334 0.3301712799 -0.275116161 -0.2157701197 0.1876800375
335297990.0 -0.2254781785 0.1955542354 0.3268362772 -0.2785047848 0.3268498507 -0.2787637264 -0.2145254843 0.1905249677
340297960.0 -0.2241198151 0.1980292008 0.3236910867 -0.2823229097 0.3236447359 -0.2825887752 -0.2119109589 0.1929869487
345297930.0 -0.2220467652 0.2006559326 0.3206254476 -0.2859429414 0.3205203488 -0.2858187834 -0.2103837056 0.1950600133
350297900.0 -0.2200336391 0.2030709404 0.3170763751 -0.2896660186 0.3170595274 -0.2893818542 -0.2085473926 0.1980810498
355297870.0 -0.2179383614 0.2060908263 0.3140092974 -0.2928273129 0.3143731469 -0.2930508065 -0.2068185638 0.2002198868
360297840.0 -0.2162732448 0.208438001 0.3111195754 -0.2963466191 0.3112944086 -0.2959602751 -0.2048718857 0.2028506314
365297810.0 -0.2138978396 0.2111192783 0.3073356685 -0.3000696597 0.3078011568 -0.2998144828 -0.2027868525 0.2050815433
370297780.0 -0.2116535041 0.2130600138 0.3038572552 -0.303182852 0.3043791399 -0.3027259732 -0.2006435048 0.2073663704
375297750.0 -0.2092002389 0.2156009929 0.3006604635 -0.3065349778 0.3009910974 -0.3063635458 -0.1987921308 0.2096319652
380297720.0 -0.2074780437 0.2178500273 0.2975288542 -0.309661145 0.2975381179 -0.3092182505 -0.1969223021 0.2119314012
385297690.0 -0.2055311624 0.2204283485 0.2941458666 -0.3126988047 0.2937441177 -0.3130310244 -0.1945199235 0.2141955388
390297660.0 -0.2031768709 0.2224540023 0.2904122081 -0.3160084099 0.2904443171 -0.3156995358 -0.1925763455 0.2164997019
395297630.0 -0.200742566 0.2253089799 0.2868400436 -0.3197090282 0.2868818647 -0.3195779905 -0.1898735173 0.2188778566
400297600.0 -0.1981018508 0.2276524559 0.2828817781 -0.3228167131 0.2835031521 -0.322595072 -0.1879643227 0.2209016122
405297570.0 -0.1965932508 0.2294049255 0.2797914223 -0.3257129513 0.2798571133 -0.3252300161 -0.1861230604 0.2229030474
410297540.0 -0.1938116493 0.231712191 0.2761186577 -0.3286452706 0.276524551 -0.3288024259 -0.1837436599 0.2253871119
415297510.0 -0.191338018 0.2339761146 0.2724257663 -0.3317881211 0.2727268458 -0.331897435 -0.1813890081 0.2273792774
420297480.0 -0.1894679347 0.2363337699 0.2689349911 -0.3345373406 0.2689783135 -0.3348201001 -0.1789926839 0.2288944958
425297450.0 -0.1862706254 0.2380259626 0.2653405582 -0.3372472857 0.2656610863 -0.3376157255 -0.1772409832 0.2313584835
430297420.0 -0.1842154764 0.2402961627 0.2613816776 -0.3399041322 0.2610848082 -0.3400207253 -0.174622783 0.2330124689
435297390.0 -0.1816725854 0.2426412655 0.2573910269 -0.3430066504 0.2573420258 -0.3432466241 -0.1718452129 0.2351484841
440297360.0 -0.1790377536 0.2446400092 0.2536434399 -0.3460401603 0.2539359466 -0.3461368529 -0.1699215646 0.2369928703
445297330.0 -0.1767425998 0.2464266914 0.2500973179 -0.3487148122 0.2501974536 -0.3483746137 -0.1672265851 0.2382359839
450297300.0 -0.1739728199 0.248420658 0.2459444183 -0.3516988551 0.2460820581 -0.3516305945 -0.164592651 0.2404185951
455297270.0 -0.1715502252 0.2503932956 0.2420073694 -0.3539158578 0.2424147347 -0.354230766 -0.1622202484 0.2421312346
460297240.0 -0.1690454584 0.2523750104 0.2380862223 -0.3566480085 0.2383937497 -0.3565270021 -0.1596897401 0.2441285212
465297210.0 -0.1659429672 0.2541910412 0.2347036132 -0.3593348009 0.2345961708 -0.3595493122 -0.1568091611 0.2458109758
470297180.0 -0.1636020118 0.2561675614 0.2302529314 -0.3617889356 0.2303753878 -0.3619879532 -0.1542014997 0.2481745811
475297150.0 -0.1609996406 0.2578175779 0.2260698502 -0.3634115781 0.2265049396 -0.3638676751 -0.1514339546 0.2492374535
480297120.0 -0.1578012947 0.2599083034 0.2221347344 -0.3666998952 0.2222838813 -0.3668048596 -0.1486010525 0.2514302189
485297090.0 -0.1555471344 0.2616512159 0.2186334036 -0.3684886409 0.2183115946 -0.3687369164 -0.1459361147 0.2528776642
490297060.0 -0.1531713966 0.2636046409 0.2145512949 -0.3713165622 0.2145212297 -0.3709905331 -0.1434425474 0.2549432993
495297030.0 -0.1502014741 0.265498384 0.2099585087 -0.3733068755 0.2106060096 -0.3735069621 -0.1410382887 0.2567810759
500297000.0 -0.1472680586 0.2669740273 0.2058760659 -0.3757581471 0.2063368257 -0.3756558641 -0.1378448733 0.2586255784
505296970.0 -0.1443503565 0.2685606568 0.2020058769 -0.3776653099 0.2021260355 -0.3780301434 -0.1353917414 0.2599050703
510296940.0 -0.1416520735 0.2704985217 0.1981764152 -0.3802487859 0.1978896475 -0.3801575981 -0.1326728132 0.2616494292
515296910.0 -0.1388208469 0.271961019 0.1934080113 -0.3821973444 0.1938014543 -0.3822564985 -0.1294883028 0.2633919641
520296880.0 -0.13619378 0.2734857309 0.1894990234 -0.3844418887 0.1892413571 -0.3840751792 -0.1270501234 0.2647269362
525296850.0 -0.1330618275 0.274723472 0.1850817617 -0.3860700646 0.1855065822 -0.3861185701 -0.1246091389 0.2664319957
530296820.0 -0.1301675091 0.2768369021 0.1807475484 -0.3884809387 0.1806832582 -0.3882402536 -0.121454143 0.2679528904
535296790.0 -0.1275602832 0.2781484523 0.1770865734 -0.3900759748 0.1769023861 -0.3898632018 -0.1191919391 0.2692557847
540296760.0 -0.1248326559 0.2797791722 0.1727103194 -0.3920797234 0.1724626058 -0.392323366 -0.1162931635 0.271114026
545296730.0 -0.1216186045 0.2814969976 0.1682314904 -0.3937858235 0.1682052577 -0.3939953696 -0.1137092813 0.2723827088
550296700.0 -0.1187025338 0.2827739824 0.1642372596 -0.3959288965 0.1639627261 -0.395634678 -0.1109100526 0.2737559932
555296670.0 -0.1154428106 0.2837205679 0.1595583875 -0.397606924 0.1598497151 -0.3975204454 -0.1078014823 0.2754029927
560296640.0 -0.1125763629 0.285572251 0.1548624585 -0.3995606761 0.1554641783 -0.3988940697 -0.1049686845 0.2763523679
565296610.0 -0.1099567639 0.2868102224 0.1507608918 -0.4009501198 0.150921044 -0.4004644777 -0.1022579841 0.2772907491
570296580.0 -0.1071870031 0.2880026678 0.1464704977 -0.4027301095 0.146151903 -0.4026069269 -0.099506915 0.2790704627
575296550.0 -0.1037298454 0.2899006434 0.1421227002 -0.40440389 0.1417905713 -0.4042108386 -0.0961454217 0.280293767
580296520.0 -0.1008474522 0.2907113018 0.137804465 -0.4057442577 0.1374366344 -0.4054464577 -0.0933959443 0.2811222003
585296490.0 -0.0978062291 0.2913937044 0.1330724011 -0.4064754631 0.1332899314 -0.4069653264 -0.0902803873 0.2823440849
590296460.0 -0.0943630613 0.2929918106 0.1287529177 -0.4077718833 0.1289636493 -0.4079908312 -0.0878450724 0.2835037982
595296430.0 -0.0915143784 0.2938020472 0.123857623 -0.4098533731 0.1242692175 -0.409343699 -0.0847748215 0.2837905369
600296400.0 -0.0884734203 0.2953370291 0.1196047275 -0.4112948263 0.1195318461 -0.410694906 -0.0819750295 0.2852173426
605296370.0 -0.0856287636 0.2959697829 0.1153817123 -0.4121246077 0.1156752347 -0.4119092392 -0.0784850834 0.2864085839
610296340.0 -0.0821986442 0.2971290198 0.1104417266 -0.413380619 0.1108606183 -0.4130823089 -0.0756187109 0.286936887
615296310.0 -0.0787124795 0.2979238376 0.1058199875 -0.4139602061 0.1061402319 -0.4146546213 -0.072425103 0.2878359644
620296280.0 -0.0761080157 0.2988261777 0.1016120278 -0.4158012188 0.101736782 -0.4149594337 -0.0697789463 0.2885635427
625296250.0 -0.0730764259 0.2998351921 0.0975352025 -0.4166709247 0.0973963983 -0.4167085422 -0.0662507763 0.2895538803
630296220.0 -0.0692098943 0.3008514818 0.0922897056 -0.4178761026 0.0926163379 -0.4174254723 -0.0633770276 0.2905561949
635296190.0 -0.0669775117 0.3016059307 0.0882493076 -0.4185173811 0.0880868206 -0.4184056558 -0.0600119869 0.2912191015
640296160.0 -0.0637306705 0.3021815665 0.0838124873 -0.419006297 0.0838154743 -0.4194138426 -0.0569388548 0.2919888015
645296130.0 -0.0601627457 0.303440421 0.0787186584 -0.4200167312 0.0794045657 -0.4201165879 -0.0541186079 0.2928464525
650296100.0 -0.0572102875 0.3039992849 0.0744993604 -0.4205345493 0.0745093845 -0.4208231219 -0.0508419884 0.2930346744
655296070.0 -0.0537062133 0.3047069357 0.0696243024 -0.4213057947 0.0699097197 -0.4218507897 -0.047403601 0.2940386217
660296040.0 -0.0511416841 0.30496456 0.0654426281 -0.4218558719 0.0654610756 -0.4224858743 -0.0438997763 0.2949989592
665296010.0 -0.0472607398 0.3055543475 0.0605317408 -0.4229210963 0.0606618787 -0.4229011362 -0.0409959105 0.2955858893
670295980.0 -0.0450132347 0.3068418018 0.0560696823 -0.4236352568 0.0561505902 -0.4234980526 -0.0382214298 0.296029241
675295950.0 -0.0416262272 0.3075204433 0.0516296389 -0.4240811762 0.0517493907 -0.4237087415 -0.0352503088 0.2970927511
680295920.0 -0.0381760957 0.3080355947 0.0472613729 -0.4244012671 0.0468593956 -0.424921134 -0.0319057783 0.2976178899
685295890.0 -0.0349629452 0.3089055671 0.0423665163 -0.4251174799 0.0421909999 -0.4251535732 -0.0288915586 0.297796412
690295860.0 -0.0317473554 0.3089816167 0.0376588182 -0.4250226327 0.0378283931 -0.4258000076 -0.0259572743 0.2989943416
695295830.0 -0.0283730817 0.309402654 0.0332307473 -0.425598881 0.0328372284 -0.4257914119 -0.0223440107 0.299369193
700295800.0 -0.0248689934 0.3092994852 0.0282978945 -0.4256688 0.0282422201 -0.4259939908 -0.0196770378 0.2998916839
705295770.0 -0.0222636549 0.310646278 0.0239339238 -0.4264687435 0.0241816609 -0.4262294674 -0.0166956853 0.3002932855
710295740.0 -0.0185535659 0.3108238793 0.0194316846 -0.4269857643 0.0195373733 -0.4266328863 -0.0135723422 0.2999569045
715295710.0 -0.0156818423 0.3109987676 0.0152456163 -0.4267079453 0.0142858087 -0.4266998891 -0.009849529 0.3008093791
720295680.0 -0.0121630493 0.3112897005 0.010237686 -0.4267686652 0.0100693887 -0.4269518084 -0.0067902589 0.3012605359
725295650.0 -0.0089355595 0.3114664524 0.0057616865 -0.4268525946 0.0054767793 -0.4272160602 -0.0042449132 0.3016216355
730295620.0 -0.0052211588 0.3121462341 0.0006006777 -0.4266363873 0.0008983059 -0.42681119 -0.0012963387 0.3014208343
735295590.0 -0.0023435998 0.3122970041 -0.0038148576 -0.4272676563 -0.0039380194 -0.4265531729 0.0018267605 0.3013461702
740295560.0 0.0006850679 0.3123601784 -0.0086057302 -0.4265426783 -0.0087348617 -0.4269164705 0.0057004584 0.3020012129
745295530.0 0.0041325265 0.3123682808 -0.0132501014 -0.4261250142 -0.0130437603 -0.4267154679 0.0084649506 0.3014827451
750295500.0 0.0078719133 0.3125179095 -0.0176660444 -0.4260156871 -0.017697952 -0.4262328052 0.0115029775 0.3015512253
755295470.0 0.0105881286 0.312319723 -0.022081011 -0.4257964041 -0.0222626274 -0.4263465787 0.014934053 0.3014014024
760295440.0 0.0139198815 0.3125506396 -0.0270357988 -0.4260287857 -0.0269488896 -0.4260870305 0.0177929837 0.3015210949
765295410.0 0.0171472044 0.3121850019 -0.0314647285 -0.425399256 -0.0318915479 -0.4257561807 0.0212163769 0.3016729943
770295380.0 0.0200494094 0.3122071887 -0.0360350819 -0.4252517823 -0.0362781975 -0.4249267055 0.0241833473 0.3011258142
775295350.0 0.0231322283 0.3118382819 -0.0405234846 -0.4241125063 -0.0402855672 -0.4245223005 0.0266931849 0.3012762232
780295320.0 0.0269961229 0.3120404029 -0.0457688944 -0.4237714202 -0.0450287735 -0.4236689161 0.0302801498 0.3006382077
785295290.0 0.0300114058 0.311351245 -0.0502757857 -0.4228809919 -0.0496550646 -0.4233532767 0.0338251257 0.3006517773
790295260.0 0.0337835426 0.3118052351 -0.054505003 -0.4226530156 -0.0539306505 -0.4226004579 0.0369902915 0.300341223
795295230.0 0.0363858786 0.3114857792 -0.0590185395 -0.4221477291 -0.0587583011 -0.4225004336 0.0401241169 0.3000921749
800295200.0 0.0396033303 0.3112468996 -0.063837678 -0.4213400606 -0.0636833487 -0.4211781023 0.0435370402 0.2996008215
805295170.0 0.0431248191 0.3106200986 -0.0681215676 -0.4206842513 -0.0681066071 -0.4208699791 0.0465044822 0.2995903842
810295140.0 0.0464691646 0.3100763335 -0.0725315736 -0.4196857638 -0.0724504707 -0.4200475577 0.050093332 0.2991196473
815295110.0 0.0494578909 0.3095840166 -0.0770268346 -0.4185635543 -0.0769671207 -0.4191152989 0.0531117863 0.2986060492
820295080.0 0.0523831733 0.3098125635 -0.0811875166 -0.4181205227 -0.0814041457 -0.4182662839 0.0563164077 0.2984106716
825295050.0 0.056435274 0.3090068539 -0.0859506498 -0.4171708517 -0.0863156546 -0.4172548457 0.0597931789 0.2980413267
830295020.0 0.0591838511 0.3088312454 -0.0908005483 -0.415500424 -0.0907781991 -0.4160420506 0.063462307 0.2973822507
