!Created with skrf (http://scikit-rf.org).
# Hz S RI R 50.0 
!freq ReS11 ImS11 ReS21 ImS21 ReS12 ImS12 ReS22 ImS22
300000.0 -0.0924381553 -0.1009554354 0.622503445 0.0928981563 0.619842827 0.0940513107 -0.0960404864 -0.1045058078
5299970.0 -0.1015861827 0.0113722901 0.6304309299 0.0113462319 0.6307802407 0.0116018676 -0.1017701749 0.011285847
10299940.0 -0.0969809764 0.0285954397 0.6344109014 0.0162296158 0.6346744667 0.0164960345 -0.0961053238 0.0286452849
15299910.0 -0.0893118953 0.0423122933 0.6402507423 0.0215413207 0.6409194406 0.0212599189 -0.0898105812 0.0416520381
20299880.0 -0.0805577684 0.053625638 0.6485373504 0.0242066795 0.6494543107 0.0243192494 -0.0809186502 0.0529730748
25299850.0 -0.0704167106 0.0623032784 0.658206274 0.025798118 0.6583533089 0.0254707142 -0.0715944915 0.0618800793
30299820.0 -0.060822987 0.0687341985 0.6681872067 0.0245670089 0.6680054905 0.0243681636 -0.061773321 0.0685543648
35299790.0 -0.0507076116 0.0736630264 0.677274974 0.0219999746 0.6775465932 0.0219499583 -0.0524947281 0.0736795637
40299760.0 -0.0414830949 0.0762541147 0.6870588654 0.0174754508 0.6870440943 0.017823895 -0.0427298028 0.0769796172
45299730.0 -0.0318014765 0.0782758603 0.695731108 0.012475008 0.6961012172 0.0121797802 -0.033520446 0.078971518
50299700.0 -0.0230092533 0.0790942413 0.7040990194 0.0052092315 0.7041702354 0.0050654251 -0.024417989 0.0802800759
55299670.0 -0.0151902382 0.0789919849 0.7111646965 -0.0022836803 0.7105768156 -0.0022571294 -0.0173889154 0.0805463485
60299640.0 -0.0076784753 0.0787691518 0.7183121265 -0.0107681726 0.7179159046 -0.0107688691 -0.0097665771 0.079745867
65299610.0 -0.0013128431 0.0774521896 0.7244403597 -0.0199121877 0.7246203358 -0.0198929888 -0.0022826409 0.0786570165
70299580.0 0.0052643466 0.0751431196 0.7291313087 -0.0286996525 0.72928619 -0.0293364105 0.0030744549 0.0772002794
75299550.0 0.0104660568 0.0730978928 0.7332291024 -0.0389563204 0.7335340908 -0.0386966444 0.0086884775 0.0752624591
80299520.0 0.015563243 0.0714596532 0.737409191 -0.0484878859 0.7380143277 -0.0486980384 0.0137260856 0.073529657
85299490.0 0.0199335086 0.069111211 0.741104436 -0.0584913782 0.7412095768 -0.0583311603 0.0179560128 0.0708245458
90299460.0 0.0239767461 0.066719398 0.7431248892 -0.0685746414 0.7436491989 -0.0684870092 0.0224158132 0.0693124682
95299430.0 0.0281803513 0.064089233 0.7463270794 -0.0787600668 0.7464198427 -0.0789247892 0.0258423578 0.0664730611
100299400.0 0.0313594405 0.0617172551 0.7479294835 -0.0883829713 0.7478844848 -0.0892150973 0.0292172756 0.0647710673
105299370.0 0.0344385663 0.0592072535 0.7490844333 -0.0985257651 0.7499610335 -0.0989761117 0.0329023626 0.0615944477
110299340.0 0.0374402501 0.0565035123 0.7503766205 -0.1087318848 0.750870339 -0.1084278098 0.0349599734 0.0594501965
115299310.0 0.0395634829 0.0542951484 0.7513265152 -0.1189591509 0.7514492168 -0.1186582668 0.0374005754 0.0575386109
120299280.0 0.0415351501 0.0521145242 0.7520511337 -0.1297643806 0.7518003127 -0.129257316 0.0398945158 0.0546047991
125299250.0 0.044031938 0.0495569547 0.7521400191 -0.139086367 0.7519305282 -0.1384215335 0.0420426976 0.052946219
130299220.0 0.0456097452 0.0472125108 0.7522604806 -0.1489156777 0.7516740561 -0.1490150745 0.0437766618 0.0507769847
135299190.0 0.0467841325 0.0452194872 0.7519403796 -0.1581472951 0.7522486179 -0.1586794931 0.0455930618 0.0479595104
140299160.0 0.0488215689 0.0431476105 0.7516526229 -0.1684033065 0.7513480441 -0.168229964 0.0461083617 0.0454936588
145299130.0 0.0494684853 0.0410544373 0.7503873748 -0.1781793115 0.7507455132 -0.177906555 0.0482673756 0.0438834325
150299100.0 0.0509557869 0.0394429207 0.7495783613 -0.1877004241 0.7495814997 -0.1878445609 0.0492404226 0.0422119215
155299070.0 0.0526146476 0.036992395 0.7476087335 -0.1971446981 0.7482643463 -0.1974714256 0.0506159746 0.0396430169
160299040.0 0.0534471382 0.0357040799 0.747181163 -0.2069834293 0.7465351139 -0.2071470056 0.0509132916 0.0382275011
165299010.0 0.0545339511 0.0333679038 0.744835962 -0.2165313771 0.7449375195 -0.2166417661 0.0523143534 0.0358617529
170298980.0 0.0550221599 0.0318415538 0.7431910873 -0.2254225023 0.7436887135 -0.225971113 0.0526702255 0.0342005771
175298950.0 0.0558855617 0.0301960025 0.7420818959 -0.2354452284 0.7419156518 -0.2352560921 0.0533647708 0.0326861318
180298920.0 0.0563105057 0.0287080427 0.7395067939 -0.2447608397 0.7396392016 -0.2448352868 0.0540964945 0.031047418
185298890.0 0.0569859884 0.0271370909 0.7378553926 -0.253339147 0.7374574481 -0.2532084117 0.0550482562 0.029050211
190298860.0 0.0577570383 0.0257757677 0.7345857303 -0.2624847775 0.7353062301 -0.2624994864 0.0551387996 0.0275952023
195298830.0 0.058001641 0.0243441269 0.7326569622 -0.2717848757 0.7331899475 -0.2715119299 0.055759729 0.0260581068
200298800.0 0.0584707359 0.0222814537 0.72999585 -0.2813349072 0.7296191557 -0.2807272566 0.0563655118 0.0240948674
205298770.0 0.0583238484 0.0208623498 0.727189326 -0.2896129266 0.7277411236 -0.2888931009 0.0568570513 0.0229246194
210298740.0 0.0589178352 0.0199516841 0.7245268711 -0.2981200991 0.7236852963 -0.2983438406 0.0563899404 0.0210686914
215298710.0 0.0592967017 0.0187928261 0.7209057137 -0.3062137783 0.7210229521 -0.3072410281 0.0573163576 0.0198298485
220298680.0 0.0596502626 0.0177436266 0.7175191388 -0.3156299805 0.717653703 -0.315716077 0.0574138276 0.0182213001
225298650.0 0.0596973383 0.016214622 0.7137977455 -0.3237005553 0.7148825928 -0.3239424644 0.0575291259 0.0168306468
230298620.0 0.0603766481 0.01509845 0.7115686945 -0.3325916174 0.7116383881 -0.332851158 0.0572555209 0.0152503268
235298590.0 0.0597761634 0.0139664924 0.708233816 -0.341846925 0.7079673644 -0.3413459716 0.0578168374 0.014180742
240298560.0 0.0604429661 0.0130211855 0.7045390634 -0.3493117109 0.7043643073 -0.34912756 0.0576341761 0.0129732676
245298530.0 0.0602968052 0.011337702 0.7002439739 -0.3582798991 0.7004243304 -0.3577103795 0.0577740972 0.0118004113
250298500.0 0.060043302 0.0101093021 0.6968774858 -0.3661973718 0.6965786721 -0.3658663789 0.0577357378 0.0105614335
255298470.0 0.0605467877 0.0095736964 0.6930517491 -0.373998387 0.6935053932 -0.374298896 0.0579571674 0.0100640646
260298440.0 0.0607275954 0.0085348522 0.6893057224 -0.3816599907 0.6890023687 -0.3820150762 0.0577833022 0.007835986
265298410.0 0.0601949244 0.0076520294 0.6848671407 -0.3906548193 0.6850906624 -0.3908068963 0.0585061831 0.0068436813
270298380.0 0.060022837 0.0060754062 0.6804471823 -0.3979721329 0.6804376154 -0.3979839798 0.0585216594 0.0060359323
275298350.0 0.06055396 0.0057881287 0.6758678065 -0.4059308413 0.675848935 -0.4059609961 0.0577227378 0.0050418758
280298320.0 0.0597619761 0.0045602293 0.6720967241 -0.4134267092 0.6724806559 -0.4139812013 0.0583354999 0.003987642
285298290.0 0.0599979722 0.0038250412 0.6672548853 -0.4220741342 0.6679757515 -0.4215031648 0.0582632794 0.002791174
290298260.0 0.060145533 0.0026841839 0.6638042864 -0.4297726658 0.6630891329 -0.4294655587 0.0582364221 0.0018081472
295298230.0 0.0599010665 0.0012415291 0.658527542 -0.4376913305 0.6586832015 -0.4377298751 0.0581399857 0.0003659575
300298200.0 0.0599221054 0.0009050023 0.6541468967 -0.4450469666 0.6537857383 -0.4446603522 0.0577415774 -0.0006560686
305298170.0 0.0600364092 -0.0008253575 0.649324843 -0.4531143397 0.6492934969 -0.4531275813 0.0580124614 -0.0020913815
310298140.0 0.0605229673 -0.0015270411 0.644724849 -0.4601639439 0.6445605782 -0.4601435626 0.0580601348 -0.003588248
315298110.0 0.0598576363 -0.003042721 0.6394394413 -0.4684660154 0.6389756927 -0.4682541187 0.0578910042 -0.0042923197
320298080.0 0.0596506514 -0.0037768844 0.6334523777 -0.4760987489 0.6347246944 -0.4760922191 0.0572513049 -0.0055430498
325298050.0 0.0586966137 -0.0053544126 0.6281344108 -0.4837111823 0.6293824147 -0.4830799006 0.0571060776 -0.0066444554
330298020.0 0.0574427889 -0.005967776 0.6225667468 -0.4909538425 0.6233633334 -0.4912160918 0.0562505135 -0.0076520959
335297990.0 0.0578185221 -0.0065203937 0.6172836635 -0.4974937057 0.6174783576 -0.4976366821 0.0557032927 -0.0088222746
340297960.0 0.0569778199 -0.0077201508 0.6114168448 -0.5047625275 0.6112006879 -0.5044706107 0.0551970473 -0.0093598964
345297930.0 0.0565823868 -0.0083504073 0.605905213 -0.5118879019 0.6055861989 -0.5121988153 0.0554442249 -0.010445389
350297900.0 0.0557634608 -0.0089184078 0.6005037707 -0.5175008228 0.6007660239 -0.5179366905 0.0545793129 -0.0112496031
355297870.0 0.0556038905 -0.0095473196 0.5949678152 -0.5240484785 0.5945976781 -0.5242287211 0.0544628926 -0.0119912162
360297840.0 0.0553317582 -0.0102692645 0.588276593 -0.5315225147 0.5886916246 -0.5318627246 0.0536284364 -0.0122799554
365297810.0 0.0547143694 -0.0108329334 0.582392382 -0.5382856591 0.5824698761 -0.5381568799 0.0532357856 -0.0131399972
370297780.0 0.0547152226 -0.0112605077 0.5760815911 -0.5445837189 0.5768705923 -0.5444656708 0.0529109508 -0.0137944169
375297750.0 0.0544596128 -0.0121140974 0.5703538576 -0.5506105497 0.5714101683 -0.5508449571 0.0531082967 -0.0145880815
380297720.0 0.0536184005 -0.0125353876 0.5648802902 -0.557915251 0.5645499617 -0.5576823061 0.0524445032 -0.0149223749
385297690.0 0.0533463066 -0.0137456874 0.5581327244 -0.5635445653 0.5588612643 -0.56401662 0.052418399 -0.0155049436
390297660.0 0.0532522205 -0.0143034314 0.552158069 -0.5695215461 0.5526428296 -0.569740973 0.0521263405 -0.0167642505
395297630.0 0.053095946 -0.0147906249 0.5460125573 -0.5753568468 0.5460763309 -0.575757779 0.0512837475 -0.0169928435
400297600.0 0.052204614 -0.0157913328 0.5395059361 -0.5817707851 0.540342308 -0.5821196265 0.0515892234 -0.0173609408
405297570.0 0.0520840268 -0.0166461569 0.5335963906 -0.5876189428 0.5332842823 -0.5877449628 0.0506566491 -0.0179978431
410297540.0 0.051476151 -0.0164880281 0.5267609332 -0.5940228464 0.5271643156 -0.5940860017 0.0507586768 -0.0185377977
415297510.0 0.0509084482 -0.0173971336 0.5202674104 -0.599154648 0.5205507298 -0.5996440728 0.0505206091 -0.0190989408
420297480.0 0.0507416371 -0.0184350796 0.5134270052 -0.605268458 0.5141455638 -0.6055220451 0.0502396668 -0.0194979426
425297450.0 0.0508303762 -0.0188524416 0.5071538188 -0.610762729 0.5071446366 -0.6107805807 0.0498148486 -0.0207903042
430297420.0 0.0499489687 -0.0193906074 0.5006369556 -0.6166709131 0.5009342627 -0.6155779565 0.05000627 -0.0209976722
435297390.0 0.0498562813 -0.0201773311 0.4933965785 -0.6225798856 0.4936092697 -0.6223634145 0.0486259806 -0.0209908949
440297360.0 0.0497467938 -0.0212518326 0.486429505 -0.627641297 0.4864663543 -0.6277410999 0.0486915931 -0.021643282
445297330.0 0.0495884898 -0.0219488726 0.4801680511 -0.6324653703 0.4797067912 -0.6333487082 0.0485191109 -0.0218991974
450297300.0 0.0490274439 -0.022246498 0.4730220691 -0.6377383036 0.4732518262 -0.6378352273 0.0483076498 -0.022775787
455297270.0 0.0479970687 -0.0229629965 0.4659434703 -0.6434049414 0.4660885098 -0.6437629473 0.0476447996 -0.0233197954
460297240.0 0.048044168 -0.0235473358 0.4592348308 -0.6493821998 0.4589145159 -0.6489669218 0.0474477781 -0.0240449221
465297210.0 0.0476502629 -0.0241548561 0.4516551624 -0.6537694909 0.4505152846 -0.6539907849 0.0476887663 -0.0238226316
470297180.0 0.0476012868 -0.0250646998 0.4445829636 -0.6583616265 0.444991928 -0.6587102795 0.0472334341 -0.0251784552
475297150.0 0.0467256035 -0.0250552347 0.4372134919 -0.663573724 0.4374197703 -0.6639350398 0.0465846619 -0.0253926002
480297120.0 0.0468575801 -0.0250539663 0.4295176902 -0.6684235475 0.4299991664 -0.6680352991 0.045976473 -0.0260554396
485297090.0 0.0461625719 -0.0268708594 0.4223890721 -0.6735788522 0.422495433 -0.6727527364 0.0455539571 -0.0264263914
490297060.0 0.0464472235 -0.0266811571 0.4145472598 -0.6777455003 0.4152722915 -0.6776846413 0.045221345 -0.0271141663
495297030.0 0.0450600772 -0.0278917525 0.4075518409 -0.6825987844 0.4075178694 -0.6824830767 0.0457709726 -0.027472911
500297000.0 0.0447407574 -0.0278473902 0.4003866228 -0.6865933885 0.4002278804 -0.6870248857 0.04505243 -0.0275977621
505296970.0 0.0451758228 -0.0283272353 0.3927496178 -0.691110413 0.393076015 -0.691272405 0.0444716858 -0.0290650356
510296940.0 0.0444089827 -0.0290317878 0.3851731865 -0.6962873001 0.3853870996 -0.6962014255 0.0443866208 -0.0290642316
515296910.0 0.0437520401 -0.029278713 0.377018515 -0.6997742634 0.3769769067 -0.6999964285 0.0437880548 -0.0299358254
520296880.0 0.0436452353 -0.0294354249 0.3694792873 -0.7038471601 0.3695992283 -0.7035628942 0.0438022562 -0.0296907088
525296850.0 0.0432300797 -0.0305212582 0.3617150031 -0.7075937821 0.3621358177 -0.7082220117 0.0435395005 -0.0304373413
530296820.0 0.0426071634 -0.0312390409 0.3538903906 -0.7119920581 0.3542690298 -0.7121125995 0.0433160455 -0.031378355
535296790.0 0.0430592052 -0.0312862711 0.3464392403 -0.7149264959 0.3467148775 -0.7157071552 0.0430581377 -0.0313929389
540296760.0 0.0419304547 -0.0314206768 0.3381084358 -0.719357504 0.338445777 -0.7194090566 0.0425358935 -0.0321394374
545296730.0 0.0409864674 -0.0318334885 0.3304220615 -0.7227513892 0.3306077907 -0.7228064663 0.0419164092 -0.032410105
550296700.0 0.0416134837 -0.0323914869 0.3228552515 -0.7266365967 0.3222118195 -0.7270468427 0.0418005746 -0.0327971809
555296670.0 0.0407710097 -0.0328428674 0.3142752742 -0.7305589282 0.3148208111 -0.7306456821 0.0412240881 -0.0339642609
560296640.0 0.0413463486 -0.0333653145 0.3061832416 -0.7336926311 0.3070893986 -0.7335786257 0.0403770187 -0.0335215077
565296610.0 0.0398415286 -0.0334161475 0.2989397729 -0.7372486115 0.2991089492 -0.7366308933 0.0404477102 -0.0340797724
570296580.0 0.0393142784 -0.033651095 0.2900340196 -0.7399039492 0.2907948825 -0.7406194832 0.0396254761 -0.034949573
575296550.0 0.0391770957 -0.0342829383 0.2826307577 -0.7436242969 0.2830930318 -0.7429540525 0.0394763612 -0.0351776038
580296520.0 0.0389578886 -0.0344141451 0.2743616263 -0.7466358374 0.2744911434 -0.7470945649 0.0383266881 -0.0354155343
585296490.0 0.0384567186 -0.0345642745 0.2669061893 -0.7497656303 0.2663563834 -0.7491474485 0.0387845987 -0.0353172926
590296460.0 0.0387470482 -0.0350101609 0.2582525999 -0.7522959014 0.2582832775 -0.7526907784 0.0373722205 -0.0361258868
595296430.0 0.0379624329 -0.0355813437 0.2491461451 -0.7547752331 0.2495037607 -0.7554697117 0.0376117968 -0.037069572
600296400.0 0.0376262418 -0.0357102717 0.2410769289 -0.7577523989 0.2413476106 -0.7579132521 0.0373539585 -0.0370726637
605296370.0 0.0365312743 -0.0359886151 0.2334049028 -0.7602558797 0.2328754088 -0.7603866689 0.0363748306 -0.0373949042
610296340.0 0.0365357796 -0.0357734943 0.2246253275 -0.7623580194 0.22517356 -0.7627054287 0.0356464462 -0.0374412278
615296310.0 0.0363866428 -0.036450842 0.2167044402 -0.7653617346 0.215990446 -0.7653611824 0.0355288659 -0.0376306978
620296280.0 0.0350580748 -0.0361744259 0.207972481 -0.767500548 0.2079165789 -0.7671940336 0.0347227582 -0.0380342922
625296250.0 0.0348482035 -0.036644034 0.199288958 -0.7698154893 0.1998664956 -0.769974685 0.0336084921 -0.0385139187
630296220.0 0.0344502693 -0.0367743257 0.1906930077 -0.7721694476 0.1912584966 -0.7720881991 0.033789104 -0.0388753818
635296190.0 0.0333614451 -0.0367980793 0.1825351723 -0.7736928749 0.1828637913 -0.7738036271 0.033184305 -0.0390123906
640296160.0 0.0328883004 -0.037220999 0.1740449424 -0.7761713962 0.1742845718 -0.776224861 0.0321320326 -0.0396930096
645296130.0 0.0329711248 -0.0370325749 0.1655904504 -0.7778549049 0.1662374941 -0.7778980885 0.031716064 -0.0404143917
650296100.0 0.0322768186 -0.0374187321 0.1572872158 -0.7801221908 0.1572284631 -0.7798246969 0.0321096006 -0.0404841613
655296070.0 0.0317665537 -0.0375759597 0.1482127176 -0.7816441749 0.1487029757 -0.780913442 0.0305812009 -0.0403321023
660296040.0 0.0311390823 -0.0375655202 0.140312644 -0.7825455769 0.1402684491 -0.7829744942 0.0303679062 -0.0411998146
665296010.0 0.0307856671 -0.0378508909 0.1310503517 -0.783558437 0.1313635929 -0.7840020951 0.0296570818 -0.0410335253
670295980.0 0.0304590379 -0.0380285169 0.1227459076 -0.7859896491 0.1227324486 -0.7848942422 0.0284937995 -0.0418092717
675295950.0 0.0292965073 -0.0380641169 0.1141961638 -0.786794319 0.1146639631 -0.7871071103 0.0280345434 -0.0413231997
680295920.0 0.028881744 -0.0380776599 0.1063559747 -0.7879480883 0.106277258 -0.7877485966 0.0276823555 -0.0420018593
685295890.0 0.0287663395 -0.0379632895 0.0969634322 -0.789597158 0.0976795828 -0.7894086329 0.0271808871 -0.0415405625
690295860.0 0.0275244049 -0.0379400809 0.0883540104 -0.7899716255 0.0883686726 -0.7905483952 0.026366863 -0.04218718
695295830.0 0.0272983473 -0.0388664522 0.0805503053 -0.7914955224 0.0802451805 -0.7908882556 0.0257569599 -0.0419471171
700295800.0 0.026820347 -0.0383552115 0.0722702983 -0.7920591959 0.0714741565 -0.7919076878 0.0254359549 -0.0421886027
705295770.0 0.0259722878 -0.0383870777 0.0629190328 -0.7931788471 0.0630509523 -0.7921991691 0.0245772034 -0.0418183369
710295740.0 0.0255397072 -0.0386986169 0.0544312875 -0.793767125 0.0545634372 -0.7936148862 0.024140647 -0.0421552165
715295710.0 0.0249524 -0.0381676768 0.0463536308 -0.7940824168 0.0458953047 -0.7940154925 0.0233312156 -0.0426482689
720295680.0 0.0247097743 -0.0384192145 0.0370129732 -0.7936891716 0.0369567434 -0.7946520766 0.0225530136 -0.0429274155
725295650.0 0.0232503023 -0.0380844305 0.0289362693 -0.7943068057 0.028625976 -0.7944328804 0.0216280882 -0.0422116225
730295620.0 0.0223283849 -0.0388342495 0.0196041697 -0.7948625647 0.0197693557 -0.793890935 0.0211589182 -0.0419233307
735295590.0 0.0224202012 -0.038494568 0.0110420627 -0.795168144 0.0114512727 -0.7952370408 0.0201125109 -0.0431633917
740295560.0 0.0218490211 -0.0392314114 0.0022190936 -0.7953583335 0.0026896929 -0.7952253033 0.0192107815 -0.0424073627
745295530.0 0.0208203756 -0.0387721769 -0.0058278992 -0.7939665649 -0.0049347567 -0.7945359364 0.0181669983 -0.0429223975
750295500.0 0.0201603438 -0.038626318 -0.0143497014 -0.7943742557 -0.0147539908 -0.7945948313 0.0180194333 -0.0428118439
755295470.0 0.0192490725 -0.0383673617 -0.0229955544 -0.7952047097 -0.0230873229 -0.7951536928 0.0177762403 -0.0421918828
760295440.0 0.0190280673 -0.037888576 -0.0323158298 -0.7942511727 -0.0320122376 -0.7936567766 0.0172509907 -0.0437133442
765295410.0 0.0186117777 -0.0385861066 -0.0403986578 -0.793699824 -0.0405734851 -0.7942458216 0.0161344355 -0.0428007497
770295380.0 0.0178591124 -0.0381439862 -0.0488298733 -0.7929454409 -0.0489566839 -0.7934189946 0.0152404337 -0.0428895139
775295350.0 0.0171648946 -0.03843216 -0.0573667317 -0.7930013524 -0.0571163597 -0.7926951765 0.0152774871 -0.0423705944
780295320.0 0.0163944503 -0.0381432984 -0.0659628264 -0.7916394401 -0.065789135 -0.7920302619 0.0148355373 -0.0428576412
785295290.0 0.0157149189 -0.0383960961 -0.0745216847 -0.791627773 -0.0743272758 -0.7913293844 0.0132496377 -0.0419679528
790295260.0 0.0155433746 -0.0387505353 -0.0828270939 -0.7903911043 -0.0826360967 -0.7908582026 0.0126521743 -0.0417236384
795295230.0 0.0146635754 -0.0385519143 -0.0917061693 -0.7904532419 -0.0916866996 -0.7896788361 0.012280365 -0.0428862519
800295200.0 0.0135764674 -0.0378268285 -0.1000469384 -0.7877415999 -0.1001434731 -0.7884849286 0.0115927553 -0.0422275069
805295170.0 0.0128774423 -0.0382970543 -0.1089703075 -0.7874065142 -0.1083434667 -0.7874484493 0.0116929013 -0.0420954287
810295140.0 0.0127833382 -0.0380611404 -0.1173787122 -0.7856131908 -0.1171092984 -0.7856720196 0.0106176081 -0.0421578333
815295110.0 0.0118659924 -0.0375506507 -0.1258904152 -0.7841140755 -0.1258464442 -0.7851547478 0.0094624169 -0.0420580813
820295080.0 0.011458271 -0.0377329062 -0.133667362 -0.7829082691 -0.1335970471 -0.7834865834 0.0083906621 -0.0409336589
825295050.0 0.0103586097 -0.0379862942 -0.1427329317 -0.7817760523 -0.143003398 -0.7813547546 0.0090493188 -0.0408420941
830295020.0 0.0096780712 -0.0378690358 -0.1510469994 -0.7801150185 -0.1513023693 -0.7801616677 0.0080522211 -0.0419051686
