!Created with skrf (http://scikit-rf.org).
# Hz S RI R 50.0 
!freq ReS11 ImS11 ReS21 ImS21 ReS12 ImS12 ReS22 ImS22
300000.0 -0.0486710478 -0.0701061816 -0.0004229344 0.0008441049 -0.0003175703 0.0010432072 -0.7634905716 -0.1812253098
5299970.0 -0.0502856665 0.0144772952 0.0001786683 -5.33028e-05 0.0002862927 2.87536e-05 -0.7850531694 -0.0089944695
10299940.0 -0.0444771339 0.032861317 0.0001116052 0.0002282785 -2.35007e-05 5.2859e-05 -0.7877845448 -0.0051569756
15299910.0 -0.0357128608 0.04732496 8.64315e-05 -4.39712e-05 -4.81695e-05 1.33885e-05 -0.7933951886 -0.0023859382
20299880.0 -0.0256980242 0.0593449667 4.46998e-05 0.0001627529 0.0001062809 -0.0001729584 -0.7998468794 0.001504644
25299850.0 -0.0142944746 0.0686487261 1.87296e-05 0.0001356298 5.4167e-06 -1.9017e-06 -0.8064280849 0.0081566654
30299820.0 -0.0027616848 0.0753310383 -0.0001938838 0.0001462412 -4.49175e-05 1.53627e-05 -0.8120348054 0.0157602474
35299790.0 0.0091727987 0.0798438229 2.45132e-05 -4.94917e-05 0.0001919645 -5.00025e-05 -0.8169863959 0.0250712416
40299760.0 0.0205952406 0.0826835275 0.0003008939 0.0002139071 0.0001297342 0.0001065281 -0.8214846949 0.0340169258
45299730.0 0.031367454 0.083721262 6.02376e-05 4.4216e-05 5.43926e-05 0.0001175252 -0.8243152743 0.0439849822
50299700.0 0.0415882429 0.083632424 0.00023118 0.0001101815 0.0001483386 -5.74577e-05 -0.8268830507 0.053859842
55299670.0 0.0509816422 0.0826670069 -7.24263e-05 -9.31361e-05 0.0001627839 -7.24673e-05 -0.8290679354 0.0639435847
60299640.0 0.0597698684 0.0806048666 -6.91969e-05 0.0001579335 0.0002491903 0.0001254856 -0.8300385793 0.0740924244
65299610.0 0.0678299642 0.0782068221 0.0002209261 0.0001229188 8.14029e-05 0.0001732134 -0.8307970227 0.0837505334
70299580.0 0.0744209191 0.0747929898 1.03413e-05 -8.76458e-05 -5.80089e-05 -0.0001717579 -0.8314237809 0.0933438674
75299550.0 0.0809798679 0.0718471082 -1.02055e-05 0.0001224475 6.85538e-05 1.91332e-05 -0.8310123627 0.1038390902
80299520.0 0.0868661612 0.0678398458 -0.0002667925 0.0002865477 0.0001112325 -1.83835e-05 -0.8309374574 0.1140877175
85299490.0 0.0919056001 0.0638695964 -3.03087e-05 -0.0001897357 -9.18586e-05 -2.7706e-05 -0.8299511514 0.1234144664
90299460.0 0.0969625126 0.0600039689 5.22194e-05 0.0001159439 1.92524e-05 -6.69504e-05 -0.8291850012 0.1327869091
95299430.0 0.1008939977 0.056146637 -2.49678e-05 1.34328e-05 3.3541e-06 1.19601e-05 -0.8283792946 0.1430581977
100299400.0 0.1045799451 0.0521527985 -0.000205082 0.0001879937 2.31212e-05 4.63535e-05 -0.8272084491 0.1517449394
105299370.0 0.1080642587 0.0480435074 0.000153448 -0.0001397383 -0.0001961314 0.0002003134 -0.8260577421 0.1608401725
110299340.0 0.1110756537 0.0437305359 -0.0002094468 -0.0001226898 -2.69227e-05 5.23436e-05 -0.8244480335 0.1698943237
115299310.0 0.113292212 0.0401709785 0.0002109891 5.34402e-05 5.97098e-05 -5.14606e-05 -0.8233102712 0.1788646396
120299280.0 0.1156030508 0.0362036906 0.0001003791 0.0002430973 0.0001456802 9.6042e-06 -0.8210830242 0.1884344915
125299250.0 0.1175421556 0.0319722057 0.0001604155 0.0002838757 -3.8552e-06 0.0001241923 -0.8200415919 0.1972883048
130299220.0 0.1192248938 0.0279590561 5.29438e-05 0.0001401857 -1.9867e-05 -2.56225e-05 -0.817690712 0.2058530336
135299190.0 0.1209429228 0.0244357942 0.0001431285 0.0001305626 1.40762e-05 7.4292e-05 -0.8163675031 0.2151917153
140299160.0 0.1220554584 0.0208278358 -6.20379e-05 7.74557e-05 -5.69568e-05 8.1433e-05 -0.8142987512 0.2235788088
145299130.0 0.1232910145 0.0174693761 -0.0001089892 0.0002140085 -0.0001342642 0.0002951021 -0.8122065258 0.2325469879
150299100.0 0.1241472143 0.0138929756 0.0002049564 -0.0001250776 3.36294e-05 -0.0001345091 -0.810117104 0.2414806959
155299070.0 0.1250497871 0.0106360306 8.35684e-05 -0.0001329416 -0.0001318873 0.0001354453 -0.8069745631 0.2509063234
160299040.0 0.1254501938 0.0073239167 8.80469e-05 0.0001631938 -3.8428e-06 7.38824e-05 -0.8049381932 0.2591552329
165299010.0 0.1260520707 0.004152103 -2.65397e-05 -0.0002352728 0.0001662325 -1.583e-05 -0.8021779545 0.267572145
170298980.0 0.126481926 0.0005979831 -4.8212e-06 7.31107e-05 -0.0001436065 -7.63054e-05 -0.7994823585 0.2756061489
175298950.0 0.126568204 -0.0021735808 -7.68524e-05 8.43801e-05 -0.0001640415 -0.0002270106 -0.7966022518 0.2851386844
180298920.0 0.1267205541 -0.005253113 -9.55569e-05 -6.82807e-05 0.0001157222 8.18813e-05 -0.793722132 0.293483442
185298890.0 0.1268535562 -0.0081258176 0.0002223718 -8.51391e-05 5.93253e-05 9.37292e-05 -0.7904242631 0.3017603699
190298860.0 0.1269601143 -0.0109854065 7.24746e-05 0.0003489835 1.7892e-05 7.42362e-05 -0.787206285 0.3099980636
195298830.0 0.1270100541 -0.0138274384 8.1862e-05 1.50515e-05 -9.9914e-05 0.000194383 -0.7842820729 0.3180620546
200298800.0 0.126871456 -0.0167341112 5.82743e-05 -8.29003e-05 4.52597e-05 0.0001890364 -0.7810974959 0.3269449228
205298770.0 0.1261522786 -0.0192922857 0.0001879218 0.0001458571 4.2251e-05 0.0001231495 -0.7778907448 0.3351117001
210298740.0 0.1261639431 -0.0218307805 0.000104673 -0.0001592417 -0.0001319938 -7.8147e-06 -0.7743814734 0.3432699982
215298710.0 0.1253537498 -0.0245414876 -1.16427e-05 5.47395e-05 0.0001164719 0.0001112976 -0.7706544479 0.3514000064
220298680.0 0.1253375684 -0.0270287523 0.0002341372 -0.000125843 -6.12519e-05 3.08736e-05 -0.7665267269 0.3590217671
225298650.0 0.1246788741 -0.0293594234 -7.42813e-05 1.71533e-05 6.39643e-05 -6.40301e-05 -0.7628910173 0.3676601943
230298620.0 0.1240617805 -0.0314278652 7.26122e-05 1.27244e-05 -0.0002247578 -6.24342e-05 -0.7593245398 0.3755487891
235298590.0 0.12359271 -0.0339096014 -0.0002060379 0.0002831309 0.0001075588 9.2015e-06 -0.7552724252 0.3830214695
240298560.0 0.1225015355 -0.0360893649 0.0001008889 0.000110209 7.09513e-05 5.69383e-05 -0.7512941271 0.3909215278
245298530.0 0.12202415 -0.038636683 -6.0853e-06 -8.01014e-05 0.0001100353 -4.39965e-05 -0.7477341233 0.3990665818
250298500.0 0.121179204 -0.040622409 4.97877e-05 -0.000206642 0.0002357135 -0.0001100008 -0.7430479693 0.4072639536
255298470.0 0.1203655749 -0.0424284929 1.30954e-05 9.96767e-05 0.0001826771 4.51272e-05 -0.7390290143 0.4144698419
260298440.0 0.1196793137 -0.0449081013 -0.0001125557 8.2357e-05 7.67393e-05 -1.39193e-05 -0.7345006141 0.4215791974
265298410.0 0.1185368031 -0.0466051125 -1.9353e-05 -2.72029e-05 0.0002916198 2.37268e-05 -0.7301474348 0.4302201037
270298380.0 0.1176723328 -0.0489569375 1.89171e-05 -5.20006e-05 -5.8444e-06 4.85774e-05 -0.7250333391 0.4382391489
275298350.0 0.1168817652 -0.0506761221 5.54026e-05 6.40754e-05 0.0001447692 7.57344e-05 -0.7203276434 0.4452337715
280298320.0 0.1157329126 -0.0526994017 -6.116e-06 -8.45478e-05 4.83901e-05 -2.86192e-05 -0.7165441538 0.4531171539
285298290.0 0.1150301233 -0.0546753607 8.7452e-05 0.0001434293 5.00406e-05 0.0001205622 -0.7119903878 0.4603757726
290298260.0 0.1138364471 -0.0563917211 -3.33381e-05 4.2945e-05 -3.5702e-05 -5.65801e-05 -0.706609059 0.467625997
295298230.0 0.1126957685 -0.0585102342 8.36835e-05 0.0001398362 4.58351e-05 0.0001525192 -0.7017456821 0.4748232821
300298200.0 0.1118712939 -0.0604137947 2.9546e-05 6.14607e-05 0.0001145971 0.0002693312 -0.6969448104 0.4822293806
305298170.0 0.1108046574 -0.0625943431 0.0001256392 8.93353e-05 5.4285e-06 1.27717e-05 -0.6913680586 0.4899333222
310298140.0 0.1097531094 -0.0644814809 0.0002013521 0.0002641493 0.0001738433 -0.000151346 -0.6867691588 0.49666241
315298110.0 0.1081969279 -0.0664770121 7.50337e-05 -7.2886e-05 0.0001742358 1.58358e-05 -0.6814742124 0.5039035624
320298080.0 0.1071233754 -0.0681401943 1.1561e-05 7.35911e-05 2.73033e-05 0.0001140783 -0.6764427939 0.5103905733
325298050.0 0.1051752582 -0.0703951225 -2.81353e-05 -1.89255e-05 -3.79212e-05 0.0001064396 -0.670229598 0.5175515654
330298020.0 0.1035529036 -0.0716169463 -7.21943e-05 4.83096e-05 0.000192793 0.0001103582 -0.6648892944 0.5251064256
335297990.0 0.1021724731 -0.073068231 5.51197e-05 6.42753e-05 0.0001021884 7.05481e-05 -0.6593663309 0.5313422018
340297960.0 0.1005717784 -0.0745179365 5.09397e-05 0.0002417335 -1.30339e-05 5.241e-05 -0.6543651434 0.5383296843
345297930.0 0.0993331201 -0.0759353894 1.54337e-05 -0.0002080768 -1.72643e-05 -1.38695e-05 -0.6486518243 0.5449365545
350297900.0 0.098074077 -0.0775595076 3.80546e-05 -4.77279e-05 0.0001777776 0.0001114918 -0.6438628959 0.5508903255
355297870.0 0.0967229909 -0.0789922692 0.0001497385 0.0001809418 1.74363e-05 7.65894e-05 -0.6367137294 0.5585204272
360297840.0 0.095197459 -0.0801635749 6.93096e-05 -0.0001246279 8.5756e-05 0.0001333706 -0.6308731066 0.5649389562
365297810.0 0.0941817851 -0.0816637605 0.0001376714 -0.0001722117 6.63367e-05 -5.2518e-06 -0.6257499317 0.5712140072
370297780.0 0.0926000264 -0.0830701137 0.0002103471 -6.12779e-05 3.55066e-05 -7.11371e-05 -0.6192179151 0.5779040902
375297750.0 0.0910833697 -0.0842255614 1.75552e-05 -2.45568e-05 0.0001045019 -2.27164e-05 -0.613312035 0.5837923113
380297720.0 0.0895688419 -0.0852877172 3.59255e-05 7.0949e-06 0.0001021213 0.0001029944 -0.606940205 0.5904521144
385297690.0 0.0881937352 -0.086639536 6.82428e-05 -0.0001153897 0.0001833999 0.0001322577 -0.6014902484 0.5964098788
390297660.0 0.0867120126 -0.0883560356 -8.33847e-05 5.65867e-05 0.0001183992 3.82257e-05 -0.5948605269 0.6017788114
395297630.0 0.0853841606 -0.0893343976 0.0002599891 8.85875e-05 9.88603e-05 -0.0001778445 -0.5881749435 0.6078886937
400297600.0 0.0836976282 -0.090246779 0.0001335093 -3.48673e-05 2.0877e-06 4.3341e-06 -0.5827728821 0.6142361695
405297570.0 0.0820174293 -0.0918213964 8.40545e-05 9.81122e-05 -3.10169e-05 9.66433e-05 -0.5754094117 0.620101019
410297540.0 0.0812459164 -0.0929265746 0.0001319016 0.0001116171 0.0003057339 0.0001678821 -0.5691244522 0.6258892211
415297510.0 0.0793440666 -0.0940237107 -9.22428e-05 -2.47581e-05 0.0001372177 -1.55717e-05 -0.5627337936 0.6312949167
420297480.0 0.0777298805 -0.09552053 0.0001170201 1.78224e-05 6.13293e-05 0.0001489183 -0.5561576571 0.6377628001
425297450.0 0.0768533625 -0.0962649546 -8.55229e-05 0.00020036 3.57498e-05 9.46126e-05 -0.5496558477 0.6429523037
430297420.0 0.0748509807 -0.0975777049 5.87374e-05 0.0001385559 8.57971e-05 -4.24656e-05 -0.5424702365 0.6484505961
435297390.0 0.073125828 -0.0984692731 0.000227174 -5.48767e-05 -0.0001180216 0.0001394343 -0.5364694127 0.654375186
440297360.0 0.071769399 -0.099543098 5.4142e-06 5.48023e-05 -0.0001007792 0.0001486524 -0.530389625 0.6595842806
445297330.0 0.070268727 -0.1008480543 0.0001419451 8.75364e-05 8.6466e-06 0.0001795283 -0.523195085 0.6648786665
450297300.0 0.0687008892 -0.1016888386 4.2496e-05 -0.0002009531 3.46216e-05 0.000192775 -0.515557829 0.669659055
455297270.0 0.0669092816 -0.1027191499 5.3418e-05 7.90777e-05 0.0002261603 0.0001558006 -0.509119552 0.6750127621
460297240.0 0.065706523 -0.1032806809 4.6718e-05 -0.0001324705 0.0002696966 0.0001227729 -0.5020641871 0.6800828527
465297210.0 0.064399207 -0.1044713057 0.0002462906 2.59832e-05 4.39314e-05 5.00119e-05 -0.4948782588 0.6858924843
470297180.0 0.0625546084 -0.1049624416 0.0003305932 3.03188e-05 -1.2003e-06 3.94367e-05 -0.4880048008 0.6904908198
475297150.0 0.060853221 -0.1061111522 0.0001415328 0.000131382 0.0001408403 -0.0001349683 -0.4810478029 0.69538925
480297120.0 0.0596598492 -0.1068069196 0.000122334 -1.57558e-05 0.0001134371 0.0002749063 -0.4747474977 0.7001870637
485297090.0 0.0579720747 -0.107592983 4.63855e-05 3.69457e-05 0.0001891877 2.3873e-06 -0.4671067604 0.7047050109
490297060.0 0.0569061989 -0.1083196052 0.0001423435 4.9808e-05 -0.0001132068 0.0002969889 -0.4598583727 0.7092630978
495297030.0 0.0552062393 -0.1090728897 0.0002329807 -3.06298e-05 0.0003635607 -0.0001292632 -0.452067062 0.7134937304
500297000.0 0.0532568288 -0.1097975099 0.0002165457 9.00062e-05 8.78259e-05 7.76466e-05 -0.4454454553 0.7182658719
505296970.0 0.0519146628 -0.1104775375 5.27346e-05 4.57447e-05 0.0003397249 3.5748e-06 -0.4371567267 0.7228989006
510296940.0 0.0504658159 -0.111033051 3.61418e-05 6.81042e-05 0.0001105036 7.34125e-05 -0.4300681869 0.727843285
515296910.0 0.0486722142 -0.1116040049 0.0001207339 -2.50421e-05 6.74101e-05 -7.08454e-05 -0.4230369598 0.7310188843
520296880.0 0.0472070827 -0.1125257128 0.0002257229 -0.0001030978 0.0003094256 9.48514e-05 -0.414941783 0.7358776167
525296850.0 0.0456456015 -0.1130815742 5.95671e-05 0.0002053783 0.0001765163 -4.06625e-05 -0.4082725108 0.7395573851
530296820.0 0.0439711447 -0.1133408153 -2.6326e-06 -0.0001054318 0.0001031995 0.0001564213 -0.4006638822 0.7434518515
535296790.0 0.0426576384 -0.1138880282 0.0001975085 -0.0002005809 0.000158555 2.57274e-05 -0.3928907101 0.747816079
540296760.0 0.0412926801 -0.1146533574 0.000139541 -1.59145e-05 0.0003778761 3.03409e-05 -0.3846736223 0.7515463517
545296730.0 0.0391318306 -0.1147250703 3.78079e-05 -1.82899e-05 -2.096e-07 0.0001140314 -0.3773737899 0.755519651
550296700.0 0.0375046901 -0.1153069046 5.68147e-05 2.47692e-05 3.82415e-05 2.68691e-05 -0.3700348093 0.7588806454
555296670.0 0.0362062598 -0.1155363141 1.56e-08 1.98866e-05 0.0001180365 0.0001265945 -0.3621229766 0.7621851438
560296640.0 0.0348045928 -0.1159217297 3.64912e-05 6.96942e-05 0.0003402987 -2.39209e-05 -0.3547306746 0.7665441331
565296610.0 0.0327966666 -0.1161649321 9.28875e-05 -0.0002505965 0.0001227656 0.0002250006 -0.3467459596 0.7698371074
570296580.0 0.0312906441 -0.116374958 -8.06273e-05 0.000215043 3.76817e-05 6.38017e-05 -0.339040432 0.7728625511
575296550.0 0.0297167246 -0.1168832977 0.0002307975 2.79043e-05 -9.51269e-05 -0.0001193862 -0.330975421 0.7764143824
580296520.0 0.0281556683 -0.1167667048 0.0002476521 0.0001364563 -0.0001067445 -1.28859e-05 -0.3236393573 0.7792850581
585296490.0 0.0264465953 -0.1171781704 0.0003551959 3.49395e-05 0.0003107775 -9.69651e-05 -0.3150895479 0.7828711851
590296460.0 0.025102346 -0.1172140438 0.0002001903 7.49214e-05 0.0001672528 -6.10467e-05 -0.307421126 0.7860869913
595296430.0 0.0232009958 -0.1172861338 0.0001632431 6.84707e-05 8.2463e-06 -2.50529e-05 -0.2998419769 0.788566891
600296400.0 0.0217531551 -0.1175386798 4.76596e-05 5.2242e-06 0.0002842015 5.26923e-05 -0.2919814317 0.7916193948
605296370.0 0.0197414804 -0.1175151989 -4.02077e-05 6.4329e-05 -1.50758e-05 -2.68586e-05 -0.2839964992 0.795219137
610296340.0 0.0186110678 -0.1176885551 8.60114e-05 -0.0001875849 0.0001206064 0.0002178905 -0.275745566 0.7978292598
615296310.0 0.016849501 -0.1177590096 6.64548e-05 1.0353e-06 0.0001508459 0.0001631572 -0.2671715708 0.8007270528
620296280.0 0.0152371191 -0.1171943884 8.0963e-06 -4.46352e-05 9.52894e-05 0.0001314221 -0.2599066927 0.8030151545
625296250.0 0.01335751 -0.1175535437 0.0001768084 5.91497e-05 0.0003333707 5.71434e-05 -0.2515014985 0.8051322756
630296220.0 0.0118450182 -0.1171298947 0.0001456364 -0.0001856804 8.52195e-05 1.16072e-05 -0.2432693573 0.8082666383
635296190.0 0.0100498517 -0.1171951022 5.30098e-05 0.0001434518 8.46298e-05 8.32472e-05 -0.2353333942 0.8097172101
640296160.0 0.0085147276 -0.1173121107 0.0002076013 -5.51285e-05 -9.37313e-05 -0.0001498965 -0.2275321837 0.8124822179
645296130.0 0.0073079315 -0.1169438555 0.0001077433 -7.85764e-05 9.44583e-05 -0.0001128526 -0.2192605324 0.814167376
650296100.0 0.0051819441 -0.1170713795 0.0002193525 1.80107e-05 -2.4556e-05 8.6044e-05 -0.2105409283 0.8169049406
655296070.0 0.0039020436 -0.1166607833 -8.76806e-05 9.57514e-05 6.40466e-05 7.73675e-05 -0.2027140115 0.818964868
660296040.0 0.0016519719 -0.1162729764 0.0001569143 0.0001323937 7.94993e-05 -0.0001482235 -0.1940291356 0.8209892519
665296010.0 0.0002582865 -0.1162214546 0.0001593337 -0.0001487168 0.0001091071 -0.0001803469 -0.186104013 0.8224729497
670295980.0 -0.0012856053 -0.1159283864 0.0002984883 -5.8602e-06 0.0002675717 2.56667e-05 -0.1781745728 0.8243217266
675295950.0 -0.0031859683 -0.1156950676 6.26767e-05 -0.0002076583 0.0002314144 -0.0001180683 -0.1694561127 0.8260940651
680295920.0 -0.0050145618 -0.1149526103 0.0003047088 3.89885e-05 0.0001933587 -9.60324e-05 -0.1613038632 0.8277570857
685295890.0 -0.0064672978 -0.1149002974 0.0001926277 -4.41055e-05 0.0001354723 -1.44908e-05 -0.153226988 0.8300290313
690295860.0 -0.0081092718 -0.114750622 0.0001882452 -0.0002834538 0.0001219007 -0.0001022382 -0.1449338389 0.830968935
695295830.0 -0.0097895377 -0.1140851775 3.92201e-05 -2.09451e-05 0.0002373817 0.0001775977 -0.1369205284 0.8325944514
700295800.0 -0.0115220979 -0.1136434988 2.86429e-05 -0.0001405955 8.88448e-05 -5.46573e-05 -0.1279667234 0.8332809684
705295770.0 -0.0130383783 -0.1134952743 0.0001880334 -5.02661e-05 9.62937e-05 -0.0001341539 -0.1197949527 0.8352223739
710295740.0 -0.01500793 -0.112957266 9.60247e-05 2.66359e-05 1.73173e-05 4.24599e-05 -0.1116981679 0.8364283432
715295710.0 -0.0161987109 -0.1125708839 0.0003056982 -0.0001594553 0.0001658536 6.71842e-05 -0.1027921512 0.8366267974
720295680.0 -0.018209327 -0.1121101648 -4.93838e-05 5.94959e-05 0.0002022069 0.0001369194 -0.0945554181 0.8380303405
725295650.0 -0.0199513529 -0.1114890889 0.000306419 8.12799e-05 0.0004008756 0.0001039023 -0.086738799 0.8390070616
730295620.0 -0.0216391961 -0.110919018 0.0003264834 -0.0001404809 0.0002329971 3.36073e-05 -0.0786380773 0.8397383091
735295590.0 -0.0232312862 -0.110392672 0.0002056814 0.0001780847 0.0003390073 -0.0001225747 -0.0690664256 0.8402157558
740295560.0 -0.0251861973 -0.1100870259 0.0001295608 -4.57451e-05 0.0001740465 -6.14601e-05 -0.0612526627 0.841844744
745295530.0 -0.0265512208 -0.1093919912 0.0002623624 -2.12506e-05 8.52349e-05 -0.0001253288 -0.0533165887 0.8413308203
750295500.0 -0.0281907685 -0.1086578936 0.0001167214 -0.0002036943 8.61739e-05 6.99901e-05 -0.0445804013 0.8422354902
755295470.0 -0.0300039117 -0.1080837356 0.0003528253 -0.0001669888 0.0001762306 3.50147e-05 -0.0367617448 0.8427667828
760295440.0 -0.0318906574 -0.1073553751 0.0001081613 -5.80756e-05 6.8729e-05 -7.63445e-05 -0.027438795 0.8427563216
765295410.0 -0.0330214907 -0.1069425554 0.0003422785 8.13552e-05 0.0001995426 -0.0001236494 -0.0194683461 0.8438148694
770295380.0 -0.0349003386 -0.1061828815 0.0001968963 -1.46007e-05 0.0001640254 -0.0001330323 -0.0113444936 0.8433036697
775295350.0 -0.0364064438 -0.1052952083 3.69337e-05 -0.0001157096 0.0001137973 7.39536e-05 -0.0030405604 0.8431614205
780295320.0 -0.0381194015 -0.104587263 7.62684e-05 -0.0001976862 0.0001420442 4.37158e-05 0.0057274215 0.8432198838
785295290.0 -0.0399942127 -0.1040742361 0.0001157062 -0.0001870015 0.0001168768 -1.68205e-05 0.013297822 0.8434357762
790295260.0 -0.041382437 -0.103531653 0.0001377198 2.15347e-05 0.0001882295 -0.0001422048 0.0222076911 0.8432138011
795295230.0 -0.0428991949 -0.1027507036 0.0001584702 -0.0001054507 0.0001471164 6.5202e-05 0.030154183 0.842313293
800295200.0 -0.044550246 -0.1020050612 0.0003722121 -0.0001402238 1.85171e-05 0.0001454407 0.0385796554 0.8421804859
805295170.0 -0.046204146 -0.1010624364 0.0001646015 -4.93041e-05 5.96308e-05 -0.0001018215 0.0476724758 0.8421661481
810295140.0 -0.047410546 -0.1002469948 0.0002587551 -0.000213657 0.0002436634 -0.0002291465 0.0561879332 0.8410485821
815295110.0 -0.0493569079 -0.0997157508 0.0004050098 8.53649e-05 -1.02661e-05 -0.0001509188 0.0635349322 0.8407253201
820295080.0 -0.0508054115 -0.0988212738 0.0002101984 -0.0001330077 0.0002438709 -0.0001529508 0.0721793894 0.8402383151
825295050.0 -0.0525762363 -0.0979947987 4.05833e-05 1.08405e-05 0.0003001259 -0.0002872489 0.0808274126 0.8395755779
830295020.0 -0.0541340909 -0.0972925472 0.0001144221 3.86018e-05 7.1812e-05 5.3828e-05 0.0882302848 0.8382443996
835294990.0 -0.0553490399 -0.0965539739 8.38079e-05 -0.0001234892 2.52435e-05 -5.92785e-05 0.097364661 0.8375486952
840294960.0 -0.0568455297 -0.0956628688 9.10645e-05 5.46575e-05 0.0002405669 -8.56657e-05 0.1063467492 0.8365761432
845294930.0 -0.0587237071 -0.0941780293 0.0003995252 -1.24646e-05 0.0001616722 -0.000114927 0.1142852548 0.8356127599
850294900.0 -0.0597143964 -0.0940378761 8.82547e-05 -0.0002021284 0.0001157606 -7.76579e-05 0.1216801892 0.8345288018
