!Created with skrf (http://scikit-rf.org).
# Hz S RI R 50.0 
!freq ReS11 ImS11 ReS21 ImS21 ReS12 ImS12 ReS22 ImS22
300000.0 -0.2428863841 -0.0928818048 0.4718892351 0.0624152432 0.470810319 0.0598358332 -0.2373544555 -0.101337625
5299970.0 -0.2451328698 0.0064321222 0.4750250271 0.0051462852 0.474906825 0.0050533945 -0.2412545594 0.0075592913
10299940.0 -0.2416194433 0.0181782802 0.4766026468 0.0059908335 0.47684222 0.006183442 -0.2377783749 0.0206191662
15299910.0 -0.2374118026 0.0267292249 0.4803393914 0.0076179454 0.4807489876 0.0074866429 -0.2332325603 0.0299434686
20299880.0 -0.2327936638 0.0338503769 0.4851419789 0.008211594 0.4848921466 0.0079340513 -0.227853307 0.0380300869
25299850.0 -0.2277535472 0.0403637429 0.4902132096 0.0069508991 0.4900606578 0.0073505898 -0.2217514517 0.0444007391
30299820.0 -0.2223246712 0.0450645183 0.4956189501 0.0046408408 0.4955031889 0.0050661259 -0.2161603777 0.0502471059
35299790.0 -0.2173054607 0.049082051 0.5007380616 0.001241873 0.5010108141 0.0013257185 -0.2106763399 0.0543822041
40299760.0 -0.2127233418 0.0524938697 0.5059150781 -0.0024498042 0.5061438706 -0.0021180365 -0.2051317359 0.0574498992
45299730.0 -0.2078354663 0.0546426317 0.5100064901 -0.0068083083 0.5108675501 -0.0066931286 -0.2001428748 0.0604542212
50299700.0 -0.204076555 0.0566862848 0.5151073908 -0.0122218859 0.5148983937 -0.0123572576 -0.1954843415 0.0624843214
55299670.0 -0.2000744017 0.058526718 0.5188404663 -0.0188910494 0.518512511 -0.0183417271 -0.1914232102 0.0641944488
60299640.0 -0.1958380466 0.0599973334 0.5218340979 -0.0250400351 0.5220803396 -0.0246288797 -0.1873731557 0.0653270888
65299610.0 -0.19297796 0.0610388896 0.5245307842 -0.0312163953 0.5249739515 -0.030900136 -0.1841920631 0.0666418507
70299580.0 -0.189941734 0.0622049831 0.527118434 -0.0378966272 0.5271226514 -0.0377753493 -0.1806882382 0.0675146778
75299550.0 -0.1870862679 0.0631181378 0.5288603238 -0.0446933963 0.5287670884 -0.0442559956 -0.1781969256 0.0681275898
80299520.0 -0.1848003173 0.0637299579 0.5309747019 -0.0514398246 0.5309692733 -0.051234333 -0.1750035227 0.0690909989
85299490.0 -0.1824632081 0.0642998311 0.5320657174 -0.0581233941 0.5322615423 -0.0578436395 -0.1730601997 0.0696005293
90299460.0 -0.1803955118 0.0649109396 0.5326240741 -0.0652654102 0.5333152667 -0.0651265839 -0.1703311395 0.0705980648
95299430.0 -0.178324105 0.0651833759 0.5340681883 -0.0719088094 0.534151732 -0.072353942 -0.1681827996 0.0713660015
100299400.0 -0.1766912025 0.0661945631 0.533779627 -0.078878724 0.534137791 -0.0790938584 -0.1661112156 0.0716957225
105299370.0 -0.1748837751 0.06677402 0.5341978131 -0.0860959386 0.5351487434 -0.085987855 -0.1640941727 0.0722333334
110299340.0 -0.1734855028 0.0674548898 0.5350645497 -0.0928077106 0.5344951001 -0.0927735569 -0.1629962258 0.0729189896
115299310.0 -0.1717708846 0.0681884562 0.5345268055 -0.0993792808 0.534552353 -0.0994602314 -0.1609798251 0.0734258092
120299280.0 -0.1706299999 0.0683445234 0.5347045813 -0.1063036489 0.5346584331 -0.1059682004 -0.159463682 0.0745088904
125299250.0 -0.1695573843 0.0692797785 0.5340076699 -0.1126731953 0.5342154103 -0.1126972405 -0.1587630895 0.0750587883
130299220.0 -0.1686133633 0.0701901681 0.5334183818 -0.1199419859 0.5332310325 -0.1196634434 -0.1570271476 0.0758780219
135299190.0 -0.1675543369 0.0712897448 0.5329123884 -0.1266182712 0.5326684734 -0.1260931769 -0.1555938695 0.0767316841
140299160.0 -0.1663922958 0.0720105293 0.5318092355 -0.1333488362 0.5320402397 -0.1330327714 -0.1545215351 0.0781220459
145299130.0 -0.1654141304 0.0728321251 0.5314053978 -0.1395961714 0.530645818 -0.1394648632 -0.1534243832 0.0790918364
150299100.0 -0.1643171415 0.0740476618 0.530020232 -0.145702486 0.5302221435 -0.1456785638 -0.1525001673 0.0802483558
155299070.0 -0.1641127319 0.0744982452 0.5291667983 -0.1530446575 0.5284991453 -0.152541639 -0.1512362518 0.0811134322
160299040.0 -0.1627760538 0.075985012 0.527209847 -0.1591181332 0.5274919274 -0.1589605928 -0.150585854 0.0823378373
165299010.0 -0.1618512184 0.0768985908 0.5259156962 -0.1657640664 0.5261151022 -0.1656510756 -0.1492840202 0.0837801273
170298980.0 -0.1614561719 0.077957673 0.5242211328 -0.1718688852 0.5245026466 -0.1718005845 -0.1483330417 0.0848972149
175298950.0 -0.1608390205 0.0788609054 0.5231492757 -0.1780065076 0.5223562962 -0.1781451129 -0.147660901 0.0858609085
180298920.0 -0.1598005106 0.0801081868 0.5205941953 -0.1845837125 0.5208295565 -0.1842487736 -0.1464784344 0.0872072504
185298890.0 -0.1587480066 0.0806996312 0.5185415189 -0.1900110113 0.5188366403 -0.1900352549 -0.1455516517 0.0888627175
190298860.0 -0.1584900371 0.0824737732 0.5172391002 -0.196993682 0.5175383388 -0.1967439941 -0.1446652217 0.0895725356
195298830.0 -0.1579599801 0.0832545863 0.5154106774 -0.2026410995 0.5154522507 -0.2025287978 -0.1437624648 0.0911148996
200298800.0 -0.1565199047 0.0845425476 0.5130146779 -0.2090199419 0.5131939766 -0.2090499782 -0.1430779129 0.0923395945
205298770.0 -0.1562494797 0.0858005565 0.5107700545 -0.2153992228 0.5107877968 -0.2149619417 -0.1418288461 0.0932987448
210298740.0 -0.1554851269 0.087244168 0.5087697738 -0.2209662147 0.5083612575 -0.2206173747 -0.1407177995 0.0951114648
215298710.0 -0.1550297675 0.0884987256 0.5065968746 -0.2272764465 0.5064238504 -0.2270529167 -0.1404870589 0.0964041273
220298680.0 -0.1540201325 0.089195466 0.503737445 -0.2327656989 0.5037033926 -0.2326767557 -0.1397305426 0.0978239672
225298650.0 -0.1530610245 0.090728824 0.5009366282 -0.2385332947 0.5018704808 -0.238560345 -0.1385766815 0.0988780839
230298620.0 -0.1523863098 0.0923534834 0.4991536673 -0.2441574146 0.4995394829 -0.2442448576 -0.1381498341 0.0999321444
235298590.0 -0.1516742341 0.0937763 0.4962078599 -0.2502539933 0.4966634602 -0.2496502307 -0.1369120617 0.101486442
240298560.0 -0.1512697854 0.0950000529 0.4940300671 -0.2560486051 0.4932884957 -0.2560151109 -0.1357800631 0.1032385294
245298530.0 -0.1505334951 0.0962446598 0.4911527771 -0.2616059177 0.4911387046 -0.2618220342 -0.1347537159 0.1041844704
250298500.0 -0.1493105162 0.0977525988 0.4879575167 -0.2675852725 0.4876810121 -0.266854771 -0.1338551076 0.1054855735
255298470.0 -0.1485804607 0.0985198015 0.4847403465 -0.2723758525 0.4851797772 -0.272764521 -0.1325285393 0.1070395224
260298440.0 -0.1479522831 0.0997201158 0.4819620183 -0.2783428549 0.482212413 -0.2780760987 -0.1314337531 0.1085112624
265298410.0 -0.1466225387 0.1020109188 0.4788026934 -0.283975264 0.4794299442 -0.2833852565 -0.1303938375 0.1097538564
270298380.0 -0.146037711 0.1029332573 0.4762063141 -0.2892522433 0.4762024153 -0.2891533826 -0.1292758361 0.1109724756
275298350.0 -0.1449822483 0.1044475017 0.4727322225 -0.2948261594 0.4730503094 -0.2945919265 -0.128163086 0.1122868094
280298320.0 -0.1438573451 0.1061195551 0.4698843997 -0.3003438349 0.4696705386 -0.2998343444 -0.1268356542 0.113777874
285298290.0 -0.1427400197 0.1071202175 0.4664082699 -0.3049226753 0.4663549102 -0.3053291516 -0.1258034703 0.1149938654
290298260.0 -0.1418387247 0.1085290729 0.4632765444 -0.3103122147 0.4632164597 -0.3105432755 -0.1244418246 0.1165870929
295298230.0 -0.1408637377 0.1097565525 0.4597775843 -0.3156505472 0.459604097 -0.3156420059 -0.122621426 0.1175051548
300298200.0 -0.140249619 0.1109548333 0.4565136433 -0.3209425511 0.4566045804 -0.3210723842 -0.1218326421 0.1191100811
305298170.0 -0.1390361321 0.1121356861 0.4525562106 -0.3265878931 0.4526807162 -0.3262328068 -0.120015974 0.1204132293
310298140.0 -0.1379962413 0.1137806002 0.4494731529 -0.3315748543 0.4496306999 -0.3311912439 -0.1189219311 0.1215882103
315298110.0 -0.136918236 0.114723089 0.4457713937 -0.3366838986 0.4457705897 -0.3366196621 -0.1178915322 0.1228435603
320298080.0 -0.1359634307 0.1158171817 0.4415391515 -0.3421061176 0.4421823298 -0.3416830899 -0.1165099146 0.1242236157
325298050.0 -0.1351179752 0.1171555366 0.4382103582 -0.346982949 0.4382494959 -0.3464038083 -0.1154441365 0.1252321196
330298020.0 -0.1341856624 0.11815658 0.4339581463 -0.351721372 0.4343425717 -0.3517436378 -0.1145951979 0.1268585314
335297990.0 -0.1331301625 0.1193050321 0.4298952367 -0.3564153586 0.429943713 -0.3567946072 -0.1134264368 0.1284171217
340297960.0 -0.1325756878 0.1207855006 0.4255710522 -0.3610832891 0.4256922491 -0.3613409385 -0.1116207162 0.1297045037
345297930.0 -0.1316920653 0.1227860354 0.4219331526 -0.3664586193 0.4217402513 -0.3659511462 -0.1105260868 0.130821983
350297900.0 -0.1304752707 0.1237965538 0.4172843248 -0.3710235186 0.4177017165 -0.3703253922 -0.1095323841 0.1325819488
355297870.0 -0.1295198716 0.1257482973 0.4135827056 -0.3755208719 0.4141001944 -0.3749132451 -0.1082154214 0.1339048816
360297840.0 -0.128259399 0.12683971 0.4100037759 -0.3799278868 0.410004574 -0.3794766608 -0.1068034235 0.135361261
365297810.0 -0.1272073484 0.1284635618 0.4052383322 -0.3847452401 0.4056428992 -0.3844196819 -0.1053823919 0.1367264417
370297780.0 -0.1256712828 0.1294547477 0.4006120582 -0.3883051026 0.4012730026 -0.3883481563 -0.1039589781 0.1381812603
375297750.0 -0.1245623878 0.1308123435 0.3965706113 -0.3932368452 0.3972388638 -0.3930056323 -0.1023899577 0.1390425701
380297720.0 -0.1233957947 0.1323726247 0.3921581246 -0.3975858334 0.3924388157 -0.3969333634 -0.1013750386 0.1402867282
385297690.0 -0.1226720916 0.1337549946 0.3879916809 -0.4016511396 0.3879726128 -0.4018170607 -0.0995636364 0.1420752947
390297660.0 -0.1209570515 0.1350459573 0.3832902038 -0.4062868841 0.3835592753 -0.4053316146 -0.0982177506 0.1431969023
395297630.0 -0.119874861 0.1364089538 0.3792327692 -0.4100836672 0.379344943 -0.4101053869 -0.0965091824 0.1443611619
400297600.0 -0.1186697866 0.1378285678 0.3743419638 -0.4148000308 0.3747146814 -0.4142486485 -0.0952342476 0.1457614667
405297570.0 -0.1179109018 0.1388497938 0.3699126568 -0.4182894228 0.3700246147 -0.4178972154 -0.0939408633 0.1466817013
410297540.0 -0.1159728805 0.1399573679 0.3654838695 -0.4223587985 0.3659285832 -0.4225408426 -0.0921287573 0.1482655546
415297510.0 -0.1147271697 0.1413547131 0.3605039254 -0.4268107572 0.3610429902 -0.4262724358 -0.0905346848 0.1489754465
420297480.0 -0.1135114084 0.1427479536 0.3560101036 -0.430471817 0.3559022386 -0.4304394232 -0.0887219889 0.1501286374
425297450.0 -0.1120830519 0.143640038 0.3515743116 -0.4342582695 0.3518537828 -0.4343569079 -0.0876654567 0.1516540889
430297420.0 -0.1108128748 0.1449490253 0.3464600255 -0.4375096574 0.3470992877 -0.4374973198 -0.0857891405 0.1522812777
435297390.0 -0.1095005783 0.1460559768 0.3416021658 -0.441809963 0.3415260232 -0.4416560298 -0.0838259665 0.1534712511
440297360.0 -0.1080061547 0.1473502021 0.3370020998 -0.4451780993 0.3369174301 -0.4454051136 -0.0824162695 0.154334467
445297330.0 -0.1066572443 0.1483672975 0.3324047869 -0.4491802882 0.3323278442 -0.4487158654 -0.0807712093 0.1549984998
450297300.0 -0.1051551575 0.1493034432 0.3271270189 -0.4530154374 0.3270938831 -0.4528238109 -0.0789508565 0.1562993233
455297270.0 -0.103560523 0.1505203619 0.3220781011 -0.4558447628 0.3222727449 -0.4561070854 -0.077230411 0.1574596356
460297240.0 -0.1022973801 0.1514922749 0.3170255728 -0.4591283641 0.3172708463 -0.4598963188 -0.0754548781 0.1585845321
465297210.0 -0.1006312889 0.1527498581 0.3125398862 -0.4629001432 0.3121104218 -0.4630438556 -0.0733785298 0.158785617
470297180.0 -0.099364093 0.1538190757 0.3068309922 -0.4662790241 0.307059998 -0.4663537317 -0.0718392442 0.1604172049
475297150.0 -0.0980205084 0.1548952708 0.3017202554 -0.4695380407 0.302131002 -0.4692083059 -0.0695652084 0.1610848595
480297120.0 -0.0963458959 0.1564591896 0.2970079276 -0.4733164078 0.2967302296 -0.473102311 -0.067812734 0.1621378337
485297090.0 -0.0952067362 0.1572607271 0.2918508937 -0.4759758114 0.2919817925 -0.4756483209 -0.0661887245 0.1627209927
490297060.0 -0.0936333147 0.1585922446 0.2865701969 -0.4794800533 0.2867020375 -0.4788665234 -0.0646171273 0.1639304779
495297030.0 -0.0922570258 0.159428751 0.2808962737 -0.4824052011 0.2815828095 -0.4822510313 -0.0628549529 0.1646684396
500297000.0 -0.0904075536 0.1603336605 0.2756979625 -0.4850997321 0.2754830738 -0.4848284971 -0.0604690197 0.1664135195
505296970.0 -0.0886796948 0.1612743663 0.2704597403 -0.4881623852 0.2704563786 -0.4882431861 -0.0590252966 0.1666010501
510296940.0 -0.0871316026 0.1624987887 0.2651147673 -0.491351397 0.2651078341 -0.4914240839 -0.0567834989 0.1675786729
515296910.0 -0.08578756 0.1634920146 0.2597507356 -0.4943233988 0.2596615356 -0.4938627721 -0.0550939547 0.1682860495
520296880.0 -0.0841892925 0.164486645 0.2544698637 -0.4972288468 0.2544051368 -0.4965700046 -0.0534146087 0.168886092
525296850.0 -0.0824291932 0.1649023869 0.2486634551 -0.4992480806 0.249315353 -0.4993174378 -0.051891683 0.1699433302
530296820.0 -0.0808929708 0.1663693489 0.2434517436 -0.5024189032 0.2438742622 -0.5020412626 -0.049741853 0.1707934674
535296790.0 -0.0796124265 0.1673819246 0.2384084402 -0.5046867377 0.238330318 -0.5042033102 -0.0477191657 0.1709729823
540296760.0 -0.0779373913 0.1681020597 0.2326719183 -0.5071357142 0.2324707539 -0.507276955 -0.0464378823 0.1723455587
545296730.0 -0.0762481974 0.1690371515 0.2267634667 -0.5098544483 0.227103126 -0.5097918037 -0.0443100344 0.1729804249
550296700.0 -0.0742481876 0.1702056173 0.2212682239 -0.51200657 0.2215185851 -0.5123734638 -0.0426101589 0.1732561315
555296670.0 -0.0727640415 0.1707994207 0.2160723778 -0.5147348464 0.2163988829 -0.5143234029 -0.0404414327 0.1743704971
560296640.0 -0.0712632647 0.1717194273 0.210063902 -0.5167897559 0.2103365454 -0.5166275194 -0.0385531843 0.1748550847
565296610.0 -0.0696712227 0.1723685934 0.2045009087 -0.5187731522 0.2052337312 -0.5190759009 -0.0370752007 0.1752372461
570296580.0 -0.0683460878 0.1732519231 0.1991161418 -0.5217963751 0.1986861596 -0.5213031585 -0.0348947119 0.1765602827
575296550.0 -0.066514188 0.1743169106 0.1936902896 -0.5236660537 0.1933309796 -0.523210875 -0.032960551 0.1762626891
580296520.0 -0.064558059 0.1751067048 0.187748788 -0.5257379541 0.1878630987 -0.525308456 -0.0310485526 0.1769610768
585296490.0 -0.0633542883 0.175294593 0.1822305555 -0.5266859297 0.1820876063 -0.5273255389 -0.0290958119 0.1776096782
590296460.0 -0.060852885 0.1765583651 0.1763480909 -0.5288163073 0.17666516 -0.5288435021 -0.027700798 0.1780511478
595296430.0 -0.0593222043 0.1771144633 0.1703268611 -0.5313257151 0.1703664832 -0.5313547539 -0.0250211328 0.1780590701
600296400.0 -0.0579539101 0.1777352455 0.164919458 -0.5328242398 0.164883941 -0.532356686 -0.0234615677 0.1784510146
605296370.0 -0.0561691524 0.1785145546 0.1589665006 -0.5343536606 0.1598213491 -0.5344670737 -0.0214075304 0.1789181153
610296340.0 -0.0543084735 0.1792385873 0.1530588101 -0.5361233927 0.1532843138 -0.536260196 -0.0193765528 0.1793328656
615296310.0 -0.0521833984 0.1796658895 0.1473003914 -0.537431099 0.1471632154 -0.5382390357 -0.016956655 0.1795772592
620296280.0 -0.0507864346 0.1798749508 0.1415492081 -0.5391894792 0.141589173 -0.538950201 -0.0154602471 0.1799603005
625296250.0 -0.0493943662 0.1806957548 0.1361924695 -0.541011754 0.1358131184 -0.5410800275 -0.0125673747 0.1800070908
630296220.0 -0.0467882778 0.1816180809 0.1295600347 -0.5423433998 0.1295718242 -0.5422480736 -0.0111512427 0.1805521232
635296190.0 -0.0459438796 0.1820996495 0.1236048579 -0.5433140175 0.1240634677 -0.5437033707 -0.0085870507 0.1806908455
640296160.0 -0.0440818265 0.1825931988 0.1181819237 -0.5444100123 0.1182259462 -0.5448128323 -0.006826583 0.1810417271
645296130.0 -0.0421637517 0.1834915641 0.1121486295 -0.5456559603 0.1125624541 -0.5460729796 -0.0048529552 0.1811555958
650296100.0 -0.0402079183 0.1836356449 0.105941475 -0.5470222478 0.1067684592 -0.5469182835 -0.0024521377 0.180585562
655296070.0 -0.0387163718 0.1840405839 0.1003868735 -0.547933375 0.1005653801 -0.548164099 -0.0004079046 0.1815550575
660296040.0 -0.0372445871 0.1845954747 0.0947720991 -0.5494757585 0.0948264415 -0.5492488592 0.0017581861 0.1817355663
665296010.0 -0.0347208327 0.1848909699 0.088002088 -0.5498163969 0.0887910799 -0.5501387517 0.0036195988 0.1824276599
670295980.0 -0.0341130866 0.1857492633 0.0825041726 -0.5507984571 0.0823504478 -0.5508716736 0.0053762096 0.182131831
675295950.0 -0.03163953 0.1864413444 0.0770234843 -0.5517022894 0.0770826663 -0.5511816404 0.0072749566 0.1823647118
680295920.0 -0.0297815216 0.1865568575 0.070297957 -0.5525779826 0.0701156872 -0.5531712445 0.0099066867 0.1828386834
685295890.0 -0.0277362658 0.1874260985 0.0644780048 -0.5531478595 0.0643948872 -0.5532469194 0.0114635861 0.1827012782
690295860.0 -0.0260364938 0.1878207328 0.0586168761 -0.5536409716 0.0587186108 -0.5541107809 0.0135813128 0.1831191749
695295830.0 -0.0243344107 0.1878793677 0.053030073 -0.5541117546 0.0522083724 -0.5543439127 0.0156653574 0.1830875388
700295800.0 -0.0225751065 0.1878372585 0.0466311682 -0.5545161039 0.0468270867 -0.5546351555 0.0171238862 0.1834494105
705295770.0 -0.0208384855 0.1891245072 0.0406165272 -0.555110187 0.0410329857 -0.5553414737 0.0194913757 0.1833603671
710295740.0 -0.0187228414 0.1891344696 0.0347646319 -0.5562177349 0.0349872697 -0.5562554482 0.021241524 0.1826307017
715295710.0 -0.0172790484 0.1894136964 0.0290808619 -0.5564646605 0.0286770894 -0.5562478735 0.023440913 0.1828189247
720295680.0 -0.0150966344 0.1896768714 0.0225280149 -0.556626451 0.0232499332 -0.5564441174 0.0256695167 0.1831396188
725295650.0 -0.013188236 0.1901432249 0.0171221661 -0.5564830255 0.0171133103 -0.5565544049 0.0271159236 0.1828716155
730295620.0 -0.0114580949 0.1907092215 0.0107555016 -0.5565181541 0.011187586 -0.556807055 0.0288201081 0.1825580961
735295590.0 -0.0096107989 0.1907978293 0.0050834516 -0.5565724466 0.0050040545 -0.556596439 0.0308150338 0.1823688103
740295560.0 -0.0080581523 0.1911795229 -0.0011049735 -0.5567508755 -0.0011765171 -0.5569188791 0.0336676709 0.1822812596
745295530.0 -0.006242301 0.1913230861 -0.0073616519 -0.5564253192 -0.0074727487 -0.556451761 0.0353271187 0.1815981871
750295500.0 -0.0038145503 0.1913096981 -0.013286821 -0.5561677015 -0.0129506347 -0.5568239159 0.0372986273 0.1815950837
755295470.0 -0.0018556229 0.1915032636 -0.0189014797 -0.5561142072 -0.0190598854 -0.5563550966 0.0396782927 0.1809658126
760295440.0 -0.0004081957 0.1917209908 -0.024881361 -0.5567202861 -0.0252805252 -0.5561526747 0.0411818608 0.1805140497
765295410.0 0.0013911546 0.1920296597 -0.0312742893 -0.5555779155 -0.0314684553 -0.5558419253 0.0437097799 0.1807460882
770295380.0 0.0029830986 0.1917416893 -0.0372387737 -0.5552984862 -0.0374607315 -0.5552972639 0.0450218347 0.1800757595
775295350.0 0.0048232825 0.1916085289 -0.043358264 -0.5544470998 -0.0426435994 -0.5547657507 0.0465829438 0.1800159101
780295320.0 0.0068982037 0.1921025094 -0.0492972539 -0.5540308578 -0.048334518 -0.5540711613 0.0489867853 0.1787992369
785295290.0 0.0086097825 0.191658463 -0.0552878987 -0.5532282555 -0.0543873697 -0.5537117582 0.051758525 0.178849278
790295260.0 0.0110884735 0.1924539496 -0.0606093405 -0.5531636486 -0.0599936124 -0.552932757 0.0534814036 0.1784753175
795295230.0 0.0127653185 0.1920134311 -0.067135928 -0.5520236055 -0.0662006969 -0.5524431417 0.0554715409 0.1779440602
800295200.0 0.0142579393 0.1923021855 -0.073626984 -0.5514030817 -0.0726689113 -0.5515263143 0.0573927536 0.1774562075
805295170.0 0.0164197094 0.1920675851 -0.0790405691 -0.5508452023 -0.0788577821 -0.5507358013 0.0592090479 0.1771228327
810295140.0 0.0179077938 0.191701721 -0.0844923908 -0.5495830437 -0.0847438795 -0.5497115658 0.0619595296 0.1766936375
815295110.0 0.0198886923 0.1915326458 -0.090291798 -0.5482315706 -0.089968325 -0.5487153069 0.0636141609 0.1764172385
820295080.0 0.0215673242 0.1921756479 -0.0961050201 -0.5476457174 -0.0957351813 -0.5476850764 0.0656066932 0.1756441403
825295050.0 0.0238164828 0.1917853025 -0.1015892782 -0.546390189 -0.1023903513 -0.546554008 0.0677156568 0.1749522863
830295020.0 0.0255141833 0.1918804058 -0.1080186383 -0.5451886285 -0.1081540284 -0.5452675215 0.070265603 0.1743293933
