!Created with skrf (http://scikit-rf.org).
# Hz S RI R 50.0 
!freq ReS11 ImS11 ReS21 ImS21 ReS12 ImS12 ReS22 ImS22
300000.0 -0.2140813907 -0.0570581025 0.001793597 0.0010399803 -0.0003100614 0.0023038126 -0.7755167946 -0.1255214817
5299970.0 -0.2168174015 0.0084276778 0.0002036285 8.32553e-05 -0.0001695448 -0.000127892 -0.7844470583 -0.0071250121
10299940.0 -0.2132234029 0.0193674828 0.0001315629 -4.8873e-05 0.0001148565 -9.9613e-06 -0.7874748241 -0.0036731334
15299910.0 -0.2088021718 0.0285882241 7.85167e-05 6.23608e-05 -0.0001517454 2.6745e-06 -0.7925342107 -0.0014330851
20299880.0 -0.2033075114 0.0360785461 1.57067e-05 1.85449e-05 -7.0937e-05 -4.025e-05 -0.7992622502 0.0023168293
25299850.0 -0.1977293103 0.0422836966 -0.000223344 2.221e-06 -3.82522e-05 -4.61931e-05 -0.8061151748 0.0084423873
30299820.0 -0.1921412495 0.0467714107 0.0001420048 -1.18643e-05 0.0001585292 3.5204e-06 -0.8117197882 0.0163076858
35299790.0 -0.186201151 0.0506350244 -9.09927e-05 0.000251635 -4.94551e-05 -9.96549e-05 -0.8172547499 0.0250621671
40299760.0 -0.1807545695 0.053526266 4.35625e-05 0.0001587006 -9.26503e-05 3.04e-06 -0.8212172809 0.0346370897
45299730.0 -0.1754381689 0.0554312536 2.43863e-05 -4.59034e-05 7.32825e-05 2.4065e-06 -0.8253517715 0.0441785054
50299700.0 -0.1709145326 0.0568800876 0.0001652823 2.09862e-05 -9.17419e-05 4.16159e-05 -0.8272199061 0.0540755929
55299670.0 -0.1664971184 0.0580758606 -0.0001315129 -0.0001546406 8.45907e-05 -0.0001972454 -0.8292547904 0.0646305768
60299640.0 -0.1621744436 0.0588971968 -5.87871e-05 0.0001062851 -6.12045e-05 6.40491e-05 -0.830073965 0.074299167
65299610.0 -0.1589059109 0.0592572746 0.00013167 0.0001374185 0.0001213341 0.0001506484 -0.8319201181 0.0844435021
70299580.0 -0.1555272516 0.0597607196 1.03025e-05 0.0001627104 0.0001706197 -7.52633e-05 -0.8315066532 0.0946679653
75299550.0 -0.152842479 0.0600518791 -0.0002156089 0.0001317647 -4.21982e-05 -0.0001606886 -0.8324990727 0.1041599316
80299520.0 -0.1499587332 0.0601383773 2.80804e-05 7.1138e-06 0.000115344 -6.5288e-05 -0.8323047912 0.1136161383
85299490.0 -0.147854096 0.0598570557 -9.76226e-05 -0.0001092142 -9.89805e-05 -3.86993e-05 -0.8318639618 0.1236658401
90299460.0 -0.1452005419 0.0600265051 2.327e-05 -8.9705e-05 -0.000133805 0.0001063845 -0.8310033356 0.1336673981
95299430.0 -0.1433039278 0.0599484714 -1.01653e-05 3.3656e-05 6.80292e-05 -8.72384e-05 -0.8295168704 0.1432065122
100299400.0 -0.1417059739 0.0601175728 7.0814e-06 3.4614e-05 5.41651e-05 3.9238e-06 -0.829082976 0.1526895421
105299370.0 -0.1402003816 0.0600021561 0.0001855067 -0.0001118003 -3.79263e-05 8.81448e-05 -0.8273416763 0.16114693
110299340.0 -0.1383913304 0.0599495522 9.98947e-05 0.0002104674 0.0001078317 6.94665e-05 -0.8253534061 0.1713222869
115299310.0 -0.1367955628 0.0600121665 2.7729e-06 -7.77375e-05 7.90615e-05 6.08821e-05 -0.8242090192 0.1803214107
120299280.0 -0.1361128688 0.0596935858 -1.50792e-05 -1.26666e-05 1.00367e-05 0.0002297172 -0.8223547591 0.188985966
125299250.0 -0.1351189284 0.0598617036 3.32386e-05 -2.7468e-06 -7.12535e-05 8.70606e-05 -0.8212201165 0.1982497475
130299220.0 -0.1341736679 0.0601831661 0.0001820187 -2.08051e-05 5.15743e-05 0.0001280212 -0.8189683592 0.2070372954
135299190.0 -0.1331338072 0.0607135892 0.0002679026 0.0001731435 0.0001000692 7.33687e-05 -0.8162291698 0.2162518693
140299160.0 -0.1325291559 0.0608933077 9.87918e-05 5.31859e-05 7.2012e-06 0.0001998699 -0.8140636861 0.2248161655
145299130.0 -0.1316153112 0.0612359993 -0.0001391735 -4.67579e-05 -7.14911e-05 0.0001028413 -0.8120012418 0.2341063835
150299100.0 -0.1305258624 0.0614582006 -2.24471e-05 -6.17938e-05 0.000267209 0.0001547668 -0.8102010793 0.2433494684
155299070.0 -0.1300250195 0.062172241 -2.32593e-05 5.99625e-05 6.98496e-05 0.0001344494 -0.807192507 0.2520309791
160299040.0 -0.1296675541 0.0624142075 1.28337e-05 -0.0001026841 6.44916e-05 9.72928e-05 -0.8051404037 0.2610445041
165299010.0 -0.1289063411 0.0628028601 0.0002600675 0.0001718187 0.0002300086 4.64538e-05 -0.8021493125 0.269557576
170298980.0 -0.1284569834 0.0634608506 1.05871e-05 2.42832e-05 0.00013672 0.000129349 -0.7991423915 0.278601567
175298950.0 -0.1278737656 0.0641545329 -0.0001616303 0.0001471367 0.0002141644 1.07606e-05 -0.7964937967 0.2868454296
180298920.0 -0.1274875512 0.0646619729 5.5835e-05 0.0002493857 0.0001004577 7.66712e-05 -0.7935697511 0.2955419588
185298890.0 -0.1265966153 0.0650439895 7.2592e-06 0.00030273 -5.40908e-05 0.0001508389 -0.7902333006 0.3041772613
190298860.0 -0.1262807257 0.0660494303 0.000161575 -0.0001268654 -5.60796e-05 2.88654e-05 -0.7875575431 0.3127656195
195298830.0 -0.1257502112 0.0665230644 0.0001920339 -0.0001043488 0.0001883398 5.3068e-06 -0.784529625 0.3211926259
200298800.0 -0.1251922465 0.0673985034 -7.31513e-05 0.0002659925 0.000178703 5.65049e-05 -0.7816111861 0.3297235463
205298770.0 -0.1246924577 0.0681947657 0.0001367227 -8.16307e-05 0.0001357129 0.0003176151 -0.77741037 0.3381747189
210298740.0 -0.1243655426 0.0687944585 3.9285e-05 9.38419e-05 0.0001119736 -1.00669e-05 -0.7742998908 0.3460926645
215298710.0 -0.1240904588 0.0697134539 0.0001340865 0.0001541717 2.34743e-05 0.0001710446 -0.7712948357 0.35404491
220298680.0 -0.1236102802 0.070153983 3.58713e-05 0.0001305151 -4.1432e-05 6.99038e-05 -0.7673913112 0.3626135745
225298650.0 -0.1234084445 0.0712393 7.43661e-05 0.00022761 0.000117102 0.0001080848 -0.7632917517 0.3703758135
230298620.0 -0.1227419301 0.0723327731 -0.0001502945 0.0001442655 0.0002704587 0.0001052124 -0.7594683686 0.378493294
235298590.0 -0.1220934972 0.0733924463 1.02e-08 0.0002109849 0.0002275619 -2.86733e-05 -0.7555773996 0.3873945728
240298560.0 -0.1218488073 0.0738479517 0.0001466728 5.3973e-06 0.0004119934 6.85275e-05 -0.7515182376 0.3952764815
245298530.0 -0.1213587502 0.0746660347 2.35331e-05 1.84581e-05 -5.99408e-05 0.0002724695 -0.7477830578 0.4024725819
250298500.0 -0.1206836329 0.0758768862 -3.18049e-05 0.0001173279 0.0002780834 3.97077e-05 -0.743358474 0.4101714822
255298470.0 -0.1205365541 0.0764383643 3.27034e-05 7.49868e-05 1.33761e-05 4.35773e-05 -0.7386354497 0.4179026455
260298440.0 -0.1201728896 0.0774717925 -9.86253e-05 -6.43789e-05 3.5847e-05 0.0003114439 -0.7348054408 0.4265472969
265298410.0 -0.1195194703 0.0789274189 2.21319e-05 0.0001476334 5.69986e-05 3.7746e-06 -0.730360438 0.4337961375
270298380.0 -0.1190340678 0.079694341 0.0001364984 0.0002618043 4.6888e-05 -0.0001195515 -0.7255906761 0.4411800303
275298350.0 -0.1185021537 0.0805310628 0.000246177 6.31991e-05 0.0001329506 1.58671e-05 -0.720744306 0.4486094097
280298320.0 -0.1177465523 0.0815554414 9.75817e-05 2.66725e-05 0.0001589919 0.0003203861 -0.7162850311 0.4561616426
285298290.0 -0.1170258052 0.0827797249 0.0001873302 0.0001686159 9.33001e-05 0.0001716115 -0.7107581221 0.464031047
290298260.0 -0.1166270908 0.0837539091 0.0003134866 5.70151e-05 0.0002667663 5.36732e-05 -0.7060328749 0.4711575386
295298230.0 -0.116014592 0.0847086733 -0.0001371346 -4.50274e-05 5.88784e-05 -1.2419e-06 -0.7010031799 0.4783044404
300298200.0 -0.1152185577 0.0858255876 4.88061e-05 3.53583e-05 4.15768e-05 -2.51569e-05 -0.6957987257 0.4857153597
305298170.0 -0.1144981681 0.0865119606 0.0002604114 9.28237e-05 5.15276e-05 0.0001051397 -0.6899181749 0.492857627
310298140.0 -0.1139851456 0.0879405207 0.0004026591 0.0001622497 8.17591e-05 0.0001835233 -0.6854990979 0.49989771
315298110.0 -0.1132554852 0.0889571585 0.0001426593 0.0001882558 0.0002107467 4.62293e-05 -0.6799850214 0.5068347597
320298080.0 -0.1127297625 0.0896220159 0.0003327273 0.0003431589 0.0001054726 -4.93027e-05 -0.6744999044 0.514899798
325298050.0 -0.1120928463 0.0906140297 0.0001289451 0.000184172 0.0001331623 1.45368e-05 -0.669055105 0.5210489699
330298020.0 -0.1116198742 0.09132805 1.56757e-05 0.0001361861 -8.81437e-05 -0.0002132645 -0.6632449536 0.5284866442
335297990.0 -0.1109166089 0.0923461858 4.8431e-05 0.0001690739 9.93495e-05 -1.27586e-05 -0.6581055363 0.5356425207
340297960.0 -0.1104582382 0.0936916269 -2.74055e-05 0.0002199641 -1.18718e-05 6.60002e-05 -0.6517998815 0.5426733483
345297930.0 -0.1100461596 0.0949329415 0.0002316657 -0.0001117882 0.0001647495 0.0002175447 -0.6467431249 0.5483659198
350297900.0 -0.1090080652 0.0959636009 6.91276e-05 7.337e-07 0.0001164768 -0.0001167342 -0.6411162348 0.5555043077
355297870.0 -0.1082721584 0.0971830668 0.0002718015 8.59881e-05 6.10524e-05 0.0001788589 -0.6353547981 0.5622973574
360297840.0 -0.1075458114 0.0982044774 0.0003681211 0.0003636205 8.0886e-06 0.0001026692 -0.6297429823 0.5690500792
365297810.0 -0.1072498084 0.0997498148 0.0003288097 5.51546e-05 0.0001452483 0.000136917 -0.6227230214 0.5757078598
370297780.0 -0.1064669361 0.1004581868 -5.10039e-05 0.0003003452 9.40077e-05 2.83765e-05 -0.6171044629 0.58239618
375297750.0 -0.1054250142 0.1015730331 0.0001268257 8.95827e-05 -1.16949e-05 -8.2034e-05 -0.611445988 0.5882382866
380297720.0 -0.1048156534 0.1025168384 6.67338e-05 0.0001627334 4.007e-05 0.000170911 -0.6056888905 0.5939162577
385297690.0 -0.1041894582 0.103850874 -6.30032e-05 0.0002171672 0.0001263472 9.21621e-05 -0.5990317802 0.6007173534
390297660.0 -0.1032156202 0.1050207374 0.0002854433 -0.0001001314 0.0003163789 0.000192697 -0.5927411419 0.6070201119
395297630.0 -0.1023177919 0.1058718327 0.0004206081 0.0001120246 0.0001807219 0.0001606664 -0.5866187978 0.6131940523
400297600.0 -0.1014485995 0.1070520356 -7.49842e-05 -0.000104583 7.45738e-05 0.000178026 -0.5805937219 0.6191844279
405297570.0 -0.1006823553 0.1082351378 -1.51041e-05 0.0001376785 0.0002864555 -6.23142e-05 -0.5740611642 0.6250139411
410297540.0 -0.0998861678 0.1092645251 0.0001673834 0.0001399926 0.0001384548 6.68676e-05 -0.5676927378 0.6310359163
415297510.0 -0.0991388717 0.1098145023 0.0002262742 -0.0001639097 0.0001627801 9.83483e-05 -0.5611654519 0.6364875217
420297480.0 -0.0979571917 0.1116735045 0.0001122049 0.0002136056 0.0002628431 0.0002536123 -0.5542777603 0.6424450366
425297450.0 -0.0972164274 0.1125427906 0.0003177025 -3.43018e-05 6.05807e-05 0.0001197517 -0.5477091838 0.6478965029
430297420.0 -0.0963921356 0.1134382576 4.33527e-05 0.0001150877 -0.0001246748 0.0002211922 -0.541376708 0.6528837051
435297390.0 -0.0955448382 0.1147360487 -1.83809e-05 -0.0001633723 0.000140031 0.000103827 -0.533748472 0.6589006066
440297360.0 -0.0944752182 0.1154049258 0.0002883863 0.0001368345 2.077e-05 -0.0001088419 -0.5275133356 0.6638731124
445297330.0 -0.0934431551 0.1165162773 0.000234848 0.0001403868 1.45446e-05 7.21876e-05 -0.5203718883 0.6686417661
450297300.0 -0.0924539747 0.1173601886 -6.20839e-05 -2.49201e-05 6.6756e-06 0.0001158772 -0.5128991782 0.6745568225
455297270.0 -0.0915598103 0.1185643191 0.0004121022 -4.54516e-05 0.0004130239 0.0001170896 -0.506056963 0.6787136858
460297240.0 -0.0905749043 0.11948918 0.0002215764 -0.0001070936 0.0002226733 9.65971e-05 -0.4995206521 0.6840102447
465297210.0 -0.0894752046 0.1206469248 0.0001638394 0.0002918081 0.0001995969 0.0001441718 -0.491628982 0.6889816643
470297180.0 -0.0884763817 0.1216450383 0.000253587 0.000179178 0.0002438219 3.65127e-05 -0.4844985822 0.6945028345
475297150.0 -0.0875145179 0.1223203725 0.0002107471 6.074e-07 -3.09953e-05 0.0001137707 -0.4774777865 0.6988148717
480297120.0 -0.086413067 0.1235272661 0.0002672946 2.92603e-05 -3.67933e-05 0.0001249299 -0.4699077611 0.7036033076
485297090.0 -0.0854828906 0.1244308547 0.0002695608 5.64779e-05 0.0001766327 -3.29124e-05 -0.46294594 0.7085005153
490297060.0 -0.0844260079 0.1257472928 0.0001635832 -5.30024e-05 0.0002604221 0.000159702 -0.4554069333 0.7126907751
495297030.0 -0.0834400813 0.1263803012 -8.998e-06 6.20886e-05 1.57003e-05 2.96493e-05 -0.4485373509 0.7178489875
500297000.0 -0.0820175877 0.1273914068 8.13954e-05 5.62596e-05 0.000191325 9.03843e-05 -0.4404050743 0.7222214908
505296970.0 -0.0808842989 0.1282417825 0.0004389281 -2.9818e-06 0.0001114942 9.85125e-05 -0.4329782061 0.7263769764
510296940.0 -0.0798647603 0.1292263393 0.0004019696 -7.8765e-06 0.000190346 0.0001003731 -0.4255379452 0.7311388507
515296910.0 -0.0786196294 0.1301163337 0.0003096761 -7.09762e-05 0.0003667254 0.0002449161 -0.4185115399 0.7354924135
520296880.0 -0.0776630598 0.1311932996 0.0003622571 8.45062e-05 0.0003964817 3.67445e-05 -0.4108875521 0.738986992
525296850.0 -0.0762995082 0.1317052176 0.0001074939 0.0001414541 0.000271202 -7.33159e-05 -0.4033530814 0.7439062455
530296820.0 -0.075189894 0.1327362882 0.000190824 0.0002494302 0.0003610953 -0.0001509993 -0.395753757 0.747767029
535296790.0 -0.0740839423 0.1338208521 0.0001665092 -0.0001602816 0.0002644614 0.0002299402 -0.3884611788 0.7514841598
540296760.0 -0.0728589111 0.1347047892 3.1717e-05 9.82968e-05 0.0003472222 2.3571e-05 -0.3805550508 0.755860393
545296730.0 -0.0721142846 0.135413418 0.0002647308 -9.78837e-05 2.67683e-05 -9.87888e-05 -0.3732599025 0.7592575976
550296700.0 -0.0703600181 0.1362980746 0.0003635611 -6.12654e-05 0.000100402 -0.0001125806 -0.3654937108 0.7639893469
555296670.0 -0.0694100897 0.137067475 0.0001085169 -5.42543e-05 -1.47729e-05 -7.88281e-05 -0.3579029612 0.7671674487
560296640.0 -0.067868511 0.1381730867 2.59822e-05 -0.0001777441 0.000339576 0.0001412861 -0.3493677541 0.7713242983
565296610.0 -0.0667951412 0.1387630753 0.0003132707 1.31456e-05 0.0001193112 -4.93637e-05 -0.3417124863 0.7743929657
570296580.0 -0.0657817756 0.1395653131 -4.75589e-05 -6.26762e-05 0.0002246627 6.58744e-05 -0.3345031123 0.7781932408
575296550.0 -0.0646161004 0.1406512848 0.0003145423 8.32977e-05 0.0001632483 0.0001038524 -0.3261021987 0.7815003498
580296520.0 -0.0629662531 0.141227713 0.0003427811 -8.901e-06 0.0002521717 0.0002641008 -0.3180005639 0.7840300942
585296490.0 -0.062182648 0.1419675587 -3.87295e-05 6.99114e-05 0.0002509743 -4.2221e-06 -0.3102271738 0.7877086632
590296460.0 -0.0605039598 0.1425416654 0.0001435659 4.79739e-05 0.0003202742 -1.44716e-05 -0.3024367332 0.790477739
595296430.0 -0.0593210781 0.1436763156 0.0004263826 0.0001683219 -2.85461e-05 -4.23429e-05 -0.294264238 0.793223219
600296400.0 -0.0585684831 0.1442148869 0.0001547462 -3.03691e-05 -3.05306e-05 0.0001068862 -0.2866034733 0.7958454964
605296370.0 -0.0570242474 0.1450264576 7.5442e-05 6.52396e-05 0.0003389522 9.95097e-05 -0.2778890565 0.798769487
610296340.0 -0.0554164659 0.1456046227 0.0002090206 -5.39745e-05 0.0002289685 -5.838e-05 -0.2700453334 0.8012848192
615296310.0 -0.0542433323 0.1464510314 2.76336e-05 -1.5496e-06 0.0001236415 3.10806e-05 -0.2614734775 0.8037108724
620296280.0 -0.0529586468 0.147036261 0.0003063036 0.0001473275 0.0003474768 0.0002121683 -0.2539409083 0.8063516573
625296250.0 -0.0515027264 0.1476711127 0.0003080584 9.69911e-05 0.0001139623 0.0001607471 -0.2453151442 0.8081628854
630296220.0 -0.0497498356 0.148144573 9.01877e-05 8.89191e-05 6.15034e-05 0.0001680597 -0.2375715659 0.8108501593
635296190.0 -0.0493110856 0.1491771539 0.0001556764 5.14878e-05 0.0003319329 0.0002338765 -0.2291753251 0.8131381339
640296160.0 -0.0475213008 0.1497653181 8.42083e-05 0.0002086073 0.0002039226 0.0001868476 -0.2206519364 0.8154001544
645296130.0 -0.0461821417 0.1504510674 0.0003444801 -0.0001610953 0.0001139458 -0.0002449971 -0.2131178417 0.8172616477
650296100.0 -0.0446721329 0.1511900487 0.0003638846 -3.3844e-05 5.3629e-05 -2.19748e-05 -0.2045198448 0.8184806372
655296070.0 -0.043262832 0.1516911346 0.0001212014 5.8849e-06 0.0003970637 1.514e-07 -0.1953673938 0.8210471489
660296040.0 -0.0422390433 0.1520490554 0.0003216795 0.0001416249 0.0002256765 -3.789e-05 -0.1871816363 0.8230194634
665296010.0 -0.0403475405 0.1523183232 0.0005178192 0.000225007 0.0003549563 -6.1584e-06 -0.178898195 0.8258144223
670295980.0 -0.0392649782 0.1535554945 0.0001557197 0.0001305426 0.0002538373 0.0001870797 -0.1712389545 0.8263834027
675295950.0 -0.0377952854 0.1538332717 0.0002426057 4.72394e-05 0.0003120535 0.0001011332 -0.1633488807 0.828443463
680295920.0 -0.0361268464 0.1543559018 0.0004010526 -0.0001521132 0.0001974476 6.162e-07 -0.1541702687 0.8305866574
685295890.0 -0.0348499826 0.1554273267 0.0003268623 0.0001790251 4.22496e-05 -7.0927e-06 -0.1456577324 0.8311058675
690295860.0 -0.0331920383 0.1553460818 2.75077e-05 -4.57625e-05 0.0002968531 1.84733e-05 -0.1377623847 0.8336541275
695295830.0 -0.032069577 0.1560285938 0.0003127361 1.81741e-05 0.0002466493 -6.82642e-05 -0.1291462701 0.8345938356
700295800.0 -0.030642053 0.1565518779 0.0001151552 -7.18139e-05 0.0002634762 0.0001436373 -0.1218028209 0.8362400722
705295770.0 -0.0294426396 0.1571108352 0.0002326565 0.0001430214 5.41646e-05 -0.0001464861 -0.1131251183 0.838070695
710295740.0 -0.0276593803 0.1573756183 0.0001888825 0.0001638889 0.0003181194 -5.20519e-05 -0.1040413507 0.8388646319
715295710.0 -0.0262380753 0.1577534918 0.0001728199 0.000227261 0.0002431491 0.0001197161 -0.0960174652 0.8393552612
720295680.0 -0.0248795237 0.1585317726 0.0001954887 -3.13893e-05 4.41946e-05 2.09246e-05 -0.087621552 0.8410410441
725295650.0 -0.023314072 0.158789886 0.0003570927 -0.0001206651 0.0002739364 -5.00795e-05 -0.0797139881 0.8421483437
730295620.0 -0.0214839828 0.1593109192 0.0004437941 -2.53368e-05 0.0003388621 -9.67214e-05 -0.0721402563 0.8423722756
735295590.0 -0.0203656416 0.1597302304 0.0001813876 8.23905e-05 0.0003501428 -7.19515e-05 -0.0628268947 0.8431330335
740295560.0 -0.0192028172 0.160578016 0.00017966 -3.76789e-05 0.0003354313 -1.6834e-05 -0.0535818713 0.8444364946
745295530.0 -0.0176227963 0.1607486522 0.0001453469 -0.0002183819 6.0359e-05 -7.81303e-05 -0.0455778968 0.8438333703
750295500.0 -0.0156153148 0.1612107547 0.0001861937 -3.10925e-05 0.0004648542 -0.0001329462 -0.0375980801 0.8444124012
755295470.0 -0.0146994225 0.1612341384 0.0002476546 6.39913e-05 0.0002508502 0.0001273897 -0.0286486613 0.8440097704
760295440.0 -0.0129081207 0.1616187873 0.0001032685 -0.0001521917 0.000290804 -5.91375e-05 -0.0203219105 0.8442696762
765295410.0 -0.0114828732 0.1620445374 0.0005169619 -0.0002128766 0.0002238264 -0.0002138491 -0.0119282343 0.8449090082
770295380.0 -0.0103496743 0.1622638203 0.0002694128 -5.0286e-06 0.0004048155 -0.0001538545 -0.0038442239 0.8446993962
775295350.0 -0.0086663334 0.1625427137 0.0004245157 -0.000127552 0.0002296872 -0.0002070791 0.0044908934 0.8442458566
780295320.0 -0.0070135023 0.1628523021 0.000438014 -8.77501e-05 0.0002104798 0.0002221213 0.0131815809 0.8442365499
785295290.0 -0.0058882674 0.1630332937 0.0004065668 6.79784e-05 0.0002865045 5.62746e-05 0.0218252319 0.8440509472
790295260.0 -0.0037801066 0.1636454768 0.0001195327 8.71413e-05 0.0002409042 -3.18126e-05 0.0302415765 0.8437458464
795295230.0 -0.0024809282 0.1637191341 0.0005291158 -1.5641e-05 0.0003954653 -0.0002688368 0.0388702897 0.8427731565
800295200.0 -0.0011448617 0.1637771151 0.0003535778 1.93657e-05 0.0001504111 -7.31217e-05 0.0473244408 0.8425366377
805295170.0 0.0005512292 0.1638051285 0.0001277778 -0.0001202839 0.0002831015 -0.0001691196 0.0554535241 0.8423069986
810295140.0 0.0023174092 0.1641999124 0.000242197 0.0002532579 0.0002971641 0.0001052937 0.0639593699 0.8415227939
815295110.0 0.0034775078 0.1642027975 0.0002502987 -2.20604e-05 0.0004799192 -1.54911e-05 0.0722630477 0.8404854259
820295080.0 0.0052511456 0.1645103347 8.98641e-05 1.94624e-05 0.000321825 -6.23583e-05 0.0807380355 0.8402481097
825295050.0 0.0069751204 0.1643648392 0.000273468 -0.0002215274 0.0003461286 -2.58745e-05 0.0894185207 0.8393460744
830295020.0 0.0083001762 0.1646956441 0.0003354748 -0.0001447245 0.0001834369 -0.0001078643 0.0984375021 0.8379935871
835294990.0 0.0096974399 0.1649690076 8.83616e-05 -3.27358e-05 0.0001914867 -3.62827e-05 0.1059132973 0.8373283589
840294960.0 0.0111223694 0.1651908013 0.0004005353 -0.0001712366 0.0003947622 -8.5306e-05 0.1140995574 0.8364074927
845294930.0 0.0128804913 0.1649518832 4.90015e-05 5.64223e-05 0.000420494 -9.819e-06 0.1227012554 0.8343577958
850294900.0 0.0146039164 0.1653136145 0.0001626515 -0.0001861289 0.0003180639 -0.0002082546 0.1302247672 0.8339899891
