!Created with skrf (http://scikit-rf.org).
# Hz S RI R 50.0 
!freq ReS11 ImS11 ReS21 ImS21 ReS12 ImS12 ReS22 ImS22
300000.0 -0.7713466213 -0.1698967624 -0.0005161406 0.0004752517 7.25621e-05 0.0012539246 -0.7657126052 -0.1904596976
5299970.0 -0.7861487381 -0.0088853775 0.000110292 0.0001347181 -9.10165e-05 -2.08072e-05 -0.7854096839 -0.0094570855
10299940.0 -0.789328203 -0.0059217017 -5.24627e-05 -4.5124e-06 -0.0001037038 -7.85744e-05 -0.7877875452 -0.005139727
15299910.0 -0.7944870982 -0.0032269528 -0.0001811351 -3.45649e-05 -0.0001788905 -5.06982e-05 -0.7929205122 -0.0023708521
20299880.0 -0.8012434637 0.000697034 -0.0001321569 -0.0001837545 3.85505e-05 -6.10737e-05 -0.7995078495 0.0016385233
25299850.0 -0.8079573299 0.0070654217 0.000119645 -7.89331e-05 1.4866e-05 2.73559e-05 -0.806155381 0.0080864555
30299820.0 -0.8137151603 0.0137200487 -0.0002060665 -6.96058e-05 -2.13603e-05 -4.42405e-05 -0.8124340096 0.015542181
35299790.0 -0.8187354735 0.023092015 0.0002658293 0.0001477842 4.1285e-06 6.32733e-05 -0.8171020345 0.0250235346
40299760.0 -0.8236134659 0.031757847 -3.84749e-05 0.0001260551 -2.18837e-05 -0.000194091 -0.8216027575 0.0337264267
45299730.0 -0.8265231133 0.041747659 -5.99276e-05 0.0001662063 0.0001653069 3.4822e-05 -0.8242443004 0.0438320291
50299700.0 -0.8292434912 0.0517137302 0.0002005889 0.0001593447 0.0003040135 -0.0001188795 -0.8263559909 0.0542850767
55299670.0 -0.8315213109 0.061030268 -0.0001104493 -5.3138e-06 -0.0001310718 0.0001305767 -0.8288812694 0.0635840115
60299640.0 -0.8323206958 0.0716100789 0.0001200449 5.62661e-05 -8.75971e-05 -0.0002316556 -0.8297282678 0.0738250441
65299610.0 -0.8337554623 0.0814064783 -0.0001402846 -0.0001042388 0.0001547056 -6.07401e-05 -0.8304927124 0.0839621354
70299580.0 -0.8337560971 0.0912533097 -8.70467e-05 0.0001180073 7.46282e-05 -7.97039e-05 -0.8312169786 0.0938172343
75299550.0 -0.8338509877 0.10132625 -0.0001045064 0.0001141203 -0.0001326758 -0.0001497759 -0.8312860654 0.104380928
80299520.0 -0.8339520593 0.1123867086 0.0001395362 -3.95033e-05 1.6066e-06 0.0002177193 -0.8308814819 0.113945998
85299490.0 -0.8327552522 0.1210012971 -5.588e-05 -0.0001323551 -0.0001607403 -3.56882e-05 -0.8300195765 0.1234550145
90299460.0 -0.8319844808 0.1314669202 -0.000165293 -0.0001142785 -3.15002e-05 0.0001298375 -0.8291039735 0.1328672503
95299430.0 -0.8319601365 0.1404348489 3.93669e-05 -0.0001537177 3.88569e-05 7.29872e-05 -0.8283615598 0.1427037623
100299400.0 -0.8300865071 0.1500804578 -0.000220381 -7.51869e-05 0.0002260955 -4.469e-05 -0.8275059657 0.1519223107
105299370.0 -0.8292549137 0.1594412796 0.0001514184 0.0001384381 -4.6064e-06 -0.000132002 -0.8262155232 0.1609153115
110299340.0 -0.8276715426 0.1680102681 -9.47911e-05 7.0376e-06 -8.4195e-06 5.80442e-05 -0.8246241989 0.1697899323
115299310.0 -0.8261899119 0.1777915215 0.0001241613 0.0002008138 -0.0001254109 0.0001500047 -0.8234394747 0.1790196582
120299280.0 -0.8243175154 0.1869895026 3.61775e-05 -0.0001858458 -2.88758e-05 -5.27305e-05 -0.8214585626 0.1877730657
125299250.0 -0.8227397615 0.1953226443 -1.18273e-05 0.0001614957 0.0001083247 -0.0002237575 -0.8193658808 0.196898219
130299220.0 -0.8204405663 0.2051191738 0.0002181509 -4.78929e-05 0.0001220611 -1.5245e-06 -0.817362189 0.205485799
135299190.0 -0.8182594385 0.2137363181 0.0001627277 0.0001516242 -5.43653e-05 -0.0001170778 -0.8161477081 0.2147514804
140299160.0 -0.8165309303 0.2233842987 -6.73668e-05 -3.27312e-05 0.0001439867 7.55609e-05 -0.8141124367 0.2234884222
145299130.0 -0.8148069809 0.2319648621 8.79221e-05 0.0002098842 -6.4843e-06 -0.0001581051 -0.8121640956 0.2323731942
150299100.0 -0.8120754103 0.2412138679 -0.0001690266 2.09535e-05 -0.0001477815 -5.77467e-05 -0.8093005875 0.2414684613
155299070.0 -0.8102505858 0.2498886821 1.89589e-05 0.0001466284 -3.19177e-05 -2.42614e-05 -0.8072370759 0.2506986378
160299040.0 -0.8076881986 0.259049714 0.0002275067 2.44648e-05 8.26779e-05 -0.0001728084 -0.8045487759 0.2591373217
165299010.0 -0.8044377591 0.2676857664 -6.43977e-05 0.0001296668 -5.9029e-05 4.4047e-05 -0.8016364518 0.2672828652
170298980.0 -0.8016397733 0.2760665593 0.0001427228 -0.0001178621 -0.0001126512 3.87978e-05 -0.7995298122 0.2756349756
175298950.0 -0.7989377133 0.2845403575 -0.0003217383 9.7342e-05 -5.70277e-05 -0.000127723 -0.7962388239 0.2847637581
180298920.0 -0.7958783012 0.2934358921 -0.0004408182 -0.000226298 0.0002283144 -0.0003272863 -0.7935098297 0.2930947004
185298890.0 -0.7929406688 0.3024922689 -8.09359e-05 -3.27741e-05 0.0001181328 0.0001764128 -0.7906379359 0.3015362108
190298860.0 -0.7894907046 0.3110071554 -0.0002536822 5.94963e-05 -0.0001181217 -4.8262e-06 -0.7872887287 0.3100272061
195298830.0 -0.7862890116 0.3194893818 -7.41849e-05 7.6653e-06 -1.98265e-05 -9.28133e-05 -0.7841436642 0.318500941
200298800.0 -0.7831315641 0.3275917154 -4.84686e-05 1.93066e-05 9.87491e-05 -0.0001284635 -0.7811898295 0.3267899141
205298770.0 -0.7793908437 0.3362087249 7.19391e-05 -1.50931e-05 -6.74126e-05 -9.85242e-05 -0.7777413368 0.3355364229
210298740.0 -0.7757493735 0.3445200164 0.0001557894 -0.0001207694 3.93504e-05 -0.0001585459 -0.774334946 0.3429543952
215298710.0 -0.7722986481 0.3533292591 -4.24903e-05 -5.54288e-05 6.51833e-05 7.1137e-05 -0.7704205478 0.3511607544
220298680.0 -0.7692592207 0.3607273955 1.9864e-06 2.55698e-05 0.0001241469 -3.95075e-05 -0.7670382729 0.3593958936
225298650.0 -0.7647415058 0.3696686536 -0.0001089048 -1.09883e-05 -4.88994e-05 8.00823e-05 -0.7631980436 0.3671988023
230298620.0 -0.7609395051 0.3778367293 4.7222e-05 3.79803e-05 -0.0001146487 -0.0003458362 -0.7590107083 0.3755117298
235298590.0 -0.7576758334 0.3864235268 -0.0001356559 -8.19113e-05 5.71974e-05 -8.89479e-05 -0.7551857724 0.3831397308
240298560.0 -0.7531878952 0.3937790321 9.8837e-05 -4.99598e-05 -1.08656e-05 4.62727e-05 -0.7513416341 0.3909868439
245298530.0 -0.7488151454 0.4016588565 -5.8533e-06 2.20642e-05 5.51354e-05 -9.29604e-05 -0.7474719613 0.3989571251
250298500.0 -0.7442353424 0.4094224318 0.0002146365 7.74494e-05 3.93408e-05 -9.85464e-05 -0.7428869016 0.4071221817
255298470.0 -0.7405866865 0.4177654555 -2.5854e-06 0.0001189494 -0.0001525793 0.0002176164 -0.7390015078 0.4141436824
260298440.0 -0.7365379922 0.4254779891 -0.0001081325 0.0002432165 9.58714e-05 0.0001380649 -0.7341379321 0.4217543021
265298410.0 -0.7320611457 0.4326228063 4.8123e-06 5.91568e-05 8.17391e-05 -9.24461e-05 -0.7296564203 0.4301543874
270298380.0 -0.7273868442 0.4405370574 -9.32474e-05 0.0002397649 -1.25421e-05 8.58136e-05 -0.72525353 0.4381319908
275298350.0 -0.723663654 0.44802824 -0.0001278051 -0.000169866 -3.36692e-05 -0.0001699483 -0.7207516139 0.4455933213
280298320.0 -0.7183001988 0.4556127283 -3.1085e-06 5.14499e-05 -7.0424e-05 9.40229e-05 -0.7164081105 0.4530045656
285298290.0 -0.7137338626 0.4634409779 8.48525e-05 -1.06839e-05 -4.0632e-05 -7.14772e-05 -0.7121491755 0.4607040552
290298260.0 -0.7085871113 0.471245708 3.09747e-05 -2.13511e-05 -8.26105e-05 0.0001431396 -0.7064523409 0.4679473211
295298230.0 -0.7039945354 0.4781215408 0.0001282577 -0.0002022647 6.84499e-05 -6.26974e-05 -0.7017709406 0.4748192858
300298200.0 -0.6995324584 0.4850788114 0.0001376522 -2.07989e-05 -0.0001120127 4.40668e-05 -0.6970067631 0.4818777817
305298170.0 -0.6946119207 0.4929156192 5.4649e-06 1.53037e-05 -5.42095e-05 -0.0002013532 -0.6915805835 0.4896848942
310298140.0 -0.6889227513 0.4996262371 0.0001283483 0.0003176435 -6.92478e-05 -3.50969e-05 -0.6863572548 0.4971192041
315298110.0 -0.6843642899 0.5070966665 -0.0001164989 0.0001966512 9.67227e-05 -5.00158e-05 -0.6815997024 0.503909213
320298080.0 -0.6791129749 0.5145913764 5.53345e-05 5.59321e-05 0.0001427589 -0.0001444749 -0.6763943473 0.5107470082
325298050.0 -0.6729289465 0.5208167103 -7.53831e-05 -0.0001642206 6.7285e-06 -1.03244e-05 -0.670354067 0.5176509221
330298020.0 -0.6683406053 0.5278600078 -9.8201e-06 0.0001995493 -0.0001283387 0.0001252571 -0.6649623759 0.5245627758
335297990.0 -0.6628963789 0.5347415658 0.0001900725 2.04671e-05 5.0171e-06 -2.60908e-05 -0.6594671343 0.5316802184
340297960.0 -0.6580717388 0.542057323 -5.94e-08 -3.84111e-05 0.0002000791 7.59562e-05 -0.6542095851 0.538402295
345297930.0 -0.6518055143 0.5481704869 -0.0001978574 0.0001235298 -2.67065e-05 1.29232e-05 -0.648974239 0.545032604
350297900.0 -0.6461190181 0.5552272861 0.0002819888 -9.703e-05 7.83138e-05 1.07376e-05 -0.6431714544 0.551085808
355297870.0 -0.6411330769 0.5613083222 7.65416e-05 0.0002041421 5.55409e-05 -0.0002253393 -0.6367772329 0.5587561983
360297840.0 -0.6349082226 0.568191005 -5.07454e-05 -7.09756e-05 -3.29139e-05 -3.04592e-05 -0.6302950797 0.5653467101
365297810.0 -0.6291654311 0.5747622113 -0.0002813282 0.000146499 0.0001750096 5.13104e-05 -0.625885476 0.5708917232
370297780.0 -0.6232119766 0.5805439121 0.0002042555 -8.44714e-05 3.24936e-05 -4.70492e-05 -0.6193614568 0.5776100248
375297750.0 -0.6186046593 0.5872114831 0.000199706 0.0001286313 3.74511e-05 4.6185e-06 -0.6129333049 0.583738451
380297720.0 -0.6116891244 0.5936246536 -0.0001203236 0.0001096235 0.0001326172 0.0001017437 -0.6069018119 0.5904068631
385297690.0 -0.6061021047 0.5996124901 0.000143862 -3.75364e-05 1.45417e-05 -0.0001295303 -0.6012222725 0.5967725211
390297660.0 -0.5985369474 0.605351705 8.89598e-05 -0.0001556771 -2.61863e-05 -3.95962e-05 -0.594641005 0.6020119405
395297630.0 -0.5926353541 0.6121800649 -3.14158e-05 -0.0001380135 0.0001464459 -8.82759e-05 -0.5882142364 0.6078752378
400297600.0 -0.586415307 0.6183995975 -0.0001410366 -0.000112783 -0.0001715093 1.18147e-05 -0.5825764211 0.6144668024
405297570.0 -0.5805449579 0.6232667968 -4.44958e-05 -0.0001496355 -7.18315e-05 -0.0003678554 -0.5757803682 0.6200807681
410297540.0 -0.5739144868 0.6298488243 9.03008e-05 0.000186247 -2.33297e-05 0.0001069779 -0.5696935998 0.6259386945
415297510.0 -0.5676785717 0.6358404956 -1.36951e-05 -4.44836e-05 0.0002044827 5.37125e-05 -0.5626393923 0.6315741078
420297480.0 -0.5610199458 0.6411358963 6.89963e-05 -6.76881e-05 -1.6798e-06 -0.0001532958 -0.5561633357 0.6381515281
425297450.0 -0.5548191298 0.646265435 0.0001076189 8.81876e-05 -6.46512e-05 3.13989e-05 -0.5498192148 0.6424912544
430297420.0 -0.5475981662 0.6518035135 -3.00065e-05 8.49417e-05 -1.52263e-05 4.43846e-05 -0.542872782 0.6486165016
435297390.0 -0.5413780803 0.6572400149 -0.0001612737 5.25807e-05 4.84822e-05 5.02574e-05 -0.5365069216 0.654212088
440297360.0 -0.5345280434 0.662772624 -8.11566e-05 9.05213e-05 0.0001213889 1.43397e-05 -0.5301713202 0.659057514
445297330.0 -0.527442115 0.6677375966 -0.0001587784 2.72078e-05 4.36564e-05 0.0002444398 -0.5229932069 0.6651530412
450297300.0 -0.5201025903 0.673769822 -5.2037e-06 -3.1767e-05 -0.0001472857 3.35133e-05 -0.5157406753 0.6700338897
455297270.0 -0.5136668784 0.6781048313 -0.0001609625 -7.14467e-05 4.01077e-05 -6.00735e-05 -0.5091050466 0.6751620891
460297240.0 -0.5063721012 0.6840452184 -0.0001175923 7.89639e-05 3.63364e-05 9.4257e-05 -0.5024617393 0.6799643694
465297210.0 -0.4995660996 0.6887566144 1.15539e-05 -4.19375e-05 -9.80218e-05 -6.12435e-05 -0.4951346026 0.6859793963
470297180.0 -0.491925936 0.6939480517 -0.0001330018 -0.0001837881 5.72917e-05 -7.47861e-05 -0.4876086107 0.6904160982
475297150.0 -0.4848269885 0.6988900179 0.0001692574 9.24125e-05 -7.5726e-06 2.53174e-05 -0.4813231112 0.6949796856
480297120.0 -0.4767860622 0.7037785997 -5.35161e-05 -0.0001130233 -1.3773e-05 5.60866e-05 -0.4745689327 0.700117382
485297090.0 -0.4703450469 0.7080264797 6.96919e-05 -3.85599e-05 6.40704e-05 -4.10102e-05 -0.4673025357 0.7049872974
490297060.0 -0.4618087027 0.7141288804 -4.06447e-05 2.86149e-05 0.0002507146 8.86195e-05 -0.459905064 0.7086775108
495297030.0 -0.4551495362 0.7180810156 5.68122e-05 -7.88554e-05 -1.61465e-05 -3.72956e-05 -0.4524558051 0.7141543279
500297000.0 -0.4468263094 0.7222846913 -0.0001200968 0.0001536302 2.9122e-06 -3.7465e-05 -0.4452425374 0.7184697974
505296970.0 -0.4394601659 0.7270408872 9.80916e-05 -3.53776e-05 2.48607e-05 5.10744e-05 -0.4376220417 0.7230387161
510296940.0 -0.4320862636 0.7314574675 9.56403e-05 -7.5561e-06 6.9585e-06 -9.26023e-05 -0.4301981928 0.7272436864
515296910.0 -0.4246220184 0.7358840964 -0.000140431 -0.0001391891 -0.0002040142 8.30614e-05 -0.423372792 0.7312097117
520296880.0 -0.4159698856 0.7398802573 1.4772e-05 -3.28518e-05 -4.06601e-05 4.2553e-06 -0.4154182597 0.736096865
525296850.0 -0.4087936756 0.743998307 2.86131e-05 -9.75205e-05 -0.000239588 -2.1771e-06 -0.408105261 0.7397428393
530296820.0 -0.4015124904 0.7479131373 -3.24774e-05 -0.0001099922 1.17732e-05 0.0001778042 -0.4005063784 0.7433549614
535296790.0 -0.3925076867 0.7519230267 6.79519e-05 6.22387e-05 2.4647e-05 9.92786e-05 -0.3932919937 0.7477838151
540296760.0 -0.3851224538 0.7560850834 -7.20952e-05 -0.0001013603 -4.28399e-05 3.9631e-05 -0.3853486238 0.7518408311
545296730.0 -0.3772784349 0.7602542466 0.000105831 4.02911e-05 -4.48567e-05 7.04763e-05 -0.3777415482 0.7556500271
550296700.0 -0.369018111 0.7640463153 7.15455e-05 -6.01658e-05 -7.5536e-06 -6.74337e-05 -0.3701874404 0.7590751121
555296670.0 -0.3610281264 0.7670200389 -9.48483e-05 -0.0001605966 1.62439e-05 1.06942e-05 -0.3624771871 0.7621851884
560296640.0 -0.3531294729 0.7707292048 -0.0001446596 -7.68434e-05 9.68583e-05 0.000203334 -0.354552556 0.7660582341
565296610.0 -0.3461545525 0.7739138792 3.3614e-06 -0.0002942275 7.3533e-06 1.76115e-05 -0.3466166309 0.769814044
570296580.0 -0.337126952 0.7783565579 5.94536e-05 4.49719e-05 6.5255e-05 -0.0001184989 -0.3389736347 0.772917485
575296550.0 -0.3282722478 0.7812139937 -4.55514e-05 -2.36234e-05 0.0001048599 5.89809e-05 -0.3310123324 0.7766018056
580296520.0 -0.3214099075 0.7845050897 0.0001328514 0.0001554032 -8.57587e-05 -0.0001507912 -0.3239633781 0.7796902555
585296490.0 -0.3122608396 0.7877613534 -5.00474e-05 0.0001369425 0.0001714352 2.86155e-05 -0.3154405318 0.7830455776
590296460.0 -0.3039054269 0.7908173026 4.42424e-05 4.16548e-05 -0.0001312148 2.15692e-05 -0.307929509 0.7857576422
595296430.0 -0.2962414642 0.7938653784 -0.0001745734 -2.73664e-05 6.50347e-05 6.74501e-05 -0.2998458368 0.7889494271
600296400.0 -0.2880217446 0.7969003108 -4.39106e-05 -2.9042e-06 -1.2134e-05 -1.45737e-05 -0.2917508675 0.7920075585
605296370.0 -0.279805788 0.7992506899 -4.8949e-06 -2.11926e-05 -4.3708e-05 -0.000127786 -0.283847819 0.7952712001
610296340.0 -0.2716685845 0.802431584 9.28434e-05 0.0001689494 3.43242e-05 1.8295e-05 -0.2762374372 0.7975598918
615296310.0 -0.2628061082 0.8051374227 -4.16577e-05 -3.56671e-05 5.6963e-06 -3.43685e-05 -0.2673776849 0.8003384161
620296280.0 -0.2556724689 0.808278939 0.0001931895 -4.53054e-05 -0.0001098378 -5.98754e-05 -0.2601800348 0.8027637677
625296250.0 -0.2476061078 0.8102776137 -7.02947e-05 -0.0001151782 2.57529e-05 6.49814e-05 -0.2517522615 0.8047330072
630296220.0 -0.2388102018 0.8129272896 9.118e-05 3.9032e-05 -0.0001153448 -0.0001214012 -0.2437474819 0.8081822828
635296190.0 -0.2302044881 0.8153953498 1.15067e-05 -1.11911e-05 -0.0001574079 -0.0001606388 -0.2359252097 0.8098581685
640296160.0 -0.2216928572 0.8176768596 -0.000106447 -0.0001118507 0.0001350882 9.819e-07 -0.2272208441 0.8127507165
645296130.0 -0.2135467425 0.8203724805 0.0001019976 0.0001204089 3.65042e-05 -0.0001652822 -0.2197131897 0.8143165614
650296100.0 -0.2057854855 0.821692407 1.24811e-05 -1.59214e-05 -5.90137e-05 -1.10648e-05 -0.2109610495 0.8163378527
655296070.0 -0.197184373 0.8242360334 -2.19299e-05 0.0002030608 4.05984e-05 0.0002316659 -0.2029033572 0.8193058111
660296040.0 -0.1892205439 0.8261957251 -9.6968e-05 0.000201708 0.0001157014 -5.93901e-05 -0.1943955765 0.8209455104
665296010.0 -0.1812059181 0.8284299633 -0.0001869503 -4.9137e-05 -0.0001057438 5.99442e-05 -0.1861515053 0.8220825204
670295980.0 -0.172780376 0.8304617494 6.32512e-05 -3.89898e-05 -4.55064e-05 -0.0001582852 -0.1784962457 0.8243903328
675295950.0 -0.1639521215 0.8318683522 3.39798e-05 2.17133e-05 -6.0618e-06 9.72724e-05 -0.1697118427 0.8265841638
680295920.0 -0.1564588032 0.8337226891 8.24318e-05 5.24918e-05 -2.0098e-06 4.80817e-05 -0.1609696484 0.8274563531
685295890.0 -0.1477340122 0.8361890533 -9.53048e-05 0.0001208395 4.02454e-05 3.07415e-05 -0.1534033816 0.8294157994
690295860.0 -0.1391833959 0.8367358821 -3.78268e-05 0.0002628694 -0.0001391186 0.0002163593 -0.1448076553 0.8308282359
695295830.0 -0.1308048804 0.8385385578 -7.82587e-05 5.34567e-05 -0.0002390899 1.82243e-05 -0.1364448317 0.8326100527
700295800.0 -0.1227441945 0.8400786362 0.0002398981 9.36114e-05 6.46267e-05 -1.68541e-05 -0.1285750465 0.8334924583
705295770.0 -0.1149008536 0.8412519507 0.0001170897 -6.15313e-05 -0.0001211402 -2.39134e-05 -0.12029116 0.8355987731
710295740.0 -0.1071261127 0.8421955345 5.85507e-05 0.0001046121 -3.64539e-05 -7.97955e-05 -0.111820516 0.8361234778
715295710.0 -0.09809215 0.8437178061 -0.0002270429 -4.32924e-05 -6.14125e-05 0.0002284886 -0.1029165403 0.836785399
720295680.0 -0.0890197867 0.8445149271 4.2607e-06 0.0002057231 8.64523e-05 3.011e-07 -0.0946160796 0.8380184515
725295650.0 -0.0815563541 0.8457230484 -0.0001004202 -3.72028e-05 -3.85803e-05 -0.0001405603 -0.0872658301 0.8397216277
730295620.0 -0.073455443 0.8466338407 5.43473e-05 0.0001861276 -9.01266e-05 -7.80999e-05 -0.0786996068 0.8404724029
735295590.0 -0.0655419773 0.8474232714 4.63238e-05 2.9983e-06 0.0001528993 -6.6532e-06 -0.0693720791 0.8407686317
740295560.0 -0.057681385 0.8473020701 5.58144e-05 -8.5611e-06 3.21299e-05 0.0001490078 -0.0616840885 0.8416890233
745295530.0 -0.0491485283 0.8487538729 -6.04586e-05 1.41989e-05 -0.0001016552 4.18152e-05 -0.0538887546 0.8418756934
750295500.0 -0.041171955 0.8494524067 3.85057e-05 2.57805e-05 8.50713e-05 -9.64596e-05 -0.0446876278 0.8422354822
755295470.0 -0.0325024193 0.8501044158 0.0002050182 -0.0001250939 2.63117e-05 -3.19618e-05 -0.0374487551 0.842960289
760295440.0 -0.0243113945 0.8504838151 -0.0001756733 2.27248e-05 0.0001399705 2.21573e-05 -0.0283154258 0.8426808495
765295410.0 -0.0165304987 0.8502983944 6.1599e-06 7.87239e-05 -0.0001619092 -9.34896e-05 -0.0194787861 0.8431791818
770295380.0 -0.0085889371 0.8506998706 -6.43029e-05 -7.45508e-05 -0.0002504887 4.59667e-05 -0.0111400726 0.8430963177
775295350.0 0.0002749382 0.8509890483 0.0001616485 5.67833e-05 -0.0001581152 0.0001101701 -0.0035880749 0.8430469135
780295320.0 0.0087044743 0.8513329239 0.0001232136 -0.0001458612 0.0001357281 -2.33976e-05 0.0054421889 0.8435696789
785295290.0 0.0169325922 0.8509818994 -0.0001032083 -2.21964e-05 -5.67865e-05 0.0001187448 0.0137309126 0.8437223942
790295260.0 0.0251913291 0.8509785606 -0.0001534419 -0.00019569 2.31091e-05 -7.73399e-05 0.0220710265 0.8436076188
795295230.0 0.0330254429 0.8509286126 -0.0002253241 -1.86178e-05 -3.38371e-05 0.0002135744 0.0296010342 0.8426513876
800295200.0 0.0408977942 0.8505484381 6.15389e-05 5.5384e-05 -1.09129e-05 -9.16321e-05 0.0381482789 0.842325922
805295170.0 0.0492772054 0.850626189 -6.53676e-05 7.27239e-05 -2.38197e-05 0.00025392 0.0473867785 0.8418897251
810295140.0 0.0576671282 0.8504941955 -6.34843e-05 7.92488e-05 -0.0002438949 -4.88752e-05 0.0556430149 0.8414102033
815295110.0 0.0652925765 0.8494482256 -2.62376e-05 -0.0001175983 -3.90258e-05 0.0001634039 0.0633088917 0.8409647752
820295080.0 0.0736376645 0.8486688368 0.00024374 -0.0002003313 0.0001150732 -3.65773e-05 0.0713623151 0.8407836554
825295050.0 0.0818994291 0.8479882704 -3.10989e-05 0.000213134 2.7504e-05 -0.0001492686 0.0804872667 0.8391671149
830295020.0 0.0900372674 0.8473640725 9.61356e-05 2.90885e-05 0.0001856649 0.0001548119 0.088197336 0.8379423194
835294990.0 0.0985141889 0.8465583854 -1.33221e-05 0.0001178335 -0.0001260305 0.0001058903 0.096335542 0.8381428197
840294960.0 0.1070352217 0.8454036329 2.28229e-05 -3.04424e-05 -6.40247e-05 -5.18179e-05 0.1050442438 0.8368668563
845294930.0 0.1143866331 0.8445035474 0.000189524 0.0001251223 1.83192e-05 -0.0001489897 0.1139337143 0.8356643318
850294900.0 0.1237402961 0.8429029961 8.64544e-05 -5.47372e-05 8.49186e-05 1.84588e-05 0.1213000494 0.8347027727
