!Created with skrf (http://scikit-rf.org).
# Hz S RI R 50.0 
!freq ReS11 ImS11 ReS21 ImS21 ReS12 ImS12 ReS22 ImS22
300000.0 -0.2332681254 -0.1087359803 0.4654413949 0.0718984363 0.4694334558 0.0726053158 -0.2363682022 -0.1123302071
5299970.0 -0.2407439136 0.0068463473 0.4751102513 0.0051887757 0.4749518042 0.0054986066 -0.2450598685 0.0055727361
10299940.0 -0.2371825004 0.0198673563 0.4775250803 0.0064435972 0.4771265956 0.0063718561 -0.2418421609 0.0175762899
15299910.0 -0.2328938473 0.0300111467 0.4805127255 0.007542767 0.4807511306 0.0075919947 -0.2375505226 0.0263430882
20299880.0 -0.227428963 0.0379339148 0.4853776065 0.0079385154 0.4854106977 0.0082042819 -0.232908483 0.033916116
25299850.0 -0.2217210089 0.0444787528 0.4906047605 0.0065026018 0.4908086082 0.0070838267 -0.2279555451 0.039857853
30299820.0 -0.2159304748 0.0494635927 0.4963746977 0.0052447033 0.4959831651 0.0048376891 -0.2225851338 0.044638517
35299790.0 -0.2099843838 0.0539742396 0.5011843422 0.0015987803 0.5010736914 0.0018334688 -0.2174642907 0.0484491516
40299760.0 -0.2044418619 0.0568956607 0.5061902232 -0.0018142476 0.5066071283 -0.0023376629 -0.2129226949 0.0519496082
45299730.0 -0.1994661406 0.0599925423 0.5106745214 -0.0072156818 0.5113335893 -0.0069228535 -0.2080675584 0.0543611468
50299700.0 -0.1945978836 0.0618937525 0.5151824163 -0.0124145802 0.5150409477 -0.0127196158 -0.2036254089 0.0562097566
55299670.0 -0.1907540921 0.0639369333 0.5183297067 -0.018717704 0.5191381577 -0.018305194 -0.2001312593 0.0582043786
60299640.0 -0.1865719908 0.0648627625 0.5216940893 -0.0247987482 0.5221488506 -0.0244544879 -0.1962893854 0.0593700598
65299610.0 -0.1831026106 0.0662797627 0.5250253684 -0.030757278 0.5252098352 -0.0310299001 -0.1928947881 0.0605340366
70299580.0 -0.1796918327 0.0671445643 0.5269998269 -0.0375552993 0.5272106969 -0.0376288616 -0.1899316128 0.0615072878
75299550.0 -0.1763953504 0.0680531971 0.5290948159 -0.0444134441 0.5291974313 -0.044713795 -0.1871799407 0.0626185456
80299520.0 -0.1743711188 0.0688442055 0.5316460557 -0.0511146162 0.5311699333 -0.0511000272 -0.1849529796 0.0625902591
85299490.0 -0.1712743184 0.0693170881 0.5323260702 -0.0582190797 0.5324719649 -0.0585906901 -0.1825053631 0.0632445159
90299460.0 -0.1694729495 0.0700964854 0.5335634893 -0.0650031901 0.5336645909 -0.0650703479 -0.1803899601 0.064354883
95299430.0 -0.1670670308 0.0710915508 0.53430766 -0.0724702365 0.534394353 -0.0720557057 -0.1785448865 0.0647364756
100299400.0 -0.1657255987 0.0718568304 0.5347057978 -0.0786729703 0.5347801814 -0.0788634363 -0.1772158655 0.0655455139
105299370.0 -0.1634900301 0.0725595919 0.5346347501 -0.0857077145 0.5349593713 -0.0859897475 -0.1748314118 0.0661361224
110299340.0 -0.1620372542 0.0730626035 0.5348956681 -0.0929570989 0.5350383245 -0.0930561966 -0.1737182615 0.0668282826
115299310.0 -0.1603249554 0.0736985086 0.5351761208 -0.0993432356 0.5351306442 -0.0993420279 -0.172309578 0.0668287231
120299280.0 -0.1590281322 0.0744503672 0.5351198164 -0.1066460907 0.5350986567 -0.1065384219 -0.1713346711 0.0680246422
125299250.0 -0.1579621304 0.0750491229 0.5344086841 -0.1129185821 0.5349066074 -0.1132499125 -0.1700806987 0.0683930921
130299220.0 -0.1564620181 0.0759691386 0.533656614 -0.1193495517 0.5340346601 -0.1199278225 -0.1687038267 0.069475076
135299190.0 -0.1553516904 0.0768618588 0.5331581264 -0.1262982952 0.5332313663 -0.1261486512 -0.1680738364 0.0701042762
140299160.0 -0.1544507713 0.0782418464 0.532370626 -0.1330891481 0.5323371461 -0.1330756328 -0.1664539497 0.0709500844
145299130.0 -0.1531921027 0.0790940729 0.532170827 -0.1397695486 0.5315744938 -0.1390929565 -0.1660414543 0.0715539303
150299100.0 -0.1518564055 0.0798282687 0.5303946647 -0.1462786636 0.5306168747 -0.1462127118 -0.165326545 0.0727850385
155299070.0 -0.1512386455 0.0814770636 0.5296599167 -0.1528661424 0.5293277518 -0.1528166681 -0.1643513174 0.0734911927
160299040.0 -0.1500769146 0.0821617335 0.527745284 -0.1589314457 0.5278068512 -0.1592681675 -0.1634136017 0.0749627986
165299010.0 -0.149279636 0.0830367564 0.5265676553 -0.1656630704 0.5263490175 -0.1654804858 -0.1626554289 0.0754032855
170298980.0 -0.1484081916 0.0842453053 0.5243638354 -0.1719204073 0.5247490045 -0.1718522187 -0.1616610483 0.0763464643
175298950.0 -0.1473933346 0.0856122321 0.5236879137 -0.1779166749 0.523520437 -0.1783080583 -0.1610195533 0.0777687749
180298920.0 -0.1462680912 0.0866666202 0.5212711156 -0.1845273217 0.5219377006 -0.1841046989 -0.1602655551 0.0785833458
185298890.0 -0.1452401458 0.0879493472 0.5195018969 -0.1908436977 0.5199904165 -0.1905375377 -0.1596213139 0.0796144598
190298860.0 -0.1443118434 0.0891391274 0.5174227053 -0.1971559404 0.5182160601 -0.1970555847 -0.1585602829 0.0809331682
195298830.0 -0.1437480981 0.0901471504 0.5157420134 -0.2027288213 0.5158197167 -0.2032820267 -0.1578690848 0.0816632313
200298800.0 -0.1426901089 0.0917011995 0.5139611303 -0.2086514396 0.5140268369 -0.2090964991 -0.156933741 0.0835896723
205298770.0 -0.1416784689 0.0929231786 0.5120891158 -0.2146942584 0.5117359173 -0.2148254027 -0.1563696997 0.0839090653
210298740.0 -0.1407691691 0.094275703 0.5092786133 -0.2211356935 0.5095061872 -0.2211490655 -0.1555350503 0.085634783
215298710.0 -0.1397423223 0.0956781214 0.5069279356 -0.2266544789 0.5073127017 -0.2266582118 -0.1553303438 0.0865461085
220298680.0 -0.1390903823 0.0971128242 0.5049257782 -0.2326402325 0.5045880129 -0.232590345 -0.1538338034 0.0884359326
225298650.0 -0.1377051096 0.0984637053 0.5021170747 -0.2382811178 0.501963285 -0.2384846075 -0.1533358142 0.089444795
230298620.0 -0.1371691095 0.099915132 0.4997200477 -0.2440867902 0.4995451088 -0.2448177587 -0.1524620175 0.0908551087
235298590.0 -0.1359384975 0.1011692986 0.4970919964 -0.2500354834 0.4969598392 -0.2506661986 -0.151741732 0.0917071621
240298560.0 -0.134912486 0.1027776642 0.4945456353 -0.2558264 0.4944766248 -0.2558129567 -0.1508860502 0.0931763203
245298530.0 -0.1336132898 0.1040559168 0.4908632058 -0.2615001551 0.4913947064 -0.2615011328 -0.1504021683 0.0945685711
250298500.0 -0.1330817882 0.1053265738 0.488743607 -0.2666903749 0.4891989538 -0.2667584019 -0.1490653039 0.0959284059
255298470.0 -0.1319939059 0.1068964396 0.4857213361 -0.2722828359 0.485664722 -0.2723614397 -0.1479981244 0.0967932313
260298440.0 -0.1308554617 0.1081291751 0.4830752391 -0.278165272 0.4827107771 -0.2783587943 -0.1468259919 0.0983846837
265298410.0 -0.1296109132 0.1096944478 0.4794642689 -0.2837106207 0.479759429 -0.2838940105 -0.1464306412 0.0997291695
270298380.0 -0.1284378993 0.1110730248 0.4763857211 -0.2891182639 0.4768364845 -0.2891563163 -0.1455101537 0.1011778282
275298350.0 -0.1275528181 0.1123575827 0.4736888148 -0.2947739118 0.4741174873 -0.2950502788 -0.1445149748 0.1026519239
280298320.0 -0.1263312507 0.1140871425 0.4703860779 -0.299327275 0.4701179586 -0.3001299014 -0.1435191002 0.1040025544
285298290.0 -0.1247871232 0.1155002154 0.467290555 -0.3054687969 0.4672388319 -0.3054112637 -0.1424962618 0.1051995275
290298260.0 -0.1235568188 0.1168536224 0.463410491 -0.3103673712 0.4641804361 -0.3106020342 -0.1412819999 0.1068369039
295298230.0 -0.1226094638 0.1182591912 0.4605953997 -0.3160649017 0.4599697238 -0.3160944085 -0.1401486639 0.1082460972
300298200.0 -0.1208110456 0.119391446 0.4570240907 -0.3211910637 0.4570647233 -0.3213339188 -0.1396791365 0.1098738632
305298170.0 -0.1197248087 0.1206238273 0.4534485081 -0.3264155085 0.4540586458 -0.3269088398 -0.137978795 0.1110844681
310298140.0 -0.117976582 0.1217095889 0.4501652869 -0.3319941864 0.450190623 -0.3321215819 -0.1373403297 0.1124665243
315298110.0 -0.1171340528 0.1232739612 0.4465437319 -0.3367890583 0.4467142654 -0.337019395 -0.1357949728 0.1132543794
320298080.0 -0.1159900895 0.1246485201 0.4424060305 -0.3422882484 0.4428378007 -0.3421866483 -0.1350085215 0.1148077236
325298050.0 -0.1145570346 0.1255685582 0.4391782039 -0.3471240914 0.4392722654 -0.3476150493 -0.1341147357 0.1162296307
330298020.0 -0.113488438 0.1269534696 0.4344250301 -0.3522040259 0.4346779853 -0.3520306234 -0.133150478 0.1168735221
335297990.0 -0.1120984055 0.1282385269 0.4305320845 -0.3570539576 0.4307776242 -0.3569202551 -0.132285806 0.118371535
340297960.0 -0.111706334 0.1295359919 0.4265224434 -0.3615965367 0.4268690328 -0.3615038785 -0.1312176148 0.1201498531
345297930.0 -0.1101950303 0.1310503537 0.4223760109 -0.3656843732 0.4224773032 -0.3663411187 -0.1301160629 0.12116046
350297900.0 -0.1081864658 0.1326982368 0.4183691889 -0.3709529195 0.4186881016 -0.3714406867 -0.1288178612 0.1231628378
355297870.0 -0.1071894296 0.1338694959 0.4145297511 -0.3755279298 0.414342065 -0.3754070916 -0.1281210234 0.1243034484
360297840.0 -0.1053897578 0.1352132537 0.4101700311 -0.3804173974 0.410204559 -0.3802775841 -0.1269729292 0.1261334241
365297810.0 -0.1041903666 0.13652799 0.4061064763 -0.384565791 0.4059129761 -0.3846757893 -0.1256558273 0.1274052811
370297780.0 -0.1026040791 0.1376439431 0.4015248842 -0.3888943092 0.4015382868 -0.3892626964 -0.1242006215 0.1285968817
375297750.0 -0.1011001711 0.1392496753 0.3976707719 -0.3935526259 0.3976393645 -0.3939400794 -0.123409534 0.13024019
380297720.0 -0.0992726402 0.1404118468 0.3929029672 -0.397803409 0.393062649 -0.3978345529 -0.1219665907 0.1319333335
385297690.0 -0.0978958707 0.1415639964 0.3883955645 -0.4017020003 0.3886262084 -0.4019614064 -0.1207148185 0.1330828487
390297660.0 -0.0969014507 0.1426519548 0.3840977759 -0.4064141323 0.3841476975 -0.4066560346 -0.1190947266 0.1342746047
395297630.0 -0.0949195145 0.1439249548 0.3797947998 -0.4102988525 0.3797816864 -0.410543357 -0.1182797225 0.1359510127
400297600.0 -0.0935594186 0.1452158001 0.3752017586 -0.4145939379 0.3757575187 -0.4150408787 -0.1175810313 0.1368567808
405297570.0 -0.0916752345 0.1465344076 0.3707232901 -0.4185824462 0.3710016963 -0.4190149764 -0.1156742711 0.138715641
410297540.0 -0.0899297308 0.1476012059 0.3656363592 -0.4223609703 0.3657788564 -0.4224440344 -0.1145850854 0.1395935131
415297510.0 -0.0884570101 0.1489902462 0.3611438102 -0.4268170723 0.3617054559 -0.4265971272 -0.1131941015 0.1413481541
420297480.0 -0.0865138947 0.149687739 0.3562655204 -0.4308271219 0.3564731858 -0.4304918205 -0.1117362429 0.1420019692
425297450.0 -0.0851728155 0.1506797817 0.3518113306 -0.4343958437 0.3520502882 -0.4346270001 -0.1106184485 0.143982862
430297420.0 -0.0836158864 0.1518952946 0.3471496189 -0.438495133 0.3469644693 -0.4386177174 -0.1089696578 0.1451659646
435297390.0 -0.0816079578 0.1529497816 0.3422748924 -0.4418662232 0.3426463908 -0.4419195907 -0.1075282845 0.1463982698
440297360.0 -0.0799853409 0.1540540595 0.3371772133 -0.4457203251 0.3367855302 -0.4458344224 -0.106272593 0.1474236697
445297330.0 -0.0781792005 0.1549128108 0.3319022018 -0.4497124185 0.3322117789 -0.4495018685 -0.1050776219 0.1485762545
450297300.0 -0.0763187462 0.1559412005 0.3273929549 -0.4530963034 0.3278737827 -0.4531480639 -0.1037707906 0.1498880157
455297270.0 -0.0748503774 0.156962646 0.3229578412 -0.4566097423 0.3228423374 -0.4563722865 -0.1019902334 0.1513283534
460297240.0 -0.0730678462 0.1582079811 0.3175006182 -0.4598919199 0.3173108933 -0.4602244414 -0.1003663911 0.1526414587
465297210.0 -0.0711179981 0.158782778 0.3128403128 -0.4634824684 0.3130350228 -0.4635726586 -0.0998091554 0.1534213728
470297180.0 -0.0695433492 0.1597770399 0.3075476226 -0.4667810351 0.3080124002 -0.4669076776 -0.098219855 0.1544764429
475297150.0 -0.0679141815 0.1605398656 0.3017193284 -0.4702002863 0.3026207724 -0.4698454119 -0.0965382789 0.1558183527
480297120.0 -0.0656746818 0.1612064531 0.2967960374 -0.4731438812 0.2973986572 -0.4734805116 -0.0952675911 0.1574755438
485297090.0 -0.0637288991 0.1622952611 0.2921545418 -0.476314941 0.2920384068 -0.4761673091 -0.0934727628 0.1579636231
490297060.0 -0.0618809965 0.1630471092 0.2869274982 -0.4796399019 0.2869527427 -0.4798593499 -0.0919922729 0.1593543153
495297030.0 -0.0606843161 0.1641822448 0.2813425633 -0.4826481141 0.2813221905 -0.4827224687 -0.0907104715 0.1601699767
500297000.0 -0.0582989517 0.1645319615 0.2758784663 -0.4859006953 0.2764927844 -0.4857364637 -0.089570274 0.1614282697
505296970.0 -0.0571460321 0.165249745 0.2705653865 -0.488175248 0.2709652061 -0.4884832571 -0.0884530989 0.1623524167
510296940.0 -0.0551586359 0.1664071285 0.2659029342 -0.4915947308 0.2657002612 -0.4917428517 -0.0863358337 0.1639001816
515296910.0 -0.0533125027 0.1673211832 0.2601336242 -0.4946218833 0.260063216 -0.4944958618 -0.0848304169 0.1646716707
520296880.0 -0.051102852 0.1677134898 0.2546127935 -0.4970769292 0.2549938977 -0.4969245094 -0.0830568396 0.1656123078
525296850.0 -0.0495328767 0.1681192043 0.2494257969 -0.4994421058 0.2497338999 -0.500048963 -0.081325869 0.1666816246
530296820.0 -0.0474457285 0.1691398701 0.2442413849 -0.5019083659 0.244015234 -0.5022080799 -0.0801566539 0.1672666543
535296790.0 -0.045762622 0.1698269657 0.2385512696 -0.5048494636 0.2386511795 -0.5048786967 -0.0786960658 0.1682200695
540296760.0 -0.0437064283 0.1700622938 0.2331136481 -0.5079581054 0.2327956311 -0.5076080424 -0.0771483792 0.1694847801
545296730.0 -0.0419895046 0.1710499366 0.2273990793 -0.5099044377 0.2276226652 -0.5104345691 -0.0755261555 0.1699472596
550296700.0 -0.0401255426 0.1716047594 0.2219207388 -0.5126361104 0.2227909728 -0.5125615328 -0.0739361741 0.1715554329
555296670.0 -0.0378378611 0.1720120725 0.2165160229 -0.5145855535 0.2166972276 -0.5150165869 -0.0726234397 0.172211427
560296640.0 -0.0363150761 0.1724782449 0.2109193759 -0.5167615013 0.2111090214 -0.5168516132 -0.0705950226 0.1728412776
565296610.0 -0.0344910862 0.1733080862 0.2054195627 -0.5194428458 0.2050237598 -0.5192804074 -0.068991367 0.1736156255
570296580.0 -0.0321515494 0.1736301341 0.1991148669 -0.5213234484 0.1999695105 -0.5215882661 -0.0674408366 0.1748814456
575296550.0 -0.0302499718 0.1745075888 0.1939878165 -0.5233286202 0.1944399588 -0.5234643475 -0.0655517225 0.1755128082
580296520.0 -0.0285803907 0.1746243491 0.1885197071 -0.5255574862 0.1884432412 -0.5258094064 -0.0641650564 0.1762213363
585296490.0 -0.0262958875 0.1746915347 0.1827076052 -0.5272361866 0.1824146138 -0.5276340526 -0.0628138966 0.17659126
590296460.0 -0.0246096001 0.1751360682 0.1765293225 -0.5291710432 0.1767302212 -0.5296339289 -0.0607354131 0.1776395581
595296430.0 -0.0225660595 0.1757310877 0.1712589676 -0.531249281 0.1710955896 -0.5316954368 -0.0590689064 0.1780209806
600296400.0 -0.0209147319 0.176295868 0.1655409476 -0.5330638887 0.1657037789 -0.533239296 -0.0575413627 0.1794649994
605296370.0 -0.018699588 0.1770345559 0.1597278858 -0.5352015604 0.1598426192 -0.5347266179 -0.0558498884 0.1797690601
610296340.0 -0.0166852636 0.1769958238 0.1539887131 -0.5364503506 0.1541727337 -0.5363361648 -0.0542432078 0.1809218431
615296310.0 -0.0147187296 0.1776300844 0.1477328669 -0.5381070023 0.1481179735 -0.5381415645 -0.0521818017 0.1810763946
620296280.0 -0.012923323 0.1775457432 0.1420076319 -0.5391842923 0.1422676844 -0.5394829795 -0.0508525393 0.1814976079
625296250.0 -0.0105437273 0.177963169 0.1359297329 -0.5413925917 0.1363947544 -0.5414555896 -0.0487870848 0.1824664908
630296220.0 -0.0088943904 0.1782217494 0.1306420656 -0.5425906564 0.131005593 -0.5427814742 -0.047293164 0.1833127818
635296190.0 -0.0068917185 0.1783564683 0.1244588732 -0.5430129773 0.1244426239 -0.5435666082 -0.0451845601 0.1835286307
640296160.0 -0.0048622473 0.1786363967 0.1189160889 -0.5446426025 0.1186836749 -0.5451422413 -0.0433399567 0.1839107498
645296130.0 -0.0028852153 0.1789449417 0.1127851847 -0.5465686507 0.1130499878 -0.5461753259 -0.0424209164 0.1846281688
650296100.0 -0.000961678 0.1795001469 0.1072530321 -0.5471885146 0.1069977921 -0.5473565118 -0.0402727311 0.1852983795
655296070.0 0.0010303241 0.1791577517 0.1012399769 -0.5481364395 0.1012419058 -0.5488004088 -0.0382610312 0.1861005252
660296040.0 0.0025849596 0.1798552938 0.0953269943 -0.5494989857 0.0953486874 -0.5495749768 -0.0368581377 0.186318867
665296010.0 0.0051152238 0.1795411983 0.0893053914 -0.5505786898 0.0898051925 -0.5505340463 -0.0351662181 0.1871601521
670295980.0 0.0074654452 0.17979471 0.0831962348 -0.5513307336 0.0838705979 -0.551406785 -0.0335816147 0.1875036197
675295950.0 0.0093094942 0.1797884609 0.0774383975 -0.5523467726 0.0777179623 -0.5527906112 -0.031158175 0.187837936
680295920.0 0.0111255266 0.1801486846 0.0713571564 -0.5532902874 0.0712151939 -0.5532019388 -0.0293481929 0.1880728203
685295890.0 0.0130917391 0.1799711338 0.0656634382 -0.5536244708 0.0652379579 -0.5540525028 -0.0277407853 0.1886546344
690295860.0 0.0154243693 0.1799916929 0.0595398442 -0.5539155051 0.0591773614 -0.554087421 -0.0255693846 0.1894211631
695295830.0 0.0175184131 0.1797858524 0.0527120105 -0.5545717512 0.0533221331 -0.5550537228 -0.0242873046 0.1895956823
700295800.0 0.0194586411 0.1799456192 0.0471174182 -0.5554097056 0.0473787695 -0.5555800952 -0.0223153834 0.1895156354
705295770.0 0.0214932909 0.179685772 0.0416818224 -0.5556983722 0.0414035588 -0.5559738217 -0.0205357545 0.1902022778
710295740.0 0.0234694132 0.1800341818 0.0353021105 -0.5563474594 0.0356319626 -0.5559383398 -0.0192192916 0.1908941343
715295710.0 0.0250296694 0.1795947139 0.0294601349 -0.5565821388 0.0299262355 -0.5569743138 -0.0170881927 0.1908676991
720295680.0 0.0274336247 0.1793350901 0.0233693423 -0.5567076886 0.0233314026 -0.5574390567 -0.0147557174 0.1913919765
725295650.0 0.0295380614 0.1793063901 0.0173035117 -0.5567013615 0.0175263005 -0.5569453368 -0.0131164967 0.1918388836
730295620.0 0.0310583642 0.1790807053 0.0111744786 -0.5572700638 0.0112332372 -0.55706882 -0.0110094025 0.1915523524
735295590.0 0.0335673529 0.1789551476 0.0055186701 -0.5572044303 0.005703925 -0.5572728048 -0.0092849226 0.1923942847
740295560.0 0.0354548612 0.1787910503 -0.0006596154 -0.5566914272 -0.0004329379 -0.5570262823 -0.0072152718 0.1921928511
745295530.0 0.0374331971 0.1784140686 -0.0064406805 -0.5570334081 -0.0061863033 -0.5576146049 -0.0058652455 0.1926268239
750295500.0 0.0393374683 0.1780159321 -0.0123501935 -0.5562654949 -0.012568806 -0.5567132889 -0.0037220345 0.19239121
755295470.0 0.0420017302 0.17810578 -0.0187284343 -0.5567758904 -0.0181838054 -0.556961412 -0.0025763628 0.1929065225
760295440.0 0.0434104357 0.1778046999 -0.0245958728 -0.5562401613 -0.024356736 -0.5567201742 -0.0007702935 0.192836794
765295410.0 0.0451266474 0.1769710435 -0.0300195471 -0.5556860014 -0.0304623722 -0.5564619379 0.0023088307 0.1932907176
770295380.0 0.0476436583 0.1771796109 -0.0367682209 -0.5553438019 -0.0366692634 -0.5561710077 0.00381312 0.1938121261
775295350.0 0.0492273545 0.1767873178 -0.0423696036 -0.5549998347 -0.0420702441 -0.5554886623 0.005208265 0.1931813716
780295320.0 0.0514578207 0.1762151494 -0.0481244192 -0.5549567844 -0.0478958472 -0.5551435323 0.0069904278 0.193926452
785295290.0 0.0536194358 0.1759547424 -0.0544009195 -0.5537717445 -0.0544173784 -0.5541367732 0.0086909984 0.1934723194
790295260.0 0.0552521679 0.175300611 -0.0600572111 -0.5533452439 -0.0602281171 -0.5541479331 0.0110366993 0.1940332922
795295230.0 0.0574688478 0.1751973724 -0.0657533115 -0.5526123537 -0.0660518925 -0.5530726643 0.0127698034 0.194590101
800295200.0 0.0593646988 0.1744681317 -0.0724126899 -0.5520369915 -0.0724794671 -0.5523556858 0.0147965156 0.1939023949
805295170.0 0.0611291951 0.1740262953 -0.0781416314 -0.5505069656 -0.0776756167 -0.551380202 0.0163482201 0.1936671996
810295140.0 0.0632562428 0.1736242386 -0.0837945921 -0.5504931381 -0.0839038496 -0.5509264756 0.0186031826 0.1944450399
815295110.0 0.0651493992 0.1729315973 -0.0903756793 -0.5493467185 -0.0898515848 -0.5496386015 0.0199237086 0.1938515812
820295080.0 0.0669947045 0.1719032797 -0.0956255644 -0.5481274286 -0.0956232624 -0.5487478668 0.0219203462 0.1938933895
825295050.0 0.069179853 0.1717869807 -0.1019511201 -0.5470818571 -0.1018687361 -0.5473444411 0.0239528915 0.1938269281
830295020.0 0.0709813003 0.1712647436 -0.1079278597 -0.5457043222 -0.1076450448 -0.5463442605 0.0254009518 0.193608969
