!Created with skrf (http://scikit-rf.org).
# Hz S RI R 50.0 
!freq ReS11 ImS11 ReS21 ImS21 ReS12 ImS12 ReS22 ImS22
300000.0 -0.7737893845 -0.0987419801 -0.0009910506 0.0023051957 0.0009449877 -0.0003886821 -0.2128313154 -0.0829401284
5299970.0 -0.7851495019 -0.0056758404 -0.0002241345 -2.29367e-05 -3.91428e-05 -4.88211e-05 -0.2147316214 0.0084071068
10299940.0 -0.7875769713 -0.0042626939 -5.84226e-05 -1.51653e-05 2.84603e-05 2.626e-05 -0.210997339 0.0215027444
15299910.0 -0.7934168254 -0.0021818835 -9.56379e-05 -0.0001148027 9.78576e-05 1.52353e-05 -0.2062120246 0.0311466216
20299880.0 -0.8000802855 0.0020499085 -0.0001662375 -5.58426e-05 0.0001105784 -0.0001565581 -0.1999776857 0.0391857852
25299850.0 -0.806218477 0.0075715616 -0.0001426008 -7.41997e-05 0.0001580738 3.7731e-06 -0.1937466481 0.0458306359
30299820.0 -0.8122358045 0.0150265858 -8.70663e-05 1.85422e-05 -0.0001552646 -3.10213e-05 -0.1870593411 0.0506302512
35299790.0 -0.8174898283 0.0244778475 0.0001114931 3.85515e-05 2.67385e-05 -0.000148961 -0.1810067507 0.05499882
40299760.0 -0.8215260397 0.0335401376 -4.98415e-05 -3.4742e-05 -0.0001463168 -2.80858e-05 -0.1750101343 0.0575561261
45299730.0 -0.8246897752 0.0426614344 8.53465e-05 -8.089e-05 6.6159e-06 -0.0001229181 -0.1695591515 0.0596474574
50299700.0 -0.8272785089 0.0526304774 0.0001327913 1.33871e-05 -3.14749e-05 9.72935e-05 -0.1639934464 0.0609414253
55299670.0 -0.829220227 0.0632096045 0.0001360124 -4.5577e-05 -6.82344e-05 9.31421e-05 -0.1594965272 0.0621425185
60299640.0 -0.8297426028 0.0733273845 4.68895e-05 0.0001503028 -0.0001677037 -0.0001592977 -0.1548669039 0.0624471158
65299610.0 -0.8309735171 0.083150965 -3.2576e-05 0.0001936267 -8.48303e-05 0.0001301918 -0.1515101286 0.0625256503
70299580.0 -0.8318699254 0.0934501184 0.0001066341 0.0001740522 -0.0001932668 -5.19327e-05 -0.1478914563 0.0629290755
75299550.0 -0.8319697859 0.1039752426 6.50813e-05 0.0001270434 -3.84557e-05 6.81815e-05 -0.1447559862 0.0624487757
80299520.0 -0.8321931172 0.1133104049 -4.48683e-05 5.7102e-06 2.9718e-05 -0.0001607418 -0.1418222339 0.062724153
85299490.0 -0.8310376835 0.1231594006 -2.91071e-05 -0.0001999665 -0.0001076337 -1.49366e-05 -0.1394489938 0.0622455096
90299460.0 -0.8302434019 0.1320506013 -0.0001563137 0.0002399165 0.0001718297 0.0001236869 -0.1370475377 0.0621307045
95299430.0 -0.8290437664 0.1417850045 -0.0001178214 -5.56508e-05 -4.16675e-05 2.84052e-05 -0.1348547149 0.0621877981
100299400.0 -0.8286917107 0.1506499521 -0.0001169667 -3.28906e-05 5.38453e-05 4.14413e-05 -0.1328819381 0.0617039998
105299370.0 -0.8268599174 0.1601781633 -0.0001178577 -2.55683e-05 3.2343e-05 0.0002907446 -0.1308918478 0.0614329554
110299340.0 -0.8250246006 0.1692698611 -0.0001221144 0.0001156411 0.0001570088 -9.71233e-05 -0.129460732 0.0610890033
115299310.0 -0.8241770466 0.1784884606 4.12013e-05 -3.23912e-05 4.24531e-05 9.4607e-06 -0.1278777817 0.0609478585
120299280.0 -0.8222186872 0.1869077998 1.94292e-05 -1.56184e-05 -5.83682e-05 0.000156307 -0.1268120782 0.061151349
125299250.0 -0.820502284 0.19604279 5.52763e-05 0.0002453792 0.0001030806 -0.0001066232 -0.1256319769 0.0608274915
130299220.0 -0.8185811974 0.2052908269 0.0001514016 1.60695e-05 0.0002250204 -0.0001563247 -0.1244266849 0.0607177671
135299190.0 -0.8167075262 0.2143318742 0.0002519315 -0.0003064356 3.36889e-05 0.0001582125 -0.1232674099 0.0610495134
140299160.0 -0.8144371793 0.2227109804 7.04074e-05 1.81612e-05 2.2337e-05 0.0002311598 -0.1224372748 0.0612174561
145299130.0 -0.8125427827 0.232203261 0.0002006181 0.0001303001 1.70094e-05 0.0002180368 -0.1217714842 0.0614757226
150299100.0 -0.8101875418 0.2406804259 8.26489e-05 -1.52228e-05 -0.0001080191 0.0001667863 -0.1208141862 0.062244581
155299070.0 -0.8074936302 0.2497491168 -0.0001444794 7.0106e-06 1.99905e-05 -3.52365e-05 -0.1199103239 0.062264034
160299040.0 -0.804748141 0.2577563268 -3.79272e-05 7.00045e-05 1.88885e-05 -1.89927e-05 -0.1197328545 0.0625066583
165299010.0 -0.802637689 0.2669404902 0.0002544634 0.000214959 5.9461e-06 4.76085e-05 -0.118510326 0.0629865466
170298980.0 -0.8001748768 0.2754072107 -0.0001591925 -0.0002513597 8.35706e-05 -2.20653e-05 -0.1178752589 0.0634312781
175298950.0 -0.7975073877 0.2839185492 8.43593e-05 0.0001143332 3.1096e-05 -9.79146e-05 -0.1177325014 0.0639649382
180298920.0 -0.7946408695 0.292776542 7.07411e-05 0.0001208046 -9.46168e-05 -2.81369e-05 -0.1170011376 0.0647425917
185298890.0 -0.7909375033 0.3005299703 -2.95054e-05 -0.0001477714 3.43409e-05 -6.51692e-05 -0.1164799893 0.065120667
190298860.0 -0.7883980914 0.3096912859 -0.0004220373 0.0002148724 0.0001404096 5.61976e-05 -0.1161039844 0.0656372467
195298830.0 -0.7853590634 0.3179926704 -1.6857e-06 -2.52912e-05 0.0001045838 1.70546e-05 -0.115612863 0.0662340334
200298800.0 -0.7815743482 0.3257146959 0.0003764838 -0.0002044567 5.9202e-05 1.81881e-05 -0.1152297801 0.0666833232
205298770.0 -0.7785251739 0.3341224245 7.01509e-05 0.0001528431 -0.0001246864 0.0001884737 -0.1145782149 0.0672305529
210298740.0 -0.7744447361 0.3424035143 7.40574e-05 4.42255e-05 0.0001210985 -4.48206e-05 -0.1142114237 0.0680212472
215298710.0 -0.7712037627 0.3507553619 0.0001332022 -4.57082e-05 0.0001618826 5.79966e-05 -0.1140205734 0.0688984776
220298680.0 -0.7675958981 0.3586935641 -0.0001396755 1.22793e-05 0.0001169766 0.0002453352 -0.11390274 0.0695576951
225298650.0 -0.7643649203 0.3668072665 0.0001724363 -1.53308e-05 0.0001119021 5.89415e-05 -0.1134603367 0.0702402789
230298620.0 -0.7602639662 0.3745072263 -0.0001064294 0.0002494427 -9.3381e-06 2.99565e-05 -0.1128747872 0.0705124583
235298590.0 -0.7561691993 0.3832596075 0.000255708 5.00112e-05 2.91988e-05 -0.0001169647 -0.1125068704 0.0716747715
240298560.0 -0.7519291422 0.3909391254 -7.74184e-05 0.000310639 8.08553e-05 0.0001192802 -0.1119808672 0.0725446171
245298530.0 -0.7486445784 0.3988680306 8.00035e-05 8.95469e-05 -5.35008e-05 -0.0001842802 -0.1115262675 0.0729578025
250298500.0 -0.7440361734 0.4064109005 4.26001e-05 0.0001788033 4.22583e-05 0.0001253442 -0.1114549772 0.073752087
255298470.0 -0.7390637625 0.4134366563 -7.94029e-05 7.1515e-06 6.08042e-05 -3.97389e-05 -0.1108160895 0.0742464039
260298440.0 -0.7353440768 0.4215463636 -2.2356e-06 0.0002295889 -2.88314e-05 -9.06685e-05 -0.1101228802 0.0754172266
265298410.0 -0.7315152299 0.4295641203 0.0002094294 1.60335e-05 8.5536e-05 -8.59922e-05 -0.1094400844 0.0765580826
270298380.0 -0.727384723 0.4374077217 8.77479e-05 -7.29216e-05 0.0001711836 7.90358e-05 -0.1089925211 0.0772135147
275298350.0 -0.7222016856 0.4445746276 0.0001664881 -9.2971e-06 4.73057e-05 -0.0002059941 -0.1086002939 0.0780580954
280298320.0 -0.7168917009 0.4522624526 0.0001236679 -2.12878e-05 0.000200696 0.0001633382 -0.1079191306 0.0787371796
285298290.0 -0.7129123949 0.4596120773 1.5488e-06 0.0001529379 2.18005e-05 1.15364e-05 -0.1071304731 0.079628692
290298260.0 -0.7081635197 0.4671356631 2.29324e-05 0.0002421222 0.0001354818 1.64941e-05 -0.1065852349 0.0808052085
295298230.0 -0.7026691832 0.4737949638 0.0002834357 4.43695e-05 4.26658e-05 3.74353e-05 -0.1058717619 0.081374634
300298200.0 -0.6976478467 0.4816388091 1.97938e-05 -7.33868e-05 0.0001419195 0.0001061061 -0.1049770461 0.0825351367
305298170.0 -0.6926643331 0.4880522381 8.89209e-05 0.0001818465 0.000159664 3.08224e-05 -0.1041191175 0.083008172
310298140.0 -0.687455238 0.4958375773 4.32764e-05 -3.65453e-05 8.85008e-05 0.0001901787 -0.1041525791 0.0839134787
315298110.0 -0.6831659049 0.5033773695 -0.0001891184 -9.7225e-06 0.0002121398 8.26296e-05 -0.1032443111 0.0848829602
320298080.0 -0.6772621168 0.5101600319 0.0002408254 0.000187793 0.0002452538 0.000337059 -0.1026804367 0.0859804232
325298050.0 -0.6718005511 0.5168470315 1.73512e-05 0.0001686249 9.11077e-05 1.31395e-05 -0.1024603306 0.0863721035
330298020.0 -0.6665347939 0.5237066971 0.0001025652 9.1083e-06 3.35327e-05 -8.2742e-06 -0.1015005561 0.0879121741
335297990.0 -0.6605468597 0.5304502912 -1.1452e-06 0.0001438457 7.32837e-05 -6.66479e-05 -0.1014675688 0.0893238541
340297960.0 -0.6555258836 0.5375941974 0.0002398341 -7.07376e-05 3.25707e-05 0.0003147117 -0.1003089529 0.0901099595
345297930.0 -0.6500578157 0.544118574 8.37489e-05 -2.33859e-05 0.0002513655 4.45172e-05 -0.1000534149 0.0910865989
350297900.0 -0.6443263704 0.5510441675 9.93313e-05 -2.04735e-05 -2.44325e-05 0.0002733182 -0.0996068696 0.0928230824
355297870.0 -0.6379609934 0.5579183902 0.0001558549 0.000213257 0.0002096316 -6.21905e-05 -0.098989046 0.0932939056
360297840.0 -0.6322179355 0.5636850113 -9.67588e-05 0.0001487527 8.92922e-05 -0.000151926 -0.0985709861 0.0944246275
365297810.0 -0.6272856977 0.5709721851 -0.0001018354 7.08874e-05 0.000242277 0.0001152071 -0.0973017787 0.0956119601
370297780.0 -0.6206352587 0.5768941429 0.0001311384 0.0002651335 -4.59774e-05 0.0001292302 -0.0965577847 0.0965859752
375297750.0 -0.6143834025 0.5829147087 0.0003214302 3.75625e-05 4.33907e-05 0.0002136537 -0.096419761 0.0974286018
380297720.0 -0.6090569883 0.5890024988 6.24386e-05 -0.0002611812 0.000299047 0.0002196279 -0.096074498 0.0985302201
385297690.0 -0.6027823599 0.5951797866 -0.0001126936 4.70193e-05 -1.30523e-05 8.7572e-05 -0.0949620451 0.0995649822
390297660.0 -0.5967621759 0.6016631147 6.23669e-05 6.54376e-05 0.0001181111 -0.0001645247 -0.0941116236 0.1009040919
395297630.0 -0.5906243247 0.6079044678 0.0002620515 0.0001848292 0.0001758334 4.23838e-05 -0.093121941 0.1016797683
400297600.0 -0.5845049488 0.6143966725 0.000110375 0.0002602975 -9.10087e-05 0.0001591153 -0.0924799462 0.1026460588
405297570.0 -0.5781673082 0.6194148025 8.35673e-05 -0.0001269382 0.0001046231 9.29417e-05 -0.0918925027 0.1035338005
410297540.0 -0.5710618055 0.6252330974 6.00672e-05 0.0002628484 0.0001470378 0.0002706867 -0.090782461 0.1046437817
415297510.0 -0.5645360261 0.6308650195 7.83853e-05 0.0002596649 3.89758e-05 0.0001979057 -0.0903376845 0.1056313804
420297480.0 -0.5595515524 0.637236761 3.02233e-05 0.0002742998 0.0002208488 2.45902e-05 -0.0893956072 0.1068154035
425297450.0 -0.5516718428 0.6427768239 0.000136674 1.599e-07 -2.18614e-05 5.4421e-05 -0.0885110385 0.1075109774
430297420.0 -0.5456685904 0.6482014844 0.0001228846 9.90667e-05 5.96027e-05 -0.0001361595 -0.0877636984 0.108165187
435297390.0 -0.5389205515 0.6534098868 -8.45342e-05 -8.14621e-05 0.0001561102 7.37872e-05 -0.0866608098 0.1091262712
440297360.0 -0.5319342922 0.6589956501 -4.41283e-05 1.46799e-05 0.0001502714 0.0001191854 -0.0857887998 0.1100015889
445297330.0 -0.5251248301 0.6643298909 -6.93737e-05 -0.0002107293 0.0002133456 0.0001841781 -0.0849882927 0.1105981463
450297300.0 -0.5182693225 0.6693955189 0.0003362248 -9.34354e-05 0.0001347488 0.0001073931 -0.0837155214 0.1117018356
455297270.0 -0.5113133467 0.6740342687 0.0003177313 0.000127246 1.3118e-05 0.0001919803 -0.0831057473 0.11257431
460297240.0 -0.5050922568 0.6799926426 0.0001866389 0.0002247662 0.000179044 9.29244e-05 -0.0820270526 0.1137609913
465297210.0 -0.4979216493 0.6851188551 5.9492e-05 -7.90238e-05 0.00034488 -4.12979e-05 -0.0807597094 0.114446532
470297180.0 -0.490795226 0.6900330301 0.0002349169 4.5117e-06 0.0001137104 0.000132756 -0.0798954391 0.1157097095
475297150.0 -0.4834894834 0.6941226588 0.0004102156 -1.9357e-05 5.70504e-05 0.0001474091 -0.0786346289 0.116188523
480297120.0 -0.4770731084 0.6995624286 5.55874e-05 0.0001763526 0.0002647134 3.55104e-05 -0.0776363418 0.1175522872
485297090.0 -0.469157348 0.7040121645 0.0001479591 0.0003461357 0.0001735046 0.0001337464 -0.0765979649 0.1185623309
490297060.0 -0.4624935225 0.7085197545 -3.48957e-05 7.01396e-05 3.13241e-05 0.0002945752 -0.0755563564 0.1189879337
495297030.0 -0.455167885 0.713042193 0.0004796192 3.85604e-05 9.40712e-05 -0.000146352 -0.0745713178 0.1203453167
500297000.0 -0.4479887309 0.7177360994 0.0001696032 0.0001292566 3.45002e-05 2.34285e-05 -0.0732111643 0.1213103512
505296970.0 -0.4407955481 0.7228640886 7.95913e-05 0.0001494087 0.0003422908 9.09857e-05 -0.0724419264 0.1215755129
510296940.0 -0.4327567908 0.7264788007 0.000168789 -1.71738e-05 -1.4344e-05 -4.1022e-06 -0.0713818143 0.1226848175
515296910.0 -0.4246258259 0.7303817192 0.000173299 -9.03782e-05 0.0001219867 -7.49529e-05 -0.0704379029 0.1236870986
520296880.0 -0.4183168669 0.7353058526 0.0002673481 0.00013604 0.0001940337 -0.0001370427 -0.0694008222 0.1246024153
525296850.0 -0.4101926199 0.7393854263 0.0003322149 0.0002600592 0.0004152715 1.08565e-05 -0.067928514 0.1257680083
530296820.0 -0.4028122441 0.7435292624 0.000245011 -0.0001104233 0.0003148712 0.0001594759 -0.0667369537 0.1263422356
535296790.0 -0.3959431045 0.7466438144 0.0003130696 -0.0001806548 0.000191938 -2.21611e-05 -0.0662634114 0.127192392
540296760.0 -0.3880995341 0.7506882862 2.50709e-05 -8.98804e-05 0.0002403294 0.0002398329 -0.0648542453 0.1281744819
545296730.0 -0.3803210798 0.7550398094 0.0002717262 0.0001051267 0.0001725727 0.0001456724 -0.0639693211 0.1283578439
550296700.0 -0.3730798095 0.7587784262 0.0001559915 -0.0001101456 0.0002273988 2.41728e-05 -0.0629861626 0.1301148606
555296670.0 -0.3651625849 0.7613453165 -6.698e-07 -5.21137e-05 0.0002993812 1.21501e-05 -0.0612939822 0.1309886552
560296640.0 -0.3576107061 0.7665638437 0.0001225671 0.0002759432 6.83739e-05 0.0001745698 -0.0604564183 0.1314256797
565296610.0 -0.3493354779 0.7698670689 -7.3448e-06 0.0001595573 0.0002026035 1.20137e-05 -0.0594407767 0.1321374937
570296580.0 -0.3425690726 0.7728188577 0.0002906647 1.99083e-05 6.49704e-05 5.08659e-05 -0.0585190204 0.1330181788
575296550.0 -0.3345612671 0.776714971 -8.59331e-05 0.0001817556 0.0002105949 -0.000101728 -0.0571482093 0.1337244543
580296520.0 -0.3267123176 0.7795515295 0.0002942798 4.25825e-05 0.0001584066 -3.213e-05 -0.0558251993 0.1341085275
585296490.0 -0.318940772 0.7826002909 0.000171675 0.0001351992 3.31253e-05 6.75948e-05 -0.0543618461 0.1351106067
590296460.0 -0.310909037 0.7855050575 0.0001780836 -5.12997e-05 0.00020564 -4.26144e-05 -0.0537927074 0.1356419727
595296430.0 -0.3034465923 0.7885428564 9.66118e-05 -8.69948e-05 0.0001933294 2.00171e-05 -0.0525255138 0.1361946482
600296400.0 -0.2949878295 0.7921322742 0.000301429 0.0001235982 0.0003500358 0.0001888217 -0.0513409291 0.1369245519
605296370.0 -0.2875889565 0.7943369734 0.000221288 0.0001575956 0.0002776692 4.5414e-05 -0.0498400653 0.1375070574
610296340.0 -0.2791999849 0.7973260477 0.0002945058 -7.93992e-05 0.0002279381 0.0001134492 -0.0487070164 0.1382033275
615296310.0 -0.270360969 0.8003310576 0.000386569 7.36679e-05 0.0003351614 -0.0001661539 -0.0469624155 0.1384117129
620296280.0 -0.2629236901 0.8017756094 1.7043e-06 -6.15442e-05 0.000288026 2.1416e-05 -0.045991739 0.1393921967
625296250.0 -0.2550238802 0.8049978437 0.0003883741 0.0002238101 0.0003407104 -1.54441e-05 -0.0445022215 0.1397375297
630296220.0 -0.2463678218 0.8082858039 0.0002540932 -0.0001142487 0.0001742396 0.0001108132 -0.0433299833 0.1406969777
635296190.0 -0.238837909 0.8102718325 0.0004176665 -3.28356e-05 0.0004019999 0.0001033371 -0.0418919631 0.1409171266
640296160.0 -0.2307357828 0.8121437975 6.29053e-05 4.10996e-05 0.0001602196 0.000104932 -0.0403209479 0.1415020989
645296130.0 -0.2223242404 0.814869966 0.0003576484 0.0001003307 0.0004007851 0.0002514076 -0.0392956777 0.1422556102
650296100.0 -0.2147421193 0.8167144494 -5.26783e-05 -0.0001618249 4.34351e-05 -1.52226e-05 -0.0380115761 0.1425813923
655296070.0 -0.2062193105 0.8190058046 0.0001056668 -4.8463e-05 0.0003956646 0.0001021178 -0.0361659844 0.1433615694
660296040.0 -0.1983339155 0.8207737132 0.0003112533 2.25348e-05 0.0003068682 0.0001429007 -0.0347930547 0.1440751441
665296010.0 -0.1894522305 0.8222436066 3.5334e-06 0.0001651806 9.3103e-05 -0.0001904652 -0.0336369825 0.1448484828
670295980.0 -0.1821069982 0.8243727085 0.0002415455 -0.0001099736 0.0003000032 7.83229e-05 -0.032252128 0.1449379173
675295950.0 -0.1732723532 0.8259293041 0.0002447862 2.84156e-05 0.0003498853 6.604e-07 -0.031190709 0.1458631671
680295920.0 -0.164763109 0.8279772747 0.0003985021 -0.0001380251 0.0002440495 -0.0001718566 -0.0294328979 0.1465453004
685295890.0 -0.1568914983 0.8300475283 0.0003478842 -6.2444e-06 0.0002177812 0.0001443816 -0.028160163 0.1470090608
690295860.0 -0.1491588429 0.8307458997 0.0001268462 9.93123e-05 0.0001283794 -2.03366e-05 -0.0271182613 0.147718977
695295830.0 -0.1406217973 0.8318638397 0.0004130484 -5.07674e-05 0.0002712897 -5.8246e-05 -0.0257558054 0.1482663542
700295800.0 -0.1321025645 0.8343488719 0.000315224 0.0001272537 7.02939e-05 -9.32023e-05 -0.0244355695 0.1488014313
705295770.0 -0.1240992777 0.8354207529 0.0003680501 -0.0001286412 0.000256399 6.71202e-05 -0.0227096111 0.1495569224
710295740.0 -0.1160645158 0.8359679401 0.0002611782 9.84977e-05 0.0001958172 -0.0001875787 -0.0218474402 0.1495605414
715295710.0 -0.1074621915 0.8374158999 0.0003691019 2.57218e-05 0.0002478365 0.0001358374 -0.0201447031 0.1499822942
720295680.0 -0.0989690133 0.8385796907 0.0002175468 9.5384e-05 0.0001586127 4.86929e-05 -0.0189363179 0.1507220435
725295650.0 -0.0908099906 0.8397285404 0.0002090228 3.79958e-05 0.0003001908 -0.0001170477 -0.0175043189 0.1511210495
730295620.0 -0.0820757641 0.8407510111 0.0001341038 -0.0001005516 0.0003089006 3.34055e-05 -0.0162570069 0.1514552387
735295590.0 -0.0744949548 0.8412237095 0.00050064 0.0002132084 6.66689e-05 -0.000146314 -0.0149893527 0.1514523796
740295560.0 -0.0660394176 0.8423288184 5.74182e-05 -0.0002022736 0.0002875033 -0.0001221525 -0.0130197638 0.1520783248
745295530.0 -0.0569077916 0.8429566571 0.0001513985 6.5275e-05 0.0002615478 -8.48546e-05 -0.0120406741 0.1521574027
750295500.0 -0.048903525 0.8423522535 0.0001002811 9.59332e-05 0.0002585628 6.64758e-05 -0.0106325208 0.1525807893
755295470.0 -0.0405542542 0.8429762338 0.0001634699 -8.14288e-05 0.0001711034 -4.7053e-05 -0.0090978482 0.1524955471
760295440.0 -0.0324607 0.8431962861 0.0001182572 1.00658e-05 0.0003717706 0.0001097639 -0.0080847922 0.1528833509
765295410.0 -0.0243509998 0.8441026567 0.0002406743 -7.87885e-05 1.41242e-05 -7.89971e-05 -0.0061642462 0.1532505537
770295380.0 -0.016207922 0.843760543 0.0003513054 3.98166e-05 0.0001110084 3.10605e-05 -0.0053664705 0.1534320915
775295350.0 -0.0074936806 0.844035961 7.98183e-05 -0.0001144792 0.0002778132 -0.0001910521 -0.0040612281 0.1534235099
780295320.0 0.001082327 0.8442132469 0.0001475303 -0.0002001196 0.0004393273 -0.0002098262 -0.0021155733 0.1536938093
785295290.0 0.0089850783 0.8435794743 0.0002018702 -8.05486e-05 0.0002197375 -0.0001661863 -0.0004258029 0.1538976978
790295260.0 0.0181761058 0.8442658219 0.0004080864 -9.00373e-05 0.0002038922 -2.3935e-06 0.0012776115 0.1540934403
795295230.0 0.0258203593 0.8434124451 0.0002896294 7.42976e-05 0.0002755864 -0.0002051485 0.0027191008 0.154165993
800295200.0 0.0341470182 0.8430694722 0.0001193251 -2.66323e-05 0.000297946 0.0001794198 0.0040902314 0.1546158787
805295170.0 0.0427272492 0.8429622825 0.0003955062 -0.0001437874 0.0004101903 0.0001024746 0.0055143564 0.1546538134
810295140.0 0.0506951629 0.8425117861 0.0001271874 -0.0001508779 0.0004777911 -0.0001217203 0.0073853043 0.1549934748
815295110.0 0.0589890429 0.8416518722 0.0001894007 -0.0002833909 0.0001956462 -0.0001615472 0.0088438656 0.1549679715
820295080.0 0.0670730862 0.8414786833 0.0002934902 -0.0002695847 4.9881e-06 -2.92116e-05 0.0104703399 0.1549601449
825295050.0 0.0765031998 0.8402698757 0.0004769031 -0.0002033036 0.0004341172 -0.0001798476 0.0119616913 0.1550581945
830295020.0 0.0833962717 0.8400064775 0.0001235025 -0.0001984978 0.000367981 -6.49726e-05 0.0137909234 0.1554112362
835294990.0 0.0922373363 0.8392009711 9.3444e-05 -5.11517e-05 0.000399845 8.16734e-05 0.0147978827 0.1556844771
840294960.0 0.1005731666 0.8383656342 0.0004522592 -0.0002244045 0.0002207832 -2.21629e-05 0.0165242382 0.155492168
845294930.0 0.108251209 0.8366841339 0.000375711 -0.0001868078 0.0001979883 1.36225e-05 0.0178229371 0.1558242369
850294900.0 0.1165733808 0.8364010633 0.0003029178 -8.76033e-05 0.000441596 -0.0003101238 0.0193021854 0.1558995074
