!Created with skrf (http://scikit-rf.org).
# Hz S RI R 50.0 
!freq ReS11 ImS11 ReS21 ImS21 ReS12 ImS12 ReS22 ImS22
300000.0 -0.772870334 -0.1482047439 -0.0003674754 -0.0002192507 0.0002321663 -0.000504239 -0.212350481 -0.0925857267
5299970.0 -0.7849486888 -0.007222558 -0.0001061066 8.01629e-05 -5.50742e-05 -0.0001934407 -0.2164864626 0.0066189883
10299940.0 -0.7873522308 -0.0044537457 -0.000128227 8.13949e-05 3.29967e-05 -0.0001451201 -0.2131939434 0.0184624258
15299910.0 -0.7932705814 -0.0017104518 -5.44352e-05 2.82184e-05 9.3107e-05 -1.31898e-05 -0.2083185388 0.0281172332
20299880.0 -0.8000282747 0.0020865838 0.0002318818 -5.89111e-05 8.65125e-05 -1.25639e-05 -0.2032713611 0.0356328565
25299850.0 -0.806488479 0.008339825 0.0001168877 -5.60345e-05 -2.09343e-05 -6.55775e-05 -0.1974037141 0.0413506661
30299820.0 -0.8115483243 0.0168210166 -9.96293e-05 4.6366e-06 -3.254e-07 -1.21054e-05 -0.1919595087 0.0463977879
35299790.0 -0.8167294785 0.0255682996 4.2809e-05 -0.0001578747 9.3721e-06 -7.11303e-05 -0.1859840801 0.0501217328
40299760.0 -0.8213961867 0.0339881325 0.0001602781 0.0002583775 -3.387e-05 -7.47e-05 -0.1804205973 0.0532075249
45299730.0 -0.8247474444 0.044528663 -5.88796e-05 7.98904e-05 -0.0001124369 6.94456e-05 -0.1756305719 0.0551946206
50299700.0 -0.8263700366 0.0542537613 -0.0001247178 -1.42222e-05 0.0001057584 8.13062e-05 -0.1702795243 0.0567032665
55299670.0 -0.8287027744 0.06450985 7.17913e-05 9.97582e-05 0.0001017487 -8.93458e-05 -0.1664751594 0.0577058248
60299640.0 -0.8300250884 0.0744369447 2.53047e-05 -3.88147e-05 -2.59495e-05 3.31741e-05 -0.1621909494 0.0584426971
65299610.0 -0.8312333818 0.0847196384 -3.94864e-05 -2.77294e-05 0.0001249427 2.06725e-05 -0.1587735685 0.05934103
70299580.0 -0.831450972 0.0943740369 0.000190428 1.19524e-05 0.0001986922 0.000143497 -0.1553969459 0.0594075584
75299550.0 -0.8312332091 0.104464889 2.20569e-05 -6.85901e-05 4.08564e-05 9.22442e-05 -0.1528732153 0.0596320319
80299520.0 -0.8313622977 0.1143950353 6.20634e-05 -1.3603e-05 0.0001129544 3.71613e-05 -0.1502299796 0.0594371499
85299490.0 -0.8303505207 0.1240770665 0.0001158667 -0.0001018957 5.64403e-05 -1.83172e-05 -0.1476626551 0.0593003279
90299460.0 -0.830021047 0.1341517598 5.38277e-05 0.000120752 7.08142e-05 -0.000123421 -0.145239377 0.0595787757
95299430.0 -0.8286316275 0.1436911402 -1.21687e-05 0.0004150937 -2.15271e-05 0.0001127004 -0.1430183953 0.059928645
100299400.0 -0.828145801 0.1530505106 0.0001757614 -1.47166e-05 0.0001175066 7.81476e-05 -0.1418376541 0.0594760816
105299370.0 -0.8267315337 0.1619137505 -8.78784e-05 -0.0001248003 9.57363e-05 -5.48149e-05 -0.1398459761 0.0591922531
110299340.0 -0.8255472496 0.1709351512 -3.57195e-05 6.39722e-05 -3.74077e-05 0.0001019408 -0.1390348486 0.0593707681
115299310.0 -0.8236486735 0.1802833329 0.0001767856 -7.273e-07 0.0001225239 0.0002648084 -0.137240086 0.0592628544
120299280.0 -0.8220729065 0.1892388783 -6.6537e-05 -9.015e-06 -5.89969e-05 0.0002077006 -0.1361770325 0.0592717178
125299250.0 -0.8204043755 0.198734427 -3.80097e-05 5.73292e-05 5.15172e-05 -0.0001159718 -0.1346248059 0.0591569356
130299220.0 -0.8183875034 0.2079331823 7.55559e-05 5.73103e-05 7.99445e-05 0.0001477712 -0.1341609416 0.0596592495
135299190.0 -0.8165210966 0.2167610163 -5.04495e-05 -3.67206e-05 0.0001720759 0.0001313959 -0.1333275144 0.0598133358
140299160.0 -0.8148974456 0.2252494798 -5.24849e-05 0.0002429908 3.4512e-05 0.0002076052 -0.1321644055 0.0598423042
145299130.0 -0.8123985887 0.2340106349 -5.31758e-05 -0.0001445403 -7.30853e-05 0.0001872259 -0.1319065489 0.0603106805
150299100.0 -0.8100471005 0.2428362039 0.0001587539 0.000137697 3.0638e-06 7.47429e-05 -0.1309004852 0.0603381838
155299070.0 -0.8078886196 0.2525363021 -0.0001108527 0.0001017135 0.0001481587 0.0001364205 -0.1304524192 0.0607801335
160299040.0 -0.8048796307 0.2611671705 0.0001384316 8.91103e-05 0.0002574665 -2.26421e-05 -0.1293382247 0.0612554556
165299010.0 -0.8023675025 0.2692413832 -0.000110614 0.000222136 7.2909e-05 7.85056e-05 -0.1288913176 0.0616762564
170298980.0 -0.7994809073 0.2780060455 8.40586e-05 0.0001384174 1.92889e-05 4.82113e-05 -0.128539724 0.0624725938
175298950.0 -0.7966264388 0.2875294309 3.82308e-05 0.0003145375 0.0001760136 0.0001958848 -0.1279371994 0.0627652147
180298920.0 -0.794073003 0.2952582034 6.87691e-05 0.0001657064 -3.82584e-05 1.2839e-06 -0.1269631888 0.0634120364
185298890.0 -0.7907626864 0.3043487392 9.66478e-05 0.000102541 7.1847e-05 0.0001482758 -0.1267696197 0.0635205937
190298860.0 -0.7873963178 0.3121759232 0.0001051029 -0.000141574 0.0002578271 0.0002230723 -0.1258266019 0.0641824654
195298830.0 -0.7841488057 0.3210031947 4.5975e-06 -7.63824e-05 -2.16443e-05 0.0001426548 -0.1254657256 0.0650891558
200298800.0 -0.7805254147 0.3290825754 0.0001300667 0.0002126437 7.5756e-05 0.0001888106 -0.124908646 0.0657229821
205298770.0 -0.777720338 0.3376226756 6.66057e-05 0.0003307203 5.90446e-05 -7.51432e-05 -0.1246202486 0.0664106866
210298740.0 -0.7732530434 0.3452794247 0.0001457289 9.70907e-05 5.38466e-05 5.83691e-05 -0.1240111088 0.0672823677
215298710.0 -0.7704208757 0.3544596026 -6.07044e-05 -6.3163e-06 5.6688e-06 0.0003449009 -0.1240842524 0.0680385698
220298680.0 -0.7671077692 0.3622356076 0.0001557419 0.0001462582 5.47649e-05 0.0001933963 -0.1229233722 0.0687908549
225298650.0 -0.7630236172 0.3711011267 0.0002244459 5.76205e-05 0.0001326534 0.0001497876 -0.1230927244 0.0699599945
230298620.0 -0.7588621021 0.3787663105 0.0001729478 6.34114e-05 -4.2532e-06 0.0001789089 -0.1222185667 0.0702868832
235298590.0 -0.7552930909 0.3872913075 0.0001288139 0.0002956255 8.25661e-05 0.0001976948 -0.1216049831 0.0711771837
240298560.0 -0.751238572 0.3951549605 6.57596e-05 0.000176528 0.0001369647 -9.00638e-05 -0.1212650514 0.072184408
245298530.0 -0.7463636685 0.403271624 0.0001876295 -2.25481e-05 -7.31098e-05 -0.0001630602 -0.1207183276 0.0732477425
250298500.0 -0.7427005121 0.4102309467 8.1107e-05 2.21247e-05 0.0001552845 -0.000152559 -0.1200463789 0.0741181361
255298470.0 -0.7374937443 0.4186661629 -1.71954e-05 -0.0003008496 -0.0001012919 0.00021458 -0.1196131332 0.0747215706
260298440.0 -0.733583776 0.4258244369 6.58127e-05 2.0065e-06 -8.16017e-05 -0.0001373653 -0.1188852601 0.0760640611
265298410.0 -0.7290223448 0.4338113442 8.39709e-05 3.68959e-05 9.93247e-05 0.000159976 -0.1186752316 0.0767907692
270298380.0 -0.7244135239 0.4418448833 0.0004120915 0.000171534 -7.16445e-05 4.64978e-05 -0.1177116186 0.0780123202
275298350.0 -0.7195425522 0.4491242294 0.0002079371 -6.37297e-05 0.0001588098 0.00011834 -0.1171273138 0.07869833
280298320.0 -0.7151724138 0.4570142288 0.0002198612 -8.353e-05 -0.0001766902 5.29452e-05 -0.1165675803 0.0798624548
285298290.0 -0.7101033898 0.4643322335 0.0001092851 0.0002839753 5.85985e-05 0.0001658272 -0.1162787155 0.0807745886
290298260.0 -0.7053954138 0.4717067126 0.0001959902 5.19478e-05 3.77312e-05 0.0001233692 -0.1153845743 0.0819013909
295298230.0 -0.7005007292 0.4796273143 -2.66152e-05 -4.84113e-05 4.86671e-05 0.0002801975 -0.1147132728 0.0830474039
300298200.0 -0.6948828836 0.4864023815 0.0002220068 0.0002127651 0.0003484703 0.0001568042 -0.1141403934 0.0840681124
305298170.0 -0.6901988105 0.4943322595 3.5911e-05 0.0002437192 -6.46774e-05 0.0001681742 -0.1131710293 0.085357171
310298140.0 -0.6849017434 0.5006330274 0.0001897608 1.13069e-05 0.0002249847 6.67698e-05 -0.1125160281 0.0863615551
315298110.0 -0.6795628898 0.5083516011 0.0001107382 3.60063e-05 0.0001939532 5.35941e-05 -0.1117157946 0.0873403089
320298080.0 -0.6739432358 0.5158527656 8.19921e-05 1.57049e-05 0.0003091355 -0.0001485219 -0.111309559 0.0882158313
325298050.0 -0.6686098363 0.5223904208 0.0002027464 6.6058e-05 3.9776e-06 -9.91899e-05 -0.1103724763 0.0892623448
330298020.0 -0.6626937737 0.5291876266 6.8545e-06 -0.0001619405 0.0002665867 7.79692e-05 -0.1097795538 0.0904695823
335297990.0 -0.6565981471 0.5360830742 2.18972e-05 0.000180384 -6.54202e-05 4.9767e-05 -0.1092488838 0.0913390438
340297960.0 -0.6516843066 0.5425190015 0.0003223522 4.43775e-05 5.58722e-05 0.0001232609 -0.1083590151 0.0923025131
345297930.0 -0.6462185452 0.5494120204 0.0001212781 5.38759e-05 0.0001748693 3.31569e-05 -0.1081902865 0.0934502481
350297900.0 -0.6403688123 0.5562544871 -3.49589e-05 0.0001933402 -3.76658e-05 0.0001182952 -0.1071327353 0.0947309417
355297870.0 -0.6339790488 0.5624121846 -0.0001672573 0.0001290399 2.07773e-05 0.0001487569 -0.1066546172 0.0958852997
360297840.0 -0.6281476243 0.5686742671 -9.23617e-05 0.0001734198 0.000282409 9.49318e-05 -0.1059200798 0.0970101715
365297810.0 -0.6224515441 0.5762071282 0.0002811209 0.0001369093 6.61728e-05 0.000231773 -0.1048769871 0.0985084133
370297780.0 -0.6161277492 0.5812838317 0.0001130951 2.20863e-05 0.0002786108 1.7276e-06 -0.1044759394 0.0994896239
375297750.0 -0.610104625 0.5883182851 0.0002047677 0.0001121852 4.10325e-05 0.0001530121 -0.103386713 0.1006922945
380297720.0 -0.6040927694 0.5949806314 0.0001751859 5.39866e-05 5.4748e-05 0.0001374889 -0.1024880494 0.101969651
385297690.0 -0.5982195356 0.6009343946 -9.21377e-05 -5.78679e-05 -7.81421e-05 0.0002318409 -0.1015380909 0.1033517078
390297660.0 -0.5912754103 0.6072758443 -1.71917e-05 0.0001960119 0.0002066249 9.82474e-05 -0.1010419979 0.103938304
395297630.0 -0.5852639496 0.6131231787 -4.31312e-05 3.30742e-05 0.0002015999 -0.0001584681 -0.1000437147 0.1053730401
400297600.0 -0.5791601492 0.6189782285 0.0003416963 0.0001943045 0.0001762185 9.97908e-05 -0.0996522121 0.1062363457
405297570.0 -0.5731700891 0.6245316209 0.000126503 0.0001932949 5.27616e-05 0.0002064966 -0.0986490373 0.1076009055
410297540.0 -0.5658849313 0.6309537696 0.0004179022 0.0002637061 0.0001474192 -2.10523e-05 -0.0976930187 0.1089814281
415297510.0 -0.5589239693 0.6362889039 0.0001270159 0.0001858512 0.000122957 9.3088e-05 -0.0969057983 0.1103794426
420297480.0 -0.5518858823 0.6424061927 8.8825e-05 0.0001008982 0.0002032388 -0.0001238031 -0.0960598943 0.1109535161
425297450.0 -0.5457023861 0.6477124599 0.000126267 3.4218e-05 0.0001036038 0.0001265978 -0.0949557623 0.1121605331
430297420.0 -0.539544621 0.65302811 0.0003124096 0.0001546448 0.0002387812 8.93234e-05 -0.0938529717 0.1136354193
435297390.0 -0.5320906763 0.6592166543 0.0001625276 7.76233e-05 0.0003586906 0.0002464224 -0.0928034574 0.1144806903
440297360.0 -0.5252470738 0.6642779125 0.0002052548 -3.81911e-05 0.0001292808 0.0001173114 -0.0922413572 0.1153593483
445297330.0 -0.5184144389 0.6696139852 0.000123977 0.0001942518 -7.9217e-05 0.0001943468 -0.0914004831 0.1164640794
450297300.0 -0.5110357883 0.6749928879 3.89334e-05 0.0002506121 0.0003125892 0.0001673829 -0.0907512941 0.1177246188
455297270.0 -0.504890807 0.6797944432 2.16337e-05 4.45387e-05 2.67763e-05 1.21314e-05 -0.089658623 0.1188743757
460297240.0 -0.4977979252 0.6853218151 6.67502e-05 -8.90475e-05 0.000384397 0.0001918123 -0.08810017 0.1199621745
465297210.0 -0.489711427 0.6902106429 0.000142417 0.0001382871 9.98364e-05 -3.40609e-05 -0.0876822023 0.1207007166
470297180.0 -0.4829421824 0.6946289226 0.0002809002 8.23357e-05 0.0002731746 7.82533e-05 -0.0868726481 0.122111449
475297150.0 -0.475656653 0.7002944754 0.000328793 -0.0001142088 0.0001595345 4.16742e-05 -0.085397083 0.1230199312
480297120.0 -0.4688199917 0.7046794835 -2.48527e-05 3.79521e-05 0.0001212357 -0.0001418663 -0.0844189437 0.1241981204
485297090.0 -0.4610784915 0.7091852491 0.0001393031 0.0001462924 7.40578e-05 0.0002405021 -0.0837175848 0.1253427373
490297060.0 -0.4540885655 0.7137338365 0.0003797786 5.51564e-05 -3.88638e-05 8.59663e-05 -0.0827245412 0.1260212668
495297030.0 -0.447046745 0.7193189776 0.000187315 9.49749e-05 0.0002172316 -1.19426e-05 -0.0814285529 0.1267562006
500297000.0 -0.4384324682 0.7235285313 7.91405e-05 8.39503e-05 0.0001210901 3.13138e-05 -0.0805448192 0.1280029185
505296970.0 -0.4311949592 0.7268685818 7.89534e-05 0.0001950953 0.0002267334 0.0001910503 -0.0797067448 0.1291506743
510296940.0 -0.4248643264 0.7319472902 0.000256958 -3.42555e-05 -3.1998e-06 0.0001730022 -0.0781434785 0.1302311609
515296910.0 -0.4169791956 0.7361277358 0.000236576 0.0001461764 0.0002356543 -6.25188e-05 -0.07687714 0.1310502295
520296880.0 -0.4090193211 0.7409254688 0.0002857892 0.0001064469 0.0001951819 -0.0001773774 -0.0758996044 0.1317379654
525296850.0 -0.4015209648 0.7439809301 0.0002297329 0.0002788432 6.35407e-05 0.000135928 -0.0747835526 0.1329281154
530296820.0 -0.3941270603 0.7484191314 0.000529523 9.38481e-05 0.0002864344 -5.2124e-06 -0.0738371045 0.1336078579
535296790.0 -0.38624004 0.7523510805 0.0004263963 -8.04099e-05 0.0001108163 3.70038e-05 -0.0730509047 0.1343281125
540296760.0 -0.3781999412 0.7561872322 -1.46887e-05 6.77777e-05 0.0001756516 5.50135e-05 -0.0717084223 0.1356612386
545296730.0 -0.3712794668 0.7595412634 0.0001284569 0.0001243161 0.000339791 0.0001166571 -0.0704351973 0.13621908
550296700.0 -0.363392742 0.7636957325 0.0002003757 0.0001183076 0.0003473144 5.30588e-05 -0.069582142 0.1373846188
555296670.0 -0.3546091227 0.7677528702 0.0002061255 -6.91062e-05 0.0001028653 0.0003075847 -0.0682948206 0.1381696637
560296640.0 -0.3470487884 0.7708217596 0.0002231444 6.39911e-05 0.0002405392 -0.0001571965 -0.0670756062 0.1388553167
565296610.0 -0.3399442842 0.773849693 0.0002451705 0.0002053934 0.0002980036 -0.0001470174 -0.0660291959 0.1398472775
570296580.0 -0.3315129193 0.7774498 -7.34559e-05 0.0001991297 0.0001704675 0.0001149433 -0.0646780504 0.1407427433
575296550.0 -0.3237726608 0.7804605007 0.0002062646 1.12072e-05 0.0001661931 6.63609e-05 -0.0632015194 0.1417056056
580296520.0 -0.3153797414 0.7845666694 0.0001457852 8.54198e-05 0.0001302987 0.000119876 -0.0622000683 0.1424514809
585296490.0 -0.3076754226 0.7865814076 0.0001644703 -0.0001754708 0.0003239802 -0.0001160969 -0.0613233073 0.142883518
590296460.0 -0.299796806 0.7894931011 0.0001403219 -3.44066e-05 0.0001427713 2.01412e-05 -0.0597545055 0.1437270823
595296430.0 -0.2911574338 0.7933109991 0.0001343108 -6.25947e-05 0.0002982422 0.0001192592 -0.0586297344 0.1443423338
600296400.0 -0.2831226761 0.7960532515 0.0002786838 -3.55079e-05 0.0002715282 5.66008e-05 -0.0573169563 0.145591747
605296370.0 -0.2750362243 0.7989362991 0.0002465198 7.97943e-05 0.0003220855 6.11659e-05 -0.0559981781 0.1464036676
610296340.0 -0.2672457868 0.8018423421 0.0003521054 -2.04777e-05 0.0001664157 3.28073e-05 -0.0548384411 0.1470086493
615296310.0 -0.2595709809 0.8045732203 0.0001127991 -4.5067e-06 8.36237e-05 0.0002020407 -0.0535901376 0.147300041
620296280.0 -0.2507099387 0.8056493531 0.0002353599 0.0002558826 0.0001965692 -0.0001305396 -0.0526478426 0.1480348814
625296250.0 -0.2426427921 0.8089632063 0.0003996586 1.83576e-05 0.0001766883 -2.52035e-05 -0.050887523 0.1490040887
630296220.0 -0.2343351496 0.8119431949 0.0001447338 0.0002276675 0.000430425 -4.26433e-05 -0.0495994352 0.1495834485
635296190.0 -0.2264522226 0.8142291303 8.66474e-05 -7.09693e-05 0.0002599154 0.0001095974 -0.0482019183 0.1503422584
640296160.0 -0.2180034918 0.8152117986 0.00025733 -0.0001065278 0.0003774179 3.30669e-05 -0.0468461062 0.1505582622
645296130.0 -0.2099950956 0.8181877899 0.0003382223 1.9622e-06 0.0003180065 -0.0001383618 -0.0460550149 0.1513533406
650296100.0 -0.2015359618 0.8203931284 0.0002009999 9.37926e-05 0.0001850497 -3.5022e-05 -0.0444669781 0.1524489586
655296070.0 -0.193368379 0.8224374264 0.0003133223 4.3683e-06 0.0002207903 2.73596e-05 -0.0430544659 0.153014411
660296040.0 -0.1848666889 0.8242723975 1.76401e-05 -4.70163e-05 0.0001817521 -8.3844e-05 -0.0414257458 0.1534158711
665296010.0 -0.1771310674 0.8257829063 0.0002148315 -0.0002143163 0.0002803557 0.000101982 -0.0400779037 0.1540393425
670295980.0 -0.1677982996 0.8275112002 0.0001020426 -0.0001555252 0.000201758 6.32176e-05 -0.0388759445 0.154773945
675295950.0 -0.1599115821 0.8285231355 0.0002190436 -0.0001569879 0.0001699269 4.31218e-05 -0.0374671461 0.1551935984
680295920.0 -0.1519528581 0.8310063332 2.62658e-05 -9.9991e-06 0.0002139649 -2.91612e-05 -0.0362509356 0.1554871404
685295890.0 -0.1432506468 0.8317625733 0.0001196596 -4.88997e-05 0.0004671239 -4.62146e-05 -0.0345773682 0.1562727681
690295860.0 -0.1346380312 0.8336360286 7.38195e-05 5.84677e-05 0.0003184242 2.4267e-05 -0.0330664881 0.1568008784
695295830.0 -0.1259718636 0.8342048854 0.0001493449 -5.8984e-06 0.0001165948 1.34061e-05 -0.0320686927 0.1574047778
700295800.0 -0.1178090331 0.8355836409 0.0001253286 -4.4379e-06 0.000243053 -2.26951e-05 -0.0303846112 0.1577616874
705295770.0 -0.1091034806 0.837462298 0.0002674827 7.95909e-05 0.0002499942 -6.54383e-05 -0.0291981487 0.1583250793
710295740.0 -0.1009823866 0.8384770095 6.21446e-05 0.0001704266 0.0002907213 -7.02083e-05 -0.0276967283 0.1591516561
715295710.0 -0.093166687 0.8396355806 0.0004117994 -0.000125924 0.0003256095 -9.63893e-05 -0.0262585729 0.1592871219
720295680.0 -0.0839736436 0.8397579712 0.0003412202 8.13349e-05 0.0002772812 -0.0001326183 -0.0245552715 0.1599301454
725295650.0 -0.0751962637 0.8408137012 0.000341677 -2.8588e-05 0.0001563417 -0.0001951831 -0.0231551123 0.1602081212
730295620.0 -0.0673634405 0.8412779236 0.0001289826 -0.0002498817 0.0003414109 6.21421e-05 -0.0215977168 0.1605076871
735295590.0 -0.0577812993 0.8420336384 0.0003405348 8.11374e-05 0.0002909801 1.47219e-05 -0.0200242367 0.1609120429
740295560.0 -0.0498924227 0.8425259556 0.0001277652 0.000272101 0.0004184497 -0.0002115253 -0.0187604014 0.1611150825
745295530.0 -0.0418741153 0.8426386196 4.53386e-05 -0.0001006266 0.0003823685 0.0001693856 -0.0173930756 0.1615318647
750295500.0 -0.0338149084 0.8430978931 0.0003069276 -6.99199e-05 8.71071e-05 0.0001526405 -0.0158005539 0.1617419278
755295470.0 -0.0242057902 0.8435853409 0.0002760323 -8.41517e-05 0.0002701997 -1.6373e-06 -0.014712873 0.1624585456
760295440.0 -0.0162036146 0.8436712842 0.0001914269 -1.89652e-05 0.0002291753 -0.0001567937 -0.0129234819 0.1627499505
765295410.0 -0.0079795374 0.8437380103 0.0004204142 -4.821e-05 0.0003713495 -0.0001246664 -0.0112321183 0.1633792596
770295380.0 0.0002232034 0.8444585029 1.30843e-05 -7.78721e-05 0.0002227014 0.0001473461 -0.0094625709 0.1633074485
775295350.0 0.0088027054 0.8437318415 0.0002216134 4.1655e-06 0.000269332 -0.0001023581 -0.0087129316 0.163467874
780295320.0 0.0175852093 0.8434849613 0.0004091908 1.2944e-06 0.0003786805 1.22695e-05 -0.0070997777 0.1639577355
785295290.0 0.0261149944 0.84368063 5.4081e-06 -3.50002e-05 0.0002698265 -1.95861e-05 -0.00556116 0.1644267972
790295260.0 0.0349060317 0.8429229214 0.0005539938 -0.0001013236 0.0003026943 -0.0002381659 -0.0035360362 0.1646022053
795295230.0 0.042879345 0.8431825728 0.0002744439 2.28989e-05 9.38873e-05 -3.24483e-05 -0.0021932836 0.165078905
800295200.0 0.0513582938 0.8426447463 0.0001496176 0.0001278933 0.0004170868 -6.2324e-05 -0.0007212997 0.1648130038
805295170.0 0.0600223318 0.8418776915 0.000174827 -0.0001093353 0.0003710001 -0.0001337974 0.0004256746 0.1652712611
810295140.0 0.0683323867 0.8414001695 0.0003420582 6.52327e-05 0.0001186991 -8.51154e-05 0.0021159257 0.1660381169
815295110.0 0.0771747462 0.8402220113 0.0004460248 -5.67567e-05 0.0003226996 0.0001346611 0.0036979594 0.1657402977
820295080.0 0.0849528503 0.8390604123 0.0004014898 -1.67999e-05 0.0003197252 -0.0003842772 0.0051919065 0.1657621992
825295050.0 0.0939914757 0.8386504444 7.51402e-05 8.51291e-05 0.0001570567 -9.60496e-05 0.006853861 0.1660243141
830295020.0 0.1020834296 0.8373124727 0.0003552763 -0.0002244913 0.0003236124 -0.0002661312 0.0082304488 0.1663435926
835294990.0 0.1100788944 0.8365750476 0.0003677272 3.6231e-05 0.0003410919 -0.0001664083 0.0098106403 0.1662336056
840294960.0 0.1185358573 0.8351187841 0.0002443553 -3.8267e-06 0.0001459391 -8.46088e-05 0.011469293 0.1668266201
845294930.0 0.1271260791 0.8342963173 0.0003159111 -0.0001715663 0.0005037681 3.20785e-05 0.0130137215 0.1668869947
850294900.0 0.1350808979 0.8327793463 0.0002477624 0.000128644 7.89024e-05 -8.78384e-05 0.0143880692 0.1669205432
