!Created with skrf (http://scikit-rf.org).
# Hz S RI R 50.0 
!freq ReS11 ImS11 ReS21 ImS21 ReS12 ImS12 ReS22 ImS22
300000.0 -0.1014751043 -0.0631805907 0.6312161943 0.0600763199 0.6256820012 0.060658019 -0.1025936787 -0.0721748329
5299970.0 -0.1021859317 0.0132410165 0.6304153415 0.0098402842 0.6305284981 0.0100508364 -0.1012773162 0.0137342642
10299940.0 -0.0973666188 0.029521334 0.6339109627 0.0150678834 0.6340713556 0.0157757163 -0.0958826344 0.0304082468
15299910.0 -0.0899204193 0.0425707639 0.6403485573 0.0206596722 0.6406297442 0.0206404977 -0.0890922024 0.0436902387
20299880.0 -0.0818833373 0.0531834745 0.6487584617 0.0244879176 0.6482093752 0.0241727836 -0.080082586 0.0543868795
25299850.0 -0.0727526987 0.0622783407 0.6574580556 0.0253206818 0.6577275037 0.0257063135 -0.0700120426 0.0631302402
30299820.0 -0.0621720967 0.0689675847 0.6675887725 0.0243070049 0.6671968162 0.0247682535 -0.0599804767 0.070024817
35299790.0 -0.0528112091 0.0738982245 0.6771066637 0.0217965853 0.6769180919 0.0215605543 -0.0502401057 0.0746653873
40299760.0 -0.0434343545 0.0773088163 0.6864809735 0.017298238 0.6866514499 0.0179127741 -0.0406895972 0.0773591598
45299730.0 -0.0339489483 0.0795251243 0.6948679467 0.0121598109 0.6953465482 0.0119469139 -0.0314852655 0.0795231842
50299700.0 -0.0257484202 0.0804423477 0.7035853098 0.0052739867 0.7037852116 0.0057691561 -0.022893493 0.0803103455
55299670.0 -0.0176750999 0.0803578173 0.7112308697 -0.0032298905 0.710834597 -0.0023740927 -0.0146995109 0.0803509752
60299640.0 -0.0099389916 0.0801077597 0.7171746241 -0.0111723081 0.7179024936 -0.0108572536 -0.0078065062 0.0793552966
65299610.0 -0.0038808794 0.0789122164 0.7231460019 -0.0199025417 0.7237498034 -0.019527204 -0.0009067546 0.0786810171
70299580.0 0.002657286 0.0779378675 0.7286557875 -0.0292121019 0.7286359255 -0.0287422372 0.0049399524 0.0766629022
75299550.0 0.008523354 0.0760241674 0.7329342741 -0.0391755276 0.7327907341 -0.0389369578 0.0102871618 0.0749045695
80299520.0 0.0132937726 0.0736916956 0.7369247413 -0.0486881532 0.7373371463 -0.0485294899 0.0153119025 0.0730679041
85299490.0 0.0179854816 0.0713186723 0.7404316534 -0.0582721541 0.7408487271 -0.0580222194 0.0197071592 0.0698649423
90299460.0 0.0219194565 0.0691038807 0.7429259295 -0.0686757438 0.7436173741 -0.068476547 0.0239981383 0.0680940164
95299430.0 0.0258832975 0.0665804649 0.7457769717 -0.078347929 0.745433273 -0.0789928229 0.0277216933 0.0658554743
100299400.0 0.0290049663 0.0643966326 0.7469636634 -0.0889959917 0.747182451 -0.0887163787 0.0314506375 0.0626297912
105299370.0 0.0325993598 0.0618732354 0.7484672169 -0.099331266 0.74938489 -0.098867799 0.0344824393 0.0609856598
110299340.0 0.0348104303 0.0598657602 0.7501029381 -0.1090437909 0.7496061869 -0.1089248256 0.0363959469 0.0582488825
115299310.0 0.0377012643 0.0572660139 0.7507822015 -0.1193664459 0.7508321886 -0.1188052285 0.0391384668 0.0558552666
120299280.0 0.0400033747 0.0545563351 0.751091905 -0.1293528396 0.7517753612 -0.1295039322 0.041660588 0.0532351123
125299250.0 0.0418309858 0.0523801183 0.7517374029 -0.1388944709 0.7517102009 -0.1385530378 0.0429586393 0.0508145024
130299220.0 0.043580659 0.050159183 0.751047068 -0.1493434843 0.7517008128 -0.1488170077 0.0449945443 0.0486266806
135299190.0 0.0454177014 0.0483350665 0.751897795 -0.1588295271 0.7517904399 -0.158564745 0.0465613063 0.046348691
140299160.0 0.046524919 0.0463851904 0.7510162656 -0.1684915014 0.7509272817 -0.1689942506 0.0479952471 0.0448076816
145299130.0 0.0481170977 0.0439994672 0.7505682932 -0.1781842546 0.7498947478 -0.1781400968 0.0491940243 0.0423734595
150299100.0 0.0495830646 0.0421341495 0.7488538011 -0.1873033356 0.7490150024 -0.1876041942 0.0506263203 0.0406440795
155299070.0 0.0502784552 0.0398927394 0.7485270915 -0.1984155281 0.7474253054 -0.1978189117 0.0514685192 0.0388757899
160299040.0 0.0516614351 0.0381203944 0.7464055094 -0.20720288 0.746059061 -0.2069126925 0.0516827628 0.0364421739
165299010.0 0.0522010264 0.0363461377 0.7445757315 -0.2171320142 0.7450065097 -0.2168639296 0.0533839687 0.0350545533
170298980.0 0.0531333126 0.0340179059 0.7430097714 -0.225963721 0.7433351286 -0.2257213678 0.0539365521 0.0332183106
175298950.0 0.0535041803 0.0322840038 0.741464132 -0.2347849378 0.7412502684 -0.2351476508 0.0545917136 0.0315888449
180298920.0 0.0542080351 0.03070597 0.7391628286 -0.2442632709 0.7391319851 -0.244089464 0.0549886275 0.0300939399
185298890.0 0.0554464938 0.0290139267 0.7365354857 -0.253421502 0.7365219545 -0.2532244365 0.0555530382 0.0283280693
190298860.0 0.0553171736 0.0276379883 0.7348771046 -0.2629424087 0.7347980424 -0.2628526327 0.0560645529 0.026354148
195298830.0 0.055830896 0.0255584479 0.7318553608 -0.2716290704 0.7320690482 -0.2717150925 0.0569504917 0.0248369702
200298800.0 0.0561886335 0.0243182719 0.7295067868 -0.2810710768 0.7288841168 -0.2805071937 0.0564837579 0.0235011973
205298770.0 0.0569472706 0.0231273501 0.7260031087 -0.2900715561 0.7264959617 -0.2895052278 0.0571065063 0.0211876766
210298740.0 0.0573408867 0.0210599605 0.7234613016 -0.2980725981 0.7234045723 -0.2978739798 0.0577014546 0.0211196743
215298710.0 0.0569914506 0.0200439414 0.7205373141 -0.3073064696 0.7205579731 -0.3076451722 0.0577787253 0.0196270578
220298680.0 0.0577372939 0.0179667183 0.7171944041 -0.3153497745 0.7171118626 -0.3154500149 0.0575477676 0.0176412036
225298650.0 0.0578229027 0.0167164754 0.7138316163 -0.3244362768 0.7137702688 -0.324514403 0.0575622207 0.01644103
230298620.0 0.0581259289 0.015958876 0.7109395239 -0.332559519 0.7117439906 -0.3327681205 0.0576471456 0.0148211466
235298590.0 0.0581951352 0.0145301258 0.7070423227 -0.341046225 0.7068800025 -0.3410371981 0.0581028425 0.0137673115
240298560.0 0.0582620452 0.013604053 0.7036040759 -0.3498265697 0.7036791808 -0.3495099753 0.058035273 0.0130209748
245298530.0 0.0580180875 0.0118648426 0.7000517012 -0.3583749982 0.7000830789 -0.3583242664 0.0586821749 0.0108944798
250298500.0 0.0590100848 0.0109993781 0.6952145347 -0.3664641188 0.6954400995 -0.3658103225 0.0583763566 0.0102101665
255298470.0 0.0587566089 0.0092939069 0.691767547 -0.3737213606 0.6924667696 -0.3735147692 0.0584219272 0.0091961616
260298440.0 0.0581043117 0.0081295127 0.6882667408 -0.3830866945 0.6879612123 -0.3819501847 0.0591005817 0.0080396207
265298410.0 0.0590359619 0.0075802493 0.6839729065 -0.3908252788 0.6845823094 -0.3903435482 0.0585159157 0.0067091248
270298380.0 0.058467409 0.0060346346 0.6799071182 -0.3978015955 0.680100541 -0.3980122422 0.0583733393 0.0059919392
275298350.0 0.0589749889 0.004954876 0.6755220909 -0.4067259367 0.6752687991 -0.4066211871 0.0585602001 0.0046076681
280298320.0 0.058764585 0.0044376584 0.6714240945 -0.4145007492 0.6714253282 -0.4141666838 0.0591426418 0.0038151398
285298290.0 0.0586772637 0.0031042922 0.6669818745 -0.4225948383 0.6668249826 -0.4224365051 0.058783433 0.0025840633
290298260.0 0.0588484933 0.0020618653 0.6620406688 -0.4298483594 0.6622578018 -0.4296256335 0.0587199229 0.002062082
295298230.0 0.0588970564 0.0009444307 0.6580078097 -0.4372804934 0.6575887355 -0.4372942908 0.0594474869 0.0007407706
300298200.0 0.0581365471 -0.0002396638 0.6529643564 -0.4447380503 0.6535906188 -0.445271424 0.0589564034 -0.0004652671
305298170.0 0.058743016 -0.0012982332 0.6474580001 -0.4531903672 0.6482455352 -0.4526966186 0.0592831886 -0.0014626286
310298140.0 0.0581944988 -0.0021840925 0.6433755232 -0.4605317089 0.6438235635 -0.4607188033 0.0594461825 -0.0026629395
315298110.0 0.058236841 -0.0038487817 0.6384112247 -0.4683247541 0.6388414195 -0.4688197165 0.0588197364 -0.0040562609
320298080.0 0.0584396019 -0.0045939231 0.6328136019 -0.4763384934 0.6332002885 -0.4754701903 0.0584786831 -0.0049946338
325298050.0 0.0576753439 -0.005995283 0.6276703623 -0.4835960656 0.6277257757 -0.4831708101 0.0575814794 -0.005816585
330298020.0 0.0574622999 -0.0071282262 0.6216171384 -0.4905967072 0.6221091913 -0.4904594868 0.0574665114 -0.0074127568
335297990.0 0.0572415047 -0.0083854379 0.6165339455 -0.4975429682 0.6161727924 -0.4979690878 0.0562728615 -0.0072879959
340297960.0 0.0561106418 -0.0086627722 0.6101112729 -0.5044609789 0.6100671585 -0.5047709853 0.0567015918 -0.008599412
345297930.0 0.0556930444 -0.0089713446 0.6043571929 -0.5118532633 0.6045453448 -0.5116103173 0.056222843 -0.0098914384
350297900.0 0.0552145531 -0.0104516346 0.5975576336 -0.5187393167 0.5984573353 -0.5179274645 0.055195627 -0.0095633136
355297870.0 0.0549172759 -0.0102247325 0.5927102437 -0.5246335577 0.5933662037 -0.52472127 0.0550675056 -0.0106188113
360297840.0 0.0548203089 -0.0112360923 0.5879011621 -0.5317200616 0.5879064041 -0.531167877 0.0545475673 -0.0110075003
365297810.0 0.0541830221 -0.0117737606 0.5806398376 -0.5382391526 0.5817579124 -0.5379982322 0.0543346568 -0.011957541
370297780.0 0.0544536346 -0.0129079354 0.574706324 -0.5446152841 0.575852149 -0.5441568834 0.0540730239 -0.0124248419
375297750.0 0.0541435058 -0.0136557363 0.5691884555 -0.5509211341 0.5701041407 -0.5507460008 0.0541070247 -0.013180192
380297720.0 0.0535426973 -0.0143052996 0.5629377459 -0.5575318242 0.5632675349 -0.5566187361 0.0533058009 -0.0141302229
385297690.0 0.053076893 -0.015210892 0.5566898195 -0.5642248497 0.5567786153 -0.5632962486 0.0531311477 -0.0144300851
390297660.0 0.0529193537 -0.0153739491 0.5508518581 -0.5699963039 0.5505891947 -0.5692978069 0.0527479724 -0.015476126
395297630.0 0.0524239676 -0.0161004068 0.5443785881 -0.5759579301 0.544552092 -0.5756775442 0.0532980584 -0.0158023486
400297600.0 0.0520468432 -0.0167290781 0.5378807215 -0.5825115641 0.5380060777 -0.5819035365 0.0524602681 -0.0165490214
405297570.0 0.0514730876 -0.0174843183 0.5312776626 -0.5877417438 0.5315142805 -0.5876678084 0.0517557667 -0.0171526121
410297540.0 0.0513598113 -0.018052877 0.5254518363 -0.5940380671 0.5256524182 -0.5938693459 0.0516335077 -0.0175354537
415297510.0 0.0513068278 -0.0185444783 0.5180620677 -0.6001544466 0.5187913884 -0.5993803841 0.0514775285 -0.0180470919
420297480.0 0.0509546795 -0.0191101669 0.5116078829 -0.6055201566 0.511728875 -0.6053585746 0.0508552996 -0.0191011023
425297450.0 0.0501187327 -0.0205292035 0.5055583917 -0.6115967389 0.5056152029 -0.6112104246 0.0498656301 -0.0190213343
430297420.0 0.0499793052 -0.0207353443 0.4982921039 -0.6161492053 0.4987064382 -0.6161321054 0.0498190382 -0.0202114251
435297390.0 0.0496075801 -0.0213018196 0.49118544 -0.6227152295 0.4912213254 -0.6217937849 0.0505396397 -0.0204733228
440297360.0 0.0492158349 -0.0216446547 0.4850473783 -0.6276614599 0.484398287 -0.6278166274 0.0493252122 -0.0214665616
445297330.0 0.0486511085 -0.0227807852 0.4784099817 -0.6330534814 0.4780672539 -0.632716741 0.0493321871 -0.0220259894
450297300.0 0.0485662673 -0.0229621996 0.4707848335 -0.6382636275 0.4708236026 -0.6385118895 0.0488378373 -0.0229405299
455297270.0 0.0483454498 -0.0235546209 0.4633198812 -0.6435259576 0.4641804132 -0.6433664181 0.048449008 -0.0228026389
460297240.0 0.0476895957 -0.0242550213 0.4564589829 -0.6484588005 0.4568989018 -0.6483105813 0.0481717149 -0.0232667706
465297210.0 0.0474862561 -0.0247100704 0.4497087703 -0.6538911877 0.4496854359 -0.6543314269 0.0477706618 -0.0243159784
470297180.0 0.0470768569 -0.0255574942 0.4419388807 -0.6586545028 0.4424912943 -0.6586460145 0.0472804126 -0.0244257118
475297150.0 0.0467426432 -0.0259294359 0.4347218236 -0.663411698 0.4354278887 -0.6628298156 0.0473322499 -0.0254083869
480297120.0 0.0461428645 -0.0257074128 0.4273446102 -0.668289765 0.4279627608 -0.6684416176 0.0472854465 -0.0253347356
485297090.0 0.045524116 -0.0264721391 0.420609721 -0.6725343963 0.4207310995 -0.6726544927 0.0462691157 -0.0265127116
490297060.0 0.0448685933 -0.0271901375 0.4133601552 -0.6777490186 0.4135316924 -0.6769863284 0.0456720913 -0.0261644666
495297030.0 0.0445514019 -0.0277014442 0.4058771031 -0.6819123978 0.4060829437 -0.6818184654 0.0450083592 -0.0272338884
500297000.0 0.0442831901 -0.0285543231 0.397525272 -0.6861903532 0.3970675076 -0.6858571971 0.0447181011 -0.0269666647
505296970.0 0.0440169045 -0.0289161325 0.3906453411 -0.6909366536 0.3905242323 -0.6907841042 0.0441876301 -0.0277558585
510296940.0 0.0434785345 -0.0291225096 0.383088728 -0.6948204446 0.3825998824 -0.6949926711 0.0441462429 -0.0279953271
515296910.0 0.0427688919 -0.02955678 0.3746226023 -0.6989519433 0.3753330967 -0.6988448691 0.0436240489 -0.0286961501
520296880.0 0.0422714695 -0.0303586429 0.3675511931 -0.7040911819 0.3677669607 -0.7030054722 0.0432541791 -0.0296273655
525296850.0 0.0421740927 -0.0313783779 0.3595601712 -0.707208714 0.3601681919 -0.7072886624 0.0422903722 -0.0295759704
530296820.0 0.0417363487 -0.0313887876 0.3516152971 -0.7112561411 0.3520884262 -0.7110962677 0.042175473 -0.0302000442
535296790.0 0.040835569 -0.0314987782 0.3448202333 -0.7149099251 0.3448791812 -0.7143743413 0.041912663 -0.0313090302
540296760.0 0.0404029344 -0.0316955901 0.3368950201 -0.7192679109 0.3363452063 -0.7189662279 0.040515446 -0.0307435669
545296730.0 0.0397583828 -0.0325114678 0.3281664416 -0.7223179379 0.3284840237 -0.7227130234 0.0404453347 -0.0316867135
550296700.0 0.0397706625 -0.032567466 0.32044841 -0.726255536 0.3203751123 -0.7264601507 0.0397135127 -0.0318566801
555296670.0 0.0389706522 -0.0331487868 0.3126769154 -0.7299329641 0.3129680038 -0.7292625365 0.0396973459 -0.0318841333
560296640.0 0.0386950678 -0.0329740458 0.304659763 -0.7335325414 0.3046294631 -0.7332690168 0.0390859516 -0.0328999355
565296610.0 0.0375478631 -0.0340341198 0.2964020079 -0.7367018873 0.2968497219 -0.7363105428 0.038375572 -0.0337276242
570296580.0 0.037155071 -0.0341635938 0.2886415458 -0.7399817902 0.2879230421 -0.7393298916 0.0378149004 -0.0332609875
575296550.0 0.0362579659 -0.0342844882 0.2806982948 -0.7430940421 0.280587228 -0.7428455965 0.0376573076 -0.033936522
580296520.0 0.0362543299 -0.0348898876 0.2721917527 -0.7456907657 0.2725639717 -0.7454896111 0.0368674048 -0.0344798187
585296490.0 0.0354912989 -0.0357291277 0.2645471606 -0.748075457 0.2646993713 -0.7486990611 0.0364746742 -0.0344895957
590296460.0 0.035500376 -0.035497541 0.2563413196 -0.750961103 0.2555015433 -0.7513950958 0.0349448243 -0.034534394
595296430.0 0.0348877155 -0.0356636347 0.2472286785 -0.7548125047 0.2472123637 -0.7538696113 0.0355608873 -0.0354174806
600296400.0 0.0338216767 -0.0365625258 0.2392532108 -0.7565050643 0.2398690858 -0.7567357642 0.0345329183 -0.0355845053
605296370.0 0.0333047057 -0.0365877216 0.2306266876 -0.7592103405 0.2313229198 -0.7592029791 0.0341395564 -0.0358279957
610296340.0 0.0328939746 -0.0368593152 0.2221301296 -0.7615457565 0.2231733862 -0.7617264902 0.0339522045 -0.0360010706
615296310.0 0.0325831028 -0.0375304333 0.2144278582 -0.7641869917 0.2141778279 -0.764546519 0.033671005 -0.036190678
620296280.0 0.032053609 -0.0377740442 0.2063690084 -0.7664777315 0.2059691291 -0.7659064698 0.0325105645 -0.03652475
625296250.0 0.0312138022 -0.0383961907 0.1988283983 -0.7689254077 0.1980953191 -0.7691406897 0.0332229754 -0.036990869
630296220.0 0.0317100145 -0.0380533343 0.1887405431 -0.7709819483 0.1890490466 -0.7706336293 0.0316925652 -0.0367382892
635296190.0 0.0299234211 -0.0390416821 0.1806497059 -0.772299695 0.1808755468 -0.7727674598 0.0315345308 -0.0371458371
640296160.0 0.0294880718 -0.0385482522 0.1724385918 -0.7742124904 0.1729246733 -0.774704905 0.0308509964 -0.03739687
645296130.0 0.0293375029 -0.0387437812 0.1635737203 -0.7761254421 0.1642819643 -0.7766773889 0.0302746269 -0.0374846153
650296100.0 0.0287958839 -0.0390571388 0.1552664107 -0.7781761204 0.1559363224 -0.7782197738 0.0298958389 -0.0384827224
655296070.0 0.0277382328 -0.0397300254 0.1474319195 -0.7796768266 0.1470179635 -0.7799333316 0.0291614543 -0.0382677392
660296040.0 0.0268545451 -0.0404347589 0.1386554188 -0.7820442777 0.138841505 -0.7815744843 0.0288517927 -0.0383826154
665296010.0 0.0272315963 -0.0401138908 0.1295733994 -0.782725971 0.1300131938 -0.7827407882 0.0281421788 -0.0383163384
670295980.0 0.0250535463 -0.0401939476 0.1210517603 -0.7840611924 0.1215838398 -0.7843145612 0.0271814964 -0.0387145063
675295950.0 0.0253647279 -0.0398194344 0.1132734663 -0.7848096415 0.1133051157 -0.7851178688 0.0264559314 -0.0391086399
680295920.0 0.0241828431 -0.0410113224 0.1039195205 -0.7868386356 0.1036475687 -0.7874020185 0.0260117602 -0.0383240541
685295890.0 0.0240439544 -0.0401273254 0.0955529789 -0.7875703132 0.0955052167 -0.7874546921 0.0254194309 -0.0388845086
690295860.0 0.0239463943 -0.0408704824 0.0872765049 -0.7880781809 0.0872540301 -0.7892791848 0.0247771654 -0.0385149549
695295830.0 0.0233048827 -0.0411576322 0.0787623102 -0.7897250583 0.0787259578 -0.7891576166 0.0241968304 -0.0390661719
700295800.0 0.0223588468 -0.0417129839 0.0697940269 -0.7901037054 0.0696275967 -0.7896934609 0.0234758733 -0.0385980301
705295770.0 0.0216404214 -0.0406735708 0.0611215398 -0.7909370223 0.0615607961 -0.7913133675 0.0229573498 -0.0391107636
710295740.0 0.021301893 -0.0415177085 0.0523710976 -0.7920575351 0.0533158764 -0.7924281118 0.0224194902 -0.0401272642
715295710.0 0.0198220948 -0.0416769435 0.0446970009 -0.7923037479 0.0443228965 -0.7925603513 0.0222851858 -0.0397393896
720295680.0 0.0197033684 -0.0417155454 0.0353379947 -0.7929478313 0.0358853745 -0.7926833107 0.0213043484 -0.0393451957
725295650.0 0.0192908789 -0.0419332162 0.0267681364 -0.7929482499 0.0270643624 -0.7930117982 0.0202934835 -0.0395403041
730295620.0 0.0188766723 -0.0416495768 0.0180142149 -0.7927852623 0.0182268666 -0.793245789 0.0192051819 -0.0402210952
735295590.0 0.01802614 -0.0414590862 0.0097391322 -0.793510914 0.0095339255 -0.7933669126 0.0191300052 -0.0404714432
740295560.0 0.0170678776 -0.0415266963 0.0007892875 -0.793155928 0.0006854387 -0.7934124888 0.0190927818 -0.0403695296
745295530.0 0.0166379574 -0.0416894305 -0.0073510883 -0.7926110129 -0.0077365538 -0.7932507709 0.0185734791 -0.0408059106
750295500.0 0.0164333288 -0.0418398051 -0.0160391735 -0.7929622455 -0.0158954628 -0.792897979 0.0175973294 -0.0406132506
755295470.0 0.0155804175 -0.042037584 -0.0245671413 -0.7929274934 -0.0250682637 -0.7933203489 0.0177097523 -0.0409377384
760295440.0 0.0150733128 -0.0416576646 -0.0330671751 -0.7929013778 -0.0332462616 -0.7928862354 0.016992183 -0.0405934596
765295410.0 0.0142701487 -0.0416394557 -0.0424196568 -0.7926631864 -0.0422069191 -0.7932524423 0.0161632745 -0.0405912825
770295380.0 0.0133345054 -0.0421093844 -0.0510090262 -0.7913868571 -0.0510685006 -0.7915125854 0.0152539223 -0.0410002967
775295350.0 0.0129694601 -0.0428489966 -0.0597121653 -0.7904219883 -0.0593488448 -0.7909139583 0.0138892126 -0.0403892098
780295320.0 0.0125455419 -0.0421828723 -0.0681086984 -0.7900352234 -0.067219219 -0.7905731991 0.0138034892 -0.041142166
785295290.0 0.0114500507 -0.0426874496 -0.0769191932 -0.7888470505 -0.0765224645 -0.7891082871 0.0139536815 -0.0405974259
790295260.0 0.0117034134 -0.0414779951 -0.0848725786 -0.7883555386 -0.0845592011 -0.7884013913 0.0131681811 -0.0407119301
795295230.0 0.0107681455 -0.0425116179 -0.0937724974 -0.7871480694 -0.0928130666 -0.7873145542 0.0128419221 -0.039930012
800295200.0 0.0096896706 -0.0417500947 -0.1030157096 -0.7862999337 -0.1023341849 -0.7862743054 0.0121390825 -0.040499019
805295170.0 0.0092472959 -0.0420777798 -0.1107465101 -0.7848180283 -0.1112054829 -0.7853917903 0.0113693653 -0.0400711486
810295140.0 0.0083374202 -0.042575383 -0.1190130046 -0.7838049875 -0.1190787467 -0.7838759253 0.0111991689 -0.0401068003
815295110.0 0.0081381715 -0.0426626093 -0.1275649587 -0.7827446948 -0.1270938328 -0.7821954298 0.0100558785 -0.0398409471
820295080.0 0.0070756091 -0.0415138038 -0.136519813 -0.7803511441 -0.135877559 -0.7811323187 0.0093771586 -0.0401124823
825295050.0 0.0072643919 -0.0419174978 -0.1443919902 -0.7788813521 -0.1444484506 -0.7796839981 0.0093334848 -0.0402688329
830295020.0 0.0065895752 -0.0416160419 -0.153257698 -0.7772249829 -0.153074344 -0.7776518231 0.0094981728 -0.0395161062
