!Created with skrf (http://scikit-rf.org).
# Hz S RI R 50.0 
!freq ReS11 ImS11 ReS21 ImS21 ReS12 ImS12 ReS22 ImS22
300000.0 -0.0949558816 -0.1034703528 0.6230141412 0.0955390472 0.6211997893 0.0963490993 -0.0960874874 -0.109296665
5299970.0 -0.1013502363 0.0111430176 0.6304425027 0.0111807566 0.6310643944 0.0110103392 -0.1015020763 0.0111070033
10299940.0 -0.0968526717 0.0286379677 0.6348132579 0.016078308 0.6342398025 0.0164108757 -0.0965032558 0.0284202671
15299910.0 -0.0893413627 0.0423046702 0.6405138208 0.0215107742 0.640906949 0.0211496478 -0.0898778739 0.0418176722
20299880.0 -0.0803169583 0.0533570891 0.6486336704 0.0243278239 0.6492912026 0.0241214753 -0.0806630135 0.0526789583
25299850.0 -0.0701544983 0.0623707117 0.6582102291 0.0262075836 0.6584809857 0.0255655642 -0.0714510564 0.0618622362
30299820.0 -0.0606880327 0.0688914107 0.6684151844 0.0244276551 0.66780078 0.024251976 -0.0617557656 0.068187688
35299790.0 -0.0504811813 0.0735109678 0.6774102039 0.0223522058 0.6778094095 0.0217627605 -0.0520141232 0.0736244297
40299760.0 -0.0410639753 0.0763823973 0.6868013765 0.0178088481 0.6869245192 0.0177043552 -0.0427075833 0.0767592203
45299730.0 -0.0318928474 0.0783796042 0.695554961 0.0123441844 0.6964144616 0.0123221248 -0.0330762661 0.0791029056
50299700.0 -0.0229129654 0.0789318143 0.7038143767 0.0049033832 0.7039104146 0.0049073433 -0.0244750379 0.0805971114
55299670.0 -0.0150430271 0.0787128482 0.7110782265 -0.0024855856 0.7108221678 -0.0027915374 -0.0174091993 0.0805429248
60299640.0 -0.0078500866 0.0787238073 0.7183991218 -0.0107958942 0.7179147598 -0.0111254222 -0.0096290554 0.0795997421
65299610.0 -0.0012648623 0.0770966479 0.7240541863 -0.0195354041 0.7240853242 -0.0199124042 -0.0025699017 0.078620455
70299580.0 0.0054241221 0.0750122937 0.7292056516 -0.0289187939 0.7292795964 -0.0290391674 0.0029490256 0.0772103366
75299550.0 0.0105306299 0.0733306953 0.7332163647 -0.0391685117 0.7336933508 -0.0386347732 0.0087903615 0.0754826263
80299520.0 0.0154333351 0.0713885478 0.7381399273 -0.0482285033 0.7379053627 -0.0488837411 0.0139056491 0.0733954476
85299490.0 0.0202341229 0.069115622 0.7409191458 -0.0583234371 0.7411917258 -0.0584342664 0.0180976281 0.0707941363
90299460.0 0.023914482 0.0666978421 0.7432474326 -0.0682721896 0.7434813136 -0.0681751332 0.0225863824 0.0692281111
95299430.0 0.0279986703 0.0639899009 0.7457789514 -0.0784708977 0.746441998 -0.0786445857 0.0258807722 0.0665248412
100299400.0 0.031501501 0.061172903 0.7476493335 -0.088575913 0.7479433274 -0.089283713 0.029193173 0.0646855948
105299370.0 0.0344069997 0.0591707324 0.7492935433 -0.0988291657 0.7499880001 -0.0988314 0.0329818005 0.0616021691
110299340.0 0.0373103581 0.0563069572 0.750670443 -0.1083155849 0.7509193719 -0.1086009707 0.03523583 0.0595303482
115299310.0 0.0396702694 0.054299815 0.7513899402 -0.1188665937 0.7512809599 -0.118652234 0.0372748863 0.0576565329
120299280.0 0.0418889188 0.0518960816 0.7520425025 -0.1297585377 0.7516907573 -0.1293599838 0.0399771279 0.0543804165
125299250.0 0.0439974813 0.0496359129 0.7523344231 -0.139073627 0.7521491104 -0.139004156 0.0421169564 0.0528277184
130299220.0 0.0459539898 0.0470460615 0.7520222255 -0.1495341653 0.7522728404 -0.149068217 0.0438214922 0.0508097271
135299190.0 0.0469881087 0.0454010584 0.7520000771 -0.158632766 0.7520336787 -0.1589734672 0.0455290951 0.0482562571
140299160.0 0.0490527734 0.043083618 0.7520519495 -0.1689733766 0.7511261155 -0.1680997669 0.0460947079 0.0457814602
145299130.0 0.049401002 0.0410206358 0.7502271962 -0.1780597761 0.7506902735 -0.1781370952 0.0480048455 0.0436066138
150299100.0 0.0510823036 0.0393703022 0.7492548679 -0.1877345465 0.7496405243 -0.1877172242 0.0494567653 0.0419613225
155299070.0 0.0527454092 0.0370147092 0.7476796111 -0.1976697719 0.74846374 -0.1977472835 0.0505601622 0.0396117158
160299040.0 0.0535115735 0.0354109225 0.7470709195 -0.2071870489 0.7466055242 -0.2073216142 0.0510472848 0.0383384292
165299010.0 0.0542694193 0.033461697 0.7455649125 -0.2165197248 0.7451020755 -0.2161438308 0.0520823462 0.0359745853
170298980.0 0.0550299184 0.031942779 0.7433122236 -0.2258470109 0.7435139479 -0.2260150774 0.0526857981 0.0339800202
175298950.0 0.05610502 0.0303850939 0.7422416773 -0.2349460819 0.7418700928 -0.2356631905 0.0534019537 0.0327337661
180298920.0 0.0564092065 0.028741145 0.739493135 -0.2447715352 0.7398244159 -0.244593119 0.0539384206 0.0311702557
185298890.0 0.0569390076 0.0270072553 0.7377054987 -0.2530759498 0.7374332317 -0.253636168 0.055233274 0.0288764455
190298860.0 0.0579185688 0.0258764324 0.7343842054 -0.2632386735 0.7351888268 -0.2626112208 0.0551847681 0.0273987094
195298830.0 0.057896842 0.0239934199 0.7330010921 -0.2715380491 0.7327876286 -0.2716537569 0.0557958656 0.0260673261
200298800.0 0.0586599239 0.0222723559 0.7301264426 -0.2814363872 0.7298253196 -0.2809568163 0.0564000117 0.0241393784
205298770.0 0.0585516008 0.020746221 0.7268432394 -0.2893619368 0.727181193 -0.2891215796 0.0570708798 0.0230336201
210298740.0 0.0589502304 0.0198951819 0.7242237362 -0.2979316369 0.7239405265 -0.2983950977 0.0567774886 0.02098573
215298710.0 0.0596108645 0.0186030713 0.7211652122 -0.3067309623 0.7212202405 -0.3068608332 0.0572371822 0.0201826575
220298680.0 0.0597769264 0.0176201472 0.7178157792 -0.3154984918 0.717673871 -0.3155308694 0.0572979281 0.0184549778
225298650.0 0.059818191 0.0162043167 0.7141569448 -0.3241901911 0.7148403845 -0.3233270457 0.0574542786 0.0166906914
230298620.0 0.0604619828 0.0151540412 0.7121265547 -0.3331281472 0.7115788584 -0.3328317943 0.0575237714 0.0155654598
235298590.0 0.0601273889 0.013942904 0.7083746703 -0.3419031757 0.7076679429 -0.3411664249 0.057977713 0.0143146587
240298560.0 0.0604675382 0.0128321434 0.7046907973 -0.3493596713 0.7043720361 -0.3494322147 0.0576370862 0.0130876007
245298530.0 0.0601513642 0.0114463913 0.7005601254 -0.3579264519 0.700062508 -0.3580420245 0.0581033018 0.011824706
250298500.0 0.0599579755 0.010356052 0.6970162033 -0.365886934 0.6968399462 -0.3657233121 0.0577599675 0.0108999754
255298470.0 0.0608527658 0.0094933835 0.6930105189 -0.373679416 0.6931327717 -0.374155455 0.0581411159 0.0098970819
260298440.0 0.0605709593 0.0082859721 0.6891282104 -0.3815999558 0.6890020038 -0.3823381515 0.0577134602 0.0080936536
265298410.0 0.0599057762 0.0076102605 0.6844743776 -0.3905398447 0.6845048015 -0.3906394279 0.0587557567 0.0067442678
270298380.0 0.0603024805 0.0064413022 0.6805615003 -0.3983458776 0.6808084467 -0.3984992156 0.0581325387 0.0062846189
275298350.0 0.060546877 0.0056841645 0.6757452576 -0.4058988874 0.6757652532 -0.4061791617 0.0580345285 0.0051362526
280298320.0 0.0599409142 0.0044366282 0.67207045 -0.4139139175 0.6723234715 -0.4143334834 0.0584413611 0.0039100015
285298290.0 0.0598724427 0.0036343217 0.6669870065 -0.4220868758 0.6678309219 -0.4215021618 0.0581261204 0.0027787042
290298260.0 0.0600564583 0.002658114 0.6632028935 -0.4298643671 0.6632981236 -0.4296655916 0.0585137676 0.0018490002
295298230.0 0.0600555381 0.001271889 0.65880879 -0.4374298369 0.6585750974 -0.43818362 0.0578063895 0.0005313095
300298200.0 0.0603798468 0.0009845591 0.6540453508 -0.4449886053 0.6538238835 -0.444796111 0.0580013926 -0.0005761135
305298170.0 0.0603034757 -0.0008437042 0.6490410242 -0.4529318654 0.6493271651 -0.4534405678 0.057795656 -0.0020999562
310298140.0 0.0603876033 -0.0014564995 0.6447312709 -0.4601078325 0.6449757323 -0.4603265208 0.0582912185 -0.003494062
315298110.0 0.0598403401 -0.0031349707 0.6393937975 -0.4685044799 0.6392879175 -0.4681695155 0.057939752 -0.0041688149
320298080.0 0.0598411829 -0.0037371018 0.6332525408 -0.4759029694 0.6347660637 -0.4765212863 0.0572591222 -0.0053785469
325298050.0 0.0587351763 -0.0053884802 0.6282518464 -0.482807407 0.6291890822 -0.4832481856 0.0572212275 -0.0065828145
330298020.0 0.0573408505 -0.0058856034 0.6232104622 -0.4904320974 0.6232256097 -0.4910467238 0.0561322697 -0.0078492555
335297990.0 0.0576892852 -0.006717639 0.6177609647 -0.4972406376 0.6173384484 -0.4973154106 0.0555173051 -0.0085668178
340297960.0 0.0571013849 -0.0076881506 0.6114715283 -0.504935342 0.6112259023 -0.5048230196 0.0551167799 -0.0089712177
345297930.0 0.0561800002 -0.0084749081 0.6058212991 -0.5121097533 0.6057348155 -0.5115237172 0.0550964161 -0.0102923858
350297900.0 0.0557739703 -0.0088963507 0.6005075777 -0.5175271074 0.6005900254 -0.518517901 0.054723487 -0.0113352279
355297870.0 0.0558798663 -0.0095664664 0.5943718015 -0.5244309162 0.5947999603 -0.5245637564 0.0547621406 -0.011821213
360297840.0 0.0552904664 -0.010338279 0.5885078204 -0.5320783072 0.5888608176 -0.531658776 0.0534542979 -0.0121484027
365297810.0 0.0546616166 -0.0109196643 0.5825905173 -0.5384724411 0.5824821447 -0.5382054645 0.0529800194 -0.0130379883
370297780.0 0.0547561748 -0.0115549028 0.5757452265 -0.5444490652 0.5764799588 -0.5444911285 0.0526701432 -0.0139291149
375297750.0 0.0543840546 -0.0120033628 0.5706123511 -0.5506620328 0.5710095251 -0.5508495835 0.0529201255 -0.0143798846
380297720.0 0.0536295843 -0.0128234509 0.5648862116 -0.5576974627 0.5644751473 -0.5572964251 0.0521326038 -0.0149822499
385297690.0 0.053188396 -0.0134541881 0.5578604604 -0.5635427802 0.5586966594 -0.5642957394 0.0522359035 -0.0153016384
390297660.0 0.0528985309 -0.0143789371 0.5524528337 -0.5688261188 0.5523870831 -0.5701474699 0.052242136 -0.0164407134
395297630.0 0.0530393096 -0.0147735783 0.5463126616 -0.5753474455 0.5461577541 -0.5752511886 0.0513177421 -0.016904786
400297600.0 0.0520674499 -0.0156563373 0.5397523845 -0.5819923559 0.5397107853 -0.5817607341 0.0514842305 -0.0172442318
405297570.0 0.0520170663 -0.0170001358 0.5332223327 -0.5875628207 0.5330746607 -0.5878680038 0.0509920478 -0.0175113953
410297540.0 0.051461932 -0.0161768148 0.5265369852 -0.5938552133 0.5270165628 -0.593577315 0.0507615282 -0.0184776721
415297510.0 0.0509806842 -0.0174928795 0.5198011017 -0.5994836229 0.520558083 -0.6000796092 0.0506526219 -0.0188221139
420297480.0 0.0505256412 -0.0184628559 0.5131369287 -0.605533701 0.5141525846 -0.6056339814 0.0505814074 -0.0193118843
425297450.0 0.0507963188 -0.0188884702 0.5072041025 -0.6108120933 0.50678276 -0.6107701759 0.0496895328 -0.0206850152
430297420.0 0.0499121368 -0.0192467299 0.5004720123 -0.6168481629 0.5009867346 -0.6162701614 0.0498192479 -0.0206704801
435297390.0 0.0499227991 -0.0203653452 0.4933928453 -0.6230089242 0.4937508849 -0.6225322286 0.0488185939 -0.0210385631
440297360.0 0.0495590009 -0.0210659576 0.4862841379 -0.627594068 0.4863824153 -0.627903695 0.0486991862 -0.0216951811
445297330.0 0.0492360851 -0.0218568837 0.4798455692 -0.6327757123 0.4796190023 -0.6330461665 0.0484168372 -0.0218299659
450297300.0 0.048904331 -0.0220932451 0.4726258784 -0.6379660056 0.4732493702 -0.6380928947 0.0482373835 -0.0225321709
455297270.0 0.0481111262 -0.0229050533 0.4659670052 -0.6434859935 0.4657780582 -0.643711888 0.047784903 -0.0231858491
460297240.0 0.0482497141 -0.0234333774 0.4591130788 -0.6491322678 0.4585188919 -0.6492221454 0.0473630498 -0.0239334635
465297210.0 0.0475073735 -0.0241081866 0.4514194946 -0.6540019656 0.4509776274 -0.653999599 0.0476519249 -0.0238593257
470297180.0 0.0471532854 -0.0249760494 0.4443139229 -0.6581486585 0.4447717464 -0.6583637537 0.047151893 -0.0250278036
475297150.0 0.0466548264 -0.0247474752 0.4367674172 -0.6635318841 0.4374127059 -0.6642596351 0.0465547908 -0.0256024347
480297120.0 0.0467018044 -0.0251667235 0.4295257646 -0.6684613996 0.430463808 -0.6679908127 0.045999112 -0.0260174609
485297090.0 0.0460743302 -0.0266271944 0.421998261 -0.6730914173 0.4226125147 -0.6727163544 0.0456041106 -0.0262403404
490297060.0 0.0464489144 -0.0266908337 0.4141958854 -0.6777570139 0.4149609297 -0.6783173294 0.0454911429 -0.0268133292
495297030.0 0.0452461737 -0.0279468843 0.407927867 -0.6822835079 0.4077226248 -0.6827510331 0.0454009823 -0.0276574074
500297000.0 0.0449943997 -0.0277512518 0.4002571183 -0.6865658602 0.4002117972 -0.6869883878 0.04510628 -0.0275265793
505296970.0 0.0450685627 -0.0282808816 0.3927768502 -0.6910090301 0.3924778182 -0.6910696236 0.044512107 -0.0290271267
510296940.0 0.0443440368 -0.0294299735 0.3851338638 -0.6963527745 0.3854247141 -0.6963659438 0.04440535 -0.028717406
515296910.0 0.0440832962 -0.0292967826 0.3772719459 -0.6999413421 0.3770974876 -0.7001272214 0.0438883216 -0.0300840627
520296880.0 0.0434648878 -0.0297302575 0.3697563696 -0.7039538901 0.3695639018 -0.7036094524 0.0439144476 -0.0294399015
525296850.0 0.0433496186 -0.0304992309 0.3617651939 -0.7077240512 0.3615521287 -0.7078169471 0.0436678095 -0.0303451848
530296820.0 0.0425563419 -0.0312956088 0.3537556292 -0.7123400152 0.3540563454 -0.7118806304 0.043147474 -0.0311244675
535296790.0 0.0430055801 -0.0312254932 0.3455484889 -0.7151823261 0.3467459434 -0.7157019848 0.0429662623 -0.0310566797
540296760.0 0.042430096 -0.0312511632 0.3385537286 -0.719107857 0.3382207416 -0.7195919457 0.0420103904 -0.0323769269
545296730.0 0.0410344256 -0.0318934305 0.3303662322 -0.7228914756 0.3303451288 -0.7226856969 0.0419017182 -0.0326194317
550296700.0 0.041698648 -0.0322518648 0.3223355717 -0.7266384595 0.3226352343 -0.7271410033 0.041677088 -0.0327624745
555296670.0 0.0408209167 -0.0327699223 0.3141435693 -0.7308521027 0.3150957886 -0.7305624186 0.041030836 -0.0341372595
560296640.0 0.0412677018 -0.033184638 0.3061251816 -0.7336149905 0.3073237088 -0.7335104179 0.040541056 -0.0335815211
565296610.0 0.0400470951 -0.0335356024 0.2989621821 -0.737397177 0.29881571 -0.736400423 0.0404405278 -0.0338452099
570296580.0 0.0394425953 -0.0336785567 0.2905758272 -0.740073651 0.2907934403 -0.7407219665 0.0395869462 -0.0349685152
575296550.0 0.0393883564 -0.0344785672 0.2827714587 -0.7436000854 0.2828098149 -0.7438554468 0.0392952775 -0.0350479962
580296520.0 0.0388116597 -0.0344382165 0.2742292566 -0.7463870909 0.2743414815 -0.7466622187 0.0385533371 -0.035563369
585296490.0 0.038383716 -0.0346404852 0.266339073 -0.7495004281 0.2657671372 -0.7492157282 0.0386995786 -0.0355813516
590296460.0 0.0388805575 -0.0352025959 0.2579023232 -0.751850673 0.2581159541 -0.7526077967 0.0375493711 -0.0359677933
595296430.0 0.0377142771 -0.0356171863 0.2485635366 -0.7548504403 0.2491652309 -0.7553825025 0.0375730459 -0.0367827179
600296400.0 0.0379210486 -0.0355380456 0.2412291376 -0.7572766539 0.2411267987 -0.7577419014 0.0370913749 -0.0370311073
605296370.0 0.0362424296 -0.03599023 0.2335587113 -0.7600673176 0.2330058703 -0.7605404846 0.0363760837 -0.0374508645
610296340.0 0.0365654681 -0.0358044879 0.2247236487 -0.7620048393 0.2250550074 -0.7625314711 0.035334869 -0.0375141142
615296310.0 0.0362941452 -0.0363051084 0.2164787956 -0.765987511 0.2159408511 -0.7651846322 0.0354760967 -0.0375137102
620296280.0 0.0352252243 -0.0361752408 0.2074427405 -0.7672574256 0.2075784591 -0.7672370575 0.0345104333 -0.0380376026
625296250.0 0.03478342 -0.0367787906 0.1992158785 -0.7702238246 0.1997708676 -0.7699246445 0.0335179951 -0.0385349891
630296220.0 0.0344532681 -0.0369860644 0.1906415926 -0.7719804725 0.1910306414 -0.771831675 0.0336779941 -0.0389952938
635296190.0 0.0333879089 -0.0369247526 0.1825495151 -0.7737215498 0.1827634046 -0.773840201 0.0332734005 -0.0391183314
640296160.0 0.0330120437 -0.03709036 0.1736703033 -0.7758810771 0.1744813309 -0.7761291503 0.0319074725 -0.0395900109
645296130.0 0.03282823 -0.0368353885 0.1655638434 -0.7777936821 0.1657099224 -0.777784696 0.031381149 -0.0405356338
650296100.0 0.0323219425 -0.0374926992 0.1572900908 -0.7799838452 0.1570765118 -0.7798781758 0.03255627 -0.0403058296
655296070.0 0.0318195436 -0.0373277444 0.1478334599 -0.7815568783 0.1489703908 -0.780819676 0.030464428 -0.0403173
660296040.0 0.0313841829 -0.0373926184 0.139793777 -0.7826131656 0.1400335273 -0.7829339996 0.029873176 -0.041139496
665296010.0 0.0309631151 -0.0380453714 0.1307141856 -0.7839295119 0.1316064747 -0.7841824941 0.0294204951 -0.0409335446
670295980.0 0.0304345986 -0.0378913889 0.1229932725 -0.7852242219 0.1226726159 -0.7850109984 0.0283877964 -0.04144991
675295950.0 0.0296109997 -0.0382563361 0.1139378734 -0.7865097925 0.1143485831 -0.7869504918 0.0278149895 -0.0412836299
680295920.0 0.0290338137 -0.0380635435 0.1058285055 -0.7875823782 0.1058267228 -0.7881833242 0.0278620855 -0.041926187
685295890.0 0.0288731674 -0.038160691 0.0971364361 -0.7891769241 0.0974185047 -0.7891495748 0.0271795268 -0.0414398474
690295860.0 0.0277303327 -0.0381078721 0.0884556521 -0.7899326812 0.0883522513 -0.7904280702 0.02633793 -0.0421778927
695295830.0 0.0275093767 -0.0385939301 0.0804284404 -0.7907247432 0.0799638269 -0.7909563019 0.0259414403 -0.0421185684
700295800.0 0.0268255739 -0.0382235218 0.0721589922 -0.7920388112 0.0717358283 -0.7916804768 0.0250067014 -0.0420819437
705295770.0 0.0259999991 -0.0382211647 0.0629202924 -0.7934848397 0.0631214743 -0.7925880741 0.0240964906 -0.0420647781
710295740.0 0.0258054871 -0.0384748072 0.0544997542 -0.793689191 0.0543338044 -0.7935651958 0.0239768827 -0.0424200015
715295710.0 0.0249570655 -0.0382000722 0.0457384172 -0.7941354101 0.0457775882 -0.7943654716 0.0230289113 -0.0427337261
720295680.0 0.0248389192 -0.0382360668 0.0370586818 -0.7940875457 0.0369775119 -0.794522971 0.022562922 -0.0429254298
725295650.0 0.0235816711 -0.0380282101 0.0287257062 -0.7941970997 0.0285868786 -0.7948404469 0.021580442 -0.0421085101
730295620.0 0.022224701 -0.0387799387 0.0189856508 -0.794444593 0.0198155969 -0.7939356637 0.021203357 -0.041981497
735295590.0 0.0227504417 -0.0386258195 0.0109659166 -0.795376765 0.0114773267 -0.7950362821 0.0201486691 -0.0429981638
740295560.0 0.0220681594 -0.0387126239 0.0024552199 -0.7951729739 0.0028434574 -0.795272268 0.0191529097 -0.0426091792
745295530.0 0.0211122264 -0.0385209641 -0.0061140314 -0.7941659093 -0.0053795384 -0.7948135521 0.0179948498 -0.0427865695
750295500.0 0.0201306597 -0.0383993148 -0.014502273 -0.795181705 -0.0150226483 -0.7946133127 0.0180302957 -0.0426431707
755295470.0 0.0194576171 -0.0382808392 -0.0230688077 -0.7947539547 -0.0227743566 -0.7951474694 0.0178000895 -0.0419870975
760295440.0 0.0190288179 -0.0378620053 -0.0324489388 -0.7937589528 -0.0318185522 -0.7936162336 0.0169541055 -0.0434994903
765295410.0 0.0187731361 -0.0386308927 -0.0403953241 -0.7935415854 -0.0401720961 -0.793714951 0.0162774145 -0.0429047316
770295380.0 0.0177275171 -0.0381744311 -0.0483742337 -0.7928924212 -0.0489812369 -0.7936914853 0.015301034 -0.0428631083
775295350.0 0.0174221221 -0.0383855203 -0.0575842014 -0.7929948342 -0.0573305785 -0.7918804895 0.0151756248 -0.0424530416
780295320.0 0.016357462 -0.0380134945 -0.0660092207 -0.7913622054 -0.0663124094 -0.7919714189 0.014752168 -0.0428413498
785295290.0 0.015632071 -0.0383120232 -0.074712268 -0.7916301564 -0.07477504 -0.7913746934 0.0129939615 -0.0420161194
790295260.0 0.0154583051 -0.0384573981 -0.0833135327 -0.7908347814 -0.0828811734 -0.7907673602 0.0125269742 -0.0418874286
795295230.0 0.0145907003 -0.0384995376 -0.0916569059 -0.7894155442 -0.0918106349 -0.7896637421 0.0123665384 -0.0430408443
800295200.0 0.013408809 -0.0380827003 -0.1000986899 -0.7882271573 -0.1007307466 -0.7886003712 0.0111781601 -0.0420742592
805295170.0 0.0128592689 -0.0381606901 -0.1088001398 -0.7873659373 -0.108347659 -0.7874555135 0.0114210838 -0.0424000573
810295140.0 0.0126692403 -0.0377088746 -0.1175154047 -0.7859781837 -0.1174577435 -0.7860846326 0.0104083399 -0.0423872226
815295110.0 0.0118770635 -0.0377757989 -0.1257654967 -0.7846776701 -0.1258829946 -0.7846074056 0.0094525547 -0.0419568335
820295080.0 0.011334364 -0.0374875113 -0.1336962449 -0.7824926272 -0.1341580886 -0.7833151316 0.0080273239 -0.0413223368
825295050.0 0.0102472822 -0.0379583569 -0.1425904702 -0.7819892983 -0.142799187 -0.7815254016 0.0086440287 -0.0410213613
830295020.0 0.0096578383 -0.0378951784 -0.1515419484 -0.7799499568 -0.1514977397 -0.7798229352 0.0079122679 -0.0416119295
