!Created with skrf (http://scikit-rf.org).
# Hz S RI R 50.0 
!freq ReS11 ImS11 ReS21 ImS21 ReS12 ImS12 ReS22 ImS22
300000.0 -0.3174606841 -0.1033745824 0.3726245208 0.0521906716 0.3745728049 0.0554424257 -0.3169934265 -0.1123689834
5299970.0 -0.3237515174 0.0048762494 0.3786463974 0.0026782039 0.3788058505 0.0033558052 -0.3261613996 0.0029414901
10299940.0 -0.3211678349 0.0155214789 0.3802130869 0.0024004825 0.3798619449 0.0023929274 -0.324361293 0.0127110366
15299910.0 -0.3181807385 0.0235135002 0.382014604 0.0022633167 0.3816784602 0.002404005 -0.3212610051 0.0198153289
20299880.0 -0.3143396558 0.0301962988 0.3850536026 0.001717382 0.3851433538 0.0015679228 -0.3190846224 0.0262088159
25299850.0 -0.3104615211 0.0357441579 0.3882799279 -0.000249204 0.3885383387 -0.000111557 -0.3160159703 0.0310079833
30299820.0 -0.306626753 0.0404364667 0.3919683493 -0.0020596751 0.3917270556 -0.002061071 -0.3126787023 0.0355133917
35299790.0 -0.303036163 0.0447770235 0.3950112974 -0.0053418042 0.3950286772 -0.0049964026 -0.3097746665 0.0393579652
40299760.0 -0.2995195386 0.0479289947 0.3984686179 -0.0084766041 0.3984418904 -0.0086288816 -0.3074438869 0.0430942378
45299730.0 -0.2966262795 0.0516114267 0.4014853557 -0.0129688108 0.401369113 -0.0127108598 -0.3048589187 0.0464370187
50299700.0 -0.2932695863 0.0541549651 0.4033836438 -0.0172410304 0.4038113215 -0.0173975446 -0.3022353456 0.0490417117
55299670.0 -0.2908305417 0.0568886269 0.4056179174 -0.0221915749 0.4059028349 -0.0221882399 -0.3005144626 0.0520507749
60299640.0 -0.2881468779 0.0589390735 0.4075422512 -0.0267424595 0.407727758 -0.0269782597 -0.2980902415 0.0546503764
65299610.0 -0.285996807 0.0617917316 0.4092587181 -0.0316675203 0.4095325911 -0.0320939848 -0.2963080398 0.0570746002
70299580.0 -0.2837750266 0.0634215341 0.4106111592 -0.0367236212 0.4104508168 -0.0369438622 -0.2946445944 0.0595242559
75299550.0 -0.2817017647 0.0659686367 0.4115408876 -0.0421580962 0.4115782635 -0.0420778755 -0.2930272065 0.0619793446
80299520.0 -0.280306319 0.0681266751 0.4124484192 -0.0474764597 0.4126178406 -0.0473975908 -0.2916559403 0.0641090245
85299490.0 -0.2784545462 0.0697916035 0.4129004587 -0.0528249386 0.4127923449 -0.0526208414 -0.2900233616 0.0663099283
90299460.0 -0.2770062635 0.0720329885 0.4135586056 -0.0576979969 0.4136138518 -0.0577861571 -0.288714309 0.0687229195
95299430.0 -0.2756933912 0.0743223533 0.4140064798 -0.0633994009 0.414064334 -0.0631356532 -0.287480094 0.0713906046
100299400.0 -0.2742757983 0.0763646687 0.4137127311 -0.0683044853 0.4138734145 -0.0684141957 -0.2867163058 0.0732112879
105299370.0 -0.272954013 0.0782717164 0.4134968048 -0.0730221403 0.4136691201 -0.0736996813 -0.2849826632 0.0756249551
110299340.0 -0.2720891955 0.0803462298 0.4133057013 -0.0786239514 0.4132774857 -0.078935769 -0.2840946273 0.078138719
115299310.0 -0.2707450138 0.0825540943 0.4127408112 -0.0837062812 0.4132919103 -0.0834729642 -0.2830999854 0.0800504144
120299280.0 -0.2695110999 0.0846741385 0.4130010922 -0.0888019105 0.4129263179 -0.0890638657 -0.2819663676 0.0825941162
125299250.0 -0.2686104772 0.0867443091 0.4123366524 -0.093942851 0.4125705899 -0.0943173879 -0.2812749933 0.0851948417
130299220.0 -0.2675070754 0.0891039969 0.4114806014 -0.0989188431 0.411414816 -0.0991368031 -0.280455646 0.0871948333
135299190.0 -0.2666373336 0.0911358913 0.4108805694 -0.1037852964 0.4108025866 -0.1040534536 -0.2799370952 0.089582718
140299160.0 -0.2658581214 0.0937688019 0.4099562442 -0.1089685612 0.4100914851 -0.10914489 -0.2784267448 0.0920614646
145299130.0 -0.2646122088 0.0957960213 0.4095925672 -0.1143167429 0.4089178147 -0.1138732536 -0.2774748995 0.0947702545
150299100.0 -0.263929579 0.0981432792 0.4081938846 -0.1193053629 0.4081140016 -0.1191588228 -0.2769269338 0.0973364927
155299070.0 -0.2631050456 0.1010439591 0.4072555698 -0.124114857 0.4073336526 -0.1239357877 -0.2763528281 0.0994752893
160299040.0 -0.2617814552 0.1030694974 0.4054935855 -0.1288458919 0.4060513746 -0.1288536513 -0.2750982187 0.1026913297
165299010.0 -0.2611464976 0.1052817094 0.4050392121 -0.1335894915 0.404812782 -0.1336925297 -0.2743578036 0.1045699857
170298980.0 -0.2604688682 0.1076578777 0.4026403372 -0.1384989908 0.4031949514 -0.138587167 -0.2730496189 0.1071144553
175298950.0 -0.2590306323 0.1104237903 0.4021886197 -0.1430322943 0.4021463121 -0.1432347015 -0.2724116657 0.1099769673
180298920.0 -0.2579409377 0.1125229382 0.4002355751 -0.147977411 0.4007157023 -0.1479938562 -0.271096585 0.112560268
185298890.0 -0.25699389 0.1152553232 0.3987138213 -0.1528019744 0.3989455585 -0.1527648662 -0.2703365066 0.1148389219
190298860.0 -0.2557597556 0.1175455921 0.3972192888 -0.1574423579 0.3973209213 -0.1574063815 -0.2686845902 0.1176206366
195298830.0 -0.2548699134 0.1200262568 0.3959555873 -0.16185138 0.3957152733 -0.1623081195 -0.2679678382 0.1202277312
200298800.0 -0.2535564499 0.122892724 0.3939340102 -0.1662821354 0.3939258528 -0.1666630747 -0.2668353067 0.1230501614
205298770.0 -0.2526909683 0.1252500604 0.3923854979 -0.1713206702 0.3923827467 -0.1711713506 -0.2657749699 0.1257358129
210298740.0 -0.2513207443 0.127618403 0.3905071278 -0.1757550806 0.3905856201 -0.1758693355 -0.2646572101 0.1284601145
215298710.0 -0.2503970781 0.1303526021 0.3885564957 -0.1802790811 0.3884488861 -0.1798754973 -0.263473485 0.1311297045
220298680.0 -0.2495583416 0.1330358171 0.3863524762 -0.1850038666 0.3867221958 -0.1847833275 -0.2623806997 0.1338147533
225298650.0 -0.2475820658 0.1353524178 0.384455975 -0.1891378906 0.3842940729 -0.189342762 -0.2611413516 0.1363875468
230298620.0 -0.2467045219 0.1382004635 0.382476452 -0.1936984713 0.3829481095 -0.1936395686 -0.2599545253 0.1389229298
235298590.0 -0.2453031075 0.1405716329 0.380272369 -0.1979986291 0.3805478926 -0.1981621597 -0.2582935982 0.1413657227
240298560.0 -0.244305185 0.1431178281 0.3784069368 -0.2017930931 0.3782992053 -0.2019038671 -0.2569731897 0.1444669201
245298530.0 -0.2427466122 0.1456011151 0.3756293348 -0.2064462313 0.3760168875 -0.2066529766 -0.2558991728 0.1469874096
250298500.0 -0.2415817921 0.1480561147 0.3737165894 -0.210520105 0.3740799338 -0.2105276963 -0.2540382269 0.1500242882
255298470.0 -0.240175631 0.1508472172 0.3712419878 -0.2150921619 0.371545289 -0.2151552884 -0.2527044025 0.1524091804
260298440.0 -0.2383324261 0.1532109196 0.3689512723 -0.2191188599 0.3688610109 -0.2191867203 -0.2511090369 0.1551128607
265298410.0 -0.2370655436 0.1562264992 0.3665503909 -0.2237189947 0.3664387907 -0.2236319389 -0.2499682288 0.1576140163
270298380.0 -0.2356512439 0.1585608029 0.364061196 -0.2274106235 0.3643077991 -0.2280643233 -0.2481623988 0.1606840099
275298350.0 -0.2341797013 0.1611192801 0.3613815032 -0.2317845739 0.3616391656 -0.232046301 -0.2462350695 0.1631214575
280298320.0 -0.2326019913 0.1637809626 0.3591331453 -0.2356479106 0.3589510177 -0.2360831608 -0.244767796 0.166125467
285298290.0 -0.230831403 0.1663363156 0.3565693723 -0.2398413331 0.3565766808 -0.2400456968 -0.243244592 0.1682687228
290298260.0 -0.2294450766 0.1686050025 0.3538340953 -0.2439172742 0.3540015908 -0.2442934026 -0.2412815592 0.1712536039
295298230.0 -0.2276610682 0.1712691871 0.3516894581 -0.2480008484 0.3509469558 -0.2480462369 -0.2396218843 0.1739732354
300298200.0 -0.2256638293 0.1736186902 0.348312095 -0.2517536482 0.3482326638 -0.2520300107 -0.2380600047 0.1765674237
305298170.0 -0.2239314558 0.1763655894 0.34605582 -0.2561333047 0.3457958655 -0.255888457 -0.2356367226 0.1792138823
310298140.0 -0.2221437951 0.1784330171 0.3429704062 -0.2600441236 0.3428369657 -0.2603262846 -0.2341973866 0.1821249764
315298110.0 -0.2206889709 0.1806006452 0.3399567351 -0.2637882641 0.3399341509 -0.2639903733 -0.2320486862 0.1843041321
320298080.0 -0.2188881772 0.1831450114 0.3371550999 -0.2675640281 0.3371715617 -0.2674994929 -0.2304329076 0.1866396632
325298050.0 -0.2170164884 0.1856030532 0.3342338492 -0.2718670951 0.3342532552 -0.2718137046 -0.228525028 0.1893091546
330298020.0 -0.2154002054 0.1879840202 0.3305962496 -0.2752876567 0.3307865154 -0.2755822525 -0.2268138284 0.1919189142
335297990.0 -0.2133856275 0.190335508 0.3275681466 -0.2788870667 0.3277404739 -0.279202461 -0.2248951525 0.1942734043
340297960.0 -0.2119735027 0.1926731351 0.3241706365 -0.2825831132 0.3246493357 -0.2827604464 -0.2227695123 0.1970042519
345297930.0 -0.2100085918 0.1950468164 0.3211693361 -0.2860500544 0.3211140327 -0.2860583639 -0.2207490283 0.1995015229
350297900.0 -0.2078461089 0.1977098516 0.3177791286 -0.2895248483 0.3182034916 -0.2896948626 -0.2188939291 0.2024452514
355297870.0 -0.2058733596 0.1996327752 0.3146645372 -0.2930477536 0.3147201994 -0.2934610308 -0.2169314624 0.2047515496
360297840.0 -0.2035882418 0.2020595892 0.3112751411 -0.2968682936 0.3112735842 -0.2967902234 -0.2148023558 0.2072924315
365297810.0 -0.2016858576 0.2041534564 0.3078321508 -0.3000084058 0.3081905091 -0.3000707611 -0.212495161 0.2097180183
370297780.0 -0.1995913327 0.206684253 0.3046602808 -0.3034526641 0.3049253212 -0.3038170342 -0.2105528733 0.2122046453
375297750.0 -0.1976856929 0.2092140619 0.3016736221 -0.3068306055 0.3010682197 -0.3068405754 -0.2079035191 0.2145529201
380297720.0 -0.1954098695 0.2112286398 0.2979115317 -0.3099382269 0.2980214814 -0.3101790264 -0.206002097 0.2174126597
385297690.0 -0.1930592767 0.2135763028 0.2945047916 -0.313152141 0.2944014468 -0.3133347334 -0.2034920591 0.2196762824
390297660.0 -0.191145148 0.2158344223 0.2907580746 -0.3169784356 0.2911280918 -0.3169019975 -0.2015232607 0.2216945298
395297630.0 -0.1884627667 0.218076065 0.2873525613 -0.3196042521 0.2875850047 -0.3196711198 -0.199225451 0.2244255269
400297600.0 -0.1864083217 0.2202802102 0.2838927835 -0.3227350326 0.2842490699 -0.3231512633 -0.1969823101 0.2266397767
405297570.0 -0.1842745284 0.2223465248 0.280260362 -0.3262358623 0.2803624291 -0.326164377 -0.1948809148 0.2293095345
410297540.0 -0.1818517764 0.2245626798 0.276282438 -0.3289451678 0.2765404824 -0.3290955893 -0.1921770632 0.2315257326
415297510.0 -0.1797370432 0.2264827189 0.2729211911 -0.3317894305 0.2730049157 -0.3320247036 -0.1900091673 0.2338887007
420297480.0 -0.1769517945 0.2283305475 0.2690703201 -0.3350734313 0.2694987606 -0.3348547928 -0.1872458352 0.2354383877
425297450.0 -0.1745834148 0.2301920763 0.2652882134 -0.3377362522 0.2656079766 -0.3379008423 -0.1849409435 0.2381857666
430297420.0 -0.1723601791 0.2324831188 0.261751864 -0.3407915152 0.2618753905 -0.3406719931 -0.182362681 0.2402684878
435297390.0 -0.1698444315 0.2343164406 0.2580122891 -0.3434814583 0.2583160639 -0.343343615 -0.1800692318 0.2423762884
440297360.0 -0.1675249351 0.2367033353 0.2541068375 -0.3461953885 0.2538397884 -0.346029602 -0.1778076771 0.244313214
445297330.0 -0.1647498393 0.2385603351 0.2500228516 -0.3495923873 0.2502422844 -0.349056404 -0.1751616232 0.2464553309
450297300.0 -0.1622902447 0.2402326756 0.2461811005 -0.3516855977 0.2466005221 -0.3518658316 -0.1727940493 0.24867163
455297270.0 -0.1597507707 0.2422200207 0.2427714757 -0.354147533 0.2429796691 -0.3543211345 -0.16979647 0.2507671358
460297240.0 -0.157522845 0.2440107755 0.2387188628 -0.3565175728 0.2385552503 -0.3569020476 -0.1671561987 0.2531022806
465297210.0 -0.1544646699 0.2455955565 0.2345915083 -0.3593692867 0.2349777088 -0.3600204465 -0.1649097312 0.2548102936
470297180.0 -0.1521332771 0.2474392446 0.2308812855 -0.3618349126 0.2309520267 -0.3622458187 -0.1626069486 0.2567345271
475297150.0 -0.149566861 0.2493158331 0.2265918785 -0.3642491958 0.2269298894 -0.3641462095 -0.1593211712 0.2585497716
480297120.0 -0.146977798 0.2508133975 0.222530843 -0.3671629965 0.2228749728 -0.3670772338 -0.1565511288 0.2610144635
485297090.0 -0.1442501752 0.2522737798 0.2187549202 -0.3692285912 0.2189330288 -0.3692441325 -0.1544245515 0.2621348382
490297060.0 -0.1413861986 0.2542621484 0.2147153157 -0.3720078769 0.2148355011 -0.3718648119 -0.1516049031 0.2642372994
495297030.0 -0.1390376273 0.2561573902 0.2104464056 -0.373778438 0.210442848 -0.3741615425 -0.1487525241 0.2658145992
500297000.0 -0.1362767338 0.2576340911 0.2065435221 -0.3764812434 0.2063700252 -0.3763168292 -0.1464198524 0.267598782
505296970.0 -0.1336292668 0.2587768849 0.2024267985 -0.3780638863 0.2023136963 -0.3786155957 -0.1440467694 0.2697279852
510296940.0 -0.1310739482 0.2608335764 0.1982788983 -0.3808345307 0.1979983333 -0.3805697404 -0.1405587274 0.2712479394
515296910.0 -0.1282810374 0.2623782758 0.1937998252 -0.3824882706 0.1944507128 -0.382778266 -0.1380532342 0.2730021903
520296880.0 -0.1253035048 0.2635978605 0.1895220899 -0.3841233634 0.1898054624 -0.3846011279 -0.1351465811 0.2746846262
525296850.0 -0.1227670802 0.2653262362 0.1858543246 -0.3866442758 0.1857220054 -0.3868778195 -0.131953039 0.2762318069
530296820.0 -0.1199091912 0.2663706854 0.1814815178 -0.3880823186 0.1812316154 -0.3882328119 -0.1296138268 0.2774827182
535296790.0 -0.1171232394 0.2681542822 0.176884715 -0.3903783757 0.1770531601 -0.3901531621 -0.1268813651 0.2789724155
540296760.0 -0.1141699014 0.2692586399 0.1727701703 -0.3925910867 0.1727036625 -0.3924741657 -0.1239942705 0.2808491897
545296730.0 -0.1115132648 0.2709937368 0.1683281912 -0.3939898058 0.1685933526 -0.3944025793 -0.1211159126 0.2818165517
550296700.0 -0.1088651118 0.2720960304 0.164505323 -0.3959911281 0.1645018905 -0.3959567078 -0.1183248448 0.28362709
555296670.0 -0.1052906424 0.2733325974 0.1598259076 -0.3976859444 0.1599432485 -0.3978526568 -0.1152844811 0.2851320652
560296640.0 -0.1028266466 0.2744035245 0.1554563524 -0.3994065792 0.1558691833 -0.3988812233 -0.1121989012 0.2862892222
565296610.0 -0.1001676937 0.2756082196 0.1511934174 -0.4010419366 0.1511077777 -0.4009538786 -0.1094764526 0.2874433991
570296580.0 -0.0970352532 0.276730507 0.1466685745 -0.4021796559 0.1469574449 -0.4028774174 -0.1066566154 0.2895796928
575296550.0 -0.0941585053 0.2782081688 0.142487773 -0.4036989093 0.1427729683 -0.4040659139 -0.1031040808 0.290523736
580296520.0 -0.091043105 0.2793236016 0.1379106298 -0.4053564089 0.1379246101 -0.4054325308 -0.100668299 0.2915655562
585296490.0 -0.0879109317 0.2801159281 0.1334837466 -0.4069373157 0.133735586 -0.4069389863 -0.0975354863 0.2924032945
590296460.0 -0.0852010138 0.281196207 0.1290409615 -0.4082086343 0.1289464768 -0.4087113716 -0.0944915779 0.2940646878
595296430.0 -0.0823453725 0.2826484906 0.1250747343 -0.4096475156 0.1245154463 -0.4101513305 -0.0913581456 0.2948892586
600296400.0 -0.0791987112 0.283249046 0.1203098916 -0.4110796556 0.1205651127 -0.4109290419 -0.0886783606 0.296006024
605296370.0 -0.0762844773 0.2845912929 0.1158246467 -0.4123035221 0.115625214 -0.4120724335 -0.0854082881 0.2974217409
610296340.0 -0.0734966194 0.2854333005 0.1117629855 -0.413338954 0.1115862586 -0.4139115682 -0.0823725121 0.2984110595
615296310.0 -0.0702450462 0.2863724373 0.1068407179 -0.4146042093 0.1065693636 -0.4147008672 -0.0790297863 0.2994647743
620296280.0 -0.0669617623 0.2872078917 0.1023090436 -0.4154888436 0.1023224501 -0.4156398804 -0.0761624828 0.3000237112
625296250.0 -0.0640978142 0.2881148967 0.0974857598 -0.4167381787 0.0978220162 -0.4169800522 -0.0730985117 0.3013852861
630296220.0 -0.0609551216 0.2890617664 0.0931846579 -0.4177839734 0.0934081777 -0.4176676115 -0.0701086678 0.3022125591
635296190.0 -0.0582729337 0.2898528401 0.088757989 -0.4183815833 0.0887315539 -0.4183000476 -0.067186427 0.3028112473
640296160.0 -0.0549653034 0.2903826597 0.0843182774 -0.419651211 0.0841803306 -0.4195885767 -0.0635489048 0.3036779117
645296130.0 -0.0519636724 0.2914865337 0.0796077956 -0.4204036657 0.0799503881 -0.4202997205 -0.061116557 0.3043345564
650296100.0 -0.0488393175 0.2922594502 0.0753015907 -0.4210577425 0.0751991828 -0.42082763 -0.0576688801 0.3053148841
655296070.0 -0.0458220081 0.2926074307 0.070359262 -0.4219115804 0.0701262108 -0.4220114632 -0.0542039294 0.3058864502
660296040.0 -0.0430761822 0.2935390917 0.0662766891 -0.422114348 0.0661997164 -0.4223893369 -0.051401148 0.3064568476
665296010.0 -0.0396248802 0.2937025681 0.0613913418 -0.4232695938 0.0618023864 -0.4233053431 -0.0481942987 0.3075314151
670295980.0 -0.0361833408 0.2942282578 0.056660675 -0.4236600915 0.0572524133 -0.4238851949 -0.0451463411 0.3078262239
675295950.0 -0.0333906455 0.2950190061 0.0519668803 -0.4241262306 0.0524736953 -0.4247113664 -0.0419579424 0.3088247649
680295920.0 -0.0301619676 0.2957280687 0.0473548128 -0.4250941665 0.0472460947 -0.4250139272 -0.0382129618 0.3090066233
685295890.0 -0.0270739415 0.2958506294 0.0432501698 -0.4253167283 0.042718333 -0.4254384786 -0.0354049057 0.3098087865
690295860.0 -0.0236110653 0.296224755 0.0383347662 -0.4253051942 0.0381378185 -0.4255585388 -0.0321300416 0.3103686281
695295830.0 -0.0205245266 0.2963412802 0.033173173 -0.4259868251 0.0333865419 -0.4259914979 -0.0289434242 0.3106049014
700295800.0 -0.0173839177 0.2969699235 0.0286739148 -0.426301747 0.0291304688 -0.4265312639 -0.0256485921 0.3106699322
705295770.0 -0.0145848544 0.297584574 0.0243999103 -0.4266255959 0.0244480638 -0.426545284 -0.0226872032 0.3115085561
710295740.0 -0.0112417901 0.2978869062 0.019609429 -0.4266825688 0.0199139493 -0.4267501553 -0.0197114868 0.3119604444
715295710.0 -0.0085539165 0.2982331946 0.0149667266 -0.4272619833 0.0152966604 -0.4268049102 -0.0160378941 0.3119367953
720295680.0 -0.005480694 0.298419314 0.010718365 -0.4270812511 0.0107698818 -0.4272869302 -0.0126224937 0.3125645851
725295650.0 -0.0016141552 0.2983798568 0.0057346666 -0.426794882 0.0060203334 -0.4274053546 -0.0097463701 0.3130315228
730295620.0 0.0012908396 0.2987349675 0.001301766 -0.4271995166 0.0014269122 -0.4270899039 -0.0060947351 0.3127769367
735295590.0 0.0044750848 0.2985930719 -0.0030721653 -0.4269782352 -0.0032633264 -0.4272589431 -0.0030106617 0.3132384122
740295560.0 0.0076221553 0.2990790169 -0.0081126468 -0.4268800596 -0.0078833074 -0.4268509145 0.0003132094 0.3132795447
745295530.0 0.0108730143 0.2986943352 -0.0125879424 -0.4267137343 -0.0124828768 -0.4270840196 0.0034637061 0.3134832186
750295500.0 0.0140033619 0.2988637722 -0.0170161379 -0.4264436867 -0.0170349969 -0.4266459313 0.0068065652 0.3130886375
755295470.0 0.0174435944 0.2991104254 -0.0217415929 -0.4265683108 -0.0217752559 -0.4266251825 0.0100451252 0.3139216409
760295440.0 0.020282948 0.2991895876 -0.0264361643 -0.4260373434 -0.0260280813 -0.426203622 0.012804562 0.3135943964
765295410.0 0.0233318471 0.2986932281 -0.0306378389 -0.425361835 -0.0306646748 -0.4260585957 0.0168937741 0.313753864
770295380.0 0.0268388362 0.299008841 -0.0355926512 -0.425241094 -0.0355546623 -0.4255472122 0.0201403803 0.3137763569
775295350.0 0.0298254755 0.2988772208 -0.0402877626 -0.4246918153 -0.0400987766 -0.4245516578 0.0228775573 0.3129231323
780295320.0 0.0332846853 0.2981125434 -0.044450474 -0.4244909282 -0.0444832307 -0.4244042532 0.0261823069 0.313626291
785295290.0 0.0362082013 0.2985319493 -0.0490272108 -0.4234249768 -0.0491350706 -0.4239216283 0.029456088 0.313499203
790295260.0 0.039374739 0.2978130417 -0.0539059919 -0.4230129524 -0.0540281797 -0.4235288609 0.0331760547 0.3132774571
795295230.0 0.0427494854 0.2981207281 -0.0580874527 -0.4223782171 -0.0579782281 -0.4225797755 0.0361703087 0.313213965
800295200.0 0.0460469158 0.2977182934 -0.0635932097 -0.422005903 -0.0633468432 -0.4220428844 0.0391524625 0.3128658808
805295170.0 0.0490926318 0.2973671687 -0.0677106561 -0.420904811 -0.0674428226 -0.4210071778 0.0421800877 0.3123400834
810295140.0 0.051974228 0.2965797686 -0.0717453202 -0.4204693796 -0.0721534682 -0.4208283907 0.0460392679 0.3125088291
815295110.0 0.0551676055 0.2962495881 -0.0767582104 -0.4191253958 -0.0766105947 -0.419568371 0.0487852252 0.3120817901
820295080.0 0.0584248271 0.2955306289 -0.0812566349 -0.4185290698 -0.0811119374 -0.418814709 0.0521118329 0.3114780546
825295050.0 0.061408645 0.2950684938 -0.085587581 -0.4171123466 -0.0855909075 -0.4176418798 0.0557021133 0.3111770035
830295020.0 0.0644828354 0.2948681801 -0.0901800349 -0.4164445075 -0.0904392418 -0.4169972342 0.0589211465 0.3107836168
