!Created with skrf (http://scikit-rf.org).
# Hz S RI R 50.0 
!freq ReS11 ImS11 ReS21 ImS21 ReS12 ImS12 ReS22 ImS22
300000.0 -0.3161063043 -0.1280353547 0.3718067373 0.0640268544 0.371366773 0.0646995138 -0.3166308573 -0.1272817277
5299970.0 -0.3249049921 0.0029608969 0.3783199492 0.0032437955 0.3788700378 0.0032927022 -0.326060842 0.0021186735
10299940.0 -0.3225166498 0.0143324463 0.3798678525 0.0027711961 0.379963736 0.0028470968 -0.3233852222 0.0125853807
15299910.0 -0.3190148717 0.0223616618 0.3819741553 0.0030163439 0.3824031731 0.0024762276 -0.320510125 0.0198770076
20299880.0 -0.3154908657 0.0289582438 0.3848539208 0.0017121156 0.3854251709 0.001832456 -0.3179632675 0.0260023391
25299850.0 -0.311820586 0.0347715641 0.3886474617 0.0005873882 0.3886924964 0.0004898255 -0.3149620371 0.0313852389
30299820.0 -0.3083126746 0.039362294 0.3924068317 -0.0020293856 0.3921554734 -0.0021994858 -0.3119459493 0.0356144574
35299790.0 -0.3044531895 0.0434091518 0.3948556624 -0.0047881819 0.3953956809 -0.005213702 -0.3091827719 0.039815134
40299760.0 -0.3012240262 0.0468352314 0.3981207593 -0.0085060317 0.3986829377 -0.008682921 -0.3065350071 0.0434642604
45299730.0 -0.2981363365 0.0499971402 0.4009596079 -0.0120474008 0.401595378 -0.0125559122 -0.303789905 0.0466201333
50299700.0 -0.2949360355 0.0529049035 0.4038294725 -0.0170465413 0.4039861516 -0.0171787586 -0.3012895282 0.0496254146
55299670.0 -0.292434784 0.0552611022 0.405890208 -0.021849012 0.4057819633 -0.0217723896 -0.299618568 0.0523713689
60299640.0 -0.2897292401 0.0578632508 0.4079667828 -0.0265547771 0.4079688674 -0.0265869954 -0.2971748306 0.0546703561
65299610.0 -0.287246129 0.0599809842 0.4096800868 -0.0315602473 0.409567143 -0.0318052967 -0.2952800003 0.0575014546
70299580.0 -0.2855026208 0.0620553101 0.4108802378 -0.0365802449 0.4112407624 -0.0369075342 -0.29389212 0.0600088647
75299550.0 -0.2837204333 0.064234532 0.4118697591 -0.042125779 0.4120960585 -0.0420686433 -0.2921904688 0.0624313612
80299520.0 -0.2816025469 0.0664148078 0.4129207724 -0.0472747945 0.4131974489 -0.0474100381 -0.2905520863 0.065047912
85299490.0 -0.2799791676 0.0684614513 0.4134315449 -0.0524516788 0.4135996708 -0.052459927 -0.2892343838 0.0671915889
90299460.0 -0.2787650801 0.070563643 0.4139036438 -0.0577540348 0.4138626426 -0.0577785604 -0.2876828394 0.0695960142
95299430.0 -0.2768105848 0.0729231101 0.4139739518 -0.063128438 0.4145569815 -0.0634623819 -0.2864811134 0.0718506347
100299400.0 -0.2750763745 0.0745868719 0.4137174073 -0.0681486456 0.4139956126 -0.0681186239 -0.2854829714 0.0743471539
105299370.0 -0.2741604017 0.0764326816 0.4137561537 -0.0730789954 0.4143746287 -0.0731950545 -0.2841381977 0.0763251761
110299340.0 -0.2725424415 0.0785571065 0.4137724937 -0.0782903546 0.4141345803 -0.0784417164 -0.2833951457 0.0787456377
115299310.0 -0.2715951277 0.0811678867 0.4134972987 -0.0835716167 0.4134487932 -0.083704978 -0.2822158735 0.0813031986
120299280.0 -0.2707166287 0.0831840988 0.4131272423 -0.0887620533 0.4132400512 -0.0892477865 -0.2811502891 0.083393952
125299250.0 -0.269420201 0.0850864629 0.4125502172 -0.0935155121 0.4126719956 -0.0937393379 -0.2802015104 0.0858244689
130299220.0 -0.2682671342 0.0873203618 0.4118709566 -0.0989960909 0.4122182829 -0.0995751686 -0.2790130149 0.0884457795
135299190.0 -0.2673396156 0.090012978 0.4111964193 -0.1039908024 0.4114792783 -0.1041817286 -0.2783935978 0.0908136068
140299160.0 -0.2662160302 0.0921719126 0.4105653907 -0.1091486117 0.41044912 -0.1087459781 -0.2778030985 0.0931273822
145299130.0 -0.2657581029 0.0945687749 0.4097840002 -0.1138532957 0.4095086251 -0.1140958401 -0.2769030073 0.0955894268
150299100.0 -0.2641469189 0.0968260423 0.4085522819 -0.1188056001 0.4082611072 -0.1190047234 -0.2756791517 0.0984943333
155299070.0 -0.2630672588 0.0998653123 0.4069070203 -0.123961219 0.4073155414 -0.123807726 -0.2747028657 0.1007927974
160299040.0 -0.2622847006 0.1019460077 0.40633643 -0.1285576609 0.4062883538 -0.1285385009 -0.2739535858 0.1036179216
165299010.0 -0.2612371959 0.1042237033 0.4049807582 -0.1331167718 0.4050380344 -0.1335137947 -0.2726440779 0.1058498112
170298980.0 -0.2602498986 0.1068158107 0.4031838403 -0.1381026924 0.4036975482 -0.1386212785 -0.2718752082 0.1086300156
175298950.0 -0.2591343976 0.1091394529 0.4021993071 -0.1430544283 0.4026029352 -0.1436156408 -0.271039155 0.1115825605
180298920.0 -0.2583147839 0.1119269365 0.4006697148 -0.1482676235 0.4008920218 -0.1482113651 -0.2701242894 0.1139240001
185298890.0 -0.2571198233 0.1143001825 0.399402299 -0.1522879608 0.3991571919 -0.1525743461 -0.2688631372 0.1162303733
190298860.0 -0.2557914531 0.1171269708 0.3971841171 -0.1570894231 0.3977509176 -0.1570717499 -0.2679924816 0.1189855368
195298830.0 -0.2546625206 0.1195732667 0.3961704604 -0.1617918571 0.3959329765 -0.1619195828 -0.266747658 0.1218630567
200298800.0 -0.2532142199 0.1219520248 0.3943657858 -0.1666370272 0.3943287171 -0.1667551905 -0.2657791738 0.1242812501
205298770.0 -0.2529505623 0.1246093137 0.3921941428 -0.1708385296 0.3926454429 -0.1708325648 -0.2643968184 0.1271822392
210298740.0 -0.2516651147 0.1272613059 0.3907389451 -0.1754292364 0.3906182336 -0.1756216873 -0.2638151373 0.1297567265
215298710.0 -0.2503860006 0.1300071625 0.3883545932 -0.1797649089 0.3890057796 -0.180230081 -0.2623588178 0.1324413924
220298680.0 -0.249048526 0.1324500871 0.3866065302 -0.1842943309 0.3864894462 -0.18461589 -0.2610216205 0.1353068825
225298650.0 -0.2478508702 0.135347926 0.3845590807 -0.1889119344 0.3849780522 -0.1886754334 -0.2600229366 0.1378700109
230298620.0 -0.246381493 0.1381114594 0.382839111 -0.1932729683 0.383104356 -0.1936074494 -0.258740043 0.1406306971
235298590.0 -0.2456470353 0.1409004144 0.3806466658 -0.1983808514 0.3807914093 -0.1978913744 -0.2576233848 0.1433190769
240298560.0 -0.2438323811 0.1433859434 0.3780878005 -0.2017486036 0.3784149236 -0.2022678184 -0.256083132 0.1457895502
245298530.0 -0.2428070792 0.1457114158 0.3759886721 -0.2063525089 0.3762887154 -0.206752736 -0.2550490714 0.1488858716
250298500.0 -0.2416728339 0.1483583161 0.3741832714 -0.2106537726 0.3738358506 -0.2106356079 -0.2535608599 0.1515654516
255298470.0 -0.2401566919 0.1513449962 0.3717079049 -0.2148681458 0.372253861 -0.215490447 -0.2521956834 0.1544155825
260298440.0 -0.2386014393 0.1536150429 0.3695449412 -0.21854181 0.3697060177 -0.219185596 -0.2508991421 0.1566714893
265298410.0 -0.2375301357 0.1563899672 0.366974384 -0.2234100198 0.3668347761 -0.2234756047 -0.2488798024 0.1594342029
270298380.0 -0.2360849705 0.1586763124 0.3642741159 -0.2276181015 0.3644966526 -0.2276531664 -0.2472583005 0.1622591628
275298350.0 -0.2344802012 0.1616026848 0.3615035427 -0.2314149659 0.3618972552 -0.2314889372 -0.2457529061 0.1650306673
280298320.0 -0.233235615 0.1640612824 0.3596304004 -0.2349851953 0.3598221112 -0.2358078803 -0.2443655802 0.1676925929
285298290.0 -0.2313684229 0.1666008544 0.356546893 -0.2395322419 0.3572137238 -0.2394763831 -0.2428578044 0.1704148715
290298260.0 -0.2298817795 0.1692161098 0.3545839981 -0.2436955867 0.3544237171 -0.2436134386 -0.2411118509 0.1728259496
295298230.0 -0.2282506804 0.1715378979 0.3513601807 -0.247855543 0.3518970021 -0.2481018154 -0.2395641367 0.1754542742
300298200.0 -0.2268474902 0.1743534451 0.3489034483 -0.2517327487 0.3491563 -0.2515969327 -0.2376695809 0.1781640301
305298170.0 -0.2252107181 0.1764348328 0.3462614066 -0.255717382 0.3464548622 -0.2557125074 -0.2357701065 0.1804394626
310298140.0 -0.2234344891 0.1790338399 0.3436092594 -0.2594466646 0.3437166713 -0.2594957293 -0.2339768782 0.1830705177
315298110.0 -0.2218322218 0.1811159059 0.3404181173 -0.2636964172 0.3406303485 -0.2635051336 -0.232377249 0.1855398527
320298080.0 -0.2201598986 0.1837378352 0.3373886172 -0.2673363497 0.3380681492 -0.2675327704 -0.2306091103 0.1879546224
325298050.0 -0.2187582628 0.1856611114 0.3342371643 -0.271005183 0.3348504504 -0.2714108779 -0.2283033793 0.190246816
330298020.0 -0.2169254916 0.1886200663 0.3316673392 -0.2749939226 0.3319291351 -0.2751197565 -0.2270232707 0.1927744507
335297990.0 -0.2151374921 0.1907320153 0.328130476 -0.2784009001 0.3284263243 -0.2785724322 -0.224820078 0.1953049207
340297960.0 -0.213767686 0.1932204076 0.3248059637 -0.2822230055 0.3251023212 -0.2823522291 -0.2229368973 0.1981532424
345297930.0 -0.2118206432 0.1953116508 0.3219681327 -0.2858193685 0.3219005942 -0.2860806573 -0.2212111259 0.2002369817
350297900.0 -0.2101762145 0.1977540049 0.3187454491 -0.2889597397 0.3189271943 -0.2893290306 -0.2195139934 0.2026720866
355297870.0 -0.2081546631 0.2003163572 0.3155020657 -0.2924800559 0.3155940124 -0.2926361255 -0.2170399524 0.2054738048
360297840.0 -0.2063290493 0.2026628627 0.3120036547 -0.2957941453 0.3122166176 -0.2965497321 -0.2149360055 0.2076945489
365297810.0 -0.2043651706 0.2050833052 0.3091099957 -0.2996696727 0.3088957541 -0.299630094 -0.2131547049 0.2097015093
370297780.0 -0.2025757837 0.2072092715 0.3054434627 -0.3029972487 0.3056918067 -0.3030422764 -0.2112723594 0.2129024532
375297750.0 -0.2006158178 0.2095942441 0.302432495 -0.306479649 0.3024597529 -0.3066519428 -0.2089791319 0.2151105169
380297720.0 -0.1987232261 0.2120476169 0.299231254 -0.3099365376 0.2988064229 -0.3098650658 -0.2065789424 0.217553052
385297690.0 -0.1964651153 0.2140777251 0.2954712175 -0.3128889618 0.2955282942 -0.3132836087 -0.2045793312 0.2198313981
390297660.0 -0.1940334116 0.2161271118 0.2919705044 -0.3158424343 0.2921601749 -0.3160923954 -0.2021181362 0.2217292191
395297630.0 -0.1921662412 0.2182923822 0.2886702606 -0.3190749049 0.2882896196 -0.3191410321 -0.1995273464 0.2240229536
400297600.0 -0.1899218898 0.2206156175 0.2851755132 -0.3226437192 0.2852692474 -0.3225431669 -0.1976353483 0.2268466021
405297570.0 -0.1877711367 0.2221862691 0.2815832122 -0.3252044351 0.2816969389 -0.3255356894 -0.1953039848 0.2290591324
410297540.0 -0.1853944255 0.2249578913 0.2778679357 -0.3283749431 0.278004592 -0.3287057405 -0.1927726845 0.2312429964
415297510.0 -0.1836132448 0.226965727 0.2741952803 -0.331671272 0.2744538964 -0.3318079221 -0.1901569401 0.2335363743
420297480.0 -0.1809615608 0.2286816706 0.2705103409 -0.334962068 0.2707011091 -0.3345814772 -0.1874204618 0.2358480625
425297450.0 -0.1785589206 0.2308362738 0.2670536684 -0.3375909744 0.2666851546 -0.337705782 -0.1853381789 0.237756531
430297420.0 -0.17648428 0.2326989091 0.2633049655 -0.3405464752 0.263244228 -0.3402373287 -0.1828304165 0.2399996573
435297390.0 -0.1743547084 0.234606389 0.2593377147 -0.3437582416 0.2592622284 -0.3434769686 -0.1808731434 0.2423872593
440297360.0 -0.1714116309 0.2366207808 0.2549922968 -0.3462635894 0.2555941701 -0.3461930537 -0.1784088405 0.244255028
445297330.0 -0.1689937727 0.2380845003 0.2515257098 -0.3484957057 0.2518565984 -0.3492562537 -0.1753070911 0.2462759904
450297300.0 -0.1665036138 0.2401904119 0.2481081862 -0.3517714269 0.2482682885 -0.3515790298 -0.1728043831 0.2480784349
455297270.0 -0.1643964116 0.2421687467 0.2443352543 -0.3541879448 0.2441995547 -0.3545677454 -0.1703943718 0.2500399169
460297240.0 -0.1616589798 0.2438981824 0.2401085968 -0.3575368725 0.2402809686 -0.3571066612 -0.1679451558 0.2520313883
465297210.0 -0.1591325156 0.2457907974 0.2359804595 -0.3595284378 0.2361253501 -0.3598093004 -0.1648535334 0.2543802813
470297180.0 -0.1564086875 0.2476332811 0.2320771817 -0.3619809672 0.2324011131 -0.3621954664 -0.162005891 0.2558769009
475297150.0 -0.1540256631 0.249445071 0.2281231299 -0.3644481219 0.228157687 -0.3648853764 -0.1594335735 0.257946232
480297120.0 -0.1509799312 0.2515455849 0.2240454171 -0.3671434717 0.2242899405 -0.3668471122 -0.1570719534 0.2597290218
485297090.0 -0.1486211019 0.2527566765 0.2199184913 -0.3696260631 0.2201889474 -0.3696454056 -0.1542718737 0.2618829303
490297060.0 -0.1452795935 0.2546859787 0.2156532787 -0.3722850226 0.2159771387 -0.3722205192 -0.1512387931 0.2634637514
495297030.0 -0.1431886541 0.2559938026 0.2121806211 -0.3742309844 0.2118923104 -0.3743985698 -0.1483772221 0.2648220776
500297000.0 -0.1405328047 0.2579851432 0.2079609792 -0.3762511207 0.2078192928 -0.3765902256 -0.1459787932 0.2670565416
505296970.0 -0.137310296 0.2592882362 0.203837147 -0.3788205244 0.2037660658 -0.3787750674 -0.1429104133 0.2684372492
510296940.0 -0.1344580531 0.260994921 0.199417718 -0.3811822409 0.1998417918 -0.380931251 -0.1397142894 0.2700324619
515296910.0 -0.1316417916 0.2626999711 0.1949606354 -0.382888079 0.1948909392 -0.3827109374 -0.137001052 0.2712822768
520296880.0 -0.1287388252 0.2643668128 0.1909631759 -0.3853083884 0.1908725801 -0.3852024469 -0.1341713218 0.2738437417
525296850.0 -0.1261086863 0.2654773746 0.1865291476 -0.3866667518 0.1865880456 -0.3871599002 -0.1312498618 0.2752668701
530296820.0 -0.1236592017 0.2671107567 0.1826302028 -0.3890180113 0.1822310277 -0.3889883789 -0.1282419111 0.276411706
535296790.0 -0.1199730235 0.2687086229 0.178183089 -0.391025672 0.1782981631 -0.3911758747 -0.1253754451 0.2778241247
540296760.0 -0.1170491031 0.2700158301 0.1736371058 -0.3930197437 0.1738525712 -0.392647896 -0.1225472595 0.2790153967
545296730.0 -0.1148890664 0.2716994784 0.1701581432 -0.3948680643 0.1693689886 -0.3946642468 -0.119303495 0.2807296566
550296700.0 -0.1112025857 0.2728291286 0.1647611638 -0.396367696 0.1646630117 -0.3966901728 -0.1166660855 0.2821257811
555296670.0 -0.1087276519 0.2744583609 0.1609831557 -0.3984953265 0.1606827549 -0.3982503463 -0.11380887 0.2829449684
560296640.0 -0.1051814174 0.2754203841 0.1565069101 -0.3999997191 0.1568267061 -0.4000965194 -0.1107277795 0.2849293936
565296610.0 -0.1026810697 0.2770296239 0.1527045452 -0.4019810039 0.1522984009 -0.4012884105 -0.1075136589 0.2860685527
570296580.0 -0.0995180077 0.27794464 0.1476865584 -0.4031534681 0.1473567742 -0.40327987 -0.1044971013 0.2871977319
575296550.0 -0.096018816 0.2790851046 0.1434338222 -0.4048195571 0.1430654244 -0.4051094521 -0.1014740968 0.2887717542
580296520.0 -0.093482226 0.2808176586 0.1390441477 -0.4062361403 0.1387079831 -0.4063798198 -0.0987523039 0.2896061897
585296490.0 -0.0901738941 0.2818729291 0.1347628945 -0.4076549733 0.1341824613 -0.4075780013 -0.0953222189 0.2909002002
590296460.0 -0.0866047307 0.2828185915 0.1300178385 -0.4091242623 0.129854591 -0.409195605 -0.0923204059 0.2921191961
595296430.0 -0.0837368567 0.284145539 0.1250963259 -0.4104699054 0.1249506051 -0.4105848948 -0.0891242163 0.2932542806
600296400.0 -0.0809577269 0.2853068408 0.1206433494 -0.4114554755 0.1208329888 -0.4120637827 -0.0860587163 0.2940393039
605296370.0 -0.0782298885 0.2863187297 0.1169575121 -0.4128087351 0.1162549333 -0.4132034673 -0.0829494468 0.2953364671
610296340.0 -0.0745442399 0.2876321526 0.1119034244 -0.4140037996 0.1121730638 -0.4139692321 -0.0801717312 0.2963814721
615296310.0 -0.071289873 0.2883429558 0.1075976494 -0.4154290237 0.1070850298 -0.4154037369 -0.0764507656 0.2972172156
620296280.0 -0.068414096 0.2897427571 0.1025488959 -0.416211382 0.1027294177 -0.4165534597 -0.0738844763 0.2985001016
625296250.0 -0.0657334612 0.2903165093 0.0983577574 -0.4177042367 0.0983063883 -0.4175967692 -0.0708088172 0.2989451465
630296220.0 -0.0621126933 0.2914025264 0.0936237004 -0.4185387842 0.0935692135 -0.4187336184 -0.0673966878 0.3001972053
635296190.0 -0.0592566065 0.2929749278 0.0895214759 -0.419272922 0.0891972243 -0.4192395278 -0.0643419055 0.3007862938
640296160.0 -0.0559905535 0.2930381013 0.0846679708 -0.4204431538 0.0844040692 -0.4202182286 -0.0610221392 0.3017254309
645296130.0 -0.0528164763 0.2945154833 0.0800658524 -0.4213145231 0.0800432851 -0.4209013034 -0.0580912589 0.3021208794
650296100.0 -0.0499537846 0.294761022 0.0756872664 -0.4222134002 0.0752010081 -0.4221482368 -0.0545633306 0.3028281729
655296070.0 -0.0467629846 0.2956982617 0.070822328 -0.4225937767 0.0705898448 -0.4225483064 -0.0518197989 0.303746998
660296040.0 -0.0436701394 0.2964871098 0.0661260225 -0.4231919634 0.0661690565 -0.4233606458 -0.048227608 0.3042405574
665296010.0 -0.0401584634 0.2972212074 0.0613515266 -0.4234392903 0.0612803573 -0.424048058 -0.0448954415 0.3051383131
670295980.0 -0.0374440784 0.2980797518 0.0573087526 -0.424665936 0.056755834 -0.4244048846 -0.0421561074 0.3056701942
675295950.0 -0.0343597618 0.2986925048 0.0525702284 -0.4249368568 0.0525007294 -0.425339141 -0.0389033673 0.3062307426
680295920.0 -0.0316627273 0.2994630119 0.048079738 -0.425612913 0.0477926578 -0.425636353 -0.0353921107 0.3065950512
685295890.0 -0.0275575297 0.3000150542 0.0430727279 -0.4263190252 0.0429398235 -0.4262193777 -0.0321058208 0.3076325678
690295860.0 -0.024719545 0.3006941511 0.0385252109 -0.4262961771 0.0384108132 -0.4262852289 -0.0290700539 0.3076799793
695295830.0 -0.0216191174 0.3010135442 0.0341667543 -0.4269278415 0.0338477034 -0.4269992258 -0.0258610123 0.3087317047
700295800.0 -0.018204581 0.3019379389 0.0297317115 -0.4272357823 0.0293297607 -0.4272086492 -0.0223812382 0.3087747915
705295770.0 -0.0153921566 0.3019542446 0.0253467249 -0.4270282239 0.0248390215 -0.4276450623 -0.0194834537 0.3093019156
710295740.0 -0.0123121905 0.3022853811 0.0202543338 -0.4273490035 0.0200845893 -0.4281942091 -0.0158724368 0.3099615941
715295710.0 -0.0091178781 0.3027841775 0.0155957364 -0.4278601316 0.0156258087 -0.4279000309 -0.0128741794 0.3097226186
720295680.0 -0.0055985128 0.3031410736 0.010925709 -0.427692685 0.0103984534 -0.4282600136 -0.0092398825 0.3099166634
725295650.0 -0.002824477 0.3037789614 0.0065372607 -0.4277923333 0.0061168065 -0.4281772826 -0.0065354225 0.3106253903
730295620.0 -0.0004689865 0.3038393334 0.0017299638 -0.4276934713 0.001716289 -0.4277435651 -0.0033112061 0.3110836271
735295590.0 0.0030756686 0.3042605689 -0.002802212 -0.4281404851 -0.0031377699 -0.4277838197 0.0002840646 0.3105240763
740295560.0 0.0059054342 0.3041258849 -0.0073886164 -0.4279468046 -0.0074109805 -0.427986499 0.0033067051 0.3112109246
745295530.0 0.0093209885 0.3044195517 -0.0117797026 -0.4271170655 -0.0116167187 -0.4275594812 0.0064057352 0.3110633759
750295500.0 0.0120536791 0.3047843314 -0.016131382 -0.4272075232 -0.0168746842 -0.4276339246 0.0096237247 0.3110594478
755295470.0 0.0154323345 0.3048835129 -0.02115417 -0.4275768572 -0.021169491 -0.4275659681 0.0127012293 0.3114360413
760295440.0 0.0182113323 0.3051355114 -0.0259128845 -0.4268637674 -0.0258397336 -0.4267141475 0.0163613649 0.3108713657
765295410.0 0.0216461767 0.3049341504 -0.0308205219 -0.4267201764 -0.0304392761 -0.426648005 0.0194965231 0.3109383093
770295380.0 0.024689188 0.3051983578 -0.0349605536 -0.4258283187 -0.034875943 -0.4265892596 0.0225613722 0.3110203544
775295350.0 0.0273598952 0.305079262 -0.0394378886 -0.4260137392 -0.0395991394 -0.4257069063 0.0260896962 0.3106113543
780295320.0 0.0306661916 0.3049998795 -0.0440339319 -0.4250910046 -0.0440638793 -0.4251857504 0.0293713171 0.3108861363
785295290.0 0.0335534387 0.3046928059 -0.0486093553 -0.4245984357 -0.0486496348 -0.4250691577 0.0320547657 0.3110064345
790295260.0 0.0366388754 0.3044131092 -0.0532660447 -0.4238429992 -0.0530554962 -0.4250196358 0.035671366 0.3108842635
795295230.0 0.0398471202 0.3044200451 -0.0578545333 -0.423625563 -0.0579384978 -0.4235240123 0.0390097443 0.3097812378
800295200.0 0.0427358329 0.3043103945 -0.0617130168 -0.4228965443 -0.0622646048 -0.4232641729 0.0419695529 0.3099451016
805295170.0 0.0455167106 0.3042272031 -0.0665804797 -0.4222150839 -0.0670683464 -0.4226462994 0.0460337985 0.3094619806
810295140.0 0.0486971101 0.3040018419 -0.0713793694 -0.4215910332 -0.0713809306 -0.4213640539 0.0488929235 0.3093938329
815295110.0 0.0516835786 0.3037766171 -0.0758623456 -0.4207935488 -0.0757124097 -0.4210611252 0.0518007981 0.3089781377
820295080.0 0.0549029636 0.3030111132 -0.0801585233 -0.4195435819 -0.0803261375 -0.4201939054 0.0547492076 0.3090969285
825295050.0 0.0574788787 0.3025857381 -0.0848386176 -0.4189625973 -0.0849824427 -0.419183231 0.0588154206 0.3082901258
830295020.0 0.061183719 0.3023065321 -0.0895252065 -0.418033814 -0.0894392088 -0.417839498 0.0616052095 0.307419554
