!Created with skrf (http://scikit-rf.org).
# Hz S RI R 50.0 
!freq ReS11 ImS11 ReS21 ImS21 ReS12 ImS12 ReS22 ImS22
300000.0 -0.7819395413 -0.1131085133 -0.0012056147 0.0009401215 -7.71966e-05 0.0002227925 0.8592408014 -0.0023679902
5299970.0 -0.785357238 -0.0060221303 6.02733e-05 4.71542e-05 -4.27607e-05 -0.0003135096 0.8593194284 -0.0096383246
10299940.0 -0.7877021382 -0.0042290737 -9.28276e-05 -7.20324e-05 -0.0001631207 0.0001985895 0.8584047778 -0.018710135
15299910.0 -0.7934275278 -0.0022081545 -0.0002232763 0.0001160666 0.0001974593 9.32931e-05 0.8572132992 -0.0272463242
20299880.0 -0.7997200473 0.0020738253 7.44934e-05 0.0002288417 0.000127482 -7.76719e-05 0.8571349036 -0.0351468022
25299850.0 -0.8065069105 0.0076744852 -0.0001177601 -0.0001023463 0.0001397205 9.8048e-06 0.8562769688 -0.0431347161
30299820.0 -0.8124654057 0.0152389529 3.77929e-05 9.92027e-05 1.20419e-05 -0.0002159142 0.8551968857 -0.0515728103
35299790.0 -0.8171370148 0.0245653852 8.51487e-05 7.10683e-05 -0.0002655353 -2.61992e-05 0.8549385575 -0.0594308977
40299760.0 -0.8212403625 0.0334580782 0.00012938 -0.0001298069 -9.5918e-06 2.72256e-05 0.8535402158 -0.0681870686
45299730.0 -0.8243073562 0.0420885652 9.53922e-05 0.0001204533 -2.49748e-05 -0.0001013103 0.8532507624 -0.0765606508
50299700.0 -0.8273608804 0.0531001284 -0.0001758106 6.71301e-05 9.50049e-05 -0.0001126616 0.852167597 -0.0842801511
55299670.0 -0.8292341553 0.0626655945 -8.51136e-05 -1.40581e-05 0.0001596865 0.0002012625 0.8513080231 -0.0927799083
60299640.0 -0.8302221142 0.0730952923 0.0002148103 1.86805e-05 4.17268e-05 -0.0001357326 0.8507148164 -0.1006947691
65299610.0 -0.8313880384 0.0832389958 3.80493e-05 0.0001752458 -9.99884e-05 2.822e-05 0.8497262034 -0.1090993845
70299580.0 -0.8318417919 0.0929985084 -1.44273e-05 6.0566e-06 2.51962e-05 -2.2541e-05 0.8483515868 -0.1171534846
75299550.0 -0.8317149531 0.1033074131 -0.0001973229 -0.0002138474 0.0001062791 7.18085e-05 0.8468187369 -0.1254779034
80299520.0 -0.8317744942 0.1129845292 0.0001324498 3.1802e-05 -8.08241e-05 0.000101022 0.8458803206 -0.133624948
85299490.0 -0.8308138842 0.1222590193 -0.0001717109 -0.0001797408 0.000120402 0.0001058039 0.8446032588 -0.1421751102
90299460.0 -0.8301050869 0.1317974481 -0.0001384524 0.0001519332 -3.88411e-05 1.18779e-05 0.842359707 -0.1498964004
95299430.0 -0.8289069283 0.1415590189 -0.0002002637 7.44725e-05 -3.1991e-05 0.0001732082 0.8411032336 -0.1579295402
100299400.0 -0.8280122251 0.1508065603 0.0001057778 -4.77256e-05 0.0002601045 -6.59509e-05 0.8397303593 -0.1665749058
105299370.0 -0.8269824738 0.1601067132 -0.0001995708 5.84398e-05 2.97425e-05 -6.51435e-05 0.8382017652 -0.1744345163
110299340.0 -0.8251334842 0.1690276535 -3.90158e-05 -9.85925e-05 8.8798e-06 -0.0001188814 0.8361835694 -0.1823526341
115299310.0 -0.8240253019 0.1786180057 7.39654e-05 0.0001962938 -4.8347e-06 6.67406e-05 0.8347917947 -0.1903037289
120299280.0 -0.8223730167 0.1869745982 -0.000169031 0.0001590437 -3.58838e-05 -0.0001337264 0.833078466 -0.198665195
125299250.0 -0.8198955147 0.195506121 -6.32262e-05 -3.3586e-06 0.0001100183 1.44404e-05 0.8309295891 -0.2061607898
130299220.0 -0.8185700306 0.2050855974 -0.0001008394 0.000113947 7.61883e-05 0.000191329 0.8288403212 -0.2150763668
135299190.0 -0.8171144354 0.2140796652 -0.0001129794 2.63147e-05 -0.0001594276 8.56453e-05 0.826444976 -0.2223253916
140299160.0 -0.8146579548 0.2227156847 7.50719e-05 3.73226e-05 0.0001421305 -6.35102e-05 0.823898564 -0.2305639599
145299130.0 -0.8129371898 0.2321438774 -2.63647e-05 0.0001014128 -0.0001433083 3.42612e-05 0.822212923 -0.2382799191
150299100.0 -0.8102234683 0.2406771453 -0.0001385024 -6.83533e-05 -0.0001020876 6.92152e-05 0.8193456666 -0.2469183023
155299070.0 -0.8077311027 0.2488742485 3.6361e-06 0.0001095424 -1.80104e-05 9.76226e-05 0.8172738561 -0.2542102329
160299040.0 -0.8049400407 0.2580412512 -6.79077e-05 0.0003245597 7.66894e-05 -8.68828e-05 0.8142765916 -0.2617108727
165299010.0 -0.8029162132 0.2665070135 5.27325e-05 3.42516e-05 -1.4751e-05 -8.8674e-05 0.8114609568 -0.2702950096
170298980.0 -0.800281943 0.2753048526 4.55708e-05 -0.0001063012 -7.95961e-05 -0.0001141696 0.8088452943 -0.2776617417
175298950.0 -0.7974311186 0.2839937708 0.000171782 9.39095e-05 -6.06413e-05 3.80505e-05 0.8067386311 -0.2858355231
180298920.0 -0.7948003471 0.2922012675 -1.65939e-05 5.52542e-05 -3.07994e-05 0.0001128034 0.8037094099 -0.2939900887
185298890.0 -0.7913622621 0.3004021787 6.6903e-06 0.0001478264 0.0001747574 1.67245e-05 0.8006731151 -0.3013456025
190298860.0 -0.7884678006 0.3094185834 -1.05876e-05 -3.52346e-05 -6.09618e-05 0.0001537634 0.7976519037 -0.3085091233
195298830.0 -0.7854910523 0.3171447306 0.0001802578 -0.0001071017 5.26026e-05 -0.0002379978 0.7947101518 -0.3162664706
200298800.0 -0.7815939584 0.3259244757 -0.0001489776 -5.49221e-05 -3.2339e-05 -9.15351e-05 0.7916411873 -0.3248149337
205298770.0 -0.7784894078 0.3341283622 -0.0001379495 -6.15721e-05 8.06212e-05 0.0001396785 0.788407399 -0.3319821353
210298740.0 -0.7749444467 0.3422483261 -0.0001706693 1.4417e-06 -1.46084e-05 -0.0001000891 0.7849246458 -0.3394449413
215298710.0 -0.7719117845 0.3506336741 -1.16828e-05 -4.77017e-05 -8.43577e-05 0.0001234213 0.7820275818 -0.3472146619
220298680.0 -0.7674498411 0.3584402377 -0.0001919098 0.000166746 -1.24582e-05 0.0001901693 0.7779584017 -0.354350075
225298650.0 -0.764753742 0.3661136269 0.0001042059 0.0001341633 0.0001934226 8.56473e-05 0.7744923232 -0.3622155917
230298620.0 -0.7603303575 0.3748212621 -0.0001101964 0.0001543139 -2.98661e-05 -1.21912e-05 0.770732115 -0.3694377254
235298590.0 -0.756510418 0.3826364843 -0.0001478887 7.43147e-05 5.23501e-05 -0.0001140948 0.7672893275 -0.3777204961
240298560.0 -0.7525695498 0.3905566319 -4.8615e-05 0.0002549704 -8.4138e-05 -0.0001159517 0.7636921916 -0.3847994472
245298530.0 -0.7490952407 0.3984288284 -5.73579e-05 6.98729e-05 -4.68117e-05 -8.89121e-05 0.760587924 -0.3920806538
250298500.0 -0.7440442867 0.4065630231 0.0001536474 3.08298e-05 -0.0001502035 3.79205e-05 0.7561450103 -0.3997306811
255298470.0 -0.7396187148 0.4136135571 -2.69635e-05 -0.000291866 -0.0002178333 0.0001829817 0.7524899503 -0.4068046962
260298440.0 -0.7354828047 0.4207961216 -0.0001033967 7.59374e-05 0.0002683082 -8.99341e-05 0.7483789256 -0.4135098928
265298410.0 -0.7316418604 0.4295804153 -0.0002124742 0.0002772037 2.5753e-06 -7.16626e-05 0.7444594568 -0.4210542574
270298380.0 -0.7275374355 0.4370774584 4.2249e-06 -0.0002002269 -5.25535e-05 0.0001553093 0.740188954 -0.4280458607
275298350.0 -0.7218805976 0.4443734068 0.0002007743 -8.8495e-06 2.5219e-06 1.5054e-06 0.7361806932 -0.435280623
280298320.0 -0.717120976 0.4518308111 -3.5816e-06 2.89631e-05 -8.80059e-05 -0.000136946 0.7329639812 -0.4426178253
285298290.0 -0.7128752997 0.459555415 0.0002267895 -0.0002936924 -1.47437e-05 -0.0002353297 0.7284173606 -0.4494857105
290298260.0 -0.708010049 0.4673102203 -0.0003081635 5.05875e-05 -5.2826e-05 -5.81077e-05 0.7245254894 -0.4567633422
295298230.0 -0.7027646846 0.4739092242 0.000144975 -6.4795e-06 -0.0001003705 0.0001508967 0.719978358 -0.4635656385
300298200.0 -0.6979169786 0.4817779464 -0.0001137483 7.76313e-05 -9.9753e-05 -0.0001179221 0.7160125702 -0.4710021143
305298170.0 -0.6924808753 0.4878963913 -0.0001237398 -1.9778e-05 9.10053e-05 -9.76667e-05 0.7115622587 -0.4788200681
310298140.0 -0.687753752 0.4960628717 -7.82946e-05 -0.0002253509 -0.0001249843 -7.12015e-05 0.7062143899 -0.4863437143
315298110.0 -0.6833043561 0.5032440562 -0.0001495574 -7.8036e-06 -1.45664e-05 -8.35146e-05 0.7008777725 -0.4937321548
320298080.0 -0.6773623059 0.5100499224 0.0001191695 3.68515e-05 3.03607e-05 -0.000270902 0.6958616903 -0.5015286685
325298050.0 -0.671850855 0.5171438915 2.4938e-05 6.04754e-05 0.0002323944 -7.24433e-05 0.6909421785 -0.5081295537
330298020.0 -0.6663856924 0.5239190115 5.83969e-05 8.82651e-05 -4.84008e-05 9.88202e-05 0.6838748964 -0.5148107283
335297990.0 -0.6609076322 0.5305227025 9.28332e-05 1.41238e-05 5.58251e-05 0.000124646 0.679412769 -0.5209065386
340297960.0 -0.6560647206 0.5370960736 -0.0001215001 -0.0001931199 -2.45961e-05 -9.2786e-05 0.6739652919 -0.5270077831
345297930.0 -0.6502056447 0.5442880782 0.0001027088 1.16835e-05 -9.8385e-06 -1.1799e-06 0.6678528417 -0.5335056459
350297900.0 -0.6446517785 0.5503667128 -0.0001555091 -5.97452e-05 -9.00916e-05 0.0001156474 0.662315102 -0.5391176427
355297870.0 -0.6382618766 0.5577413268 -0.0001303002 -0.0001451922 0.0001930154 4.20517e-05 0.6571544964 -0.5455797777
360297840.0 -0.6330859036 0.5636553857 -0.000163091 0.0001781282 -3.62213e-05 -8.26264e-05 0.6520807586 -0.5524731464
365297810.0 -0.6270624818 0.570427318 9.60773e-05 0.0001371272 2.6352e-06 0.0001269732 0.6462709555 -0.5585751597
370297780.0 -0.6214426525 0.576702199 0.0003630465 -6.06389e-05 0.0001338646 3.15844e-05 0.6407817542 -0.5639549131
375297750.0 -0.6149276603 0.5829486409 0.0002031072 -1.67259e-05 3.78909e-05 -8.94719e-05 0.6349754214 -0.5705322625
380297720.0 -0.6092111743 0.5891256372 1.32102e-05 7.37443e-05 0.0001200665 -3.7487e-06 0.6287157 -0.5766468538
385297690.0 -0.6036102896 0.5949645618 -3.45488e-05 -7.0352e-05 -0.0001663788 2.714e-06 0.6240807734 -0.5825023039
390297660.0 -0.5968321668 0.601410829 7.23371e-05 -7.90553e-05 -6.63902e-05 5.89617e-05 0.6178106085 -0.5883145568
395297630.0 -0.5904776264 0.6077077976 -0.0004911957 -7.47672e-05 -0.0001142853 -4.08061e-05 0.6120171452 -0.5938493699
400297600.0 -0.5841151304 0.6134751988 -0.0002115557 -7.07478e-05 3.71343e-05 -1.24953e-05 0.6064277287 -0.5998898062
405297570.0 -0.5784044336 0.6189564699 3.63603e-05 1.27313e-05 0.0001144984 4.3365e-06 0.6002026209 -0.6058587839
410297540.0 -0.5707781731 0.6250589615 -0.0001191725 0.00020511 0.0003423903 0.0001652578 0.5943172663 -0.6122308364
415297510.0 -0.5646062715 0.6306798964 0.0001356348 8.59417e-05 -7.24693e-05 5.36408e-05 0.5883702937 -0.6174177996
420297480.0 -0.5592721433 0.6367484861 -1.41177e-05 0.0001079141 -2.91004e-05 -0.0001097297 0.5827433951 -0.6225812856
425297450.0 -0.5517918723 0.6420851453 -0.0002654241 -9.76698e-05 2.43876e-05 1.58082e-05 0.5760256199 -0.6292785728
430297420.0 -0.5458396762 0.6479742417 -3.53412e-05 -1.43875e-05 2.2286e-05 0.0001418584 0.569822329 -0.6347597191
435297390.0 -0.5388790271 0.6529287827 0.0001040333 -9.10208e-05 0.0002821462 1.91346e-05 0.5638207342 -0.6399160386
440297360.0 -0.5317909357 0.658452252 0.0001922345 0.0001439667 -1.00082e-05 1.78967e-05 0.5577282971 -0.6442519765
445297330.0 -0.525460024 0.6638205106 -0.0002097838 5.54756e-05 -2.44368e-05 0.0002253057 0.5514353848 -0.6513878366
450297300.0 -0.5187549721 0.6690509596 -0.0001679826 6.81387e-05 -2.46246e-05 -8.27486e-05 0.5437422106 -0.655015304
455297270.0 -0.5114703513 0.6741370264 -1.69859e-05 -2.95763e-05 -0.0001622067 4.6325e-05 0.5383449708 -0.6610752562
460297240.0 -0.5051656359 0.6795494272 1.47438e-05 -5.2926e-05 -9.35785e-05 2.84359e-05 0.5310750703 -0.6656777045
465297210.0 -0.4982775397 0.6846377231 -4.91484e-05 -0.0001618363 -8.60846e-05 5.10513e-05 0.525006244 -0.6709681897
470297180.0 -0.4908097146 0.6895568739 -0.0002054594 -7.71016e-05 0.000137779 -8.07839e-05 0.5180323722 -0.6758463646
475297150.0 -0.4838276741 0.693711067 0.0001411553 6.33283e-05 -0.0001701982 0.0001510797 0.5115159557 -0.6807538078
480297120.0 -0.4768744096 0.6993652105 0.0001142428 0.0001682474 8.08307e-05 0.0001400938 0.5051458728 -0.6857198976
485297090.0 -0.4697599872 0.7040837008 -0.0001190498 -0.0001807174 1.53403e-05 0.0002086044 0.4984359271 -0.6905860069
490297060.0 -0.4624697107 0.7083247853 -1.62748e-05 -0.0001200212 -3.98333e-05 -0.0001123209 0.4904981859 -0.696202437
495297030.0 -0.4552898668 0.7132935225 -7.73297e-05 -1.10268e-05 0.0001013005 -0.0001638335 0.4846446124 -0.6997746032
500297000.0 -0.4483652832 0.7178422233 6.12509e-05 -8.37367e-05 -4.58488e-05 0.0002366194 0.4775344134 -0.7047529496
505296970.0 -0.4400464366 0.7223337244 -6.149e-06 -0.0001202505 -0.0001090679 -2.99869e-05 0.4704629796 -0.7091925932
510296940.0 -0.4331935864 0.7261738329 -6.57356e-05 7.40988e-05 8.88829e-05 4.5711e-06 0.4629718552 -0.7137795148
515296910.0 -0.4249989493 0.7309309197 0.0001538341 0.0001162906 -0.0001354674 8.84253e-05 0.4563200537 -0.7180354913
520296880.0 -0.4185998012 0.7353737259 -0.0001009238 -0.0001257131 -3.65282e-05 -3.93933e-05 0.449088768 -0.7230955932
525296850.0 -0.4103347975 0.7386523542 4.46284e-05 0.0001052165 -5.82951e-05 -0.0002410297 0.4420611735 -0.7266645896
530296820.0 -0.403204584 0.7429452892 1.6133e-06 6.59542e-05 7.56026e-05 3.65351e-05 0.4349202521 -0.7307082365
535296790.0 -0.3963447444 0.7471490995 2.56571e-05 -6.51734e-05 4.42864e-05 7.69044e-05 0.4272834954 -0.7360495774
540296760.0 -0.388396775 0.7507930478 -0.0001257231 0.0001458052 -7.22431e-05 -4.05132e-05 0.4203043341 -0.7390976725
545296730.0 -0.3810083764 0.7549033295 -1.81689e-05 4.43904e-05 -0.0001205108 6.57378e-05 0.4132681475 -0.7435853423
550296700.0 -0.3732198245 0.7589055382 7.3818e-05 0.000109579 -8.46019e-05 0.0001244815 0.4056286215 -0.7477743873
555296670.0 -0.3650089892 0.7617891295 -0.0001399558 0.0002347782 2.477e-06 -1.10727e-05 0.39813555 -0.7508060722
560296640.0 -0.3577464166 0.7659738499 -0.0002722156 -8.97445e-05 9.71975e-05 -8.05369e-05 0.3905564989 -0.7549325555
565296610.0 -0.3496598233 0.769884009 0.0001013308 4.14793e-05 0.000109107 -9.75249e-05 0.383056624 -0.7583692205
570296580.0 -0.3427064783 0.7724230466 -2.59199e-05 -1.97341e-05 -4.552e-05 -4.6159e-05 0.3758335766 -0.7622253134
575296550.0 -0.3346374324 0.7769986132 -0.0002232763 2.25451e-05 -0.0001398514 -7.86623e-05 0.3684387459 -0.765673765
580296520.0 -0.326563615 0.7793487428 -2.00982e-05 0.000230194 -4.46426e-05 -0.0001265224 0.3608149081 -0.7691967403
585296490.0 -0.3191470129 0.782510237 -7.77966e-05 -0.000160867 -3.61994e-05 -6.98778e-05 0.35356598 -0.7726802689
590296460.0 -0.3111289508 0.7858149928 -9.64668e-05 -9.26932e-05 6.39156e-05 -0.0001279241 0.3452547178 -0.7756424793
595296430.0 -0.3033205081 0.7883520719 3.84998e-05 -3.37641e-05 -0.0002023817 -0.000135944 0.3377626386 -0.7788680549
600296400.0 -0.2950926455 0.791561211 -5.11035e-05 -0.0001207409 -0.0001179521 9.97084e-05 0.3304545602 -0.782645071
605296370.0 -0.2875689592 0.7946745373 -0.0001360926 -2.02945e-05 1.5599e-06 4.40253e-05 0.3222207078 -0.7853375803
610296340.0 -0.2793197004 0.7973754779 -8.48107e-05 4.15529e-05 -2.49622e-05 -0.0001237427 0.3146915404 -0.788358099
615296310.0 -0.2706380772 0.8002194138 1.78229e-05 -4.0528e-05 -8.67569e-05 0.0001471567 0.3067817281 -0.7913285301
620296280.0 -0.2632937262 0.8023404897 -9.37862e-05 0.0002092774 3.32047e-05 9.25705e-05 0.2989562606 -0.794234137
625296250.0 -0.2553025635 0.8050802514 8.0487e-06 0.0001190647 6.32985e-05 0.0001371332 0.2918514334 -0.7973046997
630296220.0 -0.2468374848 0.8077776075 0.0001604044 8.83993e-05 1.7108e-05 7.75708e-05 0.2828630565 -0.7993639312
635296190.0 -0.238928645 0.8098848497 4.5128e-06 6.54018e-05 -0.0001670199 -0.0001536984 0.2759713688 -0.8023857646
640296160.0 -0.231333221 0.8124749057 -0.0001257366 -5.18873e-05 -0.0001260206 -9.8067e-06 0.2670305355 -0.805074602
645296130.0 -0.2225737909 0.8155160153 6.32094e-05 -0.0001329545 -1.93119e-05 -0.0001981476 0.2591905412 -0.8073905161
650296100.0 -0.214782533 0.8167495785 7.12746e-05 3.39428e-05 -6.82799e-05 -2.95821e-05 0.252247516 -0.8107914783
655296070.0 -0.2068594716 0.8191308055 1.51336e-05 0.0003571419 8.67101e-05 -1.8e-07 0.244594278 -0.8117698385
660296040.0 -0.1982987711 0.8206173878 6.43584e-05 9.60928e-05 -4.47014e-05 4.566e-06 0.2362055579 -0.8146933142
665296010.0 -0.1896803083 0.8220293339 -7.18297e-05 -5.24891e-05 1.26888e-05 0.0001518132 0.2274551969 -0.8163729897
670295980.0 -0.182565964 0.8246686801 7.59546e-05 0.0002496436 -0.0001298224 0.0002409025 0.2195277871 -0.8190401993
675295950.0 -0.1734631671 0.825899738 0.0002028965 0.00016534 9.1241e-05 -0.0001041964 0.2112503221 -0.8204700184
680295920.0 -0.1652714399 0.8279650649 8.74463e-05 2.83213e-05 6.75095e-05 -0.0001897765 0.2032877678 -0.8222310568
685295890.0 -0.1571642203 0.8304796321 6.77063e-05 -0.0003274333 4.65373e-05 4.6182e-06 0.1954104125 -0.8241528436
690295860.0 -0.1488976294 0.8309545654 0.0002476249 -5.09366e-05 -0.0001380758 -4.08905e-05 0.1866017536 -0.8254400571
695295830.0 -0.1408575193 0.8321533994 1.82686e-05 0.000153394 3.97537e-05 3.49885e-05 0.1789595613 -0.8277405803
700295800.0 -0.1323373194 0.8337055748 0.0001285749 5.05273e-05 8.3977e-05 -9.15443e-05 0.170800524 -0.8294265001
705295770.0 -0.1249856116 0.8355629232 9.79241e-05 -0.0002106493 2.62979e-05 5.58092e-05 0.1619948329 -0.8299835409
710295740.0 -0.1162220021 0.8367157153 -0.0001387394 2.5918e-06 -1.41992e-05 -0.0001128277 0.1537493225 -0.8320873981
715295710.0 -0.1079937429 0.8371545772 2.71172e-05 -6.61409e-05 -3.19375e-05 -0.0001245448 0.1457633929 -0.8337304028
720295680.0 -0.099532622 0.8388037728 4.0657e-05 0.0002164424 -0.0001367509 -2.44796e-05 0.137627557 -0.835117501
725295650.0 -0.0914014917 0.8397772382 0.0001249692 0.0001004589 2.7658e-06 9.22065e-05 0.1289524247 -0.835386129
730295620.0 -0.0823349581 0.8397589886 -0.0001575481 0.0001784587 9.05258e-05 8.18487e-05 0.1203536558 -0.8373892804
735295590.0 -0.0745992494 0.8409034975 5.19664e-05 -0.0002450588 0.0001089207 0.0001887646 0.1119965018 -0.8389872008
740295560.0 -0.0663590274 0.8424463911 -8.93157e-05 2.91035e-05 -3.81151e-05 -0.0001682236 0.1038069392 -0.8385259329
745295530.0 -0.0578200042 0.8423847773 -0.0001714059 9.20333e-05 -5.99433e-05 -0.0002472355 0.0962630698 -0.8392876638
750295500.0 -0.0488887779 0.8425390438 -7.23959e-05 0.0001308463 -0.0001390278 -7.0015e-05 0.0874526636 -0.8404285315
755295470.0 -0.0409514157 0.8433482417 0.0001117531 -0.0001546531 -0.0002630487 -3.99445e-05 0.0797586455 -0.841837234
760295440.0 -0.0331219157 0.8436771599 5.7087e-06 2.7261e-06 9.17001e-05 -1.60988e-05 0.0716390631 -0.8425057668
765295410.0 -0.024802248 0.844007476 -4.22515e-05 -0.000112359 -0.0001811947 2.30876e-05 0.0631514242 -0.8425556424
770295380.0 -0.0161917472 0.8443225138 -0.0001693584 0.00019438 9.44117e-05 2.13871e-05 0.0536369576 -0.8433109975
775295350.0 -0.0079028248 0.8441683071 -4.54643e-05 0.0001554292 -0.0001561604 -0.0001392811 0.0458869395 -0.8430838705
780295320.0 0.0004751701 0.8441288798 -3.92505e-05 -4.15738e-05 -6.3774e-05 -0.0002956787 0.0377138269 -0.8435450843
785295290.0 0.0086950303 0.8437153487 -5.2143e-05 5.2209e-06 0.0001183768 -0.0001964984 0.0299962442 -0.8440456248
790295260.0 0.0174465186 0.843883307 -7.37545e-05 0.0001738525 1.83804e-05 -0.0001938469 0.0223631245 -0.8440725222
795295230.0 0.0256253308 0.8435328259 -0.0002034151 -0.000211589 -4.34248e-05 -2.34436e-05 0.0130213358 -0.8436850064
800295200.0 0.0337006254 0.8433505325 -0.0001008751 -0.0001862203 0.000181621 -0.0001825697 0.0044522337 -0.8436003047
805295170.0 0.0427166587 0.8429156197 -7.7772e-06 6.03907e-05 -4.92808e-05 0.0001864988 -0.0038936213 -0.8430209757
810295140.0 0.0505359909 0.8423488634 -8.30461e-05 -3.32562e-05 -0.0001633899 -1.3081e-05 -0.0114124968 -0.84380914
815295110.0 0.058848641 0.8420475923 -9.99572e-05 -0.0001602281 -3.48998e-05 3.9824e-06 -0.0209860312 -0.843242494
820295080.0 0.0669663306 0.8413380002 -0.0001396625 0.0001127965 -0.0001490448 3.67098e-05 -0.0288449202 -0.8429788221
825295050.0 0.076631159 0.8405553964 1.92223e-05 0.0001026103 0.0001128981 3.15715e-05 -0.0370518411 -0.8422726893
830295020.0 0.0837701729 0.8398784043 8.05712e-05 6.87096e-05 -0.0001241985 2.77105e-05 -0.0448665916 -0.8415510168
835294990.0 0.092293159 0.8391764265 -0.0001586323 8.11066e-05 -0.000100306 -0.0001038907 -0.0538927433 -0.8410527138
840294960.0 0.10013574 0.8383093873 -5.47625e-05 0.0001642319 8.34851e-05 2.35322e-05 -0.0619673854 -0.8409625525
845294930.0 0.1082290889 0.8373488445 9.2246e-05 -0.0001449458 9.0702e-05 0.00019768 -0.0702477387 -0.8387481542
