!Created with skrf (http://scikit-rf.org).
# Hz S RI R 50.0 
!freq ReS11 ImS11 ReS21 ImS21 ReS12 ImS12 ReS22 ImS22
300000.0 -0.2396585756 -0.1009362099 0.4687753783 0.0645910273 0.4702948911 0.0694635996 -0.2377613292 -0.106180684
5299970.0 -0.2437033796 0.0073188761 0.4738030476 0.0049998779 0.473914003 0.0058434097 -0.2442660853 0.006059794
10299940.0 -0.2403501783 0.0197432939 0.4759488933 0.0063605935 0.4759154998 0.0068769571 -0.2412377586 0.0183515411
15299910.0 -0.2361817218 0.0293179666 0.4793492877 0.0078027675 0.4797289172 0.0080735284 -0.2367302343 0.0275485808
20299880.0 -0.2307408223 0.037256059 0.4842325833 0.0084971697 0.4843020756 0.008400089 -0.2322345885 0.0353939582
25299850.0 -0.2249186648 0.0436325253 0.4892773365 0.0071207529 0.4897076032 0.0075992274 -0.2270595028 0.0415372006
30299820.0 -0.2188211406 0.0485571406 0.4950735983 0.0053836735 0.4947544833 0.0052272413 -0.2215987767 0.0471355149
35299790.0 -0.2130329085 0.0528839293 0.5004638231 0.0021586988 0.5005139573 0.0025749942 -0.2165239305 0.0509985256
40299760.0 -0.2076314601 0.0556074435 0.5053460573 -0.0016083335 0.5055693559 -0.0020405437 -0.211474103 0.054534804
45299730.0 -0.2026602169 0.0586756332 0.5102407395 -0.0064884787 0.5102900211 -0.0064465072 -0.2068941763 0.0573759968
50299700.0 -0.1978303692 0.0600756571 0.5143451322 -0.0118415747 0.5145314815 -0.0121719013 -0.202330123 0.0596856402
55299670.0 -0.1936696845 0.061843994 0.5179156937 -0.0179314263 0.5182375836 -0.0182337158 -0.19842362 0.0615084155
60299640.0 -0.1893652769 0.0626250031 0.5207071143 -0.0240695057 0.5213001747 -0.0240631532 -0.1944312956 0.0629911915
65299610.0 -0.1862307569 0.063903866 0.5247363162 -0.029864666 0.5245943423 -0.0302830556 -0.1912650246 0.0643232626
70299580.0 -0.1825455455 0.0643707457 0.5265345239 -0.0372897831 0.5265969843 -0.0373670957 -0.187916455 0.0655822693
75299550.0 -0.1795925747 0.0653311431 0.5290802502 -0.0435985668 0.5288661851 -0.0441804953 -0.1853420992 0.066728826
80299520.0 -0.1773635784 0.0657310412 0.5309928501 -0.0509671969 0.53067846 -0.0505742689 -0.1827607059 0.0670971507
85299490.0 -0.1746765428 0.0658790772 0.5322108809 -0.0576209428 0.5319605804 -0.0575659823 -0.1804782037 0.0682973822
90299460.0 -0.1725398425 0.0665546483 0.5330321626 -0.0642416452 0.5334096476 -0.0649332549 -0.1780139517 0.0690339625
95299430.0 -0.1705179133 0.0671023845 0.5342351754 -0.0721173377 0.5342286714 -0.0718229382 -0.1760432569 0.0702162073
100299400.0 -0.1688065024 0.0676317523 0.5343858398 -0.0784754568 0.5345379146 -0.0785938829 -0.1746188984 0.0709827084
105299370.0 -0.166932787 0.0680810804 0.5343504153 -0.0851705666 0.5349195627 -0.0854458505 -0.1721529767 0.071847144
110299340.0 -0.1655680389 0.0684414463 0.5346964588 -0.0920757876 0.5348034294 -0.0925082481 -0.170797177 0.0725724476
115299310.0 -0.1639188522 0.0688723797 0.5348534839 -0.098962795 0.5351969165 -0.0986394232 -0.1691697799 0.0731004436
120299280.0 -0.1629748872 0.0694792057 0.5349937312 -0.1059387433 0.5348881478 -0.1059227045 -0.1679472322 0.0741043622
125299250.0 -0.1617841646 0.0700269833 0.5342162431 -0.1125934933 0.5346273523 -0.1125396059 -0.1664675828 0.0746096187
130299220.0 -0.1605519485 0.0707755206 0.5339097834 -0.1190451091 0.5335976715 -0.119598642 -0.1652116594 0.0757320067
135299190.0 -0.1593146248 0.0710470519 0.5330195123 -0.1252885826 0.5326976236 -0.1259219373 -0.1643647819 0.0768565869
140299160.0 -0.1588031087 0.0721949068 0.5323091566 -0.1323320081 0.5323706013 -0.1325727159 -0.1625900512 0.0780312339
145299130.0 -0.1575906487 0.0729096808 0.5317078304 -0.1393091868 0.5313387667 -0.1391427648 -0.16219882 0.0789305408
150299100.0 -0.1566233492 0.0737335281 0.5301405133 -0.1460598434 0.5301683687 -0.1457087394 -0.1608992144 0.0797333436
155299070.0 -0.1557773937 0.0749700639 0.5291542911 -0.1527318815 0.5288359168 -0.1526048687 -0.159994489 0.0807752207
160299040.0 -0.1549614467 0.0752258969 0.5274670353 -0.1585706779 0.5277637227 -0.1587914632 -0.1588610323 0.0824399874
165299010.0 -0.1544186135 0.0763171462 0.5265433674 -0.1656823528 0.5265004967 -0.1652018525 -0.1578899439 0.0829931641
170298980.0 -0.1535732113 0.0772376681 0.5241803006 -0.1717298666 0.5245765775 -0.1714317431 -0.1567071245 0.0845443537
175298950.0 -0.1524450756 0.0783171212 0.523729437 -0.177629251 0.5236363713 -0.1779282016 -0.1558383257 0.086010468
180298920.0 -0.1518102412 0.079071121 0.5213992124 -0.1843978735 0.5217800495 -0.1842128068 -0.1549709161 0.0874455339
185298890.0 -0.1508293665 0.0800810062 0.5193366217 -0.1905064333 0.5198916456 -0.190161935 -0.1540392022 0.0879357687
190298860.0 -0.1502540804 0.0813494072 0.5173954768 -0.1967839737 0.5179035669 -0.1967825944 -0.1525887011 0.0893311839
195298830.0 -0.1496372305 0.0820512253 0.5154679141 -0.2026889856 0.5155963329 -0.2031955076 -0.1516850421 0.0907846825
200298800.0 -0.1489405757 0.0835655445 0.5139592152 -0.2083356518 0.5136401979 -0.2085545918 -0.1509626753 0.0922180215
205298770.0 -0.148247544 0.0844905205 0.5115019231 -0.2143933445 0.5114980562 -0.2147804653 -0.1499911019 0.0932452704
210298740.0 -0.1476278934 0.0853248226 0.5094951877 -0.2209485916 0.5091318165 -0.2211534021 -0.1490214365 0.0948857713
215298710.0 -0.1466170427 0.086755795 0.5068690273 -0.2267898674 0.5071056774 -0.2267348938 -0.1485786745 0.0958341317
220298680.0 -0.1458853662 0.0880857856 0.5044853913 -0.2330559143 0.5045352566 -0.2327395211 -0.1468616947 0.0978641437
225298650.0 -0.1450831765 0.0892703543 0.5017186905 -0.2383356292 0.5017797028 -0.2386936861 -0.1463080531 0.0991998498
230298620.0 -0.1445566527 0.0904833296 0.499513666 -0.243976364 0.4996904187 -0.2444305877 -0.1451099663 0.1003574974
235298590.0 -0.1436527992 0.0917386828 0.4968750968 -0.2498778957 0.496828675 -0.250374168 -0.1440519959 0.101668842
240298560.0 -0.1430603131 0.0928925067 0.4944969008 -0.2554409633 0.4944194799 -0.2551462433 -0.1432432847 0.1032557881
245298530.0 -0.1418915562 0.0943472412 0.4903054024 -0.2618426143 0.4917905884 -0.2618529323 -0.1420754301 0.1047567797
250298500.0 -0.1416017328 0.0953925383 0.4884781457 -0.2668305183 0.488792612 -0.2666727072 -0.1408024945 0.1060056467
255298470.0 -0.1408263091 0.096657184 0.4856684617 -0.2726516862 0.4856428965 -0.2726480708 -0.1396418168 0.1073368042
260298440.0 -0.1399124957 0.0978808486 0.4830031818 -0.2779532766 0.4825881977 -0.2781820395 -0.1379961427 0.1092353746
265298410.0 -0.1388478858 0.0997837286 0.4797437586 -0.283926698 0.4793191457 -0.2840919985 -0.1372911461 0.1101569915
270298380.0 -0.1375985451 0.100423425 0.4762458638 -0.2892449926 0.4767681488 -0.2893416397 -0.1360757531 0.1122720246
275298350.0 -0.1372700362 0.1021504894 0.4730765802 -0.294785485 0.4735604556 -0.2951506972 -0.1348046758 0.1134400713
280298320.0 -0.1362118345 0.1034501153 0.4702555998 -0.2998880693 0.4701809407 -0.3002310714 -0.1334623165 0.1150479634
285298290.0 -0.1352297484 0.1045946365 0.4665386483 -0.3049304128 0.4666382799 -0.3055452588 -0.1325062801 0.1164818453
290298260.0 -0.1344309782 0.1059800874 0.4636240599 -0.3105098937 0.4638734606 -0.310777781 -0.1307651588 0.1180783999
295298230.0 -0.1332076302 0.1071047928 0.4603147877 -0.3159225296 0.4601119405 -0.3158787325 -0.129728904 0.1194045723
300298200.0 -0.1320021103 0.1085485982 0.4565934381 -0.3211606598 0.4568231472 -0.3212220094 -0.128454199 0.1206161718
305298170.0 -0.1310889056 0.1098620206 0.4533129209 -0.326637831 0.4537550573 -0.3267499734 -0.1265597321 0.1225790347
310298140.0 -0.1297989153 0.1107113225 0.4501353462 -0.3321846774 0.4498497471 -0.3323319635 -0.1256122959 0.1240151582
315298110.0 -0.1292193303 0.1119520834 0.4457547871 -0.3368019648 0.4462745283 -0.3372206702 -0.1238321851 0.1249875498
320298080.0 -0.1280450535 0.1131388727 0.4424357871 -0.3420246832 0.4426377657 -0.342201776 -0.1229654741 0.1261176149
325298050.0 -0.1273298959 0.1142442082 0.4390548063 -0.3474597337 0.4388042836 -0.3473909651 -0.1216952746 0.1274280246
330298020.0 -0.1263311429 0.1156630763 0.434034332 -0.352283148 0.4343789825 -0.352405229 -0.1204263967 0.1289973902
335297990.0 -0.1254592417 0.1167691945 0.4304241048 -0.3568340081 0.4306444995 -0.3570690748 -0.1194405639 0.1306221617
340297960.0 -0.1248682499 0.1180169708 0.4259827589 -0.3620632598 0.426688336 -0.361909171 -0.1178015043 0.1321587866
345297930.0 -0.1238885566 0.1198146012 0.4220074184 -0.3663728417 0.4221161466 -0.3661706536 -0.1164420055 0.1330657962
350297900.0 -0.1221432524 0.1207432137 0.4180359873 -0.3707629201 0.4186062007 -0.3709967182 -0.115276202 0.1348905324
355297870.0 -0.121407975 0.1220619844 0.4139781922 -0.3754781233 0.4137184253 -0.376023309 -0.1139359832 0.1364205824
360297840.0 -0.1202936525 0.1236887413 0.4100478407 -0.3802155573 0.4097000272 -0.3804886988 -0.1122742884 0.1379146313
365297810.0 -0.1188574065 0.1244155179 0.4053678567 -0.3846643112 0.4056067645 -0.3846954172 -0.1109853542 0.1394315464
370297780.0 -0.1178158672 0.125963024 0.4011798157 -0.3891471953 0.4013744126 -0.3894020476 -0.1092856342 0.1407258604
375297750.0 -0.1168122218 0.1274421008 0.3971126192 -0.3937115773 0.3967963231 -0.3939483913 -0.1075190606 0.1420931048
380297720.0 -0.1156066303 0.1282202397 0.3927863894 -0.397528864 0.3926309508 -0.3977979982 -0.1059511004 0.1436600279
385297690.0 -0.1142397512 0.1297850287 0.3883995869 -0.4017758455 0.3879305033 -0.4021778351 -0.104639726 0.1453610825
390297660.0 -0.1133196463 0.1308982299 0.3838681225 -0.4064835534 0.3837429809 -0.4066218236 -0.1029133127 0.1461054188
395297630.0 -0.1116005278 0.132087448 0.3794249784 -0.4107068996 0.379460494 -0.4103786602 -0.1016053646 0.1479800264
400297600.0 -0.1107136995 0.1335555954 0.3747076141 -0.4150170154 0.3751700762 -0.4151780971 -0.1002982947 0.1490297808
405297570.0 -0.1092854142 0.1345368853 0.370427541 -0.4185248957 0.3701231388 -0.4192910824 -0.0984220308 0.1506603973
410297540.0 -0.1078852358 0.1356729482 0.3649794192 -0.4224742287 0.3650945378 -0.4226921152 -0.096677914 0.151931702
415297510.0 -0.1065250493 0.1373711812 0.3608643853 -0.4264626724 0.3611703189 -0.4267649677 -0.0954978776 0.1533067748
420297480.0 -0.1053394001 0.137908315 0.3561519967 -0.4310340239 0.3561117274 -0.4307439832 -0.0933257139 0.1537520316
425297450.0 -0.1037906144 0.1392775723 0.3514760807 -0.4348556695 0.3517689656 -0.4346646631 -0.0917667467 0.1559515908
430297420.0 -0.102638267 0.1406098709 0.3467219093 -0.4386973728 0.3468588248 -0.4384469032 -0.090082988 0.1566787915
435297390.0 -0.1012459887 0.1413497462 0.3420648219 -0.442232648 0.3420322539 -0.4420326544 -0.0885169951 0.1581951085
440297360.0 -0.0997836619 0.1425073269 0.3369367934 -0.4457011692 0.3363044795 -0.4459057338 -0.0869654301 0.1590183187
445297330.0 -0.0982361816 0.1435705794 0.332001996 -0.4498173323 0.3318718749 -0.4494646296 -0.0850422463 0.1602380292
450297300.0 -0.0968893905 0.1447684438 0.3267419906 -0.4531248217 0.3274036505 -0.4535853689 -0.0833087256 0.1616229978
455297270.0 -0.095861861 0.1457964436 0.3222119999 -0.4566249632 0.3223755427 -0.4565386293 -0.0813056067 0.162605287
460297240.0 -0.0946234191 0.1469464298 0.3171538939 -0.4603039856 0.3168114303 -0.4600127096 -0.0796148252 0.1641619476
465297210.0 -0.0925784767 0.1480811046 0.3122465549 -0.4635820562 0.3123577448 -0.4635195893 -0.0783476944 0.1647573006
470297180.0 -0.0914828056 0.1486948508 0.3068662741 -0.466700004 0.3072762398 -0.4671501486 -0.0769131884 0.1659411679
475297150.0 -0.0902068884 0.1496973325 0.3013250723 -0.4700823129 0.3016214506 -0.4700612124 -0.074627837 0.1671248963
480297120.0 -0.0885259656 0.1506258088 0.2969166877 -0.4732670853 0.2970656124 -0.4732707994 -0.0727998155 0.1682636004
485297090.0 -0.0869423014 0.151645056 0.2917570086 -0.4766047145 0.291752934 -0.4765382558 -0.0711622482 0.1688274743
490297060.0 -0.0854795733 0.1522938231 0.2866258072 -0.4794559069 0.2865524966 -0.4797366771 -0.0694749197 0.1701106008
495297030.0 -0.0844524746 0.1539246519 0.2810148817 -0.482744984 0.2806301332 -0.4829462506 -0.0672272946 0.170958687
500297000.0 -0.0825084202 0.1543879205 0.2758477395 -0.4859503033 0.2757171671 -0.4857030374 -0.0660126917 0.1720330099
505296970.0 -0.0812185203 0.1552548476 0.2700312648 -0.488511824 0.2702286621 -0.4888403653 -0.0640644198 0.1730707019
510296940.0 -0.0796543956 0.1565308517 0.2651902862 -0.4919243748 0.2650909745 -0.4916696862 -0.0620690115 0.1741457589
515296910.0 -0.0784241113 0.1573726634 0.2596044745 -0.4942811915 0.2598324327 -0.4944577644 -0.060178356 0.1748043477
520296880.0 -0.0764530418 0.1580690691 0.2541977932 -0.4973409441 0.2547785711 -0.4971458583 -0.0581577014 0.1754789485
525296850.0 -0.0751604691 0.1588764067 0.2489882347 -0.4998643565 0.2487592483 -0.5001021881 -0.0559123911 0.1764722372
530296820.0 -0.0737336107 0.1598989167 0.2435136385 -0.5018850594 0.2436911719 -0.5022779728 -0.0545779405 0.1769404228
535296790.0 -0.0719202405 0.1603123344 0.2377773571 -0.5048098564 0.2383137682 -0.5045703474 -0.0527290855 0.1774351665
540296760.0 -0.0704093335 0.161125991 0.2322444297 -0.5077034509 0.2321101445 -0.5076350193 -0.0513103465 0.1787896487
545296730.0 -0.0688860212 0.1623220213 0.2268255535 -0.5098507264 0.22680288 -0.5103286973 -0.0491780502 0.1792223778
550296700.0 -0.0676089905 0.1627307145 0.2213743078 -0.5124350179 0.2221334267 -0.5126541269 -0.0470625684 0.1801270092
555296670.0 -0.0654777519 0.1635983833 0.2159523022 -0.5150896641 0.2156229224 -0.5151319901 -0.0451458721 0.1807859856
560296640.0 -0.0643129807 0.1643952324 0.2104867147 -0.5171539737 0.2101426994 -0.5168521854 -0.043226186 0.181421919
565296610.0 -0.0629967881 0.165221929 0.2046611405 -0.5195612272 0.2047201534 -0.5193745585 -0.0416993636 0.1820908407
570296580.0 -0.0607328916 0.1658113286 0.1990170054 -0.5210792081 0.1992644828 -0.5216637846 -0.0394390932 0.1830102467
575296550.0 -0.0592374525 0.1669590031 0.1932295434 -0.5230539636 0.1936522071 -0.5236168054 -0.0370664924 0.1833459483
580296520.0 -0.0577713716 0.1675105436 0.1880116577 -0.5254735 0.1876912906 -0.525621888 -0.0353396098 0.1839349916
585296490.0 -0.055915892 0.1677905738 0.1821489524 -0.5275402622 0.1818880842 -0.5276350346 -0.0338920761 0.1841579346
590296460.0 -0.0547045367 0.1683860246 0.1761362697 -0.5294237608 0.175897377 -0.5295846954 -0.0313933306 0.1849972761
595296430.0 -0.0530638054 0.1695769935 0.1707262911 -0.5316663059 0.1703862802 -0.5313466799 -0.0293741151 0.1855981719
600296400.0 -0.0514172378 0.1702854673 0.1648287676 -0.5333376923 0.1652667749 -0.5332481321 -0.0275561365 0.1861466493
605296370.0 -0.0492306598 0.170820428 0.1588953171 -0.5352146351 0.1589139187 -0.5346587034 -0.0253348249 0.1863089567
610296340.0 -0.047975227 0.1714024097 0.1533836576 -0.5365825084 0.1534966617 -0.5367255351 -0.0233731673 0.1869706653
615296310.0 -0.0462625217 0.1721257155 0.1473421659 -0.537927962 0.1472140995 -0.5386205024 -0.0212067143 0.1874649854
620296280.0 -0.0445622299 0.172408979 0.1418263162 -0.539624434 0.1419031737 -0.5398744394 -0.0194703302 0.1873692703
625296250.0 -0.0427152264 0.1731010133 0.1350544741 -0.5415172505 0.1357341705 -0.5413035682 -0.017258246 0.1881798243
630296220.0 -0.0412055025 0.1736618649 0.1296734332 -0.5425902597 0.1303922417 -0.542540906 -0.0153823657 0.1884421864
635296190.0 -0.0394663281 0.1741699758 0.1237149631 -0.5435067471 0.1237957501 -0.5436222113 -0.013540254 0.1882200964
640296160.0 -0.0378813568 0.1745751267 0.1178988531 -0.545083726 0.1179108596 -0.5452290088 -0.0110045324 0.188851795
645296130.0 -0.0361458287 0.1753160572 0.1120435545 -0.5464823532 0.1124469623 -0.5465818995 -0.0099118666 0.188617328
650296100.0 -0.0345606345 0.1760487531 0.1065315473 -0.5472924967 0.1066146911 -0.5473972794 -0.0074932115 0.1892432557
655296070.0 -0.0328386859 0.1762132462 0.1000342304 -0.5485113571 0.1001248412 -0.5486951271 -0.0045738495 0.1897279409
660296040.0 -0.0313745911 0.1769670157 0.0944949814 -0.5492181124 0.0945351389 -0.5492015922 -0.0031788454 0.18938634
665296010.0 -0.0295289787 0.1771100379 0.0889817597 -0.5503483163 0.0889560689 -0.5504749847 -0.0012680309 0.1901013356
670295980.0 -0.0273949468 0.1777349893 0.082703552 -0.5513262814 0.0831485089 -0.5512318007 0.0004256569 0.1898673376
675295950.0 -0.0258586656 0.1779037214 0.0763990764 -0.5517495663 0.0770812179 -0.5524887504 0.0030806389 0.1903191376
680295920.0 -0.024057584 0.1785461894 0.0704669179 -0.5527603234 0.0704575431 -0.5532073159 0.0053260323 0.190138808
685295890.0 -0.0224310688 0.1791098161 0.0649479542 -0.55384344 0.0644673489 -0.5538290085 0.0072879837 0.1907693107
690295860.0 -0.0201048912 0.1794514254 0.0586381529 -0.5538812976 0.0584913643 -0.553922655 0.0094989531 0.1904349211
695295830.0 -0.0184799993 0.1794329504 0.0521536176 -0.5547355738 0.0525854543 -0.5550179586 0.0111514741 0.1907747516
700295800.0 -0.0166783664 0.1798880508 0.0464257595 -0.5552579662 0.0467543723 -0.5556387422 0.0131367853 0.1902598309
705295770.0 -0.0151081617 0.1804791455 0.0407218936 -0.5560987183 0.0410487267 -0.556125981 0.015259393 0.1907271417
710295740.0 -0.0132643498 0.1808010002 0.0348295801 -0.5561657073 0.0343887334 -0.5563698186 0.0167967706 0.1908726262
715295710.0 -0.0117058556 0.1809391075 0.0284605815 -0.5565457464 0.0288900924 -0.5566780274 0.0194223009 0.1901863876
720295680.0 -0.0096897184 0.1810565231 0.0225171091 -0.5566797898 0.0230086208 -0.5568864986 0.0218702407 0.190391048
725295650.0 -0.0076590589 0.1815688258 0.0162425849 -0.5564219569 0.0167087492 -0.5567897807 0.0236931484 0.190527449
730295620.0 -0.0065512306 0.181367392 0.0109085437 -0.5566926729 0.0104886156 -0.5570701507 0.0259782458 0.1900900054
735295590.0 -0.004373422 0.1818657276 0.0047719263 -0.5570499262 0.0050572465 -0.5571980429 0.02797527 0.1898959129
740295560.0 -0.0028254718 0.1821962803 -0.0011609355 -0.5567000262 -0.0012888291 -0.5568258651 0.0303349244 0.1896471892
745295530.0 -0.0010383072 0.1820357937 -0.0073586934 -0.5569601993 -0.0071909865 -0.5572704067 0.0318355937 0.1895188074
750295500.0 0.0006916956 0.1821815448 -0.0130997176 -0.556287671 -0.0132677002 -0.5564266478 0.0343807574 0.189097405
755295470.0 0.0030899881 0.1827667043 -0.0189202083 -0.5563728826 -0.0191825241 -0.5567771032 0.0358515914 0.1892901109
760295440.0 0.0046811021 0.1826002128 -0.0256365282 -0.5560321225 -0.0253707372 -0.5564933377 0.0380358434 0.1888944517
765295410.0 0.0062713016 0.1824694261 -0.0308537504 -0.5558361176 -0.0312418667 -0.5563358405 0.0405858364 0.1889633766
770295380.0 0.0081664194 0.1827765512 -0.037538539 -0.5550479882 -0.0371295475 -0.5558545074 0.042593239 0.1887089101
775295350.0 0.0099250208 0.1830725788 -0.0434080067 -0.5548456871 -0.0429449486 -0.5550257728 0.0440120051 0.1876868032
780295320.0 0.0119163526 0.182863209 -0.0492135179 -0.554149492 -0.0490654831 -0.5548437187 0.0465139348 0.1881203843
785295290.0 0.0135031467 0.1832324527 -0.0550079796 -0.5536241548 -0.0550686342 -0.5543291059 0.0480438552 0.1874786254
790295260.0 0.015189351 0.1831857275 -0.0611432334 -0.5535580777 -0.0610356746 -0.5534993272 0.0507232375 0.1869983896
795295230.0 0.0171661272 0.1832303423 -0.066551346 -0.5524205362 -0.0665557018 -0.5526838229 0.0524640448 0.1874115304
800295200.0 0.019176623 0.183270867 -0.0733958931 -0.5521226754 -0.0732527494 -0.5523054331 0.0546988195 0.1864996114
805295170.0 0.0204049048 0.1830880704 -0.0788904937 -0.5505806892 -0.0786057648 -0.5509839833 0.0564380217 0.1858186047
810295140.0 0.0225278052 0.1830780923 -0.0848819763 -0.5502460257 -0.0846549834 -0.5506036305 0.0587436091 0.1858114124
815295110.0 0.024393537 0.1832140981 -0.0909640792 -0.548843444 -0.0909714913 -0.5489790083 0.0603074522 0.1848824529
820295080.0 0.0263626185 0.1826165642 -0.096710724 -0.5477816818 -0.096951518 -0.5480710061 0.0623184281 0.1845434078
825295050.0 0.0281974663 0.1827212698 -0.1027750461 -0.5465759551 -0.1021653229 -0.5471198127 0.0646885894 0.1840095336
830295020.0 0.0298082884 0.1830909709 -0.1085062184 -0.5456915982 -0.1088312513 -0.5461243102 0.0663368353 0.1832516728
