!Created with skrf (http://scikit-rf.org).
# Hz S RI R 50.0 
!freq ReS11 ImS11 ReS21 ImS21 ReS12 ImS12 ReS22 ImS22
300000.0 -0.2352184422 -0.109286431 0.4653821827 0.0735082475 0.4718610013 0.0760607449 -0.2375988261 -0.1176664215
5299970.0 -0.2408863927 0.0069157967 0.4754143673 0.0056408634 0.4752487859 0.0057547964 -0.2448627917 0.0055129562
10299940.0 -0.2374800946 0.0199151509 0.4774323685 0.006233746 0.4769785655 0.0063791641 -0.2418222979 0.0174670972
15299910.0 -0.2328728583 0.0297250374 0.4805759735 0.0074269921 0.4804336382 0.0077044949 -0.2374237948 0.0265485186
20299880.0 -0.2276253972 0.0377835542 0.4853544196 0.0083067315 0.4856394519 0.0079971455 -0.2327907965 0.0340730153
25299850.0 -0.2218455705 0.0444220736 0.4905017823 0.0069594022 0.4908516927 0.0073871499 -0.2279756701 0.0397945785
30299820.0 -0.2157881983 0.0495230105 0.496165503 0.0049291975 0.4959809394 0.0049428984 -0.2227111755 0.0452330666
35299790.0 -0.209899762 0.0540449183 0.5015133971 0.0016868991 0.5012926302 0.0018699037 -0.2173187682 0.0485588012
40299760.0 -0.2046675002 0.0572532013 0.5064933886 -0.0021222636 0.5064909461 -0.0023698455 -0.2126609019 0.0522140563
45299730.0 -0.1995840788 0.0602155936 0.5110727248 -0.0074122835 0.5111673252 -0.0073363941 -0.2079598373 0.0543229135
50299700.0 -0.1946130005 0.0620148366 0.5148199209 -0.0124893171 0.5152324557 -0.012966545 -0.2036909566 0.0567092155
55299670.0 -0.190674296 0.063771639 0.5180785106 -0.0184770072 0.5190085018 -0.0185029649 -0.2000734379 0.0579231954
60299640.0 -0.1864995531 0.0648120131 0.5215263475 -0.0250128118 0.5221284648 -0.0246507181 -0.1963644042 0.0596035166
65299610.0 -0.183051756 0.0665220749 0.5250224529 -0.0305978688 0.52507839 -0.0310008095 -0.1928156137 0.0605430776
70299580.0 -0.1797664918 0.0671217826 0.5275509073 -0.0373869246 0.5272725687 -0.0375263877 -0.1900742338 0.0616419551
75299550.0 -0.1766062143 0.0680550577 0.5293888301 -0.0441724846 0.5291823148 -0.0446205277 -0.1871313809 0.0625306248
80299520.0 -0.1740768191 0.0690088021 0.5315450384 -0.0512850944 0.5312960197 -0.0514936832 -0.1848269448 0.062962441
85299490.0 -0.1715034357 0.0693990931 0.5325052483 -0.0580033613 0.5323887481 -0.0581206349 -0.1824044258 0.063646929
90299460.0 -0.1693183182 0.0702820186 0.5336562208 -0.0649277505 0.5338174552 -0.0653081617 -0.1802307323 0.0642848582
95299430.0 -0.1669207135 0.0712334603 0.5343419139 -0.0727812072 0.5344987639 -0.0719886077 -0.1784155141 0.0649312382
100299400.0 -0.1653632175 0.0717567012 0.5350210972 -0.0790789801 0.5347133759 -0.0788514195 -0.1769138823 0.0650677046
105299370.0 -0.163417677 0.0724373072 0.5351101725 -0.0856192343 0.5353297901 -0.0860778389 -0.1750069066 0.0664039672
110299340.0 -0.1616293273 0.0732445303 0.5347496246 -0.0924011301 0.5353074506 -0.0928898679 -0.1739623464 0.0671067144
115299310.0 -0.1603156077 0.0733908616 0.5350863978 -0.0991842017 0.5351832398 -0.0994427702 -0.1721497558 0.0673565894
120299280.0 -0.1591490149 0.0745064486 0.535061591 -0.1068152363 0.5350562925 -0.1062109793 -0.1712641025 0.0678627156
125299250.0 -0.1579599065 0.075027604 0.5346998959 -0.1125600187 0.5347480122 -0.1131320169 -0.169812541 0.0682992158
130299220.0 -0.1567478107 0.0762214428 0.5341290011 -0.1193878151 0.5338638252 -0.1196483789 -0.1688424063 0.0694321088
135299190.0 -0.1553474049 0.0767949222 0.5332994731 -0.1258260766 0.5328559468 -0.1263279737 -0.1679031027 0.0701859135
140299160.0 -0.154463795 0.0781690542 0.5323748263 -0.1328948069 0.5326948629 -0.1329753068 -0.1665547556 0.0710191416
145299130.0 -0.1531072272 0.0789170963 0.5319967108 -0.1396197484 0.5313892055 -0.1391520434 -0.166279583 0.0716122408
150299100.0 -0.1520016749 0.0799570415 0.5304159256 -0.146240042 0.5304210656 -0.1458182257 -0.1651130272 0.0724484405
155299070.0 -0.1513110161 0.0812245172 0.5293724443 -0.1528943889 0.529478331 -0.152946357 -0.1645860508 0.0737522475
160299040.0 -0.1501562349 0.082163339 0.5273295455 -0.1588405799 0.5277255409 -0.1590976146 -0.1634889659 0.0748822756
165299010.0 -0.1493521731 0.0831873051 0.5267559157 -0.1654288019 0.5265188223 -0.1654506035 -0.1628020255 0.075410093
170298980.0 -0.1485515967 0.0845504832 0.524274256 -0.1718598745 0.5248175475 -0.1719156734 -0.1618584336 0.0766097855
175298950.0 -0.1472958066 0.0856467056 0.5237914278 -0.1780994497 0.5235917419 -0.1781152307 -0.1609311602 0.0773415823
180298920.0 -0.1461314933 0.0868051966 0.5217783373 -0.1844400942 0.5214348693 -0.184058881 -0.1601082262 0.0789196936
185298890.0 -0.1454050985 0.0876857306 0.5191681547 -0.1904302513 0.5201264025 -0.1906035549 -0.1599950025 0.079669542
190298860.0 -0.144197744 0.0890977402 0.5175837416 -0.1969847496 0.5181705133 -0.197034052 -0.1586204239 0.0811157332
195298830.0 -0.1435075462 0.0902796906 0.5157441917 -0.2024480432 0.5159768588 -0.2031565373 -0.1580144425 0.0816749646
200298800.0 -0.1426673577 0.0917194066 0.5138608283 -0.2085072472 0.513653648 -0.2088067048 -0.1569762828 0.0832488733
205298770.0 -0.1415515099 0.0930804772 0.5118674027 -0.2148797128 0.5115368757 -0.2150691161 -0.1566170461 0.0839726633
210298740.0 -0.1409765769 0.0942321213 0.5096758574 -0.2215735658 0.5094033108 -0.2213786604 -0.1554057377 0.0856242537
215298710.0 -0.1397359674 0.0958403883 0.5071298473 -0.2266090452 0.5070713927 -0.2268880394 -0.1553447862 0.0866027792
220298680.0 -0.1388553661 0.0970637391 0.5043482668 -0.2327846553 0.5049170349 -0.2325917343 -0.1538967559 0.0883342355
225298650.0 -0.1374471403 0.0984887595 0.5017181225 -0.238162288 0.5020330328 -0.2383701087 -0.1534721646 0.0894111982
230298620.0 -0.1370493464 0.099940973 0.4998710123 -0.2444408802 0.5000285461 -0.2446789398 -0.1525317783 0.0907285062
235298590.0 -0.1359076003 0.1009768522 0.4969711771 -0.249602895 0.4971764204 -0.2503713947 -0.1518550191 0.091657689
240298560.0 -0.1351530753 0.1024135525 0.4944675195 -0.2555558109 0.4946042758 -0.2553429949 -0.1511250733 0.0932758307
245298530.0 -0.1334648361 0.1039283011 0.4906269128 -0.2616284518 0.4914172881 -0.2614029726 -0.1500560006 0.0946048108
250298500.0 -0.1328618043 0.1049610545 0.4886534402 -0.2665247626 0.4891724713 -0.2666229036 -0.1489488777 0.0957934174
255298470.0 -0.1318292004 0.1068622552 0.4854248649 -0.2729056687 0.4857338796 -0.2727522987 -0.1483527409 0.096912242
260298440.0 -0.1309268934 0.1083834623 0.4831588863 -0.2782507462 0.4829143693 -0.278301805 -0.1469755506 0.0984087615
265298410.0 -0.129315128 0.1099006536 0.4793766847 -0.2838467624 0.4796137647 -0.2838659316 -0.1466363221 0.0998461271
270298380.0 -0.1283038335 0.110985253 0.4761995057 -0.2891674636 0.4767823541 -0.2893742739 -0.1453235512 0.1010444498
275298350.0 -0.1276590736 0.1125569674 0.4738120018 -0.2948570694 0.4741389954 -0.2950741077 -0.1445871135 0.1026045262
280298320.0 -0.1263326318 0.1140954525 0.4702694601 -0.2997042222 0.4702740376 -0.3001077791 -0.1434064106 0.1039761042
285298290.0 -0.1248518612 0.1154274535 0.4669091386 -0.304797312 0.4672898624 -0.3053202163 -0.1428859064 0.1053584626
290298260.0 -0.1235698024 0.1169107751 0.4640640826 -0.310819701 0.4639420654 -0.3108073066 -0.1412405683 0.1068339084
295298230.0 -0.122441321 0.1182421226 0.4605887387 -0.3159322275 0.4604790222 -0.3158190997 -0.1405549048 0.1081076643
300298200.0 -0.1208649812 0.1193907374 0.4567964066 -0.3211647321 0.4570606462 -0.321177537 -0.1396441248 0.1094388577
305298170.0 -0.119699225 0.1209558837 0.453746259 -0.3265316307 0.4539214878 -0.3266232125 -0.1378458622 0.1109552533
310298140.0 -0.1180893502 0.121934822 0.4502021469 -0.3317464129 0.4499969943 -0.3321381871 -0.1369995821 0.112385483
315298110.0 -0.117088026 0.1232352912 0.4460785687 -0.3366052183 0.4468733234 -0.3370411862 -0.1360326591 0.1136316086
320298080.0 -0.1158069971 0.1245502478 0.4424912543 -0.3420267755 0.4428987804 -0.3419949693 -0.1349902525 0.1147712112
325298050.0 -0.1145729932 0.1256690127 0.4390742268 -0.3473137515 0.4389614259 -0.3475217641 -0.1338740342 0.1160385704
330298020.0 -0.1136617271 0.1270687836 0.4345490024 -0.35206814 0.4350106097 -0.3521685004 -0.1333062182 0.117063147
335297990.0 -0.112252999 0.1283421411 0.4307984114 -0.3570568307 0.4308260784 -0.3569079776 -0.1321780336 0.1184567294
340297960.0 -0.1114554229 0.1299535641 0.4265605407 -0.3618581514 0.4269285169 -0.3612424936 -0.131161266 0.1198542865
345297930.0 -0.1101061504 0.1310671429 0.422586914 -0.3659694811 0.4220751382 -0.3664294805 -0.1298765488 0.1213020421
350297900.0 -0.1082781251 0.1327192326 0.4181798556 -0.3707936342 0.4184530204 -0.37092956 -0.1290769056 0.1228197044
355297870.0 -0.1070911783 0.1337560128 0.4139879767 -0.3754164279 0.4141208642 -0.3757507604 -0.1280487732 0.124342699
360297840.0 -0.1055452488 0.1351651181 0.4101271022 -0.3801755055 0.4101049797 -0.3801478342 -0.1265774488 0.125928895
365297810.0 -0.1041206754 0.1364768058 0.40542722 -0.3845514841 0.4058223207 -0.3844976662 -0.1256795207 0.1272340669
370297780.0 -0.1024133681 0.1378195178 0.4012400885 -0.3890550131 0.4017777974 -0.3894576334 -0.1243083717 0.1288866392
375297750.0 -0.1012187304 0.1391860842 0.3978124371 -0.3933876538 0.3972901756 -0.3937440506 -0.1231607055 0.1303887121
380297720.0 -0.0994290406 0.1402086832 0.3931528616 -0.397604349 0.3930499584 -0.3979079774 -0.1219238504 0.131952651
385297690.0 -0.0977706937 0.1415579889 0.3881659171 -0.4015678356 0.3886041728 -0.4018700797 -0.1207137647 0.1331262781
390297660.0 -0.0965824751 0.1428295081 0.3841466419 -0.4061998393 0.3843981009 -0.4064782695 -0.119278389 0.1339728408
395297630.0 -0.0947336887 0.1440421917 0.3797498908 -0.4097090308 0.3794343384 -0.4104112273 -0.1180457585 0.1360506256
400297600.0 -0.0934358621 0.1453556712 0.3747131076 -0.414741454 0.375360542 -0.4147246602 -0.1172971932 0.1369347014
405297570.0 -0.0916527811 0.1466556796 0.3706618769 -0.418748883 0.3707824398 -0.4189635426 -0.1158152518 0.1384990326
410297540.0 -0.0900477328 0.1477223983 0.3654385326 -0.4226954305 0.3657900906 -0.4226075546 -0.114663033 0.1396177739
415297510.0 -0.0884219366 0.1489384287 0.3614166655 -0.4266710667 0.3613622466 -0.4266669992 -0.1131401302 0.1414898605
420297480.0 -0.0868581492 0.1495661585 0.3565549116 -0.4307342757 0.3569040058 -0.4306071329 -0.1116735439 0.1422201916
425297450.0 -0.0851028942 0.1507868767 0.3518195816 -0.4343845617 0.352191146 -0.4346752769 -0.1101878697 0.1439948532
430297420.0 -0.0835157419 0.1522414373 0.3472500511 -0.4387164689 0.3471641944 -0.4382470345 -0.1092648411 0.1446407294
435297390.0 -0.0815867581 0.1528434458 0.3420932367 -0.4418945554 0.3426684481 -0.441853616 -0.1077583703 0.1463908558
440297360.0 -0.0797370014 0.1539381059 0.3374572002 -0.4454345267 0.3367378164 -0.445824634 -0.1064021435 0.1473389815
445297330.0 -0.0778999672 0.1551758986 0.3319741028 -0.4497436188 0.3326760607 -0.4493652163 -0.1048584316 0.1484124113
450297300.0 -0.0763458617 0.1562458142 0.3272481222 -0.4527583883 0.3278004094 -0.4533450307 -0.10372455 0.149877763
455297270.0 -0.0748981932 0.1572334635 0.3226073388 -0.4563993119 0.3231670648 -0.456453076 -0.1020688239 0.1513971349
460297240.0 -0.0732606053 0.1581041735 0.317381321 -0.4598376565 0.3172082398 -0.460276247 -0.1004740169 0.1528945392
465297210.0 -0.0710477136 0.1590941457 0.3126231162 -0.4634919915 0.3129790105 -0.4636413544 -0.0996375519 0.1536565275
470297180.0 -0.0694843678 0.1599858988 0.3076920126 -0.4667507457 0.3082775844 -0.4671530163 -0.0981350948 0.1546381952
475297150.0 -0.0678537201 0.1606063755 0.3022871488 -0.4698461478 0.3024466168 -0.4698998141 -0.0963143975 0.155759187
480297120.0 -0.0658658033 0.1613695865 0.2973221703 -0.4733101271 0.2974275949 -0.473335851 -0.0952445639 0.1575921831
485297090.0 -0.0640586666 0.1622624039 0.292401861 -0.4762573287 0.29218806 -0.4765985563 -0.093935316 0.1582096094
490297060.0 -0.0622757403 0.1628496209 0.2872404685 -0.4794615155 0.2870325525 -0.4797518634 -0.0922578694 0.1593237293
495297030.0 -0.0606031498 0.1640326992 0.2813944844 -0.482483764 0.2812404302 -0.4827266051 -0.0907255522 0.1601121296
500297000.0 -0.0586357769 0.1645816387 0.2760296234 -0.4856915963 0.2765903483 -0.4857552889 -0.0892893726 0.1614210248
505296970.0 -0.056966405 0.1652248337 0.2705298842 -0.4876673473 0.2711291633 -0.4885537006 -0.0883626585 0.1625466105
510296940.0 -0.0549525804 0.1663926514 0.2657190407 -0.4917028814 0.2658193159 -0.4915744952 -0.0862150567 0.1638330113
515296910.0 -0.0534695338 0.1674009225 0.2599467286 -0.493841952 0.2603711122 -0.4943736236 -0.0849428873 0.164714472
520296880.0 -0.0515112996 0.1675638945 0.2550013685 -0.4970805953 0.2553144621 -0.497136719 -0.08328557 0.1658861743
525296850.0 -0.0496029227 0.1684019362 0.2494403846 -0.49986333 0.2494381849 -0.5000501174 -0.0812122925 0.1666181928
530296820.0 -0.0477134392 0.1691038119 0.2444068121 -0.5016223286 0.2440900942 -0.5022795087 -0.0803811105 0.1673274557
535296790.0 -0.0456381153 0.1697621625 0.2387998429 -0.5047942062 0.2389058969 -0.504812754 -0.0784865195 0.1682431803
540296760.0 -0.0438284442 0.1699277254 0.2329916843 -0.507300543 0.2330178695 -0.5076585209 -0.0775466441 0.1694357307
545296730.0 -0.0417930512 0.1711515782 0.227229735 -0.5098111966 0.2275212535 -0.5100009417 -0.0755686604 0.1701345322
550296700.0 -0.0402645689 0.1714579454 0.2219639925 -0.5119834133 0.2227992524 -0.5126817367 -0.0742237385 0.1713436861
555296670.0 -0.0378489696 0.1720222448 0.2162000548 -0.5147959024 0.2164312547 -0.5148718585 -0.0725353453 0.1723568247
560296640.0 -0.0362035128 0.1726074414 0.2110188327 -0.5172323314 0.2113129495 -0.5167847947 -0.0706186598 0.173179882
565296610.0 -0.0346318945 0.1729340565 0.2053822015 -0.518801614 0.2051966675 -0.5194451338 -0.0693825306 0.1736393938
570296580.0 -0.0321024212 0.1735729518 0.1992326257 -0.5213467948 0.2001895808 -0.5214368219 -0.0674699898 0.1747503413
575296550.0 -0.0306354565 0.1743726718 0.1939308532 -0.5233548285 0.1944770187 -0.5233743778 -0.0655903972 0.1753096105
580296520.0 -0.028291509 0.1744615639 0.1883494971 -0.5254931225 0.1883214183 -0.5256942744 -0.0642725262 0.176053441
585296490.0 -0.0263642463 0.1747642753 0.1830238274 -0.5275714509 0.1824882192 -0.5275273075 -0.0627365838 0.1765166333
590296460.0 -0.0247843092 0.1752076803 0.1765798647 -0.5292833039 0.1766491774 -0.5296217033 -0.0608394221 0.1777983248
595296430.0 -0.0225676367 0.1759321876 0.1711886257 -0.5314974818 0.1707575562 -0.5314647397 -0.058881867 0.1785007919
600296400.0 -0.0209046779 0.1765144407 0.1654138593 -0.5329917083 0.1654769272 -0.5331808546 -0.0572517263 0.17938649
605296370.0 -0.0186513087 0.1770231792 0.1598206663 -0.5348928783 0.1602041206 -0.534660751 -0.0557736084 0.1798092997
610296340.0 -0.0170681981 0.1771888634 0.1543473498 -0.5361979825 0.1539282872 -0.5366474243 -0.0539245108 0.1809003269
615296310.0 -0.0146942346 0.1775124404 0.1479902323 -0.538161565 0.148292454 -0.538159945 -0.0526179556 0.1812766302
620296280.0 -0.0129489991 0.1776281651 0.1426462432 -0.5396242081 0.1424941953 -0.5396730385 -0.0502992424 0.1815981898
625296250.0 -0.0106921957 0.1779605466 0.1358415366 -0.541058911 0.1362574087 -0.5411650224 -0.048741601 0.1826096765
630296220.0 -0.0087671958 0.1781210592 0.1302248249 -0.5424690301 0.1312622287 -0.542332004 -0.0476248533 0.1831734744
635296190.0 -0.0068760528 0.1784966609 0.1243665561 -0.5434041393 0.1245399875 -0.5434937601 -0.0455236056 0.1834329314
640296160.0 -0.0050974791 0.1788994726 0.1191590399 -0.5446299921 0.1188325278 -0.5450451476 -0.0434221985 0.184190107
645296130.0 -0.0027581549 0.1791561318 0.1131248674 -0.5466477995 0.1135182248 -0.5460312835 -0.0425298875 0.1844588706
650296100.0 -0.0010748999 0.1795098059 0.1072458853 -0.547660577 0.1073076079 -0.5471304616 -0.0405089501 0.1854366192
655296070.0 0.0010608293 0.179270088 0.1011043535 -0.5485861673 0.1009354216 -0.5486076936 -0.0379820648 0.1859680636
660296040.0 0.0026094625 0.1797057229 0.0954318432 -0.5490941259 0.0954346967 -0.5493646901 -0.0366877483 0.1862017465
665296010.0 0.0051301277 0.1794416845 0.0893650596 -0.550519506 0.0901322868 -0.5502321173 -0.0354093117 0.1868573034
670295980.0 0.0072627614 0.179826546 0.0834159841 -0.5512143194 0.0839664911 -0.5515036899 -0.0334444981 0.1872096713
675295950.0 0.0091333817 0.1797736671 0.0772851376 -0.55201746 0.0778256387 -0.5528599383 -0.0314653696 0.1881066527
680295920.0 0.0112190226 0.1800757902 0.0712623203 -0.5533934677 0.0713725078 -0.5533112244 -0.0296333882 0.1882098102
685295890.0 0.013194877 0.1801735091 0.0656366706 -0.5538932534 0.0654452427 -0.5539724605 -0.0276293663 0.1886577715
690295860.0 0.0155816535 0.1799468354 0.0589743619 -0.5538833107 0.0593266218 -0.5543183396 -0.0259418639 0.1894971297
695295830.0 0.0175886708 0.179532469 0.0529213159 -0.5546316312 0.0531344357 -0.5549856067 -0.0244438821 0.1900547481
700295800.0 0.0195644111 0.179870268 0.0472809706 -0.5555854786 0.0472945799 -0.5555266289 -0.0222260713 0.1899087391
705295770.0 0.0215176714 0.1799076319 0.0415705361 -0.5560174147 0.0419939832 -0.5561456922 -0.0206002397 0.1902534588
710295740.0 0.0234679737 0.1799572081 0.0350329795 -0.5562850939 0.0355636894 -0.5563206525 -0.0193960643 0.191069848
715295710.0 0.0253807627 0.1797010657 0.029655173 -0.5565491896 0.0300556399 -0.5566639539 -0.0172060488 0.1907434061
720295680.0 0.0272460757 0.1793251473 0.0233354905 -0.5565992483 0.0238634731 -0.5571848138 -0.0149731737 0.1915242076
725295650.0 0.0295674441 0.1794388293 0.0171764827 -0.5567318713 0.0175270683 -0.5572281767 -0.01346842 0.1918698574
730295620.0 0.0312270139 0.1789376271 0.0114764126 -0.5571067726 0.0114282298 -0.5571072431 -0.0113082031 0.191485198
735295590.0 0.0336818259 0.178773719 0.0056950053 -0.5573719561 0.0057448424 -0.5571863324 -0.009498224 0.1920372705
740295560.0 0.035429825 0.178865868 -0.0006035811 -0.5567048165 -0.0003275557 -0.5569860608 -0.0074293481 0.1921020699
745295530.0 0.0374077277 0.1784751715 -0.006397064 -0.556813487 -0.0060807187 -0.55759862 -0.0060091103 0.1926215477
750295500.0 0.0396201312 0.1778824963 -0.0123322792 -0.5563068148 -0.0121593804 -0.5569056334 -0.0038007691 0.1924046316
755295470.0 0.0418689589 0.1781274552 -0.018460524 -0.5568407506 -0.0180544842 -0.5570004661 -0.0025537401 0.192801893
760295440.0 0.0434002915 0.1779313808 -0.0243417813 -0.5563182998 -0.0240740554 -0.5566576694 -0.0009415435 0.1930272325
765295410.0 0.0452548763 0.1771748111 -0.0303243903 -0.555760598 -0.0301389405 -0.5562740331 0.0022070183 0.1933033952
770295380.0 0.0474737331 0.1769405904 -0.0363056774 -0.5553534395 -0.0367159999 -0.5561672212 0.0036580798 0.1935834223
775295350.0 0.0495208064 0.1766815395 -0.0422640546 -0.5548512139 -0.0421888089 -0.5554101391 0.0050601126 0.1931995468
780295320.0 0.0513616302 0.1760248716 -0.0482538476 -0.5545500894 -0.0480483423 -0.5547145016 0.007107339 0.1939137591
785295290.0 0.0532943866 0.1763510219 -0.0541155484 -0.5536936095 -0.0541224727 -0.5543878763 0.0086484363 0.1937652606
790295260.0 0.0555379389 0.175290447 -0.0602916869 -0.5535618542 -0.0601921275 -0.5542720521 0.011248971 0.1940357204
795295230.0 0.0571365994 0.1753285937 -0.0658812453 -0.5527840696 -0.0656459258 -0.5530834603 0.0125667124 0.1943643001
800295200.0 0.0593479196 0.174709523 -0.0725085259 -0.5522376346 -0.0724656578 -0.5521050358 0.0146690561 0.1939683301
805295170.0 0.0609792081 0.1741615302 -0.0777942945 -0.5505787519 -0.0779236712 -0.5512636484 0.0162211767 0.1939927184
810295140.0 0.0630531471 0.1735184889 -0.0835522038 -0.5500341445 -0.0835900484 -0.5511743125 0.0183401492 0.194168104
815295110.0 0.0651130932 0.1731965089 -0.0902064803 -0.5493520826 -0.089782537 -0.5497634668 0.0200096635 0.1938892902
820295080.0 0.0670263207 0.1719907402 -0.0956721371 -0.5483423004 -0.0956043574 -0.5487119433 0.0215720619 0.1939323543
825295050.0 0.0693071765 0.1715320077 -0.1018687684 -0.546808343 -0.1014112149 -0.5473264721 0.0239819373 0.194065848
830295020.0 0.0709688516 0.1714819841 -0.1078087687 -0.5460199058 -0.1075383284 -0.5463853978 0.025641241 0.1935688172
