!Created with skrf (http://scikit-rf.org).
# Hz S RI R 50.0 
!freq ReS11 ImS11 ReS21 ImS21 ReS12 ImS12 ReS22 ImS22
300000.0 -0.2133497588 -0.061924303 -0.0007314997 0.0004354895 0.0023755883 0.0017601762 -0.77184442 -0.1402361717
5299970.0 -0.2170266261 0.008146851 0.0001197335 0.000346624 -0.000104462 0.0001774873 -0.7846351598 -0.0077084943
10299940.0 -0.2131451258 0.0193866193 -0.0001381777 0.0001432513 0.0001462389 -0.0001180189 -0.7877429851 -0.0037319172
15299910.0 -0.2088718854 0.0285565369 -7.34204e-05 -3.1491e-06 0.0002120596 -3.16659e-05 -0.7929583981 -0.0015903581
20299880.0 -0.2036066465 0.0358579015 5.1012e-05 -0.0001363711 -3.862e-06 -8.55104e-05 -0.799885837 0.0026241804
25299850.0 -0.1976424755 0.0422466601 0.0001201541 0.0001607408 -4.2973e-05 0.0001488948 -0.8060706239 0.0082137645
30299820.0 -0.1918951224 0.0466126198 0.0001403005 -1.29726e-05 -8.5226e-06 9.79325e-05 -0.8116548896 0.016650059
35299790.0 -0.1864002803 0.0505320673 -1.556e-05 1.57137e-05 -0.0001148179 -4.00219e-05 -0.816597986 0.0250655193
40299760.0 -0.1807434185 0.0534152083 0.0001628959 -0.0001562629 -9.48702e-05 7.36178e-05 -0.8210966509 0.0346506912
45299730.0 -0.1755855416 0.055474086 8.59748e-05 -0.0001334488 4.43867e-05 0.0001278536 -0.8249402761 0.0438809603
50299700.0 -0.171010355 0.0570168003 0.0001750239 0.0002051169 -3.51998e-05 9.429e-05 -0.8272360035 0.0542643051
55299670.0 -0.1664823395 0.0579215516 1.18925e-05 9.00079e-05 4.4506e-06 -0.0001555447 -0.8295391238 0.0645302661
60299640.0 -0.16249166 0.0590567766 -0.0001097206 -8.77047e-05 -2.04196e-05 3.46389e-05 -0.8302914885 0.0741952528
65299610.0 -0.1587617823 0.0593112218 1.2755e-05 5.50845e-05 -9.18856e-05 -2.92882e-05 -0.8320089558 0.0842703561
70299580.0 -0.1559728893 0.0598986316 -0.000113597 0.000186363 0.0001800406 -7.689e-06 -0.8320355739 0.0950076193
75299550.0 -0.1526539999 0.0597524989 -6.45467e-05 0.0002267858 0.0002222946 -6.16671e-05 -0.8324050761 0.1040284449
80299520.0 -0.1499445201 0.0601581874 -0.0001624656 -0.0001846365 -0.0002353831 2.71993e-05 -0.8319241375 0.1139896785
85299490.0 -0.1476148293 0.0597738053 0.0001285127 -0.0001552597 -7.72964e-05 2.39964e-05 -0.8313489307 0.1236734299
90299460.0 -0.1454242637 0.060012231 -0.0001421785 0.0001993128 7.84548e-05 -0.0001988783 -0.830613565 0.1332197237
95299430.0 -0.1432980221 0.0597038751 1.45252e-05 5.85374e-05 -6.88451e-05 -1.04561e-05 -0.8289789939 0.1432118421
100299400.0 -0.1416686672 0.0599391674 6.33007e-05 -2.10465e-05 -0.0001649584 -5.23217e-05 -0.828773102 0.1523258689
105299370.0 -0.140000956 0.059996331 -2.24577e-05 -1.3814e-05 -0.0001321677 0.00014969 -0.8267832807 0.1610988988
110299340.0 -0.138228365 0.0598920719 0.0001774659 -9.17405e-05 0.0003557352 0.0001878042 -0.8257731078 0.1705595376
115299310.0 -0.1371156425 0.0598856035 0.0001913623 0.0002283893 -5.29111e-05 -6.15209e-05 -0.8239784644 0.1795867181
120299280.0 -0.1360110403 0.0597892002 -5.95207e-05 0.0004780793 0.0001205811 7.90007e-05 -0.8223463612 0.1885912816
125299250.0 -0.1349106136 0.0599649691 6.09339e-05 0.0001424412 4.36536e-05 0.000103347 -0.8205957304 0.1981409821
130299220.0 -0.1344073319 0.0603757761 0.0001551433 0.0001855289 1.8981e-06 -7.44691e-05 -0.8190001035 0.2067277763
135299190.0 -0.1331909851 0.0606430244 8.81348e-05 -8.60572e-05 -0.000125559 0.0002373765 -0.8164017692 0.2156367058
140299160.0 -0.132456592 0.0609175544 -7.40341e-05 -1.17564e-05 -6.56637e-05 -6.64876e-05 -0.8141342868 0.2249960436
145299130.0 -0.1314544075 0.0610553397 0.0001457514 2.51945e-05 0.000253075 -0.0001106733 -0.8121946571 0.2344807438
150299100.0 -0.1305083601 0.0614337212 0.0001665181 3.33567e-05 3.2137e-05 5.59725e-05 -0.810358732 0.2429445493
155299070.0 -0.1303158779 0.0619349774 9.15278e-05 -0.000151887 -5.089e-06 -0.0001935773 -0.8071117226 0.2513530369
160299040.0 -0.1297234309 0.0624826395 6.43113e-05 0.0001697314 0.0001695695 6.10913e-05 -0.8047079604 0.2604508082
165299010.0 -0.1289344854 0.062906079 -0.0001204958 2.49725e-05 -0.0001024944 9.58797e-05 -0.8021903272 0.2694581618
170298980.0 -0.1285875721 0.0632397849 1.57584e-05 1.35492e-05 9.3698e-05 1.33237e-05 -0.7992636359 0.277831137
175298950.0 -0.1278426008 0.0642251251 4.59381e-05 0.0002636918 -4.22407e-05 0.000110948 -0.7969198004 0.286568527
180298920.0 -0.1274563703 0.0647205725 -9.45647e-05 0.0002404493 0.0002672189 0.0001188324 -0.7937456944 0.294992183
185298890.0 -0.1264826613 0.0651106956 0.0001996426 -0.0001300404 4.22081e-05 2.083e-07 -0.7897472309 0.303827374
190298860.0 -0.1261445143 0.0661594761 0.0002296528 -9.2866e-06 7.03442e-05 -0.0001061933 -0.7875702753 0.312093043
195298830.0 -0.1261273474 0.066655256 0.0002002451 1.633e-06 9.00212e-05 0.0002277087 -0.7844715262 0.3209879198
200298800.0 -0.125458191 0.0675863169 5.45214e-05 8.24904e-05 0.0001569102 0.0001941112 -0.781600201 0.3293087953
205298770.0 -0.124693293 0.0681620001 0.0001524502 -3.18923e-05 -5.46234e-05 0.0001122286 -0.7776226811 0.3374785559
210298740.0 -0.1245431492 0.0687355333 -2.029e-07 -2.6581e-05 0.0002294125 -0.0001198402 -0.7744487697 0.3460920533
215298710.0 -0.1242238085 0.0696582804 0.0001491926 0.0001744282 0.0001715077 0.0002210685 -0.771349225 0.3536966875
220298680.0 -0.1237790507 0.070433343 0.0002850124 0.0001219683 0.0001530324 -7.9469e-06 -0.7674791885 0.3619952323
225298650.0 -0.1233251087 0.0714073312 0.0001130545 0.0003003846 0.000151764 0.0001636429 -0.7637970081 0.37008257
230298620.0 -0.1228072333 0.0724280814 0.0001997181 0.0001357217 0.0001196249 0.0001877937 -0.7595798028 0.3785736164
235298590.0 -0.1222293215 0.0732584584 9.20738e-05 7.69499e-05 0.0003007772 -1.37397e-05 -0.7557441985 0.3868277367
240298560.0 -0.1218000204 0.0739741038 -0.000207605 -3.42308e-05 5.1755e-06 -8.05133e-05 -0.7515423273 0.3950426883
245298530.0 -0.1212752563 0.0749501026 4.67954e-05 6.76731e-05 0.0001873615 6.33771e-05 -0.7474980905 0.4021846547
250298500.0 -0.1205512508 0.0758826895 0.0001710874 0.0001215355 2.95402e-05 4.4589e-06 -0.7436544172 0.4103441125
255298470.0 -0.1205937388 0.0764341921 -0.0001665982 5.1272e-05 0.0001171543 5.5485e-05 -0.7389963009 0.4179420438
260298440.0 -0.1200016305 0.0776346218 0.0001316638 0.0001627841 0.0001837131 0.000113775 -0.7344834257 0.4259334185
265298410.0 -0.1195718724 0.0792714178 2.68839e-05 0.0001374413 0.0001543528 -2.44941e-05 -0.7300231272 0.4332973926
270298380.0 -0.118998855 0.0797879548 3.40119e-05 -7.35169e-05 3.4238e-06 1.79607e-05 -0.7255226878 0.4407251182
275298350.0 -0.1185621643 0.0809409972 0.00014317 -5.1849e-05 0.0001899051 5.57371e-05 -0.7211596062 0.448475807
280298320.0 -0.1176992357 0.0818094626 0.0003041461 3.60895e-05 0.0001571068 0.00015224 -0.716074615 0.4557802047
285298290.0 -0.1169859974 0.0829325763 -7.3904e-05 0.0001122816 7.70375e-05 0.0002187671 -0.7106779937 0.4639260634
290298260.0 -0.116487475 0.0838737166 -0.0003636628 0.0001376675 -1.70002e-05 0.0001814278 -0.7062760269 0.4709234764
295298230.0 -0.115708409 0.084698199 0.0003126899 0.0001839831 7.24677e-05 6.7503e-06 -0.701133544 0.478142068
300298200.0 -0.1151449816 0.0858227792 -0.0001068189 0.0001868699 0.0001428793 5.48736e-05 -0.6959381548 0.4850421701
305298170.0 -0.1145899357 0.0868600424 5.3264e-05 -0.0001386164 2.26865e-05 0.0001667875 -0.6900903584 0.4927924066
310298140.0 -0.113979474 0.0879379241 3.0983e-05 0.0002270938 0.0001276514 0.000110651 -0.6854423237 0.4999351018
315298110.0 -0.113363994 0.0888777192 0.0001538309 0.0002510113 0.0001385015 0.0001896652 -0.6799175873 0.506480659
320298080.0 -0.1126362494 0.08944781 -0.0001068162 -5.62138e-05 4.94787e-05 7.66522e-05 -0.6746846558 0.5142767334
325298050.0 -0.1119178766 0.0909085464 0.0002263724 2.94611e-05 0.0001784576 3.64042e-05 -0.668425793 0.5210588481
330298020.0 -0.1114293505 0.0913587254 0.0001106016 -1.56543e-05 2.9793e-05 -4.7092e-05 -0.6634819809 0.5287246008
335297990.0 -0.1107052846 0.0925970593 0.0001919757 0.0001465522 2.29403e-05 9.6373e-06 -0.6585816052 0.535085814
340297960.0 -0.1106474243 0.0937669632 -2.84285e-05 0.0002092697 0.0001591234 -0.0001007943 -0.6523400455 0.5418927587
345297930.0 -0.1098884324 0.0948526035 0.0001248793 -0.0001749677 2.44221e-05 8.91635e-05 -0.6467335454 0.5484042352
350297900.0 -0.1093759267 0.0961971929 8.15029e-05 -1.33328e-05 -4.3387e-06 0.0002110696 -0.641684051 0.5555944288
355297870.0 -0.1083223644 0.097126847 -6.90504e-05 0.0002522099 0.000153768 -6.76269e-05 -0.6359036 0.5619256659
360297840.0 -0.1079417729 0.0982499313 0.0001906018 0.0001388278 -0.0001180102 -1.50346e-05 -0.6293720597 0.5688708886
365297810.0 -0.1070101759 0.0997662562 4.98794e-05 0.0001129214 0.0001318193 0.0001228778 -0.6233577677 0.575175838
370297780.0 -0.106164986 0.1005054038 0.0002580904 5.8325e-06 6.984e-07 3.21402e-05 -0.6175836408 0.5816962671
375297750.0 -0.1053810441 0.1016478503 0.0001059358 0.0001226616 0.0001072136 0.0002024573 -0.6118268103 0.5879193378
380297720.0 -0.1048123441 0.102742832 -3.83442e-05 -4.10503e-05 3.5967e-05 -4.80501e-05 -0.605518319 0.5939150526
385297690.0 -0.1042684723 0.1040797026 0.0003714889 -5.85567e-05 1.79029e-05 0.0001576148 -0.5992843067 0.6005742822
390297660.0 -0.1035520131 0.105172889 0.0001623264 0.000102346 -0.0001498008 -5.91247e-05 -0.5935348079 0.6067361261
395297630.0 -0.102287573 0.106172425 -1.8523e-05 -4.80013e-05 0.0001508835 8.35444e-05 -0.5862403329 0.6127776213
400297600.0 -0.1014204305 0.1073019412 0.0001060519 6.904e-05 3.46725e-05 -4.00648e-05 -0.5808517737 0.6189046114
405297570.0 -0.1010850937 0.1083495432 -0.0001565616 0.0003358556 0.0003700504 -4.64871e-05 -0.5736124936 0.6242971535
410297540.0 -0.1000072201 0.1092591258 8.47301e-05 4.2405e-06 0.0002183263 0.0001444134 -0.5676644815 0.6305449586
415297510.0 -0.0988272614 0.1102158152 -7.78447e-05 -0.0001199481 0.0002145482 -0.0001597064 -0.5617330891 0.6364187285
420297480.0 -0.0984370487 0.1114831365 0.0001440433 0.0001643841 0.000148189 0.0001145103 -0.554584546 0.6426073636
425297450.0 -0.0972517898 0.1126445855 0.000181196 7.6139e-05 0.0001458945 0.0001742182 -0.5476034418 0.6477802399
430297420.0 -0.0961593669 0.1134316165 4.39536e-05 0.0001652371 0.0001304528 0.0002283919 -0.5410425458 0.6526008106
435297390.0 -0.0955416739 0.1145530396 0.00013116 8.252e-05 0.0001001442 0.0002879265 -0.5342086992 0.6583793717
440297360.0 -0.0946407984 0.1156179598 0.0002921403 0.0001595697 0.0003462172 0.0001630693 -0.5274119959 0.6634255054
445297330.0 -0.0934090705 0.1166895129 0.0002373829 -9.23255e-05 -8.9441e-06 0.0001430159 -0.5204493981 0.6686401604
450297300.0 -0.0926590021 0.1173936023 -5.5286e-06 7.91812e-05 0.0004725551 0.0002023517 -0.5131545587 0.674164584
455297270.0 -0.0915263899 0.1186090734 0.0002545574 1.53899e-05 0.0002633807 0.0001149498 -0.5063347769 0.6783120084
460297240.0 -0.0909422884 0.1196163297 9.57916e-05 -2.07068e-05 0.0001993614 0.0001249188 -0.5000711858 0.6836875004
465297210.0 -0.0896185623 0.1207598151 0.0002561064 7.39234e-05 0.0003259917 8.12014e-05 -0.4917270428 0.6888369341
470297180.0 -0.0884565 0.1216654647 0.0001631499 0.0002389922 5.33874e-05 0.0001238558 -0.4851798876 0.6942132613
475297150.0 -0.0874158426 0.1224859604 0.0002237846 0.0001042546 0.0001546704 0.0003181597 -0.4778926448 0.698547226
480297120.0 -0.0864330285 0.123634523 0.0001719012 0.0001616793 0.0002779655 5.42679e-05 -0.4700894584 0.7037311102
485297090.0 -0.085066494 0.1247691962 4.7999e-05 6.27114e-05 0.0001006434 -0.0001131184 -0.4631066842 0.7078209787
490297060.0 -0.0845020352 0.1257830887 -1.32175e-05 -5.6403e-05 0.0001925155 0.0001023798 -0.4560645203 0.7123185043
495297030.0 -0.083364587 0.1266839742 0.0003601318 -5.95796e-05 7.8289e-05 -7.00532e-05 -0.4491337479 0.7180441218
500297000.0 -0.0819595726 0.1274892537 0.0001767897 -0.0001337349 0.0002592008 -0.0001241634 -0.4405147798 0.7221693775
505296970.0 -0.0808970566 0.1284463351 0.0002446122 6.5585e-05 0.0001578232 0.0001967186 -0.4335254404 0.7264711151
510296940.0 -0.0797888746 0.129334994 0.0003999214 7.08097e-05 0.0001084622 -0.0001605825 -0.4263739097 0.7305155084
515296910.0 -0.0783615145 0.1300251146 8.1218e-05 0.0001738774 7.0752e-06 9.7366e-06 -0.4186181428 0.7351078082
520296880.0 -0.0777876152 0.1313281699 0.0003177112 -5.23362e-05 0.0002451993 7.3502e-06 -0.4113461231 0.7385994418
525296850.0 -0.0762952748 0.1316980756 0.0001215132 -6.02484e-05 0.0002364269 -0.0001048237 -0.4039189135 0.7439986784
530296820.0 -0.0752905586 0.1328765859 5.97018e-05 -5.42519e-05 0.0001345932 9.47128e-05 -0.3966206259 0.7472952755
535296790.0 -0.07411808 0.1339976286 0.0001575192 0.0001328211 0.000323871 0.0001340115 -0.3893186176 0.7510995961
540296760.0 -0.0729433006 0.1348910293 0.0002907433 0.0001160214 0.0002046984 9.57576e-05 -0.3810526943 0.7555358225
545296730.0 -0.0719114619 0.1355204856 0.0001090737 -0.0001419574 0.0001381963 6.96113e-05 -0.3735077962 0.7594533614
550296700.0 -0.070451036 0.1364365489 0.0003060868 1.053e-06 0.0001842955 4.79798e-05 -0.3656755707 0.7632172587
555296670.0 -0.0695521501 0.1372832145 0.0002213511 7.01289e-05 4.73072e-05 -5.15742e-05 -0.3582673449 0.7671242783
560296640.0 -0.0677671822 0.1381835448 0.0004078608 0.0001896995 4.13605e-05 0.0001729763 -0.3504985307 0.7707453184
565296610.0 -0.0667503471 0.1391032378 0.0001282563 -8.40022e-05 0.0003148691 7.03795e-05 -0.3424345408 0.7739836808
570296580.0 -0.0658597366 0.1398745518 0.0003072081 0.000149265 0.0001717285 0.00014301 -0.3348693776 0.7773096505
575296550.0 -0.0643553979 0.1409664838 0.0003355907 9.53545e-05 0.0002396801 -1.64756e-05 -0.3263606351 0.7809276717
580296520.0 -0.0631764351 0.1413201999 0.0002182214 0.0002020994 0.0001844494 0.0001061368 -0.3183199365 0.7838527794
585296490.0 -0.0621495964 0.1422979632 0.0001247025 0.0002130913 0.0001222328 0.0001646066 -0.3104385619 0.7872913471
590296460.0 -0.0602460392 0.143085829 0.0002740992 6.58059e-05 0.0002144819 -0.0001630751 -0.3032269995 0.7901136493
595296430.0 -0.0594611927 0.143505791 0.0002353329 4.29721e-05 0.0001916259 -0.0001030921 -0.2948518067 0.7924746439
600296400.0 -0.0583118656 0.1444356091 3.34067e-05 0.0001981902 0.0001439905 -6.38513e-05 -0.2867826626 0.7953079074
605296370.0 -0.0569609963 0.1453895389 -6.6356e-06 3.04424e-05 0.0001929417 0.0001009533 -0.2780625114 0.7983283817
610296340.0 -0.0556739772 0.1460065228 0.0003158765 0.0001669221 0.0004798239 -2.47146e-05 -0.2703923886 0.8006681635
615296310.0 -0.054077061 0.1465413117 0.0002124289 -9.2484e-05 0.0001849246 7.73357e-05 -0.2618083277 0.803169168
620296280.0 -0.0529423403 0.1471365057 0.0003133769 -8.22825e-05 0.0002735845 5.39579e-05 -0.2545035752 0.8060472528
625296250.0 -0.0515752241 0.1478212909 0.0001469519 -2.93648e-05 8.9836e-05 5.27294e-05 -0.2454745435 0.8081649723
630296220.0 -0.0498789219 0.1484131942 0.000197471 -0.00020352 0.0002311247 -9.3096e-06 -0.2374911725 0.8109745388
635296190.0 -0.049094535 0.1491516669 0.0002068787 5.25737e-05 0.0003334966 0.0001322513 -0.2297105455 0.8127170626
640296160.0 -0.0477226736 0.1500314106 0.0002046421 0.0001465405 0.000288278 2.39277e-05 -0.2213662545 0.8155417343
645296130.0 -0.0462130872 0.1508329538 0.0001342958 5.40011e-05 0.0001168113 5.20763e-05 -0.2132879524 0.8175801795
650296100.0 -0.0447440516 0.1513556898 0.0002276214 0.000163403 0.0002111712 0.0002398965 -0.2052203144 0.8188974957
655296070.0 -0.0433784172 0.1519430447 0.0002946714 -4.0778e-05 0.0002172196 -6.0137e-05 -0.1961987626 0.8208315687
660296040.0 -0.0418610688 0.152292226 0.0001238777 0.0001754603 0.0003686554 0.0001540124 -0.1873290664 0.823430645
665296010.0 -0.0403882296 0.1527835553 0.000153086 -0.0001520045 4.6e-09 0.0001651814 -0.1793826368 0.8247957559
670295980.0 -0.0392941627 0.1538380113 0.0002564721 -0.0001335214 0.0002301731 7.42351e-05 -0.1717199612 0.8264765741
675295950.0 -0.0379252164 0.1543782526 0.000241132 -6.17084e-05 0.0003543866 9.50247e-05 -0.1638393416 0.8288185282
680295920.0 -0.0361520585 0.1548841022 0.0003092186 -0.0002302244 0.0002947239 -1.4647e-06 -0.1552406536 0.8308124866
685295890.0 -0.0348946878 0.1555643133 3.04662e-05 -0.0001652985 0.0003390515 -4.0976e-05 -0.1463612491 0.8313355881
690295860.0 -0.0333556318 0.1559283995 0.0002554166 5.00503e-05 0.0002702297 3.7516e-06 -0.1384251089 0.8332590776
695295830.0 -0.0318628328 0.1562746613 0.0002613264 0.0001598656 0.0002837419 -0.0002218778 -0.1295542757 0.8344535626
700295800.0 -0.0305143958 0.156783498 0.000262064 9.88468e-05 0.0004693171 5.09002e-05 -0.1218599939 0.8366406798
705295770.0 -0.0292731674 0.1577017899 -4.88949e-05 1.48181e-05 0.0004836683 -0.0001585433 -0.1137239811 0.8378317106
710295740.0 -0.0273513587 0.1579336099 0.0003814534 -0.0001693517 0.000380492 0.0001300716 -0.1052573192 0.838577831
715295710.0 -0.0261573642 0.1581688573 0.0003549958 7.501e-06 0.0002491421 0.0001228652 -0.0968947127 0.8399012712
720295680.0 -0.024902619 0.1589282838 0.0001388138 4.61493e-05 0.0002090497 4.18463e-05 -0.0878832615 0.8406360809
725295650.0 -0.0232020393 0.1592408449 0.0001603699 -0.0001678778 0.0002537842 1.64342e-05 -0.079781985 0.8417742621
730295620.0 -0.0219690911 0.1598391618 0.0001745877 -7.99449e-05 0.0003428558 8.76027e-05 -0.0720580074 0.841923404
735295590.0 -0.0203689863 0.1600538577 0.0004181964 -7.664e-05 0.0002247545 0.000153383 -0.0635578783 0.8426006429
740295560.0 -0.0190707469 0.1604194852 0.0002191608 -6.5455e-05 0.0003631105 -0.0001986187 -0.054317755 0.8437280342
745295530.0 -0.0176020791 0.160904392 0.000178351 -5.67968e-05 0.0004313326 3.48e-05 -0.0459910087 0.8436944059
750295500.0 -0.0157661615 0.1612286188 0.0004061766 8.02545e-05 0.0003686121 4.57919e-05 -0.0380703309 0.8439717246
755295470.0 -0.0145768231 0.1615905945 0.0003860284 9.02734e-05 0.0003413522 -2.20894e-05 -0.029199391 0.8439322377
760295440.0 -0.013015352 0.1620447675 0.000301003 5.0564e-05 0.000374022 -9.335e-06 -0.0211711282 0.8443653287
765295410.0 -0.0116630785 0.1623052612 0.0003781766 0.0001662019 0.0001382223 -0.0001122925 -0.0125323287 0.845130924
770295380.0 -0.0101406394 0.1626812819 0.0003908311 -4.90079e-05 0.0003091521 5.61548e-05 -0.0043663765 0.8447242496
775295350.0 -0.0087354806 0.1629520164 0.0004948886 -3.67604e-05 0.0003229316 -1.71797e-05 0.0038495325 0.8442063114
780295320.0 -0.0072770069 0.163265533 8.68061e-05 -1.30148e-05 6.60661e-05 -0.0001071923 0.0119821537 0.8442318092
785295290.0 -0.0058768201 0.1630927999 0.0002528886 -0.0001086912 -1.0331e-05 -1.40373e-05 0.0215650207 0.8437815131
790295260.0 -0.0037497596 0.1638663778 7.25007e-05 -0.0001057879 0.000243267 1.54405e-05 0.0298528866 0.8441563824
795295230.0 -0.002237143 0.1638322487 0.0004033693 -0.0001673247 0.0003838296 -0.000102589 0.0383170139 0.8429993851
800295200.0 -0.0010521187 0.1642264639 0.0007214306 -0.0001447093 0.000278154 -1.43583e-05 0.0465731716 0.8423894102
805295170.0 0.0007991144 0.1642221655 0.0003835921 -0.0001635646 0.000300673 -0.0001714834 0.054811708 0.8425519759
810295140.0 0.002422609 0.1642561587 6.55243e-05 2.79052e-05 0.0001314117 0.0001038937 0.063346842 0.8417956906
815295110.0 0.0036413598 0.1646563887 0.0004246016 -0.0001498907 0.0003474892 -0.0003137407 0.0718084398 0.8409298763
820295080.0 0.004966411 0.1648682417 0.0003351271 -0.0001239052 0.0002660326 -4.48553e-05 0.0803166253 0.8404899364
825295050.0 0.0070377855 0.1647136882 0.0005018782 -0.0002108238 0.0003559274 -0.0001853723 0.0887351135 0.8398528931
830295020.0 0.0085240249 0.1653843521 0.0004873659 0.00017184 0.0001085344 -5.06632e-05 0.0981723901 0.8384616886
835294990.0 0.0099339566 0.1652726105 0.0003829862 0.0001779745 0.000250875 -9.50744e-05 0.1050877625 0.8378946182
840294960.0 0.0112818265 0.1655471604 0.0003935515 -3.79297e-05 0.000500345 -0.0001145718 0.1139289223 0.8363051433
845294930.0 0.0130282942 0.1652755677 0.0005465956 -2.6549e-05 0.0003688332 -8.81534e-05 0.1218978759 0.8352265828
850294900.0 0.0147760568 0.1658135781 0.0003986922 6.22161e-05 0.0005453536 -0.0001662534 0.1297195437 0.8342974953
