!Created with skrf (http://scikit-rf.org).
# Hz S RI R 50.0 
!freq ReS11 ImS11 ReS21 ImS21 ReS12 ImS12 ReS22 ImS22
300000.0 -0.7694266115 -0.1379566686 0.0006606083 0.0008221824 0.0008587085 0.0011917368 -0.0478338219 -0.0680642093
5299970.0 -0.7850337595 -0.0070606774 5.82275e-05 -0.0002519064 -9.40319e-05 0.000123579 -0.049359559 0.0147801442
10299940.0 -0.7875662114 -0.0038934345 2.9968e-05 -0.0001879316 -0.0002304285 1.9605e-06 -0.0442391001 0.0322818983
15299910.0 -0.7932006542 -0.0014771592 -0.000134542 0.0002302424 4.32182e-05 8.66474e-05 -0.0355113877 0.0465455114
20299880.0 -0.799805597 0.0022318016 0.0001072736 -0.000240464 -9.06193e-05 -3.35606e-05 -0.0260029274 0.0585083556
25299850.0 -0.8064148928 0.0084631608 7.33567e-05 1.69856e-05 0.0001073691 6.09151e-05 -0.0152406869 0.0678132139
30299820.0 -0.8116452025 0.0161426625 0.0001083699 7.64497e-05 -0.0001537675 7.8958e-06 -0.0040826126 0.0744830228
35299790.0 -0.8168160296 0.0254046902 0.0001196463 0.0001457772 7.7397e-06 3.92301e-05 0.0073597136 0.0794167482
40299760.0 -0.8212878886 0.0342634658 -0.0001533398 -1.16975e-05 -0.000224729 4.75908e-05 0.0189060083 0.0824931463
45299730.0 -0.8245471775 0.0445993235 8.04887e-05 4.2125e-05 -2.44092e-05 0.0003064795 0.0292883155 0.0840681457
50299700.0 -0.8266225256 0.0542248941 0.0001812703 -2.09296e-05 -6.3932e-06 7.72784e-05 0.0393666697 0.0839853088
55299670.0 -0.8284823672 0.0641271401 5.35183e-05 5.70042e-05 6.0283e-06 0.0002237917 0.0481906441 0.083441105
60299640.0 -0.8298421971 0.0742479197 4.24038e-05 -3.25456e-05 0.000125804 3.72121e-05 0.0568842674 0.0814180142
65299610.0 -0.8304365013 0.0849144168 -1.5336e-06 0.0001626821 4.57986e-05 1.14734e-05 0.0644195237 0.0793941435
70299580.0 -0.8312869712 0.0945268688 0.0001739591 0.0001686257 4.75171e-05 0.0002292184 0.0718865648 0.0764330859
75299550.0 -0.8309323668 0.1047454813 4.26877e-05 2.88295e-05 6.75248e-05 0.0002196612 0.0781377487 0.0738307732
80299520.0 -0.8313101062 0.1143833799 3.28249e-05 6.66992e-05 -4.00556e-05 -9.9964e-05 0.0834271432 0.0701418268
85299490.0 -0.8307443026 0.1243741153 -3.73416e-05 -4.60734e-05 1.97057e-05 0.0001275043 0.0887868333 0.0664659577
90299460.0 -0.8297984758 0.1337712712 0.0001929148 6.3784e-06 -0.0001152827 -7.23432e-05 0.0934900347 0.0626875978
95299430.0 -0.8287153724 0.1434039719 0.0003325686 0.0001501042 0.0001330729 0.0001043 0.0975990128 0.0591415096
100299400.0 -0.827973726 0.1529244569 1.99304e-05 0.0001339049 2.89226e-05 0.0001100181 0.101134628 0.0553884134
105299370.0 -0.8265255415 0.1622036117 -5.89242e-05 4.91133e-05 -0.0001615459 3.07667e-05 0.1047528136 0.0513871283
110299340.0 -0.8251936833 0.1708816091 -8.19246e-05 -9.6168e-06 -3.03026e-05 4.15337e-05 0.1071589435 0.0478426122
115299310.0 -0.8232256401 0.1803411732 5.20808e-05 -8.89325e-05 8.14905e-05 0.000166342 0.1099709656 0.043755931
120299280.0 -0.8219356184 0.1896367943 -0.0001568509 2.42676e-05 -8.47545e-05 8.9473e-06 0.1123769513 0.0400973008
125299250.0 -0.8207590602 0.198392601 -6.65463e-05 7.1043e-05 6.80901e-05 -4.8563e-05 0.1147156486 0.0358375282
130299220.0 -0.8185110342 0.2076838881 0.0001987503 -0.0002219791 7.52369e-05 4.36571e-05 0.115554102 0.0326728732
135299190.0 -0.8164472293 0.2164622044 -2.30127e-05 -3.83639e-05 6.16899e-05 -0.0001210643 0.1176193405 0.0289424166
140299160.0 -0.8141710713 0.2254228366 4.18431e-05 5.79729e-05 -1.70443e-05 6.21613e-05 0.1190504447 0.0254102896
145299130.0 -0.8120242045 0.2341166623 0.0001653546 0.0001925083 7.42959e-05 -4.35315e-05 0.119621069 0.0223856534
150299100.0 -0.8101996024 0.2429882 -5.76231e-05 0.0002203854 0.0002582179 0.0002324729 0.1210076234 0.0185789037
155299070.0 -0.8074232916 0.2524418605 7.94516e-05 0.0001111866 6.6049e-05 4.07399e-05 0.1219310264 0.0154100991
160299040.0 -0.8050735466 0.2610657249 0.0002852149 0.0001092479 0.0001014319 0.0001535535 0.1227008277 0.0124017361
165299010.0 -0.8019839057 0.2693817345 1.00671e-05 0.0001321772 0.0002295106 -2.82127e-05 0.1230085207 0.0089278081
170298980.0 -0.7994748578 0.2778563448 5.4408e-05 -3.40298e-05 0.0001500399 0.000114791 0.1238258643 0.0060207626
175298950.0 -0.79700736 0.2870752914 4.58643e-05 0.0001739829 4.11659e-05 6.73154e-05 0.1238336429 0.0030511686
180298920.0 -0.7937677177 0.2949814237 0.0001375831 0.0001484267 3.28099e-05 0.0003032985 0.1243425422 0.0002804639
185298890.0 -0.7908567521 0.3041540571 -0.0001241094 -1.04767e-05 9.56727e-05 -0.0001953052 0.124092788 -0.0031051382
190298860.0 -0.7874198975 0.3119517919 -0.0001673708 0.0002765255 -0.0001151014 0.0001094344 0.1245038727 -0.0053854397
195298830.0 -0.7841567088 0.3208401689 0.00023724 0.0003373756 6.15123e-05 0.0003226136 0.1244185497 -0.0085611798
200298800.0 -0.7807880896 0.3293136142 3.09614e-05 9.92749e-05 0.0001878609 0.0003260207 0.1247983924 -0.0114052528
205298770.0 -0.7773685846 0.3372498021 4.30816e-05 0.0001971712 4.82177e-05 0.0002191733 0.124242971 -0.0135422931
210298740.0 -0.7731000544 0.345777808 8.47352e-05 0.0001995221 0.000268428 7.27394e-05 0.1240578235 -0.0161100433
215298710.0 -0.7700870812 0.3539344908 3.71537e-05 -7.3684e-06 -8.2463e-06 2.22247e-05 0.1235491715 -0.0183185052
220298680.0 -0.766755613 0.3620284996 2.02947e-05 0.0001032456 0.0001053578 0.0001113747 0.1235894201 -0.020896429
225298650.0 -0.7632757156 0.3710453021 0.0002855869 0.000111806 0.0001250326 0.0002461199 0.1228776428 -0.0231844762
230298620.0 -0.7588767357 0.3782326002 -1.25437e-05 0.0001344559 0.0002363039 2.21649e-05 0.1227681381 -0.0256376276
235298590.0 -0.7545712869 0.3873089576 1.30522e-05 0.0001649806 6.63775e-05 0.0001086347 0.1221527966 -0.0280416337
240298560.0 -0.7508805649 0.3944601728 0.0001500864 0.0002640389 0.0001453047 3.07605e-05 0.1219849828 -0.0300731348
245298530.0 -0.7460053706 0.4025958731 -3.27783e-05 8.62387e-05 2.5308e-06 5.53447e-05 0.1212519459 -0.0321176586
250298500.0 -0.7424932803 0.4106768653 0.0001346565 6.10767e-05 3.73195e-05 -8.48492e-05 0.1208933088 -0.0340506355
255298470.0 -0.7375563227 0.4188561188 5.55517e-05 0.0001242237 0.0001209306 0.0001248167 0.1201536552 -0.0364658358
260298440.0 -0.7335952815 0.426034955 -2.77649e-05 1.18441e-05 0.0001196461 0.0001668916 0.1195191532 -0.0384302599
265298410.0 -0.7288586452 0.4340216313 9.89803e-05 0.0001445417 7.90944e-05 0.0001649995 0.119037696 -0.0406190028
270298380.0 -0.7243134362 0.4413177161 0.0001114202 -1.03573e-05 -0.0001010425 4.53811e-05 0.1181872247 -0.0426257402
275298350.0 -0.7193640814 0.4489715763 -2.44001e-05 4.9674e-05 -0.0001005279 0.0001022719 0.1175368401 -0.0443256605
280298320.0 -0.7149468576 0.4565233645 0.0001745254 0.0003042638 -0.0002473616 4.09515e-05 0.1169836574 -0.0461128038
285298290.0 -0.7105444389 0.4643699399 2.62418e-05 8.22134e-05 0.0003253431 -8.7927e-05 0.1160379404 -0.0480510015
290298260.0 -0.7055281637 0.4718668281 0.0001990087 0.0002335633 9.94096e-05 -7.22425e-05 0.1155776737 -0.0497018456
295298230.0 -0.7005036271 0.4789097164 0.0001185069 0.0001064753 9.69002e-05 0.0002297787 0.1147035102 -0.0514740726
300298200.0 -0.6944105802 0.4862570003 1.20029e-05 -5.90564e-05 0.0002912054 4.85967e-05 0.1140412062 -0.0531583143
305298170.0 -0.6899987295 0.4937794564 0.0001636136 -6.3593e-05 3.23413e-05 7.68829e-05 0.1134706781 -0.0550936434
310298140.0 -0.6844824432 0.5009212158 0.0003323061 -2.22607e-05 0.0001548167 0.0001158524 0.1124016289 -0.0563138227
315298110.0 -0.6796784957 0.5075648037 0.000186329 0.0001150922 6.74674e-05 0.0003011221 0.1117131848 -0.0584365346
320298080.0 -0.6741972422 0.5155232559 0.0001384808 2.18886e-05 0.000298735 0.0001195841 0.1108681614 -0.0603417467
325298050.0 -0.668328021 0.5219212531 0.0002308257 -7.76947e-05 0.0003867138 0.0001596419 0.1097482701 -0.0618823535
330298020.0 -0.6629748226 0.5293958871 9.72091e-05 0.0001732518 8.28923e-05 0.0001032438 0.1085584636 -0.0636245316
335297990.0 -0.6572335062 0.5361945705 9.19138e-05 8.28745e-05 0.0003224143 0.0002100184 0.1074347424 -0.0652415397
340297960.0 -0.6525835381 0.5427944834 0.0002882681 6.90844e-05 0.0002479789 8.66604e-05 0.1063610844 -0.0666909102
345297930.0 -0.6465074402 0.5486910448 -5.87579e-05 9.62104e-05 0.0002198437 9.09815e-05 0.1050139022 -0.067956218
350297900.0 -0.640082477 0.5560419488 1.29665e-05 0.0001843411 0.000222307 0.0001413392 0.1037887877 -0.0692292981
355297870.0 -0.6342435664 0.5625481951 7.9358e-05 3.85706e-05 0.0001368147 0.0002417456 0.1028770203 -0.0703278896
360297840.0 -0.6287474065 0.5691751839 0.0004255809 0.0004970287 0.0001742714 0.0001391903 0.1016191143 -0.0716872769
365297810.0 -0.6223664498 0.5752994004 0.0003606136 0.0001280504 8.84849e-05 0.0001986477 0.1002976375 -0.0730980915
370297780.0 -0.6163252723 0.5812862792 9.47459e-05 0.0002206038 -9.1847e-06 0.0001357186 0.0994332084 -0.0741763391
375297750.0 -0.6101342117 0.5878088113 0.0001508915 8.36104e-05 0.0002385124 0.0001939731 0.0982262489 -0.0752344474
380297720.0 -0.6038360074 0.5947082442 0.000355643 0.0002240342 0.0002172203 0.0001675077 0.0970780104 -0.0762137973
385297690.0 -0.5983150999 0.6007907285 -0.0001391439 4.8591e-05 0.000181684 1.61736e-05 0.0956527844 -0.0770521706
390297660.0 -0.5915532274 0.6070784759 0.0001960442 0.0002026474 0.0002064203 0.0001034718 0.0948620823 -0.0784387992
395297630.0 -0.5850140194 0.6132313446 0.0001862724 0.0001422842 0.0001538904 0.0002388644 0.0936945118 -0.0795527871
400297600.0 -0.5790447623 0.6194919352 0.0002260566 0.0001403148 4.8743e-06 6.3804e-05 0.0920212515 -0.0807214813
405297570.0 -0.5728493592 0.6251160328 0.0002908207 0.0001030644 0.0001612563 0.0001781979 0.0911363146 -0.081710066
410297540.0 -0.5656667668 0.6307104046 0.00013274 -3.26318e-05 0.0002370258 -7.4537e-05 0.0897022709 -0.0825260694
415297510.0 -0.5592578894 0.6360529098 0.0001442162 0.0002749862 0.0001286638 -3.9909e-06 0.0883429152 -0.0833711408
420297480.0 -0.5520233937 0.6421474849 0.0004937037 3.84974e-05 0.000259351 0.0001756796 0.0870259801 -0.0846146236
425297450.0 -0.5460497625 0.6472924203 0.000171356 5.0363e-05 0.0001885932 8.74843e-05 0.0860742302 -0.0855495126
430297420.0 -0.5392930836 0.6530286094 0.0001238893 0.0001450933 7.74388e-05 0.0001081977 0.0844616296 -0.0861893949
435297390.0 -0.5322004509 0.6592789498 0.0001826805 4.73212e-05 0.0001838024 9.47507e-05 0.0835069338 -0.0870069038
440297360.0 -0.525296775 0.664336724 0.0002139241 0.0001092926 0.0002481324 2.62698e-05 0.0818872998 -0.0882879565
445297330.0 -0.5185278615 0.6697537168 0.0003300747 -0.0001714726 0.0001986232 -7.63803e-05 0.0806556776 -0.0892274492
450297300.0 -0.5110965268 0.6749710073 0.0002357218 0.0001176077 0.000247199 9.31908e-05 0.0791447975 -0.0897297543
455297270.0 -0.5038591211 0.6802041916 0.0003352871 0.0003055292 0.0002820291 8.70502e-05 0.0783837794 -0.0907416254
460297240.0 -0.4979353437 0.6852918089 0.0002689985 1.33109e-05 0.0001292375 3.01688e-05 0.0769316201 -0.0912907037
465297210.0 -0.4899484785 0.6902566099 0.000408567 -0.0001074752 0.0001853239 6.65342e-05 0.0751200393 -0.0921409714
470297180.0 -0.4831753998 0.6946018405 0.0003929233 -1.34125e-05 3.47988e-05 0.0001061578 0.0734427485 -0.092554686
475297150.0 -0.4758355811 0.7001848152 8.27317e-05 -7.18007e-05 0.0001211702 0.0001051595 0.0726954953 -0.0932790643
480297120.0 -0.4688289939 0.7043749966 0.0003357033 0.0002172188 0.0002275372 2.9868e-05 0.0712689 -0.0940712011
485297090.0 -0.4609862679 0.7089718676 0.0002980215 -9.11158e-05 0.0002249365 0.0001463208 0.0699235805 -0.0952376657
490297060.0 -0.4542385293 0.7143810629 0.0004785347 -0.0001074044 0.0002998001 2.3493e-06 0.0685652002 -0.0954381701
495297030.0 -0.4473880361 0.718510917 7.77071e-05 0.0003201632 0.0002070171 -1.27878e-05 0.0669229663 -0.0967317282
500297000.0 -0.4388592052 0.7233384639 7.27146e-05 0.0002425565 0.0002780345 0.0001929858 0.0655497706 -0.0969494354
505296970.0 -0.4313022036 0.727119973 0.0003429115 0.0001083281 0.0002882282 0.0001324671 0.0639231552 -0.0974477729
510296940.0 -0.4245448119 0.7318527195 0.0001612059 0.0001296049 0.0002733968 0.0002363023 0.0623546892 -0.0980000264
515296910.0 -0.4170593585 0.7357098523 0.0003397183 0.0002356417 0.0003628073 7.0027e-06 0.0614122458 -0.0985316125
520296880.0 -0.4090118865 0.7406952504 0.000150145 0.0001346613 0.0003992454 -1.14154e-05 0.0599133991 -0.0991712565
525296850.0 -0.4020373802 0.7440405121 0.0002802059 4.97563e-05 0.0002287825 0.0001898959 0.0584242855 -0.0997797657
530296820.0 -0.3943158048 0.747870874 0.0003519757 1.94321e-05 0.0002624544 0.0001097831 0.0566969821 -0.1002964666
535296790.0 -0.3862212897 0.7520403899 0.0004384356 2.6762e-06 0.000152173 0.0001194496 0.05530524 -0.101052303
540296760.0 -0.3784416983 0.7558690989 0.0002621755 -8.08407e-05 0.0002920353 -4.4251e-05 0.0539493689 -0.1013508094
545296730.0 -0.3710015725 0.7591083167 0.0003419518 -1.85721e-05 0.0003661446 0.0001269497 0.0526341308 -0.1019725451
550296700.0 -0.363907951 0.7634867485 0.0002263827 6.60924e-05 0.0003120048 -6.08653e-05 0.0508160178 -0.1025179615
555296670.0 -0.3548267234 0.7668273881 0.0003317216 -8.0417e-05 0.0004103128 -0.0001025557 0.0492760102 -0.1024525684
560296640.0 -0.3470056643 0.7704874802 0.0001360355 -0.0001051216 0.0001242826 1.96226e-05 0.0478797038 -0.1034330089
565296610.0 -0.3400513783 0.7738749915 0.0004036623 0.0001432055 0.0003567829 -3.25779e-05 0.0466367114 -0.1034711419
570296580.0 -0.3318944146 0.7777586448 0.0002894831 0.0001662438 0.0005355168 -0.0001339987 0.0450761403 -0.1038789287
575296550.0 -0.3233072121 0.7804251137 0.0002357336 -8.47555e-05 0.0002031978 2.09448e-05 0.0439950011 -0.1044238634
580296520.0 -0.3158520249 0.7839516904 0.0005943055 -8.376e-07 0.0003045014 -4.01876e-05 0.0420339881 -0.1046308496
585296490.0 -0.307627729 0.7865405193 0.0005818774 -2.32193e-05 0.0003788801 4.75349e-05 0.0406473141 -0.1054272367
590296460.0 -0.2997857902 0.7893781479 0.0003228692 9.7062e-06 0.0004044804 0.0001375018 0.0393690435 -0.1051864186
595296430.0 -0.2917425063 0.7932361531 0.000338361 0.0001502159 0.0001714428 5.35039e-05 0.0378027181 -0.1057478497
600296400.0 -0.2839961981 0.795655246 0.0003466808 -1.76113e-05 0.0003211335 9.16107e-05 0.0364395598 -0.1057459356
605296370.0 -0.2758261453 0.7989311916 0.0002041538 0.0002062091 0.0004092109 6.13756e-05 0.035044372 -0.1061161549
610296340.0 -0.2676999196 0.8011229102 0.0002835703 0.0001742249 0.000319202 6.83063e-05 0.0333614298 -0.1061309945
615296310.0 -0.259683228 0.8043472437 0.0004692147 0.000167319 0.000341221 0.0001841429 0.0318370808 -0.106567904
620296280.0 -0.2508972047 0.8059978684 0.0002386089 -4.55671e-05 0.0004351512 0.0002037652 0.0303532383 -0.1070901879
625296250.0 -0.2429564634 0.8092214268 0.0003577728 0.0002078096 0.0003646561 8.52715e-05 0.0288544928 -0.1071307063
630296220.0 -0.2341681736 0.811295072 0.0003960747 -0.0001409897 0.000316084 0.0001193632 0.0271710716 -0.1070960747
635296190.0 -0.2267534323 0.8137281138 0.000313757 -0.000181397 0.0003741187 0.0001182582 0.026070191 -0.1071804467
640296160.0 -0.2180604343 0.8155257661 0.0002597236 0.000150629 0.0002891439 4.76529e-05 0.0248012096 -0.1074645714
645296130.0 -0.2099465998 0.8178030074 0.0002840961 -7.10493e-05 0.0001927521 -0.0001432673 0.0227712449 -0.1074960206
650296100.0 -0.2017086847 0.8197793721 0.0004447259 -0.0002648444 0.0004143447 -1.4212e-06 0.0214428012 -0.1076099619
655296070.0 -0.1934746223 0.8217764254 0.0001755889 -6.6672e-05 0.0005466264 -1.64718e-05 0.0199115756 -0.1074541804
660296040.0 -0.1851412306 0.8243518338 0.0003267886 -9.24947e-05 0.0004198339 9.94092e-05 0.0183528729 -0.1076809297
665296010.0 -0.1769402031 0.825953317 0.000394404 -0.0002006951 0.0004018597 4.69295e-05 0.0172160763 -0.1074362197
670295980.0 -0.1680121218 0.8272259453 0.0003756925 0.0001596328 0.0004325282 7.08929e-05 0.0156787745 -0.1077163733
675295950.0 -0.1603836428 0.8283062878 0.0003229724 0.0003468745 0.0002893078 1.53661e-05 0.0147325506 -0.1075735746
680295920.0 -0.1518991309 0.8306520616 0.0004776064 -3.91708e-05 0.0004626894 5.8876e-05 0.0127302129 -0.1078489177
685295890.0 -0.1432274365 0.8314810433 0.0003776996 1.66174e-05 0.0003753225 -4.66873e-05 0.0113299948 -0.1076277943
690295860.0 -0.1345404858 0.8333185722 0.0004428142 -0.0001184991 0.0004476157 8.65313e-05 0.0100606189 -0.1074634408
695295830.0 -0.1263514517 0.8344881113 0.0003632476 -3.45668e-05 0.0001898913 0.0001694771 0.0081883398 -0.1072403975
700295800.0 -0.1183525787 0.835187625 0.0003259259 3.58878e-05 0.0004735265 -2.21702e-05 0.0071932961 -0.1074082399
705295770.0 -0.1087589195 0.8370867338 0.0007035826 -4.91669e-05 0.0004335147 4.05529e-05 0.0054378106 -0.1067742729
710295740.0 -0.1014183022 0.8381045268 0.0002293937 -0.0001622804 0.0005679936 2.91408e-05 0.0038429591 -0.1066112144
715295710.0 -0.0935368868 0.838795062 0.0004515588 -7.00275e-05 0.0003937829 7.169e-07 0.0025680547 -0.1067897202
720295680.0 -0.0848221772 0.8391336232 0.0003573595 0.0001730436 0.0001426706 -9.04365e-05 0.0012992391 -0.1067093488
725295650.0 -0.0750753795 0.8409489101 0.0003621664 -0.0001021256 0.0004163155 -0.0002281352 -0.0001179023 -0.1063981218
730295620.0 -0.0674217846 0.841293177 0.0002598746 7.83592e-05 0.0005966073 0.0001802583 -0.0015647863 -0.1061457411
735295590.0 -0.0586201871 0.8419405275 0.0002990708 7.7772e-06 0.0003565742 5.59372e-05 -0.0027834418 -0.1059081436
740295560.0 -0.0498433886 0.8427277598 0.0002436793 -0.0002231938 0.0003415138 0.0002055803 -0.004599609 -0.1057406975
745295530.0 -0.0422126164 0.8424729366 0.0001818352 -0.0001020799 0.000150826 3.16736e-05 -0.0059821688 -0.1050228667
750295500.0 -0.0343371871 0.8427656096 0.0003465653 6.36835e-05 0.0004128408 -3.07964e-05 -0.0073132608 -0.1054050325
755295470.0 -0.0241286802 0.8433317937 0.0005193085 -0.0001969734 0.0004413526 0.0001935306 -0.0084825717 -0.1043579742
760295440.0 -0.0162860469 0.843937979 0.000326641 6.69869e-05 0.0002483339 3.01687e-05 -0.010096997 -0.1043988042
765295410.0 -0.0083276799 0.843587152 0.0005155726 -0.0001029496 0.0005350899 8.4281e-06 -0.0112172333 -0.1037838389
770295380.0 -0.0001789252 0.8439631871 0.0005898424 9.36107e-05 0.0003400859 -8.9918e-06 -0.0124830237 -0.1038442344
775295350.0 0.0089919937 0.843926056 0.0003562773 -0.000263212 0.000567814 6.79523e-05 -0.0142539624 -0.1034274616
780295320.0 0.0177599201 0.8431157525 0.0002025995 -0.0003851424 0.0004057466 -0.0001081644 -0.0157022969 -0.1026168066
785295290.0 0.0257989088 0.8435517851 0.0002763039 3.88149e-05 0.0006621066 -0.0001473027 -0.0169508158 -0.102420657
790295260.0 0.03397655 0.8429157244 0.0003405526 -0.0001635126 0.0006024125 -5.09107e-05 -0.0181916845 -0.1019446692
795295230.0 0.0428044806 0.8429358423 0.0003423344 -0.0002314566 0.0004010769 -5.96787e-05 -0.0195497957 -0.1011080764
800295200.0 0.0514373174 0.842656798 0.00047463 -0.0001318269 0.0005083404 -0.0003075609 -0.0211109082 -0.1010493788
805295170.0 0.0596363269 0.8419580476 0.0003846457 -0.0002073671 0.0004966166 -0.0001789541 -0.0224586133 -0.1005478384
810295140.0 0.0681103913 0.8413460158 0.0005205955 -0.0002721755 0.0004732545 -0.0003100123 -0.0234147178 -0.0993672442
815295110.0 0.0766152523 0.8396742511 0.0005017662 -6.17001e-05 0.0003142958 -2.23174e-05 -0.0251266615 -0.0992078022
820295080.0 0.0846315779 0.8388732644 0.0003503677 -0.0002278159 0.0003158745 -0.0003045514 -0.0263759115 -0.0988303397
825295050.0 0.0935135042 0.8384228248 0.0004422796 -9.82512e-05 0.000479321 8.5169e-06 -0.0274763433 -0.0984473955
830295020.0 0.1021278093 0.8376515493 0.0003008199 4.00651e-05 0.000456717 -5.23389e-05 -0.0292873959 -0.0976007714
835294990.0 0.1099590412 0.8369015033 0.0003643216 -0.0002481038 8.11945e-05 1.65484e-05 -0.0299002328 -0.0971557329
840294960.0 0.1184561574 0.8349662402 0.0004942741 -0.0002169605 0.0005940249 -0.0002274091 -0.031657171 -0.0961501426
845294930.0 0.126862824 0.8341702211 0.0004768624 -0.0002033009 0.0004362193 -2.23143e-05 -0.0325056566 -0.0958038932
850294900.0 0.1346516052 0.8327595591 0.0003029555 -0.0002195147 0.0005290152 -0.000180944 -0.0340610674 -0.0950112178
