!Created with skrf (http://scikit-rf.org).
# Hz S RI R 50.0 
!freq ReS11 ImS11 ReS21 ImS21 ReS12 ImS12 ReS22 ImS22
300000.0 -0.0497709788 -0.0441576738 0.0007201015 0.001277904 0.000387096 0.003310661 -0.7663283979 -0.1332115727
5299970.0 -0.0490000968 0.0153642236 -9.16953e-05 -0.0002311375 4.58983e-05 -2.76381e-05 -0.7842798035 -0.0071077002
10299940.0 -0.0432283384 0.0317063754 -6.47952e-05 8.10894e-05 -0.0001305277 -0.0001202213 -0.7879734738 -0.0036927929
15299910.0 -0.0350328624 0.0461566438 -0.0002562327 -0.0001620427 -0.0001380798 -4.0768e-06 -0.7930831149 -0.001517205
20299880.0 -0.0250839662 0.0572551294 -3.39764e-05 0.0002322098 0.0001540933 -4.44584e-05 -0.800060202 0.0017912238
25299850.0 -0.0145774366 0.0665538553 -3.87348e-05 0.0003337017 -1.8884e-06 2.45502e-05 -0.8060265128 0.0080724577
30299820.0 -0.0033267327 0.0732551076 6.47959e-05 0.0001518771 -1.47998e-05 0.0001932473 -0.8117211526 0.0165022524
35299790.0 0.0079532248 0.0775562023 0.000150943 5.0287e-06 3.77227e-05 -9.80655e-05 -0.8169318411 0.0256160561
40299760.0 0.0190691918 0.0804515241 -0.0001214325 -5.15395e-05 -0.0001747132 1.72721e-05 -0.8213320801 0.0345923795
45299730.0 0.0296882837 0.0815054467 -6.3082e-06 0.0001395121 6.8085e-06 0.0001188622 -0.8248821716 0.0439406926
50299700.0 0.0393628219 0.0817893839 1.65014e-05 -8.84208e-05 9.7989e-06 0.0001289803 -0.8273060278 0.0542955857
55299670.0 0.0483408023 0.0804656777 0.0001589818 -6.02771e-05 -6.41669e-05 -0.0001269256 -0.8293172597 0.0644026793
60299640.0 0.0569254804 0.0787004854 2.55318e-05 4.7238e-05 0.000163675 -5.99825e-05 -0.8302972965 0.0738298557
65299610.0 0.064301846 0.0763500238 0.0002997397 3.64246e-05 -2.19526e-05 -2.22225e-05 -0.8318495797 0.0842795231
70299580.0 0.071189235 0.0735148275 0.000165989 1.36152e-05 8.81744e-05 3.45276e-05 -0.8318516072 0.0947433189
75299550.0 0.0774497715 0.0699867121 -0.0001492993 -9.41623e-05 4.73021e-05 -6.63469e-05 -0.832363338 0.104047189
80299520.0 0.0830280679 0.0667462247 -0.0001229697 -0.0001848667 4.34042e-05 -0.0001201004 -0.8319478658 0.1140930699
85299490.0 0.0877357696 0.0626870495 -0.0001323888 6.98166e-05 4.0988e-05 0.0001175668 -0.831360629 0.1234621613
90299460.0 0.0922733001 0.0590960943 0.000151755 0.0001652879 0.0002865285 0.0001212008 -0.8306081981 0.1333565633
95299430.0 0.0962861983 0.0546689103 0.0001432371 0.0001600434 3.16214e-05 0.0001600087 -0.8289665477 0.1430533899
100299400.0 0.0995445833 0.0512276695 2.18717e-05 -4.78442e-05 0.0001353055 7.98439e-05 -0.8285635813 0.1519857751
105299370.0 0.1029658576 0.0473818095 0.0001539122 0.0001453911 7.0068e-05 7.95239e-05 -0.8267043114 0.1609156033
110299340.0 0.105815921 0.0432263102 7.41235e-05 6.19688e-05 -0.0001486356 1.1973e-06 -0.8254967626 0.1703499697
115299310.0 0.1085657532 0.0391245806 -8.83636e-05 5.60555e-05 0.0001682178 -5.1723e-06 -0.8239338187 0.1799310122
120299280.0 0.1103738471 0.035362068 -2.92059e-05 0.0001748974 0.0001559975 0.0001119148 -0.8221977953 0.1889482581
125299250.0 0.1122853847 0.0315055571 0.0002083103 -0.0003012307 0.0002798886 -0.0001113692 -0.8209365714 0.1978581799
130299220.0 0.1135055386 0.0279250467 0.0001116387 0.0001776041 9.41188e-05 0.0001701787 -0.8184339797 0.2064567363
135299190.0 0.115168202 0.0245605377 8.44503e-05 -0.0001369437 0.000201173 -8.04364e-05 -0.8166177725 0.2159052157
140299160.0 0.1161969999 0.0206404199 2.73156e-05 0.0001033366 -7.29609e-05 0.0001367809 -0.8140019421 0.2245773524
145299130.0 0.1174506872 0.0170103269 8.60566e-05 -5.11834e-05 0.0002162532 6.51686e-05 -0.8123664684 0.234316216
150299100.0 0.1186253338 0.0137165995 5.17987e-05 5.51076e-05 -0.0002251604 9.94493e-05 -0.8107106308 0.2432458091
155299070.0 0.1186374904 0.0103049621 7.07195e-05 0.0001230987 0.0001916168 -0.0001429803 -0.8074568555 0.2514263567
160299040.0 0.1193438898 0.0071371386 4.70683e-05 2.75996e-05 -5.55517e-05 -1.87837e-05 -0.8052311275 0.2605514302
165299010.0 0.1202609483 0.0037899535 9.41241e-05 2.46817e-05 -0.0002725995 7.2469e-06 -0.8026137646 0.2694847844
170298980.0 0.1200294627 0.000857797 -6.91291e-05 0.0001727149 2.94884e-05 0.0002608339 -0.7992589449 0.2780662829
175298950.0 0.1202846292 -0.0021461036 -0.0002225946 4.39404e-05 0.0001018648 -4.99372e-05 -0.7967312303 0.28671777
180298920.0 0.1206748952 -0.0051509585 2.53758e-05 8.82121e-05 2.98736e-05 1.01462e-05 -0.7936178728 0.295310113
185298890.0 0.1206811539 -0.008309792 0.000124322 2.57422e-05 0.0001312393 -0.0001401797 -0.7901522977 0.3037762907
190298860.0 0.1204964919 -0.0111878443 7.2557e-05 8.96493e-05 0.0003154371 0.0001581342 -0.7883967099 0.3121328924
195298830.0 0.1202704295 -0.0138295005 3.02898e-05 0.0001121128 -7.86761e-05 3.90339e-05 -0.7845874806 0.3209060726
200298800.0 0.1199665214 -0.0164445326 6.14706e-05 0.0001245007 0.0001220072 0.000110858 -0.7813513178 0.3289944001
205298770.0 0.1196736065 -0.0190363277 -3.89493e-05 0.0001677193 0.0002914007 0.0001018648 -0.7775252483 0.337697862
210298740.0 0.1193188065 -0.021637376 -0.0001080315 0.0002974805 0.0001367794 -4.07308e-05 -0.7742224787 0.3462677422
215298710.0 0.118805448 -0.0241200126 5.08233e-05 -8.50734e-05 0.0001693772 3.0676e-05 -0.7708871892 0.3535070039
220298680.0 0.1181995179 -0.0271638181 -3.71705e-05 -0.0001860277 9.0416e-05 -2.82451e-05 -0.7670106761 0.3618131047
225298650.0 0.1174075 -0.0293154549 0.0001049746 0.0001159211 0.0001192848 1.50705e-05 -0.7635457145 0.3704094124
230298620.0 0.1168057962 -0.03162682 3.91112e-05 0.0002036937 0.0001568922 6.00057e-05 -0.7594308667 0.378418157
235298590.0 0.1164747303 -0.0339105916 9.60618e-05 4.28351e-05 -4.6032e-06 6.66597e-05 -0.7559527326 0.3869448839
240298560.0 0.1157768954 -0.0360737058 -3.05849e-05 -8.82519e-05 4.15036e-05 6.29543e-05 -0.7514863299 0.3948005622
245298530.0 0.1149709148 -0.0386665266 0.0002598104 -6.84363e-05 -3.83139e-05 -0.0001155976 -0.7478332203 0.4021772567
250298500.0 0.1141030247 -0.0404736562 0.0001927163 0.0001848839 1.56485e-05 0.000112584 -0.7437932839 0.4101981699
255298470.0 0.112908648 -0.0431247089 -3.52057e-05 0.0001534007 -3.24186e-05 -0.0001212585 -0.7385099681 0.4181681757
260298440.0 0.112494309 -0.0448992082 5.31537e-05 0.0001534628 0.0002844953 -0.000103533 -0.7350324424 0.4260782105
265298410.0 0.111420148 -0.0468312105 -1.20008e-05 0.0001243857 -0.0001748229 1.29318e-05 -0.7298030253 0.4333811258
270298380.0 0.1106456662 -0.0489148838 -0.0001013793 0.0001045079 8.99676e-05 -2.024e-06 -0.7251810209 0.4405064961
275298350.0 0.1095338378 -0.0509638565 0.0001066201 -2.8506e-06 -4.23034e-05 4.58743e-05 -0.7207395751 0.4484076382
280298320.0 0.108986859 -0.0528952496 5.01372e-05 -0.000147753 0.0001514444 4.21376e-05 -0.7159206022 0.4558297228
285298290.0 0.1080451061 -0.054619111 0.0002283834 0.0001499966 6.78257e-05 0.0002422547 -0.7106135929 0.4635551451
290298260.0 0.1072073888 -0.0570196102 2.36237e-05 9.53506e-05 3.50296e-05 -0.000108813 -0.7058255822 0.4708809333
295298230.0 0.105901555 -0.0586948069 7.2187e-05 4.55897e-05 -7.03985e-05 -3.42831e-05 -0.7014312053 0.4777777325
300298200.0 0.1053545964 -0.0603374444 -6.22957e-05 7.1278e-06 0.0001732922 0.0001087894 -0.6960204264 0.4852837902
305298170.0 0.1040505973 -0.0622446333 -5.92246e-05 -3.31818e-05 -7.98704e-05 0.0002736484 -0.6902242646 0.4929980574
310298140.0 0.1030122069 -0.0637622252 -0.0001208368 0.0001442842 -0.0001327232 -5.6715e-06 -0.6857368184 0.4998273033
315298110.0 0.1020057392 -0.0659631076 0.0002788843 8.71941e-05 6.43272e-05 -0.000200426 -0.6798835752 0.5064129213
320298080.0 0.1010171882 -0.0678937524 0.0001466714 3.74273e-05 -4.36238e-05 0.0001280856 -0.6750253104 0.5147205276
325298050.0 0.0996799222 -0.0696312156 7.4522e-06 0.0001430137 0.0001353954 -0.0001387443 -0.6687642786 0.5208571825
330298020.0 0.0978864061 -0.071666462 0.0002818399 -4.18652e-05 0.0002751225 -0.0001376751 -0.6638124403 0.5283783001
335297990.0 0.0964945594 -0.0732138365 2.54786e-05 -7.142e-07 8.48405e-05 -2.32203e-05 -0.6583336896 0.5353768292
340297960.0 0.0948045215 -0.0746026967 0.0002117412 7.9741e-05 0.0002851638 2.77873e-05 -0.6524415009 0.5423235674
345297930.0 0.0934307763 -0.0758910504 -6.8506e-06 0.0001809515 0.0002785754 9.0392e-05 -0.6469902592 0.5485253627
350297900.0 0.0925340089 -0.0772197287 0.00013748 7.67926e-05 0.0001513214 0.0001376393 -0.6413784623 0.5555424351
355297870.0 0.0908179186 -0.0787463942 -2.5419e-06 2.6746e-06 9.33081e-05 0.0001082309 -0.635343131 0.5615209011
360297840.0 0.0894031416 -0.0798469041 9.68755e-05 4.8103e-05 0.0001622932 7.07807e-05 -0.6294830402 0.568378719
365297810.0 0.087912581 -0.0810696352 0.0003149777 -1.55551e-05 -8.60596e-05 -8.29181e-05 -0.6232307998 0.5751143659
370297780.0 0.0866576466 -0.0824638229 9.25639e-05 -6.14678e-05 5.79062e-05 9.76387e-05 -0.6175113255 0.5817085802
375297750.0 0.0856163347 -0.0834707303 0.0001283805 -3.54626e-05 8.50272e-05 0.0001146418 -0.6117427495 0.5878334915
380297720.0 0.0836634028 -0.0850895185 -6.7533e-06 6.68418e-05 6.15216e-05 0.0001275759 -0.6057678236 0.5940634495
385297690.0 0.0821806098 -0.0859324893 7.46933e-05 0.0001172427 8.75214e-05 4.76251e-05 -0.5992171047 0.6006038507
390297660.0 0.080877572 -0.0871503562 0.0001820749 4.92414e-05 -0.0001743828 5.08027e-05 -0.5936490078 0.6066102605
395297630.0 0.0796704073 -0.0885133242 0.0002339145 0.0001742723 0.0002571529 1.25051e-05 -0.5868057029 0.6128982263
400297600.0 0.078244459 -0.089311456 4.6906e-06 -7.2116e-06 -8.76852e-05 -6.10642e-05 -0.5806801235 0.6184011913
405297570.0 0.0765045209 -0.0903737209 7.83094e-05 -2.61404e-05 0.0002065098 -4.44537e-05 -0.5741214387 0.6248535224
410297540.0 0.0749497972 -0.091686004 0.0002961194 9.1746e-05 -6.0692e-06 0.0001202469 -0.567465897 0.6306651569
415297510.0 0.0735575332 -0.0928912923 0.0002104512 -7.27421e-05 8.80435e-05 0.0002027834 -0.5608174916 0.6361909485
420297480.0 0.0722442721 -0.0935603744 2.49585e-05 7.19927e-05 6.07668e-05 3.84268e-05 -0.5540542484 0.6421054019
425297450.0 0.0706300479 -0.0946237583 0.0001158667 9.30419e-05 0.0002694752 0.0001002856 -0.5482643714 0.6480433773
430297420.0 0.0693309735 -0.0956788866 0.0001967723 0.0001620883 2.46382e-05 -7.59992e-05 -0.5415250479 0.6530047688
435297390.0 0.0675766133 -0.0965538615 -3.92275e-05 3.82002e-05 0.0001449942 -7.70525e-05 -0.5338037872 0.6585559534
440297360.0 0.0660763641 -0.0976772939 -3.8472e-06 0.0002825558 0.0001812913 4.63724e-05 -0.5269363803 0.663568664
445297330.0 0.0646358457 -0.0982798131 0.0003545381 -6.63434e-05 9.4102e-05 8.36523e-05 -0.5204400428 0.6684522438
450297300.0 0.0633395639 -0.0994069496 -0.0001090902 -0.000207771 6.39982e-05 1.7e-05 -0.5129784437 0.6740146756
455297270.0 0.0613862537 -0.1001105911 0.0002306144 0.0001700528 7.6023e-06 -0.000129121 -0.5062796706 0.6782682461
460297240.0 0.0600275187 -0.1011017024 -3.18994e-05 -2.71501e-05 3.08089e-05 -2.67401e-05 -0.5002552109 0.6840567144
465297210.0 0.0584536188 -0.1018344497 0.0001864621 -1.93151e-05 0.000145016 0.0001506071 -0.491827122 0.6889859628
470297180.0 0.0567419143 -0.1023135899 -5.90905e-05 8.41437e-05 0.0001172617 8.07927e-05 -0.4847247116 0.6943286323
475297150.0 0.0550090481 -0.1033613871 -0.0002123756 0.0001944719 0.0002097209 3.27379e-05 -0.4777294935 0.6983247354
480297120.0 0.0536228262 -0.1040023838 0.0003440543 -0.0002333557 5.89939e-05 -3.03509e-05 -0.4700826873 0.7036529322
485297090.0 0.0519153905 -0.1046233992 0.0003820088 0.0001138661 -2.52035e-05 0.0003035075 -0.4636512081 0.7081326259
490297060.0 0.0501663415 -0.1052166013 0.0003863108 -2.39827e-05 3.46723e-05 0.0001158043 -0.4559777468 0.7123415601
495297030.0 0.0486189548 -0.105705401 0.0001080293 0.0003357107 0.0002270996 4.21227e-05 -0.4483907709 0.717720038
500297000.0 0.0472603162 -0.1065082347 0.000186962 0.0001639448 2.0227e-06 -0.0001850446 -0.4409070013 0.7224562639
505296970.0 0.0456227579 -0.1073387368 0.0002554498 0.0001125981 0.0001188312 0.000139197 -0.4336530336 0.7266933098
510296940.0 0.0440948082 -0.1079715337 -0.0001740564 0.0001351842 0.0002530289 -8.125e-06 -0.4258760172 0.7307430271
515296910.0 0.0426598809 -0.1080747791 0.0001036312 6.27449e-05 -4.04126e-05 -0.0001307155 -0.4185620255 0.7347059762
520296880.0 0.0404747538 -0.1087529539 8.7283e-05 8.44202e-05 4.31758e-05 -0.0001662714 -0.4110066213 0.7394743921
525296850.0 0.0392374206 -0.1094146268 6.11024e-05 -4.04501e-05 0.0001540675 -8.59074e-05 -0.4039465201 0.7435124445
530296820.0 0.0375484323 -0.1097403296 -0.0001835127 -1.14606e-05 0.0002118885 -7.49129e-05 -0.3967337576 0.7477749117
535296790.0 0.0357586444 -0.1100874215 0.0001891886 0.000108095 -0.0001922688 -8.69558e-05 -0.3892655972 0.7515584077
540296760.0 0.0339953991 -0.1104710982 0.000163997 0.0001982003 -3.2182e-06 3.3234e-06 -0.381057644 0.7555605721
545296730.0 0.0324266807 -0.1107438816 0.0001464408 4.45776e-05 2.82519e-05 -0.000289365 -0.3740174502 0.7591718605
550296700.0 0.0311786557 -0.1110357485 0.0002121887 -8.37565e-05 0.0001597588 -0.0001281868 -0.3657970853 0.7633786389
555296670.0 0.0290531481 -0.1116466787 0.0001932266 0.0003197192 0.0001569162 3.15764e-05 -0.357936688 0.7669316449
560296640.0 0.0276861392 -0.1117578211 8.9063e-05 -7.43162e-05 0.0002575046 0.000140012 -0.3501309464 0.7709362008
565296610.0 0.0256247881 -0.1121509477 0.0001496924 -1.65806e-05 0.0001362038 -1.01294e-05 -0.3421343034 0.77349495
570296580.0 0.0239055552 -0.112558286 0.0001803194 1.4682e-06 5.57884e-05 7.66965e-05 -0.3352566855 0.7775596915
575296550.0 0.022309822 -0.1125186922 4.75809e-05 -0.0001322804 0.0002495003 1.50301e-05 -0.3269845615 0.7807749326
580296520.0 0.0206598583 -0.1126543491 0.0001961077 -0.000153854 4.75381e-05 8.42516e-05 -0.3185813962 0.7838364732
585296490.0 0.0189049055 -0.1135347275 -7.62604e-05 7.49359e-05 -2.67542e-05 -1.79817e-05 -0.3106962938 0.7874265312
590296460.0 0.0176857244 -0.113055596 8.26772e-05 -8.92356e-05 0.0001054117 -2.1902e-06 -0.3030596198 0.7901353913
595296430.0 0.0154539194 -0.1134424205 6.89896e-05 -9.87137e-05 8.8931e-06 -8.67115e-05 -0.295002361 0.7924475287
600296400.0 0.0136252865 -0.1134588425 5.40165e-05 0.0001445125 0.0003433263 -8.36291e-05 -0.2865464716 0.795342208
605296370.0 0.0122776225 -0.1135197577 5.86906e-05 -0.0001167337 3.59667e-05 -9.88187e-05 -0.2780753468 0.7986895889
610296340.0 0.0105378232 -0.1137944295 -0.000134455 -3.4568e-06 7.03537e-05 0.0002300765 -0.2701638352 0.8009292516
615296310.0 0.0092598412 -0.1141352676 -5.90583e-05 6.54204e-05 -0.0001204415 0.0002270036 -0.2618292248 0.8031634835
620296280.0 0.0073007258 -0.114046118 0.0002925641 9.14529e-05 0.0001486965 -0.0001203655 -0.2539165172 0.8057940411
625296250.0 0.0055316472 -0.1140404598 -1.34339e-05 -9.0806e-06 0.0002111816 8.6883e-06 -0.2453749115 0.8080989952
630296220.0 0.0041224864 -0.1141253323 0.0001092861 -1.07822e-05 8.31521e-05 8.97619e-05 -0.2375433523 0.81059649
635296190.0 0.0021503829 -0.1140967489 0.0001641994 2.20766e-05 0.0001200683 -0.0001270109 -0.2295562928 0.8126659922
640296160.0 0.000683547 -0.1138709481 0.0001468347 -1.02321e-05 9.92409e-05 0.0002305458 -0.2214536651 0.8151622651
645296130.0 -0.0009233281 -0.1135012509 0.0004019714 0.0001080721 -2.27285e-05 -0.0002599637 -0.2132365764 0.817476344
650296100.0 -0.0028172543 -0.1136585654 0.000149909 8.61685e-05 0.000261247 8.80884e-05 -0.204791862 0.8185876789
655296070.0 -0.0046135158 -0.1138025422 -9.07495e-05 -0.0002621819 0.0002581956 -3.2887e-05 -0.1962969268 0.8207315683
660296040.0 -0.0062290266 -0.1135271332 9.45317e-05 -0.0001906973 8.34501e-05 0.0001077713 -0.1873925386 0.8231123076
665296010.0 -0.0075049471 -0.113721144 0.0001351404 -0.0002869304 5.29164e-05 3.58282e-05 -0.1791709388 0.8251415503
670295980.0 -0.0095649399 -0.1127497882 0.0003154509 0.0001168036 0.0003605793 0.0001530177 -0.1720751603 0.8264084706
675295950.0 -0.0112844012 -0.11249702 -0.0001190525 5.61967e-05 6.81502e-05 5.97551e-05 -0.1640630857 0.8284419006
680295920.0 -0.0129581597 -0.1122154767 0.0003227377 0.0002802667 0.0001490484 5.67871e-05 -0.1550829557 0.8309437649
685295890.0 -0.0144010287 -0.1118413614 0.0001601698 0.0001331665 0.0002001907 -0.0001791092 -0.1460106444 0.8316607748
690295860.0 -0.0158406238 -0.111866798 0.0003963317 6.30877e-05 0.0004615111 7.23979e-05 -0.1380662071 0.8338942449
695295830.0 -0.0177684215 -0.1115062682 0.0003140601 -4.3209e-06 5.71464e-05 -1.37139e-05 -0.1287209176 0.8345798462
700295800.0 -0.0192760712 -0.1112646333 0.0002940509 9.0687e-06 0.0002008091 0.0001403189 -0.1218526751 0.836031225
705295770.0 -0.0211996705 -0.1107538058 0.0002381655 0.0001359666 0.0001737246 -4.8125e-06 -0.1134863857 0.8379262582
710295740.0 -0.0227318418 -0.1101927726 0.0001569191 7.62265e-05 0.0001265727 -3.29029e-05 -0.1050617415 0.8384722507
715295710.0 -0.0244631296 -0.109994421 0.0002599532 8.44869e-05 8.42673e-05 -9.233e-05 -0.0963865507 0.8390462749
720295680.0 -0.0256573349 -0.1096836781 0.0001110633 4.56073e-05 6.19922e-05 -0.0002026821 -0.087745152 0.8410677593
725295650.0 -0.0273490662 -0.1089036286 0.0001088409 -5.90139e-05 3.37307e-05 -0.0001131726 -0.0797812884 0.8419819127
730295620.0 -0.0292244812 -0.1084308137 0.0002641632 0.0002750338 0.0002356526 -0.0001319469 -0.0721607632 0.8417646369
735295590.0 -0.030769309 -0.1079903329 0.0002159072 0.0001412347 -9.23806e-05 -5.42761e-05 -0.0634376084 0.8424636645
740295560.0 -0.0323925973 -0.1072455972 0.0001856185 -0.0001241139 0.0002412952 5.24914e-05 -0.0541590643 0.8435673548
745295530.0 -0.0339414621 -0.1070180712 0.0001537121 -8.5149e-06 0.0001823584 0.0001901942 -0.0460592126 0.8436463728
750295500.0 -0.0353361174 -0.1063594489 3.92533e-05 2.57225e-05 0.0004228771 6.4435e-06 -0.0379591965 0.8439529379
755295470.0 -0.0374981993 -0.1058689664 0.0003085645 -7.53747e-05 0.0002489503 -0.0001159284 -0.0292894575 0.843712373
760295440.0 -0.0390578454 -0.1051167155 -5.39473e-05 -0.00010671 0.0001017109 -7.46158e-05 -0.0206324827 0.8444759148
765295410.0 -0.0402126557 -0.1044842466 0.0002522955 2.60194e-05 6.47183e-05 -8.7432e-06 -0.0122491377 0.844972789
770295380.0 -0.0419158797 -0.1038459328 6.06746e-05 1.94735e-05 0.0001089537 -3.96979e-05 -0.0042570585 0.8449153642
775295350.0 -0.0436413396 -0.1033669055 0.0001584236 -0.0001492028 0.0001534669 -0.0001355813 0.0036344687 0.843859594
780295320.0 -0.045035714 -0.1025535496 0.0002395531 0.0003331211 0.0001108642 3.9305e-05 0.0120921335 0.8441640337
785295290.0 -0.0465896459 -0.1023187191 0.0003856552 3.33131e-05 7.34323e-05 -9.82707e-05 0.0209426936 0.8436697599
790295260.0 -0.0477676601 -0.1012630303 0.0003196822 0.0001134578 0.0001793965 -4.7164e-06 0.0297284297 0.8439994917
795295230.0 -0.0493306106 -0.1003367595 0.0002625798 -0.0001702043 0.0001603069 -0.0001662753 0.0387100214 0.8426869258
800295200.0 -0.0511431855 -0.0996269604 4.14764e-05 -0.0001550924 4.69109e-05 -3.93874e-05 0.0469815895 0.842550155
805295170.0 -0.0522507536 -0.0988587729 0.0001856669 -2.53544e-05 0.0002183832 0.0001199343 0.0550597545 0.8425298862
810295140.0 -0.0537559869 -0.0983519463 2.6639e-05 6.67854e-05 0.0001417703 2.27637e-05 0.0635629558 0.8413067921
815295110.0 -0.0557240721 -0.0974778242 0.000355324 0.0001934337 8.98718e-05 -7.1611e-06 0.0724660207 0.840976533
820295080.0 -0.0568545039 -0.096366606 1.77548e-05 -0.0002754637 0.0001875071 -9.90391e-05 0.0803197706 0.8405941413
825295050.0 -0.0580691072 -0.0955582339 0.0003071405 -0.0002061101 -4.23688e-05 7.12776e-05 0.0882174416 0.8394100207
830295020.0 -0.059440486 -0.0947081404 0.0001758963 0.0001233422 0.0003239073 0.0001095572 0.0974872726 0.8384771246
835294990.0 -0.0609344014 -0.0938602776 9.63446e-05 0.0001611604 -1.0202e-06 -0.0002692022 0.1050583499 0.8377088348
840294960.0 -0.0624737934 -0.0925000279 0.0001080005 -3.41125e-05 0.0002092535 -0.0001483039 0.113745381 0.836455756
845294930.0 -0.0637383937 -0.0917301003 0.0003032853 -1.32865e-05 0.0003599562 1.4366e-06 0.1215292786 0.8348475408
850294900.0 -0.0650274171 -0.0905554201 3.33453e-05 -0.0001658917 0.0001739797 -4.55056e-05 0.1299015363 0.8339861766
