!Created with skrf (http://scikit-rf.org).
# Hz S RI R 50.0 
!freq ReS11 ImS11 ReS21 ImS21 ReS12 ImS12 ReS22 ImS22
300000.0 -0.7733325172 -0.1745298657 -0.001518757 -0.0029691143 0.0010399168 0.0011599652 -0.761159124 -0.192661326
5299970.0 -0.7860625859 -0.0089379875 -0.0003495695 6.43168e-05 -0.000115571 -0.0002881658 -0.7842422073 -0.0102714537
10299940.0 -0.7893090103 -0.005747802 3.82639e-05 -4.68689e-05 -1.46836e-05 -6.77423e-05 -0.7872500799 -0.0056010968
15299910.0 -0.7947132699 -0.0030952307 -6.49708e-05 -1.1053e-05 3.80093e-05 3.3632e-05 -0.7923272016 -0.0028901351
20299880.0 -0.800968159 0.0007296921 -1.22659e-05 8.16508e-05 -0.0002296062 -0.0001054469 -0.7991798392 0.0017360928
25299850.0 -0.8080217479 0.0063532719 -0.0001341806 4.0834e-05 6.23318e-05 -7.70266e-05 -0.8055602669 0.0078809591
30299820.0 -0.8140203176 0.0134849473 -9.73381e-05 0.0001572686 -0.0002676131 2.69718e-05 -0.8115942341 0.0157883863
35299790.0 -0.8188985827 0.0229449528 -0.0001410239 -6.93099e-05 0.0001784532 -2.89511e-05 -0.816880401 0.0247943083
40299760.0 -0.823569194 0.032008062 4.98784e-05 -2.34979e-05 8.30719e-05 -3.09186e-05 -0.8208249327 0.034131174
45299730.0 -0.8265018172 0.0418537292 -4.31855e-05 0.0001029139 8.81725e-05 -4.37535e-05 -0.8236792306 0.0440880229
50299700.0 -0.8291547229 0.0520965384 6.65699e-05 0.0001050772 -0.0001200341 7.35107e-05 -0.8261248501 0.0537621589
55299670.0 -0.8313123132 0.0613455992 -1.28535e-05 9.8045e-06 -2.21776e-05 0.0001045934 -0.8282966665 0.0642044848
60299640.0 -0.8329308649 0.0721699829 0.000131789 6.19691e-05 0.0001726745 1.90937e-05 -0.8295318821 0.0745008738
65299610.0 -0.8333149837 0.0819056599 6.47335e-05 -5.70082e-05 -0.0002320624 -9.61737e-05 -0.8301004176 0.0843271199
70299580.0 -0.8335920578 0.0918019368 -0.0002463419 4.96843e-05 -4.29805e-05 -1.56431e-05 -0.8309444189 0.0937244189
75299550.0 -0.8342397799 0.1020055708 -0.0001502264 -3.14733e-05 -0.0001177737 -0.0001024231 -0.8302244619 0.1036443397
80299520.0 -0.8339352926 0.1125149721 0.0001662342 0.0001970477 -4.62911e-05 -7.19219e-05 -0.8307366196 0.1137650492
85299490.0 -0.8328886654 0.1214010988 -2.91564e-05 -5.66436e-05 -8.87975e-05 -9.98597e-05 -0.8293667433 0.1231899901
90299460.0 -0.8324260579 0.1319342981 -5.15208e-05 1.88242e-05 6.32695e-05 -2.58657e-05 -0.8282768738 0.1326871727
95299430.0 -0.8318310133 0.1406534346 7.18793e-05 4.97198e-05 6.38165e-05 3.5474e-05 -0.8275958024 0.1426564589
100299400.0 -0.8303409131 0.1504361366 0.0001415446 5.17514e-05 2.73286e-05 3.13962e-05 -0.8271395412 0.1515581228
105299370.0 -0.8286554492 0.1595768645 5.3513e-05 -8.32869e-05 1.59658e-05 1.43479e-05 -0.8254763882 0.1607997387
110299340.0 -0.8279393254 0.1687163702 -3.56121e-05 0.00015928 7.99786e-05 -8.55812e-05 -0.8239984954 0.1697031962
115299310.0 -0.8262118125 0.1780749083 6.3607e-06 -7.52095e-05 0.0001168245 -0.0001231107 -0.8227499268 0.179440546
120299280.0 -0.8243228839 0.1869245414 -0.0002446055 -0.0002319234 -0.0001115536 -0.000200852 -0.8205320499 0.1879632773
125299250.0 -0.822536711 0.1956092613 9.64791e-05 0.0002183107 -0.0002286692 7.79058e-05 -0.8196729026 0.1970307288
130299220.0 -0.8209757441 0.2053655433 6.1205e-06 -1.80506e-05 0.0001724682 -0.0002380362 -0.817449839 0.2056090285
135299190.0 -0.8186208547 0.2141876236 -8.86027e-05 0.0001181313 0.0001006684 -3.60808e-05 -0.815841707 0.2149633556
140299160.0 -0.8168214937 0.2235273289 -0.000175508 -7.77885e-05 -1.67416e-05 2.08039e-05 -0.8138890927 0.2230020961
145299130.0 -0.8150395191 0.2319613707 -6.55213e-05 2.50621e-05 2.32812e-05 2.88404e-05 -0.811849391 0.2325321966
150299100.0 -0.8117739672 0.2408211677 5.67866e-05 -5.24927e-05 -7.39714e-05 4.00845e-05 -0.809192103 0.2418840976
155299070.0 -0.8097991169 0.2498425139 0.0001732659 4.6819e-06 8.89267e-05 1.28819e-05 -0.8067434609 0.250398862
160299040.0 -0.8077929708 0.2589016022 -3.45847e-05 -0.0002408204 -7.91869e-05 -6.13616e-05 -0.8043070917 0.2588498841
165299010.0 -0.8044551669 0.2676968425 -0.0001582956 4.14108e-05 2.06092e-05 0.0001179407 -0.8016874901 0.2674109511
170298980.0 -0.8019330984 0.2764236626 2.16976e-05 -0.000176891 5.48707e-05 5.7428e-06 -0.7992945958 0.2754079003
175298950.0 -0.7993746543 0.2845906615 6.24937e-05 5.20641e-05 7.33628e-05 -3.7332e-06 -0.795961329 0.2848031715
180298920.0 -0.7963603114 0.2932018259 6.29893e-05 8.19741e-05 -2.56516e-05 -4.7147e-06 -0.7930108199 0.2935491314
185298890.0 -0.7924938399 0.3022166334 0.0001976451 -1.02304e-05 5.48347e-05 -7.41589e-05 -0.7898633159 0.3016509986
190298860.0 -0.7892009293 0.3111117953 -1.7606e-05 -6.13929e-05 -6.04733e-05 1.8223e-05 -0.7873196006 0.3100137471
195298830.0 -0.7864553349 0.3193199847 0.0002010513 -0.0001211115 0.0001861183 0.0001107084 -0.7836876966 0.3177841267
200298800.0 -0.7828465606 0.327859386 -0.0001282427 0.0002724401 0.0001499067 -3.7837e-05 -0.780633474 0.3265838215
205298770.0 -0.7793001271 0.3367635834 4.23152e-05 8.40745e-05 0.0002278404 -0.0001522905 -0.7770633669 0.3351677751
210298740.0 -0.7761004587 0.3443646361 -1.35057e-05 7.50716e-05 -6.45754e-05 0.0001711925 -0.7738801214 0.3431866388
215298710.0 -0.772767977 0.3534037742 0.000192816 6.35992e-05 0.0001307043 -0.000127024 -0.7700863391 0.3509348967
220298680.0 -0.768567601 0.3607584832 -0.0002833964 0.0001453026 -5.74984e-05 -5.60501e-05 -0.7664448165 0.3590072159
225298650.0 -0.7646374369 0.3693852012 0.0001097159 -6.60625e-05 0.000101936 -5.86601e-05 -0.7631530371 0.3677409793
230298620.0 -0.7609171555 0.3776963659 -2.52091e-05 -0.0001900283 -2.27167e-05 -2.43044e-05 -0.759068399 0.3759246978
235298590.0 -0.7570697727 0.3859658522 -0.000243013 -0.0002244344 -6.8788e-05 -2.55603e-05 -0.7547590784 0.3834188058
240298560.0 -0.7524473974 0.3934900791 0.000288392 -5.9559e-06 9.95149e-05 -3.01396e-05 -0.7506198324 0.3910177016
245298530.0 -0.7489669749 0.4018064251 -0.0001039363 -0.0003384568 8.87957e-05 5.60457e-05 -0.7470355736 0.3991406078
250298500.0 -0.7451272714 0.4097225611 0.0001156634 0.0001196966 0.0001533683 -0.000164198 -0.7425499953 0.4070747986
255298470.0 -0.7407275432 0.4176941598 -0.0001759443 0.00015514 -5.28753e-05 -7.88936e-05 -0.7380865355 0.415055441
260298440.0 -0.7364036733 0.4248847478 -0.0001002858 -2.03e-08 1.92223e-05 -0.0002622237 -0.7340350685 0.4219646231
265298410.0 -0.7321074695 0.4327987168 -8.11961e-05 3.42936e-05 -3.6e-06 7.1443e-06 -0.7295220878 0.429663653
270298380.0 -0.7276494097 0.4406731274 -3.34821e-05 -8.0913e-06 3.6464e-05 -0.0002155267 -0.7248386889 0.4384910152
275298350.0 -0.7234653175 0.4483413387 -3.77955e-05 9.86729e-05 -6.97637e-05 0.0001731522 -0.7201088586 0.4454315105
280298320.0 -0.7178542544 0.4555171237 8.45391e-05 0.0001030195 -9.18773e-05 6.79303e-05 -0.715859347 0.4530007326
285298290.0 -0.7134747086 0.4632025763 -1.4032e-06 0.0001173075 6.49496e-05 -0.000116285 -0.7120268075 0.4610450637
290298260.0 -0.7086064483 0.4710316256 0.000116372 0.0001337502 -2.92939e-05 -0.0001412005 -0.7064585955 0.4679183843
295298230.0 -0.7040707406 0.4782834307 -0.0001518917 2.84824e-05 -0.0001013648 -0.0002509418 -0.7012490701 0.4747876516
300298200.0 -0.6994457651 0.4851762782 0.0002209805 9.21077e-05 -0.0001230006 -2.08117e-05 -0.6962600857 0.4821327102
305298170.0 -0.6945757355 0.492560367 8.76225e-05 -5.61944e-05 1.72231e-05 -7.14009e-05 -0.6911619481 0.4896281042
310298140.0 -0.6885112391 0.4992829847 -0.0001446995 -0.0001704714 -5.71855e-05 -0.0001377099 -0.6860470324 0.4973116774
315298110.0 -0.6848189909 0.5073042256 0.0001927227 -0.000113785 -2.42957e-05 0.0001340535 -0.6811119017 0.5040271592
320298080.0 -0.6787991828 0.5142771316 -9.65313e-05 -0.000149378 0.0001446664 7.99646e-05 -0.6760737867 0.5105289903
325298050.0 -0.6735812339 0.5206956859 0.0001344816 4.61467e-05 4.47773e-05 4.75198e-05 -0.6698142285 0.517530582
330298020.0 -0.6681425939 0.5276646805 4.73711e-05 0.0002584612 -4.9701e-06 -4.87655e-05 -0.6646153496 0.5244702817
335297990.0 -0.6629151213 0.5347441332 -7.31401e-05 -0.0001779679 7.65138e-05 -0.0002346494 -0.6590269381 0.5319113154
340297960.0 -0.6577940337 0.541339367 4.30239e-05 4.0111e-06 9.5079e-05 7.68443e-05 -0.6537329755 0.5386062787
345297930.0 -0.652140961 0.5483514473 3.03501e-05 0.0001908456 -0.0001041352 0.0001699862 -0.6483139912 0.5448334525
350297900.0 -0.6464111873 0.5548702141 -0.0001327191 3.29074e-05 4.38487e-05 8.57516e-05 -0.6435311117 0.5513563137
355297870.0 -0.6410149435 0.5610593684 -6.47543e-05 -0.00025975 4.71606e-05 -0.0001588378 -0.6367462994 0.5589254751
360297840.0 -0.6348279857 0.5684626062 2.54784e-05 -7.94335e-05 4.21077e-05 -2.28369e-05 -0.6300047728 0.5652574128
365297810.0 -0.6297045538 0.5746212903 -0.000151909 8.89881e-05 -0.000135953 -0.0002542769 -0.6259317042 0.5704538998
370297780.0 -0.6236551682 0.5811079275 0.0001066372 -0.0001807417 2.3831e-05 -2.60383e-05 -0.6196578445 0.5779661014
375297750.0 -0.6177342015 0.5868945898 -0.000132981 1.55438e-05 5.48236e-05 0.0001201764 -0.6128534136 0.5844077815
380297720.0 -0.6116377712 0.5936305765 0.0001929018 5.52103e-05 4.5061e-06 -5.56301e-05 -0.606725782 0.5903815116
385297690.0 -0.6064661802 0.5995440658 0.0002845692 0.0001118237 -6.74205e-05 -0.0001148474 -0.6012545598 0.5968742221
390297660.0 -0.5986712521 0.6054129951 -7.4448e-06 9.17525e-05 1.42095e-05 2.49603e-05 -0.5945531214 0.6018155684
395297630.0 -0.5927730527 0.6123628839 -0.0001437108 -2.93677e-05 0.0002974541 -3.9226e-06 -0.5874963126 0.6080002167
400297600.0 -0.5866802154 0.6181562149 0.0002030294 -9.81008e-05 1.90198e-05 -8.30566e-05 -0.5826927392 0.6143145729
405297570.0 -0.5808510419 0.6236582902 -1.77947e-05 -0.0002277565 -1.69143e-05 -0.0002518369 -0.5755331659 0.6201035809
410297540.0 -0.573847781 0.6298705022 4.72597e-05 4.095e-05 -0.0001246724 -0.0001360297 -0.5694696714 0.6259312943
415297510.0 -0.5679052121 0.6353476713 -0.0003550737 0.0001067259 -1.06522e-05 0.0002431982 -0.5633924803 0.6319190508
420297480.0 -0.5608838273 0.6415064663 -9.8272e-06 3.76377e-05 3.9107e-06 -0.0001022308 -0.556359893 0.6380152491
425297450.0 -0.5546657406 0.6467633263 -6.95536e-05 -0.0002191114 2.68681e-05 0.0001505754 -0.5492476092 0.6428442192
430297420.0 -0.5480550846 0.6523648623 -7.76038e-05 -9.96596e-05 -0.0001587191 0.0002353305 -0.5429230986 0.6486223489
435297390.0 -0.5406433191 0.6578158232 -9.54209e-05 0.0001651961 0.0001613957 0.0002342707 -0.5364980477 0.6541961539
440297360.0 -0.5341975592 0.6634375914 4.5645e-06 -0.0001576179 -0.0001479513 -6.23858e-05 -0.5303374555 0.6597200794
445297330.0 -0.5270309798 0.6681825189 -1.90879e-05 0.0001067892 0.0002557099 -6.64037e-05 -0.5229921565 0.6653419769
450297300.0 -0.5202163693 0.6737328776 4.32882e-05 -0.0001172905 7.02584e-05 0.0001326128 -0.5157178221 0.6699420512
455297270.0 -0.5139567203 0.6784214882 -1.92807e-05 6.53945e-05 -0.0001042371 -0.0001557145 -0.5089858204 0.6748374594
460297240.0 -0.5062602417 0.6843386236 0.0001622528 7.42339e-05 6.34252e-05 -7.74396e-05 -0.5022806904 0.6801658322
465297210.0 -0.4993371582 0.688641912 2.6858e-06 -3.75858e-05 4.02278e-05 1.52817e-05 -0.4952488203 0.6861023664
470297180.0 -0.4918812659 0.6939697149 8.00019e-05 -1.93995e-05 -6.56726e-05 0.000148979 -0.4880556079 0.6904602483
475297150.0 -0.4843841886 0.6992265812 -8.14918e-05 -0.0001020045 0.0003693906 -0.0001787386 -0.4811692333 0.6957275785
480297120.0 -0.4772241351 0.7039210766 -0.0001608068 -9.95613e-05 5.2439e-05 8.3925e-06 -0.4740858876 0.6999748488
485297090.0 -0.4698634119 0.7084579008 4.947e-07 -4.82789e-05 -0.0001510503 1.74603e-05 -0.4668137674 0.7049697576
490297060.0 -0.4621348161 0.7137540867 8.57585e-05 3.48668e-05 4.61239e-05 0.0001441017 -0.4592493944 0.7093498862
495297030.0 -0.4546737782 0.718196788 6.8506e-05 1.14553e-05 2.48755e-05 -0.0001457723 -0.4524947047 0.7137397823
500297000.0 -0.4471230107 0.722083454 -4.79236e-05 6.78271e-05 2.85569e-05 -2.27901e-05 -0.4449581011 0.7188902289
505296970.0 -0.4395754307 0.727313811 0.0001337623 8.05177e-05 -5.1614e-06 0.0001495391 -0.4376493352 0.7226582716
510296940.0 -0.4320480714 0.7315252306 -0.0001234605 2.92366e-05 0.000110099 -0.0001254229 -0.4298625811 0.7275700554
515296910.0 -0.4242582266 0.7363066816 -6.91942e-05 8.8803e-05 -0.0001338601 -5.69685e-05 -0.4227688671 0.7312061575
520296880.0 -0.4161075683 0.7399119809 -0.0001016653 -1.4414e-06 -9.664e-06 -5.07634e-05 -0.415596058 0.7361840286
525296850.0 -0.4086054865 0.7441426991 0.0001307284 -8.87529e-05 7.34641e-05 -4.58087e-05 -0.4080338479 0.7399983124
530296820.0 -0.4012424425 0.7483244713 -0.0001171477 -3.77308e-05 -2.40283e-05 6.63469e-05 -0.4005206815 0.743423125
535296790.0 -0.3929430976 0.7519359082 8.9755e-05 -3.92087e-05 -7.30995e-05 -0.0002064607 -0.392802926 0.7481138513
540296760.0 -0.3851728801 0.7559673428 -2.12283e-05 7.7503e-05 -1.90095e-05 -0.0001404635 -0.3847533959 0.7515737909
545296730.0 -0.3774426217 0.7602538433 4.16979e-05 -0.000119007 -6.8492e-06 -2.96938e-05 -0.3773258416 0.7556489404
550296700.0 -0.3695495583 0.7638209161 0.000123233 -7.36079e-05 0.000334642 -0.0001373926 -0.3699672609 0.7592561611
555296670.0 -0.3615647276 0.7672164895 -1.7347e-06 0.0001178499 8.69933e-05 -0.0001252716 -0.3622532129 0.7624382724
560296640.0 -0.3529737193 0.7707684671 -9.42319e-05 4.81671e-05 2.51579e-05 -2.60745e-05 -0.3548920867 0.7670699872
565296610.0 -0.3452793764 0.774734742 5.43119e-05 8.33769e-05 9.69067e-05 5.92462e-05 -0.3464974829 0.7702752688
570296580.0 -0.3369085908 0.7777934076 8.83663e-05 3.9956e-06 1.28914e-05 -8.09219e-05 -0.3389340202 0.7730566893
575296550.0 -0.3281044479 0.7813220237 -0.0001199443 -2.13955e-05 -5.25474e-05 0.0001230041 -0.3308072397 0.7768247565
580296520.0 -0.3210928409 0.7846814186 -6.99034e-05 -4.35079e-05 7.79456e-05 0.0001369614 -0.3232736379 0.7797263743
585296490.0 -0.3129062523 0.7875407045 -0.0001799657 0.0001099705 -8.195e-06 -1.69806e-05 -0.3150676864 0.7835499101
590296460.0 -0.3041060442 0.7912136154 9.84641e-05 0.0001203297 -6.91364e-05 -9.09055e-05 -0.3078551595 0.7857029869
595296430.0 -0.2961504562 0.793469635 7.64265e-05 -4.4183e-06 -9.15371e-05 0.0001950521 -0.2997417329 0.7892461855
600296400.0 -0.2881858611 0.7968617987 2.84183e-05 2.86898e-05 8.7186e-06 0.0001284154 -0.2916855458 0.7920598497
605296370.0 -0.2795722119 0.7992135728 -3.18073e-05 8.44982e-05 7.6876e-05 -0.0001919235 -0.2835746255 0.7949070648
610296340.0 -0.2711721965 0.8028686099 -0.0002199301 8.69746e-05 -3.51699e-05 0.0001128408 -0.2759732257 0.7976535651
615296310.0 -0.2628936335 0.8056260077 -2.08654e-05 1.54997e-05 -0.0001665451 0.0001066586 -0.2672374293 0.8006859064
620296280.0 -0.2551323866 0.8084671183 -1.68752e-05 0.0001176436 4.39607e-05 6.20216e-05 -0.2599061531 0.8031398786
625296250.0 -0.2474071092 0.8098930428 0.0001646514 5.65702e-05 4.37024e-05 -1.233e-06 -0.2516666422 0.8055517656
630296220.0 -0.2385086817 0.813220016 5.25898e-05 -5.07849e-05 -4.49646e-05 6.55344e-05 -0.2430523278 0.8078721704
635296190.0 -0.2307413938 0.8153665617 -4.75734e-05 0.000226534 6.64219e-05 6.35936e-05 -0.235567338 0.8100648677
640296160.0 -0.2218995359 0.8178069255 0.0001182965 -8.94007e-05 -0.0001618837 8.0895e-06 -0.2269277185 0.8131364421
645296130.0 -0.2136343413 0.8207918278 -5.26817e-05 7.13443e-05 0.0001039755 -0.0001071992 -0.2194121422 0.814636471
650296100.0 -0.2051213463 0.8225130664 5.15676e-05 5.17354e-05 0.0001380644 -9.83647e-05 -0.2107846688 0.8168001582
655296070.0 -0.1974172957 0.8244856774 0.0001343586 -0.0002165618 8.13385e-05 -5.79018e-05 -0.2032663209 0.819363552
660296040.0 -0.1893088835 0.8264319743 0.0001317292 0.0001569584 0.0001023097 0.0001741614 -0.1941710189 0.8207438638
665296010.0 -0.1809800154 0.8279553594 0.0001203832 -3.71832e-05 7.16827e-05 1.9241e-05 -0.1863537753 0.8225412776
670295980.0 -0.1722523584 0.830748476 1.2212e-05 -0.0001259239 -7.49489e-05 -4.7152e-06 -0.1786280372 0.8248792557
675295950.0 -0.1638839077 0.8326840236 0.0001236314 -6.14809e-05 -0.0001075868 0.0001392409 -0.1695721373 0.8266064506
680295920.0 -0.156199566 0.8339374216 9.70956e-05 -0.000148924 1.1205e-06 -1.82593e-05 -0.1614934807 0.8274035054
685295890.0 -0.1472956175 0.8358167789 3.3623e-06 -1.82278e-05 -2.65555e-05 7.92834e-05 -0.1529738804 0.8296363364
690295860.0 -0.1392652048 0.837215892 0.0001590881 -0.0002467981 -4.849e-05 -9.66384e-05 -0.1453471633 0.8311346148
695295830.0 -0.1306889378 0.8383431241 -0.0001421918 -0.0001024211 -4.9814e-06 -0.0001654456 -0.1364595675 0.8327195996
700295800.0 -0.1225768793 0.83966154 9.36891e-05 -5.44092e-05 -0.0001027728 -1.69362e-05 -0.1280100841 0.83368007
705295770.0 -0.1144537967 0.841254089 -2.21132e-05 -4.34228e-05 -0.0001152434 0.0001274246 -0.1202328993 0.835446851
710295740.0 -0.1069330171 0.841900182 -0.0001411364 -0.0002116721 7.31673e-05 -6.9805e-06 -0.1115780914 0.8365595264
715295710.0 -0.0975049265 0.8436500173 0.0002112304 0.0001576343 0.0001561935 2.83646e-05 -0.1030581559 0.8362391652
720295680.0 -0.0889587485 0.844271235 7.58263e-05 0.0001297175 -2.79587e-05 -6.6344e-06 -0.0944992472 0.8379538916
725295650.0 -0.0818106586 0.8456784983 0.0002043301 3.73711e-05 -5.42237e-05 1.93278e-05 -0.0869601396 0.8391642089
730295620.0 -0.0735117031 0.8470528653 -3.88355e-05 -0.0002076361 -5.8409e-06 2.77155e-05 -0.0785021364 0.8403567828
735295590.0 -0.0655826323 0.8472431338 -9.32421e-05 -7.00237e-05 -3.52336e-05 0.0001370668 -0.06992647 0.8403499815
740295560.0 -0.0574445275 0.8474326808 -7.73938e-05 0.000182596 -2.661e-05 -5.41969e-05 -0.0613462455 0.8413918671
745295530.0 -0.0482544255 0.8484609282 1.0916e-06 0.0001070143 5.66615e-05 0.0001233793 -0.0534161804 0.8416718357
750295500.0 -0.0407003772 0.8496007531 -9.77422e-05 7.29226e-05 -7.50481e-05 0.0001003879 -0.0450625827 0.842167919
755295470.0 -0.0316618249 0.8498414784 -3.32119e-05 -8.43106e-05 0.0001206186 7.51757e-05 -0.0369447643 0.8427445692
760295440.0 -0.024260233 0.8508956555 7.35012e-05 -0.0001902462 -0.0001109257 -0.000193437 -0.0278373882 0.8425812353
765295410.0 -0.0155745404 0.8508740596 4.36332e-05 5.28199e-05 -2.37172e-05 -1.52923e-05 -0.0195152214 0.8433552433
770295380.0 -0.0082477016 0.8512888052 0.0002202503 7.18495e-05 9.53069e-05 2.16356e-05 -0.0114169242 0.8431857895
775295350.0 -0.0001682258 0.8515476464 -3.36325e-05 -6.17019e-05 2.29634e-05 9.46048e-05 -0.0034098765 0.8428573949
780295320.0 0.0085655023 0.8515030066 0.0001300337 9.2905e-05 9.84963e-05 5.63128e-05 0.0051798542 0.8436872816
785295290.0 0.0173270299 0.8510471924 0.0001344774 -8.03184e-05 0.0001115768 -5.35175e-05 0.0131316983 0.8434927511
790295260.0 0.0254608292 0.8508829925 5.74529e-05 5.82916e-05 -4.81617e-05 -4.23514e-05 0.02160833 0.8427887961
795295230.0 0.0331348598 0.8506840867 -0.0002292953 -7.48933e-05 1.23374e-05 -3.02481e-05 0.0298990645 0.8420075596
800295200.0 0.0409480965 0.8512183577 -2.60004e-05 -0.0001304054 -7.82797e-05 3.76606e-05 0.0380707875 0.8421542675
805295170.0 0.0488620133 0.8509811431 -0.0001112985 -9.593e-07 0.000168472 0.0001470263 0.0474360943 0.8417679559
810295140.0 0.0579295932 0.8500384435 6.4267e-06 -7.62728e-05 0.0002493555 0.0002517838 0.0559559382 0.8409810777
815295110.0 0.0653025023 0.8497382152 -2.17172e-05 2.04332e-05 -2.23188e-05 -0.0001396082 0.0633700974 0.840849878
820295080.0 0.0739332339 0.8488817563 0.0001647962 -2.84573e-05 3.64464e-05 3.68938e-05 0.0715317436 0.8404388881
825295050.0 0.0822367173 0.8485244422 -4.34679e-05 -8.04417e-05 2.28298e-05 -4.72682e-05 0.0801970783 0.8392758829
830295020.0 0.0904998624 0.8474992665 -5.3253e-05 -0.0002438835 -0.0001507104 2.58304e-05 0.0882316684 0.837684896
835294990.0 0.0981978535 0.8465105772 -7.6407e-06 6.07591e-05 -0.0001743318 0.0001452129 0.0967624197 0.8377873507
840294960.0 0.1070202123 0.8456844799 -8.9584e-06 5.83217e-05 2.52775e-05 9.93947e-05 0.1055224069 0.8366266678
845294930.0 0.1153472131 0.8441305801 0.0001013619 -0.000105459 -3.96591e-05 5.80999e-05 0.113746804 0.8355950471
850294900.0 0.1240790574 0.8431025197 -6.92046e-05 0.0001475256 2.94762e-05 -0.0001877724 0.1212201034 0.8347130631
