!Created with skrf (http://scikit-rf.org).
# Hz S RI R 50.0 
!freq ReS11 ImS11 ReS21 ImS21 ReS12 ImS12 ReS22 ImS22
300000.0 0.8612556382 -0.0020923988 -0.0004762436 0.0002340288 3.34733e-05 0.0001721398 -0.767226982 -0.1688398526
5299970.0 0.8594869361 -0.009713495 -0.0002608675 0.0002374613 0.0001059866 0.0001688168 -0.7842694073 -0.0082688478
10299940.0 0.8589535937 -0.0190624667 -2.3274e-05 0.0002744417 -3.63134e-05 0.0002329457 -0.7882264647 -0.0053113175
15299910.0 0.8581544738 -0.0275127126 -0.0001693274 -0.0002337638 3.96996e-05 9.1565e-05 -0.7932997587 -0.0029362353
20299880.0 0.8573983374 -0.0361436754 7.6531e-06 1.09488e-05 -5.91311e-05 -7.88433e-05 -0.7999891247 0.0015426015
25299850.0 0.8566469224 -0.0441182395 8.47953e-05 3.715e-07 -2.13835e-05 0.0002435951 -0.8068703915 0.0075894339
30299820.0 0.8560597415 -0.0520134576 5.2474e-06 9.70547e-05 -1.74181e-05 -0.0001146569 -0.8126327319 0.0151365942
35299790.0 0.8550310395 -0.0603130221 -2.56443e-05 -2.97307e-05 0.0001240169 -2.5834e-06 -0.8178245178 0.024318334
40299760.0 0.8540545757 -0.0681486307 0.0001660726 2.87609e-05 3.63806e-05 3.99225e-05 -0.821152706 0.0329377396
45299730.0 0.8536799889 -0.0764723019 6.35647e-05 0.0002005033 -0.0001858382 -0.0001026858 -0.8249666561 0.0421933223
50299700.0 0.8523961621 -0.0850753581 0.0001168295 0.0001227173 -8.40683e-05 8.83474e-05 -0.8279372078 0.0525516511
55299670.0 0.8514756144 -0.0932257767 0.0001554383 9.46587e-05 4.69193e-05 1.0028e-05 -0.8299968073 0.0628472897
60299640.0 0.8504736486 -0.1007436737 -0.00026028 0.0001268527 -0.000113832 -1.57417e-05 -0.8305812295 0.0730369972
65299610.0 0.8503677781 -0.109436439 0.000235902 -2.23286e-05 0.0001199083 -6.31018e-05 -0.8312059087 0.0832664622
70299580.0 0.8485843084 -0.1178918761 -8.39627e-05 -9.3658e-05 1.2471e-06 0.0001538952 -0.8325553571 0.0928724941
75299550.0 0.8476967117 -0.1259388211 -7.46682e-05 -0.0001259529 -3.34369e-05 0.0001076909 -0.8323813537 0.102669526
80299520.0 0.8459526491 -0.1343820125 1.99839e-05 -0.0001693197 0.0001005518 -0.0001848347 -0.8319500525 0.1124527358
85299490.0 0.8454430702 -0.1427376073 0.0001590675 -1.4141e-05 -5.21883e-05 3.0596e-06 -0.8316774174 0.1214107041
90299460.0 0.8429887072 -0.1503772182 -5.61208e-05 8.58364e-05 -7.37847e-05 2.04743e-05 -0.8306079386 0.1314337161
95299430.0 0.8419012472 -0.1585509972 -0.0001673951 -7.3873e-05 -8.29673e-05 -0.0002793537 -0.8296273328 0.1413343463
100299400.0 0.8398383875 -0.1669328472 5.91074e-05 -4.77037e-05 6.5821e-05 -2.24328e-05 -0.8289231087 0.1494526931
105299370.0 0.8382451963 -0.1752993611 -0.00017166 1.97636e-05 3.53608e-05 8.57642e-05 -0.8275271887 0.159298994
110299340.0 0.8364614298 -0.1830055341 8.50784e-05 0.0001095742 1.43185e-05 -7.5826e-05 -0.8267418582 0.1686557007
115299310.0 0.8346370469 -0.1915857441 1.50137e-05 -4.06559e-05 0.0001563929 5.16236e-05 -0.8250144814 0.1771815571
120299280.0 0.8327487215 -0.1992087033 0.0001807964 -7.76905e-05 5.00584e-05 0.000198474 -0.8236685333 0.1863024185
125299250.0 0.8303772234 -0.2078526128 -0.0001404532 8.12396e-05 -3.88086e-05 0.0001224577 -0.8219816368 0.1956917889
130299220.0 0.8282069667 -0.2154943533 -0.000140016 0.0001341152 -0.0001206051 7.49608e-05 -0.8198724084 0.2041619184
135299190.0 0.8266337169 -0.2238479377 -6.6624e-06 0.0001046527 -6.57815e-05 1.10074e-05 -0.8178355511 0.2128715974
140299160.0 0.8242856515 -0.2317288394 7.41143e-05 -8.90508e-05 -5.5259e-06 -0.0001727018 -0.8162171917 0.2212680706
145299130.0 0.8218555332 -0.2399722314 -0.0001333092 -2.9079e-06 -0.0001383855 -4.215e-07 -0.8138669019 0.2300944084
150299100.0 0.819712678 -0.2474872273 5.25933e-05 -7.36242e-05 -0.0001871612 2.4412e-06 -0.8117620481 0.2385681304
155299070.0 0.8168579611 -0.2556219578 0.0001849244 -0.0001915371 -2.34224e-05 7.96522e-05 -0.8096186265 0.2477175361
160299040.0 0.8143342676 -0.2636286945 -9.35863e-05 7.26941e-05 0.0001456962 -1.7374e-06 -0.8069818899 0.256678243
165299010.0 0.8121847471 -0.2711001109 0.0001046758 5.76014e-05 -0.0001077461 -6.76728e-05 -0.8043993821 0.2650861209
170298980.0 0.808961688 -0.2792487261 1.28337e-05 9.8326e-06 0.0001195281 8.11455e-05 -0.8019964233 0.2738369991
175298950.0 0.8064603287 -0.2869625923 -0.0001136944 0.0001169606 0.000186212 3.7646e-06 -0.7988805424 0.2820060526
180298920.0 0.8035648717 -0.2945467535 -5.57996e-05 9.80523e-05 0.0002843818 4.48307e-05 -0.7959808835 0.2906638513
185298890.0 0.8003749762 -0.3027258127 -5.1744e-05 0.0001019057 -9.76751e-05 -4.80603e-05 -0.792849703 0.2981783618
190298860.0 0.7970877817 -0.3107404194 -6.3431e-06 1.63075e-05 -6.6653e-06 7.86479e-05 -0.7893380066 0.307347775
195298830.0 0.7947582261 -0.318036577 0.0001661359 0.0001286884 4.9122e-06 4.98213e-05 -0.7868001927 0.3155221061
200298800.0 0.7912159765 -0.3264730874 -3.77078e-05 -8.91733e-05 -1.93264e-05 1.10468e-05 -0.7833466039 0.3241847613
205298770.0 0.7883794563 -0.3342553594 -6.94957e-05 2.50202e-05 -0.0001164403 -0.0001658817 -0.7795674971 0.3319680877
210298740.0 0.7851835689 -0.3413004562 -2.34669e-05 0.0002292038 -0.0001484305 0.000192329 -0.7767484665 0.3401947241
215298710.0 0.7811867588 -0.3489349894 0.0001121187 -0.0001609545 -0.000104702 -0.0001864212 -0.7731558975 0.3481026799
220298680.0 0.7782704568 -0.3567113114 4.20678e-05 5.41563e-05 -1.3969e-05 9.58869e-05 -0.7690634085 0.3569645341
225298650.0 0.7741474978 -0.3636793206 -5.2666e-05 -2.3845e-05 9.05258e-05 -7.80727e-05 -0.7654912995 0.3646135539
230298620.0 0.7705794894 -0.3718340308 -0.0001498468 -0.0002047297 0.0001008198 0.0001217169 -0.7614758171 0.3725628191
235298590.0 0.7671238544 -0.3786135613 -3.92509e-05 -4.37463e-05 -4.01774e-05 9.72441e-05 -0.7574434425 0.3807400346
240298560.0 0.763407214 -0.3875374811 -4.8405e-06 -0.0002320657 -0.0001457078 8.50079e-05 -0.7540049051 0.388648084
245298530.0 0.7598505139 -0.3935759787 1.42495e-05 0.0001521905 6.705e-07 -0.0001747474 -0.7497574889 0.3967035774
250298500.0 0.7557043189 -0.4013913999 -0.0001957933 0.0002605926 -4.17448e-05 -4.38405e-05 -0.745382939 0.4045784108
255298470.0 0.7515985353 -0.4085185922 -0.0002166197 0.000206767 -5.12601e-05 -0.0001353067 -0.7413762287 0.4124989309
260298440.0 0.7480454796 -0.4154840095 3.99549e-05 -3.06937e-05 0.0001065184 3.50747e-05 -0.7367303292 0.4196091112
265298410.0 0.7436624136 -0.4232297768 7.1496e-05 0.0002127726 -9.55345e-05 -7.2272e-06 -0.7323819586 0.4275609584
270298380.0 0.7399387302 -0.4298017309 0.0001596205 0.0002834205 0.0001489002 -0.0001638428 -0.7273563299 0.435302483
275298350.0 0.7359593136 -0.4364270561 0.0001120405 -5.21651e-05 0.0001335718 0.0001862073 -0.7228967945 0.4432009335
280298320.0 0.7320178032 -0.4441132112 3.76281e-05 -4.4812e-06 0.0001862865 0.0001290363 -0.7182045395 0.4502380043
285298290.0 0.7274486926 -0.451348479 -1.88525e-05 9.90398e-05 2.92779e-05 -0.0001259081 -0.7133668803 0.4580765829
290298260.0 0.72339122 -0.4589437274 3.4826e-05 6.99125e-05 0.0001112273 -0.0001437869 -0.7083537395 0.4656907713
295298230.0 0.7188806796 -0.4666180767 -0.0001634427 8.88769e-05 7.18642e-05 -8.97561e-05 -0.7034849173 0.4732021511
300298200.0 0.7148989236 -0.4742541144 0.0001176737 7.18534e-05 -6.4238e-05 3.12032e-05 -0.6987813383 0.4803235523
305298170.0 0.710664566 -0.4799692442 -0.0001338185 4.31752e-05 -5.94665e-05 0.0001441372 -0.6931526141 0.4877467092
310298140.0 0.7060880324 -0.4882372952 -4.10349e-05 2.42912e-05 -3.64829e-05 -0.0001916882 -0.6889712122 0.4947763487
315298110.0 0.7003799767 -0.4959557797 -6.97765e-05 -9.39106e-05 3.33809e-05 7.2048e-06 -0.6829363628 0.5026126972
320298080.0 0.6950151108 -0.5029926806 0.0001398228 2.80643e-05 -2.281e-07 -3.31782e-05 -0.6779230221 0.5095537369
325298050.0 0.6894066378 -0.5103251408 -8.45404e-05 -0.0001844759 -7.4228e-05 -7.5285e-06 -0.6716655015 0.516240701
330298020.0 0.683497163 -0.5169559865 0.0001005142 -0.0001066851 0.0002136988 -0.0002236927 -0.666096327 0.523196518
335297990.0 0.6778295084 -0.5231081827 -0.0001054136 0.0002092381 -1.07073e-05 -0.0001260073 -0.6612592145 0.5296097905
340297960.0 0.6724885699 -0.5294171409 0.0001595277 -3.42088e-05 0.0001065286 5.33311e-05 -0.6553628267 0.5369273079
345297930.0 0.6665147874 -0.5354603594 7.10996e-05 -6.84075e-05 -1.16993e-05 -9.1906e-05 -0.6493648599 0.5440517792
350297900.0 0.6615842135 -0.5424312895 0.000120977 -0.0001157937 2.8053e-05 -0.0001576819 -0.6437771811 0.5510618831
355297870.0 0.6559862718 -0.5485648831 8.70727e-05 8.5622e-06 -0.0001733952 -0.0002089317 -0.6381170035 0.557509767
360297840.0 0.6506728285 -0.5547443461 6.82714e-05 -9.54687e-05 -7.7221e-06 4.41713e-05 -0.6319939206 0.5635350923
365297810.0 0.645535876 -0.5606046933 -0.0001111002 -0.0001788667 5.33066e-05 -0.0001945717 -0.6263382728 0.5706983112
370297780.0 0.639591285 -0.5665019331 -5.51509e-05 -0.000106675 0.0001628285 -0.0001048143 -0.6208685331 0.5766825425
375297750.0 0.6335412271 -0.5724122663 -0.0001487238 2.15193e-05 6.18529e-05 0.0001074984 -0.6136812941 0.5831799383
380297720.0 0.629033699 -0.5782637321 -1.48615e-05 3.3403e-05 0.0001330271 3.67914e-05 -0.6077968789 0.5902299879
385297690.0 0.6227021697 -0.5847452357 0.0001268907 -4.33338e-05 1.584e-05 0.0003175339 -0.601470379 0.5961820728
390297660.0 0.6168288323 -0.5903182442 -1.21772e-05 3.8272e-06 -1.23055e-05 7.58165e-05 -0.5956000253 0.6015012724
395297630.0 0.6109561134 -0.5963179641 3.86248e-05 -5.9632e-06 9.589e-06 -8.48465e-05 -0.5891678868 0.6086076942
400297600.0 0.6048021941 -0.6023019387 -6.29371e-05 5.29419e-05 -3.41407e-05 -2.22125e-05 -0.5826982273 0.6141996603
405297570.0 0.5992792126 -0.6079194477 0.0001636567 -0.0001463948 -0.000135305 -0.0001950892 -0.5773157073 0.6202625575
410297540.0 0.5929450714 -0.6137838168 5.8042e-06 -3.37934e-05 1.41326e-05 -3.3172e-05 -0.5700895607 0.6258266096
415297510.0 0.5872443814 -0.6189523903 -0.0002507984 -8.66532e-05 2.1465e-06 -2.0874e-05 -0.5636801571 0.6315856945
420297480.0 0.5811896169 -0.6253366644 5.65647e-05 1.49929e-05 -3.35042e-05 -4.08052e-05 -0.5568927544 0.6370624943
425297450.0 0.5751447109 -0.6306841326 9.59592e-05 -0.0001004471 0.0001286921 -6.22779e-05 -0.5498864569 0.6429478829
430297420.0 0.5683453605 -0.6359590555 1.1733e-06 0.0001308511 8.36219e-05 0.0001155658 -0.543878739 0.648421643
435297390.0 0.5623075058 -0.6416865074 -0.0001255486 0.0001456408 1.55553e-05 -9.08146e-05 -0.5362733423 0.653669093
440297360.0 0.5559184699 -0.647164439 -2.89791e-05 1.16586e-05 -0.0001608164 3.32553e-05 -0.5302430699 0.658728654
445297330.0 0.5498510613 -0.6520888814 -7.20747e-05 -1.0422e-06 5.64715e-05 -0.0001187211 -0.5238243281 0.664334166
450297300.0 0.5432861914 -0.6578430597 1.29878e-05 -0.0001241005 -6.81834e-05 9.82595e-05 -0.5167022142 0.6700056573
455297270.0 0.5357673891 -0.6628124421 -9.525e-07 -0.000100015 -9.819e-06 -6.25215e-05 -0.5095705325 0.6750208522
460297240.0 0.5297582914 -0.6676712973 -4.2712e-06 -6.12829e-05 -0.0001196913 8.65027e-05 -0.5028110201 0.6803330541
465297210.0 0.5233893819 -0.6731660685 -9.82123e-05 -2.82923e-05 -7.10369e-05 -0.0001559426 -0.4962015472 0.6850892976
470297180.0 0.516338418 -0.6782806739 -6.9212e-06 -0.0001641778 -5.56373e-05 -0.0001244126 -0.489512366 0.689434485
475297150.0 0.5100573899 -0.6828448889 0.000125934 0.0001389995 -2.1946e-05 6.26561e-05 -0.4815893441 0.6947523665
480297120.0 0.5035620373 -0.6881930987 2.40407e-05 -5.29901e-05 3.9194e-05 0.00010255 -0.4751776368 0.7002331195
485297090.0 0.4961615253 -0.6925238021 -5.8262e-06 6.35225e-05 0.0002108021 -0.0001285311 -0.4677513662 0.7041775834
490297060.0 0.4901284218 -0.6973101907 -0.0002478689 0.0002091301 5.73878e-05 -0.000154033 -0.4610917313 0.7086579229
495297030.0 0.4832334138 -0.7020395034 8.03653e-05 -1.2011e-06 -6.62704e-05 0.0001782597 -0.4529971649 0.7124771499
500297000.0 0.4760380166 -0.7067213578 2.6564e-06 -7.72446e-05 -2.80371e-05 -0.0001321411 -0.4465051446 0.7180353915
505296970.0 0.4684606605 -0.7113348708 -3.84581e-05 -9.7441e-06 -5.13666e-05 -0.0001993489 -0.4397168763 0.7218212197
510296940.0 0.4617946579 -0.7153646928 8.97558e-05 -8.5108e-05 -3.20057e-05 8.69365e-05 -0.4316773344 0.7262404188
515296910.0 0.4544627492 -0.7204820454 -0.0001973597 0.0001536233 -0.0001339024 3.31219e-05 -0.4243437898 0.73098898
520296880.0 0.4478933841 -0.7246744415 0.0002223602 -0.0002170108 -2.43888e-05 2.76727e-05 -0.4173086394 0.7347015934
525296850.0 0.4405124044 -0.7286587204 8.7073e-06 -9.34725e-05 -0.0001512928 0.0003336822 -0.4100350675 0.7392863106
530296820.0 0.4330014394 -0.7329779226 -3.64824e-05 3.195e-05 2.01005e-05 0.0001405043 -0.4029616719 0.7427026986
535296790.0 0.4262469965 -0.7369045699 -0.000133832 -7.46124e-05 0.0001386247 -0.0002227888 -0.3951896582 0.7464393615
540296760.0 0.4183711346 -0.741200457 -1.7467e-05 0.0001952406 2.682e-07 -0.000189847 -0.3878676775 0.7508703102
545296730.0 0.4110108992 -0.7450414901 -0.0001731886 0.0002268709 0.0001365055 -0.0001016958 -0.3804216998 0.7541773359
550296700.0 0.4036966836 -0.7494459284 5.7374e-06 -7.10096e-05 -0.0001507104 -9.50391e-05 -0.3727218975 0.7578425235
555296670.0 0.3964507413 -0.7532325876 7.36452e-05 -0.0001377583 3.92981e-05 3.84435e-05 -0.3651859855 0.7617278487
560296640.0 0.3891528207 -0.757243479 8.83686e-05 5.59312e-05 6.61569e-05 -6.90959e-05 -0.3572584592 0.7655272957
565296610.0 0.3812492732 -0.7606118111 -0.0002442069 -0.0001259446 -0.0001545972 0.0001297378 -0.3499831916 0.7687710245
570296580.0 0.3746390313 -0.76471586 -6.92168e-05 -3.08729e-05 4.50403e-05 -0.0001699659 -0.3425761504 0.7719739224
575296550.0 0.3668830253 -0.7672130283 -8.05099e-05 0.0001010937 0.0001313289 -5.6866e-06 -0.3346556376 0.7757971195
580296520.0 0.3588726227 -0.770440878 0.0001431977 0.0002031945 -1.95751e-05 -0.0003303999 -0.3266996344 0.7789059611
585296490.0 0.3506740009 -0.7744419882 -5.3637e-05 0.0001761248 -8.44401e-05 -0.0002269279 -0.319479581 0.781778909
590296460.0 0.3433510329 -0.7779439584 -6.08234e-05 0.0001969188 -0.0001614371 0.0001022968 -0.3113596969 0.7850178743
595296430.0 0.3359978837 -0.7808878476 -5.76475e-05 -0.0001022951 0.0002029734 -1.98356e-05 -0.3036170326 0.7872516747
600296400.0 0.3277788472 -0.7839906347 -0.0003435418 0.0001077462 -6.55741e-05 -2.09425e-05 -0.2958284368 0.7911130786
605296370.0 0.3208655083 -0.7863450512 4.53504e-05 5.88138e-05 0.0002659934 4.72509e-05 -0.2880333655 0.794102406
610296340.0 0.3125307365 -0.7907824848 3.32106e-05 0.0001677297 9.52699e-05 0.0001433893 -0.2799864195 0.7972730673
615296310.0 0.3047965179 -0.7922953087 -0.0002774832 -6.2556e-06 -5.71312e-05 -0.0001100475 -0.2718789248 0.7995170435
620296280.0 0.2972631229 -0.7956718956 -6.0228e-06 0.0001525156 2.46985e-05 0.0002121141 -0.2644777943 0.8017846452
625296250.0 0.2893568411 -0.7981636555 5.0394e-05 0.0001029893 -0.0001910403 -9.70105e-05 -0.2567722367 0.8046303096
630296220.0 0.2809781989 -0.8021100782 -1.89813e-05 -0.0001023826 5.06593e-05 -8.78715e-05 -0.2485861496 0.8070655168
635296190.0 0.273013079 -0.8045585841 0.0001026003 -0.0001019067 0.0001523249 1.00102e-05 -0.2407463161 0.8093382489
640296160.0 0.2657644741 -0.8059770917 -7.173e-05 -4.82507e-05 -5.21146e-05 3.9444e-05 -0.2318705694 0.8114364825
645296130.0 0.2572912919 -0.8092367572 0.0001236481 8.52049e-05 -5.96367e-05 2.20897e-05 -0.2248305507 0.8140062537
650296100.0 0.2491087924 -0.8108641474 -9.89775e-05 -8.97837e-05 -1.4265e-06 5.10214e-05 -0.2161331962 0.8163556478
655296070.0 0.2418596025 -0.8135314173 -0.0001514607 -0.0001589573 0.0001399648 -3.67513e-05 -0.2082229692 0.8178431459
660296040.0 0.232652509 -0.8158731161 -0.0002548921 -3.71168e-05 -0.0001022162 -1.63517e-05 -0.2006470998 0.8203626786
665296010.0 0.225098986 -0.8177554991 -0.0001596874 -6.13629e-05 -4.04504e-05 7.88536e-05 -0.1920896614 0.8225674108
670295980.0 0.217816115 -0.820327542 0.000111378 6.73978e-05 0.0001480033 0.0001653061 -0.1853277731 0.8242833115
675295950.0 0.2092226942 -0.8223285269 6.39142e-05 0.0001591222 7.2938e-05 2.15772e-05 -0.1758102071 0.8263682558
680295920.0 0.2002558943 -0.8237119633 2.88522e-05 0.0001346179 -6.1436e-06 -7.42669e-05 -0.1677443221 0.8276736983
685295890.0 0.1924653579 -0.8253420014 -0.0001567309 3.00971e-05 0.0001378849 -5.65787e-05 -0.1593651871 0.829011595
690295860.0 0.1852520181 -0.8274546599 -1.36728e-05 -0.0001041982 -0.0001019514 2.95365e-05 -0.1512075533 0.8308109504
695295830.0 0.1761060963 -0.8291307612 -1.00217e-05 4.6366e-05 0.000121891 -6.01588e-05 -0.1434478793 0.8322054803
700295800.0 0.1686811131 -0.8301390755 -7.31005e-05 -7.13489e-05 -7.46393e-05 0.0001096504 -0.1349799697 0.8334435829
705295770.0 0.1602802009 -0.8321038607 -8.93854e-05 -0.0002109699 -1.14225e-05 1.82272e-05 -0.126999288 0.8351690326
710295740.0 0.1517544443 -0.8325545039 0.0003027273 -8.67974e-05 -7.24543e-05 0.000168036 -0.1191069266 0.8363814709
715295710.0 0.1437106109 -0.8344558342 6.59107e-05 5.04981e-05 0.0001469404 7.874e-05 -0.1107705485 0.8371039556
720295680.0 0.135037377 -0.8359422154 -0.0001414623 -0.0001210964 7.30468e-05 7.32569e-05 -0.1021825161 0.8381906701
725295650.0 0.1276008989 -0.8370227276 5.9303e-06 -0.0001345979 2.36283e-05 -2.61299e-05 -0.0938134717 0.8394674988
730295620.0 0.1191728931 -0.8384983501 4.72319e-05 -0.0001267419 -2.1986e-05 5.52912e-05 -0.0853037621 0.8406544304
735295590.0 0.1109925098 -0.8388579786 8.22398e-05 -6.20275e-05 -3.37338e-05 -1.01963e-05 -0.0768960679 0.8408883285
740295560.0 0.1025492746 -0.8399017729 1.50551e-05 -7.70031e-05 0.0002344646 -8.93523e-05 -0.0690792798 0.8413090464
745295530.0 0.0940407921 -0.8411678585 0.0002115508 7.6467e-06 0.0001678745 -3.02925e-05 -0.0609319464 0.8420128577
750295500.0 0.0855509965 -0.8410170711 0.0001060232 4.94737e-05 8.28467e-05 -0.0001054918 -0.0521073675 0.8422453839
755295470.0 0.0773065514 -0.8426485945 -6.76423e-05 8.80194e-05 -0.0001171755 4.6611e-06 -0.0440245704 0.8432834076
760295440.0 0.0689039156 -0.8425556448 -3.92891e-05 -2.08166e-05 6.817e-06 2.09937e-05 -0.0360909429 0.8438015457
765295410.0 0.0607151713 -0.8437751866 4.59726e-05 -2.58471e-05 7.6348e-06 4.4337e-06 -0.02708631 0.8441718038
770295380.0 0.0523281599 -0.8439099074 -7.96015e-05 0.0001868772 0.0001002968 8.74942e-05 -0.0187375069 0.8437956093
775295350.0 0.0439315282 -0.8441518915 -3.36254e-05 -0.0001337495 0.0002564954 0.0001843573 -0.0109402303 0.8442065687
780295320.0 0.034800083 -0.8447944668 0.0001759505 9.41187e-05 -0.0001434716 9.27708e-05 -0.0025450439 0.8448383228
785295290.0 0.0274003193 -0.8443937178 5.96705e-05 -0.0001070448 6.52084e-05 4.30365e-05 0.005359507 0.8443520239
790295260.0 0.0189908431 -0.8450792914 9.02127e-05 -5.3869e-06 0.0001754495 -3.29007e-05 0.0147483174 0.8443287999
795295230.0 0.0106230782 -0.8446200118 3.08318e-05 -0.0001667505 -3.12839e-05 0.0001648971 0.0226099995 0.843924648
800295200.0 0.0021913892 -0.8440565106 0.0001002594 -2.53116e-05 -6.41287e-05 -1.5298e-05 0.0313076318 0.8435951296
805295170.0 -0.0056157854 -0.8445632337 2.61775e-05 6.44714e-05 0.0001143032 0.0002478041 0.0388399369 0.8432153204
810295140.0 -0.0143268843 -0.8442464157 -4.45829e-05 3.72664e-05 -0.0001387963 4.0424e-06 0.0470187133 0.8433672428
815295110.0 -0.0223662242 -0.8431155755 -2.67533e-05 0.0001837851 -5.8087e-05 -0.0001543708 0.0556632106 0.8427242864
820295080.0 -0.0312267962 -0.844094393 -0.0001013018 5.949e-07 0.0001417621 -6.02624e-05 0.0632331979 0.8419722185
825295050.0 -0.0398791166 -0.8431100635 0.00030223 4.21625e-05 0.0001635348 -0.000103305 0.071943865 0.8413961916
830295020.0 -0.0477755869 -0.8422444607 0.0001940259 -1.19236e-05 -0.000106438 -0.0001055786 0.0803250109 0.8404330391
835294990.0 -0.055868052 -0.8421157404 4.3476e-05 6.69157e-05 -6.43504e-05 -0.0001890001 0.0885954958 0.8395523011
840294960.0 -0.0640994917 -0.8411929778 -0.0002724033 -8.3739e-06 5.44523e-05 1.71481e-05 0.0965970811 0.8389001188
845294930.0 -0.072265835 -0.8403098479 0.0001427075 0.0002383337 0.0001334865 0.0001776368 0.1048226236 0.8376743339
