!Created with skrf (http://scikit-rf.org).
# Hz S RI R 50.0 
!freq ReS11 ImS11 ReS21 ImS21 ReS12 ImS12 ReS22 ImS22
300000.0 -0.0947046802 -0.0842606757 0.6217530811 0.0795583824 0.6233841945 0.0835062527 -0.0961014588 -0.0923936327
5299970.0 -0.1000590341 0.0126551233 0.630609277 0.0106536054 0.6305822812 0.0107476851 -0.1018521135 0.0117535357
10299940.0 -0.0953172761 0.029812261 0.6345484444 0.015750224 0.6343559915 0.0159318257 -0.0969169007 0.0286557217
15299910.0 -0.0884839293 0.0429952868 0.6404330641 0.0206492301 0.6404093185 0.0206850082 -0.0900632732 0.0419896492
20299880.0 -0.0793093174 0.0543528206 0.6486671727 0.023841784 0.6484572647 0.0243896922 -0.081770378 0.0532725271
25299850.0 -0.069669717 0.0628652192 0.6586489829 0.0248021184 0.658191333 0.0249195323 -0.0725814031 0.0620936489
30299820.0 -0.0594855173 0.0689816318 0.668016769 0.0244239203 0.6673436375 0.0243833427 -0.0625971806 0.0687760284
35299790.0 -0.049537312 0.074285997 0.6771384315 0.0215957737 0.6772015731 0.0221815894 -0.0525847617 0.0734226482
40299760.0 -0.0397643159 0.0771404185 0.6865531973 0.0182332434 0.6868670803 0.0178042131 -0.0434825484 0.0771004332
45299730.0 -0.0302635656 0.0794185691 0.695200199 0.0118158752 0.6956322 0.0122951008 -0.0343396498 0.0792545588
50299700.0 -0.0217255414 0.0795988549 0.7033847921 0.0050451841 0.7037628751 0.0047286131 -0.025280723 0.080212334
55299670.0 -0.0141080332 0.0797772441 0.710556273 -0.0031230712 0.7109258012 -0.0024649039 -0.0177441048 0.0800301798
60299640.0 -0.0066525189 0.0790012469 0.7175118904 -0.0114494273 0.7177231768 -0.0115960247 -0.0101870231 0.0797671763
65299610.0 -0.0004169677 0.0779671729 0.7235547797 -0.0196341793 0.724002677 -0.0201044654 -0.003656954 0.0783578847
70299580.0 0.0059413517 0.075649055 0.7282399784 -0.0289301165 0.7285548846 -0.0293786708 0.0020438489 0.0773033351
75299550.0 0.0116187605 0.0741258712 0.7327262557 -0.0386730501 0.7328174654 -0.0389458967 0.0081751296 0.0757289414
80299520.0 0.0162065159 0.0723009793 0.7375999338 -0.049112114 0.7376178455 -0.0485790028 0.0130183856 0.0729529469
85299490.0 0.0209725479 0.069708403 0.7408952628 -0.0589677531 0.7402645437 -0.0591620544 0.0176503565 0.0708995895
90299460.0 0.0247020841 0.067232184 0.7433417955 -0.0688170318 0.7436841728 -0.0688442262 0.0223544838 0.068629265
95299430.0 0.0281291949 0.0651629899 0.7459115054 -0.0794083603 0.7459730431 -0.0788671743 0.0253231974 0.0662586967
100299400.0 0.031333589 0.0626551484 0.7473602659 -0.0892876559 0.7471683942 -0.0896644847 0.0285063557 0.0639558236
105299370.0 0.0345155589 0.0601535738 0.7483544365 -0.0991725727 0.7486809898 -0.0988589338 0.0321168164 0.0617024326
110299340.0 0.0370984875 0.057663367 0.7497951035 -0.1090587481 0.7503386352 -0.1098677038 0.0345689952 0.0593393636
115299310.0 0.0395416266 0.0549128883 0.7509386961 -0.1191240528 0.7509992331 -0.1189702219 0.0373917508 0.0561307025
120299280.0 0.041318007 0.0525985931 0.7515219731 -0.1295511593 0.751533409 -0.1293475366 0.039023111 0.0543951716
125299250.0 0.0432313345 0.050145332 0.7519203953 -0.1396229377 0.7516769115 -0.1394426945 0.0412318807 0.051223978
130299220.0 0.0449562593 0.0479000394 0.7512626169 -0.1488359236 0.7515236718 -0.1493311755 0.0433504605 0.0493935576
135299190.0 0.0466676695 0.0451997329 0.751517054 -0.1588349343 0.7505720059 -0.1593524398 0.0445038135 0.0474705495
140299160.0 0.0479017763 0.0442263228 0.7508230548 -0.1689750738 0.7508010737 -0.1687762593 0.0461432408 0.0453471909
145299130.0 0.0492994568 0.04181028 0.7506791573 -0.1779831445 0.7496242589 -0.178227843 0.0474095868 0.0424924417
150299100.0 0.0505392568 0.0396958554 0.7487931497 -0.1882860025 0.7493646014 -0.1882807551 0.0485162386 0.04097171
155299070.0 0.0511480147 0.038318182 0.747810718 -0.1979831509 0.7479354333 -0.1983503918 0.0493571687 0.0385927947
160299040.0 0.0523017165 0.0358727638 0.7461257017 -0.2068775464 0.7460879296 -0.2070291094 0.0507115615 0.0371042514
165299010.0 0.052627881 0.0342697337 0.745091255 -0.2168481682 0.7447156377 -0.216846285 0.0516159142 0.0349537815
170298980.0 0.0535022929 0.0326351514 0.7420482129 -0.2260987462 0.7428116091 -0.2259880905 0.0524843821 0.0327200045
175298950.0 0.054456849 0.0307223633 0.7416941186 -0.2353627509 0.7412884921 -0.2355277343 0.0533670815 0.031155003
180298920.0 0.0553814379 0.0290460084 0.7395229579 -0.2446047823 0.7387996385 -0.2443834301 0.0536901084 0.0298715359
185298890.0 0.0561105683 0.027188381 0.7364885257 -0.2540514793 0.7364677289 -0.2538140951 0.0541519098 0.0277130811
190298860.0 0.0562106418 0.0257075911 0.7343587153 -0.2632012479 0.7342950974 -0.2624895522 0.055361906 0.0261285252
195298830.0 0.0564856703 0.0239809062 0.731432151 -0.2715804398 0.7319353193 -0.2723256826 0.0558010898 0.0240314148
200298800.0 0.0568973652 0.0228296021 0.7296808808 -0.2801999324 0.7289850143 -0.2805781983 0.0563066513 0.0231346629
205298770.0 0.0572036326 0.0213495054 0.727062662 -0.2895245556 0.7266524566 -0.2898555552 0.0566612524 0.0208710481
210298740.0 0.057160727 0.0196318006 0.7235973637 -0.2991435695 0.723849217 -0.2989139152 0.0566856945 0.0199064948
215298710.0 0.0578200312 0.0185010299 0.7210095119 -0.3068006379 0.7203343092 -0.3071187599 0.0571374327 0.0182003884
220298680.0 0.0580801777 0.0171856769 0.7170284521 -0.3158998193 0.7176107938 -0.3158701749 0.0574115997 0.0172759548
225298650.0 0.0586347354 0.0159873821 0.7137015244 -0.3241091111 0.7135605696 -0.3241599946 0.0574050363 0.0154930869
230298620.0 0.0578452872 0.0147443392 0.7110523415 -0.332763068 0.7111824747 -0.3325752788 0.0576820963 0.0142996609
235298590.0 0.0584978025 0.013072928 0.707289977 -0.3406623847 0.7079487627 -0.3416625234 0.0579538192 0.0126130399
240298560.0 0.0583407495 0.011994904 0.7038992331 -0.3497867209 0.7038599454 -0.3492113868 0.0579851553 0.0117144041
245298530.0 0.0590429727 0.0112117514 0.6995600298 -0.3577245044 0.6999140479 -0.3579229132 0.0583178303 0.0106481289
250298500.0 0.0583271108 0.0096222864 0.6960732805 -0.3657823732 0.6964164513 -0.3655810363 0.0586862602 0.0088737791
255298470.0 0.058391459 0.0088060379 0.6919142428 -0.3746939077 0.6919059269 -0.3741110373 0.0589362991 0.0074950733
260298440.0 0.0581031735 0.0077541214 0.6878122228 -0.3823281509 0.6885306764 -0.382422309 0.0593631906 0.0065403717
265298410.0 0.0590396874 0.0070888983 0.684064857 -0.390967133 0.6838344522 -0.3909623815 0.0587047586 0.005214736
270298380.0 0.0593399285 0.0054126931 0.6793896437 -0.398571289 0.6799257461 -0.3986367151 0.0587038125 0.0047277761
275298350.0 0.0585802729 0.0048826192 0.6758308249 -0.4067594077 0.675946859 -0.4068922714 0.0590128178 0.0033984364
280298320.0 0.0585442895 0.0038182238 0.671020688 -0.4139262525 0.6708920368 -0.4145055291 0.0591720568 0.0027247922
285298290.0 0.0587396398 0.002857102 0.666224323 -0.4217373172 0.6663697209 -0.4223775459 0.0587448188 0.0014258069
290298260.0 0.0587536688 0.0017579497 0.6622199066 -0.4297843276 0.6621648452 -0.4297982945 0.0596292442 0.0005290819
295298230.0 0.0587304481 0.0007568531 0.6576503632 -0.4377556563 0.6572206172 -0.4376160359 0.0596978731 -0.0004198686
300298200.0 0.0594043314 -0.0002016907 0.6531596466 -0.4448963811 0.652751759 -0.4454849684 0.059099048 -0.0013397777
305298170.0 0.0589731036 -0.0015447883 0.647993814 -0.4526745161 0.6485298733 -0.4529697014 0.059779655 -0.002333624
310298140.0 0.0595146642 -0.0024171641 0.6437563903 -0.4602338596 0.6435779401 -0.4607871595 0.0596886441 -0.0031266142
315298110.0 0.0587604346 -0.0034644428 0.6382223168 -0.4682769748 0.6387576604 -0.4684257515 0.0598346082 -0.0045546361
320298080.0 0.058426138 -0.0045321618 0.6331854779 -0.4755925163 0.6333446261 -0.4757053352 0.0594089528 -0.0057541901
325298050.0 0.05831993 -0.0059366711 0.6281813105 -0.4834534516 0.6278715878 -0.4834856047 0.0594967064 -0.0070959862
330298020.0 0.0579209054 -0.0065333907 0.6214375355 -0.4906926974 0.6217157462 -0.4908671274 0.0582560967 -0.0080529529
335297990.0 0.057508384 -0.0077174076 0.6165055995 -0.4976805671 0.616520412 -0.4983686271 0.0582755788 -0.0088736758
340297960.0 0.0564054376 -0.0081154981 0.6104144327 -0.5047661141 0.6106142153 -0.5044179334 0.0572651509 -0.0096699689
345297930.0 0.0561776351 -0.0085813314 0.6054167516 -0.5105935998 0.6044221188 -0.5112378991 0.0577073008 -0.0107021692
350297900.0 0.0564378248 -0.0093900279 0.5985819921 -0.517579624 0.5992203669 -0.5178168524 0.0565923462 -0.0106832957
355297870.0 0.0558077606 -0.0103907763 0.5931512772 -0.5245257725 0.5931871606 -0.5248480181 0.0564683521 -0.0115643923
360297840.0 0.0560461905 -0.0108775161 0.5876833621 -0.5312743684 0.5872631127 -0.5317759941 0.0562886671 -0.0118744238
365297810.0 0.0557598995 -0.0117192488 0.5810264953 -0.5382106389 0.5814857511 -0.5379463705 0.0559604062 -0.0123937289
370297780.0 0.0555726482 -0.0123848538 0.5752793166 -0.544133061 0.5754410912 -0.544625638 0.055972974 -0.0131099555
375297750.0 0.0550244378 -0.0123388069 0.5705033916 -0.5516004266 0.569347201 -0.5511070765 0.055612278 -0.0134810393
380297720.0 0.0549460814 -0.0138252671 0.5633387975 -0.5575563081 0.563921073 -0.5573334802 0.0554237456 -0.0143451578
385297690.0 0.0548993995 -0.0141486895 0.5571501992 -0.5630572037 0.5571176722 -0.5632520264 0.0549562985 -0.0147804545
390297660.0 0.0541044347 -0.014998361 0.5506446752 -0.5699542286 0.5509644058 -0.5704785165 0.0547937454 -0.015740647
395297630.0 0.0544910306 -0.0157482295 0.5453101872 -0.5754705546 0.5443262691 -0.5756479659 0.0546015021 -0.015986097
400297600.0 0.0537176387 -0.0161333525 0.5381142836 -0.5818764615 0.5385543109 -0.5822810532 0.0534423798 -0.0169049729
405297570.0 0.054056837 -0.0168255927 0.5319300903 -0.5881738698 0.5318914748 -0.5885242289 0.0535782654 -0.0167629733
410297540.0 0.0537267833 -0.0175402392 0.5253479579 -0.5934079319 0.5252639299 -0.594356405 0.0532170182 -0.0180477398
415297510.0 0.053345035 -0.0172065393 0.5184990575 -0.5990524559 0.519354167 -0.5995853194 0.0522732318 -0.0179728715
420297480.0 0.0529994582 -0.0189106432 0.5118609983 -0.6058192478 0.5123716041 -0.6060396179 0.0528447726 -0.0191415046
425297450.0 0.053309619 -0.0196953352 0.5054545755 -0.6114129432 0.5059955039 -0.611143834 0.0521896536 -0.0192599618
430297420.0 0.0523679928 -0.0195673419 0.4989595362 -0.6175384899 0.499112173 -0.6169442619 0.0516258805 -0.020495448
435297390.0 0.0522703531 -0.0206200542 0.4923160402 -0.6221968793 0.4919159165 -0.6220727537 0.0509400041 -0.0201302982
440297360.0 0.0520543616 -0.0215530117 0.4848361721 -0.6274157399 0.4844441498 -0.6279993789 0.0508839624 -0.0214495715
445297330.0 0.0521675269 -0.022119464 0.4775862424 -0.6335795346 0.4781165661 -0.6331749203 0.0508516341 -0.0217417036
450297300.0 0.0518424638 -0.0225979118 0.4715190568 -0.6381106523 0.4711409949 -0.6389580903 0.050256678 -0.022036537
455297270.0 0.0508449355 -0.0234866619 0.4643222637 -0.6439364847 0.4646958733 -0.6437551253 0.0503069348 -0.0224252523
460297240.0 0.0504686612 -0.0237751892 0.4571275917 -0.6482170247 0.456489881 -0.6489649642 0.0498588873 -0.0226824109
465297210.0 0.0507377126 -0.0243979956 0.4503142508 -0.6539793988 0.4505560912 -0.6538715179 0.0489699509 -0.0239555852
470297180.0 0.0500615154 -0.0252143345 0.4431020674 -0.6585372318 0.4434638171 -0.6587642111 0.048041019 -0.0243321242
475297150.0 0.0494226979 -0.0265307534 0.4350950999 -0.6640275943 0.4359105907 -0.6634388239 0.0481856742 -0.0247837157
480297120.0 0.0497736416 -0.0270137835 0.4283924618 -0.6680091415 0.4287647584 -0.668296061 0.0474954336 -0.0247516497
485297090.0 0.0493218275 -0.0272553826 0.4212341433 -0.6728398838 0.4213911594 -0.6733062333 0.0470569369 -0.0258354361
490297060.0 0.0489270116 -0.028005749 0.4140796215 -0.6778898759 0.413771394 -0.677859205 0.0469630581 -0.025728592
495297030.0 0.0479527954 -0.028244881 0.4059917089 -0.6824309476 0.4058999518 -0.6822575744 0.046489842 -0.0266974947
500297000.0 0.0479301897 -0.029149328 0.3984990988 -0.6867829009 0.3983518151 -0.6870260774 0.0454657505 -0.0270983852
505296970.0 0.0471204321 -0.0298003581 0.3904890631 -0.6903014449 0.3902512528 -0.6912942788 0.0446442414 -0.027390506
510296940.0 0.0471132076 -0.0299502387 0.3831917043 -0.6954049311 0.3833440686 -0.6951425338 0.0452808887 -0.0271736837
515296910.0 0.0462371147 -0.0304896757 0.3750792541 -0.6992664086 0.3756927182 -0.6996384804 0.0441307053 -0.0282792935
520296880.0 0.0458451025 -0.0310804761 0.3678535895 -0.7037794751 0.3684679287 -0.7034498572 0.0442527033 -0.0281548574
525296850.0 0.0452816002 -0.0320384453 0.3602814964 -0.7074834973 0.3605641119 -0.7080630316 0.0439973915 -0.0289341368
530296820.0 0.0452462864 -0.0322849556 0.3527949236 -0.7109300556 0.3525074963 -0.7117271544 0.0425779891 -0.0300584042
535296790.0 0.044208438 -0.0329126995 0.3446343255 -0.7149309309 0.3452110504 -0.7149428183 0.0424934397 -0.0301557591
540296760.0 0.0439571641 -0.0339910255 0.3371675907 -0.7196432863 0.336190244 -0.719543611 0.0414140712 -0.0300840367
545296730.0 0.0432220891 -0.0335331694 0.329025702 -0.7219544755 0.3291563804 -0.723380731 0.0412581718 -0.0310339852
550296700.0 0.0426066747 -0.0345662952 0.3210657294 -0.7263323469 0.3216218869 -0.7265209677 0.0404669477 -0.0305322122
555296670.0 0.0425613301 -0.0351440779 0.3135335888 -0.7302609945 0.3131013304 -0.730033425 0.0401694154 -0.0310614343
560296640.0 0.0419874982 -0.0354695854 0.3062266773 -0.7329514505 0.3051853585 -0.7329722953 0.0398053644 -0.03150479
565296610.0 0.0406048311 -0.0362284526 0.2968521563 -0.7369432328 0.2964607172 -0.7366861693 0.0389090984 -0.0322372836
570296580.0 0.0410244295 -0.0368575611 0.2888590382 -0.7396144154 0.289104985 -0.7398808055 0.0387916466 -0.0318173384
575296550.0 0.0401302832 -0.0363774559 0.2808893285 -0.7423540008 0.2811068161 -0.7424935524 0.0383082409 -0.0330686984
580296520.0 0.0393911982 -0.0370904997 0.2734517935 -0.7460245861 0.2729440621 -0.746095707 0.0376458794 -0.0333451587
585296490.0 0.039401954 -0.0377893995 0.2652698281 -0.7490140859 0.2648793982 -0.7490101149 0.0365032915 -0.0339594288
590296460.0 0.0379298235 -0.0387391335 0.2563769012 -0.7517615829 0.2562519303 -0.7521615763 0.0367416751 -0.0338249154
595296430.0 0.0374783567 -0.038481184 0.2484252309 -0.7548013302 0.2482491736 -0.754818568 0.0360012187 -0.0342764793
600296400.0 0.036995309 -0.0387073319 0.2400953743 -0.7569577328 0.2400442445 -0.7571364027 0.0352842432 -0.0342897471
605296370.0 0.0367996393 -0.0386671143 0.2321769653 -0.7600298109 0.2320420239 -0.759883629 0.0351028836 -0.0350844764
610296340.0 0.0357428125 -0.039563453 0.2237197384 -0.7620776616 0.2235797213 -0.7623323911 0.034327232 -0.0343903111
615296310.0 0.0352194889 -0.0395378891 0.2148262267 -0.7646143356 0.2154278708 -0.7647265312 0.033955438 -0.0351852849
620296280.0 0.0345171442 -0.0401685686 0.2069843105 -0.7664914637 0.2066738138 -0.7667424856 0.033439805 -0.0358115824
625296250.0 0.0341933918 -0.0403275016 0.1982274641 -0.7692817585 0.1981121991 -0.7692089624 0.0325661437 -0.0355412054
630296220.0 0.0335024864 -0.0405286415 0.190251987 -0.771618641 0.1901745868 -0.7710798083 0.0318795833 -0.0356738237
635296190.0 0.0331682316 -0.0411155856 0.1813575858 -0.7729975658 0.1809143016 -0.7727793985 0.0317127242 -0.0365048211
640296160.0 0.0322820489 -0.0411772726 0.1730938565 -0.7752264863 0.1730863956 -0.7751601756 0.0314204465 -0.0367425969
645296130.0 0.031887115 -0.0411870912 0.1646463889 -0.7775901622 0.1642521982 -0.7771317306 0.0297845336 -0.0373312418
650296100.0 0.0308734041 -0.0409912622 0.1563721458 -0.7783175195 0.1567265927 -0.7784224569 0.0298730685 -0.0373815683
655296070.0 0.0302081006 -0.0420505974 0.1477352577 -0.7806626064 0.1475050589 -0.7803251898 0.0298595769 -0.0367767374
660296040.0 0.0292308063 -0.0416458685 0.1390652531 -0.7812892349 0.1393172986 -0.78183708 0.0285256019 -0.0376404316
665296010.0 0.029318544 -0.0426192162 0.1310368933 -0.7827217676 0.1311870369 -0.7830325676 0.027776075 -0.0374993125
670295980.0 0.0291224508 -0.0422088464 0.1222944527 -0.7848859818 0.1226429807 -0.7847723798 0.0270880674 -0.0382942936
675295950.0 0.028480896 -0.0427049966 0.1141304187 -0.7859988859 0.1142537092 -0.7861628967 0.0267527076 -0.0377972039
680295920.0 0.0274475426 -0.0423666113 0.1048148347 -0.7874572868 0.1047152223 -0.7870681629 0.0265526609 -0.0386731196
685295890.0 0.0268000458 -0.0426563714 0.0973429464 -0.7876437655 0.0959268973 -0.7886389979 0.0255257182 -0.0381655498
690295860.0 0.0264377124 -0.0431750671 0.0881514725 -0.7886973944 0.0875601716 -0.7889375075 0.0254008694 -0.0380299478
695295830.0 0.0262088486 -0.0435472185 0.0785866497 -0.7898632255 0.0789121496 -0.7901647897 0.0242118853 -0.0385690561
700295800.0 0.0256787655 -0.0433318479 0.0703757749 -0.7903260681 0.070298833 -0.7911024423 0.0234750535 -0.0393367121
705295770.0 0.024812049 -0.043687619 0.0616960463 -0.7918374513 0.0622596013 -0.7917698997 0.0227707767 -0.0391987409
710295740.0 0.0241098747 -0.0434625071 0.0533297682 -0.7922115831 0.0529894528 -0.7917157144 0.0215032951 -0.0387944222
715295710.0 0.0235592588 -0.0437773382 0.044524932 -0.7929865158 0.0451866018 -0.7925335635 0.0217007196 -0.0401282636
720295680.0 0.0226237301 -0.0443329412 0.0359594241 -0.7927988981 0.0360015384 -0.7933976966 0.0215538211 -0.0392972928
725295650.0 0.0225047535 -0.0441409072 0.0271391677 -0.7934123338 0.0272640372 -0.7934132708 0.0207252356 -0.0392748043
730295620.0 0.0213390437 -0.0444206191 0.0185676044 -0.7935791587 0.0185015738 -0.7937853007 0.0203659326 -0.0405176176
735295590.0 0.0211501307 -0.0442413585 0.0109050633 -0.7936366351 0.0103672183 -0.7940015982 0.0193797702 -0.0394033358
740295560.0 0.0203069512 -0.0442114935 0.0011679329 -0.7934761028 0.0013848772 -0.7939913762 0.0194278818 -0.0402457264
745295530.0 0.0198098564 -0.0448548259 -0.0067887634 -0.7939511054 -0.0069989164 -0.7944474451 0.0178301277 -0.039996463
750295500.0 0.0191650766 -0.0446822642 -0.0154429923 -0.7933507335 -0.0155124185 -0.7940873952 0.0178915501 -0.0406664772
755295470.0 0.0188021069 -0.044328364 -0.024424202 -0.7932419826 -0.0243936966 -0.7939328725 0.0167900417 -0.040353363
760295440.0 0.0179714384 -0.0445096452 -0.0331319974 -0.7930526664 -0.0333217476 -0.7931413543 0.0157393961 -0.0406331043
765295410.0 0.0169141442 -0.0451669245 -0.0409988994 -0.7927374126 -0.0409308949 -0.7929207025 0.0166059461 -0.0399581623
770295380.0 0.0170425178 -0.0448596818 -0.0494568325 -0.7918817041 -0.0500819475 -0.7924532639 0.0159844106 -0.0399564936
775295350.0 0.0161502342 -0.0446080606 -0.0585091712 -0.7909505003 -0.0584695992 -0.7913581884 0.0145063199 -0.0410274222
780295320.0 0.0156875665 -0.0449330116 -0.0674157344 -0.7906443863 -0.0669702187 -0.790950939 0.014160929 -0.0401388465
785295290.0 0.0148690657 -0.0444504568 -0.0757383857 -0.7892249188 -0.0761513688 -0.7903319731 0.0130896773 -0.0403557777
790295260.0 0.0142206691 -0.044669056 -0.0843144902 -0.7892398632 -0.0839722228 -0.7893618198 0.0134152832 -0.0399948614
795295230.0 0.0133433288 -0.044836877 -0.0925508083 -0.7880207686 -0.0924468157 -0.7883695756 0.0123878214 -0.0394850181
800295200.0 0.0128917699 -0.0445243654 -0.1020655043 -0.7872405889 -0.101837109 -0.7874806076 0.0120410625 -0.0401636018
805295170.0 0.0118911077 -0.0446639953 -0.109862822 -0.7854690553 -0.1101756102 -0.7857116415 0.0108972494 -0.0404618661
810295140.0 0.0114405178 -0.0447197986 -0.1181915382 -0.7849133928 -0.118758197 -0.7850190987 0.0107446278 -0.0399566394
815295110.0 0.010980644 -0.0444505899 -0.1276264736 -0.7825520235 -0.1276192199 -0.7834701619 0.0094957303 -0.0405536411
820295080.0 0.0101719436 -0.0446901844 -0.1357962967 -0.7815241947 -0.1358024358 -0.7819276885 0.0090531059 -0.0401538954
825295050.0 0.0094335836 -0.0447826803 -0.1441564361 -0.7800724074 -0.1442253356 -0.780483264 0.00892941 -0.0397357214
830295020.0 0.0088571825 -0.0440447674 -0.1532853513 -0.7785280436 -0.1534917624 -0.779196836 0.0079872888 -0.0401525353
