!Created with skrf (http://scikit-rf.org).
# Hz S RI R 50.0 
!freq ReS11 ImS11 ReS21 ImS21 ReS12 ImS12 ReS22 ImS22
300000.0 -0.3197972216 -0.1068022018 0.3756119742 0.0539437314 0.3754880703 0.0571108356 -0.3204695545 -0.1158501631
5299970.0 -0.3237068021 0.0046404775 0.378658653 0.0027322118 0.378489548 0.003169113 -0.3261883079 0.0027405825
10299940.0 -0.3211112803 0.0154941413 0.3798751771 0.0024491711 0.3796665917 0.002375569 -0.3240792955 0.0123207272
15299910.0 -0.3181783745 0.0236046335 0.3823486608 0.0021624743 0.3819609974 0.00225258 -0.3211998124 0.0197447166
20299880.0 -0.3144413879 0.0301841859 0.3849468318 0.0016598489 0.3850098872 0.0016921265 -0.3186445356 0.0261987019
25299850.0 -0.3105607653 0.0356760978 0.38856502 -0.0002019123 0.3884768904 0.0002582553 -0.3156094523 0.031072939
30299820.0 -0.3065753871 0.0403112337 0.3918539136 -0.0018891835 0.3916771013 -0.002477837 -0.3126373351 0.0355855366
35299790.0 -0.3030574839 0.0447542904 0.3952569681 -0.0051736384 0.3951794459 -0.0053033127 -0.3097179159 0.0394469234
40299760.0 -0.2996260521 0.047994258 0.39852017 -0.0086326486 0.3984306835 -0.0086182837 -0.3072536387 0.043263766
45299730.0 -0.2965001098 0.0516556336 0.4011406667 -0.0129441886 0.4012808074 -0.0126057699 -0.3047316405 0.0461786308
50299700.0 -0.293037245 0.0542050041 0.4033495956 -0.0172831232 0.403598812 -0.0176588958 -0.3020236314 0.049280088
55299670.0 -0.290672058 0.0567037353 0.4055120691 -0.0222260149 0.4059149847 -0.0221023404 -0.2999758597 0.0521601577
60299640.0 -0.287901298 0.0588925077 0.4072699356 -0.0267882584 0.407781691 -0.0270378105 -0.2981393549 0.0548156071
65299610.0 -0.2859895081 0.0614018787 0.4092413055 -0.031428769 0.4095946644 -0.0317366965 -0.2962558619 0.0572811064
70299580.0 -0.2837591529 0.0636197147 0.4103954116 -0.0367704554 0.4105070888 -0.0370342505 -0.2944346043 0.0595500476
75299550.0 -0.2818031907 0.065765841 0.4113768213 -0.0420998807 0.4114395148 -0.0419459962 -0.2931261016 0.0618377718
80299520.0 -0.2802617066 0.068091871 0.4124645295 -0.0475165475 0.4126676067 -0.0471053121 -0.2915362157 0.0643311247
85299490.0 -0.2781785644 0.0698189459 0.4131114817 -0.0528748576 0.4130660035 -0.0527001091 -0.2903304466 0.0663346611
90299460.0 -0.2770170795 0.072148843 0.4131592698 -0.0580787006 0.4136095778 -0.0577312048 -0.2886770651 0.0688637312
95299430.0 -0.2755005601 0.0744977509 0.4140164001 -0.0636626248 0.4139925556 -0.0631831389 -0.2873912239 0.0714396394
100299400.0 -0.274121847 0.0764780743 0.4135408022 -0.0684245046 0.413685825 -0.0683186545 -0.2867297758 0.0733704387
105299370.0 -0.2730410328 0.0783071778 0.4135885934 -0.0732271518 0.4138279108 -0.0738867533 -0.2853267658 0.075832802
110299340.0 -0.2719123168 0.0804246399 0.4134279916 -0.0783156714 0.4135869189 -0.0788749729 -0.2844160739 0.0780682256
115299310.0 -0.2706249489 0.0820601705 0.4129554701 -0.083336203 0.4133143794 -0.0836309759 -0.2834861291 0.0802349475
120299280.0 -0.2699772418 0.0850398974 0.4129032026 -0.0888715274 0.4129701853 -0.0891808386 -0.282557348 0.0827360835
125299250.0 -0.2688091966 0.0869684566 0.4121453053 -0.0940509871 0.4128167573 -0.0941782491 -0.2816482427 0.084890384
130299220.0 -0.2678756785 0.0891425236 0.4114585331 -0.0986479153 0.4115061907 -0.0993451869 -0.2806633158 0.087720981
135299190.0 -0.2665620658 0.0912314681 0.4106244037 -0.1038916514 0.4103725209 -0.1038926645 -0.2797480729 0.0897566703
140299160.0 -0.2658538231 0.0937586234 0.4100823841 -0.1090846823 0.4100330949 -0.1091809701 -0.2785582805 0.0920199866
145299130.0 -0.2649641922 0.0957875947 0.4095471404 -0.1139603636 0.4091124674 -0.1137005689 -0.277959428 0.0945651142
150299100.0 -0.263939264 0.0984014612 0.4081311053 -0.1190740449 0.4083193334 -0.1186611831 -0.2771462857 0.096733554
155299070.0 -0.2630794254 0.1009654244 0.4067637563 -0.1242000952 0.4070328973 -0.124195453 -0.2760741524 0.0994950777
160299040.0 -0.2618591247 0.1031528026 0.4055704616 -0.1286199211 0.4060787782 -0.128848843 -0.2752660506 0.102589768
165299010.0 -0.2611059776 0.1050257915 0.404652638 -0.1336068528 0.4049052374 -0.133499018 -0.2745704021 0.1043273638
170298980.0 -0.2602515257 0.1080869852 0.403050849 -0.1386177992 0.4032765441 -0.1383104324 -0.2733135081 0.1070579396
175298950.0 -0.2589339873 0.1104079184 0.4025444935 -0.1430150984 0.4019842778 -0.1431995166 -0.2722226096 0.1097231865
180298920.0 -0.257801259 0.1128213225 0.4003736519 -0.1482133635 0.40063318 -0.1479243662 -0.2710561184 0.1123959694
185298890.0 -0.2568170651 0.1152081362 0.3985744439 -0.1528209848 0.39880095 -0.1525566339 -0.2704470142 0.1146702098
190298860.0 -0.2557179234 0.1176776786 0.3970421061 -0.1575434767 0.3974142207 -0.1573116881 -0.2688889955 0.1174595736
195298830.0 -0.2545209267 0.1199368793 0.3954012903 -0.1615665938 0.3956419102 -0.1622939272 -0.2678672448 0.120169192
200298800.0 -0.2537649393 0.122820119 0.3940914613 -0.1661385658 0.3940871692 -0.1664487294 -0.2666337664 0.1228213596
205298770.0 -0.2525434242 0.125600531 0.3922526553 -0.1708857783 0.3920225029 -0.1710398807 -0.2655609816 0.1253083548
210298740.0 -0.2514128079 0.1278471798 0.3905323387 -0.1759052801 0.390356891 -0.1758297903 -0.2644509687 0.1282896687
215298710.0 -0.2502181436 0.1304083209 0.3885006065 -0.1800148503 0.3883356729 -0.1800402426 -0.2635624496 0.1309347791
220298680.0 -0.249413024 0.132919443 0.3863731774 -0.1845389335 0.3866630526 -0.1847424457 -0.2621653632 0.1336475306
225298650.0 -0.2477619584 0.1356248566 0.3841995734 -0.1889571782 0.3844077117 -0.188772079 -0.2609003026 0.1364237733
230298620.0 -0.2466146819 0.1382274334 0.3828365962 -0.1935396717 0.3827510313 -0.1935099812 -0.2594626201 0.1387611441
235298590.0 -0.2453222287 0.14061195 0.3802360234 -0.1979173968 0.3806009685 -0.1983039352 -0.258488817 0.1413349414
240298560.0 -0.2443025477 0.1432111391 0.3782722945 -0.201637805 0.3785045253 -0.2019912298 -0.2570436988 0.1441069954
245298530.0 -0.2424445254 0.1457650444 0.3753494744 -0.2065878395 0.3758668695 -0.2064943672 -0.2555460898 0.1468421522
250298500.0 -0.2415593304 0.1481984971 0.3736116623 -0.210589306 0.3737181652 -0.2103188683 -0.2539953758 0.149939782
255298470.0 -0.2400345059 0.1508633448 0.371167939 -0.2151243199 0.3712093194 -0.2150897766 -0.2525922872 0.152493197
260298440.0 -0.2383065677 0.1535277984 0.368931075 -0.2191696244 0.369056599 -0.2192945986 -0.2508856363 0.154989263
265298410.0 -0.236937715 0.1563708059 0.3662295991 -0.2236206571 0.3664380477 -0.2235559029 -0.2495804041 0.157456382
270298380.0 -0.2356105667 0.1587858309 0.3641417378 -0.2277804043 0.3640037647 -0.2276169996 -0.2477011609 0.1604547696
275298350.0 -0.234012844 0.161162194 0.3613224863 -0.2316969653 0.3620363506 -0.2320914177 -0.2464099531 0.1631035828
280298320.0 -0.2326166611 0.1638298562 0.3592007266 -0.2356279236 0.3587074867 -0.2358868391 -0.2445633775 0.1657737924
285298290.0 -0.2308864163 0.1663849132 0.3563857475 -0.2398043044 0.3565376926 -0.239727796 -0.243016749 0.1686069988
290298260.0 -0.2292134234 0.1687506601 0.3537972291 -0.244138982 0.3538434791 -0.2439236416 -0.2409413876 0.1714073622
295298230.0 -0.2275368285 0.1714920481 0.3513117682 -0.2477210626 0.3508123536 -0.2477993712 -0.2396974327 0.1738834474
300298200.0 -0.2255761057 0.1737171367 0.3482161245 -0.2517840662 0.3486482585 -0.2518475418 -0.2375505969 0.1765789932
305298170.0 -0.2239283343 0.1761264461 0.3457866807 -0.2559257208 0.3457824759 -0.2562065846 -0.2357071871 0.1791194858
310298140.0 -0.2223240332 0.1784284786 0.3429222071 -0.2600941982 0.3431869806 -0.260239407 -0.2341134898 0.1823491021
315298110.0 -0.2205588562 0.1809782833 0.3395576014 -0.2636950587 0.3400764416 -0.2638386948 -0.231909624 0.1844280056
320298080.0 -0.2189256088 0.1836491347 0.3369524246 -0.2679407623 0.337115088 -0.2678421501 -0.2300610476 0.1868919775
325298050.0 -0.2168382125 0.1854931004 0.3343397028 -0.2715705087 0.3341381875 -0.2716342339 -0.227917609 0.1894084194
330298020.0 -0.2151114265 0.1883237206 0.330522407 -0.2755634589 0.3308851173 -0.2752480838 -0.2263072092 0.1914981639
335297990.0 -0.2133006325 0.1902624695 0.3275602315 -0.2789981131 0.327769453 -0.2790040429 -0.2245842432 0.194467821
340297960.0 -0.2120363774 0.1928344244 0.3243672937 -0.2827338035 0.3244865321 -0.2826023732 -0.2226542997 0.1971042212
345297930.0 -0.2099955615 0.1950498774 0.3211917441 -0.2858024248 0.3212282794 -0.2858655171 -0.2209800545 0.1997385981
350297900.0 -0.2075160718 0.1977455335 0.3177963566 -0.2895429749 0.3183373312 -0.2897120247 -0.2188272951 0.202118056
355297870.0 -0.2060874181 0.1999627759 0.3147852192 -0.292902878 0.3147497651 -0.2930602069 -0.2164974892 0.2047645905
360297840.0 -0.203895172 0.2024140256 0.3115819176 -0.2968262708 0.3116018147 -0.2966961941 -0.2144116266 0.2075145524
365297810.0 -0.2015219865 0.2044615211 0.3080712958 -0.2999609168 0.3082336278 -0.3001964608 -0.2124650812 0.2101112386
370297780.0 -0.1993891123 0.2068896361 0.3046268722 -0.3037036442 0.3048218863 -0.3036496325 -0.210295906 0.2122476015
375297750.0 -0.1975518989 0.2093579958 0.3017071408 -0.3068017325 0.3012999207 -0.3068345924 -0.2081614111 0.2150301881
380297720.0 -0.1951958991 0.2113844371 0.2980209744 -0.309927283 0.2978011883 -0.3101053001 -0.2057107331 0.2177328296
385297690.0 -0.1929944126 0.2137261265 0.2942350417 -0.3130730694 0.2941947939 -0.3130712015 -0.2035064839 0.2197146352
390297660.0 -0.1908711475 0.2158658891 0.2908738319 -0.3164898781 0.2908757876 -0.3166868626 -0.2014690278 0.2218572959
395297630.0 -0.1887995518 0.2180376709 0.2877146969 -0.3194866473 0.2873908084 -0.3195654454 -0.1992562901 0.2247654599
400297600.0 -0.186626862 0.2203035779 0.2840804883 -0.322744674 0.2843646586 -0.3229517655 -0.1973752917 0.2264885735
405297570.0 -0.184143194 0.2226417867 0.2803425505 -0.3260444662 0.2804175537 -0.3260863557 -0.1947446675 0.2293545301
410297540.0 -0.1815361212 0.2244847983 0.2762150562 -0.3289111029 0.2764641177 -0.3289593544 -0.1921723502 0.2314824226
415297510.0 -0.1795023592 0.2269161805 0.2731286482 -0.3319389568 0.2734054744 -0.3320752874 -0.1903894935 0.2339750689
420297480.0 -0.1769598652 0.2284601369 0.2691515462 -0.3348061386 0.26944876 -0.3348522072 -0.1876994601 0.2356529823
425297450.0 -0.1748473847 0.2306689688 0.2655463884 -0.3378141294 0.2659834156 -0.3378063978 -0.1849669582 0.2383282329
430297420.0 -0.1725995987 0.23256199 0.2621586801 -0.3407742891 0.2621400694 -0.3407509752 -0.1830112148 0.2404455469
435297390.0 -0.1699578436 0.2344762845 0.2580972743 -0.3436120161 0.2581099357 -0.3434725806 -0.1801302337 0.2428181768
440297360.0 -0.1672680007 0.2364308541 0.2541960057 -0.3464705583 0.2542795517 -0.3462506416 -0.1778612939 0.2444893354
445297330.0 -0.1647305311 0.2385958937 0.2499391521 -0.3493848489 0.2502833293 -0.3489916774 -0.1752579299 0.2464846685
450297300.0 -0.1622919802 0.2403842599 0.2462394977 -0.3516519964 0.2464523889 -0.3516801589 -0.172675944 0.2487388834
455297270.0 -0.1597328371 0.2423440917 0.2429448442 -0.3545624172 0.2429589655 -0.3542569832 -0.1699062676 0.250665194
460297240.0 -0.1578256948 0.2443291862 0.2388636135 -0.3568245958 0.2385190403 -0.3570984984 -0.1674988416 0.2532377339
465297210.0 -0.1546810218 0.2458781847 0.2348854899 -0.3598598357 0.2351785783 -0.359904108 -0.1650483761 0.2548078115
470297180.0 -0.1520902624 0.2474655647 0.2310742164 -0.3617603726 0.2312785761 -0.361864366 -0.1626160698 0.2563827259
475297150.0 -0.1494488696 0.2494249708 0.2266088535 -0.3641891203 0.2270372483 -0.3642659344 -0.1597281606 0.2585388675
480297120.0 -0.1470819559 0.2506827232 0.2227752587 -0.3667682671 0.2231981681 -0.3667602335 -0.1571143646 0.2607471651
485297090.0 -0.143930719 0.2526333269 0.2188403656 -0.3692737437 0.2188243546 -0.3691608893 -0.1543899663 0.2623949171
490297060.0 -0.1415319261 0.2542471657 0.2148766668 -0.371556819 0.2149781319 -0.3716109343 -0.1519646623 0.2641709241
495297030.0 -0.1390373623 0.2559509515 0.2105098726 -0.3737159653 0.2104950615 -0.3740467117 -0.1490314687 0.2659526482
500297000.0 -0.1362621013 0.2576378176 0.2065401069 -0.3761991708 0.206637755 -0.3759649669 -0.146478797 0.267561396
505296970.0 -0.1338011784 0.2590121699 0.2020605959 -0.3778095584 0.2024976707 -0.3781401694 -0.1439666569 0.2694314327
510296940.0 -0.1309085105 0.2610405961 0.198276895 -0.3806194632 0.1985587956 -0.3809087014 -0.1410418583 0.2713641388
515296910.0 -0.1285035618 0.262429796 0.194145595 -0.3824755112 0.1941798815 -0.3825362544 -0.1380505608 0.2729554158
520296880.0 -0.1254093034 0.2638839164 0.1897769864 -0.3841857304 0.1900080401 -0.3845742562 -0.1352552494 0.274292316
525296850.0 -0.122908076 0.2654040886 0.1856126742 -0.3867091628 0.1857943374 -0.3866410073 -0.1320772875 0.2759481827
530296820.0 -0.1199103102 0.2664523032 0.1814808339 -0.3878238243 0.1814746344 -0.3883745883 -0.1299190237 0.277378902
535296790.0 -0.1171026586 0.2683927723 0.1771772182 -0.3901280765 0.1773185609 -0.38989959 -0.1269926478 0.2785711771
540296760.0 -0.114115021 0.2692831038 0.1727087349 -0.3924625599 0.1727579739 -0.3925777613 -0.1244347504 0.2806354717
545296730.0 -0.1116567986 0.2708203047 0.1687983881 -0.3940077142 0.168965289 -0.3939314619 -0.1213048352 0.2819886917
550296700.0 -0.10861047 0.2722279121 0.1643556498 -0.3957501879 0.1646368206 -0.3959815049 -0.1181710065 0.2835592364
555296670.0 -0.1054063923 0.2736838649 0.1600011885 -0.3977610174 0.1603024346 -0.397447022 -0.115565834 0.2851166642
560296640.0 -0.1026223142 0.2744495842 0.1556416807 -0.3989040497 0.1560254821 -0.3991580257 -0.11226448 0.2863112397
565296610.0 -0.1002826387 0.2759195109 0.1514522269 -0.4007855215 0.1512790016 -0.4010739053 -0.1096865178 0.2875818686
570296580.0 -0.0968932557 0.2770669605 0.1465541046 -0.402382929 0.1470497199 -0.402515691 -0.1066831789 0.2892154478
575296550.0 -0.0940148435 0.2784143313 0.1425487487 -0.4040735722 0.1426518537 -0.4037137035 -0.1030772174 0.2903464154
580296520.0 -0.0912670119 0.2793734965 0.1385332952 -0.4053755541 0.1381627818 -0.4055561435 -0.100582452 0.2916143458
585296490.0 -0.0880905001 0.2802983064 0.1341021303 -0.4067479149 0.1337904142 -0.4066326949 -0.0977888073 0.2923133449
590296460.0 -0.0855089191 0.2813599527 0.1292706409 -0.4078358934 0.1291649058 -0.4085146367 -0.0945616313 0.2938153554
595296430.0 -0.0820071778 0.2828176882 0.1247776113 -0.4097654209 0.1246977257 -0.4096120792 -0.0915439961 0.2945623195
600296400.0 -0.0794096834 0.2837249032 0.1204646069 -0.4110901581 0.1206520578 -0.4112317536 -0.0885178542 0.2961306008
605296370.0 -0.0761469001 0.2847332671 0.1158699702 -0.4122574463 0.1161292987 -0.412152964 -0.0854488512 0.2972934943
610296340.0 -0.0733851547 0.2855142935 0.1119318262 -0.4132856252 0.1118093847 -0.4134686891 -0.0824834851 0.2985250723
615296310.0 -0.0702522728 0.2867254686 0.1069359228 -0.4145262033 0.1069592685 -0.4145557043 -0.0791526313 0.2991899639
620296280.0 -0.0670791192 0.2872542918 0.1023561282 -0.415314419 0.1026373358 -0.4155282606 -0.0764673893 0.3001445212
625296250.0 -0.0640515356 0.2882635595 0.0975729688 -0.4167527657 0.0978380607 -0.4169322141 -0.07301282 0.3011083386
630296220.0 -0.0608604216 0.288975235 0.0929065025 -0.4175933609 0.0937851176 -0.4178096483 -0.0700120047 0.3021535745
635296190.0 -0.0577908365 0.2898394749 0.0887871104 -0.4179995913 0.0885806692 -0.4182786909 -0.066997282 0.3027719585
640296160.0 -0.0550504417 0.2905694205 0.0843352224 -0.4193116392 0.0844704633 -0.4195540599 -0.0639446228 0.3036146738
645296130.0 -0.0520269745 0.2914406844 0.0796205956 -0.4205260657 0.079846418 -0.4203010556 -0.0610768374 0.3044247517
650296100.0 -0.0489414696 0.2921804075 0.0753935451 -0.4210057094 0.0754543781 -0.4210352792 -0.0575515229 0.3052272513
655296070.0 -0.0459208919 0.2929312249 0.0708714084 -0.4215124084 0.0707667878 -0.4218692875 -0.0541917613 0.3062785974
660296040.0 -0.0428853115 0.2935182159 0.0662009564 -0.4223076465 0.0662734087 -0.4223935435 -0.0511895729 0.3067400736
665296010.0 -0.0395855934 0.2939833653 0.0617374078 -0.4229082874 0.0617112912 -0.4234904617 -0.0481284144 0.3076922879
670295980.0 -0.0360476332 0.2947534447 0.0567163907 -0.4237778579 0.0572497498 -0.4237798774 -0.0452227877 0.3082263633
675295950.0 -0.0336418892 0.2950427201 0.0523236452 -0.4245074484 0.0524421841 -0.4247944113 -0.041585544 0.3086617305
680295920.0 -0.0302127896 0.2958304809 0.0477895593 -0.4248876983 0.047532978 -0.4252326963 -0.0384755326 0.3094227483
685295890.0 -0.0270924046 0.2959529412 0.0432623786 -0.4253314465 0.0431778569 -0.4255669287 -0.0352641075 0.3099998105
690295860.0 -0.0239135761 0.296595526 0.0386562936 -0.4253013931 0.0384027683 -0.4255551691 -0.0319437525 0.3104776013
695295830.0 -0.020712105 0.2966680099 0.0335214858 -0.4258108716 0.0337666215 -0.4263217502 -0.0289127764 0.3114399246
700295800.0 -0.01741698 0.297340092 0.0290540467 -0.4262540154 0.0291926483 -0.4264022808 -0.0257538455 0.3110414513
705295770.0 -0.0141272961 0.2978394329 0.0244806534 -0.4267882264 0.0246222201 -0.4265367163 -0.0227389912 0.3118170223
710295740.0 -0.0113537796 0.2979948187 0.0198491929 -0.4268236441 0.0201906823 -0.4265032955 -0.0198454205 0.3122787841
715295710.0 -0.0085009566 0.2978550619 0.0155200202 -0.4270028341 0.0158027598 -0.4269913397 -0.0161794134 0.3122680549
720295680.0 -0.0051548684 0.2982912343 0.0106953716 -0.426969328 0.0111598654 -0.4276842655 -0.0130051593 0.3130486435
725295650.0 -0.0017058527 0.2986036645 0.0058042865 -0.4268424162 0.0061780994 -0.4271596287 -0.009656037 0.313276435
730295620.0 0.0010846242 0.2986762418 0.0015017552 -0.42695747 0.0015013564 -0.4270469847 -0.0063647225 0.3127387748
735295590.0 0.0047481122 0.2987319978 -0.0030230684 -0.4270564102 -0.0027689582 -0.4272451021 -0.0031053556 0.3133822062
740295560.0 0.0080179188 0.2993472456 -0.0078129211 -0.4267644347 -0.0075488476 -0.4269589831 0.0001831666 0.3133827818
745295530.0 0.010737772 0.2988945812 -0.0124303201 -0.4268347234 -0.0120502341 -0.4270262338 0.0032017061 0.3137379777
750295500.0 0.0137488553 0.2988068414 -0.0163298814 -0.4260200581 -0.0169004801 -0.4266244403 0.0066609819 0.3134697699
755295470.0 0.0174930853 0.2993535669 -0.0215403944 -0.4260080751 -0.0212350885 -0.4265166306 0.0095292433 0.3139926991
760295440.0 0.0204499923 0.298969222 -0.0264347524 -0.4257811198 -0.0260831246 -0.4260622835 0.0128211904 0.3137403193
765295410.0 0.0233104794 0.2985541897 -0.0305426145 -0.4254763342 -0.0301826086 -0.4260178306 0.0164221505 0.3140461326
770295380.0 0.0269574518 0.2990686045 -0.035439808 -0.4251135254 -0.0353409996 -0.4254984882 0.0197230963 0.3137974679
775295350.0 0.0296044661 0.2986980214 -0.0396082542 -0.4243219233 -0.0397831512 -0.4246825339 0.0224657294 0.3132341991
780295320.0 0.0332010204 0.2982310973 -0.0445765639 -0.424320167 -0.0441349905 -0.4244540262 0.0260476194 0.3139280557
785295290.0 0.0361713711 0.2984574462 -0.0488548465 -0.4230893394 -0.0489841483 -0.4236880638 0.0290063629 0.3135670761
790295260.0 0.0391890917 0.2980536826 -0.05355278 -0.4233396455 -0.0534694288 -0.4234916329 0.0328165887 0.3133504728
795295230.0 0.0424060704 0.2978469691 -0.0581387353 -0.4221604257 -0.0577397214 -0.4226176099 0.0358879189 0.3134352109
800295200.0 0.045937971 0.2976592636 -0.0631943004 -0.4216412801 -0.0629476617 -0.4220066608 0.0392226426 0.3129995147
805295170.0 0.048545319 0.2971935004 -0.0669957224 -0.4205465634 -0.0671784622 -0.4210770457 0.0423174931 0.3123742343
810295140.0 0.0521348888 0.2968525038 -0.0716675522 -0.420201449 -0.0717176078 -0.4209117841 0.0453008351 0.3126508755
815295110.0 0.0552314449 0.2964361444 -0.0766684622 -0.419148355 -0.0766800126 -0.4194314581 0.0488418801 0.3119668062
820295080.0 0.0583571839 0.2956616909 -0.0807523696 -0.4186309187 -0.0808425538 -0.4189548505 0.0518151724 0.3114243973
825295050.0 0.0615834579 0.2952910183 -0.0854293055 -0.4171120541 -0.0853572232 -0.4177594904 0.0555646037 0.3112711688
830295020.0 0.0648560202 0.2950476435 -0.0900653885 -0.416306173 -0.0900475631 -0.4165133169 0.0582466344 0.3107509642
