!Created with skrf (http://scikit-rf.org).
# Hz S RI R 50.0 
!freq ReS11 ImS11 ReS21 ImS21 ReS12 ImS12 ReS22 ImS22
300000.0 -0.7767480139 -0.105564398 -0.0002954122 -0.0008844002 0.0001151834 -0.0004375791 -0.0471343982 -0.0625920659
5299970.0 -0.7850442052 -0.0063706833 9.48123e-05 -3.49699e-05 -0.0001115719 6.5468e-06 -0.0458426736 0.0155268587
10299940.0 -0.7881037313 -0.0041524791 -0.0001018632 -0.0002181562 -0.0001073641 5.95846e-05 -0.0398915282 0.0338608208
15299910.0 -0.7934035913 -0.0018988743 0.0001028725 -9.234e-06 2.7133e-06 -1.53317e-05 -0.0315070462 0.0483465743
20299880.0 -0.7996518292 0.0021778507 3.01615e-05 1.986e-07 9.87936e-05 0.0001431127 -0.0213854477 0.0600179075
25299850.0 -0.8065149262 0.0078613139 3.2995e-06 0.0001947595 -6.91833e-05 0.0001533151 -0.0100047506 0.0696610433
30299820.0 -0.8123134125 0.0149950645 0.0002384922 3.42711e-05 -7.69176e-05 -2.02154e-05 0.0015068991 0.0762719497
35299790.0 -0.8170978578 0.0247480509 -8.40942e-05 -4.40859e-05 3.7408e-06 6.38102e-05 0.0131963837 0.0812888437
40299760.0 -0.8209445292 0.033637445 1.45009e-05 0.0001961083 -2.2155e-06 -0.000171733 0.0243382871 0.0840189921
45299730.0 -0.824442288 0.0429007139 0.0001959608 -0.0001491302 -2.14196e-05 -0.0001174001 0.0352959616 0.0857642167
50299700.0 -0.8272584873 0.0526349511 0.0001088961 -0.0001403016 3.91193e-05 6.93313e-05 0.0454055182 0.085408583
55299670.0 -0.8291488511 0.0630053668 9.42174e-05 -0.0001890253 0.0001238608 -0.0001050998 0.0546524154 0.0845412989
60299640.0 -0.8300955136 0.0733768637 2.1583e-05 -7.91607e-05 4.7129e-06 1.45118e-05 0.0632618787 0.0823448975
65299610.0 -0.8311510257 0.0828673501 -0.0001091461 5.89395e-05 1.60264e-05 0.000156359 0.0708251253 0.0801663905
70299580.0 -0.8317058555 0.0933795109 0.0002786294 8.12259e-05 -0.0001934636 -1.79917e-05 0.0774825334 0.0771634099
75299550.0 -0.8319186712 0.1036039938 -6.75461e-05 0.0001626748 -0.0001288182 0.0001833029 0.0840995438 0.0734909428
80299520.0 -0.8315815772 0.1131799491 -0.0001032216 0.0001650059 0.0001441727 -2.8204e-06 0.0895121408 0.0704035428
85299490.0 -0.8310220384 0.1228248281 0.0001170879 5.37245e-05 -2.79504e-05 -1.75687e-05 0.094597375 0.0666118918
90299460.0 -0.8293926944 0.1321238785 5.61103e-05 8.59038e-05 -3.77851e-05 0.000234683 0.0993310375 0.0628093251
95299430.0 -0.8293514634 0.1412320274 7.11087e-05 5.46435e-05 7.25357e-05 -2.87038e-05 0.1034205028 0.058952523
100299400.0 -0.8278577744 0.1512143861 -7.3351e-06 -1.07676e-05 1.09393e-05 -2.71447e-05 0.1073800994 0.05506445
105299370.0 -0.8270361112 0.1605723677 -3.35888e-05 0.000154381 4.90639e-05 0.0001739048 0.1106515209 0.0510099818
110299340.0 -0.8252282472 0.1696325086 -0.0001460073 6.43948e-05 8.37188e-05 9.11301e-05 0.1133983477 0.0473278285
115299310.0 -0.8235874328 0.1784718128 -1.77145e-05 -0.0001653868 -3.29739e-05 0.0001740251 0.1158677778 0.0434005722
120299280.0 -0.8222614552 0.186488341 -1.36933e-05 -0.0001835265 -0.0001348659 -0.0001804849 0.1184070897 0.0397509313
125299250.0 -0.8203626778 0.1956079028 6.76549e-05 0.0001506601 0.0002369002 0.0001560758 0.11991428 0.0356182659
130299220.0 -0.8188117637 0.2051804716 0.0002772824 9.44082e-05 5.27417e-05 -0.0001700035 0.1220689958 0.0318293539
135299190.0 -0.816824851 0.2131955698 -2.54712e-05 -1.1778e-06 9.0815e-06 7.5119e-06 0.1236138668 0.0286316576
140299160.0 -0.8147468815 0.2229028548 5.70073e-05 0.0001294637 -0.0001590225 -4.87673e-05 0.1250475586 0.0254505024
145299130.0 -0.8126554355 0.232039779 -1.41883e-05 0.0001078788 0.0002178809 0.0002123737 0.1259240132 0.0217482472
150299100.0 -0.8100255205 0.2408766788 0.0003069693 7.92479e-05 -0.0001789157 4.44809e-05 0.1269071953 0.0188417768
155299070.0 -0.8074824375 0.2497737037 -8.3031e-06 -1.06982e-05 0.000189506 -4.7477e-06 0.1277932957 0.015474818
160299040.0 -0.8054096887 0.2579129126 6.37443e-05 8.40464e-05 9.38655e-05 7.17791e-05 0.1282423864 0.0124661877
165299010.0 -0.8031165606 0.2669023243 0.0001218986 5.75091e-05 -0.0001970269 -6.2011e-06 0.1291217533 0.009460673
170298980.0 -0.7997863212 0.2749403913 2.64349e-05 -7.94e-08 0.0001378131 -0.0001126945 0.1293736797 0.0062014972
175298950.0 -0.7972524175 0.2843449087 0.0001557346 2.18065e-05 8.09971e-05 9.99137e-05 0.1296505324 0.0033804247
180298920.0 -0.7946501502 0.29292577 7.54319e-05 -6.25939e-05 0.0001064427 3.0366e-06 0.1298052265 0.000588831
185298890.0 -0.7911671794 0.3004768397 -0.0001951411 0.0001613452 0.0002032948 0.000320722 0.1302981602 -0.0021484291
190298860.0 -0.788313833 0.3089870988 0.0001621838 -7.79603e-05 0.0001065979 2.13597e-05 0.1302582854 -0.0048406337
195298830.0 -0.7852759189 0.3175263309 -4.99504e-05 7.30479e-05 0.000103341 9.62109e-05 0.1300523873 -0.0075493117
200298800.0 -0.7813264939 0.3253933749 -2.13575e-05 0.0002469559 -7.39152e-05 0.0002738207 0.1298625234 -0.0100650561
205298770.0 -0.7783202138 0.3339773276 0.0001339512 6.31291e-05 7.89896e-05 -3.96095e-05 0.1296974935 -0.0130018352
210298740.0 -0.7753464866 0.3424768099 6.84586e-05 5.5653e-05 9.66449e-05 6.82003e-05 0.1295114717 -0.0152782143
215298710.0 -0.7717010645 0.3507658516 0.0001875104 0.0002325161 3.27562e-05 0.0003135179 0.1290928655 -0.0177859566
220298680.0 -0.7669885785 0.3583167532 -2.03201e-05 0.0003683466 0.0001851758 9.51548e-05 0.1284962873 -0.0202376193
225298650.0 -0.7646634065 0.3660036618 6.4813e-06 9.50779e-05 0.0001366149 0.0001215885 0.1282079523 -0.0225759628
230298620.0 -0.7601763451 0.375070675 0.0002873635 0.0003654497 -6.50319e-05 -0.0001023719 0.1277532894 -0.0250266829
235298590.0 -0.756426145 0.3833734506 7.23753e-05 0.0002350341 6.82128e-05 0.0002413812 0.1272101625 -0.0272575827
240298560.0 -0.7524043942 0.3910208469 0.0001977234 0.0001628145 0.0002100682 0.0002015419 0.1266100186 -0.0294018429
245298530.0 -0.7489450108 0.3986889227 0.0001909615 -2.7465e-05 -2.50511e-05 8.54246e-05 0.1259979077 -0.0320538555
250298500.0 -0.7446083819 0.4063889265 0.000154589 -3.95131e-05 -8.1099e-06 0.0001142083 0.1252919413 -0.0341442754
255298470.0 -0.7393861051 0.4137416745 7.6914e-05 0.0001131387 1.66674e-05 9.73055e-05 0.1247457034 -0.0363977793
260298440.0 -0.7348713126 0.4213452571 -0.0001156352 -7.09969e-05 -3.55051e-05 0.0001621028 0.1243516949 -0.0381450064
265298410.0 -0.731733611 0.4294591011 0.000140206 0.0001187919 -0.0001982032 -8.4866e-05 0.1235401802 -0.0400643845
270298380.0 -0.7272296223 0.436768301 0.000104456 -8.82846e-05 0.0001493537 0.0001926355 0.1226712574 -0.0422589334
275298350.0 -0.7222576617 0.44449643 0.0001966203 -0.0001014004 0.0003226578 -2.00295e-05 0.1221558599 -0.0443116732
280298320.0 -0.7167748235 0.4524448948 8.73552e-05 -8.51132e-05 -2.51665e-05 -0.000118925 0.1215419788 -0.046227507
285298290.0 -0.7130449799 0.459543428 0.00012814 0.0002324426 -4.66884e-05 5.27268e-05 0.1206343363 -0.0479830438
290298260.0 -0.7077732528 0.4672885845 -0.0001457604 5.03155e-05 9.4221e-05 5.27262e-05 0.1203680666 -0.0494904036
295298230.0 -0.7024884417 0.4743373978 0.0002003873 0.0001314204 0.0004535119 9.1509e-06 0.1196694283 -0.0516269091
300298200.0 -0.6983241965 0.4813037621 5.33729e-05 1.66618e-05 0.0001370679 0.0002819103 0.1187660969 -0.053793237
305298170.0 -0.6929937082 0.4880383883 0.0001823891 0.0001030685 0.0002503809 -9.48284e-05 0.1180540488 -0.0557106761
310298140.0 -0.6878245632 0.496065632 -1.17032e-05 0.0002759519 0.0001979872 0.0001994658 0.1169755201 -0.0574450073
315298110.0 -0.6828106301 0.5032677634 0.0001389712 9.86105e-05 0.0001649884 0.0002374529 0.1158778217 -0.059389236
320298080.0 -0.6780079295 0.5098124589 9.93653e-05 0.0001823146 -3.599e-07 0.0001353187 0.1150264269 -0.0610603254
325298050.0 -0.6717802403 0.5169492088 0.0002201571 0.0002563642 2.376e-05 0.0001422371 0.1137130906 -0.063035708
330298020.0 -0.6665334029 0.5235912799 4.05361e-05 0.0001177347 0.0001874512 -2.69901e-05 0.1125074875 -0.0643852303
335297990.0 -0.6608315297 0.5306309806 4.52876e-05 -4.42845e-05 5.4469e-05 0.00038665 0.1111243016 -0.0652465539
340297960.0 -0.6557159793 0.5373766657 0.0001568432 0.0001790793 8.06752e-05 -3.83549e-05 0.1103744634 -0.0666960657
345297930.0 -0.6502904426 0.5442877277 0.0002150403 0.0001716035 1.13732e-05 2.50806e-05 0.1089489175 -0.0682643276
350297900.0 -0.644775373 0.5510794971 0.0002507605 0.0001091335 0.0002811438 -3.3933e-05 0.107863154 -0.0691311793
355297870.0 -0.6381620416 0.5579624591 0.000213356 0.0002264063 8.02365e-05 8.11603e-05 0.1061949612 -0.0706983358
360297840.0 -0.6325429139 0.5634788938 0.0001773194 0.0001511171 0.0001015316 4.49183e-05 0.1052475464 -0.0719944738
365297810.0 -0.6275830627 0.5702816301 0.0004104224 0.000222012 0.000189088 -1.61563e-05 0.104147042 -0.0736323272
370297780.0 -0.6211005405 0.5759503963 0.000165608 2.31028e-05 3.10819e-05 0.0001747254 0.1033817826 -0.0746612886
375297750.0 -0.6147819323 0.5834319657 9.07188e-05 0.0001760274 8.24494e-05 6.69972e-05 0.1016009876 -0.0761314881
380297720.0 -0.6089663702 0.5889701453 0.0001877379 4.08827e-05 0.0002162546 0.0001808777 0.100160931 -0.0771457053
385297690.0 -0.603200869 0.5947225951 0.0001831949 0.0002399618 -2.5606e-06 0.0001155016 0.0994114063 -0.0787256254
390297660.0 -0.5973091358 0.6009996063 0.0001348643 0.0002781031 4.35825e-05 0.0001624812 0.0978109503 -0.0795055652
395297630.0 -0.5905136348 0.6083788455 7.0671e-06 0.0001802264 0.0001358011 0.0001550939 0.0968437419 -0.0806612158
400297600.0 -0.5845601302 0.6132353316 0.0001285374 0.0004070754 0.0001411842 0.0001055939 0.0958961849 -0.0817242254
405297570.0 -0.5781799685 0.6194875474 6.21691e-05 0.0001544142 0.0002159372 4.97248e-05 0.0943227127 -0.0829264847
410297540.0 -0.5713220289 0.6246087366 5.95995e-05 0.00016266 0.000476325 0.0001378778 0.0930409317 -0.0840175877
415297510.0 -0.5644335498 0.6304448179 9.95529e-05 4.22676e-05 0.000220894 0.0001791646 0.091899225 -0.0852953478
420297480.0 -0.5593054102 0.6367930713 7.4564e-05 0.000157756 5.33839e-05 0.0003014232 0.0906943263 -0.0863060254
425297450.0 -0.5520048812 0.6425413478 0.0001690843 0.0001838072 0.0002765654 0.0001810609 0.089329949 -0.0874215365
430297420.0 -0.5457344931 0.6481630278 0.0001913234 4.94573e-05 0.0002753012 3.73093e-05 0.0876158288 -0.0886706213
435297390.0 -0.5385979528 0.6527832546 0.0001616486 0.0002374976 0.0003144128 9.71447e-05 0.0866258347 -0.089654526
440297360.0 -0.5323451777 0.6593188957 0.0001644093 -2.02004e-05 0.0001906798 0.0002098039 0.0854574405 -0.0904690335
445297330.0 -0.5253570168 0.6644930194 0.0001778152 0.0001224481 0.0002549915 0.0001650774 0.0842405178 -0.0919422127
450297300.0 -0.5184595731 0.6690399992 0.0001285959 0.0001717462 0.000540956 0.0003909145 0.0829886567 -0.0924676796
455297270.0 -0.5119003233 0.6744014794 0.0001380139 0.0001442909 0.0002404359 0.0002727225 0.0816761811 -0.0938012
460297240.0 -0.505167842 0.67925873 0.0002622123 9.71581e-05 0.000319592 7.9796e-05 0.080158068 -0.0944436097
465297210.0 -0.4978038125 0.6846647788 9.09673e-05 0.0001293847 0.0003308389 4.88805e-05 0.079134468 -0.0952926106
470297180.0 -0.4905629219 0.6895175881 0.0001901011 0.000214144 0.0001752845 -5.93665e-05 0.0777179825 -0.0960997445
475297150.0 -0.4834421065 0.6940864666 0.0001394958 0.0002764581 0.000241393 0.0001994939 0.0765723335 -0.0974665046
480297120.0 -0.4765559661 0.6997016624 0.0003542668 0.0001292878 0.0002895555 0.0001893898 0.0753317572 -0.0976834742
485297090.0 -0.4690996977 0.704131501 0.0002222281 0.0001011509 8.62472e-05 1.71462e-05 0.074072526 -0.0983046361
490297060.0 -0.4623258803 0.7085441329 5.43463e-05 0.0002201826 0.0003056291 0.0001500118 0.0725083577 -0.0993175965
495297030.0 -0.4552884102 0.7125065549 0.0001494923 0.0001826414 0.000360772 0.0002325141 0.0711320188 -0.0998708055
500297000.0 -0.4477697993 0.7178643619 0.0005468189 0.0002450448 0.0001052393 0.0001219792 0.0701527588 -0.1004619746
505296970.0 -0.4405402774 0.7220402384 0.0002173756 5.83515e-05 5.46042e-05 9.78852e-05 0.0685820901 -0.1012856907
510296940.0 -0.4328364772 0.7263389607 0.0002145162 0.0001902513 0.0001255672 0.0001164445 0.0669640238 -0.1019986876
515296910.0 -0.425032561 0.7304848173 0.0003183205 0.0001997748 0.0003221645 0.0002059334 0.0656763824 -0.1025625926
520296880.0 -0.4185877286 0.7353147636 0.00044119 0.0001772842 0.0001338955 3.27122e-05 0.0641159214 -0.1032829865
525296850.0 -0.4102897937 0.7384984969 0.0001047838 -4.71883e-05 4.83263e-05 0.0002545554 0.0629799799 -0.1037845062
530296820.0 -0.4025991305 0.7434520073 0.0002033896 8.75986e-05 0.0004062366 -7.21229e-05 0.0616497322 -0.1044475156
535296790.0 -0.3961984004 0.7471007775 6.94342e-05 0.0002085188 0.0003267128 0.0002943436 0.0599403151 -0.1048456019
540296760.0 -0.3882611982 0.7504280004 0.0002463519 -1.66891e-05 0.0003318771 8.73423e-05 0.058387744 -0.1052625975
545296730.0 -0.3811750844 0.754802811 0.0002121037 0.0001460946 0.0003115227 -9.14699e-05 0.0569226609 -0.1061527528
550296700.0 -0.3732787409 0.7588217226 0.0003499435 0.000217197 0.0001141519 -0.0001773142 0.0553961813 -0.1065178348
555296670.0 -0.3651043596 0.76163176 0.0001702759 0.0001302594 0.0002621931 2.06105e-05 0.0541195694 -0.1066457287
560296640.0 -0.3582336443 0.7659178776 6.47336e-05 -6.69138e-05 8.60447e-05 0.0001723709 0.052373207 -0.1074184203
565296610.0 -0.3504202863 0.7696657514 0.0004869495 0.0002336192 0.0001572429 3.89533e-05 0.0510813272 -0.1077543212
570296580.0 -0.3427226758 0.7723439575 0.000333872 -0.0002106895 0.0001865523 0.0001762433 0.0492300158 -0.1083444849
575296550.0 -0.3343545245 0.77683968 0.0001641967 7.69339e-05 0.0001153504 1.7852e-05 0.0481473713 -0.1085886448
580296520.0 -0.3266559222 0.7791062541 0.0002638333 0.0001427085 0.0004685901 7.96408e-05 0.0465853149 -0.1092480792
585296490.0 -0.318953289 0.7827431439 0.0003434119 -4.73234e-05 0.0003690636 0.0001478359 0.0456947103 -0.1099009926
590296460.0 -0.3109770713 0.7859066494 0.0004323573 -0.000217202 0.0003397138 4.89307e-05 0.0434682013 -0.1096772267
595296430.0 -0.3032560637 0.788508414 0.0002048767 0.0003577192 0.0003427168 1.40233e-05 0.0421652996 -0.1106369761
600296400.0 -0.2948172483 0.7922766649 4.67522e-05 1.33296e-05 0.0004126445 0.0001319768 0.0408399854 -0.1109734062
605296370.0 -0.2879018778 0.794301172 0.0002599938 -4.6701e-06 0.000448734 -1.72355e-05 0.0393486638 -0.1110608825
610296340.0 -0.2796331592 0.7975235393 0.0001950248 -0.000105806 0.0004189148 0.0001350598 0.0378844854 -0.1115041028
615296310.0 -0.2706478879 0.7997780474 0.0003540421 -2.8433e-06 0.0003669371 7.3734e-05 0.0367097394 -0.1119373033
620296280.0 -0.2627866496 0.8022404749 0.0002580259 -4.68896e-05 0.0002702016 1.10379e-05 0.0351822991 -0.1120847105
625296250.0 -0.2551730419 0.8051808164 0.0002907569 1.74293e-05 0.0003179222 0.0001986267 0.0338438779 -0.1123527922
630296220.0 -0.2460895004 0.8077259225 0.0004849651 -3.81531e-05 0.0002211042 0.0001077788 0.0324277099 -0.1122187471
635296190.0 -0.2387901968 0.810409713 0.0003964019 -0.0001396228 0.0003017878 0.0001775334 0.0309970837 -0.1124510164
640296160.0 -0.2313345223 0.8121471042 0.0002956505 0.0002317986 0.0002705475 7.10805e-05 0.029722639 -0.1129757513
645296130.0 -0.2230277461 0.8151902216 0.0004930149 0.0001322937 0.0005131159 1.2668e-05 0.0281405885 -0.1128776945
650296100.0 -0.2147421455 0.8166234273 0.0001908152 0.0001403543 0.0002333516 5.01441e-05 0.0269146994 -0.1134271298
655296070.0 -0.2065132874 0.819045629 0.0002064862 -7.75229e-05 0.0001212743 2.17846e-05 0.0258561309 -0.1131843401
660296040.0 -0.1983450781 0.8206329305 0.0004313834 -5.60258e-05 0.0002664758 1.643e-05 0.0242299918 -0.1134456699
665296010.0 -0.1899526948 0.8222286358 0.0004836468 0.0001190721 0.000324984 -0.0001194936 0.0225888732 -0.1129918887
670295980.0 -0.1823066788 0.8242047837 0.0004618714 -9.15354e-05 0.0001584683 -4.79192e-05 0.0211519531 -0.1132020147
675295950.0 -0.1734066886 0.8261439414 0.0003742821 0.0001795583 0.000361331 1.52559e-05 0.0196229546 -0.113201911
680295920.0 -0.1655474676 0.8279191211 0.000548867 -6.09274e-05 0.0002796492 -1.05183e-05 0.0181368808 -0.113291105
685295890.0 -0.1571700322 0.8299661893 0.0004165269 -6.11731e-05 0.000393371 2.97177e-05 0.0168603056 -0.1129604373
690295860.0 -0.1493795069 0.8308658116 0.0003202751 -4.63752e-05 0.0001195136 6.7125e-05 0.0155925206 -0.1125519567
695295830.0 -0.1412448737 0.832488371 0.0004938399 -0.0002187284 0.0003659483 1.42796e-05 0.0138921733 -0.112776544
700295800.0 -0.1322842048 0.8332866312 0.0002259201 -8.9624e-06 0.0004431508 6.57285e-05 0.0119395507 -0.1126609595
705295770.0 -0.1243813645 0.8351521637 0.000342697 3.763e-05 0.0003521092 3.02804e-05 0.0112169557 -0.1121868756
710295740.0 -0.1166059654 0.8364636309 0.0003664747 -0.0001012598 0.0003243623 -9.03064e-05 0.0092091029 -0.112602589
715295710.0 -0.1079259257 0.8374396569 8.15008e-05 1.49838e-05 0.0003130189 7.0165e-05 0.0076809929 -0.1123694094
720295680.0 -0.0996577566 0.8383440172 0.000368658 -2.68459e-05 0.0002072067 -6.31352e-05 0.0065708355 -0.1121952382
725295650.0 -0.0912187553 0.8396208594 0.0002795402 0.0001104458 0.0004120126 1.58179e-05 0.0048598449 -0.1115840069
730295620.0 -0.0824507061 0.8399379652 0.0003121959 -0.0001254137 0.0002570004 -0.0002326426 0.0030546862 -0.1118254075
735295590.0 -0.074316889 0.8414026881 0.00026491 -4.14541e-05 0.0001923975 -7.19974e-05 0.0016859443 -0.1118210465
740295560.0 -0.0660264699 0.8417730562 0.0004453585 0.0002542895 0.0004620659 -4.01314e-05 0.0005710212 -0.1116839725
745295530.0 -0.0576474151 0.8428315849 0.0002809095 -3.44745e-05 0.0002292094 -3.72901e-05 -0.00059621 -0.1113513872
750295500.0 -0.048872336 0.8427766989 0.0004426005 0.0001105562 0.0004812774 -4.45696e-05 -0.0020488232 -0.1109994974
755295470.0 -0.0408616928 0.8430099793 0.0002954392 -0.0001168663 0.0004380295 -9.20289e-05 -0.0036516478 -0.1113790859
760295440.0 -0.0329088908 0.8435331517 0.0005063874 6.35303e-05 0.00043568 4.13984e-05 -0.0047533049 -0.1109934344
765295410.0 -0.0242098471 0.8441204882 0.0002284805 -3.63784e-05 0.0003915632 5.42967e-05 -0.0066099713 -0.1106487019
770295380.0 -0.0164212346 0.8442861256 0.0003156463 -5.94388e-05 0.0002984022 -5.17766e-05 -0.0081131891 -0.1104933934
775295350.0 -0.0080380612 0.844192522 0.0004385587 -4.1693e-05 0.0002985274 -0.0001944415 -0.009667241 -0.109834892
780295320.0 0.0007132457 0.8445724035 0.0004823291 -8.78502e-05 0.0002853584 2.53725e-05 -0.0108798915 -0.1098596462
785295290.0 0.0082254575 0.8431120012 0.000430459 4.14488e-05 0.000373301 -0.0002554007 -0.0117078685 -0.1094719347
790295260.0 0.0175735426 0.8438153821 0.0004461636 -0.0001851531 0.0005977074 2.90729e-05 -0.0130660659 -0.1087283744
795295230.0 0.0253976092 0.8436183442 0.0004665311 -0.0002563568 0.0002126311 -0.0001905047 -0.0146079581 -0.1084334189
800295200.0 0.0337480341 0.8435639673 0.0004500401 -3.1824e-05 0.0002551316 -0.0001547543 -0.0157646795 -0.1079175959
805295170.0 0.0426951936 0.8428501341 0.0004782223 -0.0001857659 0.0003109525 6.5991e-06 -0.0173187261 -0.1077857584
810295140.0 0.0505873723 0.8423639214 0.0003042917 -0.0003932926 0.0005232578 -0.0001661715 -0.018256077 -0.1071607797
815295110.0 0.0586414512 0.8423072083 0.0003622293 -0.0001302589 0.0005075225 -8.64376e-05 -0.0199330661 -0.106671309
820295080.0 0.0669232147 0.8414476536 0.0003853238 -8.14091e-05 0.0006262827 -8.50019e-05 -0.0208712297 -0.1064957419
825295050.0 0.0764790603 0.8406099924 0.0006354663 -2.88567e-05 0.0003813687 -0.000258077 -0.0221104317 -0.1060003662
830295020.0 0.0837774933 0.8400976271 0.000533857 -0.0001017752 0.0004390317 -0.0001593149 -0.023178575 -0.1052341131
835294990.0 0.0919174523 0.8394513952 0.0002587158 -0.0001580434 0.0003347447 -4.61923e-05 -0.0248605155 -0.1046359342
840294960.0 0.0997292143 0.8386786688 0.0003838596 -9.18981e-05 0.0001608626 -6.79618e-05 -0.0263000835 -0.1040656347
845294930.0 0.1085235899 0.8369922063 0.0003197998 -0.0001449519 0.0003623995 -0.0001457149 -0.0275560197 -0.1031990123
850294900.0 0.1163596929 0.8363196293 0.0002785423 -0.0001581718 0.0001596383 3.63224e-05 -0.0286811143 -0.1026745443
