!Created with skrf (http://scikit-rf.org).
# Hz S RI R 50.0 
!freq ReS11 ImS11 ReS21 ImS21 ReS12 ImS12 ReS22 ImS22
300000.0 -0.213017571 -0.0562636748 -0.0003153061 -0.000462924 -0.0012151934 0.0010511964 -0.7708388414 -0.1279411277
5299970.0 -0.2171751656 0.0083511937 -0.0002686662 0.0002235957 7.79953e-05 0.0001475907 -0.7842038944 -0.0069476628
10299940.0 -0.2133125542 0.0195091707 0.0003495996 3.50496e-05 3.71747e-05 0.0001764064 -0.7874820028 -0.0036761852
15299910.0 -0.2085658462 0.0284749509 1.28868e-05 5.03416e-05 -0.0002957928 9.59313e-05 -0.7928480185 -0.0015668442
20299880.0 -0.2035527489 0.0360230613 -0.0003249431 -6.35132e-05 -1.68343e-05 7.45671e-05 -0.799679553 0.0021525754
25299850.0 -0.197826138 0.0423649281 -0.0001579003 8.88665e-05 0.0001210233 0.000151091 -0.8060038788 0.0083016391
30299820.0 -0.1919656212 0.0468525764 3.59079e-05 0.000207626 -3.33926e-05 -8.2302e-06 -0.8120258915 0.0164934381
35299790.0 -0.1864108682 0.0504377775 0.0002547135 0.0001399708 0.000101851 0.0001112039 -0.8170388865 0.0255199362
40299760.0 -0.1804910347 0.0535639392 -0.0002183648 5.2229e-06 5.10393e-05 0.0002003276 -0.8210871888 0.0343080557
45299730.0 -0.1755409328 0.0555178576 -0.0001119283 9.83388e-05 -8.84436e-05 -3.20947e-05 -0.8249515231 0.0437819097
50299700.0 -0.1708776442 0.0568244814 7.34188e-05 7.7302e-05 2.01702e-05 -3.66919e-05 -0.8275954291 0.0544344136
55299670.0 -0.1667408838 0.0579432329 -0.0001294471 -0.0002616499 -0.0001873693 8.16881e-05 -0.8294258157 0.0645461573
60299640.0 -0.162430357 0.0587191394 1.53168e-05 4.08028e-05 -3.18482e-05 -0.0001279127 -0.8305074529 0.0745814846
65299610.0 -0.1589187687 0.0593845167 0.0001315455 1.06165e-05 -0.0001259875 -2.9231e-06 -0.8318280044 0.0838595051
70299580.0 -0.1558703896 0.0595623709 3.46672e-05 0.0001069726 1.39501e-05 -6.8709e-06 -0.8318033689 0.0944884142
75299550.0 -0.1527865264 0.0602776293 -0.0001892854 0.0001063561 -4.32482e-05 3.00442e-05 -0.8323778727 0.1044273066
80299520.0 -0.1500351264 0.060310515 -9.05136e-05 -2.62669e-05 7.38361e-05 -7.17764e-05 -0.831997831 0.113767313
85299490.0 -0.1479487917 0.0597855451 -4.54332e-05 -5.52442e-05 4.77934e-05 0.000102102 -0.8319800692 0.1239979472
90299460.0 -0.1455872929 0.0600057846 -0.0001757082 -5.0916e-05 -7.87454e-05 9.08802e-05 -0.830943355 0.1337481266
95299430.0 -0.1433466706 0.0598401667 7.79161e-05 0.000140902 0.0001144966 -5.24755e-05 -0.8294923627 0.1432252687
100299400.0 -0.1416615235 0.0599191996 9.22223e-05 2.43617e-05 2.99062e-05 -5.01409e-05 -0.828355078 0.1524132285
105299370.0 -0.1401064294 0.0598637351 -0.0001528588 3.8935e-05 3.119e-06 7.70649e-05 -0.8272789184 0.161126492
110299340.0 -0.138585209 0.0599689315 -5.9362e-06 5.627e-07 0.0001286931 0.000162379 -0.825679716 0.1706410162
115299310.0 -0.1368955588 0.0599551698 4.90425e-05 0.0001095702 -0.0001044415 9.92408e-05 -0.8246192626 0.1801736137
120299280.0 -0.1361457331 0.0597292682 -9.70577e-05 -0.00019639 0.000270001 4.54777e-05 -0.8223178795 0.1890449613
125299250.0 -0.1350223532 0.0600505761 -1.93109e-05 6.327e-07 1.32813e-05 -9.07942e-05 -0.8209825854 0.1980775657
130299220.0 -0.1342069667 0.0603782799 -0.000175933 0.0001780867 0.0001033375 0.000170696 -0.8190945191 0.2064359924
135299190.0 -0.1333317081 0.0606753801 0.0001330114 0.0001062883 9.77385e-05 0.0001280375 -0.8164792757 0.216149018
140299160.0 -0.1326024134 0.0607549756 0.0001223564 -0.0001280951 -7.76272e-05 -0.0001368001 -0.8145496568 0.2248431935
145299130.0 -0.1316507278 0.0612741432 0.0001020448 -0.0002965365 -2.60158e-05 -6.50848e-05 -0.8118821651 0.2341699944
150299100.0 -0.1308165672 0.061375622 9.4581e-06 0.0001769211 9.8639e-06 -1.6933e-05 -0.8103349555 0.2433625567
155299070.0 -0.1300367117 0.0618319788 0.0001995251 -1.78573e-05 0.0001417275 -1.85204e-05 -0.8071654431 0.2519306364
160299040.0 -0.1297780301 0.062417064 0.0002537868 -8.97049e-05 0.0001583751 -8.8115e-05 -0.8050882157 0.2608355908
165299010.0 -0.1288766688 0.0629047803 0.0001325391 -0.0001529615 -6.13341e-05 0.0001901031 -0.8021519112 0.2695798951
170298980.0 -0.1285766395 0.0634131555 8.98919e-05 0.0001394533 -2.62232e-05 0.0001019553 -0.7991263331 0.2783931366
175298950.0 -0.1278446617 0.0641907837 -4.4685e-06 0.0001042348 0.0002069603 0.0001283693 -0.7968102775 0.2871830285
180298920.0 -0.1273961521 0.0649764852 7.96501e-05 7.26866e-05 2.02988e-05 6.94506e-05 -0.7934088632 0.2950930436
185298890.0 -0.1266220785 0.0649597184 8.8747e-06 0.0001095291 0.0001534226 5.47147e-05 -0.7896854176 0.3041198343
190298860.0 -0.1259617619 0.0660351132 3.97496e-05 4.63103e-05 2.023e-05 0.0001369248 -0.7880218231 0.3124990768
195298830.0 -0.1259348885 0.0665170565 0.0001003589 1.95146e-05 5.59197e-05 -0.0001553996 -0.7842613947 0.3213796359
200298800.0 -0.1249305403 0.0672910285 0.0001843896 0.0001165094 0.0001156356 0.0002165404 -0.7815871085 0.329725192
205298770.0 -0.124863478 0.0680935112 3.77257e-05 -0.0001578735 0.0002238414 3.42988e-05 -0.7774452629 0.3374681667
210298740.0 -0.1242484241 0.0687986157 2.90572e-05 3.52521e-05 -6.34471e-05 4.66462e-05 -0.774629104 0.346547737
215298710.0 -0.1240691841 0.0697941347 0.0001131521 -8.89517e-05 0.0002790006 0.000116456 -0.7704385247 0.3541863984
220298680.0 -0.1237929654 0.0704315906 -0.0001579735 0.0001697169 7.76932e-05 3.90399e-05 -0.7673283886 0.3625136113
225298650.0 -0.1236564319 0.0711724745 4.17772e-05 -6.48737e-05 0.0001004119 0.0003610366 -0.7638627217 0.370235666
230298620.0 -0.1228008515 0.0721615647 0.0001124744 -2.37301e-05 0.0001124442 0.0001227545 -0.7598822715 0.3788210808
235298590.0 -0.1219410746 0.0732520868 0.0001817734 -2.55862e-05 7.85372e-05 0.0002315224 -0.7557869841 0.3873486714
240298560.0 -0.1217384511 0.0739506235 0.000263922 0.0001400068 1.53193e-05 -9.50898e-05 -0.7519771887 0.3958917617
245298530.0 -0.1213918679 0.0747024778 -8.32459e-05 3.54255e-05 0.0002297081 5.9544e-06 -0.7478175523 0.4026834877
250298500.0 -0.1207885651 0.0759157895 4.7556e-05 -0.0001037195 0.0001907933 -2.63555e-05 -0.7437132296 0.4105740739
255298470.0 -0.1205233568 0.0764543322 -2.96947e-05 0.0002059667 0.0001039576 0.0001972069 -0.7389300777 0.4184093028
260298440.0 -0.1199973373 0.077483948 0.0001941982 0.000134513 -0.0001518132 1.08486e-05 -0.7350196706 0.4265173114
265298410.0 -0.119558399 0.0791053605 5.77611e-05 4.2724e-06 -1.95527e-05 -1.02605e-05 -0.7300008259 0.4341371935
270298380.0 -0.1191854398 0.0799354488 4.07681e-05 0.0001333089 0.0001284847 8.18402e-05 -0.7253866518 0.4410172699
275298350.0 -0.1184015393 0.0803248973 3.26129e-05 0.0001753255 -1.79734e-05 -2.49612e-05 -0.7209060796 0.4488764428
280298320.0 -0.117621044 0.0817983458 0.0002439766 8.95608e-05 6.15014e-05 6.00203e-05 -0.7159778449 0.4563238061
285298290.0 -0.1172586789 0.0829489823 0.0002829512 1.1887e-05 8.93816e-05 0.0002427099 -0.7104830966 0.4637805385
290298260.0 -0.1166988055 0.0835325632 -3.25622e-05 -8.4325e-05 0.0001625765 0.0001139007 -0.7060700145 0.4710552869
295298230.0 -0.1157999723 0.084512627 1.70106e-05 0.0001648352 0.0001001434 8.91789e-05 -0.700600171 0.47844616
300298200.0 -0.1152021103 0.0857488125 -5.2449e-06 0.0001984456 0.000160173 0.0001902463 -0.6960375438 0.4854838139
305298170.0 -0.1145772741 0.0865277403 3.7222e-06 -0.0001195443 5.57079e-05 -7.51114e-05 -0.6898959825 0.4927893248
310298140.0 -0.1140079979 0.0877835364 0.0002072665 0.0001261682 0.0001000575 -2.01761e-05 -0.6857402065 0.4994918456
315298110.0 -0.1131935354 0.0886997583 -6.53677e-05 0.0001069206 0.0001942168 0.0002058097 -0.6793814739 0.5070261527
320298080.0 -0.1128584908 0.0897845899 0.0001525464 5.07544e-05 -0.0001183365 0.0002201059 -0.6744043159 0.5144336509
325298050.0 -0.1119773561 0.0906562405 0.000190634 -0.0001392211 -0.0001055772 -0.0002468229 -0.6690308481 0.5208418942
330298020.0 -0.1114929189 0.0912501855 0.0002405455 -3.34548e-05 0.0001246845 0.0001067362 -0.6633061069 0.5284185809
335297990.0 -0.1107935485 0.0925648161 0.0001608406 -3.20003e-05 5.2467e-05 4.5781e-06 -0.6582146279 0.5352516381
340297960.0 -0.1106510083 0.0938529744 0.0002651503 0.0001118334 5.40131e-05 -0.0001102081 -0.6524883592 0.5425807512
345297930.0 -0.1098037033 0.0948165706 -0.0001551976 0.000137643 7.33453e-05 5.8141e-05 -0.6465230488 0.5486656268
350297900.0 -0.1093575789 0.0959019343 -4.04513e-05 0.0001358366 0.0003740907 7.90631e-05 -0.6413149512 0.5559602554
355297870.0 -0.1081967179 0.0971421338 0.0002404029 0.0001810004 -2.68813e-05 -5.32239e-05 -0.6352209091 0.5621264635
360297840.0 -0.1079503395 0.098275198 6.65164e-05 -3.74047e-05 0.0001861597 0.000159967 -0.6291439277 0.5695543562
365297810.0 -0.1073390373 0.0995340241 0.0001279926 -5.04405e-05 0.0001728286 -4.07577e-05 -0.6226059237 0.5756024942
370297780.0 -0.1062877124 0.1005649416 3.69237e-05 0.0001487937 8.8393e-05 9.61359e-05 -0.6170272113 0.5820022993
375297750.0 -0.1056985397 0.1012628426 0.0001146211 0.0002282687 0.0003537978 3.97202e-05 -0.6117232232 0.5880406508
380297720.0 -0.104643691 0.1026273072 0.0002241192 6.01776e-05 0.0001263752 4.00885e-05 -0.6057468572 0.5942780824
385297690.0 -0.1043171533 0.1038025424 0.0002302869 9.63228e-05 0.0001464964 0.0001965554 -0.5991262542 0.6010743356
390297660.0 -0.1032071103 0.1050324466 0.0002285751 0.0002111346 0.0001335252 0.0002185606 -0.5933867609 0.6070812453
395297630.0 -0.1024400602 0.1061954124 8.6115e-05 0.0001796733 -3.60539e-05 -1.72838e-05 -0.5862560393 0.6132808111
400297600.0 -0.101328995 0.1072467569 -7.91517e-05 -4.71521e-05 -8.89006e-05 0.0001531969 -0.5802017088 0.6188834069
405297570.0 -0.1009849267 0.1082841868 1.25178e-05 -0.0001208167 0.0001273171 -0.0001463356 -0.5738108021 0.6253982112
410297540.0 -0.1001362424 0.1093515098 0.0003807525 6.91472e-05 6.6699e-05 2.42651e-05 -0.5674926564 0.6313577944
415297510.0 -0.0987863315 0.1101118179 0.0001628627 0.0002344905 0.0002043925 -2.70625e-05 -0.5611143665 0.6366682323
420297480.0 -0.0981634254 0.1114658184 0.0001327108 8.23863e-05 3.43695e-05 -0.000135488 -0.5541308817 0.6425781562
425297450.0 -0.0969911644 0.1124599243 -7.58722e-05 2.8926e-05 7.08415e-05 0.0001139707 -0.5481187047 0.6483128364
430297420.0 -0.0959899907 0.1131842219 -2.08166e-05 -6.29292e-05 0.0002079205 0.0002788061 -0.5406635928 0.6532581303
435297390.0 -0.0955131864 0.1145575991 2.73634e-05 -0.0001096062 -0.0001197109 -5.377e-07 -0.5337658828 0.6585592999
440297360.0 -0.0946166971 0.115609722 0.0001173054 0.0002302172 0.0001645961 0.0002370695 -0.5271023696 0.66397259
445297330.0 -0.0932894807 0.1166146368 0.0002953753 3.99325e-05 0.0001944567 0.0002025831 -0.5202572588 0.6689345163
450297300.0 -0.0925422497 0.1173453703 0.0001879804 1.74509e-05 0.0001777826 -0.0001049451 -0.512950433 0.6741114009
455297270.0 -0.0916958749 0.1184971079 0.0001212966 1.69403e-05 -6.51729e-05 0.0002389043 -0.5060571298 0.6788351029
460297240.0 -0.0908171589 0.1193494367 0.0001768955 0.0002594382 6.29926e-05 5.58559e-05 -0.4997039816 0.6841070916
465297210.0 -0.0892601813 0.1206008632 9.71027e-05 0.0002897986 0.0001704782 0.0001988238 -0.4911322873 0.6891899455
470297180.0 -0.0884324057 0.1216271855 0.0001906358 0.0001579962 0.0001243143 0.0001854354 -0.4845975457 0.6947370361
475297150.0 -0.0874480186 0.1223738924 0.0003732961 -3.40453e-05 8.8478e-06 -5.89866e-05 -0.4773334129 0.6986561258
480297120.0 -0.0865030834 0.1236596994 -5.34684e-05 0.0001284526 0.0001622701 0.0001579808 -0.4698684773 0.7035713253
485297090.0 -0.0854102589 0.1242984713 0.0001213156 0.0001006637 0.0003077773 -0.0001081628 -0.4628097412 0.7081623414
490297060.0 -0.0846238886 0.125802092 0.0001596366 -2.3575e-05 0.0003860453 0.0001108929 -0.4555785301 0.7126036203
495297030.0 -0.083257239 0.1265188527 0.0001300103 0.0001561431 0.0001741699 2.71799e-05 -0.448636241 0.7179906113
500297000.0 -0.0819504012 0.1273447104 0.0001856257 9.72501e-05 0.0001035235 0.000160748 -0.4404608403 0.7224837889
505296970.0 -0.0807229092 0.1284886269 0.0002437241 0.0001903436 -3.21619e-05 0.0002114491 -0.4332397232 0.7270239246
510296940.0 -0.0799570498 0.1292611334 0.0002590538 0.0002066888 -2.40089e-05 0.0001280485 -0.4258637515 0.7309025756
515296910.0 -0.078601717 0.1300373816 8.6595e-06 0.0001025178 0.0001612653 -8.8592e-06 -0.4185772405 0.7351204061
520296880.0 -0.0776249507 0.1312407276 0.0001551472 7.12595e-05 0.0001961033 1.4711e-05 -0.4107528056 0.7389188219
525296850.0 -0.0764119573 0.1317561848 -1.77703e-05 7.92759e-05 6.65543e-05 -3.48649e-05 -0.4039038546 0.7436634551
530296820.0 -0.0752401968 0.1329727951 0.0001932414 0.0001321882 7.80499e-05 -0.0001656899 -0.3961587018 0.7472708963
535296790.0 -0.0742932977 0.1339595332 0.0002616485 -0.0001086916 0.0001637588 -0.0001318464 -0.3890768721 0.7519355913
540296760.0 -0.0729912257 0.1344673196 9.96906e-05 -4.85288e-05 6.16813e-05 -0.0001634149 -0.3804033028 0.755977826
545296730.0 -0.071963974 0.1354398748 0.0003758707 5.62111e-05 3.2959e-05 -9.41694e-05 -0.3727635626 0.7593607752
550296700.0 -0.070338382 0.13645703 0.0001315024 6.11506e-05 0.000147547 4.18004e-05 -0.3649479257 0.7633508874
555296670.0 -0.069364247 0.1367777521 0.000226933 -1.30887e-05 0.0002753963 0.0002215385 -0.3579249357 0.7674712589
560296640.0 -0.067824035 0.1382265057 0.0002496112 7.6293e-05 0.0002410328 -0.0001520678 -0.349761023 0.7712419342
565296610.0 -0.0670226006 0.1389266833 0.0002695735 0.0001829368 0.0002151317 4.34304e-05 -0.3417010824 0.7740940654
570296580.0 -0.0657494101 0.1393762224 0.0005053239 8.17558e-05 0.0001128324 -0.00018758 -0.3344383105 0.7779202454
575296550.0 -0.0645668648 0.1407296414 0.0001639707 7.92042e-05 0.0001234952 0.0001785774 -0.3263462144 0.7811502592
580296520.0 -0.0631253235 0.1415278629 0.0001174841 6.05464e-05 8.10675e-05 9.84258e-05 -0.3178108184 0.7843633242
585296490.0 -0.062069724 0.1418202243 0.0002278789 0.0001071138 0.0002371124 1.52298e-05 -0.3105608336 0.7875172775
590296460.0 -0.0602674575 0.1429561747 7.33892e-05 -1.76568e-05 0.0001743198 2.71767e-05 -0.3028647134 0.7904606122
595296430.0 -0.0593048672 0.1436111854 0.0003467685 -7.22675e-05 0.0003768519 -1.9375e-05 -0.29430527 0.7928258151
600296400.0 -0.0581312979 0.1441994078 0.0001167492 2.62784e-05 0.0001828219 -4.71522e-05 -0.2868099271 0.7959294573
605296370.0 -0.0567092888 0.1450406999 1.93397e-05 -0.0001111949 0.0001568138 9.00886e-05 -0.2777164246 0.7987570117
610296340.0 -0.05546419 0.1456981289 0.0004051006 3.80994e-05 0.0001610362 0.0001379945 -0.2701228785 0.8010377546
615296310.0 -0.0538442298 0.1464886629 0.000267672 0.0002411956 0.0003920125 0.0001067666 -0.2615446876 0.8037077886
620296280.0 -0.0529554657 0.1469263471 6.32141e-05 0.0001923132 0.0002368687 0.0002511973 -0.2539348742 0.8062087824
625296250.0 -0.0514767947 0.1476358709 0.0001630404 0.0001195913 0.0001462228 0.0001107665 -0.2451349776 0.808006928
630296220.0 -0.0498730074 0.1480353149 -1.49835e-05 0.0001060599 0.0002692812 -8.08354e-05 -0.2372405352 0.8108297815
635296190.0 -0.0490187072 0.1491465599 0.0002557962 -1.5233e-06 0.0001145638 -0.000147335 -0.2295621883 0.8124431645
640296160.0 -0.047563157 0.1496816382 0.0001454887 -0.0001257396 0.0002281569 6.0794e-06 -0.2206574358 0.8149777746
645296130.0 -0.0461431836 0.1508530956 0.0001959994 5.81961e-05 -7.54719e-05 0.0001561864 -0.2130682733 0.8178444832
650296100.0 -0.0447125794 0.1510717232 0.0002734435 -0.0001537459 0.0003953417 0.0002367037 -0.2042892976 0.8188734731
655296070.0 -0.0436145297 0.1516967619 0.0003388863 -0.0001888507 0.0003098091 -9.07394e-05 -0.195872017 0.8203104421
660296040.0 -0.042274431 0.1523328951 0.0003158203 3.40881e-05 0.000210444 -9.5403e-06 -0.1873883087 0.8233396018
665296010.0 -0.0403714838 0.1523810972 0.0002136843 -1.13028e-05 0.0002131529 2.83521e-05 -0.1788693543 0.8252953272
670295980.0 -0.0394943221 0.153473735 0.0001508978 0.0001534448 0.0003700313 1.21043e-05 -0.1711233254 0.8270066581
675295950.0 -0.0379205276 0.1540270916 0.0002544352 7.98728e-05 0.0002459192 0.0001147569 -0.1630201003 0.8285259672
680295920.0 -0.036377964 0.1544082302 0.0002312619 9.64453e-05 0.0002636227 0.000113115 -0.1547394564 0.8309891433
685295890.0 -0.0350071823 0.1552374458 6.26067e-05 -0.0001590703 0.0003632657 7.83222e-05 -0.1454285363 0.830998888
690295860.0 -0.033396179 0.1556425343 0.0002083145 -7.37502e-05 0.0004083664 0.0001326041 -0.1379751657 0.8335797878
695295830.0 -0.0319984034 0.1562668518 0.0003415838 -3.42772e-05 0.0002943322 1.01238e-05 -0.1294530329 0.8344967708
700295800.0 -0.0305173365 0.1564332776 -2.6855e-05 -4.74983e-05 6.3041e-05 4.5629e-06 -0.1216169885 0.8361114506
705295770.0 -0.0293678307 0.1572573544 0.0001033247 -6.95488e-05 0.000193077 -9.0112e-06 -0.112830404 0.8380018219
710295740.0 -0.0276950309 0.1575870352 0.0001315882 1.36032e-05 0.0002838299 -0.0002180555 -0.1048742966 0.8388157771
715295710.0 -0.0265908636 0.1578594589 0.0001851131 9.15949e-05 0.0003522073 -0.0001081839 -0.0956522156 0.839904346
720295680.0 -0.024848027 0.1585631366 0.0001650364 -0.0001066249 0.0001557575 -1.1168e-05 -0.0876307961 0.8405757308
725295650.0 -0.0234035619 0.1590025616 0.0001324097 3.0569e-05 0.0003517709 -3.1932e-05 -0.079232247 0.8423094275
730295620.0 -0.0218930243 0.1592271674 0.0001397646 -0.0002595568 0.0002897714 7.55365e-05 -0.071593165 0.842258721
735295590.0 -0.0204143672 0.1598897108 0.0003958368 4.434e-05 0.0003911522 -0.0002073732 -0.062368406 0.842794319
740295560.0 -0.018865498 0.1604691707 0.0001848092 0.0001125213 0.0002634338 6.64389e-05 -0.0536973813 0.8437683088
745295530.0 -0.0175769662 0.1606178387 0.0006030769 -0.0001370735 0.0003538558 -0.000202184 -0.0455709025 0.8441384318
750295500.0 -0.0157000776 0.1610554771 0.0002788947 0.0002035667 0.000208764 -0.0001600228 -0.0375422881 0.8444258169
755295470.0 -0.0145296528 0.1612883655 0.0004223689 0.0001485959 0.0002542684 -2.31604e-05 -0.0286832569 0.8440003522
760295440.0 -0.0131965603 0.1617235773 0.0002714805 -3.0189e-05 0.0002859965 -0.000161898 -0.0203347531 0.8444104038
765295410.0 -0.0113147915 0.1619540289 0.0002769505 -7.54322e-05 0.0004020472 0.0001881722 -0.0119946715 0.8450974025
770295380.0 -0.0100861464 0.1621101717 0.0003161239 -7.36369e-05 0.0001117255 -1.12748e-05 -0.0036402186 0.8449314706
775295350.0 -0.008752565 0.1625959305 0.0004713503 -0.0001466638 0.0003875186 0.0001818693 0.004231857 0.8440479601
780295320.0 -0.007130647 0.162793529 0.0003220424 6.4985e-06 0.0004936046 -5.14181e-05 0.0127492378 0.8444649243
785295290.0 -0.005726505 0.1627866467 0.0001910578 -7.97203e-05 0.0003844953 0.0001307156 0.0214048109 0.8437082843
790295260.0 -0.0036100227 0.1635250187 0.0001802036 -0.00013649 0.0002321136 -0.0001920594 0.0304322151 0.8437891618
795295230.0 -0.0023526947 0.1635628361 0.0001882929 -0.0002235983 0.0005303219 -6.10917e-05 0.0387234702 0.8427127968
800295200.0 -0.0012755624 0.1637135545 0.0003058916 -5.97758e-05 0.0003584934 -7.29895e-05 0.047687297 0.8424460258
805295170.0 0.0006252854 0.1638453957 0.0001367677 -0.0001506157 0.0003517151 -0.0002072158 0.0555827811 0.8424005198
810295140.0 0.0024380811 0.1640236102 0.0002132755 -1.73504e-05 7.89328e-05 1.57301e-05 0.0639139166 0.8411495095
815295110.0 0.0033635189 0.1641203398 0.0002542376 -0.0002244421 0.0002086439 -5.56821e-05 0.0724113534 0.8410011345
820295080.0 0.0050746982 0.1645744923 0.0003044309 -0.0002878726 3.98106e-05 -0.0002622239 0.0806338894 0.8399390202
825295050.0 0.0071585937 0.1645975038 0.000179782 -0.0001535113 0.0003173302 -4.11363e-05 0.0888408259 0.8395137599
830295020.0 0.0085091726 0.1647277344 0.0003505893 -4.1041e-05 0.0003579128 -3.06674e-05 0.0982128575 0.8382946624
835294990.0 0.0098697593 0.1650529633 0.0001713015 -0.0001038203 0.0002628052 6.10877e-05 0.1057607615 0.8376096086
840294960.0 0.0114154384 0.1648500368 0.0001970888 -0.0001267663 0.0003918036 -7.65339e-05 0.1146186451 0.8359442297
845294930.0 0.01300983 0.1651706817 0.0005301746 -2.61673e-05 0.0003078973 3.25282e-05 0.1220461605 0.8346964909
850294900.0 0.0147363547 0.1652480895 0.0002806201 -0.0001418064 0.0004508376 -3.87665e-05 0.1305407412 0.8337269255
