!Created with skrf (http://scikit-rf.org).
# Hz S RI R 50.0 
!freq ReS11 ImS11 ReS21 ImS21 ReS12 ImS12 ReS22 ImS22
300000.0 -0.3217801259 -0.0797821429 0.3769956048 0.0411075585 0.3732057468 0.0408035137 -0.3199779958 -0.0961854288
5299970.0 -0.326602229 0.0042852447 0.3781515834 0.0023461791 0.3781650351 0.0021422817 -0.3239059304 0.0046955867
10299940.0 -0.3241527112 0.0133119387 0.379241987 0.0020391401 0.3793495304 0.0021663087 -0.3215155197 0.0158728504
15299910.0 -0.3214882137 0.0203847764 0.3818763222 0.0021437724 0.3819800722 0.0022520295 -0.3181569502 0.023923166
20299880.0 -0.3186502317 0.0265277153 0.3850377151 0.0015858978 0.3847476004 0.001583553 -0.3147302866 0.0300709804
25299850.0 -0.3157550763 0.0316658351 0.3881877445 -8.6822e-06 0.3879630843 0.0001771707 -0.3105161094 0.0360558624
30299820.0 -0.3128500778 0.0359333383 0.3915608921 -0.0024398527 0.3915431978 -0.0024839313 -0.307063015 0.0410265032
35299790.0 -0.3100717033 0.0400313496 0.3948250863 -0.0055275811 0.3947367795 -0.0055755048 -0.3036817897 0.0454587814
40299760.0 -0.3071513602 0.0435116447 0.3976510971 -0.0087526384 0.3980280785 -0.0087581117 -0.3002713472 0.0486272406
45299730.0 -0.3047025763 0.0465538328 0.4006367533 -0.0126951772 0.400854679 -0.0124362864 -0.2973356098 0.0517981213
50299700.0 -0.3024350812 0.0495158331 0.4036408483 -0.0173806853 0.4034766451 -0.0172200146 -0.29441965 0.054740456
55299670.0 -0.3002073277 0.052172609 0.4057002594 -0.022189166 0.4056090443 -0.0220388315 -0.2918538474 0.0572066968
60299640.0 -0.2978704314 0.0550196048 0.4073546295 -0.0273183771 0.4079264891 -0.0271044449 -0.2889443824 0.0591834599
65299610.0 -0.2961666414 0.0576394074 0.4092031211 -0.0322110349 0.4092460177 -0.0319311201 -0.2870969075 0.0615954828
70299580.0 -0.2945775697 0.0600096561 0.410303962 -0.0373947483 0.4103680306 -0.0370553789 -0.2849736245 0.0636795975
75299550.0 -0.2929684199 0.0627408548 0.4110604559 -0.0422850661 0.4115379993 -0.042161707 -0.2833410854 0.0657061479
80299520.0 -0.2915232757 0.0648330631 0.4123672809 -0.0475184852 0.4124901886 -0.0477868995 -0.2816051529 0.0679898548
85299490.0 -0.2903242476 0.0667639024 0.4129856639 -0.0523449976 0.4127684369 -0.0525450165 -0.2800293142 0.0700636869
90299460.0 -0.2888961559 0.069622729 0.4132110626 -0.0581891609 0.4133724106 -0.0578491022 -0.2781857165 0.0719961987
95299430.0 -0.2873612126 0.0716779047 0.4135291288 -0.0633092574 0.413556357 -0.0633175539 -0.2765694387 0.0742580109
100299400.0 -0.286375051 0.0741980082 0.4131486116 -0.0682732772 0.4132512013 -0.0684407256 -0.2752903875 0.076182196
105299370.0 -0.2850942077 0.0763634393 0.4133708431 -0.0739251456 0.4134802312 -0.0737342542 -0.2739486814 0.0781322238
110299340.0 -0.2839442831 0.0786871896 0.4134529133 -0.0784205334 0.4132153055 -0.0787853592 -0.2729958059 0.0803070794
115299310.0 -0.2828153576 0.0809775525 0.4128276474 -0.0840542789 0.4130025487 -0.0838535082 -0.2716465954 0.0822927089
120299280.0 -0.2819205462 0.083001671 0.4122763158 -0.0891302509 0.4125376774 -0.0891916972 -0.2702674565 0.0843342288
125299250.0 -0.2810989937 0.085713843 0.4118851681 -0.0938938913 0.4120825468 -0.094137223 -0.2698000196 0.0864806359
130299220.0 -0.2803510379 0.0881371416 0.4112640519 -0.0992072316 0.4109397348 -0.0993508326 -0.2684239893 0.0883284883
135299190.0 -0.2791669922 0.0907924459 0.4105607645 -0.1042462331 0.4104522918 -0.1038706081 -0.2673330411 0.0910283944
140299160.0 -0.2785327404 0.0931561549 0.4095762628 -0.1092826813 0.4095506072 -0.1095616906 -0.2661678138 0.0937173981
145299130.0 -0.2772283143 0.0957362839 0.4086677896 -0.1143329479 0.4084402118 -0.1141427295 -0.2653472806 0.0957476368
150299100.0 -0.2763088858 0.0981862146 0.4075305182 -0.1191578698 0.4076122522 -0.1185265206 -0.2645238094 0.0985368775
155299070.0 -0.2754974864 0.1007774688 0.4068319331 -0.1243549545 0.4067111834 -0.1241627586 -0.2631667375 0.1008156584
160299040.0 -0.2743910699 0.1031673869 0.4055026036 -0.1285165546 0.405130181 -0.1288606025 -0.2627218927 0.1032449884
165299010.0 -0.2738293999 0.1057526521 0.4042517853 -0.1338787519 0.4040779326 -0.1337853899 -0.2612306673 0.1057514234
170298980.0 -0.2730692667 0.1084355494 0.4026082745 -0.1385152823 0.4029309331 -0.138398128 -0.2600970634 0.1082739674
175298950.0 -0.272022501 0.1113285426 0.401643472 -0.1434799398 0.401511038 -0.1434999411 -0.2594854379 0.1108090631
180298920.0 -0.2709526213 0.1138487509 0.3999615143 -0.1479151809 0.3999145846 -0.1480401327 -0.2583848822 0.1133613514
185298890.0 -0.2695542477 0.1164806501 0.3985961453 -0.152382768 0.3982740101 -0.1524611002 -0.2573400289 0.1157144193
190298860.0 -0.2687095101 0.1193260297 0.3971225688 -0.1572065294 0.3969541471 -0.1572436946 -0.2562956231 0.1180936285
195298830.0 -0.267737319 0.1220082959 0.3951247221 -0.1619404175 0.3953391303 -0.1617943131 -0.2551858515 0.12063976
200298800.0 -0.2662347854 0.1245810586 0.3933735218 -0.166721583 0.3932997179 -0.1666835851 -0.2545308865 0.1235052538
205298770.0 -0.2655352007 0.1272759238 0.3917065685 -0.1714617083 0.3915962044 -0.1711896007 -0.2530615281 0.1254797116
210298740.0 -0.2642998785 0.1296787091 0.3896969694 -0.175666014 0.3896290249 -0.1755225314 -0.2518441498 0.1285893154
215298710.0 -0.2633350941 0.1326841198 0.3878860164 -0.1800914939 0.3875575674 -0.1802425577 -0.250756075 0.1310135152
220298680.0 -0.2619514921 0.1351211079 0.3853275265 -0.1846757024 0.385498863 -0.1847517957 -0.2500170688 0.1333442576
225298650.0 -0.2609950974 0.1377986702 0.3840901466 -0.1892055439 0.3840969407 -0.1892624181 -0.2491010639 0.1359471514
230298620.0 -0.259666091 0.1408767961 0.3822006213 -0.1934876503 0.3823317833 -0.1938288588 -0.2478427905 0.1384784255
235298590.0 -0.2582165237 0.143859434 0.3799986075 -0.1979111038 0.3798896242 -0.1975330197 -0.2466214219 0.1409923554
240298560.0 -0.256819508 0.1462436538 0.3776174242 -0.202507263 0.3778329122 -0.2024655611 -0.2452033703 0.1439565093
245298530.0 -0.2556560221 0.1491238708 0.3753270877 -0.2068178582 0.375633252 -0.2068255791 -0.2440105033 0.1458590513
250298500.0 -0.2544626107 0.1517312344 0.3725435029 -0.2107427826 0.3723833425 -0.2106550155 -0.2428272553 0.1486222784
255298470.0 -0.2529686826 0.1542271535 0.3702440418 -0.2151947628 0.3706855386 -0.2150121148 -0.2410616401 0.1510475622
260298440.0 -0.2515766747 0.1568087791 0.3682624232 -0.2196271497 0.3682923378 -0.2193574215 -0.2395016802 0.1538305086
265298410.0 -0.2498206606 0.1600864737 0.3657107599 -0.223656045 0.3659427319 -0.2234205782 -0.2379482265 0.1561586492
270298380.0 -0.2483291191 0.1626337513 0.3635563166 -0.2274524687 0.3637504683 -0.2275090089 -0.2367878559 0.1586172275
275298350.0 -0.2469728699 0.1652390315 0.3608311979 -0.2321409285 0.3611897576 -0.2318079226 -0.2352325927 0.1611978237
280298320.0 -0.245183683 0.1678344858 0.3587282694 -0.235918826 0.3584563304 -0.2357065804 -0.2336195123 0.1633220448
285298290.0 -0.2435815464 0.1707363002 0.3560161781 -0.2397984827 0.3557935351 -0.2399686805 -0.2317974035 0.1660829947
290298260.0 -0.241859348 0.1732904538 0.3528620157 -0.2435393315 0.3533082774 -0.2441050104 -0.2302134045 0.1688328597
295298230.0 -0.2398785103 0.1755393161 0.3504453306 -0.2478009102 0.3506501677 -0.2477633944 -0.228229238 0.17071441
300298200.0 -0.2385808438 0.178240351 0.3483391737 -0.251410216 0.34782937 -0.2519540559 -0.2266657925 0.173461964
305298170.0 -0.2364117831 0.1805899372 0.3444511887 -0.2560220542 0.3451397568 -0.2557851488 -0.2245011846 0.1758039671
310298140.0 -0.2349019433 0.1833488883 0.342254631 -0.2598477448 0.3422144389 -0.2594925302 -0.2231447242 0.1781241126
315298110.0 -0.233025179 0.1858813454 0.3395258697 -0.2633879339 0.3394538709 -0.2632683944 -0.2212910648 0.1805322572
320298080.0 -0.2310612573 0.1882943607 0.3357628422 -0.2676739655 0.3363691417 -0.2676807619 -0.2192985932 0.1832791381
325298050.0 -0.2292367765 0.1907967329 0.3332662222 -0.2713276236 0.3333725567 -0.271428273 -0.2179886629 0.1853051426
330298020.0 -0.2275685259 0.1931720998 0.3300145457 -0.2752834607 0.3303075335 -0.2751015148 -0.2160209287 0.1879154559
335297990.0 -0.2256956928 0.1954249661 0.3271010038 -0.2784673543 0.3267957888 -0.2786113805 -0.2147359265 0.1904928524
340297960.0 -0.2242600885 0.1982055763 0.3239610855 -0.2823859247 0.3236407891 -0.2824368949 -0.2124010214 0.1928136542
345297930.0 -0.2221415461 0.20067242 0.3206974961 -0.2859105503 0.3204443481 -0.2861115819 -0.2108408889 0.1949868337
350297900.0 -0.2200937424 0.2029789013 0.3167543396 -0.2895669369 0.3173578852 -0.2893454527 -0.2090030458 0.1978745295
355297870.0 -0.217904811 0.205934141 0.3138801979 -0.2931253285 0.3141406641 -0.2928822496 -0.2069237965 0.2001181568
360297840.0 -0.2160557331 0.2081781093 0.3113419607 -0.2962018568 0.3111889139 -0.2963206629 -0.2048115301 0.2027835461
365297810.0 -0.2139595676 0.2110032373 0.3078350953 -0.2999419133 0.3077865753 -0.2996610707 -0.2028282073 0.204667394
370297780.0 -0.2120326538 0.2130834035 0.3040970039 -0.3031714945 0.3043893432 -0.3031183906 -0.2009233857 0.2076755588
375297750.0 -0.2093496618 0.215675107 0.3009742314 -0.30619422 0.3011493829 -0.3064965199 -0.1987060338 0.2094982805
380297720.0 -0.207325271 0.2179110342 0.2973379192 -0.3100682809 0.29720574 -0.3095011942 -0.19676719 0.2116697257
385297690.0 -0.2056069055 0.2202585092 0.29401808 -0.3127578553 0.2939432231 -0.3130790729 -0.1944304346 0.2140754075
390297660.0 -0.2031020672 0.2226225209 0.2904842219 -0.3161198614 0.2904437608 -0.3159675427 -0.1927630555 0.2164212486
395297630.0 -0.2006587627 0.2249834442 0.2870111129 -0.3195676411 0.2870349436 -0.319425911 -0.1898905185 0.2186526569
400297600.0 -0.1985701246 0.2271633961 0.2835495425 -0.3225723258 0.2833118017 -0.3227973072 -0.1880203014 0.220668743
405297570.0 -0.196752523 0.229519995 0.2799560718 -0.3255027447 0.2800870035 -0.3255798148 -0.1863844395 0.2230669959
410297540.0 -0.1936057598 0.2320726907 0.2762997342 -0.3287837578 0.2765993135 -0.3289608659 -0.1836803408 0.2254427247
415297510.0 -0.1911644015 0.2338345765 0.2723451189 -0.3318289373 0.2727648128 -0.332081651 -0.181608997 0.2274365925
420297480.0 -0.1891849865 0.2363859221 0.2689917743 -0.3348413758 0.2689213656 -0.3349138952 -0.1794174283 0.2290525574
425297450.0 -0.1864175952 0.2380799561 0.2655409507 -0.3374547786 0.2653676155 -0.3376962476 -0.1772096537 0.2312354239
430297420.0 -0.1840297886 0.240152206 0.2615518949 -0.3400411142 0.2615960769 -0.3403943797 -0.1747816326 0.2332143127
435297390.0 -0.1815547153 0.2427445305 0.2572966468 -0.3430771708 0.2574018454 -0.3430336158 -0.1718264657 0.234892277
440297360.0 -0.179205633 0.2445674708 0.2537993314 -0.3458994431 0.2537846915 -0.3459398652 -0.169750982 0.2369282776
445297330.0 -0.1765887082 0.2466222647 0.2501352686 -0.3486301226 0.250111192 -0.3484194118 -0.1666855956 0.2385949451
450297300.0 -0.1736455655 0.248283552 0.2463254672 -0.3516451067 0.2459275183 -0.3514687987 -0.1647991052 0.240553961
455297270.0 -0.1715059195 0.2502539595 0.2423959199 -0.3539355484 0.2423629138 -0.3542943508 -0.1622546761 0.2423112579
460297240.0 -0.1690105778 0.2522890129 0.2382930005 -0.3567240583 0.2385266616 -0.3568277022 -0.1596729386 0.2443193113
465297210.0 -0.1660023076 0.2544785311 0.2343182174 -0.3592362203 0.2343945702 -0.3593932535 -0.156821249 0.2457838685
470297180.0 -0.1633429436 0.2561088796 0.2300513188 -0.3617094406 0.2302064602 -0.3616165602 -0.1542413833 0.2480038063
475297150.0 -0.1607971304 0.2577517722 0.2263606508 -0.363854375 0.2264887418 -0.3639790669 -0.1515419446 0.2494564692
480297120.0 -0.158213295 0.2599567144 0.2223523822 -0.3665984569 0.2221407095 -0.3669721212 -0.1489173192 0.2513771179
485297090.0 -0.1556008424 0.261627818 0.2184810342 -0.368738528 0.2185656949 -0.3687186545 -0.1461191147 0.2531699285
490297060.0 -0.1530204943 0.2637119131 0.2143981043 -0.3713306856 0.2145481395 -0.3711240397 -0.1437883623 0.2548519683
495297030.0 -0.1502604075 0.2651697707 0.2101102317 -0.3733345574 0.2105697102 -0.3736654029 -0.1408039828 0.2567006433
500297000.0 -0.1475197973 0.2670613488 0.2062560068 -0.3758286384 0.2061732256 -0.3755542408 -0.138219949 0.2589395123
505296970.0 -0.1443812135 0.2688882232 0.2021851081 -0.3783515109 0.2016160717 -0.3777217723 -0.1355073968 0.2599834103
510296940.0 -0.1417198664 0.270320703 0.1981092554 -0.3801881691 0.197730561 -0.3803743785 -0.1323639598 0.2614882437
515296910.0 -0.138821937 0.2719723348 0.1937813996 -0.3823756702 0.1935873333 -0.382443188 -0.1299263673 0.2633142863
520296880.0 -0.136126749 0.2737758569 0.1896250488 -0.3845407729 0.1894600706 -0.3842983004 -0.1267155949 0.2647526998
525296850.0 -0.133147119 0.2747429675 0.1846682312 -0.3864592716 0.1853623804 -0.3860770268 -0.1247484535 0.2663606061
530296820.0 -0.1301025767 0.2767044141 0.1809710098 -0.3885081916 0.1810492663 -0.3886951725 -0.12125666 0.2678678298
535296790.0 -0.1276145691 0.2779879046 0.1771104131 -0.3901936663 0.1769481755 -0.3901220605 -0.1190927901 0.2692484446
540296760.0 -0.12469457 0.2795759436 0.1726787773 -0.3919844229 0.1724786448 -0.3924307538 -0.1162432531 0.2710764662
545296730.0 -0.1213880405 0.2811472098 0.1675541242 -0.3943355797 0.1681739884 -0.394226762 -0.1138341067 0.2722570396
550296700.0 -0.1183725739 0.2828933518 0.1636243645 -0.3957860861 0.164172035 -0.3958705085 -0.1109166096 0.27361745
555296670.0 -0.1155566906 0.2839367665 0.1592493461 -0.3974398263 0.1596560775 -0.3974779224 -0.1076354622 0.2755379293
560296640.0 -0.112553539 0.2853811286 0.1551591232 -0.3992287357 0.155345971 -0.399196157 -0.1051427404 0.2764736477
565296610.0 -0.1099625219 0.2867137162 0.1506223685 -0.4006774123 0.1509611201 -0.4008535731 -0.1022695059 0.2776153172
570296580.0 -0.1068641723 0.2879205903 0.1463233684 -0.4026765596 0.1461878394 -0.4025189935 -0.0993788219 0.2790494178
575296550.0 -0.1039308682 0.2895202696 0.1422300323 -0.4041881424 0.1418671821 -0.4041554566 -0.0960977043 0.2803892302
580296520.0 -0.1004527712 0.2907538389 0.1374357902 -0.4057512028 0.1376188975 -0.4055939873 -0.0934954596 0.2811605126
585296490.0 -0.0979543174 0.2912183278 0.1336966672 -0.406625145 0.1333795307 -0.4071159311 -0.0901480955 0.2823107134
590296460.0 -0.0945214632 0.2928785038 0.1287246782 -0.4078678363 0.1285848767 -0.4082337977 -0.0880779509 0.2836601932
595296430.0 -0.0913761436 0.2938086501 0.1240185372 -0.4095906355 0.1241553396 -0.409516302 -0.0847276037 0.2840492055
600296400.0 -0.0886217113 0.2949505254 0.1195410961 -0.4108532181 0.11988965 -0.4109712843 -0.0821003303 0.2852428005
605296370.0 -0.0856485898 0.2961577607 0.1156118435 -0.412210906 0.1155441909 -0.4122770046 -0.0787439257 0.2863963274
610296340.0 -0.0823778836 0.297000948 0.1104483597 -0.413272088 0.1107146033 -0.4132995597 -0.0754906247 0.2871550894
615296310.0 -0.0787585806 0.2979710686 0.1059160479 -0.4143619784 0.1060906816 -0.4148987596 -0.0724894407 0.2876747567
620296280.0 -0.0759635743 0.2989709324 0.1016978886 -0.4152854671 0.1017433079 -0.415598952 -0.0698864926 0.2889214068
625296250.0 -0.0728486513 0.2995768532 0.0977630321 -0.4164053022 0.0972354144 -0.4168204136 -0.0661749165 0.2897113983
630296220.0 -0.0692907744 0.3005583014 0.092189068 -0.4177180757 0.0923608606 -0.4175522432 -0.0634213365 0.2908091448
635296190.0 -0.0667365893 0.3015544265 0.0882705708 -0.418614989 0.0878690824 -0.4185466989 -0.0602203592 0.2912331013
640296160.0 -0.0637374849 0.3025690035 0.083724019 -0.4191315286 0.0835778435 -0.4195191687 -0.0569857781 0.292069134
645296130.0 -0.0604565035 0.3035048934 0.0791805859 -0.4201758323 0.0790269851 -0.420362172 -0.0541149651 0.2929234681
650296100.0 -0.0571916386 0.3040684062 0.0745917648 -0.4207853743 0.0742151336 -0.4209725148 -0.0508559818 0.2930083408
655296070.0 -0.0540842393 0.3045712156 0.0699392345 -0.4216902941 0.0700088373 -0.4214438799 -0.0477403805 0.2941311259
660296040.0 -0.0509533937 0.3049906735 0.0653342222 -0.4224429212 0.0653660498 -0.4223794009 -0.044227956 0.2947816545
665296010.0 -0.0477159239 0.3056023487 0.0608795264 -0.4229851458 0.0608500859 -0.4232384884 -0.0414254284 0.2958937461
670295980.0 -0.0447660395 0.3065607997 0.0561438362 -0.4234419323 0.0559496356 -0.423602286 -0.0383442288 0.2961161685
675295950.0 -0.0413708001 0.3071411164 0.0516891749 -0.4237648154 0.0514687121 -0.4235339634 -0.0354561254 0.2968012919
680295920.0 -0.0381354596 0.3079233995 0.0469962386 -0.4244398587 0.046540243 -0.4249690498 -0.0320941501 0.2978199387
685295890.0 -0.0349610042 0.3088761547 0.0422587908 -0.4253941745 0.0421918947 -0.425157741 -0.0286445014 0.2979766693
690295860.0 -0.0314048689 0.3088765308 0.0375450047 -0.4249864093 0.0378394666 -0.4258156914 -0.0257908301 0.2991885871
695295830.0 -0.0283831084 0.3092423786 0.033564795 -0.4257971456 0.0329122329 -0.4260764625 -0.0224429924 0.2992398184
700295800.0 -0.0250826328 0.3096703587 0.028235624 -0.4258145591 0.028271807 -0.4260969117 -0.019638773 0.2998128381
705295770.0 -0.0220070742 0.3105942477 0.023591568 -0.4262771979 0.0242264244 -0.4264757498 -0.0166029996 0.3003334764
710295740.0 -0.018622655 0.3105523947 0.0196459257 -0.4268309606 0.0191977662 -0.4268072968 -0.0133225459 0.3002116248
715295710.0 -0.0156291856 0.3107828501 0.0149253987 -0.4268431558 0.0143376641 -0.426906158 -0.0098160551 0.3005900782
720295680.0 -0.0122012383 0.3110753903 0.0100453816 -0.4265917437 0.010163055 -0.4270684825 -0.0070276858 0.3009513734
725295650.0 -0.008892051 0.3114683893 0.0053110408 -0.4268443204 0.0053696225 -0.4268420014 -0.0041805334 0.3015846886
730295620.0 -0.0054440086 0.3120508697 0.0005841611 -0.4266383374 0.0007068922 -0.4273408999 -0.0010450772 0.3018308061
735295590.0 -0.0023786507 0.3119213349 -0.0039799819 -0.426719792 -0.0039128155 -0.4268539933 0.0017505462 0.3013160831
740295560.0 0.0006756022 0.3122655029 -0.0082941158 -0.4267172284 -0.0087597327 -0.4265651708 0.0059435536 0.3020016494
745295530.0 0.0038628037 0.3124077309 -0.0131624667 -0.4263467352 -0.01333474 -0.4265050613 0.0088450128 0.301684037
750295500.0 0.0075464592 0.3124384982 -0.0176233897 -0.4262255296 -0.0175779242 -0.4266138234 0.0113844327 0.3018693514
755295470.0 0.0109175305 0.312079661 -0.0221678584 -0.4259772235 -0.02243663 -0.4259822099 0.0151577577 0.3013617932
760295440.0 0.0139465851 0.3123160627 -0.0271312318 -0.4258218672 -0.0272634003 -0.426036282 0.0179205135 0.3015141557
765295410.0 0.0168603275 0.3122651551 -0.0313048722 -0.4256516342 -0.0320176115 -0.4257265098 0.0212108845 0.3018682624
770295380.0 0.0201095135 0.3123429415 -0.0361910118 -0.4250972908 -0.0361581459 -0.4248397115 0.0240517657 0.301295636
775295350.0 0.0232591034 0.311915259 -0.0407632476 -0.4241949884 -0.0405470429 -0.4245111732 0.0269525917 0.301248799
780295320.0 0.0269198739 0.3121129768 -0.0451695762 -0.4241543824 -0.0447493642 -0.4239723096 0.0302102205 0.3008289298
785295290.0 0.0300438102 0.3113365806 -0.0502073353 -0.4229961175 -0.0499770712 -0.4233350696 0.0341354093 0.3007361333
790295260.0 0.0338187701 0.3115552969 -0.054312618 -0.4228350412 -0.0542817431 -0.4227371245 0.037249464 0.3006197085
795295230.0 0.0368461561 0.3111634402 -0.0589734124 -0.4219390645 -0.0589643386 -0.4222146285 0.0404558337 0.3001665929
800295200.0 0.0395947995 0.3109717822 -0.0638239901 -0.4216276513 -0.0636007471 -0.4213114507 0.0435604111 0.3001549285
805295170.0 0.0435095602 0.3104329992 -0.067950975 -0.4204430265 -0.068128709 -0.4207379524 0.0464214038 0.2999608864
810295140.0 0.0465148691 0.3100702285 -0.0725814588 -0.4198315071 -0.0726034449 -0.4199496224 0.0503302885 0.2993668338
815295110.0 0.0495481038 0.3097007429 -0.0769582661 -0.4185101255 -0.0771586076 -0.4189958428 0.0531010871 0.2987245564
820295080.0 0.0525918186 0.3097810598 -0.0814826582 -0.4180506732 -0.0812845265 -0.4179414635 0.0561306767 0.2984919563
825295050.0 0.0564188593 0.3090472406 -0.0859095539 -0.4173097059 -0.0860140252 -0.4170596487 0.0595286713 0.2979971001
830295020.0 0.059301552 0.3084234353 -0.0908505673 -0.4157871676 -0.0907778325 -0.4161212377 0.0632650309 0.297532016
