!Created with skrf (http://scikit-rf.org).
# Hz S RI R 50.0 
!freq ReS11 ImS11 ReS21 ImS21 ReS12 ImS12 ReS22 ImS22
300000.0 -0.0956553799 -0.0977734117 0.6237300775 0.0904287455 0.622755542 0.0922172516 -0.0976903382 -0.1043909181
5299970.0 -0.1014830355 0.0115576372 0.6299766301 0.011339374 0.6304888966 0.0109451809 -0.1017559488 0.0111925886
10299940.0 -0.0970456792 0.0286711048 0.6348366302 0.0160037673 0.6343602052 0.0163566643 -0.0965846269 0.0285009848
15299910.0 -0.0889798943 0.0423452794 0.6406044287 0.0211434064 0.6405080379 0.021307048 -0.0898544893 0.0416318042
20299880.0 -0.0806312638 0.0535385166 0.6491222574 0.0245251167 0.6491860204 0.0244681421 -0.0807520037 0.0529237918
25299850.0 -0.0704672101 0.0624890356 0.6581766278 0.0257662668 0.6585295043 0.0255677298 -0.0718260525 0.0621255472
30299820.0 -0.0608241746 0.0687534597 0.6678089134 0.0244833811 0.6682117687 0.0244895445 -0.0617115293 0.0682851331
35299790.0 -0.0505752379 0.0736938609 0.6770775578 0.0219472009 0.6771840731 0.0215256638 -0.0522388612 0.0735028211
40299760.0 -0.0414538412 0.0764189619 0.6868824643 0.0179945169 0.6870605002 0.0175331546 -0.0426551764 0.076943433
45299730.0 -0.0321041862 0.0785737296 0.6960005318 0.0124627828 0.696274695 0.0124253779 -0.0330510792 0.0792283688
50299700.0 -0.0226945534 0.0788155456 0.7036413104 0.0049758981 0.7041589637 0.004465281 -0.024538667 0.0801362545
55299670.0 -0.0151612959 0.0790357172 0.7114702868 -0.0020352811 0.7109036557 -0.0026988131 -0.0171740747 0.0806711956
60299640.0 -0.0077137495 0.0784514921 0.7183514646 -0.0108967138 0.7179489816 -0.0110113335 -0.0097560811 0.0795620097
65299610.0 -0.0012983042 0.0773060626 0.723926006 -0.0196244138 0.7244795968 -0.0194281724 -0.0027915663 0.0785129337
70299580.0 0.0051872115 0.0751445089 0.7291542926 -0.0287559359 0.7290418743 -0.0287757429 0.0027399844 0.077081078
75299550.0 0.0105216734 0.0731143642 0.7333377259 -0.039224335 0.7334816002 -0.0389995043 0.0085701216 0.0753823904
80299520.0 0.0156875122 0.0714540778 0.7374840391 -0.0486975068 0.7379306391 -0.0489504446 0.0135840516 0.0735672926
85299490.0 0.0199819182 0.0690170379 0.7413174831 -0.0585886049 0.7413596377 -0.0581204495 0.0181444483 0.0710509952
90299460.0 0.0237755577 0.0666854016 0.7433207864 -0.0683827769 0.743679391 -0.0682522834 0.022577361 0.0693225278
95299430.0 0.0277697206 0.0640859445 0.7464908774 -0.0787400015 0.7465623549 -0.0789766451 0.0258461802 0.0667171974
100299400.0 0.0313058532 0.061473512 0.7476079422 -0.0886233728 0.7479235952 -0.0887800687 0.0291250822 0.0647909305
105299370.0 0.0343660943 0.0591947768 0.7490530134 -0.0985046027 0.7500012852 -0.0987644447 0.0328060479 0.061857635
110299340.0 0.0372538705 0.0563080966 0.7507907481 -0.1086829761 0.7508249097 -0.108371808 0.0347270104 0.0594500824
115299310.0 0.0395694492 0.0541863329 0.7516941912 -0.1187006705 0.7513669177 -0.1185350023 0.0373769866 0.0577040178
120299280.0 0.04163687 0.0519409377 0.7519978225 -0.1295184781 0.7518007606 -0.1292526317 0.0397280587 0.054724593
125299250.0 0.0438988489 0.0497168461 0.7523703002 -0.1389956409 0.7519906782 -0.1388482034 0.0420738525 0.0526439284
130299220.0 0.0456692591 0.0469866201 0.7527401124 -0.1490038694 0.7518292527 -0.1491758692 0.0436962646 0.0507901223
135299190.0 0.0472780679 0.045396192 0.7522767888 -0.1584122771 0.7520348192 -0.1589876698 0.0452370749 0.0478930772
140299160.0 0.0489678261 0.0431831375 0.7521185334 -0.1687043768 0.7510759918 -0.1682048886 0.0463124097 0.0455466629
145299130.0 0.0493371727 0.0411694615 0.7504565542 -0.1781866997 0.7506816344 -0.1784064739 0.0479531808 0.0437760569
150299100.0 0.0509509972 0.0393057319 0.749306371 -0.1878560291 0.7497184005 -0.1876731329 0.0491071005 0.0422521804
155299070.0 0.0525728651 0.0369800878 0.747752605 -0.1976919941 0.7483094375 -0.1979204877 0.0503625891 0.0396415928
160299040.0 0.05328283 0.0354531937 0.7470955262 -0.2073232594 0.7466533568 -0.2074127107 0.051001134 0.0381977117
165299010.0 0.0546264588 0.0333199388 0.7452102448 -0.2161460891 0.7447227309 -0.2168070856 0.0521546788 0.035916814
170298980.0 0.054990642 0.0320552556 0.7430355062 -0.2254768124 0.743475103 -0.2260651278 0.0526630528 0.0340605299
175298950.0 0.0560186075 0.0302976122 0.7420971467 -0.2350379226 0.7418237269 -0.2356950229 0.0534632818 0.0328678593
180298920.0 0.0565346857 0.0287812144 0.7392146115 -0.2444313864 0.7396128831 -0.2446978852 0.053857117 0.0308479491
185298890.0 0.0567416048 0.0271292954 0.7376949746 -0.2535461361 0.7371700096 -0.2531707127 0.0551339327 0.0289827423
190298860.0 0.0578309357 0.0256473264 0.7343334098 -0.2626687212 0.7352130509 -0.2626400343 0.0551752476 0.0274935647
195298830.0 0.0579784477 0.0241949289 0.7329071368 -0.2717126156 0.7324336747 -0.2714521493 0.055438437 0.026073047
200298800.0 0.0585307564 0.0224173761 0.7298253963 -0.2811672716 0.7295945025 -0.2810542361 0.0562576556 0.0239136964
205298770.0 0.0583929498 0.0208228092 0.7270256895 -0.2895006309 0.7271581375 -0.2892645376 0.0568795535 0.0227568076
210298740.0 0.0591508166 0.0199864409 0.7238029467 -0.2984372665 0.7235829478 -0.2981146273 0.0564553889 0.02096493
215298710.0 0.0594688875 0.018560574 0.7209091997 -0.3067474842 0.7210516971 -0.3070433095 0.0569575013 0.0200125507
220298680.0 0.0597682249 0.0176447682 0.7173775267 -0.315113629 0.7175808235 -0.3158242234 0.0573554108 0.0182130723
225298650.0 0.0597505293 0.016109934 0.7142744504 -0.3240908267 0.7147517284 -0.3232793182 0.0572495617 0.0164753902
230298620.0 0.0604473268 0.0152981765 0.7112828517 -0.3328464269 0.7115947067 -0.3328133582 0.0573068202 0.0152152559
235298590.0 0.0598503742 0.0140293148 0.7079771759 -0.3419349474 0.708102615 -0.3414020127 0.0580250135 0.0144898747
240298560.0 0.0603074356 0.0128773188 0.7041158318 -0.3492245726 0.7041312525 -0.3488696015 0.0575718015 0.0130083379
245298530.0 0.0603081762 0.0113731954 0.7004303017 -0.3580899617 0.7004000992 -0.3577709799 0.0575535295 0.0119607521
250298500.0 0.0600978907 0.0101882326 0.6972801672 -0.3659793472 0.6967371013 -0.3660496987 0.0578308247 0.0106763229
255298470.0 0.0605354236 0.0097516617 0.6930010972 -0.3736859718 0.6936468832 -0.3744121946 0.058079322 0.0100792948
260298440.0 0.0606644007 0.0081891631 0.6893127616 -0.381684572 0.6891541879 -0.3823043713 0.0577583889 0.0077800553
265298410.0 0.0602922036 0.0073611252 0.6842482523 -0.39081917 0.68474081 -0.3910809745 0.0588027539 0.0068546108
270298380.0 0.0600751413 0.0061742098 0.6804533802 -0.3983351115 0.6806355651 -0.3981850672 0.0581439815 0.0059463751
275298350.0 0.060282414 0.0058054944 0.6761713083 -0.4055623086 0.6760348105 -0.4058435923 0.0576688203 0.0047587801
280298320.0 0.0596465602 0.0045799087 0.6722068172 -0.4136605294 0.6723180528 -0.4142032154 0.0583713323 0.0039837346
285298290.0 0.0599677363 0.003734661 0.6673060138 -0.4219231613 0.6677326848 -0.4213544945 0.0581201825 0.0028567468
290298260.0 0.0601248604 0.0028190538 0.6638903906 -0.4298865688 0.663130157 -0.429561389 0.0580845364 0.0018591356
295298230.0 0.0598540706 0.0013466477 0.6583850316 -0.4377879643 0.6583927185 -0.437873837 0.0579769721 0.0003665934
300298200.0 0.0601132395 0.000759951 0.6538362553 -0.4453333525 0.6534460207 -0.4447024534 0.0577057449 -0.0005195586
305298170.0 0.0601580068 -0.0006180107 0.6492592548 -0.4536230486 0.6494573919 -0.4533336127 0.057900268 -0.002207471
310298140.0 0.060327919 -0.0016513191 0.6446962399 -0.4601139175 0.6441853558 -0.4600698013 0.0580838376 -0.0035401601
315298110.0 0.0598043816 -0.0029046374 0.6392860645 -0.4685324004 0.6393039492 -0.4685519414 0.0576858801 -0.0043084698
320298080.0 0.0596605226 -0.0038879356 0.6335901988 -0.4755298134 0.634332528 -0.4763427349 0.0570837704 -0.0058970016
325298050.0 0.058568903 -0.0051484265 0.6290400986 -0.4830328902 0.6290569879 -0.4831969901 0.0569917012 -0.0068271622
330298020.0 0.0576378406 -0.0056971252 0.6231651698 -0.4910315697 0.6235542211 -0.4909870283 0.056170791 -0.0080649683
335297990.0 0.0574212204 -0.0066244974 0.617555738 -0.497324394 0.6175622226 -0.4976156197 0.0557068204 -0.0087929264
340297960.0 0.0568231404 -0.0075523986 0.6110926268 -0.5048120626 0.6113172231 -0.5049963157 0.0550856647 -0.0091220237
345297930.0 0.0565227326 -0.0085191055 0.6057142405 -0.5121792113 0.605446104 -0.5118764292 0.0552987958 -0.0103343418
350297900.0 0.0558590753 -0.0089442336 0.6007185897 -0.5176283212 0.6005161924 -0.518223592 0.0549072267 -0.0114461036
355297870.0 0.0557878338 -0.009473286 0.594526134 -0.5242946151 0.5943541185 -0.5243502322 0.0544618081 -0.0121331034
360297840.0 0.0555232596 -0.0102275521 0.5881107216 -0.5321446073 0.5886645497 -0.5319434769 0.0536752623 -0.0122680045
365297810.0 0.0545351024 -0.0109873576 0.5828951111 -0.537593256 0.5824035899 -0.5382602641 0.0531919335 -0.0132281614
370297780.0 0.0547363701 -0.0114904657 0.5758434123 -0.5444850181 0.5765119353 -0.5444413199 0.0528611639 -0.0142120372
375297750.0 0.0543454783 -0.0121752668 0.5707318905 -0.5503685346 0.5708306629 -0.5510612998 0.0529452577 -0.0146378185
380297720.0 0.0534066802 -0.0126933175 0.564889772 -0.5580224951 0.5641065548 -0.5573751728 0.0521971657 -0.015168216
385297690.0 0.0531239499 -0.0137378374 0.5580876818 -0.5633949629 0.5584383316 -0.564148888 0.0520854429 -0.0153217415
390297660.0 0.0529824138 -0.0144825391 0.5521117753 -0.5689557382 0.5525256867 -0.5697829726 0.0519893087 -0.0164936662
395297630.0 0.0531877737 -0.0147056875 0.5461438044 -0.5749525459 0.5458322286 -0.5756882701 0.0513174111 -0.0171821499
400297600.0 0.0522569642 -0.0158226711 0.5396005865 -0.5822869498 0.5400837967 -0.5820798049 0.0514353464 -0.0172438888
405297570.0 0.0520571075 -0.0167660728 0.5331431393 -0.5877995304 0.5334473754 -0.5879660578 0.0509084106 -0.0177792325
410297540.0 0.0515854854 -0.0162720602 0.5267761511 -0.5938566848 0.526889303 -0.5939931858 0.0502805063 -0.0186026099
415297510.0 0.0509012145 -0.0173006617 0.519828914 -0.599685231 0.5205542241 -0.5996763321 0.0505810685 -0.0192373378
420297480.0 0.0504915542 -0.0186460873 0.5135125476 -0.6054468975 0.5138424667 -0.6056793636 0.0503283736 -0.0194210208
425297450.0 0.0508733867 -0.0189849808 0.507251779 -0.6106590765 0.50675669 -0.6110089798 0.0497062618 -0.0205416325
430297420.0 0.0501215853 -0.0192575475 0.5010306381 -0.6165288295 0.5008424937 -0.6162907921 0.049712664 -0.021106324
435297390.0 0.0497217621 -0.0202420636 0.4930291688 -0.6227762954 0.4932355305 -0.622526349 0.0485091687 -0.0213826488
440297360.0 0.049428552 -0.0210542833 0.4861777947 -0.6277571572 0.4862327234 -0.6275578221 0.0487960693 -0.0217964027
445297330.0 0.0494433156 -0.0219646106 0.479664269 -0.6326828195 0.4797914455 -0.6331473821 0.048227195 -0.0219846525
450297300.0 0.0489018504 -0.0221467931 0.4732321208 -0.6382224117 0.4733295286 -0.6379920426 0.0479761813 -0.0227506834
455297270.0 0.0479736162 -0.0229526671 0.4659674526 -0.6434191613 0.4659459551 -0.6434936008 0.0477679284 -0.0234883624
460297240.0 0.0482047172 -0.0233158941 0.4591062726 -0.6494412863 0.4588054726 -0.6490278271 0.047376803 -0.0239376394
465297210.0 0.0477204108 -0.0240681568 0.4512004504 -0.6538591375 0.4512854241 -0.6542212337 0.0475286651 -0.024049506
470297180.0 0.0474781505 -0.02518232 0.444204863 -0.6584441048 0.4448356553 -0.6584317004 0.0472526499 -0.0251261833
475297150.0 0.0463251589 -0.0250076921 0.436976296 -0.6639212548 0.4370481088 -0.6640404746 0.0467165465 -0.0255904518
480297120.0 0.0467793163 -0.0252076501 0.4295699528 -0.6685610443 0.4298973483 -0.6681547029 0.0459323019 -0.0261265805
485297090.0 0.0462958369 -0.0268403929 0.4220635194 -0.673796654 0.422476225 -0.6730333254 0.0457123454 -0.0264871405
490297060.0 0.0462033556 -0.0266362911 0.4142183692 -0.6780754023 0.4150219298 -0.6778589943 0.0454694621 -0.0270021944
495297030.0 0.0452421571 -0.0276716635 0.4077355808 -0.6824437578 0.4077681114 -0.6832137112 0.0451666819 -0.0277982955
500297000.0 0.0447762036 -0.0276682259 0.4002456752 -0.6861978191 0.4005261215 -0.6875826738 0.0448630534 -0.0276064777
505296970.0 0.0452307175 -0.0282013535 0.3928643646 -0.6914516293 0.3924646886 -0.6912731768 0.0443445868 -0.0291774503
510296940.0 0.0444092204 -0.0291204832 0.3850552723 -0.6963290536 0.3853013275 -0.6964248477 0.0441891635 -0.0288291338
515296910.0 0.0436545464 -0.0292073683 0.376917778 -0.7001848962 0.3767751694 -0.7000784311 0.0436477085 -0.0303594929
520296880.0 0.0437699942 -0.0296187795 0.3696078905 -0.7039907195 0.3692668993 -0.7038058652 0.0440373115 -0.029779503
525296850.0 0.0433282829 -0.0304561822 0.36176612 -0.7079930181 0.3616680653 -0.7077755833 0.0436575182 -0.030570085
530296820.0 0.0427246698 -0.0308400425 0.3535881251 -0.7118792444 0.354014897 -0.7115847943 0.0429971283 -0.0315885016
535296790.0 0.0429857535 -0.0312420074 0.3463755226 -0.7156903432 0.3466766001 -0.7157043419 0.0428789416 -0.0313878877
540296760.0 0.0421516748 -0.0315296419 0.3381419508 -0.7192852618 0.3385750983 -0.7196647444 0.0421203206 -0.032394558
545296730.0 0.0409404332 -0.0317313883 0.3302619151 -0.7228864401 0.3305739881 -0.722601467 0.0420434861 -0.0327365776
550296700.0 0.0416902601 -0.0322448122 0.3223400086 -0.7265458964 0.322287344 -0.727606 0.0416729917 -0.032984106
555296670.0 0.0406866713 -0.0329365809 0.3147924508 -0.7309744792 0.3145099285 -0.7301456658 0.0412722984 -0.0342700098
560296640.0 0.0410312854 -0.0331747745 0.3064822062 -0.7338165984 0.3067856942 -0.7334970897 0.0403647817 -0.0336686448
565296610.0 0.0397356099 -0.0336835459 0.2989499331 -0.7372175637 0.2987800589 -0.7365499643 0.0406576809 -0.0342186403
570296580.0 0.0393601636 -0.0337686549 0.290467242 -0.7400901814 0.2905214914 -0.7409129776 0.0397223487 -0.0350525314
575296550.0 0.0392478267 -0.0343755449 0.2824682181 -0.7439656055 0.2825217784 -0.7434934249 0.0392182118 -0.0350857185
580296520.0 0.0388709901 -0.0342329257 0.2744119858 -0.7462136954 0.2743225854 -0.7468617927 0.0384165248 -0.0357457901
585296490.0 0.0382721992 -0.0344235818 0.2665396556 -0.7489249082 0.2660617347 -0.7491357098 0.0385093996 -0.0356955474
590296460.0 0.038443221 -0.035122866 0.2580969961 -0.7523891645 0.2581599165 -0.7526964967 0.0376405272 -0.0362589507
595296430.0 0.0378649128 -0.0353063169 0.2490679488 -0.7546836444 0.2490407581 -0.7552475861 0.0375482213 -0.0367876133
600296400.0 0.0377741521 -0.0358333162 0.2409398006 -0.7574148373 0.2411874914 -0.7577813921 0.0371994177 -0.0374108555
605296370.0 0.0364032989 -0.0357608906 0.2333409456 -0.7602365661 0.232529399 -0.76028448 0.0361683695 -0.0375171736
610296340.0 0.0362570225 -0.0354221627 0.2246682057 -0.7626778645 0.2250488559 -0.7625174649 0.0355707742 -0.037682739
615296310.0 0.0361385193 -0.036315599 0.2166736881 -0.7656048229 0.216237595 -0.7654320955 0.0355932222 -0.0377800777
620296280.0 0.0351985919 -0.0361764651 0.2073553902 -0.7678093032 0.2077194856 -0.7673701168 0.0343501677 -0.0381426291
625296250.0 0.0347776638 -0.0368209811 0.1994708467 -0.7701362567 0.199560296 -0.7700049139 0.0336614523 -0.0386026778
630296220.0 0.0345063692 -0.0366833933 0.1906313973 -0.7725511963 0.1910489543 -0.7720579705 0.0336251624 -0.0391031237
635296190.0 0.0334471765 -0.0367301035 0.1831617339 -0.7739539834 0.1827852404 -0.7737868175 0.0332268442 -0.0393287611
640296160.0 0.0328721869 -0.0372204761 0.174012379 -0.7764512525 0.1737320473 -0.7759088501 0.0321384585 -0.0397160324
645296130.0 0.0329016937 -0.0366260665 0.1657170483 -0.7779681194 0.1658670994 -0.7776806647 0.031539838 -0.0404711049
650296100.0 0.0321712595 -0.037231524 0.1569718834 -0.7799298844 0.1571285736 -0.7802064551 0.0320998012 -0.0405584628
655296070.0 0.0318265492 -0.0376020363 0.1478965592 -0.7815297053 0.1486475344 -0.7808878755 0.0305534307 -0.0401932162
660296040.0 0.0312685736 -0.0373493046 0.1400946226 -0.7829642218 0.1400181315 -0.7831932094 0.0296796911 -0.0412274488
665296010.0 0.0307321935 -0.0377997114 0.130877228 -0.7838489953 0.1314103533 -0.7839331457 0.0295859469 -0.0410929185
670295980.0 0.0302394719 -0.0377736142 0.1231334592 -0.785528606 0.1229222129 -0.7848464771 0.028615568 -0.0416088103
675295950.0 0.0295245681 -0.0381708624 0.114325389 -0.7865763502 0.1144862654 -0.786981987 0.0279822563 -0.0414861763
680295920.0 0.0287339333 -0.0379028197 0.1056052776 -0.7879639832 0.1060830026 -0.7880817347 0.0279686944 -0.0421614154
685295890.0 0.0287609364 -0.0378598423 0.0968955865 -0.7894783711 0.0973263939 -0.7894997627 0.0272578467 -0.0418021709
690295860.0 0.0275635996 -0.037862381 0.0883486662 -0.7900615098 0.0881978967 -0.7905648369 0.0261433463 -0.0422161321
695295830.0 0.0274102183 -0.0384163018 0.080451728 -0.7913980721 0.0801925898 -0.7905961362 0.0258705201 -0.0420596645
700295800.0 0.0267542439 -0.0382344143 0.0717637115 -0.7921630488 0.071608703 -0.7919529906 0.0252111883 -0.0420597315
705295770.0 0.0257930481 -0.038031716 0.0625254656 -0.7929060772 0.0627681294 -0.7925605656 0.0244809215 -0.0421378966
710295740.0 0.0256307663 -0.0385437075 0.0544481349 -0.793465789 0.054255288 -0.7933450179 0.0241184079 -0.0423808856
715295710.0 0.0249838 -0.0381292497 0.0451115833 -0.7940440738 0.0457338974 -0.7942326353 0.0230878962 -0.0426557733
720295680.0 0.0247813907 -0.0382696409 0.0370842204 -0.7937565826 0.03734612 -0.7942695318 0.0228430988 -0.0429011046
725295650.0 0.0233187 -0.0383243613 0.028282474 -0.7948986409 0.028681506 -0.794462136 0.0216367833 -0.0428749982
730295620.0 0.0220863535 -0.0388139445 0.0195275974 -0.7944758696 0.0194504613 -0.7943706146 0.0210842201 -0.0421785557
735295590.0 0.02272847 -0.0384784635 0.0106102723 -0.795277865 0.0111193078 -0.7950679009 0.0201950021 -0.04313962
740295560.0 0.0219202218 -0.0388359268 0.0026674723 -0.7949119602 0.0028556685 -0.7952756226 0.0191352616 -0.0426369932
745295530.0 0.0211894105 -0.0384013378 -0.0060040967 -0.7941129256 -0.0053440906 -0.7950008362 0.0179534777 -0.0429789478
750295500.0 0.0202623948 -0.0382475706 -0.0145710418 -0.7951409215 -0.0149499269 -0.7949365543 0.017782274 -0.0425619373
755295470.0 0.0193104576 -0.038411383 -0.0230280036 -0.7951878152 -0.0230489687 -0.7953441589 0.0178900071 -0.0422903658
760295440.0 0.0189389903 -0.0375921072 -0.0334207008 -0.794066002 -0.0319686441 -0.793952206 0.0168602848 -0.0438856297
765295410.0 0.0188100671 -0.038363004 -0.0407168584 -0.7937869594 -0.0402752551 -0.7936319143 0.0164940237 -0.0430666871
770295380.0 0.0178610831 -0.0379685807 -0.049006194 -0.7934976168 -0.0492150507 -0.7933762009 0.015208321 -0.0429071895
775295350.0 0.0171718138 -0.0382872976 -0.0575316347 -0.7932236582 -0.0575740243 -0.7923706244 0.0150371599 -0.04250471
780295320.0 0.0164949857 -0.0378064549 -0.0664909814 -0.7910628206 -0.0655944795 -0.7916952537 0.0145372162 -0.0431326533
785295290.0 0.0159120271 -0.0383008594 -0.0751753678 -0.7913558033 -0.0751983563 -0.7914277893 0.0132975317 -0.0425367809
790295260.0 0.0153569622 -0.0385964555 -0.0833227958 -0.7903834836 -0.0831265247 -0.7907255925 0.0126537294 -0.0418566984
795295230.0 0.0148693958 -0.0382431067 -0.0923568021 -0.789447422 -0.0923055521 -0.7895976086 0.0120380243 -0.0429941935
800295200.0 0.0137189868 -0.0378159725 -0.1001015126 -0.7881831985 -0.1004462142 -0.78813498 0.0114190695 -0.0423221713
805295170.0 0.0129548917 -0.038082505 -0.1088499025 -0.7872685087 -0.1086486849 -0.7872247055 0.0115665237 -0.0420708064
810295140.0 0.0130450735 -0.0377622849 -0.1174857202 -0.7860974599 -0.1176651299 -0.7860421325 0.0106482415 -0.0422159152
815295110.0 0.0118623603 -0.0374920933 -0.1260505949 -0.7843144391 -0.1254487425 -0.7849653807 0.009639052 -0.0421644425
820295080.0 0.0114769411 -0.0376192902 -0.1335686188 -0.7827245281 -0.1342406772 -0.7833961205 0.0080342709 -0.0411753435
825295050.0 0.0105054172 -0.0378208734 -0.1431668793 -0.7818578718 -0.1429593771 -0.7810608784 0.0088456376 -0.0409548475
830295020.0 0.0097762708 -0.0376072559 -0.1513584894 -0.780057166 -0.1516552041 -0.7800724043 0.0077829854 -0.0417769906
