!Created with skrf (http://scikit-rf.org).
# Hz S RI R 50.0 
!freq ReS11 ImS11 ReS21 ImS21 ReS12 ImS12 ReS22 ImS22
300000.0 -0.0960302269 -0.0984413363 0.6231077716 0.0911025193 0.6213960616 0.0911892031 -0.0956401884 -0.1033622389
5299970.0 -0.1015982846 0.0115285414 0.6305862764 0.0106518726 0.630981964 0.0115353267 -0.1017453489 0.0113209965
10299940.0 -0.0969469493 0.0288015769 0.6348859889 0.0160139466 0.6343219037 0.016388132 -0.0965194377 0.0286015208
15299910.0 -0.0890936891 0.0422207692 0.6403530727 0.0212503495 0.6407565445 0.0212494324 -0.0899192784 0.0417901727
20299880.0 -0.080426312 0.0534450614 0.648898998 0.0240393777 0.6489931955 0.0243564497 -0.0809883146 0.0529545466
25299850.0 -0.0704567316 0.0624812852 0.6583233244 0.0259264095 0.6585093011 0.0258876667 -0.0717893042 0.0622653311
30299820.0 -0.0610097571 0.0689623614 0.6680212422 0.0244666596 0.6680295814 0.0242964061 -0.0621272837 0.0684637671
35299790.0 -0.0506090213 0.0734253977 0.6772600429 0.0218986393 0.6772301321 0.0219550628 -0.0523486605 0.073682438
40299760.0 -0.0413411521 0.0766284349 0.6872162602 0.0173833286 0.6871821042 0.0177393063 -0.0426417721 0.0769565997
45299730.0 -0.0320065545 0.0782522387 0.6956903491 0.0124922828 0.6960258409 0.0118578261 -0.033127228 0.0787098293
50299700.0 -0.0231135971 0.0789222224 0.7040638693 0.0055413101 0.7039974654 0.0051608156 -0.0246363181 0.0803896782
55299670.0 -0.0152444497 0.0789739055 0.7112254182 -0.0025834089 0.7109403412 -0.00253056 -0.0175192082 0.0806106144
60299640.0 -0.0077290267 0.0787208634 0.718242525 -0.0108816567 0.7181598066 -0.0109860937 -0.0096578306 0.079579779
65299610.0 -0.0012488368 0.0771091608 0.724103496 -0.0192951152 0.7243763793 -0.0202010936 -0.0025692716 0.0785577358
70299580.0 0.005070816 0.0753203695 0.729351729 -0.0286387063 0.7292229742 -0.0291302887 0.002728131 0.0769642926
75299550.0 0.0105621926 0.0732780542 0.7334226751 -0.0394478671 0.7332911534 -0.0389698068 0.0086296818 0.0754510565
80299520.0 0.0155276609 0.0713560454 0.7375516814 -0.0486078315 0.7377887681 -0.0486791761 0.0136183296 0.0731080755
85299490.0 0.0199172218 0.0692878361 0.7414233724 -0.0585350526 0.741362615 -0.0582053653 0.0179888649 0.0710011006
90299460.0 0.0239019004 0.0665330853 0.7434173 -0.0685033502 0.7437082727 -0.0684571445 0.0226411663 0.0691617095
95299430.0 0.0279815816 0.0640854623 0.7461404834 -0.0790641116 0.7464565804 -0.078833406 0.0255201147 0.0665335623
100299400.0 0.0313821289 0.0615257395 0.747969567 -0.0884895511 0.7477942478 -0.0890755143 0.0290202562 0.0645295481
105299370.0 0.0341355972 0.0590630494 0.7491499462 -0.0984819489 0.7495979335 -0.0992363942 0.0326625587 0.0614400809
110299340.0 0.0371973843 0.0564595139 0.7505222944 -0.1085012923 0.7509261216 -0.1083584189 0.0349741013 0.0593356031
115299310.0 0.0393833736 0.0542470135 0.7517690702 -0.1184774776 0.7514152821 -0.1187370846 0.0374838002 0.0575505725
120299280.0 0.0415264913 0.0519951565 0.7518931327 -0.1294158505 0.7515910001 -0.1290892392 0.0394415818 0.0542433407
125299250.0 0.0438035111 0.0497327032 0.7522049834 -0.1386458421 0.752093085 -0.1385236665 0.0418007348 0.0528149203
130299220.0 0.0456177464 0.0470135391 0.7521996319 -0.1491530813 0.7518994346 -0.1494129915 0.0434987854 0.0507187335
135299190.0 0.0468746508 0.0453778924 0.7522554372 -0.1586247619 0.7520287681 -0.1587378421 0.0451864345 0.0475842932
140299160.0 0.0488217518 0.043250758 0.7519558251 -0.1687471301 0.7511109409 -0.1682847314 0.0459917673 0.0454899346
145299130.0 0.0494315278 0.0412293397 0.7501306902 -0.177859144 0.7505388935 -0.1782266077 0.0477929381 0.0434506632
150299100.0 0.0509305462 0.03931842 0.7492886828 -0.1882755279 0.7493666459 -0.1879887483 0.0493795146 0.0420144265
155299070.0 0.052485901 0.0369825088 0.7478584419 -0.197212314 0.7482541722 -0.1980795871 0.0504499093 0.0394558578
160299040.0 0.053272361 0.0356571286 0.7469052299 -0.2073141047 0.7466081987 -0.2071640939 0.05075861 0.0382158225
165299010.0 0.0544585564 0.0334377941 0.7453595929 -0.2162293087 0.7449902872 -0.2163862582 0.0521396551 0.0360280571
170298980.0 0.0551347207 0.0320195555 0.7432143958 -0.2259753325 0.7433006183 -0.2257734808 0.0524285793 0.0340801155
175298950.0 0.0559130407 0.0301807771 0.7417475448 -0.2349733571 0.7416741623 -0.2358949297 0.0534933158 0.032564024
180298920.0 0.0563701279 0.0285592545 0.7395144858 -0.2451448571 0.7391983117 -0.2448947401 0.0537705425 0.0306658513
185298890.0 0.0568695438 0.027042089 0.737399842 -0.2535271513 0.7369715316 -0.253213951 0.0548629006 0.0289921495
190298860.0 0.0576819248 0.0257063316 0.7349364601 -0.2626944013 0.7349052728 -0.2624152862 0.0550976522 0.0272455371
195298830.0 0.0577989383 0.024187357 0.7326169002 -0.27179594 0.732528183 -0.2711567746 0.0553296568 0.0257274357
200298800.0 0.058522559 0.0225374896 0.7297034661 -0.2813597279 0.7296294117 -0.2808426315 0.0559216573 0.0238641446
205298770.0 0.0582944553 0.0209355891 0.7268686993 -0.2892361698 0.7272977007 -0.2894865771 0.0567964084 0.022562674
210298740.0 0.0590053039 0.0200075767 0.7242478134 -0.2984809143 0.7235279815 -0.2981829042 0.0566846723 0.0206701543
215298710.0 0.0593863164 0.0187409994 0.7210918064 -0.3067562399 0.7209411802 -0.3071269993 0.0570431731 0.0198616612
220298680.0 0.0596488932 0.0174353888 0.7172260053 -0.3154930143 0.7175594057 -0.3155289327 0.0570373032 0.018285843
225298650.0 0.0597677593 0.0162202008 0.714181898 -0.3239506412 0.7143750639 -0.324034485 0.0572779889 0.0164542784
230298620.0 0.0602202251 0.0150951481 0.711555608 -0.33268192 0.7114238516 -0.3329332074 0.0571270533 0.0151394731
235298590.0 0.060008749 0.0139448615 0.7085795663 -0.342470749 0.7079991242 -0.3415003868 0.0577330153 0.014186697
240298560.0 0.060495348 0.0128206339 0.7040733355 -0.3494918986 0.704154974 -0.3495300104 0.0577055818 0.0127847243
245298530.0 0.0604043923 0.0113742993 0.7004944732 -0.358192219 0.7003909936 -0.3578470259 0.057860935 0.0116098534
250298500.0 0.0604518469 0.0102552785 0.69717104 -0.3662112999 0.6966177561 -0.3664929324 0.0578513427 0.0105593318
255298470.0 0.0605510826 0.0097258003 0.6932126742 -0.3744149748 0.6933322883 -0.3741413373 0.0577630948 0.0098160192
260298440.0 0.0605539814 0.0082172226 0.6891048228 -0.3818935127 0.6887454931 -0.3819970806 0.0577782426 0.0077035199
265298410.0 0.0600544886 0.0076547165 0.6848040846 -0.3910121213 0.6845859966 -0.3910156152 0.0587992905 0.00674655
270298380.0 0.0600430581 0.0062550675 0.6804774275 -0.3980405067 0.6808638904 -0.3979050819 0.0580751089 0.006148492
275298350.0 0.0602625754 0.0057423016 0.6756916335 -0.4067009509 0.675684494 -0.4058289641 0.0577322876 0.0047354847
280298320.0 0.0597680958 0.0044604375 0.6719219367 -0.4140969064 0.6722322878 -0.4139011388 0.0584271312 0.0036694894
285298290.0 0.059838611 0.0037087717 0.6672940699 -0.4216832176 0.6682100676 -0.4216067934 0.0577997566 0.0026468479
290298260.0 0.059862573 0.0028339296 0.6634190372 -0.4297243869 0.663637098 -0.4300716263 0.0581471112 0.0014193679
295298230.0 0.0599487444 0.0013345742 0.6585276801 -0.437769733 0.6586094224 -0.4376534371 0.0578139754 0.0003561517
300298200.0 0.0600415494 0.0009613207 0.6540305373 -0.445508827 0.6537411153 -0.4448941646 0.0574922096 -0.000817317
305298170.0 0.0599310614 -0.0005890567 0.6494831365 -0.4531723136 0.6490493491 -0.4531898902 0.0577143958 -0.0025639313
310298140.0 0.0602845601 -0.0015329133 0.6448763394 -0.4604595918 0.6442189914 -0.4602175782 0.0579907488 -0.0037585438
315298110.0 0.0598084566 -0.003111329 0.6396739705 -0.4688142815 0.6388493842 -0.4688156829 0.0576151436 -0.0046402527
320298080.0 0.0594941884 -0.0036924138 0.6333995145 -0.4760488776 0.6342594029 -0.4762361864 0.0572643559 -0.0057081265
325298050.0 0.0585169001 -0.0052564433 0.6282715215 -0.4828085745 0.6290683818 -0.483290482 0.0570549107 -0.006956013
330298020.0 0.0573290401 -0.0055814308 0.6229008 -0.4905475063 0.6236735105 -0.4909984873 0.0559545487 -0.0081114902
335297990.0 0.0575558633 -0.0064645592 0.6175406182 -0.4976086124 0.6174134047 -0.4978294976 0.0556739088 -0.00873135
340297960.0 0.056801804 -0.0078084769 0.6108840312 -0.5051655006 0.6112932436 -0.5043368325 0.0548652043 -0.0092550677
345297930.0 0.0563705581 -0.0085818398 0.6058690667 -0.5123025042 0.6051398439 -0.5121127239 0.0549897097 -0.0105687462
350297900.0 0.0555843417 -0.0091120386 0.6005496232 -0.5177880425 0.6003654096 -0.5183173041 0.0547958897 -0.0114009748
355297870.0 0.0554750486 -0.0099016069 0.5942428071 -0.5245552002 0.594110707 -0.5245162931 0.0543776188 -0.0121949347
360297840.0 0.0553086395 -0.0102455724 0.5879145995 -0.5317117869 0.5883270921 -0.5317267238 0.0535705287 -0.012423371
365297810.0 0.0545876132 -0.0108723135 0.5822812447 -0.5380108672 0.5822984336 -0.538258875 0.0529394855 -0.0132773938
370297780.0 0.0546422031 -0.0113171482 0.5759412576 -0.5443533886 0.576318514 -0.5444740431 0.0529924206 -0.0142110199
375297750.0 0.0541078045 -0.0120632317 0.5705525683 -0.5508653142 0.5706125217 -0.5509466869 0.052939702 -0.0149970068
380297720.0 0.0532077693 -0.0126615806 0.5646723297 -0.5577224221 0.5636234188 -0.5576819764 0.0524160732 -0.0151144744
385297690.0 0.0530587444 -0.0135186762 0.5579456067 -0.5634958855 0.5585211355 -0.5642362174 0.0520219257 -0.0155715857
390297660.0 0.052723544 -0.014473173 0.5522499781 -0.5696655752 0.552174866 -0.5698838119 0.0521194482 -0.0168308404
395297630.0 0.0526743846 -0.0149815269 0.5463998651 -0.5752383654 0.5455976765 -0.5753534788 0.0512774169 -0.0172851329
400297600.0 0.0519363534 -0.015554627 0.5398352774 -0.5819044707 0.5396502474 -0.5821565831 0.0514910946 -0.0176124702
405297570.0 0.0516562252 -0.0169578965 0.533218239 -0.5873976648 0.5331585753 -0.5880257612 0.0508739511 -0.0181286758
410297540.0 0.0513108439 -0.016801717 0.5264829669 -0.5937282578 0.5266370191 -0.5940676071 0.0505049106 -0.0189241622
415297510.0 0.0507614957 -0.0173709451 0.519678218 -0.599808897 0.5206260157 -0.5995936884 0.0503553307 -0.0191892933
420297480.0 0.0504731936 -0.0185314277 0.5133693878 -0.6055034798 0.5137635666 -0.6052720826 0.0503093924 -0.0198605518
425297450.0 0.0507778433 -0.0189711479 0.5071051383 -0.6108425512 0.506440647 -0.6111274624 0.0497368321 -0.0209708313
430297420.0 0.0498044575 -0.0195161659 0.5010527426 -0.6170844993 0.5003169451 -0.6161514007 0.0497744773 -0.0211251285
435297390.0 0.0497325226 -0.0202422789 0.49358147 -0.623247735 0.4933578366 -0.6222012219 0.0486765572 -0.0216544405
440297360.0 0.0495836278 -0.021101852 0.4861505945 -0.6278985767 0.4860855322 -0.6279856069 0.0484446118 -0.0220502579
445297330.0 0.0493008103 -0.0221751505 0.4799842098 -0.6325521227 0.479306146 -0.6332468281 0.0483591654 -0.0225492288
450297300.0 0.0487726839 -0.0222116784 0.4724423836 -0.6383363045 0.472520385 -0.6377111247 0.0480980478 -0.0230185877
455297270.0 0.0479765662 -0.0230483241 0.4659875443 -0.6435368988 0.4658111915 -0.6437499172 0.0475820069 -0.0236580339
460297240.0 0.0480359184 -0.0233299928 0.4585213783 -0.6494697912 0.4587056267 -0.6490679583 0.0472213607 -0.0243181691
465297210.0 0.0475210957 -0.0239119737 0.4508642883 -0.6536163969 0.4509828498 -0.6543517368 0.0473251815 -0.0239303457
470297180.0 0.0472648448 -0.0249963199 0.4438521739 -0.6587603934 0.4447344835 -0.6589928319 0.04684764 -0.0252454123
475297150.0 0.0465014442 -0.024954127 0.4371273895 -0.6633472346 0.4376358861 -0.6639655044 0.0464924226 -0.0258541521
480297120.0 0.0466796921 -0.0251518408 0.4295120461 -0.6682600542 0.4295541243 -0.6684258929 0.0458098331 -0.0261349293
485297090.0 0.0461780613 -0.0268010739 0.4222920528 -0.6734826254 0.4221939859 -0.6730345513 0.0455854127 -0.0266182535
490297060.0 0.0462897178 -0.0264287213 0.4141091412 -0.6784664343 0.4145278026 -0.6776738363 0.04494832 -0.0273271918
495297030.0 0.0453117701 -0.0276221924 0.4071969168 -0.681994884 0.4075714086 -0.6829483754 0.0453094582 -0.0278542397
500297000.0 0.0446879657 -0.0276454115 0.399961803 -0.6862062463 0.3997319367 -0.6870151371 0.0448916102 -0.0279230485
505296970.0 0.0448272394 -0.0283464903 0.3924269247 -0.691555608 0.3925693902 -0.6909931715 0.0443441135 -0.0295727349
510296940.0 0.0441293589 -0.0289962607 0.3850043751 -0.6963958405 0.3846459169 -0.6965151034 0.0442791305 -0.0289088583
515296910.0 0.0435966352 -0.0291088785 0.3768088896 -0.6993590762 0.3763878993 -0.7000177725 0.043545673 -0.0302766036
520296880.0 0.0433976431 -0.0296498201 0.3694883325 -0.7037749191 0.368940782 -0.7038286169 0.0438445775 -0.0299024904
525296850.0 0.043393536 -0.0303381883 0.3614400692 -0.7077495568 0.3617146487 -0.7079695148 0.0434362869 -0.030596756
530296820.0 0.0426862282 -0.0312921485 0.3536293053 -0.7126837463 0.3538487293 -0.7119022754 0.0429928375 -0.0317467525
535296790.0 0.0428748036 -0.0309749921 0.3464842376 -0.7152640753 0.3464724818 -0.7158341185 0.0430680724 -0.0314022546
540296760.0 0.0420304062 -0.0313455586 0.337871716 -0.7196718579 0.3381278439 -0.7196395126 0.0422423032 -0.0326886662
545296730.0 0.0407276789 -0.0318370197 0.3299819312 -0.7228934997 0.3296656245 -0.7230093475 0.0418627737 -0.0330670215
550296700.0 0.0416242574 -0.0321720188 0.3219867513 -0.7267809573 0.3220116376 -0.7267187244 0.0415935467 -0.0333301066
555296670.0 0.0406396595 -0.0327559158 0.3140231904 -0.7306957618 0.3145936045 -0.730287036 0.0409427812 -0.0342895995
560296640.0 0.0411488292 -0.0331592716 0.3059187586 -0.7335213743 0.3065273835 -0.733645465 0.0404887909 -0.0340753596
565296610.0 0.0395887398 -0.0333344786 0.2985431349 -0.7371324197 0.2986142967 -0.7365395718 0.0402579648 -0.0340993978
570296580.0 0.039243667 -0.033587181 0.2903643875 -0.740367868 0.290537898 -0.740282021 0.0394641173 -0.0352312812
575296550.0 0.0390359102 -0.0341495852 0.2822394898 -0.7434057817 0.2824491083 -0.7434294524 0.0392168211 -0.0354508638
580296520.0 0.0389071143 -0.0342402116 0.2739381905 -0.7465780791 0.2738030458 -0.7467761928 0.0382243125 -0.0357468596
585296490.0 0.0379963411 -0.0343065849 0.2664830115 -0.7493284959 0.2654402361 -0.74922114 0.0385531193 -0.0358638518
590296460.0 0.0383038074 -0.034951115 0.2576651657 -0.7524833551 0.2578539447 -0.7524991362 0.0373935542 -0.03625372
595296430.0 0.0378803701 -0.0352217364 0.2484101428 -0.7549417362 0.2487853921 -0.754696157 0.0371844935 -0.0373068939
600296400.0 0.0375071643 -0.0352898332 0.2407690402 -0.757572396 0.2408147999 -0.7583102255 0.0370449738 -0.0372178637
605296370.0 0.0361698991 -0.0360402569 0.2330850311 -0.7600101048 0.2325950855 -0.7608109677 0.0360857519 -0.0375946379
610296340.0 0.0362464498 -0.035617684 0.2240694269 -0.7619702659 0.2248150755 -0.7628008889 0.0353933802 -0.0378268748
615296310.0 0.0361591231 -0.0362393445 0.2158312465 -0.7658728977 0.2160439316 -0.765330368 0.0353003064 -0.0381970297
620296280.0 0.0349662313 -0.0358905309 0.2077265278 -0.7674615034 0.207309503 -0.7675774989 0.0346110356 -0.0380770828
625296250.0 0.034731752 -0.0363562944 0.1992083343 -0.7703558284 0.1991829729 -0.7703237737 0.0335395734 -0.0389738718
630296220.0 0.0343082908 -0.036440693 0.1903373118 -0.7716521986 0.1907231242 -0.7716629251 0.033846597 -0.0391156451
635296190.0 0.0333172216 -0.0367534351 0.1824393642 -0.7738805036 0.1828075266 -0.7737079281 0.0329962047 -0.0395154478
640296160.0 0.0327724569 -0.0369992383 0.1734305199 -0.776227519 0.1738073909 -0.7765704119 0.0316988051 -0.039954301
645296130.0 0.0328495163 -0.0368490935 0.165348295 -0.7775741498 0.1654120854 -0.7774629899 0.0316314782 -0.0407429349
650296100.0 0.0320345285 -0.0373100935 0.1568875014 -0.7798075726 0.1566386724 -0.780090053 0.0322314829 -0.0408588819
655296070.0 0.031457355 -0.03731482 0.1475801457 -0.7814464473 0.1480498272 -0.7810533699 0.0303569265 -0.0405609798
660296040.0 0.0310017571 -0.037320475 0.1396510358 -0.7831160273 0.1400640424 -0.783000115 0.0300103325 -0.0415268934
665296010.0 0.0307270537 -0.0376228629 0.1305505267 -0.7843177929 0.1310690961 -0.7841144429 0.0297258801 -0.0413556537
670295980.0 0.0302910338 -0.0376637228 0.1221599011 -0.7862351362 0.1225906679 -0.7850590856 0.0285528048 -0.0418183306
675295950.0 0.029397037 -0.0378988155 0.1142951068 -0.7870662607 0.114067769 -0.7867031241 0.0278971033 -0.0415836192
680295920.0 0.0289027543 -0.0378618997 0.1054365814 -0.7879187157 0.1057170925 -0.7876663796 0.0278838477 -0.0425268978
685295890.0 0.0284895974 -0.0376559406 0.0964901289 -0.7890837342 0.0974447098 -0.7894471124 0.0274336878 -0.0418136538
690295860.0 0.0273253921 -0.0378487113 0.0882382481 -0.7899490179 0.0881300724 -0.7902553857 0.0262804241 -0.0425132759
695295830.0 0.0273254552 -0.0381524349 0.0798866713 -0.791141382 0.0795009125 -0.7910062187 0.025792857 -0.0424723036
700295800.0 0.0266028843 -0.0379991649 0.0712608382 -0.7918447859 0.0714146268 -0.7919752256 0.025025133 -0.0426291215
705295770.0 0.0257597497 -0.0381122759 0.0625162729 -0.7927868781 0.0626104497 -0.7923787665 0.0245209703 -0.042535185
710295740.0 0.0256740975 -0.0384644451 0.054298604 -0.7931100537 0.0540269873 -0.7929739926 0.0240438108 -0.0425050953
715295710.0 0.0246016825 -0.0379248009 0.0448569208 -0.7936658655 0.045379363 -0.7937922086 0.0231630694 -0.0429782951
720295680.0 0.0248476979 -0.0381858322 0.0368183011 -0.7938757116 0.0365582321 -0.7944130712 0.022397226 -0.0430021224
725295650.0 0.0231536196 -0.0378960469 0.028268451 -0.7948532639 0.028040868 -0.7947800584 0.021469607 -0.0427024949
730295620.0 0.0224459952 -0.0384600613 0.0191949199 -0.7944021261 0.0194833905 -0.7936426267 0.0208698538 -0.0425412641
735295590.0 0.0223873117 -0.0383722279 0.010890982 -0.7951440458 0.0107649894 -0.7951197901 0.0202291721 -0.0432148369
740295560.0 0.0215978999 -0.0384735068 0.0020964931 -0.7951757363 0.0022724143 -0.7949647399 0.0192852144 -0.0426558652
745295530.0 0.0208667076 -0.0382880965 -0.0063219587 -0.7940187413 -0.0053139662 -0.7943155483 0.0181308337 -0.0432174028
750295500.0 0.0200326622 -0.0380282171 -0.0146571853 -0.7945613427 -0.0153017138 -0.7945252022 0.0177377377 -0.0430165249
755295470.0 0.0192455603 -0.0382104604 -0.0235260471 -0.7948321537 -0.023432184 -0.7948648989 0.0174276552 -0.0424117952
760295440.0 0.0188717711 -0.0378027477 -0.0332048757 -0.7937457663 -0.0321728382 -0.7938573625 0.0171227019 -0.0441831128
765295410.0 0.0187952128 -0.0383786903 -0.0413194652 -0.7932799663 -0.0402406265 -0.7939196266 0.0161048166 -0.0432895857
770295380.0 0.0179700819 -0.0377141164 -0.0491244787 -0.7927545383 -0.0492445596 -0.7935846696 0.0151033116 -0.0429901477
775295350.0 0.0172173247 -0.0383982357 -0.0579644962 -0.7928098818 -0.0578166645 -0.7919326921 0.0153955771 -0.043170956
780295320.0 0.016565003 -0.0377425341 -0.0665366017 -0.7916229592 -0.0662212133 -0.7916382258 0.0146543449 -0.0432909154
785295290.0 0.0156528914 -0.0382853197 -0.07492738 -0.7912802575 -0.0753932328 -0.791021506 0.0126909929 -0.0424032175
790295260.0 0.0152312735 -0.0383205584 -0.0832726748 -0.7902544668 -0.0836526815 -0.7903065512 0.0125283294 -0.0419903901
795295230.0 0.0146060363 -0.0382808694 -0.0923246113 -0.7897470642 -0.0925523976 -0.7895405419 0.0122752737 -0.0435419547
800295200.0 0.0134139537 -0.03756206 -0.100104074 -0.7878768667 -0.1008564409 -0.7881235173 0.0111838134 -0.0425367492
805295170.0 0.0129722692 -0.0378993911 -0.1093610613 -0.7870618759 -0.108845539 -0.7873956268 0.0113047646 -0.0423515685
810295140.0 0.0128206801 -0.0375077302 -0.1177277146 -0.7857591218 -0.117804978 -0.7858089296 0.0101853325 -0.0425074822
815295110.0 0.0119151469 -0.0374500365 -0.1260350201 -0.7841984859 -0.1257565499 -0.7843488989 0.0094297797 -0.0421771718
820295080.0 0.0115206195 -0.0376984091 -0.1341259011 -0.7825666783 -0.1342193789 -0.7828446984 0.0081848112 -0.0414276576
825295050.0 0.010477888 -0.037339766 -0.1429499367 -0.7817914398 -0.1429139185 -0.7810732606 0.0087900408 -0.0413120755
830295020.0 0.0098111255 -0.0374120897 -0.1516625153 -0.7798026914 -0.1513559536 -0.7798527721 0.0077003908 -0.042122995
