!Created with skrf (http://scikit-rf.org).
# Hz S RI R 50.0 
!freq ReS11 ImS11 ReS21 ImS21 ReS12 ImS12 ReS22 ImS22
300000.0 -0.1020325648 -0.0693805218 0.6323788084 0.0649154937 0.6252370014 0.0641994576 -0.1020154628 -0.0766670726
5299970.0 -0.102054299 0.013294531 0.6310428493 0.00970511 0.6302426435 0.0102535359 -0.1008290465 0.0130898743
10299940.0 -0.0968737945 0.0292814114 0.6339921351 0.015019269 0.6339691846 0.015437936 -0.0956989653 0.030359934
15299910.0 -0.0897605648 0.0425817871 0.6405294367 0.0201509375 0.6404946478 0.0206320255 -0.0886285277 0.0437430235
20299880.0 -0.0815437661 0.0531397916 0.6486231309 0.0241984803 0.6485910746 0.0239410159 -0.0798305473 0.0545242733
25299850.0 -0.0723516429 0.0621883249 0.6572924354 0.0253391751 0.6577849599 0.0253976932 -0.0697585806 0.0634279815
30299820.0 -0.0620586202 0.0689854259 0.6676821868 0.0244133485 0.6672461685 0.0245230195 -0.0597119414 0.0701966987
35299790.0 -0.0525991491 0.0735958865 0.6772871094 0.021383609 0.6773934405 0.0213712454 -0.0499233138 0.074822176
40299760.0 -0.043381427 0.0772342887 0.6865821844 0.0174292408 0.6869198559 0.0176971685 -0.0404972833 0.0777549273
45299730.0 -0.0337873297 0.0793524693 0.6950161493 0.0117338268 0.6954960455 0.0118867359 -0.0311949291 0.0796065336
50299700.0 -0.0257253204 0.0800398753 0.7034071277 0.0051273882 0.703710155 0.0053507928 -0.0227958717 0.0803689128
55299670.0 -0.0177767887 0.0804913901 0.7111448647 -0.0032528786 0.7108111235 -0.0024097428 -0.0147080814 0.0805340855
60299640.0 -0.0101301611 0.0799920373 0.7169522107 -0.0113049251 0.7178887521 -0.0109657899 -0.0077975025 0.079533679
65299610.0 -0.003722045 0.0787905938 0.723119212 -0.0203914058 0.7232988244 -0.0198456938 -0.0012797878 0.0787133865
70299580.0 0.0027865668 0.0777494855 0.7288178704 -0.0292025215 0.7282479751 -0.0291873251 0.0046692265 0.0766699047
75299550.0 0.0082067856 0.0758627643 0.7325726594 -0.0391559797 0.7327022778 -0.0391409389 0.0100674586 0.0747806011
80299520.0 0.0130716079 0.0735026408 0.7371147555 -0.0492943223 0.7374627725 -0.0489416282 0.0149084539 0.0726307555
85299490.0 0.0175929731 0.07119291 0.7406155891 -0.0584165067 0.7405107229 -0.0586195721 0.0193607969 0.0698212908
90299460.0 0.0216324803 0.06900374 0.7429602321 -0.0687340615 0.7432407662 -0.0689433412 0.0235830478 0.0679428072
95299430.0 0.0258601591 0.0664678838 0.7456992319 -0.0789894801 0.7454492713 -0.0788729282 0.0276202884 0.0655002236
100299400.0 0.029116566 0.0645783015 0.7466129455 -0.0890558218 0.7469628683 -0.0889697892 0.0310701386 0.0624885086
105299370.0 0.0322697306 0.0618888095 0.7487700258 -0.0990775197 0.7492306346 -0.0991196822 0.0342701164 0.0607489923
110299340.0 0.0349256577 0.0597214004 0.7494883622 -0.109160715 0.7499072098 -0.1093271415 0.0360468607 0.0579753919
115299310.0 0.0373980034 0.0572820489 0.7505217985 -0.1190843857 0.7504509099 -0.1193872636 0.0389516067 0.0554733645
120299280.0 0.0398831155 0.0548263832 0.750732639 -0.128918638 0.7515397641 -0.129656107 0.0413043205 0.0530441742
125299250.0 0.0417979144 0.0522537963 0.751684775 -0.139054792 0.7515171996 -0.1387240083 0.0428912199 0.0504678122
130299220.0 0.0436254691 0.0501594498 0.7510301572 -0.1491789401 0.7514108646 -0.1492836678 0.0449608886 0.0482339669
135299190.0 0.0453171208 0.0481460863 0.7513412749 -0.1592975479 0.7512573568 -0.1587817415 0.0468212594 0.0461436483
140299160.0 0.0466715736 0.046187166 0.7510400832 -0.1687289992 0.7505971198 -0.1687831898 0.0479870521 0.0445968021
145299130.0 0.0482343786 0.0440903021 0.7502131335 -0.1783990875 0.7497342808 -0.1785965481 0.0493229869 0.0419236937
150299100.0 0.0495740349 0.0421484832 0.7487347259 -0.1873165369 0.7487694197 -0.1878498563 0.0508188646 0.040048671
155299070.0 0.0501792166 0.03965871 0.7479842844 -0.1981429134 0.7476620172 -0.1978519211 0.05157555 0.0383265619
160299040.0 0.0519862188 0.0381210627 0.7466823206 -0.2073809768 0.7456039776 -0.2077195059 0.0523750481 0.0360683939
165299010.0 0.0525309353 0.0361796821 0.7445483336 -0.2170664297 0.7448318525 -0.2171587986 0.053669876 0.0345658223
170298980.0 0.0532505853 0.0340807282 0.7427690485 -0.2263772573 0.742799083 -0.2261592859 0.0543490498 0.0329809555
175298950.0 0.0537825716 0.0322426924 0.7412866353 -0.2351522414 0.740891998 -0.2354047565 0.0546892143 0.0314846881
180298920.0 0.0542504096 0.0306066125 0.7390483974 -0.244714082 0.7389762142 -0.2445530495 0.0554221533 0.0295681839
185298890.0 0.0556183726 0.0286377184 0.7365626271 -0.2536770931 0.7365673621 -0.2534765057 0.055731453 0.0284776518
190298860.0 0.0555195544 0.0272814902 0.7343630969 -0.2633514641 0.7346357931 -0.2632850416 0.0562265787 0.0262373325
195298830.0 0.0561878738 0.0250552813 0.7319580072 -0.2719401839 0.7317455615 -0.2714634887 0.0572607165 0.0249285854
200298800.0 0.0565473361 0.0239297942 0.7291766881 -0.2815781352 0.729124296 -0.2813075942 0.0567874069 0.023886018
205298770.0 0.0568461354 0.0228652475 0.7256525825 -0.2899805974 0.7259898186 -0.2897124724 0.0571996202 0.0213062499
210298740.0 0.0572364675 0.0208891614 0.7230748963 -0.2982351978 0.7228069764 -0.2979238165 0.0579515803 0.0210842679
215298710.0 0.0567199219 0.0195772449 0.7198477815 -0.3077240711 0.7200641503 -0.3073070438 0.0575913879 0.0197544718
220298680.0 0.0575598009 0.0176071765 0.7164331945 -0.3156897619 0.7168194031 -0.3157659936 0.0576153223 0.0180606291
225298650.0 0.0579922007 0.0166294515 0.713797802 -0.3251429098 0.7139110327 -0.3245003022 0.0576200512 0.0163014432
230298620.0 0.0580223885 0.0157410249 0.7105803047 -0.3330619118 0.7108397686 -0.3331594455 0.0577091618 0.0150862504
235298590.0 0.0578941219 0.0145033149 0.70683773 -0.3413906736 0.7070932219 -0.3410993108 0.0577514312 0.0138707661
240298560.0 0.057930081 0.0134505626 0.7033216109 -0.3500057956 0.7028259776 -0.3500094797 0.0577463958 0.013195211
245298530.0 0.0580078999 0.0120341916 0.7002609834 -0.3582594985 0.7000489756 -0.3586508762 0.0583869763 0.0110749152
250298500.0 0.0586355011 0.0110243981 0.6949996413 -0.3664801257 0.6949659711 -0.3660575123 0.0579232047 0.0103605769
255298470.0 0.0583712479 0.0092683264 0.6911295526 -0.3744107742 0.6918217186 -0.3745488305 0.0579499884 0.0091241109
260298440.0 0.0578576048 0.0081179453 0.687046195 -0.3832533594 0.6876828542 -0.3821435884 0.0587080132 0.0079542733
265298410.0 0.0587571953 0.0075569789 0.6832746972 -0.390748653 0.6836025512 -0.3905384906 0.0583431531 0.0067939034
270298380.0 0.0583511551 0.0060339449 0.6794844041 -0.3982053992 0.6797559089 -0.3988224387 0.0580011847 0.0058642421
275298350.0 0.0589217101 0.0052651997 0.6753149785 -0.4067756266 0.6753396184 -0.4065743854 0.0586322446 0.0043576217
280298320.0 0.0588926575 0.0042460651 0.6714097923 -0.4146921654 0.6711669954 -0.4148496973 0.0584085335 0.0033299141
285298290.0 0.0585302401 0.0029629774 0.6669721502 -0.4228031265 0.6662428594 -0.4226684074 0.0586731957 0.0020764116
290298260.0 0.0591646812 0.0021633023 0.6616023184 -0.4296517864 0.6618898836 -0.4298940434 0.0585314164 0.0016278352
295298230.0 0.0588063662 0.0008193339 0.657940386 -0.4376868576 0.6572249597 -0.4377558476 0.0593803395 0.0003859665
300298200.0 0.0583687737 -0.0002553644 0.653116392 -0.4453959285 0.6529441773 -0.445775601 0.0587109187 -0.0009163647
305298170.0 0.0588631033 -0.0013595917 0.6474872358 -0.4535525831 0.6478539544 -0.4531703988 0.0591170865 -0.0018973648
310298140.0 0.0585341611 -0.0025371083 0.6426734697 -0.4607591366 0.6433691391 -0.460693795 0.0595308167 -0.0030552767
315298110.0 0.0583021161 -0.0041500458 0.6379882003 -0.4684644088 0.6383042027 -0.4682560289 0.058940077 -0.0044693591
320298080.0 0.0586150811 -0.0048598035 0.6324312906 -0.4764877843 0.6326214068 -0.4764358706 0.0587259991 -0.0053651751
325298050.0 0.0579319754 -0.0064308021 0.6273006168 -0.4837801953 0.6271324034 -0.4834312057 0.0578716844 -0.0063502782
330298020.0 0.0575989909 -0.0073137643 0.6213911591 -0.49127382 0.6217768691 -0.4907339482 0.0573530924 -0.0075375576
335297990.0 0.0569858023 -0.0085809583 0.615835907 -0.4979112046 0.6159788497 -0.4979442292 0.0566003216 -0.0077936756
340297960.0 0.0561319092 -0.0092933474 0.6096765972 -0.5048597898 0.6094303217 -0.504882989 0.0568924833 -0.0088202755
345297930.0 0.0556857873 -0.0091512359 0.6045318923 -0.5121724387 0.6036305834 -0.512120874 0.0563350475 -0.0096626733
350297900.0 0.0554742869 -0.0111068003 0.5975294923 -0.5189321448 0.59805713 -0.5184455865 0.0556214645 -0.0097085172
355297870.0 0.0550083979 -0.0106595961 0.5923764983 -0.5251197821 0.5926273267 -0.5248021557 0.0551504375 -0.0106773049
360297840.0 0.0545773277 -0.0114036569 0.5869944616 -0.5315695483 0.5870276737 -0.5320061863 0.0550710543 -0.011300034
365297810.0 0.0541369058 -0.0122048563 0.5805546849 -0.5387543532 0.5810313528 -0.5381736245 0.0548061945 -0.0117606375
370297780.0 0.0542793481 -0.0131915397 0.5744595699 -0.5448161693 0.5751006972 -0.5441214814 0.0541059479 -0.0124272327
375297750.0 0.0538310535 -0.0137976315 0.5686772385 -0.5516836354 0.5693088913 -0.5512191119 0.0543139979 -0.0128467648
380297720.0 0.0535805601 -0.0143480753 0.5627446944 -0.5577541632 0.5627037594 -0.5569204972 0.0534985746 -0.0140968184
385297690.0 0.0528759055 -0.0152428697 0.5563960756 -0.5637732745 0.5558224463 -0.5634773949 0.0534299478 -0.0143742574
390297660.0 0.0528609595 -0.0155009008 0.5503246158 -0.5700615974 0.5502257319 -0.5698383241 0.0526313816 -0.015014722
395297630.0 0.0524097306 -0.0161592831 0.5439650899 -0.5764781789 0.5441780522 -0.5762504874 0.0530953984 -0.0158075576
400297600.0 0.0517614351 -0.0168750048 0.5371300117 -0.5827833471 0.5376076953 -0.5822410302 0.0523200027 -0.0163339645
405297570.0 0.0511863518 -0.0175230439 0.531087474 -0.5880093145 0.5313249091 -0.5879689645 0.0515241107 -0.0169372092
410297540.0 0.0514553434 -0.0181870578 0.5249503908 -0.5939617189 0.5252539527 -0.5942378 0.0512657185 -0.0168845152
415297510.0 0.0513476673 -0.019036352 0.5178725361 -0.6004486071 0.518285892 -0.6003379092 0.0509541327 -0.0178920355
420297480.0 0.0507873976 -0.0191968521 0.5111831183 -0.6058454241 0.5109215825 -0.6061710615 0.050333026 -0.0189701288
425297450.0 0.0501296835 -0.0206869055 0.5050988697 -0.6117387773 0.5048760393 -0.6110790158 0.0496293771 -0.0191138758
430297420.0 0.0499345591 -0.0209639779 0.4978877653 -0.6161329067 0.4979933237 -0.6164192947 0.0494262864 -0.0200674323
435297390.0 0.0493987488 -0.0213834796 0.4908921982 -0.6222772487 0.4911659638 -0.6223866578 0.0499909552 -0.0205454575
440297360.0 0.0496142753 -0.0216335924 0.484130096 -0.6271510873 0.4843418825 -0.6276543793 0.0488582701 -0.0216573079
445297330.0 0.0486572257 -0.0227700341 0.4774005161 -0.6335573774 0.4774885436 -0.6326745651 0.0488167837 -0.0224481106
450297300.0 0.0485401905 -0.0230696056 0.4702307466 -0.6383486136 0.470490719 -0.638649873 0.0484439421 -0.023259788
455297270.0 0.0483903809 -0.0236993448 0.4632359211 -0.6433331317 0.4634374253 -0.6437208842 0.0478792701 -0.0232996645
460297240.0 0.0474139941 -0.0243653915 0.4556214914 -0.6484592259 0.4563376957 -0.6489099509 0.0477259091 -0.0237690079
465297210.0 0.0476512954 -0.0250175156 0.4491306701 -0.6535366778 0.4492251918 -0.6543553004 0.0475437258 -0.0245120656
470297180.0 0.047014694 -0.0259587779 0.4415634239 -0.659042632 0.4418583742 -0.6589123677 0.0471653955 -0.025050175
475297150.0 0.0466766872 -0.0266321187 0.4347593779 -0.6631589018 0.4344319369 -0.6630650665 0.0472025743 -0.0260026766
480297120.0 0.0460446105 -0.026346631 0.4272421426 -0.669141045 0.4275652594 -0.668691225 0.0468390334 -0.0259302851
485297090.0 0.0453463025 -0.0271943226 0.419943336 -0.6726706801 0.4201316886 -0.6727681365 0.0463750747 -0.026928985
490297060.0 0.0446411205 -0.0278481332 0.4128253251 -0.6780206472 0.4127284307 -0.6774527376 0.0457997466 -0.0267805336
495297030.0 0.0445851973 -0.02804145 0.4049538924 -0.6816947499 0.4056799171 -0.6819480835 0.0450763035 -0.0276794703
500297000.0 0.0439934335 -0.0287488896 0.3975208356 -0.6863685053 0.3970874726 -0.6863106908 0.0449933348 -0.0273480551
505296970.0 0.0438215805 -0.0292686527 0.38966504 -0.6909607413 0.3897086618 -0.6908310554 0.0446087549 -0.0280700686
510296940.0 0.0433638603 -0.0295787639 0.3820192772 -0.6957018682 0.3820598877 -0.6951335472 0.044160882 -0.0282009908
515296910.0 0.0425839787 -0.0297103146 0.3741824638 -0.699314993 0.3749198553 -0.6993510229 0.0437874418 -0.0289274607
520296880.0 0.0421691534 -0.0305713651 0.3668447899 -0.7036792326 0.3673453313 -0.7029571874 0.0431161482 -0.029452699
525296850.0 0.0419846517 -0.0316407144 0.3587411668 -0.7074032422 0.3593287476 -0.7076767373 0.0426084855 -0.0297852685
530296820.0 0.0415223088 -0.0314285572 0.3511093187 -0.7115409894 0.3520443066 -0.7114699634 0.0423875518 -0.0300680292
535296790.0 0.0403660512 -0.0319960071 0.3439922928 -0.7152968264 0.3437844449 -0.7147474532 0.0416997447 -0.031052938
540296760.0 0.0401615161 -0.0319280261 0.3359416485 -0.719262284 0.3354531173 -0.7194318832 0.0407063961 -0.0304564984
545296730.0 0.0394430684 -0.0326939221 0.3276764519 -0.7226978361 0.3276869621 -0.7226477697 0.0403590691 -0.0314182912
550296700.0 0.0398825745 -0.032740763 0.3200758108 -0.725961679 0.3203138171 -0.7265289764 0.0395595718 -0.0315719369
555296670.0 0.0386581651 -0.0332161089 0.3122523044 -0.7297663955 0.3123779827 -0.7298501356 0.0395724786 -0.0319645133
560296640.0 0.0385653154 -0.033142856 0.3036807584 -0.7332547146 0.3043144512 -0.7327412323 0.0389718075 -0.0325483539
565296610.0 0.037621964 -0.034051767 0.2959644004 -0.7362329763 0.295822808 -0.7363394479 0.0379745954 -0.0330791584
570296580.0 0.037207101 -0.034071739 0.2881214604 -0.7400473205 0.2871522278 -0.7396604251 0.0377703126 -0.0326787052
575296550.0 0.0361420039 -0.0343579521 0.2796277784 -0.7429401215 0.2794285549 -0.7430638176 0.0376281928 -0.0332614832
580296520.0 0.0360940314 -0.0346105123 0.2716881948 -0.7461525564 0.2715591324 -0.7457079315 0.0366870058 -0.0339511873
585296490.0 0.0355759388 -0.0357001998 0.2636156318 -0.7486096956 0.26367765 -0.7484079856 0.0362179667 -0.0340881589
590296460.0 0.0353332183 -0.0355293232 0.255561591 -0.7503227052 0.2552686939 -0.7512656385 0.0347372874 -0.0344481027
595296430.0 0.0349712623 -0.0359570343 0.2466902775 -0.7545845073 0.2467517233 -0.7543814829 0.0352901884 -0.0350154232
600296400.0 0.0339056445 -0.036494807 0.2387112297 -0.7568976921 0.2386773903 -0.7564584062 0.0341916806 -0.0353540032
605296370.0 0.0334446082 -0.0368239446 0.2301822572 -0.7591267247 0.2306028855 -0.7592691667 0.0337252418 -0.0356512658
610296340.0 0.0328717436 -0.0369921327 0.2212144179 -0.7613757245 0.2222294327 -0.7620326071 0.0333576619 -0.0360999945
615296310.0 0.0328856058 -0.037870196 0.2134798719 -0.7639768466 0.2135828947 -0.7645514173 0.033358729 -0.0363426717
620296280.0 0.0321339737 -0.0379511409 0.2058824525 -0.7666724116 0.2055185345 -0.7665079269 0.0322593241 -0.0366675383
625296250.0 0.0312711063 -0.0390072282 0.1977819311 -0.7692573433 0.1974607335 -0.7686945116 0.0326437839 -0.0369240681
630296220.0 0.0316888057 -0.0384504245 0.1883048954 -0.7710747557 0.1878506001 -0.7706665092 0.0314487352 -0.0369839759
635296190.0 0.0296078098 -0.0392023592 0.1802948481 -0.7728124244 0.1801082406 -0.772593112 0.0309086371 -0.0373268601
640296160.0 0.0292775578 -0.0390283797 0.171787704 -0.774408896 0.1725979909 -0.774579421 0.030597196 -0.037967393
645296130.0 0.0288958917 -0.0391002293 0.1630921763 -0.776259626 0.1634732612 -0.7766432176 0.0298397075 -0.0380282553
650296100.0 0.0285432114 -0.0397280259 0.1549366509 -0.7780645049 0.1550753447 -0.7782389095 0.0297428027 -0.0392657272
655296070.0 0.027710852 -0.0402396378 0.1462398141 -0.7799082283 0.1465429377 -0.7798877606 0.0292667564 -0.0384154277
660296040.0 0.0266949408 -0.0408639934 0.1377426802 -0.781471906 0.1379387232 -0.7815759867 0.0288780776 -0.0389411837
665296010.0 0.0268438141 -0.0403483346 0.1287741228 -0.7826038567 0.1297505487 -0.7826516631 0.0281270818 -0.0384114267
670295980.0 0.0248742779 -0.0405783212 0.1209184275 -0.7842020177 0.1204127095 -0.7841381999 0.0269214564 -0.0390265314
675295950.0 0.0248584581 -0.0403679441 0.1126808901 -0.7852753525 0.1125429205 -0.784420616 0.026216415 -0.0391288201
680295920.0 0.0240187255 -0.0412533015 0.1033743538 -0.7866015825 0.1030437676 -0.7871058614 0.0261423562 -0.0385576961
685295890.0 0.0236109359 -0.0404164715 0.0948592176 -0.7873113348 0.0947765022 -0.7876286501 0.0255451876 -0.0389181819
690295860.0 0.023508246 -0.0410408598 0.0863182571 -0.7878204183 0.0862111233 -0.7890779513 0.0247989651 -0.0385414829
695295830.0 0.0227294564 -0.041480464 0.0783578832 -0.7894811437 0.0774072407 -0.7886470716 0.0239629528 -0.0391434693
700295800.0 0.022654566 -0.041753868 0.069348501 -0.790149218 0.0685515937 -0.7899947632 0.0234965532 -0.0384286697
705295770.0 0.0210471504 -0.0409455297 0.059826857 -0.790752749 0.0607379127 -0.7909713844 0.0227825294 -0.0390406012
710295740.0 0.0210515806 -0.0415582432 0.0518093902 -0.792315833 0.0527459933 -0.7921404617 0.0226330731 -0.0401336406
715295710.0 0.0197487641 -0.0417007057 0.0438671991 -0.7923009138 0.043498522 -0.7920916028 0.022305929 -0.0398113008
720295680.0 0.0195971323 -0.0417843004 0.0346602821 -0.792813093 0.035072074 -0.7922263663 0.0214359832 -0.0389853814
725295650.0 0.0191528119 -0.0417919472 0.0262912233 -0.7929775802 0.0263958564 -0.7928876807 0.020283829 -0.0391343076
730295620.0 0.018747775 -0.0414151942 0.0177344473 -0.7928378564 0.0175751714 -0.7931823895 0.0192875467 -0.0400436319
735295590.0 0.0177845369 -0.0415798545 0.0091337853 -0.7929948815 0.0087544441 -0.7930532491 0.0189255127 -0.0399051188
740295560.0 0.0169081819 -0.041607534 0.0001762731 -0.7930125098 0.0005071932 -0.7931128595 0.0187390275 -0.0395424324
745295530.0 0.0167171159 -0.0419233398 -0.0083881984 -0.792221608 -0.0085257514 -0.7929367527 0.0180207523 -0.0404731633
750295500.0 0.0160510624 -0.0420145857 -0.0168082692 -0.7926992783 -0.0168763448 -0.7929346647 0.0175807238 -0.0403980299
755295470.0 0.0154608957 -0.0420725603 -0.0248717465 -0.7930373097 -0.0252252444 -0.7929624724 0.0177043479 -0.0407360021
760295440.0 0.0148529846 -0.0417907205 -0.0343862269 -0.7927142634 -0.0340713598 -0.7929696841 0.0165759931 -0.0403450906
765295410.0 0.0142003615 -0.0420242392 -0.0428261449 -0.7917537888 -0.0430973968 -0.7924216498 0.016020257 -0.0404682151
770295380.0 0.0133628599 -0.0424370447 -0.0512529163 -0.7914866096 -0.0513711258 -0.7909424132 0.0149177034 -0.0405138363
775295350.0 0.0126384995 -0.0426360551 -0.0601413858 -0.790315729 -0.060144484 -0.7905177395 0.0135119205 -0.0403451354
780295320.0 0.0122771174 -0.0424014219 -0.0689707624 -0.7895982002 -0.0680357657 -0.7896110274 0.0137215898 -0.041036269
785295290.0 0.0112901388 -0.0429487695 -0.0779813688 -0.7883894922 -0.0771849767 -0.7890883705 0.0135793033 -0.0403310311
790295260.0 0.0115601296 -0.0419421004 -0.085090275 -0.7882861176 -0.084712917 -0.7881104954 0.0123417372 -0.0407880509
795295230.0 0.0104548913 -0.0425748958 -0.0942054052 -0.7875327922 -0.0938924701 -0.7876699869 0.0122663836 -0.0405022269
800295200.0 0.0094273271 -0.0419196729 -0.1038674453 -0.7857398746 -0.1028339217 -0.7861897171 0.011757025 -0.0405999003
805295170.0 0.0090574344 -0.0422174013 -0.1115572599 -0.7848776989 -0.1118293777 -0.7848569818 0.0111729163 -0.0405498915
810295140.0 0.008232061 -0.0427252639 -0.1196709454 -0.7831730688 -0.1198824466 -0.7831448849 0.0111444206 -0.0400758408
815295110.0 0.0079451291 -0.0426962288 -0.1283675934 -0.7820011614 -0.1284203981 -0.7824683885 0.0098759776 -0.0403315891
820295080.0 0.0064761649 -0.0419088002 -0.1369614276 -0.780299881 -0.1363753596 -0.7807944191 0.0093024965 -0.040502206
825295050.0 0.0069322365 -0.0421907034 -0.1446283985 -0.7786419777 -0.1451948243 -0.7791664152 0.0095057802 -0.0404440549
830295020.0 0.0057915638 -0.0416980721 -0.1540304698 -0.7771404047 -0.1537040932 -0.7771204711 0.0091569042 -0.0397189165
