!Created with skrf (http://scikit-rf.org).
# Hz S RI R 50.0 
!freq ReS11 ImS11 ReS21 ImS21 ReS12 ImS12 ReS22 ImS22
300000.0 -0.7734674757 -0.1528153518 -0.0007576823 0.0014797382 -0.0003338804 0.0024673137 -0.2113729445 -0.0959194304
5299970.0 -0.7852169937 -0.0072539843 8.6513e-05 -0.0001761881 2.11079e-05 7.06915e-05 -0.216328819 0.0063868259
10299940.0 -0.7874669527 -0.0044471523 -0.0001208384 -6.88188e-05 -1.38406e-05 2.03921e-05 -0.2133571783 0.0186837251
15299910.0 -0.7932275435 -0.0014687789 0.0001709387 3.07581e-05 -0.0002039309 -0.0001636307 -0.2082624512 0.0280796558
20299880.0 -0.7995070168 0.0023026682 8.76313e-05 2.58546e-05 0.0001268102 -6.65159e-05 -0.2029439739 0.0357296063
25299850.0 -0.8063273988 0.008427487 0.0003218364 6.83824e-05 0.0001625867 -2.29088e-05 -0.1975025044 0.0418433496
30299820.0 -0.8122316508 0.0165224032 0.0001314458 -0.0001309143 -0.0001049908 6.95495e-05 -0.1916449408 0.0462611933
35299790.0 -0.8166925776 0.0252944794 -0.0001575981 -6.57783e-05 -1.66685e-05 -0.0001706313 -0.1861698358 0.0500308861
40299760.0 -0.8211224254 0.0343050568 0.0001511697 0.0001511812 6.81742e-05 6.09157e-05 -0.1804940212 0.0529271944
45299730.0 -0.8247295829 0.0438047483 -0.0001333339 5.0959e-05 -3.66489e-05 7.78077e-05 -0.1752527567 0.054974896
50299700.0 -0.8265597655 0.0542573757 7.40973e-05 -0.0001613276 -4.77112e-05 -3.98255e-05 -0.1704033731 0.056757774
55299670.0 -0.828811291 0.064098597 1.04887e-05 -0.0002127121 -7.44603e-05 -0.0001507225 -0.1665271924 0.0578040034
60299640.0 -0.8295880283 0.0742385299 3.2889e-06 0.000106051 -1.40789e-05 8.14156e-05 -0.1622708072 0.0585135559
65299610.0 -0.8309311993 0.0848022531 0.000225984 -6.2696e-06 3.39128e-05 0.0001161936 -0.1587137491 0.0591191387
70299580.0 -0.8310510833 0.0946306915 9.1209e-06 0.0001794491 0.0001660138 5.67191e-05 -0.1554948902 0.0593631704
75299550.0 -0.8315991483 0.1047568906 6.07959e-05 0.0001673764 -9.63037e-05 1.34144e-05 -0.152615707 0.0596270719
80299520.0 -0.8310320699 0.1140259436 -6.32424e-05 0.0001681169 -1.35134e-05 -5.274e-07 -0.150188031 0.0596314026
85299490.0 -0.8301157925 0.124163366 4.93086e-05 3.83207e-05 0.0001327357 8.28218e-05 -0.1478647653 0.0592310798
90299460.0 -0.8295781405 0.1334758565 0.0001068372 0.0003917959 0.0001285213 -5.89213e-05 -0.1454767682 0.0594159868
95299430.0 -0.8286551601 0.1437684563 0.000110543 -4.816e-06 -0.0001733941 -3.53564e-05 -0.1431436125 0.0593897905
100299400.0 -0.8274908942 0.1531330284 0.0001441458 -3.36231e-05 -3.93904e-05 1.09493e-05 -0.1419125932 0.0594990607
105299370.0 -0.8263853863 0.1619733575 -0.0001110317 0.0001403975 0.0001076179 -4.53426e-05 -0.1398610021 0.0591046491
110299340.0 -0.8249519831 0.1710822051 -0.0001745828 7.1185e-06 5.70356e-05 4.59095e-05 -0.1389087447 0.0596658261
115299310.0 -0.8235504447 0.1805018006 2.28309e-05 -2.33287e-05 0.0001349186 0.0001685944 -0.1372273649 0.0589120996
120299280.0 -0.8219514276 0.1894501958 -3.89675e-05 -7.29462e-05 2.31025e-05 1.4593e-06 -0.1362032881 0.0595075601
125299250.0 -0.8205979883 0.198422989 5.49832e-05 0.0001524427 -0.0001809201 0.000255981 -0.1349237079 0.0593095609
130299220.0 -0.8183118692 0.207519702 0.0001091061 5.30693e-05 0.0001033828 0.0001494115 -0.1342730276 0.0598939107
135299190.0 -0.8162665955 0.2164800049 -0.0001280062 -9.19666e-05 2.87722e-05 0.0001131304 -0.1332602784 0.0595657039
140299160.0 -0.8145660048 0.2253433512 1.60138e-05 -6.46923e-05 8.95563e-05 0.0001002491 -0.1321950565 0.0595718074
145299130.0 -0.8121413926 0.2345052624 8.19897e-05 0.0002072699 0.0002266745 0.0001767151 -0.1319805038 0.06036908
150299100.0 -0.810252505 0.2432432898 0.0001147603 -0.0001586112 1.80609e-05 0.0001884751 -0.1307972341 0.0602523171
155299070.0 -0.8075298728 0.2522612894 -3.19328e-05 0.0001855048 -0.000198421 -2.56902e-05 -0.1302353045 0.0608139372
160299040.0 -0.8046846139 0.2607982016 6.44082e-05 0.0001667188 -0.0001028191 0.000139279 -0.1294191176 0.061429768
165299010.0 -0.8020255653 0.2689349739 -0.000104505 9.1024e-05 -3.59613e-05 0.0001674147 -0.1290292409 0.0617291722
170298980.0 -0.7995927051 0.2778704052 -0.0001727416 -0.0001371647 0.0001137684 8.66777e-05 -0.1283605879 0.0624180294
175298950.0 -0.7966813676 0.2870844079 4.08228e-05 0.0001165525 9.38671e-05 7.70522e-05 -0.1278849139 0.062619784
180298920.0 -0.7937499509 0.295075517 0.0001662025 1.89703e-05 -0.0001135766 4.90914e-05 -0.1269490548 0.0631878795
185298890.0 -0.7910071016 0.3039582786 0.0001107311 0.0001064467 2.56847e-05 0.000116907 -0.1271053024 0.063547116
190298860.0 -0.787450226 0.3121777309 7.51244e-05 4.07469e-05 7.0035e-05 8.40041e-05 -0.1257785081 0.0645970867
195298830.0 -0.7839168861 0.3208219968 0.0001090057 4.53099e-05 0.0001239803 9.85492e-05 -0.125642419 0.0649607141
200298800.0 -0.7808337082 0.3292601363 8.96212e-05 0.0001094199 5.90233e-05 6.45192e-05 -0.124758164 0.0657786893
205298770.0 -0.7768929795 0.3372221812 0.0001171955 0.0001191546 0.0001232835 1.2427e-06 -0.1246621275 0.0663864381
210298740.0 -0.7735579217 0.3459676515 0.0003823843 9.2029e-05 0.0001388691 8.4206e-06 -0.1240981863 0.0672972131
215298710.0 -0.7701735795 0.3542745927 9.34915e-05 0.0001649213 -8.14856e-05 0.0002669089 -0.1241023817 0.0679755351
220298680.0 -0.7667321264 0.3621810617 0.0001618411 0.0001212822 -7.58778e-05 0.0001507545 -0.1232017043 0.0688283609
225298650.0 -0.7627079031 0.37137333 -0.0001126322 0.0001588297 0.0001053678 8.48329e-05 -0.1229794554 0.0700101886
230298620.0 -0.7589478242 0.3786114183 8.14375e-05 0.0002500709 2.20093e-05 -4.772e-06 -0.1220354969 0.0705429614
235298590.0 -0.7546660148 0.3870092173 -3.3913e-05 -4.06997e-05 0.0003150142 -2.56102e-05 -0.121777309 0.0714074394
240298560.0 -0.750927345 0.3953370985 5.25037e-05 8.50241e-05 5.48703e-05 -2.2866e-05 -0.1213073859 0.0723050199
245298530.0 -0.7464571601 0.4030513921 9.325e-06 0.0001548255 0.0003057202 7.62415e-05 -0.1207532618 0.0732147992
250298500.0 -0.7423892249 0.4104739473 0.0001253526 0.0001080827 6.4371e-05 0.0002149256 -0.1199354565 0.0740434761
255298470.0 -0.7374999786 0.4185499403 0.0001472719 8.21917e-05 0.0001763283 -0.0001545767 -0.1195836617 0.0748463386
260298440.0 -0.7334800342 0.4260233054 0.0001490085 3.36029e-05 0.0001149082 0.0002580579 -0.1191092907 0.0761385946
265298410.0 -0.7291044212 0.4340543365 0.0002674843 0.0001847477 1.6454e-05 0.0001133051 -0.1183435721 0.0766691262
270298380.0 -0.724694023 0.4416525214 0.0003916067 -1.03627e-05 8.52437e-05 3.7819e-06 -0.1176107422 0.0778674144
275298350.0 -0.7195643989 0.4497736428 -2.4485e-06 0.0002256953 -0.0002020774 7.5219e-05 -0.1172476639 0.0788055056
280298320.0 -0.7152003409 0.4567443429 0.0001396932 4.12896e-05 0.0001794938 8.06944e-05 -0.1165360997 0.0797303875
285298290.0 -0.7103256274 0.4646867831 0.0001660536 -3.06165e-05 -2.44948e-05 2.14886e-05 -0.1158625499 0.080929757
290298260.0 -0.705547105 0.471630941 0.0003057312 0.0002454713 0.0001624393 0.0002991193 -0.1151788483 0.0820305712
295298230.0 -0.7011684366 0.4792783711 0.0002172581 0.0001432754 0.0001058988 0.0001040161 -0.1148859452 0.0829025499
300298200.0 -0.6953866324 0.4860203962 8.40315e-05 2.60254e-05 9.84562e-05 0.0002207722 -0.1139981481 0.0843245287
305298170.0 -0.6899403047 0.494039858 0.0001791957 7.5425e-06 0.0001872151 0.0002978038 -0.1129704325 0.0852403563
310298140.0 -0.684258766 0.5012629583 0.0001364596 0.0001159117 8.0632e-06 -1.29578e-05 -0.1124614279 0.0863313499
315298110.0 -0.6792378113 0.5081970058 -0.0001214489 -5.31106e-05 0.0001589342 -4.0216e-06 -0.1116198486 0.0872553736
320298080.0 -0.6745755658 0.5160591438 0.0002317957 -8.74016e-05 5.26361e-05 5.326e-07 -0.1109195648 0.0880664939
325298050.0 -0.6684948706 0.5218195338 -5.38759e-05 0.0001413317 0.0003402083 7.80814e-05 -0.110509005 0.0893601941
330298020.0 -0.6631368768 0.5296821666 -8.626e-06 0.0001720014 -4.96125e-05 0.0003030997 -0.1097576524 0.0899548021
335297990.0 -0.6568948817 0.5365247534 9.38742e-05 7.38821e-05 0.0002161718 0.000122347 -0.1092640486 0.0912208079
340297960.0 -0.6524500127 0.5428029286 4.86171e-05 0.0001339764 0.000328786 -3.32572e-05 -0.1084501007 0.0921978274
345297930.0 -0.6463591213 0.5492378109 5.55054e-05 9.1361e-06 0.0001059865 6.58289e-05 -0.1079877681 0.093661746
350297900.0 -0.6404341587 0.5563699639 0.0004000702 -0.0001492595 -3.10647e-05 7.08368e-05 -0.1072605316 0.0946613758
355297870.0 -0.6344114782 0.5623611385 -0.0001018592 -3.21988e-05 4.2053e-05 -8.65667e-05 -0.1065217073 0.0958743803
360297840.0 -0.6285619404 0.5689759409 0.000120812 -4.89691e-05 0.0003319305 0.0002302504 -0.105975102 0.0971764209
365297810.0 -0.6221440713 0.5756100069 0.0002175369 1.92299e-05 7.98149e-05 2.4193e-05 -0.1050043944 0.0987647714
370297780.0 -0.6160954326 0.5813761105 0.0002602784 -0.0001495435 2.97226e-05 0.0003635515 -0.1044383481 0.0990896366
375297750.0 -0.6104904218 0.5882963887 -5.93408e-05 2.14521e-05 0.0002720649 0.0002706847 -0.1035732621 0.1008362965
380297720.0 -0.6039800434 0.5943872701 0.0001669686 -5.1728e-06 0.0002020155 9.57572e-05 -0.102477208 0.1019611728
385297690.0 -0.598002983 0.600753038 3.6873e-06 -4.38119e-05 0.0002745662 9.84384e-05 -0.1018608212 0.1033316302
390297660.0 -0.5915211081 0.6067766561 0.0002521695 2.84838e-05 -1.45408e-05 -3.55794e-05 -0.1011210451 0.1039637561
395297630.0 -0.5852868168 0.613383141 0.0001754673 -4.02395e-05 0.0002504217 5.75274e-05 -0.1002768813 0.105540369
400297600.0 -0.5789530198 0.619040806 0.0003525266 -0.0002481687 9.67019e-05 -6.10944e-05 -0.0994410302 0.1065400325
405297570.0 -0.5725027528 0.6250890826 0.0001422519 6.5484e-05 -7.0193e-06 0.0001641712 -0.0987712713 0.1076902913
410297540.0 -0.5657091929 0.6307369045 0.0002303595 -0.000181537 0.0003097303 0.0001416218 -0.0977759647 0.1088595954
415297510.0 -0.5587113186 0.6358916647 1.3762e-05 -0.0001279894 9.73053e-05 0.000127994 -0.0968983488 0.1100691739
420297480.0 -0.5518219307 0.6421640439 -4.64701e-05 3.95611e-05 0.0001057533 9.28656e-05 -0.0962469435 0.1111521768
425297450.0 -0.5456827524 0.6473065297 0.0003406281 -0.0001293496 0.0001295297 -9.46626e-05 -0.0948780631 0.1122242808
430297420.0 -0.5394287212 0.6533204948 5.22795e-05 -3.33037e-05 0.000135772 7.66739e-05 -0.0941381517 0.1134826032
435297390.0 -0.5321878726 0.6591988483 0.0001283416 0.0001212146 0.0001846802 0.0002451703 -0.0928022595 0.1147042353
440297360.0 -0.5254551334 0.6647374098 0.0001242355 -0.000270974 0.0003021048 -7.5855e-06 -0.0925554961 0.115831499
445297330.0 -0.5186223945 0.6701148217 0.0002239049 0.0001103497 7.7923e-05 -5.09257e-05 -0.0915244524 0.1165207551
450297300.0 -0.511682552 0.6748577508 0.0003251942 2.31487e-05 0.000216735 -3.81371e-05 -0.0909126855 0.1179570067
455297270.0 -0.5043427751 0.6800494142 -2.0751e-05 -0.0001182738 0.0003121825 0.0001216769 -0.0893551446 0.1192462374
460297240.0 -0.4977809733 0.6857168062 4.36204e-05 0.0003036192 0.0001927667 -9.70064e-05 -0.0882084261 0.1202335087
465297210.0 -0.4901764825 0.690370936 0.0003250949 2.46176e-05 0.000194374 0.0002235013 -0.0876481345 0.1209682749
470297180.0 -0.4832584933 0.6944055328 0.0002154033 9.31264e-05 0.0003076769 -4.837e-05 -0.0868294012 0.1220485971
475297150.0 -0.475806225 0.699906269 0.0001071768 5.93808e-05 -4.75178e-05 0.0001525424 -0.0854088729 0.1230473225
480297120.0 -0.4688942173 0.7047736995 0.000247185 0.0001976241 0.0001494042 0.0001469292 -0.0846545713 0.1242858417
485297090.0 -0.4612812014 0.7091798388 0.0001414761 7.35945e-05 0.0001054455 0.0001348447 -0.0838033044 0.1251822792
490297060.0 -0.4543571672 0.7138312239 3.03875e-05 -4.74804e-05 0.00013291 7.41553e-05 -0.0823568328 0.1260571198
495297030.0 -0.4474986737 0.7185540569 0.0003138912 0.0003398159 0.0001221179 3.84862e-05 -0.0814710738 0.1267316427
500297000.0 -0.4387507983 0.7230256491 0.0001153074 3.2296e-05 9.45583e-05 0.0001521662 -0.0807429869 0.1280456938
505296970.0 -0.4309671722 0.7267842317 5.56789e-05 1.68539e-05 0.000343371 -0.0001396947 -0.0797961968 0.1293090761
510296940.0 -0.4241306849 0.7316410269 0.0001377436 2.14429e-05 0.0001004138 -0.000104254 -0.0780673198 0.1300005204
515296910.0 -0.4175850414 0.7363197869 0.0002445181 1.7711e-06 0.0004278462 0.0002735081 -0.076894021 0.1313987431
520296880.0 -0.4089589845 0.7408288643 0.0002394753 8.69936e-05 0.0003464801 6.77726e-05 -0.0762955748 0.1319390746
525296850.0 -0.401766895 0.7444410077 0.0002258659 0.0001199339 0.0001296991 8.29406e-05 -0.0746457569 0.1327831826
530296820.0 -0.3945536509 0.747981997 0.0002449863 3.66011e-05 0.0001236037 3.88894e-05 -0.0740047829 0.1334748203
535296790.0 -0.3859845731 0.7524458408 0.0002900042 -0.0001036223 0.0002386553 0.000225111 -0.0729157805 0.1346139878
540296760.0 -0.3779552255 0.7561012095 0.0002000719 0.0002534552 0.0002188507 -2.1741e-06 -0.0720201721 0.1354268573
545296730.0 -0.3710580282 0.7597517697 0.0001147165 4.34454e-05 0.0001818103 1.37727e-05 -0.070792767 0.1362422319
550296700.0 -0.3633500667 0.7637355024 0.000512071 5.78003e-05 0.0001589897 0.0001964468 -0.0698189952 0.1373816061
555296670.0 -0.3547375599 0.7666963616 0.0002834271 -7.06853e-05 2.721e-06 8.462e-05 -0.0683480264 0.1382589036
560296640.0 -0.34713492 0.7707935891 0.0002931238 1.09004e-05 0.0002956083 -6.53617e-05 -0.0670396191 0.1390422608
565296610.0 -0.3396061934 0.774122966 0.000151463 -0.0002484607 0.0003576869 0.0002222195 -0.0657464349 0.1397563565
570296580.0 -0.3320048706 0.7771999073 0.000365317 0.0003743234 0.0002294612 7.19012e-05 -0.0648343108 0.1408166529
575296550.0 -0.3237424803 0.78039247 6.62312e-05 3.01628e-05 0.0001419498 -4.80736e-05 -0.0633763041 0.1414676287
580296520.0 -0.3155137199 0.7838995807 0.0002344319 0.0001506788 0.000362673 2.96082e-05 -0.0621369735 0.142485067
585296490.0 -0.3078484996 0.786354686 0.0001579969 -9.58826e-05 0.0004208181 6.411e-07 -0.0610368425 0.1428663352
590296460.0 -0.2995278468 0.7902001712 0.0004655434 0.0003115091 0.0003128027 9.72434e-05 -0.0598468017 0.1435947777
595296430.0 -0.2912240254 0.7931359619 0.0001986833 9.62383e-05 0.0001565896 7.87155e-05 -0.0588638749 0.1443305124
600296400.0 -0.2834341227 0.795751921 0.0003498716 0.0001343742 0.0002229525 5.77251e-05 -0.057294279 0.1453213332
605296370.0 -0.2753953115 0.7985821014 0.0002552761 0.0001078085 0.0003636383 -0.0002696972 -0.0557747826 0.1462842628
610296340.0 -0.2676300935 0.8015374666 0.0002382824 -0.0001550982 0.0003327581 -3.84285e-05 -0.054869105 0.1467677752
615296310.0 -0.2593221177 0.804342807 0.0002164615 0.0001687557 3.09749e-05 4.88237e-05 -0.0537384338 0.1474499905
620296280.0 -0.2507788869 0.8056407543 0.0003924061 1.17248e-05 0.0001525178 -6.19523e-05 -0.0523620489 0.1480840934
625296250.0 -0.2426054928 0.8087974931 3.09897e-05 -6.89858e-05 0.0003286742 2.54398e-05 -0.0508889703 0.1490496524
630296220.0 -0.2341674106 0.8118252511 0.0004396139 -0.0002302525 0.0003285511 2.79884e-05 -0.0496851066 0.1497912023
635296190.0 -0.2262501086 0.8136442188 0.0001433373 -0.0002437086 6.96485e-05 7.3461e-06 -0.0483107457 0.1502976555
640296160.0 -0.2183489507 0.8151825227 0.000239993 -8.11142e-05 0.000239315 2.95397e-05 -0.0466146993 0.1507165626
645296130.0 -0.2102526232 0.8176661363 0.0003119321 1.5359e-06 5.88031e-05 3.95686e-05 -0.0458762625 0.1517102948
650296100.0 -0.2016474307 0.8205123055 0.0001577313 6.00045e-05 0.0001662035 -0.000123082 -0.0444579637 0.1521937061
655296070.0 -0.192927575 0.8223530558 0.0003151919 7.85674e-05 0.0002386357 -2.39084e-05 -0.0427363782 0.1528885677
660296040.0 -0.1853361478 0.8244655733 -1.10662e-05 -2.7719e-06 0.0003789216 7.28129e-05 -0.0416898306 0.1536736943
665296010.0 -0.1771264441 0.82575676 0.000189119 -0.0001052123 0.0004066941 2.54946e-05 -0.0401011541 0.1539179864
670295980.0 -0.1681130548 0.8272971668 0.0001520094 -5.07805e-05 0.0001747797 -5.98629e-05 -0.0390274727 0.1543615289
675295950.0 -0.159903622 0.8287473179 4.03974e-05 -5.0661e-06 0.0003379126 7.96854e-05 -0.0374893897 0.1552412273
680295920.0 -0.1517695132 0.8310671962 0.0002943206 -4.16968e-05 0.0003189139 -3.0978e-06 -0.0360295668 0.1556138692
685295890.0 -0.1431207572 0.8317136374 -6.03272e-05 0.0003298618 0.0003128614 0.0001425594 -0.0346167925 0.1563181299
690295860.0 -0.1341392821 0.8331912979 0.0003166941 -7.0647e-05 0.0002207044 3.69302e-05 -0.0330870518 0.1568269601
695295830.0 -0.1262217618 0.8345939725 0.0002436738 3.25248e-05 0.0002232202 4.24086e-05 -0.0318139109 0.1576197232
700295800.0 -0.1179251007 0.8358505836 0.0001749609 0.00015495 0.0004575252 0.0001486232 -0.0304984942 0.1576917042
705295770.0 -0.1094637831 0.8373115881 0.0002160763 -0.000115329 0.0002692041 -6.427e-05 -0.028803515 0.1584519197
710295740.0 -0.1010735391 0.8382671238 0.0003053812 -3.31049e-05 7.01829e-05 -1.17165e-05 -0.0279993629 0.1588133996
715295710.0 -0.0930161524 0.8392335273 0.0004156215 -5.3012e-05 4.55287e-05 2.507e-07 -0.02628588 0.1596051005
720295680.0 -0.084559904 0.8392253136 0.0004832128 9.33287e-05 0.0003518555 -8.31535e-05 -0.0244157306 0.159885619
725295650.0 -0.0753560998 0.8408152579 0.0002287214 3.80129e-05 0.000371078 -2.80539e-05 -0.0231093225 0.1602505159
730295620.0 -0.0675068359 0.8411708622 9.12786e-05 -0.0001391005 0.0002887226 -0.0002132099 -0.0216604272 0.160644268
735295590.0 -0.0581451378 0.84188184 0.0003894017 6.34742e-05 0.0002462654 -8.9367e-06 -0.0201136668 0.1610069348
740295560.0 -0.0502843651 0.8423800908 0.0003453339 -6.99586e-05 0.0003115195 -9.83245e-05 -0.01886949 0.161230875
745295530.0 -0.0419347713 0.8428530059 0.0004535412 -0.0002795754 0.0003374189 -0.0001059885 -0.0177139178 0.1617003732
750295500.0 -0.0339231553 0.8433552734 3.07973e-05 -0.0001463507 0.0002248332 -0.0001441209 -0.0158126289 0.1617828401
755295470.0 -0.0245177992 0.843151267 0.0002859394 0.0002836678 0.0001094065 -1.49926e-05 -0.0148866014 0.1628853765
760295440.0 -0.0162188246 0.8435606161 0.0002717945 0.000124977 0.00024956 -0.0001347137 -0.0129643325 0.1626769906
765295410.0 -0.008291549 0.8435748304 0.0004068898 -0.0001798965 0.0001510636 -0.0002097015 -0.0112582985 0.1633046984
770295380.0 0.0002092319 0.844530934 0.0001640713 1.83782e-05 0.0002495336 -0.000183895 -0.0096892732 0.1634123929
775295350.0 0.0088731835 0.8440760123 0.000240996 -0.0001930595 5.61873e-05 2.72593e-05 -0.0087441431 0.1635486824
780295320.0 0.0174813083 0.8433622683 0.0003573524 -0.0001369127 0.000210814 -2.09004e-05 -0.0069194072 0.1643277355
785295290.0 0.0258126683 0.8436482451 0.0004140906 -0.0001193864 0.0003186379 7.2096e-06 -0.0055466951 0.1647088921
790295260.0 0.0346429301 0.8430255309 0.000345702 -0.000120377 0.0003646542 3.38123e-05 -0.0039168622 0.164428545
795295230.0 0.0428876982 0.8435174777 -6.80268e-05 6.61543e-05 0.0002800393 0.0001502374 -0.0025533151 0.1650758923
800295200.0 0.0515917277 0.8422875016 0.0002568188 -0.0002161372 0.0002764331 -0.0001426165 -0.000898389 0.1650264485
805295170.0 0.059558482 0.8421566139 0.0001611251 0.000131576 0.0005309729 -0.000106922 0.0004812289 0.1652958926
810295140.0 0.0681834107 0.8413711165 0.0002700556 -1.09949e-05 0.0002981294 -2.69794e-05 0.0021160668 0.1659344156
815295110.0 0.076411091 0.8403725712 0.0001394696 -4.18901e-05 0.0002671074 -0.0001415194 0.0035982074 0.1657622029
820295080.0 0.0849631547 0.8390047658 0.0002831365 2.52776e-05 0.0002232841 -0.0001272658 0.0049211215 0.1659465413
825295050.0 0.093939638 0.8382893035 0.0004102786 3.11017e-05 0.0003517923 -0.0001095821 0.0066385675 0.1663652053
830295020.0 0.1020758099 0.8376153922 0.0003284528 -0.0001376435 3.36702e-05 -0.0001336384 0.0080989885 0.1667703465
835294990.0 0.1098606885 0.8372343208 0.0004772688 -6.6524e-06 0.0005135722 -5.05771e-05 0.0098204056 0.1662691423
840294960.0 0.1183888281 0.8354886614 0.0003532238 -9.4774e-06 0.0004166674 -3.07653e-05 0.0114871794 0.1667624085
845294930.0 0.1269462338 0.8341045144 0.0003154695 0.0001494052 0.0004837594 -0.0003208231 0.012896146 0.1670794321
850294900.0 0.1352117295 0.8327095549 0.000490555 -0.0002340161 0.0002577955 -8.3671e-05 0.014394334 0.1670102191
