!Created with skrf (http://scikit-rf.org).
# Hz S RI R 50.0 
!freq ReS11 ImS11 ReS21 ImS21 ReS12 ImS12 ReS22 ImS22
300000.0 -0.7716103449 -0.1496353333 0.0012995613 0.0007364662 0.0004512692 0.0012046722 -0.2097472607 -0.0944388634
5299970.0 -0.7848544028 -0.0074363531 -0.0001143932 8.22803e-05 -3.34743e-05 -3.6091e-05 -0.2162753902 0.006467842
10299940.0 -0.7875464258 -0.0042365897 -6.86152e-05 1.82209e-05 -0.0002230742 -0.0001049066 -0.2130432133 0.0185622075
15299910.0 -0.7932835266 -0.0017611276 -0.0002160594 -0.0001184882 5.3632e-06 9.16253e-05 -0.2081817179 0.0279399803
20299880.0 -0.7996287076 0.0022094963 -0.0002054832 2.43192e-05 6.92366e-05 -3.77813e-05 -0.2031375551 0.0357209139
25299850.0 -0.8064546288 0.008367772 -0.0002978448 0.0002057995 5.092e-06 2.21799e-05 -0.197397086 0.0415506939
30299820.0 -0.8120125584 0.0162073706 -6.44231e-05 -0.000142359 0.000116472 2.54975e-05 -0.1917669599 0.0464017732
35299790.0 -0.8167427518 0.0253212211 -3.7702e-06 -0.0001207294 5.5534e-06 -0.0001997581 -0.1858879917 0.0499678229
40299760.0 -0.8212658718 0.0343122032 -0.0001519357 -0.0001153324 -4.70704e-05 -0.0001012303 -0.1805886817 0.0531261783
45299730.0 -0.8247573285 0.0440636525 -4.01904e-05 5.0115e-06 0.000183516 -1.7838e-05 -0.1754866568 0.0554175524
50299700.0 -0.8270039762 0.0537404837 -7.61636e-05 -0.0002281765 4.33626e-05 -6.72332e-05 -0.1705503194 0.056807952
55299670.0 -0.8287501281 0.064150374 4.83494e-05 2.71739e-05 -0.0001027659 0.0001535287 -0.1666973446 0.0579578242
60299640.0 -0.8299743497 0.0745086579 2.35346e-05 -2.9032e-05 1.47149e-05 3.12849e-05 -0.1621979134 0.0584918968
65299610.0 -0.8311610955 0.0843214869 1.70127e-05 -5.41876e-05 -0.0001625394 8.86988e-05 -0.1584893101 0.0590676844
70299580.0 -0.8312875096 0.0945723004 -1.9596e-05 -3.00318e-05 1.27476e-05 -4.31741e-05 -0.1553375822 0.0591216811
75299550.0 -0.8313065123 0.1046733113 0.0001142957 0.0001264647 0.0001221948 0.0001461228 -0.1526113689 0.0594683122
80299520.0 -0.8313977794 0.1147874407 -1.53353e-05 0.000172501 0.0001055182 0.0002087421 -0.1501350332 0.059500377
85299490.0 -0.8306938278 0.1241096862 0.0002009189 5.09558e-05 1.24299e-05 -9.03445e-05 -0.1475872501 0.0596302818
90299460.0 -0.8297745687 0.1340357571 3.20018e-05 0.000164747 -4.01516e-05 -4.14143e-05 -0.1453951239 0.0595342739
95299430.0 -0.8286986129 0.1437032729 0.0002655758 -3.31878e-05 5.18546e-05 4.38861e-05 -0.1433857237 0.0594557996
100299400.0 -0.8275577612 0.1529367038 -2.26446e-05 9.16764e-05 3.43651e-05 7.76139e-05 -0.1417454411 0.0594331306
105299370.0 -0.8266817052 0.1620269801 5.7991e-05 1.51423e-05 0.0001249074 -8.57066e-05 -0.1400224039 0.059407805
110299340.0 -0.8253095887 0.1710948987 0.0001074089 4.91904e-05 -1.99525e-05 2.21299e-05 -0.1387871653 0.0597125971
115299310.0 -0.8233902074 0.1806332542 -0.0002149659 7.43566e-05 7.75413e-05 8.74771e-05 -0.137180481 0.0590312044
120299280.0 -0.8221653818 0.1893682317 7.72318e-05 0.0002257571 -4.71276e-05 -7.282e-05 -0.1359362214 0.059498613
125299250.0 -0.8205024649 0.1986179551 0.0001161991 -1.9816e-06 -1.64967e-05 0.0001137719 -0.1351807425 0.059459272
130299220.0 -0.8183338382 0.2077509354 0.0001444493 7.42625e-05 -0.0002389279 -0.000107449 -0.1341667145 0.059943834
135299190.0 -0.8167638017 0.216688306 0.0001317453 0.0001771313 0.0001143832 -6.56391e-05 -0.1332161592 0.0595521937
140299160.0 -0.814777992 0.2254426746 3.29881e-05 8.26694e-05 -6.28349e-05 0.0001293678 -0.1321274109 0.0599219772
145299130.0 -0.8119860015 0.2343176502 -4.07077e-05 -0.0001931753 2.1119e-06 -3.37425e-05 -0.1319877619 0.0602049346
150299100.0 -0.8100131864 0.243106001 0.0001385538 -8.4367e-05 2.9179e-06 0.0001164786 -0.1310771697 0.0604106292
155299070.0 -0.8075191822 0.252270436 0.0001165837 -0.0001405954 -8.0315e-06 8.29468e-05 -0.1305550418 0.0607549812
160299040.0 -0.8048790145 0.2613371448 6.87732e-05 3.92344e-05 -6.34452e-05 4.91109e-05 -0.1293747471 0.0614076876
165299010.0 -0.8023116255 0.2693853965 -9.89706e-05 0.0001651071 -0.0001006926 -0.0001637362 -0.1291539884 0.0619536189
170298980.0 -0.7993343125 0.2781356329 -6.06729e-05 6.20724e-05 0.0002225796 9.97791e-05 -0.1284285427 0.0624470278
175298950.0 -0.796775618 0.2870375005 9.81337e-05 -5.73647e-05 7.93598e-05 7.17915e-05 -0.127958458 0.0625216305
180298920.0 -0.7935633712 0.2945581113 1.00351e-05 9.43414e-05 -8.412e-06 0.0001780424 -0.1271924717 0.0630970684
185298890.0 -0.7910380657 0.3040839984 -1.8064e-06 9.34999e-05 0.0001432162 5.681e-07 -0.1269292122 0.0636005465
190298860.0 -0.787560887 0.3122534095 5.54584e-05 0.0001021403 -0.0001754753 0.0001969055 -0.1260626626 0.0644488991
195298830.0 -0.7835784758 0.3205945652 0.0001288371 0.0001582591 -0.0001510658 0.0001076843 -0.1254492467 0.0649280477
200298800.0 -0.780884108 0.3293515536 0.0001542428 0.0001682194 6.00821e-05 -9.9806e-06 -0.1248009074 0.0654148404
205298770.0 -0.7774349549 0.3369601279 0.0002186773 -0.0001460046 0.0001395057 9.63296e-05 -0.1247641192 0.0662651888
210298740.0 -0.7735219274 0.345736561 -1.72059e-05 0.0001229081 0.0001573883 0.0001600806 -0.1242632535 0.0673013121
215298710.0 -0.7697932449 0.3542689962 0.0002004916 -0.0001315972 2.16268e-05 0.0001007278 -0.123798002 0.0679176125
220298680.0 -0.7670740785 0.3625184686 0.0001989372 -6.30996e-05 0.0002793513 0.0001428665 -0.1231084572 0.0688855077
225298650.0 -0.762931098 0.3710012905 0.0002744941 6.8379e-05 0.0002469175 0.0001663134 -0.123040635 0.0698322029
230298620.0 -0.7584680393 0.3791831962 -6.07236e-05 0.000106644 9.22233e-05 -8.93338e-05 -0.1221286649 0.0704892589
235298590.0 -0.7544171044 0.3870322206 0.0001039664 0.0003099005 0.0001125668 5.54688e-05 -0.121624563 0.0708480603
240298560.0 -0.7510671765 0.3946627069 0.0001019413 2.09251e-05 0.000112254 2.85568e-05 -0.121407448 0.0721685606
245298530.0 -0.74653668 0.4025252959 6.53225e-05 -0.0001131503 0.0002672164 0.0002066491 -0.1206382176 0.0731605126
250298500.0 -0.7425643353 0.410440485 8.74441e-05 7.89854e-05 5.15948e-05 9.56237e-05 -0.1197461158 0.0740789127
255298470.0 -0.7379703561 0.4189634164 1.29453e-05 0.0002683412 0.0001133832 -4.8642e-06 -0.1194021586 0.074732323
260298440.0 -0.7335903598 0.425774667 0.0001179348 8.69594e-05 0.0002043797 0.0001707622 -0.1190233411 0.0757131777
265298410.0 -0.7295857996 0.4341891045 0.0001439318 4.78065e-05 0.0002893927 0.0001286033 -0.1183794117 0.0767660161
270298380.0 -0.7241933966 0.4418507963 0.0001028964 0.0002341569 4.27022e-05 4.55628e-05 -0.1175869179 0.0774345934
275298350.0 -0.7195737803 0.4490744136 0.0001168662 6.61658e-05 -9.75728e-05 0.0003778815 -0.117161269 0.0787819514
280298320.0 -0.7151886445 0.4566634695 5.0223e-05 0.000310007 6.9397e-06 0.0001411982 -0.1164435782 0.0796282057
285298290.0 -0.7098130435 0.4644749042 4.7304e-05 -5.4133e-05 0.0001613932 5.50851e-05 -0.1160351217 0.0808417168
290298260.0 -0.7053282253 0.4717317372 0.0001462141 4.14479e-05 7.53974e-05 2.85133e-05 -0.1150353957 0.0821606962
295298230.0 -0.700153787 0.4791921052 7.73643e-05 4.67756e-05 0.0001283551 4.86964e-05 -0.1147656488 0.0828799794
300298200.0 -0.6948144786 0.4862803252 0.0002858745 9.71461e-05 0.0003335051 2.04379e-05 -0.1140121038 0.0839053566
305298170.0 -0.6898737577 0.4946247648 -0.0001120716 0.0002762863 -3.26567e-05 0.0001830243 -0.1129243005 0.0851547554
310298140.0 -0.6843348093 0.5006034442 0.0002519557 0.0001081527 0.000126843 -2.69838e-05 -0.1123749959 0.0862290077
315298110.0 -0.6794359626 0.5079219135 0.000143581 0.0001690094 0.0001583366 -6.9926e-06 -0.1114701128 0.0872663624
320298080.0 -0.6741330263 0.5155284511 5.344e-05 7.018e-07 0.0002114046 0.0001035991 -0.1110816937 0.0879611856
325298050.0 -0.6679510556 0.5222326606 3.10046e-05 3.93746e-05 0.0001389079 -0.0001153787 -0.1104937432 0.0893085642
330298020.0 -0.6629690399 0.5290370387 -6.85779e-05 6.7302e-06 -1.20192e-05 3.0155e-05 -0.1095720929 0.090318267
335297990.0 -0.6573027585 0.5364656688 -5.28324e-05 0.0001108302 0.0003005414 -2.19049e-05 -0.1091031544 0.0911392208
340297960.0 -0.6522019672 0.5424962625 0.0002011882 0.0002414574 4.3051e-05 -0.00017109 -0.1085262863 0.0924973673
345297930.0 -0.6465445462 0.549317788 -4.27545e-05 -0.0001314851 -0.0001574971 0.0002314315 -0.1078336046 0.0935886018
350297900.0 -0.640267119 0.5561201798 7.35669e-05 6.86701e-05 0.0001044278 0.0001012413 -0.1067864443 0.0947873596
355297870.0 -0.6341161152 0.5625359074 0.0001917956 0.0001087473 9.684e-06 -6.32309e-05 -0.1064641033 0.0959948124
360297840.0 -0.6284522511 0.5691715913 0.0001990701 4.42261e-05 0.000239037 0.0001627526 -0.1056945458 0.0971516612
365297810.0 -0.6220660866 0.5759598446 0.0001263494 -8.19492e-05 0.0002590934 -0.00021763 -0.1048836966 0.0985287759
370297780.0 -0.6159588091 0.5817216228 5.09767e-05 9.50506e-05 8.84683e-05 6.68426e-05 -0.1046297446 0.0992846257
375297750.0 -0.6100319866 0.588548497 0.0002068463 2.0004e-06 0.0001801154 0.0002261474 -0.1032646081 0.1008360719
380297720.0 -0.6041153922 0.5951339193 0.0001889887 8.73116e-05 0.0003938615 0.000251963 -0.1025659647 0.1019411631
385297690.0 -0.5980668662 0.6015328445 0.0002063936 0.0001744635 1.10175e-05 1.66498e-05 -0.1019049227 0.103489694
390297660.0 -0.5919253672 0.6070456087 0.0002190803 -4.6902e-06 0.0001455537 0.0001423133 -0.1014603291 0.1040793336
395297630.0 -0.5851514624 0.6133741854 0.0002741099 -1.09957e-05 0.0001694371 0.0001112212 -0.1004709954 0.1053275291
400297600.0 -0.5789347806 0.6193764053 6.4279e-05 0.0002142312 0.0002499295 -2.6789e-06 -0.099292561 0.1060122184
405297570.0 -0.5726963587 0.6251795666 1.33072e-05 8.6646e-06 0.0004201708 -7.90867e-05 -0.0988780905 0.1078661735
410297540.0 -0.5652979592 0.6305478635 0.0002929799 5.78885e-05 5.10998e-05 -0.0001354751 -0.0976891173 0.1088253939
415297510.0 -0.5592399288 0.6363332322 0.0001367266 0.0001289441 7.7099e-05 0.0002165525 -0.0971075214 0.1105164956
420297480.0 -0.5516971118 0.6421624325 0.0002365827 4.30714e-05 0.000332579 -2.8501e-06 -0.0960931358 0.1111893453
425297450.0 -0.5454190662 0.6480212323 8.68595e-05 8.39311e-05 0.0003344719 -9.6028e-06 -0.0947858556 0.1122288553
430297420.0 -0.5390706035 0.653449212 0.0002389838 2.4717e-05 5.88237e-05 8.13505e-05 -0.0941557679 0.1134897429
435297390.0 -0.5321121227 0.6588040935 0.0002866282 -1.97547e-05 0.0001693517 0.0002087775 -0.0928344008 0.1144449487
440297360.0 -0.5255436769 0.6640957705 6.34262e-05 0.0001198246 0.0001033594 0.0001650759 -0.0926159831 0.1156602128
445297330.0 -0.5185325993 0.6700725836 0.0003800834 -2.6253e-05 0.0002889546 9.36055e-05 -0.0916005768 0.1166911033
450297300.0 -0.5114660925 0.6744691992 5.53402e-05 0.0002215316 -7.45203e-05 1.81758e-05 -0.0905210908 0.1178896723
455297270.0 -0.5040679014 0.6800622093 0.0001165976 0.0003485431 8.72177e-05 0.0002104666 -0.0893015629 0.1187686064
460297240.0 -0.4975413751 0.6851262944 8.68059e-05 0.0002015483 0.0002721891 0.00011996 -0.0884920668 0.1198989716
465297210.0 -0.4900065345 0.6906862181 0.0003207024 5.03437e-05 6.23865e-05 -1.49547e-05 -0.0875897465 0.1208263553
470297180.0 -0.4825923014 0.695241586 3.9005e-06 0.0001336852 0.0002861093 0.0001139974 -0.0869914547 0.122024611
475297150.0 -0.4756790843 0.7001899838 0.0001504248 0.000142785 0.0002229889 4.90874e-05 -0.085291834 0.123098991
480297120.0 -0.4687615741 0.7045001614 0.0001860737 0.0001393331 0.0002447586 -0.0001039305 -0.0847586881 0.1242498997
485297090.0 -0.4613789 0.7095470536 0.0001017866 -0.000236921 0.0003681932 4.34904e-05 -0.0835782109 0.1250918641
490297060.0 -0.4541622258 0.7142362572 0.0002911707 0.0001329754 0.0001068321 0.0001493569 -0.0827163161 0.1260593383
495297030.0 -0.4466771457 0.7186602578 0.000261425 8.42407e-05 0.0001613187 0.0001510972 -0.0815239482 0.1269068424
500297000.0 -0.4386268244 0.7233450257 0.0003801873 0.0001327358 0.0002443243 -4.0406e-05 -0.0806399563 0.1277264168
505296970.0 -0.4313103513 0.7273361891 0.0001404067 -3.40561e-05 0.0003300345 -0.0003480893 -0.0798501927 0.1291929491
510296940.0 -0.4239304321 0.7323375777 0.0003378157 0.0001034468 0.0002079255 -5.52276e-05 -0.07829688 0.1302976816
515296910.0 -0.4172428826 0.7366499906 0.0003012235 6.01233e-05 0.0002633348 0.0001963221 -0.0770883336 0.1308962834
520296880.0 -0.4092573196 0.7408104374 0.000116619 0.0001634977 5.22961e-05 -5.98018e-05 -0.0760130153 0.1317710197
525296850.0 -0.4019880695 0.7444745252 0.0001012403 3.4358e-06 0.000139244 0.0002700454 -0.0747944769 0.132689791
530296820.0 -0.3945265704 0.7482104357 0.000299684 3.9311e-06 9.13207e-05 0.0001156401 -0.0741945689 0.1337377321
535296790.0 -0.3859418879 0.7523401863 0.0003352656 -0.0001541799 0.0003048183 1.59651e-05 -0.0729711529 0.1341558608
540296760.0 -0.3782567806 0.7558303778 0.0003880809 -6.3733e-06 0.0002944023 -0.0001266663 -0.072001691 0.1354753835
545296730.0 -0.371038704 0.7596179911 0.0001986238 0.0002336991 5.95573e-05 6.06209e-05 -0.0706372982 0.1361545537
550296700.0 -0.3633007666 0.7636849623 0.0001069768 0.0001325055 0.0002054534 0.0001215523 -0.0695016211 0.1367645673
555296670.0 -0.3549963527 0.7667356972 1.2831e-06 -0.0002089932 0.0002766782 8.2949e-05 -0.0683016594 0.1380015096
560296640.0 -0.3467807764 0.7708971416 0.0002158237 0.0001153208 0.0002772701 9.37007e-05 -0.0669814757 0.1386946659
565296610.0 -0.3398982179 0.7737977747 0.0003939164 0.0001092403 0.0001354966 0.0001508373 -0.0657858638 0.1398792766
570296580.0 -0.3318309576 0.7776502972 0.0001345905 0.000109247 0.0001612902 -0.000141596 -0.0646137038 0.1407846747
575296550.0 -0.3238736075 0.7806306311 0.0003162784 -6.02429e-05 0.0001821991 0.0001592966 -0.0630303789 0.1414260093
580296520.0 -0.3153983239 0.7839793919 0.0001296516 -2.80579e-05 9.07464e-05 -0.0001487856 -0.0624254169 0.1420875336
585296490.0 -0.307903517 0.7866083748 0.0003755935 0.0002597068 0.0003602174 -1.18779e-05 -0.0612831653 0.1425437092
590296460.0 -0.2997034122 0.7895763476 0.0001939657 0.0002463741 0.0002625364 -8.98845e-05 -0.0598315467 0.1434688465
595296430.0 -0.2914551324 0.7937446515 0.0002799477 4.84167e-05 0.0002364919 -7.87798e-05 -0.0586867283 0.1440605451
600296400.0 -0.28322137 0.7957280252 0.0002221642 -8.43662e-05 0.0004307826 3.51975e-05 -0.0569764595 0.1452435632
605296370.0 -0.2748976995 0.7989579796 0.0003697894 -0.0001304357 0.0001262591 1.57913e-05 -0.0559593382 0.1458017331
610296340.0 -0.2675367585 0.8014013313 0.0002716523 0.0001169771 0.0001055595 0.0001081883 -0.0546803209 0.1468309377
615296310.0 -0.2588574051 0.8042134002 0.0002611439 -5.34433e-05 0.0001499572 -1.12671e-05 -0.0532940283 0.1471968942
620296280.0 -0.2508958641 0.8062255066 0.0001748604 9.94532e-05 0.0001458885 -5.57962e-05 -0.0520793811 0.1479032613
625296250.0 -0.2426337928 0.8092988236 5.85607e-05 0.0002442494 0.0004022382 0.0001438 -0.0507518424 0.148961084
630296220.0 -0.2344409693 0.8119400106 0.0002702337 3.61816e-05 0.0004662149 -8.69413e-05 -0.0494498131 0.1494780049
635296190.0 -0.2259332552 0.8141824905 0.0002881546 -3.75153e-05 0.0002015402 -6.5962e-05 -0.0483027718 0.1501843937
640296160.0 -0.2178995254 0.8152163077 0.0002342721 0.0001965132 0.0004261941 -6.808e-06 -0.0465851097 0.1505021552
645296130.0 -0.2098415824 0.8179764496 0.0002961812 4.06329e-05 0.0001791631 -6.667e-06 -0.045609968 0.1512928691
650296100.0 -0.2017828204 0.8205688653 0.0003560623 -0.0001122298 0.0001721006 -4.43216e-05 -0.0444300763 0.1522939408
655296070.0 -0.1933600608 0.8216258889 0.0001391329 -7.88517e-05 -1.02124e-05 7.1182e-06 -0.0430474797 0.1528271053
660296040.0 -0.1856795358 0.8240389099 0.0001996206 -7.4003e-06 0.0001825489 2.6121e-05 -0.0414143572 0.1534600133
665296010.0 -0.1769102059 0.8262433958 6.86077e-05 6.77376e-05 0.0002665973 -2.26923e-05 -0.0402305428 0.1541349285
670295980.0 -0.1675312592 0.8274237112 0.0005597168 -6.37234e-05 0.0002537657 0.0001186917 -0.0389367021 0.1546287385
675295950.0 -0.1600533141 0.8288873839 0.0004495323 7.18506e-05 0.0002302965 9.36512e-05 -0.0374925989 0.155230413
680295920.0 -0.1515105091 0.830219475 0.0003025388 6.7598e-06 0.0002071744 -0.0001222978 -0.0362201855 0.1557442553
685295890.0 -0.1433941385 0.831868908 0.0004980205 0.0001097596 0.0001641591 0.0001276488 -0.0346795589 0.1564367249
690295860.0 -0.1342820527 0.8337302648 0.0001400061 6.89373e-05 0.0003371171 0.0001042069 -0.0330739235 0.1569238639
695295830.0 -0.1261192368 0.8343354808 0.0004347948 -0.0001109098 0.0002603044 0.0001369895 -0.0316479017 0.1572662429
700295800.0 -0.1179643946 0.8359861094 0.0004556264 4.67804e-05 0.0001650367 6.90611e-05 -0.030298624 0.1575660861
705295770.0 -0.1091171476 0.837394021 0.0002607415 -0.0001427507 0.0002052292 0.0001202451 -0.0294279729 0.1583029354
710295740.0 -0.1011579827 0.8378906469 0.0003283561 0.0001017907 0.0003250664 -1.6798e-06 -0.0277100845 0.1588490776
715295710.0 -0.0929199707 0.8390392946 0.0003280937 -5.33061e-05 0.000204642 1.55448e-05 -0.0262396352 0.1590582659
720295680.0 -0.0836899489 0.8392491131 0.0002215489 -2.94319e-05 0.0003298907 5.76456e-05 -0.0245241352 0.1597962442
725295650.0 -0.0752590646 0.84060583 7.8517e-05 -5.60308e-05 0.0003217117 -6.4777e-06 -0.0230450766 0.160087191
730295620.0 -0.0674151906 0.8412721299 0.0003049069 -0.000155445 0.0001308916 -1.84848e-05 -0.0216280536 0.1605115656
735295590.0 -0.0578833531 0.8414206522 0.0002146313 4.33136e-05 0.0002268028 0.0001371488 -0.0204095117 0.1610471566
740295560.0 -0.0501585656 0.8423242383 0.000367008 -5.7417e-06 0.0002643799 -5.99112e-05 -0.0187718675 0.1610812666
745295530.0 -0.0416545188 0.842927403 0.0004462445 2.19456e-05 0.0001576286 3.21106e-05 -0.0174913591 0.1617291102
750295500.0 -0.0336735016 0.8427344872 0.0002439007 0.0002166234 0.0005368008 -6.11534e-05 -0.0158967997 0.1617997621
755295470.0 -0.0239980843 0.8434900539 0.000283968 -6.61228e-05 0.0002817948 -7.75295e-05 -0.0146731641 0.1623609371
760295440.0 -0.0163633096 0.8438117887 0.0003344305 -0.0001061062 0.0004000828 1.0623e-06 -0.0133016245 0.1628620245
765295410.0 -0.0078874849 0.8434330201 0.0002336024 6.18e-05 0.0004382603 -0.0001615482 -0.0111971028 0.1632585437
770295380.0 0.0008019974 0.8439367164 0.0003583276 2.68111e-05 0.000430636 3.05621e-05 -0.0098528721 0.163568053
775295350.0 0.0090354188 0.8439676466 0.0002103713 -4.85054e-05 0.0003261354 -4.46092e-05 -0.0087546463 0.1633379363
780295320.0 0.0180790331 0.8428962204 4.43085e-05 -6.64157e-05 0.0001610657 -0.0001162499 -0.007297707 0.1640152681
785295290.0 0.026475876 0.8438959698 0.0002565634 5.59789e-05 0.0002348093 -8.66382e-05 -0.0059764141 0.1643656726
790295260.0 0.0344167554 0.843254199 0.0002063297 -0.0001832286 0.0002733142 -5.23856e-05 -0.0037621373 0.1643923297
795295230.0 0.0431230189 0.843464476 0.0002859003 -9.49082e-05 0.0001455873 -0.0001761948 -0.0023545152 0.1650235838
800295200.0 0.0511244362 0.842430015 0.0005318721 -0.0001532439 0.0003260525 -0.0001210257 -0.0009088648 0.1649294695
805295170.0 0.0598738802 0.8416428955 0.0001876519 2.512e-05 0.000418087 -6.01146e-05 0.0004005421 0.1652520999
810295140.0 0.0683222346 0.8411679406 7.28861e-05 -0.0001121144 0.0001169809 -5.86117e-05 0.0021794828 0.1655972826
815295110.0 0.077022985 0.8402250068 0.0002764078 -0.0002971985 0.0002373158 -5.19236e-05 0.003802083 0.1661086264
820295080.0 0.0851427192 0.839020482 0.0003953608 4.59463e-05 0.0004895595 -7.05589e-05 0.0052022354 0.165852457
825295050.0 0.0940507173 0.8387097818 0.0002787367 -7.24431e-05 0.0003963253 -2.51544e-05 0.0070289392 0.1661472841
830295020.0 0.102102303 0.837816563 9.08758e-05 4.4131e-05 0.0002875664 -7.99036e-05 0.0078900137 0.166162324
835294990.0 0.1097550781 0.8367079356 0.0001075707 0.0001069261 0.0002291926 -0.0001772456 0.010062456 0.1662143919
840294960.0 0.1188465493 0.8350325117 0.0003600707 -0.0003013513 0.000163256 -3.65743e-05 0.0115343464 0.1663228796
845294930.0 0.1271216229 0.8344691809 0.000245619 -6.2025e-06 0.0003943646 -0.00025125 0.0129819234 0.1664554392
850294900.0 0.1351767394 0.8324069292 0.0002656599 0.0001406857 0.0002336809 -0.0001633681 0.014499955 0.1666737644
