!Created with skrf (http://scikit-rf.org).
# Hz S RI R 50.0 
!freq ReS11 ImS11 ReS21 ImS21 ReS12 ImS12 ReS22 ImS22
300000.0 0.8607392373 -0.0004645128 -0.0011806701 0.0002514835 -0.0005463569 0.0004992432 -0.766433131 -0.2083170176
5299970.0 0.8601498475 -0.0103298012 -0.0001416388 -0.0003050296 1.59377e-05 -4.83002e-05 -0.7844030661 -0.0099517142
10299940.0 0.8584944248 -0.0187307569 -7.87236e-05 -6.21223e-05 -8.85827e-05 5.42762e-05 -0.7871396552 -0.0057716492
15299910.0 0.8579979858 -0.0275427553 8.92938e-05 5.2819e-05 0.0001759682 0.000249591 -0.7926920687 -0.0030720818
20299880.0 0.8578938706 -0.0357336347 -0.0001216939 4.57986e-05 6.99957e-05 -9.03349e-05 -0.7993578279 0.0018859115
25299850.0 0.8564942892 -0.0435087237 -0.0001919219 1.89208e-05 0.0001341504 3.89934e-05 -0.8059312702 0.0075208951
30299820.0 0.8556923938 -0.0524578552 -0.00013993 0.0002977897 0.0002070175 0.0001287191 -0.8115126348 0.0156071476
35299790.0 0.8551045264 -0.0601288224 -6.62998e-05 -0.0001023145 -0.0002355772 9.18025e-05 -0.8163198753 0.0248902213
40299760.0 0.8550792424 -0.0682586676 5.3986e-05 -1.7125e-05 6.70949e-05 -5.34169e-05 -0.8207825519 0.0338735952
45299730.0 0.8535917975 -0.0762796744 5.60757e-05 2.69885e-05 -0.0001542822 -4.4124e-06 -0.8236464825 0.0438194838
50299700.0 0.8532843703 -0.0846543318 0.0001048768 -0.0003568111 -4.19462e-05 -0.0001014856 -0.8262192471 0.0539186975
55299670.0 0.8524745024 -0.0927171077 3.45855e-05 -6.31252e-05 -8.71839e-05 -0.0001431234 -0.8285005836 0.0638252405
60299640.0 0.8509984667 -0.1013075148 0.0001688981 0.0001966874 1.851e-07 0.0002065123 -0.829572862 0.074122442
65299610.0 0.8501626575 -0.1092735349 -0.0001237025 -6.39069e-05 -3.68166e-05 5.54998e-05 -0.8299718303 0.0839531162
70299580.0 0.8488614226 -0.1173736814 2.4908e-05 -0.0001159994 0.0002493424 7.88241e-05 -0.8306252844 0.0938980576
75299550.0 0.8475839577 -0.1255684217 5.0543e-05 -4.98077e-05 3.34303e-05 0.0001219634 -0.8299701386 0.1044011919
80299520.0 0.8460382228 -0.1335461533 -1.89537e-05 -4.78189e-05 2.29309e-05 0.0001014094 -0.8303317449 0.1138238184
85299490.0 0.8451449363 -0.1415690166 -0.0002570384 -5.62494e-05 1.99195e-05 -0.0001744913 -0.8297420777 0.1235442796
90299460.0 0.8443870943 -0.150239365 0.0001049384 7.33739e-05 3.74048e-05 -9.20136e-05 -0.8284122234 0.1328936655
95299430.0 0.8423273465 -0.1579409863 9.36358e-05 8.08732e-05 0.0001143412 -0.0001426728 -0.8279928138 0.1426428377
100299400.0 0.8406086012 -0.1661189262 3.41559e-05 -8.4872e-06 0.0001238991 2.11669e-05 -0.8270995243 0.1515946194
105299370.0 0.8395752959 -0.1742358624 0.0001127922 9.41207e-05 0.0001622666 -8.71233e-05 -0.8254832797 0.1609488981
110299340.0 0.8372518162 -0.1829736924 -0.0001337673 -6.14425e-05 -0.0001736644 -6.52242e-05 -0.8240048782 0.1695442772
115299310.0 0.8362058841 -0.190431867 -0.0001388686 -0.0001030156 0.0001382425 0.0001629038 -0.8227471138 0.178982128
120299280.0 0.8341387692 -0.1986993567 0.0002167091 -7.72708e-05 9.153e-07 8.0403e-06 -0.8209779825 0.1880470549
125299250.0 0.8317516416 -0.2062688244 8.3657e-05 -0.00018989 0.0002367107 -1.84137e-05 -0.8192658077 0.1970973277
130299220.0 0.8299698524 -0.2145978769 0.0002432338 0.0001488264 -0.000215411 -5.46333e-05 -0.8172483642 0.2057705065
135299190.0 0.8283564106 -0.2229600497 8.68626e-05 -8.19247e-05 -2.59035e-05 1.00659e-05 -0.8159308273 0.2151331678
140299160.0 0.8256546139 -0.2302678758 -0.0003321787 2.86392e-05 -3.13188e-05 -9.9444e-06 -0.8133892584 0.2232260633
145299130.0 0.8233628052 -0.2379985298 -0.000132646 -3.39272e-05 -4.7698e-05 0.000114161 -0.8114084784 0.232588436
150299100.0 0.8207457156 -0.2459773649 7.1511e-05 -9.5959e-06 -0.0001014219 -0.0002128327 -0.8094517638 0.2415807915
155299070.0 0.8187183966 -0.2540081748 0.0001790624 -6.24788e-05 -6.77042e-05 -3.97326e-05 -0.8070569994 0.2508116724
160299040.0 0.8159569094 -0.2621091407 -1.0549e-05 0.0001729858 2.21125e-05 5.50116e-05 -0.8042879757 0.2590315548
165299010.0 0.8133174671 -0.2696224624 5.8935e-06 0.0001361026 -0.0001377753 5.19006e-05 -0.8015370915 0.2674460279
170298980.0 0.8119430215 -0.277603577 -1.01962e-05 -0.0001012542 1.01782e-05 -2.7145e-06 -0.7995102528 0.2754289443
175298950.0 0.8086908337 -0.2856105401 2.54505e-05 -7.16473e-05 4.67926e-05 0.0001336336 -0.7963322098 0.2850149364
180298920.0 0.805894495 -0.293428251 -9.20683e-05 3.82493e-05 -7.207e-07 -7.24766e-05 -0.7928411218 0.2932833546
185298890.0 0.802608476 -0.3009539155 0.0002182724 -6.54706e-05 0.0001754507 2.1321e-05 -0.7897157164 0.301867054
190298860.0 0.7997416258 -0.3090259223 4.31925e-05 -8.22536e-05 -3.08904e-05 -4.26313e-05 -0.7871080935 0.3099652292
195298830.0 0.7969729216 -0.3159024692 0.0001303414 -4.18633e-05 -7.39223e-05 -7.0249e-05 -0.7840548767 0.3177672084
200298800.0 0.7939075322 -0.3232853056 0.0002364551 1.21114e-05 0.0002792762 -6.33171e-05 -0.7808776594 0.3267040596
205298770.0 0.7910438464 -0.331849607 3.56342e-05 9.24685e-05 -0.0002212113 6.92914e-05 -0.7769124549 0.3351374678
210298740.0 0.78815747 -0.3387817719 -2.47604e-05 -3.90142e-05 1.55904e-05 -0.0001414188 -0.77403411 0.3433379722
215298710.0 0.78447019 -0.3470712759 0.0001780615 4.67676e-05 0.0002024593 -7.57323e-05 -0.7700927009 0.3514159475
220298680.0 0.7809943302 -0.3542312968 2.97385e-05 0.0001515503 -4.65974e-05 0.0001418881 -0.7662276789 0.3592825006
225298650.0 0.7773911825 -0.3615044029 8.76349e-05 0.0002657477 -4.33075e-05 -0.0002616297 -0.7625177592 0.3676289127
230298620.0 0.7738812875 -0.3689411617 -0.0002640183 5.74609e-05 8.76552e-05 3.74953e-05 -0.7587639074 0.3755040869
235298590.0 0.7705534645 -0.3763010007 2.5165e-05 -0.0001377305 -7.5309e-06 1.86118e-05 -0.7547944128 0.3835382501
240298560.0 0.7666696234 -0.3831161734 -1.97965e-05 -0.0001144388 -0.0001022496 -5.8867e-05 -0.7509536581 0.3907102363
245298530.0 0.7626005189 -0.3907944385 8.73667e-05 1.72797e-05 -9.11318e-05 -1.88259e-05 -0.747067694 0.3989540677
250298500.0 0.7591832014 -0.3981750859 -6.46682e-05 -0.0002210173 -0.0001485854 -0.0001215405 -0.7424466654 0.4070391841
255298470.0 0.7550690079 -0.4053306887 0.0001297349 0.0003555738 3.11587e-05 1.92895e-05 -0.7391126243 0.4145919873
260298440.0 0.7518244419 -0.4125064094 0.0001805445 -1.1934e-05 -0.0001273476 4.42745e-05 -0.7338594321 0.4217534938
265298410.0 0.7471103991 -0.4195916549 -0.0001145858 0.0001036192 0.0001427918 -0.000175833 -0.729647524 0.4300661036
270298380.0 0.743396056 -0.4270821029 0.0001719161 -7.56475e-05 0.0001268466 0.0001541438 -0.7249071497 0.4380461746
275298350.0 0.7394200598 -0.4341370927 -2.51283e-05 0.0001631636 -0.0001001579 -3.21054e-05 -0.7201463299 0.4458333309
280298320.0 0.7349410963 -0.4411046003 5.98869e-05 3.24858e-05 8.2875e-06 -6.29936e-05 -0.7161496279 0.4526153924
285298290.0 0.7310319063 -0.4488859155 9.0947e-05 -7.05473e-05 2.8324e-06 0.0001617584 -0.7120018095 0.4607246281
290298260.0 0.726255064 -0.455841321 0.0001624549 1.78859e-05 -0.0001683662 0.0001037978 -0.7060604648 0.4677019839
295298230.0 0.7225339502 -0.4625114422 6.21778e-05 -0.0001127226 1.43064e-05 -0.0001121739 -0.701181365 0.4749857117
300298200.0 0.7179666109 -0.4697179863 -3.1157e-06 -0.0001030538 -4.82726e-05 -4.20879e-05 -0.6967060049 0.4826359026
305298170.0 0.7139053461 -0.4774333455 -2.06721e-05 0.0001229625 2.88068e-05 6.28316e-05 -0.6911767275 0.48973036
310298140.0 0.7093127228 -0.4851268914 0.0001621842 -7.95913e-05 2.04489e-05 -6.2012e-06 -0.6859331543 0.4969183545
315298110.0 0.7035480793 -0.4921576011 0.0001062861 0.0001416639 -7.85641e-05 6.1143e-06 -0.6814119506 0.503799293
320298080.0 0.6985247303 -0.4994665388 2.60179e-05 9.82008e-05 0.0001232517 3.35474e-05 -0.6756025557 0.5102739044
325298050.0 0.6921161637 -0.5069724396 -0.0002026157 -5.48533e-05 3.76302e-05 0.0001753689 -0.6701501383 0.5179695964
330298020.0 0.6868291498 -0.5137318331 6.89034e-05 -8.74172e-05 9.9259e-06 -8.74463e-05 -0.6647543434 0.5248268577
335297990.0 0.6813470586 -0.5195227462 -6.84732e-05 -0.0002032224 -1.86424e-05 -3.52473e-05 -0.6591596824 0.5313002164
340297960.0 0.6757008563 -0.5257091406 -0.0001256596 -8.60595e-05 1.53971e-05 -6.6179e-05 -0.6542926622 0.5383030752
345297930.0 0.670286982 -0.5323186228 -0.0001000062 1.6966e-06 -7.64073e-05 -1.3419e-06 -0.6482967882 0.5446435063
350297900.0 0.6653494229 -0.5378256699 -4.91123e-05 6.45011e-05 -2.07331e-05 -6.44184e-05 -0.6429306911 0.5512183708
355297870.0 0.6598662856 -0.5444820848 -3.65468e-05 0.000107988 -6.91188e-05 -4.13528e-05 -0.6365732305 0.5589119509
360297840.0 0.6543951262 -0.5507017855 1.9147e-06 3.57957e-05 0.0001190829 -5.63472e-05 -0.6307577199 0.5651385473
365297810.0 0.6488686202 -0.557092471 -9.36008e-05 0.0003537895 0.0001109698 6.13502e-05 -0.6257443364 0.5709384404
370297780.0 0.6433668286 -0.5632359007 0.0001893062 -0.0002380532 5.7312e-05 -0.0001582541 -0.6196814776 0.5778098279
375297750.0 0.6377081623 -0.5689695087 -3.78966e-05 -6.33752e-05 -4.98553e-05 0.0001399164 -0.6129273229 0.5842490853
380297720.0 0.6320395235 -0.5747389551 3.17196e-05 -0.000130555 0.0001285797 -5.04324e-05 -0.6068815351 0.591154417
385297690.0 0.6261679124 -0.5814391467 0.0001060363 1.00367e-05 6.19366e-05 -5.9855e-06 -0.6014588051 0.5965478093
390297660.0 0.62112577 -0.5872378801 -0.0001408749 -0.0001508042 9.19822e-05 6.9726e-06 -0.5943748639 0.6022302267
395297630.0 0.6149858584 -0.5919652321 -9.05893e-05 -9.26914e-05 7.8901e-06 -0.0002117113 -0.5877748417 0.6077693576
400297600.0 0.6092626531 -0.5986436252 6.66165e-05 4.37428e-05 1.5195e-06 8.519e-05 -0.5825097255 0.61420787
405297570.0 0.6031821114 -0.6049784399 -0.0002263918 0.000148892 -0.0002309573 -0.0001831026 -0.5754792181 0.6203103031
410297540.0 0.59823142 -0.6093811318 -4.21004e-05 -0.0001065438 0.0001084924 -0.0001077202 -0.5692439941 0.6261037256
415297510.0 0.5919023965 -0.6159019617 -0.0001101343 -3.2494e-05 0.0001879138 6.86945e-05 -0.5627627751 0.6314391655
420297480.0 0.5861695004 -0.6220794136 -0.0001009813 6.10534e-05 0.0001097629 0.0001290732 -0.5560803087 0.6380244078
425297450.0 0.5797909127 -0.6273697947 0.0001495704 -7.41983e-05 -0.000173703 8.12326e-05 -0.5493729661 0.6429079446
430297420.0 0.5735166383 -0.6334279691 -7.887e-07 -3.54275e-05 4.39805e-05 3.01591e-05 -0.5424061507 0.6488862738
435297390.0 0.5671468441 -0.6385863266 2.69188e-05 -6.14136e-05 0.0001750652 -0.0001135241 -0.536806977 0.6542050908
440297360.0 0.5608114727 -0.6435767663 0.0001181208 1.86708e-05 -7.33259e-05 -2.01221e-05 -0.5301468808 0.6594276333
445297330.0 0.555781355 -0.6493950626 -0.0002000984 0.0002041843 6.18467e-05 -2.36282e-05 -0.5225324643 0.6645152335
450297300.0 0.5488903808 -0.6551098368 6.9398e-05 -0.0001851986 -5.81516e-05 -7.45386e-05 -0.5158311987 0.6695385473
455297270.0 0.5423326621 -0.6603473029 -0.0002462176 -1.31735e-05 -0.0001094105 1.95211e-05 -0.5087771194 0.675472326
460297240.0 0.5359000293 -0.6647763841 7.93858e-05 8.71626e-05 -0.0001555111 0.0002501718 -0.5022248504 0.6804492906
465297210.0 0.5290763263 -0.6701316142 -6.3429e-05 0.0001604921 -0.0001335403 -1.90718e-05 -0.4950090614 0.6862527181
470297180.0 0.5229787755 -0.6756271125 0.0001276276 -3.52133e-05 0.0001243971 -3.60578e-05 -0.4879350755 0.6905496137
475297150.0 0.5162039442 -0.6807247941 0.0001393806 -5.23837e-05 -0.0001666906 0.0001013251 -0.4808400729 0.696157741
480297120.0 0.5101029853 -0.6856294384 -8.65044e-05 2.74265e-05 5.89569e-05 -1.417e-05 -0.4742440346 0.7003940385
485297090.0 0.5030723179 -0.6902735987 -3.82749e-05 0.0001089113 -0.00027132 -0.0001043226 -0.4669848296 0.7051974252
490297060.0 0.4971411815 -0.694784563 2.44115e-05 -3.24438e-05 -8.26982e-05 -1.7355e-05 -0.4597454101 0.7092036404
495297030.0 0.490145451 -0.6999925073 -0.0002401984 0.0001438622 2.12384e-05 -0.0001252729 -0.4525286947 0.713287034
500297000.0 0.4836459238 -0.7044994939 -0.0001320967 0.0003278084 -9.48843e-05 0.0001544638 -0.4451355265 0.718674881
505296970.0 0.476346221 -0.7089700573 -4.58815e-05 -2.45234e-05 -2.85868e-05 -0.0002559164 -0.4374298135 0.7226469944
510296940.0 0.4694434626 -0.7134509719 0.0001107915 7.16548e-05 -0.0001474452 -9.68278e-05 -0.4300038074 0.7279281939
515296910.0 0.4622458703 -0.7184105679 -9.57866e-05 0.00012236 -4.12456e-05 -9.61084e-05 -0.4232028539 0.7315014218
520296880.0 0.4564879047 -0.7228424962 -9.78333e-05 8.54141e-05 4.09549e-05 3.78119e-05 -0.4147062291 0.7362193954
525296850.0 0.4491091669 -0.7271186126 0.0001792426 -1.38062e-05 7.99626e-05 0.0001771173 -0.4080179416 0.7395975816
530296820.0 0.4423766971 -0.7320808588 -0.0001763585 -2.23954e-05 4.99837e-05 -9.28164e-05 -0.4006636283 0.7436686262
535296790.0 0.4351355581 -0.7359231138 2.07947e-05 -4.65778e-05 1.65861e-05 -9.82685e-05 -0.3926988409 0.7477893826
540296760.0 0.4286980624 -0.7397607157 0.0001736053 -3.063e-07 -0.0001008648 -2.2869e-06 -0.3849034621 0.7513727094
545296730.0 0.420229675 -0.7440288457 -0.000181231 5.78408e-05 -1.24434e-05 5.862e-06 -0.3774244534 0.7554460309
550296700.0 0.4128761649 -0.7476402855 6.1843e-05 -0.0001295932 -8.3562e-05 -9.48169e-05 -0.3700616073 0.7593308585
555296670.0 0.4056865922 -0.7517530816 -5.05072e-05 -0.0001606296 -6.09012e-05 6.43438e-05 -0.363313192 0.7627348953
560296640.0 0.3990602133 -0.7551676052 -3.95824e-05 6.0442e-06 -3.22591e-05 -0.0002326362 -0.3544948097 0.7668489901
565296610.0 0.3918938921 -0.7594440626 1.53063e-05 -8.784e-05 -7.9135e-06 -2.76343e-05 -0.3462136521 0.7700788258
570296580.0 0.3840306488 -0.7630631199 -0.0001007634 -7.3103e-06 -0.0002078188 -7.38226e-05 -0.3392853382 0.7728909557
575296550.0 0.3772472719 -0.7667074037 -7.07416e-05 -4.60549e-05 4.777e-06 -6.16642e-05 -0.3311589187 0.776561794
580296520.0 0.3693142678 -0.7702610478 -0.0001555374 0.0003452174 -5.69312e-05 0.0001515036 -0.323847746 0.7796286246
585296490.0 0.3618574584 -0.7726815713 -7.19e-05 -3.27496e-05 3.8416e-05 6.33148e-05 -0.315538571 0.7830744168
590296460.0 0.3540469938 -0.7758608766 0.0001103416 5.44807e-05 0.0001363428 -8.10066e-05 -0.3077554856 0.7861787585
595296430.0 0.3464498275 -0.7799430382 4.74746e-05 0.0002039547 0.0002516516 9.461e-06 -0.2992495598 0.789283093
600296400.0 0.3390075535 -0.7833933536 9.75562e-05 -0.0002465266 3.04793e-05 -2.9003e-06 -0.2919924447 0.7920703224
605296370.0 0.3308013402 -0.7864186002 -2.13609e-05 -5.67057e-05 -8.39502e-05 -2.5048e-05 -0.2832916996 0.7953615194
610296340.0 0.3234890487 -0.7894459956 0.00013331 -2.22789e-05 -0.0001032899 8.478e-07 -0.2762006248 0.797895087
615296310.0 0.3154889898 -0.7925379757 0.0001395336 9.12821e-05 3.57919e-05 -8.56783e-05 -0.26757896 0.8009042707
620296280.0 0.3083266806 -0.7948954262 0.0001306609 4.60335e-05 0.0001769099 -2.06856e-05 -0.2598579918 0.8034067944
625296250.0 0.2996055101 -0.7980918167 0.0001096044 4.21971e-05 -3.68911e-05 -8.65345e-05 -0.2518039994 0.805250709
630296220.0 0.2916728899 -0.8004257918 -0.0002800438 -0.0001638617 2.74837e-05 -3.47405e-05 -0.2433014267 0.8082991799
635296190.0 0.2841564649 -0.8038519954 0.0001187121 8.34152e-05 1.96186e-05 0.0001193285 -0.2359765792 0.8104081028
640296160.0 0.2762742361 -0.8056717483 3.4012e-06 -8.87116e-05 8.17169e-05 8.7247e-06 -0.226593821 0.8126762092
645296130.0 0.2691392447 -0.8083305853 5.32043e-05 3.35456e-05 8.52488e-05 0.0001021582 -0.2191492979 0.814441953
650296100.0 0.2600221415 -0.8108503237 7.51981e-05 8.00422e-05 1.34025e-05 -1.43626e-05 -0.210801661 0.8170474832
655296070.0 0.2523636411 -0.812975786 8.1496e-06 3.42373e-05 -0.0001878309 -9.78235e-05 -0.2033693059 0.8193183719
660296040.0 0.2440707612 -0.8153950678 9.7353e-05 9.83489e-05 4.57602e-05 -0.0001391307 -0.1942086319 0.820874072
665296010.0 0.235932086 -0.8171725829 9.4842e-06 -9.33639e-05 -9.98562e-05 -0.0002067555 -0.1862061855 0.8223222648
670295980.0 0.2277630254 -0.8195463177 -8.50367e-05 -0.0001755789 -8.5452e-06 0.0002344093 -0.1785616155 0.8241226942
675295950.0 0.2197099532 -0.8221872342 9.66019e-05 -0.0001423665 0.0001847637 3.66378e-05 -0.1698996661 0.8266472677
680295920.0 0.2115190518 -0.8234781945 0.0001063384 1.49045e-05 5.99188e-05 6.98267e-05 -0.1613020494 0.8277243606
685295890.0 0.203165699 -0.8250557644 -0.0001510205 -7.74843e-05 -3.73586e-05 4.52188e-05 -0.1532503255 0.829773544
690295860.0 0.1952322444 -0.8270187265 -0.0002045041 3.56607e-05 -3.50235e-05 -0.0001009662 -0.1451368505 0.8309118478
695295830.0 0.1866886091 -0.8286367301 -0.0001977379 0.0001332385 0.0002357267 7.0975e-05 -0.1371885912 0.8327843361
700295800.0 0.1782652496 -0.830087327 9.4783e-06 0.0001045984 2.84741e-05 7.63734e-05 -0.1282974928 0.8336925119
705295770.0 0.1705312893 -0.8314564864 -9.67165e-05 0.0001908539 3.61873e-05 -9.64913e-05 -0.120091587 0.8353496406
710295740.0 0.1621240839 -0.8323585471 -0.0001488131 5.63306e-05 6.75348e-05 0.0001120847 -0.1118772877 0.836471783
715295710.0 0.1539353095 -0.8337440801 -6.56975e-05 6.85166e-05 6.62642e-05 -0.0001595524 -0.102917692 0.8367849352
720295680.0 0.1455806161 -0.8352332451 0.0001607634 -0.0002649796 9.407e-05 4.7257e-05 -0.094697977 0.8381271708
725295650.0 0.1367868846 -0.8359923483 0.000129605 -3.56482e-05 -8.93262e-05 -5.31695e-05 -0.0868234829 0.8392774529
730295620.0 0.1281231786 -0.8378511012 -2.40517e-05 6.17909e-05 4.48757e-05 8.7244e-06 -0.0786739416 0.8401504769
735295590.0 0.1200421924 -0.8380143405 2.12799e-05 -8.90719e-05 -2.57405e-05 -4.46099e-05 -0.0697321232 0.8405062134
740295560.0 0.1114737822 -0.8394734837 -8.6709e-05 0.0001072048 0.0001612441 4.2823e-06 -0.061517066 0.841474928
745295530.0 0.1036285081 -0.8401364709 -9.47416e-05 0.0001549961 9.81111e-05 0.0002106437 -0.0535713004 0.8418140309
750295500.0 0.0948099142 -0.8413855025 -3.60392e-05 0.0001745322 3.15747e-05 1.29343e-05 -0.0446784842 0.84219874
755295470.0 0.0866743128 -0.8416356303 3.09764e-05 0.0001285337 -3.55227e-05 8.29776e-05 -0.0364974633 0.8427156343
760295440.0 0.0782612625 -0.8418570552 3.22385e-05 -8.4275e-06 -8.84486e-05 -0.0002307185 -0.0276675485 0.842988913
765295410.0 0.0700462765 -0.8420079822 1.76671e-05 0.0001440289 -1.67448e-05 0.0001074082 -0.0197046124 0.8432252431
770295380.0 0.0613208049 -0.8422844389 -0.0001171668 -0.000175077 7.89049e-05 -1.78294e-05 -0.0113538167 0.8430192638
775295350.0 0.0530910221 -0.8429421587 -3.45808e-05 0.0001478449 -9.22819e-05 0.000235426 -0.0035502152 0.8431569584
780295320.0 0.0443316464 -0.8431095861 -0.0001365924 2.32578e-05 2.43616e-05 -1.2525e-06 0.0053245641 0.8436156275
785295290.0 0.0364108379 -0.8432532024 -0.0003028409 3.0057e-06 0.0001336137 -0.0001680411 0.0135232132 0.8432554638
790295260.0 0.0284981029 -0.8432540045 0.0001335354 -9.05209e-05 7.51688e-05 -8.76816e-05 0.0217472493 0.8432361939
795295230.0 0.0193212311 -0.8437157573 -8.34661e-05 4.75116e-05 -5.03446e-05 0.0001339311 0.0299209938 0.8424573697
800295200.0 0.0109157205 -0.843797903 -0.000117512 -8.71535e-05 8.57742e-05 -8.7235e-06 0.038188647 0.8419048319
805295170.0 0.0027890413 -0.8440828107 -3.56362e-05 -0.0001421918 2.74389e-05 5.8826e-06 0.047590675 0.8416142293
810295140.0 -0.0055589478 -0.8425714548 8.82292e-05 -0.0001442481 5.23447e-05 6.53196e-05 0.0557540915 0.8411998706
815295110.0 -0.0140607807 -0.8427931214 2.77978e-05 3.90009e-05 -0.0001045599 7.92757e-05 0.0634080677 0.840993503
820295080.0 -0.0225441225 -0.8424848941 0.0002095362 -3.85958e-05 0.0001102175 2.83793e-05 0.0713997461 0.8404162544
825295050.0 -0.0320555585 -0.8423455404 9.0509e-06 7.89095e-05 -1.14811e-05 -3.08669e-05 0.0801449469 0.8395794352
830295020.0 -0.039153482 -0.8413751993 0.0003650889 -0.0001060414 0.0001930083 -0.0001059363 0.0876315568 0.8379913862
835294990.0 -0.0471175546 -0.8407682628 -6.52414e-05 4.67749e-05 6.1397e-05 1.79687e-05 0.0967833113 0.8381630887
840294960.0 -0.0553548005 -0.8402606165 0.000190804 -0.0001073648 -4.31763e-05 9.84861e-05 0.1055173263 0.8364733972
845294930.0 -0.064354309 -0.8391067579 -0.0002348987 5.82616e-05 -1.65352e-05 -0.000118848 0.1134910669 0.835450827
850294900.0 -0.0722222426 -0.8393892728 2.74081e-05 5.25988e-05 5.63258e-05 4.56666e-05 0.1211214035 0.8342151981
