!Created with skrf (http://scikit-rf.org).
# Hz S RI R 50.0 
!freq ReS11 ImS11 ReS21 ImS21 ReS12 ImS12 ReS22 ImS22
300000.0 0.8597540698 -0.0027222897 -0.0001665757 2.0851e-05 -0.0006803627 0.0008472888 -0.7787836216 -0.1149031145
5299970.0 0.8587125422 -0.0105613835 -0.000190435 0.0001916004 4.21741e-05 1.08418e-05 -0.7856523849 -0.0064625192
10299940.0 0.8577071151 -0.018461417 4.85184e-05 7.47403e-05 2.8969e-05 -0.0001131555 -0.7887893511 -0.0037753961
15299910.0 0.8568888968 -0.0265029697 9.5515e-06 0.0001638975 3.98563e-05 -1.34827e-05 -0.7940612428 -0.001428573
20299880.0 0.8560931663 -0.0351443368 -0.0001254567 -8.30321e-05 -0.0001014896 -0.0001272633 -0.8006877171 0.0021304285
25299850.0 0.8557313693 -0.0431203863 -0.0002721644 -0.0001038278 -5.77124e-05 5.09093e-05 -0.8071023569 0.008231733
30299820.0 0.8547505398 -0.05222721 0.0001048391 0.0003263851 -3.94593e-05 -1.83063e-05 -0.8126968557 0.015861506
35299790.0 0.8534659831 -0.0598405438 0.0001992219 6.69877e-05 -2.81745e-05 -3.22346e-05 -0.8178355804 0.0249034108
40299760.0 0.852996105 -0.0690556416 8.37923e-05 -0.0001790781 0.0001485846 -0.0001159703 -0.8216176468 0.0341574921
45299730.0 0.8527230512 -0.0766146433 -5.38806e-05 0.0001429607 -6.25514e-05 -0.0001963958 -0.8255413419 0.0436358354
50299700.0 0.8521471641 -0.0847446097 9.07885e-05 -5.44292e-05 3.9864e-05 1.65781e-05 -0.8275158849 0.0535182446
55299670.0 0.8507909036 -0.0935996538 3.00104e-05 -0.00014732 -0.0002001611 -6.1671e-05 -0.8295344391 0.064143481
60299640.0 0.8494041235 -0.1012941861 -2.24251e-05 -0.0001208693 -5.46404e-05 -1.41568e-05 -0.8304329516 0.0740060896
65299610.0 0.8483679435 -0.1099265941 3.59852e-05 7.01007e-05 -5.46258e-05 2.6985e-06 -0.8323727845 0.0839808954
70299580.0 0.8476719199 -0.1182680543 -4.3694e-05 -0.0001844469 0.000103615 -0.0001654065 -0.8317217063 0.0941825656
75299550.0 0.8468304131 -0.1264508694 -5.94386e-05 1.19465e-05 -9.61979e-05 9.4236e-06 -0.8324004729 0.1036570081
80299520.0 0.8444626646 -0.1347140645 -0.0002511831 -3.55e-06 7.783e-06 -0.0001108829 -0.8321303498 0.1135197609
85299490.0 0.8432545261 -0.1425304483 -5.50587e-05 9.07141e-05 -0.0001276668 -7.3011e-06 -0.8313581808 0.12314383
90299460.0 0.8421180381 -0.1507526837 -7.406e-06 0.0001200287 -1.50957e-05 -2.11866e-05 -0.8305480687 0.1326036839
95299430.0 0.8405489947 -0.1593001722 3.02165e-05 2.97613e-05 -4.7333e-05 2.7477e-05 -0.829235601 0.142554016
100299400.0 0.838915484 -0.1674069081 -7.4912e-05 -0.0002946415 -9.16727e-05 3.30177e-05 -0.8285947578 0.1525554777
105299370.0 0.8373395855 -0.1752120641 0.0002206457 -0.0001911706 1.5456e-06 6.50521e-05 -0.8272992882 0.1610049149
110299340.0 0.8354559627 -0.1834896679 -2.7756e-06 -0.0001595169 -0.0001788782 -0.0002247215 -0.8261859342 0.1708764075
115299310.0 0.8335265454 -0.1916042371 0.000103905 -0.0001828218 0.0002031124 -7.71885e-05 -0.8245513312 0.1796899478
120299280.0 0.8315097585 -0.199764362 2.85438e-05 -6.0029e-06 -0.0002011244 0.0001141768 -0.8226837957 0.1890440658
125299250.0 0.8298712803 -0.2079342051 -0.0002148375 0.0001362101 9.97907e-05 5.5824e-06 -0.8218004492 0.1976060427
130299220.0 0.8273433734 -0.2158502197 -5.97372e-05 2.93734e-05 -1.33984e-05 8.00524e-05 -0.8198158103 0.2068927706
135299190.0 0.8250346118 -0.2235224761 -2.88132e-05 2.1116e-05 -0.0001060906 -0.0001388846 -0.8176689207 0.2162641286
140299160.0 0.8234131262 -0.2317510005 1.0301e-05 -0.0001843831 4.1677e-06 9.58978e-05 -0.8153641254 0.2252184869
145299130.0 0.8201467357 -0.2397583298 3.13298e-05 -4.86914e-05 -0.0001325993 0.000313865 -0.8134659557 0.2341995568
150299100.0 0.8185377962 -0.2479420458 0.0002166158 4.10914e-05 -2.4607e-05 0.0001882986 -0.8118044521 0.2430106916
155299070.0 0.8154736242 -0.2558634525 -0.0002705589 7.299e-06 -2.91458e-05 -2.66118e-05 -0.8080881347 0.2516826805
160299040.0 0.812568385 -0.2639100522 0.0001055568 3.95123e-05 7.78448e-05 0.0002297687 -0.806494253 0.2607765529
165299010.0 0.8102333842 -0.2713785876 4.21123e-05 4.45862e-05 0.0001977078 -0.000105485 -0.8037040688 0.2694911406
170298980.0 0.8076824512 -0.2796165959 7.51428e-05 4.30533e-05 -0.0001193458 -5.77776e-05 -0.8009187866 0.2783894449
175298950.0 0.8046910961 -0.2879257814 -3.44977e-05 -0.0001090785 -0.0001438631 2.38362e-05 -0.797883823 0.286337
180298920.0 0.8025169443 -0.2950538789 -0.0001199446 -0.0001360985 7.27521e-05 -2.96589e-05 -0.7947839152 0.2949095604
185298890.0 0.7987267356 -0.3036986372 0.0001927172 -0.0001442621 -0.0001112401 -5.18611e-05 -0.7911738316 0.3038269023
190298860.0 0.7959674042 -0.3109381393 0.0001155187 0.0004841655 -3.26317e-05 -0.0002619813 -0.7892457327 0.3117119984
195298830.0 0.7930433675 -0.3185656413 1.67653e-05 -5.22517e-05 4.93202e-05 3.04889e-05 -0.7857727018 0.3206687379
200298800.0 0.7891800159 -0.3261736203 -6.9204e-05 0.0001096621 -0.0001485299 -0.0001512178 -0.782239193 0.3286266337
205298770.0 0.7861999996 -0.3337217947 -0.000125993 5.46298e-05 3.33159e-05 -9.18953e-05 -0.7785937162 0.3368321956
210298740.0 0.7828809427 -0.3418475218 -3.7377e-06 -3.51193e-05 -1.6186e-05 -3.47244e-05 -0.7752108238 0.3451429364
215298710.0 0.7794960315 -0.3495778372 2.88701e-05 -0.0001317762 -2.68016e-05 -6.81088e-05 -0.7714791348 0.3537396524
220298680.0 0.7761103046 -0.3570575972 -0.0001700712 -2.83501e-05 -5.73403e-05 -0.0001739735 -0.7674985131 0.3613306844
225298650.0 0.7725113944 -0.364818987 9.07289e-05 -1.64362e-05 -4.01044e-05 -6.43832e-05 -0.7639537748 0.369484034
230298620.0 0.7685969808 -0.3720980821 0.0001561627 0.000137026 -0.0001243033 8.29764e-05 -0.7598475975 0.3785813264
235298590.0 0.7649636421 -0.3792694191 6.53026e-05 7.64087e-05 -2.1167e-06 0.000155455 -0.7560292644 0.3862709743
240298560.0 0.7623456251 -0.3873202485 7.79678e-05 4.03747e-05 -9.88989e-05 0.0001138626 -0.7512864861 0.3943541049
245298530.0 0.7574247272 -0.3946090398 -0.0001023494 -0.000146753 7.83664e-05 2.56452e-05 -0.7480724972 0.4019643843
250298500.0 0.7539416776 -0.4011156536 -4.26786e-05 -6.66052e-05 -3.29888e-05 -2.25423e-05 -0.7439795496 0.4097224913
255298470.0 0.7491639223 -0.4093604242 0.0001008806 6.57338e-05 -0.0001108057 -5.4263e-05 -0.7391745484 0.4177713249
260298440.0 0.7456116622 -0.4164859974 -3.7762e-06 9.4585e-05 -0.0001398305 -0.0001725598 -0.7348962182 0.4253871667
265298410.0 0.7414802096 -0.4233825759 -4.40556e-05 -4.71976e-05 -0.0002195731 0.0001039044 -0.7301118783 0.4333646804
270298380.0 0.7373039962 -0.4308935849 0.0001059361 -1.85077e-05 1.87451e-05 -4.30027e-05 -0.7257535141 0.4407450284
275298350.0 0.7333921596 -0.4380840325 6.48345e-05 0.0001881796 -0.0001101714 -0.0001234273 -0.7211556655 0.4484241642
280298320.0 0.7281833127 -0.4450623878 -6.17742e-05 7.59288e-05 0.0003121461 0.0001769275 -0.7164181216 0.4556667504
285298290.0 0.724951012 -0.4525565974 -4.53446e-05 -0.000185496 0.0001909903 -0.0002554392 -0.7112731614 0.463942
290298260.0 0.7201614373 -0.4593492697 5.98238e-05 -3.81777e-05 -7.89706e-05 -0.0001767783 -0.7065599955 0.4711120507
295298230.0 0.7164251852 -0.4661646013 -1.08674e-05 -6.56682e-05 -3.92322e-05 -2.74071e-05 -0.7020994817 0.47816263
300298200.0 0.7117734516 -0.4736638554 -0.0005454697 -4.5905e-05 -7.34112e-05 -5.88409e-05 -0.6970242339 0.4855893856
305298170.0 0.707788715 -0.4804690713 2.7736e-05 -8.57709e-05 2.88299e-05 0.0001081242 -0.6911985612 0.4935545066
310298140.0 0.7030966651 -0.4878439558 8.0887e-06 -0.0002559309 6.93528e-05 -3.74971e-05 -0.6866522625 0.5004435613
315298110.0 0.6985695939 -0.4960036859 9.4622e-05 -0.0002168963 -0.0001226787 3.16488e-05 -0.681025451 0.5073318906
320298080.0 0.6940427418 -0.502791985 -6.75954e-05 -1.13923e-05 -1.0356e-05 3.64103e-05 -0.6756582143 0.5151935786
325298050.0 0.6879946588 -0.5097102498 -0.0001621184 -0.0002181362 -5.26427e-05 -0.0002180094 -0.6700952206 0.5211012106
330298020.0 0.6824545282 -0.5171450908 2.498e-05 -0.0001409754 -0.0001125168 2.49073e-05 -0.6647974157 0.5288902399
335297990.0 0.6766464642 -0.5244347237 -5.5759e-06 0.0001035799 -2.25333e-05 8.27166e-05 -0.6596434303 0.536144924
340297960.0 0.6706898323 -0.5309029325 6.27339e-05 0.000189118 -1.45962e-05 7.01784e-05 -0.6537713084 0.5424421446
345297930.0 0.6642104714 -0.5375045298 0.0001198166 -0.000108386 0.0001191913 -0.0001472509 -0.6479121601 0.5487249192
350297900.0 0.6590778526 -0.5426798829 0.0001381239 7.73211e-05 -0.0001126956 -0.0001484597 -0.6425499233 0.55469774
355297870.0 0.6531832767 -0.5494815766 -4.3426e-06 -0.0001124854 9.26436e-05 -4.5617e-05 -0.6365423053 0.5620446274
360297840.0 0.6481635481 -0.555520845 -1.40156e-05 0.0002745488 -7.46e-07 3.3353e-06 -0.6306046302 0.5685898094
365297810.0 0.6416920851 -0.5614771469 1.24348e-05 -0.0002073593 -3.44811e-05 0.0001339463 -0.6240343087 0.5749653644
370297780.0 0.6367418114 -0.5678767046 7.87244e-05 -6.90451e-05 0.0002012401 9.48072e-05 -0.6181792069 0.5820053039
375297750.0 0.6301624833 -0.5738760161 -1.69737e-05 -0.0001339619 -6.07991e-05 -6.08372e-05 -0.6123149815 0.5876891783
380297720.0 0.6247060199 -0.5804070186 3.99597e-05 5.46537e-05 -1.43047e-05 9.76522e-05 -0.6068731697 0.5937125225
385297690.0 0.6188810313 -0.5861556409 0.0001962541 7.17589e-05 -0.0001144708 -3.06372e-05 -0.5997971137 0.6005647102
390297660.0 0.613107501 -0.591705045 -0.0002227184 2.6977e-05 3.35689e-05 0.0002248085 -0.5938502997 0.6061038669
395297630.0 0.6074165002 -0.5978050063 -1.68411e-05 -4.7328e-06 -4.89901e-05 0.0001125296 -0.5871936138 0.6127266108
400297600.0 0.6017155477 -0.6033005817 0.0002292896 2.30589e-05 -2.76468e-05 -3.87633e-05 -0.5813974899 0.6187000543
405297570.0 0.5950402122 -0.609076308 0.0001014377 0.0001415903 -4.62094e-05 -3.96e-06 -0.5744711008 0.6240782132
410297540.0 0.5888284314 -0.6150848964 4.20827e-05 -3.46383e-05 0.0001313174 -2.91325e-05 -0.5677949094 0.6303972443
415297510.0 0.583139561 -0.6202133619 -2.26486e-05 0.0001857437 -2.38441e-05 0.0001643807 -0.5619326719 0.6359738127
420297480.0 0.5767950271 -0.626347973 0.0001046853 -0.0001354419 6.34655e-05 0.0001284941 -0.55466804 0.6417310576
425297450.0 0.5701889486 -0.6319071639 -0.0001584029 -5.2838e-05 -4.01778e-05 -3.05476e-05 -0.5486159743 0.6475463854
430297420.0 0.564367204 -0.6371801943 5.93898e-05 0.0001135893 -2.96108e-05 6.4436e-05 -0.5419681507 0.6528019079
435297390.0 0.5585906648 -0.6424404108 -2.83571e-05 -8.39395e-05 8.56444e-05 -0.0002317832 -0.5344601885 0.658784694
440297360.0 0.5516885672 -0.6486363224 7.65695e-05 -4.74574e-05 -2.88109e-05 8.07964e-05 -0.5281772489 0.6639688079
445297330.0 0.5449714068 -0.6534903686 -0.0001983191 5.45372e-05 -2.63744e-05 -8.48992e-05 -0.5213210916 0.6688398415
450297300.0 0.5391926281 -0.6587590516 5.91602e-05 -0.0001346211 -6.31506e-05 0.0002005236 -0.5140561712 0.6744290319
455297270.0 0.53187736 -0.6642941325 -1.41957e-05 1.41854e-05 -0.0001050915 3.56487e-05 -0.5071012803 0.6788462896
460297240.0 0.5257847946 -0.6696019626 -9.28429e-05 2.87434e-05 -8.15071e-05 -0.000143212 -0.5007215012 0.6843684172
465297210.0 0.5186803773 -0.6747155266 0.0001391076 3.57862e-05 -6.93665e-05 -7.57e-05 -0.4929233458 0.6894197644
470297180.0 0.5116361816 -0.6786157457 -0.0002292667 -0.0001135785 0.0001867199 2.87825e-05 -0.4858192812 0.6952505098
475297150.0 0.5056680722 -0.6839318367 -6.30978e-05 0.0001656969 0.0002714613 -0.0001002708 -0.4785526393 0.6991424762
480297120.0 0.4987178561 -0.6885608134 0.0002152897 2.92215e-05 -1.32124e-05 0.0001088143 -0.4709170893 0.7042965575
485297090.0 0.4917678543 -0.6938738505 -0.0001495885 8.45594e-05 0.0002659861 -6.2214e-05 -0.4645736472 0.7090315384
490297060.0 0.484786036 -0.6982212284 0.0002271477 -0.0001110713 -6.83243e-05 0.0002080963 -0.4569815549 0.7132230823
495297030.0 0.4777830458 -0.7028077099 -9.38605e-05 -0.0001207813 4.81743e-05 -1.04737e-05 -0.4496824734 0.7183749301
500297000.0 0.4707482108 -0.7078162878 -0.000206104 0.0001238283 -6.57583e-05 -8.50431e-05 -0.441836816 0.7232471662
505296970.0 0.4637735492 -0.7118858889 0.000135752 7.8408e-05 0.0002364287 -9.15352e-05 -0.4343359894 0.727271279
510296940.0 0.4559262158 -0.7163860363 -1.63739e-05 -9.21397e-05 1.34421e-05 -0.0001729261 -0.4271091116 0.7315513507
515296910.0 0.4498887519 -0.7205961682 -6.37805e-05 6.91286e-05 -4.7777e-05 9.4498e-06 -0.419622941 0.7356846502
520296880.0 0.4420284848 -0.7253194661 0.0001104489 -4.3198e-05 6.41728e-05 3.5551e-05 -0.412177905 0.7392869277
525296850.0 0.4356069493 -0.7296701302 -0.0001343089 -9.45571e-05 -7.84928e-05 -0.0001526559 -0.4046242575 0.7440455599
530296820.0 0.4277194309 -0.7328905793 9.6255e-06 0.0001311661 -1.99985e-05 0.0002075057 -0.3973476494 0.7480354912
535296790.0 0.4207059683 -0.737572987 0.0001378648 0.0002416921 3.87829e-05 2.76398e-05 -0.3901886108 0.7517417732
540296760.0 0.4131126243 -0.7417120819 -1.20845e-05 -1.26284e-05 -6.55071e-05 8.67807e-05 -0.3819900819 0.7553537351
545296730.0 0.4055360029 -0.7462734957 -5.03838e-05 -2.15127e-05 -7.49712e-05 8.98353e-05 -0.3743175906 0.7589133332
550296700.0 0.398629447 -0.7491575822 -8.07314e-05 -7.79166e-05 -0.0001163924 7.6323e-06 -0.3669385666 0.7628836619
555296670.0 0.3907736619 -0.7533663644 0.0001642976 7.48777e-05 -2.21552e-05 0.000217855 -0.3589848234 0.7667309938
560296640.0 0.3832427734 -0.7567696219 1.63861e-05 -0.0001262754 1.06557e-05 -0.0001243703 -0.3511109998 0.7704813493
565296610.0 0.3760354422 -0.7601747137 -6.41265e-05 -0.0001706907 -0.0001284206 -0.0001048769 -0.3430707029 0.7735932802
570296580.0 0.3680585693 -0.7639941944 -0.0001128975 4.42463e-05 4.9306e-06 -0.0002374405 -0.3347904807 0.7777103641
575296550.0 0.3602266746 -0.767078203 8.10023e-05 -8.41464e-05 -7.6703e-05 0.0001945277 -0.3277632436 0.7801933799
580296520.0 0.3527363477 -0.771230575 -7.50343e-05 -9.62879e-05 -6.35623e-05 0.0001166786 -0.3190052629 0.7835210339
585296490.0 0.3444091535 -0.7748708502 7.84711e-05 -8.51575e-05 1.97565e-05 9.78488e-05 -0.3109069443 0.7873197736
590296460.0 0.3374853117 -0.777252455 3.40769e-05 -9.6542e-06 9.84895e-05 3.30871e-05 -0.3036649347 0.7897839673
595296430.0 0.3296379481 -0.780498322 -1.14841e-05 0.000177198 -2.16669e-05 5.57731e-05 -0.2955291734 0.792605637
600296400.0 0.3216472638 -0.7837474781 0.0001013072 0.0002193268 6.30076e-05 -0.0001004659 -0.2876449505 0.7956465929
605296370.0 0.3132654644 -0.786191649 8.27501e-05 -0.000136819 -5.65266e-05 8.76061e-05 -0.2784461124 0.7994816641
610296340.0 0.3060567664 -0.7899543679 7.59758e-05 -0.0001756285 -3.02775e-05 -9.47529e-05 -0.2710049333 0.8016001878
615296310.0 0.2979424088 -0.7931571657 1.00892e-05 -7.1031e-05 -1.85852e-05 -8.98453e-05 -0.2620895434 0.8039918056
620296280.0 0.2900550923 -0.7956803102 2.08835e-05 -0.0001151234 -4.60601e-05 -0.0001073446 -0.2549447175 0.8066842941
625296250.0 0.2825198849 -0.7987291863 -0.0001978271 -7.2994e-06 -7.03707e-05 4.2404e-06 -0.2463381143 0.8086883482
630296220.0 0.2743848598 -0.8011157038 1.50554e-05 -9.81794e-05 -0.0001177749 5.4545e-06 -0.238474599 0.8116224999
635296190.0 0.2664120411 -0.8032764169 -0.0001768121 4.12223e-05 0.0002785 6.93084e-05 -0.2302726399 0.8134269497
640296160.0 0.258583554 -0.8059690434 0.0001158553 -0.0002106543 0.0001369386 -6.704e-06 -0.221692926 0.8169412218
645296130.0 0.2504086971 -0.8086168972 0.0001381534 -0.0002041387 -4.49962e-05 0.0001997048 -0.2137862358 0.8182746636
650296100.0 0.2421744889 -0.809995848 3.97926e-05 0.0001503891 9.20489e-05 0.0001794837 -0.2059125793 0.8198396126
655296070.0 0.2337220777 -0.8134010415 0.0001433015 -0.0001072548 -3.60453e-05 0.000159464 -0.1969246703 0.8219415201
660296040.0 0.2264131749 -0.8152182674 0.0002058419 0.0001832767 -0.0001010524 0.0001943453 -0.1883254058 0.8240413402
665296010.0 0.2181028493 -0.8170341894 -0.0001054355 1.4469e-06 5.28427e-05 0.0001005418 -0.1801988763 0.8263951896
670295980.0 0.2096940414 -0.8194199321 0.0001801641 3.1136e-05 0.0001543842 8.50122e-05 -0.1724184218 0.827666769
675295950.0 0.2018796618 -0.820456174 9.405e-06 -0.000106196 -0.0001506681 -8.7141e-05 -0.1651112264 0.8295589879
680295920.0 0.1934694465 -0.8226001682 5.6654e-06 -5.65504e-05 0.000196569 5.39762e-05 -0.156071659 0.832020622
685295890.0 0.1855640545 -0.8238297461 1.86564e-05 -3.5369e-06 -3.61286e-05 0.0002489487 -0.147270947 0.8320842263
690295860.0 0.1770346462 -0.8260957721 2.78938e-05 -4.89637e-05 -0.00013179 -5.4023e-05 -0.1391290236 0.8338412336
695295830.0 0.168915826 -0.8276822473 2.79034e-05 -4.64827e-05 5.94515e-05 3.8336e-06 -0.1305798088 0.8351173257
700295800.0 0.160723647 -0.8291351896 -0.000142839 -0.0001137438 -5.22918e-05 0.000168689 -0.1229025517 0.8366241133
705295770.0 0.1512674317 -0.8303684178 4.34484e-05 -8.316e-07 8.64929e-05 6.02438e-05 -0.1145046579 0.8377294624
710295740.0 0.1438417128 -0.8320870863 8.9958e-06 -9.5777e-05 -2.36376e-05 -4.26234e-05 -0.1065108297 0.838522573
715295710.0 0.1354282084 -0.8334105999 9.9739e-05 3.41091e-05 0.0001222598 -6.29712e-05 -0.0972436561 0.8394756486
720295680.0 0.1273004806 -0.8345603932 -0.0002329771 1.73262e-05 -0.0001533725 4.40044e-05 -0.0887217586 0.8404822246
725295650.0 0.1185449376 -0.8350899615 -7.23009e-05 -8.98021e-05 9.81209e-05 2.72891e-05 -0.0804546617 0.8417581438
730295620.0 0.1103914275 -0.8362614929 0.0001741896 -4.98904e-05 -0.0001633371 7.42905e-05 -0.072603795 0.8422277812
735295590.0 0.1020901541 -0.8369088272 -3.31026e-05 -0.0001897155 7.50834e-05 -5.39098e-05 -0.0638413027 0.8424214859
740295560.0 0.0936763196 -0.8379473547 0.0001948161 6.506e-07 -3.3044e-06 -6.00593e-05 -0.054837044 0.8437479074
745295530.0 0.0847473093 -0.8385684264 -8.04743e-05 6.958e-07 5.71484e-05 -0.0001449803 -0.0463572653 0.8438411318
750295500.0 0.0766966752 -0.8394394913 -3.43048e-05 5.42235e-05 -0.0002177001 6.80309e-05 -0.0383917308 0.8446976973
755295470.0 0.0680966711 -0.8403577951 -0.0001372123 -6.95139e-05 -0.0001899895 0.0001912702 -0.0302033441 0.8442642647
760295440.0 0.0599742279 -0.8407350196 0.0002697169 -0.0002996371 -0.0001719269 7.04147e-05 -0.0215440028 0.8443520964
765295410.0 0.0514757139 -0.8408709589 -0.0001071191 -3.38857e-05 -0.0001031398 0.0001412087 -0.0127953225 0.8452659381
770295380.0 0.0429476957 -0.8410205986 -0.0001891834 -6.40498e-05 -2.83578e-05 8.1704e-05 -0.0047543553 0.8448064401
775295350.0 0.0346003586 -0.841790198 -0.0002328078 0.0001686569 -3.74719e-05 -0.0001700225 0.0031453825 0.8452392121
780295320.0 0.0263608917 -0.8416166965 0.0001187012 -0.0001434086 -4.62039e-05 0.0001264821 0.0121165831 0.8448948471
785295290.0 0.0181726644 -0.8424442204 0.0001438859 -6.71464e-05 0.0003057942 3.7865e-06 0.0209307517 0.8446163971
790295260.0 0.009766072 -0.8415358023 0.0001250457 8.13077e-05 -3.7492e-05 -0.0001571427 0.0292896563 0.8447282845
795295230.0 0.0009905255 -0.8416188209 -2.38621e-05 0.0001077557 -9.71428e-05 1.71726e-05 0.0380056153 0.8439906033
800295200.0 -0.0076803035 -0.8409034733 4.84468e-05 -0.0001152564 -4.34005e-05 2.81877e-05 0.0466837012 0.8441272603
805295170.0 -0.01563161 -0.8415375711 -0.0001096996 -0.0001124676 0.0001883301 4.41194e-05 0.0544419153 0.844061548
810295140.0 -0.0238693188 -0.8404574508 -2.50484e-05 0.0002714986 -0.0001605015 -0.0002929211 0.0631726725 0.8428432952
815295110.0 -0.031980466 -0.8406673627 -0.0002191056 0.0001107539 -0.000149797 0.0001246524 0.0717094432 0.8423512972
820295080.0 -0.0408583655 -0.8396338353 0.0001762199 0.0001691471 -4.70694e-05 -0.0003047891 0.0797181308 0.8415296876
825295050.0 -0.048914056 -0.8393167948 -4.06819e-05 -8.54652e-05 0.000106754 0.0001694209 0.0880963622 0.840681218
830295020.0 -0.0575885981 -0.8390675203 -4.03962e-05 8.868e-05 -0.0001421348 0.0001186282 0.0974276264 0.8395265649
835294990.0 -0.0656760164 -0.8372228409 0.0001304015 0.0001438384 -2.2286e-06 -6.55179e-05 0.1044685464 0.8392546859
840294960.0 -0.0740332014 -0.8368922126 -5.2472e-05 -7.80729e-05 -0.0001102106 5.83537e-05 0.1133012499 0.837400995
845294930.0 -0.082406958 -0.8360919232 -1.49348e-05 -0.000199575 -2.00301e-05 -1.61013e-05 0.1212403603 0.8359121085
