!Created with skrf (http://scikit-rf.org).
# Hz S RI R 50.0 
!freq ReS11 ImS11 ReS21 ImS21 ReS12 ImS12 ReS22 ImS22
300000.0 -0.3186904912 -0.1055803301 0.3724528938 0.0540938709 0.3743382051 0.0580851331 -0.3182002852 -0.1160713418
5299970.0 -0.323644615 0.0046083106 0.3783477142 0.0027839554 0.3784134926 0.0030298326 -0.3260747756 0.0027547083
10299940.0 -0.3209841146 0.0151345584 0.3798932941 0.0023406743 0.3796852222 0.0024434394 -0.324208559 0.0127107289
15299910.0 -0.3181994237 0.0233991131 0.3821217756 0.0024263938 0.3818983387 0.0025144272 -0.3212391298 0.0197453302
20299880.0 -0.3143349548 0.030230084 0.3850979162 0.0017910609 0.3850942911 0.0014580226 -0.3187842823 0.0259793409
25299850.0 -0.3106435251 0.0356929025 0.3884704154 -0.0002559847 0.3885134025 6.22573e-05 -0.3156865994 0.0311469722
30299820.0 -0.3065821609 0.040360245 0.3922010108 -0.0020253868 0.3914300472 -0.0021667157 -0.3127106651 0.0355194105
35299790.0 -0.3027933694 0.0450087393 0.3949223201 -0.0054091599 0.3951508353 -0.0054072553 -0.3098894872 0.0394253329
40299760.0 -0.2995924179 0.0481048775 0.3985870644 -0.0084446199 0.3985740978 -0.0088323748 -0.3073435523 0.0431710532
45299730.0 -0.2963603789 0.0517030204 0.401288646 -0.0132668921 0.4013585618 -0.0125205465 -0.3047859338 0.0459132638
50299700.0 -0.2930607559 0.0539333695 0.4033281764 -0.0170365709 0.4038568659 -0.0174451218 -0.3019002721 0.0492623706
55299670.0 -0.2907582031 0.0568751225 0.4052603936 -0.0220632351 0.4059241821 -0.0218318333 -0.3005668143 0.0518514911
60299640.0 -0.2880447166 0.0589625491 0.4074151694 -0.0270429524 0.407650233 -0.0269688492 -0.2980618227 0.0546059703
65299610.0 -0.2862476476 0.0615727997 0.4094812037 -0.0314407386 0.4095956911 -0.0317616904 -0.2961803607 0.0573345514
70299580.0 -0.2838018132 0.0634215357 0.4104190516 -0.0367626901 0.4106842335 -0.036909382 -0.2948206347 0.059755666
75299550.0 -0.2818237744 0.0657245431 0.4114786537 -0.0418411752 0.4115486417 -0.0423998575 -0.2929504262 0.0623637058
80299520.0 -0.2802261677 0.0681484332 0.4128776987 -0.047653834 0.412690092 -0.0470230668 -0.2915007135 0.0638881711
85299490.0 -0.2785990985 0.0699273381 0.413150881 -0.0528716305 0.4133763818 -0.0527463935 -0.2903240348 0.0665580264
90299460.0 -0.2770442897 0.0722222264 0.4135036317 -0.057932469 0.4136695128 -0.0579251974 -0.2885700032 0.0689347766
95299430.0 -0.2754856453 0.0741838421 0.4140421676 -0.0635883784 0.414215943 -0.0631081618 -0.2878258257 0.0711468748
100299400.0 -0.2744857633 0.076387628 0.4135548142 -0.0686198221 0.4137197139 -0.0682316668 -0.2868719145 0.0734939419
105299370.0 -0.2730247978 0.0783774742 0.4134939077 -0.0733279089 0.4136500439 -0.0736183663 -0.2851665156 0.0755523219
110299340.0 -0.2719866304 0.080395544 0.4133610965 -0.0785829017 0.4136282268 -0.0787655823 -0.2844991482 0.0781518467
115299310.0 -0.2705063653 0.0824943932 0.413094037 -0.0836082111 0.4133629152 -0.0836704391 -0.2831615348 0.0803980717
120299280.0 -0.2697147323 0.0846143881 0.413002045 -0.0886659287 0.4129094964 -0.0889584983 -0.282550534 0.0824015383
125299250.0 -0.2687766947 0.0866817852 0.4123850029 -0.0936758457 0.4124870257 -0.0941022429 -0.2814940262 0.0849009535
130299220.0 -0.2678116674 0.0890175584 0.4114454265 -0.0987186655 0.4118014042 -0.0993368868 -0.2806250051 0.0873816962
135299190.0 -0.2666773514 0.0909122997 0.4108760575 -0.1035418698 0.4108653728 -0.1041586094 -0.2797640516 0.0896229413
140299160.0 -0.2660343067 0.093734513 0.4100275217 -0.1092930433 0.4102534806 -0.1093482419 -0.278432084 0.0921269199
145299130.0 -0.2647362091 0.0959008615 0.409378437 -0.1142855134 0.409160437 -0.1137914905 -0.2780587537 0.0948451297
150299100.0 -0.2638834379 0.0980220922 0.4081278892 -0.1191645552 0.4084286773 -0.1189323542 -0.2769360764 0.0968906824
155299070.0 -0.2627103571 0.1009195002 0.4069829873 -0.1243317701 0.4073348674 -0.1241258186 -0.2763571521 0.0995296895
160299040.0 -0.261964203 0.1032130922 0.4056098757 -0.1284666106 0.4061784448 -0.128746739 -0.2753257154 0.1023026166
165299010.0 -0.2612183242 0.1056743429 0.4049058366 -0.133826368 0.4048289465 -0.1334569912 -0.2742558153 0.1046395223
170298980.0 -0.2602098342 0.1079598076 0.4027763849 -0.1384493418 0.40329868 -0.1385664463 -0.2731702834 0.1074533981
175298950.0 -0.2588668431 0.1104511747 0.4021006355 -0.1429675712 0.4021723013 -0.1430100299 -0.2722417012 0.1096928893
180298920.0 -0.2579163996 0.1125986679 0.4003756505 -0.1478000235 0.4006601204 -0.1477955585 -0.2709522872 0.1122406022
185298890.0 -0.2569908224 0.1154663144 0.3987314024 -0.1527473768 0.3989372493 -0.1527825021 -0.2705441242 0.1148353226
190298860.0 -0.2560628142 0.1176715841 0.3973301521 -0.1574376665 0.3975350557 -0.1575766612 -0.2689436751 0.1177007195
195298830.0 -0.2547045712 0.1199724385 0.395874949 -0.1616119798 0.395437072 -0.1623607533 -0.268051454 0.1201756969
200298800.0 -0.2537582904 0.1228272299 0.3942489915 -0.1662556839 0.3941836036 -0.1663278171 -0.2667442172 0.1229174554
205298770.0 -0.2526297127 0.1253532102 0.3921489314 -0.1709990003 0.3924990994 -0.1710971197 -0.2660400756 0.125488602
210298740.0 -0.2516414641 0.1277210815 0.3905852903 -0.1756303535 0.3906149395 -0.1758035052 -0.2647430899 0.128448639
215298710.0 -0.2503938946 0.1304867153 0.3886066549 -0.1799756243 0.3885598749 -0.1800542661 -0.2639082679 0.130974522
220298680.0 -0.2495121454 0.1329887457 0.3864972773 -0.1847570882 0.3867146557 -0.1849358656 -0.2618750479 0.1337697416
225298650.0 -0.2477434076 0.1355740873 0.384347261 -0.1890842663 0.3843531414 -0.1888886314 -0.2612236556 0.1361969556
230298620.0 -0.2466974728 0.1382760591 0.3824246718 -0.1934995618 0.3829046052 -0.1935001869 -0.2596180267 0.1388286634
235298590.0 -0.2453539312 0.1406557639 0.3803995621 -0.1977166153 0.380404934 -0.1979716477 -0.2584166056 0.1411103431
240298560.0 -0.2443154744 0.1433682912 0.3782439967 -0.2021166998 0.3784393134 -0.2018074071 -0.2569178234 0.1442844772
245298530.0 -0.2425738191 0.1458498109 0.3754463517 -0.2066258197 0.3762107314 -0.2064237045 -0.255582141 0.1471065642
250298500.0 -0.2415773048 0.1483788215 0.3734617666 -0.2104162892 0.3741386787 -0.2102314512 -0.2540350184 0.1494107457
255298470.0 -0.2399742776 0.151103079 0.3713512386 -0.2153794571 0.3712898735 -0.2150143506 -0.2528174033 0.1521305149
260298440.0 -0.2389030705 0.1535238564 0.3691065667 -0.218952247 0.3691151146 -0.219341692 -0.2509768544 0.1547938562
265298410.0 -0.236963046 0.1562371238 0.3665257462 -0.2238067078 0.3665619527 -0.2234670526 -0.2495867013 0.1577348851
270298380.0 -0.2353536762 0.1584992368 0.3638138446 -0.227349641 0.3645550131 -0.2275277409 -0.2479560469 0.1604952792
275298350.0 -0.2341931599 0.1612377482 0.3617979225 -0.2318242295 0.3618091994 -0.2320087258 -0.2462596681 0.1630201535
280298320.0 -0.2326909932 0.1637300092 0.3591183287 -0.23534872 0.3592668101 -0.2358799861 -0.2450322605 0.1657832362
285298290.0 -0.2308082218 0.1664863436 0.3565898501 -0.2395207357 0.3563471406 -0.2400176391 -0.2430411367 0.1684908011
290298260.0 -0.2295328255 0.1688933074 0.353921759 -0.2435763817 0.3539129077 -0.2438046818 -0.2411586617 0.1715012894
295298230.0 -0.2277671182 0.1712895304 0.3515621476 -0.2477606366 0.351053007 -0.2480642097 -0.2393468268 0.1738077478
300298200.0 -0.2256469813 0.1735850239 0.34851637 -0.2516105639 0.3485327903 -0.2520233128 -0.2378003724 0.1764441768
305298170.0 -0.2238351089 0.1762152898 0.3459173014 -0.2560903522 0.3461253348 -0.2561543822 -0.2357140859 0.1795181579
310298140.0 -0.2218817119 0.1784231533 0.3428491582 -0.259879667 0.3429319669 -0.2600779632 -0.2340418128 0.1819105172
315298110.0 -0.2207434759 0.181105618 0.3399422078 -0.2638894358 0.3402176133 -0.2642115569 -0.2321025676 0.1847173642
320298080.0 -0.2186352224 0.1835986425 0.3372783276 -0.267928794 0.3371001967 -0.267590982 -0.2302777917 0.1867496438
325298050.0 -0.2171566966 0.1854693344 0.3342751382 -0.2715635426 0.3344325796 -0.2717349924 -0.2281935475 0.1893779124
330298020.0 -0.2152963178 0.1881768041 0.3305272468 -0.2754815365 0.3308733927 -0.2752691233 -0.2267124261 0.1917555179
335297990.0 -0.2130747816 0.1901994863 0.3276746527 -0.2786354285 0.3276152672 -0.2792720482 -0.2246030308 0.194368364
340297960.0 -0.2119964579 0.1929429278 0.3243526619 -0.2827827391 0.3248431094 -0.2822903562 -0.2226153828 0.1969254621
345297930.0 -0.2099601754 0.195281423 0.3214075089 -0.2860373527 0.3210085115 -0.2860127692 -0.2209930017 0.199612576
350297900.0 -0.2075764744 0.1974895919 0.3177560675 -0.2893702709 0.3184938695 -0.2897739956 -0.2185821055 0.2023569788
355297870.0 -0.2061445217 0.1999387518 0.3146246317 -0.2928565256 0.3147142375 -0.2932028373 -0.216864516 0.2048363132
360297840.0 -0.2041329665 0.2022673128 0.3118674502 -0.296822644 0.3113618311 -0.2964971249 -0.2145433517 0.2072026605
365297810.0 -0.2016587265 0.2045957623 0.3081036689 -0.3000788723 0.3084228502 -0.2999491955 -0.2123956404 0.2099055191
370297780.0 -0.1995414829 0.2069352039 0.3045846526 -0.3032701165 0.3048462884 -0.3039603515 -0.2103075494 0.2123596508
375297750.0 -0.1976488226 0.2093496723 0.3017434733 -0.3068316245 0.3012887298 -0.3067927092 -0.2083520378 0.2144735855
380297720.0 -0.1955606587 0.2114681777 0.2983447226 -0.3099664806 0.2981832266 -0.3099298826 -0.2059627402 0.2175675166
385297690.0 -0.1932294702 0.2140767427 0.2945795364 -0.3130281618 0.2944376596 -0.3131327589 -0.2037269348 0.2198767065
390297660.0 -0.1911198922 0.2157666048 0.2908391565 -0.316505392 0.2910329091 -0.3168002653 -0.2016805268 0.2218874819
395297630.0 -0.1884958782 0.2179018442 0.2877015714 -0.3194946218 0.2875695507 -0.3195112377 -0.1992777315 0.2247384978
400297600.0 -0.1866320145 0.22035833 0.2841806478 -0.3227456395 0.2843720923 -0.3228804398 -0.1972858637 0.2266154199
405297570.0 -0.1843591873 0.2227869667 0.2804130236 -0.3260262555 0.2802655589 -0.3261807339 -0.1948273515 0.2292435
410297540.0 -0.1818120676 0.2245322956 0.2763991952 -0.3288339917 0.2767729736 -0.3287798866 -0.192423959 0.2312529932
415297510.0 -0.1797315923 0.2266316012 0.273348719 -0.3319640276 0.2732650711 -0.3317688346 -0.1900897698 0.2340852757
420297480.0 -0.1769654121 0.2282111282 0.2694520142 -0.3350627176 0.269506051 -0.3348086982 -0.1874777339 0.2356792141
425297450.0 -0.17455541 0.2305261535 0.2654835229 -0.3378183124 0.2660583397 -0.3379164279 -0.1850532861 0.2383020678
430297420.0 -0.1722369456 0.2330404547 0.2620617872 -0.3412568776 0.2622940734 -0.3406125506 -0.1828755181 0.240367246
435297390.0 -0.1698604488 0.2347708023 0.2583271285 -0.3434569361 0.2583156568 -0.3434819404 -0.1801284931 0.2428185288
440297360.0 -0.167405908 0.2365019607 0.2541766466 -0.3463661303 0.2541319249 -0.3460938297 -0.1776852542 0.2442314954
445297330.0 -0.1648650717 0.2384442004 0.2502321711 -0.3492279801 0.2504940709 -0.348929117 -0.1748242522 0.2463226119
450297300.0 -0.1620855925 0.2404542084 0.246163319 -0.351836338 0.2467469417 -0.3515997869 -0.1727595196 0.2487576945
455297270.0 -0.1598540454 0.242245202 0.2426542547 -0.3542156764 0.2429499593 -0.3544729441 -0.1699779247 0.2509415786
460297240.0 -0.1576338022 0.2441797758 0.238534501 -0.356909351 0.2386288259 -0.3569731395 -0.1672554726 0.2532737726
465297210.0 -0.1545744176 0.2459229202 0.2348893041 -0.3596146232 0.2353629559 -0.3596352555 -0.1654777443 0.2547519049
470297180.0 -0.1520522841 0.247337423 0.2307313978 -0.3618577517 0.2316122717 -0.3619186224 -0.1628345156 0.2564432353
475297150.0 -0.149776232 0.2495767147 0.2266892446 -0.3641645525 0.2271662466 -0.3643798908 -0.1599695259 0.2586338067
480297120.0 -0.1469769004 0.2507557884 0.2230347127 -0.3668961261 0.2232255519 -0.3666916977 -0.1570424745 0.2609946994
485297090.0 -0.1441489316 0.2527247466 0.2188951378 -0.3689195045 0.2190795979 -0.3692163985 -0.1545463195 0.2623056006
490297060.0 -0.1414144801 0.2542507941 0.2147486656 -0.3714380769 0.2148754216 -0.3717888156 -0.1517435637 0.2643250083
495297030.0 -0.1392915962 0.2560091023 0.2106568141 -0.3740348267 0.2105128177 -0.3738300163 -0.1488452578 0.2656809939
500297000.0 -0.1359951007 0.2575344581 0.2062741792 -0.3757274792 0.2067952791 -0.3761062824 -0.1464998006 0.2675633205
505296970.0 -0.1334818515 0.2589750337 0.2020131626 -0.3776546781 0.2022450713 -0.3779987257 -0.1438503075 0.2696263907
510296940.0 -0.1308516155 0.2607868607 0.1981317677 -0.3803822106 0.1986174943 -0.3806470044 -0.1409094655 0.2714895548
515296910.0 -0.1282847006 0.2626300123 0.1937821951 -0.3822759598 0.194319823 -0.3824905802 -0.1383527343 0.2731084571
520296880.0 -0.1253067399 0.2639759135 0.1897692865 -0.3845685024 0.1901584099 -0.3844591969 -0.1353216593 0.2744733544
525296850.0 -0.1227416213 0.2653813507 0.1857123296 -0.3865940308 0.1855666039 -0.3868796123 -0.1322546238 0.2761075985
530296820.0 -0.1197932612 0.2668048448 0.1817636827 -0.3880787961 0.1816287539 -0.3885059308 -0.1301277227 0.2773176112
535296790.0 -0.1168210177 0.2680106219 0.1770530925 -0.3897078271 0.1774253478 -0.3901865149 -0.1269164022 0.2788901657
540296760.0 -0.1142713702 0.2693006347 0.1729098458 -0.3924803805 0.1728274354 -0.3925954728 -0.12424998 0.2809028709
545296730.0 -0.1116820131 0.2709688777 0.1687547576 -0.39405384 0.1686468472 -0.3943009523 -0.1214443382 0.282063178
550296700.0 -0.1087743736 0.2721733395 0.1642701088 -0.3955502925 0.1647932836 -0.3961774464 -0.1181729834 0.2835914358
555296670.0 -0.1053991109 0.2736403806 0.1600311997 -0.3979420501 0.1602742885 -0.3975365915 -0.1155133441 0.2851242504
560296640.0 -0.1026084034 0.2745153273 0.1557024604 -0.3989927405 0.155672748 -0.3993291527 -0.1122945255 0.2862885932
565296610.0 -0.100172902 0.2757955568 0.1516583273 -0.4005061806 0.1510500992 -0.4011896858 -0.1097273839 0.2875328885
570296580.0 -0.0966278556 0.2768999899 0.1466184425 -0.4021531499 0.147324319 -0.4028400924 -0.106414328 0.2895544559
575296550.0 -0.0940134522 0.2783438436 0.1425113816 -0.4038603886 0.1429787125 -0.4038515899 -0.1033472827 0.2904648322
580296520.0 -0.0912801585 0.2792587444 0.1385549349 -0.4052659868 0.1382100829 -0.4052422406 -0.1007845369 0.2915312126
585296490.0 -0.0882585202 0.2803887074 0.1337334435 -0.4068391606 0.1337870583 -0.4067310817 -0.0978529528 0.292430515
590296460.0 -0.0853368882 0.2816226355 0.1291903711 -0.4083875738 0.1293945302 -0.4084438718 -0.0946600588 0.2940412133
595296430.0 -0.0821219352 0.282795833 0.1250152746 -0.4097363162 0.1247614291 -0.4099616253 -0.0915532174 0.294901723
600296400.0 -0.0793278548 0.2835842923 0.1205999678 -0.4108404385 0.1209744472 -0.4109885931 -0.0885998145 0.2962293542
605296370.0 -0.0762433369 0.2846722898 0.1160306996 -0.4124829231 0.1161842773 -0.4121291916 -0.0853418798 0.2972458217
610296340.0 -0.0733486257 0.2856029583 0.1117508415 -0.4132663934 0.1118144893 -0.4136602317 -0.0824628679 0.2987478811
615296310.0 -0.0703514096 0.286784498 0.1069717113 -0.4146541329 0.1068201528 -0.414508267 -0.0793634957 0.2993902692
620296280.0 -0.0672173228 0.287398817 0.1028506249 -0.4155926558 0.1026489821 -0.4156142111 -0.0763817711 0.3001434826
625296250.0 -0.0639519874 0.288027486 0.0976463358 -0.4166665342 0.0978855938 -0.4170389299 -0.0732276386 0.3014524111
630296220.0 -0.0610740388 0.2893305237 0.0932247442 -0.4177392092 0.0936643961 -0.4177241498 -0.0701263059 0.3023478416
635296190.0 -0.0582499874 0.2901537233 0.0888551598 -0.4186288067 0.0885546186 -0.4183553153 -0.0668870984 0.3029022974
640296160.0 -0.0548445238 0.2902596934 0.0845085877 -0.4194326506 0.0842460263 -0.4195784652 -0.0635235381 0.3038101409
645296130.0 -0.0521832065 0.2915699116 0.0799025258 -0.4204944758 0.0800832073 -0.4202538639 -0.0610228742 0.304324752
650296100.0 -0.0489273006 0.2924187559 0.0756475468 -0.420806179 0.075375086 -0.4208756094 -0.0575411963 0.3051392551
655296070.0 -0.0457798246 0.2925695336 0.0706291568 -0.4219861422 0.0708321982 -0.4219298986 -0.0542870221 0.3062588712
660296040.0 -0.0429940195 0.2938417882 0.0661528455 -0.4223090806 0.0661514367 -0.4224725258 -0.0513502817 0.3069383556
665296010.0 -0.03966836 0.2939125453 0.0615930692 -0.4233199334 0.0620484255 -0.4232523691 -0.0483830784 0.3078659487
670295980.0 -0.0363546457 0.2944034515 0.0569722187 -0.423765865 0.0572560643 -0.4236758342 -0.0453095481 0.3079110729
675295950.0 -0.0332644669 0.2949139297 0.0522803381 -0.4243110091 0.0524793152 -0.4248032236 -0.0416152797 0.3089206093
680295920.0 -0.0304180549 0.2958701781 0.0476179489 -0.4249343334 0.0473301104 -0.425059895 -0.0383214079 0.3095820398
685295890.0 -0.0269934001 0.2962015764 0.0434132489 -0.4253017272 0.0431544298 -0.4256204592 -0.03540126 0.3100125251
690295860.0 -0.0237465961 0.2964551472 0.0385744787 -0.4252967299 0.0383626434 -0.4255608561 -0.0322100595 0.3105643542
695295830.0 -0.0203050034 0.2964817305 0.0332916316 -0.4259430836 0.0337615053 -0.4262260245 -0.0291182359 0.3112888328
700295800.0 -0.0174594867 0.2972410431 0.0290505511 -0.4262267667 0.0292228575 -0.42646942 -0.0253619865 0.3111272159
705295770.0 -0.0145665865 0.2976203969 0.0246917664 -0.4265116435 0.0248263 -0.4268369538 -0.0227336367 0.3117752993
710295740.0 -0.0113433825 0.2980741747 0.0199863158 -0.4266369457 0.020078504 -0.4267037161 -0.0199819069 0.312612147
715295710.0 -0.0083717376 0.2983602168 0.0153232803 -0.4267837325 0.0157699499 -0.4270431693 -0.0164877498 0.3125015794
720295680.0 -0.0051129705 0.2980214508 0.0106857932 -0.4266539315 0.0112006763 -0.4275368984 -0.012832699 0.3128573894
725295650.0 -0.001657718 0.2987664519 0.0058425695 -0.4268327018 0.0060948374 -0.4271900613 -0.00971946 0.3134512193
730295620.0 0.0012339815 0.2988167671 0.0014725196 -0.4270247004 0.0014155171 -0.4271708796 -0.0063524022 0.3131915833
735295590.0 0.0047639659 0.2987181383 -0.0030992084 -0.4275283866 -0.0029995748 -0.4273711065 -0.0028923065 0.3135325588
740295560.0 0.0075769536 0.299113462 -0.007926134 -0.4265369423 -0.007844799 -0.4270200867 0.0005318073 0.3135093919
745295530.0 0.0107484117 0.2988571498 -0.012628191 -0.4267585488 -0.0118925815 -0.4271486379 0.0034809945 0.3136839394
750295500.0 0.013780976 0.2990749028 -0.0167830423 -0.4263485966 -0.0169458741 -0.4266874202 0.0067669706 0.3135607814
755295470.0 0.017632755 0.2991344644 -0.021422403 -0.4261523205 -0.0214079185 -0.42638304 0.0097048211 0.3138838786
760295440.0 0.0202053494 0.2990412204 -0.0259989267 -0.4260307911 -0.0261493955 -0.4263838561 0.012789281 0.3139728852
765295410.0 0.0234336924 0.2988494875 -0.0306088036 -0.425538247 -0.0304075758 -0.4261904802 0.0167415962 0.314118082
770295380.0 0.0269701393 0.2989497597 -0.035356152 -0.4249239128 -0.0353006937 -0.4256724769 0.0201626194 0.3139986784
775295350.0 0.0298939174 0.2989948425 -0.040093732 -0.4250289435 -0.0396428892 -0.4246646044 0.0223864671 0.3136983412
780295320.0 0.0331727524 0.2981277573 -0.0442686496 -0.4241023129 -0.0442175054 -0.424552242 0.0260803882 0.3139200596
785295290.0 0.0362980781 0.2985228322 -0.0487651395 -0.423458619 -0.0489014815 -0.4240733882 0.0291070273 0.3136553649
790295260.0 0.0393510465 0.2983602642 -0.0534180396 -0.4234190749 -0.0535438826 -0.4235490176 0.0328210592 0.3133874931
795295230.0 0.0423492385 0.2982475479 -0.0579058555 -0.4224341376 -0.0580049377 -0.4229197286 0.0360088949 0.3136671214
800295200.0 0.0458076248 0.2979433207 -0.0629313224 -0.4219803969 -0.0629678278 -0.4223875912 0.0390693239 0.3128475859
805295170.0 0.0486540487 0.2974030246 -0.067133097 -0.4207456562 -0.0670285456 -0.4211991137 0.0420625078 0.3125969725
810295140.0 0.0517665018 0.2968119068 -0.0715265834 -0.4202787715 -0.0716390568 -0.4205919362 0.0456713945 0.3127973047
815295110.0 0.0552618787 0.2965046694 -0.0762404442 -0.4192749486 -0.0762061164 -0.4193847296 0.0485983449 0.3121927085
820295080.0 0.0582039554 0.2957687853 -0.0806124731 -0.4184396445 -0.080554449 -0.4186195981 0.0520677833 0.3117362603
825295050.0 0.0615701806 0.2955109338 -0.0853290093 -0.417280409 -0.0851855205 -0.4176161689 0.0553936463 0.3113931946
830295020.0 0.0646992377 0.2951043456 -0.0900151928 -0.4163140097 -0.0901026875 -0.4166499384 0.0579420199 0.3109377141
