!Created with skrf (http://scikit-rf.org).
# Hz S RI R 50.0 
!freq ReS11 ImS11 ReS21 ImS21 ReS12 ImS12 ReS22 ImS22
300000.0 -0.7743717492 -0.0879611105 -0.0016288719 -0.000613928 -0.0009485528 0.0007724481 -0.0476422538 -0.0581718291
5299970.0 -0.7852795199 -0.0051073243 -0.0001768585 0.0001784526 0.0001376982 0.0001002893 -0.0461464989 0.01585967
10299940.0 -0.7879324912 -0.0039579581 0.0001548857 -5.77585e-05 -0.0001111655 2.0093e-05 -0.0402904703 0.0340331155
15299910.0 -0.7935420086 -0.0020156733 8.18163e-05 0.0001923972 0.0001188952 0.0001086107 -0.0317551227 0.0483044911
20299880.0 -0.8002858891 0.0019231472 0.0002042046 9.8075e-05 0.0001694319 -0.0001547055 -0.0213454128 0.0601699407
25299850.0 -0.8064892693 0.0075823701 -6.1059e-06 2.37999e-05 0.0001455425 5.8775e-06 -0.0103022604 0.0693949733
30299820.0 -0.8126660451 0.0151196698 -0.0001203206 8.02438e-05 -3.67935e-05 0.0001937502 0.0014964931 0.0761526532
35299790.0 -0.8172372859 0.0245935396 6.33523e-05 -5.61763e-05 -2.62786e-05 0.00010221 0.0132405222 0.0812159321
40299760.0 -0.8211902942 0.0335146782 -0.0001399969 -3.39843e-05 -3.3756e-05 -5.28877e-05 0.0245944238 0.0836143592
45299730.0 -0.8246846665 0.0425736177 -0.0001113637 -0.0001084534 -5.36587e-05 -4.50132e-05 0.0351699144 0.085614149
50299700.0 -0.8269654146 0.0529784565 7.28476e-05 7.47566e-05 9.97882e-05 -3.49838e-05 0.0453310251 0.0853358714
55299670.0 -0.8296020044 0.0629564779 6.43308e-05 -2.23779e-05 4.4528e-05 -0.0001005858 0.0546743231 0.0840482769
60299640.0 -0.8299884954 0.0730156828 3.832e-06 3.12947e-05 2.03814e-05 9.22738e-05 0.0634536671 0.0823869909
65299610.0 -0.8310227081 0.0828765231 8.12098e-05 -0.0001135064 6.7745e-05 6.37859e-05 0.0706279306 0.0798385391
70299580.0 -0.8318004121 0.093150783 0.0001650411 -8.52304e-05 4.40019e-05 6.2435e-05 0.0775320115 0.0769303016
75299550.0 -0.8312289345 0.1033821266 -2.9066e-06 4.52228e-05 6.42756e-05 0.000190502 0.0838525388 0.0735493457
80299520.0 -0.8325653667 0.1126467063 -0.0001162361 -0.0001329861 -2.97294e-05 -7.84739e-05 0.0898716948 0.0704730905
85299490.0 -0.8310106699 0.1224161023 0.0001257395 8.09656e-05 -8.08777e-05 0.0001077328 0.0947013693 0.0665952524
90299460.0 -0.8296429199 0.132049887 -5.07353e-05 0.000165442 0.0001618727 0.0001655738 0.0994225245 0.0630133877
95299430.0 -0.8294581149 0.1416329484 2.88925e-05 -0.0002730876 0.0001551061 7.00872e-05 0.1035874397 0.0594457211
100299400.0 -0.8278228679 0.1502406597 -0.0001671399 8.7669e-05 -0.0001470524 6.01748e-05 0.1076445667 0.0551863639
105299370.0 -0.8270112584 0.1602038435 -6.61581e-05 6.10051e-05 7.68783e-05 0.0001075784 0.1106233128 0.0512468074
110299340.0 -0.8252969352 0.1694025515 -6.30014e-05 -2.69906e-05 0.0001462145 -1.67952e-05 0.1133323496 0.0476304769
115299310.0 -0.8243731637 0.1784639855 0.0001219121 0.0001561078 7.79116e-05 0.0001998436 0.1162376617 0.0436587069
120299280.0 -0.8221267968 0.1867513527 0.0001007948 0.0001272006 -0.0001536673 -3.62774e-05 0.1182665235 0.0398104445
125299250.0 -0.8207085883 0.1957788996 7.02241e-05 9.1664e-06 9.84714e-05 -6.7501e-06 0.1204005171 0.0358270514
130299220.0 -0.8192431256 0.2045202505 -9.73474e-05 0.0001548061 4.45909e-05 0.0002189572 0.1220439679 0.032169309
135299190.0 -0.8169257556 0.2139599684 -0.0001036829 -6.97027e-05 -1.26049e-05 -2.29344e-05 0.1236051092 0.0288082573
140299160.0 -0.8147403155 0.223125716 0.0001513116 0.0002695561 4.35592e-05 0.0002002898 0.1248907692 0.0255563784
145299130.0 -0.812799418 0.2319246078 0.0001399763 6.428e-06 -0.0001293447 8.19708e-05 0.1257847201 0.0223037157
150299100.0 -0.8101412589 0.2403805131 1.7404e-06 -4.59858e-05 0.0002136275 0.0002264272 0.1269772362 0.0191411953
155299070.0 -0.8078874938 0.2495650836 -2.72507e-05 5.67693e-05 -5.85719e-05 9.20157e-05 0.1277635705 0.0156538387
160299040.0 -0.8051232833 0.2579978019 -0.0001354188 0.0001248265 0.0001299165 6.75312e-05 0.1280218476 0.0126036539
165299010.0 -0.8029706553 0.2666285027 0.0001103374 8.58415e-05 -8.27773e-05 0.0002264785 0.1288217901 0.0095015232
170298980.0 -0.8001155306 0.2753554987 -7.28405e-05 8.2921e-06 7.85077e-05 9.82476e-05 0.1293172629 0.006283475
175298950.0 -0.797535843 0.2838672144 6.6182e-06 0.0003404507 0.000203626 0.0003449059 0.1292524218 0.0031414295
180298920.0 -0.7948459218 0.2927797144 6.00029e-05 4.7045e-05 8.51621e-05 6.24695e-05 0.129831433 0.000560937
185298890.0 -0.7912854195 0.3004393593 0.0001896576 -8.27829e-05 8.79824e-05 3.75398e-05 0.1300237789 -0.0023975831
190298860.0 -0.789005807 0.3091590971 0.0001117336 0.0002923737 0.0002187602 -7.78621e-05 0.1301397947 -0.0049186807
195298830.0 -0.7852708747 0.3173727049 7.69175e-05 0.0001818577 4.10843e-05 9.89531e-05 0.1301703251 -0.0078121974
200298800.0 -0.7818285147 0.3257937617 0.0001098168 2.32342e-05 -0.0001555465 9.06121e-05 0.1297016446 -0.0104073895
205298770.0 -0.7783206118 0.3338511378 7.76924e-05 0.0002867499 7.49575e-05 6.69832e-05 0.1295539999 -0.0132228142
210298740.0 -0.775239148 0.3419064285 5.55069e-05 0.0002081213 0.000167975 0.0001472954 0.1295707023 -0.0156480469
215298710.0 -0.7718270652 0.3505385901 -5.0231e-06 -0.0001925975 0.0002189487 -4.78021e-05 0.1294880103 -0.0180781128
220298680.0 -0.7676244953 0.3583303415 -6.89145e-05 0.0001742333 2.07822e-05 0.0002070487 0.1286813802 -0.0205702416
225298650.0 -0.7642501745 0.3664459238 0.0001725384 6.53813e-05 7.86668e-05 0.000101035 0.1282431667 -0.0230143521
230298620.0 -0.7601316412 0.3740259664 9.75467e-05 0.0002336274 0.0001441765 8.77021e-05 0.1278585614 -0.0252279779
235298590.0 -0.7570827497 0.382890922 -3.0762e-05 -9.64685e-05 6.31596e-05 0.0001676964 0.1272834489 -0.0274277742
240298560.0 -0.752885073 0.3907835496 0.0002654423 0.0002089667 -4.69605e-05 -0.0001265419 0.1268218074 -0.029697303
245298530.0 -0.7487858613 0.3985328702 0.0002847512 6.59475e-05 8.71204e-05 1.1745e-06 0.1262080791 -0.0320784054
250298500.0 -0.7442221255 0.4066376447 0.000129365 0.0001217416 -0.0001597099 0.000163229 0.1255843953 -0.0341942952
255298470.0 -0.7397455591 0.4134844872 0.0001100456 -5.20659e-05 0.0001377797 4.58106e-05 0.1248653233 -0.0367064212
260298440.0 -0.7360859438 0.4212691491 -0.0002428915 -7.01631e-05 -6.50213e-05 6.027e-05 0.1243353362 -0.0383038922
265298410.0 -0.7317118505 0.42928171 5.41641e-05 0.0001479568 0.0001066014 -3.12782e-05 0.1241138588 -0.0400879766
270298380.0 -0.7270722394 0.4371417831 1.32535e-05 8.78699e-05 8.34687e-05 -1.24906e-05 0.1230742135 -0.0421384963
275298350.0 -0.7222043163 0.4441749262 5.29974e-05 0.0001891236 -1.09102e-05 0.000166684 0.1223515529 -0.0437104577
280298320.0 -0.7171593761 0.4517779683 0.0001564306 0.0002323897 4.02282e-05 5.14031e-05 0.1216927545 -0.0460343324
285298290.0 -0.7128851602 0.4600701218 8.02308e-05 -3.78335e-05 0.0001229325 0.0001285241 0.1209544697 -0.0478128637
290298260.0 -0.7079664359 0.4671458166 3.62969e-05 7.52925e-05 0.0002755884 4.47759e-05 0.1204302262 -0.0493422761
295298230.0 -0.7027745149 0.4740857496 -7.96775e-05 -8.54497e-05 0.0001914609 3.60598e-05 0.1197242983 -0.0514874341
300298200.0 -0.6981872464 0.4815241601 -8.14819e-05 8.40402e-05 -9.1357e-06 3.6416e-06 0.1188725682 -0.0531564345
305298170.0 -0.6927047281 0.4880907266 0.0001071242 0.0001412352 -9.83929e-05 0.000315579 0.1182465212 -0.0552936467
310298140.0 -0.6874194967 0.495762759 -7.5811e-06 0.0001523096 0.0001221269 0.0001639759 0.1167534346 -0.057189385
315298110.0 -0.6835058433 0.5029463335 7.39064e-05 0.0002426111 0.0002455967 0.0002584002 0.1158036089 -0.0588731222
320298080.0 -0.6776364433 0.509771292 0.0001732894 7.37179e-05 0.0002624459 -6.1341e-05 0.1147271945 -0.0609664774
325298050.0 -0.6719459147 0.5170598229 4.22354e-05 9.1857e-05 3.47032e-05 0.0002328448 0.1135087883 -0.062607823
330298020.0 -0.6669475848 0.5238236749 0.0002264262 8.57203e-05 5.89668e-05 4.75312e-05 0.112192546 -0.0641497423
335297990.0 -0.6609715929 0.5300578508 0.0004692197 0.0001741196 0.0001738316 -0.0001089829 0.1108020524 -0.065315807
340297960.0 -0.6559804115 0.5379766196 0.0003263937 0.000169612 0.0002440008 0.0001829571 0.110142435 -0.066735413
345297930.0 -0.6503464374 0.5438323932 -6.45421e-05 0.0002009193 -9.27028e-05 0.0002269153 0.1085012903 -0.0682944527
350297900.0 -0.6440551567 0.5508201906 0.0001387365 0.0001466716 0.0002817789 6.83238e-05 0.1074367334 -0.0692285915
355297870.0 -0.6381573905 0.5578843215 0.0002598034 -5.2438e-06 0.0001483588 0.0001912869 0.1060671965 -0.0707389156
360297840.0 -0.6330611337 0.5636503866 0.0002724927 -1.70905e-05 5.43356e-05 3.25355e-05 0.1051993508 -0.0721195577
365297810.0 -0.627628145 0.5704915508 6.49322e-05 1.18003e-05 6.58518e-05 -3.5084e-06 0.1041182268 -0.0735655613
370297780.0 -0.6213970554 0.5762592654 0.0003644371 6.47631e-05 0.0002122138 0.0003186188 0.1030018193 -0.0747911321
375297750.0 -0.6153462789 0.583081217 -0.0001435284 9.93445e-05 0.0001413891 0.0001924461 0.1016930118 -0.0764051929
380297720.0 -0.6088296237 0.5889930258 4.2371e-06 0.0001516139 4.2108e-05 0.0001647023 0.1000280605 -0.0775354882
385297690.0 -0.6037068462 0.5953965088 0.0002751227 0.0002584175 0.0001921193 0.0001712466 0.0991826411 -0.0787354697
390297660.0 -0.5973783187 0.6009455658 0.0001228542 -9.29915e-05 -3.95898e-05 2.0512e-06 0.097814433 -0.0795711989
395297630.0 -0.590445403 0.6082258046 0.0001715885 0.0002773994 -6.052e-06 -1.09684e-05 0.0970796409 -0.0808517444
400297600.0 -0.5839325958 0.613871185 -4.13142e-05 0.0002714109 0.0002084741 0.0002335161 0.0957296181 -0.0821160628
405297570.0 -0.5789633599 0.6192334871 -5.56841e-05 0.0001307955 0.000371855 7.75521e-05 0.0941248655 -0.0830637669
410297540.0 -0.5712585053 0.6248987169 0.000172746 8.47137e-05 0.0001319636 0.0002471923 0.0932904389 -0.0844759965
415297510.0 -0.5648066533 0.6310983774 0.0001593135 -3.811e-06 0.0002481065 0.0001419584 0.0917730506 -0.0853995641
420297480.0 -0.5596451133 0.6370478352 3.80444e-05 8.97843e-05 0.0003276462 8.49664e-05 0.0906436125 -0.0862218898
425297450.0 -0.5518119845 0.642560641 0.0002023927 4.87025e-05 0.0003765974 -4.53358e-05 0.0893554009 -0.0874076858
430297420.0 -0.5458935154 0.6479804902 0.0001984074 1.59638e-05 0.0001492112 0.0002226177 0.0882081445 -0.0887041034
435297390.0 -0.5389670598 0.6532800078 6.70907e-05 0.0001013749 0.0003749333 0.0002888077 0.0866733883 -0.0897714247
440297360.0 -0.5316411831 0.6589194516 0.0001681796 5.12942e-05 0.0001921089 0.000108234 0.0855577109 -0.0906922613
445297330.0 -0.5252160585 0.6641473294 0.0001993816 0.0003135217 0.0002301077 0.0003107292 0.0844211086 -0.0920100973
450297300.0 -0.5185918586 0.6687425416 0.00017554 0.0001027697 0.0004491041 0.0001044505 0.082941501 -0.0925051939
455297270.0 -0.5112963053 0.6740816915 0.0001403849 0.0001324657 -6.2886e-06 4.886e-06 0.0818355342 -0.0935683154
460297240.0 -0.5057179094 0.6791307851 0.0003923166 0.0001431005 0.0002765753 0.0001522824 0.0803782863 -0.0940372121
465297210.0 -0.4984081174 0.6846095775 -8.64829e-05 4.39417e-05 0.0003839738 -3.49377e-05 0.0791850679 -0.0953803761
470297180.0 -0.4905603552 0.6895733845 0.0001483424 -4.1905e-06 0.0003414036 0.0001787549 0.0777981111 -0.0958752978
475297150.0 -0.4839717174 0.694474384 0.0002917 0.0001466452 0.0002807584 0.0001813841 0.0764319579 -0.0971486106
480297120.0 -0.4769333439 0.6994056478 0.000462357 -1.36335e-05 9.78985e-05 5.04055e-05 0.0753564597 -0.0976547073
485297090.0 -0.4696982141 0.703690646 5.8116e-05 4.0592e-05 0.0002414261 6.1711e-05 0.0737819165 -0.0981326954
490297060.0 -0.4626115088 0.7088221329 0.0002025805 -2.96588e-05 0.0002063558 0.0002787207 0.0722414698 -0.0991432023
495297030.0 -0.4557589627 0.7131761762 0.0002660015 0.0001837149 0.0003881267 -4.60088e-05 0.0710882503 -0.099715758
500297000.0 -0.4479748723 0.7178862158 0.0001545827 7.6066e-06 0.0003163551 4.52291e-05 0.0698384584 -0.1003616623
505296970.0 -0.4403944808 0.7226638428 0.0001126852 0.000192003 0.0002420996 0.0003598568 0.0681799215 -0.1012248602
510296940.0 -0.4334662225 0.726401058 0.0002487465 0.0001774589 9.38199e-05 0.0002008357 0.0666904275 -0.1018155574
515296910.0 -0.4252131035 0.7306667426 0.0003580782 0.0002908603 7.89659e-05 0.0001440017 0.0654436898 -0.102458158
520296880.0 -0.4187490627 0.7355469746 0.0001338555 0.000137485 0.0003474571 0.0001242896 0.0639362861 -0.1032464201
525296850.0 -0.4104231212 0.7387437506 0.000478409 3.97381e-05 0.0003334055 -1.88865e-05 0.0627049457 -0.1037363371
530296820.0 -0.4033335601 0.7431224296 0.0003192036 3.24087e-05 0.0003769349 6.4023e-06 0.0612539599 -0.1043857496
535296790.0 -0.3963489939 0.7471827287 0.0001767016 0.000128792 0.0003102192 4.42332e-05 0.0596949956 -0.1051087916
540296760.0 -0.3886425778 0.7506415436 0.0001688947 5.62399e-05 0.0003792018 0.000222544 0.0582373291 -0.1054220044
545296730.0 -0.380981846 0.7550176063 0.0001051221 0.0001247485 0.0001718789 2.20625e-05 0.0568755457 -0.10632747
550296700.0 -0.3730918321 0.7588374313 0.0002908377 0.0001839432 0.0003621645 7.87028e-05 0.0553978581 -0.1067876551
555296670.0 -0.3652385094 0.7614503283 0.000310761 0.0002018707 0.0001506776 5.99688e-05 0.0540118055 -0.1069459155
560296640.0 -0.3580294394 0.7664032664 0.0002717352 -0.0002084267 0.0003969457 3.87794e-05 0.052589831 -0.1076702864
565296610.0 -0.3504231532 0.7698360837 0.0002390871 0.0002844309 0.0002502763 -8.52696e-05 0.0511459085 -0.1080120105
570296580.0 -0.342868969 0.7719636259 0.0003761645 -1.5588e-06 0.0002496779 1.58111e-05 0.0493627011 -0.108270772
575296550.0 -0.3348444346 0.776575 7.42312e-05 -7.10174e-05 0.0001585858 0.0003312851 0.0482699017 -0.1090202079
580296520.0 -0.3263555307 0.7794141755 0.0001580488 1.97988e-05 0.0005476603 3.54771e-05 0.0468473009 -0.1091957725
585296490.0 -0.318750849 0.7822754858 0.0004400773 0.0001664324 0.0003041955 0.0002897475 0.0454447391 -0.1097420147
590296460.0 -0.3106272693 0.7855997359 0.0002696764 4.33348e-05 0.0002148214 4.43569e-05 0.0438897788 -0.1098410581
595296430.0 -0.3031451869 0.7880898855 0.0002216931 -0.0001466609 0.0001318587 2.65123e-05 0.0425434344 -0.1107849617
600296400.0 -0.2950991458 0.7917160508 0.0001816803 -5.91765e-05 0.0003305588 -0.0001135664 0.0410335432 -0.1112695519
605296370.0 -0.2880255573 0.7947664233 0.0001671116 -5.42256e-05 0.0003569227 -6.73324e-05 0.0397137922 -0.1111655199
610296340.0 -0.2792026344 0.7972190277 0.0003737233 8.81587e-05 0.0004191574 -0.0001071063 0.0383235078 -0.1113780418
615296310.0 -0.2709140193 0.7996379208 0.0002197655 0.000254085 0.0003937814 0.0001141796 0.036920125 -0.1119772006
620296280.0 -0.2631504156 0.8020950527 0.0003936918 -8.4585e-06 0.0001869064 2.87812e-05 0.0353609887 -0.1118357532
625296250.0 -0.2551105036 0.8054348526 0.0002522937 -0.0001165971 0.0004216531 -0.0001787494 0.0341589175 -0.1124862046
630296220.0 -0.2468457762 0.8078124967 0.0003009265 0.0003068954 0.0003957492 1.32208e-05 0.0325341385 -0.112184376
635296190.0 -0.2390100903 0.8105585194 0.0002901003 -7.29859e-05 0.0002881008 3.0124e-05 0.0312358693 -0.1126000498
640296160.0 -0.2312384587 0.8126764751 0.0004657495 0.0001449988 0.0002154551 -0.000126369 0.0299068601 -0.1129089587
645296130.0 -0.2227555867 0.8154962691 0.0002248296 1.24274e-05 0.0004373531 0.0002612577 0.028209196 -0.1126105278
650296100.0 -0.2147602108 0.8169471833 0.0004404855 0.0002128101 0.0002624792 7.3541e-05 0.0269449024 -0.113223965
655296070.0 -0.2065163169 0.818920673 0.000271031 -5.8344e-06 0.0004654737 0.0002582078 0.0255474642 -0.1127796461
660296040.0 -0.198494336 0.8204569464 0.000184726 6.81874e-05 0.0002525289 0.0001558483 0.0239222292 -0.1131665974
665296010.0 -0.1897429301 0.8222830864 6.47769e-05 0.0002346985 0.0004266053 0.0001783446 0.0224656767 -0.1131533633
670295980.0 -0.1821527726 0.8242783681 0.0001473922 5.06323e-05 0.000226437 -5.32014e-05 0.0209233805 -0.1132270005
675295950.0 -0.1739605991 0.8264986365 0.0003216698 2.7059e-05 0.0003129295 -4.25413e-05 0.0193851364 -0.1129155062
680295920.0 -0.1649567975 0.8285016512 0.0005241318 -0.0002142496 0.0004537222 0.0001141113 0.0182638464 -0.1129583689
685295890.0 -0.1569415936 0.8302337218 0.0005518227 -0.0001460833 0.0003666757 4.5279e-06 0.0164239975 -0.1129796966
690295860.0 -0.1494904599 0.8312177407 0.0002530311 6.57676e-05 0.0004781948 3.0337e-05 0.0152392264 -0.1125463177
695295830.0 -0.141277884 0.8318407329 0.0006020663 -4.51482e-05 0.0001788737 0.0002250038 0.0137559912 -0.1128705318
700295800.0 -0.1325778068 0.8340465063 0.0002371331 0.0002123325 0.0002479171 6.99762e-05 0.0120789925 -0.1126812857
705295770.0 -0.1249088579 0.8353980919 4.43553e-05 1.39586e-05 0.0003483871 -4.4011e-06 0.0106341715 -0.112265433
710295740.0 -0.1158988635 0.8364403149 0.0004247604 2.29308e-05 0.000376028 -0.0002366386 0.008883452 -0.1125864146
715295710.0 -0.1076304985 0.8372156081 0.0002859948 -0.0001728342 7.58286e-05 0.0001649303 0.0076060277 -0.1126861577
720295680.0 -0.0996012412 0.8385371539 0.000320818 -0.0001320229 0.0002613826 -0.0002902893 0.0065681665 -0.1124031355
725295650.0 -0.0912672884 0.8394360121 0.000278222 -0.000208605 8.07486e-05 -7.03134e-05 0.0044895642 -0.1122019787
730295620.0 -0.0826006419 0.8403471399 9.7785e-06 -0.0001693808 0.0001566032 -2.199e-06 0.0031084407 -0.1118663861
735295590.0 -0.0747644185 0.8410059978 0.0001150493 -0.000135462 0.00038 8.3624e-06 0.0018837085 -0.1122802194
740295560.0 -0.0655954677 0.8420332875 0.0003751014 -8.70914e-05 0.0002647364 3.03166e-05 0.0009192133 -0.1115447411
745295530.0 -0.0579146883 0.8427532598 0.0004045126 -8.71571e-05 0.0002068792 3.413e-05 -0.0007292072 -0.1115720853
750295500.0 -0.0499575821 0.8433418214 0.000235956 6.7416e-05 0.0003948519 1.33784e-05 -0.0020523757 -0.1111344229
755295470.0 -0.0411164253 0.8426407157 0.0003807472 -0.0002248154 0.0005393698 -0.0003335022 -0.0034989979 -0.1113706638
760295440.0 -0.0332286592 0.8429680359 0.0002728419 1.83933e-05 0.0003231362 -0.0001122361 -0.004916413 -0.110851887
765295410.0 -0.0244778156 0.8441259187 0.0002582653 -0.0001610899 0.0005525779 2.352e-06 -0.0060822496 -0.1105481397
770295380.0 -0.0160598593 0.844493844 0.0002700834 3.49973e-05 0.00033126 1.37496e-05 -0.0077621641 -0.1103123572
775295350.0 -0.0084410603 0.844541741 0.0001519636 -0.0001260274 0.0003348269 -0.0001238881 -0.009582981 -0.1100112194
780295320.0 0.0003899422 0.844482529 0.0004624197 0.0001794125 0.0002578605 -0.0002023321 -0.0104438011 -0.1096467238
785295290.0 0.0087389686 0.8435143279 0.0003866273 -0.0001239191 0.0002861769 -2.37323e-05 -0.0114302232 -0.1092033292
790295260.0 0.0175417413 0.8441694834 0.0003641776 -5.96381e-05 0.0003753626 -4.25166e-05 -0.0128768793 -0.1090010197
795295230.0 0.0254091515 0.8438808076 0.0004849644 -0.0002774101 0.0002896391 -2.60949e-05 -0.0144771233 -0.1085008419
800295200.0 0.0339974445 0.8432406469 0.0002299802 5.60641e-05 0.0004330401 -0.0002684071 -0.0157703993 -0.1076844113
805295170.0 0.042463066 0.8429103631 0.0004929034 -9.12912e-05 0.0002228244 -0.000139681 -0.017031747 -0.107223292
810295140.0 0.0502681864 0.8426294313 0.0001411011 -0.0002194824 0.0005594848 -8.04553e-05 -0.0180734446 -0.1070501069
815295110.0 0.0589937958 0.8420091747 0.0004780004 1.78326e-05 0.0003957303 -0.000206451 -0.0197218099 -0.1066166839
820295080.0 0.0669018743 0.8414682097 0.0003590694 8.54502e-05 0.0002430946 -0.000209857 -0.0208930044 -0.1060932421
825295050.0 0.0762222037 0.8409073669 0.0001320958 -0.000147949 0.0002415452 -9.07257e-05 -0.0222234279 -0.1054083575
830295020.0 0.0839173255 0.8404059465 0.0005555099 -0.0001798463 0.0003475476 -9.82723e-05 -0.0232815308 -0.1052007046
835294990.0 0.092021539 0.8395465079 0.0003740952 -0.0002205773 0.0004563064 9.4446e-05 -0.0248301758 -0.1043425718
840294960.0 0.0998623354 0.8387573415 0.0002068783 -0.0002276513 0.0004635814 7.81218e-05 -0.0260029793 -0.1039255317
845294930.0 0.108216385 0.8372744191 0.0003507743 -0.000316283 0.0004714587 -0.000196588 -0.0276361324 -0.1032414496
850294900.0 0.1166132119 0.8364304624 0.0004053855 -0.0001508635 0.0002295643 -7.69809e-05 -0.029090179 -0.1025657519
