!Created with skrf (http://scikit-rf.org).
# Hz S RI R 50.0 
!freq ReS11 ImS11 ReS21 ImS21 ReS12 ImS12 ReS22 ImS22
300000.0 -0.2316783331 -0.128669361 0.4659759679 0.0833375588 0.4697847195 0.0812830183 -0.237434462 -0.1249278448
5299970.0 -0.2418266274 0.0055391151 0.4750458254 0.0058079546 0.4751760142 0.0055267049 -0.2442109055 0.0049967286
10299940.0 -0.2387414977 0.0188504813 0.4773871494 0.0067489535 0.4771131763 0.0070272863 -0.2408600644 0.0172819635
15299910.0 -0.2339899011 0.0289234913 0.4807381373 0.0081250942 0.4810981732 0.008032177 -0.2372439751 0.0263986929
20299880.0 -0.2287355275 0.0369786168 0.4851503927 0.0078746056 0.4856394078 0.00809576 -0.2321236418 0.0337394319
25299850.0 -0.2225074381 0.0434564629 0.490871856 0.0073677206 0.4909868562 0.007469596 -0.2271360879 0.040124141
30299820.0 -0.2172838802 0.048929305 0.4962345649 0.0047971983 0.4963735104 0.0052007187 -0.2223444469 0.0448277778
35299790.0 -0.2113589719 0.053056938 0.5010024613 0.0016749158 0.5014768581 0.0016849797 -0.2169367213 0.049164311
40299760.0 -0.2063485483 0.0561376047 0.5064716652 -0.0019660272 0.5068457249 -0.0018952278 -0.2121880587 0.0521469309
45299730.0 -0.2010089182 0.0587109525 0.5113924088 -0.006414551 0.5113423101 -0.0069376217 -0.2073340415 0.0546522072
50299700.0 -0.1960911625 0.0608391564 0.5152001657 -0.0123322876 0.5154974418 -0.0127028964 -0.2027225008 0.0569728628
55299670.0 -0.192170369 0.0625273868 0.5189931312 -0.0181677425 0.5188275985 -0.0184694918 -0.1994813137 0.0585321023
60299640.0 -0.1877292941 0.0640074877 0.5222437661 -0.0247977244 0.5226213669 -0.0246879873 -0.1953924493 0.0597084499
65299610.0 -0.1841842043 0.0652841 0.5256062261 -0.0309722186 0.5254009243 -0.0311673914 -0.1920290763 0.0608413308
70299580.0 -0.1810881934 0.0655892457 0.5274617604 -0.0369705295 0.527872494 -0.0375421719 -0.189471078 0.0618457833
75299550.0 -0.1781733529 0.0666353101 0.529184298 -0.0445389866 0.5297732094 -0.0445534949 -0.1864918558 0.0624805455
80299520.0 -0.1754944642 0.0676970786 0.5318139367 -0.0513062334 0.5318944226 -0.0513725896 -0.1841123643 0.0634676063
85299490.0 -0.1723897492 0.0681990766 0.5326034094 -0.0584269754 0.5328006803 -0.0581341439 -0.1819977356 0.0638545423
90299460.0 -0.170457742 0.0690768394 0.5337544884 -0.0648439618 0.5338642046 -0.0648011936 -0.1794462004 0.0649534925
95299430.0 -0.1680351571 0.0697003132 0.5347566225 -0.0717858331 0.5347397996 -0.0723583267 -0.1781042931 0.0654040179
100299400.0 -0.16589457 0.0702535723 0.5347710743 -0.0783762646 0.5350433175 -0.0788523189 -0.1760419802 0.066520732
105299370.0 -0.163844098 0.0709002068 0.5351593431 -0.0857882505 0.5355422831 -0.085626885 -0.1740409521 0.0665556952
110299340.0 -0.1624162033 0.0714424982 0.5356843989 -0.0921256021 0.535877776 -0.0925375814 -0.1730854188 0.0673922214
115299310.0 -0.1607439331 0.0724667768 0.5352255058 -0.0991328832 0.535618779 -0.0993806193 -0.1716521853 0.0683728035
120299280.0 -0.1595730837 0.0733957416 0.5354420343 -0.1066084404 0.5351764701 -0.1069289988 -0.1703738349 0.06853571
125299250.0 -0.1581175153 0.0739695672 0.5345219211 -0.112897015 0.5348276531 -0.1127067866 -0.1691044817 0.0697591068
130299220.0 -0.1565810741 0.0747955703 0.5346340129 -0.1196307587 0.5342447729 -0.1202976435 -0.1678204219 0.0706442191
135299190.0 -0.1554999613 0.0759345476 0.5340243277 -0.1259776053 0.5339949268 -0.1265402971 -0.1666763064 0.0711777224
140299160.0 -0.1545010812 0.0769187844 0.5334326902 -0.1331770318 0.5331207427 -0.1326803821 -0.1662601345 0.0717838987
145299130.0 -0.1533295044 0.0778309698 0.5315399451 -0.1392552181 0.5320526043 -0.1391883083 -0.1650251937 0.0727934992
150299100.0 -0.1518223124 0.0789065515 0.5307163466 -0.1460630183 0.5306468971 -0.1462040614 -0.1644082743 0.0739443385
155299070.0 -0.1509214016 0.0799465566 0.5296132877 -0.1526773602 0.5295503484 -0.1523519581 -0.1634898298 0.0746995685
160299040.0 -0.1500363921 0.0814059706 0.5282902555 -0.1590640379 0.5279783029 -0.1594877466 -0.1628489028 0.0758471782
165299010.0 -0.1488185243 0.0822364161 0.5269205907 -0.1653564293 0.5267201883 -0.165588036 -0.1616040418 0.0765599904
170298980.0 -0.1481721507 0.0835020508 0.5249109719 -0.1716392556 0.5250740176 -0.1718833054 -0.1611204629 0.0777068609
175298950.0 -0.1471334976 0.0848230534 0.523441653 -0.177711542 0.5239504981 -0.1784049539 -0.1604862769 0.0791725195
180298920.0 -0.1462543158 0.0859295354 0.5216621341 -0.184274466 0.5218116116 -0.184723306 -0.1595938646 0.0799946459
185298890.0 -0.1450858384 0.0873816879 0.5201638593 -0.1905577903 0.5201553433 -0.1905398495 -0.1586176961 0.0811937252
190298860.0 -0.1437939549 0.0888593148 0.5176152921 -0.196765709 0.5182049965 -0.196461385 -0.1581251763 0.0821333793
195298830.0 -0.143139496 0.0900782371 0.5164250938 -0.2024964578 0.5163368582 -0.2027063494 -0.1574587707 0.0832399752
200298800.0 -0.1419026453 0.0911360901 0.5141072746 -0.2092013983 0.514326685 -0.2092119798 -0.1564228846 0.0846348863
205298770.0 -0.1414892886 0.0924354752 0.5113584676 -0.2148154161 0.5119966357 -0.2151802625 -0.155640061 0.086040753
210298740.0 -0.1403092089 0.0941944846 0.5094988305 -0.2209353516 0.5097222988 -0.2209082664 -0.1556301458 0.0869709226
215298710.0 -0.1392133897 0.095517808 0.5071042547 -0.2268156644 0.5072216453 -0.2272920189 -0.1544111489 0.0880810176
220298680.0 -0.1381069729 0.0968668621 0.5043447487 -0.2326128249 0.504915809 -0.2331196542 -0.1536393364 0.089301643
225298650.0 -0.1372665695 0.0984263633 0.5021012398 -0.2383758055 0.5028100265 -0.2382438745 -0.1531678837 0.0907648201
230298620.0 -0.1358318643 0.0999020995 0.4998303549 -0.2444921132 0.5002652425 -0.2450693806 -0.1521661141 0.0918201004
235298590.0 -0.1355180255 0.1013977379 0.4973664173 -0.2506569272 0.4972756031 -0.2503336768 -0.1513452778 0.0934905519
240298560.0 -0.1343160993 0.1029351744 0.4943232878 -0.2556532006 0.4944658842 -0.2560568449 -0.1505306069 0.0943209969
245298530.0 -0.1335434271 0.1037981074 0.4916204917 -0.2613924117 0.4916955716 -0.2615122068 -0.1498617609 0.0957449937
250298500.0 -0.1324750602 0.1054277294 0.4891942463 -0.2668426266 0.4889225602 -0.2670172387 -0.1492159635 0.0973606961
255298470.0 -0.1311420716 0.107395476 0.4861379624 -0.2728096707 0.4863845961 -0.2728095826 -0.1482321419 0.0989087643
260298440.0 -0.1301182853 0.1083317938 0.4832644019 -0.2780608023 0.4832782172 -0.2780883404 -0.1474470553 0.0999973032
265298410.0 -0.1294906907 0.110002849 0.4801180555 -0.2836794917 0.4801760767 -0.2838204293 -0.1460418776 0.1009417408
270298380.0 -0.1282299144 0.1113121674 0.4769129359 -0.2890674354 0.477117082 -0.2892290184 -0.1454834347 0.1025045683
275298350.0 -0.1268326123 0.1130903458 0.4734821365 -0.2946442999 0.4736869983 -0.2946146252 -0.1448115908 0.103969613
280298320.0 -0.1261494787 0.1144560242 0.4706536761 -0.2997837738 0.4715144132 -0.3002094858 -0.1436434251 0.1055014783
285298290.0 -0.125028475 0.1161251986 0.4675125401 -0.3049651256 0.4675183737 -0.305134162 -0.1428512987 0.1068304137
290298260.0 -0.1238188267 0.1172373667 0.4646235771 -0.3105631364 0.4643522068 -0.3106234916 -0.1417512759 0.1080360403
295298230.0 -0.1228333165 0.1186641586 0.4607193335 -0.3159260238 0.46105873 -0.3163132815 -0.1408120918 0.1092668542
300298200.0 -0.1212443038 0.1203536926 0.4577351182 -0.3208990959 0.4578649419 -0.3207505352 -0.1402343094 0.1105812689
305298170.0 -0.1202667495 0.121253977 0.4541759662 -0.3262245607 0.4542012449 -0.3264062253 -0.1389031943 0.1117535287
310298140.0 -0.1187671863 0.1226391715 0.4506778084 -0.3313042235 0.450732699 -0.3312555567 -0.1375782539 0.1127002476
315298110.0 -0.1174977112 0.123784323 0.4469409567 -0.337103456 0.4469509302 -0.3369691949 -0.1366069206 0.1141405103
320298080.0 -0.1163007415 0.1251850309 0.4427526472 -0.3417221168 0.443354488 -0.3421231888 -0.1360178071 0.1153565551
325298050.0 -0.1156789414 0.1260966316 0.4392376015 -0.3468468924 0.4396004564 -0.3466392169 -0.134776016 0.1167618378
330298020.0 -0.1148765963 0.1275732 0.4351884926 -0.3519276713 0.4358619949 -0.3517308398 -0.1340932714 0.1177511802
335297990.0 -0.1135401932 0.1289123405 0.431449988 -0.3566019516 0.4317693239 -0.3568829372 -0.1331855386 0.1191878987
340297960.0 -0.1125429697 0.1302030396 0.4269975603 -0.3617411776 0.4271716951 -0.3614388337 -0.1321130532 0.1208867269
345297930.0 -0.1113745606 0.1317070838 0.4232022256 -0.3666271683 0.4230351627 -0.3661427717 -0.1309818055 0.1217468806
350297900.0 -0.1099512451 0.1329981028 0.4191043561 -0.3705872651 0.4195178718 -0.370498276 -0.1299837516 0.1230700262
355297870.0 -0.1087897268 0.1341727828 0.4151402077 -0.3749586412 0.415048976 -0.3748794636 -0.1285066407 0.1247220514
360297840.0 -0.1076025797 0.1358051132 0.4108129646 -0.3800234551 0.4110440665 -0.380064306 -0.1281386586 0.126212898
365297810.0 -0.1062628385 0.1370934629 0.4067065299 -0.3842805354 0.407151536 -0.3843365268 -0.1272578102 0.1271789042
370297780.0 -0.1047387865 0.1386412551 0.4018394628 -0.389022759 0.4023857538 -0.3887616422 -0.1257104824 0.1288821057
375297750.0 -0.1036505637 0.139627008 0.3984139228 -0.3928796176 0.398201889 -0.3931929719 -0.1244412458 0.129935701
380297720.0 -0.1022486443 0.1412285436 0.3940886188 -0.3980492294 0.3940139077 -0.3977037815 -0.1233361003 0.1313398195
385297690.0 -0.1008501907 0.1421917706 0.3889804756 -0.4018685991 0.3896438711 -0.4022753504 -0.1220969482 0.1327084327
390297660.0 -0.0991280876 0.1430092178 0.3849787578 -0.4058517678 0.3852682787 -0.406058867 -0.1206771995 0.1339319332
395297630.0 -0.0975062771 0.1447001064 0.3808908596 -0.4098174305 0.3803874107 -0.4101246147 -0.1197900024 0.1352519416
400297600.0 -0.0963563441 0.1458329909 0.3760132904 -0.4142427928 0.3763815638 -0.4143728422 -0.1183215311 0.1370989941
405297570.0 -0.0947131618 0.1466129151 0.3715645675 -0.4184006613 0.3715821361 -0.4187684484 -0.1167227443 0.1383668182
410297540.0 -0.0931144488 0.148174505 0.3669002933 -0.4227549138 0.3669614024 -0.4226683392 -0.1154824887 0.1393218397
415297510.0 -0.0919886437 0.1492531952 0.3621890033 -0.4264699853 0.3628201772 -0.4266549446 -0.1143164886 0.1407448848
420297480.0 -0.0903528806 0.1502201178 0.3579377376 -0.4307247298 0.3579187853 -0.4307142664 -0.1128699182 0.1422553161
425297450.0 -0.0883366882 0.1513551781 0.3528852518 -0.433991656 0.3530250129 -0.4343287333 -0.1115584497 0.1427433486
430297420.0 -0.0869155318 0.1523754808 0.3488571134 -0.4382550906 0.3486907949 -0.4380299501 -0.1097953594 0.1442716226
435297390.0 -0.0851665411 0.1533155917 0.3434587297 -0.4423922262 0.3436238809 -0.4423091436 -0.1090813208 0.1458608179
440297360.0 -0.0834725569 0.1544232704 0.3383393718 -0.4459088189 0.3383674547 -0.4458731308 -0.1074684511 0.1469564737
445297330.0 -0.0818401687 0.1552009653 0.3339639001 -0.4490289764 0.3338926154 -0.4497911953 -0.1059610947 0.1482038675
450297300.0 -0.0799513676 0.1563608046 0.3288154078 -0.453084985 0.3292410586 -0.4528816332 -0.1044434668 0.1493637607
455297270.0 -0.0787841851 0.1572707308 0.3238503795 -0.4566131908 0.3241563086 -0.4565913371 -0.1029970641 0.1501452489
460297240.0 -0.0766424075 0.1582095365 0.3190949443 -0.4605645856 0.3188182688 -0.4604119037 -0.1014653205 0.1512378352
465297210.0 -0.0749074724 0.1589653702 0.3131836469 -0.4634684686 0.3134949674 -0.4638568438 -0.0996114324 0.1529974895
470297180.0 -0.0731582507 0.1603208833 0.3083306595 -0.4664131694 0.3090439378 -0.467082182 -0.0983391891 0.1539763494
475297150.0 -0.0715917934 0.1615346269 0.3036962092 -0.4701760399 0.3036993071 -0.4703004921 -0.0968074277 0.1547293788
480297120.0 -0.0692928371 0.162474388 0.2984992905 -0.4736420387 0.2984619343 -0.4733546085 -0.0956447812 0.1558196571
485297090.0 -0.0676350565 0.1628199721 0.2930190075 -0.4769863568 0.2934673039 -0.4766798415 -0.0940524215 0.1568456364
490297060.0 -0.0650404606 0.1640671753 0.2877079408 -0.480356699 0.2882302562 -0.4801195582 -0.0928313296 0.1580212047
495297030.0 -0.0639672431 0.1643468837 0.2829769464 -0.483342327 0.2830380739 -0.4836975921 -0.0905583505 0.1589837464
500297000.0 -0.061936407 0.1655570286 0.2773127332 -0.4861386584 0.2772215664 -0.4864423048 -0.0889877214 0.160236855
505296970.0 -0.0597712203 0.1664291666 0.2723467303 -0.4893932829 0.2722611203 -0.4889110341 -0.0876331943 0.1606877147
510296940.0 -0.058351685 0.1668189875 0.2670251672 -0.4924101681 0.2671122447 -0.4923836525 -0.0856923268 0.1622344047
515296910.0 -0.0564201774 0.1678063914 0.2610992568 -0.4946465614 0.2612810412 -0.4950000832 -0.0845362277 0.1625755776
520296880.0 -0.0543201846 0.16855289 0.256021816 -0.4974358462 0.255981408 -0.4973104956 -0.0825892276 0.1641845283
525296850.0 -0.0526469695 0.1690748589 0.250537543 -0.500087044 0.2502566184 -0.5005500748 -0.0807216244 0.1649905017
530296820.0 -0.0505751332 0.1699989936 0.2445840018 -0.5031488085 0.2451681951 -0.5030943194 -0.0792981457 0.1655985863
535296790.0 -0.0479703065 0.17069461 0.2389703546 -0.5055635087 0.2396265096 -0.5059976146 -0.0772447558 0.1669757504
540296760.0 -0.0462370138 0.1715439871 0.2337302495 -0.5085233941 0.2340509154 -0.508424228 -0.0759091924 0.1674819451
545296730.0 -0.0447758471 0.1724002466 0.2286233726 -0.5105197959 0.2286244946 -0.5106065535 -0.0741951989 0.1682052553
550296700.0 -0.0420287871 0.1727258891 0.2228750659 -0.51322664 0.2225808381 -0.5130978478 -0.0724048715 0.1688940288
555296670.0 -0.0404289698 0.1734478049 0.2174250413 -0.5153065687 0.2173694911 -0.515114982 -0.0710912733 0.1694355197
560296640.0 -0.0378742788 0.1740592695 0.2113080051 -0.517772748 0.2117551162 -0.5177409594 -0.0692767723 0.1710305029
565296610.0 -0.0366678716 0.1745875629 0.2063753937 -0.5199702497 0.2059746315 -0.5196138125 -0.0673541243 0.1717723624
570296580.0 -0.0343301178 0.1754846708 0.2002189161 -0.5222789889 0.2004357745 -0.5221795478 -0.0658341355 0.1720789436
575296550.0 -0.0320448073 0.1759100562 0.1952086683 -0.5241268638 0.1947427606 -0.5242716859 -0.0640308488 0.1732346501
580296520.0 -0.0305520117 0.1767380668 0.1892361572 -0.5260583636 0.1890142229 -0.5266816312 -0.0625487741 0.1737659613
585296490.0 -0.0280004016 0.1770817349 0.1836600875 -0.5282582989 0.182843436 -0.5282629996 -0.060416482 0.1748445221
590296460.0 -0.0254805562 0.1775309118 0.1777605262 -0.5302657404 0.1775832018 -0.5304387529 -0.0590234317 0.175272597
595296430.0 -0.0236558242 0.1780077981 0.1713162905 -0.5319769058 0.1713863848 -0.5319619902 -0.0571773354 0.1759857382
600296400.0 -0.0215046033 0.1785998681 0.1656390228 -0.5334915587 0.1656532969 -0.5337753575 -0.0554056649 0.1764530554
605296370.0 -0.0200083359 0.1791783436 0.1604727391 -0.5355108397 0.1597883873 -0.5359531276 -0.0536624033 0.1773334159
610296340.0 -0.017344089 0.1798823961 0.1539742929 -0.5369777591 0.1546911695 -0.5371367699 -0.0520651731 0.1781394527
615296310.0 -0.0152679012 0.1797677042 0.1486754135 -0.5390927589 0.1479188519 -0.539144638 -0.0496594538 0.1787984485
620296280.0 -0.0136701464 0.1807968851 0.1421853421 -0.5408006387 0.1422939604 -0.5406658963 -0.0485363194 0.1796471335
625296250.0 -0.0116525844 0.1808252497 0.1362920155 -0.541621459 0.1365700693 -0.5421709053 -0.047014152 0.1799933853
630296220.0 -0.0094850358 0.1813564614 0.1302166424 -0.5436601072 0.1306460179 -0.5433487687 -0.0447064323 0.1805249051
635296190.0 -0.007602594 0.1820297396 0.1249396322 -0.5444121195 0.1251330012 -0.5447278622 -0.043441051 0.1810929053
640296160.0 -0.0052939647 0.1821849977 0.1187739307 -0.5460256384 0.1187393678 -0.5458600041 -0.0413039562 0.1816644994
645296130.0 -0.0027925878 0.1824531584 0.1131680662 -0.5468743843 0.1131917939 -0.5472613878 -0.0399315215 0.1818740242
650296100.0 -0.0010848608 0.1825417647 0.1071154191 -0.548382672 0.1068275169 -0.5484803148 -0.0373559273 0.1824996116
655296070.0 0.0008913438 0.1829519415 0.1010569151 -0.5493819713 0.1009186754 -0.5493062803 -0.0362560484 0.1832669414
660296040.0 0.0028728507 0.1833916729 0.0955850213 -0.5505304957 0.0953652347 -0.5505949487 -0.0341414718 0.1833988839
665296010.0 0.004880329 0.1834871254 0.0891752391 -0.5508937804 0.0889573791 -0.5510660667 -0.0324729737 0.1838763989
670295980.0 0.006951096 0.1839140456 0.0835755458 -0.5523778872 0.0832085989 -0.5515463932 -0.0308229044 0.1842428761
675295950.0 0.0090741985 0.1838547108 0.077401358 -0.5530499701 0.0774945711 -0.552859795 -0.0291780482 0.1851331068
680295920.0 0.010617185 0.1840797034 0.0715563182 -0.5536321405 0.0713610648 -0.5537412825 -0.0268401155 0.18512943
685295890.0 0.0132238607 0.1845165288 0.064884576 -0.5547718065 0.0655158616 -0.5546462044 -0.0253562815 0.1861393902
690295860.0 0.0150313777 0.1845476137 0.0591941707 -0.5553468418 0.0589747242 -0.5552628683 -0.0237076088 0.1861788509
695295830.0 0.0172892446 0.1845536517 0.0535457961 -0.556008424 0.0534637945 -0.5556234471 -0.0217844995 0.1865907316
700295800.0 0.0195067544 0.1846627708 0.0478061697 -0.5561226726 0.0474920164 -0.5560912011 -0.0196105565 0.1870259608
705295770.0 0.0210225137 0.1849622368 0.0416399373 -0.5574157749 0.0414743344 -0.5570422804 -0.0181317317 0.1876650895
710295740.0 0.0230808312 0.1846178402 0.0359478821 -0.5570435445 0.0353725183 -0.557533861 -0.015797645 0.1878564388
715295710.0 0.0250785942 0.1849436564 0.0296480049 -0.5574221065 0.0296908182 -0.557419155 -0.0144144742 0.1877803344
720295680.0 0.0274571673 0.1847974405 0.0234522727 -0.5575351628 0.023454034 -0.5576630882 -0.0125197676 0.1882060146
725295650.0 0.0288904938 0.1848016799 0.018305472 -0.5577369165 0.0176432399 -0.5579620203 -0.0111385238 0.1889243587
730295620.0 0.030667035 0.184639176 0.0116556806 -0.5577292212 0.0114554984 -0.5577000576 -0.0090419289 0.1893578118
735295590.0 0.0329882905 0.184925357 0.0053175685 -0.5579140395 0.0056046763 -0.5580781469 -0.0073331239 0.1889519117
740295560.0 0.034812373 0.1844745258 -0.0003992089 -0.5584045684 -0.0001584535 -0.5583374138 -0.0058945002 0.1893482663
745295530.0 0.0368852364 0.1844366156 -0.0062661635 -0.5572895769 -0.0058326544 -0.5578778821 -0.0042111923 0.1896493909
750295500.0 0.0384992923 0.1843487175 -0.0120419041 -0.5577825264 -0.012438746 -0.5581260662 -0.0019247585 0.1897127285
755295470.0 0.0408527018 0.1841738424 -0.0179914593 -0.5580944512 -0.0183373631 -0.5582494855 0.0001622959 0.1906311866
760295440.0 0.0423712141 0.1843521618 -0.024245399 -0.5579159274 -0.0242596455 -0.5571350696 0.0019934873 0.1897353115
765295410.0 0.0449138637 0.1834187503 -0.0300933424 -0.5571124957 -0.0301798052 -0.557307315 0.0036577802 0.1900859851
770295380.0 0.0466675867 0.1837557946 -0.0359562858 -0.5562982943 -0.0360124976 -0.5571643762 0.0054209344 0.1907439499
775295350.0 0.0483852142 0.1832100197 -0.041921118 -0.5564810974 -0.0420018977 -0.5556736584 0.007574858 0.1907442075
780295320.0 0.0504146463 0.1830234946 -0.0477397374 -0.5557473876 -0.0477397903 -0.5557472858 0.0094018107 0.1904635404
785295290.0 0.0523470169 0.1823752328 -0.0537815159 -0.5552550771 -0.0539563021 -0.5550124114 0.0107252507 0.1908775165
790295260.0 0.054180984 0.1821516795 -0.0598848743 -0.5545196815 -0.059621367 -0.5552345582 0.0128471947 0.1914170645
795295230.0 0.0560482839 0.1816429187 -0.0659588951 -0.5543017731 -0.0659540393 -0.554208074 0.0146394471 0.1906723366
800295200.0 0.0578655236 0.1812868839 -0.0713820269 -0.5528078578 -0.0716916736 -0.5535580157 0.0162603121 0.1908910362
805295170.0 0.0596632963 0.1809819042 -0.0776449752 -0.5523609681 -0.077407121 -0.5527135465 0.0187611479 0.1908428343
810295140.0 0.0620288929 0.1807828006 -0.0831441835 -0.5511702881 -0.0837968243 -0.5512230108 0.0205171512 0.1907376751
815295110.0 0.0636723663 0.1801689997 -0.0894572579 -0.5504459903 -0.0894118264 -0.5510029305 0.0222127993 0.1909477022
820295080.0 0.0655028944 0.1794747691 -0.0947282849 -0.5492249946 -0.0950971119 -0.5498623671 0.0232859854 0.1912760026
825295050.0 0.0670156471 0.179174939 -0.1013626889 -0.5488982071 -0.1013129581 -0.5486779509 0.0261969946 0.1911364999
830295020.0 0.0690343064 0.1783155604 -0.106891686 -0.5476905104 -0.1066194911 -0.5476219151 0.0273482224 0.1903537411
