!Created with skrf (http://scikit-rf.org).
# Hz S RI R 50.0 
!freq ReS11 ImS11 ReS21 ImS21 ReS12 ImS12 ReS22 ImS22
300000.0 -0.0469077637 -0.0384205391 0.0005832851 0.0005957805 0.0006351743 0.0006082258 -0.7750713204 -0.117331065
5299970.0 -0.0499473832 0.0159821904 -9.69586e-05 2.64485e-05 -4.0264e-05 -5.02754e-05 -0.7858717792 -0.0066767969
10299940.0 -0.0445027201 0.0325418523 5.09547e-05 1.37954e-05 2.46365e-05 -0.0001272803 -0.7887467137 -0.0034231033
15299910.0 -0.0361031255 0.0471926932 -5.35313e-05 -2.1573e-06 0.0001460287 0.0001876092 -0.7939283663 -0.0016792901
20299880.0 -0.0264115715 0.0588388854 4.41565e-05 -0.0001656577 3.47276e-05 4.36462e-05 -0.800667174 0.002129977
25299850.0 -0.0153632554 0.0682184352 -0.0001846245 -2.30989e-05 -5.25712e-05 0.0001903173 -0.8068931089 0.0078828896
30299820.0 -0.0042983093 0.0750121066 0.0002080556 0.0001833862 6.4025e-05 5.49252e-05 -0.8128221249 0.0160160187
35299790.0 0.0071315973 0.0796873916 9.38855e-05 8.26487e-05 -0.0001256639 -8.96694e-05 -0.8173198015 0.0246261958
40299760.0 0.0185023505 0.0827538559 -8.31598e-05 -9.08589e-05 -4.9873e-06 5.37869e-05 -0.8217770782 0.0341428828
45299730.0 0.029213238 0.0843987292 0.0001395551 -8.5239e-05 1.32039e-05 -0.0002055526 -0.8256773084 0.0440604267
50299700.0 0.0389635161 0.0845837353 3.63307e-05 -0.0002417828 0.0002683611 0.0001014572 -0.8275163756 0.0537897047
55299670.0 0.0483099696 0.0835965347 -0.0002161142 0.0001465641 0.0001814774 0.0001220061 -0.8296965686 0.0638427701
60299640.0 0.0568759461 0.0817618924 3.68207e-05 -5.40208e-05 0.000223248 3.37055e-05 -0.830620481 0.0739369562
65299610.0 0.0648034402 0.0792975882 0.0002137477 8.65766e-05 0.0001418175 -0.0001761049 -0.831784633 0.0837989068
70299580.0 0.0716142986 0.0770203768 -2.56678e-05 -6.47608e-05 -8.54587e-05 -5.13266e-05 -0.8317559686 0.0939484167
75299550.0 0.0780055229 0.0739274536 6.08765e-05 0.000221796 -8.26826e-05 5.58747e-05 -0.8322928687 0.1040374976
80299520.0 0.0836179947 0.0707466481 9.7173e-05 -0.0001099122 -9.98716e-05 -1.7278e-05 -0.8323168024 0.1135694778
85299490.0 0.0885359091 0.0669240904 2.54759e-05 -5.20772e-05 -4.932e-05 -0.0001799524 -0.8314946999 0.1233058555
90299460.0 0.0934264914 0.0632829497 -7.8574e-05 -1.2114e-05 6.51316e-05 8.24219e-05 -0.8305222351 0.1331508272
95299430.0 0.0976057849 0.059296728 0.0002354149 7.6689e-05 4.6523e-06 0.0001601655 -0.8293929216 0.1430518338
100299400.0 0.1010154324 0.0556072335 2.72856e-05 -0.0001631441 -0.0001123815 0.0001362223 -0.8286374167 0.1523363137
105299370.0 0.1044223411 0.0519671555 2.92903e-05 0.0002548088 -0.0001111753 -6.99785e-05 -0.8271654152 0.160811748
110299340.0 0.1074631003 0.0481227776 6.22406e-05 2.39578e-05 8.32622e-05 0.0001544802 -0.8258578611 0.1709079141
115299310.0 0.1104222401 0.0442951462 -9.25906e-05 0.0001806656 -2.3057e-06 7.85944e-05 -0.8243095324 0.1797531186
120299280.0 0.1122806557 0.040195257 -6.57704e-05 0.0001295869 5.97662e-05 -0.0001907412 -0.8227364095 0.1887203857
125299250.0 0.1140396761 0.0365806807 0.0001053451 -8.6283e-06 -3.77504e-05 8.39746e-05 -0.8214120952 0.1980931343
130299220.0 0.1157282943 0.0331816955 0.0001097847 -7.26915e-05 0.0001550356 6.22236e-05 -0.8192868872 0.2064826118
135299190.0 0.1175269463 0.0302836417 -0.000107865 0.0003979429 3.6326e-05 -6.43514e-05 -0.8170445248 0.2160943631
140299160.0 0.1186312269 0.0264070103 -4.90012e-05 2.04242e-05 -1.63381e-05 4.00738e-05 -0.8150085721 0.2249856764
145299130.0 0.1199659431 0.0225423598 0.0001056167 -0.0001346873 0.0001268059 0.0001817723 -0.8134309865 0.2339640999
150299100.0 0.1212387871 0.0196062352 -7.942e-07 0.0001968292 -8.82061e-05 -1.13055e-05 -0.8115184073 0.2428824948
155299070.0 0.1214542288 0.0161257822 6.97138e-05 0.0002583018 0.0002602742 -3.73579e-05 -0.8084950877 0.2520285395
160299040.0 0.1223778264 0.0132788073 7.45103e-05 5.37712e-05 0.0001481782 0.0002207343 -0.8061753392 0.2609270461
165299010.0 0.1232252326 0.0100638998 2.41753e-05 -8.32087e-05 -0.0001209621 0.0001414851 -0.803444203 0.2692353206
170298980.0 0.1232280344 0.0072857584 -0.0001152298 0.0001650842 0.0001262753 0.0001643587 -0.8006068651 0.2780941732
175298950.0 0.1233380535 0.0041723117 0.000168931 8.05773e-05 -3.30585e-05 -2.33489e-05 -0.7976794115 0.286776572
180298920.0 0.1239439095 0.0015136601 1.50831e-05 0.0002480297 1.71034e-05 0.0002372843 -0.7946870337 0.2949992319
185298890.0 0.1240874936 -0.0017991963 -0.0001184946 0.0002194905 -9.52078e-05 0.0001057557 -0.7914127297 0.3036615319
190298860.0 0.1241581434 -0.0043691908 -9.76938e-05 -0.0001933656 0.0001355548 1.09205e-05 -0.788732026 0.3120111339
195298830.0 0.1241051921 -0.006919447 4.46789e-05 0.0002524574 3.8668e-05 0.0001650796 -0.785109257 0.3206597325
200298800.0 0.1240654358 -0.0095885369 0.0002619469 0.0001577413 -4.71803e-05 0.0002590492 -0.7823416375 0.3285672211
205298770.0 0.123570257 -0.0123343716 0.0001657018 0.0001700143 0.0001257733 8.44763e-05 -0.7784530528 0.3374038595
210298740.0 0.12346147 -0.0146191168 9.7906e-05 0.0001251787 0.0003764779 0.0001130555 -0.7750180102 0.3454844405
215298710.0 0.1228154857 -0.0172481679 0.0001644235 0.0001537802 0.0001545901 5.2052e-06 -0.7714219218 0.3531990417
220298680.0 0.1225845022 -0.019927426 6.46725e-05 0.0001327103 2.2138e-05 -2.57332e-05 -0.7676814576 0.3615157176
225298650.0 0.1221322851 -0.0220093988 6.29016e-05 0.0001710342 0.0001876074 -0.0001495466 -0.7637199196 0.3696956967
230298620.0 0.121878327 -0.0242166658 8.31325e-05 0.000131191 0.0001456907 0.000159383 -0.7605944019 0.3783551357
235298590.0 0.121541963 -0.0264669461 0.0001876345 0.0002487712 0.0001274077 3.31814e-05 -0.755963518 0.3866517224
240298560.0 0.1210876032 -0.0288231081 0.00012316 0.0001812837 0.0001226067 0.0002099616 -0.7517032485 0.3947410819
245298530.0 0.1203303587 -0.0310082232 5.4309e-06 4.77786e-05 0.000175612 1.0566e-06 -0.7478966907 0.401726836
250298500.0 0.1195808365 -0.032965695 -8.31168e-05 -0.0001181373 4.84009e-05 0.0002517065 -0.7436489846 0.4095612961
255298470.0 0.1189041232 -0.0352194225 0.0001724471 -2.12277e-05 4.54576e-05 0.0001870062 -0.7389177845 0.4173899821
260298440.0 0.1181141446 -0.037065764 0.0001084691 2.49046e-05 0.0001260828 3.88669e-05 -0.7349526693 0.4260822511
265298410.0 0.1175230707 -0.0391377215 0.0002055315 0.000188802 0.00037954 -6.666e-07 -0.7303095398 0.4326834618
270298380.0 0.1169279922 -0.0408228522 0.0002590377 0.0001402142 4.13148e-05 0.0001228804 -0.7252672538 0.4411065345
275298350.0 0.1161415162 -0.0430978466 7.78068e-05 5.23222e-05 0.0001037632 0.0001917522 -0.7209274431 0.4486580377
280298320.0 0.1155375015 -0.045181759 8.44344e-05 -0.0001179322 7.98903e-05 0.0001340606 -0.7161839001 0.4558906932
285298290.0 0.1148985399 -0.0463518196 0.0002125593 4.7715e-06 0.0001955357 7.52086e-05 -0.7112108061 0.463332519
290298260.0 0.1140877741 -0.0483032987 0.0003304482 -5.29068e-05 -2.32135e-05 0.0001012786 -0.7068635933 0.4710708686
295298230.0 0.1131827036 -0.0502285897 5.04864e-05 -2.64915e-05 -7.49185e-05 0.0002854097 -0.7016188483 0.4783388668
300298200.0 0.1122966181 -0.0519122309 0.0002628642 3.56401e-05 0.0001665774 0.0002145229 -0.6967257373 0.4851608435
305298170.0 0.1116419906 -0.053923656 4.98212e-05 0.0002246022 0.0002400981 0.0001602218 -0.6911949352 0.4932653187
310298140.0 0.1106416403 -0.0554917137 0.0002529339 7.76332e-05 0.0001382714 0.0001245309 -0.6866798631 0.5003636379
315298110.0 0.1095960809 -0.0573184601 0.0001432106 0.0002457155 0.0003431309 0.0002580951 -0.6809103989 0.5072320568
320298080.0 0.1090836758 -0.0591298898 0.0002983634 0.0001191803 0.000191139 4.03834e-05 -0.675553632 0.514683107
325298050.0 0.1076240002 -0.0608701214 0.0004309644 1.91947e-05 2.6652e-05 0.0002229845 -0.6699774388 0.5216205612
330298020.0 0.106363609 -0.062710081 0.0001903257 -6.56358e-05 0.0001390146 -1.47587e-05 -0.664685842 0.5287589679
335297990.0 0.1050429997 -0.0644456396 0.0003306909 -1.42067e-05 -0.0001270082 0.0001589086 -0.6599064505 0.5356811999
340297960.0 0.1036871408 -0.0659019957 0.0002154358 0.0001841423 0.000332725 -7.40787e-05 -0.6532448475 0.5423523466
345297930.0 0.1024449215 -0.0670437331 0.0001989878 4.06709e-05 0.000284618 4.67813e-05 -0.6478725873 0.5485638083
350297900.0 0.1013449945 -0.068203386 7.54862e-05 6.58803e-05 0.0001695072 0.0002697098 -0.6422014592 0.5555435029
355297870.0 0.1003365267 -0.0692844859 0.0002251379 0.0002248853 0.0003215828 9.74041e-05 -0.63681463 0.5619461983
360297840.0 0.098871122 -0.0709190147 0.000228231 0.0001466331 0.0002958553 0.0001496632 -0.6300932467 0.5686567338
365297810.0 0.0973563883 -0.0717231713 0.0001869003 0.0001571037 8.24057e-05 -2.7156e-06 -0.6236787397 0.574859382
370297780.0 0.0966827951 -0.0735712603 0.0002248556 0.0001883481 0.0003648521 0.0001105692 -0.6185318864 0.581920865
375297750.0 0.0953688447 -0.0744507149 0.0002798922 0.0001760185 0.0001815465 4.5355e-05 -0.611954088 0.586882273
380297720.0 0.0941765389 -0.0757715329 5.33409e-05 -5.76348e-05 9.63103e-05 0.0001234057 -0.606379972 0.5937742913
385297690.0 0.0928167728 -0.0768016515 0.0001410751 0.0002358278 7.26176e-05 0.000157111 -0.5997733414 0.6001013049
390297660.0 0.0917765697 -0.0779826996 0.000127122 0.0003086786 0.0003720785 0.0001658142 -0.5941491802 0.6065769172
395297630.0 0.0906827186 -0.0792091157 8.23104e-05 0.0003453953 0.0002240266 0.0001645205 -0.5870314392 0.6129433178
400297600.0 0.0892971672 -0.0803384504 0.0003272332 0.0001943002 0.0002159449 0.0001473533 -0.5814762056 0.6181756353
405297570.0 0.0877365552 -0.0813717717 0.000190038 0.000259463 9.73492e-05 9.18648e-05 -0.574659434 0.6236793015
410297540.0 0.0865906438 -0.0824637108 0.0005385708 0.0001194908 0.0003303982 0.0002058743 -0.5679845565 0.630336255
415297510.0 0.0856994041 -0.0837739864 0.0001964897 7.36761e-05 0.0001776671 4.60891e-05 -0.5612104505 0.6354896332
420297480.0 0.0841298335 -0.0843787737 0.0001706655 0.0001683301 0.0002285171 0.0001267969 -0.5545937763 0.6422526293
425297450.0 0.0829584447 -0.0855518728 0.0002745958 7.06498e-05 0.0001048945 0.000136362 -0.548531072 0.6479748224
430297420.0 0.0817648676 -0.0869595817 0.0001895382 0.0002913281 0.0003994513 0.0002536931 -0.5418379925 0.6525360656
435297390.0 0.0805711938 -0.08718333 0.0001761965 5.57053e-05 0.000412742 0.0001861071 -0.5343750097 0.6584017914
440297360.0 0.0789152785 -0.0884711138 0.0003624272 -6.86452e-05 0.0003353101 0.0001043864 -0.528318562 0.6640609383
445297330.0 0.0775596724 -0.0894637702 0.0003422788 -6.45522e-05 0.0003479143 0.0001983039 -0.5208282 0.6687800155
450297300.0 0.0765546786 -0.0904236988 0.0001744928 0.0002631342 0.0003568611 0.0001126861 -0.513744009 0.6739732029
455297270.0 0.0749696088 -0.0910242047 6.13206e-05 -0.0001354672 0.0002151163 0.0001983971 -0.5070775158 0.6791143617
460297240.0 0.0737298786 -0.0920113438 0.0001741695 1.92652e-05 0.0002790951 0.0001350328 -0.5003100617 0.6845404913
465297210.0 0.0725473208 -0.0925918174 0.0003668857 -0.0002172323 9.36245e-05 0.0001647164 -0.4925354581 0.6894805299
470297180.0 0.0710145765 -0.0935828102 0.000309872 -1.03509e-05 0.00030495 0.0002403556 -0.4855184692 0.6947332806
475297150.0 0.0696827475 -0.0944511972 0.0001155716 5.08467e-05 0.0003616842 0.0003450316 -0.4784290305 0.6992298844
480297120.0 0.0685032874 -0.094999165 0.0003350389 0.0001243122 0.0001206161 -4.38507e-05 -0.4713409595 0.7044862066
485297090.0 0.0670782725 -0.0957217686 0.0004604348 -4.50729e-05 0.0001747758 0.0001481235 -0.4643314388 0.7090741835
490297060.0 0.0655092239 -0.0963254664 0.0003908172 0.0001126809 0.0002985917 0.0001364406 -0.4572652264 0.7135868411
495297030.0 0.0641266675 -0.0968941201 0.0005332166 6.03451e-05 0.0003087319 0.0003298261 -0.4497884629 0.7180128947
500297000.0 0.0629036419 -0.0977443035 0.0002531252 0.0001422705 0.0004802763 0.0001775011 -0.4415521442 0.7231977837
505296970.0 0.0616481323 -0.0986428701 8.22123e-05 -3.34902e-05 0.0002527284 0.0001123479 -0.4344725478 0.7269945966
510296940.0 0.0600857311 -0.0991644166 0.00024932 0.0001222958 0.0003622998 3.0758e-05 -0.4268924464 0.7313498366
515296910.0 0.0587427706 -0.0998005999 0.0003652454 0.0002847311 0.000243385 -5.8774e-05 -0.4199002494 0.7356903081
520296880.0 0.057075848 -0.1003872177 0.0001664562 0.0001186499 0.0001915472 9.26009e-05 -0.4123882833 0.7391835209
525296850.0 0.0559972398 -0.1011908763 0.0002446036 0.0001450163 0.000384124 -0.0001129835 -0.4048538838 0.7438282371
530296820.0 0.0547772606 -0.1013066527 0.000563701 0.0001627782 0.0003436721 -7.02934e-05 -0.3975374943 0.7476255977
535296790.0 0.052792366 -0.1020796798 0.0002982433 -2.78286e-05 0.0003716648 8.42249e-05 -0.3901480624 0.751416358
540296760.0 0.0515867664 -0.1025673131 0.0004298761 0.0001089233 0.0002947607 0.0002011407 -0.3820514711 0.7559587553
545296730.0 0.0500186746 -0.1029648805 0.0002671169 6.20287e-05 0.0002745453 -1.7172e-06 -0.3742710578 0.7591791895
550296700.0 0.0491006194 -0.1032908156 0.0002178682 0.0001400887 0.0003247873 -4.1012e-06 -0.3662864094 0.7628682212
555296670.0 0.0471656471 -0.1039310572 0.0004574547 -8.61734e-05 0.0002685669 -0.0001227151 -0.3588920942 0.7667634653
560296640.0 0.0458902232 -0.1041546658 0.0004245598 -7.60867e-05 0.000274329 2.17594e-05 -0.3508061134 0.7703226804
565296610.0 0.0443201982 -0.1045465939 0.0003319906 1.72867e-05 0.0003340539 -7.1387e-06 -0.3428159717 0.773074804
570296580.0 0.0428865997 -0.1050531722 0.000381137 6.08914e-05 0.0003194581 1.87934e-05 -0.3356238466 0.7775652683
575296550.0 0.0413759967 -0.1052316018 0.0002671391 0.000132658 0.000299066 8.31264e-05 -0.3270157983 0.7806825626
580296520.0 0.0400766083 -0.1058666613 0.0003987011 3.79471e-05 0.0003926271 6.12987e-05 -0.3187541555 0.7838302067
585296490.0 0.0384867073 -0.1063311532 0.0003558914 1.66871e-05 0.0004262034 0.0003238505 -0.311209526 0.7870474851
590296460.0 0.0373556817 -0.1065024709 0.0003499783 -4.81771e-05 0.0004022088 2.50396e-05 -0.3035193069 0.7901246676
595296430.0 0.0358704781 -0.1066447607 0.000448769 0.0002330882 0.0005329001 5.52517e-05 -0.2949082954 0.7925164483
600296400.0 0.0340835497 -0.1070003545 0.0003832942 0.0003223288 0.0004338049 1.17102e-05 -0.287070673 0.7956027316
605296370.0 0.0328406982 -0.1071624011 0.0004358627 2.23015e-05 0.0003408049 5.77709e-05 -0.2786581539 0.798805872
610296340.0 0.0312068493 -0.1072806181 0.0003856929 0.0001015673 0.0002350373 -2.05542e-05 -0.2709915904 0.8010280804
615296310.0 0.0301347744 -0.1078392845 0.0002414958 1.43996e-05 0.00032662 -3.30664e-05 -0.2623984513 0.8036461208
620296280.0 0.0281811811 -0.1079197452 0.0003328543 7.0112e-06 0.0003139022 0.0002578496 -0.2547618416 0.8068373859
625296250.0 0.0269314224 -0.1082406261 0.000475961 0.0001314952 0.0002611739 -2.6327e-06 -0.246273876 0.8085250451
630296220.0 0.025874663 -0.1087191434 0.0004322317 -3.99553e-05 0.0003793348 9.89957e-05 -0.2378672858 0.8116095463
635296190.0 0.0242372027 -0.1079620305 0.0004016849 -5.43352e-05 0.0003721829 -0.0001323605 -0.2303145676 0.8136515321
640296160.0 0.0228392238 -0.1085489486 0.0002259993 -0.0001832382 0.0003797394 -2.04901e-05 -0.2217964345 0.8162834387
645296130.0 0.0213159079 -0.1081640877 0.0004636723 4.03148e-05 0.0003067652 7.866e-07 -0.2135722118 0.818206826
650296100.0 0.0197850443 -0.1086857948 0.0006734668 0.0001966466 0.0004005291 -0.0001255246 -0.205483415 0.8196065702
655296070.0 0.0183571103 -0.1083552707 0.0002915458 9.28183e-05 0.0002257435 0.0003616473 -0.1967290428 0.8218139261
660296040.0 0.0166626255 -0.1086355065 3.44077e-05 0.0002129273 0.0004249938 8.67905e-05 -0.1884538522 0.8237384236
665296010.0 0.015549349 -0.1089722427 0.0003334277 -0.0001707417 0.0002678355 -3.98817e-05 -0.1803997248 0.8263927328
670295980.0 0.0137830048 -0.1083886977 0.0003602832 -1.75135e-05 0.0004088783 -3.2068e-06 -0.1727356173 0.8275828139
675295950.0 0.0124374781 -0.1082068337 0.0001199607 -6.60917e-05 0.0004122566 0.0001322703 -0.1646377863 0.8297485924
680295920.0 0.0110202417 -0.1084009938 0.0005707836 -5.08047e-05 0.0003307192 0.0001615177 -0.1556960715 0.8315158729
685295890.0 0.0096948122 -0.1080330251 0.0006315191 -0.0001073467 0.0004249651 0.0001378575 -0.1468010327 0.832511196
690295860.0 0.0083410475 -0.1081960051 0.0003876398 0.0002493387 0.000556771 -5.78145e-05 -0.1394077159 0.8339424732
695295830.0 0.0066016862 -0.1078459911 0.0002952028 -0.0001670263 0.0004260921 -5.25502e-05 -0.1298696085 0.8352884772
700295800.0 0.0051519571 -0.108028281 0.0002178311 -3.34506e-05 0.0003422283 -1.61599e-05 -0.1231267394 0.8365223297
705295770.0 0.0038152599 -0.1076303978 0.0002904046 -2.84629e-05 0.0005061965 -8.2279e-05 -0.1140688878 0.8382381519
710295740.0 0.0023985949 -0.1076933267 0.0005283059 0.0001832036 0.0003976953 -0.0001142742 -0.1055723839 0.8387689118
715295710.0 0.0007268412 -0.1076042982 0.0004910373 0.0001779594 0.0004829402 2.57679e-05 -0.0969549618 0.8395485607
720295680.0 -0.0005620511 -0.1075228999 0.0002009912 -0.0002970595 0.0003774296 -9.67989e-05 -0.08860969 0.8406934437
725295650.0 -0.0017836382 -0.1070338481 0.000458348 -5.86338e-05 0.0002465684 0.0001720783 -0.0809413222 0.8419898315
730295620.0 -0.0032650049 -0.106509594 0.0002920033 -0.0001008362 0.0004740364 0.0001065799 -0.0725348692 0.8417739705
735295590.0 -0.0046062436 -0.1066197405 0.0002473247 -3.72434e-05 0.0003371735 -2.99991e-05 -0.0639895745 0.8423918545
740295560.0 -0.0061552648 -0.1060231918 0.0004529048 6.6899e-05 0.0004509065 -0.0001164244 -0.054906691 0.8437952495
745295530.0 -0.0075432411 -0.1060112361 0.0002013105 -0.0002083942 0.0003632828 -0.0001572615 -0.046567737 0.8437509885
750295500.0 -0.0088598787 -0.1057666708 0.0003286495 -9.55195e-05 0.0002791596 0.0001278378 -0.0386351416 0.8444862501
755295470.0 -0.0102298427 -0.1053523597 0.000273119 -3.55255e-05 0.000447776 0.0001548592 -0.0296850865 0.8440222873
760295440.0 -0.0119321247 -0.1048005831 0.000259713 -0.0001669403 0.0004432702 -0.0001163289 -0.0212112049 0.8445125607
765295410.0 -0.0129858096 -0.1046848764 0.0001460711 2.44445e-05 0.0004806969 -5.48932e-05 -0.0130626932 0.8453039055
770295380.0 -0.0142913205 -0.1042410805 0.000467259 -9.57071e-05 0.0003210681 5.65514e-05 -0.0045403013 0.8453258054
775295350.0 -0.0160479978 -0.1040117222 0.0004214463 -0.0001036799 0.000218725 0.0001114859 0.0032552792 0.8448418213
780295320.0 -0.0171451416 -0.1035122458 0.0004253647 -6.55917e-05 0.00023677 -0.0002460602 0.0116850724 0.8448199726
785295290.0 -0.0188343593 -0.1034410257 0.0004021242 -0.0002798158 0.000308901 -0.0001452741 0.0207998356 0.8446616424
790295260.0 -0.0197784123 -0.1026875128 0.0001800979 -0.000326633 0.0002966245 -6.16e-08 0.0296021393 0.844757341
795295230.0 -0.0214208457 -0.1020853616 0.0003458199 -5.03226e-05 0.0005055262 -0.0001379221 0.038162991 0.8438047347
800295200.0 -0.0228491984 -0.1015777348 0.0003167374 4.27711e-05 0.0004056712 -8.8248e-05 0.0465443134 0.8436642679
805295170.0 -0.0239087307 -0.1014768272 0.0005386872 2.92179e-05 0.0003641647 -0.0001393584 0.0541226617 0.8433984462
810295140.0 -0.0249523647 -0.1006632956 0.000218 -4.5108e-05 0.0006125069 -0.0003572315 0.0630893336 0.8428565078
815295110.0 -0.0266897122 -0.100242895 0.0003664586 -0.000448361 0.0001686106 -0.0002003937 0.0720909395 0.8419865288
820295080.0 -0.0277951772 -0.0994117588 0.0004512218 -0.0004248663 0.0004013672 -0.0002841825 0.0795678681 0.8415337275
825295050.0 -0.0288921381 -0.0992706539 0.0005383486 -0.0002349071 0.000301924 -0.000183388 0.0881080333 0.8408109669
830295020.0 -0.0305574559 -0.0983102666 0.0002135903 -0.0002257273 0.0003870589 -5.12139e-05 0.0973775457 0.8395762298
835294990.0 -0.0315987534 -0.0975744188 0.0003776983 -0.0001540278 0.0003606707 -0.0002445494 0.1044755259 0.8388015363
840294960.0 -0.032869541 -0.0971745815 0.0003085259 -3.70289e-05 0.0003161826 -4.74457e-05 0.1131533693 0.8374654491
845294930.0 -0.0341581251 -0.0964722133 0.000304808 -0.000242931 0.000325965 -0.0001892704 0.1206444663 0.8360367437
