!Created with skrf (http://scikit-rf.org).
# Hz S RI R 50.0 
!freq ReS11 ImS11 ReS21 ImS21 ReS12 ImS12 ReS22 ImS22
300000.0 -0.3178406105 -0.0839845233 0.3752407631 0.0436482491 0.3740341705 0.0402020646 -0.3228851616 -0.0959976616
5299970.0 -0.3264905147 0.0040454122 0.3782419399 0.0026904569 0.3785314741 0.0027233785 -0.324381014 0.0044910409
10299940.0 -0.3240321719 0.0135835855 0.3795272 0.0016561013 0.3792340631 0.0022332747 -0.3216731588 0.0157349502
15299910.0 -0.3214280105 0.0201750951 0.3815399123 0.0020951758 0.3819777801 0.0023771085 -0.3186692147 0.0238569707
20299880.0 -0.3186037926 0.0262012446 0.3847429665 0.0018436737 0.3848006399 0.001867861 -0.3149421953 0.0303053792
25299850.0 -0.315901555 0.0315037944 0.3883678064 -2.04594e-05 0.3879054126 3.06011e-05 -0.3107992824 0.0359943063
30299820.0 -0.312641068 0.0358602944 0.3915085352 -0.0020681429 0.3915707107 -0.0024936511 -0.307216872 0.0408839237
35299790.0 -0.3097579873 0.0396539112 0.3946087205 -0.0055457337 0.3947769261 -0.0055421338 -0.3034639259 0.04517185
40299760.0 -0.3071602116 0.0436890366 0.3980282856 -0.0086920724 0.3980621036 -0.0086550439 -0.3003125162 0.0485675744
45299730.0 -0.3044504239 0.0465375668 0.4007083582 -0.0131429075 0.4011830683 -0.0126636461 -0.2973319386 0.0516649372
50299700.0 -0.3024181979 0.0492497772 0.4031907742 -0.0170355403 0.403395921 -0.016781056 -0.2942425415 0.0542286991
55299670.0 -0.3002113299 0.0520995805 0.4060897949 -0.0221975274 0.4053267533 -0.0219242372 -0.2916865363 0.0569744655
60299640.0 -0.2980117849 0.0548398824 0.4074458606 -0.0269484103 0.4079554247 -0.0265850458 -0.2891272271 0.059311259
65299610.0 -0.2963815366 0.0575538127 0.4089702554 -0.0319729629 0.4092213393 -0.0317017869 -0.2871092662 0.0616609784
70299580.0 -0.2946419888 0.0603588606 0.4106224038 -0.0369711609 0.4103882158 -0.0367480305 -0.2850726958 0.0638686103
75299550.0 -0.2927154531 0.0625367257 0.411296125 -0.0420586552 0.411467084 -0.0419534259 -0.2836012584 0.0653475834
80299520.0 -0.2915009743 0.0649564517 0.4123820149 -0.0474265567 0.4123939522 -0.0472493335 -0.2812758495 0.0677201398
85299490.0 -0.2902418653 0.0669215054 0.4128224499 -0.0524347912 0.4131174836 -0.0521164684 -0.2802097318 0.0699195983
90299460.0 -0.2886878924 0.0695050868 0.4126863901 -0.0578847314 0.4136403745 -0.0580624656 -0.2782826482 0.0720713899
95299430.0 -0.2873593913 0.0714579275 0.4138299451 -0.063140006 0.4134517485 -0.0630791672 -0.2762518644 0.074114255
100299400.0 -0.2865371689 0.0740428274 0.4132074269 -0.0681006979 0.4131717367 -0.0684077509 -0.2750776334 0.075972408
105299370.0 -0.2852099786 0.0766046268 0.4134299333 -0.07381221 0.4133774329 -0.073504085 -0.2736989426 0.0782002957
110299340.0 -0.2839487046 0.0791707126 0.4132299798 -0.0788837475 0.4130667943 -0.0783572579 -0.2728943872 0.0802007466
115299310.0 -0.2828921448 0.0811281166 0.4130206595 -0.0837970342 0.4127427373 -0.0836713947 -0.2716693618 0.0828139468
120299280.0 -0.2819090413 0.082973765 0.4122272359 -0.0889263549 0.4123868701 -0.0887758372 -0.2703635569 0.0843865772
125299250.0 -0.2810327762 0.0852985795 0.4120337571 -0.0940377867 0.4124207157 -0.0937133914 -0.2699141821 0.0863915541
130299220.0 -0.2805042564 0.0881666838 0.410969394 -0.0989992714 0.4112103067 -0.0991043702 -0.2683333329 0.0885963201
135299190.0 -0.2793370647 0.0908300304 0.4107164729 -0.1041997911 0.4106356167 -0.1039439187 -0.2673578328 0.0907288729
140299160.0 -0.2784547505 0.093104009 0.4098400476 -0.1088495245 0.4096987686 -0.1090685384 -0.2659360416 0.0936834104
145299130.0 -0.2775582768 0.0955832686 0.4092085891 -0.1140783579 0.4086841943 -0.1140325635 -0.2654144294 0.0956488139
150299100.0 -0.27632831 0.0984247177 0.4078851375 -0.1188964213 0.4080196227 -0.1182259829 -0.2647675566 0.0987502676
155299070.0 -0.2753893221 0.1006037121 0.4069072841 -0.1240558326 0.4066100563 -0.1238106429 -0.2629888617 0.1007216592
160299040.0 -0.2746731807 0.1037855683 0.4055699424 -0.1288944371 0.4052457416 -0.1286005059 -0.2629111082 0.1030135115
165299010.0 -0.2736782779 0.1060871282 0.4041445816 -0.1339636341 0.4039311385 -0.1337515927 -0.2612089156 0.1056990987
170298980.0 -0.2727226196 0.1084900953 0.4026275329 -0.1384690422 0.40280613 -0.1383757436 -0.2605216003 0.108310554
175298950.0 -0.2718295329 0.1114446426 0.4016227017 -0.1431993421 0.401433927 -0.1430254572 -0.2595827624 0.1105318846
180298920.0 -0.2709696956 0.1139520315 0.4000529201 -0.1476537307 0.399649839 -0.1475450381 -0.2585014179 0.1135419728
185298890.0 -0.2695510192 0.1164885042 0.3983079529 -0.1525765411 0.3983748921 -0.1522722944 -0.2573054714 0.1157075093
190298860.0 -0.2688245505 0.1195060723 0.3970274623 -0.1574014778 0.3971168418 -0.1569558241 -0.2563309541 0.118122296
195298830.0 -0.2679033664 0.1220972327 0.3953925527 -0.1619231392 0.3950176882 -0.1617422986 -0.255188356 0.1206220945
200298800.0 -0.2662682742 0.1247037287 0.3933193303 -0.1664564808 0.3934916204 -0.1663878977 -0.2542998151 0.1233336868
205298770.0 -0.2654908138 0.1272843505 0.3915872918 -0.1713746243 0.3918607648 -0.1709312854 -0.2532167305 0.1254714052
210298740.0 -0.264256965 0.1298344105 0.3898728988 -0.1752607979 0.3899521286 -0.1750791405 -0.2517584922 0.1284682922
215298710.0 -0.263422491 0.132719235 0.3881349344 -0.1800566052 0.3878061842 -0.1803280051 -0.2510545274 0.1310676297
220298680.0 -0.262014896 0.1351981668 0.3856780586 -0.1845979059 0.3860800643 -0.1843504287 -0.2503803665 0.1329604984
225298650.0 -0.2609004456 0.1378055918 0.3838539118 -0.1890148962 0.3840967356 -0.1890993232 -0.2489940835 0.1357537052
230298620.0 -0.2595754806 0.1406853 0.3818844515 -0.19330701 0.3824292925 -0.1934379236 -0.2478826358 0.1383918796
235298590.0 -0.2583699018 0.1439916873 0.379829681 -0.1979695333 0.3799553383 -0.1974178332 -0.2464537851 0.1413069185
240298560.0 -0.2571886184 0.1464175694 0.3780202081 -0.2022803186 0.3779510413 -0.202293032 -0.2453947681 0.1438899057
245298530.0 -0.2558855533 0.1490089799 0.3758964235 -0.206578625 0.375761035 -0.2065008823 -0.2440205739 0.1457940538
250298500.0 -0.2541622959 0.1515160799 0.3726823976 -0.2109030652 0.3727158644 -0.2107270067 -0.2428933374 0.148622573
255298470.0 -0.2530437973 0.153967287 0.3701953257 -0.2146842627 0.3706080159 -0.2148255236 -0.2409213055 0.150938173
260298440.0 -0.2516413979 0.1569981926 0.3685012403 -0.2192972872 0.3685905474 -0.2189877015 -0.2394404108 0.153674298
265298410.0 -0.2500695874 0.1599079366 0.3661144609 -0.2233413686 0.3662764144 -0.2231961765 -0.2383472265 0.1562158697
270298380.0 -0.2484769842 0.1625748481 0.3639512954 -0.2275904269 0.3637700465 -0.2273418668 -0.2367863335 0.1587546135
275298350.0 -0.2468066746 0.1649842172 0.3609978523 -0.2315666485 0.3612294364 -0.2315443621 -0.2350299514 0.1609052781
280298320.0 -0.2447965619 0.1677646551 0.358584038 -0.2356157885 0.3585080091 -0.2354879282 -0.2331932477 0.1638697036
285298290.0 -0.2436712679 0.1705694275 0.3558389213 -0.2397962719 0.3559477335 -0.2397316918 -0.231851528 0.1661158913
290298260.0 -0.2419318856 0.1731029994 0.353162419 -0.2436940236 0.3533177878 -0.2436064445 -0.2299801965 0.1687235452
295298230.0 -0.2400676611 0.1755437197 0.3507106035 -0.2475403897 0.3503670827 -0.2481918808 -0.2282488635 0.1710640056
300298200.0 -0.2387115875 0.178451831 0.3482933117 -0.251613962 0.3482596923 -0.2519034239 -0.2268075596 0.1735128
305298170.0 -0.2367690036 0.1806232305 0.3449702764 -0.2557874321 0.3451140935 -0.2553725892 -0.2244777 0.1759111909
310298140.0 -0.2347359318 0.183327661 0.3425041786 -0.2596813127 0.342272774 -0.2596356961 -0.2233659012 0.1784143196
315298110.0 -0.2331457918 0.1858136521 0.33960141 -0.2633722608 0.3399963144 -0.263253483 -0.2213717306 0.1806258312
320298080.0 -0.2312316871 0.1880827314 0.3360740049 -0.2676421632 0.3363456772 -0.2672386568 -0.2195769017 0.183099292
325298050.0 -0.2292122511 0.1909400637 0.3335182104 -0.2714180379 0.3336431032 -0.2712725123 -0.2180220218 0.1855342419
330298020.0 -0.2277789882 0.1930573977 0.3303360134 -0.2750434595 0.3307798634 -0.2751427272 -0.2162674958 0.1880792032
335297990.0 -0.2256445829 0.1953976799 0.3274267503 -0.2784112331 0.3271964665 -0.2786328088 -0.2148189082 0.1906648732
340297960.0 -0.224145377 0.1984131009 0.3238797927 -0.2823668117 0.3234670066 -0.2823307566 -0.2120807543 0.1931530751
345297930.0 -0.2221444633 0.2008986014 0.320807788 -0.286102515 0.3207880934 -0.2857381882 -0.2106408689 0.1950830752
350297900.0 -0.2204469651 0.2033200348 0.3169083296 -0.289470718 0.3173553939 -0.2891404469 -0.2089669789 0.1981227909
355297870.0 -0.2179649396 0.2061915777 0.3141163507 -0.2930654894 0.3145324141 -0.292400333 -0.2073103678 0.1999907706
360297840.0 -0.2160196675 0.2081980226 0.3116167404 -0.2961332989 0.3112685242 -0.2959898794 -0.2049426566 0.2027057441
365297810.0 -0.2141788005 0.2109191569 0.3077797763 -0.2997736144 0.3076112711 -0.2997291139 -0.2028198701 0.2050169987
370297780.0 -0.2120661122 0.213119135 0.304535817 -0.3029285287 0.3047414805 -0.3026117042 -0.2008397988 0.2074495259
375297750.0 -0.2093202393 0.2155473147 0.3010100154 -0.3062654427 0.3014996066 -0.3066137157 -0.1989461736 0.2091024125
380297720.0 -0.2074127382 0.2177014196 0.2972914753 -0.3098002034 0.297798211 -0.3090240878 -0.1970943172 0.211955281
385297690.0 -0.2056042347 0.2203526317 0.2940931971 -0.313075035 0.2940838002 -0.3128241204 -0.1946519058 0.2141179271
390297660.0 -0.2031520614 0.2228260286 0.2908495405 -0.3161811422 0.2907904782 -0.3158225967 -0.1928760877 0.2162620444
395297630.0 -0.2008164221 0.2249966254 0.287340087 -0.3189814522 0.2873450525 -0.3194751049 -0.1900918785 0.2186210528
400297600.0 -0.1985633913 0.2276413173 0.283296981 -0.3226943849 0.283642034 -0.3224180271 -0.1879755103 0.2206384323
405297570.0 -0.196526824 0.2296090814 0.2799834028 -0.3255490432 0.2804276534 -0.3250957547 -0.1863548941 0.2228515535
410297540.0 -0.1937109547 0.2316456668 0.27653675 -0.3284484939 0.2769440322 -0.3285439894 -0.1840475739 0.2251773281
415297510.0 -0.1912547205 0.2337537957 0.2724000623 -0.3317155072 0.2728888345 -0.3318636868 -0.1813159263 0.2273201392
420297480.0 -0.1892356061 0.2364994679 0.2690251061 -0.3344404816 0.2690041448 -0.3346858144 -0.1791847673 0.2293611049
425297450.0 -0.186660389 0.2377882907 0.265788686 -0.3367982547 0.2659477273 -0.3377730724 -0.1771874146 0.2312500928
430297420.0 -0.1844112337 0.2402402817 0.2617465759 -0.3396791993 0.2619688181 -0.3398771612 -0.1748932768 0.2331172417
435297390.0 -0.1817686453 0.2425371518 0.2575578906 -0.342820185 0.2575507792 -0.3430567539 -0.1717118756 0.234844355
440297360.0 -0.1792927936 0.2446865813 0.25411181 -0.345843999 0.2542552508 -0.3456858596 -0.1696521507 0.2369713305
445297330.0 -0.1768038225 0.2467847436 0.250445409 -0.3488519732 0.2502814561 -0.3483384164 -0.1670871954 0.2384768294
450297300.0 -0.1740469826 0.2486423365 0.2466930909 -0.3511429228 0.2465449556 -0.351593887 -0.1646950639 0.2406147292
455297270.0 -0.1716762487 0.2507934571 0.2423737882 -0.3540662037 0.2429066133 -0.3539388884 -0.1622355653 0.2424751074
460297240.0 -0.1692334991 0.2523189478 0.2384384029 -0.3563092965 0.2387553536 -0.3563738033 -0.159705577 0.2445431989
465297210.0 -0.1665149379 0.2544300685 0.2351269427 -0.3590917968 0.2347888739 -0.3593577697 -0.1568668418 0.2460644031
470297180.0 -0.1635241093 0.2562155149 0.2307014956 -0.3616514898 0.2308318521 -0.361752729 -0.1542482406 0.2481903575
475297150.0 -0.1608283169 0.2582420724 0.226589917 -0.3640732534 0.2267646994 -0.3636043406 -0.1516594567 0.2496424953
480297120.0 -0.1582730791 0.2600361142 0.2228020048 -0.3664730847 0.2226528744 -0.3663566675 -0.1486267109 0.2514884406
485297090.0 -0.1556932357 0.2616783493 0.2188009041 -0.3686621705 0.2187473858 -0.3684826285 -0.1462121775 0.2532080383
490297060.0 -0.1531065317 0.2637027163 0.2149832968 -0.3710850037 0.2148019629 -0.3710412517 -0.1435699177 0.2548313499
495297030.0 -0.1503021643 0.265271647 0.2104499018 -0.3732156154 0.2112235069 -0.3732239988 -0.1410704025 0.2566809732
500297000.0 -0.1474525237 0.2672701849 0.2064961127 -0.3755436878 0.2062734179 -0.3756294976 -0.138324728 0.2588441943
505296970.0 -0.1444351765 0.2687988815 0.2024564127 -0.3778962703 0.2023072982 -0.3780495857 -0.1355210387 0.2602663644
510296940.0 -0.1416334995 0.2705570713 0.198272562 -0.3801356309 0.1983028499 -0.3800830039 -0.1327760138 0.2618771023
515296910.0 -0.1388098089 0.2721731745 0.1937288727 -0.3823154806 0.1939947479 -0.3823583238 -0.1300898439 0.263355778
520296880.0 -0.1362537572 0.2739131696 0.190307689 -0.3845381465 0.1899553514 -0.3841532766 -0.1275287185 0.2647205266
525296850.0 -0.1329954593 0.2749357862 0.1853572112 -0.3860914173 0.1859509973 -0.386237307 -0.1245724215 0.2665164382
530296820.0 -0.1305135538 0.2769748368 0.1814574517 -0.3884718628 0.181545945 -0.3883393883 -0.1216544125 0.2681304831
535296790.0 -0.1279917115 0.2782698905 0.1774064801 -0.3899713758 0.1771927876 -0.3897825938 -0.1191541415 0.2690821377
540296760.0 -0.1248614425 0.2799174216 0.172675696 -0.3925379394 0.1727579509 -0.3918989011 -0.1164358255 0.2709838708
545296730.0 -0.1219534691 0.2814446788 0.1684154267 -0.3934829943 0.1683630164 -0.3939312168 -0.1137621017 0.2721294751
550296700.0 -0.1187871007 0.2828190165 0.1641160906 -0.3953278368 0.1642541196 -0.3958035611 -0.1109391473 0.2738860465
555296670.0 -0.1156595182 0.2840049302 0.1597992158 -0.3975581757 0.1602719586 -0.3973825927 -0.1079628919 0.2754459641
560296640.0 -0.1124153065 0.2859361771 0.1551707805 -0.3993510449 0.1555902615 -0.3991225557 -0.1051144531 0.2762610301
565296610.0 -0.1097800099 0.2868760591 0.1512346966 -0.4008288105 0.1512326044 -0.4006119806 -0.102086083 0.2771818274
570296580.0 -0.1071418234 0.2880061226 0.1468581659 -0.4027092162 0.1464426433 -0.4025649803 -0.0995323364 0.2791174784
575296550.0 -0.1043763186 0.2897165802 0.1425329346 -0.4045088259 0.1424942015 -0.4040694161 -0.0965092429 0.2798352991
580296520.0 -0.1009498453 0.2907346903 0.1378715652 -0.4060009932 0.1379460293 -0.4054627694 -0.0935080899 0.2812528516
585296490.0 -0.0982101858 0.2916021627 0.1334731943 -0.4065860904 0.1336231323 -0.4069441926 -0.0902997099 0.2821959362
590296460.0 -0.0943756122 0.293136213 0.1289023451 -0.4077938047 0.1293355337 -0.4081559908 -0.0879770975 0.28358044
595296430.0 -0.0916715588 0.2940343273 0.1242851374 -0.4096635874 0.1246445814 -0.4097575473 -0.084962331 0.2840187608
600296400.0 -0.0886504531 0.2952884823 0.1198386707 -0.4106902257 0.1201434866 -0.4105634394 -0.0821237109 0.2849213525
605296370.0 -0.0859367281 0.2962278522 0.115795138 -0.4120506522 0.1157198203 -0.4119524987 -0.0785826413 0.2861946234
610296340.0 -0.0826286338 0.2972840044 0.1110898985 -0.4130885834 0.1114164948 -0.4133963978 -0.0758318633 0.2871391964
615296310.0 -0.0790272916 0.298254458 0.1066020006 -0.414208344 0.1067629681 -0.4146068959 -0.0725261952 0.2878917522
620296280.0 -0.0761481035 0.2988386548 0.1018486124 -0.4155838289 0.1021459299 -0.4152790049 -0.0696950428 0.2889902118
625296250.0 -0.073198359 0.2999879185 0.0977644293 -0.416480203 0.0978700895 -0.4168581401 -0.0660804257 0.2896656558
630296220.0 -0.0692678123 0.3009723558 0.0924761021 -0.4176798159 0.0927970989 -0.4176572383 -0.0635868975 0.2907110354
635296190.0 -0.0671287683 0.3015237514 0.0885766731 -0.4182720021 0.0886024599 -0.4185154548 -0.0605644572 0.2914741237
640296160.0 -0.0637716642 0.3025959041 0.0840470635 -0.4189222425 0.0841633753 -0.4194953111 -0.0570970462 0.2921830138
645296130.0 -0.0605442852 0.303598203 0.0794579046 -0.4198890473 0.0795178436 -0.4199777916 -0.0541939568 0.2933905061
650296100.0 -0.0573444723 0.3039289693 0.0748792314 -0.420715534 0.0749723392 -0.4208811636 -0.0508971125 0.2935031232
655296070.0 -0.054198382 0.3050210148 0.070244425 -0.4216684673 0.0703702999 -0.4215816921 -0.0474802801 0.2942788347
660296040.0 -0.0513319121 0.3053313294 0.0657544725 -0.4219649536 0.0658749478 -0.422280284 -0.0446885979 0.294878998
665296010.0 -0.0474679136 0.3059946292 0.0608477356 -0.4229112169 0.0613232592 -0.4228377529 -0.0415815536 0.2960479557
670295980.0 -0.0451537878 0.307016685 0.056795425 -0.4235114063 0.0566385455 -0.4236343126 -0.0383489105 0.2963016995
675295950.0 -0.0417038524 0.3074723097 0.0516946147 -0.4239621873 0.0522374295 -0.4237427663 -0.0357019054 0.2972298297
680295920.0 -0.0381740966 0.3081020198 0.0471286881 -0.4243613158 0.0471345224 -0.425012077 -0.032302013 0.2980026884
685295890.0 -0.0346746341 0.3090084952 0.0425001875 -0.4249598915 0.0427664628 -0.4250447301 -0.0291008192 0.2980582926
690295860.0 -0.0316031155 0.3094497826 0.0379098427 -0.4251666445 0.0381814558 -0.425933982 -0.0259826197 0.2994272567
695295830.0 -0.0284956086 0.3094191257 0.0336637755 -0.4254645306 0.0333950859 -0.4255845779 -0.022800503 0.2992705497
700295800.0 -0.0248939273 0.3098431227 0.0284504553 -0.4260911769 0.0285227328 -0.4260522005 -0.0200331769 0.3000704415
705295770.0 -0.0224857904 0.3109267291 0.024246869 -0.4263861155 0.0243786271 -0.426431148 -0.0165440109 0.3004633321
710295740.0 -0.0187247375 0.3108521284 0.0196938462 -0.4270982117 0.0199916166 -0.4270540762 -0.0136309909 0.3004796582
715295710.0 -0.0158801354 0.3108107277 0.0154811947 -0.4263878633 0.0148723503 -0.4267168539 -0.0103337294 0.30069608
720295680.0 -0.0123888981 0.3115813618 0.0102689419 -0.4269050927 0.0105266708 -0.4270262089 -0.0070379854 0.3010920819
725295650.0 -0.0089354279 0.3118956558 0.0058331118 -0.4269427186 0.0063484622 -0.4270867674 -0.0045474383 0.3018420735
730295620.0 -0.0057829386 0.3124078476 0.0010862458 -0.4266409125 0.0013082763 -0.4269176521 -0.0011904439 0.3014561227
735295590.0 -0.002452443 0.3125770436 -0.0031987983 -0.4273477812 -0.0038087693 -0.4268205596 0.0017898945 0.3016215524
740295560.0 0.0006367842 0.3125000353 -0.0082902904 -0.4266331791 -0.008222236 -0.4269836051 0.0056005582 0.3020824168
745295530.0 0.0040716925 0.3126966207 -0.0130401409 -0.4262105372 -0.0129837457 -0.4266147521 0.0084922554 0.3017737096
750295500.0 0.0074336287 0.3128277751 -0.0172695857 -0.426097085 -0.0171887157 -0.4265487718 0.0115304287 0.3019796074
755295470.0 0.0106018096 0.312515869 -0.0217606733 -0.4260897345 -0.0220249481 -0.4260462553 0.0149050322 0.3014163185
760295440.0 0.0136559502 0.3123661497 -0.026543809 -0.4259336252 -0.0265127067 -0.4260259858 0.0176848211 0.3013314459
765295410.0 0.0170593955 0.3128210831 -0.031127036 -0.4253761503 -0.0316094534 -0.4257106394 0.021181904 0.3018293274
770295380.0 0.0200854982 0.3126093768 -0.0357228158 -0.4251601991 -0.0355460891 -0.4249306312 0.0240559377 0.3012366623
775295350.0 0.0229652405 0.312138195 -0.0406224407 -0.4241930147 -0.0399712924 -0.4247320317 0.02662581 0.3015704578
780295320.0 0.0268168024 0.3126327776 -0.044990225 -0.423880507 -0.0440847855 -0.4237946525 0.0301982722 0.3009779786
785295290.0 0.0296204008 0.3115842953 -0.0497228755 -0.4231493946 -0.0492736091 -0.4235953091 0.0337590609 0.300878276
790295260.0 0.0335537733 0.3119903245 -0.0536771755 -0.4230258806 -0.0533607252 -0.4228124588 0.037017464 0.3007452229
795295230.0 0.0365140009 0.3115833485 -0.0586282243 -0.4222337678 -0.0582743656 -0.4223624939 0.0403575658 0.3002922009
800295200.0 0.039621951 0.3115084882 -0.0636360838 -0.4215320909 -0.063024638 -0.4215986723 0.0436186194 0.300096807
805295170.0 0.0431100744 0.3109194901 -0.0677005976 -0.4205154469 -0.0675175594 -0.4211057877 0.0464713544 0.3001235199
810295140.0 0.0461466597 0.3105587912 -0.0719361165 -0.4196150229 -0.0719837052 -0.4203192465 0.0500681725 0.2996903013
815295110.0 0.0492139617 0.3100497576 -0.0764599826 -0.4188995944 -0.0763807789 -0.4190573187 0.052913587 0.2991857421
820295080.0 0.0525017182 0.3103051228 -0.0813454189 -0.418355396 -0.08101403 -0.4181186907 0.0562601474 0.2989402406
825295050.0 0.0563128041 0.3092185992 -0.085433581 -0.416931142 -0.0855847003 -0.4175543226 0.0595010003 0.2984371745
830295020.0 0.059221148 0.3090847738 -0.0902322755 -0.4157554357 -0.0901005463 -0.4162864665 0.0630298905 0.2977689904
