!Created with skrf (http://scikit-rf.org).
# Hz S RI R 50.0 
!freq ReS11 ImS11 ReS21 ImS21 ReS12 ImS12 ReS22 ImS22
300000.0 -0.2370114501 -0.1078956541 0.4680477174 0.0707782007 0.471311745 0.0715025267 -0.2379457819 -0.1111412451
5299970.0 -0.2408175957 0.0070780957 0.4752746267 0.0053327762 0.4750796444 0.0055569188 -0.244848953 0.0056295205
10299940.0 -0.2371061365 0.0200465654 0.4771578035 0.0063181268 0.4767975423 0.0064867822 -0.2416416055 0.0175023149
15299910.0 -0.2327949295 0.0299548827 0.4805007552 0.007431718 0.4806726692 0.0077319539 -0.2372614396 0.0264630257
20299880.0 -0.227420505 0.0381213896 0.4851699344 0.0077238727 0.485378539 0.0081267215 -0.2327755973 0.0341070451
25299850.0 -0.2215709885 0.044350165 0.4900057221 0.0066833977 0.4903044896 0.0068526072 -0.2279141062 0.0399949446
30299820.0 -0.2157167971 0.0493125887 0.4964130507 0.0054993922 0.4954531504 0.0048851676 -0.2225646142 0.0449120526
35299790.0 -0.2097560487 0.0539451236 0.5011705163 0.0017072928 0.5014060924 0.0018087236 -0.2171764672 0.0488009609
40299760.0 -0.2044590677 0.057193133 0.5060281192 -0.0021018686 0.5066029027 -0.0022722691 -0.2124970408 0.0523434137
45299730.0 -0.1995332174 0.0600595917 0.5110687718 -0.0072499574 0.5111582207 -0.0072127402 -0.2081518119 0.0545293137
50299700.0 -0.1946582817 0.06201273 0.5148552677 -0.0125683999 0.5148998381 -0.0127862434 -0.2035331759 0.0564437592
55299670.0 -0.1903888297 0.0638496985 0.5182626127 -0.0188483751 0.5189977488 -0.0185017163 -0.2000860695 0.0581760853
60299640.0 -0.186347862 0.0648822946 0.5217669027 -0.0250102082 0.521819622 -0.0246086848 -0.1962224526 0.0595705358
65299610.0 -0.1830763882 0.0664603538 0.5251540208 -0.0309152274 0.5250955271 -0.0311496873 -0.1927973868 0.0606164215
70299580.0 -0.1793666445 0.0672787689 0.5275023109 -0.03760803 0.5273825989 -0.0380417583 -0.1901279551 0.0616511851
75299550.0 -0.1764737626 0.0680446102 0.5290950831 -0.0445533667 0.5290887528 -0.0444411704 -0.1871960844 0.0625825114
80299520.0 -0.1739440423 0.0687573334 0.5316791068 -0.0515032068 0.5310938743 -0.05135167 -0.1847900129 0.0626471349
85299490.0 -0.1713851915 0.0695535889 0.5326048147 -0.0586635345 0.5321423944 -0.0585920124 -0.1823187368 0.0632748066
90299460.0 -0.1690855072 0.0701478989 0.5332447263 -0.0651857298 0.5337000289 -0.0656380519 -0.1800613573 0.064376188
95299430.0 -0.1670817109 0.0709931305 0.534644628 -0.0727461329 0.5342936873 -0.0721020322 -0.1783460604 0.0647090583
100299400.0 -0.1654065991 0.0718346 0.534743533 -0.0790081732 0.5341748893 -0.0791023011 -0.1769604283 0.0655385311
105299370.0 -0.1634297281 0.0725533626 0.5350160929 -0.0860269327 0.5351467969 -0.0862500384 -0.174733878 0.0662500462
110299340.0 -0.1617112978 0.0730249755 0.5351242043 -0.0925317607 0.5349967972 -0.0930086874 -0.1736742788 0.0669439206
115299310.0 -0.1604566554 0.0733614022 0.5350841318 -0.0991612912 0.5351952759 -0.0995687774 -0.172135116 0.0671955531
120299280.0 -0.1590303822 0.0744983338 0.5353021418 -0.1062097586 0.5350511594 -0.1068724751 -0.1711400789 0.0682381514
125299250.0 -0.1579479681 0.0751157223 0.5345601187 -0.1131636437 0.5346695385 -0.1132497711 -0.169817207 0.0682779498
130299220.0 -0.1563624891 0.0760055845 0.533810576 -0.1193846686 0.5339233638 -0.1199012485 -0.1688441656 0.0693830158
135299190.0 -0.1551300786 0.0765909426 0.5331402436 -0.1264594363 0.5327100766 -0.1264454347 -0.1678266022 0.0700326494
140299160.0 -0.1544463572 0.0781087582 0.5325206289 -0.133076134 0.532785533 -0.1332717575 -0.1667787873 0.0710021
145299130.0 -0.1531203901 0.0787828585 0.531792983 -0.1394418988 0.5314601407 -0.139437654 -0.1663616451 0.0717540788
150299100.0 -0.1519697409 0.0799231285 0.5306313008 -0.1462897044 0.5303501241 -0.1459030342 -0.1650697736 0.0725265436
155299070.0 -0.1512486126 0.0813655412 0.5291231589 -0.1528730378 0.5288549793 -0.1529222487 -0.1644963799 0.0734878008
160299040.0 -0.1501685275 0.0822588626 0.527266802 -0.1588390453 0.5278444886 -0.1595573594 -0.1636302345 0.0745830016
165299010.0 -0.1492840943 0.0832932536 0.5267127194 -0.165981662 0.5266621577 -0.1657195128 -0.1627243362 0.0753307889
170298980.0 -0.1484650885 0.0842964582 0.5241768454 -0.1721220255 0.5248057656 -0.1721002296 -0.1618852045 0.0764575667
175298950.0 -0.1474869385 0.08540986 0.523914863 -0.1777875434 0.5233827497 -0.1781498521 -0.1609641074 0.0774835483
180298920.0 -0.1463604238 0.0866434226 0.5215885375 -0.1842944068 0.5215789676 -0.1843897482 -0.1601441088 0.0788573034
185298890.0 -0.1451847937 0.0878264115 0.519196408 -0.1910936761 0.519406108 -0.1906224556 -0.1597542203 0.0796279718
190298860.0 -0.1444223942 0.0891664823 0.5175432139 -0.1969102759 0.5174844945 -0.1966655262 -0.1581896111 0.0807058953
195298830.0 -0.1434097917 0.0899850961 0.5154751129 -0.2027910374 0.5159062325 -0.2032042819 -0.1579258819 0.0815211993
200298800.0 -0.1425878599 0.0915804802 0.5139734353 -0.2083806063 0.5137208754 -0.209082337 -0.1567971118 0.0835565057
205298770.0 -0.1416811166 0.0930113627 0.5116046184 -0.2151019793 0.5115419088 -0.2150685392 -0.1564156753 0.0838777581
210298740.0 -0.1408692786 0.0940339165 0.5095015653 -0.2212200431 0.5090964039 -0.2211883101 -0.1555066652 0.0855120363
215298710.0 -0.1398356482 0.0955705293 0.5069839457 -0.2270034193 0.5068702421 -0.2267014169 -0.1550597332 0.0864861706
220298680.0 -0.1388520918 0.0969286153 0.5044009781 -0.232978292 0.504812776 -0.2331323093 -0.1541531739 0.0880963786
225298650.0 -0.1377418054 0.0983748055 0.5020178295 -0.2385880625 0.5018153704 -0.2386208956 -0.1533744856 0.0891386354
230298620.0 -0.1367026122 0.0997309143 0.4996757963 -0.2447802083 0.4997809317 -0.2444134323 -0.1525926269 0.0904770926
235298590.0 -0.13563814 0.1009716691 0.4969847334 -0.2502224764 0.4969023685 -0.2503922763 -0.1517417953 0.0917756369
240298560.0 -0.1349575106 0.1024049754 0.4943648841 -0.2558080512 0.4944972332 -0.2555753566 -0.1508505545 0.0932030663
245298530.0 -0.1336849374 0.1037552478 0.4909712901 -0.261265754 0.4913129303 -0.2615876232 -0.1500091982 0.09482173
250298500.0 -0.1331429533 0.1053474454 0.4886660842 -0.266876804 0.4889228772 -0.2666415243 -0.1490160051 0.0957312786
255298470.0 -0.1318979894 0.106641451 0.4854250561 -0.2729457683 0.4858414506 -0.2726941786 -0.1486650155 0.0967395969
260298440.0 -0.1307955331 0.1080645621 0.4826460026 -0.2780300882 0.4829387986 -0.2781017143 -0.147007733 0.0982363023
265298410.0 -0.1294051329 0.1096349565 0.4796383549 -0.2843460979 0.4797065694 -0.2838480536 -0.1468157818 0.0995455535
270298380.0 -0.1281921015 0.1107505192 0.4761608904 -0.2891843705 0.4765014258 -0.2893946755 -0.1453079972 0.1010163805
275298350.0 -0.127534676 0.1124668324 0.4735098107 -0.2949642884 0.4735084715 -0.2949058908 -0.1445305144 0.1024339413
280298320.0 -0.1261265684 0.1139653333 0.4699191154 -0.2996179692 0.4700923047 -0.2998047271 -0.1434939486 0.1038261422
285298290.0 -0.1248293993 0.1154460186 0.4669783675 -0.3052303897 0.4669900332 -0.3054246608 -0.1427381013 0.1050550089
290298260.0 -0.1235621404 0.116687072 0.463800727 -0.3104469667 0.4632406324 -0.3109008552 -0.1413247123 0.1067682607
295298230.0 -0.1224161305 0.1179928182 0.4608668159 -0.3159528724 0.460017213 -0.3162933904 -0.1404085476 0.107931329
300298200.0 -0.1208472734 0.1194921899 0.4566259294 -0.3212991308 0.4573322093 -0.3213799872 -0.1395097011 0.109262451
305298170.0 -0.119548818 0.1205469868 0.4531710576 -0.3266607933 0.4538852559 -0.326725565 -0.1379436904 0.1107105649
310298140.0 -0.1181438864 0.1217180022 0.4499558303 -0.3318101292 0.4500993816 -0.3320235422 -0.1373691816 0.1124927175
315298110.0 -0.1171743794 0.1231292801 0.4462894961 -0.3368315592 0.4466319107 -0.3371932619 -0.1357987582 0.1132746695
320298080.0 -0.1160624224 0.1246232238 0.4430448314 -0.3420624627 0.4426106482 -0.3420098329 -0.1349789735 0.1145942905
325298050.0 -0.1147690715 0.1255482914 0.4388417589 -0.3470259824 0.4388970896 -0.347219194 -0.1340371171 0.1158389545
330298020.0 -0.1133016323 0.1267136696 0.4340484181 -0.3522756731 0.4345450297 -0.3522315605 -0.133047919 0.1167411901
335297990.0 -0.112269306 0.1281936539 0.4304824884 -0.3571655241 0.4308426677 -0.3570466615 -0.1322768095 0.1183193287
340297960.0 -0.1111602342 0.1297613048 0.4266801115 -0.3619821703 0.4267567262 -0.3618533615 -0.1309245391 0.1200280457
345297930.0 -0.1101476736 0.131124173 0.4226254804 -0.3661782349 0.4221171239 -0.3662684057 -0.1298823542 0.1210429433
350297900.0 -0.1084079832 0.1323930798 0.4179840958 -0.3704961128 0.4182606463 -0.3709445389 -0.1289219868 0.1228232508
355297870.0 -0.1071730659 0.1334395002 0.4139842396 -0.3758858438 0.4141982718 -0.3758266054 -0.1280335987 0.1243478637
360297840.0 -0.1057788824 0.1353641922 0.4100373934 -0.3802790503 0.4101442827 -0.380505129 -0.1269600893 0.1260371655
365297810.0 -0.1041314811 0.1362837781 0.4056926563 -0.3845739948 0.4058997093 -0.3845417715 -0.1257498904 0.1272317535
370297780.0 -0.1026791002 0.1374986177 0.4014196835 -0.3887621986 0.4015844714 -0.3894701547 -0.1240884642 0.128739833
375297750.0 -0.1014712689 0.1394559707 0.3977650847 -0.3937401918 0.397021621 -0.3940152593 -0.1230481845 0.1301730377
380297720.0 -0.0994019922 0.1401315362 0.3926601585 -0.3976046345 0.3928668771 -0.3976033005 -0.1217051732 0.1316770219
385297690.0 -0.0980903041 0.1416150994 0.3884125864 -0.4014715922 0.3883534917 -0.4020090649 -0.1206145808 0.1330723669
390297660.0 -0.0968136414 0.1427830027 0.3839685122 -0.4065396431 0.3835969719 -0.4069670917 -0.1190903165 0.1339733903
395297630.0 -0.0948089962 0.1438558271 0.3801141703 -0.4103799073 0.3793930285 -0.4104425412 -0.1180677958 0.1354465971
400297600.0 -0.0938212097 0.1454126175 0.3754293945 -0.4149864236 0.3752792434 -0.4146331332 -0.1173741674 0.1365393522
405297570.0 -0.0918774231 0.1463074451 0.3702936503 -0.4188435484 0.3701195586 -0.4191302589 -0.115660686 0.1386601696
410297540.0 -0.0900053238 0.1473407101 0.365484464 -0.4228504997 0.3656261632 -0.4228306544 -0.1144807956 0.1396057711
415297510.0 -0.0886606937 0.1490659179 0.3611976453 -0.4267268246 0.3611801436 -0.4267718973 -0.1128313276 0.1412479916
420297480.0 -0.0866836981 0.1496859487 0.3561403808 -0.4308826876 0.3563189855 -0.4308678774 -0.111679707 0.1422288917
425297450.0 -0.0847932076 0.1506194942 0.3517227369 -0.4346107122 0.3521503912 -0.4347757276 -0.1103746912 0.1437794321
430297420.0 -0.0836790782 0.152243209 0.3470076723 -0.4389874843 0.3470546183 -0.4386674929 -0.1091966466 0.1444501619
435297390.0 -0.0817107268 0.1529816585 0.3423345789 -0.4418715575 0.3421690267 -0.4423208208 -0.107907345 0.1463308301
440297360.0 -0.0798931097 0.1540605194 0.3371063962 -0.4456612477 0.3364734322 -0.4457318333 -0.1061961642 0.1471511921
445297330.0 -0.0780155878 0.1552436028 0.3321010884 -0.450127392 0.3321261794 -0.4496133278 -0.1050525004 0.1483860937
450297300.0 -0.0764630801 0.1558198385 0.3273307695 -0.4531059016 0.3272827019 -0.4532922755 -0.103418615 0.1499085439
455297270.0 -0.0746879813 0.1567533418 0.3223382347 -0.4564237962 0.3225038784 -0.4565456087 -0.1018590336 0.1510779337
460297240.0 -0.0731581499 0.158167086 0.3172871851 -0.4597760648 0.3171512047 -0.4606109685 -0.1004782858 0.1524710083
465297210.0 -0.0709935898 0.1587806719 0.312361204 -0.4635433867 0.3124910586 -0.4635015008 -0.0994624591 0.153548198
470297180.0 -0.069699539 0.159793979 0.3078535586 -0.4668827469 0.3076265165 -0.4668471672 -0.0980716845 0.1543723821
475297150.0 -0.0678635573 0.1600901114 0.3020023103 -0.4700330421 0.3023383355 -0.4694581134 -0.0961706598 0.1556765131
480297120.0 -0.0659067914 0.1611391054 0.2969112475 -0.4731115677 0.2971875443 -0.4731071787 -0.0948766611 0.1572911646
485297090.0 -0.0638505343 0.1622251499 0.2922275692 -0.4765684085 0.2918907328 -0.4765499828 -0.0938058786 0.1577304367
490297060.0 -0.0621342676 0.1629007671 0.2865407319 -0.4795979708 0.2867454601 -0.479950602 -0.0919106757 0.159284414
495297030.0 -0.0607523126 0.1639988163 0.2812133284 -0.4825837515 0.281296249 -0.4829871881 -0.0906762725 0.1603005135
500297000.0 -0.0585497142 0.1646174135 0.2760682686 -0.4859753666 0.2759170809 -0.4860830279 -0.0895036369 0.1611329644
505296970.0 -0.0567716611 0.1653296024 0.2702515332 -0.4881154206 0.2704723538 -0.488630212 -0.0880877384 0.1623453747
510296940.0 -0.0549658967 0.1664008481 0.2648882159 -0.4919398703 0.2654901126 -0.491705077 -0.0858859499 0.1636459128
515296910.0 -0.0531568879 0.1672435833 0.2594264084 -0.4944327045 0.2599545085 -0.4948391802 -0.0847001698 0.1646061442
520296880.0 -0.0512945277 0.1677010676 0.2544145149 -0.4971825817 0.2549334127 -0.4968668889 -0.0831613929 0.1654910328
525296850.0 -0.0495718899 0.1682252942 0.2493996093 -0.4999203588 0.2493437451 -0.5003728236 -0.0811999771 0.1666197387
530296820.0 -0.0474872089 0.1691774323 0.2438908581 -0.5018903938 0.2434566066 -0.5024256921 -0.0802969319 0.1672823402
535296790.0 -0.0457468137 0.1697512863 0.238085882 -0.5049771387 0.2384861417 -0.5049313614 -0.0785882867 0.1683207192
540296760.0 -0.043614056 0.1699172661 0.2324841219 -0.507528811 0.2327278955 -0.5076508004 -0.0772218093 0.1692394656
545296730.0 -0.0418342474 0.1710596025 0.2271588151 -0.5099270497 0.2274921006 -0.5097837259 -0.0755576036 0.1698386887
550296700.0 -0.0401858099 0.1716226814 0.2214885855 -0.5120992442 0.2223530641 -0.5127706966 -0.0741178036 0.1714343321
555296670.0 -0.037954806 0.1719314548 0.2162399841 -0.514964849 0.2165281566 -0.5148920045 -0.0724055077 0.1718001776
560296640.0 -0.0363880294 0.1724266341 0.2108508192 -0.5173328206 0.2107292249 -0.5168802091 -0.0704486018 0.1728197896
565296610.0 -0.0345082813 0.1730253178 0.2052148393 -0.5191587108 0.2046941527 -0.5190810944 -0.0691189658 0.1733314824
570296580.0 -0.0322551745 0.1734892678 0.1993006505 -0.5214363077 0.1998372713 -0.5214179348 -0.0671349869 0.1746595581
575296550.0 -0.0302545521 0.1744356287 0.1936977547 -0.523534642 0.1940012106 -0.5233664655 -0.0656436327 0.1752244207
580296520.0 -0.0285641575 0.1745563113 0.188336265 -0.5252765777 0.1879289772 -0.5255997639 -0.063995354 0.1758595909
585296490.0 -0.0264285951 0.1750867731 0.1826219735 -0.5275204488 0.1824561889 -0.5275375165 -0.0624057587 0.1764844871
590296460.0 -0.0251238497 0.1751004527 0.1766620424 -0.5294519037 0.1764547507 -0.529678652 -0.0608091873 0.1776688682
595296430.0 -0.022683498 0.1759698839 0.17100584 -0.5312947513 0.1707100389 -0.5313736145 -0.058921344 0.1781519987
600296400.0 -0.0207177142 0.1760962576 0.1649871856 -0.5330465757 0.1655357592 -0.5329520422 -0.0575753898 0.1793434286
605296370.0 -0.0185979249 0.1768737493 0.1593851679 -0.535050702 0.1598643735 -0.5346509605 -0.0555875764 0.1798495955
610296340.0 -0.0167102878 0.1770269441 0.1536889415 -0.5361422962 0.1539005045 -0.5365797542 -0.0537987857 0.1808048479
615296310.0 -0.0150357363 0.1773019246 0.1476607997 -0.5378343814 0.147791898 -0.538252628 -0.0520101864 0.181388251
620296280.0 -0.0129745186 0.1777457941 0.1421949294 -0.5394299308 0.1419798931 -0.5395203692 -0.050504542 0.1814808908
625296250.0 -0.0107812715 0.1779054045 0.1356194063 -0.5413727144 0.1361091675 -0.5412676139 -0.0486699737 0.1824854949
630296220.0 -0.0088216827 0.1782188816 0.1301086564 -0.5427317372 0.130106834 -0.5422350533 -0.0473254929 0.183177957
635296190.0 -0.0067285327 0.178358221 0.1242528627 -0.543595446 0.1240911538 -0.5433440965 -0.0456039355 0.1836683482
640296160.0 -0.0049324247 0.1786416482 0.1188083947 -0.5450357567 0.1179731519 -0.5449085777 -0.0432244217 0.1839286289
645296130.0 -0.0029409855 0.1790741378 0.1123691965 -0.5466868276 0.112733042 -0.5463646397 -0.0423081007 0.1844335464
650296100.0 -0.0011859589 0.1796021561 0.107143809 -0.5472830394 0.1067887164 -0.5471767243 -0.0402477309 0.1852044369
655296070.0 0.0007822707 0.1790938177 0.1007713315 -0.5484930794 0.1007468044 -0.5483439053 -0.0382045052 0.1858154541
660296040.0 0.0027400741 0.1795760337 0.094693289 -0.5494263705 0.094975034 -0.5495093942 -0.0365385659 0.1858556852
665296010.0 0.0052290953 0.1796784622 0.0888001634 -0.5506603124 0.0892037054 -0.550352472 -0.0352795095 0.1868941333
670295980.0 0.0072144372 0.1797569136 0.0833732603 -0.5517615343 0.0834076116 -0.5512944364 -0.0335815557 0.1869001172
675295950.0 0.0091281253 0.1797503008 0.0771199301 -0.5522564519 0.0773295953 -0.55256 -0.0313602351 0.1879267284
680295920.0 0.0109943124 0.1800584315 0.0708752869 -0.5529572282 0.0709373213 -0.5531936731 -0.0294652422 0.1878944492
685295890.0 0.013136799 0.1799496576 0.0655771917 -0.5536439538 0.0651070332 -0.5538874494 -0.027780019 0.1888146552
690295860.0 0.0156431913 0.1798167596 0.0593397155 -0.5538999292 0.0589083299 -0.5544511546 -0.0258097074 0.1891258828
695295830.0 0.0173937189 0.1797253085 0.0526416888 -0.5551878322 0.0525815651 -0.5551710864 -0.0241869738 0.1894182611
700295800.0 0.0196010566 0.1798180454 0.0467985111 -0.5555604734 0.0471711366 -0.555539685 -0.0223617888 0.1894124026
705295770.0 0.0215642317 0.179738453 0.0411253679 -0.5557187948 0.0412819889 -0.5558181289 -0.0207459855 0.1900505137
710295740.0 0.0232291062 0.1798435459 0.0349390837 -0.5561099686 0.035093381 -0.556048068 -0.0192412878 0.1907212007
715295710.0 0.0254114374 0.1796854239 0.0289609731 -0.5564766413 0.0293513324 -0.5565610953 -0.0168479734 0.1904308448
720295680.0 0.0272112397 0.1794235623 0.0229913368 -0.5568910796 0.0232902847 -0.556828107 -0.0148371936 0.1909931722
725295650.0 0.0295077751 0.1791730186 0.0168457802 -0.5565707492 0.0166101976 -0.5572196996 -0.0128934694 0.1916526286
730295620.0 0.0313148978 0.1789734812 0.0108663694 -0.556862961 0.0109568025 -0.5574057681 -0.011560294 0.1912066487
735295590.0 0.0335823329 0.1787954618 0.0050685 -0.5571644325 0.0053731275 -0.5572465401 -0.0095673416 0.1918613883
740295560.0 0.0356813898 0.1788270961 -0.0010558404 -0.5567977991 -0.000934038 -0.5570512809 -0.0075845249 0.1919446065
745295530.0 0.0372454119 0.1783886281 -0.0067347169 -0.5570296814 -0.0067230979 -0.5571935852 -0.00596565 0.1924187391
750295500.0 0.0393931583 0.1781196631 -0.0128725742 -0.5565161196 -0.0130798918 -0.5565671044 -0.0038219399 0.1920059676
755295470.0 0.0419030744 0.1778407972 -0.0186197556 -0.5565166092 -0.0186739558 -0.5567867662 -0.0024238304 0.1927094731
760295440.0 0.0434362202 0.1775719891 -0.0249653543 -0.5563730487 -0.0249442747 -0.5564464651 -0.0007041682 0.1927277002
765295410.0 0.0452719888 0.1771198602 -0.0304718668 -0.5558151034 -0.0307936558 -0.5561799797 0.0020383154 0.193385677
770295380.0 0.047687215 0.1770075954 -0.0366660258 -0.5553156123 -0.0369180312 -0.556023163 0.0037179116 0.1932778871
775295350.0 0.0494016218 0.1766898376 -0.0428772892 -0.554851311 -0.0423139761 -0.5550133997 0.0052531682 0.1927241958
780295320.0 0.0515228612 0.1762423607 -0.0485228296 -0.554783735 -0.0481544352 -0.5548180083 0.0069922186 0.1934978406
785295290.0 0.0533086793 0.1758945897 -0.0545250291 -0.5537773628 -0.0545496506 -0.5542593082 0.0084756952 0.193583887
790295260.0 0.0551879043 0.1754910166 -0.060390716 -0.5536408169 -0.0602769932 -0.5535543859 0.0110567679 0.1933140761
795295230.0 0.0570246945 0.1748673657 -0.0659819002 -0.5524707776 -0.0662159012 -0.5529380095 0.0127491794 0.1941196777
800295200.0 0.0595525401 0.174731031 -0.0729505809 -0.5520914841 -0.0728161293 -0.5520852381 0.0149126189 0.1934994375
805295170.0 0.0612663691 0.1740916987 -0.0784802821 -0.5508406163 -0.0782270029 -0.5511017015 0.0163874571 0.1935878552
810295140.0 0.063170187 0.1735087921 -0.0840910369 -0.5502929004 -0.0843099454 -0.5508515003 0.0183831083 0.1941551529
815295110.0 0.0654136298 0.1729520588 -0.0904518674 -0.5489859837 -0.0904726782 -0.5491671895 0.0199970013 0.1936173754
820295080.0 0.067182131 0.1719967211 -0.0961372315 -0.5481401434 -0.0960616219 -0.5487016823 0.0219243143 0.1934373282
825295050.0 0.0689103108 0.1714569678 -0.1017780186 -0.5465309869 -0.1018215289 -0.5467518678 0.0241807531 0.1935119131
830295020.0 0.0711955755 0.17121619 -0.108176099 -0.5460228401 -0.1083925784 -0.5461399937 0.0261019746 0.1935403114
