!Created with skrf (http://scikit-rf.org).
# Hz S RI R 50.0 
!freq ReS11 ImS11 ReS21 ImS21 ReS12 ImS12 ReS22 ImS22
300000.0 -0.2410743955 -0.0713995766 0.4721748406 0.0484961543 0.4679182457 0.0479591671 -0.240734056 -0.0861680221
5299970.0 -0.2443001789 0.0075681569 0.4736762454 0.0048358316 0.4735263259 0.0048494506 -0.2443213805 0.00782404
10299940.0 -0.2413471181 0.0190129899 0.4755802063 0.0061758505 0.4753973288 0.0061704622 -0.2412772727 0.0202941007
15299910.0 -0.2368929668 0.0280355507 0.4792886277 0.0075512181 0.4792589636 0.0077941682 -0.2365913297 0.0297150441
20299880.0 -0.2318612369 0.0353989519 0.4837668274 0.0084174764 0.4839108322 0.0081757702 -0.2312372837 0.0373013171
25299850.0 -0.2267914329 0.0421592698 0.4892513724 0.0074936025 0.4892612836 0.0074190626 -0.2251932486 0.0439325607
30299820.0 -0.2215712963 0.0471057363 0.4945110108 0.005287969 0.4945614089 0.005438021 -0.2194443495 0.0491594365
35299790.0 -0.2164210638 0.0513693905 0.4998816291 0.0019260214 0.5002562807 0.0020907759 -0.2137271632 0.0532057629
40299760.0 -0.2113690083 0.0549277234 0.5050328723 -0.0018444442 0.5050686203 -0.0017429639 -0.2083739502 0.0560338895
45299730.0 -0.2068340018 0.0575769628 0.5097681654 -0.0065315603 0.5101465296 -0.0061036536 -0.2035577853 0.058854935
50299700.0 -0.2023035483 0.0598969316 0.5143475084 -0.0121100537 0.514246364 -0.0115892189 -0.1985397999 0.0604639834
55299670.0 -0.1983136377 0.0616898482 0.5181940718 -0.0184570144 0.5177384418 -0.0178578591 -0.1944644686 0.0620502612
60299640.0 -0.1943356687 0.0635380735 0.5214655079 -0.0242099342 0.5213277911 -0.0237984496 -0.1901357792 0.0625622319
65299610.0 -0.1911489198 0.0647701434 0.5240538782 -0.0308430982 0.5244078896 -0.0305341305 -0.1873335141 0.0639519562
70299580.0 -0.187703209 0.0662527656 0.5266346788 -0.0375600199 0.5266365113 -0.0368526183 -0.183679833 0.0645254099
75299550.0 -0.1850655494 0.0672284242 0.5284848892 -0.0436865091 0.5284766264 -0.0439087979 -0.1808865414 0.0650113541
80299520.0 -0.1825227348 0.0680839657 0.5306282487 -0.0507517277 0.5305313644 -0.051061148 -0.1780369149 0.0657652485
85299490.0 -0.1800112434 0.068702046 0.5313824962 -0.0573617093 0.5317739522 -0.0572521246 -0.1759554438 0.0661659722
90299460.0 -0.1777592856 0.0697318919 0.5326061344 -0.0645325349 0.5331142542 -0.0644644982 -0.1736892674 0.0668044848
95299430.0 -0.175466029 0.0704423998 0.5335292261 -0.0717899051 0.5339677935 -0.0719256904 -0.1713006977 0.0672870435
100299400.0 -0.1739723572 0.0714760895 0.5337735096 -0.0785509892 0.5339049263 -0.0785199688 -0.1694006548 0.0675831418
105299370.0 -0.1720217126 0.0724345785 0.5341593246 -0.0855314986 0.5343821988 -0.0851929476 -0.1676691763 0.0682757907
110299340.0 -0.1703952123 0.0731764204 0.5350850862 -0.092212838 0.5346781862 -0.0922577925 -0.1664868933 0.0685929394
115299310.0 -0.1688964866 0.0740720067 0.5348907941 -0.0989010426 0.534477183 -0.098779115 -0.1647062034 0.0692925097
120299280.0 -0.1673353058 0.0746315374 0.5341119962 -0.1061296762 0.5346570132 -0.1061605059 -0.1635472552 0.0696152261
125299250.0 -0.1662219514 0.0752870755 0.5339682095 -0.112394926 0.5340475255 -0.1125616763 -0.1625122007 0.0698975599
130299220.0 -0.1649616103 0.0766627588 0.5335840389 -0.1194230294 0.5333976545 -0.1194926614 -0.1611339688 0.0703980822
135299190.0 -0.1636677144 0.0779549532 0.5327803038 -0.1259537573 0.5329383517 -0.1258632448 -0.1598665725 0.0713322286
140299160.0 -0.1630307307 0.078773962 0.5320835833 -0.1326039092 0.5322149839 -0.1328112517 -0.159051914 0.0725195442
145299130.0 -0.1613275454 0.0799693152 0.5308844321 -0.1393324986 0.5310308004 -0.1388856776 -0.1580067236 0.072951922
150299100.0 -0.1601095629 0.0811561407 0.5296490048 -0.1456354849 0.5299630569 -0.1453881872 -0.1572210691 0.0739676876
155299070.0 -0.1596945322 0.0821177742 0.5288936943 -0.1525892835 0.5290084701 -0.1520693364 -0.1561788097 0.0745814851
160299040.0 -0.1583078286 0.0835116864 0.5274047048 -0.1584911618 0.5271793649 -0.1588910617 -0.1559637829 0.0756027239
165299010.0 -0.1574291736 0.084798869 0.5257844484 -0.1652775494 0.5259116881 -0.1652389591 -0.154566039 0.0767882079
170298980.0 -0.1567104567 0.0856220115 0.5241633217 -0.1713961577 0.5245491001 -0.1716065154 -0.1538836187 0.0776776788
175298950.0 -0.1556555639 0.0871008257 0.5228240457 -0.1776229825 0.5230041677 -0.1779429391 -0.153221256 0.0789404859
180298920.0 -0.1547218691 0.087930815 0.5211935006 -0.1838466389 0.5209990543 -0.1838000217 -0.1524881413 0.079820712
185298890.0 -0.1533225163 0.0894798562 0.5191014347 -0.190333363 0.5189577696 -0.1905279911 -0.1517856704 0.0809059412
190298860.0 -0.1526685356 0.0910853554 0.5172001782 -0.1966890747 0.5178013297 -0.1964743109 -0.1508077385 0.0817539076
195298830.0 -0.151719022 0.0921814593 0.5153103282 -0.202561394 0.5155340745 -0.2025425453 -0.1499393045 0.0828522939
200298800.0 -0.1507379675 0.093690688 0.51282507 -0.2089374438 0.5131249669 -0.2087647068 -0.1496769165 0.0838546028
205298770.0 -0.1497020995 0.0950389971 0.510727542 -0.2149577471 0.5107837736 -0.2145918188 -0.1489094286 0.0842946992
210298740.0 -0.1485777742 0.0963133631 0.5084945234 -0.2205838963 0.5089144619 -0.2204647437 -0.1476848535 0.0864854629
215298710.0 -0.148389943 0.0977203982 0.5064825873 -0.2270695079 0.5064522067 -0.2266329424 -0.1475337977 0.0872607127
220298680.0 -0.1468263675 0.0988512028 0.5030276753 -0.2324738671 0.5036637265 -0.2325309208 -0.1464300401 0.0883876706
225298650.0 -0.1461606376 0.1003674461 0.50138556 -0.2386242011 0.5014865789 -0.2385952402 -0.1459927443 0.0893447282
230298620.0 -0.1451503936 0.102313679 0.4990853452 -0.244192487 0.4993636407 -0.2441397455 -0.1455563304 0.0906971615
235298590.0 -0.1439434263 0.1037121378 0.4964715401 -0.2499714041 0.496447121 -0.2497716998 -0.1444399771 0.0921551138
240298560.0 -0.1433495417 0.105289589 0.4938291676 -0.2560628542 0.4935337327 -0.2558739858 -0.1437870713 0.0934292172
245298530.0 -0.1421014878 0.1064849576 0.4909335474 -0.2614842069 0.49095077 -0.2612859625 -0.142631562 0.0941160185
250298500.0 -0.1408330992 0.1080520708 0.4872948062 -0.2676432248 0.4874451227 -0.2670181642 -0.1424093769 0.0954882488
255298470.0 -0.1400909763 0.1089062986 0.4843340156 -0.2725749145 0.4848531347 -0.2723910122 -0.1413375265 0.0969563098
260298440.0 -0.1388345447 0.1106203855 0.4817683623 -0.2782984171 0.4822421836 -0.2780421543 -0.1402979865 0.0979918485
265298410.0 -0.1375216806 0.1124990603 0.4790755535 -0.2840172209 0.4792070161 -0.2833106464 -0.1393856039 0.0996075021
270298380.0 -0.1364417191 0.1136822387 0.4761352015 -0.2888050165 0.4761030258 -0.2888432972 -0.1387840814 0.1008887853
275298350.0 -0.1352529197 0.1150495438 0.4728223046 -0.2948705168 0.4730838865 -0.2945775896 -0.1377013581 0.1020804978
280298320.0 -0.1337784128 0.1166668579 0.4697113975 -0.3001533752 0.4697921072 -0.2999665493 -0.1366142959 0.1030788481
285298290.0 -0.1328495149 0.1182270499 0.4664671662 -0.3051970458 0.4664846327 -0.3053990835 -0.136087408 0.1043224435
290298260.0 -0.1316647201 0.1196119658 0.4630885503 -0.3103073227 0.4631906811 -0.3108359637 -0.1349214725 0.1059839079
295298230.0 -0.1301583147 0.1209562448 0.4600558145 -0.3157028137 0.4599300939 -0.315456708 -0.1336561732 0.1069436009
300298200.0 -0.129330613 0.1223665056 0.4565873355 -0.3210646761 0.4566508203 -0.3212612563 -0.1327162094 0.1081809734
305298170.0 -0.1277004315 0.1235944452 0.4527223005 -0.3265657322 0.4530465808 -0.3263786194 -0.1316697416 0.1095003097
310298140.0 -0.1266546247 0.1252243661 0.4494546331 -0.3314591839 0.4495606767 -0.3314161674 -0.1306423016 0.1106010769
315298110.0 -0.1250920587 0.1262971072 0.4456410964 -0.3365062055 0.4461058866 -0.3367525982 -0.1298220308 0.1117200156
320298080.0 -0.1236783536 0.1276560396 0.4412191679 -0.3419684935 0.4417937343 -0.3419634607 -0.1290093435 0.1131887682
325298050.0 -0.1225786153 0.1288239619 0.4377692975 -0.3469909358 0.4378103817 -0.3467761694 -0.1282754617 0.1141556487
330298020.0 -0.1215050119 0.1299945461 0.4336422622 -0.3519586372 0.4342514864 -0.3521268114 -0.1272900635 0.1155388366
335297990.0 -0.1201190221 0.1312969761 0.4299762436 -0.3567312286 0.4299587333 -0.3563088703 -0.126813315 0.1169040539
340297960.0 -0.1192021916 0.1329822424 0.4255253455 -0.3613279163 0.4256393062 -0.361748479 -0.1251874356 0.1182754831
345297930.0 -0.1178057748 0.1348674693 0.421582622 -0.3665867881 0.4214696895 -0.3664500962 -0.1246047995 0.1192277612
350297900.0 -0.1164437109 0.1356179811 0.4174191288 -0.3712405371 0.4173597697 -0.3706386112 -0.1236219835 0.1209041847
355297870.0 -0.1150576167 0.1374975898 0.4133678004 -0.375476296 0.4137947981 -0.3755659558 -0.122973599 0.1219636467
360297840.0 -0.1139002161 0.138816391 0.4096796495 -0.3797262532 0.4095713555 -0.379658153 -0.1215220506 0.1234190104
365297810.0 -0.1125498688 0.1404866413 0.4050473565 -0.3845640845 0.4053391668 -0.385092906 -0.120373561 0.1248245456
370297780.0 -0.1108149869 0.1414175584 0.4006314112 -0.3885752776 0.4012435113 -0.3885666226 -0.1193054154 0.1261455106
375297750.0 -0.1089072964 0.1426585288 0.3963242133 -0.393285123 0.3970041347 -0.393395376 -0.1180958957 0.1271172432
380297720.0 -0.1077954465 0.1441637161 0.3921275454 -0.3978069212 0.3923729257 -0.3970070511 -0.1174343581 0.1283349492
385297690.0 -0.1068545113 0.1455082943 0.387727596 -0.4016351798 0.3873637711 -0.4016094139 -0.1157032083 0.1299541544
390297660.0 -0.10485515 0.1470496481 0.3832771511 -0.4059740924 0.3832604609 -0.4058050257 -0.1150700871 0.1308957696
395297630.0 -0.1032611303 0.148205448 0.3788738831 -0.4104893749 0.3789416507 -0.4101670149 -0.1130705056 0.1322690191
400297600.0 -0.1017512443 0.1493802024 0.3738997175 -0.4146493509 0.3744090911 -0.4144769878 -0.1121920769 0.133583534
405297570.0 -0.1003137121 0.1508309956 0.3697018173 -0.4183683022 0.3699488136 -0.4183646749 -0.1112951515 0.1348522082
410297540.0 -0.0986094403 0.1516184132 0.3652926584 -0.4223642401 0.365540414 -0.4226982329 -0.1099185623 0.1362828302
415297510.0 -0.0964430396 0.1529257 0.3603337128 -0.4264816916 0.3607214016 -0.4266286704 -0.1084279498 0.1372676592
420297480.0 -0.0951295844 0.1546524871 0.3557436547 -0.4302114454 0.3556192047 -0.4307391621 -0.1075109982 0.1382366999
425297450.0 -0.0933033604 0.1551495952 0.3507246453 -0.4341100121 0.3515857563 -0.4344833355 -0.1063307067 0.1398618262
430297420.0 -0.0917959612 0.1563465584 0.3464816117 -0.4375321051 0.3464552773 -0.4375894604 -0.1051768641 0.1402728757
435297390.0 -0.0902092157 0.1575944542 0.3410678275 -0.4417009244 0.341290424 -0.4416365469 -0.1030721224 0.1419011362
440297360.0 -0.088486643 0.1591052066 0.3365293481 -0.4456943566 0.3368123709 -0.4458779687 -0.1022576731 0.14279052
445297330.0 -0.0866431759 0.1597781111 0.3320903235 -0.4492394362 0.332147527 -0.4490385241 -0.1007020318 0.1435793083
450297300.0 -0.084898833 0.1609592972 0.3267309534 -0.4525811903 0.326692318 -0.4531346003 -0.0993597508 0.1449262005
455297270.0 -0.0833720127 0.1622476573 0.3214088548 -0.4564434039 0.321921577 -0.4566489958 -0.0982502191 0.146232842
460297240.0 -0.0815939808 0.1633730146 0.3162320443 -0.4599296039 0.3168817633 -0.4596205346 -0.0968455085 0.1473986513
465297210.0 -0.0796075237 0.1644628992 0.3118759719 -0.4633593796 0.3118095946 -0.4635910128 -0.095117075 0.148154225
470297180.0 -0.077848799 0.1649503342 0.3061977498 -0.4665885958 0.3067898674 -0.4668291254 -0.0938264425 0.1495466508
475297150.0 -0.0759639448 0.1658502469 0.3011880536 -0.4694576683 0.301689441 -0.4697315839 -0.0919184038 0.1503076048
480297120.0 -0.0743326885 0.1674131271 0.2962902911 -0.4734033141 0.2962452701 -0.4735126625 -0.0902622068 0.1517276927
485297090.0 -0.0724973364 0.1680145747 0.2912527947 -0.4761131713 0.2913017586 -0.4762362788 -0.0891325481 0.1523238425
490297060.0 -0.0707612032 0.1691319812 0.2860050784 -0.4795911995 0.2860801377 -0.4793250474 -0.0878161459 0.153699949
495297030.0 -0.0687157483 0.1697860225 0.2802940943 -0.4820887063 0.2811516262 -0.4822935311 -0.0865913732 0.1546510897
500297000.0 -0.0669496473 0.170912683 0.2754817079 -0.4853410854 0.2753413998 -0.4851069881 -0.08492553 0.1561076902
505296970.0 -0.0648940507 0.1715949659 0.270059483 -0.4881748194 0.2704954324 -0.4883478463 -0.0834851249 0.1566446497
510296940.0 -0.0631810453 0.1726376575 0.2645811651 -0.4915387772 0.264868401 -0.4914825152 -0.082057835 0.1578128509
515296910.0 -0.0608228768 0.1735158561 0.2594041752 -0.4944083027 0.2596201282 -0.4940919324 -0.0802000396 0.1586669034
520296880.0 -0.059549079 0.1742053115 0.2542555607 -0.4971312902 0.2539556065 -0.4964345652 -0.0789429608 0.1591401078
525296850.0 -0.0574798802 0.1744668364 0.2483444519 -0.4996154217 0.2487503512 -0.4995022801 -0.0777524347 0.1603174447
530296820.0 -0.0552885535 0.1757314406 0.2430295925 -0.5025659504 0.2431488898 -0.5024287125 -0.0756187636 0.1610360075
535296790.0 -0.0539116277 0.1765825735 0.2380994725 -0.5048250333 0.2375948522 -0.5041955656 -0.0741661673 0.1616162038
540296760.0 -0.0516958062 0.1772145343 0.2321935307 -0.5076906378 0.2320554918 -0.5076047561 -0.0729885945 0.1633407618
545296730.0 -0.0499185422 0.1779142049 0.226255161 -0.5095537392 0.2263328032 -0.5100845752 -0.0713186171 0.1637759064
550296700.0 -0.047616202 0.1786231223 0.2208885784 -0.5120589836 0.2211784333 -0.5126915276 -0.0699686534 0.1646979369
555296670.0 -0.0459035266 0.1794508116 0.2156212412 -0.5147238494 0.2157962877 -0.5146020602 -0.0680451532 0.16606871
560296640.0 -0.0432785976 0.1802270891 0.2095322328 -0.5166405122 0.2103665811 -0.517000754 -0.0664619173 0.1661886805
565296610.0 -0.0421732301 0.1806569937 0.2041600753 -0.5193360066 0.2042786006 -0.5191392185 -0.0648484678 0.167193213
570296580.0 -0.0401417189 0.1812045119 0.198653319 -0.5218800894 0.1982514766 -0.5213572501 -0.0634688011 0.168199739
575296550.0 -0.0382345036 0.1818958007 0.1931809617 -0.5239648025 0.1930886896 -0.5238980776 -0.0616563808 0.1686667622
580296520.0 -0.0359283029 0.1823218204 0.1868258737 -0.5254140365 0.1870300141 -0.5255447864 -0.0599759303 0.1693200593
585296490.0 -0.0341610834 0.1827588622 0.181501309 -0.5275245209 0.1817935697 -0.5277406751 -0.0585051336 0.1704124048
590296460.0 -0.0313997695 0.1834589983 0.1754321756 -0.528649064 0.175934226 -0.529461573 -0.0573369431 0.171080999
595296430.0 -0.0297731783 0.1841726055 0.1695928628 -0.5314182878 0.1698245521 -0.5309702633 -0.0551942172 0.1711556106
600296400.0 -0.0277164538 0.1845268754 0.1640120358 -0.5330052409 0.1639617784 -0.5327138747 -0.0540580278 0.1717339816
605296370.0 -0.0262405765 0.184635918 0.1584248439 -0.534388624 0.1585720119 -0.5343243299 -0.0517442747 0.1728651952
610296340.0 -0.0236297003 0.1854177118 0.1521266052 -0.5363359696 0.1526098529 -0.5363178098 -0.0498764908 0.1732595136
615296310.0 -0.0212405318 0.1852949629 0.146171876 -0.5373333777 0.1467931479 -0.5381259247 -0.0483085525 0.1740572309
620296280.0 -0.0197386193 0.1858891217 0.1408453861 -0.539192226 0.1407737517 -0.5393623607 -0.0468900751 0.1750000753
625296250.0 -0.0178365209 0.1859952112 0.135240253 -0.540831506 0.1349558738 -0.5413148001 -0.0445407756 0.1751521044
630296220.0 -0.0149463177 0.186670299 0.1282874289 -0.5421973378 0.1289068238 -0.5423601291 -0.0434209663 0.1761918411
635296190.0 -0.0138233881 0.186688263 0.123394607 -0.5433615638 0.12319472 -0.5436183404 -0.0413553372 0.1767219959
640296160.0 -0.01159539 0.1873536512 0.1174354676 -0.5447860055 0.1178147182 -0.5448723481 -0.0398069481 0.1769624619
645296130.0 -0.0095628754 0.1875546831 0.1109551971 -0.5458674072 0.1116311293 -0.5458055623 -0.0379477771 0.1778085487
650296100.0 -0.0071642212 0.1877006761 0.1053659062 -0.5472298697 0.1056032653 -0.5472121112 -0.0364962716 0.1777659037
655296070.0 -0.0054111859 0.1878735731 0.0995924748 -0.5485455918 0.0999801542 -0.5485185475 -0.0342308409 0.1785948393
660296040.0 -0.0037746693 0.187566102 0.0939718369 -0.5492608022 0.0941322836 -0.5497497006 -0.0323454099 0.1791785743
665296010.0 -0.0007983999 0.1879811966 0.0874590589 -0.5501846221 0.0877496743 -0.5501899297 -0.0308489808 0.180174891
670295980.0 8.50482e-05 0.1881111389 0.0816952995 -0.5508367557 0.0818408704 -0.5510143678 -0.0298586889 0.1802259903
675295950.0 0.0028572511 0.1885471308 0.0759775148 -0.5517809431 0.0760597958 -0.551317843 -0.0281464243 0.1805247075
680295920.0 0.0048247779 0.1884840958 0.0695489097 -0.5524979038 0.0697233491 -0.5529697614 -0.0257276291 0.1815545175
685295890.0 0.0071205996 0.1890030246 0.0635042212 -0.5532907141 0.0638377905 -0.5533615255 -0.0242074229 0.1818414738
690295860.0 0.0092420104 0.1889644591 0.0576016063 -0.5534625647 0.0583254559 -0.5541531439 -0.0227594828 0.1828491695
695295830.0 0.011147964 0.1887698054 0.0522655358 -0.5542298205 0.0517597775 -0.5543039089 -0.0205533244 0.1825929891
700295800.0 0.0132872018 0.188443819 0.04578951 -0.5547868017 0.0456272686 -0.5551339451 -0.0191297596 0.1834454129
705295770.0 0.0151203114 0.1891944458 0.0394866626 -0.5555097622 0.040611167 -0.5558028081 -0.0176751096 0.1840493262
710295740.0 0.0174595181 0.1888863758 0.0343272372 -0.5560453997 0.0342737933 -0.5559475056 -0.015302283 0.183151208
715295710.0 0.0189155428 0.1886037437 0.0283364269 -0.5563419151 0.0276635455 -0.5559045287 -0.013266111 0.1839561726
720295680.0 0.0212253539 0.188495753 0.0220374099 -0.5560605009 0.0222664176 -0.5564234984 -0.0119695857 0.1844419479
725295650.0 0.0236105299 0.1885306323 0.0159867788 -0.5564090764 0.0160684486 -0.5569300105 -0.0104725971 0.1850042825
730295620.0 0.0257201305 0.1887033504 0.0099236288 -0.5565016463 0.0099446874 -0.5566495339 -0.0087271068 0.1846928882
735295590.0 0.027785052 0.1884436731 0.0041625197 -0.5568447462 0.0040971374 -0.5565973237 -0.0070188703 0.1847148444
740295560.0 0.0294079446 0.1882904127 -0.0022344777 -0.5565436415 -0.0015547892 -0.5567048755 -0.004405566 0.1852524464
745295530.0 0.0315457868 0.1882734523 -0.0083849952 -0.556148304 -0.0082047164 -0.556403453 -0.0026061093 0.1852558438
750295500.0 0.0341741273 0.1877491846 -0.0139348502 -0.5562290506 -0.0135283453 -0.5566591421 -0.001392301 0.1851501629
755295470.0 0.0358942505 0.1871944677 -0.0198890997 -0.5558877933 -0.0198941685 -0.556327406 0.0010906833 0.1854836758
760295440.0 0.0379485429 0.1873597894 -0.0259417413 -0.5560526486 -0.0263336034 -0.5561310522 0.0025320801 0.1855879608
765295410.0 0.0398386912 0.187102123 -0.0321159641 -0.5555974904 -0.032434261 -0.5559604978 0.0045526254 0.185938304
770295380.0 0.0418608687 0.1865857514 -0.038235452 -0.5549307509 -0.0377023117 -0.5551143728 0.0060564843 0.1856833492
775295350.0 0.0436994139 0.1859309645 -0.0441186325 -0.5544848867 -0.0436398581 -0.5546962759 0.0074700099 0.1863178388
780295320.0 0.0461401998 0.1858861721 -0.0500921062 -0.5533271572 -0.0492000581 -0.5542488667 0.0092911727 0.1859322662
785295290.0 0.0478734689 0.1851829137 -0.0564818144 -0.5530158858 -0.055844409 -0.5535563818 0.0118273691 0.1862512746
790295260.0 0.0505650496 0.1854721 -0.0616594294 -0.5528209622 -0.0610522289 -0.5526902046 0.0133952088 0.1863312381
795295230.0 0.0524045079 0.1845576034 -0.0679530968 -0.5517662412 -0.0672493102 -0.552270029 0.0154576538 0.1863796549
800295200.0 0.0541539958 0.1844230049 -0.074494248 -0.5512742978 -0.0734309012 -0.5511287472 0.0174174581 0.1861362953
805295170.0 0.0562584184 0.1837733797 -0.0797891069 -0.5505963347 -0.0799807924 -0.5508474713 0.0186970763 0.186435455
810295140.0 0.0583985528 0.1830818496 -0.0854468238 -0.5491904108 -0.085249633 -0.5494180535 0.0211826954 0.1862935546
815295110.0 0.0602509621 0.1826286842 -0.0914916006 -0.5481114749 -0.0912441623 -0.5486086797 0.0225516152 0.1863838472
820295080.0 0.0620012349 0.1825798194 -0.0972737149 -0.5470540712 -0.0969070818 -0.5474270003 0.02432303 0.1865123725
825295050.0 0.0647929313 0.1814840647 -0.1029178719 -0.5459142007 -0.1026992027 -0.5465571416 0.0264270417 0.1863087856
830295020.0 0.0663415482 0.1811983793 -0.1093562399 -0.544679794 -0.1089844108 -0.5448230549 0.0290333405 0.186130416
