!Created with skrf (http://scikit-rf.org).
# Hz S RI R 50.0 
!freq ReS11 ImS11 ReS21 ImS21 ReS12 ImS12 ReS22 ImS22
300000.0 -0.3197081316 -0.1043798955 0.3733471722 0.0541900675 0.3752129909 0.0567646075 -0.3216384816 -0.1178562532
5299970.0 -0.3238951477 0.0047175334 0.3786979549 0.0030840357 0.3786312846 0.003211551 -0.3259183868 0.0028087084
10299940.0 -0.3209384955 0.0157473396 0.3797540281 0.0023731586 0.3796986872 0.0021833091 -0.3239385901 0.012792721
15299910.0 -0.3182120356 0.0235952 0.3817823741 0.0022770894 0.3820575245 0.0022985371 -0.3211865882 0.0198308935
20299880.0 -0.3143678297 0.0302087254 0.3849017129 0.0016358657 0.3851819014 0.0016346662 -0.3183570756 0.025946192
25299850.0 -0.3104547143 0.035730783 0.3882535548 -0.0002105178 0.3882412794 7.91673e-05 -0.315715109 0.0314371915
30299820.0 -0.3064841666 0.0405290196 0.3923927884 -0.002139281 0.3916602401 -0.0021641611 -0.3125824243 0.0354017959
35299790.0 -0.3031582236 0.0449444437 0.3952624403 -0.0053587191 0.3951799449 -0.0052194242 -0.3097358196 0.0393499832
40299760.0 -0.2997103135 0.0480617076 0.3983966394 -0.0085885415 0.3982125531 -0.0087775789 -0.306885329 0.0431768139
45299730.0 -0.2965254874 0.0514498757 0.4011968854 -0.0129902751 0.4012127423 -0.0127871037 -0.3045987662 0.0461736576
50299700.0 -0.2931914804 0.0541465353 0.403408043 -0.0172116873 0.4036727096 -0.0173521573 -0.3020427113 0.0492571565
55299670.0 -0.2906794085 0.0568077868 0.4054259634 -0.0222552581 0.4056205531 -0.02174047 -0.3002862439 0.0523164116
60299640.0 -0.2881607727 0.0587849991 0.4074962272 -0.0270093063 0.407693777 -0.0269423776 -0.2982829841 0.0547740933
65299610.0 -0.2859046738 0.0617034246 0.409151138 -0.0314028985 0.4095009367 -0.0317508819 -0.2962865589 0.0571649478
70299580.0 -0.2837125545 0.0637240099 0.4103970544 -0.0368678855 0.4106237857 -0.0369243423 -0.2945501199 0.0599656745
75299550.0 -0.281846886 0.0658403659 0.4114002944 -0.0420500866 0.4117005738 -0.0423276547 -0.2929340863 0.061935735
80299520.0 -0.2805629913 0.0679949283 0.4128150725 -0.0475161057 0.4126572753 -0.0473953391 -0.2915444195 0.0639777782
85299490.0 -0.2786945374 0.0697056423 0.4129575656 -0.0525211476 0.4131092941 -0.0528039076 -0.2904649347 0.0665089459
90299460.0 -0.2771071037 0.0723014861 0.4135140179 -0.0576631504 0.4136313818 -0.057712323 -0.2886510966 0.0687263581
95299430.0 -0.2755799736 0.0743433216 0.4141125916 -0.0634372299 0.4138940755 -0.0630906637 -0.2873263574 0.071333906
100299400.0 -0.2743637309 0.0762205134 0.413603758 -0.068419784 0.4135115889 -0.0684500746 -0.2865727588 0.0733344997
105299370.0 -0.272945766 0.0783812687 0.4136283273 -0.073471019 0.4136617189 -0.0734360019 -0.2851777164 0.075614407
110299340.0 -0.2719566631 0.0805413846 0.4131860301 -0.078369824 0.4134082014 -0.079103828 -0.2844754592 0.0782932781
115299310.0 -0.2706925035 0.0822225004 0.4130225819 -0.083449454 0.4130652332 -0.083726889 -0.2834798658 0.0801833054
120299280.0 -0.2699197868 0.0845691793 0.4129384507 -0.0891738003 0.4128972131 -0.0888565828 -0.2824817682 0.0826478265
125299250.0 -0.2690320797 0.0867004208 0.4123436643 -0.0937097874 0.4124136134 -0.0941390122 -0.2811328505 0.0847716971
130299220.0 -0.2674418883 0.0893126833 0.4113895982 -0.0989291215 0.4115844568 -0.0991488324 -0.2805694663 0.087399708
135299190.0 -0.2667757957 0.0912786592 0.4112805588 -0.1039678025 0.4107059545 -0.1041016788 -0.2797159686 0.0897415549
140299160.0 -0.2659273451 0.0935939701 0.410263867 -0.1089159721 0.4100826634 -0.109228812 -0.2786351533 0.0921228024
145299130.0 -0.2647910058 0.0957433903 0.4094885115 -0.1141815904 0.4089045334 -0.114014835 -0.2783475126 0.0945966964
150299100.0 -0.2641209845 0.0982855139 0.4081973453 -0.1190232487 0.4082319711 -0.1192679664 -0.2769542068 0.0968376466
155299070.0 -0.263066644 0.101173094 0.4074400185 -0.1242456831 0.4072350731 -0.12391944 -0.2761970251 0.0995210791
160299040.0 -0.2619697115 0.102852932 0.4054301746 -0.1284037644 0.405866106 -0.128941901 -0.2750100325 0.1024532705
165299010.0 -0.2610180602 0.105432161 0.4045198043 -0.1334791206 0.4045363232 -0.1339080244 -0.2739974862 0.1044876096
170298980.0 -0.2601418665 0.1078823153 0.4027372373 -0.1384409708 0.4031768631 -0.1384368301 -0.2731864759 0.1071312908
175298950.0 -0.259147143 0.1102743553 0.402245342 -0.1432097376 0.4020571249 -0.1431148694 -0.2721599694 0.1097346458
180298920.0 -0.2578003302 0.1125441051 0.400266149 -0.1483785617 0.4006492548 -0.1480159128 -0.2711461222 0.1123927109
185298890.0 -0.2568243227 0.115393514 0.3984894638 -0.1525891974 0.3987595711 -0.1525482972 -0.27021454 0.114892702
190298860.0 -0.2559422235 0.1177082372 0.3971322082 -0.1576871873 0.3973885899 -0.1574538001 -0.2686622481 0.117557007
195298830.0 -0.2547437823 0.1199540414 0.3958058002 -0.1619643343 0.395945148 -0.1621448929 -0.2681913696 0.1197270283
200298800.0 -0.2536242132 0.1229923989 0.39390841 -0.1664402447 0.3936911623 -0.1665326971 -0.2665406063 0.1231322014
205298770.0 -0.2528773221 0.1251904904 0.3925738922 -0.1710913043 0.3921477244 -0.1709660174 -0.2657693264 0.125344991
210298740.0 -0.2514910669 0.1279058075 0.3904620907 -0.1761895206 0.3903788785 -0.1758775233 -0.2647612476 0.1282346966
215298710.0 -0.2502734494 0.1306342991 0.3883401332 -0.1802596818 0.3882746644 -0.180305239 -0.263641367 0.1309467871
220298680.0 -0.2490759217 0.1330467542 0.3862033124 -0.184875188 0.3864587753 -0.1850351515 -0.262000932 0.1337944581
225298650.0 -0.2475916524 0.1355501618 0.3842163297 -0.1889029109 0.3841764319 -0.1887219505 -0.2611111428 0.1361965789
230298620.0 -0.2465698023 0.1379143903 0.3826321156 -0.1936879012 0.3827524571 -0.1935500586 -0.2597962746 0.1388531413
235298590.0 -0.2453543456 0.1404023876 0.380341475 -0.1977865278 0.3805888424 -0.1980131042 -0.2582814187 0.1411380128
240298560.0 -0.2441948293 0.143116806 0.3782657071 -0.2019469087 0.3782692734 -0.2019857118 -0.2569498666 0.1444918438
245298530.0 -0.2424830318 0.1457734724 0.3756461767 -0.2066550071 0.3757062044 -0.2064559529 -0.2555850776 0.1469213735
250298500.0 -0.2414153709 0.1481459688 0.3734037564 -0.2105089275 0.3737225954 -0.2104069849 -0.2539698558 0.1496373158
255298470.0 -0.2400405163 0.1510527548 0.3712172742 -0.2153647022 0.3714659218 -0.2149869812 -0.2525265251 0.152351144
260298440.0 -0.2388789924 0.1535810029 0.3690921814 -0.219224584 0.3688750334 -0.219346918 -0.2508279263 0.1548323317
265298410.0 -0.2369706964 0.1562672175 0.3662956478 -0.2239708774 0.3665330731 -0.2233775361 -0.2496970285 0.1574567213
270298380.0 -0.235420982 0.1585895742 0.363793684 -0.2276052271 0.3642005256 -0.2277768708 -0.247731637 0.1605258266
275298350.0 -0.2338860316 0.1611745491 0.36123928 -0.2319827376 0.3617677891 -0.232065108 -0.2457895144 0.1630717841
280298320.0 -0.2327277208 0.1637004308 0.3592244644 -0.2353575643 0.3586130298 -0.2359214252 -0.2447313908 0.1655426016
285298290.0 -0.2309741232 0.1661158969 0.3562898782 -0.2396302845 0.3563271054 -0.2396880645 -0.2429012399 0.1685401447
290298260.0 -0.2290804882 0.1688741381 0.3537917151 -0.2442403755 0.3538493042 -0.2439359454 -0.2409222438 0.1714455437
295298230.0 -0.2275152123 0.1713049412 0.351462864 -0.2478083201 0.351046052 -0.2479300295 -0.2393032943 0.1737231728
300298200.0 -0.2256715738 0.1735860616 0.3483581593 -0.2519194589 0.3484403187 -0.2520349611 -0.2377041826 0.1765286634
305298170.0 -0.2239606892 0.1764099899 0.3459199564 -0.2562739001 0.3457122553 -0.2563892216 -0.2355307283 0.1792979481
310298140.0 -0.2221393677 0.1783085537 0.3429142838 -0.2600045986 0.3432006889 -0.2601230711 -0.2339888895 0.1820348547
315298110.0 -0.2208134944 0.1809548194 0.3400400163 -0.2640521128 0.3400664075 -0.2640035368 -0.2319794188 0.1841580651
320298080.0 -0.2184614413 0.1834697102 0.3367894776 -0.2678834851 0.3369913239 -0.2675840797 -0.2300270423 0.1867113663
325298050.0 -0.2167730578 0.1855141253 0.3341074943 -0.2720110016 0.3342123494 -0.2716498044 -0.2282744962 0.1893222178
330298020.0 -0.2151640941 0.1882146369 0.3305651797 -0.2755773314 0.3308450093 -0.2754617219 -0.2265545523 0.1918202078
335297990.0 -0.2133518343 0.1902216727 0.3276927337 -0.2789565871 0.3277309891 -0.2792020863 -0.2245016449 0.1945335484
340297960.0 -0.2120972179 0.1928393338 0.3244833435 -0.2826548332 0.3247165555 -0.2824726289 -0.2226920237 0.1969373316
345297930.0 -0.210255654 0.1950811931 0.3216570218 -0.2859628615 0.3206452298 -0.2859601569 -0.2203396985 0.1992751481
350297900.0 -0.2077285986 0.1976429972 0.3179291835 -0.2895566761 0.3181459879 -0.289643418 -0.218391331 0.2023126194
355297870.0 -0.2060900975 0.199818227 0.314697975 -0.2928708701 0.3147631934 -0.2935052142 -0.2166918413 0.2049732975
360297840.0 -0.2037140406 0.2023884559 0.3116086417 -0.2965232772 0.3115267055 -0.2969797676 -0.2144945297 0.2075126773
365297810.0 -0.2015069088 0.2045803516 0.3078973199 -0.299941095 0.3080073796 -0.2999190787 -0.2121653228 0.2099414577
370297780.0 -0.199368656 0.2066715946 0.3042350798 -0.3034696889 0.3047101707 -0.3037629093 -0.2104225731 0.2122220345
375297750.0 -0.1976722689 0.2092691192 0.3018246381 -0.3070476478 0.3012986228 -0.3068295916 -0.2078605269 0.2145718712
380297720.0 -0.1952784975 0.2114935653 0.2978071661 -0.3100747616 0.2978294879 -0.3101029438 -0.2059228039 0.2173516976
385297690.0 -0.1931835393 0.2135800595 0.2942280504 -0.3129251918 0.2942779209 -0.3133328724 -0.2037722001 0.2199144794
390297660.0 -0.1909233231 0.2160146615 0.290998684 -0.3167515877 0.290745734 -0.3168048216 -0.2012584024 0.2217059159
395297630.0 -0.1887437607 0.2180234372 0.2875046436 -0.3195765765 0.2875321633 -0.3194681196 -0.1994534873 0.2245736178
400297600.0 -0.1864870527 0.2204919249 0.283872073 -0.3231550106 0.2842428229 -0.3229084532 -0.1971666029 0.2267272394
405297570.0 -0.1844493719 0.222415617 0.2804593828 -0.3259557139 0.2802636963 -0.3259705761 -0.1948014867 0.2291560494
410297540.0 -0.1818142909 0.2245541067 0.2762844229 -0.329016578 0.2765051215 -0.3287384816 -0.1924078519 0.2314804755
415297510.0 -0.1797651705 0.2267852346 0.2729638315 -0.3320551982 0.273107581 -0.3321179167 -0.1902518737 0.2346094416
420297480.0 -0.1771204689 0.2284289642 0.2687475361 -0.3350907395 0.2692408925 -0.3350512278 -0.1874106125 0.2357879998
425297450.0 -0.1746089305 0.2306261273 0.2652014764 -0.3381438384 0.2660898061 -0.3377322925 -0.1851749592 0.2383378305
430297420.0 -0.1726106508 0.2327270434 0.2620742521 -0.3409727018 0.2618639141 -0.3407098681 -0.1827465084 0.240354031
435297390.0 -0.1697276534 0.2347646588 0.2579043044 -0.3431840187 0.2581506669 -0.3435772167 -0.1800655485 0.2427445823
440297360.0 -0.1675058344 0.2365915972 0.2540651634 -0.3463410859 0.2540164147 -0.3462520118 -0.1778203011 0.2443081164
445297330.0 -0.1650389716 0.2384903641 0.2501883828 -0.3490961182 0.2501985168 -0.349011724 -0.1749530555 0.2466304179
450297300.0 -0.1624326348 0.2402013449 0.2465514147 -0.3516704759 0.2464988696 -0.3518332856 -0.1728243997 0.2489133828
455297270.0 -0.1598868903 0.2419991123 0.243117929 -0.354457222 0.2429264028 -0.3543338282 -0.1698514559 0.250699078
460297240.0 -0.1574114158 0.2441852608 0.2387282546 -0.3570337332 0.2384313734 -0.3570047493 -0.1673344936 0.2530919529
465297210.0 -0.1544280385 0.2459381117 0.2348180416 -0.3597328427 0.2350016774 -0.3595704402 -0.1652028997 0.2544809916
470297180.0 -0.1523833691 0.2477363555 0.2308637785 -0.3620171547 0.2309666244 -0.3620277203 -0.1625248165 0.2565198962
475297150.0 -0.1498719181 0.2493301144 0.2265663073 -0.3643478335 0.2270723557 -0.3640818621 -0.1594791047 0.2584628874
480297120.0 -0.1471095363 0.251045285 0.2227565675 -0.366841935 0.2229016749 -0.3671470305 -0.1572270251 0.2610573436
485297090.0 -0.1444379405 0.2527292836 0.2189729979 -0.3693878298 0.2186860597 -0.3692545656 -0.1543890919 0.2623026289
490297060.0 -0.1415045845 0.2545445097 0.2146806353 -0.371523947 0.2146451783 -0.3716918353 -0.1517284122 0.2643956956
495297030.0 -0.1392683429 0.2561345336 0.2106419797 -0.3738596287 0.2102246132 -0.3737209193 -0.1487467059 0.2654970217
500297000.0 -0.1361341294 0.2575753774 0.2062552465 -0.3762293103 0.2063393617 -0.376122498 -0.1461744463 0.2676631272
505296970.0 -0.1336198393 0.2591026137 0.2022226689 -0.3778395848 0.2022985675 -0.3780463884 -0.1440990561 0.2693278
510296940.0 -0.1310935378 0.2608615722 0.1983483292 -0.38055998 0.1984050908 -0.3805528126 -0.1408883057 0.2712035724
515296910.0 -0.1284304817 0.2625432418 0.1938288116 -0.3824979187 0.1940307044 -0.3828075126 -0.1378672059 0.2727365394
520296880.0 -0.1253589459 0.264010479 0.1897387705 -0.3845536704 0.1898633563 -0.3846827411 -0.1351181353 0.2745031035
525296850.0 -0.1225659601 0.2654243596 0.1854372725 -0.3865041654 0.1854332423 -0.3866379796 -0.1319360816 0.2758034687
530296820.0 -0.1197489657 0.2664662732 0.1815740291 -0.3882077195 0.1810940438 -0.3884451955 -0.1298677955 0.2774778176
535296790.0 -0.1170282085 0.2682954839 0.1769689726 -0.3902524222 0.1772147711 -0.3902586664 -0.1269580091 0.2787461922
540296760.0 -0.1140977803 0.2694191275 0.1727461692 -0.3926020072 0.1726741534 -0.3927840231 -0.1241110332 0.2805174278
545296730.0 -0.1116973137 0.2706507184 0.1682558736 -0.3937821578 0.1687031977 -0.3942439987 -0.1212397606 0.281718078
550296700.0 -0.1087244916 0.2725181614 0.1644408197 -0.3962959405 0.1645700574 -0.3960741031 -0.1182839444 0.2833797658
555296670.0 -0.1054050029 0.2732307649 0.1599587282 -0.3975360961 0.1600922252 -0.3976973857 -0.1152405723 0.2850231168
560296640.0 -0.1029921721 0.2746048078 0.1557244609 -0.3992252911 0.1559286336 -0.3991012419 -0.1121444695 0.2862843489
565296610.0 -0.1002794945 0.2759168147 0.1514403738 -0.401057743 0.150940455 -0.4009779233 -0.1093901146 0.2874737692
570296580.0 -0.0971003614 0.2769975119 0.1467323094 -0.4024340173 0.14730721 -0.402610874 -0.1066868153 0.2892836815
575296550.0 -0.0938168013 0.2782833031 0.1421910165 -0.4038519284 0.1426576444 -0.4041489378 -0.1033204658 0.2901410734
580296520.0 -0.0912333649 0.2793143373 0.1383811697 -0.4056115188 0.1381368501 -0.4056330727 -0.1005464882 0.2912278574
585296490.0 -0.0879425503 0.2801376805 0.1337482704 -0.4066362706 0.1336133575 -0.4071010007 -0.0974953009 0.2925333238
590296460.0 -0.0854512063 0.2812205369 0.1295047957 -0.4079460338 0.1291120518 -0.4085965943 -0.0945192434 0.2936185427
595296430.0 -0.0823657992 0.2827333782 0.1249945177 -0.4097763247 0.1245532538 -0.4098124818 -0.0913266441 0.2945821439
600296400.0 -0.0792900289 0.2835501131 0.1202682218 -0.4111224932 0.120596603 -0.4109484574 -0.0880611619 0.2959357536
605296370.0 -0.0763238681 0.2847514454 0.1157475465 -0.412582461 0.1158581206 -0.4121299395 -0.0853758159 0.2973302835
610296340.0 -0.0736238645 0.2858579694 0.1118113196 -0.4134195407 0.1115555759 -0.4136825509 -0.0820649711 0.2984293652
615296310.0 -0.070109533 0.2865845022 0.1065806611 -0.4144544209 0.1068144728 -0.4147909696 -0.0793329957 0.2990424885
620296280.0 -0.0670474043 0.2871031816 0.1022702159 -0.4153713917 0.1024204209 -0.4157199401 -0.076098641 0.2999499784
625296250.0 -0.0639786426 0.2883531233 0.0976263117 -0.4168865762 0.0980167644 -0.4169296219 -0.0729150615 0.3012931309
630296220.0 -0.0610333949 0.2890970439 0.0930933972 -0.4177960413 0.0935113805 -0.4175286772 -0.0698246208 0.3023307051
635296190.0 -0.0581983776 0.2899607248 0.0886188594 -0.4181607034 0.0885453683 -0.4184221413 -0.0669159061 0.3026597718
640296160.0 -0.0549864876 0.2902546814 0.084461465 -0.4193161675 0.084111535 -0.4196720871 -0.0631306058 0.3038114087
645296130.0 -0.0521988101 0.2912968584 0.0796847986 -0.4202947925 0.0799362357 -0.4204946215 -0.0609826607 0.3042065666
650296100.0 -0.0489147033 0.2924190283 0.0753426699 -0.4211933293 0.0752148333 -0.4209499784 -0.0577871726 0.3055487161
655296070.0 -0.0457075025 0.2925130517 0.0702157387 -0.4218975894 0.07036309 -0.4219901815 -0.054043399 0.3062042076
660296040.0 -0.0428975687 0.2935573422 0.0659662502 -0.4222878425 0.0661438686 -0.4225327352 -0.0511911917 0.3068891646
665296010.0 -0.0395686176 0.293931295 0.0614755237 -0.4232278503 0.0616373411 -0.4234176704 -0.0478701396 0.3077754868
670295980.0 -0.0361379824 0.2945322781 0.0566769255 -0.4239584411 0.0570645052 -0.4237381008 -0.0453810805 0.3080998463
675295950.0 -0.0331429391 0.2950281492 0.0519272082 -0.4242658281 0.0524401618 -0.4247487874 -0.0418359683 0.3088015644
680295920.0 -0.0301402589 0.2959929661 0.0473636411 -0.4250382831 0.0474136165 -0.4251217599 -0.0383488753 0.3094684247
685295890.0 -0.0270702815 0.2958980074 0.0433435112 -0.4255971758 0.0427270302 -0.4256866211 -0.0350216659 0.3098633833
690295860.0 -0.0239057483 0.2963820047 0.0384549053 -0.4254341591 0.0380433937 -0.4254960078 -0.0316820075 0.3104383313
695295830.0 -0.0206219271 0.2968193672 0.0332018647 -0.4260395817 0.033297128 -0.4264222548 -0.0291401086 0.3109747595
700295800.0 -0.0176789907 0.297150789 0.0290727506 -0.4263203692 0.0291472245 -0.4265677238 -0.025515294 0.3111022809
705295770.0 -0.0143315845 0.2974605762 0.0244114064 -0.4267255959 0.0247205345 -0.4265745038 -0.0228136673 0.311655048
710295740.0 -0.0113357353 0.2981087949 0.0199105329 -0.4268088618 0.0199309796 -0.4266886857 -0.0198432038 0.3125208644
715295710.0 -0.0081630307 0.2980431389 0.01493412 -0.4269515817 0.0156005337 -0.4270009485 -0.0163725432 0.3121579524
720295680.0 -0.005212569 0.2984430763 0.0105026829 -0.426838255 0.0106224075 -0.4274110349 -0.0126915347 0.3130340222
725295650.0 -0.0014717977 0.2983930563 0.0057741517 -0.4269844281 0.0059729757 -0.4271140545 -0.0094992582 0.3133263045
730295620.0 0.0010518603 0.2985525876 0.0010143925 -0.4271537317 0.0012787477 -0.4270547892 -0.0060710545 0.3130327388
735295590.0 0.0048079526 0.2988910525 -0.0034990225 -0.4273628938 -0.0032467687 -0.4271892894 -0.0030735465 0.3132733575
740295560.0 0.0078556485 0.2991946744 -0.0079996747 -0.4264471021 -0.008012183 -0.4267730649 0.0002695107 0.3132289063
745295530.0 0.0106087028 0.2987092773 -0.0125339197 -0.4268434735 -0.0122164775 -0.426936282 0.0035616029 0.3137790087
750295500.0 0.0140651692 0.2989664708 -0.017120093 -0.4261668248 -0.0171957385 -0.4264160415 0.0067201637 0.313438955
755295470.0 0.0176071591 0.2990768517 -0.0216404462 -0.4263288762 -0.0215321964 -0.4263800497 0.0096435467 0.3138089612
760295440.0 0.0205018969 0.299039664 -0.0265222278 -0.4259603649 -0.0263732347 -0.4258400664 0.0130396705 0.3137955645
765295410.0 0.0235594647 0.2987158314 -0.0306579287 -0.4254925801 -0.0305875889 -0.426038291 0.0166015788 0.3140883676
770295380.0 0.0268520555 0.2989349364 -0.0358094985 -0.4251372953 -0.0353996656 -0.4254252461 0.0198884778 0.3138549674
775295350.0 0.0298237688 0.2986252547 -0.0403634686 -0.4243284189 -0.0399763426 -0.4247404132 0.0227307214 0.313214164
780295320.0 0.0333002707 0.2983630254 -0.0444757665 -0.4243418673 -0.0445400082 -0.4243692227 0.0263084812 0.3134762914
785295290.0 0.0362488359 0.2986242391 -0.0491358137 -0.4234096635 -0.0491036213 -0.4239726096 0.0289193876 0.3133186122
790295260.0 0.0393783811 0.2981326099 -0.0535036507 -0.423278259 -0.0536168791 -0.4233643474 0.0326758111 0.3133163266
795295230.0 0.0424839576 0.2981482195 -0.0580938741 -0.422380547 -0.0584589065 -0.4227961684 0.0358673988 0.3136120373
800295200.0 0.0460722744 0.2974778832 -0.0632888418 -0.4220657766 -0.063440834 -0.4217945462 0.0392279529 0.3128143776
805295170.0 0.0488032383 0.2972297416 -0.067569617 -0.4209135381 -0.0671918348 -0.4209621605 0.0419612981 0.3120953538
810295140.0 0.0521179904 0.2969093499 -0.0719066128 -0.4205420066 -0.071743157 -0.4205942575 0.0459946922 0.3124335884
815295110.0 0.055204075 0.2964780377 -0.0766733777 -0.4195842019 -0.0769790538 -0.4195007208 0.0488760413 0.3116390204
820295080.0 0.0583124571 0.2956309653 -0.081013163 -0.4186126558 -0.0811858397 -0.4189836873 0.0518450479 0.3112593548
825295050.0 0.0614145735 0.2953593297 -0.0854278466 -0.4172888283 -0.0853819535 -0.4177774189 0.0554537317 0.3113055735
830295020.0 0.0648686959 0.2952810793 -0.0900790479 -0.4166549532 -0.090245187 -0.4169352545 0.0582121267 0.3105879478
