!Created with skrf (http://scikit-rf.org).
# Hz S RI R 50.0 
!freq ReS11 ImS11 ReS21 ImS21 ReS12 ImS12 ReS22 ImS22
300000.0 -0.7718859119 -0.1343154577 -0.0012629836 -0.0002112121 0.0012482413 0.0001431459 -0.045273937 -0.0670141369
5299970.0 -0.7848727754 -0.006534403 9.1556e-06 3.75393e-05 0.0001167566 -8.89777e-05 -0.0482909775 0.0142854324
10299940.0 -0.7876887085 -0.0037365959 6.70816e-05 2.18428e-05 1.71327e-05 -4.91725e-05 -0.0427541162 0.0313766325
15299910.0 -0.7932541855 -0.0015717858 -8.11174e-05 -0.0001450316 -1.50506e-05 -1.0269e-05 -0.0345787998 0.0457118299
20299880.0 -0.7995619828 0.0025673864 -7.27733e-05 0.0001277661 0.0001227056 1.974e-05 -0.0250467979 0.0568037292
25299850.0 -0.8064069498 0.0080762928 4.24965e-05 -1.5759e-06 -4.84261e-05 4.05911e-05 -0.0143480666 0.0659843787
30299820.0 -0.8116400227 0.0161520651 -4.80316e-05 -8.49689e-05 2.84185e-05 8.74888e-05 -0.0030378245 0.072614388
35299790.0 -0.8168865187 0.0251063219 -8.3673e-05 -2.42268e-05 7.96909e-05 -0.0002187362 0.0082217731 0.0770845533
40299760.0 -0.8214021367 0.0340269264 1.45e-08 0.0001822559 0.0001742404 2.04192e-05 0.0192959976 0.0797888395
45299730.0 -0.8246762847 0.0444366503 6.23534e-05 -0.0001362032 -5.147e-06 0.0001727285 0.0293884171 0.0812883469
50299700.0 -0.8270907293 0.0540804716 3.77003e-05 -0.0001411426 0.0001245248 -2.72456e-05 0.0396358581 0.0813122095
55299670.0 -0.8289013474 0.0649030152 -0.0001373092 -0.0002087698 -3.5816e-06 5.6163e-05 0.0483362324 0.0804862036
60299640.0 -0.8298201919 0.0743902036 7.63888e-05 0.0002916716 1.53729e-05 9.69698e-05 0.0567749069 0.0781850186
65299610.0 -0.8310849436 0.0845721343 0.0001106698 7.81921e-05 -0.0001584589 -7.6757e-05 0.0641024796 0.0759665549
70299580.0 -0.8313167303 0.0951581015 3.51762e-05 -4.85051e-05 1.00443e-05 -9.66963e-05 0.0714692422 0.0730814969
75299550.0 -0.8314693735 0.1049197943 -1.06891e-05 -8.39083e-05 -9.55363e-05 4.45675e-05 0.0777335154 0.0696398476
80299520.0 -0.8310403618 0.1144581781 -0.0001415046 4.3731e-05 9.24156e-05 0.0001639172 0.0825455631 0.0663854864
85299490.0 -0.8308135513 0.1240893394 4.79137e-05 -7.72506e-05 -0.0001138811 -3.66848e-05 0.0875985379 0.0622678416
90299460.0 -0.8300204731 0.1339538092 -7.21222e-05 -6.26319e-05 0.0001325173 -0.000161873 0.0923990928 0.0585964527
95299430.0 -0.8284409959 0.1438059559 0.0001411015 5.00668e-05 -0.0002356521 -9.01178e-05 0.0965719019 0.0545611332
100299400.0 -0.8282948518 0.1528098163 0.0001029062 -0.0001956137 1.7467e-05 2.03807e-05 0.0997659856 0.0507476875
105299370.0 -0.8267082066 0.1620836998 8.25889e-05 9.06446e-05 5.29638e-05 3.85864e-05 0.1033569475 0.0464679486
110299340.0 -0.8252647042 0.1712921577 -4.77485e-05 7.8205e-05 -0.0001161021 0.000107437 0.1056176682 0.0428613996
115299310.0 -0.8236182733 0.1810104537 -6.3515e-06 -3.87378e-05 -1.62843e-05 -4.35282e-05 0.108396276 0.0386564567
120299280.0 -0.8221549331 0.1894337803 -4.77236e-05 0.0001263383 9.98138e-05 -2.80119e-05 0.1103727679 0.0349789506
125299250.0 -0.8204951515 0.1983443164 -0.0002264154 -2.7932e-05 0.000166277 3.38473e-05 0.1124943708 0.0309317841
130299220.0 -0.8185209367 0.207841838 -4.36948e-05 -0.0001164096 3.86088e-05 -1.0928e-05 0.1138293457 0.0273304737
135299190.0 -0.8165351196 0.2166940689 6.29661e-05 -1.99176e-05 1.3365e-05 -2.70947e-05 0.1152600745 0.0235223427
140299160.0 -0.8147294708 0.2257151411 3.63922e-05 -7.04007e-05 5.63574e-05 -5.21702e-05 0.1167495284 0.0199178189
145299130.0 -0.8120220891 0.2344504267 3.63086e-05 0.0002204604 0.0002706823 0.0001658431 0.1170650937 0.0166260855
150299100.0 -0.8101423811 0.2428489532 0.0002339869 1.02464e-05 7.78814e-05 0.0002548452 0.11832089 0.0130934403
155299070.0 -0.8078405064 0.2521283315 -9.71103e-05 5.24477e-05 9.12211e-05 -1.39511e-05 0.1188769251 0.009743868
160299040.0 -0.8048806458 0.2611335598 9.74702e-05 9.80501e-05 -0.0001071161 0.0001012074 0.1197785331 0.0061276846
165299010.0 -0.8020238621 0.2689374555 -0.0001024771 0.0001241376 3.79251e-05 6.3122e-06 0.1202592259 0.0028800251
170298980.0 -0.799671038 0.2785780728 -0.0001488492 0.0003338154 0.0002607325 8.60228e-05 0.1204225829 -0.0002190496
175298950.0 -0.7969014452 0.287077208 5.0425e-06 -2.80631e-05 -0.0001022621 9.56446e-05 0.1204711015 -0.0037445355
180298920.0 -0.7937564814 0.295171321 -5.96278e-05 0.0001350073 7.188e-05 -2.36858e-05 0.1207860057 -0.0063806375
185298890.0 -0.790620984 0.3042072042 -0.0001232364 6.18504e-05 -4.2841e-06 -0.0001126732 0.120616501 -0.0093986519
190298860.0 -0.7869834448 0.3128005471 0.0001178804 6.2604e-06 0.0002257141 0.0001962549 0.1207333051 -0.012192261
195298830.0 -0.784087713 0.3212993684 1.37159e-05 -5.04484e-05 -0.0001578059 6.3575e-05 0.1205776723 -0.0148659037
200298800.0 -0.7808696731 0.3292179857 -8.42042e-05 5.77747e-05 0.0001609215 0.0001110967 0.1208552506 -0.0180302742
205298770.0 -0.7771186701 0.3375120588 0.0002088863 0.0001984128 1.09609e-05 3.23213e-05 0.1200172442 -0.0205968328
210298740.0 -0.7740363726 0.3455733249 7.09256e-05 -0.0002108047 -3.05069e-05 1.47107e-05 0.1199485059 -0.02334095
215298710.0 -0.7704105618 0.3543892601 1.8557e-06 3.2114e-06 -2.41971e-05 0.0001720424 0.1191548691 -0.0254384615
220298680.0 -0.7674825558 0.3621384295 4.60287e-05 -2.60438e-05 -0.0001567577 0.000173309 0.1188334593 -0.0282191434
225298650.0 -0.7627880874 0.3708388472 7.25224e-05 8.8825e-06 4.82389e-05 0.0001027847 0.1177746718 -0.0305246008
230298620.0 -0.7589069482 0.3784684546 0.0002159214 0.0001869461 0.0001937019 0.0003363564 0.1178330596 -0.0329706622
235298590.0 -0.7549858126 0.3869382206 3.182e-07 -8.71214e-05 -2.23158e-05 0.0001004649 0.1171374597 -0.0356746793
240298560.0 -0.7506693661 0.3950180006 -9.81377e-05 0.0002207543 0.000137413 -7.14436e-05 0.1164241317 -0.0375574351
245298530.0 -0.7468307541 0.4031988324 -8.66562e-05 1.64825e-05 -4.05387e-05 9.55141e-05 0.1158435685 -0.0400248269
250298500.0 -0.7423371467 0.4108072628 1.34681e-05 -5.53562e-05 -3.68493e-05 -6.5959e-06 0.115266091 -0.0418665856
255298470.0 -0.7379401477 0.419058457 0.0001234452 -0.0001414835 0.0001824019 2.96549e-05 0.1144165591 -0.0444445559
260298440.0 -0.7339135359 0.4264871015 0.000210452 -0.000103767 1.19265e-05 1.00269e-05 0.1135025692 -0.0466398926
265298410.0 -0.7291293475 0.4343496728 5.25248e-05 -4.36274e-05 4.71422e-05 0.0001992746 0.1128958475 -0.0485647807
270298380.0 -0.7241862154 0.4417882353 0.0002834751 7.49931e-05 0.0001367794 6.13114e-05 0.112300944 -0.0508616821
275298350.0 -0.7195395382 0.4494625989 0.000105001 -0.0001532382 0.0001184089 0.0001173731 0.1112664237 -0.0524306428
280298320.0 -0.7151889388 0.4566513337 -8.63105e-05 -9.6056e-05 0.0001045885 0.0001463356 0.1104027248 -0.0543963655
285298290.0 -0.710265666 0.4647272501 0.0001820849 1.54693e-05 0.0001021857 -6.73368e-05 0.1094415973 -0.0562901255
290298260.0 -0.7056486358 0.4716696027 -6.79538e-05 -0.0001830877 0.0001509193 0.0001874932 0.1084935926 -0.0581986518
295298230.0 -0.7004782553 0.4794926579 0.0001206311 -2.25839e-05 0.000111974 5.84214e-05 0.1074088951 -0.0600253298
300298200.0 -0.6952026095 0.4867064745 0.0003030252 -4.94365e-05 2.37374e-05 -0.0001395121 0.1066057408 -0.0617406719
305298170.0 -0.690018287 0.4945006761 -0.0001049778 -8.93076e-05 0.0001765932 -3.3722e-06 0.1060311047 -0.0634593222
310298140.0 -0.6845326518 0.501314188 -0.0001290464 -8.30195e-05 4.58031e-05 8.85974e-05 0.1049755242 -0.0653644168
315298110.0 -0.679313641 0.5080537572 3.57137e-05 1.26413e-05 0.0002421192 8.66525e-05 0.1038437586 -0.0671621859
320298080.0 -0.6745247589 0.5156770198 3.10414e-05 -0.000111778 6.71566e-05 8.08377e-05 0.1029384379 -0.0691305641
325298050.0 -0.6689504637 0.5221925111 9.83226e-05 1.28737e-05 0.0002507076 3.7935e-05 0.1014530291 -0.0709441985
330298020.0 -0.66257545 0.529257542 0.0004135615 4.71466e-05 -2.66288e-05 0.0001065571 0.1000901916 -0.0727249787
335297990.0 -0.6569011328 0.5363314071 0.000174061 7.06908e-05 8.4344e-06 1.63746e-05 0.0988244604 -0.0741163117
340297960.0 -0.6517762923 0.5429078722 8.61822e-05 -4.89477e-05 0.0002107612 0.000211379 0.0976602061 -0.0759086281
345297930.0 -0.6463524905 0.5488875426 6.11998e-05 -4.63001e-05 0.0003241161 -3.9985e-06 0.0959995094 -0.0769458926
350297900.0 -0.6408664873 0.5560203779 6.94328e-05 0.000256816 -0.0001381005 0.00020587 0.0948961197 -0.0784526241
355297870.0 -0.634516964 0.5622371801 -8.6239e-05 -0.0001234738 -4.65722e-05 -6.75038e-05 0.0931572304 -0.0795595131
360297840.0 -0.6284196844 0.5688895452 0.0001519519 -1.20838e-05 0.0001201779 3.48956e-05 0.0920525997 -0.0806491536
365297810.0 -0.6225693538 0.5756799149 0.0002943463 -0.0001143615 0.0002212499 -1.71236e-05 0.0906593996 -0.0823647876
370297780.0 -0.6159818167 0.582114164 0.0002653466 0.0001920932 4.23259e-05 1.87004e-05 0.0892594331 -0.0832208402
375297750.0 -0.6102747461 0.5881583519 3.49134e-05 3.77306e-05 0.0001665799 -2.68073e-05 0.0879561016 -0.0843656942
380297720.0 -0.60407897 0.5953847284 0.0001413801 1.47246e-05 0.0001743716 -4.02117e-05 0.0868451874 -0.0853163218
385297690.0 -0.5977802262 0.6013587181 0.0001144812 8.01676e-05 3.79718e-05 0.0001917154 0.0850330228 -0.0863322918
390297660.0 -0.5912778296 0.6072054981 0.0003519816 0.0002197118 0.0001160394 0.0001278296 0.0836099003 -0.0879941874
395297630.0 -0.585058198 0.6135791994 0.0003217211 -6.16469e-05 0.000110799 1.76726e-05 0.0824966301 -0.0889382175
400297600.0 -0.578779647 0.6194411194 -3.52801e-05 -0.0001221931 -0.0002846093 3.2416e-05 0.080820787 -0.0900693163
405297570.0 -0.5726664426 0.6249690246 -8.78428e-05 -2.694e-07 9.1518e-05 2.09704e-05 0.0794445094 -0.0908381556
410297540.0 -0.5656521821 0.6309754098 0.0001224618 7.86657e-05 0.0001364196 -0.0001404181 0.0781410467 -0.0917951915
415297510.0 -0.559005158 0.6364396794 0.0002539636 0.0001931159 4.92404e-05 0.000170764 0.0765409381 -0.0926435724
420297480.0 -0.5520305853 0.6424975786 5.66116e-05 0.0001070949 0.0001870573 -4.15559e-05 0.0749975696 -0.0941394926
425297450.0 -0.5457125213 0.6481017157 0.0001431419 0.0001707199 0.0003327525 -0.0001143783 0.0734566617 -0.0946743776
430297420.0 -0.5392630338 0.6533877603 -7.63984e-05 1.41423e-05 4.11087e-05 -4.66116e-05 0.0722701245 -0.095508914
435297390.0 -0.5320928037 0.659353222 -5.00928e-05 9.73754e-05 -8.45602e-05 -5.61864e-05 0.0709480003 -0.0965228297
440297360.0 -0.525286224 0.6640569123 -1.65321e-05 -0.0001036431 0.0001312485 -8.11513e-05 0.0686408488 -0.0973177148
445297330.0 -0.5184368414 0.670165714 0.0001621646 0.0001405298 -7.25507e-05 5.91906e-05 0.0675318068 -0.0983661789
450297300.0 -0.5114170248 0.6742160583 -2.27432e-05 0.0001017731 0.0002214512 -9.87354e-05 0.0658717317 -0.099105863
455297270.0 -0.5044759683 0.6804628235 0.000163676 0.0002255606 9.50328e-05 -1.8275e-06 0.0646000228 -0.0999852662
460297240.0 -0.4975575651 0.6855195655 0.0004156849 -0.0003006097 6.97492e-05 3.20041e-05 0.0630221285 -0.1004149517
465297210.0 -0.4897060668 0.6904685917 0.0002885835 4.14052e-05 0.0001059742 7.07685e-05 0.0610659648 -0.1013720092
470297180.0 -0.4829326019 0.6941635385 2.7011e-06 3.75468e-05 0.000203699 0.0001330536 0.0593308263 -0.1017479126
475297150.0 -0.475618199 0.7004754075 8.54696e-05 -8.08124e-05 6.96296e-05 -0.000121026 0.0580694364 -0.10254109
480297120.0 -0.4681209252 0.7050501388 7.3322e-05 -0.0002484268 4.78456e-05 2.138e-07 0.0567166749 -0.1033122992
485297090.0 -0.4611133063 0.7088709296 6.9467e-05 9.4438e-05 0.0001087555 -2.15852e-05 0.0546185421 -0.1038681814
490297060.0 -0.4542414833 0.7143022788 0.0001536434 -0.0001217434 -0.0001131311 6.22612e-05 0.0532374288 -0.1045856657
495297030.0 -0.4474169643 0.7183709617 0.0001153605 7.13354e-05 0.0001037229 -5.83148e-05 0.0515946194 -0.1055503278
500297000.0 -0.4386151816 0.7236610921 0.0002689502 -0.0002219358 0.0001955628 2.425e-06 0.0496479064 -0.1057818904
505296970.0 -0.4314197433 0.7273013944 -6.1086e-06 -9.91285e-05 0.0002302192 -6.46835e-05 0.0477245665 -0.1062521208
510296940.0 -0.424395169 0.7323417882 6.577e-05 0.0001247296 5.2403e-05 8.53448e-05 0.0466488835 -0.1067589884
515296910.0 -0.4168536412 0.7362633316 1.09417e-05 0.0001275728 0.0001492339 8.22966e-05 0.045114661 -0.1070289978
520296880.0 -0.4093660606 0.7412238395 0.000165067 -6.33393e-05 5.09531e-05 0.0001644899 0.0433445038 -0.1079012096
525296850.0 -0.4017114349 0.7442163886 0.0001715438 -0.0002430086 0.0001481115 0.0001672702 0.0417207452 -0.1085863456
530296820.0 -0.3942839258 0.7485301282 0.0002816542 1.38085e-05 0.0001237358 -3.86408e-05 0.039437453 -0.1087029426
535296790.0 -0.3860307029 0.7521863084 8.88759e-05 0.0001398023 7.7713e-05 5.54107e-05 0.0380264927 -0.1092799275
540296760.0 -0.378263743 0.7561060606 9.62072e-05 -8.81033e-05 0.0001648861 -2.29702e-05 0.0364132899 -0.1093228498
545296730.0 -0.3710796712 0.7599443301 0.0002324248 -6.43128e-05 5.34803e-05 -5.50042e-05 0.0346344774 -0.1102492943
550296700.0 -0.363498409 0.7636892701 0.0002072145 -3.04956e-05 -6.22128e-05 8.89709e-05 0.0332929499 -0.1106925027
555296670.0 -0.3544782609 0.7674782358 -3.51461e-05 6.4493e-06 7.18495e-05 5.56109e-05 0.0310825609 -0.11055097
560296640.0 -0.3472057027 0.7707061932 0.0002272215 -3.93835e-05 0.0003298739 -2.37285e-05 0.0298851322 -0.1111105291
565296610.0 -0.339835018 0.7740718901 0.0002214669 -0.0001719666 0.0001864633 0.0001246098 0.027710349 -0.1113028022
570296580.0 -0.3316362694 0.7773789105 0.000337777 0.000315201 0.0001688859 7.62003e-05 0.0261032208 -0.1113377537
575296550.0 -0.3235245386 0.7805470843 0.0001549685 0.0001322257 8.09901e-05 0.0001067414 0.0245007844 -0.1118405755
580296520.0 -0.3155500517 0.7839880641 5.17618e-05 -6.33412e-05 1.94665e-05 0.0001091257 0.0228200149 -0.1118880977
585296490.0 -0.3077673668 0.7869488539 6.20097e-05 1.56199e-05 -1.0811e-06 1.19641e-05 0.0209439425 -0.1127923095
590296460.0 -0.2992815644 0.7894839275 0.0001101398 0.0001294652 0.000103542 -7.59879e-05 0.0193489409 -0.1125048327
595296430.0 -0.2913914105 0.7936108802 0.0002926247 0.000180008 1.4877e-05 -0.0002074091 0.0174187561 -0.1128894091
600296400.0 -0.2834019715 0.7954437399 6.42518e-05 0.0004713343 4.00738e-05 -0.0001057092 0.01589313 -0.1129470992
605296370.0 -0.2750395697 0.7984775903 1.02806e-05 2.2616e-06 5.74959e-05 0.0001923438 0.0142917178 -0.1129777941
610296340.0 -0.2676986918 0.801249566 5.75692e-05 7.6101e-06 0.000134469 6.08573e-05 0.0124301614 -0.1128609151
615296310.0 -0.2588627554 0.8040168493 0.0002045176 0.0001750874 8.99084e-05 0.0001169372 0.0106656911 -0.1130662041
620296280.0 -0.2507892732 0.8061653788 1.19832e-05 -1.78944e-05 0.000250443 -0.0001546519 0.0089129419 -0.1135248416
625296250.0 -0.2428659225 0.809259519 0.0001790898 -0.0001127719 0.0002691769 -5.67631e-05 0.0071756606 -0.113268847
630296220.0 -0.2337903982 0.811866471 0.0002617209 -2.43571e-05 -1.10144e-05 -7.13631e-05 0.0056409357 -0.1128167367
635296190.0 -0.2257709701 0.8138937466 -0.0001377972 0.0002192654 0.0003134743 0.0001425547 0.0039270838 -0.1127948337
640296160.0 -0.2175618484 0.8150292806 0.0003074304 -3.40784e-05 0.0002237414 -1.5018e-06 0.0023301484 -0.1130129956
645296130.0 -0.2097814155 0.8181854713 0.0001096355 -3.245e-06 4.02167e-05 0.0001347737 0.0004259694 -0.1132905513
650296100.0 -0.2019986433 0.8201435429 0.0001703156 -5.34614e-05 0.0003034981 4.41102e-05 -0.0014981624 -0.1127347056
655296070.0 -0.1930967602 0.8220553287 0.0004042804 4.09825e-05 0.0001830527 0.0001762218 -0.0027636208 -0.1127848007
660296040.0 -0.1850809861 0.8238241939 0.0002082862 3.042e-07 5.18441e-05 0.0002532811 -0.0043568044 -0.1125073737
665296010.0 -0.1768586305 0.8253716768 -2.8358e-06 2.2741e-06 0.0002662077 -1.06823e-05 -0.0063081397 -0.1121145852
670295980.0 -0.1675419936 0.8274972461 0.0001112457 -1.28306e-05 0.0002641543 6.43598e-05 -0.0078939464 -0.1123102412
675295950.0 -0.1595816241 0.8286304489 -6.66735e-05 0.0001395207 0.0001481479 -3.23619e-05 -0.0093396315 -0.1118481134
680295920.0 -0.151611082 0.8305932335 -4.6528e-05 -3.64063e-05 1.44886e-05 -9.54899e-05 -0.0111442546 -0.1120867371
685295890.0 -0.1424099714 0.8325724664 0.0001996802 -0.0001536791 0.000181785 -3.7272e-05 -0.0128347004 -0.1115246845
690295860.0 -0.1343227573 0.8333102182 7.7159e-06 -0.000103414 5.9597e-05 -6.61539e-05 -0.014414722 -0.1112595071
695295830.0 -0.1259713035 0.8342478772 0.000278556 -0.0001750051 0.0002142569 0.0001718015 -0.0163968662 -0.1107127376
700295800.0 -0.1173655216 0.8355945945 2.13235e-05 -5.13476e-05 5.67252e-05 1.81479e-05 -0.0181035081 -0.1107489049
705295770.0 -0.1088165761 0.8375234316 0.0001682627 -0.0001090608 0.0002222908 0.0001690533 -0.0196506107 -0.1099893666
710295740.0 -0.1009702782 0.837904451 0.0002596961 -9.8026e-05 -9.70073e-05 -6.23364e-05 -0.021460706 -0.1097377109
715295710.0 -0.0927486922 0.8391901889 0.0002266636 -3.8061e-05 0.0001767748 4.4545e-05 -0.022830366 -0.1095131485
720295680.0 -0.084411748 0.8393766843 0.0001139493 -5.32775e-05 0.0002456985 -2.1351e-06 -0.0241875228 -0.108791837
725295650.0 -0.0747902028 0.8412195328 0.0001298967 0.0001958128 -3.1597e-06 -3.26199e-05 -0.0259967403 -0.1086023297
730295620.0 -0.0670159091 0.8415996125 0.000126027 -4.23818e-05 0.0001479309 0.000178925 -0.027781523 -0.1080716481
735295590.0 -0.0579239247 0.8419556251 0.0003900337 -0.0001342418 0.0002063226 0.0001583818 -0.0293360461 -0.1078001823
740295560.0 -0.0497928847 0.8427637874 7.63681e-05 -0.0001150361 0.0001048972 5.1232e-06 -0.0312062869 -0.1073080272
745295530.0 -0.0415818859 0.8427595069 5.18215e-05 6.35091e-05 3.86049e-05 -5.1809e-06 -0.0326370536 -0.1069435517
750295500.0 -0.0338339306 0.8430282535 2.72288e-05 0.0001202774 0.0001397461 -8.65151e-05 -0.0340514386 -0.1062551325
755295470.0 -0.0243269205 0.8434310322 0.0001063224 7.18844e-05 9.95042e-05 1.17662e-05 -0.0357342776 -0.1054734573
760295440.0 -0.016252421 0.8437612669 8.80801e-05 -1.61391e-05 3.83724e-05 -0.0002296522 -0.037630329 -0.1052738821
765295410.0 -0.0080190143 0.8437931251 2.35343e-05 -4.14584e-05 0.0003294912 0.0001186839 -0.0384980789 -0.1044253831
770295380.0 0.0006464083 0.8442369159 -9.34559e-05 -0.0001664722 7.48044e-05 2.2904e-05 -0.0398745569 -0.1035091391
775295350.0 0.0091179875 0.844154759 0.0002107592 -0.0003329677 -3.99947e-05 0.0001673363 -0.0421902028 -0.1035883586
780295320.0 0.0183248886 0.8430788233 3.48354e-05 -0.0001322242 9.31668e-05 0.0001136553 -0.0435822544 -0.1021333383
785295290.0 0.0261498226 0.8432017332 6.22164e-05 0.0001786849 0.0002095777 -0.000104919 -0.0450518928 -0.1016994137
790295260.0 0.0346036048 0.8427317652 0.0002476906 2.83591e-05 9.76613e-05 -0.0001661 -0.0464222942 -0.101248583
795295230.0 0.0426674561 0.8432522583 0.000362626 -8.52308e-05 0.0001154934 4.58524e-05 -0.048039039 -0.1000074155
800295200.0 0.0513492713 0.8422195936 0.0002188467 2.31581e-05 8.92893e-05 -2.9602e-05 -0.0498637804 -0.099567326
805295170.0 0.0600431647 0.8419001165 0.0002064384 -4.95075e-05 0.000158389 -7.428e-07 -0.0510617551 -0.0988377836
810295140.0 0.0684717007 0.841076517 8.2365e-06 -0.0001152414 0.0001807912 -3.91289e-05 -0.0523105844 -0.0977491177
815295110.0 0.0772330625 0.8402958957 3.0528e-05 -7.05781e-05 0.0002110443 5.85533e-05 -0.0539884196 -0.0968265331
820295080.0 0.0852398347 0.8390905892 0.000312971 8.68811e-05 0.0001891815 -0.0003124387 -0.0558634065 -0.0961070347
825295050.0 0.0939103095 0.8383894906 9.2398e-05 1.24443e-05 4.03995e-05 -6.77669e-05 -0.0568485342 -0.0951950544
830295020.0 0.1027748877 0.8379416034 -0.0001224917 -0.0002429486 7.40608e-05 -0.0002110759 -0.058485576 -0.0943068719
835294990.0 0.1102376655 0.8364552007 0.000353362 -0.0001107829 0.0002143522 -5.9656e-05 -0.0597139524 -0.0937492475
840294960.0 0.1187760463 0.8351552021 0.0001013696 -8.95628e-05 6.65177e-05 -5.86889e-05 -0.0612037864 -0.0922150476
845294930.0 0.1271398821 0.8343217501 0.0003343728 -0.0001350137 6.15347e-05 7.05386e-05 -0.062769645 -0.0912149411
850294900.0 0.1351963021 0.8327640216 0.0001299662 -0.0001204432 7.23973e-05 0.0001780014 -0.0640232546 -0.0905152433
