!Created with skrf (http://scikit-rf.org).
# Hz S RI R 50.0 
!freq ReS11 ImS11 ReS21 ImS21 ReS12 ImS12 ReS22 ImS22
300000.0 -0.7713909174 -0.0859808014 0.0002971308 0.003263101 -0.0001785332 0.0009393495 -0.7779993033 -0.1219548701
5299970.0 -0.785286504 -0.0055211234 0.0001104415 0.0001192402 -0.0001155741 0.000235031 -0.7853170855 -0.0069785152
10299940.0 -0.7876473494 -0.0037011979 0.0001997728 7.23491e-05 4.62568e-05 2.06582e-05 -0.7883273895 -0.0033074669
15299910.0 -0.7932487153 -0.0021278713 1.11155e-05 6.89719e-05 5.00688e-05 0.0002899794 -0.7934957736 -0.0016284139
20299880.0 -0.8004938713 0.0019594805 -4.00378e-05 0.0001390849 0.0002618187 -1.58787e-05 -0.800157536 0.0016978047
25299850.0 -0.8063385658 0.0076975646 -4.71802e-05 -0.0002220005 6.1599e-05 7.24742e-05 -0.8067368321 0.0083982875
30299820.0 -0.8127473041 0.015087243 -8.01106e-05 0.0001060562 -0.0001459911 1.81878e-05 -0.8122490301 0.0160562074
35299790.0 -0.8173958639 0.0243882678 0.0001825732 -3.78886e-05 -3.05453e-05 6.32795e-05 -0.8174962368 0.0252190609
40299760.0 -0.8213122801 0.0335349934 3.736e-06 3.89235e-05 0.0002970949 -0.0001666635 -0.8210120145 0.0347592148
45299730.0 -0.8244456656 0.0429587901 -4.50528e-05 2.43013e-05 -7.79692e-05 0.0001247902 -0.8251016565 0.043749925
50299700.0 -0.8271439091 0.0530699444 0.0002652364 -1.4019e-05 5.59887e-05 -6.43142e-05 -0.8277349557 0.0537112741
55299670.0 -0.8287729988 0.0630350769 -2.72722e-05 -8.1456e-05 1.80539e-05 4.76891e-05 -0.8296262187 0.0639781013
60299640.0 -0.8303482147 0.07338159 3.73933e-05 1.0928e-05 0.0001814525 -0.0001103014 -0.8300445475 0.0742857254
65299610.0 -0.8310395019 0.0828607114 -8.1595e-05 0.0001069094 0.0001636672 0.0001509117 -0.8318924784 0.0839620848
70299580.0 -0.8314265117 0.0933337427 -8.24266e-05 -4.1897e-06 6.93057e-05 -0.0002110201 -0.8318460838 0.0939442425
75299550.0 -0.8316428283 0.1033182592 -2.20583e-05 6.10862e-05 -0.0001404942 1.9117e-05 -0.8324649391 0.1039866204
80299520.0 -0.8315325521 0.1130047852 -5.28614e-05 5.45014e-05 1.20188e-05 -4.788e-07 -0.8318862244 0.113516156
85299490.0 -0.8308668485 0.1228001221 -7.05167e-05 -0.0001268442 -4.58257e-05 0.0001042976 -0.8317515713 0.1237363612
90299460.0 -0.8299591679 0.1318860537 5.33353e-05 0.0003272864 -1.15649e-05 5.15574e-05 -0.8307429516 0.1332407622
95299430.0 -0.8293527646 0.141324723 -0.0001614345 0.0001542892 4.39878e-05 -4.4519e-05 -0.8292747454 0.1425044158
100299400.0 -0.8280118114 0.1509465961 -0.0001849902 -0.0001349664 -7.79748e-05 -1.84645e-05 -0.8285008372 0.1520837089
105299370.0 -0.8269488417 0.1601969389 7.2845e-05 5.93898e-05 -5.30731e-05 -8.93746e-05 -0.8269443865 0.1607785466
110299340.0 -0.8253310278 0.1692695536 -0.0001887336 0.0002756045 -0.0001803966 -6.9425e-05 -0.8257957495 0.1706476761
115299310.0 -0.8238805647 0.1785659591 -7.619e-07 -3.91889e-05 -2.62129e-05 0.0001014312 -0.8242950433 0.1798268119
120299280.0 -0.8217816831 0.1871430855 -5.026e-06 -0.000251743 -6.1045e-06 -1.9547e-05 -0.8223713383 0.1884633805
125299250.0 -0.8205408354 0.1955142102 -0.0001116888 0.0001454278 0.0001844058 -0.0002280277 -0.8211764802 0.197558039
130299220.0 -0.8188507258 0.2053236721 -2.67483e-05 0.0001229128 4.68351e-05 -6.44028e-05 -0.818971945 0.2066491061
135299190.0 -0.8170150253 0.2141948514 0.0001442807 0.0002879531 -0.0001102571 7.93452e-05 -0.816688924 0.216001541
140299160.0 -0.814780103 0.2228944549 8.85372e-05 -0.0001208011 -0.0001020812 0.0001116444 -0.8146949774 0.2247672312
145299130.0 -0.8126167242 0.2319419298 4.37495e-05 -0.0001631139 6.28798e-05 0.0001178087 -0.8127633079 0.2339762172
150299100.0 -0.8103631356 0.2408696637 0.0001037435 -4.46424e-05 -5.2397e-06 -1.4035e-05 -0.8106051493 0.2433718262
155299070.0 -0.8077283873 0.2493914922 5.80024e-05 4.06438e-05 6.5253e-05 0.0001791426 -0.8078513894 0.2518562512
160299040.0 -0.8046478992 0.2578420465 8.97903e-05 0.0001527058 1.18125e-05 0.0002026194 -0.8057138165 0.2607190217
165299010.0 -0.8024321406 0.2667902772 -0.0001151508 -5.01672e-05 4.18068e-05 3.60322e-05 -0.8031774089 0.2690458854
170298980.0 -0.800136896 0.2750793066 -8.36425e-05 3.69718e-05 -2.84667e-05 -0.0001726774 -0.8000007814 0.2778034307
175298950.0 -0.7972794544 0.2840622164 -2.70678e-05 9.28222e-05 -0.0001256793 -0.000139106 -0.7975120149 0.2864807553
180298920.0 -0.7947844296 0.2924769708 1.54695e-05 5.07871e-05 -2.25466e-05 8.28658e-05 -0.7946290742 0.2949575393
185298890.0 -0.7911306202 0.3005230703 4.4952e-05 0.0001072483 -0.0001415458 -0.0002152396 -0.7910893097 0.3037509304
190298860.0 -0.788403885 0.3095555223 0.0001039235 0.0001940985 -6.04519e-05 3.02353e-05 -0.7879881063 0.3123577929
195298830.0 -0.7854117501 0.3174598623 -3.5913e-05 -0.000111374 2.93043e-05 -0.000102687 -0.7853165876 0.3210337224
200298800.0 -0.7813299602 0.325990129 -6.46116e-05 9.88823e-05 -0.000192961 9.86798e-05 -0.7820350039 0.3290576608
205298770.0 -0.7785269654 0.3342207651 0.000119668 -5.52614e-05 -9.79569e-05 5.79665e-05 -0.7777486268 0.337164715
210298740.0 -0.7751336323 0.342193795 1.30488e-05 2.00584e-05 -9.78169e-05 2.2972e-06 -0.7749067535 0.3453408495
215298710.0 -0.7717677365 0.3505986462 -0.0001280918 -0.0001272339 0.0002331835 0.0001172382 -0.7711270749 0.3538571922
220298680.0 -0.7671042013 0.358549379 7.40651e-05 4.07252e-05 2.74127e-05 4.19515e-05 -0.767420548 0.3617639561
225298650.0 -0.7642172275 0.366969984 0.0002173738 4.83309e-05 -1.37757e-05 -0.0001159741 -0.7640884477 0.3696566778
230298620.0 -0.7605244686 0.3742405572 -5.52693e-05 -2.5424e-06 9.01309e-05 0.0001280057 -0.7595869302 0.3779928617
235298590.0 -0.7560726986 0.383648946 0.0001932061 4.06525e-05 7.24051e-05 1.31912e-05 -0.7556344066 0.3864492592
240298560.0 -0.7521787425 0.3911183448 4.10103e-05 -7.1744e-06 -0.0001471437 -9.7064e-05 -0.7515347648 0.3949492811
245298530.0 -0.7484501721 0.3984534781 5.21339e-05 -4.29065e-05 -1.32711e-05 0.0002026022 -0.7476889322 0.4023221965
250298500.0 -0.7441491126 0.4063985321 -0.0001223297 -0.0001980933 -0.0001850448 -3.68145e-05 -0.7436657729 0.4098482187
255298470.0 -0.7395891431 0.4140124325 -6.32953e-05 5.25999e-05 0.0001182708 4.91319e-05 -0.7387518675 0.4174828484
260298440.0 -0.7355542819 0.420989293 0.0002045969 -0.0001519652 -4.31814e-05 6.48527e-05 -0.7347067433 0.4259759811
265298410.0 -0.7311318815 0.4298659927 0.0001988641 -6.0349e-05 -0.0001298838 -0.0001582175 -0.7302872792 0.4333115162
270298380.0 -0.7272488707 0.4370962007 -1.15606e-05 0.0002605296 -0.0001888999 -2.038e-05 -0.7259461455 0.4409950177
275298350.0 -0.722259989 0.4445293624 -1.16348e-05 -0.0001272634 -2.1061e-06 -6.60099e-05 -0.7208888876 0.4486112821
280298320.0 -0.71732738 0.4520383126 -0.000171244 -0.0001182062 -2.74235e-05 8.02156e-05 -0.7156080242 0.4562343756
285298290.0 -0.713147784 0.4599224208 9.57961e-05 -0.0001317285 2.66654e-05 0.000108131 -0.7110084211 0.4637070931
290298260.0 -0.7074846047 0.4674797476 2.80727e-05 1.18815e-05 -0.000182697 9.48472e-05 -0.7061065684 0.470859573
295298230.0 -0.7024012107 0.4742013276 -8.75139e-05 -0.000276107 -0.0001376329 6.67922e-05 -0.7015009771 0.4776938442
300298200.0 -0.6980327238 0.4810774159 -0.0001698069 -0.0001492367 -2.2574e-06 0.0001559081 -0.6961856606 0.485725312
305298170.0 -0.6924677908 0.4881655978 1.55664e-05 -0.0001588131 -9.9493e-05 6.39889e-05 -0.6908136005 0.4932513025
310298140.0 -0.6879927634 0.4961989726 -4.23687e-05 -5.9588e-05 0.0001345531 -0.0001598875 -0.6862408574 0.500275654
315298110.0 -0.6830679518 0.5027040276 0.0001989074 -1.33536e-05 -2.89355e-05 4.04858e-05 -0.6806166089 0.5071247428
320298080.0 -0.6773358944 0.5100887932 0.0002135783 0.0001570512 -4.37459e-05 -9.73109e-05 -0.6753456746 0.5141649546
325298050.0 -0.6721777334 0.51683049 -1.4295e-06 -2.57283e-05 -3.12926e-05 -4.22735e-05 -0.6694841014 0.5211099296
330298020.0 -0.6667083448 0.5236381892 6.84942e-05 -0.0003273219 -8.03673e-05 -6.12571e-05 -0.6642867841 0.5288321657
335297990.0 -0.6605153994 0.5303860054 8.25514e-05 8.42405e-05 -4.2769e-06 0.0001213104 -0.6591380984 0.5355200821
340297960.0 -0.6557726962 0.5370882038 5.15351e-05 -0.0001305095 -0.0001194929 1.7217e-06 -0.6533895202 0.542524487
345297930.0 -0.6503435838 0.5440121408 0.0001785896 -0.0001825749 -4.10763e-05 2.26119e-05 -0.6475838548 0.5488874909
350297900.0 -0.6447162146 0.5507222612 -0.0001439127 0.0001630705 -0.0001556055 -5.48955e-05 -0.6421984563 0.5552217553
355297870.0 -0.638594951 0.5581344103 0.0001604802 4.24912e-05 3.63303e-05 0.0001073136 -0.6362946086 0.5619439362
360297840.0 -0.6328107595 0.5638274652 -0.0001239645 -0.0001479838 3.77362e-05 -0.0002105853 -0.6303628615 0.568315808
365297810.0 -0.6277176177 0.5704871867 2.47646e-05 6.93954e-05 -5.6379e-05 0.000105969 -0.6235253429 0.5745741881
370297780.0 -0.6209507933 0.576582436 -0.0001482667 0.0001113802 8.26321e-05 -7.2169e-05 -0.6174477585 0.5815457855
375297750.0 -0.6146919299 0.5830970307 0.0001576581 6.05874e-05 0.0001339785 -6.45677e-05 -0.6118978638 0.5874267262
380297720.0 -0.6089030899 0.5882893734 -4.71018e-05 -2.05204e-05 -0.0001642021 2.72632e-05 -0.6055439757 0.5934527767
385297690.0 -0.6036379652 0.595306437 0.000172336 9.73034e-05 -0.0001475243 0.0001180743 -0.5997009761 0.6006513414
390297660.0 -0.5966023368 0.6009045805 -5.4539e-05 0.0001809254 -0.0001434568 -1.93107e-05 -0.5935363418 0.6061226956
395297630.0 -0.590191074 0.6076081799 0.0001069575 -9.14541e-05 -2.95546e-05 0.0002065051 -0.5867754874 0.6130153323
400297600.0 -0.5839282882 0.6138248213 -0.0002450361 -9.08511e-05 0.0001264215 -2.94623e-05 -0.5808186321 0.618630968
405297570.0 -0.5780360383 0.6194069212 -2.8662e-05 0.0001985263 6.43885e-05 2.32277e-05 -0.5746896599 0.6243062358
410297540.0 -0.5708289446 0.6250226866 -0.0002347162 -1.5381e-06 -3.21902e-05 5.4553e-05 -0.5674263603 0.630534622
415297510.0 -0.5645564781 0.6305772571 -9.59429e-05 -8.84908e-05 -2.99329e-05 -1.73817e-05 -0.5614204828 0.6361216347
420297480.0 -0.5590213832 0.6368661357 -1.02605e-05 0.000116219 -0.000244508 5.1998e-05 -0.5543408661 0.6419816594
425297450.0 -0.5520392544 0.6421220459 -5.78201e-05 -0.0001194484 0.0001887782 -0.0002229253 -0.5480396917 0.6476403332
430297420.0 -0.5456194334 0.6477755883 -1.20729e-05 -6.15493e-05 -6.32037e-05 0.0002380631 -0.5416208269 0.6526197823
435297390.0 -0.5394594253 0.6525670128 0.0001148399 0.0001379393 0.0001408336 0.0001509909 -0.5343274658 0.6585167783
440297360.0 -0.5318528071 0.6586397392 -0.0003781822 1.66e-07 2.41874e-05 0.0001021085 -0.5273354735 0.6638147107
445297330.0 -0.524675804 0.6643098894 0.0002190971 -0.0001059863 -0.0001340352 3.3187e-06 -0.5203383009 0.6686686808
450297300.0 -0.518042315 0.6688264628 -3.15338e-05 -5.9261e-06 -6.7936e-06 -2.76714e-05 -0.5136247985 0.6739468358
455297270.0 -0.511793936 0.674303845 0.0001680649 -5.12733e-05 0.0001221296 -5.42276e-05 -0.5068622647 0.6785724056
460297240.0 -0.5053643474 0.679588268 -3.3953e-06 -0.0001041497 0.0001838476 -0.0002154269 -0.5001694562 0.6840959755
465297210.0 -0.4983192854 0.6845319069 2.22205e-05 -3.74591e-05 -0.0001524176 0.0001561977 -0.4927465451 0.6896236017
470297180.0 -0.4904473036 0.689254618 -3.18718e-05 -0.0001430134 1.16872e-05 6.34411e-05 -0.4851554341 0.6948820004
475297150.0 -0.4838180577 0.6942320588 -0.0002105228 7.71237e-05 -0.0001055404 -5.48687e-05 -0.4780655727 0.6988796982
480297120.0 -0.4766653335 0.6992400427 -3.36334e-05 -5.29608e-05 -0.0001342089 -0.0001238285 -0.4707679478 0.7038374687
485297090.0 -0.4690442169 0.7037801249 0.0001351667 -8.75204e-05 8.69822e-05 -0.0001309693 -0.4639835734 0.7088017217
490297060.0 -0.4623910372 0.7089276845 0.0001663697 6.1079e-06 -9.92669e-05 9.99302e-05 -0.4564910982 0.7130868616
495297030.0 -0.4550689679 0.7130214309 -4.75613e-05 0.0002028683 1.07022e-05 2.18658e-05 -0.4490114266 0.7181842724
500297000.0 -0.4478984917 0.7181195033 -0.0001266168 -0.0001078535 3.96894e-05 -9.2833e-06 -0.4413282023 0.7231110208
505296970.0 -0.4403856819 0.7223387692 1.64033e-05 -8.21095e-05 -0.0002956812 0.0001248398 -0.4339953303 0.7267570359
510296940.0 -0.4333444125 0.7261615744 0.0001728824 0.0001541878 -4.40876e-05 0.0001496896 -0.4265394036 0.7309289209
515296910.0 -0.4244526191 0.730235513 1.82752e-05 9.7448e-05 -0.0001336914 -0.0001368226 -0.4190842405 0.7355010813
520296880.0 -0.4185772292 0.7353407152 -9.13195e-05 0.0001258102 8.91002e-05 1.90306e-05 -0.411722042 0.739083033
525296850.0 -0.4105272294 0.7388181164 3.18594e-05 0.0001508151 -0.0002037957 -0.0001240484 -0.404105157 0.7438066256
530296820.0 -0.4029306781 0.7432969373 -0.0002345118 -9.03773e-05 2.72355e-05 0.0002517693 -0.3966561567 0.7476790198
535296790.0 -0.3958896081 0.7464314813 5.37127e-05 -0.0001610671 -0.000242906 -0.0001235677 -0.3896252526 0.7515939696
540296760.0 -0.3886084377 0.7508131349 0.0001276855 -0.0001090314 -8.46017e-05 0.0002046685 -0.3815124827 0.7555550197
545296730.0 -0.3810167692 0.7548265319 2.84625e-05 0.0002033926 7.0918e-06 0.0001681935 -0.3735544007 0.7593066829
550296700.0 -0.3731817012 0.7587027296 -7.70435e-05 8.19351e-05 -8.83404e-05 -8.37526e-05 -0.36618631 0.762667005
555296670.0 -0.3649599813 0.7616385781 -5.30635e-05 -4.3966e-05 1.09896e-05 -3.89953e-05 -0.3588094986 0.7671979284
560296640.0 -0.3574748511 0.7664326136 -3.94433e-05 -0.0001528944 -0.0001468082 -0.0001198987 -0.3498283368 0.7705687742
565296610.0 -0.3499550568 0.7694403177 0.0001617186 -0.0001935436 -0.0001822342 0.000196305 -0.3427544624 0.7732497304
570296580.0 -0.3425572531 0.7720350893 0.0001340024 -0.000108446 -0.0001538511 -3.56011e-05 -0.3354796811 0.777141435
575296550.0 -0.3345554649 0.7763846142 -4.16767e-05 3.54061e-05 1.0702e-06 -3.55704e-05 -0.3270977419 0.780487199
580296520.0 -0.3266651592 0.7790596364 -4.3824e-06 6.00691e-05 -2.3551e-06 0.0001914873 -0.3188274592 0.7835403228
585296490.0 -0.3192130171 0.7820182495 -0.0001295769 0.000333442 -0.0001116159 -4.0162e-05 -0.3112310794 0.7872071998
590296460.0 -0.3106691254 0.7857434099 6.99302e-05 -0.0001616452 -3.6461e-06 -0.0001407598 -0.30334191 0.7896912187
595296430.0 -0.3029221474 0.7880672147 -0.0001845342 7.86904e-05 0.0001727941 -9.86234e-05 -0.295162487 0.7926260101
600296400.0 -0.295225218 0.7920325987 -3.9501e-06 0.0001529354 0.0001028688 -7.52462e-05 -0.2870070721 0.7957520925
605296370.0 -0.2880880451 0.7938409504 -2.40622e-05 -0.0001283827 1.00817e-05 -0.0001165001 -0.2783577793 0.7984741657
610296340.0 -0.2794829409 0.7970499843 -0.0001663252 1.58121e-05 -5.78788e-05 3.85272e-05 -0.2706968778 0.8014203894
615296310.0 -0.2706675009 0.8001203382 2.22048e-05 -3.17393e-05 1.58778e-05 7.68907e-05 -0.2620821641 0.803349412
620296280.0 -0.262744649 0.8019525069 -3.13789e-05 3.92923e-05 -5.20437e-05 -0.000215438 -0.2545239323 0.8064483399
625296250.0 -0.2549959284 0.8050065438 7.68209e-05 -0.0002380997 0.0001105647 6.64484e-05 -0.245330937 0.8086190127
630296220.0 -0.2461550631 0.8073552507 0.0001542552 -9.74835e-05 -0.0001643636 3.19243e-05 -0.2377699546 0.8111317822
635296190.0 -0.2388455747 0.8103507823 6.98849e-05 2.43807e-05 5.27e-07 -0.0003155649 -0.2295973117 0.8130434535
640296160.0 -0.2306765454 0.8119485549 -5.0658e-05 -6.88611e-05 -0.0001343622 -0.0001271947 -0.2216815122 0.8162007106
645296130.0 -0.2228019958 0.81501661 0.0002103962 -3.30378e-05 5.8885e-06 5.23912e-05 -0.2135198441 0.8180747408
650296100.0 -0.2151086732 0.816686594 -0.0001907383 4.71027e-05 2.6192e-05 -0.0001098569 -0.2052352894 0.8192723294
655296070.0 -0.2059748734 0.8191199974 3.05588e-05 0.0002334554 -3.4352e-05 -8.32071e-05 -0.1967146111 0.8215422929
660296040.0 -0.1980958737 0.8202792831 7.87798e-05 -0.0003026042 -0.0002037142 -0.000108324 -0.1881963642 0.8236052717
665296010.0 -0.1897922962 0.8219416689 -0.0001027024 -1.18546e-05 0.0001817197 -6.24823e-05 -0.1798504761 0.8256047884
670295980.0 -0.1821352371 0.8247346975 0.0001504494 -0.0001608033 -0.0002694865 -9.0588e-06 -0.1720907035 0.8270684734
675295950.0 -0.1733952852 0.8257407519 5.85725e-05 5.69978e-05 7.16991e-05 -0.000176602 -0.164777575 0.8289221336
680295920.0 -0.16477166 0.8278020411 6.10417e-05 7.216e-06 -0.0002105293 -5.48514e-05 -0.1553760041 0.8313385145
685295890.0 -0.1568639338 0.8301778211 6.10429e-05 -7.45956e-05 -1.69612e-05 0.0001724788 -0.1469764137 0.831670195
690295860.0 -0.1492230465 0.8307093998 -0.0001726998 -4.01066e-05 0.0001107931 -0.0002062664 -0.138698249 0.8342965028
695295830.0 -0.1412404979 0.8316020742 -0.0001248046 1.75831e-05 1.68066e-05 9.67214e-05 -0.1298949375 0.8350457835
700295800.0 -0.1320838088 0.8334296694 -2.50873e-05 -0.0001718775 -6.05836e-05 2.93814e-05 -0.1225764003 0.836516657
705295770.0 -0.124561667 0.8353105855 -6.19162e-05 3.6692e-06 2.0475e-06 7.8922e-05 -0.1138341509 0.8377266657
710295740.0 -0.1157094615 0.836345942 0.0001135389 0.0001235232 7.9015e-06 -3.17262e-05 -0.1055494465 0.8383522604
715295710.0 -0.1071343884 0.837458838 -5.7226e-06 9.98561e-05 9.3934e-05 1.08201e-05 -0.0968293581 0.8392943428
720295680.0 -0.0988658538 0.8383204343 6.29468e-05 6.72381e-05 -0.0001423114 8.09551e-05 -0.0879267657 0.840544718
725295650.0 -0.091038753 0.8397540177 0.0002015897 3.58707e-05 0.0001439916 -0.0001060501 -0.0803023346 0.8414941545
730295620.0 -0.0822507147 0.8404370516 -6.59205e-05 -0.0002572925 -8.97596e-05 0.0001124141 -0.0726087781 0.8419055667
735295590.0 -0.0742136524 0.8409026337 0.0001333253 0.0003224292 -0.0001499824 0.0001044238 -0.0638343468 0.84261781
740295560.0 -0.0658655111 0.8422688537 8.23243e-05 0.0001435745 -0.0001285426 -0.0001370939 -0.0545085305 0.8439675089
745295530.0 -0.0576456166 0.8425499439 -2.98896e-05 -5.96e-06 -1.4653e-06 0.0001590987 -0.0465259365 0.8436070789
750295500.0 -0.0492170645 0.8429529656 -0.0003234982 0.0001456286 3.7091e-05 6.2338e-06 -0.0383394751 0.8441572244
755295470.0 -0.041063323 0.8432766309 -3.61751e-05 2.3294e-05 4.77022e-05 0.0001449215 -0.0298077467 0.8437628292
760295440.0 -0.0330530714 0.8431036536 6.33309e-05 -0.0001710173 -0.0001241157 0.0001343809 -0.0211267921 0.8443484294
765295410.0 -0.0243327672 0.844027892 4.93809e-05 -0.000133578 3.7368e-05 -4.42038e-05 -0.0124767581 0.8451100833
770295380.0 -0.0164346936 0.844021989 -7.37321e-05 -5.22284e-05 8.87451e-05 0.000162308 -0.0046594105 0.8445353761
775295350.0 -0.0075544293 0.8440908911 2.99687e-05 -4.09421e-05 -0.0001000884 0.0001409123 0.0033859866 0.8443828075
780295320.0 0.0004646992 0.8445121412 5.32165e-05 -5.1409e-06 -7.88075e-05 -0.0001063129 0.0119840709 0.844729971
785295290.0 0.0086006853 0.8435169294 0.0001073323 7.22698e-05 -5.4716e-06 1.64583e-05 0.0208753865 0.8443262565
790295260.0 0.0180303989 0.8436355709 7.0101e-05 4.97656e-05 3.73334e-05 0.0002245286 0.0301430707 0.844570768
795295230.0 0.0253915376 0.8434316502 -0.0001832828 -0.0001098575 0.0001757867 0.0001054224 0.038287597 0.8432537336
800295200.0 0.0337557782 0.8429663703 -1.14217e-05 0.0003121662 0.0001899225 0.0002282882 0.0466717196 0.8434981098
805295170.0 0.0428322916 0.8427187313 -7.08042e-05 0.0001732853 0.0001470513 -2.97562e-05 0.0545764162 0.8427251442
810295140.0 0.0508143412 0.8424793322 3.36162e-05 -0.0001369273 -0.0001294549 1.56385e-05 0.0634700864 0.8421762816
815295110.0 0.0588004965 0.8419697136 -0.0001329699 1.02056e-05 -5.9772e-05 8.86121e-05 0.0716359082 0.8413346449
820295080.0 0.0671472005 0.841203532 6.20326e-05 -0.000109797 0.0001489163 -0.0001963036 0.0797052356 0.8414151887
825295050.0 0.0764054786 0.8408019173 -0.0001694627 -0.0001058106 -8.95377e-05 -2.22532e-05 0.0884697314 0.8402544825
830295020.0 0.0836176991 0.8399921608 -0.0001654084 3.50846e-05 -7.4697e-06 -1.89825e-05 0.097420566 0.8391941221
835294990.0 0.0919789875 0.8390552757 3.05122e-05 0.0001705638 -3.8974e-05 0.0001149041 0.1044428205 0.8385401177
840294960.0 0.1003161915 0.8383008713 -0.0001001069 -0.0002274082 -4.865e-05 0.0002071381 0.1131224593 0.8366292084
845294930.0 0.1087993033 0.8367535015 -7.37834e-05 -7.92831e-05 -0.0001809318 -5.73268e-05 0.1215038254 0.8357417937
