!Created with skrf (http://scikit-rf.org).
# Hz S RI R 50.0 
!freq ReS11 ImS11 ReS21 ImS21 ReS12 ImS12 ReS22 ImS22
300000.0 -0.7712578902 -0.1717122446 -0.0013138107 -0.0006886268 -7.56481e-05 0.0012308691 -0.0453640457 -0.0771397788
5299970.0 -0.7861234361 -0.0085793915 0.0002902896 0.0001307574 0.0001252148 1.99566e-05 -0.0478924003 0.0139916879
10299940.0 -0.7891652071 -0.0061732288 -2.3852e-05 0.0002066549 6.19042e-05 0.0001248102 -0.0421224088 0.0319475908
15299910.0 -0.7943005132 -0.0034317443 -6.13423e-05 -9.7026e-05 0.0001086193 6.94265e-05 -0.0338890007 0.0455946918
20299880.0 -0.8011260973 0.0009869765 -6.16062e-05 4.816e-06 -0.0002235917 -0.000118565 -0.0244043891 0.0573889431
25299850.0 -0.8074890379 0.0063943269 7.85011e-05 -1.09397e-05 7.72141e-05 -1.65811e-05 -0.013609952 0.0660490403
30299820.0 -0.8142635922 0.013799308 -6.7939e-05 0.0001992759 0.0001270684 3.76484e-05 -0.0021246172 0.0729240406
35299790.0 -0.81835738 0.0232772787 2.2511e-05 -0.0001139397 5.69304e-05 -0.000156473 0.0088488263 0.0773525216
40299760.0 -0.8233956542 0.0322850309 0.0001621343 -6.34642e-05 -1.73967e-05 -4.1136e-06 0.0200479088 0.0801789727
45299730.0 -0.8265468025 0.0418473276 6.49583e-05 -0.0001020078 -3.49296e-05 4.64479e-05 0.0304109713 0.0815211074
50299700.0 -0.8293900133 0.052196082 -9.68275e-05 -2.41029e-05 -5.89307e-05 -6.18602e-05 0.0404440351 0.0813976126
55299670.0 -0.8311294256 0.0611143601 0.0001801324 -9.7229e-06 -3.34743e-05 7.57564e-05 0.0492490005 0.080166836
60299640.0 -0.8324204669 0.0716015208 -3.4019e-06 0.0001314884 6.20487e-05 -5.62705e-05 0.057618846 0.0783117901
65299610.0 -0.8334608062 0.0821628343 0.0001656229 -0.0001606183 0.0001775211 0.0001667958 0.0654950915 0.075990895
70299580.0 -0.8336105127 0.0913663675 -6.74355e-05 -0.0001870128 0.0001524188 5.35351e-05 0.0720824859 0.0732036032
75299550.0 -0.8338050456 0.1018305778 0.0001071277 0.0001210299 5.09065e-05 -0.0002096111 0.0785214873 0.0699446323
80299520.0 -0.8340005896 0.1120872071 -0.0001660629 1.1035e-06 -3.37634e-05 0.0001928448 0.0838185256 0.0662366916
85299490.0 -0.8326304197 0.1210068835 9.39509e-05 -0.0001509021 -6.04449e-05 -2.36685e-05 0.0887772216 0.062387251
90299460.0 -0.8320942908 0.1316595215 5.88226e-05 7.82541e-05 0.0001600865 4.39931e-05 0.0934398205 0.0588632984
95299430.0 -0.8315168391 0.1408302996 0.0003303611 9.66652e-05 5.51904e-05 -2.92744e-05 0.0973752706 0.0548299431
100299400.0 -0.829946697 0.1499850035 0.000219638 -0.0002255133 -7.36468e-05 6.65416e-05 0.1007702246 0.051036598
105299370.0 -0.8285971651 0.1591187952 -6.0668e-06 0.0001118843 -9.70308e-05 6.94371e-05 0.1042733238 0.0467864643
110299340.0 -0.8276297107 0.1683196512 -1.56068e-05 -9.6782e-06 -0.0002177287 0.0001377452 0.1067746196 0.0429718976
115299310.0 -0.8262773485 0.1777355619 -8.93305e-05 -5.31809e-05 2.12024e-05 -4.49657e-05 0.1090489075 0.0388814235
120299280.0 -0.8245927328 0.1867019721 0.0001490665 5.81037e-05 -0.0001584635 0.0001570125 0.1111240802 0.0348260567
125299250.0 -0.822153939 0.1959918461 3.13838e-05 -6.6344e-05 -0.0002284785 6.27867e-05 0.1133785915 0.0311279537
130299220.0 -0.8207980894 0.205020034 0.0002755913 0.0001933222 9.57957e-05 1.76318e-05 0.1149339565 0.0274328835
135299190.0 -0.8190997506 0.2139220065 -4.14643e-05 -9.0961e-05 0.0002257211 -6.72059e-05 0.1163729206 0.0235536725
140299160.0 -0.8172208623 0.2228445642 -0.0001541251 0.0001132056 8.24716e-05 6.05218e-05 0.1172508275 0.0202347983
145299130.0 -0.8148530549 0.2322155291 9.4045e-05 -7.58731e-05 4.83734e-05 1.68461e-05 0.1183949639 0.0168802443
150299100.0 -0.8115416292 0.2413377579 6.26089e-05 3.46268e-05 7.39264e-05 0.0002792315 0.1192474416 0.0136247419
155299070.0 -0.8097306388 0.2501972028 0.0001372109 4.20693e-05 2.72295e-05 0.0001407143 0.1199165665 0.0100714386
160299040.0 -0.8075498192 0.2594322594 -2.52238e-05 3.34689e-05 -3.18538e-05 0.0001463359 0.1200828964 0.0065961525
165299010.0 -0.8047461819 0.2677345333 -4.28713e-05 -0.000147903 4.1607e-05 3.7203e-06 0.1209731169 0.0031785622
170298980.0 -0.8015698481 0.276233849 1.24016e-05 -3.06694e-05 0.0001668734 7.36763e-05 0.1211238375 0.0001058556
175298950.0 -0.7996687645 0.2842447734 -7.05897e-05 3.90399e-05 -3.34956e-05 -0.0002012403 0.121268859 -0.0025594403
180298920.0 -0.7962060743 0.2935524051 1.88302e-05 8.6993e-06 -8.46308e-05 0.0001543594 0.1214927378 -0.0059509307
185298890.0 -0.7928051328 0.3024417205 -0.0002428742 0.0003108977 -4.43316e-05 7.53838e-05 0.1215585589 -0.0089803905
190298860.0 -0.7893591623 0.3112991751 0.0001422547 0.0002116124 3.73609e-05 1.09476e-05 0.1211138579 -0.0117189279
195298830.0 -0.786220004 0.3192532228 -0.0001523025 -0.0002164547 -2.60048e-05 0.0001141926 0.1206334621 -0.0143277243
200298800.0 -0.7831516745 0.3282923573 4.53021e-05 -1.84398e-05 0.0001205023 7.884e-05 0.1209046108 -0.017308358
205298770.0 -0.7792571642 0.3367359364 4.77551e-05 0.0001281682 0.000109296 0.0002100673 0.1208330067 -0.0201687666
210298740.0 -0.776550702 0.3443881497 0.0001418244 -2.64546e-05 6.65532e-05 6.77198e-05 0.1200250985 -0.022368966
215298710.0 -0.7721888315 0.3529093794 -8.57801e-05 8.2076e-06 -3.77485e-05 -0.0003017958 0.1195415658 -0.0251888032
220298680.0 -0.7686045229 0.3609989885 -7.90938e-05 -5.6987e-05 0.0002290197 -0.0002464543 0.11899539 -0.0273827109
225298650.0 -0.7650156097 0.3694250957 5.53638e-05 -0.0001060813 0.0001862153 -3.12828e-05 0.1183240995 -0.0299488997
230298620.0 -0.7610583884 0.3775589788 0.0001909081 0.0001329684 6.55003e-05 -3.3988e-06 0.1179829266 -0.0324913435
235298590.0 -0.7573818073 0.3859120806 -1.9773e-05 -7.52398e-05 3.59193e-05 -1.99701e-05 0.1172131252 -0.0345764434
240298560.0 -0.7531072413 0.393490964 -1.24687e-05 -0.0001578474 0.0001319292 2.52941e-05 0.1166638782 -0.0372439905
245298530.0 -0.7488435488 0.4018279199 3.11671e-05 8.50769e-05 5.0165e-05 7.01217e-05 0.1157230859 -0.0391437661
250298500.0 -0.7445035638 0.4090914714 -1.88351e-05 -1.61004e-05 0.0001747861 0.0001217393 0.1149620206 -0.0413113162
255298470.0 -0.7404527792 0.417623774 4.14429e-05 -3.85837e-05 2.24464e-05 1.2882e-05 0.1145169537 -0.0437314436
260298440.0 -0.7365208274 0.4252424069 9.80129e-05 -7.4484e-06 0.0002454362 -0.000101225 0.1131634406 -0.0456655104
265298410.0 -0.7317636367 0.4331826115 0.0001129392 0.0002817861 -7.4011e-05 -8.1085e-05 0.1124648306 -0.0479024995
270298380.0 -0.7273634477 0.4403180981 9.80845e-05 -0.0001007452 0.0001224527 5.62813e-05 0.11200817 -0.0499729832
275298350.0 -0.7230911532 0.4480517285 0.000197597 -0.0001990007 0.0001394525 3.8385e-06 0.1109707879 -0.0520296331
280298320.0 -0.7182730091 0.4559105308 -5.95723e-05 0.0001157427 1.94213e-05 9.00952e-05 0.109730887 -0.0539822086
285298290.0 -0.7135281563 0.4632878236 8.1134e-06 -6.08172e-05 0.0001436791 -7.20252e-05 0.1089897991 -0.0554162717
290298260.0 -0.7082393437 0.4707056912 0.0001585635 3.1954e-05 0.0001159003 -0.0001939698 0.1077690617 -0.0574135896
295298230.0 -0.703664217 0.4779077672 0.0002880996 1.61117e-05 0.0001939422 4.05612e-05 0.106843253 -0.0593792525
300298200.0 -0.6995686975 0.4850315015 -2.6154e-05 0.0002342159 -6.9745e-06 6.69143e-05 0.1060073609 -0.061108376
305298170.0 -0.6944955909 0.4927333322 -0.0001289079 0.0001204905 0.0001715535 1.5474e-05 0.104907919 -0.0628799727
310298140.0 -0.6892406871 0.4994867519 0.0001564986 -3.8538e-05 0.0002727635 8.6515e-05 0.1039484903 -0.0648893604
315298110.0 -0.6843835898 0.5072331381 0.0001462162 6.9562e-06 0.0002205279 -8.9555e-06 0.1027712839 -0.0667662522
320298080.0 -0.6789710002 0.5143788146 8.90798e-05 0.0001250573 0.0001758112 1.54184e-05 0.10154911 -0.0687025045
325298050.0 -0.6733732614 0.5207869808 0.0001035328 0.0002848037 0.0001622345 0.0001069171 0.1004965826 -0.0705698631
330298020.0 -0.6683669006 0.5276486329 0.000263392 6.69609e-05 0.0001334535 -0.0001464919 0.0989559748 -0.0725100023
335297990.0 -0.6631065855 0.5345494238 9.39731e-05 0.0002245528 3.24069e-05 -0.0001660376 0.0974489864 -0.0741737545
340297960.0 -0.6575189525 0.5416811752 0.000119716 3.70972e-05 5.97997e-05 -0.0001565627 0.0962346955 -0.0753533332
345297930.0 -0.6518021851 0.5480239086 0.0003270983 0.0002010522 0.0002325706 5.00177e-05 0.0945823565 -0.0766999638
350297900.0 -0.6458996888 0.5552284325 -0.0001274423 0.0004335428 0.0002389042 0.00016006 0.0927567831 -0.0782805284
355297870.0 -0.6405630276 0.5614889034 -4.16673e-05 -2.92227e-05 0.0002104665 6.6352e-05 0.0917491634 -0.0796881113
360297840.0 -0.6346074063 0.5682175791 0.00034658 -9.28713e-05 6.4627e-06 -1.46741e-05 0.0903602826 -0.0809436581
365297810.0 -0.6297953507 0.5740332501 0.0001200524 2.10219e-05 -1.7763e-05 0.0001350611 0.0890360805 -0.0823612057
370297780.0 -0.6231093139 0.5804251558 0.0001108041 -9.9836e-05 0.0002220228 2.49594e-05 0.0873733288 -0.0834331999
375297750.0 -0.6175099493 0.5873230413 0.0001863655 0.0001092232 1.8191e-05 0.000195565 0.086085547 -0.0847271121
380297720.0 -0.6113747429 0.5935391231 4.0058e-06 -0.000151422 3.87662e-05 1.87141e-05 0.0847982714 -0.0859236878
385297690.0 -0.6054340954 0.5991200948 3.02449e-05 -0.0001903 0.0002375358 5.29094e-05 0.0833604368 -0.087129527
390297660.0 -0.5985583911 0.6053900501 0.0002111407 -0.0001130412 -2.5441e-06 -0.0001893497 0.0817673057 -0.08863125
395297630.0 -0.5926932899 0.6115964409 4.07847e-05 0.0001309066 0.0002687773 2.53874e-05 0.0800564723 -0.0894882269
400297600.0 -0.5868621584 0.6179510142 0.0002895926 0.0001171701 8.58832e-05 -9.88948e-05 0.0789493061 -0.0904762251
405297570.0 -0.5806525569 0.622956717 7.55781e-05 3.53809e-05 0.0001035708 6.82678e-05 0.0777262633 -0.0916598812
410297540.0 -0.5733758563 0.6295594776 -3.30537e-05 -9.98787e-05 0.0001424213 4.74148e-05 0.076182319 -0.0927302382
415297510.0 -0.5677224096 0.635634301 0.0004507195 8.6644e-05 0.0002636849 -9.84193e-05 0.0746044372 -0.0939962521
420297480.0 -0.5609259517 0.6409033725 0.0003638727 -0.0001169142 -9.96656e-05 -3.36077e-05 0.073587023 -0.0945821194
425297450.0 -0.5540271783 0.6462244398 1.18628e-05 -8.17548e-05 0.0003563846 6.67247e-05 0.0717338141 -0.0960245433
430297420.0 -0.5475942224 0.6516057789 0.0001083528 8.12419e-05 0.0002492579 0.0001917003 0.0699690718 -0.0970026234
435297390.0 -0.5408015623 0.6572765296 1.24946e-05 -1.89586e-05 0.0002535164 1.20307e-05 0.0682355692 -0.097841706
440297360.0 -0.5339265073 0.6630156133 0.0002175987 -2.90701e-05 7.92085e-05 -8.15167e-05 0.0669324352 -0.0986126391
445297330.0 -0.5269442004 0.6678251352 0.0001383077 4.00984e-05 -3.68024e-05 3.13275e-05 0.0656466223 -0.0994848893
450297300.0 -0.5203706823 0.6726855844 -9.19269e-05 0.0001686234 7.92956e-05 0.000203605 0.0640607648 -0.1006407565
455297270.0 -0.5137426907 0.6785126492 0.0003198204 -1.34862e-05 8.23737e-05 7.29122e-05 0.0624161605 -0.1012571524
460297240.0 -0.5060618972 0.6843430624 0.0001272649 -0.0001010293 0.0002430925 0.0001096776 0.0607235592 -0.1020816833
465297210.0 -0.4989645528 0.6889220494 0.0002040256 -1.93349e-05 8.81957e-05 -0.0003126975 0.059364103 -0.1027548016
470297180.0 -0.4915845365 0.6940791339 0.0001267605 0.0001625824 -5.91009e-05 -5.2193e-06 0.0578628192 -0.1036921326
475297150.0 -0.4851132984 0.6987570413 0.0001352928 -4.3831e-06 -0.0001015047 4.44477e-05 0.0562365351 -0.1042195529
480297120.0 -0.4768031228 0.7038765715 -2.94009e-05 -5.73321e-05 -0.0001112843 0.0001930359 0.0543921164 -0.1048206671
485297090.0 -0.4699275081 0.7082185159 5.97726e-05 -1.0712e-05 1.65183e-05 -4.5681e-05 0.0525613512 -0.1061035738
490297060.0 -0.4621491315 0.7137904186 7.13655e-05 3.60501e-05 0.0001713284 0.0001536399 0.0514369782 -0.1065677842
495297030.0 -0.4549227878 0.7180746725 8.41626e-05 -3.99181e-05 1.00534e-05 0.0001950361 0.0499665548 -0.1071957058
500297000.0 -0.44739954 0.7225333532 0.0002062778 -0.0001599767 -0.0001218415 0.0001378533 0.048368735 -0.1077737444
505296970.0 -0.4392194436 0.7270152342 0.0001141654 -1.3544e-06 5.11287e-05 4.02799e-05 0.0466314757 -0.1082906596
510296940.0 -0.4317037263 0.7312239702 0.0002333856 -0.0001674861 -7.32595e-05 0.0001720561 0.04506595 -0.1086891713
515296910.0 -0.4241484909 0.7355229458 3.86744e-05 -0.0002264705 4.17239e-05 -8.83467e-05 0.0432873545 -0.1093964057
520296880.0 -0.4162463266 0.7398044765 0.0001848098 -0.0001764622 0.0004074366 1.87836e-05 0.0418880885 -0.1100742842
525296850.0 -0.4080878949 0.744080501 0.0001039946 4.99845e-05 3.67827e-05 1.55437e-05 0.0399888293 -0.1104380035
530296820.0 -0.401289115 0.7479176683 0.0001638578 0.0001653079 0.0003780989 -7.56068e-05 0.038283883 -0.1112221143
535296790.0 -0.3930356389 0.7521489435 -7.7799e-06 5.74096e-05 0.0001977428 -5.56088e-05 0.0371328889 -0.1112773697
540296760.0 -0.3842109393 0.7557113176 9.44305e-05 3.38261e-05 -9.9987e-05 5.98169e-05 0.0351372351 -0.1118520981
545296730.0 -0.3777874421 0.7599949547 -4.53526e-05 -0.0002149712 -5.76081e-05 -6.26477e-05 0.0334917549 -0.1125401004
550296700.0 -0.3694981853 0.7634298453 2.8744e-05 -5.68767e-05 0.0001718479 -0.0001380693 0.0318322752 -0.1126384458
555296670.0 -0.3614740536 0.7670677668 5.82407e-05 -1.27661e-05 5.10563e-05 8.46813e-05 0.0299104658 -0.1132285104
560296640.0 -0.3529491935 0.7707125153 -6.3678e-06 3.09925e-05 8.72614e-05 -0.0001768646 0.0283339888 -0.113305892
565296610.0 -0.3457172898 0.7743838934 0.0001324817 1.45035e-05 0.0001859229 -0.0003280902 0.0271013661 -0.1135931632
570296580.0 -0.3368235861 0.7781936608 0.0003251911 2.0982e-05 0.000116342 4.31436e-05 0.0248849932 -0.1142628477
575296550.0 -0.3282287421 0.7814896339 0.0001205222 -0.0001530101 8.59079e-05 -0.0001062211 0.023600238 -0.1144991358
580296520.0 -0.3210868805 0.7847321059 0.0004460559 9.61522e-05 -4.19885e-05 -7.82533e-05 0.0217125727 -0.1144596404
585296490.0 -0.3126381912 0.7880515175 2.50373e-05 2.36063e-05 9.26907e-05 0.0001428183 0.0201806186 -0.1146077588
590296460.0 -0.3035574308 0.791003391 0.0002141608 -5.19708e-05 -5.79052e-05 -6.0831e-05 0.0183449275 -0.1147423131
595296430.0 -0.2961665899 0.7941256931 0.0001335968 0.0002202801 0.0002417614 9.92396e-05 0.0165193059 -0.1150315061
600296400.0 -0.2881998053 0.7965710485 0.0001975235 -1.92294e-05 -5.5015e-06 -4.31617e-05 0.0153298399 -0.1153492143
605296370.0 -0.2800979142 0.7994306772 0.0001309323 7.50585e-05 0.0001252663 -2.80883e-05 0.0136559329 -0.1153531848
610296340.0 -0.2721606694 0.8028917668 1.08898e-05 -0.0001014806 -7.3879e-05 -0.000250894 0.0115457885 -0.1153873085
615296310.0 -0.2625089225 0.8056235713 0.0001772018 -9.47361e-05 7.73405e-05 0.0002112451 0.0102102028 -0.1152942732
620296280.0 -0.2552714695 0.8086106339 0.0001270982 9.30935e-05 0.0001644513 5.9783e-06 0.0084814187 -0.1148682675
625296250.0 -0.2478614601 0.810103754 0.0001963772 -0.0001022474 -0.0001157208 -6.40413e-05 0.0064523193 -0.1154490488
630296220.0 -0.2382269951 0.8129413333 -3.51473e-05 -6.89818e-05 0.00013842 -5.68251e-05 0.0049671457 -0.1154439868
635296190.0 -0.2300368262 0.8150378842 0.000201451 -5.83936e-05 0.0001995785 -0.0001222996 0.0030975145 -0.1152740839
640296160.0 -0.2215312189 0.8174439475 0.0003374551 4.71341e-05 0.0002624106 -0.0001016194 0.0015526772 -0.1151262178
645296130.0 -0.2135917856 0.8202175504 0.0001111661 -0.0001578878 0.0001729379 9.799e-06 -0.0001805296 -0.1150712779
650296100.0 -0.2050928352 0.8217478003 8.33039e-05 -0.0001456679 9.79033e-05 -4.62683e-05 -0.0016648514 -0.1148535835
655296070.0 -0.1972062271 0.8249042293 0.0002858226 -1.74045e-05 -1.5687e-05 8.72673e-05 -0.0036409326 -0.1151345931
660296040.0 -0.1890616699 0.8263944369 0.0002256085 -2.5423e-06 8.31078e-05 6.79527e-05 -0.0049353683 -0.1150527413
665296010.0 -0.1807862443 0.8282108844 0.0002642399 4.455e-05 0.000247321 6.68964e-05 -0.0068173616 -0.1148099783
670295980.0 -0.1724113152 0.8306653506 -0.0002510645 -7.58574e-05 0.00036099 -0.0001112617 -0.0084153187 -0.1144852277
675295950.0 -0.1637185268 0.831736845 0.0004031752 -0.0001253488 0.0002284679 0.0002016029 -0.010223403 -0.1140618221
680295920.0 -0.1562401304 0.8334005288 -5.0752e-05 0.0001734358 8.84118e-05 -0.00019149 -0.011734945 -0.113816238
685295890.0 -0.1473024216 0.8355296298 0.0003111682 -7.46381e-05 8.25416e-05 7.08435e-05 -0.0134628709 -0.1135351424
690295860.0 -0.1395734502 0.8366445245 5.83106e-05 -0.0001211794 0.00014991 5.30982e-05 -0.0151590593 -0.1134423317
695295830.0 -0.1305633351 0.8387347164 0.0002950255 -0.0001382358 0.0002113915 0.0003053578 -0.016933394 -0.1127474439
700295800.0 -0.1219363403 0.8397392728 0.0001124554 -4.93264e-05 -2.46626e-05 0.0001382696 -0.0180246748 -0.1128722619
705295770.0 -0.1143511733 0.8414193474 0.0002310736 0.0003313172 0.0001531252 0.0001019109 -0.0200483099 -0.1122583773
710295740.0 -0.1068860048 0.8419997308 0.0001390032 8.25679e-05 0.0001115195 -4.24427e-05 -0.0212728088 -0.111914815
715295710.0 -0.097315446 0.8435975377 0.0003697455 -0.0002544195 -0.0001033961 6.70856e-05 -0.0231022399 -0.1120697553
720295680.0 -0.0883468591 0.8442575977 1.72443e-05 4.59466e-05 0.0001625476 -7.89636e-05 -0.0249389748 -0.1112411829
725295650.0 -0.081709813 0.8460150984 4.2825e-06 -0.0001496754 0.000301577 5.50905e-05 -0.0262099411 -0.1106109906
730295620.0 -0.0739427485 0.8467726773 3.10723e-05 0.0002365094 0.0004997391 0.0001022833 -0.0284482454 -0.1101372451
735295590.0 -0.0656177773 0.8475218191 1.39097e-05 -8.20703e-05 0.0002376672 -3.28418e-05 -0.0293387684 -0.1096937859
740295560.0 -0.0573137331 0.8473364495 0.0003188044 -0.0001572983 3.39706e-05 0.0001778335 -0.0310604169 -0.1092114997
745295530.0 -0.0488312849 0.8488100576 0.0001578827 3.94879e-05 0.000282876 2.45371e-05 -0.0331338119 -0.1084408088
750295500.0 -0.0407767975 0.8489351211 9.01095e-05 -0.0001516758 7.0082e-06 -9.20625e-05 -0.0344583821 -0.1081505493
755295470.0 -0.0321404812 0.8494999222 -3.58755e-05 0.0002156486 0.0002947296 -0.0002814577 -0.0357147911 -0.1071282109
760295440.0 -0.0239772674 0.8506125572 -0.0001581712 -6.61138e-05 0.0001881498 5.00895e-05 -0.0373389601 -0.107029002
765295410.0 -0.0158106752 0.8504811725 -2.2089e-06 5.02526e-05 0.0001631511 -4.00275e-05 -0.0391069202 -0.1062185079
770295380.0 -0.0087016419 0.8508854245 1.19978e-05 -0.0002259259 0.0001381494 -0.0001546289 -0.0409771905 -0.1057199599
775295350.0 -0.0003725522 0.8512236621 3.45985e-05 -9.5057e-05 0.0003336897 -0.0001166252 -0.042118259 -0.1052324526
780295320.0 0.0087056192 0.8512102586 1.90911e-05 -6.669e-07 0.0001922803 -0.0001294785 -0.0437337554 -0.1044455438
785295290.0 0.0170572624 0.8505047188 0.0001896858 3.14418e-05 4.83398e-05 1.4736e-05 -0.0452732896 -0.1035476378
790295260.0 0.025480577 0.8508000053 0.0002038778 -6.51299e-05 0.0003029869 -0.0001510119 -0.0467207737 -0.1028214195
795295230.0 0.0328028289 0.850515599 0.0002719875 5.56716e-05 4.97079e-05 -6.53263e-05 -0.0483147546 -0.1024570993
800295200.0 0.0414228071 0.8507003412 0.0002297468 -4.4467e-05 0.0003727162 -9.26933e-05 -0.0497625867 -0.1013130503
805295170.0 0.0492862958 0.8501499192 0.0002140069 -0.0001721654 0.0002461935 -0.0002879784 -0.0511463568 -0.1011149966
810295140.0 0.0580570918 0.8502666503 0.0001573347 0.0002015036 0.0003085641 -6.98282e-05 -0.0527060774 -0.0999994009
815295110.0 0.0657245449 0.8496884935 6.1615e-06 -0.0002782362 0.0001322411 1.70518e-05 -0.0544514374 -0.0989918591
820295080.0 0.0735129346 0.8488863248 0.0002072884 6.19501e-05 7.61601e-05 -0.0001185213 -0.0560407211 -0.0980770708
825295050.0 0.082158816 0.8481416594 0.0001389993 -8.8386e-05 0.000160388 0.0001451219 -0.0570931113 -0.0973463489
830295020.0 0.0906103174 0.8476585163 -3.69383e-05 -0.0001097608 0.0001947961 -8.04695e-05 -0.0587347898 -0.0965897679
835294990.0 0.0983842343 0.8468278656 0.0002183337 -0.0001623987 0.0001357987 0.0001950052 -0.060223795 -0.0953351357
840294960.0 0.1072239673 0.8454138864 0.000108525 -0.0001918509 0.0001917186 0.0002999847 -0.0614158854 -0.094696045
845294930.0 0.1149937183 0.844066034 0.0001699675 -0.0002156445 4.57895e-05 0.0001167487 -0.0629401626 -0.0937154941
850294900.0 0.1240750837 0.8433505352 0.000215185 -2.4356e-05 0.000211422 -6.40714e-05 -0.0640938334 -0.0928099032
