!Created with skrf (http://scikit-rf.org).
# Hz S RI R 50.0 
!freq ReS11 ImS11 ReS21 ImS21 ReS12 ImS12 ReS22 ImS22
300000.0 -0.3184032365 -0.1058385189 0.3724340259 0.0549498098 0.3749199993 0.0582541947 -0.3183157412 -0.115628446
5299970.0 -0.3238380423 0.0048205963 0.3786351144 0.0027803148 0.378440434 0.0031890017 -0.3261205536 0.0025609465
10299940.0 -0.3211075305 0.015653098 0.3800190503 0.0023755931 0.3795634957 0.0023585709 -0.3242231595 0.0128340441
15299910.0 -0.3182611924 0.0234048205 0.3817971198 0.0024250996 0.3821065538 0.0024310418 -0.3214466594 0.0197900001
20299880.0 -0.3143678387 0.0301132233 0.3851203672 0.001523601 0.385301968 0.0018639583 -0.3188236488 0.025958856
25299850.0 -0.3107469196 0.0355124972 0.3887203004 0.0001658643 0.3884704114 8.5522e-05 -0.3157225858 0.0311221065
30299820.0 -0.3066573962 0.0402587865 0.3918221781 -0.0021180064 0.3914466378 -0.0023925083 -0.3128106409 0.035402662
35299790.0 -0.3029668762 0.0446565284 0.3953116275 -0.0052718311 0.395301559 -0.0051381124 -0.3096481894 0.039263891
40299760.0 -0.299612735 0.0480896156 0.3983482657 -0.0085066092 0.3983368991 -0.0084812475 -0.307268746 0.0430160257
45299730.0 -0.296356656 0.0516733388 0.4010202018 -0.0129705747 0.401069654 -0.0125187552 -0.3046471298 0.0459754142
50299700.0 -0.2932120441 0.0540567527 0.403444647 -0.0171743754 0.4037572094 -0.0173188319 -0.3022143923 0.0491776703
55299670.0 -0.2909424722 0.0568146042 0.4054919211 -0.0221658816 0.4062992686 -0.0220144373 -0.3004983905 0.0518912834
60299640.0 -0.2881393428 0.0589919493 0.4074885231 -0.0270398924 0.4078037191 -0.0272049301 -0.2982777785 0.0546790279
65299610.0 -0.2860101198 0.0617479665 0.4093344408 -0.0312980937 0.4094408787 -0.0318382003 -0.2962471646 0.0570290721
70299580.0 -0.2838375191 0.0637517703 0.4103340545 -0.0368076373 0.4105465799 -0.0369485047 -0.2946934295 0.0594731262
75299550.0 -0.2818395901 0.0659282986 0.4116114697 -0.0422186093 0.4118767121 -0.0423918879 -0.2933358064 0.062059298
80299520.0 -0.2803109512 0.0682974611 0.4127665748 -0.0476523372 0.4128073209 -0.047246491 -0.2918375278 0.0639315444
85299490.0 -0.2785856498 0.0699446343 0.4133132247 -0.0525976685 0.4131775756 -0.0529047816 -0.290168521 0.0664441824
90299460.0 -0.2772301122 0.0722882547 0.4135290421 -0.057841542 0.4136912025 -0.0580154581 -0.2886455941 0.0685724677
95299430.0 -0.2754736839 0.0745674308 0.4140272921 -0.0635052946 0.4137267121 -0.0627602579 -0.2875798461 0.0710130383
100299400.0 -0.2742850975 0.0764016759 0.4137734633 -0.0681629807 0.4137142757 -0.0684367034 -0.2867198458 0.0733589192
105299370.0 -0.2729590153 0.0785350335 0.4138874189 -0.0733800493 0.4136328475 -0.0738607936 -0.2847268782 0.0758623182
110299340.0 -0.2719084024 0.0804103641 0.4132601204 -0.0784436136 0.4134079726 -0.0787415356 -0.2844350926 0.0780980851
115299310.0 -0.2706568194 0.0825162566 0.4130430646 -0.0834079503 0.4135207775 -0.083490505 -0.2833815109 0.0796857616
120299280.0 -0.2697009732 0.0846763785 0.4129811182 -0.0888876794 0.4130319401 -0.0892704438 -0.2822779984 0.0825157952
125299250.0 -0.2688782034 0.0865911644 0.4122862654 -0.0934496492 0.4127330156 -0.0940517074 -0.2815396624 0.0845855373
130299220.0 -0.2676062419 0.0890615577 0.4116790279 -0.0982847854 0.4117179423 -0.0988321772 -0.2805335907 0.0870833598
135299190.0 -0.2665802883 0.091191131 0.4108338017 -0.1035012028 0.4109083897 -0.1039268135 -0.2798448823 0.0897088634
140299160.0 -0.2658140164 0.093672322 0.4100861546 -0.1091180673 0.4103988092 -0.1093401651 -0.2786961879 0.09206036
145299130.0 -0.2647369319 0.0958220241 0.409327177 -0.1140101298 0.4092427511 -0.1135781196 -0.2781208116 0.0943942176
150299100.0 -0.263887136 0.0982361992 0.408039052 -0.1190182601 0.4081560937 -0.1188731503 -0.2768913241 0.0969655206
155299070.0 -0.2627107867 0.1009713193 0.4071492369 -0.1240285761 0.4071671506 -0.1241538462 -0.2762268014 0.0994515039
160299040.0 -0.2618380753 0.1030086896 0.4054834911 -0.1284377271 0.4061921219 -0.128696944 -0.2751583024 0.1019961752
165299010.0 -0.2611211632 0.1053173755 0.4045798147 -0.1335825829 0.4045047508 -0.1335810828 -0.2739896983 0.1045939962
170298980.0 -0.2601239783 0.1075999465 0.4026424422 -0.1385602177 0.4035952813 -0.1383343652 -0.2734508641 0.1070281191
175298950.0 -0.2588427069 0.1104067109 0.4022431504 -0.1431305295 0.4021695207 -0.1432892842 -0.2723680022 0.1097630649
180298920.0 -0.2578228376 0.1125320002 0.4005353695 -0.1479980177 0.400682996 -0.147897041 -0.2708767116 0.112372603
185298890.0 -0.2569653141 0.1150778416 0.3987613661 -0.1526733962 0.3992506016 -0.1527934377 -0.270346343 0.1149289672
190298860.0 -0.2560093905 0.117601519 0.3972741954 -0.1571692789 0.3975059144 -0.1573990127 -0.2689339864 0.1174165457
195298830.0 -0.2544153183 0.1201000927 0.3955339907 -0.1617950725 0.3957964786 -0.1621070963 -0.2679934283 0.120130676
200298800.0 -0.2536464404 0.1229958352 0.3941906536 -0.1661120257 0.3939888297 -0.1666254739 -0.2666802387 0.1229804942
205298770.0 -0.252588082 0.1253947299 0.392497241 -0.171096284 0.3924038148 -0.17113733 -0.2655886187 0.1252990838
210298740.0 -0.2513651018 0.1279468843 0.3906051673 -0.1756617643 0.3906838588 -0.1758848737 -0.2645313626 0.1280464479
215298710.0 -0.2505400184 0.1301819175 0.3889530859 -0.1801402202 0.3888131443 -0.1799202849 -0.263638802 0.130888185
220298680.0 -0.249459405 0.1328681094 0.3866670519 -0.1845128565 0.3867030139 -0.1847931305 -0.2622672876 0.1337955349
225298650.0 -0.2475341031 0.1354307523 0.3843202308 -0.1889349051 0.3844497538 -0.1886641445 -0.2607687688 0.1366633336
230298620.0 -0.2467484551 0.1381716021 0.3827427609 -0.1933020452 0.3826539421 -0.1934716819 -0.2595564326 0.1388901639
235298590.0 -0.2453836671 0.1405397277 0.3803681988 -0.1977104332 0.3805611997 -0.1979317517 -0.2583800832 0.141453841
240298560.0 -0.2441136699 0.1432504014 0.3783074603 -0.201905281 0.3785751909 -0.2018758817 -0.2572156173 0.144437967
245298530.0 -0.242841693 0.1457838124 0.3758865533 -0.2069265028 0.3759893355 -0.2064998472 -0.2557245167 0.1472627572
250298500.0 -0.2415916911 0.148211541 0.3738696108 -0.2104176241 0.3738764993 -0.2101462616 -0.2539565023 0.1498907733
255298470.0 -0.2400306493 0.1509675944 0.3711931529 -0.2148080973 0.3715011365 -0.2151397853 -0.25275821 0.1521104365
260298440.0 -0.2386038708 0.153517136 0.3690178072 -0.2189482173 0.3692518876 -0.2191153037 -0.2507652642 0.1550773142
265298410.0 -0.2369772365 0.1562951836 0.366244342 -0.2236929981 0.366755739 -0.2236534101 -0.24979474 0.1576487012
270298380.0 -0.2354875869 0.1585264247 0.3637052537 -0.2274240265 0.36441669 -0.2275729012 -0.2479342342 0.1606411106
275298350.0 -0.2342211281 0.1609803328 0.3616179764 -0.2314564673 0.3620341745 -0.2319054881 -0.246312269 0.163223398
280298320.0 -0.2325499714 0.163879226 0.3589972747 -0.2354564568 0.3588289114 -0.235842636 -0.2449637067 0.1657814204
285298290.0 -0.2309667285 0.166487736 0.3566645268 -0.2398350944 0.3564987635 -0.2397866993 -0.2433760894 0.1681517128
290298260.0 -0.2292724098 0.1690347138 0.3540084301 -0.2438412742 0.3542940031 -0.2439472918 -0.2415034396 0.1715879483
295298230.0 -0.2274528165 0.1712865603 0.3514321955 -0.2477207301 0.3510897241 -0.2477442602 -0.239667646 0.1738737568
300298200.0 -0.2255227712 0.1736500014 0.348198732 -0.2519476582 0.34853412 -0.2517391933 -0.2379816137 0.1765776149
305298170.0 -0.2238798313 0.1763893077 0.3457932036 -0.2558901351 0.3459638123 -0.2560827595 -0.2356950971 0.1793871429
310298140.0 -0.2221132039 0.1782980593 0.3428318199 -0.259973169 0.3430778969 -0.2602866066 -0.2340502706 0.1821894651
315298110.0 -0.2204989905 0.1810751701 0.3398996908 -0.2640012669 0.3402618216 -0.2637944278 -0.2319394178 0.1842459712
320298080.0 -0.2187840136 0.1833128384 0.3371465703 -0.2676457463 0.3374121948 -0.2674423714 -0.2304943016 0.1868479318
325298050.0 -0.2167430728 0.1853602904 0.3343273208 -0.271610467 0.3340570022 -0.2717321392 -0.2284650394 0.1894516175
330298020.0 -0.2150735731 0.188055351 0.330565642 -0.2752773317 0.3310289133 -0.2752671854 -0.2267774697 0.19176386
335297990.0 -0.2134456115 0.1903992119 0.3275028681 -0.2791223733 0.3273624269 -0.2790728604 -0.224484208 0.1945513174
340297960.0 -0.2118211721 0.1928199057 0.3244542441 -0.2826755948 0.3246984192 -0.2827350745 -0.2228852675 0.1970484782
345297930.0 -0.2100267911 0.1951019072 0.3214051678 -0.2855953341 0.3209123385 -0.2857614187 -0.220704899 0.1992579755
350297900.0 -0.207664947 0.1978162649 0.3177851514 -0.2895460093 0.3183127091 -0.2896572163 -0.2188271895 0.2021511651
355297870.0 -0.2059435874 0.2000268474 0.3149384044 -0.2935312695 0.3148523286 -0.2933076937 -0.2168104402 0.2049330869
360297840.0 -0.2038023626 0.2024779509 0.311650357 -0.2967050834 0.3114970271 -0.2968247104 -0.2146225077 0.2071613496
365297810.0 -0.2018592977 0.2044341797 0.3078944715 -0.2998815433 0.3082204242 -0.3000795982 -0.2124178225 0.209962636
370297780.0 -0.1994219409 0.2068747112 0.3047728198 -0.3031367427 0.3049448451 -0.3036331873 -0.2104988196 0.2122545495
375297750.0 -0.1974166025 0.209430684 0.3019771497 -0.3070713654 0.3014818048 -0.30689101 -0.2082103039 0.2151161286
380297720.0 -0.1954404872 0.211182831 0.2981238226 -0.3098965991 0.298140744 -0.3096731387 -0.2058364271 0.2175979497
385297690.0 -0.1932078705 0.2137074649 0.2945817842 -0.3127347403 0.2946180777 -0.3134289601 -0.2038617384 0.2199929121
390297660.0 -0.1907060046 0.2158482975 0.2908693787 -0.3166632299 0.2910762717 -0.3166413292 -0.2014808244 0.2219168143
395297630.0 -0.1883785335 0.2179682322 0.2875029196 -0.3194562713 0.2879081765 -0.3193804193 -0.1991945173 0.2245259673
400297600.0 -0.1865950348 0.2204403951 0.2839335596 -0.3227453979 0.2841749922 -0.3227767009 -0.196966796 0.2264669273
405297570.0 -0.184262365 0.2224043198 0.2804073887 -0.3259133229 0.2802930227 -0.3261071893 -0.1946867355 0.2295560541
410297540.0 -0.1817243077 0.2245477001 0.2766662561 -0.3289644777 0.2764602145 -0.3288314865 -0.1923558358 0.2314223038
415297510.0 -0.1795296936 0.2266231181 0.273173053 -0.3321067829 0.2732528132 -0.3319099983 -0.1902263933 0.234023848
420297480.0 -0.1774135984 0.2283777844 0.2694192626 -0.3350082591 0.2695538992 -0.3348191179 -0.18751707 0.2355898303
425297450.0 -0.1745437964 0.2304892653 0.2655627632 -0.3375913705 0.266157555 -0.3377964142 -0.1850437716 0.238064515
430297420.0 -0.172387791 0.2327267504 0.2622515294 -0.3410116416 0.2621655827 -0.3407344682 -0.1828962255 0.2404493402
435297390.0 -0.1697515636 0.2345712548 0.258119926 -0.3435809212 0.2585946262 -0.3433398358 -0.1800537676 0.2427449401
440297360.0 -0.1674780988 0.2366957891 0.2540245244 -0.3462030448 0.2543469367 -0.3461122492 -0.1776576883 0.2443403133
445297330.0 -0.1649099264 0.2386856109 0.2501932509 -0.3494188325 0.2505225399 -0.3490225521 -0.1752144547 0.2466631092
450297300.0 -0.1622217605 0.2402135035 0.246576441 -0.3518071412 0.2469594649 -0.3519814442 -0.172553058 0.2486931585
455297270.0 -0.1597377551 0.2421117736 0.2429708484 -0.354532515 0.2430098929 -0.3542019652 -0.1697736881 0.2509339669
460297240.0 -0.1576983048 0.2440741013 0.2389563077 -0.3568271662 0.2388196492 -0.3570322063 -0.167094958 0.2532473485
465297210.0 -0.1544712564 0.2459844621 0.2346940601 -0.3596393413 0.2352941442 -0.3595542967 -0.1652735147 0.2546440286
470297180.0 -0.1523092693 0.2473432151 0.2314345354 -0.3617509449 0.2314050058 -0.3616895131 -0.1628110002 0.2567768866
475297150.0 -0.149753647 0.2494132007 0.226988862 -0.3643817281 0.2269125089 -0.3639786023 -0.1598121104 0.2585484312
480297120.0 -0.146904185 0.2510112039 0.2227939985 -0.3667312034 0.223164025 -0.3665188684 -0.1570551436 0.260756601
485297090.0 -0.1442196387 0.2526331158 0.2189369001 -0.3689844242 0.2189785378 -0.3692962096 -0.1548117507 0.2626747002
490297060.0 -0.1415033494 0.2542596862 0.2150470097 -0.3716906428 0.2150878905 -0.3716269347 -0.1519992181 0.2644363483
495297030.0 -0.1390571185 0.2560758271 0.210732496 -0.3737342121 0.2106059444 -0.3740638793 -0.1491267011 0.2659222144
500297000.0 -0.13640002 0.257438859 0.2064919298 -0.3763599772 0.2068399469 -0.3760291449 -0.1466070994 0.2676320057
505296970.0 -0.1337276009 0.2591103178 0.2022017516 -0.3778243709 0.2025867471 -0.3780912472 -0.1442412768 0.2693736393
510296940.0 -0.1309379775 0.2607316716 0.1983100713 -0.3804696457 0.1982956308 -0.3806668014 -0.1407915675 0.2713700529
515296910.0 -0.1282391421 0.2626372619 0.1937926291 -0.3822440094 0.194336541 -0.3824375971 -0.138154464 0.2733052465
520296880.0 -0.1251856559 0.2637966898 0.1898747105 -0.3844218198 0.1901824473 -0.3842838512 -0.135243326 0.2744531573
525296850.0 -0.1224856055 0.2653353684 0.1856869401 -0.3867015902 0.1858822722 -0.3868286628 -0.1320466863 0.2764974429
530296820.0 -0.1198890192 0.2665821056 0.1820116478 -0.3880130188 0.1817660944 -0.3881568298 -0.1300070554 0.2774784713
535296790.0 -0.1170545824 0.2680387926 0.1771429214 -0.3901188209 0.1776201493 -0.3900047391 -0.1270143164 0.2789202986
540296760.0 -0.1141641677 0.2693046365 0.1731092764 -0.392228377 0.1731616822 -0.3924671522 -0.124385426 0.2807265254
545296730.0 -0.1114770426 0.2709498269 0.1689079954 -0.3938693711 0.1687255259 -0.3940526633 -0.1215214028 0.2819099241
550296700.0 -0.1087904046 0.2721761746 0.1645614472 -0.395909244 0.1647710484 -0.396121998 -0.1184380082 0.2836913965
555296670.0 -0.1052159817 0.2735821361 0.159663016 -0.3975336173 0.1600569735 -0.3977158118 -0.1154899585 0.2851422777
560296640.0 -0.1029207517 0.2746358976 0.1559737747 -0.3988718686 0.1560762846 -0.3992426559 -0.1126624385 0.2863116816
565296610.0 -0.100323495 0.2756362652 0.1513753387 -0.4007588877 0.1515935601 -0.4008526535 -0.1099046563 0.2876169162
570296580.0 -0.0971396817 0.2772065226 0.1466680414 -0.4026077733 0.1474747917 -0.402738482 -0.1071032568 0.2895759533
575296550.0 -0.0939491417 0.2784294422 0.1424562994 -0.403962174 0.1429123971 -0.4040458878 -0.1035543218 0.2903165334
580296520.0 -0.0912217627 0.2792344302 0.1383154496 -0.4055723201 0.1379782815 -0.4054384565 -0.1007459517 0.2914393895
585296490.0 -0.0880900852 0.2800453755 0.1340483058 -0.4067343843 0.1339337857 -0.4068672034 -0.0978593353 0.2923291603
590296460.0 -0.0853053957 0.2810857449 0.1292069535 -0.4083278419 0.129444936 -0.4084404883 -0.0942503156 0.2939849306
595296430.0 -0.0819471647 0.2826165538 0.1250629387 -0.4095502502 0.1248358439 -0.4097715737 -0.0915533654 0.2950011144
600296400.0 -0.079261002 0.2834834029 0.1204968206 -0.4109181789 0.1209804787 -0.4111436203 -0.088800332 0.2964126105
605296370.0 -0.0762298854 0.2847080347 0.1162503042 -0.4123072081 0.1162641522 -0.4123282934 -0.0853664806 0.2974671316
610296340.0 -0.0732946542 0.2853141724 0.1117977085 -0.4132749077 0.1116323237 -0.4136881967 -0.0824729732 0.2986435982
615296310.0 -0.0700300415 0.2866257814 0.1067784169 -0.4143611477 0.1070401584 -0.4144863174 -0.0792615048 0.2992600499
620296280.0 -0.0672400321 0.2872015203 0.1026912163 -0.4153279083 0.1027306066 -0.4157864293 -0.0765541669 0.3001410164
625296250.0 -0.0639630466 0.2880724627 0.0975798143 -0.4164800875 0.0979001009 -0.4169063192 -0.0729657928 0.3013773907
630296220.0 -0.0609028304 0.2891717043 0.0930568162 -0.4178097672 0.0939622639 -0.4176948547 -0.0704236879 0.3021995583
635296190.0 -0.0581313658 0.2898633961 0.089092023 -0.4180671803 0.0888768733 -0.4179651791 -0.0671715399 0.3027575077
640296160.0 -0.0553053925 0.2902616016 0.0845889314 -0.4195298199 0.0840509479 -0.4197178343 -0.0636949269 0.3036256174
645296130.0 -0.0522112656 0.2913793136 0.0799692599 -0.4203082117 0.0799617835 -0.4199245635 -0.0610679001 0.3045390096
650296100.0 -0.0490184858 0.2922937139 0.0755829325 -0.4209786589 0.0755764122 -0.4211938792 -0.0578450059 0.3052256368
655296070.0 -0.0457326238 0.2928693758 0.0707661637 -0.4216971446 0.0706254514 -0.4220741849 -0.0539432557 0.3061787171
660296040.0 -0.0431764549 0.293506097 0.0663958031 -0.4224309713 0.0663717742 -0.422380925 -0.0514568478 0.3068664441
665296010.0 -0.0398301727 0.2937393122 0.0618179049 -0.4232720816 0.0621169488 -0.4232382749 -0.0481284228 0.3075610383
670295980.0 -0.0363803355 0.294364252 0.0567925043 -0.4237255375 0.0574913179 -0.4234664927 -0.045592184 0.3080421265
675295950.0 -0.0335087628 0.2948953791 0.0524097865 -0.42430482 0.0527149475 -0.4247960337 -0.0416064757 0.3088483075
680295920.0 -0.0303534604 0.2960681777 0.047938565 -0.4250456459 0.0477446718 -0.4249223082 -0.0386325236 0.3091988009
685295890.0 -0.0271185339 0.2960437845 0.0434213963 -0.4255071587 0.0431219648 -0.4255154854 -0.035396748 0.3100166278
690295860.0 -0.023895011 0.296499985 0.0387609121 -0.4253518786 0.0383974359 -0.4256629251 -0.0322198503 0.310591588
695295830.0 -0.0208213384 0.2966229399 0.0336455623 -0.4258654154 0.0338447348 -0.42632215 -0.0293463868 0.3112413327
700295800.0 -0.0176971951 0.2971090045 0.029340344 -0.4260658264 0.0292615758 -0.4265943138 -0.0257251104 0.3111597337
705295770.0 -0.0143544689 0.2976132563 0.0247151409 -0.4267153133 0.0249752224 -0.4267214161 -0.023010923 0.3119665314
710295740.0 -0.0111880967 0.2980368725 0.0198524447 -0.4268213585 0.0201882117 -0.4269452442 -0.0199414408 0.3127359449
715295710.0 -0.008343471 0.2982088402 0.0154863484 -0.4269680028 0.0157477287 -0.4269237896 -0.0161552155 0.3123503336
720295680.0 -0.0055014691 0.2982812804 0.0107954892 -0.4268394085 0.011010754 -0.4273181623 -0.0129180095 0.3129666632
725295650.0 -0.001780885 0.298666105 0.0058410447 -0.4268499882 0.006350728 -0.4270032916 -0.0097480618 0.313094611
730295620.0 0.0011180954 0.2984769235 0.001565489 -0.4269363996 0.0015682567 -0.4271770686 -0.0061315239 0.3132603992
735295590.0 0.0049069059 0.2986569267 -0.0030743438 -0.4271733411 -0.0028749684 -0.4275260811 -0.0030183902 0.3137376298
740295560.0 0.0074958868 0.2990665071 -0.0076995258 -0.4268097553 -0.0075877811 -0.4269777707 0.0002787395 0.3134803994
745295530.0 0.0106361958 0.2990846762 -0.0120448597 -0.4269865537 -0.0120811687 -0.4269363468 0.0033974534 0.3138229333
750295500.0 0.0137026208 0.2989241368 -0.0167981545 -0.4263853706 -0.0168605923 -0.4263831285 0.0069181761 0.3135677688
755295470.0 0.0175367165 0.2987664876 -0.021336755 -0.4260425431 -0.0208877416 -0.4265855924 0.0097081652 0.3143104607
760295440.0 0.0203860054 0.2991397773 -0.026406016 -0.4259320971 -0.0257908182 -0.4261033638 0.0126936988 0.3138357441
765295410.0 0.0234722461 0.2988517582 -0.0302862638 -0.4256254936 -0.0304108488 -0.4258572327 0.0170032884 0.3141198239
770295380.0 0.0265329971 0.2988432996 -0.0350352437 -0.4251179122 -0.0352886403 -0.4256141569 0.019974873 0.3140275488
775295350.0 0.0297178308 0.298701211 -0.0396656927 -0.4246048535 -0.039463266 -0.4250989777 0.0223601675 0.3137391
780295320.0 0.0331814662 0.2983011028 -0.0441901488 -0.4242824554 -0.0441296517 -0.4246000753 0.0259987891 0.3141257684
785295290.0 0.0360119185 0.2984541114 -0.0486853183 -0.4233600678 -0.0486835025 -0.4237786512 0.0290737593 0.3136484621
790295260.0 0.0393986799 0.298027546 -0.0536731317 -0.4232487842 -0.0533893177 -0.4233747066 0.032628714 0.3135861782
795295230.0 0.0424055759 0.2980722636 -0.0578556791 -0.422512309 -0.0577940307 -0.4227003316 0.035836547 0.3136154152
800295200.0 0.0456185566 0.2976565407 -0.0626855955 -0.4222143867 -0.0628105476 -0.4222335757 0.0389647933 0.3131838138
805295170.0 0.0487409704 0.2975398533 -0.067196351 -0.4209415867 -0.0671825057 -0.4211253025 0.0419773826 0.3128622665
810295140.0 0.0518464411 0.2969408107 -0.0715322473 -0.4202757889 -0.0715803947 -0.4209258277 0.0455341962 0.3128936005
815295110.0 0.0550619647 0.2965328992 -0.076296661 -0.4191990418 -0.0763379655 -0.4196050796 0.0486291588 0.312250936
820295080.0 0.0584058731 0.2957602337 -0.0811518316 -0.4186044882 -0.0806742277 -0.4188852526 0.0519097884 0.3119683869
825295050.0 0.0614899394 0.2953271351 -0.0853191514 -0.4170626154 -0.0850364476 -0.4176928561 0.0550583246 0.3117095494
830295020.0 0.0644397774 0.2949902555 -0.0895694346 -0.4164938255 -0.090104997 -0.4169097988 0.0582395364 0.3107580735
