!Created with skrf (http://scikit-rf.org).
# Hz S RI R 50.0 
!freq ReS11 ImS11 ReS21 ImS21 ReS12 ImS12 ReS22 ImS22
300000.0 -0.2333843252 -0.1280825734 0.4667047154 0.0846010874 0.4686225676 0.0826956492 -0.2358097192 -0.1278727547
5299970.0 -0.2419371386 0.0053887436 0.4750269903 0.0061151864 0.4753019435 0.0057950284 -0.2445407791 0.0047791323
10299940.0 -0.2389224874 0.0185409523 0.4773679172 0.0068509283 0.4770751848 0.0070349209 -0.2407231699 0.0174749592
15299910.0 -0.2337429486 0.0289744876 0.4805540165 0.0079747743 0.480806101 0.0080346186 -0.2370980629 0.0264392789
20299880.0 -0.2284912174 0.0368673092 0.4853320498 0.0080439314 0.4854910083 0.0082637396 -0.2320325617 0.0339223952
25299850.0 -0.2225813257 0.0434567685 0.4907428868 0.0075941693 0.4907787266 0.0073974474 -0.2269713381 0.0400299687
30299820.0 -0.2172305237 0.0484962279 0.4962666951 0.0054562278 0.4961975173 0.0048277462 -0.2219118716 0.0448657041
35299790.0 -0.2112804474 0.0528869219 0.5008783066 0.0020139594 0.5013199709 0.0016145668 -0.2168378042 0.0491904595
40299760.0 -0.2062249654 0.056032517 0.5064558661 -0.0021156524 0.5064881399 -0.0024592257 -0.21196424 0.0520764144
45299730.0 -0.2011332636 0.0588356486 0.5109992753 -0.0066725407 0.5115345384 -0.0068681547 -0.2072480535 0.0547368608
50299700.0 -0.1959255047 0.0606287759 0.5152591047 -0.0122792678 0.5153217763 -0.0125389083 -0.2027169926 0.0571042334
55299670.0 -0.1919084238 0.0625628835 0.5189324511 -0.0179422039 0.5189842943 -0.0186409044 -0.1992677923 0.0588569897
60299640.0 -0.1877289982 0.063927226 0.5222562882 -0.0244800641 0.5224053735 -0.0244182642 -0.195379087 0.0596902294
65299610.0 -0.1842951134 0.0652236898 0.5257343376 -0.030789123 0.5254835213 -0.0311150329 -0.1918748094 0.060857255
70299580.0 -0.1810683999 0.0659737903 0.5274431461 -0.0373848329 0.5277468077 -0.0378794331 -0.189248542 0.0618639205
75299550.0 -0.1779563487 0.0669368511 0.5293690019 -0.0446763453 0.5299757224 -0.044308764 -0.1862931879 0.0627005033
80299520.0 -0.1750943285 0.0676124726 0.5313426232 -0.0510988414 0.531668316 -0.0515950753 -0.1839326949 0.0636833904
85299490.0 -0.1725899172 0.0682755742 0.5325549808 -0.0581435767 0.5326799263 -0.0582108719 -0.1817026075 0.0638850184
90299460.0 -0.1705009226 0.0689178687 0.5337284149 -0.0648448302 0.5335514939 -0.0651168598 -0.1793531339 0.0646527561
95299430.0 -0.1682782944 0.0699077816 0.5349076873 -0.0723254596 0.5348487215 -0.0723843361 -0.1775443541 0.0653711127
100299400.0 -0.166015191 0.0702390014 0.5350686995 -0.0787927867 0.5351693743 -0.0791956159 -0.1760995996 0.0664558618
105299370.0 -0.164162188 0.07105859 0.5354802698 -0.085675367 0.5355270319 -0.0859242174 -0.1743396461 0.0666272518
110299340.0 -0.1623155954 0.0714663782 0.5355916921 -0.0920576888 0.5359642094 -0.0923246784 -0.1729292126 0.0673680647
115299310.0 -0.1608362622 0.0724451153 0.5356097661 -0.099015635 0.5353239309 -0.0991344472 -0.17155197 0.068383921
120299280.0 -0.1595247487 0.0733778085 0.5351556031 -0.1064271601 0.5354186264 -0.1066046646 -0.1700048676 0.0686645325
125299250.0 -0.1579556584 0.0737352337 0.5346321892 -0.1126640444 0.5349190651 -0.1127360397 -0.1690090076 0.0697977514
130299220.0 -0.1566373009 0.074569391 0.5344987931 -0.11971532 0.534345195 -0.1200518711 -0.1675343703 0.0704534643
135299190.0 -0.1555634953 0.0757846895 0.5337436255 -0.1260095782 0.5338893662 -0.1265727585 -0.1667091421 0.071035012
140299160.0 -0.1540849205 0.0767505764 0.5330477158 -0.1332566883 0.53299143 -0.1328482914 -0.1664849107 0.0719441862
145299130.0 -0.1534403733 0.0779880769 0.5315868124 -0.1395685573 0.5319534066 -0.139650283 -0.1650073548 0.0729314818
150299100.0 -0.1521280228 0.0788940334 0.5305596243 -0.1462899836 0.5304837811 -0.1462187799 -0.1640729726 0.0739062055
155299070.0 -0.1508128103 0.0799178964 0.5290461912 -0.1525004764 0.52948193 -0.152781311 -0.163446167 0.0747304675
160299040.0 -0.1499433554 0.0813280702 0.5285152397 -0.1588513485 0.5279447761 -0.1592364084 -0.1627588121 0.0757780706
165299010.0 -0.14865234 0.0823300295 0.5268506055 -0.1651653697 0.5266053845 -0.1654311184 -0.1617117933 0.0767454407
170298980.0 -0.1478043077 0.0835980774 0.5246729537 -0.1717617948 0.5251017512 -0.1717160589 -0.1610998982 0.0776552165
175298950.0 -0.1468072636 0.0847790496 0.5237638823 -0.1779771606 0.5236729585 -0.1787157595 -0.1601053791 0.0790762673
180298920.0 -0.146193806 0.0861241375 0.5217494058 -0.1842368968 0.521710778 -0.1847083363 -0.1592955448 0.079992637
185298890.0 -0.1450986858 0.0871832998 0.5202794554 -0.1904646805 0.5200413626 -0.1906491203 -0.1587370415 0.0811859851
190298860.0 -0.1437285939 0.0887971424 0.5173585882 -0.1969126435 0.5182199858 -0.1964496568 -0.1580568277 0.0822815031
195298830.0 -0.1430326622 0.0900132473 0.5162604127 -0.2025193519 0.5162209476 -0.2026628567 -0.1574687215 0.0832386362
200298800.0 -0.1419024133 0.0911517988 0.5137987051 -0.2092693765 0.5141690569 -0.2088059013 -0.1564126576 0.0844922449
205298770.0 -0.1413558344 0.0925989258 0.5115825196 -0.2149855758 0.5120833855 -0.2149145116 -0.1555726309 0.0858252823
210298740.0 -0.1404093683 0.0940489109 0.5095396749 -0.2211720067 0.5095169972 -0.2209028901 -0.1554337391 0.0869817657
215298710.0 -0.1392991999 0.0954593343 0.5068793252 -0.2266049413 0.5073598784 -0.2268449007 -0.1541879356 0.0881329975
220298680.0 -0.1383347386 0.0969507292 0.5044279888 -0.2326678581 0.5046090955 -0.2329215917 -0.1533962523 0.0895296076
225298650.0 -0.1370514473 0.0982595913 0.5020781663 -0.2384136475 0.502390243 -0.2382411909 -0.1527961297 0.0905808344
230298620.0 -0.1360151116 0.0998719445 0.4997596843 -0.244528023 0.4997150763 -0.2447334093 -0.1519308199 0.0916933563
235298590.0 -0.1355355362 0.1013285486 0.4976594779 -0.2505335708 0.4974672377 -0.250544713 -0.151445858 0.0934396116
240298560.0 -0.1342845959 0.1025923092 0.4943398209 -0.2555871508 0.4945677024 -0.2557665064 -0.1504814258 0.0943767097
245298530.0 -0.1331483841 0.1039493472 0.4916119888 -0.2618611536 0.4917028643 -0.261905842 -0.1498715283 0.0957577503
250298500.0 -0.1324084173 0.1054157204 0.4890064418 -0.2671476225 0.4889811641 -0.2671999323 -0.1489384106 0.0972402202
255298470.0 -0.1309954328 0.1072811728 0.486268329 -0.2725558621 0.4864153735 -0.2730118753 -0.1483568155 0.0987922088
260298440.0 -0.1301419501 0.1084809028 0.4831626337 -0.2776144135 0.4833491694 -0.27788158 -0.1472624454 0.0995848092
265298410.0 -0.1292913621 0.1100693261 0.4800700035 -0.284083703 0.4798652092 -0.2841891674 -0.1458391209 0.1010137838
270298380.0 -0.1284332527 0.1114808486 0.4771683191 -0.2894550516 0.4771163194 -0.2889386871 -0.145341285 0.1025086726
275298350.0 -0.1270208162 0.1128749063 0.4731891378 -0.2940375002 0.4737927909 -0.2946287922 -0.1444559226 0.1038817488
280298320.0 -0.1261989062 0.114543373 0.4706358254 -0.2993493089 0.4711564778 -0.2997186995 -0.1435601979 0.1052578007
285298290.0 -0.1247193075 0.1157998005 0.4669206539 -0.3051245094 0.4677700157 -0.3050283593 -0.1429192755 0.1066883179
290298260.0 -0.1238724939 0.117189595 0.4646324841 -0.3102553861 0.4642725041 -0.3105693671 -0.1417147597 0.1078539496
295298230.0 -0.1226102881 0.1183835136 0.4609583897 -0.3161291981 0.4609616271 -0.3159973864 -0.1406673672 0.1090566357
300298200.0 -0.1212320286 0.1202597527 0.457481194 -0.3211206728 0.457709018 -0.3210399004 -0.1397788027 0.1106499445
305298170.0 -0.1201086823 0.1212298601 0.4540573482 -0.3261618571 0.4545228487 -0.3265817179 -0.1387144369 0.1117994862
310298140.0 -0.1185429329 0.1224221657 0.4504082025 -0.331270196 0.4507697681 -0.331191985 -0.1377581369 0.112953743
315298110.0 -0.117895574 0.1239279457 0.4469430147 -0.3371732078 0.4467968923 -0.3368319983 -0.1365978565 0.1140238152
320298080.0 -0.1165343634 0.1251362375 0.4429977876 -0.3418805519 0.4435116472 -0.3421394042 -0.1359050985 0.1151427226
325298050.0 -0.1155774778 0.1261138554 0.439084892 -0.3467422043 0.439795037 -0.3469017947 -0.1347293007 0.1163031191
330298020.0 -0.1147232065 0.1277265829 0.4349321652 -0.3520135923 0.4357973359 -0.3521854622 -0.1341115349 0.1178172595
335297990.0 -0.1135378327 0.1289286426 0.4313583048 -0.3568515246 0.4315280283 -0.3568051855 -0.1331116799 0.1192747936
340297960.0 -0.112335681 0.1302057688 0.4267545813 -0.3616178563 0.4270514921 -0.3610212603 -0.132266568 0.1203355619
345297930.0 -0.1111556549 0.1315969758 0.4230609472 -0.366432544 0.4231114119 -0.3661814903 -0.1309124002 0.1217793394
350297900.0 -0.11018775 0.1329063716 0.4195094027 -0.3703556994 0.4195734838 -0.3704999925 -0.13031002 0.1229735598
355297870.0 -0.1087978902 0.1345122391 0.4153364726 -0.3750778346 0.4150797014 -0.3749011787 -0.1288305735 0.1245126848
360297840.0 -0.1073514357 0.1357794147 0.4105637518 -0.3797986458 0.4110711938 -0.3802118036 -0.1278789853 0.1259435779
365297810.0 -0.1061704825 0.1371932572 0.4062156334 -0.383988044 0.4064367563 -0.3845175967 -0.1269246194 0.127207479
370297780.0 -0.1046511559 0.1384626379 0.4020917235 -0.389014366 0.4025158847 -0.3887468711 -0.1258189272 0.12895321
375297750.0 -0.1033211708 0.1396866242 0.3980141872 -0.3930224881 0.3982322233 -0.3934103102 -0.1243431293 0.1302740197
380297720.0 -0.1021816554 0.141217408 0.3939706657 -0.3977835731 0.393812515 -0.3976597363 -0.123304246 0.1315302077
385297690.0 -0.1008436555 0.1422494901 0.3896075437 -0.402056394 0.3893330386 -0.4024288202 -0.1220208753 0.1328790808
390297660.0 -0.098888756 0.1434107398 0.3849696452 -0.4059509091 0.3848483058 -0.4059833503 -0.1204940841 0.1338913717
395297630.0 -0.0973886347 0.1447939744 0.3806304046 -0.4098608336 0.3807208373 -0.4102691445 -0.119633566 0.1351701054
400297600.0 -0.0966109828 0.1458740919 0.3762117231 -0.4145237553 0.3762046467 -0.414255357 -0.1179882971 0.1367554513
405297570.0 -0.0949008924 0.1465098082 0.3717511401 -0.4183762501 0.3720154794 -0.4183412011 -0.1166297017 0.1381838553
410297540.0 -0.0931556943 0.1481197038 0.3671855523 -0.4227573826 0.3673043051 -0.4224739726 -0.1159690423 0.1395545172
415297510.0 -0.0918396127 0.1492132643 0.3623492228 -0.4264461357 0.3625678599 -0.4261750177 -0.1141993007 0.1403777458
420297480.0 -0.0902732892 0.1501256209 0.3576860509 -0.4306953205 0.3579987633 -0.4306587598 -0.1124863923 0.1421695495
425297450.0 -0.0880973767 0.1512156051 0.3530703476 -0.4340756017 0.3530531016 -0.4343137918 -0.1114763668 0.142506979
430297420.0 -0.0868802317 0.1526038228 0.3487522288 -0.4385347111 0.3484250966 -0.4379598961 -0.1097572272 0.1444403095
435297390.0 -0.0852504593 0.1535007375 0.3434191763 -0.4427071792 0.3433723304 -0.442035988 -0.1091675291 0.1458598031
440297360.0 -0.0834728016 0.1541758828 0.338029379 -0.4456713949 0.3383565032 -0.4458314473 -0.1074372598 0.1468785615
445297330.0 -0.0819815784 0.1551389145 0.3343416858 -0.449173882 0.3336147321 -0.4494347934 -0.1058196826 0.1479559988
450297300.0 -0.0802373079 0.1563536288 0.3289137812 -0.4527131072 0.3290733228 -0.4529902033 -0.1044465864 0.1493187174
455297270.0 -0.0788919992 0.1572291047 0.324222697 -0.4567375497 0.3243735383 -0.4562576914 -0.1030478175 0.1502906736
460297240.0 -0.0765075405 0.158608102 0.3189326966 -0.4607009757 0.3187210406 -0.4602806662 -0.1014807246 0.1514588508
465297210.0 -0.0747775887 0.1591063508 0.3133372234 -0.4631823417 0.313408275 -0.4640752355 -0.1000625916 0.153171595
470297180.0 -0.0734256421 0.1599686832 0.3085272496 -0.4665986918 0.3091249096 -0.4668684568 -0.0983311293 0.1535826577
475297150.0 -0.0716811341 0.1614034958 0.3037546551 -0.470527151 0.3035039238 -0.4704720066 -0.0967106438 0.1549168343
480297120.0 -0.0692255141 0.1620997703 0.2980580885 -0.4735370912 0.2983846408 -0.4735635153 -0.0956008604 0.1558506919
485297090.0 -0.0678231986 0.1627837825 0.2931001352 -0.4768055336 0.2928931234 -0.4765614271 -0.0940899263 0.1570486716
490297060.0 -0.0652567851 0.1637821051 0.2873410175 -0.4801692161 0.2879343507 -0.4800464494 -0.0922593698 0.1578841028
495297030.0 -0.0640554194 0.1642693238 0.2831008528 -0.4832374358 0.2825251684 -0.4835347622 -0.0904380612 0.1590560806
500297000.0 -0.062328747 0.1653409873 0.2774437097 -0.4859368098 0.2774448417 -0.4864202072 -0.089284607 0.1604684294
505296970.0 -0.0598046278 0.166455739 0.2721112284 -0.4893865142 0.2719254048 -0.4888337324 -0.0874201313 0.1606874023
510296940.0 -0.0581333389 0.1668396532 0.2669801703 -0.4923793892 0.2671505093 -0.4925277001 -0.0857623973 0.1622779361
515296910.0 -0.0561800574 0.1679472305 0.260890136 -0.494803381 0.2610126003 -0.4948835064 -0.0843219147 0.1626525746
520296880.0 -0.0542404198 0.1688160869 0.2560764745 -0.4974858717 0.255979328 -0.4973105964 -0.0824778635 0.1642970911
525296850.0 -0.0522867988 0.1688381781 0.2502370051 -0.4999555922 0.2500431587 -0.500034308 -0.0807857437 0.1645348225
530296820.0 -0.050744389 0.1700809838 0.2449613653 -0.5031018074 0.2448976454 -0.5032058914 -0.0791616714 0.1655505672
535296790.0 -0.0480806789 0.1707340509 0.2395239448 -0.5053764808 0.2396755784 -0.5055541532 -0.0773883515 0.1670793561
540296760.0 -0.0458582943 0.1715544561 0.2336370363 -0.5078333914 0.2339310934 -0.5081750427 -0.0758774195 0.1672859125
545296730.0 -0.0448256098 0.172370379 0.2286578387 -0.5104800616 0.2281140521 -0.5105863745 -0.0739929878 0.1684891035
550296700.0 -0.0421998722 0.1727039498 0.2227449302 -0.5133972449 0.2225243839 -0.5129747038 -0.0724493438 0.1691686756
555296670.0 -0.0404833619 0.1736359584 0.2173908345 -0.5156279985 0.2175248753 -0.5153290245 -0.0708908627 0.1696533696
560296640.0 -0.0380198549 0.1738043447 0.2117297872 -0.5177666989 0.211967629 -0.517906661 -0.0691840247 0.1711567022
565296610.0 -0.0363610378 0.1746980416 0.2061715168 -0.5201714888 0.2061977148 -0.5195302273 -0.0674377603 0.171939119
570296580.0 -0.0345887176 0.1752803207 0.2004573281 -0.5221987213 0.2004677369 -0.5220669735 -0.0655400658 0.1719125646
575296550.0 -0.0322811677 0.1758300573 0.1950362379 -0.5242670124 0.1947114835 -0.5241797204 -0.0640101669 0.1728799224
580296520.0 -0.0300862583 0.1766978651 0.1893610856 -0.5262775428 0.1889395637 -0.5264006496 -0.0625424037 0.1736381213
585296490.0 -0.0282240745 0.1772052621 0.1835064833 -0.5280538692 0.1828426684 -0.5281774837 -0.0603638255 0.174489095
590296460.0 -0.0254303688 0.1775874985 0.1772778721 -0.5301937204 0.1774866043 -0.530429704 -0.0589317394 0.1753139388
595296430.0 -0.0236591293 0.1779477074 0.1709895033 -0.5319093247 0.1714427229 -0.5321099623 -0.0572386067 0.1757151928
600296400.0 -0.021571003 0.178645429 0.1652236755 -0.5338213648 0.1658571793 -0.5339072227 -0.0552292621 0.1765952376
605296370.0 -0.0198784195 0.1789050291 0.160637177 -0.5354260943 0.1595702165 -0.53572863 -0.0534429907 0.177630386
610296340.0 -0.0172210434 0.1799963116 0.1546092925 -0.5366656229 0.1543602041 -0.5373338365 -0.0518619296 0.1779867152
615296310.0 -0.0151531584 0.1797723703 0.1482928663 -0.5391091764 0.1482813556 -0.5390249799 -0.0500403205 0.1786824853
620296280.0 -0.0135845294 0.1809661169 0.1424831929 -0.5406536793 0.142384769 -0.5404564775 -0.048687591 0.179771576
625296250.0 -0.0115638206 0.1805579906 0.1364267372 -0.541880268 0.13694089 -0.5422345852 -0.0469570029 0.179859513
630296220.0 -0.0094567666 0.1812635934 0.1306771502 -0.5433945661 0.1307720315 -0.5431345065 -0.0447984374 0.1802553435
635296190.0 -0.0076519506 0.1819404447 0.1250734463 -0.5445589258 0.1249257762 -0.5442440861 -0.0433766145 0.1809446977
640296160.0 -0.0054543349 0.1820547456 0.118946188 -0.546143844 0.1189798288 -0.5460665406 -0.0415254596 0.1815705649
645296130.0 -0.0029294241 0.182666435 0.1132710146 -0.5471222928 0.1128207928 -0.5467542014 -0.0397978515 0.1819064128
650296100.0 -0.0010693103 0.1824959365 0.1071807372 -0.5481809298 0.1070015252 -0.5486284104 -0.0373087263 0.182446347
655296070.0 0.0006012403 0.1828984133 0.1011319696 -0.5495647843 0.1011488774 -0.5490221964 -0.0365285906 0.1833910506
660296040.0 0.0032069516 0.1833370629 0.0949404977 -0.5504808885 0.0952664253 -0.5505724377 -0.0343271499 0.1832467908
665296010.0 0.0051754923 0.1834715772 0.0888133193 -0.5510358296 0.0889550789 -0.551292685 -0.0324420499 0.1839689694
670295980.0 0.0067749866 0.1839546784 0.0832796075 -0.5523717024 0.0831981237 -0.5521580538 -0.0310813787 0.1845252406
675295950.0 0.009008045 0.1838767144 0.0771421479 -0.5525154042 0.0775012317 -0.5531895515 -0.0293191456 0.1848408722
680295920.0 0.0109529807 0.184411957 0.0716470811 -0.5537571442 0.0713751186 -0.5533648575 -0.0268339038 0.1848816834
685295890.0 0.0133716704 0.1841450319 0.0650716398 -0.5543990683 0.0651933729 -0.5547592629 -0.0254051174 0.1859168737
690295860.0 0.0148604764 0.1845950109 0.059689453 -0.5553320058 0.0591997053 -0.5552563369 -0.0235565394 0.1861434099
695295830.0 0.0172089992 0.1842387512 0.0537450233 -0.5556339221 0.0534632884 -0.5556822872 -0.0219608648 0.186561282
700295800.0 0.0193588948 0.1846085672 0.0479608367 -0.5563943626 0.0476449244 -0.5562390942 -0.0197778151 0.1869369462
705295770.0 0.020930866 0.1850387377 0.0416842069 -0.5571642248 0.0415953861 -0.55677245 -0.018027419 0.1877112821
710295740.0 0.0229788354 0.1843335285 0.0356552562 -0.5570708363 0.0351619846 -0.5572994251 -0.0159553687 0.1878362765
715295710.0 0.0247688874 0.1849138938 0.0299690703 -0.5575955088 0.0296380977 -0.5575272921 -0.0140865388 0.1877180298
720295680.0 0.0276691403 0.1844915093 0.0233150919 -0.5576865304 0.0232676263 -0.5580457992 -0.0124727009 0.1881294039
725295650.0 0.0290809 0.1849102967 0.0179433199 -0.5580890608 0.0177185303 -0.5579900437 -0.0108551921 0.1888027132
730295620.0 0.0305141135 0.1847572029 0.011645594 -0.5578591378 0.011506363 -0.5575124427 -0.0091084369 0.1892589054
735295590.0 0.0330104754 0.1845450768 0.0057791939 -0.5582529843 0.0055549567 -0.5580894837 -0.0072743704 0.1888777277
740295560.0 0.0348918815 0.1844789542 -0.000432911 -0.5582211881 3.7498e-06 -0.55824238 -0.0056151813 0.1892800457
745295530.0 0.0366029337 0.1843908029 -0.0060829991 -0.5575557132 -0.0059678107 -0.5578468276 -0.0041336067 0.1893763885
750295500.0 0.038557354 0.1843384103 -0.0121014511 -0.5575804862 -0.0124398046 -0.5581869765 -0.0019458608 0.1896118523
755295470.0 0.0405783003 0.1840804059 -0.0179164883 -0.5580334424 -0.0181804044 -0.5580588427 -0.0002132359 0.1903593741
760295440.0 0.042467715 0.1844785599 -0.0247594583 -0.5576794489 -0.0245552975 -0.5570112169 0.0020189349 0.1898734616
765295410.0 0.0447667993 0.1834930866 -0.0302743314 -0.5570885887 -0.0299124727 -0.556909931 0.0037781198 0.190189208
770295380.0 0.0464555144 0.1839352925 -0.0356048965 -0.5568979352 -0.0362040439 -0.5569079527 0.0053353516 0.1905356166
775295350.0 0.0482965268 0.1830273792 -0.0422288026 -0.5564268087 -0.042021521 -0.5559055637 0.0073357876 0.1905174817
780295320.0 0.050549532 0.1829857404 -0.0478215937 -0.5552987072 -0.0478241689 -0.5555991176 0.0093393317 0.1906113986
785295290.0 0.0521832152 0.1821537057 -0.0540770223 -0.5549698628 -0.0543252091 -0.5550910163 0.0108374935 0.1912254449
790295260.0 0.0542765975 0.1820220264 -0.0597665592 -0.5547040069 -0.0598483662 -0.5551032378 0.0125224053 0.1913668463
795295230.0 0.056166984 0.1815522994 -0.0662049849 -0.5544764422 -0.0656604526 -0.5537854365 0.0145244151 0.1902741894
800295200.0 0.0578142656 0.1815617938 -0.0712947598 -0.5530076035 -0.0716341856 -0.5531691058 0.0162551143 0.1908505284
805295170.0 0.0595707083 0.1811450958 -0.0776719211 -0.5524747312 -0.0776048971 -0.5528149533 0.0186489038 0.1908104715
810295140.0 0.0619148354 0.1804558362 -0.0837679043 -0.5513607262 -0.0840733477 -0.5517135212 0.0204232268 0.1910088073
815295110.0 0.0633053132 0.1802651612 -0.0894044372 -0.5507736999 -0.0892041416 -0.5508038048 0.0218238342 0.1908908471
820295080.0 0.0654208925 0.17979176 -0.0949686355 -0.5493326813 -0.0951697678 -0.549558117 0.0232170676 0.1912481817
825295050.0 0.0672835722 0.1789936831 -0.1014796671 -0.5484435558 -0.1014759541 -0.548466307 0.0260961395 0.1911186042
830295020.0 0.0693146934 0.1784280014 -0.1068762884 -0.5471584668 -0.107197203 -0.5476217298 0.027697283 0.1905262277
