!Created with skrf (http://scikit-rf.org).
# Hz S RI R 50.0 
!freq ReS11 ImS11 ReS21 ImS21 ReS12 ImS12 ReS22 ImS22
300000.0 -0.319564295 -0.0997919794 0.3734750583 0.050261359 0.3732591807 0.0546500409 -0.3166955922 -0.1107927601
5299970.0 -0.323781179 0.0051651553 0.3786711201 0.0024742712 0.3784380982 0.0029449673 -0.3260688619 0.0028282065
10299940.0 -0.3210624163 0.0155098431 0.3800005786 0.0024783003 0.3799010587 0.0022782493 -0.3242035847 0.0126959268
15299910.0 -0.3181286376 0.0237620771 0.3815311334 0.0019196698 0.3820410456 0.0022277818 -0.3215173837 0.0198609435
20299880.0 -0.3144513775 0.0300725502 0.384791371 0.0019896345 0.3850397447 0.0013519204 -0.3188304781 0.0259431041
25299850.0 -0.3104105105 0.0355474039 0.3882599077 -0.0002846621 0.3884001007 0.0002166825 -0.3158589348 0.0309338609
30299820.0 -0.3068019767 0.0403940713 0.3921342863 -0.0020330328 0.391721236 -0.0021919239 -0.3127093966 0.0353449976
35299790.0 -0.3030039884 0.0448975038 0.3951146704 -0.0051958362 0.3952459002 -0.005282891 -0.3099542883 0.0394617035
40299760.0 -0.2996624553 0.0482512179 0.3983516034 -0.0087097557 0.3985590913 -0.0086239281 -0.3073135047 0.0432367466
45299730.0 -0.2963716565 0.0514641638 0.4013719458 -0.0123986756 0.4008741763 -0.0127552479 -0.3045912635 0.0460783776
50299700.0 -0.2934006785 0.0542713708 0.4037306489 -0.0173587322 0.4038431898 -0.0176953368 -0.3020516273 0.0491693318
55299670.0 -0.2908475456 0.0566580922 0.4054988467 -0.0221621248 0.4059322456 -0.021847394 -0.3003595409 0.0517881909
60299640.0 -0.2881775248 0.0590689847 0.4076109183 -0.0272595471 0.4077407167 -0.0268637132 -0.2983470738 0.0544299162
65299610.0 -0.2861619629 0.061533665 0.4094754447 -0.0314680524 0.40944221 -0.0316306651 -0.2962994654 0.0570403825
70299580.0 -0.2839547114 0.0635390328 0.4107696204 -0.0367295236 0.4106502718 -0.0367767391 -0.2944080206 0.0594650492
75299550.0 -0.2818514438 0.065685362 0.4113889753 -0.0419981353 0.4113242275 -0.0422089763 -0.2928599019 0.0617490953
80299520.0 -0.2803755312 0.0680761507 0.4127946291 -0.047528959 0.4125605998 -0.0473112522 -0.2917581866 0.063983431
85299490.0 -0.2787521919 0.0699254673 0.4132614659 -0.0527839113 0.4130285675 -0.0526190827 -0.2904134211 0.0664769966
90299460.0 -0.2770109758 0.0720136385 0.4131978438 -0.0579409139 0.413581943 -0.0578854083 -0.2886388915 0.0685620031
95299430.0 -0.2756162434 0.0741129885 0.413925013 -0.0632357135 0.4138597125 -0.0631514329 -0.287567414 0.0712930618
100299400.0 -0.2742604836 0.0762908778 0.4134915861 -0.0680665773 0.4139511181 -0.0682345625 -0.2866815717 0.0731328392
105299370.0 -0.2731256146 0.0782653131 0.4133505777 -0.0734267622 0.4139631112 -0.0736100107 -0.2853177117 0.0754286677
110299340.0 -0.271977148 0.0803144923 0.4131771298 -0.0782801082 0.413554624 -0.0788475054 -0.2844442229 0.0779525707
115299310.0 -0.2707069491 0.0825966442 0.4129435891 -0.0838193377 0.4132563035 -0.0836555006 -0.2833559599 0.0799624583
120299280.0 -0.2699000279 0.0845561249 0.4130840932 -0.0888445432 0.4130368547 -0.0891003799 -0.2826897304 0.0825374569
125299250.0 -0.2688438289 0.0866997838 0.4121862847 -0.0939236967 0.4124399858 -0.0943332651 -0.2812239042 0.0848714023
130299220.0 -0.2675815768 0.0889373611 0.4114865791 -0.0989498716 0.4116388157 -0.0991769603 -0.2804834598 0.0873676987
135299190.0 -0.2665863601 0.0908569855 0.4107827726 -0.1036332216 0.4107025115 -0.1042498018 -0.2798811081 0.08964216
140299160.0 -0.2658342665 0.0937171683 0.410215501 -0.1090012308 0.4101820724 -0.1092805513 -0.2787165971 0.0920077831
145299130.0 -0.2649441814 0.0956571955 0.4095345591 -0.1136714151 0.4092537919 -0.1138522839 -0.2781690954 0.0944299285
150299100.0 -0.2638327399 0.0980704457 0.4082485733 -0.1189182627 0.4082256022 -0.1188040117 -0.2769090778 0.0969098673
155299070.0 -0.2632123307 0.1007848382 0.4072472516 -0.1239278317 0.4072526908 -0.1241200345 -0.2761829318 0.0991951119
160299040.0 -0.2619611727 0.103101301 0.405422 -0.1285835327 0.406140366 -0.1287140918 -0.275473769 0.1023663336
165299010.0 -0.2609431302 0.1054485809 0.4047057271 -0.1338815389 0.4047555507 -0.1335402119 -0.2744742616 0.1044263683
170298980.0 -0.2600269308 0.1078823787 0.4027989994 -0.1384093362 0.4034323192 -0.138457342 -0.2732977349 0.1071431437
175298950.0 -0.2592451039 0.1104951673 0.4025403835 -0.1431199962 0.4019105315 -0.1432599775 -0.2719993892 0.1097630188
180298920.0 -0.2580471776 0.1126099807 0.4006717411 -0.1481316191 0.4004827444 -0.1478424707 -0.2708778522 0.1125914707
185298890.0 -0.2569922171 0.1153162066 0.398618023 -0.1525625874 0.3989975489 -0.1524331775 -0.2704836917 0.1146450894
190298860.0 -0.2557753972 0.1178036838 0.3969001469 -0.1573220179 0.3976976561 -0.1573552892 -0.2689341359 0.117568097
195298830.0 -0.254639083 0.119989669 0.3956565398 -0.1617359166 0.3957459317 -0.1619420608 -0.2677467093 0.1201649413
200298800.0 -0.2536955201 0.1230238653 0.3939958851 -0.1665815072 0.3939970295 -0.1665068191 -0.2664564058 0.1230191372
205298770.0 -0.2527987706 0.1251171838 0.392381361 -0.1710058028 0.3922305698 -0.17111157 -0.2656929351 0.1252149709
210298740.0 -0.251585848 0.127990917 0.3905483938 -0.1761486596 0.3907395637 -0.1758622009 -0.2648872485 0.1283888829
215298710.0 -0.2504549173 0.130405741 0.3885441517 -0.1802533579 0.3883645297 -0.1799283701 -0.2635432155 0.1311322275
220298680.0 -0.2493115299 0.1329662738 0.3864224765 -0.1849344272 0.3866071725 -0.1846785194 -0.262039204 0.133777622
225298650.0 -0.2476474396 0.1355199711 0.3843314962 -0.1889396297 0.3845109228 -0.1890152359 -0.2613102478 0.1366168885
230298620.0 -0.2469561335 0.137910788 0.3830024602 -0.1932175336 0.3826207763 -0.193430838 -0.2596692019 0.1388340699
235298590.0 -0.2455833912 0.1405391673 0.3804816707 -0.1975764054 0.3804744548 -0.1979561742 -0.258453532 0.1413183069
240298560.0 -0.2440776791 0.1433225517 0.3782395707 -0.2020458983 0.3784281182 -0.2019097045 -0.2570220392 0.144526126
245298530.0 -0.2427125414 0.1457692878 0.3756063009 -0.2066857704 0.3758380829 -0.2065148065 -0.2555753729 0.1470397394
250298500.0 -0.2416403655 0.1486539385 0.3737538494 -0.2105900572 0.3739098788 -0.2104842836 -0.2542144447 0.1498672483
255298470.0 -0.2399001022 0.1509450649 0.371073157 -0.2155531275 0.3713372933 -0.21496078 -0.2526812594 0.1524195794
260298440.0 -0.2386229681 0.1534976238 0.369156884 -0.2190275342 0.3690322353 -0.2194163839 -0.2508833864 0.1550679324
265298410.0 -0.2371152497 0.1563169863 0.3664899533 -0.2237384588 0.3665538541 -0.2234549796 -0.2497997045 0.157744867
270298380.0 -0.2356513716 0.1586981602 0.3637643595 -0.2276449108 0.3642700935 -0.2281244647 -0.2480435572 0.1606660681
275298350.0 -0.234205709 0.1610983857 0.3615310758 -0.232012698 0.3619851826 -0.231855951 -0.24651177 0.1631782665
280298320.0 -0.2328252482 0.163821304 0.3593103629 -0.2356377932 0.3591552451 -0.2361492597 -0.2450130143 0.1659183598
285298290.0 -0.2308635621 0.1665043672 0.3565456392 -0.2398276255 0.3561692704 -0.2401720156 -0.2433755223 0.1686068139
290298260.0 -0.2291764859 0.1687573423 0.3539956502 -0.2441252604 0.3539726621 -0.243852873 -0.2413333246 0.1715901983
295298230.0 -0.2279844712 0.1712439965 0.3511956474 -0.2479283306 0.3510149593 -0.2481034594 -0.2393628433 0.1739960597
300298200.0 -0.2257566959 0.1737843388 0.3483099387 -0.2522135756 0.348544105 -0.2523639754 -0.237966304 0.1767402704
305298170.0 -0.2240244988 0.1760222141 0.3457550294 -0.2560435624 0.345894584 -0.2561156628 -0.2357390598 0.1792104955
310298140.0 -0.2220453983 0.1783425443 0.3429529385 -0.2598166226 0.3430997153 -0.260316767 -0.234199322 0.1821950036
315298110.0 -0.2207924966 0.1810350409 0.3398786775 -0.2640214602 0.3402360392 -0.2638942422 -0.2322200613 0.1842583031
320298080.0 -0.2188549231 0.1833381546 0.3369634526 -0.2675244479 0.3371534075 -0.2678807296 -0.2301243249 0.1869160499
325298050.0 -0.2167879223 0.185421311 0.3341948538 -0.2716916153 0.3340108636 -0.2716727695 -0.228268754 0.1893201822
330298020.0 -0.2155240076 0.1880964703 0.3305728401 -0.2752324289 0.3306903497 -0.2752607135 -0.2265397398 0.1915984045
335297990.0 -0.2132575929 0.1901087923 0.327724093 -0.2792638964 0.327528515 -0.2791431058 -0.2247249101 0.1943064659
340297960.0 -0.2117836941 0.1931857912 0.3242804691 -0.282925133 0.3245831607 -0.2828670901 -0.2229475578 0.1967948196
345297930.0 -0.2100079037 0.1951504489 0.321331111 -0.2858904808 0.3209990283 -0.28603376 -0.2207598601 0.1993418474
350297900.0 -0.2077645576 0.1975367763 0.3177135962 -0.2895484426 0.318157405 -0.2897643021 -0.2188847234 0.2022861254
355297870.0 -0.2058959284 0.1998395568 0.3145029827 -0.2929040467 0.314920294 -0.2934116755 -0.2169557818 0.204651869
360297840.0 -0.2038311154 0.2023014765 0.3111961742 -0.296574721 0.3115023239 -0.2967838894 -0.2149467828 0.2072272153
365297810.0 -0.2020095901 0.2047394069 0.3081351635 -0.3001491292 0.3079375833 -0.3001453102 -0.21266169 0.2098715764
370297780.0 -0.1996610998 0.2069173473 0.3045226005 -0.3035963992 0.3047631874 -0.3035739022 -0.2104300521 0.2119826952
375297750.0 -0.1976629982 0.2090400217 0.3015989239 -0.306473208 0.3015969586 -0.307051801 -0.2083273378 0.2145903381
380297720.0 -0.1954742202 0.211248513 0.2983546795 -0.3096285075 0.2979143991 -0.3099502717 -0.2058971344 0.2173838955
385297690.0 -0.1932270278 0.2137672934 0.2944139064 -0.3133194475 0.2942592821 -0.313411159 -0.2037922149 0.2200168412
390297660.0 -0.1909864434 0.2160625143 0.2908806069 -0.3169813786 0.2906886591 -0.316967518 -0.2011088864 0.2218550595
395297630.0 -0.1886864995 0.2178923683 0.2875854349 -0.3196073655 0.2874668417 -0.319701817 -0.1991526746 0.2243595907
400297600.0 -0.1865447482 0.2203477102 0.2837762603 -0.3227525153 0.2843122238 -0.3226656284 -0.1970998214 0.2266543543
405297570.0 -0.1841125409 0.2223622828 0.2804426134 -0.3262003992 0.2805132653 -0.3262263505 -0.1947683056 0.2290882784
410297540.0 -0.1817711038 0.2244316118 0.2762724344 -0.3285965971 0.2761884384 -0.328898145 -0.1919580563 0.2314073102
415297510.0 -0.1797614211 0.226619598 0.2727111187 -0.3319180675 0.2731438217 -0.3320646026 -0.1900516627 0.2337982462
420297480.0 -0.1769965397 0.22841138 0.2692267101 -0.335011171 0.2693981577 -0.3351412315 -0.1874375975 0.2355969945
425297450.0 -0.1745615917 0.2305114462 0.2653454209 -0.338109742 0.2660187916 -0.3380120342 -0.1849902668 0.238224681
430297420.0 -0.1724028746 0.2327901284 0.2620256735 -0.3409173228 0.2617588999 -0.3404622656 -0.1827058752 0.2400250818
435297390.0 -0.1700806261 0.2343642014 0.2578632994 -0.3433669552 0.2581912841 -0.3433746027 -0.1798954605 0.2428378856
440297360.0 -0.1672451321 0.236745384 0.2540252208 -0.3464977472 0.2539783346 -0.346633961 -0.1774311724 0.2443688835
445297330.0 -0.1649351445 0.2383175728 0.2499925644 -0.3493195866 0.2502981119 -0.3490064294 -0.1750311585 0.2465611121
450297300.0 -0.1621070268 0.2403075383 0.2462043085 -0.352086857 0.2465643258 -0.3518894703 -0.1726450294 0.2487162748
455297270.0 -0.1598576157 0.2421784831 0.2430035719 -0.3543740437 0.2429980341 -0.3544160977 -0.1700754231 0.2507364907
460297240.0 -0.1574135813 0.2439922321 0.2384631802 -0.3568832397 0.2383013663 -0.3568180548 -0.1669392632 0.2528418994
465297210.0 -0.1546317314 0.2459706558 0.2348196744 -0.3597584516 0.2349279643 -0.3595110727 -0.1647677947 0.2545512357
470297180.0 -0.152258129 0.2474532088 0.2308242329 -0.3619874476 0.2311748809 -0.3621754153 -0.1625831033 0.2569658418
475297150.0 -0.1497313447 0.2495801846 0.2269593014 -0.3643923409 0.2270751648 -0.3641133852 -0.1593107476 0.2588035199
480297120.0 -0.1471733562 0.250701218 0.2227976154 -0.3667146939 0.2230655068 -0.367080302 -0.1568673313 0.2609177568
485297090.0 -0.1442597358 0.2525928453 0.2188421227 -0.3692825219 0.2191428635 -0.3692310593 -0.1544063875 0.2623527318
490297060.0 -0.1415397246 0.2543033509 0.2147655435 -0.3716463379 0.2147776472 -0.3718518819 -0.151529827 0.2645299547
495297030.0 -0.1392650949 0.2559826598 0.2103462887 -0.373741084 0.2102066832 -0.3740657044 -0.1490327486 0.2660165795
500297000.0 -0.1362219089 0.2573354133 0.2063209685 -0.3762527561 0.2065213318 -0.3761511649 -0.146059835 0.2677446041
505296970.0 -0.1336891923 0.2588888392 0.2023132338 -0.3778387607 0.2023503396 -0.3780269388 -0.1439846394 0.2694823435
510296940.0 -0.130822573 0.2610130959 0.1983649835 -0.3805638356 0.1982808105 -0.3804924765 -0.1404131734 0.2712159648
515296910.0 -0.1283752073 0.2626033843 0.194214512 -0.3826072994 0.1938587311 -0.3826491486 -0.137883639 0.2727407712
520296880.0 -0.1254401691 0.2634363938 0.1899476372 -0.3843275983 0.1899559463 -0.3845102503 -0.1352133434 0.2744299181
525296850.0 -0.1224131932 0.2651879478 0.1854591995 -0.3864141326 0.1855681838 -0.3867603676 -0.1321377928 0.2761449045
530296820.0 -0.1198747576 0.2666617254 0.1816322191 -0.388036773 0.181301535 -0.388343412 -0.1295363821 0.2774734523
535296790.0 -0.1168035406 0.2679439371 0.177051255 -0.3901244244 0.1771870987 -0.3903425052 -0.126940397 0.2790265041
540296760.0 -0.1142844438 0.2692674748 0.172844913 -0.3925222182 0.1726318414 -0.3923774725 -0.124180216 0.2807915956
545296730.0 -0.1114226887 0.2707495731 0.1683360017 -0.3939234458 0.1685635976 -0.3941871041 -0.1211635862 0.2819639399
550296700.0 -0.1091522897 0.2721804541 0.1642814656 -0.3957555321 0.1646497655 -0.3961469139 -0.1183925515 0.2835667734
555296670.0 -0.1054504073 0.2734835979 0.1600488475 -0.397926889 0.1598950315 -0.3975717749 -0.1153192502 0.2852737353
560296640.0 -0.102600754 0.2745885064 0.1555930947 -0.3989901095 0.1558223042 -0.3990485071 -0.1124388683 0.2864544812
565296610.0 -0.100163682 0.2759604942 0.1511776176 -0.4009291112 0.1510382197 -0.4008719725 -0.1098580688 0.2878550907
570296580.0 -0.0970868255 0.277095628 0.1468360318 -0.4025005345 0.1471253802 -0.4025383329 -0.1065391256 0.2895454592
575296550.0 -0.0939065375 0.27839482 0.1421406918 -0.4040604791 0.1429534641 -0.4039304932 -0.1036278295 0.2900999391
580296520.0 -0.0911399634 0.2795392009 0.1380192964 -0.4056138155 0.1381718461 -0.4056275575 -0.1006286295 0.2915019833
585296490.0 -0.087968225 0.2803367799 0.13368774 -0.4072289001 0.1335443099 -0.4067270853 -0.0977158663 0.2923251952
590296460.0 -0.0851697246 0.2810748683 0.1290575442 -0.4082356577 0.1291850822 -0.4086512985 -0.0942873187 0.293842234
595296430.0 -0.0822447188 0.2827430052 0.1247245644 -0.4095138518 0.1250192761 -0.4098591527 -0.091471969 0.2946326257
600296400.0 -0.0794416999 0.2835091864 0.1203154817 -0.4108946123 0.1206341382 -0.411222215 -0.0884758439 0.2961182334
605296370.0 -0.0761099167 0.2847687163 0.1156600179 -0.4123846933 0.1160672136 -0.4123169009 -0.0853938959 0.2973811278
610296340.0 -0.0732703302 0.2855244563 0.1116119362 -0.4132116603 0.1114854652 -0.4135411397 -0.0822723576 0.2985216604
615296310.0 -0.0701900745 0.2863743295 0.1068891283 -0.4144779676 0.1065995763 -0.4147133735 -0.0794758045 0.2991678089
620296280.0 -0.0672140357 0.2870199591 0.1023760281 -0.4153284241 0.1024781689 -0.4156994838 -0.0767876016 0.3000815665
625296250.0 -0.0642582423 0.2881434459 0.0975236821 -0.416791855 0.0975378393 -0.4166776858 -0.0730611881 0.3011441107
630296220.0 -0.0610442839 0.2892014314 0.0929260969 -0.4179054962 0.0934159919 -0.4179079372 -0.0702866955 0.3021056017
635296190.0 -0.0582506408 0.2901281203 0.0890158348 -0.4184782131 0.0885012818 -0.4182547767 -0.0670456763 0.3022388664
640296160.0 -0.0551103611 0.2901817267 0.0844833998 -0.419418293 0.0843606031 -0.4195399214 -0.0638479641 0.303494041
645296130.0 -0.0520397653 0.2915401756 0.0793744018 -0.4204530292 0.0797432549 -0.4203987454 -0.0610175923 0.3042991404
650296100.0 -0.0489801668 0.2924056562 0.0752481984 -0.4212457389 0.0753173797 -0.4212683009 -0.0577696171 0.3051741875
655296070.0 -0.0459732665 0.2924635409 0.0704514785 -0.4215168091 0.0703388451 -0.4222238747 -0.0538227482 0.306066812
660296040.0 -0.0428884305 0.2936374197 0.0663580464 -0.422586917 0.0661551543 -0.4225696445 -0.0514302695 0.3068521363
665296010.0 -0.039553263 0.2937386268 0.0615758329 -0.4232394296 0.0617901301 -0.4230033691 -0.0483895051 0.3075050417
670295980.0 -0.0361896141 0.2944699099 0.0566567335 -0.4238372445 0.0568268371 -0.4237350605 -0.0451760255 0.3078820909
675295950.0 -0.0335024502 0.2948810725 0.0523679086 -0.4241804054 0.0527117931 -0.4247963942 -0.0420175721 0.3088000108
680295920.0 -0.0300874366 0.2957281306 0.0476825974 -0.4248727687 0.0473753477 -0.425009047 -0.0384869817 0.3091530819
685295890.0 -0.0270290865 0.2959173985 0.042951509 -0.4252487126 0.0428372875 -0.4254848201 -0.0352224272 0.3098064892
690295860.0 -0.0239079799 0.2965255796 0.0384693702 -0.42519344 0.0382538826 -0.4257163943 -0.0318339655 0.3103548896
695295830.0 -0.0205105463 0.2967865431 0.0331278926 -0.4258332426 0.0335840349 -0.4261383018 -0.02917726 0.3109437377
700295800.0 -0.0173480862 0.297086298 0.0289103747 -0.4264491791 0.0292315854 -0.4262470568 -0.0258009261 0.3105665759
705295770.0 -0.0141428389 0.2974249804 0.0243892176 -0.4264084037 0.0247325029 -0.4266536869 -0.0225960448 0.311571379
710295740.0 -0.0113686135 0.2980084326 0.0200045751 -0.4271048103 0.0199419354 -0.4268479284 -0.0197154871 0.3122842063
715295710.0 -0.0082535428 0.2980887011 0.0152920176 -0.4267520304 0.0155992452 -0.427262049 -0.0160273736 0.3120366987
720295680.0 -0.005239389 0.2979250682 0.0104280234 -0.4268552224 0.0107078078 -0.4276722903 -0.0128520208 0.3127587282
725295650.0 -0.0016208113 0.2987715093 0.0056114681 -0.427058778 0.0061680995 -0.4272037993 -0.0095444894 0.3131576524
730295620.0 0.0013660424 0.2985509954 0.0012976415 -0.4268866066 0.0013888238 -0.4271754172 -0.0062948451 0.3129043033
735295590.0 0.0045904125 0.2986639257 -0.0032643149 -0.4269986897 -0.0026238318 -0.4270489833 -0.0029651185 0.3133153229
740295560.0 0.0076648265 0.2991419155 -0.0080763687 -0.4268959873 -0.0080168921 -0.426658281 0.0005046004 0.3127852376
745295530.0 0.0106347419 0.2988122189 -0.0126640846 -0.4269367746 -0.0122791466 -0.4272481292 0.0034279145 0.3136522618
750295500.0 0.0139075555 0.298953922 -0.0172788191 -0.4264352723 -0.0172519709 -0.4265811319 0.0069647965 0.3129949547
755295470.0 0.0176532235 0.2991245805 -0.0216856347 -0.4261861422 -0.0212402652 -0.4268036427 0.0097361187 0.3138220867
760295440.0 0.0202714144 0.2988973431 -0.0264949172 -0.4257203581 -0.026130891 -0.426387267 0.0127825493 0.313663554
765295410.0 0.0236514241 0.2988583135 -0.0305963944 -0.4258247006 -0.0308797299 -0.4262117027 0.0168475425 0.3139586834
770295380.0 0.0269363451 0.2989350131 -0.0356915371 -0.4251262918 -0.0358131165 -0.4257334633 0.0201330041 0.3137221744
775295350.0 0.0299679095 0.2985328027 -0.0399266789 -0.4247462775 -0.0397682695 -0.4247449442 0.0228009823 0.313381456
780295320.0 0.0333752759 0.29834602 -0.0446252759 -0.4244214693 -0.0442747894 -0.4245940525 0.0263805107 0.3136939059
785295290.0 0.036303091 0.2983878877 -0.0491756332 -0.4236596921 -0.049161343 -0.4237979346 0.0290497913 0.3135354112
790295260.0 0.0392094277 0.2981387184 -0.0537639994 -0.4232058134 -0.0536251355 -0.4236019882 0.0327910607 0.3134568852
795295230.0 0.0425591718 0.2978772569 -0.0581891787 -0.4222003597 -0.0579655103 -0.4227480352 0.0360374715 0.3135453465
800295200.0 0.045861784 0.297455308 -0.0628755816 -0.4218047328 -0.0631027977 -0.4222049603 0.0392003908 0.313005635
805295170.0 0.0487212194 0.2973061009 -0.0674434068 -0.4207668369 -0.0673934441 -0.4210280025 0.042272699 0.3123396662
810295140.0 0.051926283 0.2966113662 -0.0716088722 -0.4203917181 -0.0718567301 -0.4209638679 0.0459391328 0.3128846035
815295110.0 0.0551808755 0.2961183325 -0.0764518471 -0.4191196898 -0.0768728038 -0.4193523563 0.0491947604 0.3118495944
820295080.0 0.0584769446 0.2958726207 -0.0814070308 -0.4185828497 -0.080864639 -0.4188792224 0.0519923514 0.3116654276
825295050.0 0.0615523404 0.2953555278 -0.0855935987 -0.4176224804 -0.085402775 -0.417455501 0.0557014882 0.311006504
830295020.0 0.0649305142 0.295146991 -0.090330459 -0.4165733918 -0.0902432581 -0.4167552101 0.0583922361 0.3107532293
