!Created with skrf (http://scikit-rf.org).
# Hz S RI R 50.0 
!freq ReS11 ImS11 ReS21 ImS21 ReS12 ImS12 ReS22 ImS22
300000.0 -0.0953987053 -0.0859806125 0.621826461 0.0815604488 0.6240196352 0.0851451148 -0.0963017701 -0.0962503857
5299970.0 -0.1002165094 0.0127908901 0.6306294287 0.0106248218 0.6309019421 0.0112646176 -0.1019945704 0.0119703965
10299940.0 -0.0954660184 0.0296866064 0.634541535 0.0155653852 0.6347449776 0.0158859998 -0.0969700691 0.0287604364
15299910.0 -0.0884815525 0.0430890311 0.6400797646 0.0207112098 0.6405959554 0.0208142186 -0.0897133905 0.0423637627
20299880.0 -0.0795789304 0.0543541182 0.6490584971 0.0241513728 0.6486999789 0.0240731423 -0.0815841835 0.0533152457
25299850.0 -0.0697493709 0.0627814291 0.6575230821 0.0249713564 0.6578363599 0.0255839363 -0.0723299631 0.0620438292
30299820.0 -0.059528538 0.069153622 0.6677201143 0.0244720012 0.6677197525 0.0243078664 -0.0623356898 0.0687388028
35299790.0 -0.0493869671 0.0740675863 0.6774473065 0.0219474451 0.6773955156 0.0216422985 -0.0524683917 0.0734604116
40299760.0 -0.0395579872 0.0769667939 0.6864948556 0.0178244256 0.6865718018 0.0175713759 -0.0435627085 0.0769340931
45299730.0 -0.0303871992 0.0792908573 0.6959702343 0.0117534396 0.6956938815 0.0123307236 -0.0340300782 0.0793698838
50299700.0 -0.0216502255 0.0796390647 0.7030319216 0.0050285221 0.7035731954 0.0044374709 -0.0254811886 0.0801273382
55299670.0 -0.0141286106 0.0797355869 0.7100076402 -0.0033353206 0.7107930236 -0.0026872525 -0.0177586218 0.0800528771
60299640.0 -0.0065983741 0.0786341962 0.7169376003 -0.0118145118 0.717796036 -0.0115480611 -0.0101408085 0.0797822887
65299610.0 -0.0001078232 0.077855356 0.7236227698 -0.0195116699 0.7239178205 -0.0200771333 -0.0033566944 0.0786222091
70299580.0 0.0058163901 0.075876148 0.7283641666 -0.028953441 0.7281578207 -0.0290992393 0.0022079217 0.0771444761
75299550.0 0.0114981855 0.0742939672 0.7326476316 -0.0386234913 0.7332638608 -0.0388451534 0.0081144576 0.0759261174
80299520.0 0.0161357019 0.0721673413 0.7378262419 -0.0488854647 0.7379110069 -0.0488424991 0.0134000374 0.0729782112
85299490.0 0.020974413 0.069458966 0.7407248453 -0.0587179874 0.7404142058 -0.0585598838 0.0173943094 0.0709857685
90299460.0 0.0246893515 0.0673295825 0.7432575809 -0.0686735848 0.7434958172 -0.0688777884 0.0223136941 0.0689921447
95299430.0 0.0280887338 0.0652575058 0.746224835 -0.078834286 0.7461566916 -0.078795821 0.0251234161 0.0663841963
100299400.0 0.0313746669 0.0623567004 0.7473562679 -0.0894397217 0.7477156617 -0.0896163073 0.0282887537 0.0640176807
105299370.0 0.0347618861 0.0600100348 0.7487953797 -0.0987999215 0.749001609 -0.0995052458 0.0318176 0.0616630221
110299340.0 0.0367681337 0.0576977125 0.7494221709 -0.1091246919 0.7498444022 -0.1096743211 0.0345484795 0.0591690797
115299310.0 0.0397644657 0.0550608068 0.7508548894 -0.11887299 0.7512392189 -0.1188110809 0.0369196306 0.0562125576
120299280.0 0.0414619011 0.0527113196 0.7517534081 -0.1292255589 0.751487064 -0.1294498309 0.0387335992 0.05412349
125299250.0 0.0431844291 0.0502104873 0.7522098395 -0.1391870249 0.7520003908 -0.1397282978 0.0410038971 0.0513581133
130299220.0 0.0450261471 0.047935938 0.7511872919 -0.148603086 0.7517986044 -0.1495881778 0.0431309399 0.0497153749
135299190.0 0.0468633091 0.0455700503 0.7514873 -0.158841728 0.7512761539 -0.1589238713 0.0444938537 0.0474908408
140299160.0 0.0478265495 0.0443619276 0.7509141714 -0.1687340505 0.7511795779 -0.1687675466 0.0461431481 0.0455032201
145299130.0 0.0492490667 0.0418979239 0.7505187457 -0.1786129278 0.7500462705 -0.1780816381 0.0472438833 0.0426406506
150299100.0 0.0506109679 0.0398768805 0.7492688842 -0.1881606506 0.749265856 -0.1879361674 0.0486473045 0.0408697936
155299070.0 0.051308334 0.0381047914 0.7476719212 -0.1982689991 0.7476713985 -0.1982851604 0.0492617056 0.0389181187
160299040.0 0.0522598358 0.0360516124 0.7462434345 -0.206623947 0.746239141 -0.206927467 0.0505456846 0.037269439
165299010.0 0.0528604273 0.034411317 0.7450889258 -0.216905885 0.7451423041 -0.2168545236 0.0515360172 0.0346670098
170298980.0 0.0534919236 0.0326299093 0.7422200322 -0.2257163226 0.7425795678 -0.2262121147 0.0527743154 0.0329911749
175298950.0 0.0544114407 0.0305417573 0.7416656423 -0.2357241539 0.7414012655 -0.2353794804 0.0531558838 0.0310918851
180298920.0 0.0553370954 0.0291209922 0.7392653205 -0.2448562828 0.7388499841 -0.2443391779 0.0537108703 0.0299741174
185298890.0 0.0561140758 0.0272491797 0.7366524996 -0.2540909059 0.7371041269 -0.2532987561 0.0541539227 0.0276271352
190298860.0 0.0562665097 0.0259327872 0.7339128825 -0.2631205875 0.7345794922 -0.2632143614 0.0555629273 0.0261094061
195298830.0 0.0563606461 0.0240383867 0.7311965647 -0.2713958333 0.7318398033 -0.2718498099 0.0557403072 0.0244729842
200298800.0 0.0570854307 0.0227985489 0.7298551827 -0.2801693516 0.7291337292 -0.2802527891 0.0560458503 0.0232544306
205298770.0 0.0571104819 0.0216598365 0.7267437404 -0.2890154318 0.726785745 -0.2895800011 0.0564005615 0.0207955908
210298740.0 0.0569489913 0.0195961921 0.724036649 -0.29875091 0.723987752 -0.2988134513 0.0566543244 0.0199278487
215298710.0 0.0579877572 0.0186884532 0.7206941347 -0.3068261815 0.7207946167 -0.3064726641 0.0568311189 0.0182621554
220298680.0 0.0583210583 0.0170565332 0.7174351103 -0.3158483665 0.7174696979 -0.3156394966 0.0575022755 0.0171320314
225298650.0 0.0586258846 0.0161367042 0.7137606884 -0.3238331903 0.7138713369 -0.3239393915 0.0576037664 0.0155878274
230298620.0 0.0582081185 0.0150860338 0.711241335 -0.3323201393 0.7110309147 -0.3328837765 0.0578590091 0.0142178572
235298590.0 0.0588363334 0.0134079577 0.7074260272 -0.3407110485 0.7076544686 -0.3417829405 0.0577128026 0.012532241
240298560.0 0.058351717 0.0122242092 0.7040104613 -0.3493717804 0.7040216994 -0.3491098618 0.0581760276 0.0118355915
245298530.0 0.0590809548 0.0112610804 0.6994821907 -0.3577525163 0.6999482 -0.3582159444 0.0584349726 0.0107064088
250298500.0 0.0585153042 0.0097118911 0.6959864167 -0.365549473 0.6966313447 -0.3656623179 0.058695804 0.0088915024
255298470.0 0.0583266593 0.0090501947 0.6912465045 -0.3742100006 0.6923186467 -0.3742879553 0.0589460987 0.0072870051
260298440.0 0.058347088 0.0076232527 0.6878516791 -0.3817922375 0.6883804007 -0.3825303731 0.0594553804 0.0067874958
265298410.0 0.0590532514 0.0070556192 0.6837116915 -0.3909105889 0.6838599384 -0.3910196359 0.0587465913 0.0052034963
270298380.0 0.0591434717 0.0055612085 0.6796759275 -0.3984113759 0.6802133284 -0.3982402791 0.059207931 0.0051889419
275298350.0 0.0586400596 0.0047103661 0.675455108 -0.4069487057 0.6756524087 -0.4066434972 0.0590696955 0.0035924693
280298320.0 0.058727202 0.0041025579 0.6708605487 -0.4140134212 0.6711473455 -0.4141069453 0.0592012736 0.0026305839
285298290.0 0.0588550636 0.0031270096 0.6669783754 -0.4219373864 0.6668042878 -0.4220323049 0.058833827 0.0017277227
290298260.0 0.0587818351 0.0017723379 0.6625796115 -0.4299432342 0.662232532 -0.4297033909 0.0597665706 0.0007378596
295298230.0 0.0588024653 0.000710586 0.6578751736 -0.4376921533 0.6576038632 -0.4374866206 0.0598380042 -0.0004159866
300298200.0 0.0594405475 -9.5813e-05 0.6529634131 -0.4448674242 0.6529795919 -0.4455915759 0.0593322506 -0.0015876844
305298170.0 0.0590122381 -0.0012529105 0.6486628916 -0.4529512809 0.6487387603 -0.4529549296 0.0599131675 -0.0022838814
310298140.0 0.0594188616 -0.0024452389 0.6440547246 -0.4606077176 0.6435033391 -0.4609840909 0.0599553007 -0.0028589823
315298110.0 0.0589696298 -0.0035117766 0.6374652379 -0.4682146915 0.6382982136 -0.4680961516 0.0599848764 -0.0049014001
320298080.0 0.0587004394 -0.0045126234 0.6327911288 -0.4757972699 0.6334705024 -0.4757732108 0.0594344053 -0.0060660945
325298050.0 0.0585038146 -0.0059345482 0.6285928727 -0.4834126567 0.6282348621 -0.4838284817 0.059531225 -0.0070243732
330298020.0 0.0580402267 -0.0065276327 0.621861047 -0.4908822388 0.6221242759 -0.4912253075 0.0587957182 -0.008049733
335297990.0 0.0576918382 -0.0077173397 0.6167266188 -0.4976389904 0.6163621156 -0.4979157335 0.0584672682 -0.0087937257
340297960.0 0.0566325032 -0.0080350598 0.6096850346 -0.5045782284 0.6107486649 -0.5042345982 0.0577652423 -0.0092999541
345297930.0 0.0563377485 -0.0085913458 0.6045324676 -0.5106636438 0.604405889 -0.5109199733 0.0577077138 -0.0107960255
350297900.0 0.0563603551 -0.0094201243 0.5993254862 -0.5175023423 0.599564015 -0.5179702613 0.0570128073 -0.0106711429
355297870.0 0.0558495152 -0.0102940212 0.5933457909 -0.5244404214 0.5929108998 -0.5248040684 0.0567009509 -0.0113641686
360297840.0 0.0560902988 -0.0106604565 0.5879511695 -0.5310474502 0.5877266795 -0.5317841538 0.0564503916 -0.0117129312
365297810.0 0.0557676918 -0.0115178561 0.5817906469 -0.5370681952 0.5817567621 -0.5383734857 0.0559243542 -0.0120213553
370297780.0 0.0558074832 -0.0124643257 0.5760279183 -0.5444004867 0.5753477648 -0.545004852 0.0561734216 -0.012786863
375297750.0 0.0549957731 -0.0122326293 0.569730403 -0.5506998076 0.5693424716 -0.5513789579 0.0557185083 -0.0135555143
380297720.0 0.0549708485 -0.0138120132 0.5636112723 -0.5572475707 0.5635928061 -0.5570183007 0.0557273829 -0.0142454794
385297690.0 0.0549125037 -0.0142489619 0.5573319507 -0.5633224212 0.5572780427 -0.5636902308 0.0551074491 -0.0148850083
390297660.0 0.0541167926 -0.0147698384 0.5506387751 -0.5695583356 0.5512418493 -0.5705180709 0.0548159446 -0.0155178569
395297630.0 0.054582206 -0.0156105633 0.5447324264 -0.5754887001 0.5449528006 -0.5758985417 0.0544281164 -0.0153168142
400297600.0 0.0537143031 -0.0158791508 0.5381488429 -0.581457788 0.5389070256 -0.5825334447 0.0532653026 -0.016699789
405297570.0 0.0538119554 -0.0166265767 0.5316880477 -0.5876836024 0.5325926239 -0.5879151554 0.0536277645 -0.0167533566
410297540.0 0.0538292729 -0.0173434308 0.5253009169 -0.5939267113 0.525233881 -0.5939302094 0.0532750161 -0.017635033
415297510.0 0.053327057 -0.0172810701 0.5192765409 -0.5996124421 0.5190707044 -0.599637826 0.0528370158 -0.0177595791
420297480.0 0.0532001344 -0.0187958931 0.5124694688 -0.6054644485 0.5126064881 -0.6055162236 0.052820223 -0.0191005552
425297450.0 0.0531759869 -0.0195903735 0.5057741807 -0.6111342858 0.5060949936 -0.6108709684 0.0522599821 -0.018922187
430297420.0 0.0527653967 -0.0194129694 0.4990740091 -0.6169820445 0.4994296251 -0.6169073599 0.0517185112 -0.0200811783
435297390.0 0.05250452 -0.0206519994 0.4925884705 -0.6218945449 0.4926642349 -0.6217537196 0.0511107427 -0.019881182
440297360.0 0.0525109162 -0.021393432 0.4846855269 -0.6274628264 0.4850593957 -0.6275551531 0.0508355659 -0.0215546388
445297330.0 0.0524462834 -0.0219434713 0.4781128718 -0.6336240771 0.4784437661 -0.6333528984 0.0505236964 -0.0215641908
450297300.0 0.0518481618 -0.0226236558 0.4710432365 -0.6381527345 0.4714773541 -0.6387029501 0.0501095497 -0.0218516419
455297270.0 0.0511402035 -0.0233594549 0.4646573276 -0.6435638524 0.4649995287 -0.6432874153 0.050068462 -0.0224337755
460297240.0 0.0503538613 -0.0237429136 0.4570279976 -0.648459342 0.4567847762 -0.6488120588 0.0497000061 -0.0224240275
465297210.0 0.0506877361 -0.0246300797 0.4504968892 -0.6537138086 0.4504771309 -0.6539216169 0.0490044374 -0.0235347979
470297180.0 0.0501630536 -0.0252501735 0.4429322929 -0.6583196691 0.4434539259 -0.6590708922 0.0478322385 -0.0240535606
475297150.0 0.0493316568 -0.0263747797 0.4353786479 -0.6630322535 0.4358417566 -0.6630412585 0.0481576949 -0.0244917524
480297120.0 0.049796566 -0.0267769285 0.4284879562 -0.6680579836 0.4289232064 -0.6679830153 0.0477658371 -0.02463123
485297090.0 0.0493358954 -0.0272211755 0.4213794687 -0.6730881587 0.4210953094 -0.6731023852 0.0470494641 -0.0255875902
490297060.0 0.0490733258 -0.0282164455 0.4143720808 -0.677915271 0.4143130763 -0.6779213637 0.0467930369 -0.0256945503
495297030.0 0.0480320356 -0.0281951841 0.4059479698 -0.6822993748 0.4062669673 -0.6824518855 0.0466793671 -0.0262332209
500297000.0 0.0481319252 -0.0292239208 0.398661597 -0.6868079293 0.3987597888 -0.6867956404 0.0456344881 -0.0268515133
505296970.0 0.0470372766 -0.0297209252 0.3906112425 -0.6908612063 0.3907166491 -0.6906936396 0.0446532227 -0.0272503897
510296940.0 0.0469193604 -0.0302078101 0.3838668761 -0.6948906841 0.3835772883 -0.6953222307 0.0450973557 -0.0272731549
515296910.0 0.0461216839 -0.0303902168 0.3760260338 -0.699002111 0.3757429826 -0.6996243481 0.0440514423 -0.027940833
520296880.0 0.0457621489 -0.0313464497 0.3682208514 -0.7032597414 0.3681570899 -0.703501939 0.0440797847 -0.0282534101
525296850.0 0.0453645055 -0.0322468185 0.3605127736 -0.7075628037 0.3602469559 -0.7077965553 0.043760482 -0.0289466229
530296820.0 0.0450362129 -0.032428815 0.3530490263 -0.7105514511 0.3523727414 -0.711530323 0.0424700221 -0.0299626339
535296790.0 0.0442962538 -0.0329577846 0.3449911614 -0.7143494717 0.3452546821 -0.7153136566 0.0424915959 -0.0302812383
540296760.0 0.0440610455 -0.0337761789 0.3373596028 -0.7195123768 0.3371010069 -0.7197015403 0.0417041139 -0.0301999707
545296730.0 0.0434149331 -0.0337662394 0.3291544985 -0.7222188022 0.3289954012 -0.7232497247 0.0413069343 -0.0312241853
550296700.0 0.0426332778 -0.0346746433 0.3215167369 -0.7260983879 0.3218417332 -0.7268087838 0.0405460678 -0.0308187933
555296670.0 0.0427250445 -0.0354014505 0.3132879558 -0.7302799248 0.3133986448 -0.7302510481 0.0400059267 -0.0310555063
560296640.0 0.0418952784 -0.0358285323 0.3054375555 -0.7328114387 0.3056949095 -0.7329655033 0.0397055329 -0.031760428
565296610.0 0.0408843525 -0.0361644176 0.2971227369 -0.7367395746 0.2969731434 -0.7365124813 0.0388082439 -0.0323979869
570296580.0 0.041061799 -0.0366289311 0.2890523529 -0.7392964409 0.2894360065 -0.7400035301 0.0387754295 -0.031656893
575296550.0 0.0403446285 -0.0361109865 0.2810171174 -0.7424603444 0.2814663173 -0.7429301263 0.0386485707 -0.0325965218
580296520.0 0.0395471321 -0.0372777592 0.2730392579 -0.7457816001 0.2727950227 -0.7463795234 0.0374313827 -0.033460586
585296490.0 0.0392227757 -0.0378023684 0.2653376674 -0.7486570167 0.2650931229 -0.7490591011 0.0372115945 -0.0339437517
590296460.0 0.0380942909 -0.0386059375 0.2565130353 -0.7517719364 0.2567012516 -0.7517444824 0.0368175659 -0.0332843267
595296430.0 0.037696268 -0.0384479275 0.24862932 -0.7545486235 0.2484111411 -0.7550623275 0.0364073641 -0.0341358511
600296400.0 0.037048792 -0.0387210797 0.240507676 -0.7571207158 0.2405417404 -0.7571799888 0.0357113279 -0.034036118
605296370.0 0.0368280358 -0.0387150202 0.2322416157 -0.7596950561 0.2321725381 -0.7596885666 0.0350948367 -0.0351338155
610296340.0 0.0358162426 -0.0394472515 0.2235670049 -0.7621626264 0.2241998608 -0.762731904 0.0343722429 -0.0342555598
615296310.0 0.0353767732 -0.0394456607 0.2148564559 -0.7646835195 0.2152828472 -0.7642963905 0.0342283774 -0.0349507952
620296280.0 0.0344270022 -0.0401558587 0.2070581244 -0.7664146661 0.2068069608 -0.7667852663 0.0334815773 -0.0360282515
625296250.0 0.0344640155 -0.040431789 0.1983185628 -0.7694009166 0.1988117846 -0.7694216879 0.0329593589 -0.0355560955
630296220.0 0.033528785 -0.0404138111 0.1898363389 -0.7717550392 0.190394367 -0.7710653815 0.0319747327 -0.0359389287
635296190.0 0.0333073648 -0.0409939204 0.1813228148 -0.7729471784 0.1815315137 -0.7727965334 0.0315806286 -0.0364603152
640296160.0 0.0326128277 -0.0409544221 0.1739152983 -0.7749861055 0.1733210953 -0.7751495744 0.0317286846 -0.0365312438
645296130.0 0.0320187485 -0.0411167467 0.1648193463 -0.7770032835 0.1648758762 -0.777361064 0.0299015664 -0.0372807451
650296100.0 0.0309283561 -0.0411541239 0.1568449731 -0.7784352973 0.1562480858 -0.7783444086 0.0299363747 -0.037226634
655296070.0 0.0303282458 -0.042057239 0.1480131041 -0.7801567554 0.1474443062 -0.7801510974 0.0301185246 -0.0369703631
660296040.0 0.0291406568 -0.041571745 0.1396520025 -0.7815710858 0.1396454719 -0.7814860938 0.0286631232 -0.0378879466
665296010.0 0.0293181704 -0.0423666327 0.1310867748 -0.7832083961 0.1316989955 -0.7837133214 0.0277277087 -0.0371652267
670295980.0 0.0292219426 -0.0421609667 0.1225637294 -0.7845620312 0.1227803337 -0.7841978117 0.0270407992 -0.038119801
675295950.0 0.0286316084 -0.042502243 0.1134827467 -0.7859068795 0.1144104332 -0.7870793393 0.0271705345 -0.0375309415
680295920.0 0.0275610331 -0.0425627045 0.1051312139 -0.7870519124 0.105118556 -0.7871610143 0.0264962776 -0.0385346824
685295890.0 0.026895767 -0.0428497195 0.0967823893 -0.7882914868 0.0963005667 -0.7887111614 0.025829998 -0.0381008374
690295860.0 0.0265752741 -0.0429902513 0.0882348938 -0.7885467087 0.087828201 -0.7889049697 0.0256960056 -0.0380867187
695295830.0 0.0261735642 -0.0435420305 0.0789492077 -0.7898500391 0.078670912 -0.7900465459 0.0243247043 -0.0385228184
700295800.0 0.0257377786 -0.0434037537 0.0708617205 -0.79100469 0.0707521775 -0.7913453983 0.0237305616 -0.039404015
705295770.0 0.0250334975 -0.0435512713 0.0622325519 -0.791756573 0.0623373233 -0.7919386755 0.0229849099 -0.0388820617
710295740.0 0.0241537805 -0.0430971494 0.0536112628 -0.7918443744 0.0533254042 -0.7915077106 0.0217983894 -0.0391340426
715295710.0 0.0236453531 -0.0438191626 0.0451916051 -0.7929970336 0.0455832111 -0.793036759 0.0218118257 -0.0399434428
720295680.0 0.0228057957 -0.0442811844 0.0360724732 -0.793484183 0.0361586031 -0.7936328701 0.0216739547 -0.0393493266
725295650.0 0.0224816774 -0.0439838713 0.0274057103 -0.7927542953 0.0276742141 -0.7933036642 0.0210242108 -0.0391513146
730295620.0 0.0213034397 -0.0444767701 0.0189348605 -0.7937282863 0.0191914646 -0.7939202984 0.0204565509 -0.0403918025
735295590.0 0.021459952 -0.0443087401 0.0107473987 -0.7942230092 0.0106428444 -0.794311825 0.019362961 -0.0396042411
740295560.0 0.0203613205 -0.0444338035 0.0015785895 -0.7935372307 0.0014903256 -0.7938900273 0.0193803546 -0.0398293687
745295530.0 0.0198288242 -0.0447425813 -0.0064819899 -0.7940925734 -0.0066628278 -0.7941674057 0.018249864 -0.0396650167
750295500.0 0.0193649402 -0.0447573856 -0.0153833826 -0.7932166818 -0.0150746464 -0.7938422225 0.0180597564 -0.0403508356
755295470.0 0.0191137732 -0.0442182589 -0.023541908 -0.7937280735 -0.0237896165 -0.7942262586 0.0165616599 -0.0399305236
760295440.0 0.0177178493 -0.0444596684 -0.0328758179 -0.793185121 -0.032839128 -0.7934065858 0.0160450341 -0.0404463831
765295410.0 0.017066845 -0.045246949 -0.0405884887 -0.7925036856 -0.0410314126 -0.7932606884 0.0166054935 -0.0397909331
770295380.0 0.0170832434 -0.0449546185 -0.0496547829 -0.7920135108 -0.05016679 -0.7929022569 0.0158884669 -0.0396343546
775295350.0 0.0161751898 -0.0447547945 -0.0585402937 -0.7911762907 -0.0581076737 -0.791923308 0.0146332793 -0.0410251492
780295320.0 0.0155956386 -0.0449392521 -0.0668175069 -0.7904886992 -0.066450918 -0.7908955541 0.0141853915 -0.039966723
785295290.0 0.0145918333 -0.0445932632 -0.0756901377 -0.7888571561 -0.0759824502 -0.7902132539 0.0132365323 -0.0404748047
790295260.0 0.0142879588 -0.0445935993 -0.0840233711 -0.7891827543 -0.0844756455 -0.7898010668 0.0131208251 -0.0403343469
795295230.0 0.0134401819 -0.0447049064 -0.0920540781 -0.7877261664 -0.0925119233 -0.7881808218 0.0127134432 -0.0396817548
800295200.0 0.0130270603 -0.0444806187 -0.101760577 -0.7877484761 -0.1020862469 -0.787617337 0.0120694083 -0.0400657849
805295170.0 0.0118272887 -0.044868846 -0.1096602324 -0.785301122 -0.1101183147 -0.7859682317 0.0106559426 -0.0401102194
810295140.0 0.0113709459 -0.0447908702 -0.1181715935 -0.7848377244 -0.1183355454 -0.7848227834 0.0107614881 -0.0398327517
815295110.0 0.0108958671 -0.0445962629 -0.1271894762 -0.7827252364 -0.1274636359 -0.7834334491 0.0097201402 -0.0405119187
820295080.0 0.0101489576 -0.0448547735 -0.1348888467 -0.7821601217 -0.1358142034 -0.7823273806 0.0087947302 -0.0398705404
825295050.0 0.0094169536 -0.0448824276 -0.1437973008 -0.7799109665 -0.1437960555 -0.780399388 0.0088406853 -0.0397646457
830295020.0 0.0088042922 -0.0442153166 -0.1521195321 -0.7785801888 -0.1526545585 -0.779355841 0.0084264187 -0.0398977937
