!Created with skrf (http://scikit-rf.org).
# Hz S RI R 50.0 
!freq ReS11 ImS11 ReS21 ImS21 ReS12 ImS12 ReS22 ImS22
300000.0 -0.3226361077 -0.0877309686 0.3766590474 0.0439065414 0.3734371199 0.0427455484 -0.3215783807 -0.0987050234
5299970.0 -0.326503282 0.004255994 0.3781870729 0.0022520705 0.3784163094 0.002635123 -0.3239660948 0.0049682377
10299940.0 -0.3242559298 0.0132454621 0.3793325795 0.0019178842 0.3795574766 0.0023431268 -0.3213485951 0.0160568633
15299910.0 -0.3214024339 0.0202953434 0.3816177285 0.0019941017 0.3819142728 0.0021239319 -0.3183335618 0.0239680077
20299880.0 -0.3186312127 0.0261708649 0.384842877 0.0017627566 0.3850556069 0.0017485417 -0.3148522142 0.0303057488
25299850.0 -0.3158340001 0.0313128579 0.3881360186 0.0003156496 0.3878558859 0.0001992438 -0.310832159 0.0357190892
30299820.0 -0.3129931901 0.0357764816 0.3914816307 -0.002248975 0.391553182 -0.0023082753 -0.3069699989 0.0413425505
35299790.0 -0.310025041 0.040093107 0.3951926265 -0.005434957 0.3951300949 -0.0055299488 -0.3035456125 0.04520083
40299760.0 -0.3071032152 0.043503256 0.3979494339 -0.0087753591 0.3982224993 -0.0086318639 -0.3002623256 0.0484881469
45299730.0 -0.304402142 0.0466864436 0.4006375299 -0.012664467 0.4009438631 -0.0124950537 -0.2970403287 0.0520374551
50299700.0 -0.3023293495 0.0494257359 0.4034602959 -0.0170067271 0.4036514903 -0.0171137056 -0.2943221577 0.054464162
55299670.0 -0.3002775446 0.0522093745 0.4054024003 -0.0223512869 0.4054067906 -0.0219652596 -0.2916847966 0.0572293573
60299640.0 -0.2977839288 0.0552070629 0.4073467141 -0.0270125861 0.4079288506 -0.0268386049 -0.2893708097 0.0597267911
65299610.0 -0.2963770633 0.0571785971 0.4092780734 -0.032094334 0.4092202779 -0.0321927854 -0.2870937404 0.0618061548
70299580.0 -0.2946178339 0.0597038743 0.4103732525 -0.0368050091 0.4104013931 -0.0368630314 -0.2849998845 0.0640829796
75299550.0 -0.2929618582 0.0623891721 0.4113632111 -0.0418413017 0.411037971 -0.0421677963 -0.2828344446 0.0658963086
80299520.0 -0.2915197302 0.0647480219 0.4122793118 -0.0473225107 0.4125235283 -0.0473663592 -0.281663276 0.0681229173
85299490.0 -0.2901590139 0.0669292823 0.4127969929 -0.0524604916 0.4126724618 -0.0524645618 -0.2800596643 0.0700482901
90299460.0 -0.2888188379 0.0689476549 0.4130249816 -0.0579955786 0.4131623546 -0.0579038452 -0.278289889 0.0722314731
95299430.0 -0.2872038572 0.0716878549 0.4135376455 -0.0632219246 0.4136353179 -0.0633472427 -0.2768481615 0.0744157525
100299400.0 -0.2866163235 0.0742159076 0.4130748206 -0.068642675 0.4133752115 -0.0682084735 -0.275411627 0.0760181658
105299370.0 -0.2851150658 0.0763677775 0.4132007441 -0.0737060394 0.4133376413 -0.0737349849 -0.2736282296 0.0783169833
110299340.0 -0.2838446341 0.0788573241 0.4133527477 -0.0788468337 0.4130820014 -0.078494093 -0.2728861534 0.080176513
115299310.0 -0.2830688445 0.0812061332 0.4129585046 -0.0838914636 0.4128523086 -0.0837456498 -0.271316901 0.0820689105
120299280.0 -0.2820768332 0.0830464136 0.4122365394 -0.0889986275 0.4122892301 -0.0889439002 -0.2705988215 0.0845604414
125299250.0 -0.2810951824 0.0855252724 0.4117379459 -0.0937976399 0.4119644792 -0.0937462273 -0.2695740221 0.0862103169
130299220.0 -0.2804331508 0.0884271998 0.4109020783 -0.0992458523 0.4109039105 -0.0991676987 -0.2685748596 0.0883440928
135299190.0 -0.2790839991 0.0907011674 0.4105109298 -0.1039531638 0.4102675365 -0.1039156744 -0.2670685543 0.0910309516
140299160.0 -0.2784205264 0.093519823 0.4095655502 -0.1091363957 0.4095729344 -0.109526726 -0.2660000226 0.0936458087
145299130.0 -0.277421217 0.0956689025 0.4089659814 -0.113818089 0.4085839966 -0.1141824189 -0.2651556709 0.0956592882
150299100.0 -0.276212068 0.0982391581 0.4074768534 -0.1187929872 0.4077987741 -0.1185774706 -0.2643051338 0.0985155432
155299070.0 -0.2753864918 0.1007408278 0.4069712862 -0.1243613868 0.4066435417 -0.1238133648 -0.2630640066 0.1007917073
160299040.0 -0.2745808914 0.1034044221 0.4052753722 -0.1285530977 0.4053884213 -0.1287121373 -0.2627514232 0.1031090918
165299010.0 -0.2737829131 0.1059952422 0.4041410159 -0.133811434 0.4043832036 -0.1337174973 -0.2610840696 0.1059164745
170298980.0 -0.2726330152 0.1085625556 0.4027877481 -0.1384951944 0.4031609206 -0.1385563931 -0.260163157 0.1084778266
175298950.0 -0.2718608422 0.1111193412 0.4019247074 -0.1429175681 0.4012099429 -0.1430248911 -0.2595727756 0.1106519658
180298920.0 -0.2707995183 0.1139646457 0.4000119369 -0.1473560506 0.4000024958 -0.1475162403 -0.2582344861 0.1132780155
185298890.0 -0.2693875449 0.1163596323 0.3983513338 -0.1524522509 0.3983063836 -0.1525032479 -0.2570926 0.1158043796
190298860.0 -0.2686564067 0.1192552327 0.397112286 -0.1573846416 0.3971289057 -0.1568125716 -0.2566786871 0.1180905016
195298830.0 -0.2677327286 0.1218045309 0.3951108541 -0.1619021257 0.3952433719 -0.1615612515 -0.2548433752 0.1210043432
200298800.0 -0.2663726682 0.1244746268 0.3932591105 -0.1664703861 0.3937337336 -0.1665466291 -0.2544440016 0.1235672514
205298770.0 -0.2653171112 0.1271379879 0.3915231689 -0.1712962104 0.3915583964 -0.1709443798 -0.2528939326 0.1257236708
210298740.0 -0.2644021735 0.1301408217 0.3898165764 -0.1757542625 0.3899702358 -0.1754917018 -0.2520135133 0.1287327549
215298710.0 -0.2632775026 0.1326303175 0.3878947133 -0.1802785142 0.3881745998 -0.1804603429 -0.2510810871 0.1310963858
220298680.0 -0.2619294705 0.1354063853 0.3856934494 -0.1845585194 0.3860988835 -0.1845880768 -0.2501460295 0.1336866892
225298650.0 -0.2610074511 0.1380051266 0.3837921877 -0.1892140864 0.3840148497 -0.1889096975 -0.2489016105 0.135928695
230298620.0 -0.259835737 0.1408634194 0.3819594413 -0.1932774572 0.382290534 -0.1935576964 -0.247727882 0.1387788722
235298590.0 -0.2585442219 0.1437706465 0.3801522775 -0.1976886995 0.3798755917 -0.1974834631 -0.2463910981 0.1412668052
240298560.0 -0.2569926429 0.146360069 0.3777890833 -0.2023046633 0.3776607568 -0.2022617323 -0.245306755 0.1438847066
245298530.0 -0.2561235573 0.1489097046 0.3761476979 -0.2065393644 0.3756358622 -0.2065155593 -0.2438263604 0.145761212
250298500.0 -0.2540808644 0.1518646379 0.3726175236 -0.2110681835 0.3729668412 -0.2106018772 -0.2430530989 0.1482948454
255298470.0 -0.2528723045 0.1541474951 0.3703399788 -0.2148056835 0.3705467179 -0.2145204458 -0.2411276937 0.150827083
260298440.0 -0.2517092004 0.1569817376 0.3684030391 -0.219531133 0.368518614 -0.2192193751 -0.239581144 0.1536645752
265298410.0 -0.2499795302 0.1597999049 0.365954065 -0.2234918965 0.366427353 -0.2231794444 -0.238371462 0.1562342009
270298380.0 -0.2487019008 0.1625427674 0.3636985885 -0.227476968 0.3637259008 -0.2275455284 -0.2370562917 0.1585447202
275298350.0 -0.2467476564 0.1652966652 0.3606552877 -0.2318108604 0.3612938846 -0.2316628385 -0.2353503689 0.1613172125
280298320.0 -0.245000675 0.1679440311 0.3586322244 -0.2358723214 0.3585735708 -0.2354299783 -0.2335100211 0.1635843568
285298290.0 -0.2434105186 0.1706562608 0.3558059639 -0.2397250175 0.3558204129 -0.2398533839 -0.2319549533 0.1661822522
290298260.0 -0.24183846 0.1731804001 0.3531875373 -0.2435242173 0.3533834692 -0.2438280098 -0.2301262444 0.1686056029
295298230.0 -0.2398772128 0.1756023287 0.3504027824 -0.2479192843 0.3506036784 -0.2479920071 -0.2280732757 0.1707351238
300298200.0 -0.2382076534 0.1782895319 0.34794302 -0.2515892813 0.3480462685 -0.2516771049 -0.2266951228 0.1734887476
305298170.0 -0.2366823436 0.1807746144 0.3448415811 -0.2557826277 0.3447153052 -0.2556557476 -0.2241400944 0.1757703954
310298140.0 -0.2349944376 0.1832405312 0.3420757999 -0.2593363833 0.3425243454 -0.2593902965 -0.2229667524 0.1782734577
315298110.0 -0.2330126052 0.1856428166 0.3393422533 -0.2632232991 0.3395661019 -0.2633675162 -0.2210904189 0.1803275807
320298080.0 -0.2312147132 0.1881437756 0.3361464491 -0.2676127262 0.3365979355 -0.2673711497 -0.2193880737 0.1831633132
325298050.0 -0.2293416074 0.1906475381 0.3332673873 -0.2713142808 0.3335055875 -0.2711492863 -0.2178083924 0.1851856612
330298020.0 -0.227516342 0.1931294386 0.3300694693 -0.2751506026 0.3304530108 -0.2748728386 -0.2159245813 0.1877722696
335297990.0 -0.2256096268 0.1954918463 0.3271673169 -0.2784806441 0.3269256638 -0.2790319095 -0.2144431281 0.1905226995
340297960.0 -0.2241017839 0.1981402344 0.3236555219 -0.2821171942 0.3235854963 -0.2824243111 -0.2119712275 0.1931486816
345297930.0 -0.2221671261 0.2008575818 0.3202773256 -0.2859190266 0.3204728997 -0.2859633992 -0.2105238046 0.1949944027
350297900.0 -0.2201634047 0.2031968321 0.3170323645 -0.2894502548 0.3172928646 -0.2891960116 -0.208793609 0.1980571573
355297870.0 -0.2178622552 0.2056683185 0.3138974881 -0.2928269901 0.3144439327 -0.292471712 -0.2070135504 0.2002429059
360297840.0 -0.2158739433 0.2083980332 0.3111803078 -0.296127965 0.31156207 -0.2962155689 -0.2049139959 0.2028758285
365297810.0 -0.2142813364 0.2106906701 0.307950164 -0.2995890217 0.3077946768 -0.2998071342 -0.2026356339 0.2050886478
370297780.0 -0.2118147101 0.2130643275 0.3042327917 -0.3030539627 0.3046502432 -0.3026084783 -0.2008065901 0.2075164217
375297750.0 -0.2094401886 0.2156660087 0.300790569 -0.3064130741 0.3010830245 -0.306522992 -0.1989974729 0.2093518274
380297720.0 -0.2073015114 0.2177049513 0.2975463603 -0.3095828431 0.2976909276 -0.3092861819 -0.1965153732 0.2120169681
385297690.0 -0.2052515047 0.2203605218 0.2937860196 -0.31266052 0.2935532664 -0.3126833769 -0.1945000297 0.2140700996
390297660.0 -0.2032904029 0.2225544471 0.2904291298 -0.3165074041 0.2907300632 -0.3156618599 -0.1929348359 0.216413705
395297630.0 -0.2007195794 0.2253783507 0.287116829 -0.3193743932 0.2869257832 -0.3194517519 -0.1901378439 0.2187559097
400297600.0 -0.1984089418 0.2274641829 0.2832568504 -0.3224886374 0.2836263786 -0.3225357682 -0.1883622953 0.2207726032
405297570.0 -0.1965474007 0.2294604531 0.2798768649 -0.3254939761 0.2799431412 -0.325228763 -0.186129332 0.2229545033
410297540.0 -0.1938382309 0.2315216143 0.2763581076 -0.3284460007 0.27650029 -0.3285707646 -0.1837689555 0.2249660956
415297510.0 -0.1912761923 0.2339651598 0.2722288117 -0.3320146645 0.2729724028 -0.3316740964 -0.1813373234 0.2271977976
420297480.0 -0.1893727723 0.2362541727 0.2689894312 -0.3344179971 0.2688454381 -0.3345586904 -0.1792535086 0.2290892549
425297450.0 -0.186452829 0.2382475101 0.2654397694 -0.3374361083 0.2658780959 -0.3373026821 -0.1771511391 0.2312523944
430297420.0 -0.1843804084 0.24034803 0.2614822189 -0.3400246168 0.2615555877 -0.3400765945 -0.1745804814 0.2329640962
435297390.0 -0.1817349553 0.2422967912 0.2574625271 -0.3427696291 0.2575777302 -0.3431291168 -0.1719482817 0.2349390517
440297360.0 -0.1794938195 0.2448997888 0.2543160074 -0.3457575718 0.253878923 -0.3457669737 -0.1696656229 0.2369641352
445297330.0 -0.176609118 0.2464331746 0.2503763264 -0.3487974898 0.2503827435 -0.3483541189 -0.1671611179 0.2381847436
450297300.0 -0.1740131954 0.248257658 0.2462890239 -0.3513565622 0.2461293518 -0.351352519 -0.1642928324 0.2402258501
455297270.0 -0.1715754272 0.2505156463 0.2424644837 -0.3539821088 0.2425682053 -0.3537315254 -0.1622666402 0.2418955535
460297240.0 -0.169270419 0.2524021619 0.2384843919 -0.3563376195 0.2388717171 -0.3565551019 -0.1596316589 0.2443608435
465297210.0 -0.1661476745 0.2545412201 0.2344515908 -0.3589758992 0.2346086466 -0.3594259527 -0.1569999008 0.2459283641
470297180.0 -0.1634842354 0.2562641077 0.230325771 -0.3616878608 0.230658125 -0.3617392005 -0.1542517956 0.2479579066
475297150.0 -0.1613460098 0.2578990641 0.2265264026 -0.3636782109 0.2266515794 -0.3638618421 -0.1513523928 0.249426231
480297120.0 -0.1581085723 0.2602459576 0.2224037653 -0.3665570838 0.2225057354 -0.3666429274 -0.1486198296 0.2515087798
485297090.0 -0.1555506188 0.2618360564 0.2188795456 -0.3688873871 0.2186496941 -0.3686639083 -0.1461544538 0.2531637814
490297060.0 -0.1530116229 0.263552954 0.2146286778 -0.371006404 0.2148101123 -0.3710100924 -0.1433638638 0.2548019996
495297030.0 -0.1501029962 0.2653472986 0.210174434 -0.3736506727 0.2109025103 -0.3734646959 -0.1410569392 0.256825086
500297000.0 -0.1471748412 0.2669985265 0.2064073168 -0.375398825 0.2062136027 -0.3751454904 -0.1381606126 0.2588948862
505296970.0 -0.1443548086 0.2687872668 0.2021413819 -0.3776120379 0.2020114553 -0.3780217827 -0.1355376962 0.2602800725
510296940.0 -0.1419658941 0.2704799235 0.1982234768 -0.3802060725 0.1977527587 -0.3802690919 -0.1324653562 0.2615751605
515296910.0 -0.1388341963 0.2722499013 0.193880527 -0.3821461464 0.1938429385 -0.3820200471 -0.1296575715 0.2632799303
520296880.0 -0.1361438786 0.2736598296 0.1895550659 -0.3846329173 0.1897780987 -0.3840341076 -0.1269693449 0.264635783
525296850.0 -0.1331997753 0.2750264958 0.1855264345 -0.3862970554 0.1857104885 -0.3861211412 -0.1247777787 0.2666312691
530296820.0 -0.1301385425 0.2767556222 0.1811139913 -0.3886977674 0.1811689736 -0.3881631902 -0.1218362527 0.2679461858
535296790.0 -0.127413472 0.2781063145 0.1770533689 -0.389711133 0.1771418155 -0.3897244378 -0.1193839548 0.2693194083
540296760.0 -0.1244645608 0.2799792213 0.1727973585 -0.3921736174 0.1725382467 -0.3922710307 -0.1162300813 0.2709316135
545296730.0 -0.1218493849 0.2812143281 0.1683817228 -0.3936530613 0.1682824672 -0.3939470934 -0.113698376 0.2720607645
550296700.0 -0.1185761876 0.282991229 0.1643856364 -0.3953660531 0.1642306962 -0.3955528026 -0.1110592558 0.2738138591
555296670.0 -0.1158951824 0.2838663448 0.1600372482 -0.3974186098 0.1600833184 -0.3972921461 -0.1077601207 0.2752401201
560296640.0 -0.1125685797 0.2858856278 0.1555325695 -0.3992270352 0.1554129098 -0.3990734583 -0.1052001627 0.2763981673
565296610.0 -0.1099294956 0.2870485044 0.1509262888 -0.4007085005 0.1509912509 -0.4004704594 -0.1020209605 0.277391203
570296580.0 -0.1069962298 0.2878876277 0.1470460235 -0.40274579 0.1465344165 -0.4024875376 -0.0996990299 0.27924895
575296550.0 -0.1040519273 0.2896889528 0.1426129482 -0.4041416467 0.1420163794 -0.4038303912 -0.0965937446 0.2800644633
580296520.0 -0.1005465629 0.2906682036 0.1377947948 -0.405877752 0.1377927756 -0.4054665944 -0.0933311249 0.2811880072
585296490.0 -0.0981298518 0.2917393064 0.1335656947 -0.4066255734 0.1336581833 -0.4067770572 -0.0906526056 0.2824000954
590296460.0 -0.0945744914 0.2930234082 0.1292578325 -0.4077905204 0.1292584733 -0.4080443339 -0.0880123595 0.2831700026
595296430.0 -0.0913673803 0.29388889 0.1237533995 -0.4097223445 0.1241724763 -0.4093781361 -0.0848936568 0.283984307
600296400.0 -0.0886300644 0.2952529464 0.1199726015 -0.410936872 0.1202311196 -0.4108029387 -0.0820275133 0.2850895419
605296370.0 -0.0856803847 0.296601625 0.115337954 -0.412181983 0.1156125952 -0.4121223559 -0.0786472915 0.2862704962
610296340.0 -0.0820846166 0.2972744921 0.1104398494 -0.4132131469 0.1111052409 -0.4129810217 -0.0756640923 0.287221947
615296310.0 -0.0789102182 0.2982319359 0.1061678183 -0.4144636983 0.106418037 -0.4146697367 -0.0723368429 0.2879180062
620296280.0 -0.0763362273 0.2991159026 0.1020900608 -0.415545418 0.1019059214 -0.41514011 -0.0699745383 0.2889456427
625296250.0 -0.0728840978 0.2996501949 0.0979477883 -0.4162667281 0.0975142947 -0.4166832672 -0.066182358 0.2896194336
630296220.0 -0.0693695536 0.3007939805 0.0922554857 -0.4177412613 0.0929330838 -0.4176357232 -0.0634501331 0.2906351009
635296190.0 -0.0670066931 0.3015877176 0.0884364376 -0.4183336493 0.0884319189 -0.4182363349 -0.060390677 0.2913791534
640296160.0 -0.0639252425 0.3026515828 0.0839865824 -0.4195856605 0.0838493116 -0.419465553 -0.0571549704 0.2919232946
645296130.0 -0.0605295857 0.3037994573 0.078771024 -0.4199070643 0.0795996929 -0.4200746721 -0.0539355172 0.2930957294
650296100.0 -0.0572352561 0.3040281037 0.0745553204 -0.4209173571 0.0748965282 -0.4207575941 -0.0507824807 0.2931861155
655296070.0 -0.0540739188 0.304880835 0.0700257428 -0.4214146946 0.0701889147 -0.4217806507 -0.047657344 0.2939758934
660296040.0 -0.0510809355 0.305564993 0.065735126 -0.4223485635 0.0655575751 -0.4224317887 -0.044426627 0.2947892448
665296010.0 -0.0473875066 0.3057816134 0.0604849127 -0.4230467754 0.0608643835 -0.4228244155 -0.0409845831 0.2960304747
670295980.0 -0.0448855589 0.3066518963 0.0566417392 -0.423365829 0.0563087269 -0.4236447594 -0.038444892 0.2958767727
675295950.0 -0.0413147761 0.3073636818 0.051925526 -0.4240160879 0.0522496881 -0.4239325488 -0.0356093139 0.2971330759
680295920.0 -0.0382219752 0.3081654831 0.0470915985 -0.4243725866 0.0469804683 -0.4250182589 -0.0319300685 0.2978755143
685295890.0 -0.0348288693 0.3088838958 0.0424520514 -0.4251463509 0.0423828938 -0.4251915249 -0.0291117448 0.2979135529
690295860.0 -0.0316189084 0.3091019685 0.0379721598 -0.4250794646 0.0380450529 -0.4258988113 -0.0258981279 0.299112248
695295830.0 -0.0281814078 0.3092988145 0.033551971 -0.4257606021 0.0328192051 -0.4256599408 -0.0225850428 0.2995995114
700295800.0 -0.0249884244 0.3098309075 0.0285546505 -0.425719713 0.0283551237 -0.4258945564 -0.0197165703 0.2998794102
705295770.0 -0.0222385249 0.3106839755 0.0238470443 -0.4264157088 0.0241807293 -0.4262256125 -0.0164020648 0.3004478414
710295740.0 -0.0185430542 0.3108747008 0.0191571509 -0.4267276033 0.0194123129 -0.4266954163 -0.0132276483 0.3002808084
715295710.0 -0.0156975616 0.310789498 0.0153095503 -0.4264868755 0.0146074624 -0.4268212585 -0.0102243526 0.3009344536
720295680.0 -0.012395979 0.3115913847 0.0103806682 -0.4269542877 0.0105416646 -0.4268222204 -0.0069999011 0.3011158533
725295650.0 -0.0088667412 0.3116400006 0.0056982804 -0.4268088902 0.0058139741 -0.427120338 -0.0043205564 0.3015609929
730295620.0 -0.0057896479 0.3122153854 0.0006953966 -0.4266083845 0.0011963487 -0.4268778315 -0.001289956 0.3014733498
735295590.0 -0.0021186388 0.3122423207 -0.0037646962 -0.426968727 -0.0034729962 -0.4270377555 0.0018862097 0.3014237348
740295560.0 0.0005661548 0.3126324731 -0.008085637 -0.4267209786 -0.0081771999 -0.4267028998 0.0056183554 0.3020936874
745295530.0 0.0039711728 0.3126723752 -0.0129179235 -0.4265577532 -0.0129797582 -0.4264380958 0.0084572902 0.3014533671
750295500.0 0.007592662 0.3126829722 -0.0173770931 -0.4260562514 -0.0176850704 -0.4265055149 0.0116249221 0.3017534598
755295470.0 0.0107733993 0.3126636263 -0.0218730456 -0.4261419803 -0.0221464447 -0.4259787126 0.0148468021 0.3013050697
760295440.0 0.013597125 0.3126934485 -0.0264260092 -0.4261103047 -0.0270260283 -0.4260112798 0.018017848 0.301550513
765295410.0 0.01723854 0.3126765073 -0.031275419 -0.4253971095 -0.0315482269 -0.4254014794 0.0211693665 0.3015252097
770295380.0 0.0198467276 0.3125554302 -0.0357289466 -0.4248892281 -0.0358320817 -0.4246615351 0.0238764082 0.3012487344
775295350.0 0.0231765976 0.3122007565 -0.0406564012 -0.4241429573 -0.0400615816 -0.4243818021 0.0265437077 0.301066699
780295320.0 0.0268531665 0.3120887011 -0.0452398225 -0.4237735242 -0.0444197486 -0.4238310003 0.0300245385 0.3006713778
785295290.0 0.029728874 0.3115196553 -0.0498867235 -0.4231566182 -0.0494744301 -0.4231917011 0.0339335823 0.3007663424
790295260.0 0.0337537244 0.3119626996 -0.0542351001 -0.4227679487 -0.0533202308 -0.4227016341 0.037112526 0.3004785504
795295230.0 0.0363843741 0.3117148497 -0.0586382751 -0.4219242873 -0.0583117699 -0.422304228 0.0403890923 0.3000684848
800295200.0 0.0397228263 0.3112587561 -0.0638879301 -0.4214926659 -0.0634817387 -0.4214481198 0.0435081421 0.2997200742
805295170.0 0.0430010436 0.3106544107 -0.0679130186 -0.4204108474 -0.0677184249 -0.4209219846 0.0461603009 0.2997049016
810295140.0 0.0460471915 0.3104799954 -0.072191941 -0.4197849894 -0.0724951001 -0.4200967566 0.0499808407 0.2993441645
815295110.0 0.049444312 0.3100312711 -0.0771030058 -0.4188508755 -0.0766490698 -0.4191297862 0.053053519 0.2991237516
820295080.0 0.052426081 0.3101012286 -0.081314513 -0.4182458244 -0.0810449701 -0.4182814855 0.056454756 0.298263175
825295050.0 0.0564080172 0.3091613516 -0.0857744766 -0.4170445386 -0.0856502119 -0.4172741223 0.0595914021 0.2981055808
830295020.0 0.0594316443 0.3086897633 -0.0903877966 -0.4157544737 -0.0903873949 -0.4162735059 0.0632337764 0.2977413885
