!Created with skrf (http://scikit-rf.org).
# Hz S RI R 50.0 
!freq ReS11 ImS11 ReS21 ImS21 ReS12 ImS12 ReS22 ImS22
300000.0 -0.2408128372 -0.094442643 0.4733218528 0.0601235918 0.470127569 0.0572771389 -0.2401607254 -0.0952062725
5299970.0 -0.2450024244 0.0064714569 0.4746923587 0.0051509134 0.4747476231 0.0049752123 -0.2408398325 0.0073526832
10299940.0 -0.2415906809 0.0176454595 0.476486933 0.0060783078 0.4766888206 0.0061574726 -0.2376234449 0.0206977144
15299910.0 -0.2374905038 0.0266753506 0.4802201519 0.0074320803 0.4806157031 0.0072911197 -0.2331125137 0.0299838338
20299880.0 -0.2327913657 0.0341848072 0.4848413731 0.0082380625 0.4852877663 0.0080532222 -0.2277263289 0.0380842571
25299850.0 -0.2276904537 0.0404061803 0.4901712679 0.0071784038 0.4900464942 0.0070599194 -0.2215716522 0.0448547198
30299820.0 -0.2224983236 0.045225763 0.4958476189 0.0049174767 0.4953234153 0.0045282862 -0.2157030057 0.0503267308
35299790.0 -0.2173488649 0.0490501471 0.5009906607 0.0014770185 0.5011850842 0.0017540639 -0.2106172605 0.0545425876
40299760.0 -0.2127262441 0.0526413255 0.5056805099 -0.0022397662 0.5057517941 -0.0024567876 -0.2050684511 0.057520113
45299730.0 -0.2076600788 0.0548309224 0.5103545484 -0.0070371863 0.5106127047 -0.0071901177 -0.2004489883 0.0608224233
50299700.0 -0.2039176917 0.0570753243 0.5152198258 -0.0126864971 0.5150976528 -0.0122948131 -0.1955821756 0.0626520228
55299670.0 -0.1998868051 0.0584818392 0.5186624185 -0.0187713167 0.5184576312 -0.0185839234 -0.1913388034 0.0641988993
60299640.0 -0.1960064141 0.0601973773 0.5219381997 -0.0251831183 0.5222670799 -0.0246746771 -0.1876291151 0.0652769244
65299610.0 -0.1928785915 0.0608711349 0.5245062994 -0.0314373066 0.5249686145 -0.0310283395 -0.1841712603 0.0664999477
70299580.0 -0.1897916083 0.0620800851 0.5272336526 -0.0378216995 0.5268740022 -0.0375595496 -0.1808931887 0.0677837538
75299550.0 -0.1869526218 0.0629830005 0.5292074832 -0.0447675276 0.5289200868 -0.0446086463 -0.177819886 0.0684434411
80299520.0 -0.1847111868 0.0636699258 0.5309096862 -0.051328113 0.5309197651 -0.0513503028 -0.175025085 0.069446361
85299490.0 -0.1823077508 0.0642570151 0.5320141465 -0.0581246626 0.5319661363 -0.0579546375 -0.1727648356 0.0698074086
90299460.0 -0.1804499936 0.0649069372 0.5329528757 -0.0656076828 0.5332869007 -0.0652670375 -0.1703859619 0.0702452193
95299430.0 -0.1780502682 0.0652412636 0.5340424182 -0.071911118 0.5342443901 -0.0724860947 -0.1681257302 0.0714379447
100299400.0 -0.1769364637 0.0664782301 0.5341772961 -0.0790659451 0.534008461 -0.0788168566 -0.1658997101 0.0714562398
105299370.0 -0.1751959252 0.0670662954 0.5346018695 -0.0864229357 0.5348837314 -0.0859421404 -0.1642861384 0.0723332399
110299340.0 -0.1732173736 0.067485156 0.5349921644 -0.0925997801 0.5343930933 -0.0924453126 -0.1628840623 0.0729825553
115299310.0 -0.1717874469 0.0679895936 0.5347913848 -0.0993993132 0.5347753842 -0.0996038345 -0.161036029 0.0738943152
120299280.0 -0.1707360941 0.0684408821 0.5342736047 -0.1062173741 0.5345135407 -0.1065284417 -0.1596969192 0.074511601
125299250.0 -0.1693799841 0.0693085328 0.5339468627 -0.1131497308 0.5343254598 -0.112998374 -0.1585158183 0.0748785548
130299220.0 -0.1685141705 0.0701303059 0.5332052284 -0.1193490192 0.5335881768 -0.1198916922 -0.1569819841 0.0758298132
135299190.0 -0.1676904774 0.0710285917 0.5331844037 -0.1264573706 0.5328367773 -0.1262554787 -0.1556866859 0.0768122836
140299160.0 -0.1665997135 0.0720698122 0.5321207136 -0.132887084 0.5318456707 -0.1330932709 -0.1543508078 0.0780045564
145299130.0 -0.1655551599 0.0729212075 0.5311832378 -0.1400413737 0.5308005484 -0.139326655 -0.1532393658 0.0789621896
150299100.0 -0.164320856 0.0740012339 0.5296886396 -0.1459797442 0.5300647868 -0.1458808928 -0.1524253791 0.0802189755
155299070.0 -0.1638822014 0.0748089186 0.52902621 -0.1530062876 0.5288113718 -0.1526437626 -0.1512077726 0.0812942419
160299040.0 -0.162926018 0.0758092111 0.5273690819 -0.1589511525 0.5271445691 -0.1591568029 -0.1507478898 0.0821936486
165299010.0 -0.1622154447 0.0767810023 0.5258073076 -0.1657453816 0.526052806 -0.1653655209 -0.1491999404 0.0839636868
170298980.0 -0.1615658449 0.0778187158 0.5243528717 -0.1717536311 0.5244133905 -0.1718162761 -0.1482147223 0.0845500316
175298950.0 -0.1604424319 0.078812934 0.5230802822 -0.1782226527 0.5227892475 -0.1781648521 -0.1475161176 0.0862336106
180298920.0 -0.1597364424 0.0800627364 0.5206822993 -0.1846592318 0.5207313138 -0.1844127412 -0.1464731674 0.0873723569
185298890.0 -0.1586186783 0.0808200506 0.5189573133 -0.1904735075 0.5189029797 -0.1903527659 -0.1453836617 0.0887295839
190298860.0 -0.1585819867 0.0822999496 0.5178160572 -0.1969997571 0.5177183617 -0.1966028943 -0.144911597 0.0900873396
195298830.0 -0.1577155584 0.0832783941 0.5152914856 -0.202792304 0.5150974972 -0.2027728143 -0.1433044836 0.0909693879
200298800.0 -0.1569084423 0.0847968151 0.5134934277 -0.2090814962 0.5133629278 -0.2091751235 -0.1433192478 0.0925707694
205298770.0 -0.1559933862 0.0858328099 0.5103476489 -0.2153799447 0.5108860753 -0.2148962643 -0.1419671762 0.0932741584
210298740.0 -0.1555406959 0.0871866423 0.5085938353 -0.2208955323 0.5085656201 -0.2205065227 -0.140985049 0.0952624453
215298710.0 -0.1548718085 0.0884655826 0.5063331409 -0.2270130958 0.5061670807 -0.2272708147 -0.1401851339 0.0968572869
220298680.0 -0.1539394705 0.0891666146 0.5036619892 -0.2328131568 0.5036992956 -0.2327312301 -0.1395414631 0.0977058797
225298650.0 -0.1534174621 0.0905402832 0.5011134883 -0.2385982028 0.5015479212 -0.2386755108 -0.1390784293 0.0987371263
230298620.0 -0.1525477639 0.0922778956 0.4991919426 -0.244035029 0.4995756392 -0.2443873582 -0.1377994274 0.1000757794
235298590.0 -0.1517059112 0.0937433821 0.4964414176 -0.2501721425 0.4962725678 -0.2496633779 -0.1369452452 0.1013996908
240298560.0 -0.1509689382 0.0946338566 0.4940552238 -0.2560785771 0.4936303061 -0.2559132024 -0.1359041572 0.1033217851
245298530.0 -0.1504527733 0.0963549381 0.4915445316 -0.2615846151 0.4908675412 -0.2617275712 -0.13467245 0.1040190074
250298500.0 -0.1490390365 0.0977606956 0.4873033839 -0.2672917335 0.487511392 -0.2666955416 -0.1338840108 0.1057769559
255298470.0 -0.1485290203 0.0987917803 0.4844075212 -0.272131145 0.4850250866 -0.2721955015 -0.1327348262 0.1066459357
260298440.0 -0.1479724406 0.0999474561 0.4817202675 -0.2785902194 0.4820154545 -0.2778874613 -0.1310946802 0.1083278573
265298410.0 -0.1465393945 0.1017065089 0.4786182267 -0.2840231804 0.4794966747 -0.2837196999 -0.1304854342 0.109634848
270298380.0 -0.1459292035 0.1028659036 0.4762367001 -0.2888403779 0.4761554929 -0.2891225995 -0.1294160684 0.1110884736
275298350.0 -0.1449597223 0.104039768 0.4729875801 -0.2945077596 0.4732146231 -0.2946168511 -0.1279622617 0.1121265264
280298320.0 -0.1439637332 0.1059844546 0.4698623398 -0.300649323 0.4701418884 -0.2998498628 -0.1268008266 0.1137814772
285298290.0 -0.1431207059 0.1072086916 0.4668288795 -0.3053677636 0.4662654719 -0.3055664059 -0.1257465798 0.1151182282
290298260.0 -0.1419049197 0.1085646217 0.4630866878 -0.3104095982 0.46344245 -0.310758195 -0.1246853954 0.116614933
295298230.0 -0.1408910337 0.1095913557 0.4597863799 -0.3160437657 0.4596387296 -0.3158606608 -0.1228751449 0.1174981625
300298200.0 -0.1404798318 0.1109506015 0.4567184826 -0.3205582658 0.4563318629 -0.3213278365 -0.121930361 0.1192334777
305298170.0 -0.1388841549 0.1120920291 0.4525950323 -0.3263129798 0.4528875338 -0.3264159417 -0.120061348 0.1201784755
310298140.0 -0.1379318625 0.113897974 0.4493188722 -0.3318562808 0.449712309 -0.3309376478 -0.1189620995 0.1214990188
315298110.0 -0.1372618572 0.1143928867 0.4458372067 -0.3362654145 0.4458835161 -0.3369008017 -0.1178248664 0.1227699062
320298080.0 -0.1358668435 0.1157523204 0.4414303114 -0.3419576902 0.4420214473 -0.3417047184 -0.1161970899 0.1240694596
325298050.0 -0.1350557215 0.1169992573 0.4381044539 -0.3467433596 0.4382093094 -0.3468400386 -0.1153293359 0.1252338813
330298020.0 -0.1340963552 0.1179916383 0.4337658099 -0.3517455471 0.4342948965 -0.3515661652 -0.1141565254 0.1267368639
335297990.0 -0.133092015 0.1194559133 0.4300478345 -0.3566924525 0.4299351315 -0.3566195348 -0.1133644863 0.1284305306
340297960.0 -0.1324320333 0.1210621079 0.4257668457 -0.3613541788 0.425776189 -0.3616135914 -0.1114163247 0.1295303308
345297930.0 -0.1314730947 0.1224414944 0.4215898085 -0.3662837335 0.4216777858 -0.3662804172 -0.1103921738 0.1309348901
350297900.0 -0.1305516167 0.1234604768 0.4174548817 -0.3710265945 0.4171656207 -0.3705740935 -0.1093361992 0.1327538938
355297870.0 -0.1292595241 0.1256357169 0.4132166298 -0.3752129824 0.4136115049 -0.3751708152 -0.1083341785 0.1337627716
360297840.0 -0.1282486444 0.1267396407 0.4099495881 -0.3797010982 0.4099398034 -0.3800842088 -0.1067909656 0.1353851957
365297810.0 -0.127241371 0.1282667964 0.4051354588 -0.3842828047 0.4055817622 -0.3845776461 -0.105307204 0.1365758736
370297780.0 -0.1258113325 0.1294732886 0.4008040839 -0.3885345169 0.4009656985 -0.3883869003 -0.1038150362 0.138250069
375297750.0 -0.1245463437 0.1308106225 0.3966912756 -0.3932756471 0.3973870922 -0.3932209058 -0.1022699506 0.1393368958
380297720.0 -0.1234674248 0.1323049018 0.3921758728 -0.3974220436 0.3926823879 -0.396624861 -0.1015845077 0.140540635
385297690.0 -0.1224089485 0.133513824 0.3879444457 -0.4015707176 0.3875980142 -0.4016306732 -0.0994785749 0.1416266002
390297660.0 -0.1211497599 0.1348121259 0.3834898752 -0.4056636464 0.3834586333 -0.4058790854 -0.0982334999 0.1434347952
395297630.0 -0.1198587893 0.1364672098 0.3788674187 -0.4101312507 0.3791740448 -0.4101750763 -0.0963051981 0.1445984615
400297600.0 -0.1185813585 0.1374710773 0.3744767346 -0.4149730954 0.3742069664 -0.4143931663 -0.0947829164 0.1455019694
405297570.0 -0.1175040032 0.138779824 0.3697899798 -0.4181507882 0.3699249218 -0.4182907609 -0.0937800814 0.146830116
410297540.0 -0.1161058353 0.1397041543 0.3656808375 -0.4221646666 0.3657362556 -0.4225009612 -0.092126143 0.1480735033
415297510.0 -0.1143329218 0.1413861459 0.360492309 -0.4265050082 0.3609281081 -0.4264250056 -0.0904604207 0.1494923418
420297480.0 -0.113398376 0.1426987601 0.3557325976 -0.4306609161 0.3558699885 -0.4304587152 -0.0889959928 0.1500077806
425297450.0 -0.1121478666 0.1434333923 0.3513364179 -0.4339829021 0.3516109503 -0.4343569143 -0.0879670034 0.1517359914
430297420.0 -0.1107495605 0.1447786209 0.3468294645 -0.4376513295 0.3464902809 -0.437469746 -0.0860472877 0.1523081465
435297390.0 -0.1094364445 0.1459681938 0.3414694873 -0.4415657899 0.3414774893 -0.441682154 -0.0837660466 0.1533200047
440297360.0 -0.1078344822 0.1473798024 0.3369304265 -0.4450107106 0.3370388585 -0.4455525838 -0.0825927834 0.1542564561
445297330.0 -0.1067092392 0.1481677146 0.3321951125 -0.448977161 0.3322095646 -0.4487167003 -0.0803172517 0.1551318125
450297300.0 -0.1050525246 0.1493757746 0.327018869 -0.4524512897 0.3268938403 -0.4528726229 -0.0791761385 0.1558985493
455297270.0 -0.1036613449 0.1505756623 0.3218634162 -0.4559295016 0.3225501884 -0.4564512655 -0.0772950676 0.1571346288
460297240.0 -0.1024104295 0.1516141857 0.316715245 -0.4596917925 0.3170209066 -0.4597130501 -0.0755725967 0.158217979
465297210.0 -0.1004895556 0.1529014371 0.3118012568 -0.4630104515 0.3119632193 -0.4631980141 -0.0734545413 0.1590899944
470297180.0 -0.0993690751 0.153941884 0.306974486 -0.4665212436 0.3067118515 -0.4667275694 -0.0718233285 0.1600989948
475297150.0 -0.0978873568 0.1547181161 0.3017213765 -0.4693459354 0.3019214061 -0.4693930901 -0.0696180468 0.1608120313
480297120.0 -0.0964116592 0.1561991347 0.296710491 -0.4736019545 0.2963198303 -0.4733350704 -0.0677356933 0.1621032043
485297090.0 -0.0950157654 0.1573108799 0.29133065 -0.4757252322 0.2916436128 -0.4759154278 -0.0662003268 0.1628548478
490297060.0 -0.0938747479 0.1581118121 0.2867573996 -0.4791024578 0.2865379293 -0.4788998877 -0.0641798174 0.1637635037
495297030.0 -0.0921654197 0.1593399599 0.2807621608 -0.4821567719 0.2814809443 -0.4822685192 -0.0628226575 0.1649717287
500297000.0 -0.090428604 0.1602994713 0.2752437821 -0.4850976452 0.2755934649 -0.4848885812 -0.0604567095 0.1663268314
505296970.0 -0.0887701596 0.1611435367 0.2703009726 -0.4879042329 0.2699747893 -0.4881518556 -0.0590168967 0.166706605
510296940.0 -0.087457233 0.1624480643 0.2653210603 -0.4912924145 0.2650227685 -0.4915260857 -0.0568702082 0.1677816887
515296910.0 -0.085633677 0.1635684792 0.2595090341 -0.4940417859 0.2595921621 -0.4938392765 -0.0550195838 0.1683343185
520296880.0 -0.0843130388 0.1642353323 0.2543037078 -0.4972911642 0.2542960969 -0.4966969325 -0.0532321676 0.1692161676
525296850.0 -0.0824980925 0.1647909957 0.2488628223 -0.4996726921 0.2490635673 -0.4997890795 -0.0515378803 0.1700834229
530296820.0 -0.0809441769 0.1659727838 0.2432207891 -0.5023046064 0.2437996083 -0.5021061002 -0.049675796 0.1707271379
535296790.0 -0.0796329599 0.1669855345 0.2382735906 -0.5046135223 0.2383756314 -0.5044668112 -0.0479938192 0.1713128132
540296760.0 -0.0780557176 0.1681298081 0.2325981683 -0.5073597102 0.2324039885 -0.5074126433 -0.0462612237 0.1723694725
545296730.0 -0.0765000854 0.1690533292 0.2267964419 -0.5098757827 0.2268817966 -0.5095465189 -0.0445303288 0.1726114718
550296700.0 -0.0744797648 0.1699228566 0.2213686784 -0.5118996928 0.2214195659 -0.5121968093 -0.0425661705 0.1735887969
555296670.0 -0.0728369225 0.1706372092 0.2160369291 -0.5143370599 0.2162904626 -0.5141290946 -0.0407603052 0.1740743911
560296640.0 -0.0709613615 0.1716727318 0.2101766234 -0.5169707284 0.2105047483 -0.5169885059 -0.0389382369 0.1749017953
565296610.0 -0.0699099702 0.1723929209 0.204894369 -0.5186565221 0.2048478769 -0.519195965 -0.0369848352 0.1753803275
570296580.0 -0.0680603892 0.1733382611 0.1990905818 -0.5217027998 0.1985292486 -0.5212072495 -0.0348297618 0.1761227372
575296550.0 -0.0666210903 0.1743193195 0.1936203326 -0.5234637446 0.1930902958 -0.5235035624 -0.032816471 0.1765205392
580296520.0 -0.0645022202 0.1751789111 0.187191364 -0.5257262226 0.1875811041 -0.5255498675 -0.030977922 0.1769561925
585296490.0 -0.0632579691 0.1752166737 0.1820611537 -0.5272001209 0.1822159336 -0.5276455243 -0.0289339791 0.17739859
590296460.0 -0.0610755325 0.1761632142 0.176337258 -0.5288213025 0.1761879075 -0.5292712579 -0.0275669766 0.1779485391
595296430.0 -0.05943875 0.1771748744 0.1702407595 -0.5315435666 0.1702337035 -0.53100861 -0.0253368554 0.1779608476
600296400.0 -0.0578611979 0.177869855 0.164564021 -0.5328263758 0.1647788618 -0.5326305916 -0.0237111291 0.178424036
605296370.0 -0.0560177212 0.1784829478 0.1584085843 -0.5345316514 0.1589945248 -0.534577498 -0.021126118 0.1787780802
610296340.0 -0.0545600344 0.1791471714 0.1526303186 -0.5363259797 0.1530660677 -0.5359823215 -0.0193523224 0.1789578027
615296310.0 -0.0526032913 0.1795759693 0.1469407338 -0.537539711 0.1470636705 -0.5381892337 -0.0171088893 0.179564335
620296280.0 -0.0508057087 0.1801547647 0.1412170669 -0.5391286257 0.1413634262 -0.5387846362 -0.0153548594 0.179953035
625296250.0 -0.0492563194 0.1805638682 0.1361482949 -0.5411514017 0.1354633653 -0.5409839185 -0.0128075619 0.1801935274
630296220.0 -0.0467332415 0.1816044268 0.1290768413 -0.542177665 0.1293585144 -0.5422130586 -0.0109888723 0.1805234113
635296190.0 -0.0458272836 0.1819138816 0.1239508016 -0.5435018899 0.1236797332 -0.543739154 -0.0087004894 0.1807276493
640296160.0 -0.0438524927 0.1826352127 0.1176584348 -0.5446089828 0.1182370771 -0.5448380075 -0.0070617935 0.1809076405
645296130.0 -0.0418802727 0.1833467388 0.1117607487 -0.5453252288 0.1121970423 -0.5459275163 -0.0048448177 0.1810944301
650296100.0 -0.04018734 0.1837235634 0.1058917564 -0.5473252002 0.1060717598 -0.5469713184 -0.0022893136 0.1810208271
655296070.0 -0.0387442214 0.1841260289 0.1002333452 -0.5480588569 0.1003036104 -0.5477415524 -0.0003484944 0.1812382643
660296040.0 -0.0372816973 0.1843786441 0.0944951596 -0.5493162936 0.0946229364 -0.5495113634 0.0017043395 0.1816862967
665296010.0 -0.035008543 0.1849408661 0.0881056976 -0.5499773523 0.0882055459 -0.5503063791 0.0036877845 0.1823659482
670295980.0 -0.0340567341 0.1858031138 0.0826813309 -0.5507780549 0.0828920527 -0.5512452907 0.0054367092 0.1823578352
675295950.0 -0.0316836213 0.186423202 0.076514752 -0.5517760419 0.0766203113 -0.5511380031 0.0070598571 0.1820928881
680295920.0 -0.0300163192 0.1866225575 0.0703618947 -0.5523738171 0.0699925043 -0.5526508544 0.0094835162 0.1830388383
685295890.0 -0.0279453405 0.1872185497 0.0650023188 -0.5532471489 0.0645121892 -0.5531413015 0.0113047274 0.182666953
690295860.0 -0.0261070456 0.1878581547 0.0587273907 -0.5535275964 0.0584107394 -0.5541292476 0.0131991113 0.1831298848
695295830.0 -0.0242931225 0.1875797773 0.0528947282 -0.5546425384 0.0524137569 -0.5542713614 0.0154799253 0.1829591912
700295800.0 -0.0227151544 0.1882429924 0.0462173972 -0.5545087653 0.0463782757 -0.5547700622 0.0167845173 0.1833869942
705295770.0 -0.0211629988 0.1890174766 0.0407290468 -0.55547517 0.0409463961 -0.5558442604 0.0192090568 0.1837084968
710295740.0 -0.0185800257 0.1891491812 0.034666719 -0.5560108114 0.0349595104 -0.5563065236 0.0214933545 0.1826423844
715295710.0 -0.0171994752 0.1893366406 0.0288987494 -0.5560863225 0.0286802317 -0.5563177108 0.0233260828 0.1825784887
720295680.0 -0.0152001969 0.1895004425 0.0226160851 -0.5566833248 0.0227194779 -0.5563728205 0.0257300356 0.1832999198
725295650.0 -0.0130014305 0.1901242191 0.0165038473 -0.5563090482 0.0170041848 -0.5566821802 0.0269779309 0.1828408263
730295620.0 -0.0111528273 0.1904028323 0.0102271348 -0.5563081598 0.0111567802 -0.5568354873 0.0290666567 0.1824204753
735295590.0 -0.0095601973 0.1907046335 0.0047322478 -0.5570256246 0.0044199733 -0.5567163063 0.0309769007 0.1820537949
740295560.0 -0.0080414962 0.1909547127 -0.0011098048 -0.5562590771 -0.0015937357 -0.5567099459 0.0334966171 0.1820403775
745295530.0 -0.0062963243 0.1911064148 -0.0070684186 -0.5564087764 -0.0074714296 -0.5564945311 0.0354019339 0.1817517457
750295500.0 -0.0038267083 0.1912736402 -0.0134767443 -0.5564762471 -0.0129713301 -0.5564882642 0.0372461623 0.1815359949
755295470.0 -0.0022457293 0.1913192217 -0.018994294 -0.5563692864 -0.0193894946 -0.5565533529 0.039487641 0.1809419591
760295440.0 -0.0004110537 0.1915144611 -0.0251712852 -0.5559832211 -0.0252081464 -0.5564109111 0.0414499603 0.1807049169
765295410.0 0.0014260237 0.1917799101 -0.0315935824 -0.5558417499 -0.0313837249 -0.5559161229 0.0436194892 0.1806722989
770295380.0 0.0029766445 0.1916901936 -0.0375782541 -0.5552114719 -0.0374735976 -0.5551667135 0.0450548625 0.1799802586
775295350.0 0.0048251642 0.1914164966 -0.0435707514 -0.5543523026 -0.0430372779 -0.5546748397 0.0466723248 0.1799297269
780295320.0 0.0066752793 0.1919683783 -0.049067702 -0.5537553253 -0.048689402 -0.5542394335 0.0491423788 0.1788966053
785295290.0 0.0084592953 0.1915295454 -0.0553098396 -0.5531015932 -0.0547869162 -0.553602839 0.0517517435 0.178671145
790295260.0 0.0111366538 0.1922857105 -0.0608386049 -0.5529636119 -0.0598955272 -0.5529403229 0.0533034047 0.178406871
795295230.0 0.0124524948 0.191911654 -0.0670240834 -0.5519903079 -0.0665893013 -0.5523460942 0.0557601174 0.1781686571
800295200.0 0.0143100599 0.1921038768 -0.0735316901 -0.5509872063 -0.0729781392 -0.5515394657 0.0575099581 0.1774435825
805295170.0 0.0163197642 0.1918023895 -0.0789465905 -0.5503270408 -0.0792579747 -0.5511285631 0.0595300087 0.1771653048
810295140.0 0.0179092411 0.1917278998 -0.0844176746 -0.5495235901 -0.084842857 -0.5499694161 0.0617540097 0.1765512097
815295110.0 0.019958435 0.1915315088 -0.0904320756 -0.5485702943 -0.090611359 -0.5488435622 0.0634899974 0.176085546
820295080.0 0.0213666184 0.1920195196 -0.0964273064 -0.5476232777 -0.0961827 -0.5476050856 0.0653443305 0.1755416675
825295050.0 0.0240264659 0.1916248621 -0.1022995156 -0.5462292173 -0.1023308422 -0.5466168674 0.067738384 0.1749449735
830295020.0 0.0256478613 0.19167264 -0.108483461 -0.5452951598 -0.1085459215 -0.5454738693 0.0703767435 0.174430493
