!Created with skrf (http://scikit-rf.org).
# Hz S RI R 50.0 
!freq ReS11 ImS11 ReS21 ImS21 ReS12 ImS12 ReS22 ImS22
300000.0 -0.2300482367 -0.1340601569 0.4657842184 0.0876186447 0.4674298101 0.0855451181 -0.2379319594 -0.1299446909
5299970.0 -0.2419451612 0.0051227322 0.4746691938 0.0062028083 0.4755102364 0.0060137623 -0.2443395132 0.0044363319
10299940.0 -0.2388896622 0.0187161839 0.4774160865 0.0067256295 0.4772734065 0.0072648929 -0.2408818421 0.0171188364
15299910.0 -0.2337279301 0.0287450409 0.480699702 0.0079884688 0.4809540513 0.0079904956 -0.2368083654 0.0263744176
20299880.0 -0.2286407797 0.0370626045 0.4856979263 0.0081229495 0.4855352893 0.0082529947 -0.2320432836 0.0338268651
25299850.0 -0.2225191773 0.0437467014 0.4908212727 0.0077725804 0.4908750033 0.0073189759 -0.2270771516 0.0401278476
30299820.0 -0.2172217135 0.0488980502 0.4962512548 0.0049538695 0.4961338359 0.0047377637 -0.2217859018 0.0449669495
35299790.0 -0.2112484509 0.053020571 0.5008747434 0.001892777 0.5016088617 0.0019193538 -0.216732033 0.0490694907
40299760.0 -0.2062085809 0.0563712815 0.5063152444 -0.0019997468 0.5068450841 -0.0019391831 -0.2120035267 0.0520911044
45299730.0 -0.2010156905 0.0587632187 0.5110686884 -0.0066186888 0.5114740657 -0.0067396332 -0.2069120148 0.0548498656
50299700.0 -0.1960539948 0.0607579054 0.5151335195 -0.0124015449 0.5153565761 -0.0127256054 -0.2024382219 0.0569836331
55299670.0 -0.1920140884 0.0625322657 0.5191484216 -0.0180585885 0.519146914 -0.0184720964 -0.1990782585 0.0584712686
60299640.0 -0.1879027868 0.0640905301 0.5223462886 -0.0246229309 0.5225749021 -0.0247954204 -0.1952445574 0.0596473706
65299610.0 -0.1841469319 0.0650894985 0.5252853667 -0.0306436537 0.5254308982 -0.031082864 -0.1916261227 0.060902826
70299580.0 -0.1806437868 0.0657201161 0.5272676535 -0.0373934498 0.5278879228 -0.0376603034 -0.1891832966 0.0619048651
75299550.0 -0.177901616 0.0667023395 0.5294298614 -0.0448928171 0.5298099257 -0.0445377484 -0.1860606809 0.0627428667
80299520.0 -0.1749099158 0.0677076458 0.5313632171 -0.0514946914 0.53191404 -0.0514264429 -0.183883118 0.0635310928
85299490.0 -0.1723810434 0.0684277296 0.5326855394 -0.0584533501 0.5327764934 -0.0582553469 -0.1816308532 0.064111334
90299460.0 -0.1702066704 0.0688389371 0.5332768746 -0.0650355406 0.5332634656 -0.0646137283 -0.1793748273 0.0648445321
95299430.0 -0.1680296033 0.0696686289 0.5344659208 -0.0719847359 0.5349557907 -0.0724173649 -0.1776023836 0.0658096921
100299400.0 -0.1660596894 0.0703974897 0.5348618112 -0.0787551859 0.5349466431 -0.0789744166 -0.1756764013 0.0663806828
105299370.0 -0.1639314959 0.0710226162 0.5351303152 -0.0858074219 0.5355003187 -0.0859831516 -0.1737446846 0.0668377471
110299340.0 -0.1623195743 0.0715100087 0.5356125224 -0.0921614596 0.5357448104 -0.0920302412 -0.1727462236 0.0674798932
115299310.0 -0.1610673961 0.0725717702 0.5357104177 -0.0991251139 0.5353067329 -0.0990051665 -0.171457374 0.0684616461
120299280.0 -0.1595897508 0.0733030159 0.5354918092 -0.106359956 0.5351325143 -0.106552622 -0.1698056872 0.0685745972
125299250.0 -0.157974166 0.0737618405 0.5346717995 -0.1131073826 0.5347987991 -0.1127146935 -0.1687736183 0.0698176386
130299220.0 -0.1567360469 0.0746506963 0.5344259935 -0.1198479418 0.5342802435 -0.1200908065 -0.1675582026 0.0703969025
135299190.0 -0.1557389279 0.0760134077 0.5342775242 -0.1259115204 0.5338531985 -0.126577283 -0.1664424096 0.0711271194
140299160.0 -0.1541202148 0.0768525843 0.5329111335 -0.1330493993 0.532634246 -0.1326638796 -0.1661233929 0.0716911313
145299130.0 -0.1534066759 0.0779520249 0.5317779129 -0.1393551349 0.5321480425 -0.1395203686 -0.1647509546 0.0729310904
150299100.0 -0.1518753516 0.0787138597 0.5306465397 -0.1458073985 0.5305799828 -0.1459763586 -0.1642539574 0.0740359282
155299070.0 -0.15083907 0.0799984235 0.5290875701 -0.1523599079 0.5298648118 -0.1528783127 -0.1630494243 0.0749721745
160299040.0 -0.1499663291 0.0813343983 0.5282566481 -0.1592354964 0.5282575061 -0.1594577616 -0.1626417386 0.0759584635
165299010.0 -0.1487255989 0.0823408664 0.5265572925 -0.1654268549 0.5263415685 -0.165328543 -0.1614495369 0.0769063875
170298980.0 -0.1479601265 0.0835614169 0.5247963211 -0.1715507628 0.5251898581 -0.172155373 -0.1608882638 0.0777579855
175298950.0 -0.1467925867 0.0847837775 0.523629727 -0.1777475003 0.5239762498 -0.1784586788 -0.1600480338 0.079228062
180298920.0 -0.1460091202 0.0859701612 0.5212240665 -0.1846821474 0.5219660806 -0.1845965899 -0.1594356527 0.0802162145
185298890.0 -0.1449857765 0.0871535454 0.5203276169 -0.1905737217 0.5202328629 -0.1906481774 -0.158474779 0.0810884564
190298860.0 -0.1438148954 0.0887908671 0.5177419504 -0.196732161 0.5186278297 -0.196852289 -0.1580897532 0.0825568221
195298830.0 -0.1432031983 0.0902835048 0.5159464857 -0.202852751 0.5162472995 -0.2026598021 -0.156973351 0.0837191126
200298800.0 -0.1419276055 0.0910660083 0.5137068669 -0.2094155397 0.5139982896 -0.2092349616 -0.1564195849 0.0847676891
205298770.0 -0.1413213689 0.0924946395 0.5115861883 -0.2147997127 0.5119887595 -0.2148718756 -0.1552163481 0.0861181203
210298740.0 -0.1402490487 0.0940578751 0.509639996 -0.2207972799 0.5093116175 -0.2209157156 -0.1550739189 0.0868715233
215298710.0 -0.1393287864 0.0955512731 0.5069552945 -0.2267794584 0.5071695442 -0.226712078 -0.1539352511 0.0883726053
220298680.0 -0.1381029998 0.0968466393 0.5046351296 -0.232541803 0.5046078504 -0.2328568124 -0.1533831695 0.0895084499
225298650.0 -0.1372656842 0.0984459502 0.5020286181 -0.238626922 0.5027040604 -0.2380900832 -0.1526234271 0.0908313723
230298620.0 -0.1360621167 0.0999440806 0.4996080283 -0.2446217016 0.499910075 -0.2447227205 -0.1522966869 0.0918856597
235298590.0 -0.1355484027 0.1013383989 0.4973640161 -0.2506374027 0.4972247759 -0.2499312725 -0.151044244 0.0932087979
240298560.0 -0.1342568177 0.1026738319 0.4944085823 -0.2555242608 0.4943926965 -0.2557376682 -0.1504055591 0.0945173543
245298530.0 -0.1331685484 0.1040752121 0.4916161458 -0.2616943932 0.4917542021 -0.2616288612 -0.1496615197 0.0959416722
250298500.0 -0.1322593576 0.1052976924 0.488782428 -0.2666384321 0.4889956057 -0.26675158 -0.1488342801 0.0975458531
255298470.0 -0.1310812835 0.1071406664 0.4863217917 -0.2725119289 0.4865871056 -0.2729943892 -0.1480308014 0.0988293891
260298440.0 -0.1300040599 0.1084196447 0.4831389741 -0.2773568334 0.4831820713 -0.2778154134 -0.1473273983 0.099659901
265298410.0 -0.1293173986 0.1100300682 0.4800288183 -0.2837747798 0.4803006906 -0.284129335 -0.1457441641 0.1013566447
270298380.0 -0.1282936907 0.1112442692 0.4769510075 -0.2890185399 0.4769462112 -0.2887276057 -0.1450563519 0.1026954866
275298350.0 -0.1270119745 0.1131158845 0.4734143595 -0.294467778 0.4736547484 -0.2944223345 -0.1443320799 0.1041187217
280298320.0 -0.1261659321 0.1144291794 0.4707645007 -0.2995488717 0.470917301 -0.2998825582 -0.1431829688 0.1052681275
285298290.0 -0.1249737783 0.1158739425 0.4674410964 -0.3051407823 0.4676281337 -0.3048391911 -0.1426621338 0.1069727228
290298260.0 -0.1237931418 0.1174947767 0.4645476805 -0.3103017607 0.4643751764 -0.3104780811 -0.1414618762 0.1079732564
295298230.0 -0.1225934639 0.118564944 0.4607169313 -0.3162347607 0.4608272436 -0.3159105231 -0.1404092026 0.1091692286
300298200.0 -0.1211746034 0.1202392319 0.4574702546 -0.3208374265 0.4579646067 -0.3211399908 -0.1394174541 0.110707159
305298170.0 -0.119994026 0.1209901551 0.4539296154 -0.3260388022 0.4543777774 -0.3265032537 -0.1385059785 0.1115615179
310298140.0 -0.1186762721 0.1225563104 0.4503890171 -0.3316178957 0.4503249451 -0.3308935969 -0.1373841911 0.1128419199
315298110.0 -0.1177413463 0.1236177264 0.447386865 -0.3368656437 0.4471062642 -0.3369316858 -0.1365566431 0.1145253226
320298080.0 -0.1163831147 0.1251501245 0.4424388874 -0.3419443657 0.4436331142 -0.3418724519 -0.1356411423 0.1154291164
325298050.0 -0.1157154245 0.1257823439 0.439291594 -0.346470764 0.4395491669 -0.3472216129 -0.1344057127 0.1166250965
330298020.0 -0.114974555 0.1276891896 0.4354198509 -0.3517083153 0.4358414247 -0.3519434028 -0.1339506829 0.1181948151
335297990.0 -0.1134372362 0.1289109311 0.4314067218 -0.3562788554 0.431627836 -0.3568064024 -0.1329448932 0.1193770352
340297960.0 -0.1125450061 0.1302941088 0.4271943926 -0.3612115391 0.4271600564 -0.3617129425 -0.1316329579 0.1209109702
345297930.0 -0.1112772866 0.13154775 0.4233731945 -0.3663168666 0.4234726168 -0.3662755733 -0.1308840056 0.1219581173
350297900.0 -0.1101238168 0.132981632 0.4191522937 -0.370348749 0.4192714707 -0.37045057 -0.1300591773 0.1231662078
355297870.0 -0.1088034263 0.1343421147 0.4149904544 -0.3748665784 0.4151110756 -0.3748076489 -0.1285915924 0.1248668707
360297840.0 -0.1072546374 0.1357154545 0.4105878065 -0.3799683729 0.4108977996 -0.3800766262 -0.1279659459 0.1260370392
365297810.0 -0.1062864507 0.137221159 0.4069819178 -0.3843824838 0.4071210561 -0.3842650889 -0.1272735465 0.1273127637
370297780.0 -0.1047910474 0.1383285886 0.4019602033 -0.3888732553 0.4024259746 -0.388470524 -0.1257798401 0.1284762688
375297750.0 -0.1034262749 0.1399430004 0.3985789076 -0.3932399301 0.3984587878 -0.3930105206 -0.1245502058 0.1300647148
380297720.0 -0.1023468816 0.1410858023 0.3942916381 -0.3978285025 0.393799468 -0.3974559651 -0.1230925205 0.1317058841
385297690.0 -0.1006702338 0.1421742773 0.3891797564 -0.4019318647 0.3897951936 -0.4022280773 -0.122158044 0.1331655833
390297660.0 -0.0990534356 0.1433937497 0.3846951429 -0.4053932612 0.3853564137 -0.4058693391 -0.1204020428 0.13394253
395297630.0 -0.0973638432 0.1444848792 0.3807477575 -0.4100712763 0.3807802009 -0.4100546046 -0.1195056934 0.1354879464
400297600.0 -0.096321387 0.1456707977 0.37601015 -0.4143640968 0.3764209981 -0.4144987002 -0.1180577953 0.1370442414
405297570.0 -0.0948480545 0.1468218592 0.3719535615 -0.4182569121 0.3715919667 -0.4184345773 -0.1166876549 0.1384000783
410297540.0 -0.0932917521 0.1481693552 0.367057967 -0.422708397 0.3675536564 -0.4223162636 -0.1157097742 0.1395056329
415297510.0 -0.091698374 0.1492799327 0.3619938943 -0.4266180043 0.3630078294 -0.4269201868 -0.1139601398 0.1409210052
420297480.0 -0.0902455016 0.1501173629 0.3575951774 -0.4308792798 0.3579320105 -0.4305491091 -0.1124523355 0.1422585958
425297450.0 -0.0881613864 0.1512385997 0.3528831615 -0.4341816977 0.3528631767 -0.4342868587 -0.1114306863 0.1429850124
430297420.0 -0.0871018127 0.1522451881 0.3487762696 -0.438290399 0.348390082 -0.4377811837 -0.1096779908 0.1444416056
435297390.0 -0.0850342741 0.1536356237 0.3431984296 -0.4425936572 0.3437570416 -0.442104969 -0.1089481189 0.1459671305
440297360.0 -0.0835426088 0.1547031024 0.3385163625 -0.4460084203 0.3382618172 -0.4458821871 -0.1072560493 0.1473474909
445297330.0 -0.0817831238 0.155073966 0.3336477665 -0.4490367877 0.3337762265 -0.4496077155 -0.1057426361 0.1484947998
450297300.0 -0.0800416673 0.1564399088 0.3288697805 -0.452928954 0.3291406588 -0.4530278351 -0.1044362891 0.1494411884
455297270.0 -0.0788548625 0.1571504556 0.3241319428 -0.4562014753 0.324009669 -0.4566340288 -0.1029005889 0.1508456319
460297240.0 -0.0765312004 0.1584470389 0.3190016966 -0.4603739395 0.3190258154 -0.4603454541 -0.1014652444 0.1513768022
465297210.0 -0.0750680924 0.159060552 0.3135043827 -0.4635865896 0.3132428722 -0.4636997048 -0.0995216336 0.1530408681
470297180.0 -0.0732632336 0.1600927174 0.3083071812 -0.4665847019 0.3089812208 -0.4665770199 -0.0983866955 0.1536323661
475297150.0 -0.0716644024 0.1611804966 0.3034043661 -0.4700678506 0.3038057823 -0.470822437 -0.0968041068 0.1553080897
480297120.0 -0.0693638909 0.1619992167 0.2984782781 -0.4733125813 0.2987956267 -0.4733611755 -0.0956676837 0.1561052902
485297090.0 -0.0677345303 0.1627368741 0.2931989893 -0.4767175394 0.2932066575 -0.476601499 -0.0941063615 0.1572236549
490297060.0 -0.06555616 0.1636818439 0.2877789717 -0.4800356205 0.2880659979 -0.4797303293 -0.0925890227 0.1580608831
495297030.0 -0.063913261 0.1644057917 0.2828613493 -0.4833263956 0.282926784 -0.4831502867 -0.0905413565 0.1592693363
500297000.0 -0.0621812052 0.1652751237 0.2778763477 -0.4857090109 0.2775508409 -0.4861729326 -0.0891273466 0.1602918151
505296970.0 -0.0597155876 0.1661929752 0.2721176819 -0.4892007973 0.2722966226 -0.4891934621 -0.0875015206 0.1610142311
510296940.0 -0.0580762224 0.166937926 0.2670601164 -0.4925185351 0.2671738495 -0.4925733218 -0.0856729499 0.1625814279
515296910.0 -0.0563149984 0.1681998457 0.2609858656 -0.4946517153 0.2609960906 -0.4946963765 -0.0840158019 0.1628302142
520296880.0 -0.0542411869 0.1685142133 0.255996518 -0.4972144641 0.2554723362 -0.4976783119 -0.0819370262 0.1646102334
525296850.0 -0.0521831725 0.1691703476 0.2504543475 -0.5005252032 0.2502197909 -0.5001926695 -0.0808544267 0.1650252482
530296820.0 -0.0507762533 0.169800614 0.2451539749 -0.503056881 0.2450628585 -0.5030487268 -0.0792495803 0.1660402692
535296790.0 -0.0480747618 0.1705643105 0.2399130819 -0.5053711452 0.2395301259 -0.5053549256 -0.0772025757 0.1670965821
540296760.0 -0.046400755 0.1715394477 0.2337273858 -0.5083390292 0.2335998642 -0.5081387866 -0.0757613025 0.1676138687
545296730.0 -0.0448773634 0.1723741462 0.2285763145 -0.5104394431 0.2282058559 -0.5103054157 -0.0740398855 0.168658298
550296700.0 -0.0420846809 0.1728014982 0.2227390477 -0.5129626424 0.2226203067 -0.5135347327 -0.0722339428 0.1692535926
555296670.0 -0.0405615494 0.1736242525 0.2172774334 -0.5157162907 0.2173030314 -0.515529524 -0.0709297434 0.16976008
560296640.0 -0.0379088291 0.1739357843 0.2113300278 -0.51773566 0.2120145342 -0.5175886925 -0.0690219529 0.1713115757
565296610.0 -0.0365683429 0.1747986684 0.2066187579 -0.5202038235 0.205751663 -0.5194222917 -0.0669932418 0.1720031826
570296580.0 -0.0343677693 0.1754126244 0.2005178465 -0.5222123201 0.2001753548 -0.5219860427 -0.0658097211 0.1721710321
575296550.0 -0.0318954764 0.1757308779 0.1948619729 -0.5244851697 0.1946352992 -0.5245360521 -0.0641114982 0.1732148953
580296520.0 -0.030232654 0.1765342501 0.1892781343 -0.5263774797 0.1887827299 -0.5263941705 -0.0625304486 0.1741320684
585296490.0 -0.0280034375 0.1767939219 0.1837165277 -0.527992735 0.1831153253 -0.5280636496 -0.0603767577 0.1750542021
590296460.0 -0.0253085162 0.1775135394 0.1774024367 -0.5300947942 0.1774337661 -0.5307464182 -0.0589400156 0.1756328588
595296430.0 -0.023776474 0.1780162212 0.1714728241 -0.5319431711 0.1715578586 -0.5319959908 -0.0571856226 0.1759658381
600296400.0 -0.0214669249 0.1784224869 0.1657810484 -0.5339304526 0.1657376971 -0.5335636074 -0.0550976364 0.1766623632
605296370.0 -0.0198957438 0.1789653268 0.1604488076 -0.5353210875 0.1599403649 -0.5357200518 -0.053666189 0.1775707439
610296340.0 -0.0173547033 0.1798144797 0.1542402984 -0.5365419718 0.1543241868 -0.5370150821 -0.0518777067 0.1786884103
615296310.0 -0.0151688924 0.1798125917 0.1480370635 -0.5391455403 0.1482602898 -0.5390003513 -0.0500213642 0.1788084549
620296280.0 -0.0135665137 0.1805462591 0.1426293947 -0.5401512717 0.1424886812 -0.5406954086 -0.0485084647 0.1797852063
625296250.0 -0.0115690873 0.1807742129 0.1367411375 -0.5417306428 0.1367032415 -0.5418406533 -0.0468662508 0.1798012583
630296220.0 -0.0094004562 0.1811985149 0.1307553104 -0.5434960259 0.130463103 -0.54329657 -0.0446239877 0.1807237591
635296190.0 -0.0074186176 0.1817648604 0.1250056109 -0.5443536971 0.1248799687 -0.5445212869 -0.0429686143 0.1812785214
640296160.0 -0.0054198988 0.181896696 0.1191752109 -0.5460849413 0.1190072637 -0.5460444127 -0.0416483034 0.1818070289
645296130.0 -0.0029172196 0.1826727602 0.1132981997 -0.5470307025 0.1132928116 -0.5469825375 -0.0399050214 0.1819401685
650296100.0 -0.0010802199 0.1827189445 0.1070525505 -0.5484242985 0.1068177749 -0.548579796 -0.0373288871 0.182749316
655296070.0 0.0007973203 0.1827646075 0.1010448229 -0.5496720829 0.101260806 -0.5491052728 -0.0363402843 0.1834492236
660296040.0 0.0029734159 0.1832653514 0.0959641887 -0.5504512373 0.0955987698 -0.5506799282 -0.0340953502 0.1835653699
665296010.0 0.0051259652 0.18342117 0.0889708574 -0.551123926 0.089267263 -0.5512722281 -0.0326240302 0.1841575852
670295980.0 0.0070785799 0.1838811542 0.0832350231 -0.5523288399 0.0835539176 -0.5517677865 -0.0311843915 0.1846270189
675295950.0 0.0091677714 0.183851631 0.077265577 -0.5528524311 0.077564929 -0.5531663209 -0.0290677724 0.1850214068
680295920.0 0.0110485418 0.1843192169 0.0716236487 -0.5534345034 0.0713345652 -0.5534890032 -0.0269700238 0.1852617512
685295890.0 0.0132514807 0.1844724871 0.0653950693 -0.5545052798 0.065142247 -0.5546558574 -0.025148278 0.1860812404
690295860.0 0.0151538529 0.1846455676 0.0594310599 -0.5551929181 0.0592619861 -0.555495755 -0.0235287105 0.1863617409
695295830.0 0.0174806928 0.1843927602 0.0538411934 -0.555877721 0.0532312411 -0.5556674707 -0.0218255745 0.1870148884
700295800.0 0.0192706308 0.1848731571 0.0479657948 -0.5560343902 0.0475527455 -0.5561833907 -0.0199394752 0.1870534005
705295770.0 0.0211592472 0.1848951046 0.0416999686 -0.5573434718 0.0416461885 -0.5566604383 -0.0182763062 0.1878363167
710295740.0 0.0231607074 0.1846381556 0.0356050297 -0.5573832008 0.0351735464 -0.5575481762 -0.0160468709 0.1880183472
715295710.0 0.0255027499 0.1850752532 0.029654858 -0.5578068123 0.0293738558 -0.5574807051 -0.0142742157 0.1878650959
720295680.0 0.0277580414 0.1848858638 0.0236672958 -0.5578085225 0.0230915365 -0.5580667397 -0.0124704969 0.1885029788
725295650.0 0.0289215928 0.18494714 0.0177799553 -0.5577045825 0.0177082082 -0.5580061164 -0.0111000825 0.1891130942
730295620.0 0.0305522702 0.1846280072 0.011845133 -0.5572114137 0.0115102724 -0.5576411357 -0.0093701796 0.1894555179
735295590.0 0.0330114247 0.1847260444 0.005852218 -0.5582332057 0.0052025531 -0.5582383611 -0.0072712279 0.1891098919
740295560.0 0.0347324322 0.1844442893 -0.0004381978 -0.5582078714 0.000101623 -0.5585378669 -0.0056545903 0.1898800353
745295530.0 0.0368812023 0.1843244458 -0.0058177531 -0.5574121746 -0.0056176486 -0.5575884142 -0.0040347697 0.1896662695
750295500.0 0.0385312673 0.1844090369 -0.012022615 -0.5578423357 -0.0122859116 -0.5580792492 -0.0020648024 0.1900147009
755295470.0 0.0404663627 0.1840447696 -0.017741907 -0.5577135697 -0.0182733366 -0.5580803458 5.61467e-05 0.1909163619
760295440.0 0.0424166293 0.1842671783 -0.0242979612 -0.5578119506 -0.0244804687 -0.5570851201 0.0019187055 0.1899781387
765295410.0 0.0446875584 0.1835612713 -0.0302770805 -0.557186459 -0.0298351176 -0.5573047578 0.0038146112 0.1903890427
770295380.0 0.0464993101 0.1835673542 -0.0359793973 -0.5564059591 -0.0362703032 -0.5572050328 0.0053723252 0.1905726399
775295350.0 0.0484851542 0.1830768437 -0.0420511901 -0.5565065843 -0.041968853 -0.5560091076 0.0072294257 0.1911314339
780295320.0 0.0504158963 0.1829660331 -0.0479078215 -0.5554367638 -0.0480087171 -0.5556202686 0.0094175897 0.1906798402
785295290.0 0.0525662751 0.18247759 -0.0538729554 -0.5551133047 -0.0540786731 -0.5553544246 0.0108686773 0.1913291248
790295260.0 0.0542517033 0.1818699048 -0.0597156888 -0.5545743486 -0.0598066171 -0.5550512624 0.0125717546 0.1915793381
795295230.0 0.0560920886 0.1816271073 -0.0656657024 -0.5542879133 -0.0659812966 -0.5539582896 0.0144999508 0.1908596419
800295200.0 0.0573397518 0.1816450561 -0.0713227297 -0.553021629 -0.0717725638 -0.5535529458 0.0163344632 0.1912260968
805295170.0 0.0595921438 0.1808070105 -0.0773226051 -0.5523480216 -0.0777023094 -0.5527947293 0.0188272086 0.1908644719
810295140.0 0.0619665031 0.1807441124 -0.08349049 -0.5515040682 -0.0837208254 -0.5517113417 0.0205707929 0.1910294878
815295110.0 0.0634509726 0.1801561289 -0.0889601218 -0.5507906642 -0.089399423 -0.5506913173 0.0219028849 0.1910702982
820295080.0 0.0654210577 0.1795562541 -0.09477109 -0.5491487486 -0.0949145956 -0.5497024994 0.0230933995 0.1914210367
825295050.0 0.0669458838 0.1788982345 -0.1012829014 -0.5486923149 -0.1013681128 -0.5484908469 0.0259099685 0.1914578727
830295020.0 0.0690746337 0.178319226 -0.1070852066 -0.547446181 -0.107098291 -0.5476735933 0.0276557096 0.1907646484
