!Created with skrf (http://scikit-rf.org).
# Hz S RI R 50.0 
!freq ReS11 ImS11 ReS21 ImS21 ReS12 ImS12 ReS22 ImS22
300000.0 -0.0470769238 -0.0406030691 0.0001416038 0.000102279 -0.000415484 0.0009256272 -0.7722994668 -0.1291567573
5299970.0 -0.0487067869 0.0154527937 5.26641e-05 -0.0001069629 -0.000118783 -9.8134e-06 -0.7845186252 -0.007042935
10299940.0 -0.0433979481 0.0320352489 -4.47764e-05 0.000164467 -0.0001385005 2.32129e-05 -0.7875593747 -0.0035393353
15299910.0 -0.0350617264 0.0461478387 -4.31084e-05 0.0001796661 -5.40952e-05 5.53471e-05 -0.7931117187 -0.0016740764
20299880.0 -0.025326307 0.0572325686 -6.27551e-05 0.0001730532 -0.0001258756 0.0001893547 -0.8001872295 0.0020539318
25299850.0 -0.0144892344 0.0665565635 -0.0003009292 0.0003773183 0.0001812121 -2.13349e-05 -0.806074662 0.008188939
30299820.0 -0.0034899212 0.0728934142 8.0375e-06 -5.69653e-05 4.89403e-05 0.0001815182 -0.8119545043 0.016529649
35299790.0 0.0075417578 0.0773856611 1.37164e-05 1.87455e-05 8.0969e-05 -9.30483e-05 -0.8168767905 0.0251241381
40299760.0 0.0189374 0.0803078508 2.3079e-05 -0.0001047725 0.0001332808 -3.78559e-05 -0.8213522277 0.0343317426
45299730.0 0.0296039162 0.0817400234 -8.81991e-05 3.68082e-05 -0.0001145713 5.90088e-05 -0.82550794 0.0439013367
50299700.0 0.0393828356 0.0815389773 -9.2245e-05 -1.70414e-05 2.89601e-05 -6.37289e-05 -0.8273255802 0.0540192655
55299670.0 0.0482361442 0.0803155907 0.0001839249 7.93e-05 -1.67883e-05 9.78991e-05 -0.8295001278 0.0644684501
60299640.0 0.0567930543 0.0788505606 -5.96833e-05 -1.63219e-05 8.81585e-05 4.51882e-05 -0.8305354485 0.0739133511
65299610.0 0.064262108 0.0762024994 -5.15528e-05 -0.0002702332 4.53834e-05 4.71215e-05 -0.8323115899 0.0836512119
70299580.0 0.0711300739 0.073238655 -0.0001019106 3.03436e-05 -6.24621e-05 -4.09403e-05 -0.8318988065 0.0942100038
75299550.0 0.0774702454 0.0701070913 -6.994e-05 0.0001007186 -8.75289e-05 -0.0001660204 -0.83284193 0.1039427858
80299520.0 0.0829852492 0.0665152106 -3.4407e-05 -5.5528e-05 9.88742e-05 4.6841e-06 -0.8323054435 0.1142653398
85299490.0 0.0875240042 0.062583623 0.000194217 0.0001024437 8.49486e-05 6.23327e-05 -0.8319829885 0.1237033258
90299460.0 0.0922928083 0.0590406772 -0.0001809119 -2.92781e-05 1.42997e-05 0.0001732753 -0.8308732683 0.133164939
95299430.0 0.0963358947 0.0549282839 -6.27912e-05 -7.05825e-05 3.51708e-05 -5.67133e-05 -0.8297255551 0.1431396965
100299400.0 0.0996167888 0.0512511206 0.0001151337 0.0001585594 8.48896e-05 -0.0001705732 -0.8285260537 0.1520529818
105299370.0 0.1031175818 0.0472265454 3.76484e-05 3.9225e-05 -0.0001051023 2.3405e-06 -0.8272054793 0.1611436593
110299340.0 0.1058316203 0.0433574497 -9.02498e-05 -8.44796e-05 -0.0002034321 3.69251e-05 -0.8256327878 0.1707459031
115299310.0 0.1084169235 0.0391505583 -5.75826e-05 -2.91173e-05 -3.79484e-05 5.76083e-05 -0.8242745713 0.1799320733
120299280.0 0.1102307405 0.035213218 -9.84162e-05 -7.28207e-05 3.77771e-05 -8.35312e-05 -0.8224035386 0.1886991682
125299250.0 0.1119379034 0.0314748261 7.2714e-06 8.38606e-05 4.90051e-05 5.28019e-05 -0.8208694197 0.1981466851
130299220.0 0.1133894192 0.0278247615 -6.07868e-05 0.0001305303 -7.92586e-05 -1.8206e-05 -0.81891291 0.2068213719
135299190.0 0.1150703867 0.0243889302 8.73244e-05 0.0002081855 1.6576e-06 0.0001165342 -0.8169749325 0.2162317312
140299160.0 0.1163259035 0.0205548674 -0.0001872452 -1.12496e-05 8.7972e-05 -2.83362e-05 -0.8141690875 0.2249334111
145299130.0 0.1174549889 0.0170181856 -0.0001400927 1.18368e-05 -4.76911e-05 6.08538e-05 -0.8125866508 0.2341299298
150299100.0 0.118251703 0.0134559094 -1.30247e-05 9.732e-05 -3.36392e-05 3.0019e-05 -0.8105417454 0.2432587794
155299070.0 0.1186002542 0.0102347678 -5.338e-07 0.0001147582 -6.33626e-05 -2.13165e-05 -0.8074816095 0.2520536998
160299040.0 0.1193891365 0.0069984443 9.92099e-05 -0.0001107879 5.785e-06 4.24392e-05 -0.8049969637 0.2608560563
165299010.0 0.1198591862 0.0035518409 -7.40339e-05 -0.000211448 -0.0001531784 -0.0001868523 -0.8028823563 0.2693388085
170298980.0 0.1200137468 0.0010028597 -8.50816e-05 -7.33697e-05 -5.50273e-05 7.327e-07 -0.7993031079 0.2780380142
175298950.0 0.1204079149 -0.0023037143 4.5615e-05 8.73544e-05 -0.0001279197 1.86049e-05 -0.797260468 0.2866496107
180298920.0 0.1204438749 -0.0053702458 0.000206409 -6.83554e-05 0.0001259507 8.15795e-05 -0.7940284998 0.2950933587
185298890.0 0.1205722437 -0.0084362711 8.26542e-05 0.0001196763 3.3994e-06 5.53181e-05 -0.7903127947 0.3039438797
190298860.0 0.1205707045 -0.0111901543 0.0001578226 -8.9077e-06 -4.25631e-05 0.0001179495 -0.7881374184 0.3122766338
195298830.0 0.1200586549 -0.0139004588 0.0001127188 -0.0001591344 0.0001326521 -0.0002269199 -0.7850014408 0.3212805572
200298800.0 0.1200535209 -0.0165681514 -6.21599e-05 0.0001183284 0.0002605469 0.0001816615 -0.7814982786 0.3292127207
205298770.0 0.1197260552 -0.0192643787 8.81694e-05 0.0001211095 -1.0159e-05 -6.21725e-05 -0.7774058677 0.3375607756
210298740.0 0.1191682711 -0.0218863558 -3.04208e-05 6.74359e-05 -0.0002020595 0.0001410983 -0.7743268312 0.3460302678
215298710.0 0.1184986804 -0.0244676592 0.0001295662 0.000107895 -2.1574e-06 -5.85907e-05 -0.7712948054 0.3539709436
220298680.0 0.1180246307 -0.0269734325 -8.00497e-05 -0.0001095704 5.72865e-05 -0.0001462077 -0.7677405631 0.3623061439
225298650.0 0.1174140725 -0.0295203017 0.0002151084 4.45052e-05 0.0002021146 4.09224e-05 -0.7642512693 0.3703391488
230298620.0 0.1170239712 -0.0316243549 5.57577e-05 -0.0001120646 0.0001802703 -9.78544e-05 -0.7598734612 0.3779499111
235298590.0 0.1164963678 -0.0340151245 7.1099e-05 7.3187e-05 4.71199e-05 -5.50428e-05 -0.7556566 0.387508717
240298560.0 0.1156487283 -0.0365611269 0.0001107467 0.0001433797 -0.0002048565 -0.0001691847 -0.7519030821 0.3951382138
245298530.0 0.115148535 -0.0387669759 0.000133947 -0.0001665091 -3.82753e-05 -5.35959e-05 -0.7480804175 0.4023381682
250298500.0 0.1141619488 -0.0409048248 -4.6811e-05 -2.47331e-05 3.16027e-05 0.000172472 -0.7434155149 0.4103493941
255298470.0 0.1129487548 -0.043179351 0.0004053509 0.0001111587 0.0001193533 0.0001030589 -0.7387129407 0.41804067
260298440.0 0.1124500359 -0.0452004882 6.51717e-05 1.65976e-05 0.0001416921 5.2815e-05 -0.734886889 0.4263204912
265298410.0 0.1113613652 -0.047095738 0.0001060302 5.44358e-05 -5.97331e-05 0.0001377317 -0.7304180232 0.4341909759
270298380.0 0.1105255346 -0.0490403968 0.000249865 -0.0001264463 6.30793e-05 -0.0002545663 -0.7255421565 0.4408732895
275298350.0 0.1095830058 -0.0510784572 -0.0001252564 6.60551e-05 -6.26198e-05 0.0001113179 -0.7207997416 0.4488260573
280298320.0 0.1089256635 -0.0531836781 0.0001771454 -0.000127157 3.88454e-05 9.45052e-05 -0.7158502629 0.4561377504
285298290.0 0.1078885828 -0.0547886696 3.59545e-05 6.84521e-05 -6.15293e-05 0.000194775 -0.7106901939 0.4637341527
290298260.0 0.1070765615 -0.0568259659 0.0001493756 -1.18751e-05 -1.09648e-05 -0.0001599774 -0.7062854448 0.471072925
295298230.0 0.1060413757 -0.0589554807 2.58114e-05 -0.0001773631 0.0001384851 -0.0001185543 -0.7009896009 0.4783207072
300298200.0 0.1049570278 -0.060440785 0.0002216109 0.0001310205 2.7368e-06 -2.93932e-05 -0.6960067058 0.4851978271
305298170.0 0.1039312293 -0.0624998034 3.2497e-05 0.0001653894 0.0001883255 0.0002556778 -0.6902982578 0.4933293621
310298140.0 0.1030256274 -0.0640070596 -0.0001930996 -0.0001490624 8.4307e-05 8.80277e-05 -0.6860789056 0.4999548234
315298110.0 0.1018341635 -0.0658856682 0.0002068015 0.0003652504 0.0001208048 0.0001825874 -0.6800566272 0.506975246
320298080.0 0.1008640312 -0.068201111 -0.0001112123 0.0003113576 0.0003840571 -0.0001539397 -0.6747486484 0.5143905698
325298050.0 0.0992995646 -0.0697245299 -5.49806e-05 0.0002286896 0.0001696411 3.27967e-05 -0.6686181928 0.5211706233
330298020.0 0.0978776286 -0.0717195474 -1.90214e-05 0.0002872951 8.91999e-05 -9.16505e-05 -0.6639632841 0.5284677718
335297990.0 0.0964276671 -0.0734274374 -3.78256e-05 1.25351e-05 2.41753e-05 0.0001981916 -0.6586885169 0.5355684029
340297960.0 0.0950331471 -0.0747544012 -0.0001113586 -3.84469e-05 0.0001759426 9.14366e-05 -0.6525172501 0.5426836319
345297930.0 0.093246898 -0.0760716682 -0.0001338807 -7.70143e-05 0.0001228814 -7.19013e-05 -0.6466411453 0.5483239516
350297900.0 0.0921411809 -0.0773543091 0.0003807052 -9.78245e-05 5.10565e-05 1.3699e-06 -0.6408320623 0.5555409869
355297870.0 0.0907722265 -0.0787774796 0.000321362 2.58399e-05 6.09197e-05 9.43563e-05 -0.6360278862 0.5619709071
360297840.0 0.0891996229 -0.080138615 7.58899e-05 0.0003336749 4.32855e-05 6.3147e-05 -0.6297457325 0.569175521
365297810.0 0.0877039541 -0.08123194 0.0001823738 2.69712e-05 0.0001816925 0.0001128453 -0.6232332159 0.5754644263
370297780.0 0.0867169056 -0.0824957392 9.56211e-05 -0.0001242942 0.0001254723 7.12379e-05 -0.6175565284 0.5818711384
375297750.0 0.0851902232 -0.0837929067 4.27734e-05 0.0001153926 0.0001367271 -5.99193e-05 -0.61198597 0.5878310174
380297720.0 0.0837247315 -0.0851596854 0.0001885494 2.79827e-05 7.08817e-05 6.054e-07 -0.6055046298 0.5940794361
385297690.0 0.0823355857 -0.0862420228 0.000180646 0.0001053189 9.79673e-05 0.0001661337 -0.5991099794 0.6010496978
390297660.0 0.0807707762 -0.0872266225 0.0002101162 5.43023e-05 -2.50791e-05 -0.0001303844 -0.5932620431 0.6067402355
395297630.0 0.0795820293 -0.0885179901 6.40112e-05 0.0001005619 -1.82671e-05 6.42365e-05 -0.5866921503 0.6134137163
400297600.0 0.0779659808 -0.089786662 3.62829e-05 2.58672e-05 -7.96495e-05 -5.46667e-05 -0.5808286935 0.619051508
405297570.0 0.0763139673 -0.0908544849 -0.0001771678 7.7267e-06 2.40087e-05 -4.69026e-05 -0.574035976 0.6249861674
410297540.0 0.0749390312 -0.0918077756 4.9133e-05 -8.29529e-05 5.92261e-05 1.984e-05 -0.567616355 0.6308917997
415297510.0 0.0737683206 -0.0929774133 -7.59665e-05 -5.44356e-05 2.43662e-05 -6.38045e-05 -0.5610926387 0.6363041915
420297480.0 0.0718905249 -0.0935013738 4.94711e-05 7.97077e-05 8.13315e-05 -0.0001074095 -0.5545456257 0.6424925464
425297450.0 0.0705965965 -0.0948314618 0.0001982111 0.0002101104 0.000139568 -3.30788e-05 -0.5477306502 0.6480864259
430297420.0 0.0690643249 -0.0958924848 -0.0001117009 -2.14575e-05 0.0001339747 7.32628e-05 -0.5413812623 0.6532893527
435297390.0 0.0673356611 -0.0967142968 5.46098e-05 -0.0001718721 5.30118e-05 4.25045e-05 -0.5339990915 0.6588922844
440297360.0 0.0658480968 -0.0977784145 -4.6254e-06 2.54383e-05 1.78461e-05 0.0001315141 -0.5275416603 0.6635160133
445297330.0 0.0645990384 -0.0986378026 -4.91403e-05 -8.05877e-05 0.0001723947 8.9793e-05 -0.5203385121 0.668932583
450297300.0 0.062625728 -0.0997892894 1.33734e-05 -6.6034e-05 0.000136661 -4.12131e-05 -0.5132776674 0.6740944326
455297270.0 0.0611364651 -0.1005566841 9.01719e-05 0.0001914013 9.36843e-05 0.0001125331 -0.5064401969 0.6787551661
460297240.0 0.0595373385 -0.1012216551 -2.46424e-05 -1.07461e-05 0.0001503011 -5.35534e-05 -0.4996274851 0.6843562102
465297210.0 0.0582599416 -0.1020294268 0.0004060885 -8.83474e-05 1.39531e-05 0.000218892 -0.492136766 0.6891841912
470297180.0 0.0565711572 -0.1025386295 0.0002387263 0.0002841741 0.0001198695 0.0001314653 -0.4850498383 0.694608716
475297150.0 0.0548987124 -0.103342786 3.17466e-05 0.0001325177 -0.0001034223 -0.0001950259 -0.4777968504 0.6983580158
480297120.0 0.0536132119 -0.1041068995 2.986e-05 0.0001116775 -8.5147e-05 0.0001039978 -0.4698593875 0.7037913228
485297090.0 0.0519115569 -0.104836261 7.18102e-05 0.0002434827 0.0001419604 0.0001305909 -0.4628765268 0.7087913652
490297060.0 0.0499662607 -0.1053267222 2.36125e-05 0.0001574487 0.0002804254 -0.0002525001 -0.4557133658 0.7127656718
495297030.0 0.0484972812 -0.1061598601 5.85731e-05 -4.60609e-05 4.61347e-05 -0.0001510943 -0.448347908 0.7180955907
500297000.0 0.0469921101 -0.1066852961 -0.0001423012 7.60003e-05 2.05196e-05 9.13816e-05 -0.4406765408 0.722438295
505296970.0 0.0455584767 -0.1074595353 0.0001819985 -0.0001148521 0.0001526674 3.74069e-05 -0.4336261822 0.7268221653
510296940.0 0.0438782695 -0.1079372287 0.0001576839 8.8515e-05 -2.11577e-05 7.29881e-05 -0.4261510493 0.7310398575
515296910.0 0.042355423 -0.1082720642 -1.94054e-05 0.0002523288 -1.81264e-05 -6.10772e-05 -0.4181589033 0.7353193175
520296880.0 0.0405937256 -0.1091328845 -0.0001178212 -9.65254e-05 9.15873e-05 -1.90374e-05 -0.4114521706 0.7395184681
525296850.0 0.0388134954 -0.1097345331 1.57962e-05 -2.62e-05 0.0001027792 0.0003194531 -0.4037539161 0.7442174329
530296820.0 0.0374432153 -0.1096386869 -2.18586e-05 -7.23401e-05 9.02341e-05 0.0001326429 -0.3962117332 0.7477595617
535296790.0 0.0355860271 -0.1102245648 0.0001002938 -2.45507e-05 0.0002082514 0.0001326914 -0.3891561633 0.7516490389
540296760.0 0.0339691874 -0.1106558652 3.60217e-05 -2.07468e-05 -5.69967e-05 2.06068e-05 -0.3815765088 0.7557333258
545296730.0 0.0322525815 -0.1111283476 0.000131319 4.66255e-05 8.08066e-05 0.0001088951 -0.3733854607 0.7592641013
550296700.0 0.0307911069 -0.1113617983 0.0002713173 -7.80461e-05 1.27222e-05 0.0002075529 -0.3653328118 0.7636707996
555296670.0 0.0287098709 -0.1118781489 -8.66525e-05 0.0001554149 2.21822e-05 7.39438e-05 -0.3577235142 0.7675678454
560296640.0 0.0275229095 -0.1120943989 9.56459e-05 5.09647e-05 -7.38521e-05 -2.24719e-05 -0.3501536798 0.7708806847
565296610.0 0.0256471804 -0.1122886463 0.0002014846 8.37834e-05 0.0001747618 1.38666e-05 -0.3418321654 0.7738947188
570296580.0 0.0237227293 -0.1125731396 0.0001898892 4.73624e-05 0.0001062348 -4.07799e-05 -0.3344746403 0.7774215089
575296550.0 0.021998047 -0.1127754973 0.0002827516 2.6504e-06 8.66225e-05 4.77814e-05 -0.3266585146 0.7808167004
580296520.0 0.0206147136 -0.1131173503 0.0001290684 -0.0001515025 0.0001016999 -0.0001098116 -0.3180314381 0.7840480532
585296490.0 0.0187027165 -0.11358941 1.57016e-05 -0.0003663247 8.28422e-05 -7.2266e-05 -0.3101504629 0.7879825134
590296460.0 0.0177021876 -0.1132862792 -5.9783e-06 6.00425e-05 -5.831e-06 0.0001595205 -0.3023217215 0.7905116746
595296430.0 0.0156316492 -0.11359457 0.0002619512 -0.0002153331 0.0002459911 -1.90222e-05 -0.2946403972 0.7929103484
600296400.0 0.0138769989 -0.113798942 0.0002055306 -3.5946e-06 0.000300053 0.000165938 -0.286858596 0.7955632911
605296370.0 0.0119815727 -0.1137332586 0.000102516 4.24678e-05 0.0001861973 -0.0001188066 -0.2777878828 0.7986922534
610296340.0 0.0103421538 -0.1139148191 7.65843e-05 8.56582e-05 0.0002564669 0.0002310964 -0.2700845061 0.8011256951
615296310.0 0.0089630558 -0.1139752025 0.0003669749 -0.0001142099 0.0002022015 0.0002221925 -0.2615322325 0.8040415004
620296280.0 0.006860842 -0.1141181213 5.9001e-05 5.91857e-05 0.0003651202 -0.0002319687 -0.2542762862 0.8064188955
625296250.0 0.0053987376 -0.1142005964 0.0002068404 -4.15925e-05 0.0001849084 -9.60612e-05 -0.2453330047 0.8080120176
630296220.0 0.0040606888 -0.1143990617 0.0001034152 -5.00096e-05 0.0001165897 0.0001004834 -0.237687981 0.8112495543
635296190.0 0.0018276829 -0.1139352051 -9.32263e-05 -5.23685e-05 -5.59593e-05 -0.0001258974 -0.2292852509 0.8129288784
640296160.0 0.0003348233 -0.1140374911 0.0002201707 7.4245e-05 0.0001437493 0.0001734007 -0.2212118506 0.8155634977
645296130.0 -0.0013938464 -0.1138962979 -0.0001211332 -5.73578e-05 0.0001842401 -2.10654e-05 -0.2125769055 0.8174559975
650296100.0 -0.0029551289 -0.1137724185 -4.01155e-05 4.54314e-05 0.0001632244 -0.0001063816 -0.2051973932 0.8191176748
655296070.0 -0.0050734911 -0.1134210496 2.3876e-06 -1.69463e-05 0.0001106585 1.03148e-05 -0.1959401462 0.8211768657
660296040.0 -0.0064647701 -0.1136127362 0.0001585022 -0.0002411349 -8.4644e-05 -8.8766e-06 -0.1875471346 0.8232491969
665296010.0 -0.0078583933 -0.1136333325 0.0002372347 4.8108e-06 3.18333e-05 -3.62312e-05 -0.1793277368 0.8254099321
670295980.0 -0.0098564655 -0.1130538679 3.85573e-05 -2.04503e-05 0.0001011807 -4.76669e-05 -0.1715946819 0.8265866077
675295950.0 -0.0114116775 -0.1128728223 -1.02055e-05 6.79272e-05 0.0001610055 0.0001298894 -0.1634576639 0.828576767
680295920.0 -0.0129309832 -0.1125051926 0.0001374436 8.47684e-05 0.0001225694 0.0001018284 -0.1545879541 0.8312074118
685295890.0 -0.0144933782 -0.1120934728 -3.7845e-06 -3.90452e-05 9.27238e-05 0.000169684 -0.1458740992 0.8315617258
690295860.0 -0.0160877816 -0.1119613576 5.4181e-06 0.0002118451 0.0003284066 7.46173e-05 -0.1381167379 0.833812436
695295830.0 -0.017880422 -0.1115721261 0.0001585583 8.71092e-05 0.0001124371 4.12354e-05 -0.1293866698 0.8349048828
700295800.0 -0.0195750875 -0.1115443735 0.0002793383 -0.0002621092 0.0001451044 5.52533e-05 -0.121764163 0.8365459735
705295770.0 -0.0213636606 -0.1108804133 -5.18e-08 0.0001139429 0.000219458 2.74018e-05 -0.1135977357 0.8384304462
710295740.0 -0.0228778969 -0.1103573724 -6.71531e-05 2.69095e-05 0.0001901634 -7.809e-05 -0.1045888401 0.8387798804
715295710.0 -0.0248287038 -0.1101239178 2.17728e-05 -3.68835e-05 1.7577e-05 -5.75395e-05 -0.0964365909 0.8396606198
720295680.0 -0.026162458 -0.1098312901 0.0001257447 2.42485e-05 0.0001975664 -2.97031e-05 -0.0873586726 0.8411006748
725295650.0 -0.0278538374 -0.1093109451 0.00015546 -0.0002869348 -3.88398e-05 -3.42745e-05 -0.0797172471 0.841803275
730295620.0 -0.0292182155 -0.1085593993 1.58926e-05 -4.64102e-05 0.0001680932 -1.9645e-05 -0.0716582034 0.8419785438
735295590.0 -0.0306652038 -0.108128657 0.0002585359 0.0001685028 7.93109e-05 0.0002012604 -0.0629477532 0.8428371693
740295560.0 -0.0327055727 -0.1077436589 0.0002374473 -4.47111e-05 0.0001764982 -0.000116313 -0.0537149451 0.8435262454
745295530.0 -0.034405403 -0.106902408 0.0003387116 0.0001430507 7.21219e-05 0.0001881482 -0.0456216705 0.8439085027
750295500.0 -0.0358201357 -0.106457792 3.22121e-05 7.20976e-05 7.32874e-05 -0.0001640502 -0.037758934 0.8444887534
755295470.0 -0.0373259509 -0.105816353 9.1152e-06 -7.53868e-05 0.0003608857 4.81923e-05 -0.0292362795 0.8443206992
760295440.0 -0.0388832073 -0.1050840867 6.92205e-05 -0.0002124162 -8.41216e-05 -0.0001585995 -0.0206333982 0.8444351106
765295410.0 -0.0403501755 -0.1046168271 -3.03103e-05 3.25031e-05 0.0002965882 -0.0002109669 -0.0125628712 0.8451027344
770295380.0 -0.0421228514 -0.1044588026 -7.25863e-05 -0.0002239853 6.22518e-05 5.1495e-05 -0.0038454148 0.8447215515
775295350.0 -0.0435906659 -0.1036225782 -8.74156e-05 1.6733e-05 0.000177746 3.82616e-05 0.0035315532 0.8442056377
780295320.0 -0.045262549 -0.1029024971 9.4051e-06 -0.0001039519 0.0001760475 -4.31391e-05 0.0130401306 0.844228135
785295290.0 -0.0470450226 -0.1021495594 3.1539e-05 -0.000179734 0.0003030443 -5.37431e-05 0.0215448144 0.8439099771
790295260.0 -0.0482523549 -0.1011567892 -3.7248e-06 -0.000164636 7.45821e-05 8.6467e-06 0.0303922052 0.8444851845
795295230.0 -0.0495531652 -0.1003511619 0.0002154024 -5.52646e-05 0.000309324 0.0001272215 0.0389636858 0.8431468852
800295200.0 -0.0513370364 -0.0995964812 2.47783e-05 -0.0001506427 0.0001160187 1.27756e-05 0.047203992 0.8427077699
805295170.0 -0.0528826221 -0.099308933 0.0003959049 -0.0002912136 0.000106491 0.0001518176 0.0551095066 0.8427712399
810295140.0 -0.0538837112 -0.0982814219 -3.83577e-05 -4.64398e-05 0.0001164425 0.0002067715 0.0633614127 0.8417133314
815295110.0 -0.0555028363 -0.0976624689 0.000193698 -0.0001165048 0.000121761 -5.80416e-05 0.0718503755 0.8409354851
820295080.0 -0.0569993781 -0.0963763698 0.0002768016 0.0001095475 0.0001670666 -8.44884e-05 0.0808844082 0.8404073138
825295050.0 -0.0583477247 -0.0958751736 0.0001700207 3.82941e-05 0.0002445616 -0.0002209095 0.0888947912 0.8399528921
830295020.0 -0.0599418242 -0.0948850584 7.63471e-05 -0.0001123423 0.0002410823 3.12058e-05 0.097910495 0.8385156575
835294990.0 -0.0615349542 -0.0937998222 0.0001420387 -5.79377e-05 0.0002542695 0.0002108936 0.1056451771 0.8376378382
840294960.0 -0.0627530312 -0.0928273299 0.0004340879 0.0002022578 0.0003082542 -0.0001077429 0.1143408039 0.8369187045
845294930.0 -0.0643307958 -0.0918621548 9.68866e-05 -6.03974e-05 6.01025e-05 -0.000175104 0.1218815763 0.8353126494
850294900.0 -0.0653165165 -0.090788151 7.87144e-05 -0.0001273132 0.0002771265 9.05018e-05 0.1302040036 0.8343556184
