!Created with skrf (http://scikit-rf.org).
# Hz S RI R 50.0 
!freq ReS11 ImS11 ReS21 ImS21 ReS12 ImS12 ReS22 ImS22
300000.0 -0.2365198415 -0.121972534 0.467342164 0.0805000144 0.4652669184 0.080500631 -0.2336886182 -0.1281861069
5299970.0 -0.2447482361 0.0055441896 0.4732526053 0.0057422086 0.4741409701 0.0058723837 -0.2437377245 0.0054558589
10299940.0 -0.2419584518 0.0184190691 0.4761462595 0.0068687111 0.4760619916 0.007347457 -0.2400524618 0.018050876
15299910.0 -0.2369071177 0.0284253533 0.4794548371 0.0084661649 0.4795420312 0.0082347829 -0.2360305661 0.0273472483
20299880.0 -0.2316116159 0.0362190779 0.4844615538 0.0085519 0.4843389811 0.0084938084 -0.2311925539 0.035260907
25299850.0 -0.225614871 0.0427914411 0.4901050461 0.0079766693 0.4898236628 0.0078718859 -0.225960723 0.0416389475
30299820.0 -0.2202652696 0.0478837265 0.4952412674 0.0055887246 0.4950937824 0.0055972513 -0.2205560566 0.0468320684
35299790.0 -0.2142375902 0.0519241102 0.4998389673 0.0023272832 0.5006378026 0.0023875573 -0.21567892 0.051377413
40299760.0 -0.209149413 0.0547025638 0.5055455871 -0.0012737454 0.5054605884 -0.0015933991 -0.21072163 0.0548072673
45299730.0 -0.2041368946 0.0572237751 0.5103813676 -0.0062795642 0.510501042 -0.0064759809 -0.2056226575 0.0573960089
50299700.0 -0.1990296606 0.0590334322 0.5145372814 -0.0118822856 0.514631917 -0.0121041706 -0.2012079646 0.0601320012
55299670.0 -0.195114231 0.0604742073 0.5183472595 -0.0172396417 0.5179039779 -0.0180382405 -0.1976974576 0.0618468865
60299640.0 -0.1907411084 0.0617394191 0.5220450779 -0.0239014852 0.5217775901 -0.0242104928 -0.1936912366 0.063347451
65299610.0 -0.1871079087 0.0626616813 0.5248361689 -0.0302103462 0.5250130312 -0.0305389249 -0.1900610843 0.0647336649
70299580.0 -0.1839073175 0.0631535321 0.5268069656 -0.0368925624 0.5273501148 -0.0370321266 -0.1872264436 0.0659819955
75299550.0 -0.1810436269 0.0636572012 0.528955595 -0.04370794 0.5294339961 -0.0441111013 -0.1842251331 0.0672189896
80299520.0 -0.1784502086 0.0645454435 0.5310458445 -0.0505226506 0.5312631909 -0.0509173003 -0.181157118 0.068128494
85299490.0 -0.1755436812 0.064677437 0.5320535617 -0.0579148036 0.5325727435 -0.0573936266 -0.1791017443 0.0686399897
90299460.0 -0.1734338672 0.0655576597 0.5330280737 -0.0647235537 0.5332562744 -0.064593074 -0.1768554936 0.0698207974
95299430.0 -0.1712123242 0.0658649094 0.534015813 -0.0713671228 0.5344518669 -0.0718276004 -0.1748247276 0.0705950417
100299400.0 -0.1694169113 0.0660354666 0.5346273785 -0.0785316585 0.5345942805 -0.0784429603 -0.1733563577 0.0717662156
105299370.0 -0.1675408808 0.0664002806 0.5346250184 -0.0850033311 0.5355551035 -0.08535386 -0.1709891354 0.0722014191
110299340.0 -0.1659270796 0.0669200616 0.5352678373 -0.0916804312 0.5354202075 -0.0919738401 -0.1696546665 0.07284249
115299310.0 -0.1644451977 0.0676676784 0.5349531322 -0.0985994691 0.5349985795 -0.0989798715 -0.1681217534 0.0741963067
120299280.0 -0.163287476 0.0681107588 0.5351451494 -0.1058166161 0.534783461 -0.106057403 -0.1664466459 0.0748574317
125299250.0 -0.1617635914 0.0686926025 0.5345138419 -0.1123513868 0.5345824463 -0.1123047021 -0.165330437 0.0759292456
130299220.0 -0.1606885962 0.0693055551 0.5340899479 -0.1193186094 0.533882486 -0.119872528 -0.1639531231 0.0770526162
135299190.0 -0.1597165855 0.0701761909 0.5336457702 -0.1257980412 0.5337321321 -0.1262134113 -0.1627816034 0.0778787776
140299160.0 -0.1584587726 0.0709512247 0.5331548512 -0.1328323917 0.5323815428 -0.1325302032 -0.1622204974 0.0787029865
145299130.0 -0.1579044193 0.0715131743 0.5315271455 -0.1389956593 0.532057566 -0.1388782868 -0.1606548773 0.0801392827
150299100.0 -0.1568430897 0.0725547005 0.530598482 -0.1454944586 0.5303473905 -0.1459077068 -0.1598908477 0.0812293339
155299070.0 -0.1554156716 0.0733883939 0.5287644914 -0.1520789604 0.5292826643 -0.1524118669 -0.1588562349 0.0822199945
160299040.0 -0.1549960792 0.0745123332 0.5280670918 -0.1586186056 0.5282667732 -0.1587414893 -0.1580287916 0.0837175758
165299010.0 -0.1538296836 0.0753267467 0.5266048316 -0.1647958294 0.5265519864 -0.1652209645 -0.1567526297 0.0844534593
170298980.0 -0.1534889166 0.0760768637 0.5247298956 -0.1709541847 0.5251407099 -0.1718713647 -0.1561240808 0.085607267
175298950.0 -0.1520314942 0.0773308351 0.5233412084 -0.1778970241 0.5238266714 -0.1785493561 -0.1547689732 0.0874618065
180298920.0 -0.1516519161 0.078377148 0.5215272911 -0.1840772352 0.5217587566 -0.1844492398 -0.1538912782 0.0885571179
185298890.0 -0.1506758539 0.0795338032 0.5199279001 -0.190221336 0.519571388 -0.1903407547 -0.1525757707 0.0895451753
190298860.0 -0.1498074417 0.0807437581 0.517808525 -0.196430441 0.517911343 -0.1963318189 -0.152040725 0.0910295723
195298830.0 -0.1493291055 0.0819825966 0.5160258996 -0.2024945844 0.5163357052 -0.2027380141 -0.1511834211 0.0924900646
200298800.0 -0.148225732 0.0827813642 0.5139979187 -0.2094398935 0.514058454 -0.2088906416 -0.1498901643 0.0935048953
205298770.0 -0.1478122395 0.0838675827 0.511293218 -0.214504274 0.5118486323 -0.2145853508 -0.148943615 0.0950314402
210298740.0 -0.1470679296 0.0853440612 0.5096048245 -0.2208288938 0.5092544207 -0.220902728 -0.1485126663 0.0965257421
215298710.0 -0.1463003673 0.0866781431 0.5071994482 -0.2265957311 0.5069780098 -0.226613017 -0.1471221868 0.0976760999
220298680.0 -0.1450758446 0.0878998564 0.5042622897 -0.232552914 0.5044832738 -0.2327866883 -0.1463255943 0.0991921534
225298650.0 -0.1447925862 0.089014761 0.502016925 -0.2384029813 0.5022131237 -0.2381651971 -0.1453529248 0.1001957113
230298620.0 -0.1436723117 0.090682495 0.4998052117 -0.2446202677 0.4998782534 -0.2449232948 -0.1443601913 0.1019262457
235298590.0 -0.1435227993 0.0917529151 0.4974529312 -0.2505430959 0.4972585614 -0.250398393 -0.1434304791 0.1033929929
240298560.0 -0.1422372527 0.0930733164 0.4943708945 -0.2555716729 0.4942810565 -0.2558350665 -0.1424958739 0.1045327688
245298530.0 -0.1415576396 0.0940804833 0.4915628316 -0.2615155365 0.4914359218 -0.2613509631 -0.1414717687 0.1061162961
250298500.0 -0.1410081557 0.0956438162 0.4888083613 -0.2670570124 0.4890874924 -0.2668091323 -0.140729599 0.1078451902
255298470.0 -0.1397285077 0.0970122989 0.4862745116 -0.2722724901 0.4864819058 -0.2725904863 -0.1395322782 0.1092582889
260298440.0 -0.139261915 0.0981852149 0.4828110557 -0.2776815778 0.4833987158 -0.2777559181 -0.1386998579 0.1103248173
265298410.0 -0.138643777 0.0997690829 0.4796362564 -0.2837022738 0.4798299154 -0.2841168814 -0.1368744321 0.1116962311
270298380.0 -0.1376379821 0.1008209111 0.4767684207 -0.2891880128 0.4770808165 -0.2890902956 -0.1356733884 0.1137663152
275298350.0 -0.1365738456 0.1025813748 0.4729237553 -0.2940232905 0.4738028774 -0.2941818863 -0.1345567048 0.115048056
280298320.0 -0.1361068195 0.1036601265 0.4703996598 -0.2992757354 0.4708798675 -0.299982493 -0.1333847097 0.1164521332
285298290.0 -0.1353533696 0.1049819693 0.4677446432 -0.3048629916 0.4677249598 -0.3051643878 -0.1323012578 0.1181615097
290298260.0 -0.1342406277 0.106364004 0.4645897773 -0.3108062146 0.4643206242 -0.3105496791 -0.1312255261 0.1193027197
295298230.0 -0.1334803971 0.1073536497 0.4607267761 -0.3161228078 0.4607691342 -0.3159813327 -0.1300655788 0.1204406403
300298200.0 -0.132600498 0.1092595995 0.4575436837 -0.3213265564 0.4576638235 -0.3209027149 -0.1287276159 0.1221482936
305298170.0 -0.1314073296 0.1099832785 0.4538878747 -0.3261849198 0.4539883971 -0.3263403508 -0.1271941962 0.1228594396
310298140.0 -0.1302024845 0.1114596127 0.4508100628 -0.3313962274 0.4506556408 -0.3312620502 -0.1259092872 0.1245011821
315298110.0 -0.1297320939 0.1122333216 0.4472603461 -0.3370762866 0.4466933883 -0.3366819414 -0.1246892523 0.1257380453
320298080.0 -0.1284891393 0.1136305042 0.4424951958 -0.3418002657 0.4434137907 -0.3418193807 -0.1236691104 0.1270193647
325298050.0 -0.1281023555 0.1146080767 0.4390990314 -0.3466158273 0.4393631157 -0.3469541262 -0.1221862207 0.1283899786
330298020.0 -0.1272988826 0.1160022637 0.4344982547 -0.3518568089 0.4355991929 -0.3518926578 -0.1214572044 0.1294298692
335297990.0 -0.1264485515 0.117470845 0.4313757838 -0.3565742705 0.4313241871 -0.3567146798 -0.1197383341 0.1311125334
340297960.0 -0.1258699241 0.1185203009 0.4270592223 -0.3618416147 0.4268053454 -0.3612555464 -0.1187289067 0.1325374604
345297930.0 -0.1250042864 0.1200162462 0.4228145463 -0.3661246373 0.4231474059 -0.3662680803 -0.1173397741 0.1339299235
350297900.0 -0.1240269532 0.1212603552 0.4190646483 -0.3706143903 0.4195302654 -0.3709407993 -0.1162152779 0.1352231631
355297870.0 -0.1231349367 0.1225400262 0.4150058056 -0.3749137771 0.4149622656 -0.3751578272 -0.1145699991 0.1368586654
360297840.0 -0.1222350174 0.1236569871 0.4105170073 -0.3797947859 0.4108500587 -0.380320848 -0.1135665464 0.1383702361
365297810.0 -0.121009476 0.1250525477 0.4062693316 -0.3844053443 0.4063401921 -0.3845238888 -0.1120513773 0.1394380319
370297780.0 -0.1198586535 0.1263549614 0.4016098668 -0.3887731602 0.4025319736 -0.3889509959 -0.1104691108 0.1409062505
375297750.0 -0.1187108457 0.1278404266 0.3978963884 -0.3931190573 0.3979096624 -0.3932074747 -0.109097882 0.1423361154
380297720.0 -0.1180514709 0.1291553957 0.3939038405 -0.3977789608 0.3935991503 -0.398167738 -0.1073955527 0.143854652
385297690.0 -0.1170348879 0.1302009934 0.3891602695 -0.4017609167 0.3892314427 -0.4024002438 -0.1057315545 0.1453306656
390297660.0 -0.1156968239 0.1314413447 0.3847360211 -0.4061478163 0.3849988763 -0.4063818219 -0.1042047478 0.1462039701
395297630.0 -0.114304227 0.1325625044 0.3807760629 -0.409540841 0.3803237072 -0.4100598463 -0.1027231169 0.1474065068
400297600.0 -0.1135988673 0.1335919744 0.3757144287 -0.4146104497 0.3762698498 -0.4145112059 -0.1013369158 0.149074626
405297570.0 -0.1123892329 0.1347906281 0.3714015615 -0.4183944943 0.3714885268 -0.4188409489 -0.0994393476 0.1500833973
410297540.0 -0.1110462337 0.1362702326 0.3665171201 -0.4226337438 0.3671309737 -0.4227436396 -0.0979022386 0.1513986248
415297510.0 -0.1101199727 0.1372224897 0.3621417514 -0.4265225896 0.3624523452 -0.4271415063 -0.0960046942 0.1527658545
420297480.0 -0.1087352743 0.138066954 0.3573455004 -0.430829173 0.3574493394 -0.4310648753 -0.0944761636 0.1541891988
425297450.0 -0.106931018 0.1395506414 0.3528479533 -0.4342615396 0.3525353179 -0.4345169154 -0.0929802596 0.154812332
430297420.0 -0.1058064438 0.1408696032 0.3480413509 -0.4384047476 0.3482073936 -0.4380723182 -0.0907440297 0.15620837
435297390.0 -0.1048313589 0.1415331474 0.3429862347 -0.4426591962 0.3432500339 -0.4420781719 -0.0899097857 0.157858757
440297360.0 -0.1033790023 0.1425931199 0.3379802624 -0.445701857 0.3379556428 -0.4458694244 -0.087722329 0.1586589615
445297330.0 -0.1021759855 0.1432424985 0.3331098466 -0.4491908153 0.3330419081 -0.4497573612 -0.0855623842 0.1598332608
450297300.0 -0.100528913 0.1446693749 0.3281535571 -0.45293838 0.3289098789 -0.4529256986 -0.0841798452 0.1610334355
455297270.0 -0.0997342973 0.1458587791 0.323898883 -0.4569175821 0.3238556356 -0.4568905269 -0.0822325319 0.1621888322
460297240.0 -0.0977940495 0.1471009502 0.3187832219 -0.4607449564 0.3183511671 -0.4604974334 -0.0804924051 0.1631795591
465297210.0 -0.0964112213 0.1476288094 0.3130613761 -0.4634845009 0.3128309542 -0.4640894669 -0.0784171235 0.1643898028
470297180.0 -0.0953324921 0.1488455887 0.3083868498 -0.467000906 0.3082753242 -0.4670855749 -0.0767683203 0.1649549684
475297150.0 -0.0938667597 0.1500513397 0.3033191815 -0.4701402215 0.3031336949 -0.4705040609 -0.0749072416 0.1663270471
480297120.0 -0.0919344764 0.1513658662 0.297734693 -0.473428852 0.2978694028 -0.4737137406 -0.0734604205 0.1671042867
485297090.0 -0.0906208492 0.1518742883 0.2927392383 -0.4767116756 0.2928385115 -0.4768559807 -0.0715596962 0.1681251208
490297060.0 -0.088724176 0.1532208567 0.2873209321 -0.4803360752 0.2873766305 -0.4803597965 -0.0694174108 0.1688317738
495297030.0 -0.0877454393 0.1535883551 0.2824358923 -0.4829215865 0.282210065 -0.4835091811 -0.067185455 0.1697470466
500297000.0 -0.0861888578 0.154978917 0.2769727664 -0.4860024964 0.2770573444 -0.4861398235 -0.0654608762 0.1708669956
505296970.0 -0.0842036517 0.1560773505 0.2719025616 -0.4894385185 0.2718604442 -0.4892038343 -0.0637660458 0.1713375724
510296940.0 -0.0826181636 0.156442213 0.2662605789 -0.4926371744 0.2667620065 -0.4925699402 -0.0618380479 0.1726409667
515296910.0 -0.0812578698 0.1579122606 0.2604301691 -0.4945433581 0.2604339964 -0.4949062729 -0.059709091 0.1731184293
520296880.0 -0.0794561554 0.1587557837 0.2555873765 -0.4978954601 0.2552878222 -0.4976256196 -0.057478283 0.1745689017
525296850.0 -0.0778300052 0.1592734322 0.2497616586 -0.5001679325 0.2498179924 -0.5006109109 -0.0554506464 0.174791214
530296820.0 -0.0766492012 0.1602874138 0.2441569797 -0.5033235018 0.2445260797 -0.5031339728 -0.0536348911 0.1752719393
535296790.0 -0.074197252 0.161271367 0.2387132755 -0.5054987207 0.238916831 -0.5059454093 -0.0510742165 0.1764918664
540296760.0 -0.0730031075 0.1623479474 0.2333191755 -0.5083397339 0.2331073483 -0.5082006195 -0.0495367995 0.1767364152
545296730.0 -0.0718137579 0.1634753107 0.2282757482 -0.510681278 0.227819503 -0.5108244071 -0.047616613 0.1774981199
550296700.0 -0.0697734339 0.1639859601 0.2223857871 -0.51342939 0.2220195895 -0.5132575556 -0.0454206091 0.1781463994
555296670.0 -0.0680891661 0.164808039 0.2163240807 -0.5158947456 0.216725896 -0.5157119082 -0.0436505385 0.1784035653
560296640.0 -0.0659207177 0.1654464459 0.2108482181 -0.5177456873 0.2110140216 -0.5179052274 -0.0413982329 0.1793595765
565296610.0 -0.0648772205 0.1665881645 0.2056235113 -0.5200858095 0.2055237996 -0.5195647371 -0.0394213457 0.1800004655
570296580.0 -0.0630767436 0.1673519486 0.1996231321 -0.5222654747 0.1997775508 -0.5221952483 -0.0377276258 0.1803578795
575296550.0 -0.0611388299 0.1679527903 0.1943543234 -0.5243674208 0.1939480773 -0.5244185836 -0.0355072046 0.1810708829
580296520.0 -0.0593741563 0.1689573225 0.1885811077 -0.5264985733 0.1883183661 -0.5265545681 -0.0338381109 0.1813887681
585296490.0 -0.0577559996 0.1699549197 0.1830162431 -0.52865207 0.1821499442 -0.5280876436 -0.0311566032 0.1821319211
590296460.0 -0.0554432873 0.1704058096 0.1769523454 -0.5304531736 0.1769296918 -0.5305809662 -0.0296365759 0.1825804215
595296430.0 -0.0540356849 0.1713445288 0.1708070688 -0.5324186927 0.1705287526 -0.532122746 -0.0273768686 0.1829961594
600296400.0 -0.0518544774 0.1718802901 0.1646771894 -0.5339775928 0.1653819159 -0.5341254437 -0.0253531015 0.1832156757
605296370.0 -0.0508819128 0.1725336367 0.1600700515 -0.5353122497 0.1594236974 -0.5357787855 -0.0235613274 0.1838196346
610296340.0 -0.048621153 0.1737747292 0.1540297014 -0.5367728074 0.153736676 -0.5373174642 -0.0214227916 0.1842317028
615296310.0 -0.0466512557 0.1740960837 0.1476920825 -0.5389047718 0.1471936986 -0.538878754 -0.0189900709 0.1847395256
620296280.0 -0.0454585088 0.1755063651 0.1419759419 -0.5405275518 0.1418332008 -0.5405281005 -0.0177162618 0.185149453
625296250.0 -0.0437015738 0.1756359748 0.1359592684 -0.5421056867 0.1358952814 -0.5420011465 -0.0155915047 0.1850801781
630296220.0 -0.0416054424 0.1763775251 0.1296962465 -0.543505091 0.1297083418 -0.5434440439 -0.0132099333 0.1858311779
635296190.0 -0.0402579265 0.1771847054 0.1241100658 -0.5448320659 0.1238357332 -0.5445092748 -0.0109614365 0.1857165478
640296160.0 -0.0385225603 0.1777568242 0.1184331308 -0.5461081293 0.1181396516 -0.5461194162 -0.0092298055 0.1861168344
645296130.0 -0.0361225767 0.1787813232 0.1122395413 -0.5469647047 0.1124883208 -0.5467726257 -0.0070754961 0.1859880209
650296100.0 -0.0346861986 0.1789529405 0.1062686388 -0.5486922815 0.1059064128 -0.5484287704 -0.0044364019 0.1864020348
655296070.0 -0.0330156776 0.1797678504 0.1001661791 -0.5494978774 0.1007518895 -0.5494390707 -0.0031625327 0.1868788641
660296040.0 -0.0312469487 0.1802483022 0.0946237006 -0.5507764325 0.0946275089 -0.5506612964 -0.000660453 0.1865320385
665296010.0 -0.0292393422 0.1808252158 0.0880004739 -0.5510023378 0.0881818438 -0.5513086632 0.0013297412 0.1871007668
670295980.0 -0.0275366578 0.1814842543 0.0824826219 -0.5522379155 0.082674111 -0.5519017515 0.0030019781 0.1867518217
675295950.0 -0.0258493733 0.1817147206 0.0768251512 -0.5526885482 0.0768407216 -0.5532618509 0.0051073708 0.1872142464
680295920.0 -0.0244728809 0.1826609896 0.0710025055 -0.5539757561 0.0706684971 -0.5536664562 0.0076603679 0.1871832389
685295890.0 -0.0220606287 0.1830028372 0.0644449605 -0.5545252398 0.0646428855 -0.5546897431 0.009616974 0.1876658882
690295860.0 -0.020795942 0.1833868389 0.0587962408 -0.5553678432 0.0583441463 -0.5553617711 0.0115712205 0.1874287327
695295830.0 -0.0186203566 0.183963908 0.053088856 -0.5555559179 0.0526337872 -0.5557034662 0.0136760012 0.187800734
700295800.0 -0.016840914 0.1846525357 0.0470556905 -0.5561323028 0.0467121645 -0.5560245684 0.0160536485 0.187264012
705295770.0 -0.0155537023 0.184820572 0.0410695217 -0.5570313602 0.0406406246 -0.5564032737 0.0178377675 0.1875776314
710295740.0 -0.0139049946 0.185250782 0.0346386995 -0.5573728295 0.0345137206 -0.5573116195 0.0200393008 0.1877705936
715295710.0 -0.0118902426 0.1858300565 0.0288296671 -0.5574237282 0.0286059987 -0.5577083263 0.021883679 0.1873530673
720295680.0 -0.0094664065 0.1860527729 0.0225743785 -0.557369221 0.0224883521 -0.5579870696 0.0244377932 0.1871726658
725295650.0 -0.0086714757 0.1866263635 0.0170959009 -0.5581463668 0.0168790322 -0.5577916978 0.0258865612 0.1874169368
730295620.0 -0.0072076798 0.1868446244 0.0108704003 -0.5576174375 0.0109995508 -0.5573311569 0.0278303886 0.1876472768
735295590.0 -0.0048317171 0.1871619031 0.0047048937 -0.5580091541 0.0046427214 -0.5578032067 0.0298733957 0.1868996401
740295560.0 -0.0031968533 0.1870694647 -0.0010253297 -0.5579789188 -0.0006717273 -0.5583709346 0.0318118505 0.1871326955
745295530.0 -0.0013192163 0.1876842973 -0.0069226968 -0.5570399776 -0.0063174291 -0.5577247547 0.0337943339 0.1866294004
750295500.0 -7.87081e-05 0.1881855717 -0.0131221704 -0.5578876322 -0.0132697272 -0.5575154869 0.0362085122 0.1862975517
755295470.0 0.0018176995 0.1882018894 -0.0189777955 -0.5576449235 -0.0189211871 -0.5579706563 0.0383813517 0.1867517212
760295440.0 0.0034870508 0.1890037078 -0.0254972378 -0.5575248543 -0.0251578214 -0.5569470869 0.0402416014 0.185416907
765295410.0 0.0053026192 0.1884439908 -0.031363057 -0.5568992761 -0.0309080222 -0.5567063445 0.042406943 0.185690636
770295380.0 0.0069728332 0.1888996644 -0.036814364 -0.5559731157 -0.0367972859 -0.5566532358 0.0440167356 0.1853703554
775295350.0 0.0086906522 0.1890314859 -0.0429486748 -0.5564786804 -0.0426908837 -0.5555808446 0.046275815 0.1850903367
780295320.0 0.0104901333 0.1895195409 -0.0488518619 -0.5552760574 -0.0486858688 -0.5554482257 0.0486252018 0.1846700931
785295290.0 0.0121743631 0.1892340214 -0.0546241519 -0.5547534397 -0.0549737355 -0.5548572765 0.0500169813 0.1847830565
790295260.0 0.013887025 0.1891723649 -0.0604296138 -0.554466356 -0.0606565368 -0.5547634122 0.0520673238 0.1844551999
795295230.0 0.0153690578 0.1890460082 -0.0664587536 -0.553644634 -0.0667814338 -0.5539208862 0.0541028063 0.1830506378
800295200.0 0.0170752239 0.1895149525 -0.0718503293 -0.5526635772 -0.0725313002 -0.553129685 0.0563853155 0.1830218859
805295170.0 0.0187627872 0.1895464493 -0.0788099717 -0.5522412378 -0.078423839 -0.5519069781 0.0588750332 0.1825060376
810295140.0 0.0207975983 0.1897370327 -0.0846415967 -0.5511909996 -0.0845130143 -0.551256875 0.0606651946 0.182373378
815295110.0 0.0224623622 0.1896642022 -0.0903121699 -0.5501301918 -0.0899289401 -0.5502403947 0.0621816311 0.1815417815
820295080.0 0.0240384405 0.1896524503 -0.095632228 -0.5492382197 -0.0957821313 -0.549446612 0.0637820802 0.1818895859
825295050.0 0.025601808 0.189213281 -0.1021638535 -0.5482069514 -0.1020606703 -0.5481199038 0.0665950888 0.1809619285
830295020.0 0.0273737691 0.1894740487 -0.1077856213 -0.5467411459 -0.107787909 -0.5472087203 0.0680413207 0.1798060417
