!Created with skrf (http://scikit-rf.org).
# Hz S RI R 50.0 
!freq ReS11 ImS11 ReS21 ImS21 ReS12 ImS12 ReS22 ImS22
300000.0 -0.7742767102 -0.1484784055 0.0003517567 0.0007621991 0.0004948648 0.0014264336 -0.0441747481 -0.0696228038
5299970.0 -0.785216515 -0.0074380973 -5.31349e-05 0.0002653935 6.66251e-05 -4.54929e-05 -0.0483449454 0.0143172142
10299940.0 -0.7876749579 -0.0041346789 -0.0002766094 0.0001491237 1.35745e-05 5.20809e-05 -0.0430004232 0.0314590774
15299910.0 -0.7934120681 -0.0019098404 1.25637e-05 6.23617e-05 0.0002364168 7.91183e-05 -0.0348104177 0.0453992881
20299880.0 -0.7998521783 0.0027518138 0.0001075853 0.0002000676 0.0001083509 -5.84403e-05 -0.0249098961 0.0572342617
25299850.0 -0.8060359178 0.0081376553 -1.25045e-05 -0.0001429104 5.8238e-06 2.95196e-05 -0.0143669725 0.0660069117
30299820.0 -0.8117199598 0.0162906074 6.02307e-05 -5.54439e-05 -6.58e-08 0.0001172407 -0.0033867131 0.0726293552
35299790.0 -0.8168025758 0.0252147708 0.0001835056 -8.8479e-05 -3.70007e-05 -0.0001631451 0.0081875244 0.0770112825
40299760.0 -0.8213630903 0.0342723599 6.12755e-05 3.35543e-05 0.0001171954 0.0002436279 0.0191603092 0.079984164
45299730.0 -0.8249777227 0.0443873446 3.77401e-05 -8.37192e-05 -0.0001378538 0.0002186564 0.0293776622 0.0811828958
50299700.0 -0.8268531259 0.0543826524 -3.1676e-06 3.07991e-05 -1.52006e-05 -4.32295e-05 0.0398447209 0.081180325
55299670.0 -0.8289441963 0.0641722767 3.64763e-05 6.77341e-05 8.49231e-05 3.86786e-05 0.0481252133 0.0801769551
60299640.0 -0.8299318522 0.0746654539 -4.898e-06 4.43785e-05 -8.1942e-06 0.0001235729 0.0568321713 0.0783337381
65299610.0 -0.8309361563 0.0847693556 -2.7815e-05 3.65214e-05 0.0001211138 5.93655e-05 0.0642096333 0.0762384782
70299580.0 -0.8316061201 0.0945846434 -3.74608e-05 0.0001046279 0.0001023823 4.07345e-05 0.0709774508 0.0729309606
75299550.0 -0.8314207096 0.104235381 0.0001015351 0.0001006187 2.30747e-05 2.45418e-05 0.0774453835 0.0698689919
80299520.0 -0.8313110145 0.1144485732 0.0001193345 -0.000114817 -0.0001922932 0.0001354276 0.0827041474 0.0663376403
85299490.0 -0.8301114415 0.1240103145 4.85176e-05 8.93251e-05 0.0001197053 -7.6443e-06 0.0878506883 0.0625467904
90299460.0 -0.8296497702 0.1339291345 7.81831e-05 8.1882e-05 -8.86553e-05 -6.6739e-05 0.0925242846 0.0585602206
95299430.0 -0.8284262905 0.1433888876 -8.53966e-05 -0.0001253168 -5.53326e-05 -9.9689e-06 0.0964887932 0.0548263151
100299400.0 -0.8279713532 0.1525306878 -0.0001634001 7.85688e-05 -8.57413e-05 0.0001012828 0.0999181809 0.0506302155
105299370.0 -0.8265411903 0.1622539824 -6.87623e-05 -8.15465e-05 1.13033e-05 -9.38519e-05 0.103365543 0.0468219699
110299340.0 -0.8252063429 0.1714322636 -7.20972e-05 7.00403e-05 4.02826e-05 5.64847e-05 0.1057090574 0.0427896708
115299310.0 -0.8237588618 0.1807145039 7.25279e-05 0.0003330224 0.0001115679 0.0001498122 0.1084403851 0.0386999721
120299280.0 -0.8221469852 0.1893117286 -4.2496e-05 0.0001479218 0.0001267337 -2.11087e-05 0.1104879286 0.0353022882
125299250.0 -0.8205832092 0.1983842223 -9.56493e-05 5.56484e-05 0.0001019541 0.0002122525 0.1122569092 0.0309541028
130299220.0 -0.8182094763 0.2074007302 6.59981e-05 -0.0001318693 3.13032e-05 6.76359e-05 0.1135719333 0.0275203183
135299190.0 -0.8167258249 0.2165201616 -2.71964e-05 3.48021e-05 -4.50364e-05 7.40274e-05 0.1153031849 0.0236288503
140299160.0 -0.8145500724 0.2255296172 -3.4183e-05 0.0002878979 -0.0002322034 -0.0001973287 0.1166767293 0.0198476357
145299130.0 -0.8123952973 0.2342348898 -1.21997e-05 7.40917e-05 -0.0001355266 -0.0001331541 0.1171097152 0.0165060182
150299100.0 -0.8099305787 0.2431728179 -5.33866e-05 0.0001912767 -5.6614e-06 -0.000125893 0.1181469441 0.012792556
155299070.0 -0.8074753594 0.2523561109 0.0002120277 -2.1149e-05 9.38956e-05 -2.8037e-06 0.1188910579 0.0097922554
160299040.0 -0.8049697233 0.26110383 6.72821e-05 0.000108101 8.74373e-05 9.47068e-05 0.1196045102 0.006353698
165299010.0 -0.802107335 0.2696481449 0.0002567699 -0.0001031398 -1.30541e-05 8.6353e-06 0.1198421714 0.0030378327
170298980.0 -0.799814447 0.2781517853 0.0001278542 -3.0225e-06 0.000260337 4.02852e-05 0.1205920658 -6.18465e-05
175298950.0 -0.7963431121 0.2866142269 0.0002207767 -8.45584e-05 0.000129706 0.0001684178 0.1203115241 -0.0033913088
180298920.0 -0.7936058124 0.2949114687 -3.68751e-05 9.36096e-05 -4.96632e-05 0.0002467951 0.1209497882 -0.0063467445
185298890.0 -0.7904783534 0.304316653 3.18091e-05 0.0001007136 -6.39351e-05 0.000151555 0.1205733696 -0.0094207094
190298860.0 -0.7872739404 0.312362432 -4.05314e-05 7.77023e-05 7.22746e-05 3.06656e-05 0.1208213102 -0.0120466817
195298830.0 -0.7836283868 0.3207220407 7.85011e-05 3.12505e-05 1.705e-06 -7.8789e-06 0.1206199548 -0.0150532411
200298800.0 -0.7809013385 0.3291287556 4.51134e-05 1.47097e-05 0.0002015906 0.0001558577 0.1206221439 -0.017772513
205298770.0 -0.777521173 0.3376194779 6.53e-06 -6.13764e-05 0.0001293521 0.0001134357 0.1202082231 -0.0204826763
210298740.0 -0.7734586415 0.3455686407 -2.10749e-05 9.07473e-05 1.89792e-05 6.7823e-06 0.1198201039 -0.0229254152
215298710.0 -0.7699916283 0.3541184033 2.04266e-05 0.0002953709 -1.45151e-05 8.94166e-05 0.1192497835 -0.0257359803
220298680.0 -0.7670384494 0.3624547269 -0.0001897878 -3.54723e-05 -7.1842e-06 0.0001256978 0.1190828843 -0.028357259
225298650.0 -0.7629787917 0.3702532957 4.61503e-05 -0.0001280846 -6.24007e-05 3.8357e-05 0.1181468716 -0.0304424915
230298620.0 -0.7586406018 0.3784194358 0.000187266 3.26158e-05 -0.0001578967 0.0002326279 0.1179685937 -0.0330677453
235298590.0 -0.7546261669 0.3871865083 2.89116e-05 -2.87043e-05 0.0002752999 8.14575e-05 0.1173164357 -0.0354657875
240298560.0 -0.7505709218 0.395013944 -2.08241e-05 4.5712e-06 -8.444e-06 -3.81677e-05 0.1166237388 -0.0376723324
245298530.0 -0.7463565194 0.4028692246 -0.0001366736 0.0001206599 1.8139e-05 -2.33282e-05 0.1156798016 -0.0398032045
250298500.0 -0.7426452677 0.4105378889 0.0001064405 4.35697e-05 -3.45926e-05 2.39858e-05 0.1156724536 -0.0413722338
255298470.0 -0.7370793517 0.41925833 0.0002009142 -0.0002166307 8.3734e-06 -0.0001322379 0.1146253288 -0.0443134415
260298440.0 -0.7339152619 0.4258467782 0.000330436 -3.27946e-05 0.0001564675 -5.35595e-05 0.1138009354 -0.0459930081
265298410.0 -0.729753435 0.4341107976 -6.29901e-05 -0.0002467009 -1.57282e-05 8.63963e-05 0.1127170687 -0.0484529296
270298380.0 -0.7241504223 0.4415527949 0.0001961439 -9.47363e-05 4.50665e-05 7.54267e-05 0.1125149448 -0.050600481
275298350.0 -0.7200068235 0.4491829186 0.0002512545 -9.2463e-06 -0.0001087379 -3.59124e-05 0.1114835947 -0.0523498698
280298320.0 -0.7153456147 0.4566076001 -9.14711e-05 -9.2983e-06 0.0003976629 -0.000351375 0.110368874 -0.0543693809
285298290.0 -0.7102818586 0.4645595452 0.0001433028 5.69354e-05 0.0002311425 0.0001251797 0.1094821892 -0.0561290813
290298260.0 -0.7059100371 0.4712528994 6.30668e-05 0.0002730409 0.0001936646 -0.0001094128 0.1088420392 -0.058060825
295298230.0 -0.7007596132 0.479489897 0.000127834 0.0001732941 0.0002200178 -5.40738e-05 0.1077719628 -0.0597763272
300298200.0 -0.6948393831 0.4861345035 0.0001946121 5.08645e-05 -3.52982e-05 0.0001334056 0.1069879616 -0.0614673364
305298170.0 -0.6905716895 0.4939338176 0.0001944228 0.0001656023 0.0002526897 0.0001450443 0.1063954089 -0.0633623294
310298140.0 -0.6843985158 0.500915877 0.0001870039 -0.0001022094 0.0001149417 5.41185e-05 0.1047769522 -0.0651143077
315298110.0 -0.6794298 0.5084953398 8.26228e-05 5.77833e-05 6.75251e-05 7.99812e-05 0.104294106 -0.0667718585
320298080.0 -0.6738213319 0.5158081472 0.0001388841 0.0001076997 0.0001561079 9.57563e-05 0.1028591219 -0.0686392206
325298050.0 -0.668466812 0.5226329854 8.5263e-05 -1.85329e-05 -0.0001700891 -3.98977e-05 0.1016208308 -0.0707991986
330298020.0 -0.6626883173 0.5296193081 0.0001197302 8.49081e-05 -8.47668e-05 8.77543e-05 0.1003173638 -0.0726872755
335297990.0 -0.6567172477 0.5361959887 0.0001178437 0.0001369623 0.0001410647 6.22754e-05 0.098932958 -0.0739251088
340297960.0 -0.6520064739 0.5427569131 2.36487e-05 0.0001341745 -0.0001175871 0.0001078493 0.0977709677 -0.0758148523
345297930.0 -0.6461511553 0.5489787585 -5.14735e-05 0.0001682999 0.000188726 -0.0002289334 0.0961595891 -0.077217072
350297900.0 -0.6408864282 0.5552788468 0.0001094764 -7.14109e-05 0.0002538462 -0.0001021192 0.0949499204 -0.0781595366
355297870.0 -0.6340989267 0.5624152036 8.1169e-05 -2.74969e-05 -0.0001799857 8.39241e-05 0.0933021452 -0.079446814
360297840.0 -0.6287075184 0.5691429698 0.0002551855 6.50516e-05 3.90202e-05 3.98079e-05 0.0918961424 -0.0805878872
365297810.0 -0.6220306297 0.5757122373 5.31456e-05 6.68414e-05 6.23859e-05 -0.0001040301 0.0908744189 -0.0818299484
370297780.0 -0.6157512757 0.5815587591 0.000338717 0.0002393121 1.16399e-05 9.49169e-05 0.0893604325 -0.0831404893
375297750.0 -0.6099567845 0.5882647304 -1.0867e-05 -3.5706e-05 -2.49359e-05 2.844e-05 0.0880280529 -0.0840503282
380297720.0 -0.6041495698 0.5947594216 0.0001585158 0.0001024995 0.0001691813 0.0001362777 0.0870408109 -0.0854513783
385297690.0 -0.5975784774 0.6008654133 -5.24262e-05 0.0001327243 -6.33326e-05 0.0001156881 0.0852159682 -0.0860620385
390297660.0 -0.5914743693 0.6072746957 -4.4049e-06 7.0961e-06 -1.47583e-05 -0.0002065884 0.0839949977 -0.0874049994
395297630.0 -0.5853116631 0.6129971934 -0.0001597334 -0.0001124269 0.0001336397 -0.000165536 0.0825322248 -0.0885188462
400297600.0 -0.5790984321 0.619154821 -7.97879e-05 9.39945e-05 2.61755e-05 -8.29362e-05 0.0807673076 -0.0899234594
405297570.0 -0.5726093686 0.6250040193 6.47104e-05 -1.28852e-05 0.0002003043 8.82809e-05 0.0794772432 -0.0909297204
410297540.0 -0.5655603042 0.6303280507 3.33958e-05 6.58673e-05 -2.73961e-05 0.0001843496 0.0782080418 -0.0915146816
415297510.0 -0.55954317 0.6363451941 0.0002898752 4.9682e-05 0.0001713594 -1.0118e-06 0.0766730116 -0.0923494498
420297480.0 -0.5517128694 0.6422904507 2.18307e-05 -2.424e-06 0.0002014704 0.0001634953 0.0751112116 -0.093682923
425297450.0 -0.5459963017 0.6477594366 8.13987e-05 -0.0002727706 4.11455e-05 4.0118e-05 0.0739081745 -0.094672816
430297420.0 -0.5391180579 0.6528589302 0.0001610932 -5.08509e-05 0.0001271213 6.11959e-05 0.0724483109 -0.0953260132
435297390.0 -0.5323646693 0.6588488628 0.0002689929 3.88237e-05 -6.6938e-05 0.0001233445 0.0709449636 -0.0959973315
440297360.0 -0.5252517173 0.6643253168 0.000149293 1.1737e-06 0.0001005652 0.0001438989 0.0689855721 -0.0971895605
445297330.0 -0.5186350692 0.6702029299 -4.19812e-05 0.0002762125 0.0001653994 7.46609e-05 0.067566722 -0.0981774301
450297300.0 -0.5114771546 0.6745116122 0.0005162196 -3.04117e-05 0.0001239552 -7.80793e-05 0.0657222568 -0.0986843818
455297270.0 -0.5041916972 0.6797134631 -5.14107e-05 0.0001414907 5.36614e-05 0.000121958 0.0645405462 -0.099768444
460297240.0 -0.4972777929 0.6852820272 -0.0001018729 -1.5289e-05 0.0001579958 0.0001027114 0.0631111746 -0.1001723647
465297210.0 -0.4898020655 0.6903058003 2.76929e-05 8.9019e-06 5.48271e-05 0.0001546028 0.0612901281 -0.1010769094
470297180.0 -0.4830657372 0.694479536 4.14051e-05 3.19524e-05 -1.8066e-06 6.3654e-05 0.0593642023 -0.1016589286
475297150.0 -0.4755322467 0.6999669635 4.01995e-05 4.38756e-05 0.0003175479 0.0001387044 0.0583129862 -0.1026297602
480297120.0 -0.4689529885 0.7044406157 0.0002588673 5.35801e-05 7.45117e-05 -0.0002167325 0.0565625507 -0.1028916856
485297090.0 -0.4608760638 0.7090557716 -5.28106e-05 -7.78435e-05 6.56102e-05 -0.0001806717 0.0547483588 -0.1035409037
490297060.0 -0.4544107681 0.7136837491 -8.7971e-05 0.0001846084 0.0001777388 -8.96894e-05 0.0531496748 -0.1042432
495297030.0 -0.4473467193 0.7182904292 0.0001195499 8.0093e-05 0.0002081887 8.10135e-05 0.0514832063 -0.1052832715
500297000.0 -0.4386820349 0.7234862401 6.8952e-05 8.76927e-05 -0.0001560218 -0.0001603164 0.0498795903 -0.1054577747
505296970.0 -0.4316117093 0.7270359631 0.0001720487 0.0002133516 9.63117e-05 -1.59684e-05 0.0478185463 -0.1060155009
510296940.0 -0.4242362137 0.7312577558 0.000100681 -2.72138e-05 0.000109601 -6.20556e-05 0.0467634426 -0.1065410362
515296910.0 -0.4174654555 0.7361752934 3.74361e-05 0.0003161646 -0.0001704139 -5.13197e-05 0.0451091446 -0.107114089
520296880.0 -0.4091347563 0.7405055092 0.0001650653 8.19928e-05 0.0001760503 7.90046e-05 0.0434376912 -0.1077464889
525296850.0 -0.4017287873 0.7444832779 6.43206e-05 0.0001544913 0.0001179588 -7.65026e-05 0.0417890768 -0.1082045295
530296820.0 -0.3941811294 0.7480441059 0.000333584 -2.35412e-05 2.83012e-05 8.17975e-05 0.0396169175 -0.1087303701
535296790.0 -0.3863032335 0.7522741046 0.0002325003 0.000208949 6.31002e-05 -0.0001372521 0.0381935294 -0.1092712952
540296760.0 -0.3778700453 0.755367889 0.0001106951 4.08517e-05 3.43805e-05 -1.2201e-05 0.0364329793 -0.1094862841
545296730.0 -0.3705491683 0.7594001082 0.0002385015 -8.98189e-05 0.0001320305 6.47592e-05 0.0345929114 -0.1102068602
550296700.0 -0.3633543418 0.7634361875 -3.1886e-05 -4.47264e-05 -3.52969e-05 -0.0001503046 0.0331570992 -0.1104181283
555296670.0 -0.3549508036 0.7669335604 0.0001869777 -2.37902e-05 0.0001012755 9.83612e-05 0.0312978793 -0.1103875058
560296640.0 -0.3473901794 0.7709796031 0.0002310166 -6.47697e-05 0.0002149779 -7.46551e-05 0.0299278146 -0.1110052798
565296610.0 -0.3398020436 0.7737913991 0.0001412482 -7.99766e-05 0.000107471 2.53354e-05 0.0280571456 -0.1112884034
570296580.0 -0.3320719823 0.777538959 0.000185247 -1.08864e-05 0.0002009714 2.14132e-05 0.0264173457 -0.1113392789
575296550.0 -0.32369186 0.7802246317 0.0003877612 6.98151e-05 0.0001539462 0.0001119541 0.024674919 -0.1119371888
580296520.0 -0.3154313437 0.7839921903 0.0001437854 -4.64289e-05 1.00495e-05 -2.78076e-05 0.0226205602 -0.1118368648
585296490.0 -0.3075521418 0.7866869791 0.0003938731 -0.0001152547 -5.77336e-05 -5.7203e-06 0.021158384 -0.1124778091
590296460.0 -0.2998164967 0.7893631934 1.87705e-05 -6.37592e-05 0.0001007129 5.4608e-06 0.0198934434 -0.112411999
595296430.0 -0.2920475917 0.79355185 3.29443e-05 6.18659e-05 3.425e-06 0.0001552876 0.0178147765 -0.1124441196
600296400.0 -0.2839097593 0.7961353474 -5.46579e-05 3.43839e-05 0.0001218569 -5.75729e-05 0.0163377063 -0.1126251302
605296370.0 -0.2759629495 0.7986273539 1.74844e-05 0.000205779 9.96148e-05 -4.53095e-05 0.0144056214 -0.1126249732
610296340.0 -0.2676146361 0.8016172145 3.56272e-05 -0.0001360028 1.86855e-05 -0.0001047386 0.0128314393 -0.1127054265
615296310.0 -0.2594894393 0.8042972033 5.7064e-06 -4.6158e-06 7.71355e-05 3.62062e-05 0.0110422251 -0.113171732
620296280.0 -0.2507831051 0.8065114313 0.0003137694 -4.258e-06 0.0001371342 -0.0001802318 0.0090829239 -0.1133697427
625296250.0 -0.242744947 0.8094613443 0.0002011548 -0.0001223091 0.000153157 0.0001399833 0.0077391077 -0.1129327888
630296220.0 -0.2344120471 0.8118484479 0.0004095715 -4.33509e-05 0.0001646785 -0.0001099243 0.005916467 -0.1129999278
635296190.0 -0.2270484946 0.8136959398 -4.24092e-05 -4.88986e-05 0.0001055816 -8.78905e-05 0.0042844423 -0.1127736109
640296160.0 -0.2175834375 0.8156729664 0.0001278539 0.000104263 0.0001268372 -5.56431e-05 0.0026770874 -0.1128810784
645296130.0 -0.2102555904 0.817299765 8.72434e-05 -2.75534e-05 0.0001021812 -0.0001138686 0.0006755363 -0.1131295928
650296100.0 -0.2019444387 0.8205205822 7.80583e-05 -0.0001135689 0.000105095 -7.7892e-05 -0.0010733492 -0.1127134456
655296070.0 -0.1929567106 0.8220430224 0.0002439826 -0.0002992946 0.0001623003 4.64478e-05 -0.0027220715 -0.11239497
660296040.0 -0.1853738835 0.8239675553 -5.12512e-05 -9.00815e-05 4.36557e-05 9.07031e-05 -0.0041822255 -0.1124073999
665296010.0 -0.1769515821 0.825958498 6.41341e-05 -0.0003986691 0.0001717513 8.95578e-05 -0.0059060825 -0.1123568349
670295980.0 -0.167735641 0.8273047986 0.000163035 -0.0001663624 0.0002160646 -7.77658e-05 -0.0076116653 -0.1118848482
675295950.0 -0.1600655486 0.8288701893 0.0002750477 -8.17366e-05 1.83813e-05 1.6893e-05 -0.0092531852 -0.1118383815
680295920.0 -0.15181673 0.8308836875 -7.04174e-05 -1.74001e-05 0.0001203193 -7.6264e-05 -0.0109010349 -0.11171238
685295890.0 -0.1427519393 0.8318750433 0.0001156638 5.7491e-06 0.00017543 -0.0001013351 -0.0124528689 -0.1114302318
690295860.0 -0.135003855 0.8334614882 -4.28279e-05 -0.0001340876 0.0001501609 3.5675e-06 -0.0142616382 -0.1109756481
695295830.0 -0.1266872494 0.8337053744 0.0001932741 -3.07966e-05 0.0001818295 -0.0001688212 -0.0158806192 -0.1106073034
700295800.0 -0.1181418345 0.8356555972 0.0001342765 -0.000267708 0.000111297 1.1226e-05 -0.0175686073 -0.1105660586
705295770.0 -0.1092645858 0.8371062006 -6.97538e-05 -4.4699e-06 0.0001525095 -2.35586e-05 -0.0195658467 -0.1098465331
710295740.0 -0.1013500053 0.8377552966 -2.81318e-05 -3.44163e-05 5.57283e-05 -1.70642e-05 -0.0210416784 -0.1092625017
715295710.0 -0.0932190402 0.8390943034 0.0001194969 0.0001051474 0.0002697024 -3.58703e-05 -0.0223806217 -0.1091271577
720295680.0 -0.0848058127 0.8395359037 0.0001861502 0.0001422081 6.91907e-05 0.0001772456 -0.0238256157 -0.1087040845
725295650.0 -0.0748780331 0.8409506014 0.0001044797 0.0001203398 9.8242e-05 0.0001470948 -0.025608059 -0.1083789917
730295620.0 -0.0678473227 0.8409995389 0.0003903387 -8.50999e-05 0.0001434105 -3.96625e-05 -0.0275668269 -0.1079580148
735295590.0 -0.0584145975 0.8416444914 6.43724e-05 -0.0001249293 0.0001693173 9.32362e-05 -0.0287822916 -0.1073916267
740295560.0 -0.0505962355 0.8424148489 0.0003039237 -2.6586e-05 0.0002309598 -2.0108e-06 -0.0307663689 -0.1068686748
745295530.0 -0.0421290323 0.8421558454 0.0001496334 7.72697e-05 8.7469e-05 2.76278e-05 -0.0323232239 -0.1064356727
750295500.0 -0.0339252004 0.8431819319 0.0001933988 7.99613e-05 0.0001384089 -1.67215e-05 -0.0339244458 -0.1062345752
755295470.0 -0.0242526433 0.8433492227 0.000141276 -5.4586e-05 9.47295e-05 -3.51621e-05 -0.0355542633 -0.1054567854
760295440.0 -0.0165193034 0.8434887157 9.31284e-05 0.0001667761 0.000267125 9.40598e-05 -0.0368483007 -0.104844562
765295410.0 -0.0080236442 0.8435465686 0.0002482662 3.3214e-06 8.39314e-05 0.0001587011 -0.0382395677 -0.1039026592
770295380.0 2.05148e-05 0.8440341456 0.0002714913 5.7167e-06 0.0002736605 -2.69163e-05 -0.0400249637 -0.1037025015
775295350.0 0.0090134957 0.843980692 5.01733e-05 -7.71964e-05 0.0001344425 -8.66863e-05 -0.0419852271 -0.1032268461
780295320.0 0.0179804402 0.8428054265 4.0355e-05 -3.569e-07 0.0001358205 -3.39041e-05 -0.0432336854 -0.1015986965
785295290.0 0.0258397063 0.8437318719 0.0001961585 0.0001364578 0.0001287877 0.0001943293 -0.0448607143 -0.1011691927
790295260.0 0.034309278 0.8428643921 0.0002838987 -1.8888e-06 3.91013e-05 8.953e-06 -0.04632388 -0.1009164387
795295230.0 0.0427697959 0.843005196 3.97723e-05 3.39874e-05 -0.0001549859 -4.19158e-05 -0.0478158647 -0.0997478897
800295200.0 0.0512556478 0.842662469 0.0001962398 -4.97615e-05 -6.89789e-05 5.5152e-06 -0.0495703929 -0.099185417
805295170.0 0.0595275853 0.8421415459 9.07874e-05 -3.43234e-05 0.0001759882 -0.0002307607 -0.0509593135 -0.0984493312
810295140.0 0.0683133651 0.8416852543 4.54968e-05 -4.48447e-05 0.0001695619 -9.81439e-05 -0.0521745711 -0.0973533719
815295110.0 0.0767568146 0.8403202682 0.0002427323 0.0001501231 -4.35535e-05 -0.0002001426 -0.0539888137 -0.0965725107
820295080.0 0.0851391727 0.8392766244 0.0001118457 0.0001202463 1.5979e-05 -0.0002039958 -0.0554951172 -0.0960307002
825295050.0 0.093627193 0.8385800646 0.0001470263 0.0002260412 0.0001174211 0.0001432483 -0.0567736367 -0.0947120648
830295020.0 0.1016844457 0.8374296008 0.0001364173 -0.0003352353 0.0001968567 4.1694e-05 -0.0583921853 -0.0940395128
835294990.0 0.1103235649 0.8367588795 1.78735e-05 -0.000184868 2.28838e-05 -0.0001064823 -0.059612412 -0.0935210626
840294960.0 0.1182097338 0.8353128345 0.0001945784 0.0001790208 0.0003034242 -0.0002274225 -0.0610457811 -0.0918068508
845294930.0 0.1269277514 0.834426022 0.0003483061 -9.79979e-05 3.24512e-05 -0.0001648538 -0.0626369517 -0.0914366839
850294900.0 0.1352130421 0.832852599 9.14457e-05 -0.0001528231 0.0001170161 -0.000132844 -0.063711656 -0.0901936064
