!Created with skrf (http://scikit-rf.org).
# Hz S RI R 50.0 
!freq ReS11 ImS11 ReS21 ImS21 ReS12 ImS12 ReS22 ImS22
300000.0 -0.7792135285 -0.1420358096 -0.002395072 0.0007233794 -0.0002908448 0.001333873 -0.0465241994 -0.0712499259
5299970.0 -0.7852541547 -0.0078316557 -1.1358e-05 8.80473e-05 -0.0001425962 0.0001844072 -0.0494719743 0.0143457185
10299940.0 -0.7875669335 -0.0040269046 3.59985e-05 -8.52444e-05 -2.88531e-05 0.0001796934 -0.043707026 0.0321636728
15299910.0 -0.7932049251 -0.0016691845 1.31334e-05 0.0001789539 5.24978e-05 -7.33046e-05 -0.0353081798 0.0466527772
20299880.0 -0.7994453295 0.0023262225 -0.0001397298 -0.0001092398 -5.2274e-06 8.4682e-06 -0.0256730455 0.0583635833
25299850.0 -0.8063477551 0.0078940368 -0.0003241581 -5.323e-07 -8.35802e-05 -9.8776e-05 -0.0152542642 0.0676641611
30299820.0 -0.8122947547 0.0163660562 6.7351e-05 7.4713e-05 0.0001158363 -3.73562e-05 -0.0039512413 0.0747250728
35299790.0 -0.8169742567 0.0252516296 1.9146e-05 -4.83076e-05 -9.31745e-05 0.0001231388 0.0077146219 0.0794254275
40299760.0 -0.8210184213 0.034004079 0.0001676442 0.0001623778 -0.0001271775 -9.63474e-05 0.0188497125 0.0825175301
45299730.0 -0.8249441408 0.0437554747 4.49194e-05 7.09245e-05 8.21449e-05 0.000137382 0.0292586995 0.0840711499
50299700.0 -0.8268892287 0.0539696698 -8.25674e-05 -2.47801e-05 -1.31706e-05 -9.21522e-05 0.0394469857 0.0843186923
55299670.0 -0.8286328552 0.0643715288 -5.49053e-05 5.89187e-05 -5.88297e-05 0.0001141065 0.0484624248 0.0835834542
60299640.0 -0.8298588757 0.0743156925 -1.83981e-05 0.0001293764 1.73386e-05 0.0001913467 0.0571083794 0.0816861051
65299610.0 -0.831096121 0.0847536537 0.0001045587 0.0002378895 -0.0001572616 0.0001133698 0.0647214606 0.0793862776
70299580.0 -0.8311785789 0.0944718345 -2.95884e-05 2.28607e-05 3.9839e-06 2.9587e-06 0.0717134949 0.0767502313
75299550.0 -0.8313034917 0.1042239623 0.0001475981 0.0002805988 5.63256e-05 1.0576e-05 0.0784166038 0.073820242
80299520.0 -0.8313771787 0.1146214367 0.0002357156 0.0001366854 -2.18898e-05 -5.86063e-05 0.0836095172 0.0704844801
85299490.0 -0.8305822337 0.1243027227 -4.25791e-05 7.29329e-05 -3.12433e-05 8.11703e-05 0.0887118676 0.0667821155
90299460.0 -0.8298443722 0.1342436875 6.88764e-05 2.6158e-06 -0.0001520812 0.0003691864 0.0935118737 0.0626487308
95299430.0 -0.8284692025 0.1435910731 -4.591e-07 0.0001388664 0.0003512685 -5.80264e-05 0.0975800833 0.0592592571
100299400.0 -0.8282674978 0.1531656598 -2.06653e-05 -4.13031e-05 0.0001588412 0.0003003374 0.1010707626 0.0555456602
105299370.0 -0.8262320018 0.1622389591 -6.98218e-05 -0.0001357821 -0.0001118342 0.0002587742 0.1044791348 0.0514645532
110299340.0 -0.8250654907 0.171067918 0.0001290369 8.12634e-05 5.43e-05 6.57582e-05 0.1071924666 0.0481103483
115299310.0 -0.8238119248 0.1803390397 -2.31229e-05 0.0002232931 0.0001398293 3.24434e-05 0.1097542938 0.04339558
120299280.0 -0.8222875307 0.1899374444 0.000236325 0.0002636708 5.64741e-05 7.30996e-05 0.1121625557 0.0401216666
125299250.0 -0.8201184837 0.1984058301 5.25738e-05 0.0001234622 0.0002308237 3.71941e-05 0.1144346876 0.0361261984
130299220.0 -0.8183043505 0.2075961818 -8.25298e-05 0.0001749269 0.0001951549 0.0001650705 0.1156363661 0.032613481
135299190.0 -0.8171043404 0.2168007938 0.0002399199 0.0001290388 4.27315e-05 0.0001357569 0.1174532782 0.0288469276
140299160.0 -0.8145503626 0.2257628984 -6.91911e-05 -7.14711e-05 -1.57222e-05 0.0001781187 0.1189821209 0.0253325758
145299130.0 -0.8120807871 0.234158978 0.0001129075 0.000132148 -4.9812e-05 0.0001992423 0.1196588821 0.0222340589
150299100.0 -0.8100217434 0.2428874384 1.67262e-05 4.81684e-05 0.0001374068 0.0002241677 0.1206404809 0.0187567872
155299070.0 -0.8077293366 0.2525510124 -0.000139032 0.0001225088 0.0001108465 0.000277467 0.1212623153 0.0155913352
160299040.0 -0.804700426 0.2606718741 -5.74486e-05 -0.0001877123 0.0001471384 0.0001350168 0.1224785751 0.0120928488
165299010.0 -0.8027336541 0.2693654007 -7.81004e-05 0.0003034408 1.3823e-05 7.20294e-05 0.1228863728 0.0088326431
170298980.0 -0.7994669868 0.2781852366 -1.98486e-05 -2.82537e-05 0.0002199224 0.0001958876 0.1237536827 0.0062026975
175298950.0 -0.7967340522 0.2870235044 3.38884e-05 -9.13977e-05 4.52642e-05 2.33371e-05 0.123573127 0.0030254509
180298920.0 -0.7933839944 0.2948449786 1.63206e-05 6.65227e-05 9.51302e-05 -5.82036e-05 0.124260844 -0.0001697419
185298890.0 -0.7906697342 0.3041575317 0.0001707413 7.21653e-05 6.14535e-05 7.3321e-05 0.1238576234 -0.0032303922
190298860.0 -0.7873321915 0.3124485228 2.56654e-05 0.0001703845 7.65449e-05 -9.03017e-05 0.1245534791 -0.0056077309
195298830.0 -0.7840827956 0.3205465859 0.0001979628 -1.81862e-05 0.0001532621 -3.84101e-05 0.123905535 -0.0086142137
200298800.0 -0.7811130039 0.3295606418 -2.91082e-05 0.0002832626 0.0004382459 0.0002002684 0.1246374314 -0.011254019
205298770.0 -0.7774406392 0.3373476882 0.0002255215 -1.43111e-05 0.0001724823 3.8003e-06 0.1240397834 -0.0139070489
210298740.0 -0.7737072539 0.3460109394 0.000232285 8.66754e-05 0.0002346725 6.19717e-05 0.1240902015 -0.0162832814
215298710.0 -0.7702303997 0.3541830751 -9.62288e-05 9.07536e-05 -3.708e-07 7.37754e-05 0.1234234263 -0.0187168575
220298680.0 -0.7667024039 0.3624577273 4.14915e-05 0.0002175663 -0.000108235 -3.1065e-05 0.1236267228 -0.0206735042
225298650.0 -0.7628895471 0.3705504051 0.0001205128 0.0002444838 0.0001266305 0.0001924943 0.1228237875 -0.0233313618
230298620.0 -0.7590302852 0.3788992119 0.0002072425 0.0001559926 0.000229452 0.0001367245 0.1227328288 -0.0258954367
235298590.0 -0.7547739302 0.3869249401 9.08157e-05 -2.46215e-05 -6.11011e-05 7.7783e-05 0.1222382253 -0.0283593944
240298560.0 -0.750982011 0.394844837 -4.26216e-05 0.0001491179 0.0002586262 9.40559e-05 0.1217965305 -0.0301074137
245298530.0 -0.7460305132 0.4028823295 6.46699e-05 -2.2001e-05 0.0001008756 7.71763e-05 0.1213258632 -0.0324679441
250298500.0 -0.7426189097 0.4102390855 7.75038e-05 1.32841e-05 0.0002747474 0.0001116539 0.1208523979 -0.0346222369
255298470.0 -0.7378714782 0.418848994 0.0001016459 4.08841e-05 -1.3345e-06 -3.2491e-06 0.1202197484 -0.036694371
260298440.0 -0.7334791845 0.4259073783 5.20153e-05 0.0001645048 0.0001722336 0.000133841 0.1195215154 -0.0386693253
265298410.0 -0.7286964888 0.4343803128 -9.91086e-05 0.0004034856 9.12318e-05 0.0001895945 0.1190692713 -0.040988093
270298380.0 -0.7245726899 0.4412613794 0.0001644568 4.94736e-05 0.0001516833 7.08471e-05 0.1184604577 -0.0428359262
275298350.0 -0.7193893912 0.4494377763 0.000138587 0.0003064204 0.0002610697 8.94952e-05 0.1177938874 -0.0444051488
280298320.0 -0.7157578987 0.456565694 3.23859e-05 -8.95032e-05 0.0002043973 -1.9616e-05 0.1172680933 -0.0466031908
285298290.0 -0.710103131 0.4646444221 -3.623e-06 0.0001746692 -5.44934e-05 0.0001982341 0.1159955183 -0.0480198287
290298260.0 -0.7054730502 0.4721841696 1.49898e-05 -1.57131e-05 0.0001183376 0.0001837968 0.115724412 -0.0500961155
295298230.0 -0.7010427244 0.4792973218 0.000103195 0.0002261059 0.0003367516 8.721e-06 0.1148154253 -0.0516489988
300298200.0 -0.6947637264 0.4866239362 2.26141e-05 7.081e-06 0.0001589753 4.79936e-05 0.1140232406 -0.0534035134
305298170.0 -0.6902007322 0.4939935181 0.000368531 7.95686e-05 0.0002117321 0.0001543045 0.1135521426 -0.054937328
310298140.0 -0.6842499778 0.5006183493 3.8244e-05 0.0001246657 0.0001898941 0.0003500155 0.1125563085 -0.0565050667
315298110.0 -0.6793106986 0.5079132075 0.0002826533 -4.75786e-05 0.000200329 0.0001309037 0.1119499961 -0.058511717
320298080.0 -0.674009101 0.5153973911 0.0001836067 -4.4834e-06 8.92913e-05 0.0001624649 0.1109124476 -0.0604308588
325298050.0 -0.6677783335 0.5222226409 -4.99575e-05 -2.01744e-05 0.0001888002 0.000138911 0.109956935 -0.0621239248
330298020.0 -0.6626462141 0.5294952935 0.0001434813 -4.04545e-05 0.0001047413 8.73442e-05 0.1089018968 -0.0637007072
335297990.0 -0.6573911918 0.5361790953 3.47389e-05 1.25324e-05 0.0001409968 6.32379e-05 0.1073272195 -0.065155794
340297960.0 -0.652319882 0.5427632762 0.0002735128 0.0001974694 0.0002162418 0.0001232846 0.1066394146 -0.066959474
345297930.0 -0.6465847686 0.548758928 0.0001210004 4.19282e-05 0.0002645773 0.0001398617 0.1048024783 -0.0681652771
350297900.0 -0.6403226724 0.5564040477 0.0001111491 -4.92632e-05 0.0001042401 0.0001132111 0.1037533902 -0.069386944
355297870.0 -0.6346476118 0.5623983599 0.0001553286 0.000225853 8.46943e-05 0.0002509184 0.1025971857 -0.0703872566
360297840.0 -0.6282274375 0.5688387034 0.0002464039 0.0001136897 0.0004308457 0.0003359806 0.101609209 -0.071659958
365297810.0 -0.6222009332 0.5758393179 0.0003588429 0.0001456791 0.0001927404 -1.24125e-05 0.100506788 -0.0729137941
370297780.0 -0.6161975885 0.5817558463 -0.0001878566 0.0001141195 0.0001194358 0.0001348917 0.0990022895 -0.0741162338
375297750.0 -0.6098858582 0.5887811968 0.0003304269 0.000306177 0.0003238782 0.0001751545 0.0979415705 -0.0752787645
380297720.0 -0.6036454343 0.595468653 0.0002269204 0.00012418 0.0005310735 0.0001465357 0.0971061279 -0.0763142703
385297690.0 -0.5977540811 0.6009218266 0.0003216418 0.0001024467 0.000288137 2.12769e-05 0.0956936363 -0.0769961493
390297660.0 -0.5913771391 0.6070760598 0.0002306863 0.0002270255 0.0001223261 0.0001453451 0.0944578316 -0.0787496677
395297630.0 -0.5849267231 0.6134147554 0.0002613711 8.80322e-05 0.0003661628 0.000215291 0.0930105302 -0.0796295538
400297600.0 -0.5787039416 0.61942722 0.0002222569 0.0002589652 0.0003106394 3.64579e-05 0.0918422499 -0.0806418291
405297570.0 -0.5728040382 0.625059872 0.000235625 0.0001075062 9.0577e-05 0.0003224093 0.0908501786 -0.0816384909
410297540.0 -0.5659238508 0.6307480594 0.0001119535 0.0002645892 0.0002294543 0.0001395313 0.0892643148 -0.0824302445
415297510.0 -0.5591299123 0.6366856395 0.0003227014 9.3874e-05 3.44592e-05 0.0002908042 0.0880421798 -0.0834433722
420297480.0 -0.5513692333 0.6423906636 7.2604e-05 -9.85417e-05 0.0002954902 0.0001981032 0.0868760537 -0.0843316343
425297450.0 -0.545525992 0.6481381639 0.0004649476 6.03899e-05 0.0002190171 0.0001605453 0.0858930418 -0.0854543658
430297420.0 -0.5393275865 0.6533702866 0.0002946799 0.0001045877 0.0003726157 0.000152268 0.0843989068 -0.0865916245
435297390.0 -0.5317979689 0.6592033406 0.000248401 1.4789e-05 0.0002504101 2.8316e-05 0.08345102 -0.0868546863
440297360.0 -0.5257351811 0.6644793563 0.0001637637 -0.0001299316 0.0001866261 0.0001579112 0.081345103 -0.0880803004
445297330.0 -0.5187874784 0.6698769826 0.0003222087 0.0002074342 0.0003274969 6.5955e-06 0.0806354348 -0.08914299
450297300.0 -0.5113112898 0.6744938474 0.0003063052 3.52176e-05 0.0002694748 -6.99633e-05 0.0788686725 -0.0900536494
455297270.0 -0.5043809336 0.6803449706 0.0002189338 0.0002584716 0.0002271491 4.09166e-05 0.0778645058 -0.090573627
460297240.0 -0.4979024815 0.6854899155 0.0001210637 0.0002959076 0.0003435324 4.21452e-05 0.0766969467 -0.0915116904
465297210.0 -0.4899938589 0.6904817487 0.0003231092 0.0001225155 0.000131145 -8.32768e-05 0.0748389973 -0.0922556899
470297180.0 -0.483016912 0.6945899833 0.0002649396 0.0001280965 5.11381e-05 0.0001564302 0.0730805224 -0.0928458066
475297150.0 -0.4752500046 0.7004724263 0.0002899874 0.0002357206 0.0003157171 8.73918e-05 0.0722333543 -0.0936363182
480297120.0 -0.4690052643 0.7044143714 0.0005218085 0.0002039596 0.0001078262 0.00013727 0.0709768905 -0.0942471932
485297090.0 -0.4610248395 0.70924158 0.0001478512 0.0001537293 0.0003435826 5.77672e-05 0.0695051905 -0.0952373001
490297060.0 -0.4541184937 0.7143585598 0.0001823006 0.0002221536 0.0003847333 6.00016e-05 0.068073665 -0.0959481785
495297030.0 -0.4472633623 0.7188527623 0.0003434857 9.37904e-05 0.0002741166 0.000342258 0.0667229945 -0.0968017569
500297000.0 -0.4390021639 0.7235273981 0.0004690527 6.4317e-05 0.0002205025 0.0001681772 0.0653794312 -0.0971529733
505296970.0 -0.4317033582 0.7273533588 0.0003890127 0.0001866182 0.0001324415 8.99107e-05 0.063541668 -0.0978870267
510296940.0 -0.4243911291 0.7320543769 0.000270398 0.0002174823 -0.0001520219 6.75119e-05 0.0624086717 -0.0978288548
515296910.0 -0.4175309616 0.7361748125 0.0002877884 9.90995e-05 0.0004045094 -0.0001162783 0.0609611246 -0.0988820345
520296880.0 -0.409176935 0.740267939 0.0004187444 0.0001603234 0.0001833413 4.8119e-05 0.0595484707 -0.0997490902
525296850.0 -0.4013983929 0.7447787733 0.0001457756 9.34656e-05 0.0002279419 1.97703e-05 0.0583701068 -0.1001220429
530296820.0 -0.3940046974 0.74859933 0.000303542 0.0002595906 0.0001738276 3.42061e-05 0.0566146854 -0.1006751647
535296790.0 -0.3863811017 0.7520916461 0.0002432296 0.0001242442 0.0002704966 0.0002404863 0.0552121106 -0.1015020879
540296760.0 -0.3786297644 0.756321272 0.0003191661 4.20301e-05 3.3414e-05 0.000216653 0.053652003 -0.1013887207
545296730.0 -0.3710138673 0.7599543075 0.0003550967 0.0001296989 0.0004114325 -9.26033e-05 0.0522400994 -0.1023723933
550296700.0 -0.3631686718 0.7632540198 0.0003083456 0.0001889376 0.0001661316 8.85e-07 0.0508538452 -0.1026361097
555296670.0 -0.3544869584 0.7668200322 0.0002597326 -1.2609e-05 5.04067e-05 3.77342e-05 0.0494306327 -0.1029669787
560296640.0 -0.3468122095 0.7713739176 0.0001620708 -3.44559e-05 0.0003266604 5.05268e-05 0.0479438746 -0.1037168082
565296610.0 -0.3394859116 0.7738701672 0.0002627947 -7.27657e-05 0.0003115703 3.36617e-05 0.0464230771 -0.1037159967
570296580.0 -0.330961301 0.7779767184 0.0003084406 0.0001828781 0.0003032318 7.82331e-05 0.0451642928 -0.1042918033
575296550.0 -0.323603319 0.781021205 0.0001363216 2.6882e-05 0.0001293468 5.06935e-05 0.0436744229 -0.1045670346
580296520.0 -0.3156803642 0.7848077331 0.0005086753 3.86458e-05 0.0004491497 -0.000122317 0.0419548903 -0.1050274358
585296490.0 -0.3078490016 0.7868127199 0.0001103096 -1.88637e-05 0.0001744297 6.68296e-05 0.0404760418 -0.1053696363
590296460.0 -0.2994060077 0.7899097568 0.0003364554 5.0712e-05 0.0002532609 0.0002298022 0.0391885789 -0.1056981336
595296430.0 -0.2913154983 0.7930363885 -2.21274e-05 6.74695e-05 0.0003356864 5.33e-05 0.0375096237 -0.1060807078
600296400.0 -0.2836027202 0.7955057865 0.000391449 0.0001614527 0.0003636126 -2.58213e-05 0.0364291207 -0.1065281672
605296370.0 -0.2753472759 0.7985435159 0.0002177401 -1.22663e-05 0.0003009211 2.77531e-05 0.0347970083 -0.1062467611
610296340.0 -0.2677401182 0.8015788196 0.0002317048 6.35816e-05 0.0003546089 0.0001668297 0.0332096003 -0.106529386
615296310.0 -0.2591806441 0.8044008421 0.0002210743 8.4986e-05 0.0001986733 -7.75637e-05 0.0315929562 -0.1069736138
620296280.0 -0.2510892225 0.8062541764 0.0002825397 -0.0001777289 0.0003200555 3.6474e-05 0.0301575808 -0.1074935073
625296250.0 -0.2421230483 0.8088024238 0.0003372366 0.0001670642 0.0003939529 -7.38878e-05 0.0287542927 -0.1072484714
630296220.0 -0.2344443862 0.8117937357 0.0004229503 0.0002361717 0.0004212599 -1.97175e-05 0.0273308343 -0.1071237823
635296190.0 -0.2264941779 0.8138880188 0.0004427473 7.53768e-05 0.0003214301 5.22261e-05 0.0258062443 -0.1073265944
640296160.0 -0.2182737541 0.8153096814 0.000453251 9.73231e-05 0.0002387738 1.52158e-05 0.024400165 -0.1075724962
645296130.0 -0.2100205998 0.8177110699 0.0001584761 2.79439e-05 0.0004204795 -0.0001034266 0.0227804754 -0.1075351905
650296100.0 -0.2015635142 0.8205433893 0.0002886536 0.0001299356 0.0003454057 1.68624e-05 0.0213357274 -0.1076496584
655296070.0 -0.1931225673 0.8217975181 0.0001882519 4.0382e-06 0.0006289629 -2.96257e-05 0.0199502097 -0.107380702
660296040.0 -0.1846905949 0.824157869 0.0001326078 0.0001092265 0.0004717311 -0.0001099677 0.0182952861 -0.1076318893
665296010.0 -0.176905282 0.8256576455 0.0004374708 -4.10192e-05 0.000377497 -5.3526e-06 0.017076718 -0.1075477005
670295980.0 -0.1678800259 0.8273358415 0.0004425106 8.75985e-05 0.0003805631 -8.13602e-05 0.0155548712 -0.107610281
675295950.0 -0.1599167086 0.8280968297 0.000329168 -0.0001140017 0.0003249273 0.0002001617 0.0142653297 -0.1075150998
680295920.0 -0.1519336079 0.8309774502 0.000320481 -2.78174e-05 0.0003512585 -2.35373e-05 0.0125262973 -0.1074239391
685295890.0 -0.1426063174 0.8321727675 0.00050603 -4.34362e-05 0.0004580545 0.0001117324 0.0112770678 -0.1078372644
690295860.0 -0.1347484813 0.8338759565 0.0004086611 -8.65867e-05 0.000300923 -0.0001174695 0.0100617738 -0.1073697089
695295830.0 -0.1259671667 0.8344189483 0.0005302726 -3.59628e-05 0.0004357678 -8.4846e-06 0.0079772979 -0.1072817382
700295800.0 -0.1177291434 0.8354782739 0.0003543035 8.02693e-05 0.0004568715 -1.53547e-05 0.006560059 -0.1073471151
705295770.0 -0.1084144729 0.8368719953 0.0005392093 -0.0002545169 0.0001405551 1.32232e-05 0.0052872731 -0.1067806341
710295740.0 -0.100774711 0.8385874318 0.0004652355 4.88526e-05 0.0004825339 -3.0257e-05 0.0035808683 -0.1066891006
715295710.0 -0.0926030037 0.8390723109 0.0006047165 -0.0001348563 0.0001205091 -4.49101e-05 0.0025451371 -0.1067278392
720295680.0 -0.0839402257 0.8397336647 0.0002471718 0.0003005731 0.0004255942 -0.0001188255 0.0011699619 -0.1067190818
725295650.0 -0.0748145897 0.8409333186 0.000523686 -7.56206e-05 0.0003685313 -0.000142371 -0.0003292747 -0.1065428126
730295620.0 -0.0671156377 0.8411897035 0.0004613963 7.31431e-05 0.0004332193 -0.0002087387 -0.001779439 -0.1063815749
735295590.0 -0.057975453 0.8418060444 0.0004693271 -0.000397466 0.0003843129 2.13874e-05 -0.003290332 -0.1059441586
740295560.0 -0.0503424028 0.842411006 0.0003056056 7.28276e-05 0.0004294516 -0.0001835622 -0.0048330835 -0.1058740595
745295530.0 -0.0415410682 0.8423279974 0.0004742009 -7.66419e-05 0.0004995115 1.4427e-05 -0.0063384643 -0.1053416487
750295500.0 -0.0336020228 0.843653202 0.0004496203 4.17365e-05 0.0004256205 3.35285e-05 -0.0079154639 -0.1052928978
755295470.0 -0.0245144159 0.8437345925 0.0004904058 8.39557e-05 0.0004289747 -0.0001195974 -0.0093289467 -0.1046088777
760295440.0 -0.0158543375 0.8438142584 0.0002676786 -4.47997e-05 0.0003734714 -0.0002617167 -0.0105687628 -0.104688112
765295410.0 -0.0077368149 0.8433612403 0.0003108473 0.0002224828 0.0004210719 -0.0001251742 -0.0116628683 -0.1037750697
770295380.0 0.0008915071 0.8442194692 0.0001782857 -0.0001933441 0.0003099688 7.95325e-05 -0.0128376375 -0.1038725972
775295350.0 0.0086097135 0.8437762392 0.00031234 5.67936e-05 0.0004765022 -0.0001373881 -0.0144823797 -0.1038848641
780295320.0 0.0182695745 0.8433937197 0.0003695663 -4.88993e-05 0.0005019581 -6.23231e-05 -0.0160642524 -0.1030931486
785295290.0 0.0264643278 0.8438543604 0.0003631728 -1.58721e-05 0.0003492323 -0.0002304195 -0.017418606 -0.1026458224
790295260.0 0.0341281543 0.8423906031 0.0002762069 -3.34854e-05 0.0003979367 -0.0001253043 -0.0188098901 -0.1022612242
795295230.0 0.0429572845 0.8436876696 0.0003819108 -6.4283e-06 0.0004355663 -2.07814e-05 -0.0200105729 -0.1014708453
800295200.0 0.0515195643 0.8428725844 0.0004994883 -4.78626e-05 0.0006473903 -0.0001507216 -0.0211150495 -0.1015824053
805295170.0 0.0597596597 0.8423010518 0.00043717 -0.0001122837 0.0003271225 -6.6756e-06 -0.0230033527 -0.1006885298
810295140.0 0.0686105987 0.8411144442 0.0002256243 -3.0833e-06 0.0003827163 3.25271e-05 -0.0238148845 -0.1000495397
815295110.0 0.0769364845 0.8404243458 0.0002747851 -0.0002269371 0.0004586118 -0.0002134284 -0.0252012161 -0.0995403907
820295080.0 0.0855465132 0.8388150165 0.0007134266 -0.0001320817 0.0006003069 -0.0001858906 -0.0268760394 -0.0988925489
825295050.0 0.0943347108 0.838348822 0.0002377335 -0.0001048955 0.0004334282 3.17808e-05 -0.0277151137 -0.0986348482
830295020.0 0.1024324691 0.8375820305 0.0002886867 -0.0001769036 0.0005176342 -4.11942e-05 -0.0293215173 -0.0978375436
835294990.0 0.1101288677 0.8368015842 0.0007076309 -0.0001774665 0.0004483237 -0.0001567955 -0.0306604024 -0.0973636986
840294960.0 0.1190490004 0.8348941357 0.000527016 -0.0003123492 0.0003347155 -0.0002189172 -0.0318052746 -0.0963242723
845294930.0 0.1274738663 0.834511343 0.000301052 -4.29615e-05 0.0004593276 -0.0001781548 -0.0331079335 -0.0958696188
850294900.0 0.1355227219 0.8327816981 0.000447192 2.38241e-05 0.0003568333 -0.0002620794 -0.0341939248 -0.095374847
