!Created with skrf (http://scikit-rf.org).
# Hz S RI R 50.0 
!freq ReS11 ImS11 ReS21 ImS21 ReS12 ImS12 ReS22 ImS22
300000.0 -0.7711305163 -0.1813988693 -0.0011132348 -3.00422e-05 -0.000391315 0.0001033656 -0.0465172151 -0.0784385556
5299970.0 -0.7857582575 -0.0094889731 0.0002071994 5.96339e-05 0.0001009986 -0.0002745256 -0.0489165912 0.0143567312
10299940.0 -0.7894263282 -0.0061348751 -4.05354e-05 0.0001209029 -5.58348e-05 -3.81073e-05 -0.0429517128 0.0321596802
15299910.0 -0.7942100702 -0.0028926799 5.36805e-05 -0.0001972965 1.83819e-05 0.0001354938 -0.0348679486 0.0464377069
20299880.0 -0.8011295789 0.0007505603 -0.0001349788 6.19866e-05 -1.26133e-05 -0.0002352304 -0.0252587364 0.058522499
25299850.0 -0.8076864893 0.0066978235 -0.0001493363 -0.0002700107 -6.59784e-05 3.84424e-05 -0.0144356526 0.0674466036
30299820.0 -0.8137210797 0.0141559495 0.0001407756 -0.0001159348 7.42712e-05 0.0001036438 -0.0028637809 0.0747527357
35299790.0 -0.818777194 0.0230302505 5.18736e-05 -6.17035e-05 -5.3526e-05 -5.83848e-05 0.0084435954 0.0796451113
40299760.0 -0.8234428649 0.0320152139 -4.79013e-05 0.0002184618 -5.90935e-05 2.85064e-05 0.0193745255 0.0825002528
45299730.0 -0.8266097361 0.0420024897 -0.0001608657 1.89152e-05 0.0002143519 -8.5918e-06 0.0302823168 0.0840962353
50299700.0 -0.8292235127 0.0519658156 1.62401e-05 0.0002324163 -0.0001213062 -9.26519e-05 0.0403786782 0.0843622434
55299670.0 -0.830877026 0.0613070022 -6.99562e-05 -3.01924e-05 1.91071e-05 0.0001507473 0.0495713284 0.0834028064
60299640.0 -0.8325167654 0.0723208528 -9.05589e-05 -9.54209e-05 0.0002811598 -6.58731e-05 0.0579922498 0.082048004
65299610.0 -0.8333273595 0.0815667601 0.0001158978 3.47143e-05 8.71021e-05 -4.3501e-06 0.0658407603 0.0794976447
70299580.0 -0.8330947704 0.0918871261 0.0001382085 1.21512e-05 -8.87693e-05 -1.53121e-05 0.0725846775 0.0768221811
75299550.0 -0.8338566968 0.1019455617 -0.0001175635 9.85986e-05 -2.065e-05 9.5119e-05 0.0791835127 0.073555034
80299520.0 -0.8344957 0.1117131808 0.0001585875 -0.0001908495 0.0002021059 0.0001972226 0.0849582657 0.0701459518
85299490.0 -0.8327380027 0.1214287095 -2.11201e-05 -4.09902e-05 -5.67005e-05 9.46539e-05 0.0899835632 0.0663470067
90299460.0 -0.8317185873 0.1309687428 0.000213124 0.0001828396 0.0001376375 7.68944e-05 0.0945767391 0.0631502219
95299430.0 -0.8315797819 0.1404734017 -6.518e-05 2.1475e-05 -8.55044e-05 0.0002047011 0.0987354478 0.0593782468
100299400.0 -0.8302145988 0.1498716708 3.08123e-05 0.0001955425 -1.88377e-05 -6.8216e-05 0.1024004356 0.0558728979
105299370.0 -0.8285418508 0.1590393095 7.80385e-05 -7.5391e-06 3.24141e-05 0.0001544191 0.1056087949 0.0515326291
110299340.0 -0.8277771782 0.1685629908 0.0001210328 6.03823e-05 1.4927e-05 -6.97528e-05 0.108361148 0.0475837631
115299310.0 -0.8257487884 0.1782065949 -6.4283e-06 -2.86616e-05 -0.0001642319 0.0001676972 0.1110859893 0.0437758169
120299280.0 -0.8244337635 0.1867596419 -0.0001657837 0.00027308 0.0001403272 4.19011e-05 0.1133313676 0.0400824451
125299250.0 -0.8226188967 0.1954344818 0.0001946396 0.0002325812 0.0002342067 0.0001035756 0.1153030714 0.0362698197
130299220.0 -0.8204708629 0.2052657831 4.9984e-05 0.0002582718 0.000171084 6.11335e-05 0.1171987529 0.0328960276
135299190.0 -0.818543145 0.2145448346 -4.2142e-06 -0.0001417475 0.0002053535 4.15578e-05 0.1187003844 0.0288711894
140299160.0 -0.8174419888 0.2233697755 -4.25449e-05 0.0001241246 0.0001196445 -9.49049e-05 0.1196871017 0.0258383606
145299130.0 -0.8145901772 0.2327577112 0.0002160935 -2.91359e-05 0.0001195523 8.7357e-06 0.1208461461 0.0223186781
150299100.0 -0.8117769185 0.2411571174 -8.29623e-05 -2.77682e-05 0.0002110056 -1.35132e-05 0.1218953017 0.0191370356
155299070.0 -0.8098795805 0.2498652211 0.000135163 2.73649e-05 8.19724e-05 0.000220483 0.1227728753 0.0157157237
160299040.0 -0.8070018899 0.2589516558 0.0001116507 0.0002342548 -3.77924e-05 -5.8789e-06 0.1233037505 0.0127778144
165299010.0 -0.8045926254 0.2672579041 0.0001977068 0.000145017 0.0001962345 8.90809e-05 0.1242089423 0.0094399476
170298980.0 -0.8012733145 0.2764225796 -1.74868e-05 0.0001442578 0.0001345399 0.0001404834 0.1242417154 0.0067239862
175298950.0 -0.7985891047 0.2844151839 0.0001144719 0.0001781412 0.0001344279 -2.4332e-06 0.1248099078 0.003737109
180298920.0 -0.7957763303 0.2934906695 6.05031e-05 9.84263e-05 0.0001181943 0.0002266714 0.1251872527 0.0006656775
185298890.0 -0.7921144086 0.3019831241 0.0002177252 -2.16248e-05 0.0002169934 0.0001312954 0.1251215857 -0.0024264498
190298860.0 -0.7896880187 0.3113105916 -1.34621e-05 0.0002905324 0.0002256551 0.0001270295 0.1250482706 -0.0048230616
195298830.0 -0.7866896916 0.3190093532 -0.0001144103 7.35313e-05 -1.3308e-05 4.29159e-05 0.1248520422 -0.0074918212
200298800.0 -0.7829818117 0.3273589474 0.0002240274 -1.3147e-05 6.16427e-05 0.0003668444 0.1250638494 -0.0104207368
205298770.0 -0.7789237752 0.3365998052 0.0001358695 0.0003756213 0.0002032442 0.0002450312 0.1248421449 -0.0129963535
210298740.0 -0.775698009 0.3445937247 -0.0001318749 8.72514e-05 0.0002177364 0.0001149916 0.1246071237 -0.0153918808
215298710.0 -0.7726217386 0.3534383334 -0.0001340064 -7.23216e-05 7.30759e-05 0.0001088478 0.1244071497 -0.0181626438
220298680.0 -0.7686775839 0.3603722439 -4.6678e-05 -5.47148e-05 -3.2708e-05 -2.32498e-05 0.1237618997 -0.020413457
225298650.0 -0.7651001933 0.3695008426 0.0001339998 0.0001228189 7.7091e-05 0.0001045651 0.123214826 -0.0226861181
230298620.0 -0.7606693721 0.3775385501 0.0001001566 0.0001636371 3.24889e-05 0.0001978741 0.1230681915 -0.0252909283
235298590.0 -0.7574169409 0.3861765121 0.0002405739 0.0002143175 0.0001809452 0.0001667842 0.1223544295 -0.0270146894
240298560.0 -0.7528480065 0.3938401847 8.82346e-05 0.0001127443 0.0001873475 0.000155856 0.1218732619 -0.0296099992
245298530.0 -0.7485615814 0.4016674585 0.0001811494 0.0001984733 0.0001054856 0.0002192465 0.1213140337 -0.0317492933
250298500.0 -0.744784989 0.4091760618 3.42099e-05 0.0002104326 0.0001430173 0.0001985156 0.1204478646 -0.0336752289
255298470.0 -0.7410243396 0.4172331277 8.59494e-05 0.0001778023 0.000158737 0.0001689326 0.1202461309 -0.036115176
260298440.0 -0.7361034529 0.4252000351 8.93555e-05 0.0003271715 0.000102977 -2.77535e-05 0.1189537975 -0.0377715237
265298410.0 -0.7320130958 0.4324830801 -0.0001068057 0.0001915549 0.0001560193 -4.61632e-05 0.1189265201 -0.0402164872
270298380.0 -0.727086813 0.43990365 0.0001932304 0.0002203082 0.0001038184 0.0001666437 0.1179974334 -0.0418394251
275298350.0 -0.7231941971 0.4483885261 6.44322e-05 -4.4309e-05 0.0002203729 0.0002286526 0.1172094393 -0.0438317005
280298320.0 -0.71850399 0.4552474309 5.39574e-05 -3.69427e-05 0.0002029214 -6.1118e-06 0.1166056378 -0.0456003021
285298290.0 -0.7135503916 0.4627643935 0.0001734534 0.0001569556 0.0002035615 -1.29084e-05 0.1156324707 -0.0473352783
290298260.0 -0.7087731479 0.4709005614 0.0001798354 0.0001978732 -9.6171e-06 0.0002778622 0.1147493497 -0.0492379297
295298230.0 -0.7042274809 0.4778542331 5.37674e-05 4.96903e-05 0.0003888288 -3.76469e-05 0.1139624557 -0.0511471575
300298200.0 -0.6992665022 0.4851367551 0.0001971391 0.0002263598 0.0004322534 0.0001181767 0.1132813683 -0.0527854948
305298170.0 -0.6944765502 0.4924918126 -0.0001068705 0.0001200868 6.71705e-05 0.0001599005 0.1126110875 -0.0543002825
310298140.0 -0.6889131189 0.4997541233 0.0002622186 0.0002857547 0.0002057467 0.000391732 0.1116491807 -0.0561509325
315298110.0 -0.6846449898 0.5072809397 -0.0001278286 0.0002048562 0.0001457347 0.0002504608 0.1108502219 -0.0580051451
320298080.0 -0.6788495897 0.5144975003 0.0002118821 0.0001289801 0.0001898807 -3.2643e-05 0.1094667613 -0.0595056845
325298050.0 -0.673374026 0.5207184302 8.71668e-05 0.000135323 0.0002638299 0.0001212124 0.1085986233 -0.0620078528
330298020.0 -0.6677551318 0.5277102613 6.73654e-05 0.0001533055 0.0002417884 1.83849e-05 0.107396504 -0.0637566517
335297990.0 -0.6632040234 0.5348823043 1.11082e-05 0.0002733088 0.0001256054 0.0001545465 0.1062425463 -0.0652035717
340297960.0 -0.6573854924 0.541592242 0.0001006022 0.0002705057 0.0001427787 0.0001155688 0.1049591916 -0.0662721619
345297930.0 -0.6520945987 0.5484482079 0.0001940331 0.000275376 0.0002053215 0.0001569348 0.1036327395 -0.0678914076
350297900.0 -0.6464860943 0.5547856487 0.0003058401 -4.05331e-05 0.0002058719 0.0001528119 0.1020849432 -0.0693448034
355297870.0 -0.6408622708 0.5614012711 0.000137143 4.7566e-05 0.0002138607 0.0001428173 0.1010084133 -0.0707292422
360297840.0 -0.634985273 0.5682011339 6.28452e-05 3.642e-05 0.0001796759 -9.1081e-06 0.1000105089 -0.0718306526
365297810.0 -0.6290514795 0.5748926066 5.95535e-05 0.0003345951 1.89685e-05 7.1734e-05 0.0986273366 -0.0734160044
370297780.0 -0.6234987973 0.5803906199 0.0002355042 0.0001352812 0.0002530345 0.0003386445 0.097225891 -0.0743005478
375297750.0 -0.6179266619 0.5869167018 0.0001791522 0.0001399678 0.0002219623 2.69965e-05 0.0962874583 -0.075583618
380297720.0 -0.6118937057 0.5931073208 9.78478e-05 0.0002600958 3.8768e-06 6.4685e-06 0.0950931007 -0.0768804887
385297690.0 -0.6061594307 0.5994826834 -8.01298e-05 0.000344471 8.41889e-05 6.83709e-05 0.0938640911 -0.0780815507
390297660.0 -0.5983757033 0.6053580172 0.0001043993 -7.8654e-06 0.0001984723 6.25187e-05 0.092282918 -0.0792484635
395297630.0 -0.59285629 0.6119085538 0.0003211321 1.96982e-05 0.0003529608 0.0001676674 0.0912369723 -0.080594313
400297600.0 -0.5864788551 0.6183132376 3.84972e-05 0.0001343679 6.4837e-06 0.0001125221 0.0904287199 -0.0814109759
405297570.0 -0.5803761208 0.6231510193 0.0003732702 -6.2443e-06 0.0004934878 0.0001333158 0.0891730408 -0.0824901103
410297540.0 -0.5738448277 0.6296428027 8.81308e-05 0.0002771922 0.0001690094 9.92375e-05 0.0877212429 -0.083707018
415297510.0 -0.5681602089 0.6351201614 8.95283e-05 0.0001997778 0.0004033206 0.0001743052 0.0863054761 -0.0848445997
420297480.0 -0.5610417045 0.64075755 0.000425635 0.0002254528 0.000347114 -6.8095e-06 0.0856190418 -0.0856793602
425297450.0 -0.5541885081 0.6466342194 0.0003785237 0.0001878269 0.0002067609 0.0004049502 0.083678662 -0.0871477693
430297420.0 -0.5477945704 0.6520029005 0.0004745901 0.0002514489 0.0003089358 3.56445e-05 0.0825759187 -0.0878688314
435297390.0 -0.5411351927 0.6574700319 0.0001954999 6.52716e-05 0.0003808141 0.0001114774 0.0810071599 -0.0886057381
440297360.0 -0.5342776377 0.6623079862 0.00019315 -0.0002903497 0.0002099959 0.0002242522 0.0799707714 -0.089582983
445297330.0 -0.5270696291 0.6682566093 0.0002602722 4.76967e-05 0.0003661555 0.0002750075 0.0787161902 -0.0903662184
450297300.0 -0.5202409496 0.6734730748 0.000179467 0.0002274418 0.00038649 0.0003063249 0.0773557739 -0.0910901827
455297270.0 -0.5133120129 0.6785047087 0.0001464949 5.61388e-05 0.0003022267 2.0328e-05 0.076104713 -0.0924381383
460297240.0 -0.5057970733 0.6839852364 5.51527e-05 -1.30669e-05 4.57434e-05 -6.60013e-05 0.074647265 -0.0929728171
465297210.0 -0.4990198668 0.688424567 0.0003477019 0.0001019139 0.0003077371 0.0001433803 0.0734547678 -0.0938865497
470297180.0 -0.4917439593 0.6941370988 0.000481377 -4.85103e-05 0.0002207172 0.0001515144 0.0720850454 -0.094769998
475297150.0 -0.484842288 0.6988134514 0.0002310243 -6.7049e-05 0.000275677 -9.8351e-05 0.0706752296 -0.0954959559
480297120.0 -0.476996406 0.7042703681 0.0006340647 0.0001921052 0.0001945698 -0.0001817298 0.0691880345 -0.0959376794
485297090.0 -0.4702832655 0.7081692029 0.0002657211 0.0002323634 0.0002338566 5.4565e-05 0.0676852445 -0.0968850263
490297060.0 -0.4622439032 0.7139567461 0.0002392189 0.0003543313 0.0002640888 0.000210643 0.0667225522 -0.0977693566
495297030.0 -0.4547184177 0.7183035713 0.0001659293 5.87303e-05 0.0002146862 1.9395e-06 0.0653324819 -0.0984261408
500297000.0 -0.4474260694 0.7223198845 0.0002063413 9.27201e-05 0.0004407973 0.0001790468 0.0638385205 -0.0990945957
505296970.0 -0.4391818322 0.7272053696 0.0002691912 0.0003217044 0.0002666976 -3.8066e-05 0.0622343675 -0.0997969829
510296940.0 -0.431917014 0.7315349459 0.0002252158 7.54129e-05 0.0003155161 6.78223e-05 0.0613403346 -0.1001854224
515296910.0 -0.423783905 0.7354076601 0.0004967765 0.0001553555 0.0004898874 0.0002571636 0.0592511671 -0.101123184
520296880.0 -0.4158843645 0.7397401452 0.0002959828 1.11843e-05 0.0001113081 0.0001037937 0.0583736313 -0.1016478548
525296850.0 -0.4089093482 0.7437803629 0.0003373916 0.0001512137 0.0004082295 0.0003123898 0.0568196911 -0.1022367649
530296820.0 -0.4010035231 0.7476541792 0.0002982892 0.0003328778 0.0003561194 0.0001198326 0.055158813 -0.1029856005
535296790.0 -0.3927363389 0.7518021504 0.0001868234 0.000219816 0.0002823603 0.0001205109 0.0543812655 -0.1031402785
540296760.0 -0.3850155844 0.7556220226 0.0003739736 0.0003728872 0.0001086469 -1.27829e-05 0.0525354244 -0.1038405571
545296730.0 -0.3771954814 0.7602821088 0.0004616665 8.70978e-05 0.0002134679 3.37946e-05 0.0513317599 -0.1043619524
550296700.0 -0.3693515211 0.7637433859 0.0001097604 3.05691e-05 0.0003457612 0.0001337551 0.0497029908 -0.1047494349
555296670.0 -0.3613740208 0.767049058 0.0004119827 0.000104825 0.000313567 0.0001095189 0.0480763662 -0.1054389765
560296640.0 -0.3529963347 0.7706084099 0.0001317071 0.0001605277 0.0002242959 0.0001496626 0.0467397802 -0.1057196994
565296610.0 -0.3458079795 0.7738230742 0.0001673241 0.0003698974 0.0003839094 0.0001854961 0.0456074034 -0.1058060976
570296580.0 -0.3371538045 0.7778380793 0.0002642454 0.000244443 0.0003267368 -0.0001261832 0.0437456554 -0.1064980026
575296550.0 -0.3279890735 0.7816755667 0.000179922 0.0002332736 0.0001344127 -8.50078e-05 0.0425992901 -0.1069642954
580296520.0 -0.321016263 0.7844395612 0.000314155 3.75557e-05 0.0004716253 -0.0001430781 0.0410297941 -0.1071221017
585296490.0 -0.312319067 0.7875729158 0.0004312264 9.46549e-05 0.0002293164 8.95075e-05 0.0395248564 -0.1074845853
590296460.0 -0.3038997422 0.7908978715 0.0004678755 2.03364e-05 0.0004616007 2.35711e-05 0.0378991269 -0.107855263
595296430.0 -0.2963855399 0.7938002869 0.0003149981 -0.0001345757 0.0003617773 -4.99949e-05 0.0364463506 -0.1078876833
600296400.0 -0.2877495562 0.7968472926 0.0002564824 0.0001158633 0.0004254148 -9.93704e-05 0.0351805179 -0.1086047161
605296370.0 -0.2795850998 0.799337181 0.0002949714 6.04155e-05 0.0004011131 0.0001377983 0.0338280625 -0.1087140363
610296340.0 -0.2715717431 0.8027395964 0.0003271533 -4.80038e-05 0.0002231543 -1.32e-05 0.0322704123 -0.1087505196
615296310.0 -0.262746036 0.8052076177 0.0004442159 -0.0001500123 0.0003172042 0.000179732 0.03111426 -0.1091835653
620296280.0 -0.2553195365 0.8085535129 -3.39005e-05 4.073e-06 0.000287348 -2.9092e-06 0.0292442329 -0.1089974156
625296250.0 -0.2474949535 0.8096274395 0.0002190226 -0.0001571252 0.0002561509 -0.0002294628 0.0278781015 -0.1096463637
630296220.0 -0.2389197957 0.8132314018 0.0003950513 6.81285e-05 0.0003192241 5.28424e-05 0.026378122 -0.1095185784
635296190.0 -0.2304287005 0.8155977656 0.0001710769 -2.7147e-06 0.0005363596 9.31636e-05 0.0249228677 -0.1094609331
640296160.0 -0.221289372 0.8172102768 0.0005030225 -4.59887e-05 0.0002814536 0.0002067788 0.023499971 -0.109899812
645296130.0 -0.2138967956 0.8198883703 0.0003505826 -7.97963e-05 0.0003558397 2.60969e-05 0.02189333 -0.1098324805
650296100.0 -0.2054964522 0.8220801241 7.39298e-05 9.77702e-05 0.0002363689 8.24006e-05 0.0207066528 -0.1100108777
655296070.0 -0.1978007843 0.8246161077 0.0001662009 -0.00011064 0.0002083303 -3.79105e-05 0.018837729 -0.1098130531
660296040.0 -0.1899994166 0.8258370114 0.0001831222 -5.73282e-05 0.0003970977 3.23504e-05 0.0179587674 -0.1100960729
665296010.0 -0.1808976211 0.8284766275 0.0004960219 -4.85223e-05 0.000403012 1.26756e-05 0.0162706076 -0.1099543869
670295980.0 -0.1729432347 0.8304076296 0.000398596 -0.0004035535 0.0001387871 0.000111451 0.0147843001 -0.1101996251
675295950.0 -0.1638824724 0.8318511917 0.0004323041 0.0002571159 0.0003237125 -1.68524e-05 0.0134037994 -0.1098798852
680295920.0 -0.1565288567 0.8334468731 0.000372331 -6.23101e-05 0.0002926637 -2.53611e-05 0.0115967667 -0.1100538625
685295890.0 -0.1476393065 0.8353734416 0.0004260294 -0.0001614823 0.0003279758 1.43247e-05 0.0102494277 -0.1099040971
690295860.0 -0.1389298642 0.8366621758 0.0002614952 6.946e-06 0.0005565205 6.80989e-05 0.0089275914 -0.1099034962
695295830.0 -0.1306491967 0.8384564179 0.0004259668 3.96216e-05 0.0002595941 -6.50842e-05 0.007684056 -0.109595353
700295800.0 -0.1227164704 0.840177231 0.0004731301 6.88465e-05 0.0004650743 -0.0001380606 0.0064777025 -0.109690713
705295770.0 -0.1142741352 0.8412690507 0.0004612416 -3.56273e-05 0.000445016 -6.59721e-05 0.0046086251 -0.1090899496
710295740.0 -0.10675067 0.8423373636 0.0004563208 5.22542e-05 0.0006426185 -4.68781e-05 0.0034805281 -0.1091879301
715295710.0 -0.0980761504 0.8433476654 0.0004003348 -0.0001865693 0.0002110059 -0.0001176402 0.0019631727 -0.1094414324
720295680.0 -0.0889849679 0.844456804 0.0005221923 4.52987e-05 0.0004784664 8.18987e-05 0.0002899109 -0.1089502662
725295650.0 -0.081450797 0.8456273879 0.0001110607 6.21316e-05 0.0005484855 -5.97247e-05 -0.000972325 -0.1086439511
730295620.0 -0.0734007373 0.8465161826 0.0004395092 -0.0002128914 0.0003580323 -3.44251e-05 -0.0023010495 -0.1081430638
735295590.0 -0.0655610076 0.8477149745 0.0003514669 1.92815e-05 0.0002580287 -0.0001146893 -0.0035811149 -0.1079718273
740295560.0 -0.0574234732 0.8476834552 0.0002293183 0.0001610537 0.0006021465 -1.57504e-05 -0.005112435 -0.107952028
745295530.0 -0.0492472877 0.8483967177 0.0006934779 0.0001190478 0.0005544823 7.27134e-05 -0.0066397848 -0.1075015033
750295500.0 -0.0410641459 0.8490721847 0.0004987815 -0.0002632234 0.0001561293 9.58422e-05 -0.00798523 -0.1073860645
755295470.0 -0.032084457 0.8497193536 0.0003542642 0.0001014141 0.0004151164 -0.0001057075 -0.0093684615 -0.1064499465
760295440.0 -0.0240998138 0.8504635758 0.0004087163 4.98718e-05 0.0003866656 -0.0003254744 -0.0105566735 -0.1067929846
765295410.0 -0.0161470641 0.8501365071 0.000482534 -8.09114e-05 0.0006137841 0.0001567288 -0.0119632149 -0.1063700126
770295380.0 -0.0088606363 0.8513102095 0.0004236018 -0.0002448835 0.0006308348 -4.96377e-05 -0.0133235078 -0.1057751455
775295350.0 0.0001772837 0.8508232755 0.0004683435 0.0001364395 0.0004176355 -6.37254e-05 -0.0147585875 -0.1058212757
780295320.0 0.0086671462 0.8511941572 0.0003012212 -0.0001451636 0.0003109262 -5.56768e-05 -0.0160160544 -0.1049216384
785295290.0 0.0168786886 0.8515359213 0.0006224644 -9.93403e-05 0.0004320982 -0.0001195207 -0.0176159437 -0.1045089456
790295260.0 0.0251965082 0.8511155954 0.0004342005 -0.0001416927 0.0003566848 1.82311e-05 -0.019001697 -0.1039404043
795295230.0 0.033287393 0.8501340177 0.0004349548 3.45129e-05 0.0003483586 7.54353e-05 -0.0205052061 -0.1040326849
800295200.0 0.0410897762 0.8506007587 0.00021544 -0.0002894069 0.0002657406 -1.76296e-05 -0.0217523212 -0.1036722479
805295170.0 0.0488995349 0.8506018364 0.0003441283 -9.08821e-05 0.0003487834 6.70836e-05 -0.0227780805 -0.1029051887
810295140.0 0.0576947616 0.8503633746 0.0002346368 0.0001029595 0.0004450635 -0.0001070756 -0.0241711961 -0.1022486801
815295110.0 0.0652414025 0.8497532081 0.0003062275 -0.0002811575 0.0002675652 -0.0001449574 -0.0256167553 -0.1016805538
820295080.0 0.0738692087 0.8487519773 0.0005931016 4.8516e-05 0.0004522965 -0.0003187484 -0.0273249121 -0.1010135548
825295050.0 0.0818698919 0.848443228 0.0003991621 -3.88477e-05 0.0002735875 -8.22101e-05 -0.0280091354 -0.1008267523
830295020.0 0.0906464531 0.8473010886 0.0005479841 -0.0002515018 0.0004333884 -0.0001734526 -0.0297917853 -0.1001657261
835294990.0 0.0983169428 0.8464604814 0.0004660453 -0.0001823718 0.0005266998 -0.0001420483 -0.0308208012 -0.0991434885
840294960.0 0.1067402702 0.8451709575 0.000515132 -9.02235e-05 0.0004259358 -0.0002058881 -0.0320340468 -0.0990224885
845294930.0 0.1147623158 0.8447680119 0.0003335834 -0.0001401853 0.0004404534 -9.61405e-05 -0.0334529349 -0.098050768
