!Created with skrf (http://scikit-rf.org).
# Hz S RI R 50.0 
!freq ReS11 ImS11 ReS21 ImS21 ReS12 ImS12 ReS22 ImS22
300000.0 -0.7779727423 -0.092769732 -0.001028009 0.0006460566 0.0013825638 -0.0006936819 -0.0473615148 -0.0564903985
5299970.0 -0.7848536533 -0.005721839 8.41742e-05 -0.0001281076 9.1817e-05 0.0001032047 -0.0461693793 0.0156414808
10299940.0 -0.7876647258 -0.0039812294 8.81472e-05 5.43803e-05 7.05092e-05 0.0001074536 -0.0403723363 0.0338268339
15299910.0 -0.7930853359 -0.0021747464 0.0003591371 0.0001252728 4.21479e-05 -7.27986e-05 -0.0317174745 0.04822177
20299880.0 -0.8004290208 0.0021497498 5.7552e-05 1.19108e-05 3.58639e-05 -2.39692e-05 -0.0216014569 0.0601177545
25299850.0 -0.8062673108 0.0076921798 -5.9423e-06 -0.0001786394 5.0573e-05 6.06877e-05 -0.0103071369 0.0692604687
30299820.0 -0.8123620506 0.0154326973 7.68285e-05 0.0001280985 -1.63549e-05 8.60592e-05 0.0016112232 0.0760655496
35299790.0 -0.8171799424 0.0244743789 8.86261e-05 0.0002040887 -3.9745e-06 7.90945e-05 0.0130613372 0.0812650437
40299760.0 -0.8212616555 0.0339017594 -2.61213e-05 -5.11496e-05 3.29746e-05 5.53475e-05 0.0243974187 0.0835680261
45299730.0 -0.8245097752 0.0425719785 4.82105e-05 -3.63537e-05 -0.0001463473 -2.54116e-05 0.035306051 0.0854773579
50299700.0 -0.8268597206 0.0529171947 0.0001287432 2.4155e-05 0.0003704865 9.31952e-05 0.0455345297 0.085259642
55299670.0 -0.8290528234 0.0629254873 -4.943e-05 0.0001045286 0.0001789808 4.76214e-05 0.0548093026 0.0840296983
60299640.0 -0.8300318175 0.0733319174 0.0001003842 6.86487e-05 9.667e-07 0.0001536559 0.0633471006 0.0823073024
65299610.0 -0.8309025352 0.083355909 2.86566e-05 7.0334e-06 4.3505e-06 8.49438e-05 0.0709908946 0.0797557582
70299580.0 -0.8317539074 0.0936183201 0.0002370944 -4.87275e-05 0.000136322 9.99534e-05 0.0777043477 0.0772027094
75299550.0 -0.8320406198 0.1036079799 -0.0001573023 0.0001613578 -8.1743e-06 6.7749e-05 0.0842424885 0.0737620249
80299520.0 -0.831751884 0.1129420924 9.31647e-05 5.74711e-05 2.73695e-05 0.000117927 0.0896730253 0.0705546533
85299490.0 -0.8308851986 0.1224718699 8.37016e-05 6.81511e-05 0.0002055954 0.0001037462 0.0950340419 0.0665910108
90299460.0 -0.8297920832 0.1317693097 -0.0001881742 -0.000192338 7.23008e-05 -3.8223e-05 0.0995992248 0.0628537072
95299430.0 -0.8286673669 0.1414599278 -1.07483e-05 -4.81452e-05 4.79417e-05 3.31582e-05 0.1033255174 0.0593286959
100299400.0 -0.8280843157 0.1501500703 -3.20103e-05 8.9111e-06 0.000159307 7.57035e-05 0.1075265577 0.0552938821
105299370.0 -0.8266682424 0.1600196964 -9.48327e-05 0.000201447 1.13318e-05 -9.07911e-05 0.1106397971 0.0511280473
110299340.0 -0.824933357 0.1688801371 -0.0001132077 -0.0001499632 -4.63398e-05 6.25323e-05 0.1133435488 0.047588887
115299310.0 -0.8240666801 0.1783092746 -0.0002404851 -5.08095e-05 -0.0002366638 7.46287e-05 0.1160173516 0.0434300046
120299280.0 -0.8220749622 0.1869101103 -1.843e-07 -7.28313e-05 2.87571e-05 -0.0001684478 0.1183740294 0.0400326843
125299250.0 -0.8202956738 0.1958834701 2.16508e-05 -2.61631e-05 -0.0001357019 0.0001711132 0.1204049997 0.0361077699
130299220.0 -0.8185758123 0.2053435386 1.58838e-05 -9.7178e-06 -3.79852e-05 0.0001786691 0.1221777652 0.0322548962
135299190.0 -0.8167999464 0.2140991442 -7.94057e-05 0.0002329121 9.36565e-05 -3.68435e-05 0.12355731 0.0288645825
140299160.0 -0.8148076431 0.2227716788 -4.15096e-05 0.0001971034 0.0001850188 0.0001159522 0.1249257113 0.0256503196
145299130.0 -0.8124418188 0.2319387456 0.0001678591 -3.22856e-05 -9.91974e-05 -7.87648e-05 0.125562576 0.0221335363
150299100.0 -0.8101357767 0.2407962599 1.67471e-05 -1.75211e-05 0.0002174788 2.06366e-05 0.1268159956 0.0191694099
155299070.0 -0.8075911453 0.2492542463 -0.0001957027 0.0002603069 -1.55435e-05 6.15107e-05 0.1278182151 0.0155120667
160299040.0 -0.8052488662 0.257593184 1.34886e-05 0.0002517371 7.58607e-05 -8.66384e-05 0.127944303 0.012878811
165299010.0 -0.8028121708 0.2668364576 0.0001399558 7.74188e-05 0.0001118329 1.6446e-05 0.1286939259 0.0095515341
170298980.0 -0.8001163631 0.2752907012 2.94595e-05 0.0002688628 8.12919e-05 -1.79421e-05 0.1294202633 0.0063871162
175298950.0 -0.7972705289 0.2841741705 0.0002053089 2.51862e-05 0.0001349336 3.31176e-05 0.1293476948 0.0033286005
180298920.0 -0.7944881131 0.2925076114 0.0002017434 8.60239e-05 -6.3877e-06 -1.12155e-05 0.1296079886 0.0007280971
185298890.0 -0.7913108336 0.3003352502 0.0001826911 0.0002036781 6.66558e-05 0.0001098212 0.1297988243 -0.0022599477
190298860.0 -0.7882999148 0.3097719673 -1.0067e-05 -1.60368e-05 0.0001432903 8.80399e-05 0.1300137755 -0.0050271495
195298830.0 -0.7853998457 0.3176398762 3.80212e-05 0.0001314947 1.43407e-05 0.0001799608 0.1299871562 -0.0077245881
200298800.0 -0.7813888304 0.325914442 0.0002930709 -5.103e-07 0.0001339852 2.92342e-05 0.1297078519 -0.0102732641
205298770.0 -0.7781846225 0.3340133462 6.924e-06 0.0003264438 5.8507e-06 -3.87676e-05 0.1294957748 -0.0134243717
210298740.0 -0.7753010542 0.3422397354 -3.9666e-05 0.0002472366 0.0001295392 0.0001361112 0.1294914552 -0.0156887891
215298710.0 -0.7713527556 0.3502766789 -6.5375e-06 5.9704e-06 -5.36134e-05 1.69301e-05 0.1291511903 -0.0182442826
220298680.0 -0.7671067852 0.3580960133 -2.55971e-05 6.90534e-05 0.0001468414 0.0002523689 0.1285797166 -0.0208273393
225298650.0 -0.7641934682 0.3659427609 9.45295e-05 0.000262722 -4.57933e-05 -1.74786e-05 0.1280593222 -0.0232081295
230298620.0 -0.7600701852 0.3744662522 7.82271e-05 0.0002140836 7.8509e-05 0.0002380977 0.1278450144 -0.025322826
235298590.0 -0.7563278534 0.3828946443 2.68956e-05 0.0001273987 0.0001683684 2.13946e-05 0.1273713811 -0.0274385931
240298560.0 -0.7526976626 0.3905990425 -6.12162e-05 0.0003348232 -4.70598e-05 0.0001185896 0.1269902907 -0.0294552963
245298530.0 -0.7483709646 0.3981160997 5.11959e-05 -3.98567e-05 1.04512e-05 -1.1768e-06 0.1263219018 -0.0321219594
250298500.0 -0.7444141652 0.4063761964 0.0002950121 0.0001312298 0.0001436427 5.82552e-05 0.1256453765 -0.0342387292
255298470.0 -0.7397072282 0.4132602395 1.35431e-05 1.95019e-05 0.0001541773 0.000212117 0.1249030251 -0.0363068043
260298440.0 -0.7355648386 0.420479856 4.52898e-05 -0.000107763 0.0004019759 8.81849e-05 0.1248033388 -0.0384212185
265298410.0 -0.7311828612 0.4296776588 0.000106726 -9.43821e-05 0.0001327025 0.0002692117 0.1239281315 -0.040056439
270298380.0 -0.7272838853 0.437207469 0.0001382943 -9.9964e-05 -0.0001225969 0.0001986614 0.1230169132 -0.0419301037
275298350.0 -0.7219136062 0.4447926212 8.96695e-05 0.0002209455 1.0023e-05 9.45224e-05 0.1222929806 -0.0439310202
280298320.0 -0.7168641803 0.4520785979 0.0002422357 4.93214e-05 0.0001476307 0.0001663315 0.121900607 -0.0460197506
285298290.0 -0.712806455 0.4595693646 0.0001968126 3.73497e-05 0.0001514582 9.37718e-05 0.1210496045 -0.0476459713
290298260.0 -0.7084461381 0.4670839476 0.0003040922 4.07397e-05 8.73514e-05 -9.45873e-05 0.1202545998 -0.0493201605
295298230.0 -0.702295857 0.473664654 0.0001486069 0.0002068637 0.0002911289 1.35855e-05 0.119777149 -0.0518223801
300298200.0 -0.6978160576 0.4814052276 0.0003355211 0.0001881823 0.0001617572 0.0002989192 0.1188386066 -0.0532972275
305298170.0 -0.6924756339 0.4881155886 0.0002339634 0.0002244657 7.55185e-05 0.0001984757 0.1182476121 -0.0553468968
310298140.0 -0.6879002084 0.4957280697 4.92404e-05 0.0002175012 0.000239545 0.0002861659 0.1168615091 -0.0573025912
315298110.0 -0.6830446058 0.5026115686 6.75905e-05 9.46136e-05 7.93201e-05 0.0001900292 0.1157335119 -0.0588942541
320298080.0 -0.6779911105 0.5097347692 9.31146e-05 -8.47358e-05 -7.74935e-05 0.0001933643 0.1151205372 -0.0607549332
325298050.0 -0.6718166261 0.5173661483 -8.9822e-06 0.0002910295 0.0001218292 0.0001908112 0.1135984276 -0.0624041812
330298020.0 -0.6664601907 0.5236701829 0.0001080893 1.92248e-05 -7.2094e-06 0.0001199518 0.1120745204 -0.0640120274
335297990.0 -0.6610551512 0.5305545697 0.0002203259 8.93315e-05 0.000264351 0.0001345154 0.1105176057 -0.0650591415
340297960.0 -0.6561035541 0.5373440806 0.0001306598 0.0001018814 0.0001587155 2.77399e-05 0.1103015597 -0.0667990029
345297930.0 -0.6502769875 0.543640055 6.48336e-05 0.0001245764 -8.42834e-05 8.06517e-05 0.1084098112 -0.06851866
350297900.0 -0.6448234782 0.5509409039 2.75045e-05 7.31092e-05 0.0002239246 0.0001167092 0.1075048573 -0.0689456539
355297870.0 -0.6382561952 0.5576495951 4.86569e-05 -2.98354e-05 0.000325625 9.65376e-05 0.1064086822 -0.0709750997
360297840.0 -0.6324416115 0.5636495317 0.0002137708 0.0002522154 -3.7235e-06 9.79508e-05 0.1051908705 -0.0724080674
365297810.0 -0.6272719386 0.5699690624 9.41923e-05 -7.84659e-05 0.0001899459 0.0002409183 0.1039037219 -0.0738600841
370297780.0 -0.6211036479 0.5769716945 2.59935e-05 0.0001144764 0.0002046894 0.0001644831 0.1030327943 -0.0748245913
375297750.0 -0.6149707045 0.5829896902 4.12919e-05 0.0001782787 -4.07648e-05 0.0001781958 0.1016407822 -0.0762151376
380297720.0 -0.6087099562 0.5888492849 0.0002289544 0.000269265 0.0002043391 0.0001996089 0.100152088 -0.0774498797
385297690.0 -0.6036786105 0.594688169 0.0001284515 7.73346e-05 0.0002869397 0.0001493945 0.0992593617 -0.0790623512
390297660.0 -0.5971615837 0.6007999678 0.0001179479 0.0003722078 0.0001030941 0.0001592629 0.0978829896 -0.0797954869
395297630.0 -0.5902802979 0.6077721693 0.0001465264 0.0001162676 7.43433e-05 0.0001102403 0.0970822525 -0.0809056562
400297600.0 -0.5843918568 0.6137190214 0.0002513376 0.0002169736 8.51117e-05 0.0001795819 0.0956238771 -0.0820346823
405297570.0 -0.5781320733 0.6191133 0.0001652168 0.0001364638 0.0004011212 -3.42204e-05 0.094585957 -0.0830880762
410297540.0 -0.5716269702 0.6247453982 0.0001880329 -0.0001059674 0.0003086787 6.23581e-05 0.0933483886 -0.0843522751
415297510.0 -0.5649599579 0.6307730418 0.0002528463 9.25433e-05 0.000106723 0.0002442263 0.0921484381 -0.0853722572
420297480.0 -0.5591167383 0.6365114565 0.0001934459 0.0001722383 0.0001084752 0.0001322321 0.0907661602 -0.0865400019
425297450.0 -0.5518959076 0.6422305143 -0.0001031947 -0.0001082536 0.0001939548 5.34907e-05 0.0896333314 -0.0877548224
430297420.0 -0.5455452877 0.6478546525 0.0001361077 0.0001742264 4.77286e-05 -7.73807e-05 0.0879654994 -0.0886666316
435297390.0 -0.5386986747 0.6525473661 0.0001083666 0.0002808218 0.0001353794 6.89091e-05 0.0869997721 -0.0894672508
440297360.0 -0.531906149 0.6582780015 4.2688e-06 -2.20736e-05 7.89001e-05 0.0001764117 0.0860534948 -0.0904325798
445297330.0 -0.5253048915 0.6641091033 0.0003585068 0.0003702445 0.0002200942 1.37781e-05 0.0846570769 -0.0917688491
450297300.0 -0.5185288864 0.6686105952 7.84757e-05 0.0002525618 0.0001410042 8.97635e-05 0.0829672974 -0.0922784642
455297270.0 -0.5120919814 0.6741573881 0.0001048806 0.0001780125 -6.21463e-05 6.90233e-05 0.0820189186 -0.0936607251
460297240.0 -0.5053086566 0.6795372809 0.0001688906 0.000146073 0.0001325643 0.0001466983 0.0804455575 -0.0942267647
465297210.0 -0.497945095 0.6846310344 0.0001079843 0.0001066276 0.0002589485 3.4596e-05 0.0793175318 -0.0949693968
470297180.0 -0.4906704827 0.6898799141 0.0004112405 7.20177e-05 2.44364e-05 4.46498e-05 0.0776786129 -0.0958248968
475297150.0 -0.4834237371 0.6941778777 -4.16237e-05 -0.0001473165 0.0002600313 9.59837e-05 0.0766692084 -0.0970115511
480297120.0 -0.4767635717 0.6992003259 0.0003005407 0.0002349326 0.0001530665 -0.0001046635 0.0754722301 -0.0972911956
485297090.0 -0.4696762997 0.7036076796 0.0002002746 0.0003783256 0.0002585658 6.36026e-05 0.0741135214 -0.0983653729
490297060.0 -0.4623384526 0.7087439795 0.0002976611 0.0001065869 0.0001528268 0.0002628266 0.0722737095 -0.099193921
495297030.0 -0.4548077602 0.7125382005 0.0004260962 3.62945e-05 0.0003559352 8.03037e-05 0.0712301894 -0.0998187895
500297000.0 -0.4477411362 0.7177914223 0.0003466486 4.66785e-05 -2.00406e-05 -8.74406e-05 0.0696041774 -0.1002452709
505296970.0 -0.4405632917 0.7219805727 0.0002759532 1.90592e-05 0.0003209788 -4.2799e-06 0.068255455 -0.100933813
510296940.0 -0.4333868462 0.7261316654 0.0002004928 7.3243e-06 0.0003049063 1.08008e-05 0.0665713872 -0.1021244446
515296910.0 -0.4247326025 0.7303685227 0.0001513333 0.0002464027 0.0001878461 8.672e-05 0.0653421362 -0.1025242552
520296880.0 -0.4185725977 0.7350989362 0.0002914481 0.0003490978 0.0001559828 -0.0001447075 0.0640126858 -0.1033836442
525296850.0 -0.4108330854 0.7384164219 0.0003119984 -2.20299e-05 0.0002081462 0.0001625011 0.0625816273 -0.1036164983
530296820.0 -0.4025363043 0.7433691173 0.0002987226 -0.0001062655 0.0001827605 0.00023672 0.0615155799 -0.1044091335
535296790.0 -0.3958982944 0.7466437427 5.98833e-05 0.0001544453 0.0001852178 0.0001566734 0.0593478537 -0.1052709533
540296760.0 -0.3887256659 0.7506822224 0.0003796563 2.03226e-05 0.0003046752 8.23006e-05 0.0581633672 -0.1056892932
545296730.0 -0.3811222385 0.7549916829 0.000292438 0.0002216793 0.0002398523 0.0001089068 0.0567882401 -0.10650992
550296700.0 -0.3734001733 0.758616839 0.0003189928 0.0001151667 0.0002704203 -7.54187e-05 0.0553734667 -0.1068365265
555296670.0 -0.3652001736 0.7608491769 -3.82211e-05 -8.94352e-05 0.0001799059 0.000139337 0.0541479266 -0.1071310844
560296640.0 -0.3574165847 0.7663048378 8.89645e-05 7.02955e-05 0.0003290882 7.47811e-05 0.0525957656 -0.1077305164
565296610.0 -0.3496771033 0.7691358508 0.0001083573 -2.22141e-05 0.0002518277 3.29114e-05 0.0513683389 -0.1085288482
570296580.0 -0.3427890966 0.771879446 0.000234416 3.67259e-05 0.0001984472 -5.40701e-05 0.0497336952 -0.1085129731
575296550.0 -0.3346708523 0.7760803388 0.0002248163 -0.0001347429 0.0003228958 -0.00014656 0.0481324862 -0.1087738885
580296520.0 -0.3265696944 0.7792000806 0.0002707828 -0.0001594733 0.0004554485 -0.0001464383 0.0469016368 -0.1096854706
585296490.0 -0.3188510834 0.7822478063 0.0004852904 4.43679e-05 0.0004354224 0.0001274949 0.0457493839 -0.1099428341
590296460.0 -0.3109658391 0.7856611564 0.0001725385 3.27749e-05 0.0002126066 0.0001318721 0.0438966696 -0.1102722999
595296430.0 -0.303523 0.7879291516 0.0001905694 7.52537e-05 0.0004390716 -9.98663e-05 0.0425507824 -0.1108401778
600296400.0 -0.2953242069 0.7917010429 0.0003767549 9.44498e-05 0.0003065264 -3.35447e-05 0.0412950928 -0.1110290399
605296370.0 -0.2878469357 0.7943312793 7.6312e-05 9.06725e-05 0.0002820208 0.0001706888 0.0397851889 -0.1113051388
610296340.0 -0.2797211016 0.797174537 0.0003662621 0.0002100509 0.0002761446 0.0002323208 0.0384769413 -0.1111939617
615296310.0 -0.2708796675 0.7997764097 0.0002951725 0.0001501384 0.0002537181 3.99962e-05 0.036988309 -0.1118097917
620296280.0 -0.2635228205 0.8020134129 0.0004150622 -4.4743e-05 0.0005407245 -0.0001871316 0.0355547172 -0.1118027663
625296250.0 -0.2554300649 0.8054552104 0.0003849249 -9.15578e-05 0.0003916754 6.76567e-05 0.034340213 -0.1123489156
630296220.0 -0.2465923116 0.8078248255 6.11811e-05 3.21193e-05 0.0005018287 5.37703e-05 0.0324977855 -0.112183877
635296190.0 -0.2390238866 0.8101084691 0.0002465987 9.3417e-05 0.000281567 -6.56312e-05 0.0311794212 -0.1125861432
640296160.0 -0.2313467807 0.8120007984 0.0001877054 0.0002549405 0.000226523 -4.50781e-05 0.0295880394 -0.1127583101
645296130.0 -0.2228584684 0.8152408894 0.0004629001 0.0001494156 0.0002295471 -6.8034e-06 0.0283749176 -0.1127935136
650296100.0 -0.2147018012 0.8167078925 0.0001981962 -1.22879e-05 0.0004116966 -9.24323e-05 0.0267890625 -0.1131612948
655296070.0 -0.2061217632 0.8191148041 0.0005382066 -0.0001525438 0.0004502893 6.9209e-06 0.0254970198 -0.1126194175
660296040.0 -0.1981593491 0.8205332214 0.0002347456 -9.8391e-06 0.0002691961 -1.66838e-05 0.0242842524 -0.1129148663
665296010.0 -0.1897888997 0.8226111431 0.0002484521 0.0001356148 2.83901e-05 0.0002050976 0.0222110544 -0.1129730399
670295980.0 -0.1820946322 0.824288262 9.58874e-05 -0.0001194036 0.0003617336 2.06922e-05 0.0211108468 -0.1132162869
675295950.0 -0.1734928022 0.82578981 0.0002471456 0.0001270565 0.0003478196 0.0001422295 0.0192323197 -0.1132076451
680295920.0 -0.1653857855 0.8278741509 0.0004738879 5.9228e-05 0.0002448147 1.4122e-05 0.017960033 -0.1131590028
685295890.0 -0.1565607149 0.8301685595 0.0003144847 -0.0001943315 0.0002283208 0.000149615 0.0164436831 -0.113166056
690295860.0 -0.14944626 0.831015916 0.000373131 -5.28943e-05 0.0002135162 8.11559e-05 0.0154043852 -0.1130760577
695295830.0 -0.1410620733 0.8319909964 0.00017691 -0.0002098429 0.00033109 5.98669e-05 0.0135443965 -0.113048959
700295800.0 -0.1318723722 0.8337835188 0.0003075759 -8.1461e-06 0.0004405315 -0.0002330861 0.0121442579 -0.1130294439
705295770.0 -0.1247602491 0.8356118455 0.0005676909 4.70807e-05 9.45985e-05 -6.74575e-05 0.0106973488 -0.1124184252
710295740.0 -0.116270191 0.8360962125 0.0003618339 4.6722e-05 0.000525687 -0.0002930885 0.0088316562 -0.1127693591
715295710.0 -0.107799464 0.8373670923 0.0003178134 0.000227113 0.0002874913 1.62589e-05 0.0076950723 -0.1127260517
720295680.0 -0.0992643101 0.8385968433 0.0004015501 0.0001295669 0.0004264157 -9.99107e-05 0.0064933013 -0.1127297364
725295650.0 -0.0909955236 0.8391943841 0.0003929865 1.14115e-05 0.0004526238 -7.31533e-05 0.0048573871 -0.1118071226
730295620.0 -0.0824218078 0.8399838789 0.0004429755 1.1343e-05 0.0003844217 -5.22655e-05 0.0031730331 -0.1120886389
735295590.0 -0.0747491785 0.841399664 0.0002387251 -0.0001996063 0.0002748066 -7.61398e-05 0.0015636823 -0.1123394415
740295560.0 -0.0663241772 0.841738815 0.0005298485 7.25636e-05 0.0003066327 -5.00432e-05 0.0006264611 -0.1119926534
745295530.0 -0.0581619664 0.8421623842 0.0001880253 -2.32052e-05 0.0003043011 -0.0001041281 -0.0004907218 -0.1117089439
750295500.0 -0.0489809707 0.8427488811 0.0003082281 -2.75529e-05 0.0003776894 -4.60014e-05 -0.0018633845 -0.1115473803
755295470.0 -0.0413211256 0.8428803027 0.0004218594 -3.89011e-05 0.0006436074 1.46657e-05 -0.0032295355 -0.1114894816
760295440.0 -0.0332377015 0.8430277074 0.0005041684 9.144e-07 0.0006014491 -0.0001159115 -0.0049302848 -0.1110715696
765295410.0 -0.0248588528 0.8438226168 0.000427355 -2.46543e-05 0.0004603652 -0.0003024898 -0.0061160506 -0.1104956681
770295380.0 -0.0169995015 0.8443075275 0.0001865926 -5.12018e-05 0.0005371374 -0.0001836095 -0.0078231413 -0.1106338698
775295350.0 -0.0082329583 0.8443328961 0.0003645626 -0.0001424808 0.0003862908 4.15131e-05 -0.0093500663 -0.1101002439
780295320.0 0.000335838 0.8440489281 0.0003261156 2.051e-07 0.0002917964 -0.0001141046 -0.0102390446 -0.1098679353
785295290.0 0.0083319331 0.8438234786 0.0003922506 -0.0001836411 0.000322788 6.93055e-05 -0.0114300695 -0.1095781754
790295260.0 0.0176119672 0.8438415451 0.0002949186 -0.0001726269 0.000380484 -0.0002591175 -0.0127778221 -0.1088925164
795295230.0 0.0253515431 0.8435048638 0.0004358202 -0.0003839091 0.0005955718 -2.48858e-05 -0.0142234263 -0.1084986964
800295200.0 0.0336210138 0.8428957637 0.0005779289 -0.0001405542 0.0002691729 -1.67989e-05 -0.0156855533 -0.1075708021
805295170.0 0.0425415075 0.8431119648 0.0003768164 -0.0001990101 0.0003915305 6.4654e-06 -0.0172558362 -0.1075272294
810295140.0 0.050418591 0.8427862706 0.0001362581 -0.0002732899 0.0002236466 -0.0001319309 -0.0178912849 -0.107065178
815295110.0 0.0585303791 0.8418465567 0.00062601 -9.1578e-05 0.0003786864 -0.0001047235 -0.0196683001 -0.1064738329
820295080.0 0.0670436016 0.8414219533 0.0001217868 -0.0002057643 0.0007069042 -0.0002895456 -0.0211526569 -0.1059709441
825295050.0 0.0765146266 0.8403936502 0.0002607984 -8.00353e-05 0.0002944079 -0.0002718395 -0.0223619198 -0.1056828183
830295020.0 0.0838853212 0.8401026628 0.0003771704 -0.0001085462 0.000472232 -0.0001394849 -0.0232601217 -0.1049510674
835294990.0 0.0916779096 0.8392101308 0.000319595 -0.0001443326 0.0002455707 1.36171e-05 -0.0248848207 -0.1042455936
840294960.0 0.0999903982 0.8386620072 0.0003644988 -0.0001829374 0.000328113 -8.69585e-05 -0.026349878 -0.1038638261
845294930.0 0.1079506869 0.8368127243 0.0004732321 -0.0001372479 0.0004214336 -8.84412e-05 -0.0277729734 -0.1033335598
850294900.0 0.1169970963 0.8362335233 0.0004259823 -0.000309614 0.0004690606 -9.30271e-05 -0.029190552 -0.1025108257
