!Created with skrf (http://scikit-rf.org).
# Hz S RI R 50.0 
!freq ReS11 ImS11 ReS21 ImS21 ReS12 ImS12 ReS22 ImS22
300000.0 -0.7698462542 -0.1621007406 -0.0008722459 -0.000256779 0.0014623586 0.0010005597 -0.044524611 -0.0753382321
5299970.0 -0.7859025867 -0.0091628323 -1.52626e-05 -8.11075e-05 8.71646e-05 3.6055e-05 -0.0481311933 0.0141388918
10299940.0 -0.7893290714 -0.0056209286 -2.46095e-05 3.39513e-05 -9.85797e-05 -0.0001475998 -0.0417272269 0.0316578487
15299910.0 -0.7940737101 -0.0032112286 8.69207e-05 1.75307e-05 9.61862e-05 -5.04811e-05 -0.0340679792 0.0456845311
20299880.0 -0.8009336101 0.000629822 -3.0007e-06 1.62928e-05 -0.0001150766 0.0001737623 -0.0242709744 0.0570715404
25299850.0 -0.8075821681 0.0069775255 4.7199e-06 -0.0001394282 8.3707e-05 -0.0001103225 -0.0136178198 0.0661007409
30299820.0 -0.8139491507 0.0141165651 -0.0001289775 -0.0002092354 2.10517e-05 0.0001173578 -0.0020824849 0.0728314961
35299790.0 -0.8188793206 0.0233832278 -0.0001543997 0.0001447544 0.000147626 3.48063e-05 0.0089201409 0.0774739854
40299760.0 -0.8237557421 0.0318620509 7.78454e-05 -7.06738e-05 1.78413e-05 0.0001107299 0.0200406369 0.0803315048
45299730.0 -0.826626128 0.0417040075 0.0001819689 -1.318e-07 0.0001136607 0.0001092959 0.030325138 0.0813123981
50299700.0 -0.8293475293 0.0517542781 -0.0001093812 8.39803e-05 9.51388e-05 -0.0001101348 0.0401537666 0.081391954
55299670.0 -0.8313591643 0.0613155069 -0.0001415736 -0.0001959566 2.36037e-05 4.67365e-05 0.0491726159 0.0804608038
60299640.0 -0.8325403568 0.072053165 0.0001084058 0.0001568608 -6.26422e-05 -7.4594e-06 0.0579539805 0.0783921051
65299610.0 -0.8333269654 0.0819803087 4.6207e-05 -0.0001118497 -5.55858e-05 0.0001337143 0.0652744527 0.075936782
70299580.0 -0.8337585269 0.0913524691 -0.0001072853 0.0003512735 -1.01576e-05 7.02647e-05 0.0719475238 0.0729382503
75299550.0 -0.8337092041 0.1019216879 -2.05974e-05 0.0001260419 5.49008e-05 5.27925e-05 0.078368467 0.0698783876
80299520.0 -0.8338872512 0.1121492603 0.0002282814 -3.71775e-05 9.13033e-05 0.0001409301 0.0837757872 0.0663371111
85299490.0 -0.8324797291 0.121114861 -0.0002801809 -0.0002013896 -0.000113616 -7.21989e-05 0.0888670583 0.0626217601
90299460.0 -0.8318433715 0.1312847967 0.0001005636 -7.52221e-05 1.81119e-05 3.05632e-05 0.0932649926 0.0588140541
95299430.0 -0.8316855626 0.1404896088 -0.0001353838 3.25448e-05 2.76571e-05 -3.75888e-05 0.0974364849 0.0549138336
100299400.0 -0.8302749693 0.1495721488 -0.0001552409 0.0001014289 -0.0001465632 -0.0001208277 0.1010356675 0.0510675298
105299370.0 -0.828724855 0.1594568221 5.37457e-05 0.0001473855 2.42653e-05 -6.23677e-05 0.1041595941 0.0466975529
110299340.0 -0.8278757404 0.1688281571 -0.0001289783 8.71861e-05 0.0001079751 3.7567e-06 0.1067803651 0.0426378849
115299310.0 -0.8261933007 0.1775037031 4.32884e-05 6.6046e-05 2.1176e-06 0.0001954369 0.1091176945 0.0391394644
120299280.0 -0.8246006071 0.186757219 -2.17961e-05 -0.0001066551 7.21594e-05 1.92047e-05 0.1114494453 0.0349109412
125299250.0 -0.8222955373 0.1953605026 -7.60574e-05 5.51498e-05 3.35696e-05 -9.3506e-05 0.1131676789 0.0311779812
130299220.0 -0.8205393373 0.2050255022 -2.58232e-05 6.58229e-05 -0.0001094331 -5.05e-06 0.1147818145 0.027402451
135299190.0 -0.8188303474 0.2144143724 6.88928e-05 0.0002031487 -8.19746e-05 0.0001242136 0.1163912826 0.0238983734
140299160.0 -0.8170468502 0.2232375624 -0.0001201112 -3.6471e-05 -9.90078e-05 -0.0001054274 0.1172846702 0.0201943631
145299130.0 -0.8146698508 0.2321590574 4.80397e-05 -7.58131e-05 -0.0001752487 0.0001271654 0.1184256682 0.016417637
150299100.0 -0.8115173438 0.2414682843 9.20251e-05 -0.000171517 0.0001188432 2.67553e-05 0.1190918631 0.013191743
155299070.0 -0.8096501673 0.2501824264 -9.49098e-05 0.000129531 -2.05491e-05 1.133e-06 0.1197606536 0.0100587638
160299040.0 -0.8080464203 0.2589087834 0.0002358965 0.0003305419 0.0001178528 -0.000107324 0.1202925313 0.0065347608
165299010.0 -0.8045547908 0.2676025856 0.0001154528 6.45685e-05 -0.0001078717 -2.0387e-05 0.1208229314 0.0033564127
170298980.0 -0.8019054609 0.2765507323 -6.77277e-05 -1.15722e-05 9.05905e-05 3.90767e-05 0.120947704 0.0002174072
175298950.0 -0.7992943292 0.2842094117 0.0002242933 8.46669e-05 0.000192497 -3.48413e-05 0.1211890178 -0.0024887132
180298920.0 -0.7960427412 0.2934976439 0.0002160576 0.0002739027 0.000197464 1.74556e-05 0.1215697318 -0.0059153783
185298890.0 -0.7929785197 0.3021984589 -0.0001398832 0.0001053401 8.43082e-05 3.39733e-05 0.121407237 -0.0088491616
190298860.0 -0.7893274751 0.3110468429 -0.0001084697 7.97965e-05 9.44834e-05 -5.94877e-05 0.121159605 -0.0117489953
195298830.0 -0.7862752033 0.3191464123 5.59575e-05 -6.71145e-05 0.0001460282 -0.0001637947 0.1211208038 -0.0145604333
200298800.0 -0.7824079244 0.3279881055 -9.60164e-05 -0.0001040941 6.97517e-05 -7.07563e-05 0.1208324697 -0.017505438
205298770.0 -0.7792460411 0.3364801626 -8.8606e-06 1.54116e-05 9.14333e-05 0.0001804103 0.1204681463 -0.0198561186
210298740.0 -0.7760145081 0.344564594 0.0003595239 0.0001466418 3.89533e-05 -3.66235e-05 0.1200861276 -0.022577144
215298710.0 -0.7721953119 0.353394956 -6.78223e-05 -0.0001235958 -3.1085e-06 -0.000283289 0.1196628911 -0.0253379775
220298680.0 -0.7684994651 0.3608432432 0.000159893 6.74676e-05 0.0001147222 7.66319e-05 0.1192345755 -0.0277239844
225298650.0 -0.7649134318 0.3696901164 8.19917e-05 0.0001220374 7.91771e-05 1.49388e-05 0.1186641706 -0.0302296297
230298620.0 -0.7608620032 0.377826324 5.4125e-05 9.64458e-05 4.70079e-05 2.72488e-05 0.1179335622 -0.0327070682
235298590.0 -0.7572532133 0.3863511963 4.23548e-05 -0.0002333442 9.38804e-05 -2.14438e-05 0.1173525037 -0.0343561638
240298560.0 -0.7527476118 0.393829228 0.0001922637 0.0001068638 0.0002268142 2.28247e-05 0.116752288 -0.0371082024
245298530.0 -0.7484718562 0.4015977283 1.7032e-05 -8.07797e-05 2.04996e-05 0.000221956 0.1159805557 -0.0393508706
250298500.0 -0.7444830171 0.4091879769 -6.1105e-05 -4.15318e-05 -1.56068e-05 0.000111527 0.1150520142 -0.0412711884
255298470.0 -0.7402918323 0.4177464289 -7.69073e-05 0.0001070235 9.55464e-05 -8.60604e-05 0.1143184349 -0.0438335509
260298440.0 -0.7359150284 0.4250976056 -2.81525e-05 0.0002627206 2.99371e-05 5.354e-06 0.1131524409 -0.0457671933
265298410.0 -0.7319286378 0.4327326862 -0.0001287374 -0.000106086 0.0001233326 1.01331e-05 0.1129761501 -0.0479608479
270298380.0 -0.7275815386 0.4403041662 4.868e-07 -6.205e-06 -5.66659e-05 0.0001329366 0.1117152933 -0.0501569259
275298350.0 -0.723192398 0.4480731201 2.32826e-05 3.85301e-05 3.58251e-05 5.4433e-05 0.1109956451 -0.052029325
280298320.0 -0.7181034822 0.4553639743 0.0001564327 -4.8005e-05 0.0001107699 -7.1306e-06 0.1095980931 -0.0536825759
285298290.0 -0.7133531967 0.4630572035 0.0002278479 -3.49204e-05 -4.10317e-05 -9.49423e-05 0.108943281 -0.0553874014
290298260.0 -0.7083574653 0.471280907 0.0001977325 3.33322e-05 5.2724e-06 4.16366e-05 0.1080737722 -0.0574133936
295298230.0 -0.7038742354 0.4783921049 3.37488e-05 -9.56452e-05 -1.4391e-05 6.07605e-05 0.1067741561 -0.0595765128
300298200.0 -0.69926869 0.4855446234 0.0002148828 -6.5475e-05 0.0002265658 1.56446e-05 0.1060207769 -0.0611655138
305298170.0 -0.6941108698 0.492601765 6.9195e-06 -5.6652e-06 -0.000131145 0.0002131499 0.1049607009 -0.0630451102
310298140.0 -0.6886172095 0.4997819738 4.79971e-05 0.0001568726 0.0001467958 -0.0002758105 0.1040791889 -0.064771696
315298110.0 -0.6843188965 0.507251387 -0.0001338873 5.08059e-05 -4.00859e-05 2.83572e-05 0.1029241516 -0.0667328708
320298080.0 -0.6790232627 0.5142449015 -7.36149e-05 0.0002529952 0.0001954987 -6.1867e-06 0.1015685719 -0.0688012222
325298050.0 -0.6733782226 0.5211607797 2.3241e-06 0.0001728247 0.0001478476 4.6771e-05 0.1005126496 -0.0706688842
330298020.0 -0.6682474894 0.5280842411 -3.194e-05 0.0001869108 4.93018e-05 -7.45567e-05 0.0989468784 -0.072455208
335297990.0 -0.6626168768 0.534527007 8.25601e-05 0.0003115817 6.97915e-05 3.75524e-05 0.0977105514 -0.0739205797
340297960.0 -0.6579235471 0.5417531862 5.94279e-05 -9.80006e-05 9.07397e-05 0.0001658177 0.0962511763 -0.0754166974
345297930.0 -0.6519207409 0.547963556 -1.35173e-05 -2.9306e-05 -2.55628e-05 -6.57956e-05 0.0946720391 -0.0768358297
350297900.0 -0.6459399298 0.5552342518 0.0001557411 9.98878e-05 1.69496e-05 -6.64774e-05 0.0930170863 -0.0782957099
355297870.0 -0.6409694154 0.5609080397 3.96167e-05 4.17534e-05 0.0002229282 -1.74902e-05 0.0917240437 -0.0798004121
360297840.0 -0.6344191762 0.5682095427 -9.07102e-05 -7.0512e-05 0.0001335681 0.0001393227 0.0903233527 -0.0811406441
365297810.0 -0.6291620552 0.5745873135 0.0002260033 0.000113574 8.35853e-05 0.0001161185 0.0889958871 -0.0821348545
370297780.0 -0.6237171865 0.5807856179 -3.99232e-05 -0.0001337709 6.53703e-05 -5.5167e-06 0.0873081202 -0.0834384252
375297750.0 -0.6176551951 0.5871077852 0.0002909114 5.75692e-05 -0.0001113447 -0.0001263267 0.0863104232 -0.0851336258
380297720.0 -0.6115208514 0.5936299271 -8.17084e-05 0.0001085223 0.0002717313 0.000250641 0.084750171 -0.0861336568
385297690.0 -0.6060281992 0.5993884882 9.32591e-05 0.0002633397 -9.4001e-06 0.0001157727 0.0834069508 -0.0872284749
390297660.0 -0.5985815579 0.6052825706 0.0001121175 0.0001065571 -3.5004e-06 -0.0002149978 0.0817737627 -0.0881950142
395297630.0 -0.5929420877 0.6122753482 0.0001251862 -3.36894e-05 0.0001826409 4.38453e-05 0.0802230056 -0.0898664169
400297600.0 -0.586136353 0.6180366197 0.0001821877 9.62191e-05 -2.8451e-05 2.65705e-05 0.0791101468 -0.0906164616
405297570.0 -0.5802881956 0.623101126 8.77048e-05 -5.62537e-05 0.0001854197 -8.06945e-05 0.0774711493 -0.0920022733
410297540.0 -0.5739491748 0.6297721506 -9.14403e-05 -2.9394e-06 0.0002203778 8.7697e-05 0.0759878873 -0.0926618686
415297510.0 -0.5677379343 0.6354124931 2.66942e-05 0.0002198939 8.25244e-05 0.000169164 0.0744030706 -0.0939273823
420297480.0 -0.5608593986 0.6413260624 -0.0001233876 2.01683e-05 3.0542e-05 7.40503e-05 0.0732711971 -0.0947072233
425297450.0 -0.5544792542 0.646865383 0.0001569518 -0.0003039809 0.0003412648 -3.05145e-05 0.0715107667 -0.0962407603
430297420.0 -0.5478845283 0.6519140107 -4.351e-05 0.0001184738 0.0001064708 8.92429e-05 0.0701041006 -0.0971854038
435297390.0 -0.5411076177 0.6577810463 -4.76689e-05 0.0002698816 -4.12216e-05 -3.88694e-05 0.0683708947 -0.0977060345
440297360.0 -0.5335817407 0.6629928458 0.0001098186 9.72872e-05 0.0001896706 -7.48204e-05 0.0671861676 -0.0986493535
445297330.0 -0.5267271054 0.6681384038 8.2808e-06 -0.0001843042 2.3808e-05 7.7846e-06 0.0656287829 -0.0996073375
450297300.0 -0.5198201232 0.6740803269 0.000318484 7.22259e-05 0.0001489967 3.81921e-05 0.0641909543 -0.1003215548
455297270.0 -0.5133858276 0.6788373399 -0.0001961934 -1.61211e-05 -3.4539e-06 8.4614e-06 0.0625190646 -0.1012110831
460297240.0 -0.5053279858 0.6843683378 0.0002299562 8.64401e-05 0.0001684716 -2.1011e-05 0.0609109648 -0.1024039133
465297210.0 -0.4996123804 0.6893235912 -0.0001178367 4.47933e-05 0.0001484681 -7.91969e-05 0.0592898433 -0.1027561858
470297180.0 -0.4919500463 0.6941049269 0.000189716 7.94355e-05 2.2429e-05 3.3811e-06 0.057619038 -0.103956875
475297150.0 -0.4849539765 0.6990222456 0.0002163973 -9.88302e-05 -3.96192e-05 4.49586e-05 0.0562141301 -0.1043467093
480297120.0 -0.4764613697 0.7041830172 -5.82406e-05 3.8607e-06 0.0001022049 -8.79597e-05 0.0545436381 -0.104997031
485297090.0 -0.4697262925 0.7089918972 9.41149e-05 0.0001977629 7.79864e-05 -2.96734e-05 0.0528203215 -0.1058266043
490297060.0 -0.4623087166 0.7137314653 0.0001400119 2.05892e-05 3.52078e-05 2.41112e-05 0.0512139893 -0.1065925229
495297030.0 -0.4545400434 0.7180717045 6.02432e-05 2.50275e-05 -5.83085e-05 -8.8258e-06 0.0499356508 -0.1072370649
500297000.0 -0.4473695294 0.7223773788 4.48802e-05 -6.392e-06 0.0001826885 -1.13769e-05 0.0481719028 -0.1076606259
505296970.0 -0.4392818775 0.7271402538 -7.13172e-05 -0.0002148114 -0.0001218619 4.77609e-05 0.0461212294 -0.1084116672
510296940.0 -0.4318595422 0.7315172984 9.29753e-05 -3.6724e-06 0.0001800107 0.000162305 0.0449382875 -0.1087935093
515296910.0 -0.4242214609 0.7356952963 -4.11e-07 -4.6338e-06 -4.70305e-05 0.0001563165 0.0431022812 -0.1094371666
520296880.0 -0.4158952543 0.7397878911 0.0002491727 0.0001577763 0.000136221 -5.35906e-05 0.041881149 -0.1098384182
525296850.0 -0.4081364988 0.7438120758 5.53404e-05 -9.18507e-05 -2.339e-06 0.0001884235 0.0399394666 -0.1106258288
530296820.0 -0.4013701655 0.7481461002 0.000362066 8.47934e-05 -0.0001275022 -4.33683e-05 0.0382995174 -0.1109664631
535296790.0 -0.3922188094 0.7515655589 0.0001549278 0.000191828 -1.63345e-05 2.94869e-05 0.0369435727 -0.1115471056
540296760.0 -0.3846149929 0.755975302 2.80179e-05 0.0001240702 8.49626e-05 -1.78973e-05 0.0351761627 -0.111932631
545296730.0 -0.3772508814 0.7599482481 0.0002194506 2.70669e-05 0.0001237467 -0.0001074486 0.0335675135 -0.1123038209
550296700.0 -0.3690535068 0.7636490036 0.0002402653 0.0001738526 0.0001619594 4.59464e-05 0.0317384958 -0.1126452273
555296670.0 -0.3608610588 0.7676918882 0.0002336137 -1.00365e-05 0.0001361943 2.85056e-05 0.0300888806 -0.1131659994
560296640.0 -0.3533685292 0.7710257554 0.0002771751 0.0001717256 0.0002709605 -0.0001209471 0.0283800913 -0.1133115993
565296610.0 -0.3453517618 0.7741747233 0.0002721752 -0.0002088439 0.0001813035 0.0001533784 0.0269439335 -0.1133311713
570296580.0 -0.3366201052 0.7781692843 0.0002969546 3.0235e-06 8.44192e-05 -6.5977e-05 0.0248052974 -0.114183515
575296550.0 -0.3278522246 0.7816434874 0.0001165507 1.01731e-05 0.0001060304 -5.32584e-05 0.0233653707 -0.114238556
580296520.0 -0.3206554686 0.784626833 0.0001962899 3.1942e-06 -4.3461e-06 -0.0001664112 0.0215550484 -0.1146077599
585296490.0 -0.3124339894 0.7879596135 0.0001378514 0.0002341945 0.0002659121 -0.0001490661 0.0202952845 -0.114418985
590296460.0 -0.303467601 0.7910150647 6.97937e-05 -2.55548e-05 0.0002267638 -2.43952e-05 0.018178918 -0.1148013724
595296430.0 -0.2961269393 0.7942227743 0.0002243142 -2.30274e-05 9.91962e-05 -7.01481e-05 0.0167276711 -0.1148978912
600296400.0 -0.2880922566 0.7969784122 -6.9982e-06 0.0001548657 0.000118121 -2.09702e-05 0.0152818337 -0.1152319075
605296370.0 -0.2799297795 0.7994008669 0.0003214292 -0.0002491267 0.0002205909 1.56601e-05 0.0134337333 -0.1153567953
610296340.0 -0.2711422424 0.8029804887 -0.0002280206 -9.23899e-05 0.0001354933 -6.7255e-05 0.0117538581 -0.1151955988
615296310.0 -0.262073072 0.8055223449 1.5557e-05 4.54884e-05 -2.92272e-05 -1.34202e-05 0.0099011297 -0.1153857972
620296280.0 -0.2549300875 0.8081554647 0.0002999828 0.0002127859 0.0001565102 -7.13852e-05 0.0082099287 -0.1150721847
625296250.0 -0.2472282181 0.8101028743 0.0001092263 0.000150602 0.0002427602 0.000188029 0.0064034546 -0.1156013756
630296220.0 -0.2386942125 0.8130451825 -0.0001215159 -2.33318e-05 0.0001076774 -0.0001958044 0.005150664 -0.1153357948
635296190.0 -0.2296144723 0.8153462958 -1.77681e-05 0.0003164424 0.0001647172 -2.5771e-06 0.0030588408 -0.1152123522
640296160.0 -0.2211352645 0.8180259023 0.0001371833 -3.21838e-05 5.56633e-05 0.0001108393 0.0014161374 -0.1154103694
645296130.0 -0.2131494679 0.8205896283 5.91016e-05 0.0002257869 0.0001198701 0.0001782371 -0.0004807117 -0.1150007838
650296100.0 -0.2048611824 0.822426966 0.0004863807 0.000121959 2.97623e-05 -6.62759e-05 -0.0016749729 -0.1150980544
655296070.0 -0.1967416285 0.8245181123 0.0002150589 -0.0001484335 0.0001123515 6.37797e-05 -0.0037687242 -0.1147766698
660296040.0 -0.1892331372 0.8260786546 0.000367113 0.0001804007 5.61462e-05 8.82512e-05 -0.0052652528 -0.1149326718
665296010.0 -0.180535167 0.8286019503 0.0002099742 0.0001927498 5.68894e-05 7.82947e-05 -0.0067089362 -0.1148241239
670295980.0 -0.1723132218 0.8306134062 0.0002781405 3.45452e-05 3.4014e-05 0.0001062674 -0.0085471065 -0.1144458454
675295950.0 -0.1636732045 0.8315995333 0.0002635586 -7.76844e-05 0.0002453299 3.1034e-05 -0.0100119594 -0.1140407669
680295920.0 -0.156514842 0.834041021 4.84046e-05 3.58244e-05 0.0003369183 -1.635e-06 -0.0120380484 -0.114313458
685295890.0 -0.1471876063 0.8354900756 -0.0001664345 -0.0002280473 0.0001073079 8.99214e-05 -0.0137225548 -0.1135971678
690295860.0 -0.1392177861 0.8371609267 0.0002691204 -1.87727e-05 0.0001449942 5.35848e-05 -0.0152643741 -0.1135022885
695295830.0 -0.1307641564 0.8382789245 9.24984e-05 -0.0001596051 -6.17545e-05 -5.04613e-05 -0.016975013 -0.1129487273
700295800.0 -0.1217330872 0.8400114684 4.45593e-05 9.03009e-05 0.000202761 3.9956e-05 -0.0182476207 -0.1129542528
705295770.0 -0.1143174318 0.8412560128 -0.0001643909 2.26766e-05 0.0001196365 6.81882e-05 -0.0202947702 -0.112165657
710295740.0 -0.1066963516 0.8423766137 0.000288328 4.71107e-05 0.0001928961 -3.1958e-06 -0.0215817829 -0.1118983814
715295710.0 -0.0978571216 0.8436426872 9.99379e-05 -0.0003069741 0.0001988154 -4.32687e-05 -0.0230978067 -0.1118385905
720295680.0 -0.0882554218 0.8448000083 0.0003394848 -9.06746e-05 7.73183e-05 0.0001411996 -0.0248902581 -0.1111646388
725295650.0 -0.0812663945 0.8458690816 0.0002853421 -0.0001034142 0.0001525849 -0.0001484368 -0.0263769234 -0.1106208448
730295620.0 -0.0734273078 0.8462838354 0.0001787888 7.00419e-05 0.0001191347 -0.0001256732 -0.0283425028 -0.110074503
735295590.0 -0.0648980306 0.8475353721 -0.0001627503 -1.92888e-05 0.0002054337 -0.0001815419 -0.0298880359 -0.1097569165
740295560.0 -0.0570448453 0.8479555267 0.0001965829 -9.66777e-05 9.80345e-05 -8.07326e-05 -0.0313865754 -0.1091379595
745295530.0 -0.0482615201 0.848790783 0.0002622459 -3.69215e-05 0.0001853578 8.3924e-06 -0.0331815321 -0.1087516456
750295500.0 -0.0405937082 0.8489447887 0.0004574634 0.0002672839 0.0003217502 6.1509e-05 -0.0343250685 -0.1080183844
755295470.0 -0.031911885 0.850101043 0.0001964802 0.0001592877 0.000109422 -0.0001159113 -0.0361697952 -0.1072594846
760295440.0 -0.0236600367 0.8503139955 0.000153558 5.57595e-05 0.0001783613 -5.64769e-05 -0.0373964674 -0.1070640482
765295410.0 -0.0157839448 0.8506356974 2.6542e-05 0.0001051935 0.0003000019 -0.0002431313 -0.038942464 -0.1063095919
770295380.0 -0.0077890085 0.8510517062 5.73581e-05 -5.83259e-05 0.0002756586 8.69715e-05 -0.0408976398 -0.1058387463
775295350.0 0.0005348914 0.8509040067 0.0001871715 -0.0001970992 0.0002186068 7.6131e-06 -0.0418865988 -0.1049126992
780295320.0 0.0092320597 0.8512603583 0.0001278315 4.78611e-05 0.00024883 0.0001018416 -0.0435511018 -0.1045332717
785295290.0 0.0168412564 0.8512776715 0.0001213 0.0001714098 7.39e-05 -2.9502e-05 -0.0452737189 -0.1035977893
790295260.0 0.0250948832 0.8508683473 0.0001193866 -5.32321e-05 7.29687e-05 0.0001777881 -0.0468513176 -0.1027547976
795295230.0 0.0333317401 0.850560721 5.21331e-05 -3.53424e-05 -1.13919e-05 -5.03015e-05 -0.0486790159 -0.1025693109
800295200.0 0.0416122724 0.8508491283 8.8663e-05 2.40558e-05 0.0001724195 -0.0003113106 -0.050014255 -0.101424798
805295170.0 0.0495258453 0.8503816994 0.000143612 -1.9975e-05 6.43153e-05 -7.59138e-05 -0.0511763042 -0.1010157234
810295140.0 0.0580435237 0.8505925885 0.0004202303 -4.38364e-05 0.0001933781 6.606e-07 -0.0529305159 -0.0997936367
815295110.0 0.0652832325 0.8493285754 0.0003112889 6.63676e-05 0.0001710525 -9.96697e-05 -0.054657474 -0.0991464278
820295080.0 0.0738678647 0.8490994904 -7.22645e-05 9.37418e-05 0.0001660411 0.0001450918 -0.0558736648 -0.0979587163
825295050.0 0.0822035423 0.8484379863 0.0001083702 -1.2069e-05 -6.0098e-06 -0.0001624386 -0.0570722499 -0.0971282336
830295020.0 0.0910463971 0.8475091902 0.0002209513 -0.0001782984 9.41241e-05 4.10064e-05 -0.058755841 -0.0963513899
835294990.0 0.0983123321 0.8462023593 1.0378e-06 -9.59928e-05 5.75375e-05 0.0001535383 -0.0598251131 -0.0951489117
840294960.0 0.1072197302 0.8453348088 -5.34224e-05 -3.13043e-05 0.0002066033 4.60558e-05 -0.0615471236 -0.0942895646
845294930.0 0.1147415679 0.8448523749 -1.89839e-05 -6.67099e-05 0.0001030728 0.0001086122 -0.0629619748 -0.0936330049
850294900.0 0.1246008669 0.8435186267 0.0001534417 -1.37738e-05 -3.54607e-05 0.0001580539 -0.0644671442 -0.092419011
