!Created with skrf (http://scikit-rf.org).
# Hz S RI R 50.0 
!freq ReS11 ImS11 ReS21 ImS21 ReS12 ImS12 ReS22 ImS22
300000.0 -0.1002662678 -0.0614497212 0.6298611665 0.0569812247 0.6238187712 0.0577487794 -0.1020863742 -0.0678642655
5299970.0 -0.1021807644 0.013146797 0.6303543552 0.0101102904 0.6307573162 0.010467897 -0.1014159248 0.0133519813
10299940.0 -0.0971912244 0.029319463 0.6340656141 0.0150258617 0.6344668825 0.0157582149 -0.0963926112 0.0302344891
15299910.0 -0.0900724108 0.0427677121 0.6407443388 0.020679731 0.6404385339 0.0203791662 -0.0891942898 0.04371058
20299880.0 -0.0819029334 0.0531138293 0.6484373627 0.0244566783 0.6485826722 0.0240873239 -0.0801605505 0.0540224946
25299850.0 -0.0724451146 0.0621125961 0.6574643476 0.0254695317 0.6576976931 0.0257295325 -0.0701588484 0.0630385831
30299820.0 -0.0623884173 0.0687539111 0.6671983071 0.0247045817 0.6673618558 0.0248183237 -0.0603020676 0.0699050625
35299790.0 -0.0525711288 0.0738346857 0.6770030396 0.0212834579 0.6769446112 0.0220098358 -0.0500310727 0.0745364153
40299760.0 -0.0432558495 0.0772623246 0.6862740861 0.0173077972 0.686407948 0.0176102989 -0.0405328263 0.0772094167
45299730.0 -0.034068595 0.079339147 0.6948781628 0.0118784592 0.6956755595 0.0121297591 -0.0314276531 0.0795464616
50299700.0 -0.0256843674 0.0802639659 0.7036694446 0.0047832878 0.7036139166 0.005526652 -0.0226237469 0.0803731416
55299670.0 -0.0174334435 0.0804576021 0.7111427503 -0.003492835 0.7108774214 -0.0026336497 -0.0147429969 0.0802441801
60299640.0 -0.0098740737 0.0801636295 0.7172662196 -0.011408477 0.7177323471 -0.0105116498 -0.0077983867 0.0794247015
65299610.0 -0.0036038162 0.0790088665 0.723494472 -0.019622157 0.7238240207 -0.0197194697 -0.0011145769 0.0786846115
70299580.0 0.0027920298 0.0777474633 0.7285680044 -0.0290828601 0.7286806822 -0.0289610314 0.0048836331 0.0768302079
75299550.0 0.0082906082 0.0759895155 0.7329092425 -0.0386688206 0.732707766 -0.0386414729 0.010268395 0.0745998168
80299520.0 0.0132921696 0.0738064808 0.737265498 -0.0484200292 0.7373148489 -0.0483836551 0.0153926612 0.0727733351
85299490.0 0.0178981766 0.0714901187 0.7400393803 -0.0580369567 0.740729204 -0.057962909 0.0198984603 0.0701969759
90299460.0 0.0220390924 0.0690437279 0.7425970352 -0.0687410351 0.7437603447 -0.0686036007 0.0237233241 0.0681413317
95299430.0 0.0260626345 0.0664323963 0.7455068999 -0.0788525561 0.7456003737 -0.0789347648 0.0276990182 0.0656093539
100299400.0 0.0290056548 0.0647432505 0.7471622654 -0.0882644486 0.7470976881 -0.0889286146 0.0312800034 0.0628752524
105299370.0 0.0323025774 0.0619447399 0.7489339262 -0.0996371069 0.7492296639 -0.0990533455 0.034438357 0.0610361873
110299340.0 0.0350789638 0.0597731816 0.750227619 -0.1087244923 0.7499459712 -0.1088319166 0.0363383276 0.0582095035
115299310.0 0.0375116114 0.0573012461 0.7508838137 -0.1191711639 0.7506930218 -0.1189278473 0.0391301984 0.0558999994
120299280.0 0.0399310472 0.054377222 0.7515657128 -0.1295305675 0.7514157087 -0.1292839311 0.0415332011 0.0534318411
125299250.0 0.0419159083 0.0522622009 0.7518917342 -0.1386556699 0.7519640379 -0.1386998801 0.0429587734 0.0505990474
130299220.0 0.043604934 0.0500950027 0.7511560505 -0.149055746 0.7517778852 -0.1485181571 0.0450146938 0.0486988317
135299190.0 0.0450910546 0.0482111067 0.7512652526 -0.1589277038 0.751488123 -0.1586293333 0.0465445231 0.0464801734
140299160.0 0.0466078003 0.046205461 0.7509091652 -0.1686112619 0.750961797 -0.1685583178 0.0477771052 0.044690895
145299130.0 0.0481572585 0.0437583521 0.7505762946 -0.1784538096 0.749714553 -0.1779338478 0.0490322092 0.0426340762
150299100.0 0.0497835472 0.0420977865 0.7489596735 -0.1871808206 0.7488864338 -0.1873888773 0.0505818524 0.0404151024
155299070.0 0.0502828522 0.0396961686 0.7480254447 -0.1982844913 0.7474560621 -0.1975882173 0.0512791907 0.0386839277
160299040.0 0.0516753717 0.0382263645 0.7465275116 -0.2068688757 0.7457598752 -0.2071427127 0.0517544478 0.0364717838
165299010.0 0.0521343028 0.036565018 0.744731801 -0.2169916336 0.7448283226 -0.2168860188 0.0530354538 0.0350209386
170298980.0 0.0533008838 0.0341926562 0.7428222699 -0.2263715027 0.7433423994 -0.2257885751 0.0538974539 0.0332995282
175298950.0 0.053485272 0.0325669156 0.7416091754 -0.2349882551 0.740745773 -0.235139069 0.0543817941 0.0314800941
180298920.0 0.0543241464 0.0307091142 0.7392179335 -0.2444977619 0.7392037084 -0.2443225821 0.0551426581 0.0297197931
185298890.0 0.0554446806 0.0288705078 0.7366755533 -0.2534254045 0.7364688369 -0.2534569637 0.0555934939 0.0283414609
190298860.0 0.0553249332 0.0275525237 0.7345945369 -0.2631612335 0.7351225669 -0.2625984213 0.0561467263 0.0262412187
195298830.0 0.0559433203 0.0255585296 0.7320779143 -0.2718608318 0.7324712832 -0.2717718625 0.0571546092 0.0249908036
200298800.0 0.0562649641 0.0242957841 0.7293101061 -0.2810061565 0.729526155 -0.2803060789 0.056363244 0.0233985088
205298770.0 0.0568072524 0.0228008195 0.725615075 -0.289843084 0.7262318508 -0.2890211451 0.0572038685 0.0210301438
210298740.0 0.0570808869 0.0210548617 0.7230723233 -0.2979916119 0.7235156028 -0.2975972109 0.0576967274 0.0210614189
215298710.0 0.0569557348 0.0196970928 0.7203808158 -0.3071721387 0.7204275869 -0.3071032856 0.0576299917 0.0194345899
220298680.0 0.0579165821 0.0175901717 0.7170772656 -0.3155503223 0.7169710314 -0.3154364256 0.0577977814 0.0176171928
225298650.0 0.0578302232 0.016780436 0.7139678343 -0.3245907724 0.7141628447 -0.3242749337 0.0576308739 0.0160653812
230298620.0 0.0579720937 0.0158763246 0.7109892048 -0.3327832376 0.7115253357 -0.3327640365 0.0577409913 0.0146408593
235298590.0 0.0581841888 0.0148376037 0.7074217536 -0.341126203 0.7073230382 -0.3404297209 0.0578339094 0.0136363168
240298560.0 0.057980799 0.0133589314 0.7040370467 -0.3499342537 0.7035971622 -0.3492846776 0.0581110672 0.0127752298
245298530.0 0.0581495543 0.0118802281 0.7002057998 -0.3579347558 0.7002075272 -0.3581234763 0.0588066217 0.0108220107
250298500.0 0.0588380594 0.0110148851 0.6955175142 -0.3663739545 0.6952156715 -0.3658225005 0.0583248416 0.0102980987
255298470.0 0.0584661243 0.0094921118 0.6916319996 -0.3737206362 0.6919825433 -0.3739308464 0.0585550238 0.0089745733
260298440.0 0.0582773849 0.0080374913 0.6884284209 -0.3827236587 0.688067762 -0.382185848 0.0588894711 0.0082618893
265298410.0 0.0592230606 0.0073654643 0.6838643164 -0.3902658482 0.6845504691 -0.389854991 0.0584425678 0.0068525377
270298380.0 0.0585501017 0.0062368754 0.6802953236 -0.3983758029 0.6802499689 -0.398037085 0.0582366125 0.0061848202
275298350.0 0.0590037474 0.0050275759 0.675556337 -0.4068754642 0.6760023223 -0.4057878049 0.0587638129 0.004342535
280298320.0 0.0587208458 0.0042697078 0.671128293 -0.4145812808 0.6712059307 -0.4142296318 0.0588098401 0.003804844
285298290.0 0.0588422251 0.0032121538 0.6668808987 -0.421763782 0.6663641689 -0.4220357873 0.0589498571 0.0028579
290298260.0 0.0589823487 0.0021039649 0.6622425466 -0.4296651276 0.6624988522 -0.4300093518 0.0587416539 0.0019734453
295298230.0 0.0588969147 0.0010033701 0.657484768 -0.4377115972 0.658204976 -0.4373141714 0.0594215974 0.0006526817
300298200.0 0.0583381732 -0.0003620363 0.653576591 -0.4451505399 0.6534657676 -0.445697916 0.0586254541 -0.000501961
305298170.0 0.0585098109 -0.0012141619 0.6479132304 -0.4532640277 0.6482486603 -0.4530478824 0.059431732 -0.001723871
310298140.0 0.0584378632 -0.0024512829 0.643534191 -0.4607565528 0.643757815 -0.4604910986 0.0592060047 -0.0027023247
315298110.0 0.0582490233 -0.004051979 0.6387181315 -0.4682934594 0.6386486061 -0.4678674634 0.0588547288 -0.0037574562
320298080.0 0.0585146034 -0.00461515 0.6321658729 -0.4762116158 0.6327761277 -0.4760403571 0.0585441225 -0.0050820885
325298050.0 0.0577111376 -0.0058911847 0.6270143833 -0.4835410179 0.6275753854 -0.4832532751 0.0576947647 -0.0058604862
330298020.0 0.057360571 -0.0071325656 0.6216399313 -0.4905951606 0.6220792468 -0.4907477873 0.0570204205 -0.0072603533
335297990.0 0.0571063939 -0.0084627755 0.616252668 -0.4972091445 0.6160978189 -0.4974608917 0.056355243 -0.0075776063
340297960.0 0.0561937041 -0.0087827184 0.610246274 -0.5045740557 0.6101300508 -0.5050760743 0.0567457102 -0.0084783821
345297930.0 0.0557678136 -0.0090399116 0.6045414662 -0.5114078169 0.6048111031 -0.5117849918 0.0561763543 -0.0097831311
350297900.0 0.0550505437 -0.0105066599 0.5982919146 -0.5181686809 0.5981711079 -0.5181973201 0.0552693805 -0.00962682
355297870.0 0.0550136987 -0.0104894547 0.5926583091 -0.5250655208 0.5930038706 -0.5246951381 0.0551925092 -0.0104169234
360297840.0 0.0546016865 -0.0111402411 0.5874821698 -0.5311290004 0.5878348402 -0.5312532193 0.054532471 -0.0111368615
365297810.0 0.0543019287 -0.0117279839 0.5816542377 -0.5382306796 0.5819906597 -0.5382351653 0.0544446742 -0.011832498
370297780.0 0.0544351239 -0.0131240515 0.5751413486 -0.5445148658 0.5756100722 -0.5442333038 0.0542501508 -0.0124368771
375297750.0 0.053970232 -0.013719102 0.5693003413 -0.5509587504 0.5703096908 -0.5508352774 0.0542515003 -0.0131020684
380297720.0 0.0537024272 -0.0141833788 0.5628614859 -0.5576091944 0.5634179188 -0.5564520532 0.0533184289 -0.0140793151
385297690.0 0.0531399156 -0.0149922426 0.5564250228 -0.5636765319 0.5571105741 -0.5634442732 0.0532261537 -0.0143848335
390297660.0 0.0527974125 -0.0151651304 0.5508289237 -0.5697971634 0.5509358132 -0.5691035617 0.0526486122 -0.0154837336
395297630.0 0.0521881401 -0.0159489528 0.5446956562 -0.5760389346 0.5449617672 -0.5759412138 0.0532835843 -0.015974777
400297600.0 0.0519817994 -0.0166428902 0.5373964024 -0.5827011394 0.5382873277 -0.5817860623 0.0523963951 -0.0165430932
405297570.0 0.0514433417 -0.0176626578 0.5315592704 -0.5877980828 0.531844256 -0.5878778555 0.0517451734 -0.0170601581
410297540.0 0.0514951404 -0.0182503834 0.5253132885 -0.5941421402 0.5260307407 -0.5937343613 0.0517047275 -0.0172586829
415297510.0 0.0514332394 -0.0187312119 0.518605366 -0.5999352349 0.5189827102 -0.5994340238 0.0516612175 -0.0180649363
420297480.0 0.0510748808 -0.0191455581 0.5117408286 -0.6057765824 0.5119059222 -0.6059564526 0.0506695222 -0.018974938
425297450.0 0.0503648862 -0.0204824127 0.5052379113 -0.6115245216 0.5058103477 -0.6110181858 0.0497474351 -0.0190045401
430297420.0 0.0498836561 -0.0207429258 0.4984409139 -0.6158257898 0.4986123477 -0.616157142 0.0501522663 -0.0200082158
435297390.0 0.0492226962 -0.021489899 0.4914818633 -0.6225690648 0.4913458686 -0.6224502027 0.050598718 -0.0204179701
440297360.0 0.0495263459 -0.0212521505 0.4852427588 -0.6272632383 0.4848214562 -0.6277341237 0.0490877319 -0.0214197014
445297330.0 0.0488004407 -0.0226633099 0.4784576075 -0.6334043104 0.4785339474 -0.6323741344 0.049439196 -0.0220484498
450297300.0 0.0486421468 -0.0229376965 0.4709809523 -0.6381512375 0.4709561514 -0.6385100217 0.0486059205 -0.0228577063
455297270.0 0.0481899655 -0.0239463848 0.4632631183 -0.6433592053 0.4641349781 -0.6435016289 0.0483155824 -0.0231578696
460297240.0 0.047729507 -0.0242603695 0.456699997 -0.648431364 0.4568333861 -0.6487549771 0.0479164986 -0.0236893508
465297210.0 0.047587722 -0.0247651642 0.4496579024 -0.653848509 0.4501288269 -0.654127323 0.0477537577 -0.0243945804
470297180.0 0.0467737964 -0.0254198949 0.4423740076 -0.6587616742 0.4425940512 -0.6588218949 0.0473235682 -0.0244465883
475297150.0 0.0469073674 -0.0262668077 0.4354381729 -0.6629251314 0.4353496044 -0.6627611352 0.0474106383 -0.0254650301
480297120.0 0.0460907761 -0.0258282911 0.4278793559 -0.6684106631 0.4279271625 -0.6687207437 0.0469176086 -0.0253572792
485297090.0 0.0455559011 -0.0265998518 0.4205428856 -0.6728225197 0.4208295398 -0.672639104 0.0464932255 -0.0263739269
490297060.0 0.0447112314 -0.0274371073 0.4139178623 -0.6775707284 0.4138018335 -0.6769042171 0.0459075554 -0.0261690481
495297030.0 0.0447239708 -0.0278983061 0.4055274392 -0.6820437927 0.4059634906 -0.6818166351 0.0447944073 -0.0272316123
500297000.0 0.0443702408 -0.0287295104 0.3976673539 -0.6860234677 0.397681203 -0.6856694563 0.0448254747 -0.0270979062
505296970.0 0.0442005373 -0.0290692578 0.3906060278 -0.69071133 0.3903088159 -0.6902364178 0.044348199 -0.0277448426
510296940.0 0.0436140538 -0.0293042246 0.3823967621 -0.6956945911 0.3831316384 -0.6951801635 0.0441327697 -0.0280682529
515296910.0 0.0427921168 -0.0294690235 0.3750244268 -0.6991519698 0.3754204737 -0.6987712492 0.0436425146 -0.0285667168
520296880.0 0.0423486666 -0.030223658 0.3674919312 -0.7037321102 0.3676032246 -0.7031119687 0.0430263331 -0.0297449132
525296850.0 0.0420350589 -0.0313534768 0.3595640137 -0.7076486703 0.3603890034 -0.707179211 0.0423507434 -0.0297962276
530296820.0 0.041904813 -0.0310697197 0.3519552239 -0.7117280743 0.3519739478 -0.7114486535 0.0422387752 -0.0301069431
535296790.0 0.0410610408 -0.0313972334 0.3446162831 -0.7153295875 0.3451175043 -0.7149238339 0.0418080703 -0.0309005514
540296760.0 0.0402621008 -0.0315399914 0.336629569 -0.7193456286 0.3366003563 -0.7187599563 0.0406592691 -0.0307287903
545296730.0 0.0399528207 -0.0324735866 0.3282203331 -0.7223464354 0.3288427107 -0.7227184357 0.0403758053 -0.0314904083
550296700.0 0.0399952567 -0.0325027271 0.3203014591 -0.7257859423 0.3207328315 -0.7263584651 0.0396946134 -0.0318295426
555296670.0 0.0388630902 -0.0330477797 0.3127800554 -0.7296387666 0.3133193209 -0.7293746575 0.0394790753 -0.0321000786
560296640.0 0.0387260933 -0.0329713635 0.3047779865 -0.7329806667 0.3047960266 -0.7328114021 0.0390163947 -0.0327475942
565296610.0 0.0377458263 -0.033673047 0.2966234945 -0.7360087121 0.2968832629 -0.7359338755 0.038076337 -0.033275209
570296580.0 0.0372532812 -0.0338072402 0.2890111036 -0.7402840554 0.2882689552 -0.7394128992 0.0378087375 -0.0330168433
575296550.0 0.0364358753 -0.0342571055 0.2803033138 -0.7429393 0.2807129512 -0.742930599 0.0377725254 -0.0339449489
580296520.0 0.0362405203 -0.0344380137 0.2721713523 -0.7460378217 0.2725314278 -0.7457240547 0.0369872896 -0.0342475713
585296490.0 0.0356003334 -0.0356817068 0.2645590592 -0.748541906 0.2644475415 -0.7482687146 0.0365381475 -0.0342660381
590296460.0 0.035566986 -0.0355067766 0.2564129262 -0.7508389643 0.2559727638 -0.7510272008 0.0352452415 -0.0348171207
595296430.0 0.0349789929 -0.0357686863 0.2472624721 -0.754660243 0.2480510123 -0.7543762009 0.0353743817 -0.0354384703
600296400.0 0.0340394981 -0.0363873142 0.2393754156 -0.7564224723 0.2396621726 -0.7567248635 0.0344598178 -0.0356161467
605296370.0 0.0333568278 -0.0366642504 0.2307867459 -0.7591960192 0.2319045613 -0.7592650174 0.0340298427 -0.035860043
610296340.0 0.032977642 -0.0368150545 0.2224146259 -0.7619641004 0.2235591225 -0.7617540759 0.0342638536 -0.0361824664
615296310.0 0.0327594475 -0.0376465201 0.2146277316 -0.7638984146 0.2140584857 -0.7645461817 0.0334777257 -0.0358519771
620296280.0 0.0322293658 -0.0378826389 0.2060361712 -0.7665472806 0.2066490348 -0.7663353285 0.0325630944 -0.0368418451
625296250.0 0.0311169246 -0.0384157093 0.1986510562 -0.769201297 0.1981466471 -0.7691657656 0.0329129409 -0.0368672774
630296220.0 0.0319644349 -0.037793177 0.1889767226 -0.7706777131 0.18880829 -0.7704968133 0.0318108234 -0.0369409697
635296190.0 0.0298804913 -0.0387470456 0.1809955692 -0.7727384748 0.1807843282 -0.7731113388 0.0313427433 -0.0372524365
640296160.0 0.0294496752 -0.0385659384 0.1720937017 -0.7744909754 0.1730573724 -0.7746864099 0.0306116095 -0.0375814787
645296130.0 0.0292116535 -0.0389624566 0.1635402916 -0.7763878693 0.1643384808 -0.7765299151 0.0302706498 -0.0376468601
650296100.0 0.0287473708 -0.0390542434 0.1557769657 -0.7781265787 0.1560921709 -0.778019832 0.0303761964 -0.0387177304
655296070.0 0.0276487692 -0.0399816488 0.1469960239 -0.7803576271 0.1474928684 -0.7800145558 0.0292293659 -0.0384370007
660296040.0 0.0268800195 -0.0401189062 0.139074529 -0.7817065165 0.1390214521 -0.7818620583 0.028798713 -0.0386578909
665296010.0 0.0271205302 -0.0400913694 0.1293862855 -0.782650432 0.1306146993 -0.7826187411 0.0285094199 -0.0380872237
670295980.0 0.0251955804 -0.040322437 0.1213979891 -0.7841458718 0.1218625758 -0.7843660744 0.0272717414 -0.0387957539
675295950.0 0.0252840138 -0.0399935259 0.1131501056 -0.7852669003 0.1132563821 -0.7849995386 0.0265501128 -0.0392476796
680295920.0 0.0242812004 -0.0408990682 0.1038704809 -0.786728901 0.1039474889 -0.7867861669 0.0260961071 -0.0386895825
685295890.0 0.0241284984 -0.0400442646 0.0954147073 -0.7876175231 0.0955937499 -0.7880892514 0.0255012394 -0.038888914
690295860.0 0.0238731196 -0.0408771374 0.0868625268 -0.7883211672 0.08736968 -0.7891341441 0.0246929506 -0.0385288287
695295830.0 0.0231779329 -0.0409125905 0.0791230145 -0.7900227064 0.0786471201 -0.7892138319 0.0240977118 -0.0391118722
700295800.0 0.0224526591 -0.0415558518 0.0698813701 -0.7899992862 0.0698964602 -0.7899139012 0.0234048986 -0.0385311095
705295770.0 0.0216414368 -0.0406368471 0.0614300757 -0.7912203125 0.0618873571 -0.7911417896 0.0228474619 -0.0392788994
710295740.0 0.021163433 -0.0414037441 0.0525118217 -0.7921473338 0.053303529 -0.7921232601 0.0226932171 -0.0402094073
715295710.0 0.0198815708 -0.0416420757 0.0447794575 -0.7924017839 0.0441639716 -0.7921471819 0.0225036188 -0.0399517137
720295680.0 0.0200192557 -0.0417382488 0.0353668872 -0.7931642155 0.0360575921 -0.7927802872 0.0212179102 -0.0393014987
725295650.0 0.0195722246 -0.0416577549 0.0269388437 -0.7930990481 0.027207798 -0.7932379912 0.0200003936 -0.0398068811
730295620.0 0.0189861921 -0.0414812445 0.0178852597 -0.793039763 0.0183188669 -0.7934431441 0.0195003632 -0.0402772559
735295590.0 0.018128939 -0.0416378417 0.0098092175 -0.7939913372 0.0097258326 -0.793578228 0.0189499219 -0.0403953433
740295560.0 0.0172114912 -0.0415298264 0.0010230133 -0.7937475704 0.0013220151 -0.7937828523 0.0192038072 -0.039950261
745295530.0 0.0167992181 -0.0413935752 -0.0073547516 -0.793043498 -0.0071844507 -0.7935364244 0.018291662 -0.0406095241
750295500.0 0.0161983946 -0.0416852086 -0.0164675628 -0.7928819232 -0.0162283044 -0.7934506944 0.017684215 -0.0405651723
755295470.0 0.0158935157 -0.0419695013 -0.0244173687 -0.7929970766 -0.0245438061 -0.7930245751 0.0179535862 -0.0408690693
760295440.0 0.014942749 -0.0417092073 -0.0334273763 -0.7927708915 -0.033365671 -0.793494476 0.0167703934 -0.0407030074
765295410.0 0.0142928563 -0.0417764399 -0.042362272 -0.7917441558 -0.0422041427 -0.7925786803 0.016467792 -0.0405327093
770295380.0 0.0134809966 -0.0422037593 -0.0510363521 -0.7913338795 -0.0509577259 -0.7914807583 0.0154903691 -0.0408042873
775295350.0 0.012784179 -0.0424703251 -0.0598609401 -0.7906311339 -0.0588309487 -0.7910805852 0.0141862542 -0.0402223401
780295320.0 0.0124993154 -0.0422009432 -0.0675551307 -0.7901483672 -0.0670420358 -0.790386041 0.0136286659 -0.0414411193
785295290.0 0.0116195342 -0.0428587322 -0.076368493 -0.7890976761 -0.0760716151 -0.7895179017 0.0141143955 -0.0405357216
790295260.0 0.0116586906 -0.0416846146 -0.0841546841 -0.7888056572 -0.0836728561 -0.7882801219 0.0134020943 -0.0408746032
795295230.0 0.0108389315 -0.042309667 -0.0935740782 -0.7875972137 -0.092789849 -0.7879414041 0.0129431441 -0.0401865744
800295200.0 0.0096656835 -0.0417603187 -0.102513755 -0.7862771126 -0.1018473447 -0.787115416 0.0121217939 -0.0404866836
805295170.0 0.0094573978 -0.0422404028 -0.1109578343 -0.7852571087 -0.1110334137 -0.7858123756 0.0113372756 -0.0403018739
810295140.0 0.0083745025 -0.0425306905 -0.1189424247 -0.7842266105 -0.1188114913 -0.784380956 0.0111883215 -0.040087574
815295110.0 0.008291563 -0.0425472905 -0.1275923994 -0.7822198725 -0.1274042718 -0.7828479984 0.0101879733 -0.0401370844
820295080.0 0.0072105109 -0.0416738471 -0.1359774844 -0.7806110943 -0.1356517502 -0.7812213089 0.0095315778 -0.0402021224
825295050.0 0.0074544772 -0.0418473415 -0.1441284811 -0.7792530787 -0.1439354483 -0.7795432431 0.0095240491 -0.0398856872
830295020.0 0.0064118737 -0.0417280571 -0.1534918729 -0.7776069734 -0.1524809408 -0.777553424 0.0094265882 -0.0397082553
