!Created with skrf (http://scikit-rf.org).
# Hz S RI R 50.0 
!freq ReS11 ImS11 ReS21 ImS21 ReS12 ImS12 ReS22 ImS22
300000.0 0.858902413 -0.0026797338 4.21553e-05 0.0001917766 -0.0006295853 -0.0002350224 -0.7736717877 -0.1229166214
5299970.0 0.8588064744 -0.009310285 -0.0001521235 0.0001184799 -1.90764e-05 3.36065e-05 -0.7850059819 -0.0069754848
10299940.0 0.8580813071 -0.0187656712 7.12767e-05 -0.0001759038 -0.000160367 -0.0001055254 -0.7882620478 -0.0033966751
15299910.0 0.8567773616 -0.0266472538 0.0001310647 -9.67252e-05 -1.34484e-05 -3.5579e-05 -0.7936971854 -0.0014592332
20299880.0 0.8567446357 -0.0351184725 0.0001466157 6.79268e-05 3.79338e-05 0.0002023182 -0.8004060115 0.0022445912
25299850.0 0.8554702043 -0.0436561236 -0.0001790496 0.0001453741 2.14326e-05 -5.63014e-05 -0.8061251917 0.0080458303
30299820.0 0.8545326597 -0.0515642995 -3.37294e-05 -0.0002039221 1.88615e-05 -6.5582e-06 -0.8124256424 0.0162623187
35299790.0 0.8541885235 -0.0599787393 8.76104e-05 -0.0001636439 -0.0001104454 -5.48788e-05 -0.8176169751 0.0247188031
40299760.0 0.8531045137 -0.0692078939 9.14172e-05 0.0001840312 -0.0001777194 -6.50462e-05 -0.8213066781 0.034372098
45299730.0 0.8530054073 -0.0768568672 -4.5067e-05 5.1714e-05 -8.86433e-05 -3.29915e-05 -0.8257230844 0.0436047384
50299700.0 0.8523473959 -0.0845508891 -3.8859e-05 6.67214e-05 -0.0001696736 4.12521e-05 -0.8272750834 0.0538179546
55299670.0 0.8507575336 -0.0932431549 0.0001811667 1.69402e-05 1.50239e-05 -2.36351e-05 -0.8294329974 0.0644297114
60299640.0 0.8494813967 -0.1013965144 -3.6915e-05 8.63616e-05 0.0002459722 -1.95632e-05 -0.8306961773 0.0736797332
65299610.0 0.8485968147 -0.1094585275 -0.0001132432 -9.16165e-05 0.0001400602 0.0001766584 -0.8317246137 0.0842083074
70299580.0 0.8474947478 -0.1185584508 -9.49083e-05 -2.32483e-05 -1.39076e-05 7.08062e-05 -0.8316041762 0.0943707516
75299550.0 0.8461205943 -0.1264372218 -4.43729e-05 -0.000122608 1.5741e-06 -3.12949e-05 -0.832351728 0.1037596391
80299520.0 0.8444227566 -0.1347976768 6.65417e-05 -0.0001149049 -0.0001003742 2.40354e-05 -0.8316420983 0.1134733537
85299490.0 0.8433140579 -0.1429978112 6.32256e-05 -9.3314e-06 3.61762e-05 -9.86998e-05 -0.8314416105 0.1237540099
90299460.0 0.841790528 -0.1510680071 -0.0001757771 2.4542e-05 -0.0001822719 -6.33919e-05 -0.8306552623 0.1329652374
95299430.0 0.8398376174 -0.1598168065 0.0001067303 9.29195e-05 -8.29623e-05 -0.0001303529 -0.8293658773 0.1429504248
100299400.0 0.8384119873 -0.1675224642 0.0001506796 0.0001566712 0.0001261155 -2.043e-06 -0.82848428 0.1523055016
105299370.0 0.8372166908 -0.1758105776 -2.37017e-05 -0.0002550972 -9.09809e-05 6.56228e-05 -0.8271381346 0.1611496995
110299340.0 0.8350630598 -0.1838008201 -4.4789e-06 7.39552e-05 3.7017e-06 7.06202e-05 -0.8253545914 0.1709218021
115299310.0 0.8331407354 -0.1917406036 0.0001243634 0.0001645252 -0.0001075194 -8.22272e-05 -0.8242066224 0.179670471
120299280.0 0.8312559189 -0.2001455375 -0.000133561 -5.0485e-06 0.0001725856 -1.82951e-05 -0.8221970937 0.1885981418
125299250.0 0.8288350821 -0.2083760191 2.61577e-05 -0.0002079874 -0.000141857 -0.0002053795 -0.8208418254 0.1980906765
130299220.0 0.8274082525 -0.2162206795 -0.000144301 0.0001116349 7.53225e-05 0.0001540521 -0.8193411587 0.2066445479
135299190.0 0.8254616784 -0.2237721613 3.4005e-05 -7.80547e-05 -1.55659e-05 0.0001572901 -0.8168898364 0.2159468826
140299160.0 0.8232317013 -0.2319219607 -0.0001706311 4.50018e-05 -0.0002387628 0.0001175986 -0.814457101 0.2252199026
145299130.0 0.82041773 -0.2406537189 2.91088e-05 4.6103e-06 9.80491e-05 3.54288e-05 -0.8124511458 0.234187855
150299100.0 0.8182954184 -0.2481525143 0.0002883101 0.0001676773 0.0001115165 0.0002070368 -0.8108969591 0.2433504723
155299070.0 0.8151670879 -0.2562067028 1.19324e-05 0.0002846558 1.73563e-05 1.46493e-05 -0.8079429759 0.2518587813
160299040.0 0.8127870532 -0.2643966095 9.0894e-06 9.57999e-05 8.4382e-05 -8.965e-07 -0.8055045317 0.2604423964
165299010.0 0.8104561992 -0.2727305696 8.68082e-05 -0.0001721725 0.0001069798 -2.75387e-05 -0.8029647043 0.2698454021
170298980.0 0.807478262 -0.2804105473 0.0002239026 0.0001526544 6.3087e-06 2.2545e-05 -0.8001213702 0.2781893517
175298950.0 0.804467262 -0.2878551234 -6.91685e-05 -0.0001690236 7.33884e-05 -1.77737e-05 -0.7972408467 0.2864533024
180298920.0 0.8022180797 -0.2951512219 8.55644e-05 9.39988e-05 -4.6151e-05 3.59567e-05 -0.7939461249 0.2950213044
185298890.0 0.7987871245 -0.3034157763 -0.0001083473 -0.0001074707 -6.01836e-05 -0.0002306169 -0.7905011543 0.3035578914
190298860.0 0.7959043484 -0.3113107305 -0.0001205418 4.17962e-05 -3.39348e-05 -9.39356e-05 -0.7883115269 0.3123991893
195298830.0 0.7927188952 -0.3187535674 3.81894e-05 -8.9502e-06 -4.72165e-05 5.716e-05 -0.7848200854 0.3206366093
200298800.0 0.7896875075 -0.3263642943 3.24539e-05 0.000147888 -6.52933e-05 -2.48879e-05 -0.7820717553 0.3287845532
205298770.0 0.785910804 -0.3338270157 0.0001222672 0.0001996767 9.23708e-05 -0.0001826029 -0.7781544858 0.3374498525
210298740.0 0.7825138688 -0.3416370497 -0.0001357391 -0.0001687599 0.000253097 -5.87739e-05 -0.7742440082 0.3454226454
215298710.0 0.779291586 -0.3494270061 3.94195e-05 -9.53675e-05 -0.0001975487 -0.0002004326 -0.7708790642 0.3535286542
220298680.0 0.7761066835 -0.3571828919 0.0001830742 -0.0002684373 -0.0002330866 8.03971e-05 -0.7676949412 0.3615433913
225298650.0 0.7724700112 -0.365420935 0.0001161549 -1.57318e-05 -0.000128581 -3.2957e-06 -0.763743436 0.370008387
230298620.0 0.7683697633 -0.3723015474 -0.0002189825 -0.0001704526 -0.0001602973 4.20275e-05 -0.7598550288 0.3783781143
235298590.0 0.7645302295 -0.3798492211 -1.45125e-05 -1.4241e-06 -3.36906e-05 -6.62096e-05 -0.7557852293 0.3865812517
240298560.0 0.7612234177 -0.3875663811 0.0001087022 -0.0001219142 -2.87087e-05 5.91191e-05 -0.7517641666 0.395100174
245298530.0 0.7577289475 -0.3949540918 -4.09753e-05 0.0002189247 -3.91938e-05 -4.6243e-06 -0.7473711116 0.4023094091
250298500.0 0.7530806688 -0.4021522563 -6.11135e-05 2.34773e-05 -4.9524e-06 -3.03853e-05 -0.7436501461 0.4100060323
255298470.0 0.7488571473 -0.4095894137 -0.0001466958 1.4511e-06 -3.53715e-05 0.0002527975 -0.7390372891 0.4176404362
260298440.0 0.7451507234 -0.4166767464 0.0001362865 4.31873e-05 -0.0003003919 0.0001001008 -0.7353467373 0.4262455517
265298410.0 0.7414028282 -0.4241863788 -0.0001883523 -2.94113e-05 -5.57029e-05 -8.42183e-05 -0.7302772707 0.4332413478
270298380.0 0.7370276494 -0.4310255961 -6.33071e-05 -4.7404e-05 2.48491e-05 -1.18569e-05 -0.7256480239 0.4409468292
275298350.0 0.7327357251 -0.4384479291 0.0001538036 -6.02181e-05 -3.94807e-05 -5.38564e-05 -0.7211302457 0.4485909171
280298320.0 0.7285126176 -0.4451197423 -0.0001596901 -2.83634e-05 5.80785e-05 9.0495e-05 -0.7158886092 0.4559981438
285298290.0 0.7244520794 -0.4525039461 -2.44978e-05 -0.0001669479 0.0001415985 -1.71047e-05 -0.7108619251 0.4633486021
290298260.0 0.7197286682 -0.458985291 -0.000292671 6.56875e-05 0.0001229348 0.0001162158 -0.7062576531 0.4708906334
295298230.0 0.7154821499 -0.4666380645 5.68063e-05 2.87682e-05 7.4992e-05 6.47156e-05 -0.7014548912 0.4778701338
300298200.0 0.7112429093 -0.474180953 3.35741e-05 0.0001431884 6.34047e-05 8.3323e-05 -0.6965500287 0.4856141726
305298170.0 0.7073412271 -0.4808522768 -0.0002191982 6.91743e-05 -1.95953e-05 1.35997e-05 -0.6909392997 0.4933484627
310298140.0 0.702791305 -0.4880063421 -0.0002328609 0.0001788873 0.0002865023 3.79663e-05 -0.686255578 0.4998229099
315298110.0 0.6979770555 -0.4959111176 -6.41045e-05 -0.0001502344 4.78371e-05 -7.93858e-05 -0.6805948471 0.5069734884
320298080.0 0.6934136674 -0.5031604067 5.83268e-05 -0.0001232453 9.96141e-05 -4.37024e-05 -0.6752433024 0.5142846177
325298050.0 0.6878973481 -0.5104329483 2.1436e-06 -8.12505e-05 6.35076e-05 -9.56579e-05 -0.6694118616 0.5210921267
330298020.0 0.6818258821 -0.5179783954 -7.65129e-05 -0.0001463914 7.12744e-05 0.0001310948 -0.6641014844 0.5281743941
335297990.0 0.6753322299 -0.5249123337 -0.0001547198 -0.0001604932 -8.33289e-05 2.43091e-05 -0.6590667243 0.5353373132
340297960.0 0.669451091 -0.5316566045 -0.0002620398 -1.94698e-05 1.00793e-05 0.0001967108 -0.6533260634 0.5427563324
345297930.0 0.6640845283 -0.537301026 8.20457e-05 -0.0001655477 -0.0002104883 -0.0002680952 -0.6471890277 0.5489833284
350297900.0 0.6581803844 -0.5433451041 0.0001533085 0.0002363949 -3.9393e-05 -4.9434e-06 -0.6420801101 0.5557007649
355297870.0 0.6530173773 -0.5495276339 -0.0002280295 0.0002571821 -7.0264e-05 1.64575e-05 -0.6363862486 0.561747708
360297840.0 0.6473054652 -0.5561137786 6.82817e-05 -0.0001905728 -0.0001103539 3.25374e-05 -0.6300301415 0.5687488967
365297810.0 0.6407262192 -0.5620212479 -9.84405e-05 5.29958e-05 0.0001397662 -3.53811e-05 -0.6234726998 0.5748522091
370297780.0 0.6363007359 -0.5683734852 -0.0001723672 5.70831e-05 1.38699e-05 -4.85309e-05 -0.617737611 0.5816169462
375297750.0 0.6297645564 -0.5739703648 -2.18534e-05 9.09242e-05 -4.37817e-05 -5.78918e-05 -0.6120464139 0.5875408657
380297720.0 0.6240059938 -0.5803573026 4.21646e-05 1.6275e-06 3.01714e-05 -0.0002308959 -0.6060088531 0.5940365656
385297690.0 0.6181050527 -0.5863335254 0.0001200232 -4.15703e-05 0.0001710104 -2.81807e-05 -0.5995558651 0.6006009496
390297660.0 0.612307008 -0.5919655188 -3.40199e-05 -7.77744e-05 5.36476e-05 -0.0001761108 -0.5936546292 0.6063299856
395297630.0 0.6069349572 -0.597731425 3.33951e-05 0.0001027393 0.0001059275 -6.95744e-05 -0.5867655365 0.6127216897
400297600.0 0.6009509447 -0.604184935 9.27968e-05 -0.000108239 -3.35963e-05 0.0001159837 -0.5808947328 0.618591157
405297570.0 0.5951191571 -0.6091009255 0.0001238245 0.0001122399 0.0001465351 -0.0001219896 -0.5742020824 0.6244476143
410297540.0 0.5886073987 -0.6151215712 -0.0001926817 -6.35899e-05 -6.57182e-05 -2.9685e-05 -0.5677525819 0.6303783911
415297510.0 0.5828760929 -0.620952284 -5.89623e-05 4.46473e-05 -0.000248094 -1.45098e-05 -0.561468472 0.6358902151
420297480.0 0.5761296492 -0.6264153013 -5.46865e-05 -0.0002063008 -3.07465e-05 -0.0001266054 -0.5546265736 0.6421693294
425297450.0 0.56972745 -0.6319071569 -4.39026e-05 -5.14508e-05 0.0001807417 -2.90364e-05 -0.5482397959 0.6472446388
430297420.0 0.5632478155 -0.6373331254 -0.0001033663 4.4947e-06 -6.68544e-05 -7.05469e-05 -0.5415202942 0.6527680935
435297390.0 0.5576877554 -0.6432768836 3.97081e-05 5.19942e-05 -6.67976e-05 -0.0001618114 -0.5345057096 0.6584478887
440297360.0 0.5511650345 -0.6483527321 -5.49065e-05 3.97605e-05 4.67061e-05 -3.64424e-05 -0.5276989735 0.6640141735
445297330.0 0.5441142734 -0.6539131907 5.5563e-06 -4.05705e-05 -0.0002539582 0.0001368693 -0.5203762356 0.6689115892
450297300.0 0.5384743003 -0.65864677 9.40935e-05 9.2408e-05 -6.03417e-05 8.39445e-05 -0.5131966158 0.6739586763
455297270.0 0.5315838541 -0.663888897 0.0001815638 -0.0001532936 -9.99118e-05 -6.69523e-05 -0.5066622246 0.6783904855
460297240.0 0.5249996259 -0.6690665623 0.0001603111 -0.0001154322 -0.0002345633 1.32237e-05 -0.5001785115 0.6845278041
465297210.0 0.5185938305 -0.6748498513 8.16538e-05 0.0001178927 6.64194e-05 2.27848e-05 -0.4920499338 0.6892821135
470297180.0 0.5110621205 -0.6785674356 -0.0001216061 5.46706e-05 -3.68171e-05 -5.28364e-05 -0.4850870093 0.6945547599
475297150.0 0.5046202854 -0.6839280956 3.4559e-05 -7.61232e-05 -0.0001053537 0.0001517315 -0.4782349432 0.6989135832
480297120.0 0.4972737059 -0.6885609021 -2.69981e-05 -1.01012e-05 -0.0001179467 2.8292e-06 -0.4704211914 0.7038415419
485297090.0 0.4907127754 -0.6938340015 -1.42528e-05 7.46291e-05 -2.48264e-05 -0.0001069559 -0.4638979401 0.708940264
490297060.0 0.4837163663 -0.6984052516 -0.0001645217 -0.0002895794 0.0001790158 -0.0002626128 -0.4563521535 0.7128544047
495297030.0 0.4771080846 -0.703273664 0.0002026142 8.28881e-05 5.52381e-05 0.0001218754 -0.4491401074 0.718171527
500297000.0 0.469822003 -0.7079281223 0.0001517848 8.74153e-05 6.85107e-05 3.64014e-05 -0.4412475546 0.7224786699
505296970.0 0.4630333366 -0.7123108435 3.3133e-06 -8.6145e-06 -0.0002469981 2.75796e-05 -0.4346419722 0.7269104861
510296940.0 0.4558902481 -0.7172293463 3.41729e-05 4.1255e-05 7.04533e-05 6.43823e-05 -0.4263999606 0.7310789098
515296910.0 0.4492973393 -0.7213195399 -0.0001058766 7.01757e-05 -0.0002590418 -2.0238e-05 -0.4192948988 0.735347398
520296880.0 0.4409670727 -0.7254832638 -0.0002029288 2.42076e-05 -5.00425e-05 1.65032e-05 -0.4116408434 0.7392493167
525296850.0 0.4342669023 -0.7299216302 5.06136e-05 -0.0001015558 0.0001297981 -2.08586e-05 -0.4048353193 0.7439075673
530296820.0 0.4268694277 -0.7333417856 -0.0001768027 -0.0001087771 -3.47802e-05 -9.1561e-05 -0.3969550787 0.7474475509
535296790.0 0.4196941429 -0.7380324047 -1.34228e-05 -6.22301e-05 0.0002230895 -8.761e-07 -0.3896553566 0.7515303989
540296760.0 0.412082778 -0.7415668066 0.0001356256 1.38072e-05 -1.71283e-05 -5.5102e-05 -0.3814943578 0.7553790477
545296730.0 0.4045294129 -0.7456566856 0.0001052455 0.0001065683 0.0001813342 2.58493e-05 -0.3736315199 0.7591911899
550296700.0 0.3975600748 -0.7486670478 -8.7056e-06 4.43227e-05 4.69371e-05 -0.0001177501 -0.3662860793 0.7623011395
555296670.0 0.3897440908 -0.7534684948 -0.0002047364 0.000183232 0.0001639503 -8.91814e-05 -0.3585680962 0.7669548255
560296640.0 0.3820772303 -0.7567727564 -0.0001234483 0.0001993161 -0.0001864336 -2.66694e-05 -0.3503598253 0.7701284812
565296610.0 0.3748614973 -0.7603714192 7.0285e-05 4.4397e-05 0.0001139418 0.00010466 -0.3426597347 0.7739021974
570296580.0 0.3673009689 -0.7640424517 -0.0001562583 8.31602e-05 7.51652e-05 4.90678e-05 -0.3348703918 0.7776798647
575296550.0 0.3596177093 -0.7673278611 -2.82727e-05 0.0001084583 4.51678e-05 -2.4901e-05 -0.3271401814 0.780449553
580296520.0 0.3517743762 -0.7713750663 0.000227998 -0.0001100652 -4.29191e-05 -0.0001119713 -0.3182689772 0.7838575263
585296490.0 0.3433932769 -0.774948907 -0.0001544947 -0.0001944729 -0.0001018453 -9.7423e-05 -0.3110933367 0.7870303048
590296460.0 0.3365976085 -0.7769709681 3.81275e-05 -0.0001058159 1.8408e-06 -0.0002253445 -0.3031778097 0.7895668637
595296430.0 0.3283761048 -0.7809386399 -1.49595e-05 -3.121e-07 -9.15276e-05 1.6101e-05 -0.2948859601 0.7927371283
600296400.0 0.3205443093 -0.7840382587 -0.0002207263 -0.0001415352 -4.00659e-05 -5.84789e-05 -0.2871918835 0.7956567515
605296370.0 0.3129241827 -0.7867448911 0.0002192931 -5.47392e-05 -8.8989e-06 -4.57735e-05 -0.2784776185 0.7984965877
610296340.0 0.3047336182 -0.7904759702 -0.000157625 -0.0001258958 -0.0001909464 4.80312e-05 -0.2705826158 0.8010971434
615296310.0 0.2977841011 -0.7929921625 -1.9084e-06 -0.000143453 6.2847e-05 4.40226e-05 -0.2622037985 0.803371757
620296280.0 0.2889849326 -0.7953903594 2.49093e-05 0.0002912512 -0.0001050055 -0.0001072067 -0.254690622 0.805968659
625296250.0 0.2814926879 -0.7981727979 0.000121972 0.0001084571 3.57431e-05 -4.83899e-05 -0.2454781828 0.8081011842
630296220.0 0.2743838483 -0.8007936539 -6.2547e-05 -0.0001664924 -6.05182e-05 0.0001717963 -0.2378156279 0.8107749239
635296190.0 0.2656988365 -0.8039428631 0.0002030828 -0.0001941697 -5.30511e-05 -8.15658e-05 -0.2296329245 0.8127719129
640296160.0 0.2577320452 -0.8061164087 -9.26543e-05 7.34609e-05 -6.69388e-05 -8.80995e-05 -0.2216146393 0.8159415049
645296130.0 0.2494571597 -0.8078900752 -0.0001053782 0.0001832078 0.0001142818 9.54046e-05 -0.2134772293 0.8177918686
650296100.0 0.2413710656 -0.8105746318 0.0002164427 -0.0002107334 -4.99824e-05 2.6565e-05 -0.2051707543 0.8194151075
655296070.0 0.2331472547 -0.8131170621 0.0001104119 0.0002435291 -8.5157e-06 0.0001264508 -0.1965523815 0.821316986
660296040.0 0.2253512351 -0.8148442 -8.57458e-05 -5.5936e-06 0.0001350766 0.0001243703 -0.1878609323 0.8234853686
665296010.0 0.2175189106 -0.8173564618 -7.54692e-05 0.0002937563 -5.6238e-05 4.56035e-05 -0.1795655753 0.8259337996
670295980.0 0.2085573869 -0.8193949163 -0.0002446841 2.49698e-05 2.14173e-05 -0.0001779836 -0.1721584669 0.8271528034
675295950.0 0.2010594156 -0.8204748452 0.0002015866 3.04052e-05 -0.0001897379 -1.13658e-05 -0.1641122403 0.8291448872
680295920.0 0.1926992634 -0.8229012272 0.0001794095 -5.28148e-05 -5.90874e-05 0.000306695 -0.1553797396 0.831060375
685295890.0 0.1845769515 -0.8237849597 9.94334e-05 0.0001100335 5.9312e-05 0.0001458971 -0.1464945467 0.8321125243
690295860.0 0.1760551091 -0.8260155634 6.49357e-05 4.06167e-05 -8.81384e-05 -6.63493e-05 -0.138887985 0.8332505487
695295830.0 0.167590749 -0.8279773881 0.0001099989 -1.11232e-05 -1.67349e-05 7.51463e-05 -0.1298915586 0.8346758575
700295800.0 0.159841632 -0.8290457454 -0.0001308948 0.0001581551 0.0001813352 -5.13355e-05 -0.1228000295 0.8360992139
705295770.0 0.1510446575 -0.8304480857 -7.68352e-05 -9.6386e-06 -5.74963e-05 3.62643e-05 -0.113867149 0.8380053263
710295740.0 0.1426621733 -0.8318239932 3.19934e-05 5.74941e-05 -1.6541e-05 -0.0001056777 -0.1052831702 0.83841032
715295710.0 0.1344963345 -0.8334614241 -0.0002742078 9.84779e-05 0.0001970818 -0.0003113527 -0.0960817292 0.8397398059
720295680.0 0.1267346361 -0.8345490141 0.0001320488 0.0001310642 -3.5442e-06 -0.000135481 -0.0883750509 0.8403676171
725295650.0 0.1176418048 -0.8352463083 0.0001256841 2.1838e-06 4.39356e-05 -8.15342e-05 -0.0802612624 0.8420354487
730295620.0 0.1095249157 -0.8360813555 6.2485e-05 2.8965e-06 -1.97494e-05 -9.78451e-05 -0.0723394762 0.8418387776
735295590.0 0.1009897334 -0.8363106929 0.0002426933 -1.8389e-06 -0.000158693 0.0001015843 -0.0637356411 0.8422489511
740295560.0 0.0927035392 -0.8376500602 1.52062e-05 3.21219e-05 -1.13699e-05 4.55883e-05 -0.0545451111 0.8436058215
745295530.0 0.0841207523 -0.838749109 3.37176e-05 -3.34574e-05 6.1892e-06 -2.87105e-05 -0.0463081835 0.8438943429
750295500.0 0.0758738206 -0.8391457575 0.0002589314 4.18022e-05 8.7931e-05 6.37199e-05 -0.0377905688 0.8442375837
755295470.0 0.0668706018 -0.8402190319 -8.49945e-05 0.0001580738 5.0802e-06 -0.0001505927 -0.0292431354 0.8441374761
760295440.0 0.0589027051 -0.8404612107 -0.0001153458 7.24113e-05 6.83844e-05 -8.0355e-06 -0.0211855586 0.8443717828
765295410.0 0.0509323839 -0.8406867456 -8.50656e-05 0.000127475 -0.0001351335 -0.0001226531 -0.012517588 0.8451944883
770295380.0 0.0420334093 -0.8413232982 2.9794e-05 6.19698e-05 -7.96451e-05 -6.08987e-05 -0.0043484838 0.8449118058
775295350.0 0.0333800692 -0.8418710917 -0.0001179815 -5.23582e-05 3.13069e-05 6.2581e-05 0.0036061398 0.8443640432
780295320.0 0.0250853222 -0.8412716884 -6.386e-06 -7.1617e-06 8.01093e-05 0.0001665888 0.0121043156 0.8444401797
785295290.0 0.0163892729 -0.8420916669 6.15695e-05 8.07437e-05 -7.44088e-05 -0.0002282741 0.0208327461 0.8441030597
790295260.0 0.0084597459 -0.8415651867 -0.0001408771 -8.39021e-05 -7.7736e-06 0.0002218932 0.0297389825 0.8441203049
795295230.0 0.0005172441 -0.8415146174 -6.49498e-05 4.79088e-05 2.51024e-05 -8.35509e-05 0.038509986 0.8433079198
800295200.0 -0.0081724671 -0.8410385213 -3.64061e-05 -7.20981e-05 -1.69979e-05 -8.29637e-05 0.046513129 0.8430647551
805295170.0 -0.0167731995 -0.8409196024 -0.0002061347 2.12638e-05 -0.0002547425 0.000244984 0.0548937395 0.8428642857
810295140.0 -0.0242329803 -0.8408515241 9.99325e-05 -0.0001084512 -0.0001203729 -0.0002647896 0.0632530597 0.8420838936
815295110.0 -0.0333183397 -0.8407658406 -8.33099e-05 6.9361e-05 -0.0001099921 -0.0002410089 0.071932374 0.8414036883
820295080.0 -0.0414758391 -0.8393701135 0.0001287168 -0.000108127 -2.31975e-05 3.74029e-05 0.0800549221 0.8409516853
825295050.0 -0.0503628584 -0.8392439765 6.2112e-05 0.0001630167 1.5629e-05 -1.90534e-05 0.0882958844 0.8405147023
830295020.0 -0.0580456529 -0.8384666494 -7.16222e-05 9.68206e-05 1.18096e-05 0.0002796272 0.0971180381 0.8392440799
835294990.0 -0.0659973261 -0.8375126621 -2.92996e-05 0.0002009616 -8.84187e-05 -0.0001164966 0.1049616028 0.8383593112
840294960.0 -0.0746747538 -0.8365758231 7.93821e-05 0.0001490919 -3.51971e-05 -0.0001602967 0.113574909 0.8370825787
845294930.0 -0.0831513824 -0.8356193393 -0.0001520181 -0.0001202021 -3.56143e-05 0.000204873 0.1214558397 0.8351411907
