!Created with skrf (http://scikit-rf.org).
# Hz S RI R 50.0 
!freq ReS11 ImS11 ReS21 ImS21 ReS12 ImS12 ReS22 ImS22
300000.0 -0.3165159236 -0.127296008 0.3728232837 0.0650880347 0.3723141817 0.0637572306 -0.3165331218 -0.1292754275
5299970.0 -0.3251327268 0.0025887928 0.3784008254 0.0033555692 0.3787901367 0.0032052245 -0.3257279159 0.002048518
10299940.0 -0.3224432285 0.0141260653 0.3799931581 0.0028076902 0.379847781 0.0030611215 -0.3234277239 0.0125341573
15299910.0 -0.3191354146 0.0223032681 0.3818977159 0.0028058017 0.3824727203 0.0030153948 -0.3206240649 0.0199373229
20299880.0 -0.3157197616 0.0290304306 0.3850669823 0.0017207602 0.3854079246 0.0017789837 -0.3179517255 0.0259436651
25299850.0 -0.3114850383 0.0347362784 0.3884159297 0.0006241587 0.3888642591 0.000285708 -0.3149218742 0.0312634306
30299820.0 -0.3082316474 0.0391720652 0.3919028671 -0.0018440888 0.3918591083 -0.0022943989 -0.3119027999 0.0359479226
35299790.0 -0.3047079832 0.0432982835 0.3949697036 -0.0052337643 0.3954545514 -0.0052549923 -0.309319976 0.0401968081
40299760.0 -0.3013546363 0.0469255509 0.3985228521 -0.0088057592 0.3989202593 -0.0086047997 -0.3064704375 0.0431195569
45299730.0 -0.2981078399 0.0503442448 0.401436529 -0.0125084735 0.4014197072 -0.0125297649 -0.3037813541 0.0464658245
50299700.0 -0.2950863341 0.0527287305 0.4035247695 -0.0170883049 0.4038106826 -0.017268178 -0.3014311645 0.0499151275
55299670.0 -0.2924065589 0.0551231055 0.4058057522 -0.021502318 0.4060672642 -0.0217473307 -0.299718608 0.052439203
60299640.0 -0.2898559037 0.0577982267 0.4082279969 -0.0268692974 0.4079321583 -0.0268243685 -0.29697542 0.0549201078
65299610.0 -0.2875115466 0.0601710226 0.4099131242 -0.0314780225 0.4098695714 -0.0318093484 -0.29519646 0.0575332516
70299580.0 -0.2851737669 0.0620996565 0.4106170038 -0.0365119416 0.4110051988 -0.0368806723 -0.2937628367 0.0598374958
75299550.0 -0.2833883232 0.0640907767 0.4116001717 -0.0420130364 0.4120721528 -0.0421071056 -0.2918900771 0.0622856156
80299520.0 -0.2817262176 0.0667036843 0.4127566681 -0.0472194912 0.4130958215 -0.0471429925 -0.2905010862 0.0647972599
85299490.0 -0.2799223014 0.0681671012 0.4130253989 -0.052761216 0.4137107402 -0.0523133094 -0.2894640158 0.0669942755
90299460.0 -0.2782011077 0.0708823595 0.4137720791 -0.0581622304 0.4136467733 -0.0576387812 -0.2877929246 0.0695217866
95299430.0 -0.2767845028 0.0726921574 0.4138482284 -0.0627713312 0.4142338532 -0.0632746231 -0.2865457244 0.0718081965
100299400.0 -0.2753048924 0.0746531972 0.4139579222 -0.0678760307 0.4141234386 -0.0681840701 -0.2856352421 0.0744266086
105299370.0 -0.2740463955 0.0765610278 0.4136831196 -0.0734194201 0.4143884909 -0.073449308 -0.2840954301 0.0763947739
110299340.0 -0.2726006658 0.0788605057 0.4136003112 -0.0781748046 0.4140890884 -0.0783222953 -0.2833089864 0.0784554882
115299310.0 -0.2718198711 0.0811325909 0.4136345982 -0.0833795927 0.4135340009 -0.0837451873 -0.2820908474 0.0811891835
120299280.0 -0.2704409132 0.0832273365 0.4133737923 -0.0888990708 0.412866326 -0.0890364194 -0.2811969162 0.0833349671
125299250.0 -0.2696100992 0.085423099 0.4126442858 -0.0938245407 0.4126559151 -0.093901698 -0.2801430415 0.0860050284
130299220.0 -0.2682641404 0.0872161548 0.4119285458 -0.0988293943 0.4118717294 -0.0992739097 -0.2790883182 0.0882808132
135299190.0 -0.2676262273 0.0897466694 0.4113974139 -0.1036035906 0.4116679596 -0.1041829277 -0.27831559 0.0907075267
140299160.0 -0.2665533657 0.0921590229 0.4106348781 -0.1091973306 0.4103739222 -0.1089274507 -0.277843949 0.0931479011
145299130.0 -0.2654208957 0.0947461723 0.4095218062 -0.1138577051 0.409674532 -0.113888453 -0.276540857 0.0957140229
150299100.0 -0.2643409489 0.096891152 0.4085186382 -0.1186477978 0.4085109048 -0.1191198737 -0.2757832844 0.0985631665
155299070.0 -0.2631478931 0.0997831606 0.4069050485 -0.1238575247 0.407662486 -0.1239918892 -0.2747961093 0.1010761295
160299040.0 -0.2624225399 0.1020868365 0.4058487151 -0.1285605528 0.4061752401 -0.1287239628 -0.2738796386 0.1038350047
165299010.0 -0.2611420778 0.1042741438 0.4049889818 -0.1335654575 0.4048750568 -0.1334469019 -0.2729254566 0.1058633289
170298980.0 -0.2602403701 0.1066936167 0.4032646621 -0.1381192264 0.404073787 -0.1384573713 -0.2722989459 0.1087167664
175298950.0 -0.259344473 0.10917641 0.4023345074 -0.1427706232 0.40238715 -0.1433262395 -0.2710603759 0.1115822883
180298920.0 -0.258358612 0.1119133887 0.4007977843 -0.1478220077 0.4008522506 -0.1482926122 -0.2699753973 0.1139975533
185298890.0 -0.2571001013 0.1144396636 0.3992463117 -0.1525264076 0.3990348809 -0.1526702011 -0.2687180237 0.1167626507
190298860.0 -0.2558302084 0.1171899937 0.3971780459 -0.157148463 0.397928883 -0.1574865019 -0.2679445255 0.1194117738
195298830.0 -0.2549359473 0.1196056465 0.3962154597 -0.161838138 0.3961661002 -0.1618233377 -0.267154636 0.1217591618
200298800.0 -0.2534783926 0.1219821302 0.3944045459 -0.1669438488 0.3942228379 -0.1668567326 -0.2656416588 0.1246817142
205298770.0 -0.2527633358 0.1247564524 0.3925851796 -0.1707330195 0.3927154573 -0.1709729475 -0.2644401139 0.1273809027
210298740.0 -0.2516405093 0.1274805001 0.3906305926 -0.1756543792 0.3908296598 -0.1758699631 -0.2637330994 0.1300106223
215298710.0 -0.2504257898 0.1297813506 0.388511557 -0.1795851711 0.3888402134 -0.1801262874 -0.2623324822 0.1323841679
220298680.0 -0.2490969123 0.1325643425 0.38671105 -0.1847363114 0.386593465 -0.184676494 -0.2608129054 0.1352391216
225298650.0 -0.2478065683 0.1350053948 0.384335224 -0.1889598584 0.3847104452 -0.1887180145 -0.2599616285 0.1381695851
230298620.0 -0.2463644083 0.1378202681 0.3827447693 -0.193405093 0.3830188933 -0.1936726688 -0.2587669341 0.1405614497
235298590.0 -0.2454968457 0.1408064223 0.3805079814 -0.198186814 0.3806107822 -0.1978016136 -0.2570947306 0.1434090584
240298560.0 -0.2440061168 0.1433252043 0.3783467847 -0.2023254546 0.3786412052 -0.2019717679 -0.2562173941 0.1458774908
245298530.0 -0.2426589741 0.1456829009 0.3759583148 -0.2065294792 0.3764443255 -0.2065789458 -0.2548316951 0.1488371382
250298500.0 -0.2415494196 0.1481926489 0.3740211844 -0.210648286 0.3741427449 -0.2107006348 -0.2535573806 0.1516715889
255298470.0 -0.2401334058 0.151190402 0.3713821458 -0.2146202557 0.3720490291 -0.2150794429 -0.2519008061 0.1544831613
260298440.0 -0.2385347205 0.1537018951 0.3693278657 -0.2188729839 0.369368313 -0.2189964321 -0.250611405 0.1566107656
265298410.0 -0.2372510466 0.1563106593 0.3671591353 -0.2235299313 0.3667981443 -0.2235779309 -0.2487290429 0.1592243521
270298380.0 -0.2359683877 0.1588100256 0.3641105744 -0.2274586744 0.3646322511 -0.227504302 -0.2476081977 0.1621305491
275298350.0 -0.2346908112 0.1616485045 0.3613858023 -0.2312677288 0.3621464106 -0.2313868997 -0.2457550399 0.1649921839
280298320.0 -0.2330684576 0.1638427193 0.3595233904 -0.234996138 0.3596299353 -0.2357349795 -0.2445141041 0.167617044
285298290.0 -0.2316842141 0.1667013257 0.3567722696 -0.2393424674 0.3572898867 -0.2393926011 -0.243248667 0.1704034103
290298260.0 -0.2299056825 0.1692516995 0.3546461873 -0.2434497432 0.3543912234 -0.2433984624 -0.2413811141 0.1727240693
295298230.0 -0.2284192485 0.17161616 0.3515571652 -0.2479223946 0.3518134398 -0.2480151225 -0.23945982 0.175412147
300298200.0 -0.2269314524 0.1743716247 0.34859992 -0.2517718376 0.3490937023 -0.2514377385 -0.2376341744 0.1779990901
305298170.0 -0.225122375 0.1764752101 0.346048438 -0.2555577404 0.3464804181 -0.2558592428 -0.235494976 0.180461771
310298140.0 -0.2232423606 0.1789430189 0.3434075264 -0.2594515263 0.3435750536 -0.2591361968 -0.2339747361 0.1831401476
315298110.0 -0.2218783561 0.1813085502 0.340605315 -0.2637898717 0.3408096879 -0.2637363729 -0.2322527654 0.1855385476
320298080.0 -0.2200334553 0.183605498 0.3371760489 -0.2672335608 0.3379143114 -0.2676548207 -0.2306550815 0.1881583223
325298050.0 -0.2188573762 0.1856749762 0.3344776959 -0.2710453017 0.3352031563 -0.2712321957 -0.2284144512 0.1904857764
330298020.0 -0.2171401738 0.1886174639 0.3314417689 -0.2750458428 0.3318579058 -0.2751556287 -0.2270063003 0.1930580088
335297990.0 -0.2153804431 0.1909969314 0.3285296596 -0.278577916 0.3285580726 -0.2785886382 -0.2250662519 0.195162608
340297960.0 -0.2137866628 0.1933082876 0.3247438888 -0.2822613064 0.3251184779 -0.2824517677 -0.2232637675 0.1979878948
345297930.0 -0.2118165272 0.1955744356 0.3220640863 -0.2858083438 0.3220999437 -0.286126238 -0.2209503042 0.2004636623
350297900.0 -0.2102226631 0.1979409244 0.319037473 -0.2889190781 0.3188456874 -0.2892968801 -0.2192247377 0.2026721534
355297870.0 -0.2083726152 0.2001550488 0.3156700429 -0.2922012113 0.315759568 -0.2924530726 -0.2171008418 0.2053113413
360297840.0 -0.2063767624 0.2028540666 0.3123561845 -0.2965882871 0.3127670205 -0.2967821574 -0.2151877545 0.2080694776
365297810.0 -0.2045911752 0.2051414204 0.3087851718 -0.2996398533 0.3092708992 -0.2997855152 -0.2134524499 0.2101948188
370297780.0 -0.2024860392 0.2074198644 0.3055461471 -0.3031431366 0.3058502904 -0.303054133 -0.2114222589 0.2126970994
375297750.0 -0.20055531 0.2097304336 0.302305864 -0.306388526 0.3023998482 -0.3065055822 -0.2087188394 0.2151512527
380297720.0 -0.1986684195 0.2123735571 0.2993956271 -0.3097933762 0.2991224808 -0.3098800215 -0.2065132955 0.2177264515
385297690.0 -0.1966634679 0.2142514623 0.2953230444 -0.3129098491 0.2957121091 -0.3132467968 -0.2046378914 0.2199600752
390297660.0 -0.1942959255 0.2160478842 0.2920730477 -0.3157123045 0.2919969146 -0.3158882347 -0.2019139117 0.2219521792
395297630.0 -0.1922538029 0.2183751449 0.2889545747 -0.3186968311 0.2883366137 -0.3192192094 -0.1999604131 0.2244039971
400297600.0 -0.1900670259 0.2209962602 0.2851559477 -0.3225098224 0.2855534024 -0.3225670652 -0.1974714804 0.2268267898
405297570.0 -0.1881392481 0.2225425776 0.2815280326 -0.325519258 0.2818192726 -0.325566074 -0.1950316712 0.2290223279
410297540.0 -0.1856551876 0.2249517936 0.2777991493 -0.328908463 0.2781315393 -0.3286201934 -0.1929925009 0.2313037105
415297510.0 -0.1834065027 0.2267349634 0.2740828685 -0.3314689104 0.2749989203 -0.3318598633 -0.1904907159 0.2334948197
420297480.0 -0.1814559911 0.2286178636 0.2706250065 -0.3346846229 0.2708286212 -0.3347855419 -0.1878330969 0.2363781455
425297450.0 -0.1782789716 0.2309216381 0.2670267359 -0.3376099743 0.2669504167 -0.3376666276 -0.185580442 0.2374441872
430297420.0 -0.176384556 0.2328027858 0.2633537841 -0.3406439784 0.2634458488 -0.3399738706 -0.1828264112 0.2400340681
435297390.0 -0.1742511678 0.2347127575 0.2593039192 -0.3437564107 0.259415383 -0.343418475 -0.1809904591 0.2424798156
440297360.0 -0.1712917523 0.2367312645 0.2552154385 -0.3463695479 0.2555006402 -0.3462926096 -0.1781512272 0.2445027101
445297330.0 -0.1690081063 0.2381395531 0.2518325597 -0.3489458643 0.2518434631 -0.3491416921 -0.1754224536 0.2462070567
450297300.0 -0.1666920403 0.2403335808 0.2479778884 -0.3517541999 0.2484945882 -0.3517041799 -0.1728738069 0.2484762232
455297270.0 -0.1643511121 0.2420511715 0.2441006813 -0.3541621655 0.2444541746 -0.3543993825 -0.1701203177 0.2503514733
460297240.0 -0.1616776268 0.2439686084 0.2403845681 -0.357193455 0.2400635534 -0.3571800997 -0.1672987783 0.251991299
465297210.0 -0.1591532398 0.2457048141 0.2359927403 -0.3595247705 0.2358639739 -0.3600956017 -0.1647469704 0.2546180649
470297180.0 -0.1563597953 0.2476026295 0.232072733 -0.3619216132 0.2322850007 -0.3622981795 -0.16206485 0.2560707201
475297150.0 -0.1541455824 0.2493186545 0.2284505123 -0.3646432161 0.2283762908 -0.3648833622 -0.1595142542 0.2578776176
480297120.0 -0.15094228 0.2515913274 0.2240166394 -0.3673500647 0.2243847485 -0.3667856787 -0.1568686356 0.2595949132
485297090.0 -0.1485698438 0.2528073018 0.2203008478 -0.3695757512 0.2201917398 -0.3695813026 -0.1541816154 0.2617648817
490297060.0 -0.1453695033 0.2547483532 0.2156763338 -0.372176025 0.2160540137 -0.3720946964 -0.1513866447 0.2632012493
495297030.0 -0.143268459 0.2560116391 0.2123112068 -0.3744931081 0.2121065478 -0.3743471086 -0.1486150301 0.2649714527
500297000.0 -0.1402056311 0.2579030282 0.2079876352 -0.3764323056 0.2078524041 -0.376740433 -0.1460017083 0.2666516237
505296970.0 -0.1370674291 0.259427365 0.203491552 -0.3787914245 0.2038565583 -0.3784060065 -0.1429942161 0.26812565
510296940.0 -0.1346292198 0.2611108093 0.1996773542 -0.3813038781 0.1998687827 -0.381191926 -0.1398187664 0.2702905251
515296910.0 -0.1316729139 0.2628423298 0.1949005653 -0.3831567553 0.1949443222 -0.3828625214 -0.137491136 0.2717337463
520296880.0 -0.1287886263 0.2639903532 0.1911875116 -0.3851847184 0.1909439527 -0.3852506623 -0.1341551189 0.2736028076
525296850.0 -0.125834222 0.2655508007 0.1867329038 -0.3868476264 0.1864678287 -0.3870565462 -0.1313670915 0.2748177922
530296820.0 -0.1233976494 0.2671159715 0.1825949657 -0.3891289499 0.1825178227 -0.3889190386 -0.1280146762 0.2760871995
535296790.0 -0.119738543 0.2683791559 0.1782528387 -0.390863377 0.1779763617 -0.390955478 -0.1251438857 0.2780216646
540296760.0 -0.1170756888 0.2699661189 0.1738396996 -0.3930380771 0.1736176806 -0.3928076118 -0.1222913742 0.2788617155
545296730.0 -0.1146793683 0.2715547895 0.1698954236 -0.3945980306 0.1695574217 -0.3947638255 -0.1195004854 0.2809143762
550296700.0 -0.1112535555 0.2728467139 0.1650493941 -0.3965116291 0.1651444814 -0.3966832466 -0.1165036813 0.2819790139
555296670.0 -0.1085236479 0.2740854481 0.1610242051 -0.3985982659 0.1606864225 -0.3983405813 -0.1137824883 0.2832426316
560296640.0 -0.1052156857 0.2754529728 0.1560983856 -0.4002738233 0.1567198886 -0.3998987094 -0.110661822 0.2849254899
565296610.0 -0.1025052964 0.2768223396 0.1524558452 -0.4018030667 0.1521642501 -0.4015163117 -0.1071451044 0.2862796139
570296580.0 -0.0994803875 0.2780303155 0.1476717537 -0.4030434409 0.1477914263 -0.4033021364 -0.1047586888 0.2874260049
575296550.0 -0.0959395399 0.2792512497 0.1437083922 -0.4048482775 0.1434915894 -0.4046256045 -0.1013934861 0.288391339
580296520.0 -0.0934169857 0.2807392717 0.1390000299 -0.4061706617 0.138934474 -0.4062400511 -0.098818259 0.2896090514
585296490.0 -0.0902427434 0.2820939964 0.1349561405 -0.4076815348 0.1343393055 -0.4073574686 -0.0953192076 0.2910440118
590296460.0 -0.0866491803 0.2830619216 0.1300501761 -0.4092239335 0.1300727561 -0.4091259419 -0.0925518373 0.2920173914
595296430.0 -0.0840210174 0.2837849921 0.1254453029 -0.4102733027 0.1250667141 -0.4104995036 -0.0893277511 0.2930607413
600296400.0 -0.0809038552 0.2853748872 0.1209289534 -0.4115043354 0.120675826 -0.4116337872 -0.08613839 0.2941921148
605296370.0 -0.077951417 0.2864158695 0.1169188744 -0.4128673033 0.1160937918 -0.413294789 -0.0830157277 0.2956390068
610296340.0 -0.0745706027 0.2876834926 0.1118872539 -0.4137020391 0.1122376559 -0.4139906576 -0.0799134303 0.2965509974
615296310.0 -0.0713188883 0.2884082142 0.1077623142 -0.4156389848 0.1071007803 -0.4153004751 -0.0763125551 0.2973913444
620296280.0 -0.0685976233 0.2897628059 0.1028658324 -0.4163547115 0.1027583332 -0.416105618 -0.0738096755 0.298456945
625296250.0 -0.0656841449 0.2905034771 0.0983378762 -0.4176272974 0.098390139 -0.4175390093 -0.0707873585 0.2989198573
630296220.0 -0.0618823477 0.2913686993 0.0935940335 -0.4185768758 0.0935846078 -0.4186417428 -0.0672990617 0.3002947302
635296190.0 -0.059361295 0.2926516771 0.0893449672 -0.4192964034 0.0889679039 -0.4194293244 -0.064111369 0.3009377559
640296160.0 -0.0563407694 0.2933635508 0.0846989776 -0.4206094533 0.084613105 -0.4203498469 -0.0610426788 0.3015682922
645296130.0 -0.0526673348 0.2945163166 0.0799645374 -0.4211324031 0.0803979026 -0.4207634039 -0.0582589012 0.3019700428
650296100.0 -0.0497339666 0.2952892832 0.0757738907 -0.4221904709 0.0750828885 -0.4218523738 -0.0543087065 0.3031717098
655296070.0 -0.0465111858 0.2959278775 0.0707139174 -0.4229120511 0.0708724348 -0.4229830543 -0.0521462879 0.3040574292
660296040.0 -0.0434618324 0.2966694227 0.0661878179 -0.4235599481 0.0663408778 -0.4233396408 -0.0480891439 0.3045870769
665296010.0 -0.0406101447 0.2976540735 0.0616256691 -0.423785118 0.061642148 -0.4239060627 -0.0449337962 0.3050139043
670295980.0 -0.0372473095 0.2979829588 0.0568739086 -0.4245515676 0.0570258559 -0.424241741 -0.0422322317 0.3057561888
675295950.0 -0.0342742287 0.2987207003 0.0524629063 -0.4250825657 0.0527622282 -0.4250738013 -0.0391253582 0.3062926563
680295920.0 -0.0312693548 0.2994948493 0.0478804926 -0.4254497596 0.0476744596 -0.4255794787 -0.0353976811 0.30674829
685295890.0 -0.0278548037 0.3002398763 0.0431046409 -0.4263226832 0.0431257512 -0.4263762627 -0.032201044 0.307442308
690295860.0 -0.0246787656 0.3004801528 0.0384107284 -0.4262111327 0.0384551908 -0.4266787188 -0.0292078695 0.308086951
695295830.0 -0.0216017502 0.3010302109 0.034391783 -0.4269319848 0.0339758835 -0.4270126106 -0.0259587552 0.3083646175
700295800.0 -0.0184476833 0.3017272053 0.0295660687 -0.4272870386 0.0295613108 -0.42730638 -0.0226589721 0.308824655
705295770.0 -0.0155500458 0.3022302141 0.0249940653 -0.4276702453 0.024698932 -0.4275731781 -0.0195260502 0.3093696094
710295740.0 -0.0126568822 0.3024586268 0.0203107374 -0.4278896292 0.0200441069 -0.4282082771 -0.0161250224 0.3096973294
715295710.0 -0.0091051736 0.3029198789 0.0158732134 -0.427858472 0.0154998543 -0.4281835002 -0.0126949924 0.3097230243
720295680.0 -0.0057748964 0.3031698932 0.0109143511 -0.4279395535 0.010887997 -0.4282073415 -0.0093354703 0.3097222145
725295650.0 -0.0032375771 0.303897484 0.0068033118 -0.4278163181 0.0060696892 -0.4283587568 -0.0066943407 0.31091064
730295620.0 -0.0004149569 0.3041187663 0.0018788994 -0.4277848153 0.0016524604 -0.427660923 -0.0032374008 0.3111941269
735295590.0 0.0030812965 0.3043340252 -0.0027997078 -0.4280041704 -0.0029310807 -0.4279158596 0.0001255481 0.3108014066
740295560.0 0.005662409 0.304230094 -0.0071607613 -0.4279171636 -0.0072683982 -0.4279632621 0.0033540166 0.3109927166
745295530.0 0.0090310967 0.3044675084 -0.0116921481 -0.4270823843 -0.0112747859 -0.4279789578 0.0060048494 0.311057843
750295500.0 0.0118994872 0.3050047538 -0.0161504976 -0.4275753531 -0.0167442718 -0.427480695 0.009582044 0.311056415
755295470.0 0.0151082875 0.3050714334 -0.0209929086 -0.4276441389 -0.0213608477 -0.4277138636 0.0129998194 0.3116747868
760295440.0 0.0180325452 0.3052841387 -0.0260287341 -0.4270712379 -0.0258463342 -0.4267284347 0.0163733106 0.3108481785
765295410.0 0.0214478665 0.3047619257 -0.0305055906 -0.4265878384 -0.0304392955 -0.4269270533 0.0195837569 0.3112541293
770295380.0 0.024340615 0.3049438709 -0.0347316412 -0.4256515159 -0.0347711239 -0.4266865247 0.0225449746 0.3110010576
775295350.0 0.0273522289 0.3047444259 -0.0394690053 -0.4260308783 -0.0394595403 -0.4258983783 0.0260774496 0.3111887804
780295320.0 0.0307031807 0.3049049611 -0.0439115126 -0.4249361798 -0.0441521363 -0.4252773442 0.0295009533 0.3108355248
785295290.0 0.0336332141 0.3048237941 -0.0484092618 -0.4250226044 -0.0485105695 -0.4250878633 0.0321973026 0.3109093289
790295260.0 0.0365093747 0.3044287947 -0.0531094961 -0.4240894052 -0.0530818136 -0.4249124826 0.0354036995 0.3111583682
795295230.0 0.0397913967 0.3042817501 -0.0574560643 -0.4239446602 -0.0578615826 -0.423669245 0.0387081708 0.3100770779
800295200.0 0.0424946986 0.304522274 -0.0616324526 -0.4227780073 -0.0621536369 -0.4231265529 0.0420294907 0.3099156005
805295170.0 0.0456121664 0.3039791029 -0.0670661998 -0.4220609094 -0.0669594555 -0.4225376799 0.0458271076 0.3095049638
810295140.0 0.0487507947 0.3042754753 -0.0712285973 -0.4216052515 -0.0715457704 -0.4217207913 0.0488218709 0.3096486296
815295110.0 0.0514946238 0.3036640467 -0.0756770384 -0.4207851788 -0.07571901 -0.4209350477 0.0516784536 0.309249752
820295080.0 0.0548021001 0.3033360829 -0.0797926935 -0.4200106221 -0.0801133986 -0.4203046208 0.0545545814 0.3089505808
825295050.0 0.0577220453 0.3027990971 -0.0848673453 -0.419119967 -0.0846763155 -0.4190403851 0.0585339028 0.3086149149
830295020.0 0.0607843682 0.3023018123 -0.0892422504 -0.4180378512 -0.0893430463 -0.4182095295 0.0616739816 0.3074853963
