!Created with skrf (http://scikit-rf.org).
# Hz S RI R 50.0 
!freq ReS11 ImS11 ReS21 ImS21 ReS12 ImS12 ReS22 ImS22
300000.0 -0.2361770957 -0.1120335842 0.4661170804 0.075514852 0.4648926523 0.0769198038 -0.2339711882 -0.1241588951
5299970.0 -0.2449080697 0.0056869691 0.4736005505 0.0056774538 0.4738991492 0.0059758585 -0.2439861999 0.0054105849
10299940.0 -0.2416189909 0.0185812757 0.4761700876 0.0070181226 0.4757941965 0.0072733188 -0.2403092076 0.0181316698
15299910.0 -0.2367123261 0.0286389988 0.4794319709 0.0082369946 0.479514564 0.008403534 -0.2360862775 0.0272770385
20299880.0 -0.2315005208 0.0363779629 0.4837173615 0.0083244661 0.4843489117 0.008439724 -0.2312421564 0.0353402555
25299850.0 -0.2257869638 0.0429472828 0.4896777501 0.0077765227 0.4898069372 0.0073218358 -0.2261456998 0.041902393
30299820.0 -0.2202136685 0.0478923822 0.4949791975 0.0056088547 0.4950137951 0.0051906674 -0.2206436248 0.0468507929
35299790.0 -0.2144502011 0.0516863563 0.5002720993 0.0023834626 0.5005782119 0.002067011 -0.215748971 0.0516075738
40299760.0 -0.2091217601 0.0548408176 0.5053664725 -0.0018158629 0.5057188723 -0.0015891109 -0.2107775405 0.0547454006
45299730.0 -0.2041795764 0.0574113248 0.5102238569 -0.0062084991 0.5107514769 -0.0063839822 -0.2059310097 0.0575316192
50299700.0 -0.1990075247 0.0592186573 0.5144059238 -0.0120744163 0.5145731668 -0.0122191078 -0.2011058054 0.0600590381
55299670.0 -0.1949633062 0.0606749736 0.5182707242 -0.017636782 0.5182135538 -0.0176546196 -0.1973913302 0.0617881862
60299640.0 -0.190920715 0.0617544308 0.5218785232 -0.0239260748 0.521899694 -0.0239087409 -0.193456522 0.063128075
65299610.0 -0.1872435878 0.0627353852 0.5251464663 -0.0301343239 0.5247478926 -0.0306366599 -0.1897426879 0.0646465001
70299580.0 -0.1838070423 0.0631349842 0.5266537378 -0.0367621887 0.5273741344 -0.0370673092 -0.1871946765 0.0658898294
75299550.0 -0.1809396217 0.0639120237 0.5292277596 -0.0441987802 0.5291195452 -0.0440543893 -0.1842934085 0.0670788881
80299520.0 -0.1783826719 0.0643754788 0.5309388738 -0.0506792282 0.5310450019 -0.0507487204 -0.181818228 0.0681687061
85299490.0 -0.1755762827 0.0649961479 0.532287277 -0.0579242885 0.5326759604 -0.0576263192 -0.1793569612 0.0687133866
90299460.0 -0.1735529774 0.065726433 0.5332627118 -0.0649112053 0.5330866304 -0.0646823844 -0.1766869918 0.0698349982
95299430.0 -0.1714341618 0.066133274 0.5344515358 -0.0719194716 0.5346877035 -0.0717883508 -0.1748313031 0.070484547
100299400.0 -0.1693442273 0.0660507069 0.5345461738 -0.0780549679 0.5345370785 -0.0782568881 -0.1730412578 0.0715581034
105299370.0 -0.1675639257 0.0666246543 0.5347980639 -0.0850376736 0.5353855917 -0.0853240524 -0.1709980929 0.0721754632
110299340.0 -0.1657256886 0.0669033256 0.534905045 -0.0917697968 0.5352936877 -0.092091271 -0.1698780613 0.0729339469
115299310.0 -0.1644961559 0.0675703212 0.5351641793 -0.0987743159 0.5352301507 -0.0988543363 -0.1683251635 0.0743993391
120299280.0 -0.1632745981 0.0682471235 0.5351429683 -0.1062461139 0.5348407549 -0.1058698996 -0.1667488176 0.0748498918
125299250.0 -0.1619045488 0.0685898944 0.5347553372 -0.1125990433 0.5344733487 -0.1126498975 -0.1652850612 0.0761399236
130299220.0 -0.1606885308 0.069246807 0.5341442694 -0.1192422739 0.5339838807 -0.1197771996 -0.1640685392 0.0767475803
135299190.0 -0.1596334358 0.0702372314 0.5336541471 -0.1259063968 0.5339061037 -0.1261775593 -0.1628202997 0.0777838513
140299160.0 -0.1587198452 0.0709302143 0.532851145 -0.1332822521 0.5328160854 -0.1326128674 -0.1621891508 0.078622481
145299130.0 -0.1580419141 0.0718239576 0.531776828 -0.1391623906 0.5319235472 -0.1392851646 -0.1609020156 0.0798130353
150299100.0 -0.1566757042 0.0725225586 0.5305006731 -0.1459171561 0.5304085706 -0.1458604816 -0.1600133473 0.0811686917
155299070.0 -0.1556346494 0.0733487219 0.5293109963 -0.1521811405 0.529239831 -0.1521609741 -0.1587984378 0.0819607924
160299040.0 -0.1549432686 0.0747434461 0.52811266 -0.1590574456 0.5278194055 -0.1591537804 -0.1579857509 0.0835762061
165299010.0 -0.1540186038 0.0753788843 0.5265829859 -0.1651025604 0.5263742396 -0.1652063716 -0.1568295474 0.0842019546
170298980.0 -0.1533070315 0.0762659272 0.5246082188 -0.1714353104 0.5252185433 -0.1715056183 -0.1563033556 0.0858197963
175298950.0 -0.1522829563 0.0774606571 0.523303615 -0.1776424011 0.5233860351 -0.178201637 -0.1549531705 0.0870375499
180298920.0 -0.1515250547 0.0786342762 0.5213622874 -0.1844699675 0.5217533322 -0.1842747667 -0.1538427313 0.0884325763
185298890.0 -0.1507605126 0.0794062817 0.5201368203 -0.1901050892 0.5196901433 -0.1904045589 -0.1529925979 0.0894011061
190298860.0 -0.1498779916 0.0807728259 0.517708761 -0.1962559189 0.518169106 -0.1964496163 -0.1523638016 0.0910131644
195298830.0 -0.1492500379 0.0820828222 0.5163304573 -0.2025891414 0.5159731143 -0.202692129 -0.1514632259 0.0921195185
200298800.0 -0.1482606843 0.0829102597 0.5140188021 -0.2091700182 0.5136206209 -0.2088778234 -0.1500671233 0.0936685355
205298770.0 -0.1478127452 0.0839065202 0.5113446997 -0.2148035655 0.511849692 -0.2148979382 -0.1494380226 0.0948092207
210298740.0 -0.1467787779 0.0855708894 0.5095269843 -0.2212789147 0.5094163135 -0.2212542958 -0.1488906759 0.0961222688
215298710.0 -0.1463368291 0.0869887994 0.5067410383 -0.2265204281 0.5070052215 -0.2269947614 -0.1474088945 0.0977130836
220298680.0 -0.1452181552 0.0879585136 0.5041728107 -0.2327603061 0.5043060477 -0.232741418 -0.1464818565 0.0988677692
225298650.0 -0.144484771 0.0891648526 0.5021406857 -0.2384977983 0.5020971382 -0.2380398355 -0.145735534 0.1002654716
230298620.0 -0.143692975 0.0904790469 0.4998983938 -0.2446494656 0.4996223893 -0.2442475227 -0.1447673983 0.1013021224
235298590.0 -0.1431662865 0.0920467512 0.497120048 -0.2508411811 0.4973666288 -0.2502515391 -0.1435175328 0.1033964098
240298560.0 -0.1421922084 0.0931354285 0.494357916 -0.255933971 0.494255226 -0.2558580611 -0.1426193969 0.1043124124
245298530.0 -0.1415448659 0.0940001084 0.4912909661 -0.2615855058 0.4916251039 -0.2618475409 -0.141458481 0.1060590581
250298500.0 -0.1409947275 0.0953902742 0.4889993837 -0.2672995985 0.4885797251 -0.2671503963 -0.1404340999 0.1078047922
255298470.0 -0.1398645455 0.0970763599 0.4859429053 -0.2726026857 0.486397653 -0.2731268099 -0.139644008 0.1092581675
260298440.0 -0.1391047339 0.0980855954 0.4828787858 -0.277827359 0.4829830269 -0.2781613773 -0.1385211928 0.1101122031
265298410.0 -0.138646359 0.0996504457 0.4800668583 -0.2839873032 0.4797281514 -0.2841705387 -0.1370373777 0.1117924243
270298380.0 -0.1377516465 0.1008892471 0.476598763 -0.2890677639 0.4771227949 -0.2892753876 -0.1359108961 0.1134633944
275298350.0 -0.1367405248 0.102345112 0.4732266299 -0.2942319075 0.4732914219 -0.2945228457 -0.1348265367 0.1148077313
280298320.0 -0.1361874157 0.1037424257 0.4705078616 -0.2998634419 0.4708494008 -0.3002225316 -0.1338322853 0.1163187983
285298290.0 -0.1352208603 0.1051442931 0.4671913858 -0.3051727234 0.4675936473 -0.3051821948 -0.132563138 0.1179079788
290298260.0 -0.1341949243 0.10632885 0.4641494363 -0.3105002251 0.4640478473 -0.3109239879 -0.1310062252 0.1191482345
295298230.0 -0.1332440022 0.1075323985 0.4606387303 -0.3163804329 0.4610234386 -0.3162519213 -0.1298777601 0.12053014
300298200.0 -0.1324253921 0.1090840445 0.4575109049 -0.3210009579 0.4569957043 -0.320973625 -0.12878438 0.1221317678
305298170.0 -0.1316418855 0.1099911585 0.4542579985 -0.3264566881 0.4543383413 -0.3265761854 -0.1274531656 0.1230631849
310298140.0 -0.130459515 0.111306009 0.4502380967 -0.3312737445 0.4502651816 -0.3313320038 -0.1260527353 0.1243669736
315298110.0 -0.1295225049 0.1121696583 0.4467273271 -0.3369596292 0.4466913467 -0.3368529453 -0.1248835156 0.1257383856
320298080.0 -0.1286855875 0.1135067297 0.4422507117 -0.3418701767 0.443374675 -0.3422459565 -0.1236772329 0.1269838614
325298050.0 -0.1281578279 0.1143443122 0.4388686698 -0.3467162069 0.4393120114 -0.3470064597 -0.1219782506 0.1284169769
330298020.0 -0.1276008016 0.1162540711 0.4351670462 -0.3520440052 0.4353185804 -0.3522778506 -0.1214422237 0.1293473168
335297990.0 -0.1265054304 0.1172008192 0.4311425349 -0.3567002636 0.4311817422 -0.3565710417 -0.1201011817 0.13070972
340297960.0 -0.1257027863 0.1185589043 0.4266840157 -0.3618995025 0.4266949481 -0.3615552684 -0.118907066 0.1328324808
345297930.0 -0.1248996311 0.1199044671 0.4228861394 -0.3666151925 0.4228277514 -0.3664299408 -0.1175021176 0.1336952909
350297900.0 -0.1241899344 0.1213248967 0.4189370792 -0.3708819569 0.4191750177 -0.3708432688 -0.1160751214 0.1349680914
355297870.0 -0.1230467715 0.1222612556 0.4147751402 -0.3749444084 0.4146584959 -0.3751648257 -0.1145434208 0.1364822864
360297840.0 -0.1220283708 0.1238460317 0.4104154554 -0.3803121146 0.4105110595 -0.3805178174 -0.1131740796 0.1381550513
365297810.0 -0.1209454545 0.125110382 0.4058698046 -0.3846129424 0.4062492344 -0.3846088205 -0.1124347875 0.1390973195
370297780.0 -0.1201419034 0.1263499384 0.4017009482 -0.388910361 0.4022058552 -0.3890133086 -0.1106251189 0.1407860009
375297750.0 -0.1189137155 0.1277698372 0.3978711501 -0.3935250649 0.3978407814 -0.3935437346 -0.1090910585 0.1420733825
380297720.0 -0.1180836326 0.1290409557 0.3937876101 -0.3977851394 0.3934003924 -0.3978364287 -0.1076354277 0.1434397903
385297690.0 -0.1169665943 0.1300030515 0.3891218286 -0.4018110823 0.3891895569 -0.4023411066 -0.1059282803 0.1450219711
390297660.0 -0.1157223222 0.1312446569 0.3846277034 -0.4060569302 0.3845974093 -0.4064492139 -0.104067784 0.1461079202
395297630.0 -0.1141194533 0.1327296393 0.3801299495 -0.4101732388 0.3798961483 -0.4102080385 -0.1027028034 0.1473247169
400297600.0 -0.113577282 0.1339094495 0.3757123587 -0.4145558628 0.3760292194 -0.4147570071 -0.1010939412 0.1487302625
405297570.0 -0.1122847182 0.1348552528 0.3712612434 -0.4184590226 0.3709756584 -0.4186801593 -0.0994455237 0.1502778526
410297540.0 -0.1110263565 0.1361471876 0.3666701863 -0.4227044818 0.3667421346 -0.4228058902 -0.0976657115 0.1512949793
415297510.0 -0.1098742604 0.137434492 0.3620011452 -0.4263632082 0.3624101243 -0.4268387078 -0.0962546471 0.1525733061
420297480.0 -0.1086538153 0.1382022125 0.3570970476 -0.4302644626 0.3574798817 -0.4310478304 -0.0942972583 0.1541972705
425297450.0 -0.1071292793 0.1397088286 0.3525289118 -0.4346649134 0.3521714552 -0.434441041 -0.0927292742 0.1547823115
430297420.0 -0.1060895708 0.1406130746 0.3484481218 -0.4382924012 0.3480791949 -0.4378067361 -0.0909132508 0.1560652303
435297390.0 -0.1046535191 0.1415478187 0.3427625462 -0.4424440218 0.3430718167 -0.4423830974 -0.0897724679 0.1577274258
440297360.0 -0.1032274933 0.1425829704 0.3374698887 -0.4458597914 0.3378081983 -0.4460661187 -0.0877429229 0.1584762112
445297330.0 -0.1018990865 0.1435425901 0.3330841863 -0.4490070326 0.3331558587 -0.4494370759 -0.0858271952 0.159686606
450297300.0 -0.1002330917 0.1449817075 0.3282573053 -0.4531444307 0.3283947192 -0.4528912318 -0.0841186681 0.160660453
455297270.0 -0.0994768711 0.1458441757 0.3235728876 -0.4564611715 0.3233533149 -0.4566467753 -0.0821866563 0.1616059146
460297240.0 -0.0977495162 0.1469788855 0.3186972139 -0.460973219 0.3181264201 -0.4603199094 -0.0804994118 0.1624524245
465297210.0 -0.0963048301 0.1479730441 0.3130074083 -0.4637029141 0.3125481721 -0.4641958255 -0.0783530308 0.1643354268
470297180.0 -0.0952339152 0.1490301642 0.3081115893 -0.4668850826 0.308294521 -0.4670490128 -0.0767732368 0.1648604993
475297150.0 -0.0938044289 0.1499762898 0.3029803221 -0.4705256238 0.3027942534 -0.4703607909 -0.0749596676 0.1657523864
480297120.0 -0.0917742581 0.1515957299 0.2979224129 -0.4736525096 0.2981998084 -0.4734176012 -0.0732831432 0.1667948795
485297090.0 -0.0904654262 0.1518292995 0.2925691108 -0.4770486373 0.2923454364 -0.4768396696 -0.0714066117 0.1679909556
490297060.0 -0.0885810943 0.1530314845 0.2871077718 -0.4803382184 0.2875138214 -0.4803968584 -0.0694813383 0.1684703796
495297030.0 -0.0877980727 0.1538449794 0.2825877963 -0.4832207335 0.2822838693 -0.4833560961 -0.0674311313 0.1693460026
500297000.0 -0.0860573916 0.1550251591 0.2767746588 -0.4861165581 0.2769270938 -0.4865141866 -0.0658728459 0.170510124
505296970.0 -0.0838101625 0.1559614877 0.2715589887 -0.4892734177 0.2716288388 -0.4886911105 -0.0637395615 0.1708673306
510296940.0 -0.0826824337 0.1566681952 0.2664463526 -0.4925559001 0.2666069106 -0.4926516872 -0.0613788204 0.172166885
515296910.0 -0.0812715856 0.1578484534 0.2606962003 -0.4948485535 0.2600996516 -0.4952760975 -0.0597710745 0.1727566314
520296880.0 -0.0793339542 0.1587928204 0.2553196698 -0.4976918773 0.2550384776 -0.4976550548 -0.057572609 0.1739185452
525296850.0 -0.0778932926 0.1594585193 0.2494740176 -0.5000985372 0.249642982 -0.5002419023 -0.0554521671 0.1745669634
530296820.0 -0.0767880471 0.1602616512 0.2443034675 -0.5032310951 0.2441109192 -0.5030772474 -0.0536020453 0.1750023259
535296790.0 -0.0741917834 0.1614299393 0.2388577178 -0.5057947124 0.2387685281 -0.5062292398 -0.0513755354 0.1760599091
540296760.0 -0.0725866581 0.1625286542 0.2328629336 -0.5084647598 0.2332287367 -0.5080399172 -0.0497951804 0.1763090725
545296730.0 -0.0718048882 0.1632485871 0.2280209967 -0.510437444 0.2271124549 -0.5106516918 -0.0475920812 0.177296234
550296700.0 -0.0694051339 0.1640691497 0.2219031669 -0.5133430692 0.2217264944 -0.5136100496 -0.0453725244 0.1782011423
555296670.0 -0.0679491626 0.1651074005 0.2167415558 -0.515837837 0.2165683534 -0.5156460047 -0.043671702 0.1782314276
560296640.0 -0.0656784449 0.1655666166 0.2106059906 -0.517748614 0.2112132636 -0.5177586384 -0.0417748673 0.1792955529
565296610.0 -0.0647832773 0.1663141244 0.2054339035 -0.5200649427 0.2053274581 -0.5196612202 -0.0394899202 0.1796897786
570296580.0 -0.0630510041 0.1675387051 0.1996383414 -0.5219612395 0.1997313225 -0.5224276475 -0.0377941192 0.1801419977
575296550.0 -0.0610959711 0.1680390282 0.194098018 -0.5241888052 0.1936799154 -0.524643548 -0.0355335169 0.1808164662
580296520.0 -0.0594618709 0.1690116345 0.1886149578 -0.5261761005 0.1879702037 -0.5265769606 -0.0337291821 0.1812863967
585296490.0 -0.0576535656 0.169746054 0.1830976367 -0.5282490076 0.1822996083 -0.5282229073 -0.0310362962 0.1819712139
590296460.0 -0.055262127 0.1706839173 0.1769920884 -0.5302567264 0.176641319 -0.5307429954 -0.0296179992 0.1825006558
595296430.0 -0.0539169492 0.1714642236 0.1704011117 -0.531992958 0.1705672147 -0.5322042571 -0.0272946567 0.1826133021
600296400.0 -0.0522056759 0.1719491895 0.1646667327 -0.5338843177 0.164721893 -0.5340666015 -0.0253249573 0.1828603895
605296370.0 -0.0508664517 0.1728140236 0.1598539822 -0.5357316872 0.158994111 -0.535831367 -0.0233596161 0.1837979434
610296340.0 -0.0485823433 0.1738277621 0.1534212749 -0.5372147379 0.1536001928 -0.5372110455 -0.0215391363 0.183891632
615296310.0 -0.0467536713 0.1743614938 0.1476527374 -0.539074254 0.1472072713 -0.538896375 -0.0188567341 0.184405364
620296280.0 -0.0453897141 0.1753828598 0.141522352 -0.5408033359 0.1416169428 -0.54042757 -0.0175398975 0.1848787739
625296250.0 -0.0436576118 0.1755109326 0.1357891394 -0.5421347207 0.1358469306 -0.5421348318 -0.0154171529 0.1851390806
630296220.0 -0.0416756137 0.1764775811 0.1294211303 -0.5434278688 0.1298496208 -0.5433861717 -0.0130072838 0.1855702465
635296190.0 -0.0404073698 0.177226737 0.1244139705 -0.5444456456 0.1236899966 -0.5444501459 -0.010914189 0.1856229703
640296160.0 -0.0385496895 0.1778094784 0.118014792 -0.5460680611 0.1180963745 -0.5461578016 -0.0093068258 0.1859514358
645296130.0 -0.036405442 0.1787703595 0.1122553843 -0.5468644802 0.112183503 -0.547256215 -0.007231733 0.1859374526
650296100.0 -0.0348549848 0.1788092121 0.1063674169 -0.5479636582 0.1060156752 -0.5485455624 -0.00445983 0.1860977197
655296070.0 -0.0328476488 0.1798465672 0.1000951198 -0.5497161766 0.100191637 -0.5492756221 -0.0028718578 0.1869075124
660296040.0 -0.0311702826 0.1802775915 0.094697851 -0.5505028591 0.0943014603 -0.5506706437 -0.0008488696 0.186414474
665296010.0 -0.0293893453 0.1807470558 0.0878431186 -0.5508192516 0.088115099 -0.5511766382 0.0012816141 0.1867941015
670295980.0 -0.0276807219 0.1815794601 0.0821258013 -0.5522334687 0.0824148932 -0.5516975522 0.0032367708 0.186848682
675295950.0 -0.0258255596 0.1818969935 0.0763663435 -0.5529482136 0.0763479451 -0.5530086812 0.0054336305 0.186997297
680295920.0 -0.0242771477 0.1825746849 0.0706593631 -0.5533938071 0.0704606302 -0.5535466951 0.0077906437 0.1868615344
685295890.0 -0.0220998825 0.1831238448 0.0642753016 -0.5544564428 0.0644355235 -0.5545873834 0.0098892723 0.1872558917
690295860.0 -0.0208883443 0.1836016894 0.058737249 -0.554910082 0.0583337576 -0.5550079717 0.0117880643 0.1869025326
695295830.0 -0.0186166365 0.1838459776 0.0526289977 -0.5555555687 0.0524479654 -0.5555027589 0.0138388629 0.1874913352
700295800.0 -0.0168877637 0.1844627099 0.0469233063 -0.5560262608 0.0464834953 -0.5560757748 0.0157914034 0.1873460686
705295770.0 -0.0154912243 0.1851291383 0.0402576172 -0.5569546829 0.0402567539 -0.556225166 0.018015244 0.1873081555
710295740.0 -0.0136252147 0.1852407554 0.0347011895 -0.5568404205 0.0342515186 -0.5572407372 0.0200117332 0.1873045058
715295710.0 -0.0115967414 0.1857925122 0.028374964 -0.557439997 0.0282246689 -0.5576930838 0.0218276263 0.1871480936
720295680.0 -0.0097954648 0.1864398283 0.0226886612 -0.5573018288 0.0223120196 -0.5577572639 0.0241302762 0.1867002403
725295650.0 -0.008465832 0.1866929045 0.0166717631 -0.557687895 0.0161754392 -0.5577412551 0.0260201746 0.1872977509
730295620.0 -0.0068947556 0.1869779459 0.0104775789 -0.5576203869 0.0103202109 -0.5574510514 0.0281651873 0.1871950822
735295590.0 -0.0048484347 0.1872158143 0.0046584209 -0.558171357 0.0042718918 -0.5580252098 0.0299971028 0.1867982605
740295560.0 -0.0034026203 0.1873296323 -0.0010266368 -0.5582129581 -0.0010215359 -0.5582347373 0.031989384 0.1866852489
745295530.0 -0.0018067315 0.1878012115 -0.0072191516 -0.5575456347 -0.0067785545 -0.5577833725 0.0339274158 0.1865641393
750295500.0 -1.1304e-06 0.1880187548 -0.0130124662 -0.5575897878 -0.0135028544 -0.5575211298 0.0362847133 0.1862201419
755295470.0 0.0020228315 0.1882095599 -0.0191495816 -0.5573881052 -0.0195187306 -0.5577909518 0.0381966085 0.1865208187
760295440.0 0.0033790802 0.1888626792 -0.0259218489 -0.5572813009 -0.025336888 -0.556895372 0.0403967634 0.1849998438
765295410.0 0.0056012779 0.1885072661 -0.0313885275 -0.5566163185 -0.0311282529 -0.5569327866 0.0424338789 0.1852870313
770295380.0 0.0070063523 0.1890323079 -0.0368715119 -0.5558985114 -0.0377020259 -0.5567251397 0.0441283423 0.1850890415
775295350.0 0.0087731225 0.1891249967 -0.0428681846 -0.5562434631 -0.0432216869 -0.5557795224 0.0464534415 0.1849166147
780295320.0 0.0107437909 0.1894026203 -0.0491191363 -0.5551912481 -0.0493231343 -0.5555424458 0.0486140584 0.184474368
785295290.0 0.0123357367 0.1890549725 -0.0548021292 -0.5547459734 -0.055141698 -0.5550843012 0.0499108431 0.1843300686
790295260.0 0.0141988733 0.1891785505 -0.0610430073 -0.5538046548 -0.0608962812 -0.5545241391 0.0520955049 0.1839558733
795295230.0 0.0157907631 0.189291067 -0.0670486582 -0.5535543239 -0.067028809 -0.5538510912 0.0543514586 0.1825897977
800295200.0 0.0173792623 0.1899643562 -0.0725237893 -0.5524985476 -0.0731070802 -0.5529340118 0.0562744089 0.1828996238
805295170.0 0.0189786635 0.1895271449 -0.0787715943 -0.5518895055 -0.078724885 -0.5518600944 0.0588685831 0.1822533033
810295140.0 0.0210976015 0.1898865552 -0.0846598564 -0.5505621806 -0.0847526397 -0.5508793469 0.0604384351 0.1818120257
815295110.0 0.0223377046 0.189790255 -0.0902924869 -0.5502241983 -0.0905453833 -0.5504559914 0.0623236795 0.1813642989
820295080.0 0.0242319458 0.189813178 -0.096370387 -0.5489454231 -0.0961622863 -0.5492790755 0.0636614876 0.1811433283
825295050.0 0.0259488209 0.1894161038 -0.1020000466 -0.5479606682 -0.1022527366 -0.5481363729 0.0666296437 0.1806507767
830295020.0 0.0276752182 0.1895415839 -0.1081066447 -0.5472004395 -0.1080747132 -0.54698687 0.06837136 0.1795565467
