!Created with skrf (http://scikit-rf.org).
# Hz S RI R 50.0 
!freq ReS11 ImS11 ReS21 ImS21 ReS12 ImS12 ReS22 ImS22
300000.0 -0.3234475623 -0.0802122038 0.3765471763 0.0428546198 0.3728922832 0.0399336473 -0.3193655509 -0.0956376659
5299970.0 -0.3265283153 0.0045368392 0.378272287 0.0024399319 0.3784209908 0.0023448632 -0.3239406894 0.0048868447
10299940.0 -0.3240042501 0.0135628451 0.3791885436 0.0019357724 0.3797235338 0.0021232802 -0.3216588575 0.0160259887
15299910.0 -0.3214794137 0.0204879697 0.3817665331 0.0022385418 0.3819624758 0.0019730523 -0.3182598301 0.0237610424
20299880.0 -0.3186346936 0.0262100763 0.3848700298 0.001865745 0.3846511963 0.0016543362 -0.3144178091 0.0302144072
25299850.0 -0.3158221354 0.0315074489 0.3881492573 0.0002939256 0.3879596174 -0.0001372954 -0.3106319833 0.0361577576
30299820.0 -0.3129208034 0.0358804237 0.3912930651 -0.002163376 0.3913569052 -0.0025774804 -0.3068383814 0.0409937349
35299790.0 -0.3100015747 0.0399471171 0.3947778621 -0.0057650694 0.3949357228 -0.0052724984 -0.3034604002 0.0450825291
40299760.0 -0.3071745473 0.0437328638 0.3976705589 -0.0091226083 0.3981541707 -0.0090575633 -0.3001398138 0.0484924537
45299730.0 -0.304578526 0.0466341051 0.4007971524 -0.0128719594 0.4008600542 -0.0128781498 -0.2972768735 0.0517103168
50299700.0 -0.3023396428 0.0493065057 0.4036452379 -0.0171973409 0.4034916863 -0.0170065904 -0.2939875557 0.0544370852
55299670.0 -0.300315869 0.0525819886 0.4056891037 -0.0229782907 0.405420317 -0.0219671781 -0.2917900072 0.0572947086
60299640.0 -0.2981167773 0.0550693685 0.407522935 -0.02708184 0.4075028555 -0.0270396723 -0.2890239335 0.0594718671
65299610.0 -0.2963993871 0.0575159217 0.4089686376 -0.0320438458 0.4093470583 -0.0321061158 -0.2871454677 0.0618959302
70299580.0 -0.2948130396 0.0599975797 0.4106369981 -0.0369938632 0.4103192489 -0.0370054112 -0.2850628604 0.0640956723
75299550.0 -0.2929133942 0.0624931437 0.4111488185 -0.0424101163 0.4113309278 -0.04227167 -0.2830174553 0.065912716
80299520.0 -0.2915010099 0.0649651713 0.4125749098 -0.0475478721 0.4122566782 -0.0475912434 -0.2815987281 0.0683083497
85299490.0 -0.290176531 0.0670474968 0.4126967304 -0.0526189873 0.4130712668 -0.0524387896 -0.280183332 0.07024305
90299460.0 -0.2887841219 0.0695354417 0.4129653379 -0.0579688785 0.413525942 -0.0581766381 -0.2782785967 0.0721257687
95299430.0 -0.2873170258 0.0714816134 0.413557619 -0.0633842504 0.4135164318 -0.0636435711 -0.2768118772 0.0745054063
100299400.0 -0.2863795143 0.074358021 0.4132333023 -0.0685495652 0.4134517947 -0.0681198044 -0.2753226011 0.0760378047
105299370.0 -0.2849417228 0.0764527158 0.4132328669 -0.0738054916 0.4134965902 -0.0736862258 -0.2737161653 0.0780616394
110299340.0 -0.2842416522 0.0789813276 0.413579725 -0.0787673708 0.4132268161 -0.0785000468 -0.2729296831 0.0801437257
115299310.0 -0.2828281012 0.0810472765 0.412614976 -0.083957634 0.4128243436 -0.0840055986 -0.271647991 0.0822890653
120299280.0 -0.2818510104 0.0830893936 0.4121419947 -0.0890412377 0.4122220358 -0.0890840311 -0.2704055254 0.0844952099
125299250.0 -0.2810366299 0.0853882079 0.4118967184 -0.0939744446 0.4119367461 -0.0940878752 -0.2695321116 0.0864341671
130299220.0 -0.2802882975 0.0883455976 0.4109277308 -0.0992293976 0.4111019912 -0.0992491907 -0.2685979989 0.088703541
135299190.0 -0.2793132639 0.0908908528 0.4106592956 -0.1042044773 0.410143461 -0.1041994883 -0.2671808686 0.0908698303
140299160.0 -0.2786520743 0.0931452356 0.4098917847 -0.1091949482 0.4096980743 -0.1092679609 -0.2660902925 0.0934408914
145299130.0 -0.2773767988 0.0958985059 0.4088139824 -0.1141964331 0.4088947856 -0.1139244559 -0.2655585291 0.0957436225
150299100.0 -0.276327633 0.0982859217 0.4075454237 -0.1189622579 0.4074713808 -0.118635626 -0.2643465253 0.0984952456
155299070.0 -0.2755746565 0.1008388394 0.4069035293 -0.1240286481 0.4065814704 -0.1238392758 -0.2631238716 0.1006007088
160299040.0 -0.2746209506 0.1034755376 0.4052722373 -0.1289163467 0.4053810339 -0.1288006146 -0.2627144757 0.1030591402
165299010.0 -0.2736221953 0.1060309145 0.4042448251 -0.133952725 0.4040308008 -0.1338723111 -0.2612211602 0.1054130695
170298980.0 -0.2727258943 0.1087094814 0.4026266627 -0.13858898 0.4026946824 -0.1386325084 -0.2600790809 0.1082201935
175298950.0 -0.271892324 0.1110745261 0.4019655006 -0.1430468276 0.4010976293 -0.1432589491 -0.2594977665 0.1107716451
180298920.0 -0.2709017976 0.1138826981 0.3999715899 -0.1480110226 0.3997143821 -0.1477785889 -0.258284505 0.1134710937
185298890.0 -0.2693484456 0.1165833022 0.3983782904 -0.1526875149 0.3979916228 -0.1525205183 -0.2568397008 0.1159766487
190298860.0 -0.2686987835 0.1194849771 0.3967155462 -0.1575950218 0.3972862422 -0.1575009654 -0.2562441557 0.1185042512
195298830.0 -0.2679445707 0.1218460919 0.3951863521 -0.1618280019 0.3949643721 -0.1621804379 -0.2553031342 0.1211503842
200298800.0 -0.2661762176 0.1245495026 0.3932234304 -0.1667398808 0.3936099642 -0.1669771986 -0.2543961213 0.1235853806
205298770.0 -0.2655094865 0.1273455384 0.3914925841 -0.1715258258 0.3915930021 -0.1712320464 -0.2532537309 0.1256409967
210298740.0 -0.2642575465 0.1300364731 0.3894657916 -0.1757621677 0.3895769081 -0.1754437736 -0.2517819623 0.1285485115
215298710.0 -0.2634607256 0.1328640776 0.3881793286 -0.1804449104 0.3877772226 -0.1804343881 -0.2509541179 0.1309590016
220298680.0 -0.2619747083 0.1352394901 0.3855805618 -0.1845938601 0.3856628117 -0.1848223465 -0.2500405983 0.1333336573
225298650.0 -0.2614006732 0.1379489259 0.383948992 -0.1890065666 0.3838202329 -0.1892562089 -0.2490614181 0.1359052718
230298620.0 -0.2596417453 0.1408540719 0.3818641075 -0.1936082657 0.3823776629 -0.1935984871 -0.2476273796 0.1385010754
235298590.0 -0.2582853211 0.143833604 0.3796765893 -0.1980524984 0.3799145134 -0.1975966619 -0.2465008613 0.1412265779
240298560.0 -0.2571309097 0.146435524 0.3776730886 -0.2025172077 0.3776028382 -0.2025366573 -0.2452362378 0.1441777762
245298530.0 -0.2557680581 0.1491914645 0.3757571924 -0.2068075298 0.3752185149 -0.2066316808 -0.2440983516 0.1459342612
250298500.0 -0.2538637659 0.1520783835 0.3723541801 -0.2110832229 0.3726230768 -0.2108934188 -0.2430146351 0.1488210262
255298470.0 -0.2528519972 0.1541158387 0.3702661061 -0.2152232603 0.3706588954 -0.2151883904 -0.2412029323 0.150886303
260298440.0 -0.2519035864 0.1567352253 0.3682628818 -0.2192508295 0.3685706222 -0.2194016193 -0.2393568915 0.1537906837
265298410.0 -0.2496473979 0.1599740387 0.3656987706 -0.2236482092 0.3662591468 -0.2236533523 -0.2386234819 0.1565190653
270298380.0 -0.2485788516 0.1625471223 0.3635212677 -0.2274376861 0.3636751645 -0.2275624243 -0.2367499606 0.158614598
275298350.0 -0.2465982189 0.1653209492 0.3608028915 -0.2320952686 0.3610003168 -0.231737157 -0.235078673 0.1613223925
280298320.0 -0.2449784904 0.1681010137 0.3583354461 -0.2361665168 0.3583652619 -0.2357266925 -0.2332043732 0.1634372837
285298290.0 -0.2433323448 0.1705736553 0.3556670167 -0.2397812714 0.3559016335 -0.2399526837 -0.2317184608 0.1658429278
290298260.0 -0.2417914071 0.1732488808 0.3529496009 -0.2437310481 0.3531309708 -0.2437752849 -0.2302246827 0.1686596838
295298230.0 -0.2401147551 0.1756290055 0.350801586 -0.2478312652 0.3502110142 -0.2476897468 -0.2283919731 0.1708235224
300298200.0 -0.2384744112 0.1783485756 0.3477664997 -0.2517096935 0.3477430246 -0.2520111354 -0.2267982216 0.1734603056
305298170.0 -0.236508884 0.1804790796 0.345078488 -0.2559268322 0.3448708159 -0.2557004187 -0.2242531637 0.1758187088
310298140.0 -0.2349583502 0.1835734779 0.3421493317 -0.2596521232 0.3423939894 -0.2597440988 -0.2231652234 0.1781998015
315298110.0 -0.2331774943 0.1857896988 0.3394835945 -0.2634421404 0.3395147719 -0.2635250049 -0.221470305 0.1805312152
320298080.0 -0.2310440402 0.1882330124 0.3362699292 -0.2676777935 0.3364959533 -0.2676827175 -0.2192293948 0.18318794
325298050.0 -0.2293976533 0.1906465867 0.3334422888 -0.2713928978 0.3331647401 -0.2715013248 -0.2177074068 0.1853538788
330298020.0 -0.2272981249 0.193151911 0.3296033952 -0.2751122181 0.3304039541 -0.2751765816 -0.2161017759 0.1876598848
335297990.0 -0.2255953824 0.195383944 0.3268914732 -0.2789619075 0.3270583484 -0.2787566225 -0.2146972889 0.1903128684
340297960.0 -0.2242275607 0.1985199973 0.3237145585 -0.282132357 0.3235014293 -0.2825174115 -0.2122139207 0.1930522242
345297930.0 -0.2221871217 0.2010602501 0.3204725317 -0.2863165334 0.3203352799 -0.2857483721 -0.2107842601 0.1950097135
350297900.0 -0.220189857 0.2032376178 0.3171071642 -0.2897513748 0.3172124802 -0.2893548532 -0.2089886474 0.1979996746
355297870.0 -0.2180196535 0.2059796434 0.3140552493 -0.2929734788 0.3142391478 -0.2926238643 -0.2070270381 0.2001494142
360297840.0 -0.2161081995 0.2081905901 0.3109938721 -0.2960274487 0.3110913845 -0.2961417565 -0.2047961318 0.2025534513
365297810.0 -0.2141233634 0.2108532003 0.3076142922 -0.2998307701 0.3076007507 -0.2998797996 -0.2027675123 0.2045853694
370297780.0 -0.2117933777 0.2129323091 0.3041617511 -0.3030276799 0.3042806856 -0.3028644871 -0.2010763509 0.207675427
375297750.0 -0.2092802075 0.2158070588 0.3006874821 -0.3064289595 0.3014490137 -0.3066681826 -0.1986249527 0.2094244264
380297720.0 -0.2071051811 0.2181112075 0.297127059 -0.310116573 0.2975923983 -0.309489601 -0.1967114367 0.2118264529
385297690.0 -0.2052361814 0.2202481358 0.2934980457 -0.3128956596 0.2939916998 -0.3130692841 -0.1944335433 0.2143809688
390297660.0 -0.2032490639 0.2226012657 0.2904082012 -0.3162072157 0.2902934527 -0.3161139224 -0.1926000267 0.2164899927
395297630.0 -0.2005523563 0.2252358699 0.2869062124 -0.3196536146 0.2872527701 -0.3196819866 -0.190014094 0.2188145748
400297600.0 -0.1984842424 0.2271268546 0.2829983557 -0.3227626642 0.2836938258 -0.3228022305 -0.1881677216 0.2208187328
405297570.0 -0.1963959004 0.2296215132 0.2799552768 -0.3256096388 0.2799563364 -0.3255487133 -0.1863018041 0.2227201174
410297540.0 -0.1935981197 0.2316251868 0.2762917615 -0.3287119817 0.276360379 -0.3287263822 -0.1837351738 0.2251560757
415297510.0 -0.1912512872 0.2335567595 0.2721868402 -0.332071182 0.2724328914 -0.3320427086 -0.1814114202 0.2271441991
420297480.0 -0.1894668678 0.2360844477 0.2689809898 -0.3349915322 0.268776374 -0.3347254724 -0.1792594382 0.2290024627
425297450.0 -0.1868109331 0.2379596168 0.2653061253 -0.3374865451 0.2653249428 -0.3378050677 -0.1770860542 0.231505909
430297420.0 -0.1842933233 0.2403607875 0.261632843 -0.3400654041 0.2614621766 -0.3400515904 -0.1747588295 0.2330095383
435297390.0 -0.1818565864 0.242601485 0.2572580113 -0.343313195 0.2572801243 -0.3433327908 -0.1720844501 0.2352455765
440297360.0 -0.1793617622 0.2446986449 0.2537975494 -0.3460599682 0.2537977688 -0.3459922099 -0.1699256915 0.2372355303
445297330.0 -0.1767399961 0.2466157011 0.2500954476 -0.348564746 0.2502593218 -0.3483778587 -0.1672827813 0.2384952253
450297300.0 -0.1739209598 0.2482304468 0.2460442263 -0.3514183925 0.2463155181 -0.3516193601 -0.1646663557 0.2404606086
455297270.0 -0.1715646737 0.2504907747 0.2420785297 -0.3542004581 0.2422591343 -0.3540178331 -0.1621889168 0.2421600565
460297240.0 -0.1690092312 0.2523740761 0.2383097118 -0.3564525627 0.2383917259 -0.3567115077 -0.1594535822 0.2443418603
465297210.0 -0.1658824937 0.2543249502 0.2344252593 -0.3592065684 0.2343475586 -0.3594544958 -0.15687966 0.2459322499
470297180.0 -0.1632670276 0.2563148641 0.2300976163 -0.3616618618 0.2301389096 -0.3620800626 -0.1543189974 0.2481108401
475297150.0 -0.1608570174 0.2578486217 0.2261802952 -0.3637037881 0.226495151 -0.3638730223 -0.1514190468 0.2492344629
480297120.0 -0.1582102861 0.2600696046 0.2222335037 -0.3665720908 0.2221190368 -0.3667885938 -0.1487219664 0.2511736771
485297090.0 -0.1555835316 0.2617812792 0.2182603114 -0.3690037204 0.2183844823 -0.3687684514 -0.1461371418 0.2531507779
490297060.0 -0.152733484 0.2635936288 0.2147155825 -0.3713634745 0.2146709265 -0.3714117255 -0.1435054033 0.2549148413
495297030.0 -0.1502354734 0.2652397686 0.2102957889 -0.3737801399 0.2107825285 -0.3734868682 -0.1411580595 0.2565323154
500297000.0 -0.1472504099 0.2671915373 0.2062314262 -0.3755514621 0.2057742355 -0.3757049009 -0.1379888166 0.2587967509
505296970.0 -0.1444625491 0.2685202429 0.2020977559 -0.3779933609 0.2018590041 -0.3781229426 -0.1353504678 0.2599955098
510296940.0 -0.1416962174 0.2702501659 0.1977945637 -0.3802762533 0.197896775 -0.3802825953 -0.1323630251 0.2616963246
515296910.0 -0.1387984826 0.2719050745 0.1934642872 -0.3822720729 0.1935992417 -0.3824468537 -0.1300127136 0.2633305855
520296880.0 -0.1362174293 0.2737037006 0.1898751056 -0.3849181664 0.1895658665 -0.3841642169 -0.1273502448 0.2648630167
525296850.0 -0.1331456281 0.2748048449 0.1850804852 -0.3862254003 0.185661612 -0.3862740179 -0.1242670958 0.2665013513
530296820.0 -0.129815896 0.2766021134 0.180827937 -0.3886038817 0.1808847789 -0.388438761 -0.1216311288 0.2681563155
535296790.0 -0.1278132991 0.2781394622 0.1769752092 -0.3900686397 0.1768303361 -0.3900615849 -0.1191093535 0.2692901579
540296760.0 -0.1246317252 0.2795785618 0.172406763 -0.3921806846 0.1722134714 -0.3922823003 -0.1163287228 0.2710031559
545296730.0 -0.1215867685 0.2813208384 0.1678224835 -0.3941371764 0.1682449232 -0.3940340836 -0.113436258 0.2721094816
550296700.0 -0.1186078551 0.2826461101 0.1637391429 -0.3958280528 0.1639455514 -0.3960084783 -0.1110303064 0.2737435831
555296670.0 -0.1157912027 0.28391703 0.159624923 -0.3977485072 0.1597634607 -0.3975533167 -0.1079809802 0.2753178478
560296640.0 -0.1125461899 0.2855743676 0.1552768342 -0.3995634915 0.1549988418 -0.399563145 -0.1046850463 0.2763357759
565296610.0 -0.109789158 0.2867415785 0.1507053765 -0.4011693722 0.1507147122 -0.400915522 -0.1021641065 0.2775364206
570296580.0 -0.1069988261 0.2881004667 0.1462107584 -0.4028734004 0.1459218777 -0.4025642493 -0.0996209343 0.2790502325
575296550.0 -0.1038591047 0.2892301653 0.1422595161 -0.4039755541 0.1417925692 -0.4040356943 -0.0965959067 0.2804341027
580296520.0 -0.1005610351 0.290642621 0.1376948138 -0.4059306463 0.1372671119 -0.4054159039 -0.0934400362 0.2811226587
585296490.0 -0.0979317836 0.291205456 0.1331865259 -0.4066000702 0.1332127005 -0.406886637 -0.0905540463 0.2820112906
590296460.0 -0.0943614107 0.2928493583 0.1286642893 -0.4082461275 0.1289462297 -0.4080768241 -0.0880260401 0.2831789901
595296430.0 -0.0912932873 0.2935767216 0.1241032185 -0.4097548348 0.1238816684 -0.409722428 -0.0846691025 0.2840394065
600296400.0 -0.0886968999 0.2951988553 0.1197054069 -0.4107255366 0.1197561405 -0.4106869051 -0.082292134 0.2852587258
605296370.0 -0.085635523 0.2960529623 0.1149991291 -0.4122029475 0.1151891459 -0.4121029929 -0.078517882 0.2864111216
610296340.0 -0.0821934293 0.2970595745 0.1106036192 -0.4132965508 0.1109397615 -0.4131329257 -0.0757300122 0.2871727966
615296310.0 -0.078787613 0.2981054352 0.1062591847 -0.4144333944 0.1061508356 -0.4147067165 -0.0725359246 0.2877562253
620296280.0 -0.0764438572 0.2988130136 0.10175845 -0.4154567723 0.1015182145 -0.4156552903 -0.0701738076 0.2888185174
625296250.0 -0.0729300083 0.2996764591 0.0974984593 -0.4166973657 0.0971956681 -0.4168624258 -0.0664120087 0.2895727537
630296220.0 -0.0693861638 0.3006531334 0.0923381562 -0.4178847531 0.0922231314 -0.4177174477 -0.0633027966 0.2906785187
635296190.0 -0.0667789503 0.3014406363 0.0880289191 -0.4184883936 0.0880812607 -0.4185548325 -0.0603822952 0.2913830044
640296160.0 -0.0637078104 0.3025521363 0.0836349743 -0.4193605671 0.083750438 -0.4193580073 -0.0572948518 0.2919412242
645296130.0 -0.0601437062 0.3037373872 0.0786430836 -0.420206372 0.0792652891 -0.4202789962 -0.0541081958 0.2931063311
650296100.0 -0.0570047841 0.3038719616 0.0743893628 -0.4207621811 0.0743887885 -0.4210757569 -0.0508337412 0.2932013148
655296070.0 -0.0538704532 0.3046844392 0.0698999719 -0.4217404201 0.0697020858 -0.4217435245 -0.0476560234 0.2940927886
660296040.0 -0.0511166747 0.3052358381 0.0655891057 -0.4222318026 0.0654022773 -0.422497333 -0.0441603206 0.2947941403
665296010.0 -0.0473985523 0.3054143482 0.0603262098 -0.422918724 0.0607716006 -0.4231506371 -0.041277994 0.2958589277
670295980.0 -0.0449822077 0.3065275587 0.0562965872 -0.4233627445 0.0560793319 -0.4236217353 -0.0383493446 0.2961624246
675295950.0 -0.0412022783 0.3072921764 0.0514876744 -0.4241022419 0.0516102559 -0.423731741 -0.0356322605 0.2969295822
680295920.0 -0.0380553536 0.3078036188 0.0468147853 -0.4246655971 0.0465577939 -0.4251556664 -0.0319880137 0.2979030379
685295890.0 -0.0346127647 0.3085171968 0.0421274768 -0.4248912862 0.0418366908 -0.4250561307 -0.0287073229 0.2978801643
690295860.0 -0.031374243 0.3088318463 0.0375009277 -0.4250915546 0.0375468468 -0.4255281822 -0.0256939774 0.2986687144
695295830.0 -0.0283326685 0.3091814639 0.0332592099 -0.4258678071 0.0328950328 -0.4257898951 -0.0224832549 0.2995570354
700295800.0 -0.0251314087 0.3097085978 0.0284314016 -0.4261223813 0.0281084001 -0.4259095912 -0.0196612285 0.2997208003
705295770.0 -0.0220595243 0.3105861312 0.0233382976 -0.4261392738 0.0239779831 -0.4266840903 -0.0163126338 0.3003169672
710295740.0 -0.0186557714 0.3108608251 0.0194762293 -0.4271277547 0.0192826463 -0.4269027209 -0.0131277029 0.3002903622
715295710.0 -0.0156791022 0.3107803889 0.0152086121 -0.4267989006 0.0144414702 -0.4267234494 -0.0101610888 0.3005480026
720295680.0 -0.0120808043 0.31092045 0.0098298079 -0.4269084797 0.0101291035 -0.4269458033 -0.0066880987 0.3014553897
725295650.0 -0.0085454868 0.3116485592 0.0052540427 -0.4269774622 0.0053296405 -0.4271139943 -0.0042042347 0.3016334071
730295620.0 -0.0053458562 0.3116267962 0.0004306738 -0.4265998812 0.0008323823 -0.4268590351 -0.0012879671 0.30137755
735295590.0 -0.0024391378 0.3121925456 -0.0034890807 -0.4268621113 -0.0040557249 -0.4265858287 0.0021201846 0.3014285848
740295560.0 0.0008367611 0.3124756078 -0.0085829048 -0.4268532289 -0.0088148703 -0.4268669418 0.0059420875 0.30215458
745295530.0 0.0043484033 0.3123421712 -0.0132577616 -0.426227147 -0.0132078153 -0.4268021762 0.0087666995 0.3016695971
750295500.0 0.0074515466 0.3124968513 -0.0176314271 -0.4266411043 -0.0177729631 -0.42654051 0.0115389212 0.3018947465
755295470.0 0.0107718113 0.3121421619 -0.0218196434 -0.426173448 -0.0223014813 -0.4263423752 0.0148194236 0.3014290651
760295440.0 0.013742735 0.3122816164 -0.0269179832 -0.4261773359 -0.0273180401 -0.4258392742 0.017998556 0.3015806892
765295410.0 0.0172050633 0.3125982781 -0.0319318609 -0.4257053117 -0.0318247409 -0.4257709313 0.0211631081 0.301601484
770295380.0 0.0203572637 0.3121491451 -0.0361790614 -0.4250658011 -0.0362426232 -0.425138883 0.0239902566 0.3014086958
775295350.0 0.0232827975 0.3117981863 -0.0410449232 -0.4240672611 -0.040491121 -0.4243753541 0.0268267892 0.3013965533
780295320.0 0.0269403677 0.3120199974 -0.0455730023 -0.4239065374 -0.0450525464 -0.4237433151 0.0303931121 0.300813982
785295290.0 0.0299896497 0.3113386023 -0.0502320119 -0.4231225292 -0.0497207513 -0.4233297286 0.0339947045 0.3007590387
790295260.0 0.0333900837 0.3116233296 -0.0542057779 -0.4231055825 -0.0539928139 -0.4226094087 0.0370664419 0.3007798696
795295230.0 0.0367410717 0.3114772154 -0.0590824251 -0.4224930076 -0.058873554 -0.4224749497 0.0401293164 0.3003311928
800295200.0 0.039809408 0.3111111452 -0.063891851 -0.421304207 -0.0637226089 -0.4215551057 0.0435183145 0.299988967
805295170.0 0.043198162 0.3105631807 -0.0682220044 -0.4208328902 -0.0682936069 -0.4210149454 0.0465442366 0.2996644101
810295140.0 0.0462836868 0.3100809378 -0.0721695651 -0.4194966033 -0.0728493156 -0.4200671663 0.0501378726 0.299299282
815295110.0 0.0497222253 0.3098453114 -0.0772131338 -0.4187677473 -0.0770092786 -0.4190984565 0.0528609149 0.299024811
820295080.0 0.0525073147 0.3095911993 -0.0814724433 -0.4176085102 -0.0814064917 -0.4177835323 0.0564374096 0.2983813912
825295050.0 0.0563429794 0.3090625627 -0.0859157632 -0.4168622835 -0.0859876658 -0.4170944388 0.0595127974 0.2982859957
