!Created with skrf (http://scikit-rf.org).
# Hz S RI R 50.0 
!freq ReS11 ImS11 ReS21 ImS21 ReS12 ImS12 ReS22 ImS22
300000.0 -0.2398180165 -0.0917221748 0.4711292979 0.0617499347 0.4699421375 0.0580624286 -0.2392162692 -0.099002902
5299970.0 -0.2450157008 0.006460355 0.4749203278 0.0053800261 0.4751569626 0.0053455309 -0.2411758753 0.0073626914
10299940.0 -0.2417988742 0.0178408606 0.4765687936 0.0060278511 0.4768006 0.0063736291 -0.2375848503 0.0205537962
15299910.0 -0.2373804389 0.0268065644 0.4803595433 0.0077120278 0.4806466334 0.0075673351 -0.2331772984 0.0299744769
20299880.0 -0.2329421271 0.0338971505 0.4850507415 0.0082612259 0.4849836799 0.0080141595 -0.2279905177 0.0381566177
25299850.0 -0.2277559759 0.04045271 0.4904872202 0.0070721312 0.4901902121 0.007097598 -0.2218116763 0.0446718579
30299820.0 -0.2225204362 0.044945316 0.4954723648 0.0052829404 0.4953801695 0.0048388942 -0.2162371571 0.0501484318
35299790.0 -0.2173409202 0.0491721673 0.5010085473 0.001040721 0.5009219063 0.0015391539 -0.2105994116 0.054606786
40299760.0 -0.21238272 0.0524077621 0.5057921854 -0.0022059083 0.5062965021 -0.002211161 -0.2052498766 0.0575903089
45299730.0 -0.2079459753 0.0547335596 0.510339384 -0.00717866 0.5106757673 -0.0068209794 -0.200113297 0.0607114997
50299700.0 -0.2038569375 0.0565724614 0.5148672103 -0.0124133605 0.5147351457 -0.0122491441 -0.1955068618 0.0623398884
55299670.0 -0.1999718824 0.058655781 0.5186849395 -0.0191152673 0.5186379094 -0.0185948815 -0.1913675512 0.0643189756
60299640.0 -0.196066879 0.0599757201 0.5218639852 -0.0249566112 0.5221633902 -0.0247053309 -0.1874496844 0.0652600189
65299610.0 -0.193074303 0.0608332583 0.5243961342 -0.0314782499 0.5246874354 -0.0311677548 -0.1839720899 0.0665493684
70299580.0 -0.1899532428 0.0619940296 0.5272663715 -0.0379879487 0.5272113462 -0.0376093535 -0.1805677462 0.067505297
75299550.0 -0.1870297059 0.062686072 0.5287760776 -0.0444614466 0.5292567429 -0.0446148962 -0.1780276401 0.0683454514
80299520.0 -0.1846958555 0.0636576949 0.5310541279 -0.0511284842 0.5310462616 -0.051379874 -0.1753163358 0.0688194121
85299490.0 -0.1825241603 0.0640799971 0.53196987 -0.0581423721 0.5323028307 -0.0580168747 -0.1730828451 0.0693648167
90299460.0 -0.1802817419 0.0648695017 0.5328098585 -0.0651981857 0.5334240166 -0.065082427 -0.1706447907 0.0700828974
95299430.0 -0.1781563985 0.0651124677 0.5342139779 -0.0720415904 0.5337501779 -0.072241167 -0.1678685373 0.0708518393
100299400.0 -0.1766638688 0.0661965241 0.5340110341 -0.0788471499 0.5345687482 -0.0788122544 -0.1659179323 0.0715169385
105299370.0 -0.1748479243 0.0667909463 0.5345307563 -0.0863457061 0.5349850734 -0.0859697703 -0.1641123947 0.0726602089
110299340.0 -0.1734810796 0.06799488 0.5349469804 -0.0927156179 0.5347125766 -0.0921673078 -0.1629179517 0.073162812
115299310.0 -0.1720501677 0.0681771292 0.5350724476 -0.0999055439 0.5345873053 -0.0997019353 -0.1611572624 0.0737606734
120299280.0 -0.1705825297 0.0684588921 0.5341119137 -0.1064294783 0.5344871412 -0.1060940248 -0.159561124 0.0744731068
125299250.0 -0.1695215304 0.0691879688 0.5344042225 -0.1129613378 0.534017958 -0.1127873528 -0.1583712073 0.0750486726
130299220.0 -0.1687086488 0.0702162081 0.533468682 -0.1199844278 0.533425152 -0.1194500283 -0.1570458864 0.0756641674
135299190.0 -0.1676445818 0.0709514522 0.5329392657 -0.1261105516 0.5328782728 -0.1262952202 -0.1557534234 0.0769603322
140299160.0 -0.1665853858 0.0720111042 0.5322212752 -0.1331632089 0.5320817021 -0.1328291057 -0.1545728336 0.0779948555
145299130.0 -0.1655349502 0.0727596328 0.5314271882 -0.1395702207 0.5306097303 -0.1391342614 -0.1533344518 0.0789761311
150299100.0 -0.1643382664 0.0740928826 0.5298245865 -0.1457238262 0.530255205 -0.145717656 -0.1525146436 0.0803900019
155299070.0 -0.163839822 0.0747815788 0.5288030311 -0.1532372957 0.5285260485 -0.1527012467 -0.1511696412 0.0814036014
160299040.0 -0.1628197824 0.075954521 0.526989938 -0.1591381312 0.5269322015 -0.159149282 -0.1506686954 0.0824106504
165299010.0 -0.1621429139 0.0769130325 0.5259313092 -0.1659586889 0.5263813834 -0.16552215 -0.1495770429 0.0836647485
170298980.0 -0.1613113488 0.0777194411 0.5243338407 -0.171882065 0.5245291954 -0.1717064498 -0.1482140451 0.0846685951
175298950.0 -0.1608055545 0.0789439679 0.5233380213 -0.1782294799 0.5225248318 -0.1778586467 -0.1473572156 0.0859565877
180298920.0 -0.1600547725 0.0799318311 0.5209659672 -0.1843748755 0.5211901446 -0.1839151279 -0.1464484985 0.0875017619
185298890.0 -0.1588538344 0.0810285934 0.5195710678 -0.1905444482 0.5192248176 -0.1906807658 -0.1452314868 0.0888019192
190298860.0 -0.1584193606 0.0825658764 0.5174915156 -0.1968693066 0.5176445841 -0.1965649468 -0.1447058758 0.0896857841
195298830.0 -0.1577824763 0.083049345 0.5152308598 -0.202772944 0.5155260848 -0.2026694398 -0.1437428649 0.0913464886
200298800.0 -0.1568418102 0.0847679964 0.5134638072 -0.2091245857 0.5131881511 -0.208932116 -0.1429036512 0.0924587783
205298770.0 -0.1560857008 0.0859871119 0.5104049568 -0.2151222068 0.5107676135 -0.21485594 -0.1420391972 0.0933256627
210298740.0 -0.1555495552 0.0869910111 0.5086674137 -0.2206733813 0.5085419005 -0.2204670273 -0.1408816299 0.0954726176
215298710.0 -0.1551203976 0.0881204049 0.506688127 -0.2267891064 0.5066178901 -0.226773815 -0.1406685235 0.0964886922
220298680.0 -0.1539484678 0.0891599574 0.503741928 -0.2327658675 0.5038330861 -0.2328987683 -0.1396100256 0.0975332578
225298650.0 -0.1534250316 0.0904988288 0.5014089213 -0.2385015451 0.5017504591 -0.2386697379 -0.1388832574 0.0990228814
230298620.0 -0.1525271107 0.0924002705 0.4990544994 -0.2442456861 0.4994612616 -0.2443361564 -0.1379871924 0.1002418617
235298590.0 -0.1516598245 0.0937585112 0.4965371044 -0.2501677268 0.4968155957 -0.249631503 -0.1368587966 0.1015291223
240298560.0 -0.1509896255 0.0949592152 0.493971134 -0.2563123913 0.4935479721 -0.2561350569 -0.1359568412 0.1033176631
245298530.0 -0.1501990233 0.0962094331 0.4914290068 -0.2616710331 0.490710497 -0.2613065474 -0.1347424671 0.1038771582
250298500.0 -0.1491685871 0.0976191661 0.4876299698 -0.2670548728 0.4876011949 -0.2670585535 -0.1340537227 0.1055511489
255298470.0 -0.1484908502 0.0986713569 0.4845337581 -0.2724274163 0.4852374452 -0.2727993339 -0.1328609495 0.1067988325
260298440.0 -0.1479731053 0.099989024 0.4820902122 -0.2783921526 0.4821126311 -0.2779484272 -0.1315621433 0.1086251824
265298410.0 -0.1465930314 0.1019853849 0.4786964791 -0.2840781849 0.4791448977 -0.2832981537 -0.1302669074 0.1096413689
270298380.0 -0.1461414783 0.1028982842 0.4762723305 -0.289116223 0.4763788026 -0.2887671653 -0.1295982295 0.1111677182
275298350.0 -0.1450341032 0.1042245381 0.4727590782 -0.2943796312 0.4730970237 -0.294395866 -0.128086418 0.1125055183
280298320.0 -0.1438167805 0.1058560239 0.4700158616 -0.3002556514 0.4697314957 -0.2998776053 -0.1267288761 0.1138984608
285298290.0 -0.1428471109 0.1072761038 0.4667221846 -0.3051730548 0.4664761779 -0.3054446321 -0.125366072 0.1150187
290298260.0 -0.1417209766 0.1086066 0.4631879426 -0.3100776832 0.4634161137 -0.3106334236 -0.1244691375 0.1166205635
295298230.0 -0.1407698429 0.1096475724 0.4600628378 -0.3158296359 0.4598550114 -0.3157374889 -0.1226507034 0.1176227128
300298200.0 -0.1403380621 0.110985341 0.4567654344 -0.3208736399 0.4568313379 -0.3209636337 -0.1218566347 0.1192447554
305298170.0 -0.1390032991 0.1120587843 0.4528725352 -0.3266420916 0.4529574749 -0.3260374083 -0.1200391538 0.1202610317
310298140.0 -0.1379447237 0.1138885205 0.4493054856 -0.3316172863 0.4495062156 -0.3312527711 -0.1190522266 0.1214010003
315298110.0 -0.13697219 0.1147562297 0.4459104615 -0.3363517465 0.4463997581 -0.3365728529 -0.1176533735 0.1225923539
320298080.0 -0.1357775237 0.1157459449 0.4414946026 -0.3414862262 0.4420301795 -0.3420221735 -0.1166174747 0.1240899795
325298050.0 -0.1348380456 0.1168426965 0.4382590328 -0.3469820275 0.438027887 -0.3467662719 -0.1154059854 0.1256524566
330298020.0 -0.134048579 0.1182425097 0.4336449278 -0.351879032 0.4342792514 -0.3516521226 -0.1142261113 0.1266060432
335297990.0 -0.1330092344 0.1193690677 0.4299106756 -0.3564121832 0.430004603 -0.356854863 -0.1136186267 0.1284280746
340297960.0 -0.1324344736 0.1210310547 0.4262634437 -0.3613504615 0.4258519605 -0.3616079793 -0.1116212559 0.1297038947
345297930.0 -0.1312654649 0.1229971395 0.4216298879 -0.3664228264 0.4217916311 -0.3663954067 -0.1103818742 0.1309221039
350297900.0 -0.1303904872 0.1235752532 0.4171069548 -0.3708645698 0.417583316 -0.3706466317 -0.1096135825 0.1326669806
355297870.0 -0.1288778685 0.1256172175 0.4133094973 -0.3754164624 0.4137675978 -0.3748863842 -0.1083173477 0.1339771762
360297840.0 -0.1284800818 0.1268116364 0.4100559317 -0.3794980394 0.4098215916 -0.3793581163 -0.1066715797 0.1354236181
365297810.0 -0.1275710776 0.1284771926 0.4051877543 -0.3848053484 0.4056864116 -0.3841560239 -0.1052911823 0.1367591298
370297780.0 -0.1254810694 0.1293363508 0.4006066734 -0.3882637694 0.401192308 -0.3883696061 -0.1039109259 0.13787809
375297750.0 -0.1244618498 0.1307991988 0.3965304706 -0.3932794706 0.3970740194 -0.3931218067 -0.1024594419 0.1391604652
380297720.0 -0.1233141115 0.1321479486 0.3922396651 -0.3975320754 0.3926789264 -0.3967931816 -0.1012573909 0.1404970018
385297690.0 -0.1226871575 0.1334437921 0.3881939939 -0.4018962903 0.3874953774 -0.4016869764 -0.0993485385 0.1418399666
390297660.0 -0.1212564072 0.1351056707 0.3836006677 -0.4061774831 0.3835023618 -0.4055634962 -0.0986213296 0.1431573224
395297630.0 -0.1199356302 0.1365351847 0.379240391 -0.409958507 0.3790337507 -0.410156778 -0.0962986273 0.1443212539
400297600.0 -0.1187522472 0.1375750687 0.3743457934 -0.414380827 0.3744777277 -0.4143688283 -0.0951207814 0.1456874568
405297570.0 -0.1175726369 0.1389536536 0.3702403645 -0.4183533358 0.3701924266 -0.4181840201 -0.0937863243 0.1472036939
410297540.0 -0.1162240932 0.1400010438 0.365751889 -0.4227638138 0.3660228307 -0.4228663177 -0.091897282 0.1483284806
415297510.0 -0.1144148596 0.1409465702 0.3605019136 -0.4262519299 0.3612281463 -0.4265511804 -0.090471649 0.1492485289
420297480.0 -0.1132283997 0.1426802054 0.3558492116 -0.4306696493 0.3558899979 -0.430611137 -0.0890301201 0.1501001347
425297450.0 -0.1122284939 0.1434350013 0.3518660386 -0.4343082167 0.3519876186 -0.4340606326 -0.0876758732 0.1514805517
430297420.0 -0.1107145086 0.1447815826 0.3463678226 -0.4376044948 0.3464687902 -0.4374998533 -0.0859038184 0.1522888425
435297390.0 -0.1095288678 0.146127027 0.3414029557 -0.4415323104 0.3413526139 -0.4417946981 -0.0838360478 0.1534224655
440297360.0 -0.1082025509 0.1475784871 0.3368751819 -0.4450949355 0.3370841639 -0.4450928826 -0.0822830217 0.1542808217
445297330.0 -0.106784316 0.1484999914 0.3325574478 -0.4492632998 0.3323734199 -0.4487490983 -0.0805237037 0.1552827534
450297300.0 -0.1048683732 0.1493634813 0.3270711027 -0.4525860966 0.3271154651 -0.4529136428 -0.0788133712 0.1563211644
455297270.0 -0.1037257198 0.150773398 0.3221205198 -0.4560957154 0.3221262807 -0.4563415382 -0.0770011883 0.1571064514
460297240.0 -0.1022042393 0.151949911 0.3167156952 -0.459432369 0.3171544169 -0.4597795657 -0.0756123328 0.1583873301
465297210.0 -0.1005791839 0.1529912133 0.312008666 -0.4631374319 0.3123237406 -0.4631855188 -0.073644986 0.1588486873
470297180.0 -0.0993126172 0.1538667613 0.3068930969 -0.4666174023 0.3072142847 -0.4662876232 -0.0718151865 0.1604168528
475297150.0 -0.0978402267 0.1546426173 0.301917494 -0.4695294459 0.3018728149 -0.4693336369 -0.0697295913 0.160850018
480297120.0 -0.0961864376 0.1564170323 0.2965147913 -0.4732045099 0.2969282837 -0.473013012 -0.0680543502 0.1622230006
485297090.0 -0.0950220746 0.1572309096 0.2919965453 -0.4760916792 0.2918572283 -0.4758338766 -0.0657847901 0.1626537175
490297060.0 -0.0939125225 0.1583504243 0.2867774969 -0.47958193 0.2870433767 -0.479058936 -0.0644429006 0.1638835122
495297030.0 -0.0918334835 0.1592506262 0.2807584817 -0.4818889022 0.2816823936 -0.4822395369 -0.0626281828 0.1645560152
500297000.0 -0.0904969044 0.1603191745 0.2757024446 -0.4849287269 0.2756773477 -0.4848806565 -0.0605114276 0.166022871
505296970.0 -0.0886510096 0.1614721178 0.2709045401 -0.4881408823 0.2706850673 -0.4880732378 -0.0591353933 0.1663941498
510296940.0 -0.0874548017 0.162391811 0.2653468878 -0.4912594726 0.265263488 -0.4914580015 -0.0570190644 0.1677131227
515296910.0 -0.0857592033 0.1634057702 0.2593392215 -0.4943704124 0.2598978149 -0.4939334537 -0.0549458928 0.1685059283
520296880.0 -0.084308834 0.1644029467 0.2543410142 -0.496944737 0.2544808595 -0.49658492 -0.0532152001 0.1688046943
525296850.0 -0.0825457679 0.1648757386 0.2487595712 -0.4994371123 0.2492846184 -0.4992278278 -0.0515334851 0.1697317617
530296820.0 -0.0809033329 0.1660947727 0.2434549395 -0.5021918759 0.2440207632 -0.5024229424 -0.0499088892 0.1710307046
535296790.0 -0.0795514376 0.1671961513 0.2384171978 -0.5046166015 0.2383969366 -0.5042177272 -0.0480967865 0.1709950806
540296760.0 -0.0779136784 0.1682971528 0.2326441492 -0.5072903969 0.2321971518 -0.5076418719 -0.0461674445 0.172399997
545296730.0 -0.0765748727 0.1690871272 0.2267730938 -0.5096639695 0.2270034328 -0.5098016664 -0.044496704 0.1729097473
550296700.0 -0.0741590966 0.1701620355 0.2213865954 -0.5121537909 0.2213887016 -0.5121928429 -0.0423826683 0.1733628657
555296670.0 -0.0729727824 0.1705615499 0.2159590188 -0.514324522 0.2157854475 -0.5142076255 -0.0403950425 0.1744426736
560296640.0 -0.0712007388 0.171893205 0.2103198264 -0.516805976 0.2104224999 -0.5172885285 -0.0386356704 0.1749232649
565296610.0 -0.0697145884 0.1724132836 0.2045242565 -0.5190705919 0.2049733568 -0.5191706126 -0.036900102 0.1750874177
570296580.0 -0.0683029888 0.1732684187 0.1992134471 -0.5217735114 0.198653092 -0.5214124058 -0.0352003297 0.1762242196
575296550.0 -0.066467308 0.1743717309 0.1935821333 -0.5237765489 0.1933872831 -0.5234022124 -0.032866039 0.1763343878
580296520.0 -0.0644598223 0.1750770881 0.1878293699 -0.5260172554 0.1879327736 -0.5250836421 -0.0311711528 0.1768051047
585296490.0 -0.0631586805 0.1754713517 0.1820541192 -0.5269527544 0.1822259818 -0.5274551865 -0.0289497124 0.177497465
590296460.0 -0.0607631361 0.1763495355 0.1762834537 -0.5286943617 0.176599438 -0.5293293618 -0.0275701243 0.1781464767
595296430.0 -0.0591250011 0.1773299924 0.1699261412 -0.5312936679 0.1704782235 -0.531184331 -0.0252499235 0.1780136106
600296400.0 -0.0581456622 0.1779474266 0.1646094599 -0.5330435168 0.1648990374 -0.532666558 -0.0233664971 0.1783496147
605296370.0 -0.0562892093 0.1784853862 0.1587611507 -0.534608851 0.1593996196 -0.5347494194 -0.0211643751 0.1789214856
610296340.0 -0.0544288036 0.1792295397 0.1527399895 -0.5363227147 0.1536822451 -0.5363034922 -0.0192813541 0.1793584263
615296310.0 -0.0524271695 0.1795997428 0.1472383345 -0.5375741329 0.1473143646 -0.5384001298 -0.0171395957 0.1794697216
620296280.0 -0.0508277451 0.1801757688 0.141542734 -0.5396183546 0.1413529214 -0.5391682986 -0.0154553381 0.1799523359
625296250.0 -0.049521312 0.1805900054 0.136179587 -0.5411246599 0.1360395479 -0.5412731504 -0.0128349473 0.1801243774
630296220.0 -0.0468687659 0.1815770829 0.1287627055 -0.5424123643 0.1296064913 -0.5420122385 -0.0108639422 0.180645531
635296190.0 -0.0458185208 0.18199144 0.1240169276 -0.5435787533 0.1241753807 -0.5436060099 -0.0090808625 0.1806033071
640296160.0 -0.0438451892 0.1826331757 0.1177247269 -0.5446124897 0.1183600771 -0.5449962104 -0.0066731875 0.1809754079
645296130.0 -0.0420662111 0.1834457577 0.1122313389 -0.5456716286 0.1123955905 -0.5456053647 -0.0047527859 0.181111917
650296100.0 -0.0402547481 0.1836966223 0.1061082038 -0.5468392911 0.1065154847 -0.5469234603 -0.0026472579 0.1808464997
655296070.0 -0.0385228509 0.1844640105 0.1001506368 -0.5484789209 0.1007967609 -0.5484124615 -0.0006469206 0.1814747595
660296040.0 -0.0372531565 0.1846010193 0.0950176575 -0.5492248462 0.0947961353 -0.5493918189 0.0017748135 0.1815298876
665296010.0 -0.0350092146 0.1848959086 0.0883574947 -0.5498942754 0.0884976756 -0.5501472051 0.0035899696 0.182355052
670295980.0 -0.0334661062 0.1860007056 0.0823669115 -0.5508675564 0.0826146545 -0.5509177972 0.0050888837 0.1822770092
675295950.0 -0.0316449935 0.1863292462 0.0767761645 -0.5517882018 0.0768353253 -0.5517086745 0.0073321916 0.1824872177
680295920.0 -0.0301276059 0.1867246604 0.0707160605 -0.5525642461 0.0702657813 -0.5531020877 0.0096884513 0.1828297341
685295890.0 -0.0280766954 0.1875577536 0.064451578 -0.5531890526 0.0644060257 -0.553388168 0.0114349378 0.1827562367
690295860.0 -0.0259168875 0.18780194 0.0586324571 -0.5539193807 0.0585878512 -0.5543683021 0.0133760187 0.1833998603
695295830.0 -0.0244853496 0.1878192152 0.0531682196 -0.5543497526 0.0526662456 -0.5545440663 0.0158725616 0.1828388611
700295800.0 -0.0225406713 0.1880873211 0.046372697 -0.5548921922 0.0463898944 -0.5545285718 0.0171816452 0.183419072
705295770.0 -0.0205990245 0.1892345732 0.0408072081 -0.5554063265 0.0413126417 -0.5555142125 0.0191379875 0.1834585909
710295740.0 -0.0186566433 0.1891821806 0.0350207759 -0.556272249 0.0349115014 -0.5565275643 0.0216221997 0.1828567533
715295710.0 -0.0174222016 0.1895242643 0.0292397195 -0.5560491557 0.0285703699 -0.5562819895 0.0234968159 0.1827269139
720295680.0 -0.0151704201 0.1898478808 0.022590685 -0.5567663555 0.0233104279 -0.556499184 0.0254739607 0.1830349985
725295650.0 -0.013339314 0.1902006894 0.0166267297 -0.556871903 0.0174324536 -0.5568899775 0.0271007347 0.1832743949
730295620.0 -0.0111720365 0.1906811885 0.0107952424 -0.5562744436 0.0110570265 -0.5565777901 0.0290375449 0.1823951023
735295590.0 -0.0097783877 0.1908619813 0.0048501452 -0.5569071551 0.0049497346 -0.5567372078 0.0307160815 0.1819486462
740295560.0 -0.0080482092 0.1911562951 -0.0012290278 -0.5565939294 -0.0010644916 -0.5570026959 0.0335061341 0.1824559672
745295530.0 -0.006097697 0.1914156788 -0.0070870578 -0.5566240392 -0.0074214497 -0.5565626084 0.035266733 0.1818540337
750295500.0 -0.0039824323 0.191310668 -0.0125868617 -0.5564617751 -0.0132288788 -0.5567927023 0.0373234223 0.1817667373
755295470.0 -0.0021058239 0.1916379355 -0.0188911563 -0.5566323207 -0.0190650555 -0.5564846676 0.0395192497 0.1806866004
760295440.0 -0.000521896 0.1915873152 -0.0251437256 -0.556304259 -0.0252682834 -0.5563755852 0.041388528 0.1806383463
765295410.0 0.0014734203 0.1918363644 -0.0313229065 -0.5559725249 -0.0312749742 -0.5560634154 0.0435464139 0.180701305
770295380.0 0.0030271436 0.1920631452 -0.0376693454 -0.5555457723 -0.0371125788 -0.5551778264 0.0452258297 0.1800790313
775295350.0 0.0049367358 0.191830368 -0.0433411747 -0.554713439 -0.0427071277 -0.5549229936 0.046644657 0.1797884876
780295320.0 0.0070238507 0.1921083412 -0.0491519851 -0.5540003286 -0.0483614616 -0.5541345553 0.0488752819 0.1788640044
785295290.0 0.0086122868 0.1916804783 -0.0555143917 -0.5533258576 -0.0547580266 -0.5536453088 0.0517043763 0.1788816146
790295260.0 0.0107163672 0.1924754315 -0.060733418 -0.5533066241 -0.0603917284 -0.5526827087 0.0530843267 0.1785743252
795295230.0 0.0123761769 0.1920519911 -0.066917511 -0.5522415532 -0.0664673565 -0.5523303129 0.0556420682 0.1781046322
800295200.0 0.0142934442 0.192287601 -0.0732828029 -0.5513598265 -0.0727971036 -0.5514716687 0.0575931735 0.1774902083
805295170.0 0.0162416296 0.1919201726 -0.0785579984 -0.5504336532 -0.0789341349 -0.5506778346 0.0594213006 0.1770657481
810295140.0 0.0179683529 0.1917963369 -0.0843812169 -0.549610024 -0.084583694 -0.5499213512 0.0617623815 0.1767598863
815295110.0 0.020013315 0.1918079348 -0.0905285674 -0.5483521936 -0.0903851315 -0.5486937119 0.0634858932 0.1761443639
820295080.0 0.0212541712 0.1921839433 -0.0963131573 -0.5475269853 -0.0959920568 -0.5476224691 0.0654605975 0.175581587
825295050.0 0.0240144865 0.1917855905 -0.1019786118 -0.5462015077 -0.1022568651 -0.5468340749 0.0675858799 0.1752525838
830295020.0 0.025698827 0.1919451063 -0.1084015037 -0.5454285024 -0.1083424119 -0.5453273471 0.0701460886 0.1744801184
