!Created with skrf (http://scikit-rf.org).
# Hz S RI R 50.0 
!freq ReS11 ImS11 ReS21 ImS21 ReS12 ImS12 ReS22 ImS22
300000.0 -0.7710947353 -0.1689919804 -0.002404921 0.001490993 -5.80951e-05 0.0008714548 -0.7709568749 -0.1850098269
5299970.0 -0.7861740083 -0.0089269185 0.0001324725 -0.0001400758 1.23198e-05 -6.10568e-05 -0.7853949174 -0.00990962
10299940.0 -0.7892564934 -0.0056625183 -2.1443e-05 3.6217e-05 -0.0001641243 -4.64856e-05 -0.787684004 -0.0053609797
15299910.0 -0.7944321537 -0.0030272227 -4.00838e-05 7.2346e-06 0.0001412547 -6.5587e-06 -0.7932109142 -0.0026066039
20299880.0 -0.801150487 0.000603726 -2.22902e-05 2.18713e-05 1.81113e-05 0.0001642761 -0.7997710633 0.001448231
25299850.0 -0.8075372249 0.0067937295 7.33183e-05 -4.4e-07 -8.37092e-05 0.0001943316 -0.8062692835 0.0079209798
30299820.0 -0.8140251281 0.0140142046 -4.1771e-05 4.80952e-05 9.72781e-05 2.63261e-05 -0.8120510186 0.015612402
35299790.0 -0.818200783 0.0232845519 0.0001383655 4.45959e-05 0.000120519 -6.6529e-05 -0.8169687063 0.0244571817
40299760.0 -0.8238233417 0.0315826923 -0.000137593 -1.79e-06 -0.0001815742 -0.0001939324 -0.8211951673 0.0340913304
45299730.0 -0.8264812523 0.0416419496 0.0001242558 3.65756e-05 -1.71748e-05 9.03971e-05 -0.8243754385 0.0436228157
50299700.0 -0.8289014478 0.0522277401 2.4389e-05 0.0001164539 1.07503e-05 -4.17062e-05 -0.8268840957 0.0537587713
55299670.0 -0.8314656762 0.0614687905 0.0001288174 0.0001798071 -0.0001027312 -4.38383e-05 -0.8286237574 0.0635744123
60299640.0 -0.8321693252 0.0718103206 -9.1888e-06 8.54054e-05 -0.0001097885 0.0001739781 -0.8301929006 0.0739812356
65299610.0 -0.8338184205 0.0814008221 0.0001672975 2.2718e-06 8.48675e-05 1.3932e-05 -0.8307197211 0.084045787
70299580.0 -0.8343939487 0.0914751964 0.0001491734 -3.16767e-05 8.68457e-05 -3.54826e-05 -0.8310755213 0.0933809391
75299550.0 -0.8339110751 0.1014953018 0.0001406028 -6.41917e-05 2.94593e-05 -1.02731e-05 -0.8306833435 0.104050554
80299520.0 -0.8340129949 0.1116349114 0.0002430441 0.000146924 7.1981e-06 5.1266e-05 -0.8306846865 0.1140061418
85299490.0 -0.8325601959 0.1211920619 5.37475e-05 5.24998e-05 -0.0002590282 0.000149818 -0.8306198226 0.1233521726
90299460.0 -0.8322379381 0.1312829039 -0.0001054684 0.0001665204 -0.0001289904 -5.00771e-05 -0.8292540204 0.1328473829
95299430.0 -0.8312876941 0.1403235483 -2.86412e-05 0.0001191829 5.27203e-05 0.0001175996 -0.828259094 0.1422744003
100299400.0 -0.8303520194 0.1493902292 0.000276366 0.0001425657 7.1226e-06 0.0001966487 -0.8273288546 0.151365032
105299370.0 -0.8283726524 0.159019787 3.73915e-05 -8.5961e-06 -7.43362e-05 5.91239e-05 -0.8258361287 0.160554779
110299340.0 -0.827817252 0.1684925311 -0.0001849813 0.0001482505 4.78272e-05 0.0001343599 -0.8247008459 0.1696472115
115299310.0 -0.8263129662 0.1775290042 -0.0001857002 6.94833e-05 -3.67768e-05 -6.8355e-06 -0.823409353 0.1793596431
120299280.0 -0.8245065868 0.1865598505 8.1359e-06 -3.4535e-06 1.34012e-05 1.64905e-05 -0.8213100448 0.18826176
125299250.0 -0.8222729274 0.1958193535 0.0001797862 0.000258571 0.0002115363 -8.87166e-05 -0.8196220658 0.1969911909
130299220.0 -0.8210411217 0.2055632902 5.72822e-05 9.45059e-05 2.77307e-05 0.0001329955 -0.8173183108 0.2055230503
135299190.0 -0.8187982476 0.2142353607 -6.85435e-05 0.0002208781 0.0001461576 -9.28633e-05 -0.8159442347 0.2146732952
140299160.0 -0.8174027108 0.2234316706 -4.88821e-05 8.35637e-05 0.0001222612 -2.12133e-05 -0.8145305901 0.223552387
145299130.0 -0.8145681447 0.232226756 -6.173e-06 0.0001702186 0.0001408002 3.88309e-05 -0.8121900697 0.2325962081
150299100.0 -0.811671096 0.2407813926 0.0001083687 0.0001903406 -0.0001260946 0.000159168 -0.8096916003 0.2413090159
155299070.0 -0.8099871177 0.2497767371 0.0001033523 0.0004084541 0.0001384182 -1.48146e-05 -0.8074077454 0.2505939931
160299040.0 -0.8072923888 0.2590658756 -0.0002436574 -8.45442e-05 7.45664e-05 -1.87628e-05 -0.8049007074 0.259074369
165299010.0 -0.8050490577 0.2670783227 2.51802e-05 0.0002313592 0.0001919051 -3.97744e-05 -0.8017902662 0.2671986205
170298980.0 -0.8018475024 0.275881539 -8.32317e-05 -1.96894e-05 -0.0001479307 2.09874e-05 -0.7999736059 0.2754766098
175298950.0 -0.7991428228 0.284399775 -5.0699e-05 -0.000122429 -4.57002e-05 1.80166e-05 -0.7961494606 0.2847707076
180298920.0 -0.7956039913 0.2932436594 0.000212175 -0.0001951212 3.18489e-05 1.49638e-05 -0.7935189423 0.2935500537
185298890.0 -0.7927030927 0.3021070482 2.87166e-05 3.82136e-05 9.10932e-05 -6.39547e-05 -0.79081093 0.3015675207
190298860.0 -0.7896309601 0.3110404374 -4.88157e-05 2.40717e-05 -1.681e-07 0.0002003383 -0.7874099172 0.3100682299
195298830.0 -0.7863623639 0.3189287353 1.48394e-05 0.0001274523 5.07035e-05 -0.0001457841 -0.7841685547 0.3178236294
200298800.0 -0.7830603705 0.3274994957 0.0001956073 -0.0001306089 -0.0001836112 5.84589e-05 -0.7809947604 0.3267875928
205298770.0 -0.7793293189 0.3361873455 0.0001473038 -2.68515e-05 0.0002127109 -1.05528e-05 -0.7777005146 0.3350149224
210298740.0 -0.7761728324 0.3448838394 -0.0001133816 3.45341e-05 -0.0002276727 -3.36753e-05 -0.7740890834 0.3428470005
215298710.0 -0.7723356964 0.3527906678 3.20316e-05 -0.0002018658 0.00013159 -2.36485e-05 -0.7707215975 0.3516942442
220298680.0 -0.7686394429 0.3604250006 4.78126e-05 -3.71056e-05 0.0001283935 -3.6177e-06 -0.767009713 0.3594974026
225298650.0 -0.7644830785 0.3690145541 -0.0001149632 6.5943e-06 -1.57174e-05 -4.85432e-05 -0.7630519493 0.3678456952
230298620.0 -0.7608301251 0.3776244266 9.6475e-05 0.0001108336 -0.0001243082 0.0002018091 -0.7591633143 0.3754399951
235298590.0 -0.7574273688 0.3860740072 0.0001384102 3.36611e-05 -0.0001627332 7.69347e-05 -0.7552351646 0.3831855632
240298560.0 -0.7529552061 0.3934990653 -0.000187822 -6.1855e-05 -8.36014e-05 -2.20046e-05 -0.7512407303 0.3908236387
245298530.0 -0.7484934494 0.4017700577 8.49813e-05 -5.64221e-05 0.00013044 -4.73541e-05 -0.7477151776 0.3989865418
250298500.0 -0.7448743058 0.4091923631 0.0002553221 5.19352e-05 -0.0001636917 0.0002135653 -0.7430339084 0.4069655879
255298470.0 -0.7406845931 0.4172626236 4.01224e-05 -3.013e-05 -5.90366e-05 -6.35266e-05 -0.7386756166 0.4145841133
260298440.0 -0.7370189437 0.4250489637 -5.7274e-05 -9.57982e-05 -1.8154e-06 -4.26148e-05 -0.7341192637 0.4215197416
265298410.0 -0.7320944845 0.4328906992 -0.000188764 -8.36936e-05 -4.4631e-06 7.34027e-05 -0.7301314009 0.4301595159
270298380.0 -0.7272062747 0.4402944793 -3.78335e-05 4.87683e-05 -4.17304e-05 0.0001313198 -0.7248324306 0.4377603896
275298350.0 -0.7235182506 0.4477828659 -5.30426e-05 7.49532e-05 5.42689e-05 -0.0001575726 -0.7205962817 0.4450271524
280298320.0 -0.7184387289 0.4554796241 7.73336e-05 4.7109e-06 -0.0001557887 -1.06253e-05 -0.7158383188 0.4532741589
285298290.0 -0.7136709748 0.4630860801 8.01625e-05 -0.0001784022 9.51295e-05 0.0001285997 -0.7119508634 0.4601775111
290298260.0 -0.7083519842 0.471051672 8.49198e-05 -2.62135e-05 -0.0001221936 0.000194348 -0.7065070497 0.4675253772
295298230.0 -0.7038725126 0.4779144129 7.17301e-05 0.0002268865 -5.12534e-05 5.34979e-05 -0.7015284212 0.4752938722
300298200.0 -0.6996308897 0.4852361516 5.018e-05 6.9862e-05 -2.16916e-05 1.13064e-05 -0.6969561736 0.4821753497
305298170.0 -0.6948652984 0.4924576136 -0.0001164334 -1.40595e-05 0.0001043723 7.93245e-05 -0.6911740173 0.4893067459
310298140.0 -0.6890108882 0.4995037713 5.5428e-05 8.73007e-05 0.0002063815 0.0001072325 -0.6862444276 0.4966985691
315298110.0 -0.6845454046 0.50725334 -4.19221e-05 0.0001489947 -0.0001120885 0.0002271124 -0.6811655128 0.5039587812
320298080.0 -0.6789210068 0.5143506276 -8.4708e-05 -5.51765e-05 -1.38222e-05 0.0001413083 -0.6761752635 0.5104603568
325298050.0 -0.6732125651 0.5206810239 -5.21477e-05 -1.67915e-05 -6.44775e-05 7.25625e-05 -0.6704822157 0.5175403891
330298020.0 -0.6681193807 0.5280372354 -5.60472e-05 4.04079e-05 -9.7926e-06 3.88849e-05 -0.6649069279 0.5247055714
335297990.0 -0.6631774444 0.5346532787 -0.0002140241 -7.0273e-05 0.0001038445 -3.66243e-05 -0.6593835636 0.5320772398
340297960.0 -0.65779056 0.5412443882 -3.20955e-05 -1.68429e-05 9.95114e-05 -0.0001736497 -0.6542599985 0.5379303211
345297930.0 -0.6519732315 0.5478612633 0.0001795637 0.0001299496 1.95136e-05 -2.93132e-05 -0.64882423 0.5448165092
350297900.0 -0.6464517896 0.5550515672 -8.65007e-05 -7.51772e-05 8.94279e-05 -7.55156e-05 -0.6434290088 0.5512928234
355297870.0 -0.6408917916 0.5610403956 0.0001107425 -2.63853e-05 -0.0001481025 6.14979e-05 -0.6372202294 0.5585706338
360297840.0 -0.6351755206 0.5683983124 -1.13198e-05 -0.0001874595 -0.0001369754 -1.73731e-05 -0.63114129 0.5649863765
365297810.0 -0.6297310715 0.5747072915 -1.17674e-05 -2.06293e-05 -6.2878e-06 1.24039e-05 -0.6259499872 0.5709331648
370297780.0 -0.6228988006 0.5805083283 0.0001092492 -7.07845e-05 -0.0001955267 -0.0001112538 -0.6195594895 0.5772788806
375297750.0 -0.6181068881 0.5870362287 0.0001280006 -3.14534e-05 7.69033e-05 -9.08935e-05 -0.6132791044 0.5838264759
380297720.0 -0.6123109601 0.5934477657 9.75783e-05 -4.78654e-05 -3.78784e-05 1.2235e-05 -0.606855172 0.5902531883
385297690.0 -0.6062915062 0.599331673 3.00597e-05 0.0002409404 0.0002490777 0.0001104138 -0.6014351025 0.5963156406
390297660.0 -0.5989382726 0.6046876716 -5.6057e-05 2.32351e-05 -7.34137e-05 4.99993e-05 -0.5948134148 0.602109418
395297630.0 -0.5929772884 0.6120513005 -4.77967e-05 -3.1725e-06 -5.14744e-05 -0.0002931892 -0.588309011 0.6076444406
400297600.0 -0.5869830901 0.6179998021 0.0001954618 0.0001568064 0.0001426705 6.52153e-05 -0.5828343684 0.614291533
405297570.0 -0.5806686199 0.623110246 -1.2442e-05 -0.0001689703 -1.38428e-05 9.12745e-05 -0.5757155019 0.6202193489
410297540.0 -0.573928185 0.6293384003 0.0001634221 2.63241e-05 -8.84339e-05 3.46773e-05 -0.5691186195 0.6257444234
415297510.0 -0.5676472182 0.6350774247 3.20499e-05 -5.1855e-06 -2.25224e-05 -0.0001138608 -0.56299591 0.6314939482
420297480.0 -0.5608091074 0.6409017993 -0.0001193379 -3.82416e-05 -4.74848e-05 4.85124e-05 -0.5560654358 0.637875832
425297450.0 -0.5546431553 0.6465431367 4.14e-07 0.0001588837 -5.60948e-05 -1.98348e-05 -0.549545668 0.6423544128
430297420.0 -0.5474936887 0.6518678555 0.0003125714 -8.689e-05 7.0674e-05 -0.0001981808 -0.5433088388 0.6487926878
435297390.0 -0.5413345398 0.657259306 0.0001696206 0.0002405841 7.69762e-05 -0.0002179556 -0.5368137279 0.6543688229
440297360.0 -0.5342747262 0.6625201211 -0.0001251934 0.0001470693 -4.16389e-05 8.8269e-05 -0.5299491951 0.659372552
445297330.0 -0.5277430762 0.6683393876 0.0001522013 -6.99942e-05 -5.24477e-05 -9.598e-06 -0.5231746631 0.6649391864
450297300.0 -0.5202883395 0.6733326845 -7.33282e-05 -0.0001150304 -0.0001161465 -4.9212e-05 -0.5156119624 0.6696771489
455297270.0 -0.5137429845 0.6784190938 -0.0001395762 -1.16635e-05 5.61032e-05 -6.05618e-05 -0.5093660107 0.6750411722
460297240.0 -0.5058848928 0.6842173138 9.10384e-05 -0.0002295574 0.0001229322 -0.0001371465 -0.5027491496 0.6798247004
465297210.0 -0.499488253 0.6887751773 9.24928e-05 -9.14287e-05 0.0001124685 6.48499e-05 -0.4950218048 0.6859088543
470297180.0 -0.4923706936 0.6941397023 -6.51378e-05 5.0746e-05 0.000154357 3.01206e-05 -0.4882719368 0.6903277287
475297150.0 -0.4849636912 0.6988144852 -4.8599e-06 -2.07689e-05 -7.00593e-05 -8.06105e-05 -0.4808000327 0.6950411521
480297120.0 -0.4769234064 0.7039508333 7.18933e-05 0.0001022325 -3.28044e-05 1.44725e-05 -0.4745526672 0.6999685549
485297090.0 -0.4706569446 0.7083837068 -6.95792e-05 6.393e-07 5.52746e-05 -5.6598e-06 -0.4670044732 0.7043003274
490297060.0 -0.462473039 0.7140695418 7.14142e-05 -8.6515e-06 -0.0001122513 -0.0001062221 -0.4595492303 0.7089320834
495297030.0 -0.4550631143 0.7180865903 -3.84753e-05 -9.23772e-05 1.15503e-05 0.0001371109 -0.4525805429 0.7134112677
500297000.0 -0.4476541218 0.7219281834 9.42997e-05 -6.16747e-05 2.28317e-05 0.0001642833 -0.4452955357 0.7183060989
505296970.0 -0.4393293232 0.7268770302 5.11237e-05 8.54159e-05 -0.0001182718 8.08126e-05 -0.4378435442 0.722532405
510296940.0 -0.4319678543 0.7313654554 -0.0001410746 -0.0001391766 2.20153e-05 1.54804e-05 -0.4301431397 0.7271500578
515296910.0 -0.4239499584 0.7356493882 -0.0002577575 -0.0002186307 -3.7693e-06 0.000113089 -0.4233991346 0.7309056195
520296880.0 -0.4164674649 0.7399193603 8.66508e-05 -5.00432e-05 -0.000133819 -2.56204e-05 -0.4156602609 0.7360361867
525296850.0 -0.4086481041 0.7442846117 0.0002099218 5.65565e-05 -9.27336e-05 -6.77848e-05 -0.4082569632 0.7393171267
530296820.0 -0.4011241342 0.7475717975 9.02604e-05 8.62417e-05 8.0072e-06 -4.59884e-05 -0.4009746745 0.7439838629
535296790.0 -0.3927267826 0.7519534665 8.70558e-05 4.49433e-05 -3.3979e-05 0.0001038503 -0.3934263903 0.7477419442
540296760.0 -0.3850043832 0.7559303924 3.0591e-05 -7.02327e-05 9.88058e-05 0.0002339822 -0.38524713 0.7515524203
545296730.0 -0.3775648566 0.7601580733 -3.89731e-05 0.0001177133 -0.0001618461 -5.23894e-05 -0.3776700377 0.7553040001
550296700.0 -0.3693629065 0.7636445552 1.22894e-05 6.97949e-05 7.47743e-05 -1.23627e-05 -0.3703654443 0.7591378764
555296670.0 -0.3618562745 0.7674522035 -5.11437e-05 5.60495e-05 0.0001627058 -4.41681e-05 -0.3630003821 0.7619931585
560296640.0 -0.3530171071 0.7703851129 5.62642e-05 0.0001252719 -3.56553e-05 0.0001502191 -0.3547556471 0.7663321696
565296610.0 -0.3457385207 0.7742002305 0.0003400987 -0.0001437293 0.0001479156 -9.36668e-05 -0.346872914 0.7699047053
570296580.0 -0.3368456668 0.7780168197 1.98222e-05 -3.97089e-05 0.0001428235 2.2549e-05 -0.3392213254 0.7729027606
575296550.0 -0.328230241 0.7814592654 0.0001799333 -5.22394e-05 -1.55084e-05 -1.90683e-05 -0.3314652673 0.7761358307
580296520.0 -0.3216152929 0.7843605234 9.6539e-06 -1.30572e-05 -5.33775e-05 -4.68687e-05 -0.3241304884 0.7793222801
585296490.0 -0.312604874 0.7875603883 -0.0001247669 2.16065e-05 4.2362e-05 -5.10947e-05 -0.3153855362 0.7831477872
590296460.0 -0.304009926 0.7902467548 -8.31291e-05 2.02795e-05 2.3944e-05 2.39864e-05 -0.3076360429 0.7856787075
595296430.0 -0.2966147397 0.7934021791 -6.79615e-05 -2.3727e-06 -2.43019e-05 2.37139e-05 -0.299920119 0.7891898828
600296400.0 -0.2884569221 0.7963068308 -0.0001051344 -0.0002132799 8.02354e-05 7.21257e-05 -0.2919237926 0.7919876181
605296370.0 -0.2800334749 0.7997834323 -0.0001493865 -0.0001048776 -0.0001237631 -2.20825e-05 -0.2844333382 0.7948495608
610296340.0 -0.2715659607 0.8027251399 -7.52548e-05 -4.3067e-05 -9.0504e-06 -0.0001952804 -0.2763014379 0.7979937502
615296310.0 -0.2629766964 0.8055516034 -7.7796e-06 -3.99996e-05 -0.0002006634 -3.34298e-05 -0.2677297817 0.8004856835
620296280.0 -0.2554048463 0.8083877632 -3.26319e-05 6.50286e-05 0.0001355071 0.0001606845 -0.2602299759 0.8031192232
625296250.0 -0.2473908928 0.8100081789 -0.0001502674 -4.79708e-05 -4.6178e-05 1.35169e-05 -0.2517505223 0.8049467479
630296220.0 -0.2391419253 0.8133820083 0.0002525598 -0.0001576431 5.54536e-05 0.0002607925 -0.2436797322 0.8077767668
635296190.0 -0.230372243 0.8157798066 4.71199e-05 2.71593e-05 -4.69188e-05 0.0001804287 -0.2361761398 0.8104051894
640296160.0 -0.2217198354 0.8180539034 -0.0001741411 2.31878e-05 -7.93949e-05 0.0001920659 -0.2272750089 0.812448459
645296130.0 -0.2136276512 0.8204378254 4.52199e-05 0.0001631218 -9.98942e-05 8.0429e-05 -0.2197762697 0.8145211567
650296100.0 -0.205673786 0.8215582794 -0.0001392446 6.34941e-05 -4.35367e-05 7.2681e-05 -0.2109769385 0.816669218
655296070.0 -0.197913642 0.8243778593 0.0002668725 0.0001693653 0.0002641777 0.0002223822 -0.2032800988 0.8193789258
660296040.0 -0.1887340716 0.8259509869 -0.0001133654 -1.12078e-05 3.17514e-05 -0.0001566102 -0.1946058015 0.8212458875
665296010.0 -0.1811451066 0.8284580099 -0.0001142976 0.0002075692 -1.5353e-06 -0.0001041088 -0.1865142655 0.8223194501
670295980.0 -0.1729597464 0.8306928597 1.48642e-05 -0.000118277 1.8002e-06 -0.0002084275 -0.178352251 0.8243031729
675295950.0 -0.1644225425 0.8320712952 1.72281e-05 -3.88148e-05 -7.6126e-06 5.47151e-05 -0.1701004432 0.8266886611
680295920.0 -0.1562445997 0.8337738903 2.79337e-05 -0.000238087 1.93653e-05 -1.44997e-05 -0.1617652139 0.8278794364
685295890.0 -0.1476664109 0.8351489342 -0.000193135 -4.24693e-05 -6.08852e-05 0.000105281 -0.1533849428 0.8296983827
690295860.0 -0.1391519688 0.8369306211 0.0001797671 4.52811e-05 0.0001670785 -0.0001129177 -0.1453043265 0.831498854
695295830.0 -0.130663224 0.8387293442 0.0004615458 -1.52674e-05 -0.0001340916 3.28837e-05 -0.1370325795 0.8331807365
700295800.0 -0.1227158591 0.8398787771 9.9249e-05 7.42238e-05 0.0001189681 -6.79758e-05 -0.1285775506 0.8337383709
705295770.0 -0.1149285281 0.8413848635 2.47397e-05 0.0001114574 9.4065e-06 -1.83972e-05 -0.1205908773 0.835518758
710295740.0 -0.1069552704 0.8417837194 2.04868e-05 4.35429e-05 0.0001152585 1.9646e-06 -0.112302063 0.8361086284
715295710.0 -0.0978901502 0.8433105792 -0.0001970408 -8.68589e-05 -3.19556e-05 0.0001020356 -0.1033751607 0.837069408
720295680.0 -0.0891411798 0.8436616497 0.0001259329 -9.7157e-06 -0.0001455565 -0.000170637 -0.0946944978 0.8381318062
725295650.0 -0.0819000407 0.845765149 -8.25423e-05 -0.00020004 8.70121e-05 -0.0001477031 -0.0873888393 0.8394952227
730295620.0 -0.0737925895 0.8462320861 -5.87282e-05 1.15048e-05 -0.0001778036 0.0001091903 -0.0789543496 0.8404603124
735295590.0 -0.065947761 0.8476698824 5.76042e-05 -8.30461e-05 -4.68124e-05 7.20413e-05 -0.0699795172 0.8409848429
740295560.0 -0.0572799699 0.8479420063 3.32043e-05 -0.0003343607 -5.80563e-05 9.45326e-05 -0.0614807805 0.8415594278
745295530.0 -0.0487765861 0.8482831269 -0.0001447759 -8.09711e-05 4.27237e-05 0.0001469392 -0.0537375011 0.8415899709
750295500.0 -0.041514634 0.8493803354 8.95403e-05 -8.26206e-05 1.31924e-05 -8.10332e-05 -0.0447922466 0.8425688048
755295470.0 -0.0326307715 0.8498680592 5.14233e-05 -4.29534e-05 -1.3579e-05 0.0001280958 -0.0371736421 0.843034335
760295440.0 -0.0245021134 0.8508094282 -0.000298304 -7.46615e-05 9.03301e-05 -0.0001466135 -0.0284651966 0.84305194
765295410.0 -0.016426237 0.8503310201 -0.0002052969 -0.000192681 -6.54841e-05 -6.46484e-05 -0.0198426854 0.843480512
770295380.0 -0.0089020415 0.8511299687 0.0001159085 -9.49939e-05 -0.0001170379 -8.97451e-05 -0.0117434898 0.8434170498
775295350.0 -0.0001038871 0.8514711272 -0.0001187504 -1.57469e-05 -0.0001510605 4.01912e-05 -0.0035167036 0.8428197703
780295320.0 0.0085951029 0.8513161796 0.0001368726 -9.26913e-05 -0.0002938853 0.0001389139 0.0050943937 0.8434795124
785295290.0 0.0166954842 0.8509782489 0.0001651951 -1.98698e-05 0.0001093067 0.0001514204 0.0130641248 0.843856525
790295260.0 0.0248855282 0.8508635389 0.0001307648 7.93002e-05 7.97546e-05 -7.45368e-05 0.0216930579 0.8433892602
795295230.0 0.0326171492 0.8504311464 0.0002065882 9.35936e-05 -2.88378e-05 -1.63529e-05 0.0296545141 0.842313573
800295200.0 0.0412044858 0.8507646579 0.0001196701 -1.64032e-05 1.6067e-06 -5.61361e-05 0.0383412526 0.8420870122
805295170.0 0.0494840404 0.8508255523 -0.0001277908 0.0004014301 4.19301e-05 -5.3707e-05 0.0471622988 0.8422691235
810295140.0 0.0574525531 0.8505152021 -8.21762e-05 -6.50242e-05 3.34853e-05 0.0001167446 0.0555856728 0.8416431434
815295110.0 0.0651085647 0.8495122438 0.0001100882 -7.73844e-05 0.0001084184 -0.000103756 0.0633997266 0.8414739998
820295080.0 0.0735102763 0.8490897045 0.0001680689 -0.0001335797 -0.0001036742 0.0001646697 0.0710922555 0.8407822694
825295050.0 0.0818683187 0.8482379593 -1.15933e-05 -8.04044e-05 -1.95927e-05 3.18117e-05 0.0800171727 0.8397892552
830295020.0 0.0906095028 0.8479139693 0.0001166637 1.78016e-05 -7.3906e-06 -0.0001629474 0.088093105 0.8382251687
835294990.0 0.0981812274 0.8464993289 8.686e-07 4.4198e-05 0.0001159025 -4.027e-06 0.0967176776 0.838174238
840294960.0 0.1064831466 0.8454609379 -9.91992e-05 -9.08545e-05 -0.0001829856 3.53935e-05 0.1051143682 0.8367590858
845294930.0 0.1145964922 0.844397079 4.97524e-05 -5.58228e-05 0.0002228323 -0.0001924813 0.1134077822 0.835573158
850294900.0 0.1237601408 0.8435861715 0.0001892165 8.48318e-05 -9.08138e-05 -3.4256e-05 0.1210901305 0.8347568346
