!Created with skrf (http://scikit-rf.org).
# Hz S RI R 50.0 
!freq ReS11 ImS11 ReS21 ImS21 ReS12 ImS12 ReS22 ImS22
300000.0 -0.7743381009 -0.1720478295 -0.0002779699 0.0008058439 -0.0003659461 0.0011790307 -0.2091812026 -0.1043533816
5299970.0 -0.7862868404 -0.0097253977 -3.42254e-05 0.0001679112 0.000283521 0.0001500819 -0.2161219798 0.0063776785
10299940.0 -0.7891282467 -0.0056635603 -2.08351e-05 9.27435e-05 -0.0001328859 8.34523e-05 -0.2122018377 0.0187055675
15299910.0 -0.7942163422 -0.0033944562 0.0001206178 0.0001679527 3.6581e-06 1.72318e-05 -0.2074700765 0.0283660565
20299880.0 -0.8004871567 0.0005576617 9.33694e-05 -3.46468e-05 -6.859e-05 9.78757e-05 -0.2024800306 0.0357369349
25299850.0 -0.8076879387 0.0067366123 5.1439e-05 -3.78053e-05 1.27777e-05 3.1177e-05 -0.1964741385 0.0418670745
30299820.0 -0.8139921718 0.0140346833 -0.0002216112 8.23365e-05 -0.0001612093 -7.32792e-05 -0.1908857661 0.04653609
35299790.0 -0.8183637596 0.0228539434 -0.000102093 -4.71897e-05 3.22375e-05 -3.36834e-05 -0.1851213582 0.050854889
40299760.0 -0.823411886 0.032105319 0.0001079027 0.0001599341 -0.0001017793 0.0001656608 -0.179433768 0.0532781294
45299730.0 -0.8263534561 0.0415258562 -1.8002e-05 -5.28557e-05 -2.18103e-05 -0.0001048191 -0.1747397637 0.0554829465
50299700.0 -0.8288472752 0.0519022545 8.79442e-05 -0.0001204484 2.34569e-05 0.0001396744 -0.1697438283 0.0570532364
55299670.0 -0.8312243113 0.0613969272 1.73723e-05 8.11153e-05 0.0001107507 -1.36425e-05 -0.1654959895 0.0579426108
60299640.0 -0.8328545849 0.071840994 -0.0002064751 0.0001588471 0.0001146244 -1.29299e-05 -0.1612792278 0.0583657563
65299610.0 -0.8334749423 0.0816783474 6.82459e-05 3.87252e-05 0.0002102601 -1.6212e-05 -0.1577296044 0.0594393078
70299580.0 -0.8339409949 0.0913422058 4.62634e-05 -1.70489e-05 7.42065e-05 -5.59637e-05 -0.1546378411 0.0594980907
75299550.0 -0.8335534037 0.1014933363 -2.1021e-05 0.0001517752 -0.0001477079 1.73008e-05 -0.1514833749 0.0598751996
80299520.0 -0.8343237852 0.1119475696 -0.0001447816 2.97811e-05 6.35721e-05 4.2719e-06 -0.1486951738 0.0600543589
85299490.0 -0.8330301861 0.1208400359 6.84568e-05 -0.0001727858 3.72174e-05 -5.82413e-05 -0.1464022883 0.0596927979
90299460.0 -0.8323889072 0.131638941 6.52868e-05 1.16556e-05 -0.0001421763 2.71493e-05 -0.1439624507 0.0599837574
95299430.0 -0.8317745159 0.1405355312 0.0002109824 -2.3803e-05 0.0001008952 -0.0001834145 -0.1419712327 0.0599027448
100299400.0 -0.830797448 0.1499702705 -0.0001773209 0.0001145341 -9.47451e-05 -7.6941e-06 -0.1405962701 0.060180651
105299370.0 -0.8285725088 0.1594544263 0.0001343277 0.0001715864 0.0001162671 0.0001183941 -0.1384754436 0.059766642
110299340.0 -0.8275972353 0.1686023354 2.91832e-05 0.0001818795 -1.38e-07 0.0001228516 -0.1374084366 0.059604678
115299310.0 -0.825971277 0.1770568012 -7.22919e-05 0.0001223547 0.0001571315 9.9402e-06 -0.1359978782 0.0598787953
120299280.0 -0.8243371274 0.1870617473 -0.0001161171 0.0002254386 -7.26373e-05 5.83595e-05 -0.1347113509 0.0598594716
125299250.0 -0.8226798233 0.1955654062 -0.0001487544 0.0001614477 4.00013e-05 0.000183691 -0.1337711146 0.0600752872
130299220.0 -0.8207181061 0.205159726 -2.78925e-05 -8.017e-05 1.5153e-05 -0.0001007425 -0.1327890245 0.0602386355
135299190.0 -0.8186865245 0.214466169 -4.4851e-06 9.12936e-05 -7.51815e-05 7.76926e-05 -0.1316603611 0.0603734437
140299160.0 -0.8171691515 0.2237012569 3.2041e-06 3.57257e-05 0.0001621856 0.0001163471 -0.1311258047 0.0606737312
145299130.0 -0.8147510548 0.2321810842 -0.0001814427 6.72329e-05 0.0003342747 7.77338e-05 -0.130240625 0.0608818689
150299100.0 -0.8119167657 0.2411404782 -5.18588e-05 2.11261e-05 0.0001124234 3.55495e-05 -0.129921819 0.06147191
155299070.0 -0.8103075442 0.2501244924 0.0001044218 -9.82424e-05 2.11987e-05 0.0001740572 -0.129012038 0.0622806176
160299040.0 -0.8071344111 0.2592960397 -0.0001877191 0.00012458 -2.23288e-05 -0.0001317004 -0.1285852923 0.0623665571
165299010.0 -0.8049395145 0.2678247486 4.89452e-05 0.0002816025 0.0001185931 0.0001085801 -0.1278639236 0.0625641225
170298980.0 -0.8015932082 0.2763816639 0.0001501515 0.0002634309 -3.5374e-06 6.43648e-05 -0.1272965058 0.0631492175
175298950.0 -0.7989880902 0.2845006807 3.26337e-05 0.0001116869 5.78565e-05 -0.0001042501 -0.1266855169 0.0640693227
180298920.0 -0.7957638348 0.2932853477 0.0001291464 0.0001732329 2.04042e-05 -5.69224e-05 -0.1258711991 0.0643556924
185298890.0 -0.7925820113 0.3018164658 -9.07492e-05 0.000193146 8.78154e-05 1.24401e-05 -0.1255251565 0.0646887713
190298860.0 -0.7891744858 0.3105244279 -6.123e-05 -0.0001117162 7.21112e-05 6.32241e-05 -0.1249252331 0.065603393
195298830.0 -0.7861135992 0.319160284 0.0001295794 1.3163e-06 4.893e-06 -0.000116485 -0.1248171636 0.0663442353
200298800.0 -0.7824629935 0.3276140314 -7.35523e-05 -4.4911e-05 0.0001646004 0.0002152363 -0.1241341291 0.0670436804
205298770.0 -0.7792813479 0.3365597272 -7.38733e-05 0.0001961136 -1.04323e-05 6.27526e-05 -0.1236875074 0.0679075186
210298740.0 -0.776336023 0.3448122305 0.0002783202 0.0002533921 -0.0001511427 -2.40631e-05 -0.1234339974 0.0686954058
215298710.0 -0.7722261789 0.3531349947 0.0001785973 0.0001107722 0.0001291685 0.0001343895 -0.1228783564 0.0693644211
220298680.0 -0.7688505097 0.3611608819 -2.10182e-05 5.44886e-05 0.0001042793 9.72751e-05 -0.122370592 0.0702121984
225298650.0 -0.7644321108 0.3692546742 0.0001970396 0.0002082033 6.58361e-05 0.0001836222 -0.121887972 0.0709367915
230298620.0 -0.7608951813 0.3775503834 0.0001839778 0.000264627 0.0002462266 8.14712e-05 -0.1214560456 0.0717878266
235298590.0 -0.7574598735 0.3862568544 -9.9572e-06 -3.41477e-05 0.0001067276 0.0001631467 -0.1209816506 0.0725657993
240298560.0 -0.7527839508 0.3936214856 0.0001631402 7.62152e-05 7.99154e-05 0.0001283894 -0.1206537129 0.0734773168
245298530.0 -0.7486846893 0.4020149003 8.63874e-05 2.80261e-05 4.36028e-05 0.0001424996 -0.1201816594 0.0745482398
250298500.0 -0.744515694 0.4093402927 0.0001416962 -6.92991e-05 4.6988e-06 0.0001178896 -0.1196905014 0.075462328
255298470.0 -0.7407416126 0.4169908284 -0.0001222945 0.0001390294 8.91188e-05 0.0001766568 -0.1189363466 0.0759098813
260298440.0 -0.7364490125 0.4247762017 6.00513e-05 0.0001727843 6.11179e-05 0.0001709911 -0.1188863753 0.0772549874
265298410.0 -0.7319628438 0.4329021403 7.6824e-06 0.0001660097 -9.71158e-05 -1.2473e-05 -0.1179733236 0.0781365859
270298380.0 -0.7272326037 0.4402769749 9.13547e-05 0.0001313798 0.0001255033 0.0001345242 -0.1174355344 0.0792197653
275298350.0 -0.723112731 0.448059933 5.84571e-05 0.0001869677 0.0001731438 8.93914e-05 -0.1168676779 0.0805252923
280298320.0 -0.7182287237 0.4552136884 7.38058e-05 0.0004694266 0.0001407048 -8.61855e-05 -0.1166510848 0.0808749709
285298290.0 -0.7136036033 0.4636217888 -2.84253e-05 3.64006e-05 0.0001426909 -5.2567e-06 -0.1160781162 0.0824299303
290298260.0 -0.7085508653 0.4708585358 -1.784e-05 0.0001547909 3.96304e-05 3.38383e-05 -0.1154099134 0.0834678815
295298230.0 -0.7037575553 0.4781059029 -9.83707e-05 1.12798e-05 0.0002278903 5.82477e-05 -0.1148187778 0.0840346491
300298200.0 -0.6990941849 0.4854134705 0.0001242381 -8.09579e-05 0.0001053371 0.0001537936 -0.1136591354 0.0856241097
305298170.0 -0.6942322945 0.4923714754 -1.21184e-05 7.76566e-05 3.66152e-05 -8.83147e-05 -0.1133528077 0.0863334804
310298140.0 -0.6887728636 0.4998006505 0.0001308765 0.0002494562 0.0001398505 0.0001154314 -0.1127474926 0.0873433286
315298110.0 -0.6841384136 0.5067870294 -2.59469e-05 9.3276e-05 -0.0001216225 8.33757e-05 -0.11184811 0.0882451528
320298080.0 -0.6789369462 0.5139541686 6.85803e-05 0.0001215686 0.0002658231 -1.68541e-05 -0.1117614319 0.0894048811
325298050.0 -0.6735893172 0.5208241345 -0.0001326831 0.0001164631 0.0002395515 -4.0682e-06 -0.110584565 0.0901038749
330298020.0 -0.6683461988 0.5275235996 7.91906e-05 4.75668e-05 0.0001612004 0.0001383095 -0.1103823455 0.0913367267
335297990.0 -0.6628289159 0.5347295589 0.0001087738 3.82791e-05 0.0003274449 4.44519e-05 -0.1095377447 0.0923155108
340297960.0 -0.6577182046 0.5413406265 0.0004401769 -0.0002257281 0.0001277345 0.0001224114 -0.108898507 0.0932646309
345297930.0 -0.6522287937 0.5480827883 -1.63117e-05 -0.0002044407 5.54292e-05 0.0001448264 -0.1084394623 0.0941413403
350297900.0 -0.6462183108 0.5548928323 9.68464e-05 0.0001208162 0.0001700727 0.0002140236 -0.1081914046 0.0953967885
355297870.0 -0.6412220989 0.5615692799 0.0001165208 -0.0001010026 1.01353e-05 -1.70381e-05 -0.1073370941 0.0966762503
360297840.0 -0.6352025793 0.5682006375 0.0001594163 4.81234e-05 5.44305e-05 7.61729e-05 -0.1065304437 0.0972632735
365297810.0 -0.6295283307 0.5748820419 5.7347e-05 0.0001760018 0.0002725778 4.53211e-05 -0.1060244416 0.0986748643
370297780.0 -0.6234723277 0.5802982711 -1.57518e-05 0.0001405787 -0.0001791585 2.92271e-05 -0.1050593156 0.0999058283
375297750.0 -0.61783682 0.5870267321 -3.71309e-05 -1.5372e-06 0.0001658136 2.10488e-05 -0.1044362295 0.1009169157
380297720.0 -0.6122958161 0.5933290376 0.0001178149 -5.84882e-05 0.0001766313 1.57752e-05 -0.1032542362 0.1021882336
385297690.0 -0.6061166193 0.5993636937 0.0001069198 0.0001476834 -1.07103e-05 0.0002056479 -0.1027312403 0.1032900025
390297660.0 -0.5984312185 0.605436766 -2.16596e-05 -6.15611e-05 5.20557e-05 0.0002302943 -0.1017803145 0.1041624787
395297630.0 -0.5935598647 0.6119849639 0.0001927006 0.0001294646 6.18813e-05 3.9171e-06 -0.1012305164 0.1050950456
400297600.0 -0.5870469797 0.6183120262 3.7105e-05 7.58829e-05 0.000234107 0.0001317462 -0.100271354 0.1060853907
405297570.0 -0.5806352864 0.6231391258 0.0002461347 -2.0339e-06 0.0003176555 0.0002718541 -0.0991810164 0.1073801421
410297540.0 -0.5738202796 0.6298654376 0.0001222488 0.0002331672 0.0001383556 0.0002360006 -0.0983672988 0.1085416554
415297510.0 -0.567835219 0.6351457491 0.0001013539 7.50002e-05 0.0001323879 -3.27e-06 -0.0974528623 0.1094952446
420297480.0 -0.5605219708 0.6410471694 5.83952e-05 0.0001828861 5.3754e-05 -3.17043e-05 -0.0964026457 0.1108258569
425297450.0 -0.554845127 0.6465173588 0.0001065732 -0.000160827 0.0001158138 0.0001586977 -0.0961255312 0.1113580226
430297420.0 -0.5482800287 0.6518335613 0.0002137614 0.0001052044 0.0002345014 0.0002826769 -0.0946837739 0.1126286475
435297390.0 -0.5412064735 0.6577244661 0.0001837002 -4.86286e-05 9.4693e-05 2.32167e-05 -0.0942140524 0.1141777017
440297360.0 -0.534365216 0.6629263816 0.0001183293 4.08248e-05 0.0001672135 0.0001739398 -0.0932034383 0.1146695541
445297330.0 -0.5275261629 0.6683072725 0.0001508465 0.0001009712 3.7801e-05 5.00659e-05 -0.0917968673 0.1158668554
450297300.0 -0.5206684538 0.6738199242 2.42576e-05 -9.7866e-06 0.0001903648 -3.33804e-05 -0.0904744811 0.1166610905
455297270.0 -0.5137825237 0.6784582682 0.0001840111 0.0001533998 0.000399246 0.0002540265 -0.0900509738 0.1176923952
460297240.0 -0.5059303597 0.6835976943 7.57059e-05 7.46229e-05 0.0001306892 0.0002976784 -0.0891904299 0.1188330416
465297210.0 -0.4988002894 0.6893868219 0.0002759971 0.0002065141 0.0001780331 -2.9977e-05 -0.0879575368 0.1200528911
470297180.0 -0.4920201693 0.6943388557 9.55747e-05 0.0002367775 0.0004624209 8.46642e-05 -0.0870027762 0.1209218068
475297150.0 -0.4845384474 0.6987668845 0.0002278842 -7.91888e-05 0.0004016212 -3.09012e-05 -0.0861481263 0.1220975438
480297120.0 -0.476731949 0.704128594 0.0002248506 0.0001752188 7.1855e-06 3.22446e-05 -0.0850927383 0.1229529231
485297090.0 -0.469922851 0.7088313204 0.0001705778 2.31987e-05 0.0003466689 -0.0001502145 -0.0837474786 0.1233864843
490297060.0 -0.4619963474 0.7135729552 4.95084e-05 0.0001049152 0.0001630087 0.0001239536 -0.0825976644 0.1245934782
495297030.0 -0.4548149639 0.718235353 0.0001080329 3.50218e-05 0.0001668353 0.0001172021 -0.0818617753 0.1256570389
500297000.0 -0.4472692499 0.721929702 0.0001507751 -8.21607e-05 0.0002276214 4.61572e-05 -0.080676942 0.126355943
505296970.0 -0.4395234399 0.7270895265 0.0002654953 -4.6418e-06 0.000149427 4.9964e-06 -0.0795069133 0.1271229333
510296940.0 -0.4324855511 0.7314001639 0.0001810007 0.0002847794 0.0001421719 -8.04411e-05 -0.0780138912 0.1285863509
515296910.0 -0.423919712 0.7359646587 0.0001626861 0.0001462347 0.0002919003 0.0002724061 -0.0772900789 0.1293464676
520296880.0 -0.4159260979 0.7400173738 0.0001915877 0.0001281797 4.50248e-05 0.0001321949 -0.0758036916 0.1304876355
525296850.0 -0.4088760766 0.7438819756 0.0001174883 0.0001219137 0.0003047305 0.0001037225 -0.0748122074 0.131108373
530296820.0 -0.4018598215 0.7480089996 0.0004057598 -2.19437e-05 0.0003950594 7.03824e-05 -0.07363826 0.1320374012
535296790.0 -0.3930066113 0.752034768 0.0002701678 -8.20726e-05 0.0001590987 0.0001020834 -0.0722420921 0.1330363329
540296760.0 -0.3849021819 0.7559602772 0.0002206391 6.54619e-05 0.0003438713 3.7922e-06 -0.0714820721 0.1337007825
545296730.0 -0.3772951086 0.7599841458 0.0002555658 -0.0001140238 0.0001726926 8.7466e-05 -0.0702050488 0.1346139218
550296700.0 -0.3692820962 0.7634870419 0.0001004717 4.18374e-05 6.59263e-05 3.86949e-05 -0.0687719865 0.1354858058
555296670.0 -0.3612880287 0.7674193066 0.0001750921 0.0001355981 0.0001151086 1.69531e-05 -0.0678986674 0.1360253306
560296640.0 -0.3531811175 0.7707190588 0.0004048719 -0.0001558375 0.0001503345 8.9913e-06 -0.0667309025 0.1371317563
565296610.0 -0.3455157183 0.7744611753 0.0003222296 -4.21472e-05 5.946e-06 -0.0001233267 -0.065252077 0.1378678839
570296580.0 -0.3369442152 0.7782804188 0.0002968811 0.0001533894 0.0001858496 -6.75362e-05 -0.0641123316 0.1387688283
575296550.0 -0.327780186 0.7811047421 0.0002331629 -4.88027e-05 0.0002898529 0.0002716419 -0.0627664992 0.1394482743
580296520.0 -0.3208611018 0.7842186347 0.0002797294 0.0002414982 0.0002930435 -9.01192e-05 -0.0616780122 0.1399933286
585296490.0 -0.3120143787 0.7877801997 0.0002233788 0.0001401099 -6.43001e-05 -2.92305e-05 -0.0602513605 0.1408551347
590296460.0 -0.3038875784 0.7912992367 -0.0001262672 0.000119816 0.0002096437 0.00018404 -0.0593102885 0.141703314
595296430.0 -0.295984099 0.7935806944 0.0002843178 -1.85674e-05 6.65399e-05 5.18614e-05 -0.058037244 0.1424013058
600296400.0 -0.2883084404 0.7966170383 0.0001437041 0.0002839213 0.0001950851 0.0001608259 -0.0565110019 0.1431744077
605296370.0 -0.2793770522 0.7998453455 0.0003171337 -6.81813e-05 0.0001980371 -2.15192e-05 -0.0550092396 0.144087795
610296340.0 -0.2714179522 0.802488634 0.0002371749 1.59915e-05 0.0002133222 -1.69212e-05 -0.054128806 0.1446260869
615296310.0 -0.2631674341 0.8054289881 0.0002071123 -3.72474e-05 0.0001351991 8.6148e-06 -0.0521685181 0.1452057258
620296280.0 -0.2553078629 0.8087413406 0.0001873978 7.91073e-05 0.0002713558 7.85079e-05 -0.0511003366 0.146224101
625296250.0 -0.2469685309 0.8101061985 0.0003475144 4.0721e-05 0.0003717855 9.5833e-06 -0.049933905 0.1467442283
630296220.0 -0.2390676232 0.812986944 6.11198e-05 -0.0001295744 0.000195734 4.36735e-05 -0.0486106538 0.147354181
635296190.0 -0.2299194063 0.8157983421 0.0002597574 -0.0001030752 0.0002521337 -5.89045e-05 -0.0472140557 0.1481391917
640296160.0 -0.2215234585 0.8177567354 0.0001857206 -4.65582e-05 0.0002425113 8.48106e-05 -0.045793654 0.1490314105
645296130.0 -0.2139470056 0.8204900896 0.000304829 -1.33636e-05 0.0002793234 -3.27751e-05 -0.0445379213 0.1492066867
650296100.0 -0.2052032888 0.8221929898 0.0001387915 0.0001425319 0.0003265984 3.7897e-05 -0.0430425413 0.1501607198
655296070.0 -0.1974882575 0.8240671751 0.0002637072 5.58583e-05 0.0004395513 -0.0001191522 -0.04190302 0.1507634225
660296040.0 -0.1895648245 0.82638005 0.0003384668 9.25261e-05 -5.91906e-05 0.0001030644 -0.0401668948 0.1509442434
665296010.0 -0.1811050121 0.8281847945 0.0001350193 6.692e-07 0.0003041302 -5.09506e-05 -0.0390312164 0.1517991789
670295980.0 -0.1725119011 0.8305879826 0.0003063262 0.0001753775 0.0001534592 0.0001335911 -0.0376005126 0.1522208436
675295950.0 -0.1639578839 0.8317763132 0.0001081258 -0.0001178828 0.0003085524 5.563e-07 -0.036101296 0.152962121
680295920.0 -0.1559930016 0.8336078663 0.0002460116 0.0001735021 0.0002324926 -4.6061e-06 -0.0345997821 0.153390133
685295890.0 -0.1474060999 0.8357076947 0.0002291538 0.0001564851 0.0004316074 5.54847e-05 -0.0334128374 0.1542212389
690295860.0 -0.1388297338 0.837242018 0.0002008558 6.93048e-05 0.0004728816 6.65354e-05 -0.031655952 0.1545419997
695295830.0 -0.1305827295 0.8386549451 0.0001469919 5.46098e-05 0.0003366858 -0.0001204782 -0.0303542388 0.1552459471
700295800.0 -0.1227806675 0.8399842399 0.0002934317 -0.0002384029 0.0002194782 -3.07089e-05 -0.0286257254 0.1551653393
705295770.0 -0.1143447265 0.8415509561 0.0003197932 -4.17211e-05 0.0003532461 3.41962e-05 -0.0275013218 0.1560888808
710295740.0 -0.1067195851 0.842198745 0.0003308389 -6.8008e-06 0.0001324111 0.0001609766 -0.0258167273 0.1564947398
715295710.0 -0.0973288487 0.8435021912 0.0003120753 5.28209e-05 0.0004322796 4.5412e-06 -0.0245304008 0.1567741441
720295680.0 -0.0888062783 0.8446595045 0.0001817642 0.0001054923 0.0001725512 0.0001078287 -0.0231622325 0.1570117293
725295650.0 -0.0815350708 0.8455592629 0.0002995445 0.0001176766 0.0002346234 -0.0001812207 -0.0218787684 0.1575913997
730295620.0 -0.0736999161 0.8464698166 -3.16505e-05 2.03672e-05 0.0002099238 3.3011e-05 -0.020481864 0.1585986131
735295590.0 -0.0656591403 0.847511658 0.0003387189 -7.24828e-05 0.0004681755 -2.12581e-05 -0.0184000147 0.1586160015
740295560.0 -0.0574031863 0.8477615801 0.0003037695 -5.48518e-05 0.0004547212 -4.08035e-05 -0.0171504923 0.1587303593
745295530.0 -0.0488056109 0.84926796 0.0003244569 9.41304e-05 0.0002740427 -0.0001086928 -0.0157876905 0.1593380909
750295500.0 -0.0415735575 0.8486034964 0.0003742563 -9.93669e-05 0.0003460122 -9.7901e-05 -0.0141855192 0.1594786218
755295470.0 -0.0325872395 0.8492796873 0.0001306639 -0.0002395445 0.0001902557 -9.46663e-05 -0.0129177327 0.1603590769
760295440.0 -0.024287403 0.8507099005 0.0003260161 0.0001591952 0.0001685116 4.05793e-05 -0.0111437272 0.1598223731
765295410.0 -0.0160069764 0.8507986646 0.0003031948 -0.0001847813 6.4274e-05 -5.57723e-05 -0.0096099923 0.1606040926
770295380.0 -0.0087862978 0.8511127434 0.0002178567 -1.65256e-05 0.0001092812 -2.16433e-05 -0.0083533043 0.1609062866
775295350.0 0.0001335395 0.8509784233 0.0004991293 6.40279e-05 0.000321978 -2.82006e-05 -0.0066609934 0.1609781757
780295320.0 0.0095003089 0.851709574 0.0003079111 -0.0002410042 0.0001954153 -0.0002065334 -0.0049100535 0.1616386533
785295290.0 0.0164451447 0.8508838386 0.0003330428 -0.0002441161 0.0002890415 -8.68122e-05 -0.0035334504 0.1617427602
790295260.0 0.0250398888 0.8510181705 0.000333587 -0.0003306272 0.0002822318 -7.43948e-05 -0.0023168482 0.1620501775
795295230.0 0.0328560339 0.8506958342 0.0004069466 -0.0001392011 8.48002e-05 -0.0002442784 -0.0008209143 0.1616601546
800295200.0 0.0413081844 0.8508847892 0.0001695653 -3.28423e-05 0.0001590701 -8.56398e-05 0.0004795678 0.1620427915
805295170.0 0.0493862004 0.8507286129 0.0002422207 -0.0002597689 0.0003921004 7.84579e-05 0.0024185157 0.1621517548
810295140.0 0.0577935153 0.8502553109 0.0001934425 7.27037e-05 0.0001662148 -6.04625e-05 0.0040215769 0.1624573758
815295110.0 0.0653931158 0.8494890406 0.0003098138 -0.0002270673 0.0003862086 -0.0001407217 0.0054382444 0.16279213
820295080.0 0.0738776266 0.8489051826 0.0005834716 -0.0001172434 0.0001966589 0.0001093792 0.0065000375 0.1632512204
825295050.0 0.0817174657 0.8484591175 0.0003710036 1.0794e-06 0.0002771074 -8.99638e-05 0.0088217263 0.1630547142
830295020.0 0.0901848777 0.8473008589 0.0003589542 -0.0002071455 0.0004114967 -0.0002277397 0.0099951502 0.1629507321
835294990.0 0.0981566331 0.8465766556 0.0002002475 -0.0001970908 0.000223169 -3.5469e-05 0.0116785833 0.1633891528
840294960.0 0.106709338 0.8455525302 0.0002508036 -0.0001254929 0.0002712197 -0.0001151368 0.0133275861 0.163320052
845294930.0 0.1146150333 0.8441374992 0.0002480855 -0.0001487999 3.70062e-05 6.57108e-05 0.0146603519 0.1634750401
850294900.0 0.1242086993 0.8431339537 0.0002772005 1.2343e-05 0.0002519247 -0.0001525914 0.01616219 0.1637293857
