!Created with skrf (http://scikit-rf.org).
# Hz S RI R 50.0 
!freq ReS11 ImS11 ReS21 ImS21 ReS12 ImS12 ReS22 ImS22
300000.0 -0.2304736954 -0.1287037804 0.4657045111 0.0843060407 0.4663209437 0.0845071841 -0.2360197117 -0.1290131757
5299970.0 -0.2420926523 0.0051182421 0.4748167163 0.0060008312 0.4752083624 0.0061641136 -0.2444621999 0.0046886439
10299940.0 -0.2386579817 0.0189120021 0.4772090006 0.0070168237 0.4772395478 0.0071399418 -0.2409221126 0.0174174743
15299910.0 -0.2337407737 0.0286417939 0.4806480733 0.0079412351 0.4808935433 0.0080519104 -0.2370673496 0.0264903005
20299880.0 -0.2285040241 0.0367437849 0.4854202001 0.008331481 0.4857115031 0.0085693154 -0.2322501685 0.0337871284
25299850.0 -0.2224813291 0.0435611153 0.490713438 0.0073742937 0.4907167394 0.0072806038 -0.2269700887 0.040006974
30299820.0 -0.2173251393 0.0489088929 0.4960962467 0.0050795177 0.4960704239 0.0048381062 -0.2217067906 0.044923949
35299790.0 -0.2112273629 0.0528560426 0.500695072 0.0020328693 0.5013996078 0.0016969654 -0.2170925163 0.0491168608
40299760.0 -0.2061353936 0.0560521252 0.5063180715 -0.0018063383 0.5066718289 -0.002156663 -0.2121884953 0.0520955619
45299730.0 -0.20107258 0.058426557 0.5110043954 -0.0064515031 0.5116213801 -0.0070479601 -0.2071300567 0.0550075445
50299700.0 -0.1959110974 0.0608619007 0.5151174638 -0.0125243003 0.5153740964 -0.0126565948 -0.2029431278 0.0567934434
55299670.0 -0.1919507038 0.062179762 0.5190260824 -0.0176845379 0.5190314018 -0.0183694169 -0.1991516504 0.0585629396
60299640.0 -0.1877148077 0.0640278304 0.522551609 -0.0246836982 0.522419374 -0.0247763929 -0.1952791118 0.0595051539
65299610.0 -0.1843352289 0.0651292845 0.5253897044 -0.030979316 0.5255851905 -0.0308509209 -0.191922439 0.0608716084
70299580.0 -0.1805721836 0.0657365212 0.5276866041 -0.037253484 0.5276605876 -0.0377672245 -0.1892368451 0.061846864
75299550.0 -0.1779811871 0.066679003 0.5293823253 -0.0448709034 0.529781814 -0.0443996239 -0.1864995401 0.062825589
80299520.0 -0.1750928292 0.0678042394 0.5314671399 -0.0516421613 0.5316607997 -0.0512731915 -0.1837372991 0.0636518898
85299490.0 -0.172325485 0.0684572969 0.5324591579 -0.0584074811 0.5329594049 -0.0577436827 -0.1818262632 0.064081345
90299460.0 -0.1702125336 0.069147008 0.5337747108 -0.0652731527 0.5334725431 -0.0647158198 -0.1791436907 0.0650515498
95299430.0 -0.1679245883 0.0695634745 0.5344306582 -0.0719126827 0.534791677 -0.0722430955 -0.1774288201 0.0657916158
100299400.0 -0.1659897632 0.0702046747 0.5347835523 -0.0785988666 0.534947916 -0.0789626709 -0.1757053916 0.0665077061
105299370.0 -0.1641649801 0.070970844 0.5352268979 -0.0855855681 0.53569447 -0.0858213729 -0.1736901849 0.0665877274
110299340.0 -0.1621464823 0.0713902818 0.535500719 -0.0923354107 0.535940557 -0.0920516523 -0.1726560453 0.067415903
115299310.0 -0.1605823161 0.0724400301 0.5353343769 -0.0990610908 0.5354485947 -0.0992458785 -0.171472195 0.0683368843
120299280.0 -0.1596229909 0.0733177511 0.5355424682 -0.106351251 0.5352227176 -0.1064115329 -0.1702414048 0.0686335858
125299250.0 -0.1578440923 0.0740808329 0.5348668275 -0.1130482761 0.5346248229 -0.1125355508 -0.1690144036 0.0694919959
130299220.0 -0.1567910568 0.0747677344 0.5345997324 -0.119662637 0.5342792007 -0.1200637579 -0.1677758775 0.0704604083
135299190.0 -0.1556925495 0.0758509446 0.5339071433 -0.1261227587 0.5340277581 -0.1266146901 -0.166791819 0.0710386253
140299160.0 -0.1542584078 0.0767767064 0.5332442126 -0.1331897131 0.5327664097 -0.1329355329 -0.1660184223 0.0719373034
145299130.0 -0.153520189 0.0778278027 0.5320215644 -0.1396455068 0.5321781724 -0.1396338428 -0.1648319958 0.0728842781
150299100.0 -0.1522567524 0.0788203798 0.5307511026 -0.1460502322 0.5308641514 -0.14589322 -0.1643981447 0.0739725254
155299070.0 -0.1508212213 0.0800177807 0.5291748525 -0.1523622639 0.5296964038 -0.1527441681 -0.1633614725 0.0747531756
160299040.0 -0.1500014666 0.0811057326 0.5280175058 -0.1590799943 0.5280056126 -0.1590569332 -0.1629118844 0.0759585459
165299010.0 -0.1488020557 0.0820383837 0.5268793105 -0.1651593295 0.5265788227 -0.1656682224 -0.1613965388 0.0767573942
170298980.0 -0.1478100071 0.0836472552 0.5248714688 -0.1716552149 0.5252901319 -0.1720786866 -0.1611055817 0.0779638779
175298950.0 -0.1467742842 0.084751069 0.5236747718 -0.1779211663 0.5239792189 -0.1783961953 -0.1603353391 0.079207029
180298920.0 -0.1459255266 0.0860360496 0.5215111077 -0.1845941694 0.5218920202 -0.1845586292 -0.1594324488 0.0799424583
185298890.0 -0.1452484661 0.0870940271 0.5203560926 -0.1905052471 0.5200709605 -0.1906502085 -0.1585884097 0.0810013904
190298860.0 -0.1438028775 0.0887117649 0.5177085539 -0.196792465 0.5184056267 -0.196902676 -0.1579146004 0.0825093424
195298830.0 -0.1431632101 0.0900029913 0.5164046765 -0.2028448151 0.5158243874 -0.2025317854 -0.1570716656 0.0834193625
200298800.0 -0.1417587364 0.0909678935 0.5143598879 -0.2090111696 0.5138403079 -0.2091200369 -0.156290351 0.0843853944
205298770.0 -0.1413276809 0.0923415467 0.5114743453 -0.2145948807 0.5120010896 -0.2147867518 -0.1554632375 0.085821051
210298740.0 -0.1401693464 0.0941010617 0.5099909037 -0.2211164704 0.5093594645 -0.2210127107 -0.1551362163 0.0868955308
215298710.0 -0.1392862487 0.0954524225 0.5071325696 -0.2266079699 0.507313639 -0.2268510865 -0.1541174384 0.08834913
220298680.0 -0.138259961 0.0970419861 0.5045184996 -0.232723365 0.5045785486 -0.2327045077 -0.1535107578 0.0893593179
225298650.0 -0.1373275895 0.0983124185 0.502369212 -0.2384343014 0.502575529 -0.2383364012 -0.1528020312 0.0906545792
230298620.0 -0.1359990715 0.0998460229 0.4997607678 -0.2444207551 0.5001516895 -0.2446099429 -0.152104597 0.0915535101
235298590.0 -0.1357309045 0.101355468 0.4976173847 -0.2503511129 0.4974676186 -0.2502248731 -0.1510987818 0.0933783709
240298560.0 -0.1342282021 0.1029135959 0.494520784 -0.2554056756 0.4944727499 -0.2558572362 -0.1508379852 0.0944052837
245298530.0 -0.1333158333 0.1038567699 0.4915518857 -0.2616420038 0.4916231769 -0.2614960616 -0.1496195515 0.0956032068
250298500.0 -0.1325574146 0.1053322513 0.4889488296 -0.2670838442 0.4890738229 -0.2668863708 -0.1489452357 0.0971990264
255298470.0 -0.1310531075 0.1072408451 0.4862052335 -0.2724290819 0.4862852131 -0.2728987549 -0.1478214315 0.0988569231
260298440.0 -0.130272156 0.1082817673 0.483322723 -0.277328122 0.483679633 -0.2778379015 -0.147434124 0.0997817274
265298410.0 -0.1293212136 0.1100335339 0.4803551014 -0.2837181813 0.4798455947 -0.2840909184 -0.1457893378 0.1009191479
270298380.0 -0.1282053978 0.1113318017 0.4769578903 -0.2889469572 0.4771145796 -0.2890695505 -0.1452812651 0.1026627747
275298350.0 -0.1271283627 0.1130446378 0.4736704338 -0.2943377691 0.4734079836 -0.2942785977 -0.1443880039 0.1041480937
280298320.0 -0.1262583183 0.1142712418 0.470985805 -0.2997201887 0.4709368571 -0.3000427586 -0.1436182931 0.1054868847
285298290.0 -0.1248310054 0.1160784205 0.4670738003 -0.3052615691 0.467836845 -0.3049243454 -0.1427038267 0.106921494
290298260.0 -0.1236731893 0.1173037099 0.464568233 -0.3102178437 0.4644292804 -0.3105076466 -0.1415568999 0.1080818142
295298230.0 -0.1226899939 0.1184861939 0.4608720744 -0.315879034 0.4608790695 -0.3160229275 -0.1405644074 0.1093002296
300298200.0 -0.1213130012 0.1201011021 0.4576209279 -0.3209574649 0.4576398341 -0.32056992 -0.1396490128 0.1106655771
305298170.0 -0.1199977398 0.121200294 0.4542406584 -0.3263898376 0.4541267347 -0.3267022719 -0.1387977742 0.1116418614
310298140.0 -0.1184759763 0.1223828912 0.4504714633 -0.3312371232 0.450880008 -0.3314098821 -0.1376024949 0.1130019414
315298110.0 -0.1177329736 0.1235855446 0.4470576204 -0.3365766567 0.4471926623 -0.3369535623 -0.1365641612 0.1141726232
320298080.0 -0.1163549906 0.1252262137 0.4429996913 -0.3418669146 0.4433627747 -0.3421376056 -0.1355944418 0.1156938779
325298050.0 -0.11570725 0.1256827467 0.4393700514 -0.3464785418 0.4396742276 -0.3469423159 -0.134508142 0.1164507109
330298020.0 -0.1149466391 0.1276896399 0.4356231926 -0.3518769042 0.4359571875 -0.3518710548 -0.1339250869 0.1178435995
335297990.0 -0.113374871 0.128944768 0.4315635444 -0.3565419184 0.4315751081 -0.3565072656 -0.1331074118 0.1190660743
340297960.0 -0.1123503583 0.1303198054 0.4270680604 -0.3612194498 0.4273553268 -0.3615067882 -0.1319321063 0.1208034754
345297930.0 -0.1110605028 0.1315688502 0.4230879343 -0.3662830857 0.4234394691 -0.366275424 -0.1310188979 0.1220195845
350297900.0 -0.1101332067 0.1328326561 0.419458394 -0.3701504061 0.419447626 -0.3704857432 -0.1299899681 0.1229745908
355297870.0 -0.1088260108 0.134166714 0.4152111656 -0.3747776437 0.4150126816 -0.3751070707 -0.1286373023 0.1248077539
360297840.0 -0.1074760606 0.1357589802 0.4108592876 -0.379859614 0.4114432828 -0.3801179373 -0.1283068518 0.1262350832
365297810.0 -0.106236095 0.1369925638 0.4066708774 -0.3842290439 0.4067868841 -0.3843151565 -0.127061533 0.127246618
370297780.0 -0.1048629882 0.1383107448 0.4019514235 -0.3889402548 0.4024952473 -0.3888639526 -0.1255159051 0.1286816529
375297750.0 -0.1031600842 0.1398248365 0.3982087269 -0.3930364928 0.3982763119 -0.3934257064 -0.1242068747 0.1300096959
380297720.0 -0.1021966205 0.1408171522 0.3943362769 -0.3976967974 0.3938930075 -0.3976629601 -0.1232482736 0.1315828046
385297690.0 -0.1008331853 0.1421171025 0.3893768517 -0.4016255937 0.389701672 -0.4022015515 -0.1221349061 0.1330309431
390297660.0 -0.0991886578 0.1434254693 0.3849364648 -0.4058665289 0.385506418 -0.4061085184 -0.1204281954 0.1338738636
395297630.0 -0.0972537078 0.1446321153 0.3805111838 -0.4100698242 0.380952956 -0.4099470385 -0.1196692672 0.1353048152
400297600.0 -0.0966060517 0.1458527863 0.3764574837 -0.4145160873 0.376306457 -0.41440462 -0.1179989379 0.1370343428
405297570.0 -0.0946452271 0.1466126761 0.3717732411 -0.418105849 0.3719284739 -0.41840844 -0.1169295164 0.1380622165
410297540.0 -0.0932187047 0.1482995089 0.3669503623 -0.4225889598 0.367388775 -0.4225614901 -0.11559877 0.1396520125
415297510.0 -0.0918165978 0.1492683937 0.3622830257 -0.4267713082 0.3627917353 -0.4268647721 -0.1142287412 0.1409175921
420297480.0 -0.0902673123 0.1498777225 0.3577081084 -0.430438808 0.3578665265 -0.4305828006 -0.1127662818 0.1422988581
425297450.0 -0.0880205177 0.1514998923 0.3533647338 -0.4344283763 0.3528373923 -0.4343883438 -0.11137579 0.1429459597
430297420.0 -0.0871089664 0.1525520304 0.3490776459 -0.4381116624 0.3486301752 -0.4377822119 -0.1097206232 0.1445258546
435297390.0 -0.0850093608 0.1533898482 0.3433543063 -0.4427967719 0.3437335368 -0.4419833312 -0.1091250022 0.145954015
440297360.0 -0.0833832252 0.1543808699 0.3382811996 -0.445402663 0.3385843934 -0.4459606063 -0.1076431409 0.1471143153
445297330.0 -0.0815466525 0.1549153626 0.3335899443 -0.4492841967 0.3338634682 -0.4495059023 -0.1058892723 0.1481970105
450297300.0 -0.0800631889 0.1564930355 0.3289320777 -0.4525245566 0.3293235529 -0.4528570272 -0.1041947353 0.1495545535
455297270.0 -0.0787781983 0.1572690563 0.3242336914 -0.4565095708 0.3242647721 -0.4563641173 -0.1026515539 0.1505059066
460297240.0 -0.0764504682 0.1582858134 0.3190851373 -0.4606713458 0.3190606887 -0.4605923807 -0.1014446856 0.151562539
465297210.0 -0.0748778292 0.159155291 0.3133231724 -0.4636743231 0.313414637 -0.4637000593 -0.0996936956 0.1531898636
470297180.0 -0.0729953522 0.1598916786 0.3086823128 -0.4665742496 0.3089764336 -0.4668713752 -0.0984322659 0.1537632067
475297150.0 -0.0714818155 0.1611763969 0.3036644668 -0.4701049575 0.3039264187 -0.4702026304 -0.0969564539 0.1549821489
480297120.0 -0.0692128251 0.1620813688 0.2980165894 -0.4735484582 0.298532244 -0.4734249329 -0.0952998563 0.1562372567
485297090.0 -0.0677063436 0.162678438 0.2931634788 -0.4767800936 0.2931890619 -0.4765394055 -0.0939809254 0.1573120939
490297060.0 -0.0653560974 0.1638874896 0.2875332322 -0.4798580319 0.2881126718 -0.480203134 -0.0925047199 0.1580327009
495297030.0 -0.0638783123 0.1641527409 0.2831969302 -0.4832245517 0.282790829 -0.4831477744 -0.0906489682 0.1589691434
500297000.0 -0.0621216981 0.1654053882 0.2772265898 -0.4853753718 0.2774746296 -0.4862305915 -0.0891221922 0.1605153403
505296970.0 -0.0598208337 0.1661788842 0.2721925596 -0.4888723282 0.2722539185 -0.4888344573 -0.0874974808 0.1607864783
510296940.0 -0.058257716 0.1667936554 0.2670089339 -0.4922384789 0.266969252 -0.4921927176 -0.0854767029 0.1620887969
515296910.0 -0.0561013417 0.1678611226 0.260933574 -0.4946904374 0.2610296575 -0.4948226475 -0.0839428927 0.1629079524
520296880.0 -0.0544355229 0.1687937334 0.2560062235 -0.4978533806 0.2557531466 -0.4974792247 -0.0821543921 0.1642828358
525296850.0 -0.0521779569 0.1690176481 0.2505761199 -0.5000512948 0.2502173362 -0.5003864658 -0.0808317167 0.1651493351
530296820.0 -0.050652819 0.169641416 0.2448105519 -0.5032736177 0.2452875621 -0.5030026439 -0.0791745811 0.1655992382
535296790.0 -0.0479747316 0.1707728099 0.2392947035 -0.5054822458 0.2396439072 -0.5054505556 -0.0772770987 0.1670312688
540296760.0 -0.0463159799 0.1714346173 0.2337705915 -0.5082663764 0.233887857 -0.5078552419 -0.0758110179 0.1675125931
545296730.0 -0.0449603821 0.1723746849 0.228890119 -0.5107373335 0.228491267 -0.5105622905 -0.074007174 0.1687546499
550296700.0 -0.042134835 0.1726585326 0.2226315999 -0.5131736315 0.2224988735 -0.5133332925 -0.0722997379 0.1693291447
555296670.0 -0.0405161323 0.1733447368 0.2174327342 -0.5158093345 0.2173443944 -0.51576274 -0.07097026 0.1698198205
560296640.0 -0.0380593019 0.1737672314 0.2114888258 -0.5177576931 0.2117988297 -0.5176777846 -0.0690766517 0.1708913922
565296610.0 -0.0365616873 0.1748365524 0.2065324936 -0.52009121 0.2059666183 -0.5195598646 -0.06722142 0.1719936107
570296580.0 -0.0344961752 0.175155184 0.2002244358 -0.5220035637 0.200258448 -0.5220795442 -0.0658672364 0.1723520607
575296550.0 -0.0320617006 0.1754314235 0.1948451517 -0.5241364918 0.1947396082 -0.5245586576 -0.0641713886 0.1732324143
580296520.0 -0.0301912209 0.1765845806 0.1892434127 -0.5262694757 0.18913341 -0.5264895476 -0.0626784076 0.1737189679
585296490.0 -0.0280260637 0.1770113807 0.1836558592 -0.528260951 0.1831146366 -0.5282448234 -0.0604286939 0.1751429656
590296460.0 -0.0254283015 0.177508745 0.177670478 -0.5302586034 0.1774657203 -0.5306910551 -0.0590204564 0.1755560547
595296430.0 -0.0236608113 0.177940039 0.1711944978 -0.5321252257 0.1716706702 -0.5323190419 -0.0572453289 0.1760347826
600296400.0 -0.0215576662 0.1785287227 0.1654581902 -0.5336869498 0.1658704054 -0.5339587924 -0.0552835562 0.1764656403
605296370.0 -0.0201810658 0.1788948657 0.1605422192 -0.5352952463 0.1597697735 -0.535748611 -0.0533974716 0.1773752698
610296340.0 -0.0174268271 0.1797569493 0.1545864332 -0.5368068806 0.1548354763 -0.5368985308 -0.0520270757 0.1781314973
615296310.0 -0.0152814773 0.1797234509 0.1488766773 -0.5391327522 0.1480860204 -0.5388888349 -0.0500196323 0.1786910645
620296280.0 -0.0135560566 0.1806714669 0.1428271926 -0.5403580162 0.1425559245 -0.540310362 -0.0483820939 0.179780377
625296250.0 -0.0114964443 0.1807310713 0.1370778748 -0.5425266499 0.1365529757 -0.5417571696 -0.0467415749 0.1798679662
630296220.0 -0.0094436652 0.1814428889 0.1307985011 -0.5435287086 0.1307442017 -0.5432018176 -0.0447621413 0.1808037217
635296190.0 -0.007538093 0.1819156375 0.1253790842 -0.5445355016 0.1247056153 -0.544599325 -0.0430173204 0.1811717342
640296160.0 -0.0052954778 0.1816042177 0.1188956185 -0.5463136058 0.1190444795 -0.5458438015 -0.0416236767 0.1817678788
645296130.0 -0.0029275644 0.1825417906 0.1132598423 -0.5469395458 0.1132853683 -0.5467817168 -0.0399797247 0.1819889454
650296100.0 -0.0011660175 0.1824461604 0.1072643603 -0.5481048151 0.1069866707 -0.5483709104 -0.0374700432 0.1828020761
655296070.0 0.0008490346 0.182970119 0.1009628572 -0.5495071886 0.1011573446 -0.5493885883 -0.0365138662 0.1833064244
660296040.0 0.0028713198 0.1832817936 0.095318542 -0.5506209378 0.095269033 -0.5505409551 -0.0343438588 0.1833833841
665296010.0 0.0048446186 0.1833331446 0.0893239579 -0.5507955611 0.0889851949 -0.5512933314 -0.032354417 0.1841292232
670295980.0 0.0070930121 0.1835377941 0.0830462394 -0.5523763702 0.0831761993 -0.5520138831 -0.0311611501 0.1845626171
675295950.0 0.0089576002 0.1839206868 0.0776898951 -0.5529770496 0.0776768633 -0.5534109017 -0.0291162318 0.1850715655
680295920.0 0.0110941453 0.1842964108 0.0712938248 -0.5539062165 0.0716664417 -0.5536876558 -0.0272969824 0.1851243381
685295890.0 0.0132533872 0.1843290433 0.0655944904 -0.5548315448 0.0653245475 -0.5547766115 -0.0254147749 0.1863493141
690295860.0 0.0149418716 0.1843660629 0.0596935315 -0.5547640494 0.059156343 -0.5553069492 -0.0232499627 0.1865827203
695295830.0 0.0172022021 0.184327295 0.0541503822 -0.5559222643 0.0534320312 -0.5554918784 -0.0217485348 0.1868919432
700295800.0 0.0193686676 0.1847777835 0.0480612967 -0.5562932866 0.0476768215 -0.5562224953 -0.0196779059 0.1872287504
705295770.0 0.020927206 0.184520519 0.0417750578 -0.5569070992 0.0415213916 -0.5569838157 -0.0182236278 0.1876652197
710295740.0 0.0230961238 0.1843964598 0.0358999675 -0.557139935 0.035608841 -0.5574550009 -0.0161241656 0.187887289
715295710.0 0.0253674127 0.1846417323 0.0296409661 -0.5575817016 0.0295063829 -0.5574438746 -0.0142990358 0.1877964072
720295680.0 0.0276237164 0.1845015983 0.0238916343 -0.5574259648 0.0235559351 -0.557906856 -0.0128612238 0.1883478877
725295650.0 0.0287710038 0.1848621777 0.017946042 -0.5579872184 0.0177030627 -0.5583213621 -0.0110621887 0.1891252593
730295620.0 0.0302424269 0.1846078112 0.0120595609 -0.5577820478 0.0116767945 -0.5574846311 -0.0092093043 0.1895900369
735295590.0 0.0330005539 0.1848730033 0.0058609626 -0.5583027201 0.0054490127 -0.5580190697 -0.007196611 0.1891640427
740295560.0 0.0350206008 0.1841911443 -0.000592583 -0.5581798579 -3.60441e-05 -0.5586872927 -0.0057197798 0.1899646907
745295530.0 0.0369131232 0.1842870647 -0.0060501802 -0.5573253078 -0.0054272521 -0.5577429497 -0.0039738669 0.1897333532
750295500.0 0.0385419214 0.1844480465 -0.0117148076 -0.5575116385 -0.0123150724 -0.5580404701 -0.0021456282 0.1905060841
755295470.0 0.040843842 0.183888659 -0.0176606256 -0.5576486281 -0.0183355147 -0.5584271104 -7.95925e-05 0.1906011495
760295440.0 0.0425130588 0.1844228802 -0.0248280252 -0.5577477004 -0.0244661263 -0.5568641248 0.0021155318 0.1898514201
765295410.0 0.0447833187 0.1833049215 -0.0298621619 -0.5569074431 -0.0297015585 -0.5574196464 0.0036646218 0.1904187412
770295380.0 0.0465481995 0.1837015517 -0.0359322289 -0.5566111883 -0.0363446852 -0.5571087006 0.0053441488 0.1904921528
775295350.0 0.0482425043 0.1831603166 -0.0418033988 -0.5562994056 -0.0417216248 -0.5559784994 0.0074135871 0.1908744216
780295320.0 0.0506077609 0.1831061384 -0.0477560142 -0.5556640638 -0.0479221428 -0.5556040635 0.009473392 0.1907952495
785295290.0 0.0521810009 0.1823898053 -0.053544346 -0.5553395486 -0.05365315 -0.5557603836 0.0105966086 0.1912589652
790295260.0 0.05418208 0.1817179762 -0.0600460776 -0.5548408133 -0.059710169 -0.5552297381 0.0124008076 0.1916059366
795295230.0 0.0560893238 0.1813736871 -0.0659258167 -0.553882664 -0.0658488886 -0.5540648249 0.0146424647 0.1906076605
800295200.0 0.0576304977 0.1815169731 -0.0708533891 -0.5529176217 -0.0717763268 -0.5532298236 0.0162909801 0.1909830408
805295170.0 0.0594629675 0.1809881615 -0.0775147583 -0.5522219204 -0.0776159994 -0.5524569086 0.0186458897 0.1910364178
810295140.0 0.0616778741 0.1806341997 -0.0836787699 -0.5515039035 -0.0835665446 -0.5517894606 0.0203171804 0.1911007405
815295110.0 0.0632953989 0.1800660252 -0.0889422222 -0.5505563866 -0.0889709489 -0.5506156565 0.0219693365 0.1909594853
820295080.0 0.0654071452 0.1793365463 -0.0951428663 -0.5493303289 -0.0949122775 -0.5502028497 0.0231932218 0.1914680707
825295050.0 0.0670008772 0.1790112986 -0.1012655992 -0.5487595604 -0.1011298339 -0.548681037 0.0260077257 0.1915095765
830295020.0 0.0693520037 0.1784109533 -0.1072845706 -0.5473751166 -0.1068740148 -0.5473741463 0.0274922804 0.1905784409
