!Created with skrf (http://scikit-rf.org).
# Hz S RI R 50.0 
!freq ReS11 ImS11 ReS21 ImS21 ReS12 ImS12 ReS22 ImS22
300000.0 -0.2100037014 -0.0975755314 0.0003177395 0.000885765 0.0016083746 0.0010093467 -0.7614726116 -0.191505224
5299970.0 -0.2154250197 0.0068766882 -0.0001533032 0.0001986559 -3.28961e-05 -0.0001417307 -0.7853267723 -0.0098214386
10299940.0 -0.2118116312 0.0202812428 -8.23369e-05 -0.0001595872 -9.38754e-05 -0.000207003 -0.7879047061 -0.0056377729
15299910.0 -0.2065488755 0.0302738182 -7.63823e-05 2.2128e-06 0.0001000621 -0.0001093176 -0.7934442345 -0.0024950596
20299880.0 -0.2009176118 0.0384032831 6.8937e-06 8.888e-06 -5.25717e-05 0.0001219785 -0.7997262245 0.0016323751
25299850.0 -0.1942459426 0.0448912402 -0.0001282793 0.0001862038 -4.85709e-05 3.85673e-05 -0.8061299927 0.0079344445
30299820.0 -0.1881162753 0.049606668 0.0001096099 0.0002076398 8.94596e-05 -0.0002050533 -0.8122078954 0.0155802792
35299790.0 -0.1813154219 0.0534708847 0.0001109846 -0.0001931994 2.77672e-05 -3.14347e-05 -0.8169541248 0.0246483201
40299760.0 -0.1753887013 0.0563029519 -4.45721e-05 9.46237e-05 -4.17579e-05 4.22558e-05 -0.8212294196 0.0336947238
45299730.0 -0.1698301073 0.0580348979 -7.86744e-05 0.0001979134 -9.35461e-05 4.15462e-05 -0.8239027015 0.0436048658
50299700.0 -0.1644616124 0.0593390581 -8.3969e-06 8.06679e-05 2.51283e-05 9.789e-05 -0.8267716665 0.0537826501
55299670.0 -0.1598671118 0.060534394 -4.78789e-05 0.0002544885 1.02636e-05 -5.75628e-05 -0.8288307877 0.0636204045
60299640.0 -0.1552633787 0.0609251453 4.83127e-05 1.68018e-05 9.37485e-05 3.64907e-05 -0.8298746254 0.0739099121
65299610.0 -0.1510456282 0.0615423584 -1.79071e-05 0.0001883898 -0.0001502052 0.0001576015 -0.8305607101 0.0840901632
70299580.0 -0.1477849747 0.0612795323 -0.0001981945 5.74295e-05 -7.47962e-05 9.37446e-05 -0.831123055 0.0935059907
75299550.0 -0.1445398669 0.0613172495 -0.0001011644 9.76102e-05 9.38352e-05 4.2707e-05 -0.8312198768 0.1039460373
80299520.0 -0.1418867174 0.0612424319 9.5759e-05 -3.51013e-05 -4.86825e-05 0.0002785076 -0.8309801012 0.1140544077
85299490.0 -0.1389298852 0.0609618656 -3.55532e-05 0.0001773324 0.0002202388 -4.29154e-05 -0.8304411635 0.1236630772
90299460.0 -0.1363594582 0.0610028779 -0.0001225793 9.29423e-05 4.0059e-05 0.0001211424 -0.8289152568 0.1331082172
95299430.0 -0.1343187268 0.0606333507 -9.80956e-05 -2.8539e-05 -2.97238e-05 -1.74041e-05 -0.8282368629 0.1426703746
100299400.0 -0.1326745136 0.0603625645 0.0001170127 -6.50287e-05 8.43517e-05 -5.06802e-05 -0.8273553728 0.1522192346
105299370.0 -0.1304845988 0.0602499012 -0.0002405282 0.0002738453 1.9334e-06 -7.22378e-05 -0.826074728 0.1605895626
110299340.0 -0.1286958981 0.0600661557 -4.72531e-05 -1.71636e-05 -0.000157862 -0.0001532802 -0.8242859017 0.1692795737
115299310.0 -0.1276425302 0.0602364146 -1.62127e-05 -8.69752e-05 8.35601e-05 7.50239e-05 -0.8232627971 0.1791614373
120299280.0 -0.1259851822 0.0597860119 0.0001228822 0.0001372318 0.0001270151 0.0001423302 -0.8212135649 0.1880570923
125299250.0 -0.1245744501 0.0598698303 -1.002e-07 -0.0001281492 -9.92218e-05 -0.000102148 -0.8196951364 0.196976971
130299220.0 -0.1238984566 0.0598359996 0.0001080597 8.86026e-05 8.61367e-05 -4.69421e-05 -0.8176061466 0.2059025009
135299190.0 -0.122746981 0.0600398479 -5.52034e-05 0.0003417161 7.57397e-05 0.0002091389 -0.8162312373 0.2150890278
140299160.0 -0.1218296868 0.0601116117 6.4018e-05 -0.0002616406 -9.14525e-05 7.96422e-05 -0.8139262851 0.2233610068
145299130.0 -0.1208076449 0.0603861303 -2.81916e-05 0.000141727 -6.07732e-05 9.28931e-05 -0.8118791263 0.2325728371
150299100.0 -0.1200878619 0.060491179 0.0001111737 0.0001877388 -1.7534e-05 0.0002644144 -0.8095483048 0.2418708954
155299070.0 -0.1193153878 0.0610068851 3.9441e-05 6.20955e-05 1.8173e-05 4.0144e-05 -0.8071145359 0.2505502812
160299040.0 -0.1187954223 0.0616624802 -0.0001153053 0.0002787919 -4.73645e-05 0.0001793251 -0.8048064705 0.258860283
165299010.0 -0.1179609792 0.0618100426 -0.0001088858 -6.75115e-05 -1.71047e-05 -0.0001517504 -0.8019412184 0.2675027525
170298980.0 -0.1176803992 0.0621000747 -0.0001688582 -0.0001294427 8.9544e-06 4.98631e-05 -0.7997202011 0.2757181436
175298950.0 -0.1167584551 0.0626263526 1.52109e-05 -0.0001674912 -2.50441e-05 -3.34364e-05 -0.796741524 0.2847330336
180298920.0 -0.1161721961 0.0633012164 0.0001431769 6.21623e-05 3.4276e-05 -2.67579e-05 -0.793550417 0.2933853178
185298890.0 -0.1154495764 0.06374068 -0.0001164079 0.0001626717 -7.53972e-05 0.0001733188 -0.7904806403 0.3013801513
190298860.0 -0.1152480399 0.0645248939 -2.53339e-05 0.0002481116 0.000163495 -3.00576e-05 -0.7873300028 0.3098731277
195298830.0 -0.1142168566 0.064958754 1.91185e-05 0.0001002362 5.91731e-05 3.24073e-05 -0.7841581321 0.3182443547
200298800.0 -0.1137983884 0.0655658919 0.0002111212 0.0003462736 0.0001718588 -1.13654e-05 -0.7812528555 0.3265076345
205298770.0 -0.1134991814 0.0664109526 0.000145177 9.7333e-05 -8.2932e-05 -0.0001679576 -0.777525461 0.3354772067
210298740.0 -0.1131352263 0.0672458091 4.1384e-05 0.0002274492 9.94403e-05 0.0001752137 -0.7745007634 0.3433129541
215298710.0 -0.1128381089 0.0679624931 -3.76904e-05 0.0002987298 0.0001382082 0.0003099543 -0.7706629024 0.3515061447
220298680.0 -0.1120120696 0.0683914815 -3.4867e-06 0.0002037696 -1.04924e-05 0.0001848525 -0.7665869137 0.3597293473
225298650.0 -0.1117113426 0.0694650194 -2.25737e-05 0.0001526164 0.0001326349 5.16508e-05 -0.7631195225 0.3676766616
230298620.0 -0.1111446096 0.0705066432 4.13375e-05 6.6707e-06 -8.39472e-05 3.81205e-05 -0.7591287576 0.3754727476
235298590.0 -0.1106544035 0.071195639 4.08069e-05 0.0001000362 0.0001951058 5.46207e-05 -0.7550572814 0.3832761317
240298560.0 -0.1104131147 0.0721853343 1.67638e-05 7.87557e-05 4.24167e-05 0.0001000309 -0.7513704519 0.3913818345
245298530.0 -0.1099006623 0.0730450939 0.0001146423 9.79274e-05 0.0002402154 -8.30368e-05 -0.7472698312 0.3986599056
250298500.0 -0.1095335598 0.0736092578 0.0002198614 -2.68373e-05 0.0001574921 0.0001901179 -0.7430935998 0.4072324925
255298470.0 -0.1090092661 0.0748838135 0.0002049436 0.0002169271 8.81353e-05 0.0002352593 -0.7386343297 0.414712522
260298440.0 -0.1083813584 0.0756462761 -0.0001880794 0.0001388564 -3.32506e-05 -4.39519e-05 -0.7344479501 0.4217440173
265298410.0 -0.1080294598 0.0763595485 7.91658e-05 0.000187211 -1.20091e-05 0.0001391857 -0.7300522726 0.4303300982
270298380.0 -0.1077111018 0.0772756921 -0.0002272527 0.0001887001 -7.09755e-05 -0.0001580459 -0.7258262947 0.4378679621
275298350.0 -0.1071617308 0.0783992782 -0.0001714626 7.2242e-06 -6.60972e-05 0.0001956753 -0.7207038561 0.4457986783
280298320.0 -0.1067556276 0.0793902891 4.4065e-06 0.0001202005 3.25506e-05 6.61897e-05 -0.7161156712 0.4531328659
285298290.0 -0.106012741 0.0803788447 0.0001168459 0.0001786521 5.97003e-05 0.0001321618 -0.7120195229 0.4601974307
290298260.0 -0.1056496714 0.0813073831 2.37405e-05 5.04849e-05 7.48399e-05 0.0001825568 -0.7065956489 0.4678288871
295298230.0 -0.1052586249 0.0821666721 -3.35569e-05 0.000191855 -9.74717e-05 3.86171e-05 -0.7018904147 0.4748751407
300298200.0 -0.1047091681 0.0833389817 4.03381e-05 0.0001003833 -5.03326e-05 -8.63584e-05 -0.6967621456 0.4824488915
305298170.0 -0.104268385 0.0840822004 0.000131328 0.000198893 3.2462e-06 0.0001235074 -0.6911914761 0.4894011232
310298140.0 -0.1034929318 0.084694028 0.0001379866 5.2739e-05 0.0001013706 0.000241715 -0.6867950707 0.4966057053
315298110.0 -0.1033220124 0.0857064412 0.0002825236 3.58062e-05 -3.74269e-05 -2.896e-05 -0.6814364861 0.5039042721
320298080.0 -0.1027932685 0.0863886058 0.0003286957 0.0002027285 0.0001180182 0.0001839433 -0.676000176 0.5107349534
325298050.0 -0.1023440846 0.0870913012 0.0001118833 0.0001116397 0.0001176404 0.0002097876 -0.6700407388 0.5178763797
330298020.0 -0.1019464426 0.0885345698 9.83879e-05 0.0002848177 -8.0754e-06 -4.54086e-05 -0.6651925182 0.5245672102
335297990.0 -0.1018545985 0.0893577766 -0.0001914209 -4.32791e-05 2.96713e-05 3.98627e-05 -0.6591724256 0.5317529235
340297960.0 -0.1011953491 0.0904232893 0.0001395024 3.19838e-05 0.0001333669 5.27811e-05 -0.6544491758 0.5385610749
345297930.0 -0.1002296594 0.0914746858 0.0001975133 -2.33917e-05 7.97686e-05 -2.05995e-05 -0.6484219964 0.544773174
350297900.0 -0.0997489826 0.0925727339 -5.00814e-05 3.72544e-05 3.55772e-05 0.0001158613 -0.6433861458 0.5513618631
355297870.0 -0.0991130486 0.0933906258 0.000141094 -5.98343e-05 2.11183e-05 0.0002878378 -0.6370410163 0.5582506427
360297840.0 -0.098618969 0.0946305506 5.2481e-06 -8.05472e-05 0.0001549531 -0.0001209416 -0.6309653091 0.564489527
365297810.0 -0.0978340124 0.0954303597 0.0002547828 2.71309e-05 0.0001928552 -7.6422e-06 -0.6263070763 0.5708007456
370297780.0 -0.0973625251 0.0964025486 -4.98976e-05 9.0921e-06 6.52515e-05 0.0001984049 -0.6197162592 0.5773763159
375297750.0 -0.0968247963 0.0972340276 -0.000147966 -7.78752e-05 -3.18104e-05 2.71899e-05 -0.6134553131 0.5835189635
380297720.0 -0.0961606358 0.098905536 1.98587e-05 3.16908e-05 -7.2225e-05 -2.45122e-05 -0.6067753025 0.5906808681
385297690.0 -0.0955874632 0.0995766187 -9.88681e-05 0.000134744 0.0002588979 7.12105e-05 -0.6012569073 0.5961375522
390297660.0 -0.0948565626 0.1002898422 0.0001965159 -3.71089e-05 0.0001579913 0.0001614261 -0.5945759989 0.6020954489
395297630.0 -0.0938598087 0.101592466 0.0002595536 5.14966e-05 0.0002503541 0.0001679109 -0.5887618088 0.6077589116
400297600.0 -0.0933707557 0.1024183638 4.67359e-05 2.32505e-05 6.95123e-05 9.78421e-05 -0.582300085 0.614302706
405297570.0 -0.0927164674 0.1029466 0.0002219845 0.0002149613 7.46379e-05 -1.2785e-05 -0.5753036888 0.620231055
410297540.0 -0.0914573495 0.1041432135 0.0001284391 -9.25345e-05 -5.03947e-05 7.75006e-05 -0.569260757 0.6261798093
415297510.0 -0.0911478152 0.1053375971 -1.036e-05 6.11545e-05 0.0002601972 5.23475e-05 -0.5630614032 0.6312857409
420297480.0 -0.0899231236 0.1058874199 0.0001512175 7.91906e-05 -2.04792e-05 1.57973e-05 -0.5559158587 0.6381723148
425297450.0 -0.0890306525 0.106768526 0.0001305851 9.1395e-06 0.0001471927 0.0001308561 -0.5494094399 0.6421401952
430297420.0 -0.0885287555 0.1076837183 0.0002444004 9.75574e-05 -7.68283e-05 0.0001601697 -0.5431068733 0.6485878751
435297390.0 -0.0875249805 0.1084756393 0.0001714292 -0.0001014886 0.0002157135 4.61762e-05 -0.536730319 0.6540789648
440297360.0 -0.0865266628 0.1093156609 7.27524e-05 -0.0001383356 0.0002886544 2.90955e-05 -0.5303859778 0.6593330386
445297330.0 -0.0857344698 0.1103073805 0.0001907284 7.21072e-05 0.0001031358 0.0001198938 -0.522891675 0.6650751248
450297300.0 -0.0847513208 0.1109988912 0.0002589371 9.17047e-05 7.5324e-05 -8.94405e-05 -0.515818596 0.6699110441
455297270.0 -0.0836856056 0.1120911472 0.000224394 0.0002233611 0.0003578614 7.78244e-05 -0.5088829074 0.6750032562
460297240.0 -0.0826929208 0.1131066779 0.0001960468 -6.39979e-05 0.0001004874 -1.4996e-05 -0.50267456 0.679579075
465297210.0 -0.0816169599 0.114092441 0.0002243814 7.6641e-06 0.0002067896 8.09596e-05 -0.4949808596 0.6860649694
470297180.0 -0.0807311409 0.1149251396 0.0002953905 6.28124e-05 4.19808e-05 -8.37817e-05 -0.4879980388 0.6898193666
475297150.0 -0.0800466458 0.1157149881 0.0002995416 0.0001450502 0.000226759 -9.22367e-05 -0.4815981996 0.6952799643
480297120.0 -0.0784883762 0.1166326167 6.07632e-05 -0.0001085914 5.81895e-05 6.59328e-05 -0.4746433261 0.6998373868
485297090.0 -0.0775992104 0.1175392904 0.00011225 -2.79717e-05 0.0002613823 0.0002027616 -0.4669705064 0.7048638843
490297060.0 -0.076204907 0.1182257393 0.0002215218 8.09974e-05 5.93406e-05 8.99277e-05 -0.4593979401 0.7093147203
495297030.0 -0.0754697615 0.1191233025 0.000244472 5.65626e-05 0.0002328223 7.43022e-05 -0.4528698309 0.7135090374
500297000.0 -0.0743225219 0.1197601145 0.0003741263 0.000168648 0.0001172833 0.0001647833 -0.44529243 0.7182002546
505296970.0 -0.072850322 0.1205967945 0.0002148307 -4.52394e-05 0.0001539073 -0.0001547443 -0.4380431598 0.7221004733
510296940.0 -0.0718544596 0.1216560148 0.0004026561 3.02973e-05 -1.96928e-05 0.0002037261 -0.4302593176 0.7275258925
515296910.0 -0.0708596384 0.1226056183 0.0001464858 3.8658e-05 -1.05303e-05 0.0001084824 -0.4234668356 0.7312088276
520296880.0 -0.0697524354 0.12324256 0.0001570756 3.24875e-05 0.0002274097 -0.0001531859 -0.4156208174 0.7358865434
525296850.0 -0.0686220966 0.1237896619 0.0002583552 6.083e-07 0.00021004 4.29893e-05 -0.4083065413 0.7392741981
530296820.0 -0.0675815141 0.124765094 0.0002140687 -5.59739e-05 3.41743e-05 -5.39381e-05 -0.4004278492 0.7434741181
535296790.0 -0.0656936711 0.1256457847 0.0003540642 0.0003210798 9.11802e-05 3.50534e-05 -0.3928277567 0.7481392567
540296760.0 -0.0645156668 0.1265728703 0.0003110012 6.89379e-05 0.0003052832 0.0001186274 -0.3851735355 0.7515379343
545296730.0 -0.0636155736 0.1275677788 0.000178902 -3.31808e-05 0.0003140165 8.10389e-05 -0.3777865325 0.7552618722
550296700.0 -0.0619849688 0.1282545686 0.0001156401 -0.000175358 0.0002530697 3.90758e-05 -0.3697940674 0.7592629673
555296670.0 -0.0609307388 0.129078385 -3.25553e-05 0.0001210157 0.0001846259 0.0001781352 -0.3623969652 0.7625864058
560296640.0 -0.0595522932 0.1297334136 0.0002716695 4.88894e-05 0.0002013131 8.23897e-05 -0.3544996003 0.7666330536
565296610.0 -0.0584425968 0.1307031565 0.0002816197 -5.02265e-05 0.0002461339 0.0001856498 -0.3467132884 0.7700239607
570296580.0 -0.0572267181 0.1315829816 0.0002303584 -6.39368e-05 0.0001496262 0.0001144076 -0.3390473037 0.7733026298
575296550.0 -0.055811005 0.1321738888 5.29105e-05 -1.89988e-05 7.0371e-05 -0.0002540725 -0.3311069912 0.7760359684
580296520.0 -0.0544589156 0.1329896805 0.0001353275 -0.0001484273 0.0003069024 0.0001592836 -0.3237884212 0.7794884004
585296490.0 -0.0534779063 0.1339864161 0.0002620693 0.0001727462 0.0001521705 2.3496e-06 -0.3152665553 0.7830392471
590296460.0 -0.0515088436 0.1345920063 0.0002036901 0.0001035483 0.0003390365 5.0233e-06 -0.3074443872 0.7858144642
595296430.0 -0.0505484175 0.1352040186 0.0001801074 0.0002023493 6.4884e-05 7.9558e-06 -0.2995548576 0.7890643816
600296400.0 -0.0491086844 0.1360049106 9.61877e-05 0.0001641638 0.0002262245 0.0002037072 -0.2923152019 0.7916807146
605296370.0 -0.0481189045 0.1372167419 7.9201e-06 7.91411e-05 0.000247916 -0.0001025733 -0.2839942835 0.7952505112
610296340.0 -0.0463726358 0.1378447706 0.0003447568 3.18148e-05 0.0003656856 -9.84409e-05 -0.276557455 0.7977250696
615296310.0 -0.0450616922 0.1384690008 0.0001215712 0.0001628025 0.0002718336 3.14238e-05 -0.2677551839 0.8005262398
620296280.0 -0.0438796194 0.1394516053 0.0003136517 0.0001031761 0.0001483338 0.0001091926 -0.2600630591 0.8031932204
625296250.0 -0.0428719827 0.1397125821 0.0001242007 1.30385e-05 0.0002817413 5.30876e-05 -0.2514380167 0.8052671348
630296220.0 -0.0413102235 0.1407541775 0.0001401266 2.04284e-05 0.0001376546 5.19475e-05 -0.2434953991 0.80811549
635296190.0 -0.0399085281 0.1415409317 0.0003198397 -8.55709e-05 0.0002650399 3.064e-05 -0.2354965075 0.8101835153
640296160.0 -0.0385670817 0.1421396771 0.0001344302 -7.0931e-05 0.0001650733 5.65677e-05 -0.2274772353 0.812562395
645296130.0 -0.0370288642 0.1429943113 0.0001023208 1.3447e-06 0.0004400077 0.0001407093 -0.2196694181 0.8145426217
650296100.0 -0.0359832078 0.1434687525 0.0001453347 -0.0003604973 0.00026786 -6.9517e-06 -0.2106805362 0.8167925309
655296070.0 -0.0347217575 0.1441716731 0.0003554311 4.57069e-05 0.000401406 5.46322e-05 -0.2032717517 0.8192661477
660296040.0 -0.033263883 0.144768709 0.0001209324 0.0001048034 0.0002412982 0.00012917 -0.1943575395 0.820683944
665296010.0 -0.0319525901 0.1457760067 -7.64841e-05 -7.93527e-05 0.0003545855 -8.99326e-05 -0.1865098166 0.8223835218
670295980.0 -0.0302806728 0.1463574941 0.0002727243 0.000106558 0.0002039012 -9.54347e-05 -0.1785299494 0.8244011818
675295950.0 -0.0291317257 0.1467874316 0.0001648943 -6.86281e-05 8.21499e-05 -0.000161971 -0.1696201566 0.826737548
680295920.0 -0.0280225635 0.1475577419 0.0001692714 -0.0001675566 0.0003788417 -0.000155721 -0.1612316724 0.8277142578
685295890.0 -0.0263717088 0.1482494472 0.0003100823 -9.00139e-05 0.0002241951 -1.63735e-05 -0.153475285 0.8296619412
690295860.0 -0.0249683486 0.1484723227 8.87239e-05 0.0001103348 0.0001554572 8.36977e-05 -0.1454658195 0.8309732008
695295830.0 -0.0239813283 0.1489154177 0.0001216542 -1.76458e-05 0.0001385563 2.86775e-05 -0.1369626704 0.8330962504
700295800.0 -0.0222416763 0.1497624254 0.0002856652 8.97531e-05 0.0004200978 -0.0002224926 -0.128238816 0.8334817795
705295770.0 -0.0211043214 0.1504067988 0.0003719214 5.66704e-05 0.0002747456 2.50573e-05 -0.120641611 0.8357911937
710295740.0 -0.0199422722 0.1506992569 6.69963e-05 -0.0002677851 0.0001245101 5.56103e-05 -0.1120309289 0.8361091191
715295710.0 -0.0182477147 0.1512931656 0.0002295963 0.0001824002 0.0002014332 0.000146196 -0.1033578388 0.8367492193
720295680.0 -0.0168107052 0.1516131049 0.0003564238 -0.0001231699 0.00016274 1.59019e-05 -0.0947193453 0.8381387335
725295650.0 -0.0157269212 0.1524324378 9.79437e-05 5.3542e-05 0.0004680634 -0.0001209236 -0.0871906539 0.8394471169
730295620.0 -0.0146865563 0.1527743031 0.0001862195 4.84633e-05 0.0002173149 -0.0001955936 -0.0786415851 0.84076137
735295590.0 -0.0127466112 0.1532409674 0.0001146269 9.98327e-05 0.00034509 4.9888e-05 -0.0697069236 0.8406474232
740295560.0 -0.011963001 0.1537383226 0.0001559563 0.0001444901 0.0001990916 -5.86569e-05 -0.0614960382 0.8415403531
745295530.0 -0.0107478883 0.1543826137 9.32103e-05 5.09155e-05 0.0003339284 5.46276e-05 -0.0537477445 0.8418348074
750295500.0 -0.0092877095 0.1547292015 0.0004382236 0.0001163842 0.0001239112 1.65863e-05 -0.0449585254 0.8421278576
755295470.0 -0.0079719763 0.1549243571 0.0002946901 0.0001269851 0.0001725884 3.43561e-05 -0.0368448214 0.8430326953
760295440.0 -0.0065368134 0.1559002512 0.0003813785 -0.000110002 0.000202228 -6.85129e-05 -0.027854918 0.842556151
765295410.0 -0.005254828 0.1553893115 0.0001464211 0.0001688092 0.0002068344 -2.69824e-05 -0.0201928878 0.8435812292
770295380.0 -0.004121687 0.1563183408 0.0001036438 -2.1915e-06 0.000351668 3.20348e-05 -0.011401162 0.8436352211
775295350.0 -0.0022578924 0.1565162913 -2.88104e-05 0.0001173845 0.000327582 -0.000187931 -0.0033137822 0.8433585169
780295320.0 -0.0007717119 0.1567942261 0.0003341736 8.78919e-05 0.0003557714 2.60969e-05 0.0054302165 0.8435811471
785295290.0 0.00029192 0.1568985965 4.19659e-05 -2.06841e-05 0.0003292289 -0.0001554145 0.013405508 0.8433628533
790295260.0 0.0012816769 0.1571397824 0.0002450276 -0.0001417447 1.36683e-05 -6.26591e-05 0.0214107443 0.8433694952
795295230.0 0.0028560808 0.157398118 0.0002480379 -0.0001193845 0.000200146 -0.0001710587 0.0304170021 0.8424607108
800295200.0 0.004230557 0.1576916995 0.0002404848 0.000171766 0.0003190709 3.73755e-05 0.0381264749 0.8425079044
805295170.0 0.0054676771 0.1579082339 0.0003090544 -0.0001588046 0.0002310444 -0.0001270019 0.0473850224 0.8420247095
810295140.0 0.0070300406 0.1583919996 0.0001176513 -0.0002639055 0.0003813715 7.19541e-05 0.0554683479 0.8412868168
815295110.0 0.0081520922 0.1581991116 1.78847e-05 -9.612e-05 0.0001435374 -0.0001440391 0.0630948107 0.841245777
820295080.0 0.0093687851 0.1584021629 0.000294154 -1.60895e-05 0.0002143909 -5.60403e-05 0.0711441949 0.8405619161
825295050.0 0.0109079498 0.1583483108 0.0003937124 -0.0002761832 0.0001425401 1.59679e-05 0.0798031263 0.8395919787
830295020.0 0.0123021094 0.158790874 0.0001086131 -1.07831e-05 0.0002483997 6.06421e-05 0.0879118101 0.8381747006
835294990.0 0.0135601995 0.1582914232 7.75761e-05 1.41025e-05 0.0003104956 -0.0001174321 0.0965930822 0.8380528556
840294960.0 0.0151662021 0.1586452522 0.0002555497 -4.54054e-05 0.0002733566 0.0001129521 0.1056656518 0.8364875946
845294930.0 0.0165706957 0.1587517155 0.0003665247 -2.19693e-05 0.000273681 -0.0001048432 0.1137912482 0.8354329864
850294900.0 0.0182200019 0.1586623413 0.0002682158 -2.81227e-05 0.0002996151 -0.000243368 0.1213651208 0.8347780179
