!Created with skrf (http://scikit-rf.org).
# Hz S RI R 50.0 
!freq ReS11 ImS11 ReS21 ImS21 ReS12 ImS12 ReS22 ImS22
300000.0 -0.2391894226 -0.0755163993 0.4722426535 0.0509880111 0.4674969527 0.0505357853 -0.2417448165 -0.0910830318
5299970.0 -0.2441289208 0.0070622479 0.4732498531 0.0049120405 0.4735555065 0.00510377 -0.2438085986 0.0073818226
10299940.0 -0.2410329768 0.0189354754 0.4752613587 0.005874597 0.4752724762 0.0064493393 -0.2407105384 0.0204196142
15299910.0 -0.2369252477 0.0281385688 0.4795259884 0.007565207 0.4794355717 0.0075211448 -0.2361143011 0.0298391268
20299880.0 -0.2319140617 0.0355523111 0.4837562105 0.0084283107 0.4841557116 0.0081092608 -0.2308396754 0.0374686836
25299850.0 -0.2267013075 0.0422130243 0.4891026574 0.0072349255 0.4891531486 0.0071900491 -0.224796005 0.0440231274
30299820.0 -0.2215662056 0.0472419189 0.4944744932 0.0054515792 0.4944934149 0.0050114768 -0.2191862252 0.0491640572
35299790.0 -0.2161559142 0.0515178744 0.4999687832 0.0020303127 0.5001142363 0.0017858905 -0.213711427 0.0534324499
40299760.0 -0.2111431163 0.0550700554 0.5045911593 -0.0021845555 0.5050656339 -0.0022159213 -0.208099967 0.0563291205
45299730.0 -0.2066106868 0.0575816881 0.5096871777 -0.0064547748 0.509789052 -0.0064340146 -0.2034196524 0.0589707308
50299700.0 -0.2023960775 0.0599614904 0.5140064556 -0.0120005032 0.5140266081 -0.0118440798 -0.1985997756 0.0606162958
55299670.0 -0.1983938413 0.0619517654 0.5177679625 -0.018551482 0.5177152446 -0.0181952367 -0.1945042311 0.0621858168
60299640.0 -0.1945505862 0.0633827644 0.5213443523 -0.0241102756 0.5216001764 -0.0245883186 -0.1902303311 0.0633942494
65299610.0 -0.1910812402 0.0646439256 0.5243037659 -0.0310448245 0.5241452089 -0.0308989702 -0.1870203595 0.0642172729
70299580.0 -0.1877975299 0.0660965322 0.526531508 -0.0372952085 0.5267349924 -0.0375794412 -0.183820028 0.0650939992
75299550.0 -0.1849252095 0.0672394403 0.5282602927 -0.0440220974 0.528227006 -0.0445082656 -0.1809807436 0.0654943488
80299520.0 -0.1826165942 0.0679631633 0.5303386471 -0.0512837139 0.5303058772 -0.0510897307 -0.1784315856 0.0661063088
85299490.0 -0.1800932522 0.0688331064 0.531362528 -0.0577936857 0.5317549812 -0.0576022934 -0.176278833 0.0663377352
90299460.0 -0.1779031947 0.0699014806 0.5323939 -0.065168255 0.5328783561 -0.064778241 -0.1736462721 0.0668225301
95299430.0 -0.1756510936 0.0704304355 0.5338538554 -0.0715285609 0.5335980122 -0.0720763776 -0.1716068048 0.0673687937
100299400.0 -0.1738907629 0.0715809003 0.5334414895 -0.0785626892 0.5339391639 -0.0787792527 -0.169580699 0.0675438139
105299370.0 -0.1721505153 0.0724875591 0.5343045422 -0.0861033976 0.5346034769 -0.0855875216 -0.1673346654 0.0678483772
110299340.0 -0.1705276814 0.0734429695 0.5344594298 -0.0924789727 0.5343385775 -0.0922965815 -0.1666150221 0.0683287747
115299310.0 -0.1690025449 0.0741432806 0.534436721 -0.0993020222 0.534392654 -0.0996137746 -0.164685512 0.06893532
120299280.0 -0.1674535399 0.0746382313 0.5340650536 -0.106004929 0.5344503496 -0.1058614051 -0.1633418764 0.0691433938
125299250.0 -0.1662201841 0.0756796336 0.533532466 -0.1125958382 0.5337581448 -0.1124184702 -0.1624181591 0.069741439
130299220.0 -0.1651199714 0.0768845006 0.5331129553 -0.1198913854 0.5333819035 -0.1192963885 -0.1611373255 0.0701408382
135299190.0 -0.1637830681 0.0779334281 0.5325649955 -0.1263339225 0.5326601548 -0.1262657829 -0.1595674843 0.070859484
140299160.0 -0.1626345199 0.0789255971 0.5321228325 -0.1329421698 0.5319607815 -0.1330268596 -0.1588136678 0.0719904211
145299130.0 -0.1615384808 0.0799169503 0.5315484773 -0.1396349481 0.5305535957 -0.1393768466 -0.1580474572 0.0725923839
150299100.0 -0.1601105948 0.0810473396 0.5294724818 -0.1455680176 0.5297221905 -0.1453149843 -0.1571232442 0.073585677
155299070.0 -0.1592410184 0.0818822461 0.528630235 -0.1526240643 0.528180058 -0.1529981857 -0.1558232755 0.0746626659
160299040.0 -0.1582754623 0.0835720733 0.5272439587 -0.1592708466 0.5267197391 -0.1592250804 -0.1553018257 0.0753967695
165299010.0 -0.1571902725 0.0846008045 0.5254501513 -0.1655833779 0.5260592122 -0.1656974036 -0.1539945084 0.0766712797
170298980.0 -0.1563150558 0.0856379525 0.523910641 -0.1717523137 0.5242384163 -0.171700165 -0.1534667099 0.077447595
175298950.0 -0.1556344398 0.0870119647 0.5226415679 -0.177873295 0.5225804419 -0.1776880424 -0.1529470636 0.0785066057
180298920.0 -0.1549290031 0.0884095988 0.5209880851 -0.1844115883 0.5210173762 -0.1841615224 -0.1520430396 0.0797807061
185298890.0 -0.1531810089 0.0892444703 0.5189492129 -0.1905198209 0.5187804082 -0.1905327559 -0.151385825 0.0809745772
190298860.0 -0.1527620644 0.0910346211 0.517281139 -0.1967933703 0.5174101521 -0.1967808507 -0.1506362828 0.0819610457
195298830.0 -0.1517238723 0.0920308972 0.514651253 -0.2026393968 0.5152713531 -0.2030320741 -0.1495592135 0.0828659328
200298800.0 -0.1505639205 0.0936329927 0.5123229193 -0.2092911899 0.5130443501 -0.2093607447 -0.149382858 0.0842380779
205298770.0 -0.1497707557 0.0951824455 0.5101981709 -0.2153039245 0.5107285004 -0.2147541419 -0.148711816 0.0846733512
210298740.0 -0.1487191597 0.0961039893 0.5086670823 -0.220733406 0.5083612199 -0.2212785113 -0.1474019578 0.0867447609
215298710.0 -0.1482743445 0.097976344 0.5060096721 -0.2271873356 0.5061952969 -0.2270710017 -0.1471854645 0.0877158956
220298680.0 -0.1472664196 0.0988751603 0.5034778536 -0.2325330196 0.5035031819 -0.2328219163 -0.1468241667 0.0886628497
225298650.0 -0.1462288412 0.1004343501 0.50127509 -0.2387695091 0.5012846643 -0.2388715733 -0.1460650188 0.0897756629
230298620.0 -0.1451544399 0.1022073802 0.498903631 -0.2442211496 0.4992426931 -0.2446157127 -0.1456547174 0.0908825842
235298590.0 -0.1440397621 0.1033530096 0.4957552476 -0.2503859895 0.4961688424 -0.2498575418 -0.1447460004 0.0920936179
240298560.0 -0.1431197982 0.105123978 0.4935426154 -0.256323075 0.4932405704 -0.2561387503 -0.1437264999 0.0937126975
245298530.0 -0.1422839971 0.106526143 0.49128147 -0.2618434758 0.4905472891 -0.2620626163 -0.1429167858 0.0940829457
250298500.0 -0.1407363156 0.1080578941 0.4870605741 -0.2676407791 0.4873072981 -0.2669954563 -0.142891682 0.0956789732
255298470.0 -0.1398612913 0.1089197214 0.4843577809 -0.2725453904 0.4847430596 -0.2728174278 -0.1416961872 0.096815987
260298440.0 -0.139035979 0.1105205502 0.481706923 -0.2788792054 0.4820445282 -0.2785947237 -0.1406137073 0.098313181
265298410.0 -0.1375394221 0.1124641732 0.4789664928 -0.2841420227 0.4790136454 -0.2837760869 -0.1399623267 0.0995735816
270298380.0 -0.1367004623 0.1135393642 0.4761226393 -0.2893682195 0.4759137207 -0.2894457581 -0.1392070006 0.1005215414
275298350.0 -0.135272359 0.1151705435 0.4725747269 -0.2950157854 0.4724893976 -0.2950927101 -0.1381231383 0.1017493399
280298320.0 -0.1339956759 0.11685095 0.4694925323 -0.3003349701 0.4695806536 -0.3005291764 -0.1369419987 0.1031256161
285298290.0 -0.1329439997 0.1183143522 0.4660871039 -0.3050390832 0.4660894043 -0.3056828751 -0.135993458 0.1039788805
290298260.0 -0.1317545651 0.1198573844 0.4630625722 -0.3106139588 0.4626995857 -0.3113042976 -0.1348762669 0.1057352486
295298230.0 -0.1300977205 0.1208998793 0.4594887768 -0.3162203306 0.4593218069 -0.3164221568 -0.1338359027 0.1063826185
300298200.0 -0.1290902526 0.122303865 0.4563444664 -0.321125642 0.4560017926 -0.3218247873 -0.1328098253 0.1080193591
305298170.0 -0.1278384663 0.1235110721 0.4525549682 -0.3265933652 0.4523696918 -0.3266336395 -0.1312918623 0.1088409957
310298140.0 -0.1267272063 0.1251164309 0.4491257815 -0.3316780443 0.4489044352 -0.3318398076 -0.1305092295 0.1101767139
315298110.0 -0.1251545716 0.1260985686 0.4456094382 -0.3367064739 0.4456174428 -0.3369068678 -0.1295463863 0.1113582385
320298080.0 -0.1237157244 0.127627177 0.4412261411 -0.3422960732 0.4415770046 -0.3418948064 -0.1284958639 0.1126223743
325298050.0 -0.1228596677 0.1289351892 0.4377228867 -0.3473710531 0.4374988819 -0.3472799624 -0.1278057288 0.1138330381
330298020.0 -0.1211403083 0.1297901694 0.4335547657 -0.3523483839 0.4336986315 -0.3521573861 -0.1269532555 0.1150788969
335297990.0 -0.1200777266 0.1309535998 0.4295817355 -0.3569471404 0.4294369564 -0.357005866 -0.1264258144 0.1169653626
340297960.0 -0.1190193877 0.1328168344 0.4252419122 -0.3618311977 0.4253608385 -0.3618642943 -0.1246451062 0.1182174234
345297930.0 -0.1176103701 0.1344020977 0.4211607777 -0.3669500169 0.4212352324 -0.3663908708 -0.1240461075 0.1191605324
350297900.0 -0.1166095766 0.1353255932 0.4166736402 -0.3709359268 0.4167731451 -0.3707589652 -0.1233785293 0.1208740677
355297870.0 -0.1151162729 0.1374639969 0.4128478131 -0.3758776685 0.4133186042 -0.3754520869 -0.1227130041 0.1220128605
360297840.0 -0.1133078648 0.1388202597 0.4091800558 -0.380085799 0.4091926044 -0.38017009 -0.1212595277 0.1238656386
365297810.0 -0.1122390357 0.1402222446 0.4047583481 -0.3847278146 0.4050029948 -0.3848868311 -0.1201064052 0.1249109343
370297780.0 -0.1106592394 0.1413610272 0.4004103575 -0.3890185644 0.400733197 -0.3888346015 -0.1189529411 0.1263106938
375297750.0 -0.1088511614 0.1426041434 0.3958363294 -0.3932180479 0.396584 -0.3935162338 -0.1179114461 0.1273480028
380297720.0 -0.1079377788 0.1442084418 0.3918764384 -0.3978351697 0.3918258319 -0.3975556984 -0.1170630434 0.1286709281
385297690.0 -0.1063821592 0.1453946838 0.3871566356 -0.4020983867 0.3870939707 -0.4020927166 -0.1157598497 0.1300786282
390297660.0 -0.1047518997 0.1467732769 0.3830396955 -0.4065602413 0.3826156763 -0.4061754554 -0.1148152379 0.131106766
395297630.0 -0.1033524266 0.1481568035 0.3787826302 -0.4104924519 0.3781762375 -0.4108717237 -0.1128844138 0.1327350203
400297600.0 -0.1016437335 0.1495270668 0.3732905444 -0.415281331 0.3741245477 -0.4148836909 -0.1123008336 0.1338136912
405297570.0 -0.1002878228 0.1506626423 0.3693302555 -0.4187393851 0.3694665295 -0.4184222083 -0.1114281848 0.1350012958
410297540.0 -0.0981760977 0.1520301138 0.3647804374 -0.4227690252 0.3650226903 -0.4230365261 -0.1099070259 0.1366172764
415297510.0 -0.0966662811 0.1530708548 0.3597816611 -0.4267392076 0.360463857 -0.4266223456 -0.1088927388 0.1373567602
420297480.0 -0.0950179016 0.1547566749 0.3551701471 -0.430758364 0.3552227514 -0.4308431722 -0.1075800551 0.1384032553
425297450.0 -0.093211622 0.1553206076 0.3508233662 -0.4347276825 0.351257736 -0.434692618 -0.1067751182 0.1398769682
430297420.0 -0.0919379002 0.1564486659 0.3458815396 -0.4378613361 0.3456644882 -0.4382401525 -0.1054590263 0.1406350372
435297390.0 -0.0902806898 0.1577970105 0.34054876 -0.4416816106 0.3408873545 -0.4424418655 -0.1036684071 0.142025587
440297360.0 -0.0880656454 0.1589377831 0.336095153 -0.4455839596 0.3358380856 -0.4458577551 -0.1024127906 0.1427389218
445297330.0 -0.0866580423 0.1597360503 0.3314915075 -0.449294722 0.3316025916 -0.4492349696 -0.101138034 0.1436657841
450297300.0 -0.0848989741 0.1607311172 0.326238483 -0.452772753 0.3265089989 -0.4531898344 -0.0994754309 0.1446645925
455297270.0 -0.083243085 0.1620586591 0.3211759134 -0.4562743911 0.3213415548 -0.4567636104 -0.0982629939 0.1459358173
460297240.0 -0.0817372578 0.163121211 0.3161454351 -0.4599890456 0.3160134381 -0.4599722406 -0.0967124699 0.1470433507
465297210.0 -0.0794461203 0.1641445256 0.3115717547 -0.4635986295 0.3109824287 -0.4636571881 -0.0951353644 0.1477357148
470297180.0 -0.0776364861 0.16482205 0.306076333 -0.4667504481 0.3061561252 -0.4670354339 -0.0934872916 0.1491273342
475297150.0 -0.0761555478 0.1656611701 0.3008998716 -0.469778897 0.3010285805 -0.4697679016 -0.0919941307 0.1498261761
480297120.0 -0.0742973261 0.167324524 0.2958409525 -0.4736497109 0.2957329685 -0.4736444987 -0.090238864 0.1512999561
485297090.0 -0.0725780921 0.1679494538 0.2908145342 -0.47620996 0.2906364829 -0.4761993853 -0.0888986849 0.15206708
490297060.0 -0.0710028838 0.1690414747 0.2859007976 -0.4796933859 0.2857216276 -0.4792180551 -0.0876017546 0.1533201299
495297030.0 -0.0690397835 0.1697844909 0.2802380554 -0.4825001529 0.2806333035 -0.4826114913 -0.0862681454 0.1544042011
500297000.0 -0.0667808383 0.1706341822 0.2752095195 -0.4853839291 0.2744569049 -0.4851775726 -0.084441959 0.1555348733
505296970.0 -0.064679753 0.1716131142 0.2694908841 -0.4886528073 0.2693645647 -0.4886390754 -0.0834346729 0.156349985
510296940.0 -0.0631398389 0.1725006683 0.2641915163 -0.4917398846 0.263946013 -0.491675207 -0.0812960811 0.1574512569
515296910.0 -0.061037397 0.1732846057 0.2586904991 -0.4942319513 0.2589831545 -0.4942752952 -0.0801734781 0.1585445398
520296880.0 -0.0596478337 0.1740438878 0.2537405064 -0.4970660847 0.2534445916 -0.4967879174 -0.0786527136 0.1593249501
525296850.0 -0.0572099203 0.174501135 0.2475973087 -0.4997884869 0.2484256761 -0.4998602029 -0.0772779441 0.160537819
530296820.0 -0.0552063961 0.1753945144 0.2426555615 -0.5023991241 0.2426044437 -0.5025409469 -0.075343194 0.1613886473
535296790.0 -0.0540328561 0.1763967083 0.2374510959 -0.5048519623 0.237400301 -0.5046845306 -0.0742328374 0.1621272686
540296760.0 -0.0518088399 0.1771968125 0.2317267277 -0.5076397298 0.231499472 -0.5078844911 -0.0726250162 0.163394593
545296730.0 -0.0499409349 0.1777330899 0.2257515327 -0.5098594509 0.22571993 -0.5100677449 -0.071039331 0.1637539807
550296700.0 -0.047160796 0.1786987424 0.2200337264 -0.5125171531 0.2204860501 -0.5126610582 -0.069561453 0.1649765304
555296670.0 -0.0456747862 0.1791248239 0.2147162948 -0.5144385845 0.2151353183 -0.5149747914 -0.0679568902 0.1660209073
560296640.0 -0.0434055172 0.1803879453 0.2090431101 -0.5175872201 0.2091159567 -0.5174607656 -0.0664186289 0.1668460828
565296610.0 -0.0417173754 0.1806263806 0.2033454837 -0.5193582433 0.2042303117 -0.5193029704 -0.0651376243 0.1670701027
570296580.0 -0.0403630424 0.1811812923 0.1979551258 -0.5220636 0.1974642346 -0.5216376655 -0.0637367419 0.1684653729
575296550.0 -0.0381250786 0.181834934 0.1923347664 -0.5238020856 0.1919592437 -0.5235174385 -0.0616211564 0.1691383728
580296520.0 -0.035664767 0.1825613742 0.1864624017 -0.5259628928 0.1865922826 -0.5257140239 -0.0601120976 0.1695197872
585296490.0 -0.0341225793 0.1824543573 0.1812816992 -0.5274286941 0.1808069684 -0.527645304 -0.0585781035 0.1704310894
590296460.0 -0.0316831798 0.1835183689 0.1750832554 -0.5286946049 0.1750839297 -0.5291272947 -0.0574636811 0.1710962577
595296430.0 -0.0297576677 0.1839184536 0.1688780613 -0.5313440719 0.1690417262 -0.5308559078 -0.0555422504 0.1713445919
600296400.0 -0.0280051789 0.1845672444 0.1635877268 -0.533257181 0.1630581818 -0.5328849493 -0.0539336615 0.1720732088
605296370.0 -0.0258651281 0.1847120087 0.1580762989 -0.5348035669 0.1579594983 -0.5350166721 -0.0521036891 0.1728162537
610296340.0 -0.0237360515 0.1851712412 0.1516029616 -0.5360025202 0.1521000798 -0.5363051524 -0.0504765848 0.1730921513
615296310.0 -0.0214182197 0.1851939086 0.1455954602 -0.5373632942 0.1458418618 -0.5384961689 -0.0484403487 0.1740379339
620296280.0 -0.0197965584 0.1854994669 0.1400290248 -0.5393512244 0.1402459102 -0.5393977587 -0.0472157752 0.1744291896
625296250.0 -0.0176975205 0.1857843491 0.1348129342 -0.5412662844 0.1344554287 -0.5411392256 -0.0449353809 0.1750818219
630296220.0 -0.0149183288 0.1862777357 0.1277672988 -0.5423616225 0.1280398722 -0.5421628639 -0.0434580808 0.1759788118
635296190.0 -0.0140031155 0.1864509332 0.12283231 -0.5435228325 0.1228119915 -0.5437535115 -0.0419051241 0.1760828028
640296160.0 -0.0116635293 0.1868108512 0.1169038288 -0.5444488035 0.116939476 -0.5448489105 -0.0395125137 0.1768488899
645296130.0 -0.0091475099 0.1873695396 0.1105294843 -0.5459520127 0.1111638517 -0.5459159576 -0.0379579984 0.1773195789
650296100.0 -0.0074254023 0.1872869335 0.1048813502 -0.5468876262 0.1050470559 -0.5471626027 -0.0361556635 0.1772033707
655296070.0 -0.0055787561 0.1874899572 0.0987933436 -0.5482307676 0.0992088054 -0.5484297027 -0.034245427 0.1782196599
660296040.0 -0.003797663 0.1872902084 0.0933468546 -0.54914359 0.0933290777 -0.5492843345 -0.0324407263 0.1785401241
665296010.0 -0.0009013696 0.1875444427 0.0869197594 -0.5501041616 0.0871004836 -0.5502247336 -0.0306741199 0.1793476455
670295980.0 0.0001723172 0.1881158294 0.0810990119 -0.5509946096 0.0813966819 -0.5510149888 -0.0294336658 0.1799541964
675295950.0 0.0027676149 0.1880510738 0.0754515331 -0.5519320608 0.0757257241 -0.5514202989 -0.0274536422 0.1801781043
680295920.0 0.0046108846 0.1882497538 0.0692602284 -0.5522035932 0.0686520302 -0.5530142318 -0.025513587 0.1812773238
685295890.0 0.0068113243 0.188824929 0.0631830868 -0.5531470231 0.0629709986 -0.5533669115 -0.0237556193 0.1813123875
690295860.0 0.0091126807 0.1884939054 0.0573577145 -0.5535220816 0.0570769766 -0.5541336253 -0.0221794073 0.1822891977
695295830.0 0.0108824184 0.1885658444 0.0518065252 -0.5541807226 0.0509629786 -0.5546705076 -0.0203734663 0.1826422534
700295800.0 0.0134749451 0.188186628 0.0455099469 -0.5545441124 0.0449575052 -0.5546061154 -0.0186605617 0.1832720225
705295770.0 0.015225044 0.1889554338 0.0390817999 -0.5553044853 0.0393093293 -0.555503758 -0.0166280341 0.1837627467
710295740.0 0.0176085258 0.1888701556 0.0337047007 -0.5563463281 0.033331398 -0.5560834431 -0.0150777216 0.1831215653
715295710.0 0.0191638257 0.188298134 0.0278705156 -0.5557139065 0.0271962752 -0.5560734582 -0.0130263575 0.1836557661
720295680.0 0.0218399995 0.1883006478 0.0213892902 -0.5561741013 0.021574648 -0.5561488594 -0.0114466655 0.1849762571
725295650.0 0.0236419236 0.1882367844 0.015296406 -0.5561964976 0.0154760713 -0.5568326211 -0.0103439228 0.1850752363
730295620.0 0.0259897423 0.1885245423 0.0093140582 -0.556155526 0.0093457306 -0.5565143117 -0.008522501 0.1850644803
735295590.0 0.0279079961 0.1885513363 0.0034472435 -0.556522392 0.0031062884 -0.5566401255 -0.0069084385 0.1851236838
740295560.0 0.0298010363 0.1881152894 -0.0027907525 -0.5564504005 -0.0029835782 -0.5566861492 -0.0043541996 0.185462783
745295530.0 0.03202358 0.1881532205 -0.0087139512 -0.5560476114 -0.0090454276 -0.5565627383 -0.0029072131 0.1853563482
750295500.0 0.0343125358 0.1877789261 -0.0144997999 -0.5563078804 -0.0147313227 -0.5563822188 -0.0012688423 0.1855605023
755295470.0 0.0363160195 0.1874777125 -0.0205636718 -0.556135247 -0.020768412 -0.5560173804 0.0009997225 0.1853879595
760295440.0 0.0379632784 0.1869462579 -0.0261774131 -0.5559474765 -0.0269407512 -0.5563085421 0.0024363575 0.1856092869
765295410.0 0.0401255494 0.1868321604 -0.0330557568 -0.5554957263 -0.0330586373 -0.5558187763 0.0042988401 0.1858186103
770295380.0 0.0416946784 0.1862057059 -0.0387682282 -0.5551554527 -0.038825984 -0.5547517611 0.0059012839 0.1855762741
775295350.0 0.0439243416 0.1855851033 -0.0448944038 -0.5540829836 -0.0443118697 -0.5544263721 0.0070543468 0.1862525654
780295320.0 0.0461934353 0.1858779369 -0.0507163131 -0.5537734848 -0.0500528994 -0.5537939722 0.0093924517 0.1855383834
785295290.0 0.0480653898 0.1848093166 -0.0570547839 -0.5529542477 -0.0564295213 -0.5535919949 0.0114299125 0.1859271315
790295260.0 0.0503285541 0.1850105542 -0.0617060383 -0.5529244455 -0.0617478947 -0.5523033333 0.0133192107 0.1861812573
795295230.0 0.0523894397 0.1842689431 -0.0686397899 -0.5519022384 -0.0683446419 -0.5519377001 0.0155564058 0.18604782
800295200.0 0.0541886723 0.1841080778 -0.0748402364 -0.5508181129 -0.0743674118 -0.5513446108 0.0173916228 0.1859038233
805295170.0 0.0562371469 0.1834342966 -0.0801939347 -0.5502252569 -0.0803645801 -0.5505130803 0.0188190658 0.1859687061
810295140.0 0.0580426425 0.1825345549 -0.0862353305 -0.5490777852 -0.086182173 -0.549529853 0.021034636 0.1859026135
815295110.0 0.0602768614 0.1821130365 -0.0920105667 -0.5478764927 -0.0916628857 -0.5481576232 0.0227261104 0.1860257544
820295080.0 0.0619847907 0.1820551356 -0.0982714939 -0.5471070633 -0.0973951168 -0.5469332237 0.0245370436 0.1859442401
825295050.0 0.0647782376 0.1812017036 -0.1033478408 -0.5453274157 -0.1038617649 -0.546050865 0.0268554197 0.1858185209
830295020.0 0.0661318868 0.1806629834 -0.1100840641 -0.5443264608 -0.1097049716 -0.5448943992 0.0291241687 0.1857160772
