!Created with skrf (http://scikit-rf.org).
# Hz S RI R 50.0 
!freq ReS11 ImS11 ReS21 ImS21 ReS12 ImS12 ReS22 ImS22
300000.0 -0.2123825642 -0.0597965116 0.0005312288 0.0020081065 -0.0008272113 0.0018270084 -0.7749783566 -0.1361933038
5299970.0 -0.2169419396 0.0084458648 0.0001789149 -2.26307e-05 3.24643e-05 -0.0001049302 -0.7846298625 -0.0071727836
10299940.0 -0.2132903376 0.0192205998 0.0001376575 -6.21946e-05 2.1608e-06 -0.000127069 -0.7876934636 -0.0037374786
15299910.0 -0.2089902617 0.028352415 -0.0001035458 -0.0001569259 9.00584e-05 8.85248e-05 -0.7931329847 -0.0014181693
20299880.0 -0.2034964161 0.0360777407 0.0001257787 2.86e-05 -0.0001709233 -6.06332e-05 -0.7996633517 0.0022661732
25299850.0 -0.1976993169 0.0421586308 -4.83162e-05 -9.04122e-05 -9.41366e-05 -1.37807e-05 -0.8062730634 0.008162661
30299820.0 -0.1919964421 0.046748109 0.0001700933 -5.44123e-05 -0.0001379574 0.0001125036 -0.8123842851 0.0162858806
35299790.0 -0.1864714869 0.0504304833 -1.46178e-05 -9.8467e-06 3.19278e-05 -7.1214e-05 -0.8173760306 0.0250732562
40299760.0 -0.1808551434 0.0533927326 -0.0001428061 -0.0002006901 -0.0001938843 -0.0001814726 -0.8213750658 0.0346492468
45299730.0 -0.1755619744 0.0552184319 -0.0002300896 -6.07403e-05 3.92019e-05 7.97342e-05 -0.8249388225 0.0441334966
50299700.0 -0.1707969868 0.0570897701 5.764e-05 -1.65529e-05 9.70718e-05 2.9555e-06 -0.8272896767 0.0539912263
55299670.0 -0.1665312401 0.0578407445 8.51453e-05 0.0002610879 -2.6083e-06 5.51277e-05 -0.8297398988 0.0647179414
60299640.0 -0.1622250757 0.0588032168 5.85018e-05 -0.0002363302 5.0215e-06 7.14133e-05 -0.8304501055 0.0739751524
65299610.0 -0.1587750792 0.0591538286 0.0001276187 0.0001264173 -1.72855e-05 -3.00607e-05 -0.8319684843 0.0837013104
70299580.0 -0.1556236312 0.0597419142 -6.04395e-05 0.000151876 0.0001347792 -6.4499e-06 -0.8318952313 0.094563629
75299550.0 -0.1528865205 0.060029225 -2.58489e-05 0.0002055466 -2.6721e-05 8.3324e-06 -0.832370438 0.1038512322
80299520.0 -0.1499897613 0.0600213713 0.000141337 0.0001711414 8.157e-06 0.0002733916 -0.8320668482 0.1137637559
85299490.0 -0.1479797218 0.0598375769 -0.000124393 4.6968e-05 -0.0001337478 7.01595e-05 -0.8315627374 0.1238115098
90299460.0 -0.1454256843 0.060123351 0.0001252443 3.89673e-05 -8.12112e-05 8.99532e-05 -0.8309726289 0.1331330328
95299430.0 -0.1434471081 0.0596313859 -0.0001092705 9.07938e-05 -0.0001472007 -9.65403e-05 -0.8294110623 0.1427382489
100299400.0 -0.1417966599 0.0600918349 0.0001532306 -4.00568e-05 3.92893e-05 0.0003049188 -0.828794386 0.1522319464
105299370.0 -0.1401354987 0.0600567604 3.112e-06 0.0002598196 6.17911e-05 0.0001034616 -0.8275230337 0.1611616716
110299340.0 -0.1385899754 0.06003871 4.0413e-05 0.0001051132 -4.06754e-05 3.53281e-05 -0.8256599305 0.1705994331
115299310.0 -0.1371239582 0.0598656964 0.0002021745 -8.08862e-05 1.66516e-05 -0.0001464184 -0.8242567902 0.1799118015
120299280.0 -0.1361895904 0.0598384449 0.000160719 -6.34149e-05 5.50048e-05 3.04708e-05 -0.8226615081 0.1892625404
125299250.0 -0.1350065701 0.0599556316 -3.87372e-05 -6.39095e-05 9.6691e-06 1.35487e-05 -0.8209772707 0.197604405
130299220.0 -0.1342582038 0.0604479953 0.0002155455 8.75861e-05 -1.97125e-05 9.87614e-05 -0.8189833389 0.2064243726
135299190.0 -0.1330222426 0.0606948759 0.0002360904 0.0002633209 2.53004e-05 0.0001841728 -0.8170453724 0.2161433095
140299160.0 -0.1325211054 0.0609389103 0.0001031767 -2.11574e-05 -3.96071e-05 6.28022e-05 -0.8140218655 0.2251582061
145299130.0 -0.1316450173 0.061370291 0.0001279963 -0.0001175229 -1.07391e-05 5.99587e-05 -0.8123771731 0.2341896069
150299100.0 -0.1307281339 0.061526756 6.62161e-05 0.0001353854 -7.54266e-05 -8.30043e-05 -0.8103531327 0.243157852
155299070.0 -0.1301009679 0.0619301886 0.0003779743 0.0001979653 -0.0001389822 0.0001368908 -0.8077728514 0.2518293911
160299040.0 -0.1295652899 0.0624496487 2.48868e-05 -6.00519e-05 2.53461e-05 0.0001733091 -0.8052322336 0.2606982303
165299010.0 -0.128790808 0.0627621764 6.61964e-05 0.0001736854 -5.44283e-05 -8.9959e-05 -0.8023180651 0.2697214239
170298980.0 -0.1286014793 0.0633836674 9.92477e-05 -3.13306e-05 4.62374e-05 0.0001018898 -0.7993428359 0.2778509756
175298950.0 -0.1279069746 0.0640502233 0.000127239 9.39343e-05 0.0001189499 0.0001596481 -0.7967855772 0.28674441
180298920.0 -0.1273544627 0.0645629725 0.0001721205 0.0001491812 0.0001899831 0.0001582466 -0.793757349 0.2953540545
185298890.0 -0.1265603463 0.0651966693 -4.11888e-05 -4.34885e-05 0.0001455397 8.5007e-06 -0.7902340932 0.3039165882
190298860.0 -0.1260634003 0.0660868562 0.0001189021 2.9682e-06 7.67612e-05 7.94354e-05 -0.787906477 0.312603934
195298830.0 -0.1258753058 0.0666482578 3.48164e-05 5.49846e-05 0.0001839227 0.0002069455 -0.7847235704 0.3212357771
200298800.0 -0.1252452974 0.0674496773 3.41731e-05 0.0001163662 4.52619e-05 -8.44721e-05 -0.7816851703 0.3292964795
205298770.0 -0.1247912766 0.0677954721 6.2412e-05 0.0001987698 -3.37712e-05 0.0001571173 -0.7777590279 0.3372975385
210298740.0 -0.1242467235 0.0686530255 2.17441e-05 -2.19501e-05 1.25698e-05 7.27533e-05 -0.7743884292 0.3455205588
215298710.0 -0.1240904539 0.0697661947 4.046e-05 0.0001009049 3.1466e-05 -0.0001136647 -0.7715602832 0.3539622631
220298680.0 -0.1236902562 0.0702395976 -8.36921e-05 -2.07747e-05 5.72107e-05 9.723e-05 -0.7676607261 0.362410861
225298650.0 -0.1234700762 0.0711634916 -6.728e-05 1.06869e-05 7.16336e-05 3.55445e-05 -0.7634043464 0.3702379523
230298620.0 -0.1227227101 0.072333225 2.26762e-05 -4.24626e-05 -0.0002349266 -0.0001276153 -0.7596308251 0.3786075493
235298590.0 -0.1219916098 0.0731962235 0.0001606243 4.03111e-05 -3.07992e-05 9.75881e-05 -0.7559262914 0.386935569
240298560.0 -0.1218948251 0.0738914482 0.0001566921 -9.4654e-05 0.0001542609 -9.9579e-05 -0.7515138072 0.3951391958
245298530.0 -0.1213996538 0.0746676581 0.0002070891 -1.03118e-05 0.0002728144 8.1838e-05 -0.748242154 0.4022935995
250298500.0 -0.120786023 0.0757767285 7.67752e-05 5.77863e-05 0.0001054779 1.8967e-06 -0.7435121668 0.4103279997
255298470.0 -0.1206211227 0.0766441731 0.000118392 0.0001089239 -6.27e-08 1.65932e-05 -0.738546444 0.4184792143
260298440.0 -0.1201304918 0.0774902594 -7.87603e-05 4.60364e-05 4.01223e-05 6.60175e-05 -0.7349383477 0.426094614
265298410.0 -0.1196026739 0.0788592741 6.16141e-05 1.55457e-05 4.06688e-05 0.0001550693 -0.7301778054 0.4336842696
270298380.0 -0.119016367 0.0796545438 0.0001848144 1.38394e-05 0.0001509844 2.71017e-05 -0.7260196135 0.4412547398
275298350.0 -0.1185261475 0.0807434349 -6.62652e-05 -7.0908e-06 0.0002082618 5.54394e-05 -0.7208804425 0.4484933511
280298320.0 -0.1175551308 0.0815807327 8.22416e-05 3.50277e-05 4.75747e-05 0.000203714 -0.7162144548 0.4559309885
285298290.0 -0.1170306807 0.0829906259 1.7324e-06 0.0001618774 -1.22269e-05 0.0001228525 -0.7110398754 0.4637198851
290298260.0 -0.1165303152 0.0836369322 6.93862e-05 0.0001093528 7.77705e-05 0.0002142477 -0.7064290106 0.4711991091
295298230.0 -0.1159847671 0.0845983148 0.0002872345 0.0001595087 0.0002071808 0.0001313663 -0.7009370223 0.4780994714
300298200.0 -0.1153772284 0.0859248611 4.62429e-05 6.712e-05 0.0001408623 0.0001689989 -0.6964069893 0.4853884179
305298170.0 -0.1146151027 0.0867458058 0.0002216796 0.0001630378 -0.0001182872 -3.4615e-05 -0.6901595987 0.4929276831
310298140.0 -0.1140039216 0.0879147064 -0.000134214 0.0003487674 0.0002210865 0.0002170906 -0.6856140953 0.5000042976
315298110.0 -0.1133190572 0.0889491884 0.0002971705 -2.32523e-05 -4.80325e-05 2.81204e-05 -0.6802012376 0.5069621214
320298080.0 -0.112643027 0.089494797 0.0003346318 0.0004453272 0.0002942005 -1.13991e-05 -0.6749698758 0.514308731
325298050.0 -0.1121286956 0.0904623126 -5.12277e-05 -0.000104639 5.80591e-05 2.80789e-05 -0.6690430274 0.5213535516
330298020.0 -0.1115653606 0.0912504372 0.0002449686 -2.4878e-06 8.3194e-06 -2.76132e-05 -0.663823351 0.5284864686
335297990.0 -0.1110973261 0.0925185524 -4.62988e-05 0.0001016115 0.0001150258 8.76642e-05 -0.6585993549 0.5353908737
340297960.0 -0.1108211672 0.0938070338 0.0001399223 0.0001992049 1.3711e-05 0.0001902717 -0.6525578834 0.542353714
345297930.0 -0.1101422038 0.0949063504 4.15048e-05 0.0002292175 1.10986e-05 0.0001965518 -0.6468460271 0.5489593947
350297900.0 -0.1091155786 0.0962121861 4.1821e-06 3.89318e-05 -7.04478e-05 0.0002613908 -0.64169681 0.5554879302
355297870.0 -0.1085825086 0.0968586645 0.0001558858 0.000166962 0.0002098963 4.74507e-05 -0.6359874894 0.5621515365
360297840.0 -0.1077572551 0.0983715159 0.0002618844 -6.70345e-05 0.0003943766 1.20429e-05 -0.6293718706 0.5688472095
365297810.0 -0.1073329004 0.0994898346 0.0001865205 -3.80803e-05 0.0002045413 0.0001792576 -0.6229911383 0.5756275601
370297780.0 -0.1063428483 0.1003741296 0.000132263 5.7205e-05 7.60731e-05 -9.75221e-05 -0.6178804581 0.5820387315
375297750.0 -0.1055938171 0.1015108112 0.000171017 8.7586e-06 0.0001241018 -3.17733e-05 -0.6116481644 0.5877638563
380297720.0 -0.1049212269 0.1025298401 5.91885e-05 0.0001742959 0.0002497015 7.88268e-05 -0.6055558683 0.5941358122
385297690.0 -0.1041150205 0.1038495963 0.0002645248 -0.0001529694 0.0001357873 2.66517e-05 -0.5992573367 0.6007559254
390297660.0 -0.103445162 0.104821834 1.00849e-05 5.12043e-05 0.000133693 0.0001189078 -0.5933825086 0.6068496267
395297630.0 -0.1023653852 0.106009889 0.0003546809 -1.4555e-06 0.0002095026 6.0287e-05 -0.5862766177 0.6137751238
400297600.0 -0.1014786723 0.1069889834 0.0001216796 5.45517e-05 0.0002213074 9.59492e-05 -0.5806919962 0.6188905194
405297570.0 -0.1009433629 0.1083532492 0.0003017297 0.000209092 3.625e-07 0.0001345685 -0.5740928496 0.6250856666
410297540.0 -0.1000504425 0.1094154957 -1.33374e-05 0.0001375309 0.0002497835 6.0538e-06 -0.5678343222 0.6308339278
415297510.0 -0.0988268016 0.1100450093 -5.75583e-05 0.000164811 -9.9954e-05 0.0002201158 -0.5612691148 0.6367501795
420297480.0 -0.0983202059 0.1117116402 0.0002168033 6.5081e-05 3.9833e-05 -9.8284e-06 -0.5547882372 0.642777463
425297450.0 -0.0971685256 0.1125934011 0.0001598608 -6.13835e-05 0.0001506561 0.0002087378 -0.548123957 0.6479578785
430297420.0 -0.0963041554 0.1132280917 0.0002473465 0.0001326311 0.00010769 7.87863e-05 -0.5410356447 0.6532824673
435297390.0 -0.0953365922 0.1144719697 0.0001504315 0.0001653265 9.28642e-05 0.0002192324 -0.5337991502 0.6586243724
440297360.0 -0.0946238325 0.1155419971 0.0002425824 0.0001099971 0.0001191823 -0.0001000367 -0.5276984953 0.6635718255
445297330.0 -0.0934787297 0.1165770271 0.0002370237 0.0001137959 0.0001615088 0.000193112 -0.5202063435 0.6688487054
450297300.0 -0.0922964961 0.1173228449 -2.3764e-05 0.0001589255 0.0001959991 8.63007e-05 -0.513178919 0.6742654183
455297270.0 -0.0914838162 0.1185498881 0.000121508 0.0002788858 6.58969e-05 0.000129189 -0.5064480068 0.6788945244
460297240.0 -0.0908972697 0.1194820484 0.0002693789 -7.1398e-05 0.0002232886 1.2445e-06 -0.4996427149 0.6842781408
465297210.0 -0.0894766857 0.1206312911 0.0001185045 3.897e-05 0.0002699373 2.19345e-05 -0.492116352 0.6891321927
470297180.0 -0.0886355655 0.1217063649 6.87885e-05 -1.19361e-05 0.0001180327 6.47294e-05 -0.4850565639 0.6946590552
475297150.0 -0.0875786568 0.1224066268 0.0003539928 0.0001648627 0.0001046162 3.96352e-05 -0.4777459724 0.6986765457
480297120.0 -0.0864334875 0.1233732282 0.0002778194 0.0001324406 0.0001748262 -6.48505e-05 -0.4701323922 0.7036116216
485297090.0 -0.0854480174 0.1245815082 0.000192611 0.0002746788 3.41911e-05 2.66481e-05 -0.4629106647 0.7083036528
490297060.0 -0.0842908474 0.1256677943 0.0001337604 -1.83177e-05 6.93687e-05 -0.0001147633 -0.4558617713 0.7132590744
495297030.0 -0.0834956886 0.126426093 0.0002197524 -6.46927e-05 0.0003705913 0.0001044128 -0.4484451535 0.7179996261
500297000.0 -0.0819605901 0.1273309346 0.0005059078 0.0002070307 0.0001187579 2.46613e-05 -0.4413446213 0.7227407525
505296970.0 -0.0808570311 0.1284452968 0.0002173298 0.0001855346 -0.000138663 -3.82303e-05 -0.4334463136 0.7266986938
510296940.0 -0.0798194544 0.1293346311 0.0001402279 0.0001643127 -8.92087e-05 0.0001883019 -0.4263796732 0.7308076729
515296910.0 -0.0785127565 0.1303172156 0.0002182156 -6.10854e-05 0.0003066032 4.76774e-05 -0.4187454717 0.7353772522
520296880.0 -0.0776289531 0.1310660871 7.87727e-05 3.95739e-05 0.0003714977 4.3721e-05 -0.411070746 0.7393527952
525296850.0 -0.0763883788 0.1317475745 0.0003014222 4.69276e-05 4.90479e-05 -0.0002038677 -0.403674415 0.7434071141
530296820.0 -0.0752798248 0.1328103889 0.0001560224 0.0001469275 0.0001585198 0.0002381719 -0.3962183157 0.7475510077
535296790.0 -0.0741961906 0.1338569875 0.0002915588 7.58934e-05 6.35745e-05 0.0002603871 -0.3896039149 0.751187203
540296760.0 -0.0731333523 0.1346370121 0.0003404833 -0.0002457269 0.0001015315 -4.21918e-05 -0.381051326 0.75590725
545296730.0 -0.0719510184 0.1356251201 0.0001462505 7.21924e-05 0.0001365389 -0.0002622526 -0.3734658244 0.7593203971
550296700.0 -0.0703624369 0.1361612732 5.18129e-05 -2.20625e-05 0.0002197784 -0.0001387547 -0.365512038 0.763238238
555296670.0 -0.0694656161 0.1368484124 0.000327197 5.80879e-05 0.0001170547 -3.10679e-05 -0.3578667429 0.767486993
560296640.0 -0.0679940793 0.1381311417 8.33794e-05 3.91636e-05 0.0002373434 0.0001124715 -0.3500678146 0.7709895107
565296610.0 -0.0667733372 0.1388908076 -2.71789e-05 -9.64635e-05 0.0002822815 0.0001620674 -0.3423094444 0.7740632578
570296580.0 -0.0658124522 0.1396165864 6.55445e-05 0.0002009222 9.351e-07 -1.71619e-05 -0.3354497591 0.7775684528
575296550.0 -0.0645273051 0.1406838575 9.62845e-05 3.64146e-05 0.0001704302 -9.3088e-05 -0.3269100993 0.7808304096
580296520.0 -0.0632149185 0.1411928183 0.0002587687 7.15805e-05 0.0003028127 0.000142345 -0.3182649749 0.7840674234
585296490.0 -0.0621752501 0.1418966551 0.0002744987 1.57409e-05 3.698e-05 1.77872e-05 -0.3102959823 0.7875766246
590296460.0 -0.0605521603 0.142846232 8.96465e-05 2.72936e-05 0.0002314112 0.0001166536 -0.3030001957 0.7903959291
595296430.0 -0.0592949574 0.1434284501 0.0002277058 -8.47466e-05 4.12506e-05 0.0001894287 -0.2946907414 0.7931683346
600296400.0 -0.058011935 0.1444933843 0.0002618443 5.71352e-05 8.95233e-05 -7.46916e-05 -0.2867397536 0.795355306
605296370.0 -0.0570286212 0.1451820165 0.0002746859 -4.4581e-06 0.0001181936 -0.0001634869 -0.2779137471 0.7985511653
610296340.0 -0.0556625103 0.1459268269 0.0002609812 -3.84587e-05 1.4016e-06 -1.16161e-05 -0.2704758914 0.8011427745
615296310.0 -0.0538689675 0.1464600284 0.000235033 1.69034e-05 0.0002439102 -6.56247e-05 -0.2618686427 0.8035463581
620296280.0 -0.053046966 0.1468187764 0.000323261 -7.0526e-06 0.0001394973 -2.86003e-05 -0.2542317932 0.806471998
625296250.0 -0.0516303458 0.1475552954 0.000352012 -0.0001819263 8.81292e-05 0.0001664209 -0.2454024605 0.8080208728
630296220.0 -0.0498450502 0.1483299494 0.0001206501 6.96034e-05 0.0003224908 3.31786e-05 -0.2376166296 0.811029557
635296190.0 -0.048955279 0.1494306866 0.0002763376 -1.20261e-05 0.000216231 3.02642e-05 -0.2298046981 0.8127814824
640296160.0 -0.0476370728 0.1496280335 8.24881e-05 -6.81736e-05 0.0002887343 0.0001781486 -0.2211319364 0.8158566178
645296130.0 -0.0463515397 0.1506243821 1.22057e-05 7.73189e-05 0.0003233788 -0.0001411493 -0.2130852749 0.8178935014
650296100.0 -0.0444497697 0.1511909569 0.0003017655 -4.01764e-05 0.0002564268 -0.0001329273 -0.2047079746 0.8191209765
655296070.0 -0.0435051038 0.151894159 0.000371388 -5.86757e-05 0.0004702364 -0.0002691934 -0.1961265476 0.8211912764
660296040.0 -0.0421642472 0.1524210422 -4.5282e-06 -8.3765e-06 6.49005e-05 -1.2175e-05 -0.1874917584 0.823377607
665296010.0 -0.0404380867 0.1525690028 0.0002485548 -0.0001884727 0.0002266331 -7.56176e-05 -0.1792379573 0.8256029588
670295980.0 -0.0394708364 0.1537259533 0.0001659246 0.0001740899 0.0004413055 -7.65394e-05 -0.1720126216 0.8267643474
675295950.0 -0.0380176736 0.1540849158 0.0003151637 -9.57072e-05 0.000362878 -7.54426e-05 -0.1638479358 0.8289385826
680295920.0 -0.0360870632 0.154754398 -4.87479e-05 0.0001814586 9.1593e-05 2.01018e-05 -0.1547341464 0.8308806405
685295890.0 -0.0348638241 0.155520778 0.0001737861 6.71392e-05 -7.89072e-05 5.08626e-05 -0.1464549691 0.8319156056
690295860.0 -0.0333610697 0.1556435513 0.0001688869 3.96844e-05 0.0004401983 9.60888e-05 -0.1382921979 0.8339713642
695295830.0 -0.0320608634 0.1563007586 0.0001566756 -0.0001354986 0.0003474404 0.0002678314 -0.1292060076 0.8359175617
700295800.0 -0.0303933394 0.1566190494 0.0002920249 -0.0001434409 0.0001066424 0.0002940501 -0.121513753 0.8361019208
705295770.0 -0.0290837164 0.1572451786 0.0001995772 -0.0001484158 0.0004173333 7.56562e-05 -0.1133502541 0.8377777327
710295740.0 -0.0276089274 0.1579329896 0.0003993847 -6.76282e-05 0.0003849271 -0.0002629634 -0.1047314196 0.8389584406
715295710.0 -0.0265252779 0.1579575941 0.0002981644 -0.000204236 0.0002063489 -2.64622e-05 -0.0965897221 0.8398112249
720295680.0 -0.024758146 0.1586688787 0.0003135842 -9.40122e-05 0.0001812344 -0.0002198197 -0.0874085082 0.8409639724
725295650.0 -0.0232345275 0.1590521283 0.0001898371 7.17469e-05 0.0003141787 -4.89855e-05 -0.079740721 0.8420101925
730295620.0 -0.0218250237 0.1595806649 8.57397e-05 -3.3876e-05 0.0002206653 -0.0001224339 -0.0720269818 0.8421586298
735295590.0 -0.0204175176 0.1599874368 0.0001423063 -5.89544e-05 0.0001192029 -0.0001677358 -0.0631853985 0.8419557202
740295560.0 -0.0190571905 0.1604611366 0.0001722552 1.3631e-05 0.0002150931 4.31761e-05 -0.0539669821 0.8440112635
745295530.0 -0.0177008362 0.1606327933 0.0002445209 0.0001187966 0.0004768394 4.41271e-05 -0.0460309979 0.8439537452
750295500.0 -0.0161081205 0.1610017896 8.98351e-05 5.45126e-05 0.0003226769 3.21694e-05 -0.0382473762 0.8445715059
755295470.0 -0.0143138901 0.1613777129 0.0001892519 0.0001883515 0.0003897753 8.6736e-05 -0.0288513736 0.8440103013
760295440.0 -0.0130670755 0.1616851823 0.0005572008 -9.0768e-05 0.0001818469 6.16911e-05 -0.0207794792 0.844439165
765295410.0 -0.0115112371 0.1622625221 0.0002552481 0.000117601 0.0004077776 2.5882e-05 -0.0126497106 0.8450112823
770295380.0 -0.0099789287 0.1624229927 0.000530807 -0.0001582296 0.0003277306 -5.71902e-05 -0.0040280826 0.8449296039
775295350.0 -0.0088675855 0.1627101511 0.0002619474 2.78634e-05 0.0003061248 0.0002037282 0.0042172942 0.844345525
780295320.0 -0.0070968272 0.1629371099 -4.4954e-06 -4.42993e-05 0.0005429713 -9.46e-06 0.0122858435 0.8443645873
785295290.0 -0.0056611761 0.1626746886 0.0003307836 6.40089e-05 0.0003407144 6.01483e-05 0.0213485579 0.8439494641
790295260.0 -0.0037968189 0.1635228066 0.000282607 -0.0001027307 0.0004413796 -1.47658e-05 0.0300314429 0.8442781259
795295230.0 -0.0024751609 0.1635466337 0.0001915531 0.0001146258 0.0002991176 3.30816e-05 0.0393704824 0.8434318953
800295200.0 -0.0009176386 0.1638499561 0.0002440618 -0.0001086544 0.0003726269 -0.0001607109 0.0472884215 0.842831899
805295170.0 0.0007730961 0.1641084567 0.0006097369 -3.75512e-05 0.000156113 -0.0001000277 0.0550338704 0.8425429163
810295140.0 0.0023452982 0.1643748206 0.0005088421 3.56904e-05 0.0005356007 -0.0001378801 0.0636704454 0.8415434105
815295110.0 0.0035964107 0.1642639861 0.0002365437 -0.0003388317 0.0002313072 4.0576e-05 0.0723879392 0.8412933398
820295080.0 0.0050067747 0.1646290954 0.0001984864 -5.58811e-05 6.73353e-05 -5.87885e-05 0.080627254 0.8409904415
825295050.0 0.0070438805 0.1645695029 0.0003969045 2.69968e-05 0.0002488647 3.85252e-05 0.088832842 0.8398936844
830295020.0 0.0083896031 0.1646751101 0.0001880825 6.91549e-05 0.0001808201 1.41044e-05 0.098208368 0.838590925
835294990.0 0.0097881367 0.1652642872 0.0001868282 -8.7939e-05 0.0004110191 9.47884e-05 0.1054293067 0.837788139
840294960.0 0.0112631704 0.1653734001 0.0002278602 -0.0001182987 0.0004896567 -0.0004372241 0.1134574231 0.8367714766
845294930.0 0.012757877 0.1652712786 8.58384e-05 -0.000145148 0.0002034263 -0.0002009203 0.1219701948 0.8348193005
850294900.0 0.0143754594 0.1656249735 0.0004773363 -9.66361e-05 0.0004089996 7.8272e-06 0.1299940629 0.834004599
