!Created with skrf (http://scikit-rf.org).
# Hz S RI R 50.0 
!freq ReS11 ImS11 ReS21 ImS21 ReS12 ImS12 ReS22 ImS22
300000.0 -0.0999879805 -0.0721908496 0.6307351296 0.0677432741 0.623825016 0.0679054781 -0.0998738334 -0.080709249
5299970.0 -0.1017660527 0.01295151 0.6304746191 0.0100520136 0.6304869759 0.0103630044 -0.1005911679 0.0130618147
10299940.0 -0.0972427383 0.0292909184 0.6334967714 0.0153355471 0.633910194 0.0157108265 -0.0958096935 0.0304397617
15299910.0 -0.0898228869 0.0423978318 0.6405560611 0.0202216375 0.6406298936 0.0207432808 -0.0889164097 0.0435849009
20299880.0 -0.0816864782 0.0528647575 0.6486054505 0.0247961288 0.6486016124 0.0242117241 -0.0796360768 0.0545715147
25299850.0 -0.0723194472 0.0621265602 0.6575323765 0.0252696047 0.6575238782 0.0254270654 -0.0698425463 0.0631693645
30299820.0 -0.0621392246 0.068940282 0.6675591147 0.0243693575 0.6675643079 0.0244482155 -0.0596944828 0.0703146986
35299790.0 -0.0526767985 0.0736971685 0.6773627121 0.0213387646 0.6773312096 0.0216478299 -0.0500031946 0.0751035773
40299760.0 -0.0433110097 0.0771387165 0.685919741 0.0170514494 0.6865539793 0.017682224 -0.040339384 0.0776857036
45299730.0 -0.0338850146 0.0793285968 0.6950222458 0.0119584681 0.6953885937 0.0118419841 -0.0311261316 0.0797389648
50299700.0 -0.0256492933 0.0803335403 0.7035872171 0.0049311876 0.7032351294 0.0055657329 -0.0226439111 0.0806046236
55299670.0 -0.0176283111 0.0806839288 0.7109609368 -0.0034801998 0.7107031939 -0.0026244721 -0.0148385601 0.0807034832
60299640.0 -0.0100435126 0.0801390121 0.7175440998 -0.0117710255 0.717522112 -0.0107387035 -0.0078522916 0.0793415433
65299610.0 -0.0037687268 0.078723139 0.7231777914 -0.0200347767 0.7234114785 -0.0196590477 -0.0012182163 0.0787819041
70299580.0 0.0026289469 0.0776615672 0.7288192941 -0.0292940275 0.7285964713 -0.0288118205 0.0046799127 0.0769940037
75299550.0 0.008140134 0.0756966494 0.7323104019 -0.0390977817 0.7325888959 -0.0390354275 0.0101526304 0.0749924881
80299520.0 0.0131411978 0.073569198 0.7373262991 -0.0495075152 0.7371234702 -0.0489999268 0.0150472031 0.0727793037
85299490.0 0.0177391122 0.0714598017 0.7401792448 -0.058401388 0.7403695459 -0.0580336761 0.0193145906 0.0699934418
90299460.0 0.0217359704 0.0691042331 0.7429502129 -0.0690517003 0.743207328 -0.0684499437 0.0234594936 0.0680815113
95299430.0 0.0257757578 0.0666443301 0.7458144483 -0.0788474617 0.7457597899 -0.079144018 0.0276429332 0.0656156102
100299400.0 0.0289130325 0.0648758396 0.7465100387 -0.0891247193 0.7470480931 -0.0887515407 0.0312017698 0.0626490553
105299370.0 0.0322232182 0.062054408 0.7483838111 -0.0998414028 0.7491338843 -0.0991432716 0.0339741148 0.0605165643
110299340.0 0.0348116068 0.0596662492 0.750110186 -0.1087077176 0.7495082177 -0.1090100586 0.0361752044 0.0577650415
115299310.0 0.0374084432 0.0575628573 0.750696463 -0.1193594105 0.7508934315 -0.1192827745 0.0388139099 0.0551939238
120299280.0 0.0399708384 0.0546063738 0.750957815 -0.1293254377 0.751400576 -0.1293298337 0.041258869 0.0530846709
125299250.0 0.0420156002 0.052410696 0.751506935 -0.1389940276 0.7515039394 -0.1389355862 0.0430174706 0.0503961381
130299220.0 0.0436590612 0.0502343417 0.7507552737 -0.1491563607 0.7514684602 -0.1489908623 0.0447818389 0.048193861
135299190.0 0.0454462369 0.0481871403 0.7513241544 -0.1593918453 0.751209602 -0.1587512352 0.0468401011 0.0460183646
140299160.0 0.0466554583 0.0462590584 0.7507362537 -0.1690451061 0.7509025995 -0.1685476736 0.0480496511 0.0442928375
145299130.0 0.0485701143 0.0439845524 0.7505924059 -0.1784760759 0.7494918976 -0.1781950188 0.0493355063 0.0422006287
150299100.0 0.0496624863 0.0423087963 0.7486787371 -0.1871217773 0.7490015322 -0.1876561722 0.0509609218 0.0401062429
155299070.0 0.0503213136 0.0396533292 0.7479499602 -0.1982926881 0.7476760353 -0.1975907592 0.0520681916 0.0386566693
160299040.0 0.0519718536 0.0380864204 0.7462486243 -0.2072535699 0.7456532942 -0.207380212 0.0522160175 0.0364546612
165299010.0 0.0524490623 0.0361920714 0.7447147373 -0.2172184346 0.7447449456 -0.2169086463 0.0534854918 0.034925156
170298980.0 0.053321216 0.0339932452 0.7425834011 -0.2263301715 0.7429959418 -0.225830537 0.0542872848 0.0329170457
175298950.0 0.0537432715 0.0323655165 0.7412096923 -0.235332446 0.7407187738 -0.2351528739 0.0549088975 0.0316839047
180298920.0 0.0545161047 0.0306580914 0.7389657272 -0.2447588814 0.7388482094 -0.2442156705 0.0556194524 0.029835463
185298890.0 0.0556038109 0.028891996 0.7364739259 -0.2542087649 0.736374397 -0.2532665103 0.0558652901 0.0284001787
190298860.0 0.0558437973 0.0275470399 0.7343382212 -0.2635653952 0.7343361675 -0.2630059948 0.0563005296 0.0263301704
195298830.0 0.0561574118 0.0253457425 0.7318006416 -0.272154308 0.7320797896 -0.2719989833 0.0572009878 0.0251581194
200298800.0 0.056436908 0.0239643388 0.7286640242 -0.2812364696 0.7290762265 -0.2809856641 0.0569162977 0.023770059
205298770.0 0.0570594528 0.0228791922 0.7260365911 -0.2901801015 0.7258926812 -0.2895387437 0.0573428102 0.0215903003
210298740.0 0.0572929405 0.0210202476 0.7232557075 -0.2984989853 0.7231294318 -0.2976219266 0.0581031907 0.021442487
215298710.0 0.0569402929 0.0198802293 0.7203565603 -0.3074345716 0.7200518949 -0.3073836315 0.0575387092 0.0198228779
220298680.0 0.0577736583 0.0178080521 0.7166673746 -0.3161279146 0.7168865483 -0.3156616313 0.0575444985 0.017906251
225298650.0 0.0578666802 0.0167495809 0.7139570547 -0.3247646181 0.713831724 -0.324425868 0.0572470533 0.0166951491
230298620.0 0.0579269455 0.0159908966 0.7102037792 -0.3332594206 0.7108594629 -0.3324775654 0.0572447457 0.0151101129
235298590.0 0.0579614947 0.0147442324 0.707059834 -0.3412253513 0.7071593599 -0.3406081952 0.0575984646 0.0140092093
240298560.0 0.0581336579 0.0133540853 0.7036069021 -0.3499190995 0.7031907656 -0.3495967527 0.0575375971 0.0131529848
245298530.0 0.0580926506 0.0123425022 0.6998161972 -0.3583607128 0.6997457454 -0.3585868199 0.0584293057 0.0110478965
250298500.0 0.0586015129 0.0111308732 0.6951823229 -0.3668463654 0.6950692613 -0.3658609979 0.057939899 0.0106125994
255298470.0 0.0583969333 0.0093912888 0.6911364717 -0.3743015813 0.691762414 -0.3743701022 0.0580499424 0.0091519374
260298440.0 0.0577480925 0.0081631782 0.687364136 -0.3828677902 0.6881019267 -0.3822605667 0.0584609864 0.0079104495
265298410.0 0.0588694699 0.0075456341 0.6838313738 -0.391122284 0.6838414377 -0.3904129242 0.058323955 0.0068856671
270298380.0 0.0585595646 0.0062764365 0.6800068155 -0.3982537732 0.6794382591 -0.3983054042 0.0579188619 0.005630802
275298350.0 0.059130238 0.0051779265 0.6754945356 -0.4067587066 0.675588903 -0.4064935109 0.0582732962 0.0045021241
280298320.0 0.0587909443 0.0043404928 0.6712351395 -0.4145719247 0.6708612946 -0.4140701245 0.0585541676 0.0035835173
285298290.0 0.058610441 0.0032800609 0.666769217 -0.422573703 0.6663034686 -0.4224295756 0.0583167882 0.0022845831
290298260.0 0.0592058643 0.0021223272 0.6618131374 -0.4294430271 0.6620888686 -0.4300636252 0.0584571884 0.0017526606
295298230.0 0.0588716929 0.0008693131 0.6578941122 -0.4378929308 0.6575539411 -0.4373902406 0.0594078122 0.0005015559
300298200.0 0.0582189408 -0.0002754744 0.6529571962 -0.4456254605 0.65330799 -0.4454634134 0.0587951466 -0.0006193801
305298170.0 0.0587800198 -0.0012273695 0.6476220093 -0.4537067804 0.647916663 -0.4528816127 0.0594062857 -0.0019776215
310298140.0 0.0586065611 -0.0025038691 0.6426842788 -0.4607287102 0.6434759329 -0.4605216104 0.059292469 -0.003120868
315298110.0 0.0585202183 -0.0040148233 0.6378300357 -0.4683469722 0.6383864561 -0.4682645629 0.0591603249 -0.0044765617
320298080.0 0.0586544145 -0.0049388915 0.6321104965 -0.476444989 0.6329577897 -0.4760092407 0.0587619538 -0.0055070398
325298050.0 0.0578632145 -0.0059700488 0.6274515564 -0.4837555763 0.627315723 -0.4837060463 0.0581533003 -0.0063428596
330298020.0 0.0572025374 -0.0073125235 0.6215720866 -0.4906865615 0.6220431961 -0.4906337174 0.0572931099 -0.0072849692
335297990.0 0.0571898899 -0.0086114861 0.6158950416 -0.4975393928 0.6158998246 -0.497673069 0.0565686349 -0.0078733085
340297960.0 0.0562563058 -0.0090273119 0.6100471224 -0.5048532937 0.6092845483 -0.5050596356 0.0570054336 -0.0086527225
345297930.0 0.0559213358 -0.0092893908 0.6042221767 -0.5117350893 0.6038341987 -0.511982683 0.056363179 -0.009724358
350297900.0 0.0552254534 -0.0107689561 0.5975125793 -0.5186059514 0.597697192 -0.5185894047 0.0556767722 -0.010051596
355297870.0 0.054902776 -0.010631645 0.5929538469 -0.5253058782 0.5928639411 -0.5252490281 0.0554758293 -0.0106279298
360297840.0 0.0545542088 -0.0112845569 0.5871468811 -0.531016725 0.5877603565 -0.5313328905 0.054928033 -0.0110133858
365297810.0 0.0541247288 -0.0118349869 0.5807396755 -0.5385497539 0.581301406 -0.538261774 0.0549927303 -0.0117061854
370297780.0 0.0544235175 -0.0131193892 0.5742212986 -0.5446171564 0.575301881 -0.5445259914 0.0541885808 -0.0121991713
375297750.0 0.0538566993 -0.0137584915 0.5689816865 -0.5515937347 0.5694687577 -0.5510742605 0.0543432743 -0.0129723958
380297720.0 0.0534762052 -0.0141343213 0.5627271415 -0.5577814095 0.5629752303 -0.5566484521 0.0534610678 -0.0137049037
385297690.0 0.0529030479 -0.0150183671 0.5560437393 -0.564132093 0.5565982969 -0.5633061513 0.0532268339 -0.01419412
390297660.0 0.0527822883 -0.0151498761 0.5501808692 -0.5701016414 0.5499753301 -0.5698062176 0.0528012101 -0.0151235827
395297630.0 0.0523347847 -0.0162198851 0.5440407921 -0.5759536815 0.5440692312 -0.5766062967 0.0532891766 -0.0156206117
400297600.0 0.0517554228 -0.0165730267 0.5375856193 -0.5829085532 0.537884243 -0.58217589 0.0521844071 -0.0162247664
405297570.0 0.0511234888 -0.0174636768 0.5307630658 -0.5876278952 0.531378939 -0.5875673746 0.0516094296 -0.0167223368
410297540.0 0.0514694064 -0.0178234409 0.5247345501 -0.5941316096 0.5253835565 -0.5939819581 0.0516088477 -0.0171803177
415297510.0 0.0514226223 -0.018824107 0.5180288453 -0.6000986733 0.5185910841 -0.5998951838 0.0509487024 -0.0177044357
420297480.0 0.0509900309 -0.0186108109 0.511022775 -0.6056290972 0.5113539829 -0.6060537953 0.0505337628 -0.0191355955
425297450.0 0.0502639639 -0.0204299997 0.5047252078 -0.6116304479 0.5046817262 -0.6111259059 0.0495445059 -0.0187194984
430297420.0 0.0499025398 -0.0209084773 0.4978993149 -0.6165546715 0.4979838665 -0.6163429763 0.0496862275 -0.0201289279
435297390.0 0.0496256873 -0.0212417476 0.4910545576 -0.6222832167 0.4911260771 -0.6219229615 0.0501614952 -0.0205801437
440297360.0 0.0495272629 -0.0213857586 0.4844636685 -0.6274398869 0.4843614063 -0.6279939985 0.0490059157 -0.0213649198
445297330.0 0.0486453853 -0.0228772937 0.4778086357 -0.6333446173 0.4776790613 -0.6328868541 0.0491869866 -0.0223899107
450297300.0 0.048862294 -0.0230797323 0.4707027467 -0.6381587989 0.4705014826 -0.6387278966 0.048197667 -0.023182029
455297270.0 0.0481630938 -0.0238118487 0.4631446969 -0.6436239616 0.4637592594 -0.6440781065 0.0481507764 -0.0233080423
460297240.0 0.0479309586 -0.024045948 0.4561243635 -0.6482128841 0.4565581724 -0.6484422977 0.0478723535 -0.0235109817
465297210.0 0.0475646739 -0.0248643151 0.4494913705 -0.6537532988 0.4495432918 -0.6543282422 0.0475182894 -0.0250742004
470297180.0 0.0471557165 -0.0255383518 0.4418522301 -0.6592703149 0.4418817168 -0.6587345912 0.0470985897 -0.0249488073
475297150.0 0.0469122251 -0.0264553628 0.4344197444 -0.6630735539 0.4350291212 -0.6629640974 0.0474398402 -0.025919739
480297120.0 0.0463235618 -0.026135822 0.4271498558 -0.6683670256 0.4275814414 -0.6687089301 0.0470488032 -0.0259990102
485297090.0 0.0454956779 -0.0269882588 0.420038983 -0.672521606 0.4205297719 -0.6726129322 0.0463518402 -0.0270390618
490297060.0 0.0449259895 -0.0275618264 0.4131482203 -0.6778503517 0.4131676117 -0.677201952 0.0463043661 -0.0268585294
495297030.0 0.0446993192 -0.0279075969 0.4049308026 -0.681999543 0.4057283211 -0.6820189909 0.045204572 -0.0276866812
500297000.0 0.0442315634 -0.0287291576 0.3974176882 -0.6858570068 0.3972499123 -0.6860309484 0.0451752629 -0.0274345384
505296970.0 0.0440545487 -0.0292990161 0.3903464437 -0.6904883837 0.3895372078 -0.6907292888 0.0445178467 -0.028385839
510296940.0 0.0435101693 -0.0294316686 0.3822184006 -0.695509173 0.382432124 -0.6953764407 0.0447032093 -0.0283003789
515296910.0 0.0424736168 -0.0299049199 0.3742073852 -0.6994610234 0.3752666275 -0.6990823692 0.0439462859 -0.0288230287
520296880.0 0.0422992565 -0.0303930764 0.3666418275 -0.7039577563 0.3674440982 -0.7032129543 0.0430650881 -0.0295026005
525296850.0 0.0420703659 -0.0313690666 0.358937063 -0.7074120087 0.3601099759 -0.7074153018 0.0426247292 -0.0295249305
530296820.0 0.0416220907 -0.0314248543 0.351806132 -0.7115555323 0.351838001 -0.7111229262 0.0424054813 -0.0300380496
535296790.0 0.0404152041 -0.0316144444 0.344298797 -0.715003362 0.3442324682 -0.7145465372 0.0419715663 -0.0311527988
540296760.0 0.0399600131 -0.0318201579 0.3358549868 -0.7186082786 0.335615344 -0.7186867074 0.0408692507 -0.0304377311
545296730.0 0.039792008 -0.0324569364 0.328241475 -0.7225653754 0.3275904644 -0.7223677101 0.0406297054 -0.0312098597
550296700.0 0.040021139 -0.0323710819 0.319332738 -0.7259483115 0.3204345011 -0.7264385586 0.0397170712 -0.0315702356
555296670.0 0.0386943193 -0.0330554557 0.3121000958 -0.7294911863 0.3127434249 -0.7293473561 0.0396552004 -0.0318558123
560296640.0 0.0386323909 -0.0330114007 0.3045682781 -0.7331189065 0.3045729203 -0.7325166928 0.038922116 -0.032486085
565296610.0 0.0374001337 -0.0337231079 0.2959240719 -0.736261378 0.2965101665 -0.7362609828 0.0380979962 -0.032924878
570296580.0 0.0372696769 -0.0338413912 0.2884839341 -0.7398224249 0.2873142053 -0.7394866045 0.0376091112 -0.0327495258
575296550.0 0.036474716 -0.0340626324 0.2802910081 -0.7429908208 0.2798050626 -0.74279493 0.0375356155 -0.0336609736
580296520.0 0.0361006129 -0.0345673538 0.2719461541 -0.7461705279 0.2722862022 -0.7459192872 0.0368972405 -0.0340290599
585296490.0 0.0355823241 -0.0355034822 0.2639294091 -0.7483033708 0.2640879762 -0.7484767497 0.0362921442 -0.0341513766
590296460.0 0.0354759108 -0.0353692734 0.2552531105 -0.7509163694 0.2557303677 -0.7511624665 0.0347748468 -0.0344691407
595296430.0 0.0350779824 -0.0355625244 0.246753364 -0.7544637687 0.2470209824 -0.7541767219 0.0350370822 -0.03545781
600296400.0 0.0340000958 -0.0363386535 0.2392280025 -0.7573537697 0.23909949 -0.7561179399 0.0345119599 -0.0357636908
605296370.0 0.0335501627 -0.0365963011 0.2304261238 -0.759177091 0.2309479572 -0.7590756038 0.0338414374 -0.0359173673
610296340.0 0.0331799114 -0.0369458795 0.2218514029 -0.7613590428 0.2228509521 -0.7620213518 0.0336900124 -0.0362980295
615296310.0 0.0328807653 -0.037732424 0.2139764628 -0.7641861414 0.2136223451 -0.7646188291 0.0331230299 -0.0365048146
620296280.0 0.0322818328 -0.0381459706 0.2060532609 -0.7664115699 0.2059760852 -0.7656824941 0.0324105029 -0.0370155741
625296250.0 0.0312665784 -0.0385603511 0.1984053781 -0.7689421964 0.1976560321 -0.7690450853 0.032533326 -0.0370919252
630296220.0 0.0319543922 -0.0382408832 0.1885787284 -0.7706002025 0.1883934884 -0.7706960112 0.0314951342 -0.0373866604
635296190.0 0.0299713944 -0.0390680745 0.1805707715 -0.7727757895 0.180318281 -0.7730359226 0.0312381301 -0.0376001616
640296160.0 0.0293875028 -0.0391787294 0.1724043585 -0.7738436601 0.1725273053 -0.774385047 0.0305943526 -0.0377814494
645296130.0 0.0292223417 -0.0392053411 0.162974052 -0.7764916233 0.164059628 -0.7765328439 0.0303236855 -0.0381804872
650296100.0 0.0287727476 -0.0395988012 0.1546209464 -0.7782725404 0.1554131176 -0.7782618812 0.0298944627 -0.0390312299
655296070.0 0.0275326236 -0.0402348759 0.146105227 -0.7800017102 0.1470469328 -0.7799093623 0.0294238062 -0.0387950333
660296040.0 0.0266231871 -0.0405475145 0.1381804702 -0.7816389388 0.1385619302 -0.7814421672 0.0291235971 -0.0390160933
665296010.0 0.0270068195 -0.040420838 0.1286508583 -0.7831017366 0.1301126445 -0.7823011909 0.0285466181 -0.0383234597
670295980.0 0.0251576306 -0.0404854641 0.1211065498 -0.7840676339 0.1210715778 -0.7839457372 0.0274074654 -0.0390419797
675295950.0 0.0250605832 -0.0403376946 0.1129865957 -0.7850356395 0.1129319466 -0.7848629169 0.026801452 -0.0392314681
680295920.0 0.0240527344 -0.0412509762 0.1035947899 -0.7863887933 0.1034747184 -0.7867009198 0.0262695964 -0.0385925712
685295890.0 0.0238613994 -0.0403809892 0.0950287506 -0.7875258421 0.094937829 -0.7877132619 0.0258950878 -0.0390972501
690295860.0 0.0237049729 -0.0407263527 0.0865966191 -0.7879716038 0.086593456 -0.7887738314 0.0250371072 -0.0386927199
695295830.0 0.0231098445 -0.0411839452 0.0789889425 -0.7896964275 0.0775971552 -0.7891996232 0.0242946781 -0.0390652503
700295800.0 0.0224015035 -0.0414534916 0.0694027097 -0.79000873 0.0692690969 -0.7897163561 0.0235480896 -0.0386970536
705295770.0 0.0212888008 -0.0408165523 0.0604483126 -0.7910563123 0.0610481359 -0.7912461422 0.0230696185 -0.0389032209
710295740.0 0.0211124831 -0.0411521071 0.0525532326 -0.7920732167 0.0530945214 -0.7917822157 0.0225169644 -0.0399059259
715295710.0 0.0199185912 -0.0415896817 0.0443224112 -0.792094417 0.0435105313 -0.7919865328 0.0223090943 -0.0397718332
720295680.0 0.0196725574 -0.0416091529 0.0350848319 -0.7927348934 0.0353740667 -0.7921078429 0.0215214171 -0.0391361355
725295650.0 0.0192280312 -0.0415332116 0.0262846566 -0.7933170246 0.0266438682 -0.7928695144 0.0202814722 -0.0391198381
730295620.0 0.0191966218 -0.0411986405 0.0175534729 -0.7930510737 0.0179525864 -0.7930036218 0.0195812469 -0.039866852
735295590.0 0.017979251 -0.0413544089 0.0093529086 -0.7934288346 0.0091541362 -0.7932317838 0.0189818506 -0.0399084735
740295560.0 0.017129039 -0.0414104835 0.0007001195 -0.7930435056 0.0006631969 -0.7935267014 0.018767376 -0.0397657762
745295530.0 0.0167696931 -0.0413741607 -0.0080965485 -0.7927399428 -0.0081773311 -0.7929966546 0.0182353228 -0.0405038634
750295500.0 0.0163646561 -0.0419007857 -0.0166506277 -0.7928618402 -0.0165459087 -0.7927518534 0.0176252833 -0.0399099301
755295470.0 0.0158042343 -0.0418211968 -0.0253701614 -0.7924196428 -0.025157494 -0.7924969829 0.0175980646 -0.0408162912
760295440.0 0.0149961491 -0.0416536568 -0.0340873005 -0.7928583272 -0.0340520054 -0.7931875623 0.0163497273 -0.0405221815
765295410.0 0.0144714269 -0.0419266211 -0.0426206197 -0.7917235233 -0.0433006284 -0.7921662579 0.0159263997 -0.0403683248
770295380.0 0.0134669706 -0.0421739745 -0.0518640899 -0.7912852186 -0.0511976929 -0.7911832561 0.0149895465 -0.0408171111
775295350.0 0.0126648288 -0.0428015006 -0.0598626745 -0.7901181609 -0.0594711834 -0.7908975151 0.0135725618 -0.0402759853
780295320.0 0.0126210672 -0.0423122181 -0.0686210661 -0.7901604838 -0.0672607968 -0.790076984 0.0133619561 -0.0412630497
785295290.0 0.0116050005 -0.0429239644 -0.0775797484 -0.7892521683 -0.0767553687 -0.7893909946 0.0135954788 -0.0407159981
790295260.0 0.0116302511 -0.0418925869 -0.0848705769 -0.7882701147 -0.0841424827 -0.7881467229 0.0128761448 -0.0411331837
795295230.0 0.0106236944 -0.0423790878 -0.0937939519 -0.7870831127 -0.0935156206 -0.7877953356 0.0124237414 -0.0403824603
800295200.0 0.0095489821 -0.0421046239 -0.1032940697 -0.7862176455 -0.1023706092 -0.786220881 0.0118404969 -0.0408051095
805295170.0 0.0091798106 -0.042321675 -0.1113589499 -0.7848680058 -0.1111557531 -0.7854321718 0.0111411603 -0.0407809534
810295140.0 0.008171168 -0.0427903473 -0.1193821748 -0.7834090992 -0.1191245975 -0.783666826 0.0112889333 -0.0405454217
815295110.0 0.0079823899 -0.042614432 -0.1280052176 -0.7817083229 -0.1276496403 -0.7823821242 0.0100557126 -0.0405394955
820295080.0 0.0066658353 -0.0417665912 -0.1368487284 -0.7808971956 -0.1359102132 -0.7805332813 0.0093697662 -0.0404182829
825295050.0 0.0070780539 -0.0419544915 -0.1447357357 -0.7789405887 -0.1448119539 -0.7795678257 0.0094452074 -0.0405947884
830295020.0 0.0062779528 -0.0419453096 -0.1538767355 -0.777517673 -0.1534074495 -0.7770406199 0.0094536272 -0.0400926674
