!Created with skrf (http://scikit-rf.org).
# Hz S RI R 50.0 
!freq ReS11 ImS11 ReS21 ImS21 ReS12 ImS12 ReS22 ImS22
300000.0 -0.099693758 -0.080357803 0.6246590016 0.0747525968 0.6256207609 0.0801006595 -0.0971199017 -0.090156798
5299970.0 -0.1004846825 0.012904241 0.630667412 0.0104345029 0.6307409701 0.0110654491 -0.1021591256 0.0117939519
10299940.0 -0.0953525051 0.0298422576 0.6345775681 0.0159269701 0.6342279411 0.0159251998 -0.0973432979 0.0289450703
15299910.0 -0.0884369198 0.0432103719 0.6404295537 0.0206983842 0.6403894894 0.0209098487 -0.0899868889 0.0419285461
20299880.0 -0.0794075452 0.0544018235 0.6487671776 0.0238126505 0.6488010931 0.0239110597 -0.081909784 0.0531509094
25299850.0 -0.0698459964 0.0627135144 0.6577972821 0.0250272585 0.6579309694 0.0255020228 -0.0725910973 0.0619080502
30299820.0 -0.0595213061 0.0690583064 0.668154327 0.024926074 0.6672321613 0.024143647 -0.0625461829 0.0688421333
35299790.0 -0.0494734157 0.0745461266 0.6774834878 0.0212535538 0.6775425658 0.0218512438 -0.0525412289 0.0734923628
40299760.0 -0.0398138848 0.0768452988 0.6868487253 0.0176179025 0.6868159854 0.0177130551 -0.0437047626 0.0770682515
45299730.0 -0.0305220079 0.0794749769 0.6960918629 0.0118142818 0.6959827753 0.0121581394 -0.0339632038 0.0792848586
50299700.0 -0.0218852763 0.0797670821 0.7032659611 0.004840095 0.7039447091 0.0049624803 -0.0256937144 0.0800651556
55299670.0 -0.0141788558 0.0800524529 0.7105368596 -0.003211335 0.7112463726 -0.0026925527 -0.0180216031 0.0798569138
60299640.0 -0.0066533604 0.0787133754 0.7174284113 -0.0113655988 0.7174211849 -0.0112634577 -0.0105212899 0.079615804
65299610.0 -0.000317811 0.0779853414 0.7233437736 -0.0193192923 0.7240394481 -0.0198662467 -0.003585954 0.0786116663
70299580.0 0.0060409885 0.0759244897 0.7287448194 -0.0291742217 0.7286341171 -0.0292634845 0.0023032824 0.0770150033
75299550.0 0.0117070325 0.0743256629 0.7329876861 -0.0391564402 0.7332748639 -0.03886106 0.0081613689 0.0757109675
80299520.0 0.0163660737 0.0720185552 0.7377606583 -0.0494137675 0.7372989765 -0.0488412454 0.0130912563 0.0728356648
85299490.0 0.0207942192 0.0696528067 0.7408966915 -0.0590122554 0.7404084075 -0.0589309549 0.0172988529 0.0706836437
90299460.0 0.0246221124 0.0674001461 0.7434584608 -0.0685488699 0.7438728348 -0.0687972642 0.0220629692 0.0686072884
95299430.0 0.0282183473 0.0653114835 0.7462007044 -0.0793482066 0.7460280955 -0.0786968943 0.0252434738 0.066128841
100299400.0 0.0313416938 0.0627200953 0.7475345115 -0.0890787305 0.7471531052 -0.088746886 0.0284188003 0.0638251035
105299370.0 0.0345286449 0.0600516798 0.7486261841 -0.0988572698 0.7488505735 -0.0991786433 0.0318426001 0.0618381259
110299340.0 0.0371860362 0.0575388091 0.750050947 -0.1092066593 0.7506347989 -0.109608478 0.0344401015 0.0593677954
115299310.0 0.0397011985 0.0547876235 0.7506266096 -0.1188417455 0.7515621868 -0.1190423118 0.0372913148 0.0564728152
120299280.0 0.0413759589 0.052794812 0.7518665502 -0.1297051384 0.7514043858 -0.1297125696 0.0388961322 0.0541201851
125299250.0 0.0433205049 0.0505614879 0.7519853363 -0.1388537506 0.7520771508 -0.1396995954 0.0413184954 0.0513094399
130299220.0 0.0452533078 0.0482232209 0.7520987526 -0.148691953 0.7517405968 -0.149345294 0.0431292165 0.0495134955
135299190.0 0.0466456252 0.0455477782 0.7513636878 -0.1589966896 0.7509612167 -0.1588805045 0.0445367493 0.0475890849
140299160.0 0.0476441659 0.044245307 0.7506354733 -0.1688581939 0.7510918608 -0.1689441475 0.0461068663 0.0452029644
145299130.0 0.0493042836 0.0419796179 0.7508208393 -0.178638571 0.7501508321 -0.1782173015 0.0470571293 0.0427972679
150299100.0 0.0507535525 0.0400121745 0.7490378967 -0.1883271476 0.7492254629 -0.188383715 0.0488621814 0.0409276839
155299070.0 0.0510729457 0.038436569 0.747518676 -0.198299068 0.7476768893 -0.1982466376 0.0495454481 0.038747051
160299040.0 0.052261101 0.0360749152 0.7459992634 -0.2064721592 0.7460750994 -0.2068077661 0.0508093207 0.0374431566
165299010.0 0.0529555006 0.0341607346 0.7452316207 -0.2169222764 0.7451660237 -0.2168839347 0.0514257944 0.0348710081
170298980.0 0.0533734867 0.0326622066 0.7418479658 -0.2257125582 0.7430782365 -0.2263332284 0.0526670895 0.0328047762
175298950.0 0.054227141 0.0304469754 0.7416730543 -0.2351551453 0.7413702319 -0.2352053011 0.0534285333 0.0311054232
180298920.0 0.0551634051 0.0292362518 0.7391682757 -0.2448254103 0.7393685461 -0.2441906736 0.0538652181 0.0298980431
185298890.0 0.0559687828 0.0271609064 0.7365946742 -0.2536556589 0.7369293739 -0.2536995846 0.0543846187 0.0276016952
190298860.0 0.056182023 0.025888039 0.734290507 -0.2628429863 0.7344719968 -0.2628028135 0.0556303251 0.0262093987
195298830.0 0.0564347078 0.0238074004 0.7312083482 -0.2716500546 0.7318598311 -0.2719022563 0.0559905827 0.0241719329
200298800.0 0.0568917615 0.0228135162 0.7298038733 -0.2800409899 0.7294176274 -0.2805298478 0.056135264 0.0232608986
205298770.0 0.0570979235 0.0213803072 0.7270325447 -0.2895979783 0.7266043477 -0.2895507566 0.0564421305 0.0210529892
210298740.0 0.0570679839 0.0197418713 0.7240012914 -0.299420368 0.7235469583 -0.2985865221 0.0569326002 0.020055296
215298710.0 0.0576736261 0.0186088673 0.7210223748 -0.3067588874 0.7209483463 -0.3068595969 0.0570577995 0.0183937508
220298680.0 0.0582343365 0.0171991792 0.7178335948 -0.3159173324 0.7173119322 -0.3157854909 0.0576879966 0.0174527982
225298650.0 0.0587327172 0.0163681915 0.7140196899 -0.3243377486 0.7136351211 -0.3243552189 0.0576778408 0.0157334514
230298620.0 0.0580623638 0.0148691362 0.7107166049 -0.3327359394 0.7111502549 -0.3332072079 0.0576179407 0.0142950686
235298590.0 0.0586361117 0.0133355009 0.7074740091 -0.3408651536 0.7074731281 -0.3415196041 0.0579437569 0.0125762962
240298560.0 0.05838491 0.0120157594 0.7034133053 -0.3494383719 0.7038681157 -0.3488533755 0.0581393191 0.0117766014
245298530.0 0.0589361598 0.0111424366 0.6994566921 -0.3582677183 0.6996687689 -0.3580397842 0.0581077691 0.0107722109
250298500.0 0.058126705 0.0097314595 0.6963415478 -0.3653574683 0.6963633293 -0.3655139527 0.058940993 0.0089097139
255298470.0 0.0582123527 0.0089157842 0.6918001972 -0.3745661925 0.6925665197 -0.3745161884 0.0587617046 0.0074684173
260298440.0 0.0582050187 0.007915005 0.6882433465 -0.3821624392 0.6884706659 -0.3829180538 0.0593527619 0.0067285056
265298410.0 0.058930629 0.0070028129 0.6842441153 -0.3909332672 0.6835618751 -0.3906262985 0.0589311224 0.0057074419
270298380.0 0.0589643072 0.0056321511 0.6791020327 -0.3984327113 0.6802776823 -0.3981805215 0.0588410174 0.0050108839
275298350.0 0.0584717902 0.0049573028 0.6753172184 -0.4063056788 0.675651233 -0.4065812701 0.0590013092 0.0036174782
280298320.0 0.058638257 0.0041387176 0.6708856928 -0.4137106797 0.6714453339 -0.4144622741 0.0592872937 0.0027333717
285298290.0 0.0585924031 0.0031542265 0.6667164221 -0.4218717804 0.6668041354 -0.422058846 0.0586364993 0.0015894966
290298260.0 0.058716123 0.0019505432 0.6625306704 -0.429480964 0.6620397117 -0.4296207874 0.0593515504 0.0006275706
295298230.0 0.0585509155 0.0006203849 0.6578334088 -0.4374456412 0.6573444949 -0.4374223928 0.0594028941 -0.0002910212
300298200.0 0.0592576727 -3.47365e-05 0.6527324191 -0.4448934965 0.6534454628 -0.44504442 0.0594615996 -0.001602514
305298170.0 0.0587981185 -0.0013923828 0.6486588737 -0.4529353092 0.6486062515 -0.45331301 0.0595958457 -0.0023293108
310298140.0 0.059360936 -0.0022829336 0.6439796043 -0.4604272393 0.6436943851 -0.4605163605 0.0597472142 -0.0027832049
315298110.0 0.0587525443 -0.0034346703 0.6384902352 -0.4678941283 0.6385630731 -0.4684027807 0.0597754489 -0.0045234004
320298080.0 0.0584909528 -0.0043561352 0.6336372489 -0.4758338774 0.6332276212 -0.4760941924 0.05938385 -0.0060420045
325298050.0 0.0581575327 -0.0057775064 0.6285775618 -0.483363402 0.6282935315 -0.4837111438 0.0593528923 -0.0067981739
330298020.0 0.0578832733 -0.0063585685 0.6215620326 -0.4907362023 0.6217235676 -0.4908542663 0.0580771605 -0.008419846
335297990.0 0.057549751 -0.0077310819 0.61652065 -0.497803266 0.6163849479 -0.4977992973 0.0580708582 -0.0089697795
340297960.0 0.056618971 -0.0080224989 0.610200696 -0.5048470499 0.6108023707 -0.5042938856 0.057197675 -0.0094299968
345297930.0 0.0562145187 -0.0085106365 0.6044340943 -0.5109903075 0.6048496072 -0.5111525497 0.0572770633 -0.0107441709
350297900.0 0.0564673791 -0.0092582159 0.5992214393 -0.5176355654 0.5993004545 -0.518175587 0.0568654676 -0.0105172859
355297870.0 0.0560072817 -0.0102309541 0.5934038553 -0.5246003489 0.5932428528 -0.5251258373 0.0566508686 -0.0115699186
360297840.0 0.0560436669 -0.0107350279 0.5874125644 -0.5313203697 0.5872804982 -0.5317309063 0.0566505209 -0.0119808883
365297810.0 0.0555743232 -0.0117698274 0.581299449 -0.53807976 0.5816653429 -0.5381393786 0.0559340001 -0.0124445755
370297780.0 0.0556320318 -0.0123393935 0.5753060781 -0.544364683 0.5760190286 -0.5450281445 0.0560353883 -0.0128283562
375297750.0 0.0551315312 -0.0124967242 0.5703664926 -0.5509449 0.569696938 -0.5512141332 0.0555491198 -0.0135692938
380297720.0 0.0550958972 -0.0138417258 0.5634451612 -0.5571285887 0.5635856265 -0.5572275273 0.0551714611 -0.0143398026
385297690.0 0.0548731326 -0.0140482956 0.5573677966 -0.5629040154 0.5576948737 -0.5636599621 0.0549414068 -0.0150618239
390297660.0 0.0543601881 -0.0150043709 0.5513264531 -0.5698417947 0.5512380397 -0.5705252823 0.0549394214 -0.0156117814
395297630.0 0.0542936785 -0.0156510868 0.5453383067 -0.5752527024 0.5450958674 -0.5758609713 0.0542231928 -0.0158317658
400297600.0 0.053938609 -0.0158877821 0.5385925927 -0.582264649 0.538762256 -0.5823610376 0.0532209426 -0.0168139577
405297570.0 0.0539512498 -0.0166549528 0.5324927571 -0.5878204527 0.5321503075 -0.588244628 0.0537118632 -0.0165875602
410297540.0 0.0537733734 -0.0174761809 0.52496312 -0.5937071301 0.5252184236 -0.5935611273 0.053090904 -0.0181235203
415297510.0 0.0532256313 -0.0174979685 0.5193488971 -0.5994034405 0.5190115457 -0.5996924924 0.0528141414 -0.018024988
420297480.0 0.0530013985 -0.0190682996 0.512225821 -0.6058623286 0.5126629943 -0.6058559695 0.0529017269 -0.0193520885
425297450.0 0.0532731347 -0.0195691058 0.5056738862 -0.6105906062 0.50624816 -0.6108181984 0.0522732623 -0.0190258896
430297420.0 0.0524015632 -0.0196400981 0.4993302033 -0.6170283958 0.4988846128 -0.6170062795 0.0515566078 -0.0201597155
435297390.0 0.0524229829 -0.0207387297 0.4921647067 -0.6219799652 0.4920045759 -0.6216704896 0.0512626094 -0.0199380371
440297360.0 0.0521366322 -0.0212749 0.4852439692 -0.6278840466 0.4849167839 -0.6277826704 0.0510115647 -0.0215681207
445297330.0 0.0521986731 -0.0222262142 0.478073225 -0.6334378619 0.4781277788 -0.6326307601 0.0505635093 -0.0216814602
450297300.0 0.0516703347 -0.0225593712 0.4709035108 -0.638248826 0.4715038732 -0.6390741738 0.0501912816 -0.0221104163
455297270.0 0.0509255004 -0.0233860591 0.4647899342 -0.6437064573 0.4653243866 -0.6432835483 0.0502767291 -0.0227192584
460297240.0 0.0504360539 -0.0239215718 0.457099885 -0.6485648064 0.4569682378 -0.648754024 0.0497146498 -0.0223799661
465297210.0 0.0505493806 -0.0248251348 0.4503641924 -0.6542635938 0.4506044988 -0.6539886485 0.0488885665 -0.0238416239
470297180.0 0.0498796372 -0.0251339487 0.4431859275 -0.6581920525 0.4434257439 -0.6590475862 0.0478084053 -0.0243055877
475297150.0 0.049469118 -0.0266289247 0.4354296032 -0.6636811793 0.4357406068 -0.6632609436 0.048238551 -0.024512816
480297120.0 0.0498859715 -0.026752499 0.4286440862 -0.6682195303 0.4288330398 -0.6684829909 0.0476052488 -0.0246564709
485297090.0 0.0492002328 -0.0275044559 0.4214502976 -0.6733056847 0.421357439 -0.6736654874 0.0468621442 -0.0259362354
490297060.0 0.0486847854 -0.0279949958 0.4142524709 -0.6774720886 0.4141531483 -0.6780850557 0.046879962 -0.0253392707
495297030.0 0.0478036613 -0.028281792 0.4062770533 -0.6818692224 0.4064907378 -0.6822716182 0.046711843 -0.026638945
500297000.0 0.0479438653 -0.0292712858 0.3989074873 -0.6863675906 0.3992088919 -0.6869059437 0.0454450753 -0.0268717433
505296970.0 0.0469083028 -0.0296608972 0.3910507449 -0.6906043769 0.3908616545 -0.6911202872 0.04483616 -0.027374003
510296940.0 0.0467288494 -0.0299355197 0.3831688006 -0.6954003127 0.3838378926 -0.6955299406 0.0449998217 -0.0268753261
515296910.0 0.0460575659 -0.0304859827 0.3756778548 -0.6987353163 0.3760180068 -0.6995084843 0.0441493506 -0.028213502
520296880.0 0.0457190672 -0.0315069597 0.3677891096 -0.7037524508 0.3685240336 -0.7032909095 0.0442782753 -0.0285627001
525296850.0 0.0452509561 -0.0321555216 0.3606627504 -0.7077628465 0.3606909563 -0.7076616841 0.0438935501 -0.028754607
530296820.0 0.0448022371 -0.0323190216 0.3529229988 -0.7112984888 0.3527516978 -0.7114893605 0.0427237425 -0.0299460182
535296790.0 0.0441295324 -0.0330345745 0.3447492353 -0.7150943675 0.3451363804 -0.7148137238 0.0425671691 -0.0301549424
540296760.0 0.0437939126 -0.0336803814 0.3370875033 -0.7189913436 0.3368164658 -0.7195579222 0.041345028 -0.0301377111
545296730.0 0.0435915922 -0.0334919157 0.3289559288 -0.7221287918 0.329509083 -0.7234197828 0.0411884247 -0.0310751373
550296700.0 0.0426372487 -0.0345000737 0.3215205578 -0.7261813327 0.3219754002 -0.7266109319 0.0405101936 -0.0303850409
555296670.0 0.0424743574 -0.0353335799 0.3134862155 -0.7303654633 0.3133712422 -0.7302823583 0.0397681161 -0.0310054799
560296640.0 0.0417898417 -0.0354356781 0.3055530526 -0.7332322518 0.3058097504 -0.7327178992 0.0396848449 -0.0315022594
565296610.0 0.0408935433 -0.0359765876 0.2971869464 -0.7367557957 0.2970177082 -0.7367416158 0.0388905645 -0.0322859924
570296580.0 0.0409776889 -0.036586739 0.2893512946 -0.7393564144 0.2898171139 -0.7398352558 0.0391069681 -0.0316129158
575296550.0 0.0399951942 -0.0363532298 0.2812269126 -0.7421996092 0.2817211574 -0.7424624981 0.03827909 -0.0324594114
580296520.0 0.0394997589 -0.037267416 0.2734083013 -0.7457116519 0.2731896647 -0.7461942165 0.0375597112 -0.0333184561
585296490.0 0.0393190568 -0.0378253305 0.2652616816 -0.7488372155 0.2648457477 -0.7487888861 0.03696936 -0.0337729185
590296460.0 0.0382655129 -0.0384442418 0.2566367746 -0.7514896928 0.2565269876 -0.7520056139 0.036703423 -0.0334908185
595296430.0 0.0377833324 -0.0383944456 0.2487040389 -0.7545928664 0.2486645704 -0.7549427068 0.0362518713 -0.0341034656
600296400.0 0.0371597377 -0.0385334901 0.2402663233 -0.7570282829 0.2405402971 -0.7572978141 0.035447005 -0.0343022416
605296370.0 0.0368385809 -0.0385190391 0.2322637726 -0.7599374215 0.2318926377 -0.7597244313 0.0350326938 -0.0349191175
610296340.0 0.0358311154 -0.0395471304 0.2242904037 -0.762128996 0.2239406882 -0.7627306745 0.0343509947 -0.0345271003
615296310.0 0.0353935882 -0.0395136385 0.214846799 -0.7643798194 0.2158188909 -0.7649633949 0.0340975882 -0.0351846032
620296280.0 0.0347800894 -0.0399901743 0.2075254007 -0.7668382284 0.2067619768 -0.7674897133 0.0334927429 -0.0358807075
625296250.0 0.0344863406 -0.0405576516 0.1983752518 -0.7695095851 0.1985499408 -0.7695192289 0.0329966551 -0.0356647372
630296220.0 0.03381126 -0.040718906 0.1898271008 -0.7716020687 0.1904220776 -0.7710112032 0.0317106917 -0.0359236248
635296190.0 0.0330581938 -0.0411274843 0.1819080876 -0.7727887085 0.181257254 -0.7730167056 0.0315051983 -0.0365769095
640296160.0 0.0323765698 -0.0409345568 0.1736947539 -0.7750893703 0.1734557443 -0.7754803546 0.0315906177 -0.0365664826
645296130.0 0.0319869423 -0.0411194814 0.1650709829 -0.7775360438 0.1649694014 -0.7771688655 0.029774226 -0.0373069498
650296100.0 0.0309615726 -0.04107189 0.1571392684 -0.7785756323 0.1567511244 -0.7789023133 0.0296099734 -0.0373791471
655296070.0 0.030376221 -0.0420798574 0.1481060533 -0.7805251117 0.1478214514 -0.7804128803 0.0297530338 -0.0368574855
660296040.0 0.0291839349 -0.041755661 0.1393635071 -0.7816260079 0.1399168914 -0.7819072082 0.0286214426 -0.0378540974
665296010.0 0.0294574843 -0.0423885421 0.1312825748 -0.7835188859 0.1314620522 -0.7834206721 0.0277936035 -0.0374428076
670295980.0 0.0291805324 -0.0423437888 0.1225723309 -0.78503488 0.1228348499 -0.7847514828 0.0268913255 -0.0381070601
675295950.0 0.0285115478 -0.0424462031 0.1134812263 -0.7859111845 0.1144048025 -0.7864357323 0.0271720044 -0.0378874956
680295920.0 0.0275348011 -0.0426412595 0.1053920794 -0.7872802627 0.1052070597 -0.7873214682 0.0265692618 -0.0384644692
685295890.0 0.0266243865 -0.0428874896 0.0973518829 -0.7880507873 0.0963126566 -0.788868532 0.0257861273 -0.0383148343
690295860.0 0.0265082562 -0.0431281848 0.0880822073 -0.7889390524 0.087867865 -0.7888543073 0.0255272171 -0.0380368118
695295830.0 0.0264467357 -0.04345239 0.0788330784 -0.7898529403 0.0793361448 -0.7905472893 0.0240666331 -0.0385383926
700295800.0 0.0257271232 -0.0433384332 0.0707760447 -0.7907866035 0.0712285114 -0.7917042799 0.023770799 -0.0393460231
705295770.0 0.0247773187 -0.0435485368 0.0622368109 -0.7914735948 0.0623740048 -0.7916543081 0.0227415148 -0.039052079
710295740.0 0.0243535399 -0.0433507454 0.0536473618 -0.7915651889 0.0535205766 -0.7924994757 0.0216965628 -0.038849656
715295710.0 0.0235895032 -0.0438236222 0.0452342056 -0.7927168458 0.0452730608 -0.7926734844 0.0221638666 -0.0399519054
720295680.0 0.0229831049 -0.0443319379 0.0363899363 -0.7931132729 0.0367227578 -0.7940758186 0.0215274184 -0.0395852701
725295650.0 0.0225619581 -0.0440605313 0.0272488529 -0.793199666 0.0274093435 -0.7928473071 0.0210463068 -0.0395231025
730295620.0 0.0213776415 -0.0444482101 0.0189782014 -0.7937828021 0.019154706 -0.7938995352 0.0205128968 -0.040642159
735295590.0 0.0213984949 -0.0443196063 0.0107015452 -0.7935718197 0.0109455575 -0.7943393079 0.0194248253 -0.039626843
740295560.0 0.0201262038 -0.0441460645 0.0015736302 -0.7938260875 0.0016292616 -0.7937437923 0.019709921 -0.0400011822
745295530.0 0.0200758922 -0.0448392658 -0.0066114296 -0.7939008217 -0.0065088355 -0.7942161403 0.018356246 -0.0399220285
750295500.0 0.0193940115 -0.0447778869 -0.0151235594 -0.793355503 -0.0152849364 -0.7933044896 0.018285868 -0.040376707
755295470.0 0.0191159651 -0.0443585346 -0.0240514149 -0.7932394649 -0.0237353235 -0.7940438326 0.0168736536 -0.0402513971
760295440.0 0.0180433023 -0.0444404121 -0.0329970121 -0.7929764112 -0.0327033382 -0.7934183789 0.0159299551 -0.0405289166
765295410.0 0.0170140765 -0.0448935485 -0.0405824702 -0.7920687156 -0.0408709219 -0.7929028229 0.016649703 -0.0397950262
770295380.0 0.0168690466 -0.0446841722 -0.0498512546 -0.7921003406 -0.0497802191 -0.7928576087 0.0160682763 -0.0399412967
775295350.0 0.0161508988 -0.0447134004 -0.0585421978 -0.7913530304 -0.0582945691 -0.7923418154 0.0146681735 -0.0409099558
780295320.0 0.0154185801 -0.0447317568 -0.0668655937 -0.790963099 -0.0665978397 -0.79094656 0.0143049735 -0.0399309235
785295290.0 0.0144914059 -0.0444664372 -0.0757279264 -0.7894108609 -0.0757968018 -0.7902403096 0.0132089945 -0.0406107079
790295260.0 0.0141198827 -0.0445345183 -0.0843547782 -0.7896132658 -0.0839339675 -0.7896334857 0.0132359828 -0.0403673438
795295230.0 0.0134709434 -0.0445833255 -0.0923154559 -0.788188473 -0.0925708092 -0.7883617491 0.0126097849 -0.0393560656
800295200.0 0.0129727147 -0.044380177 -0.1015231042 -0.7873660045 -0.101791936 -0.7875514902 0.0117941284 -0.0402879363
805295170.0 0.0119813242 -0.0447501536 -0.1094059127 -0.7853302324 -0.1096873838 -0.7861330968 0.0107987111 -0.0402913549
810295140.0 0.0116040327 -0.0447398977 -0.1180753207 -0.7845964003 -0.1183153166 -0.7857176603 0.0106775499 -0.0398587705
815295110.0 0.0107683121 -0.0444108635 -0.1273547844 -0.7834563645 -0.1272488162 -0.7835088115 0.0095480073 -0.0406443987
820295080.0 0.0101668823 -0.0448285574 -0.135053621 -0.7821790184 -0.1355975874 -0.7826534079 0.0091885581 -0.0399556614
825295050.0 0.009674759 -0.0447215463 -0.1438777056 -0.7800817869 -0.1440581051 -0.7807985537 0.009075466 -0.0393995096
830295020.0 0.0088490518 -0.0443059553 -0.1527194842 -0.77849824 -0.1531377 -0.7786734256 0.0079524238 -0.0400999794
