!Created with skrf (http://scikit-rf.org).
# Hz S RI R 50.0 
!freq ReS11 ImS11 ReS21 ImS21 ReS12 ImS12 ReS22 ImS22
300000.0 -0.2112800152 -0.0816022741 -0.0002023212 -0.0013776428 0.0006277198 -6.42279e-05 -0.7700273554 -0.177377463
5299970.0 -0.2138562944 0.0085751866 0.0002786546 3.62541e-05 -0.0001250212 -4.18043e-05 -0.7846549661 -0.0086411643
10299940.0 -0.2102161073 0.0210740712 1.459e-07 -4.6168e-06 4.93144e-05 -0.000227292 -0.7879812862 -0.0049821671
15299910.0 -0.2053185953 0.031140396 4.7194e-06 1.36521e-05 -5.24144e-05 0.0001068848 -0.7933467907 -0.0028225094
20299880.0 -0.1993166922 0.0388666635 4.66261e-05 6.67713e-05 -4.94763e-05 0.0001541518 -0.7995296906 0.0017635713
25299850.0 -0.1930140986 0.0456705663 -0.0002570606 0.0004007741 4.15133e-05 -0.0001402942 -0.8063638245 0.0076334313
30299820.0 -0.1862703413 0.0503618608 -0.0001992146 6.57882e-05 -1.40122e-05 0.0001019965 -0.8120370279 0.0147992922
35299790.0 -0.1800006659 0.0545204879 9.52456e-05 -0.0001779262 6.0432e-05 6.30648e-05 -0.8174230743 0.0242009152
40299760.0 -0.1738721434 0.0571109132 0.0001804675 3.22635e-05 -0.0001332358 -8.15087e-05 -0.8213513225 0.0335523885
45299730.0 -0.1684030625 0.0594850442 7.53551e-05 0.0001745147 7.94223e-05 -3.83975e-05 -0.8251766878 0.042702206
50299700.0 -0.1628007971 0.0607399492 -7.35396e-05 6.46787e-05 2.68479e-05 -3.03604e-05 -0.8270332306 0.0525177925
55299670.0 -0.1583860917 0.0618662696 1.02297e-05 -2.77096e-05 -0.0002253416 0.0001714136 -0.8295788537 0.0630647603
60299640.0 -0.1540128731 0.0621526213 3.62128e-05 -0.000165603 0.0001095872 8.41146e-05 -0.8310536279 0.0730726727
65299610.0 -0.1500109445 0.062570607 0.0002092057 0.0003312962 -1.05045e-05 0.0001464198 -0.8309890505 0.0833047998
70299580.0 -0.1461953901 0.0627540194 9.65293e-05 2.8011e-06 5.91598e-05 5.0748e-06 -0.831896878 0.0926869317
75299550.0 -0.1431763734 0.062617341 -4.0991e-05 5.27788e-05 -3.45583e-05 -0.0001618249 -0.8327040954 0.1026795871
80299520.0 -0.1406284831 0.0628433851 -0.0002633778 0.0001108086 -0.0003487028 3.62157e-05 -0.8317616592 0.1126484833
85299490.0 -0.1376863661 0.0623676845 -0.0001928603 -3.85883e-05 -9.86e-07 -4.92156e-05 -0.8318323991 0.1219502336
90299460.0 -0.1354846924 0.0622910112 -1.17693e-05 4.04254e-05 -3.90937e-05 0.0001406263 -0.8305942616 0.1314516459
95299430.0 -0.1334556905 0.0619595275 -0.000112248 -5.35827e-05 8.95345e-05 -9.07739e-05 -0.8298177234 0.1412772294
100299400.0 -0.1318845651 0.062054573 2.56632e-05 -0.000152224 0.0002277125 0.0002831766 -0.8289636991 0.1498114563
105299370.0 -0.129756919 0.0616509309 -9.60238e-05 5.70823e-05 -4.77692e-05 8.77433e-05 -0.8274848372 0.1593524623
110299340.0 -0.1283453601 0.0616805168 1.58559e-05 3.00271e-05 -0.0001807876 0.0001660383 -0.8264923809 0.1683019214
115299310.0 -0.1267308513 0.0612495272 0.0001357723 -7.23874e-05 -4.44914e-05 0.0001791577 -0.8244595248 0.1769108607
120299280.0 -0.1258084041 0.0612391449 -6.01181e-05 0.0002560156 -6.3643e-06 0.0002003509 -0.8234019923 0.1861152926
125299250.0 -0.1248461006 0.0609080814 4.905e-05 6.32533e-05 -3.05398e-05 6.80064e-05 -0.8221029795 0.1952808591
130299220.0 -0.1232142399 0.0613213797 4.5472e-06 0.0001077964 -0.0001218337 0.0001986717 -0.8202057902 0.2044757939
135299190.0 -0.1225824614 0.0610441125 7.58009e-05 -0.0001668389 4.44295e-05 9.83427e-05 -0.8182829327 0.2127786506
140299160.0 -0.1215985537 0.0613357414 0.000186216 3.60649e-05 -8.60838e-05 0.0001740377 -0.8162958347 0.2214639533
145299130.0 -0.1207732199 0.0615825457 -5.99793e-05 -1.7869e-05 -5.21964e-05 1.50641e-05 -0.8139821487 0.2302358989
150299100.0 -0.120053857 0.06130388 -0.0001028323 -0.0001063985 1.46867e-05 -5.34955e-05 -0.8117364348 0.2382920138
155299070.0 -0.1194061691 0.062271731 0.0001658911 0.0001850331 0.0002020664 4.8717e-05 -0.8100717247 0.2477940032
160299040.0 -0.1186026008 0.0622152161 0.0001440643 9.89393e-05 -2.86781e-05 -3.71774e-05 -0.8074858297 0.2568804586
165299010.0 -0.1181656324 0.062432799 -0.0001796955 0.0002573218 6.27273e-05 0.0001224513 -0.804719266 0.2649797039
170298980.0 -0.1175241936 0.0630261023 3.91221e-05 -2.54235e-05 0.0001261232 5.17586e-05 -0.8016534027 0.2737180791
175298950.0 -0.1168846113 0.0637783896 0.0001776949 5.70396e-05 5.88659e-05 -1.81685e-05 -0.7990384372 0.2816151578
180298920.0 -0.1163824034 0.0637435993 -7.33983e-05 0.0001918385 9.05415e-05 0.0001017905 -0.7954630006 0.2907455453
185298890.0 -0.1158555966 0.064362459 -9.40473e-05 -0.0001727844 0.0001303112 -5.62035e-05 -0.7931229854 0.2982635186
190298860.0 -0.1153558374 0.0648082028 0.000103008 -4.95698e-05 9.74386e-05 0.0001268979 -0.7899191532 0.307385471
195298830.0 -0.1143632729 0.0652800036 -9.6344e-06 -2.52343e-05 5.30477e-05 0.0001832576 -0.7869456131 0.3154629136
200298800.0 -0.1142244204 0.0659696791 0.0002776323 9.06591e-05 9.69866e-05 3.58227e-05 -0.7832072615 0.3238793743
205298770.0 -0.1139392815 0.0667117022 0.0002556738 7.90767e-05 -0.0001102862 0.00022902 -0.7796746083 0.3321232471
210298740.0 -0.1133718829 0.0672620074 -8.43772e-05 7.35432e-05 -1.49025e-05 6.3742e-06 -0.7767128182 0.3405859643
215298710.0 -0.1128893874 0.067888815 0.0002574406 0.0001548056 -9.6965e-06 7.21992e-05 -0.7733114432 0.3484109818
220298680.0 -0.1123896064 0.068512728 5.64716e-05 -3.1749e-06 0.000200477 -7.45336e-05 -0.7691578254 0.3568206873
225298650.0 -0.1119015208 0.0695625505 5.3587e-05 0.0001429898 -3.22854e-05 7.42072e-05 -0.7658665948 0.3646350467
230298620.0 -0.111541788 0.0701567634 0.0002815266 -6.7062e-06 -5.33984e-05 0.0001266578 -0.7612640007 0.3725219394
235298590.0 -0.1109182054 0.0708119978 4.63618e-05 0.0002091883 -1.7253e-06 6.8232e-05 -0.7573818609 0.3802430574
240298560.0 -0.1107636862 0.0717178836 0.0003029107 0.0002063718 4.3162e-06 -1.85626e-05 -0.7539765525 0.3883212154
245298530.0 -0.1100382446 0.0723970164 -0.0001000131 0.0001196729 0.0001275642 0.0001659145 -0.7499549294 0.3964399174
250298500.0 -0.1098288065 0.0730082738 1.85555e-05 -3.09189e-05 8.0096e-06 0.0001016863 -0.7457135423 0.4045019948
255298470.0 -0.109253423 0.0740776341 0.0001068666 -9.39626e-05 0.0002160928 -6.11726e-05 -0.7409839218 0.4120956613
260298440.0 -0.1086049242 0.075004943 8.20449e-05 4.08197e-05 0.0001394034 -7.0754e-06 -0.7366512188 0.4200707935
265298410.0 -0.1079219143 0.0758930718 -0.0001725264 7.41683e-05 -0.000117226 8.6963e-05 -0.731957485 0.4272596565
270298380.0 -0.1074790552 0.0767308854 0.0002605362 1.05003e-05 5.7692e-05 -6.73653e-05 -0.7275758666 0.4355604421
275298350.0 -0.1070402256 0.0777473414 -0.0001035841 0.0001828392 0.0001104145 0.0001277386 -0.7226412241 0.4423338811
280298320.0 -0.1065613593 0.0787363482 1.44121e-05 -0.0001170633 -0.000110934 1.91216e-05 -0.7183678366 0.4500109154
285298290.0 -0.105992371 0.0797453987 0.0001645939 2.24877e-05 0.0002299663 0.0002084699 -0.7134444269 0.4576423168
290298260.0 -0.1053078671 0.0804936129 -0.0001343001 0.0001833708 -3.71358e-05 8.37093e-05 -0.7085688174 0.4653634395
295298230.0 -0.1047429464 0.0813305134 -0.0001161676 0.000164308 0.0001088812 0.0002125318 -0.7035049004 0.4726473025
300298200.0 -0.1042066976 0.0818573979 0.0001395677 0.0001337729 0.0001790878 0.0001115523 -0.6987235695 0.480131437
305298170.0 -0.1033891998 0.0829004551 0.0002637449 0.0001899231 -7.57361e-05 -8.8853e-05 -0.6925514232 0.4878832666
310298140.0 -0.1029382248 0.0836227057 0.000136567 3.93781e-05 0.0001107602 -2.17513e-05 -0.6886051887 0.4949085402
315298110.0 -0.1027520515 0.0844906155 -3.72742e-05 2.64378e-05 0.0001763905 0.0003317256 -0.6831243054 0.5019100977
320298080.0 -0.1017787019 0.0854207014 -6.23892e-05 -6.64008e-05 0.0002418942 3.81476e-05 -0.6776203192 0.5090818702
325298050.0 -0.1012913929 0.0860614603 0.0003901911 0.0001640292 0.0002436464 0.0002839988 -0.6719490473 0.5159451476
330298020.0 -0.1007380152 0.0872571333 0.0001844639 -8.05357e-05 5.24179e-05 0.0002173536 -0.6664300661 0.5231520652
335297990.0 -0.1002704085 0.0881431025 0.0001668413 -9.84005e-05 -5.2937e-05 -0.000103344 -0.6608771008 0.5299558251
340297960.0 -0.099864864 0.0893237268 0.0003190229 -0.0001653717 0.0001205758 0.0001520904 -0.6554264586 0.5370874727
345297930.0 -0.0994151103 0.0902576083 -1.05288e-05 9.12699e-05 0.0001687236 2.54896e-05 -0.6492647435 0.5441792429
350297900.0 -0.0983759597 0.0912252397 7.05924e-05 0.0001373531 0.0002568259 0.0001153977 -0.643720384 0.5511713814
355297870.0 -0.0979667519 0.0921414929 0.0001209002 4.89022e-05 4.06829e-05 0.0002836929 -0.6380817925 0.5568897762
360297840.0 -0.0973268902 0.0932355073 0.0001782194 4.198e-05 6.23037e-05 0.0001224959 -0.6321595232 0.5635489574
365297810.0 -0.0967792734 0.0941865826 -2.86745e-05 3.2685e-06 0.0002093746 0.0001160244 -0.6260880957 0.5707499177
370297780.0 -0.0957619966 0.0952968232 5.98527e-05 -3.65918e-05 -0.0001140219 0.0002614265 -0.6206261404 0.5762639621
375297750.0 -0.0950344491 0.0963835175 0.0002622457 0.0001405838 -2.73128e-05 2.8405e-05 -0.6143298551 0.5828739921
380297720.0 -0.0941473279 0.0973467965 3.7099e-05 7.0922e-06 -3.3958e-06 -4.7915e-06 -0.6074766678 0.5898169354
385297690.0 -0.0936214681 0.0984995016 0.000253647 -0.0002157992 -5.10921e-05 -2.6876e-06 -0.601633483 0.5957505306
390297660.0 -0.0926008506 0.0994447115 0.0002230148 1.66493e-05 -0.0001014334 1.6514e-06 -0.5955257257 0.6016405115
395297630.0 -0.092024709 0.1003438484 -5.358e-07 4.66826e-05 0.0002160521 2.42673e-05 -0.5888803611 0.6085291419
400297600.0 -0.0911323163 0.1013743972 0.0001286085 5.21815e-05 0.0001476887 0.0001303344 -0.5829798379 0.6139001737
405297570.0 -0.0901238409 0.1025043917 1.69045e-05 6.81899e-05 0.000143169 0.0001574642 -0.5774663522 0.6199778135
410297540.0 -0.0894057307 0.1034674631 0.0003170442 4.88107e-05 0.0001935119 0.00011656 -0.5697448962 0.6256335212
415297510.0 -0.0885465478 0.1039414834 9.36995e-05 0.0001891715 0.0002609476 0.000189626 -0.5637266563 0.6319032288
420297480.0 -0.0877548572 0.105314479 0.0001610413 0.0001568776 0.0001697228 5.58126e-05 -0.5570294883 0.636331225
425297450.0 -0.0870945007 0.1061954508 0.0002792554 0.0001498269 8.51435e-05 0.000157615 -0.5501350854 0.6432265879
430297420.0 -0.0861619554 0.1071546589 2.75577e-05 0.0001033459 0.0001924372 -8.46334e-05 -0.5438117969 0.6485561436
435297390.0 -0.0851234665 0.1078565324 0.0002590723 -4.04609e-05 -1.1529e-06 -2.5853e-06 -0.5366819184 0.6536851352
440297360.0 -0.0841396723 0.1091179101 0.0001374568 0.0001163393 0.0003990262 0.0003003418 -0.5303949929 0.6586550831
445297330.0 -0.0834234907 0.1100677482 0.0002701931 0.0001030842 0.0001295529 4.24359e-05 -0.523858992 0.6644246285
450297300.0 -0.0825329047 0.1108399223 0.0004092975 2.9232e-05 -8.26469e-05 0.0001176271 -0.5170168124 0.669398122
455297270.0 -0.0814576539 0.1116745981 0.0001357437 -1.79321e-05 0.0002414985 -2.3968e-05 -0.5098277782 0.6749429198
460297240.0 -0.0806120771 0.1129156203 0.0004166129 0.0001359337 0.0002719606 7.0954e-05 -0.5028443148 0.6804207089
465297210.0 -0.0792383725 0.1136142015 1.93994e-05 0.0001516378 0.0003164854 7.275e-05 -0.4965169227 0.6849190154
470297180.0 -0.0785868361 0.1147247073 0.0002516732 5.63292e-05 1.10951e-05 0.0001098112 -0.4895610021 0.6894104776
475297150.0 -0.0776142092 0.1155372713 0.0001059556 1.01233e-05 0.0001617639 5.84443e-05 -0.4822431669 0.6942050751
480297120.0 -0.0765407625 0.1163484826 0.0001627965 0.0001759211 0.0001736052 2.69141e-05 -0.4751316272 0.7000148545
485297090.0 -0.0755791796 0.1174234847 0.000163829 0.0002523299 0.0002493923 5.47557e-05 -0.4676060555 0.7039948759
490297060.0 -0.0743928369 0.1181193145 3.78203e-05 0.0001288204 -0.0001134696 -6.49864e-05 -0.4610051313 0.7086165739
495297030.0 -0.0735493234 0.1193555129 0.0001246459 8.75948e-05 0.0001282521 0.0001378471 -0.4537011718 0.7130001362
500297000.0 -0.0722751038 0.1198184026 0.0001190071 3.03107e-05 0.0001251951 0.0001894759 -0.4468178148 0.7174303687
505296970.0 -0.0714704594 0.1207676222 0.0001384213 0.0001902874 0.00021082 0.0003411868 -0.4401202293 0.7216142097
510296940.0 -0.0703799812 0.1219229642 0.0002113809 0.0001365709 0.0003949174 0.0001223413 -0.4318012136 0.7259796358
515296910.0 -0.0692554877 0.1228493037 9.25111e-05 -1.33407e-05 0.000252407 7.07511e-05 -0.424856914 0.7304831372
520296880.0 -0.0679854656 0.1233031303 0.0001561396 -1.44358e-05 0.0002457651 7.53067e-05 -0.4175922413 0.7346391437
525296850.0 -0.0670229593 0.1242886651 0.0001566875 -7.4173e-06 4.10946e-05 3.89308e-05 -0.4098660681 0.7391895219
530296820.0 -0.0661865691 0.1250499045 0.0002496671 7.74978e-05 7.37121e-05 0.0001508955 -0.4029298032 0.7426380684
535296790.0 -0.0647571263 0.1257708236 0.0001634437 0.0001390116 0.0002319257 3.01981e-05 -0.3951622645 0.7460600955
540296760.0 -0.0638807731 0.1267672505 0.0001521977 0.0001697572 0.0002611304 -9.432e-06 -0.388279333 0.7508769077
545296730.0 -0.0627231524 0.1273945035 0.0001170774 0.0002038103 2.10788e-05 0.000312551 -0.3803749606 0.7539069809
550296700.0 -0.061627126 0.1281625556 0.0002354876 0.0001885431 8.79184e-05 -0.0002202395 -0.3731224895 0.7577796032
555296670.0 -0.0599049002 0.1289016228 0.0002662648 -6.27023e-05 0.0001176066 -2.57697e-05 -0.3654506881 0.7615761826
560296640.0 -0.0589192529 0.1297610261 0.0001794932 7.75382e-05 0.0003095753 1.05976e-05 -0.357661054 0.765376615
565296610.0 -0.0578442027 0.1307238768 0.0001550431 -6.85637e-05 3.523e-05 0.0003435576 -0.3500369996 0.7684434758
570296580.0 -0.0566709663 0.1311082832 0.0001955861 1.6035e-05 0.000100066 1.80727e-05 -0.3432474042 0.7721879213
575296550.0 -0.0551988194 0.1318235351 0.0001832742 -4.71311e-05 0.0001595263 -3.53049e-05 -0.33482628 0.77543263
580296520.0 -0.0543033587 0.1328610602 0.0002345603 0.0001424132 0.0002188914 0.0002071397 -0.3272975839 0.7788160617
585296490.0 -0.0531314255 0.1332770223 0.0003590118 -2.50313e-05 -7.39572e-05 6.45663e-05 -0.319341047 0.781476852
590296460.0 -0.052164706 0.1341234908 0.0003152553 1.49817e-05 0.0001439307 1.60169e-05 -0.3110886111 0.7849549833
595296430.0 -0.0503970212 0.1349259475 0.0003273782 0.0001210347 0.000226752 0.0001223481 -0.3041372781 0.7872127647
600296400.0 -0.0492425479 0.1354701249 0.0006305616 -1.57321e-05 0.0001945638 -3.40192e-05 -0.2960715579 0.7911951626
605296370.0 -0.0481370715 0.1361489393 8.14626e-05 -0.0001212597 0.0002008759 4.41246e-05 -0.2883427158 0.7942244115
610296340.0 -0.0469654622 0.1368606887 -0.0001356352 3.03983e-05 0.0001077316 -0.0001131858 -0.2802298508 0.7964203081
615296310.0 -0.0456083305 0.1374682636 0.0003238227 0.0001293688 0.0002191769 -0.0001283641 -0.2722348639 0.7991742734
620296280.0 -0.0442078841 0.1381881119 0.0003110996 0.0001624614 0.0002791908 0.0001085655 -0.2646961566 0.8014931808
625296250.0 -0.0430214729 0.1386614743 0.0001819903 0.0002013825 0.0002436091 -7.65888e-05 -0.2567380191 0.8045466395
630296220.0 -0.0418215438 0.1392253713 1.79578e-05 -0.0001156954 0.0002226403 2.42418e-05 -0.2485336098 0.8075120142
635296190.0 -0.0406270242 0.1397884308 0.0002310618 -2.7226e-05 0.0002008712 4.92007e-05 -0.2407258009 0.8092703962
640296160.0 -0.0392790152 0.1402928012 0.0002013724 -4.6492e-06 0.000107433 6.93676e-05 -0.2326628051 0.8118314961
645296130.0 -0.0380194392 0.1409146556 0.0002733977 7.44838e-05 0.0001453884 -4.79999e-05 -0.2247577916 0.8140184319
650296100.0 -0.036542795 0.1416987568 2.66991e-05 -3.70925e-05 0.000175909 6.29535e-05 -0.2162560957 0.8166811237
655296070.0 -0.035282746 0.1420024566 7.76755e-05 9.20656e-05 0.0001910108 5.73267e-05 -0.2085163152 0.818121983
660296040.0 -0.0337713193 0.1430617776 0.0002643425 -9.72782e-05 0.0001933439 -9.16484e-05 -0.2006144337 0.8198961659
665296010.0 -0.0324669303 0.1432278531 0.000243454 -0.0001300108 0.0001779305 -8.37533e-05 -0.1924452497 0.8227402962
670295980.0 -0.0312449033 0.1437333125 0.0001537866 -0.0001126073 0.0001669279 -0.0001402271 -0.1850429518 0.8239155793
675295950.0 -0.0299839522 0.1441836421 -1.75354e-05 -8.593e-07 0.0001736026 -7.82512e-05 -0.1764202273 0.8266352254
680295920.0 -0.0285056492 0.144960239 0.0004480727 -0.0001242288 0.0001767209 -0.0002030282 -0.1676423305 0.8279192271
685295890.0 -0.0268686392 0.1452591673 0.0002425274 -9.49475e-05 0.0002315859 -3.23096e-05 -0.1598376926 0.8294844666
690295860.0 -0.0256632184 0.1456351099 0.0002673544 -1.36412e-05 0.0003338935 -4.28396e-05 -0.1519011521 0.8306213225
695295830.0 -0.024229595 0.1459825859 0.0002725514 -7.7156e-06 0.0001688587 3.05147e-05 -0.1439637737 0.8324841378
700295800.0 -0.0230546865 0.1465314499 0.0003081053 -3.36635e-05 0.0002678285 9.73616e-05 -0.1349894442 0.8331943435
705295770.0 -0.0214886091 0.1469200791 0.0003296448 -8.4585e-05 0.0002488441 0.0001225471 -0.1273299802 0.8350388764
710295740.0 -0.0200358467 0.1473811536 0.000329759 -0.0001151322 0.0003625812 0.0001786096 -0.1194231008 0.836179982
715295710.0 -0.0189846099 0.14788344 0.0002482715 3.01719e-05 0.0004542194 6.9402e-05 -0.1104363523 0.8376367134
720295680.0 -0.0172891377 0.1479264717 0.0003866842 -0.000212923 0.0003666599 -0.0001430508 -0.1026435324 0.8381398003
725295650.0 -0.0158022429 0.1487729763 0.0002013806 1.38584e-05 0.0002578666 2.7041e-06 -0.0936846847 0.8399352652
730295620.0 -0.0145221911 0.1487332501 0.0003756852 -0.000139885 0.0003678765 -4.49387e-05 -0.0853594967 0.8405380598
735295590.0 -0.0129805347 0.1492918363 9.36231e-05 -2.62343e-05 0.0002238966 9.0432e-05 -0.0770750566 0.8410947869
740295560.0 -0.0116588226 0.1498235532 0.0001657815 2.1582e-06 0.0004142532 9.11773e-05 -0.0693188997 0.8410353353
745295530.0 -0.0103143509 0.1498439737 0.0002641441 -3.17127e-05 0.0003744458 2.55524e-05 -0.0608256409 0.8420872641
750295500.0 -0.0087725303 0.1503610113 0.0001618901 -0.0001418829 0.0004505717 -9.27348e-05 -0.0523841696 0.8424939167
755295470.0 -0.0072643963 0.1506837845 0.0004290215 -2.46355e-05 0.0001715034 -6.25949e-05 -0.0446732802 0.8434633227
760295440.0 -0.0059282662 0.1507874924 0.0004809049 -8.63416e-05 0.0003868548 -0.0001004635 -0.0365060708 0.8434959141
765295410.0 -0.0045019129 0.1509545639 0.0002559053 4.50914e-05 0.0001880394 -2.01536e-05 -0.0272507376 0.8443935559
770295380.0 -0.0030215889 0.1514826035 0.0003047008 -5.59082e-05 0.0001424959 -4.88194e-05 -0.0189902251 0.8441661953
775295350.0 -0.0015774524 0.151797991 0.0003309051 -3.88865e-05 0.0003894044 3.24989e-05 -0.0117569024 0.8442001858
780295320.0 -0.0003152976 0.1515722086 0.000319664 -7.64308e-05 0.0002530339 7.91348e-05 -0.0028964103 0.8446023205
785295290.0 0.001351402 0.1519995684 0.0004412844 -6.5048e-05 0.0002026653 -0.0001142369 0.0048839497 0.8440198339
790295260.0 0.0026199512 0.1521591612 0.0002815809 -0.0002125195 4.23166e-05 7.96641e-05 0.0142501536 0.8441182568
795295230.0 0.0042713309 0.1525906456 0.0002859307 -0.0002238016 0.0002665014 -0.0001348241 0.021835359 0.8442043881
800295200.0 0.0060096746 0.1528772436 0.0004069514 5.5267e-05 0.0003218012 4.1493e-06 0.0301305643 0.8437304772
805295170.0 0.0071950476 0.1527564741 0.0003879378 -2.74413e-05 0.0003605112 -0.000199538 0.0383489531 0.8431215945
810295140.0 0.0088382122 0.1530619676 0.0004324024 0.0002150755 0.0002908456 4.8548e-06 0.0469331909 0.8439018209
815295110.0 0.010170242 0.1530916669 0.0003768226 6.25342e-05 0.000382521 -0.0001751294 0.055161696 0.8423877389
820295080.0 0.0115499682 0.1528145158 0.0004007064 -0.000206915 0.0003508647 -8.56202e-05 0.0635618251 0.8418173983
825295050.0 0.0132593043 0.1531150793 0.0002745016 5.32925e-05 0.0002078378 7.41269e-05 0.071368735 0.8413512521
830295020.0 0.0148898243 0.1537126452 0.0002603119 -0.0002389629 0.000110939 -0.0001065082 0.0794975644 0.8403999866
835294990.0 0.0160609187 0.1534355514 0.0005851588 -6.38904e-05 7.07596e-05 -2.29114e-05 0.0884076246 0.840023947
840294960.0 0.0177997035 0.1532762324 0.000366223 -4.98017e-05 0.0002708847 -1.64729e-05 0.096027578 0.8393045125
845294930.0 0.019106233 0.1536367544 0.0004446368 -0.0001534435 9.39292e-05 -0.0001660554 0.104377793 0.837838395
850294900.0 0.0207563804 0.1536700956 0.0001764337 -9.33093e-05 0.0002782487 -0.0001635471 0.1124577343 0.8366499342
