!Created with skrf (http://scikit-rf.org).
# Hz S RI R 50.0 
!freq ReS11 ImS11 ReS21 ImS21 ReS12 ImS12 ReS22 ImS22
300000.0 -0.7724773893 -0.1847443828 0.0009501358 2.56375e-05 0.0002047834 0.001574889 -0.2080097892 -0.1107604923
5299970.0 -0.7863601235 -0.009605445 -3.26124e-05 -0.0001507331 0.0001123302 -0.0002531156 -0.2158180135 0.005997021
10299940.0 -0.7889778667 -0.0058754026 0.0001303884 0.0002404866 9.67096e-05 0.0002602856 -0.2121108167 0.0188200965
15299910.0 -0.7944441304 -0.0030146387 9.29563e-05 5.18261e-05 -0.0001960072 0.0001584102 -0.2076100196 0.0280235016
20299880.0 -0.8010159459 0.000808194 4.42308e-05 -1.63214e-05 0.0001893388 0.0001679427 -0.2023187437 0.03589032
25299850.0 -0.8077435926 0.0063594997 -9.92393e-05 -0.0001097613 -9.61762e-05 5.98778e-05 -0.1965883178 0.0417136388
30299820.0 -0.8141454017 0.0137987425 -3.64381e-05 -0.0001421218 -4.02989e-05 -0.0001278632 -0.1905176624 0.0467943999
35299790.0 -0.8187253993 0.023180682 2.1884e-06 0.0001246364 -8.98269e-05 -2.8198e-06 -0.1850451405 0.0503785585
40299760.0 -0.8235480859 0.0325334939 -9.83484e-05 -3.7353e-06 -0.0001102844 0.0002143518 -0.1795593682 0.0531437208
45299730.0 -0.826561866 0.0418486703 0.0001655056 3.87928e-05 0.0001467565 -0.000129975 -0.1743313677 0.0553835964
50299700.0 -0.8290499634 0.0521607446 4.19212e-05 -0.0002228397 -0.000126718 -6.53914e-05 -0.1694579806 0.0570943106
55299670.0 -0.8315095173 0.0612351846 -3.21416e-05 0.0002366016 -2.79433e-05 -1.51505e-05 -0.1652301059 0.0577992803
60299640.0 -0.83278802 0.0720086511 3.52921e-05 1.44736e-05 1.21648e-05 5.64937e-05 -0.1610494649 0.0587404321
65299610.0 -0.833284756 0.082050567 -0.0001258942 0.0001768971 -8.71009e-05 -1.77103e-05 -0.1574135017 0.0593368644
70299580.0 -0.8335989284 0.0916517645 -7.13102e-05 8.48016e-05 3.7097e-05 4.97688e-05 -0.1541969746 0.0597109542
75299550.0 -0.8337814153 0.1020589713 1.72256e-05 -7.60184e-05 7.80858e-05 -0.0001853661 -0.151229764 0.0599918016
80299520.0 -0.8342242384 0.1121780634 9.27351e-05 -2.2175e-06 9.34593e-05 -1.42623e-05 -0.148616059 0.0599058504
85299490.0 -0.8329271794 0.1212754876 -0.0001808296 0.0001862371 -0.000237893 0.0002636313 -0.1461130816 0.0597356317
90299460.0 -0.8318791036 0.1313701386 -0.0001147615 3.97829e-05 1.84277e-05 2.4069e-06 -0.1440630381 0.0598709779
95299430.0 -0.8313426134 0.1402246122 -6.53375e-05 -0.0001339266 -7.77057e-05 8.05889e-05 -0.142125081 0.0599543038
100299400.0 -0.8304166775 0.1498635292 3.80832e-05 1.64299e-05 0.0001931846 9.0412e-05 -0.1402829002 0.0602279084
105299370.0 -0.8288980602 0.1590366447 6.47563e-05 4.42143e-05 -0.0001084806 1.4319e-05 -0.1385045739 0.0598420378
110299340.0 -0.8277470649 0.1685411252 -9.6264e-06 0.0002902316 -4.2849e-05 0.0002616478 -0.1371888817 0.0597211345
115299310.0 -0.8261279669 0.1773824724 0.0002654155 -0.0001408659 3.23209e-05 0.0001647959 -0.1359830606 0.059980634
120299280.0 -0.8245368558 0.1869019597 8.10169e-05 4.89099e-05 -0.0001303302 0.0001179785 -0.1346875287 0.0601041474
125299250.0 -0.8225189448 0.1958495268 7.29376e-05 6.4656e-06 -2.69893e-05 0.0001706844 -0.1334379371 0.0601259156
130299220.0 -0.8210041232 0.2052244853 -0.000188042 0.0001186374 -1.57684e-05 0.0001434848 -0.1324514188 0.0602280057
135299190.0 -0.8192468028 0.214294964 5.32884e-05 -0.0002270287 2.716e-07 8.88414e-05 -0.1316463916 0.0603427849
140299160.0 -0.8170413169 0.2228497933 -1.21383e-05 2.01375e-05 0.0002996777 0.0002353184 -0.1311687273 0.0607312041
145299130.0 -0.815114631 0.2326616196 0.0001509972 8.6808e-06 -8.89034e-05 5.00136e-05 -0.1299993549 0.0613048541
150299100.0 -0.8118604635 0.240659579 0.0001828788 0.0001520563 7.50377e-05 8.5396e-05 -0.129622175 0.0614415184
155299070.0 -0.8098142268 0.2500555613 0.0001252324 7.59776e-05 8.74649e-05 8.33513e-05 -0.1288308773 0.0618986818
160299040.0 -0.8078176651 0.2591145569 -7.14237e-05 0.0001245376 0.0002235739 -0.000223289 -0.1283367414 0.0622918745
165299010.0 -0.8047728194 0.2679635506 -5.512e-07 0.000134441 -5.05801e-05 9.14616e-05 -0.1274584476 0.0627490011
170298980.0 -0.8017315879 0.2761805338 0.0002532249 5.55804e-05 6.60322e-05 3.32859e-05 -0.1270311542 0.0636513781
175298950.0 -0.7990880811 0.2848781927 0.0001401482 -0.000186191 3.93003e-05 9.38458e-05 -0.1265501148 0.0642596195
180298920.0 -0.7962347052 0.292877304 -6.71576e-05 2.29519e-05 -8.93051e-05 0.0002527735 -0.1257057427 0.0644973898
185298890.0 -0.7922467319 0.3019909496 -0.0001045172 0.000203945 6.65781e-05 6.72337e-05 -0.1256127148 0.0649889889
190298860.0 -0.7899823805 0.3114219053 0.0001036393 2.01125e-05 7.47618e-05 0.000187636 -0.1249500498 0.0657712686
195298830.0 -0.7866275692 0.3191923887 0.000171756 2.42165e-05 0.0002160671 0.0001395646 -0.1246063154 0.0665505261
200298800.0 -0.7829256112 0.3278797633 0.0001868178 0.0001926498 0.0001020078 -2.84384e-05 -0.1238024869 0.067114906
205298770.0 -0.7791734403 0.3366446734 0.0003516761 0.000241658 2.16904e-05 9.08062e-05 -0.1236028839 0.0678563145
210298740.0 -0.7766254562 0.3450245256 0.0002459435 0.000182336 -9.56504e-05 5.13451e-05 -0.1234313135 0.0685757913
215298710.0 -0.7721679389 0.3533438251 0.0001784334 0.0001366888 2.29576e-05 6.99105e-05 -0.1228151974 0.0690142616
220298680.0 -0.7682254748 0.3611102037 -5.081e-05 0.0001925011 -5.72185e-05 6.97629e-05 -0.122253613 0.070495099
225298650.0 -0.764750046 0.3697107565 -3.60424e-05 -6.91543e-05 8.4915e-06 0.0001806383 -0.1218440049 0.0712882051
230298620.0 -0.7607144517 0.3777882445 -8.23601e-05 3.17161e-05 0.0001099644 -1.0259e-05 -0.1212000329 0.0715636216
235298590.0 -0.7573691308 0.3857646455 5.4434e-06 -4.46709e-05 0.0001394832 0.0001380583 -0.1209714994 0.0730985738
240298560.0 -0.7528328737 0.3936678567 -4.6202e-06 5.44947e-05 0.0002418778 0.0001750066 -0.1201464538 0.0736226017
245298530.0 -0.7488769346 0.4019638751 0.0001281032 -1.47014e-05 0.0001690458 0.0003253014 -0.1199521581 0.0743218953
250298500.0 -0.7443155082 0.4094112738 -0.0001410332 0.0002508059 0.0001963823 0.0001337815 -0.1197120847 0.0756982
255298470.0 -0.7406429783 0.4176832215 0.0001382379 5.21615e-05 -5.61356e-05 0.00020509 -0.1188820499 0.076363576
260298440.0 -0.7365711638 0.4249831915 -7.78023e-05 -6.70494e-05 -6.83666e-05 4.77189e-05 -0.1187737407 0.0775492868
265298410.0 -0.7316752856 0.432766843 8.52449e-05 6.8435e-06 0.0001775238 -3.32446e-05 -0.117626989 0.0780787905
270298380.0 -0.7273386315 0.4402802959 7.53256e-05 0.0001896878 -4.2744e-06 8.1174e-06 -0.1172117885 0.0792054236
275298350.0 -0.7236182229 0.4482274056 0.000307321 0.0001267926 6.98058e-05 -4.713e-05 -0.1165327559 0.0803076927
280298320.0 -0.7182172985 0.4552925851 -0.0001012077 0.0002671973 7.23435e-05 0.0001916511 -0.1163775683 0.081361765
285298290.0 -0.7131730435 0.4634385504 0.0001690072 9.69253e-05 0.0001199916 0.0001716463 -0.1162513804 0.0823737749
290298260.0 -0.7082689589 0.4710671281 7.8446e-06 1.50138e-05 0.0001077121 9.32821e-05 -0.115314895 0.0833208853
295298230.0 -0.7039241144 0.4779255594 0.0001076194 0.0001655252 0.0002642637 0.000128557 -0.1146294042 0.0842685345
300298200.0 -0.6994250785 0.4855617315 -0.0001611669 0.0002446921 0.0001277304 0.000215401 -0.1138153391 0.0853346377
305298170.0 -0.6946258622 0.4923734681 0.0001376789 0.000149471 2.0873e-06 0.0001575143 -0.1131730996 0.0865591528
310298140.0 -0.6890051157 0.4996038029 0.0001732771 0.0001372013 -1.2656e-05 9.3734e-06 -0.1126392893 0.087691637
315298110.0 -0.6843919553 0.50720951 6.97391e-05 0.0002054583 -1.2416e-06 -0.0001140966 -0.1119984485 0.0886220519
320298080.0 -0.6791568531 0.5138388216 -1.5976e-05 0.0001901502 0.0001015332 0.000109199 -0.1114161104 0.0893992947
325298050.0 -0.6733979465 0.5204143736 8.54542e-05 0.00019697 7.42232e-05 2.86387e-05 -0.1103041885 0.0901652103
330298020.0 -0.6686037542 0.5278272822 0.0001160552 0.0002335956 0.0001207947 0.0002045266 -0.1101298075 0.0912618095
335297990.0 -0.6629463534 0.5342699227 6.65116e-05 -0.0001538348 8.40985e-05 0.0001845063 -0.109443397 0.0922471152
340297960.0 -0.6574078497 0.5418166388 0.0001997717 7.57018e-05 -1.30572e-05 0.0001452666 -0.1088210439 0.0935296756
345297930.0 -0.6516176462 0.5476376924 -9.9331e-05 0.0001726175 -6.7958e-05 4.71489e-05 -0.1082858379 0.0946561495
350297900.0 -0.6467108977 0.555243595 0.0001649276 0.0001776687 8.30288e-05 -9.19637e-05 -0.1079995336 0.095379514
355297870.0 -0.6405147026 0.5611112065 0.0001224136 -2.60726e-05 8.60037e-05 0.0001628223 -0.106964065 0.0965619834
360297840.0 -0.6350517242 0.5680685068 0.0003702261 -6.44402e-05 9.28061e-05 -0.0001311868 -0.1063032235 0.0978645028
365297810.0 -0.6292145082 0.5744402784 -4.95689e-05 0.0002203502 0.0002162194 3.12348e-05 -0.1057717328 0.0987377767
370297780.0 -0.6233356811 0.5803452668 0.0001200797 -0.0001955564 0.0001340697 0.0001224426 -0.1049435203 0.1000127707
375297750.0 -0.6176854085 0.5872697311 0.0002310132 0.0001381281 7.98073e-05 -2.9041e-05 -0.1040786491 0.1010418501
380297720.0 -0.6121387545 0.5934311292 0.0002924713 -0.0001335523 0.0001419871 0.0001037552 -0.1032904424 0.101870715
385297690.0 -0.606133945 0.5993364605 8.21674e-05 -7.89936e-05 7.5983e-05 8.2522e-05 -0.1027893066 0.1035304737
390297660.0 -0.5983937416 0.6054009164 0.0002176865 7.84995e-05 0.0002135818 0.0002570209 -0.1017793492 0.1044803299
395297630.0 -0.5927855237 0.611902663 2.77596e-05 0.0001429906 0.0002216758 0.0001537701 -0.1010633954 0.1053094165
400297600.0 -0.5869259542 0.6181214799 0.0001952949 9.03348e-05 4.98381e-05 0.0001113625 -0.1001224282 0.1067088697
405297570.0 -0.5804898064 0.6235818515 -1.3461e-06 0.0001053031 0.0001945538 0.0001836717 -0.0991824532 0.1073790697
410297540.0 -0.5737860538 0.6296869001 0.0005085572 0.0001514969 6.83577e-05 3.41684e-05 -0.0985909053 0.1087447122
415297510.0 -0.568246607 0.6354232708 0.0002471172 6.39108e-05 8.69415e-05 4.71536e-05 -0.0975407529 0.1096211852
420297480.0 -0.5609204408 0.6412525015 2.67806e-05 6.77179e-05 0.0002925392 0.0001562753 -0.0964174138 0.1110369504
425297450.0 -0.5548848194 0.6467472446 0.0002164212 0.0002535392 0.000303573 0.000169117 -0.0956593367 0.1113799935
430297420.0 -0.5480160634 0.6516831526 0.0002122559 -6.37632e-05 6.71615e-05 0.0002155327 -0.094936649 0.1128535179
435297390.0 -0.5413769244 0.6576913512 7.96666e-05 -9.19255e-05 9.42982e-05 5.69023e-05 -0.0941842054 0.1142075541
440297360.0 -0.5338467515 0.6630769947 0.0002511871 0.0001276042 0.0001325292 -9.4186e-06 -0.0928183082 0.1148816349
445297330.0 -0.5276253678 0.6681330138 -8.15657e-05 2.4421e-05 0.0001180201 0.0001693637 -0.0917652733 0.1160881587
450297300.0 -0.5204366334 0.6738054092 0.0001369367 0.0001760471 0.0001333915 0.0001540935 -0.09065196 0.117310731
455297270.0 -0.5140866465 0.6788368265 0.0001596074 -1.18138e-05 7.76586e-05 -9.52e-06 -0.0901586607 0.1180715896
460297240.0 -0.5062686204 0.6842304741 0.0003294956 -6.7379e-05 9.3488e-05 0.0001016946 -0.0891026504 0.1189786338
465297210.0 -0.4994391295 0.6891321974 0.0001587818 3.86495e-05 0.0001524642 4.89317e-05 -0.0880717745 0.1202106729
470297180.0 -0.4922375711 0.6941004276 0.0001810112 5.912e-05 0.0001505048 6.8463e-05 -0.0870438712 0.120850524
475297150.0 -0.4849982223 0.6994659662 0.0002408563 -2.18778e-05 0.000216244 2.11271e-05 -0.0858039903 0.1222433122
480297120.0 -0.4768477035 0.7036812862 0.000253557 0.0002176055 0.000189112 1.57476e-05 -0.0850376783 0.1233167011
485297090.0 -0.4699988512 0.7085985675 0.0002736848 4.81665e-05 7.68798e-05 1.62767e-05 -0.0840391941 0.1242578876
490297060.0 -0.4624903958 0.7138660757 3.229e-05 0.000186066 0.0001404459 7.73639e-05 -0.0827389554 0.1246851811
495297030.0 -0.4548242559 0.7184775959 0.0003068818 2.33131e-05 3.53402e-05 0.0001342116 -0.081698363 0.1256510159
500297000.0 -0.4473799797 0.7224445274 0.000106383 0.000244345 0.0002725077 -1.68768e-05 -0.0806650317 0.1267978829
505296970.0 -0.4391703339 0.7269614605 0.0002388721 0.0001031331 3.38014e-05 -1.4299e-06 -0.0794734739 0.1277303421
510296940.0 -0.4320501014 0.731075726 0.0002999647 0.0001110168 0.0001329143 7.13823e-05 -0.078203623 0.1288166355
515296910.0 -0.4243885656 0.7356811553 5.68693e-05 1.41959e-05 0.0001873023 6.58004e-05 -0.0772939313 0.1294363361
520296880.0 -0.4162751973 0.7402174919 0.0001543504 2.2219e-06 0.000336872 6.92056e-05 -0.0756004489 0.1303806894
525296850.0 -0.409138466 0.7438263514 0.0003131122 0.0001170436 0.0003390912 3.27442e-05 -0.0748411045 0.1312090826
530296820.0 -0.4015637058 0.7481033328 0.0001942801 0.0001455331 0.0001838259 0.0001118386 -0.0737749468 0.1322830043
535296790.0 -0.3926772893 0.752139683 0.0002744228 1.21299e-05 0.0001544552 8.22662e-05 -0.0722752126 0.1329477428
540296760.0 -0.3853328447 0.7559152015 0.0001121532 3.58895e-05 0.0002498648 0.0001429825 -0.0713008958 0.1338595119
545296730.0 -0.3777832558 0.7598813103 0.0003147564 -2.29872e-05 0.0001294744 0.0001077232 -0.0702739575 0.1350144498
550296700.0 -0.3689748082 0.7635497244 0.0001168955 0.000118274 0.0002429035 6.7523e-05 -0.0691490334 0.1355672273
555296670.0 -0.3615250997 0.7672869553 3.22566e-05 4.4192e-06 0.0001302406 -8.57046e-05 -0.0679815341 0.1362553332
560296640.0 -0.352990942 0.7703795139 0.0001441529 0.0001269002 0.0002055439 -3.33712e-05 -0.0667096392 0.1370454474
565296610.0 -0.3459814121 0.7745655036 6.6323e-06 1.99157e-05 0.0002360901 -1.36036e-05 -0.0654203155 0.1382808998
570296580.0 -0.3375471185 0.7778879053 0.000231224 3.78491e-05 0.0001027192 -1.70554e-05 -0.0645472689 0.1387144275
575296550.0 -0.3284359027 0.7811315433 0.0002155605 5.42791e-05 0.0004190596 -9.49759e-05 -0.0628745675 0.139587629
580296520.0 -0.3210791046 0.7850564756 0.0003507596 5.67686e-05 0.000247321 0.0001283683 -0.0617943409 0.1402865984
585296490.0 -0.3126471962 0.787905965 0.0003366809 -6.56905e-05 0.0002499399 1.57627e-05 -0.0601257615 0.1413918333
590296460.0 -0.3040771619 0.7910301664 0.0001629958 0.000112086 9.39846e-05 1.82908e-05 -0.0589036688 0.1418840195
595296430.0 -0.2957740694 0.7937519149 0.0002881953 0.0001201607 0.0003311297 4.70685e-05 -0.0579976275 0.1426923801
600296400.0 -0.2883531279 0.7968674607 0.0002753492 -0.0001462887 0.0002092235 5.06631e-05 -0.0566275328 0.1431709245
605296370.0 -0.279626611 0.7995998319 0.0001252289 5.16853e-05 0.0001998818 -0.0001951579 -0.0553145985 0.1440391295
610296340.0 -0.2717190371 0.8031812394 -3.32873e-05 0.000225618 0.0002862064 -4.51642e-05 -0.0538559273 0.1448833927
615296310.0 -0.2632718411 0.8060045011 -3.74825e-05 -2.74936e-05 0.0003688227 2.82402e-05 -0.0524170533 0.1455736958
620296280.0 -0.255344214 0.8086248694 0.0003440166 0.0002165682 0.0001751441 4.5134e-06 -0.0512235184 0.1465818219
625296250.0 -0.2482121759 0.8103587082 0.0002940764 8.6658e-06 0.0002102812 0.0002074226 -0.0501236509 0.1469100314
630296220.0 -0.2390378444 0.8132889376 0.0002879443 -0.0001228561 0.0001258691 -9.29392e-05 -0.0485569595 0.1475240641
635296190.0 -0.2305356259 0.815690375 0.0002017706 -0.0001254655 0.0002688129 0.0001961772 -0.0475072499 0.1482803877
640296160.0 -0.2222608556 0.8177646383 0.000243417 0.0003432286 0.0002823268 -7.09374e-05 -0.0458508796 0.1491155741
645296130.0 -0.2138491906 0.8201839458 0.0002233088 2.95767e-05 0.0001709044 0.0001721733 -0.0446016957 0.1496225246
650296100.0 -0.2053215319 0.8222399312 0.0002761607 0.000198813 0.0003140582 4.01022e-05 -0.0432499715 0.1500681221
655296070.0 -0.197334325 0.8243043943 3.19785e-05 5.77735e-05 0.0003185799 5.98098e-05 -0.0419622449 0.1508830988
660296040.0 -0.1892999271 0.8262632433 0.0002263242 0.0002422844 0.0003196039 4.16514e-05 -0.0403932773 0.1513140701
665296010.0 -0.1810290978 0.8286045886 -4.31628e-05 0.0001108467 0.0001241277 -8.11397e-05 -0.0390183598 0.1518527921
670295980.0 -0.1726428084 0.8305638121 0.0003577872 -9.60116e-05 0.0002813219 -0.0002623272 -0.0378360027 0.1524427614
675295950.0 -0.1636445961 0.8323518909 0.0005680311 8.67365e-05 0.0002137621 -6.48784e-05 -0.0363108939 0.1531675416
680295920.0 -0.156273615 0.834040247 0.0002923551 -0.0001147571 0.000348317 6.34477e-05 -0.0347906101 0.1536504511
685295890.0 -0.1476333232 0.8355802992 0.0003501386 -7.75417e-05 0.0003180741 1.49612e-05 -0.0333253193 0.1542578763
690295860.0 -0.1393917475 0.8371517989 0.0003736306 -0.0001379327 0.0003235383 -0.0001499299 -0.0318555436 0.1545598897
695295830.0 -0.1311336802 0.8389363294 0.0001085374 8.71346e-05 0.0003805204 1.04577e-05 -0.0306297116 0.1552358088
700295800.0 -0.1223424566 0.8399266856 0.0003541871 -0.0001986638 2.52358e-05 -0.0002389293 -0.0289553048 0.1556403781
705295770.0 -0.1144248262 0.8417389 0.0002067235 0.0001917704 0.0004093731 -4.01734e-05 -0.0276386512 0.156304789
710295740.0 -0.1066286156 0.8419112225 0.0003397518 2.90316e-05 0.0003689413 2.20819e-05 -0.0257490829 0.1567179411
715295710.0 -0.0974785596 0.8439144736 0.0002209435 4.35093e-05 0.0002993172 -9.955e-06 -0.0246560027 0.1569744712
720295680.0 -0.0889669359 0.8443742644 0.0001513573 1.87762e-05 0.0002502492 -1.6879e-06 -0.0231245151 0.1575135481
725295650.0 -0.0816521676 0.8459675459 0.0002400419 4.58887e-05 0.0003564938 -0.0001074675 -0.0218422258 0.1580328172
730295620.0 -0.0736350049 0.8466804223 0.0001300316 0.0001157426 2.97465e-05 0.0001523996 -0.0201699165 0.1583439492
735295590.0 -0.0657697942 0.8477642716 0.0005067092 7.02908e-05 9.46793e-05 -9.8648e-06 -0.018833901 0.1585359189
740295560.0 -0.0576537105 0.8480073353 0.0003539145 1.64302e-05 0.000347538 6.16635e-05 -0.0173081684 0.1592285353
745295530.0 -0.0489197245 0.8489535776 0.0002127381 -0.0003648401 0.0004989075 -4.87834e-05 -0.0157970642 0.1594724649
750295500.0 -0.0411997968 0.8493864527 8.00738e-05 -0.000151007 0.000181955 -2.35407e-05 -0.0143777411 0.1594709558
755295470.0 -0.0324633082 0.8497240479 0.0002173864 -5.79908e-05 0.0002664837 2.69003e-05 -0.0128612833 0.1603528163
760295440.0 -0.0241338154 0.851177672 0.0001962265 1.56274e-05 0.0001764774 7.98637e-05 -0.0110451655 0.1603504456
765295410.0 -0.0160984906 0.850184259 0.0003999333 -0.0001261511 0.0003122345 -0.0001788638 -0.0096754172 0.1605818992
770295380.0 -0.0080848543 0.85146019 0.0004098561 7.8466e-05 0.0003639504 -0.0001056262 -0.0085465094 0.1609746114
775295350.0 -0.0001343432 0.8510058004 0.0003028664 -0.0002854598 0.0001830125 -0.0001933237 -0.0067661131 0.1611514614
780295320.0 0.0087245105 0.8513980566 0.0002724952 1.55124e-05 0.0005273432 1.06154e-05 -0.0049031462 0.1616214246
785295290.0 0.0169318595 0.8511792465 0.0003807424 -0.0001199956 0.0003055544 8.95181e-05 -0.0039790116 0.1619818556
790295260.0 0.0249136315 0.8507591128 0.0003710194 4.66038e-05 0.0003871754 5.46228e-05 -0.0021738657 0.1622389939
795295230.0 0.0331656772 0.8505416571 0.0005478952 -0.0001481372 0.0001395202 -9.16325e-05 -0.0008571316 0.1622344006
800295200.0 0.0412253313 0.8507817086 0.0002270433 1.33876e-05 0.0001817812 -4.13677e-05 0.0006337963 0.1622636971
805295170.0 0.0490881084 0.8511723875 0.0002379024 -1.50731e-05 0.0004834296 3.95768e-05 0.0025873615 0.1624514577
810295140.0 0.0578603517 0.8506601921 0.0005773569 1.12406e-05 0.0001854621 -0.0001257389 0.0037653454 0.1627794433
815295110.0 0.065202277 0.849718367 0.0002670786 -0.0001176651 0.0003220986 -6.8032e-05 0.005375197 0.1629197924
820295080.0 0.0736381667 0.849514402 0.0002234929 6.76533e-05 0.000294142 2.8193e-06 0.006439916 0.1633063562
825295050.0 0.0818657652 0.8485499288 0.0002928676 -5.76211e-05 0.0002002639 -0.0001072247 0.0084241546 0.1632742897
830295020.0 0.0907527901 0.8474467754 0.0003651256 4.7939e-06 0.0004457382 1.97034e-05 0.0095445639 0.1631202587
835294990.0 0.0979908635 0.8464366568 0.0003180696 -0.0002281358 0.0005183158 -2.423e-07 0.0116050855 0.1636641237
840294960.0 0.1067649363 0.8450103181 0.0003068069 0.0001102872 0.0002837173 -9.51503e-05 0.0132904614 0.1634781819
845294930.0 0.1146911788 0.8443144836 0.0004032416 -7.03791e-05 0.0002126257 -8.50081e-05 0.0148457803 0.1636905065
850294900.0 0.1237914912 0.8433808482 0.000427145 -3.83805e-05 0.0003316287 9.74658e-05 0.0164098204 0.1638772533
