!Created with skrf (http://scikit-rf.org).
# Hz S RI R 50.0 
!freq ReS11 ImS11 ReS21 ImS21 ReS12 ImS12 ReS22 ImS22
300000.0 -0.0991573719 -0.0705475279 0.6298231681 0.0665168109 0.6243822036 0.0669284784 -0.102374801 -0.0790224123
5299970.0 -0.1021198755 0.013024956 0.6301941442 0.010020921 0.6306110069 0.0107754625 -0.1006716092 0.0130117923
10299940.0 -0.0972302393 0.0291700554 0.6339427555 0.0153197995 0.6343425542 0.0160052626 -0.0957921812 0.0302388728
15299910.0 -0.0900391323 0.0422675135 0.6404784839 0.0205258797 0.640565974 0.020544997 -0.0886101389 0.0438214628
20299880.0 -0.0818043687 0.0529572541 0.6483345862 0.0245270802 0.6487110348 0.0239675565 -0.0798145576 0.0544407539
25299850.0 -0.072261385 0.06216577 0.6579434031 0.024956435 0.6574738231 0.0255134802 -0.0699961784 0.063273006
30299820.0 -0.0622993889 0.0689466313 0.6671698968 0.0243145306 0.6672617397 0.0245479154 -0.0600881244 0.0699345355
35299790.0 -0.0524225877 0.0738209851 0.6772228241 0.021470016 0.6769856058 0.0215327869 -0.0497921149 0.0749298702
40299760.0 -0.0433282502 0.0773242439 0.6861823075 0.0175622273 0.6866782786 0.0175732454 -0.0403068493 0.0777184721
45299730.0 -0.0339748481 0.0791745995 0.6948614095 0.0121421845 0.6949810881 0.0121142344 -0.0312144371 0.0796112986
50299700.0 -0.0257425296 0.0801186807 0.7037485825 0.0053454923 0.7036896633 0.0055363703 -0.0227523245 0.0805437161
55299670.0 -0.017724115 0.0805340743 0.7109682556 -0.0029814428 0.7106344966 -0.0026606669 -0.0147792834 0.0806859571
60299640.0 -0.0100023242 0.0800551521 0.7174851338 -0.0115871864 0.7177157362 -0.0106185293 -0.0078120515 0.079520911
65299610.0 -0.0038380951 0.0790363022 0.7239874455 -0.0203294127 0.7233574839 -0.0200094225 -0.0012179149 0.0786152717
70299580.0 0.0023652186 0.0776587994 0.7290635914 -0.0295365822 0.7288889273 -0.02897385 0.0049044179 0.0767778537
75299550.0 0.0082663501 0.0756724453 0.7328146001 -0.0389208214 0.7331070356 -0.0387002397 0.0100628632 0.0750801243
80299520.0 0.0130938601 0.0736886962 0.7368306754 -0.048801251 0.7371057487 -0.0487505917 0.0150013963 0.0727323559
85299490.0 0.0176584173 0.0714252844 0.7402448091 -0.0583828456 0.7404318503 -0.0584662569 0.0194454008 0.0701085089
90299460.0 0.0216617835 0.0692914255 0.7426432391 -0.0691630858 0.7434209749 -0.0686196902 0.0235281209 0.0679635786
95299430.0 0.025732525 0.0667097913 0.745428798 -0.0785048036 0.745738197 -0.0790681524 0.0273736396 0.0656042307
100299400.0 0.0288255969 0.064674039 0.7465068234 -0.0887784966 0.7468866431 -0.0890290188 0.0311740765 0.0626646698
105299370.0 0.0322441773 0.0619023659 0.7486041005 -0.0994895902 0.7488826919 -0.0990628038 0.0341818277 0.0607874669
110299340.0 0.0352618449 0.0596593696 0.7500209349 -0.1091348668 0.7498488899 -0.1088121724 0.0363386143 0.0579294633
115299310.0 0.0374293383 0.0574423323 0.7508183075 -0.1191341681 0.7508655188 -0.1190901813 0.0390255826 0.0556706217
120299280.0 0.039729883 0.0548373716 0.7507666772 -0.1290045382 0.7511817298 -0.1291635104 0.04147896 0.0533288151
125299250.0 0.041984539 0.0520039357 0.7516244824 -0.1390857815 0.7513923275 -0.1386462954 0.0427533064 0.0505014455
130299220.0 0.0436463427 0.0503905532 0.7512116103 -0.1494056781 0.751350583 -0.1487698581 0.0449572757 0.0481814815
135299190.0 0.0451812735 0.048179898 0.7516169735 -0.1589255587 0.7508993533 -0.1583745718 0.0467882438 0.0461756284
140299160.0 0.0467870083 0.0465183665 0.7508146548 -0.1688125926 0.7508963858 -0.1687865 0.0478854525 0.0442809079
145299130.0 0.048327228 0.0439051471 0.7502891962 -0.1786151495 0.7498258893 -0.1780697634 0.0492674408 0.0420996098
150299100.0 0.0497203634 0.0419902685 0.7488399836 -0.1872768834 0.7491242212 -0.1877272711 0.0509405364 0.0403422814
155299070.0 0.0504359476 0.0399211132 0.7480092959 -0.19876927 0.7474998792 -0.197661336 0.0517105586 0.0383042327
160299040.0 0.0520288027 0.0382268216 0.7462297483 -0.2072569995 0.7457889689 -0.2074420152 0.0521213892 0.0362753058
165299010.0 0.0525443753 0.0361852954 0.7447611632 -0.2168256012 0.7445833913 -0.2172807442 0.0535845705 0.0348538232
170298980.0 0.0534142753 0.0340519343 0.7436453413 -0.2260259016 0.7433171675 -0.2256927542 0.0541280063 0.0332066661
175298950.0 0.0537532639 0.0323130889 0.7415604476 -0.235232086 0.7405172407 -0.2350150835 0.0545785141 0.0314511038
180298920.0 0.0542792168 0.0307590186 0.7388220654 -0.2442105318 0.7392712087 -0.2442255975 0.0555117733 0.0297557777
185298890.0 0.055488399 0.0289100386 0.7368914577 -0.2536720511 0.7367223276 -0.2533054994 0.0558538995 0.0283833055
190298860.0 0.0558266101 0.0273036027 0.7338098085 -0.263078369 0.7346369895 -0.2628383549 0.0563016951 0.0263899185
195298830.0 0.0561639711 0.0255197608 0.7318856637 -0.2718293642 0.73209538 -0.2718057121 0.0572835005 0.0253280841
200298800.0 0.0563241908 0.0242035231 0.7289184103 -0.2813428376 0.7289152204 -0.2808447439 0.0567348547 0.0236010492
205298770.0 0.05686525 0.0230008233 0.7258306977 -0.2901268787 0.7265048604 -0.2896190978 0.0571828773 0.0214862078
210298740.0 0.057238038 0.0209495232 0.7232395818 -0.2980644286 0.7234286838 -0.2977415555 0.0581497271 0.0213721714
215298710.0 0.0572201718 0.0198131161 0.720292175 -0.3073027956 0.7203129955 -0.307200862 0.057921881 0.0197813103
220298680.0 0.0578700682 0.0176196974 0.7166216838 -0.3155297554 0.7169341951 -0.3155721412 0.0575813433 0.0179631509
225298650.0 0.0578390802 0.0168278203 0.7140331869 -0.3250345631 0.7138756861 -0.3241259157 0.0574646943 0.0165140672
230298620.0 0.0580439933 0.0159253871 0.7106857823 -0.3326007452 0.7113286742 -0.3329007729 0.0574379386 0.0152184065
235298590.0 0.0580487016 0.0148218106 0.7072122379 -0.3411322508 0.7068735998 -0.3406429593 0.0577291262 0.0139272672
240298560.0 0.0580392019 0.0135974747 0.7036982666 -0.3499323577 0.7031890351 -0.3495583404 0.0578730176 0.013236699
245298530.0 0.05808285 0.0120122815 0.6998692033 -0.3580052422 0.7000715388 -0.3582426099 0.0585537142 0.011106806
250298500.0 0.0585537212 0.011062021 0.6951164721 -0.3665905324 0.6951605749 -0.3658872816 0.0578144289 0.0104292128
255298470.0 0.0584021765 0.0093290143 0.6910892616 -0.3739976869 0.6920832711 -0.3740343459 0.0582474263 0.0091025247
260298440.0 0.0581470118 0.0083948832 0.6872356282 -0.3829344652 0.687743995 -0.3821971994 0.0587589665 0.008007708
265298410.0 0.0588926607 0.0078115891 0.6841472832 -0.390948873 0.6842426786 -0.3902401429 0.0584361669 0.0068758372
270298380.0 0.0587301183 0.0062652086 0.6798458453 -0.3982505788 0.6797421377 -0.3982419193 0.0580530793 0.0058169859
275298350.0 0.0589057491 0.0052459851 0.675716979 -0.4066325634 0.6755606327 -0.4065925234 0.0584087022 0.0045538632
280298320.0 0.0587157039 0.0043724071 0.6708961856 -0.4146689326 0.6709645867 -0.4140877106 0.0585079876 0.0034586353
285298290.0 0.0586858728 0.0032605338 0.6670091302 -0.4221017149 0.6662120641 -0.4224043037 0.0585836414 0.00240892
290298260.0 0.059061291 0.0022319297 0.6620858444 -0.4292981739 0.6620163078 -0.4296037608 0.0588148637 0.0018286648
295298230.0 0.0588416648 0.0009070395 0.6576665704 -0.4375912827 0.6574437873 -0.4376242771 0.0593620779 0.0004511407
300298200.0 0.058428895 -0.000148111 0.6532510728 -0.4449793519 0.6535054329 -0.4455695015 0.0590072401 -0.0007489945
305298170.0 0.0587474696 -0.0012581699 0.6472731814 -0.4533927508 0.6481308881 -0.4522841022 0.0595439355 -0.0019201244
310298140.0 0.0584633024 -0.0023459979 0.6429000749 -0.4605737711 0.6435472277 -0.4605437548 0.059695224 -0.0029342768
315298110.0 0.058354112 -0.004197086 0.6382742098 -0.4683908825 0.6384410352 -0.4684311477 0.0588615918 -0.0042837171
320298080.0 0.0586125016 -0.0047700803 0.6320833118 -0.4761130805 0.6331586215 -0.4759178298 0.0587265675 -0.0054434376
325298050.0 0.0579871849 -0.0062124542 0.6274012099 -0.4835399532 0.6273657967 -0.4834901117 0.0579928169 -0.0062369212
330298020.0 0.0575299503 -0.0072751974 0.6214250012 -0.4908712116 0.6221955374 -0.4906654862 0.0573566399 -0.0073751452
335297990.0 0.0571101054 -0.0083209738 0.6156293866 -0.4977638364 0.6157425061 -0.4982278439 0.0565845303 -0.0077390044
340297960.0 0.0564438249 -0.0089898805 0.6099384852 -0.5048108671 0.6097703498 -0.5043879445 0.0570264833 -0.0085694553
345297930.0 0.0558964343 -0.0089728041 0.6045038354 -0.5120850455 0.6043345206 -0.5118027456 0.0566397041 -0.0098363413
350297900.0 0.0553609186 -0.0108214379 0.5979383377 -0.5187387351 0.5983176071 -0.5182694698 0.0556885064 -0.0097186472
355297870.0 0.0550670487 -0.0103848689 0.5928668646 -0.524941291 0.5929901728 -0.5247544754 0.0553570693 -0.0107023706
360297840.0 0.0547805527 -0.0113543301 0.5879077742 -0.5313358902 0.587379205 -0.5316182061 0.0552604602 -0.0111820931
365297810.0 0.054216457 -0.0117902769 0.580509439 -0.5387793221 0.5818347998 -0.5384063407 0.0548432229 -0.0115835968
370297780.0 0.0546633665 -0.0130486583 0.5747095202 -0.5446099791 0.5752238855 -0.5436470404 0.0541144692 -0.0120720068
375297750.0 0.0539926804 -0.0137669582 0.5690677533 -0.551017428 0.5696210819 -0.5507695239 0.0543436552 -0.0129042494
380297720.0 0.0535591014 -0.0142719417 0.5624459116 -0.5579512429 0.5631822744 -0.5568575939 0.0533996647 -0.0138959023
385297690.0 0.0528796637 -0.0151653413 0.5563518968 -0.5638007509 0.5564608937 -0.5631676423 0.0534902729 -0.0141820969
390297660.0 0.0529747107 -0.0151564577 0.550831638 -0.569993045 0.5506937804 -0.5693641782 0.0528661905 -0.0151800127
395297630.0 0.0521491404 -0.0159526161 0.5447218542 -0.5761710469 0.5441566368 -0.5760312311 0.0530483101 -0.0158426221
400297600.0 0.0519656631 -0.0167266322 0.5373468472 -0.5828639576 0.5377303569 -0.5822024686 0.052667784 -0.0160876842
405297570.0 0.051541423 -0.0176801351 0.531158236 -0.5880090124 0.5317955294 -0.5879291848 0.0515622282 -0.0166997696
410297540.0 0.0517140034 -0.0182533182 0.5254199475 -0.5943040516 0.5252866427 -0.593870626 0.0515022579 -0.0169719401
415297510.0 0.0514258032 -0.0184311653 0.5180567496 -0.5999777768 0.5184242262 -0.5997226301 0.0512282788 -0.0178513508
420297480.0 0.051041824 -0.0190735734 0.5112719364 -0.6053073321 0.511499832 -0.6059889413 0.0504928005 -0.018915957
425297450.0 0.0504304618 -0.0203891662 0.5053545645 -0.6115625631 0.5051305004 -0.6109452532 0.0496305996 -0.0189342615
430297420.0 0.0500105951 -0.0207096362 0.4982300029 -0.6164841013 0.4981613069 -0.6159607097 0.0498531915 -0.0201280695
435297390.0 0.0495962361 -0.0214668857 0.4910219993 -0.6222768752 0.491308264 -0.6218113808 0.050181225 -0.020242541
440297360.0 0.0495082269 -0.0215100813 0.4842569176 -0.6275348264 0.4844201962 -0.6278496779 0.048965805 -0.0215524944
445297330.0 0.0487304871 -0.0225198793 0.4783175036 -0.6325819009 0.4780075373 -0.632158699 0.0493082361 -0.0223265399
450297300.0 0.0488503932 -0.0232484948 0.4708744982 -0.638333192 0.4707529326 -0.6385045394 0.0484851449 -0.022963781
455297270.0 0.0482645867 -0.0235522895 0.4637240054 -0.6436418256 0.4642019107 -0.6437999361 0.0484671437 -0.0233470112
460297240.0 0.0479073809 -0.0243753269 0.4561734355 -0.6486417261 0.4564621388 -0.6488272731 0.047629822 -0.0236832739
465297210.0 0.047486363 -0.0246504584 0.4492067161 -0.6537807631 0.4496675714 -0.6539696958 0.0476204207 -0.024647059
470297180.0 0.047020047 -0.0256863951 0.4412980848 -0.6588358223 0.4422465626 -0.6586370584 0.0470404253 -0.0250559226
475297150.0 0.0469669932 -0.026341349 0.435167218 -0.6629060591 0.4352599161 -0.6624252243 0.0477571057 -0.0258522328
480297120.0 0.046183529 -0.0262204142 0.4273090488 -0.6685080319 0.4275248381 -0.6687510586 0.0472194727 -0.0260121642
485297090.0 0.0456451073 -0.0268509373 0.4206685897 -0.6726807128 0.4207031995 -0.6724702031 0.046628517 -0.0269339879
490297060.0 0.0448884873 -0.0277690103 0.4133960096 -0.6782198368 0.4130942875 -0.6772140369 0.0461666676 -0.0266761414
495297030.0 0.044765941 -0.0279994394 0.4048054733 -0.6820031863 0.4057171771 -0.6819485911 0.045086929 -0.0276124505
500297000.0 0.0443352053 -0.0287099559 0.397292501 -0.6862032499 0.3973020772 -0.6860260673 0.0452293943 -0.0277652308
505296970.0 0.0441059214 -0.0291110858 0.3900616857 -0.6902181459 0.389688349 -0.6910425704 0.0447473513 -0.0281216647
510296940.0 0.0434031947 -0.0293084791 0.3824826006 -0.6949326843 0.3827177993 -0.6952007741 0.044657249 -0.02802289
515296910.0 0.0425604513 -0.0297022501 0.3746946725 -0.6992645336 0.3748388752 -0.6986911244 0.0438687817 -0.0287618818
520296880.0 0.0422767861 -0.0300879547 0.3668727114 -0.7037899737 0.3676583108 -0.7030634513 0.0433745643 -0.0295574794
525296850.0 0.0419684363 -0.031067874 0.3593897034 -0.7071580791 0.3605078442 -0.7067052408 0.0426017732 -0.0298955021
530296820.0 0.0417449706 -0.0310888878 0.3513546923 -0.7110075186 0.3519039833 -0.7111092651 0.04243585 -0.0300813687
535296790.0 0.0407600711 -0.0317633095 0.3442316509 -0.7149913198 0.3447478256 -0.7146867766 0.0420891504 -0.0311763378
540296760.0 0.0402217364 -0.0315663983 0.3359760116 -0.7184992024 0.3361457658 -0.7190930762 0.0409308339 -0.0305466427
545296730.0 0.0397583991 -0.0324705438 0.3279578365 -0.7220362793 0.3284839882 -0.7227261209 0.0405200597 -0.0313857423
550296700.0 0.0399829203 -0.0324754416 0.320281225 -0.7253034063 0.3205484114 -0.7259330131 0.0398453388 -0.0316358575
555296670.0 0.0388145828 -0.0330711705 0.3127420819 -0.7292308389 0.3129694966 -0.7294419661 0.0395610043 -0.0321241821
560296640.0 0.0387683032 -0.0329623137 0.3040994534 -0.7330239003 0.3048191032 -0.7330326952 0.0390227596 -0.0326800258
565296610.0 0.037508604 -0.0338935906 0.2955515312 -0.736034455 0.2964315634 -0.7355573242 0.0379653625 -0.0333121297
570296580.0 0.0371629147 -0.0337702623 0.2882909544 -0.7396331385 0.287512983 -0.7392033361 0.0375711265 -0.0327211768
575296550.0 0.0364591575 -0.0341290862 0.2799728896 -0.742771055 0.2802063662 -0.7429333083 0.0376104544 -0.0335848211
580296520.0 0.036257886 -0.034522351 0.2718061176 -0.7458271889 0.2724080046 -0.7455272049 0.0368397613 -0.0342328134
585296490.0 0.035527552 -0.0357672382 0.2636623089 -0.7484392203 0.264723668 -0.7481839854 0.0364737324 -0.0342577085
590296460.0 0.0356333247 -0.0351007562 0.2557555319 -0.7505732457 0.2553288384 -0.7510725906 0.0350556751 -0.0347051662
595296430.0 0.0351241323 -0.0355949998 0.247147407 -0.7544681382 0.2476227738 -0.7543178688 0.0350898506 -0.0352435304
600296400.0 0.0339809213 -0.0363274991 0.2386916941 -0.7569361105 0.239735662 -0.7564421883 0.0344603076 -0.0355728214
605296370.0 0.0336858498 -0.0367806255 0.2309701715 -0.7592359534 0.2310541452 -0.759558583 0.0336198387 -0.0358803425
610296340.0 0.0332441702 -0.0369123144 0.2225239489 -0.762032027 0.2229633767 -0.7618460738 0.0337978281 -0.0363520524
615296310.0 0.0329708622 -0.0376230842 0.2142747893 -0.7639044313 0.2141382885 -0.7643888679 0.0334973235 -0.0363649976
620296280.0 0.0322546711 -0.0379293171 0.2060408216 -0.7666451429 0.2059337751 -0.765744583 0.0323718487 -0.0368283754
625296250.0 0.0311765773 -0.038500853 0.197916153 -0.7693391389 0.1977893753 -0.7691912847 0.0326247236 -0.0370324396
630296220.0 0.0318373942 -0.0383030103 0.1890425945 -0.7705898388 0.1885718302 -0.7706537854 0.0316861097 -0.0371216068
635296190.0 0.0297864834 -0.0390380003 0.1805148561 -0.7725750847 0.1810809746 -0.7727449978 0.031459655 -0.0377674005
640296160.0 0.0294286371 -0.0389470739 0.1720374006 -0.7745888077 0.1730678298 -0.774285503 0.0307690546 -0.0378194497
645296130.0 0.0292545697 -0.0391171677 0.1632250846 -0.7761039917 0.1643567044 -0.7764795315 0.0303334477 -0.0378403865
650296100.0 0.028726404 -0.0393763361 0.1554496008 -0.7782324635 0.1557076113 -0.7780661378 0.0302071206 -0.0391068601
655296070.0 0.0274711235 -0.0400290355 0.1467893142 -0.7801800297 0.1471168901 -0.7798496233 0.0295154408 -0.0384661424
660296040.0 0.0267556063 -0.0405901815 0.1382170152 -0.781564013 0.138737266 -0.7818846329 0.0290533425 -0.038974757
665296010.0 0.0271467258 -0.0402796108 0.1291365531 -0.782467682 0.130215651 -0.7828080943 0.0285695231 -0.0384691956
670295980.0 0.0249501196 -0.0406584376 0.1209397567 -0.7839925011 0.1211814298 -0.783980473 0.0272589237 -0.0389264865
675295950.0 0.0251708006 -0.0404427391 0.1125119428 -0.7856147417 0.1130650605 -0.7850065557 0.0265035561 -0.0391540714
680295920.0 0.0240833238 -0.0410603827 0.1039210926 -0.7866075233 0.1033854442 -0.7867934029 0.0260649155 -0.0385853953
685295890.0 0.0240292317 -0.0404257341 0.0954164039 -0.7876896271 0.0955151436 -0.7879754141 0.0255462256 -0.0389975733
690295860.0 0.0238108933 -0.0406703453 0.0868489701 -0.7879535804 0.0870148329 -0.7890887266 0.0250174302 -0.0384144177
695295830.0 0.0229856376 -0.0411634883 0.0793161022 -0.7891331512 0.0778587224 -0.7892698085 0.024386038 -0.0390877875
700295800.0 0.0225313003 -0.0414924014 0.0700349002 -0.7901072993 0.0693615638 -0.7896568728 0.0235723855 -0.0384053734
705295770.0 0.0216517485 -0.0407108938 0.0607807163 -0.7913186134 0.0612337015 -0.7909931484 0.0230614857 -0.0392624748
710295740.0 0.0215398912 -0.0414386898 0.0527602226 -0.7924408124 0.0530038487 -0.7924970902 0.0228968383 -0.0399168687
715295710.0 0.0201274013 -0.0414837028 0.0441587173 -0.7918969079 0.0439316495 -0.792107205 0.0223412468 -0.0396529152
720295680.0 0.0198990861 -0.0415040748 0.0352510443 -0.7925465549 0.0356700044 -0.7926809083 0.0214469819 -0.0388948466
725295650.0 0.0195564455 -0.0413855144 0.0268298921 -0.7927841094 0.0268254701 -0.7931469019 0.0201501352 -0.0391709688
730295620.0 0.018919524 -0.041388771 0.0178711034 -0.7926250716 0.0182889559 -0.7933852169 0.0193958941 -0.0400065738
735295590.0 0.0182728448 -0.0411013168 0.0089715465 -0.7932922343 0.0090488796 -0.7932841262 0.0191316069 -0.0402013946
740295560.0 0.0171104049 -0.0414993866 0.0004918023 -0.7931954924 0.0008017032 -0.7932183549 0.0190678198 -0.0397960888
745295530.0 0.0167694934 -0.0412420503 -0.0082696978 -0.7925993691 -0.0081268911 -0.7931269035 0.0183995642 -0.0407585056
750295500.0 0.016455065 -0.0415510247 -0.0159018315 -0.7928069232 -0.0164992946 -0.7934793211 0.0173948319 -0.0402342424
755295470.0 0.0159611001 -0.0418617156 -0.0248903527 -0.7931095046 -0.0245704909 -0.7932915018 0.0176548374 -0.0408386005
760295440.0 0.0151229338 -0.0418217737 -0.033855051 -0.7930839052 -0.0333885026 -0.7929188419 0.0165360159 -0.0406201343
765295410.0 0.014361289 -0.0417699786 -0.0425341684 -0.7917477728 -0.0427103384 -0.7921445381 0.016184451 -0.0406499409
770295380.0 0.0135346446 -0.0421050421 -0.0517666141 -0.7920656771 -0.0507657444 -0.791397281 0.0150252396 -0.0409706357
775295350.0 0.0130721029 -0.0427043874 -0.0599102263 -0.790407498 -0.0592230486 -0.7907000873 0.014046586 -0.040464587
780295320.0 0.0127644187 -0.0422710374 -0.0682918631 -0.7899274069 -0.0672836972 -0.790262802 0.0138310749 -0.0415473813
785295290.0 0.0115086964 -0.0428629395 -0.0770983187 -0.7886900404 -0.0760871387 -0.789543158 0.0138808717 -0.0408576723
790295260.0 0.0114968974 -0.0418116744 -0.0846261989 -0.7879879577 -0.0842560404 -0.7883327634 0.0128488582 -0.0410638809
795295230.0 0.0108620343 -0.0426524288 -0.0936403708 -0.7877389418 -0.0928377351 -0.7873003705 0.012571284 -0.0404517707
800295200.0 0.0095711723 -0.0418525907 -0.1033288969 -0.7860125078 -0.1023945136 -0.7863590544 0.0115753938 -0.0408627482
805295170.0 0.0090386829 -0.042218358 -0.1114453937 -0.7848401421 -0.1107098057 -0.7859212563 0.0113017969 -0.0406818584
810295140.0 0.0084375624 -0.0426669683 -0.1194465827 -0.7837838266 -0.1192268205 -0.7840678333 0.0113070505 -0.0404285951
815295110.0 0.0081722948 -0.0428393944 -0.1278399684 -0.7821381289 -0.127455971 -0.7824052079 0.0099619528 -0.0402156873
820295080.0 0.0068235097 -0.0418607862 -0.1363984991 -0.7811294328 -0.1361333636 -0.7808939556 0.0096069676 -0.0405852088
825295050.0 0.0070999895 -0.0420176328 -0.144345727 -0.7788320629 -0.1445534719 -0.7795678835 0.0095487936 -0.0403609741
830295020.0 0.0063640402 -0.0416609301 -0.1540467933 -0.7775284181 -0.152992297 -0.7775129556 0.0095251764 -0.040097138
