!Created with skrf (http://scikit-rf.org).
# Hz S RI R 50.0 
!freq ReS11 ImS11 ReS21 ImS21 ReS12 ImS12 ReS22 ImS22
300000.0 -0.0957405175 -0.1007460699 0.6231788104 0.0921126876 0.621501275 0.0936109883 -0.0954113151 -0.1061123524
5299970.0 -0.101578758 0.0113832727 0.6305448044 0.010992663 0.6308838347 0.0114300753 -0.1016326898 0.0113156882
10299940.0 -0.0968423144 0.0285980283 0.6346936625 0.0158690741 0.6342114544 0.0167074018 -0.0962508214 0.0285143479
15299910.0 -0.0892222106 0.0422494778 0.6402581282 0.0210183485 0.6410274255 0.0212240263 -0.0897461953 0.041988811
20299880.0 -0.0804895944 0.0536740306 0.6490926334 0.0239518787 0.649004811 0.0242732844 -0.0809707643 0.0528533025
25299850.0 -0.0704566948 0.0624464932 0.6582448975 0.0257182217 0.6585293446 0.0257555823 -0.0717980705 0.0618660357
30299820.0 -0.0609787765 0.0689427405 0.667759127 0.0247009793 0.6677681774 0.0242890236 -0.0615661353 0.0684138384
35299790.0 -0.0507956355 0.0734928699 0.6769174637 0.0221776512 0.6773674235 0.0218946606 -0.0522479019 0.0737507118
40299760.0 -0.0410782448 0.0765984044 0.686716683 0.0174597515 0.6869041298 0.017581223 -0.0427664743 0.0769516658
45299730.0 -0.0318809788 0.0785087524 0.6959264475 0.0125083696 0.6958503476 0.0119594149 -0.0329104283 0.0792783171
50299700.0 -0.0229905838 0.0790381216 0.70387061 0.005118322 0.7038128741 0.0050099754 -0.0245917979 0.0804009443
55299670.0 -0.0151285704 0.078874305 0.7110103179 -0.0021864459 0.7105087546 -0.0024391918 -0.0174228965 0.0804053743
60299640.0 -0.0075771831 0.0785994982 0.7180110926 -0.0110841124 0.7176776207 -0.0109456697 -0.0096442652 0.0796208453
65299610.0 -0.0012573157 0.0770708968 0.723739243 -0.0193826108 0.724174756 -0.019335409 -0.0027114236 0.078684151
70299580.0 0.0052517059 0.0752611532 0.7289198601 -0.0289546187 0.7294203404 -0.0291368783 0.0029980732 0.0773114389
75299550.0 0.0103968829 0.0734214278 0.7334888466 -0.039137842 0.7334050766 -0.0386483243 0.0086822121 0.0753652617
80299520.0 0.0156565025 0.0714293618 0.7382393288 -0.0485676566 0.7379078656 -0.048719236 0.0136211888 0.073356321
85299490.0 0.0200693336 0.0690999454 0.7410879092 -0.0587987365 0.7409423412 -0.0584350918 0.0181473892 0.0706624977
90299460.0 0.0236962258 0.0665854594 0.7432234466 -0.0687256214 0.7436348233 -0.0682723598 0.0224931311 0.0693242932
95299430.0 0.0280804623 0.0642640499 0.7459656989 -0.0791705887 0.7462243308 -0.0791116162 0.0258381855 0.0664032228
100299400.0 0.0313442153 0.0615803477 0.7476442235 -0.0888709126 0.7477062942 -0.0890787455 0.0290835428 0.0645295955
105299370.0 0.0342997784 0.0592113216 0.7494389289 -0.0987163259 0.7498660705 -0.0989048222 0.0329933458 0.0620452603
110299340.0 0.0372814031 0.0563362277 0.7508805021 -0.1086727761 0.751007381 -0.1085769636 0.0350065412 0.0594011269
115299310.0 0.0397425595 0.0545376519 0.751566653 -0.1189030932 0.7511435499 -0.1186067244 0.0373315663 0.0574554814
120299280.0 0.0416093676 0.0520968903 0.7519846114 -0.1301347586 0.7523052949 -0.1297841708 0.0398676044 0.0545511976
125299250.0 0.043838551 0.0497025273 0.7526500924 -0.139134532 0.75197347 -0.1386743096 0.0420965832 0.052942514
130299220.0 0.0457681535 0.0469530781 0.7522893976 -0.1493878894 0.7516122782 -0.149561584 0.0437667491 0.0505992151
135299190.0 0.0468137811 0.0452872425 0.7518588699 -0.1582899939 0.7520285044 -0.1588205035 0.0455474927 0.0478634962
140299160.0 0.0488206689 0.0431646283 0.7516925884 -0.1688887914 0.7507116133 -0.168365101 0.0463034407 0.0454496631
145299130.0 0.0494659968 0.0411619777 0.7501940323 -0.1782338082 0.7506475244 -0.1781664436 0.0479000605 0.0436955355
150299100.0 0.0506641962 0.0391117698 0.7497243522 -0.1879560743 0.7493167955 -0.1878890207 0.0492687555 0.042118492
155299070.0 0.0524112254 0.037164025 0.7477745913 -0.1975021351 0.7484892595 -0.1977343242 0.0502894451 0.0396672986
160299040.0 0.0534350229 0.0354896154 0.7466976463 -0.2072886925 0.7463589344 -0.2072654964 0.0508466173 0.0380366879
165299010.0 0.0544559316 0.03337968 0.7455811321 -0.216310167 0.7449624927 -0.2168359987 0.0523273924 0.0357562584
170298980.0 0.0549296306 0.0320054758 0.7433183229 -0.225483134 0.7434647713 -0.2259092771 0.0524217956 0.0338339453
175298950.0 0.0557940754 0.0301779343 0.7419347598 -0.2350597967 0.7418907187 -0.2358001242 0.0535937569 0.0325894156
180298920.0 0.0564503015 0.0286936731 0.7394266978 -0.2448846907 0.7391710299 -0.2444911667 0.0540458166 0.0308575152
185298890.0 0.0568827068 0.0270301997 0.7379623403 -0.2538239362 0.7374583901 -0.2534365127 0.0551974886 0.0290189713
190298860.0 0.0579179129 0.0256425154 0.7341076718 -0.2627688481 0.7350765366 -0.2622353397 0.0553850112 0.0275396252
195298830.0 0.0576596451 0.0242861361 0.7325633862 -0.2717279955 0.7327773817 -0.2713555563 0.0555472465 0.0260129381
200298800.0 0.0584343769 0.0222756682 0.7299079108 -0.2807940088 0.7297210353 -0.2806891136 0.0563673684 0.0240957738
205298770.0 0.0583760025 0.0207723097 0.7270651731 -0.289786562 0.7270090807 -0.2888696727 0.0568279143 0.0227479434
210298740.0 0.0587134891 0.0200200624 0.7246979767 -0.298075838 0.7237360372 -0.2984916095 0.0563464158 0.0210033304
215298710.0 0.0593456331 0.0186006656 0.7208948976 -0.3065873676 0.7208595473 -0.3068353848 0.0572713778 0.0196768332
220298680.0 0.0597413805 0.0175992057 0.7174239058 -0.3157857874 0.7175841414 -0.3160253733 0.0572009446 0.0182343465
225298650.0 0.05964737 0.015974156 0.7142163528 -0.3241460147 0.7149585347 -0.3237346926 0.057526471 0.0166210454
230298620.0 0.0603895678 0.0152090892 0.7113337765 -0.3326934442 0.7116303452 -0.3331679117 0.057419877 0.0153286227
235298590.0 0.059961056 0.0140367366 0.7083452457 -0.3420146949 0.7080654146 -0.3411942955 0.0578345349 0.0143930485
240298560.0 0.0604266781 0.0128011959 0.7041975902 -0.3491022365 0.704319253 -0.3492424099 0.0576084297 0.0129706309
245298530.0 0.060303076 0.0113874413 0.7002976235 -0.3581086583 0.6999462018 -0.3576629949 0.057740365 0.0117726389
250298500.0 0.0601324185 0.0102086958 0.6968432693 -0.3661661624 0.696970903 -0.3656650028 0.0578593876 0.0104971599
255298470.0 0.0606625019 0.0096802902 0.6931220972 -0.3741398077 0.6932287917 -0.3742220184 0.0579689949 0.0097787898
260298440.0 0.0606935266 0.008395844 0.6890616454 -0.3816929622 0.6889553731 -0.3826620174 0.0577937177 0.0079101191
265298410.0 0.0600074893 0.0072736628 0.6848272734 -0.3909132535 0.6845695591 -0.3908329345 0.0587226543 0.006786169
270298380.0 0.0600539342 0.0063515352 0.6802223433 -0.3985002334 0.6805667297 -0.3982760005 0.0582976341 0.0062327995
275298350.0 0.0605153754 0.0056317719 0.6759306892 -0.4059975678 0.6756082748 -0.4060178752 0.0575469111 0.0050333586
280298320.0 0.0596898794 0.004515548 0.6718499735 -0.4137061534 0.6722941027 -0.4140785106 0.0582694518 0.0041017551
285298290.0 0.0599826151 0.0033954936 0.6672148685 -0.4220064057 0.667339837 -0.4216784887 0.0580157374 0.0026641806
290298260.0 0.0597243165 0.0028541689 0.6632946466 -0.429787602 0.662945755 -0.4295770585 0.0581336678 0.0016285394
295298230.0 0.0599587236 0.0012927544 0.659204722 -0.4376457278 0.6585816234 -0.4380012846 0.0579151077 0.0002718177
300298200.0 0.0601902733 0.0009981182 0.6542920081 -0.4451454207 0.6539347904 -0.445395432 0.0578968161 -0.0007200806
305298170.0 0.0601230815 -0.0007111014 0.6495938759 -0.452906416 0.6490340518 -0.4530823681 0.0576820818 -0.0021839834
310298140.0 0.0603253431 -0.0014764805 0.6446296853 -0.4599369283 0.6446018552 -0.460087377 0.0579982579 -0.0034917806
315298110.0 0.0596811265 -0.0030729516 0.639128527 -0.4683831688 0.63873546 -0.4685536603 0.0578514988 -0.0044108417
320298080.0 0.0597100746 -0.0038923919 0.633192363 -0.4756869823 0.6341082979 -0.4763226212 0.0572601105 -0.0056594707
325298050.0 0.0586728598 -0.0053415019 0.6288375801 -0.4827170436 0.6287969502 -0.482857626 0.05700163 -0.0067093303
330298020.0 0.0576020229 -0.0056346609 0.6225240151 -0.4904685217 0.6234839051 -0.4907873676 0.0561713873 -0.0081120961
335297990.0 0.0577643512 -0.0066023661 0.6171208359 -0.4971410024 0.6174620262 -0.4975257775 0.0556804247 -0.008912644
340297960.0 0.0567365344 -0.007731576 0.6113018402 -0.5051695749 0.6109647116 -0.5044381458 0.0549537264 -0.009178992
345297930.0 0.0563423151 -0.0085333193 0.6058026083 -0.5121219318 0.6054092342 -0.5118234122 0.055105272 -0.0103000397
350297900.0 0.0557969709 -0.0088524351 0.6003676159 -0.5180887066 0.6005486465 -0.5181048839 0.0546775776 -0.011368043
355297870.0 0.0555897304 -0.0097391859 0.5944883385 -0.5249757291 0.5942510348 -0.5243160705 0.0544396367 -0.012101851
360297840.0 0.0552908938 -0.0102848772 0.5879407438 -0.5316606802 0.5886579729 -0.5317007727 0.053646938 -0.0123309383
365297810.0 0.0547098375 -0.0110667078 0.5822484381 -0.5381304753 0.5824216089 -0.5380667188 0.0529867477 -0.0132663915
370297780.0 0.0547272718 -0.0115097459 0.5758228133 -0.5443410426 0.5764638956 -0.5443773581 0.0530786144 -0.0139495233
375297750.0 0.0543487672 -0.0120280343 0.5707899886 -0.5514730253 0.5708836106 -0.5509183576 0.0529075223 -0.0147357917
380297720.0 0.0533406177 -0.0125818856 0.5648120032 -0.5576467138 0.5639853304 -0.5575068932 0.0521363756 -0.0151782129
385297690.0 0.0529886207 -0.0136758904 0.5579468818 -0.5635928547 0.5584671984 -0.5640365444 0.051999163 -0.0155786571
390297660.0 0.0528395936 -0.0146457503 0.5515601028 -0.5693112414 0.5524067058 -0.5700476857 0.0523396909 -0.0167140506
395297630.0 0.0530004089 -0.0150176564 0.5462715143 -0.5751790258 0.5457257939 -0.5754273624 0.0511867239 -0.0171071655
400297600.0 0.0518977845 -0.0158742105 0.5397819792 -0.5822876607 0.5397891053 -0.5820532262 0.0513197653 -0.0176775608
405297570.0 0.0519539127 -0.0167985797 0.5332755967 -0.5876958658 0.5329053737 -0.5879496179 0.0508553564 -0.0181930131
410297540.0 0.0516056068 -0.0166584795 0.5265503827 -0.5937757888 0.5268901169 -0.5939567803 0.0503840982 -0.0187443762
415297510.0 0.0510972086 -0.0173274695 0.5196060946 -0.5997975821 0.5206379897 -0.6000336227 0.0503202622 -0.0190595875
420297480.0 0.0505862878 -0.018590843 0.5133974943 -0.6055224152 0.5138383704 -0.6055630093 0.0503221455 -0.0198369576
425297450.0 0.0508093758 -0.0186186735 0.5065635272 -0.6109142762 0.5067976401 -0.610840173 0.0496340715 -0.0207914084
430297420.0 0.0498871506 -0.0192975674 0.5005505551 -0.6167426985 0.5008030601 -0.6160612941 0.049772756 -0.0210374582
435297390.0 0.0498797625 -0.0202509221 0.493226311 -0.6233669654 0.4935019946 -0.6220305745 0.0487596891 -0.0214016164
440297360.0 0.049687647 -0.0209621182 0.4859416303 -0.6276316892 0.4861904264 -0.6278530076 0.0487240854 -0.0218982807
445297330.0 0.0492210088 -0.0218110403 0.4794101158 -0.6325113879 0.4794834301 -0.6330291659 0.0484307132 -0.0223637783
450297300.0 0.0489528038 -0.0223193757 0.4725687922 -0.6376687788 0.4727687771 -0.6379284936 0.0478566011 -0.0229269969
455297270.0 0.0481702656 -0.0229208163 0.466094898 -0.643213899 0.4657297512 -0.6438613623 0.047966234 -0.0233664095
460297240.0 0.0480286036 -0.0233228198 0.4587780002 -0.6495283542 0.4584237305 -0.6491369308 0.0470464682 -0.0240915253
465297210.0 0.0475534141 -0.0239045261 0.4506926559 -0.6537677926 0.4508702581 -0.6539127133 0.0476416223 -0.023885313
470297180.0 0.0471885132 -0.0247039017 0.4437550817 -0.6586043751 0.444502063 -0.6584095874 0.0467134913 -0.0252074418
475297150.0 0.046429683 -0.0248926061 0.4370969474 -0.6637208815 0.4369610365 -0.6641005218 0.0466246817 -0.025761094
480297120.0 0.0467092955 -0.0251305866 0.4294290943 -0.6687546784 0.4297067154 -0.668150082 0.0461365654 -0.0261300089
485297090.0 0.0460841946 -0.0267780168 0.4217936078 -0.6730732573 0.422388973 -0.6725894673 0.0456232692 -0.0265013702
490297060.0 0.0461790684 -0.0265164792 0.4145147566 -0.6781268593 0.4146936056 -0.677911241 0.04521197 -0.0271960004
495297030.0 0.0451881385 -0.0278037762 0.4074435515 -0.6825334084 0.4076283886 -0.6828805111 0.0453781166 -0.0276456183
500297000.0 0.0447346155 -0.0276191824 0.3996794994 -0.6864705336 0.400379889 -0.6871314794 0.0447700778 -0.0279756216
505296970.0 0.0451035228 -0.0281225598 0.3924039231 -0.6914035787 0.3928960388 -0.6907442575 0.0443466741 -0.0292626192
510296940.0 0.0442527646 -0.0292169783 0.3848391606 -0.6960851032 0.3854606204 -0.6960260193 0.0442497202 -0.0291709383
515296910.0 0.0437950965 -0.0290777652 0.376869057 -0.6998966162 0.3768232213 -0.6999678325 0.04373012 -0.0303247925
520296880.0 0.0433784282 -0.0295339189 0.3698707066 -0.7038182968 0.3690301589 -0.7038137148 0.0440140835 -0.0296377698
525296850.0 0.043231898 -0.0304230447 0.3616147904 -0.7075775026 0.3619718682 -0.7079068085 0.0435116303 -0.0306028373
530296820.0 0.0425764974 -0.0310466143 0.3539043451 -0.7123365641 0.3542416314 -0.7120292871 0.0429650024 -0.0314551452
535296790.0 0.042981838 -0.0311532742 0.3463880125 -0.7152333415 0.3464565479 -0.7156233762 0.042965884 -0.0309384325
540296760.0 0.0421001397 -0.0313447373 0.3380419064 -0.7189770486 0.3383210562 -0.7194831999 0.0420613908 -0.0324542806
545296730.0 0.0409139408 -0.0318499322 0.3306859725 -0.7230115347 0.3302622708 -0.7227804954 0.0418046468 -0.0326829873
550296700.0 0.0413481237 -0.0322542966 0.3218756007 -0.7268688336 0.322356077 -0.7267272583 0.0415781885 -0.0332069343
555296670.0 0.04068928 -0.0326930056 0.3144797683 -0.7308082369 0.3146304136 -0.7303649713 0.0407704325 -0.0340745233
560296640.0 0.0410252283 -0.0331996275 0.3061576639 -0.7335364658 0.3066774248 -0.7335088809 0.0404918802 -0.0336559242
565296610.0 0.0398017548 -0.0333697546 0.2983165771 -0.7370205815 0.298754088 -0.7363469846 0.0402924832 -0.0342796792
570296580.0 0.0392611969 -0.0334506194 0.2899418436 -0.7397720881 0.2907367998 -0.7402195805 0.0395516134 -0.0350305823
575296550.0 0.0390432488 -0.034273317 0.2828222846 -0.7433928626 0.2823575685 -0.743584828 0.0393541441 -0.0352488962
580296520.0 0.0388445519 -0.034258078 0.2745814091 -0.7463505575 0.2738563042 -0.7467847975 0.0382628035 -0.035916441
585296490.0 0.0383171554 -0.0346061012 0.2663674979 -0.7497610243 0.2656069505 -0.7491332163 0.0386668105 -0.0358193158
590296460.0 0.0385881318 -0.0348530474 0.2577968224 -0.7521738869 0.2578084737 -0.752590976 0.0374935261 -0.0362131577
595296430.0 0.0380197972 -0.0353836972 0.2490473329 -0.7550468258 0.2488991292 -0.754971023 0.0375397457 -0.0369232787
600296400.0 0.0376242492 -0.0354541443 0.2407510071 -0.757537581 0.2409660879 -0.7578552157 0.0371898658 -0.0373309003
605296370.0 0.0361026825 -0.0356962477 0.2332638977 -0.7599512383 0.2325882096 -0.7603437921 0.0361295852 -0.0375816453
610296340.0 0.0364927314 -0.0357231073 0.2246785403 -0.7621051888 0.2252656028 -0.762305825 0.0354627248 -0.0377420015
615296310.0 0.0362145277 -0.036600285 0.2159046308 -0.765715982 0.2158565594 -0.7654495122 0.0353470249 -0.0380063497
620296280.0 0.03494511 -0.0358674889 0.2076805968 -0.7674522164 0.207276806 -0.7670189038 0.0345085478 -0.0380167318
625296250.0 0.0347808764 -0.0366416945 0.198993314 -0.7695818531 0.1993359815 -0.7700366758 0.0337596714 -0.0388561524
630296220.0 0.0342526489 -0.0368881981 0.1906882414 -0.772490589 0.1908839575 -0.7718636462 0.0337037791 -0.0388767827
635296190.0 0.0333050856 -0.0367101556 0.182237231 -0.773644246 0.1824359864 -0.7736384261 0.0331481537 -0.0393481131
640296160.0 0.0329567567 -0.0372307109 0.1736324716 -0.7762117887 0.1741363281 -0.7766210677 0.0318690367 -0.0397405369
645296130.0 0.0328972745 -0.0367564659 0.1649445618 -0.7779640258 0.1652075016 -0.7775108801 0.031585106 -0.0406282074
650296100.0 0.0320487219 -0.0374667299 0.1567617299 -0.7799458924 0.1572171814 -0.7798881999 0.0319247492 -0.0403412704
655296070.0 0.031573221 -0.0376335847 0.1484282963 -0.7814089395 0.1480421914 -0.7808848407 0.0305681052 -0.040383479
660296040.0 0.0310323349 -0.0375794634 0.139702836 -0.7826113893 0.1402733238 -0.7828973678 0.0298893012 -0.0413248033
665296010.0 0.030895911 -0.0380042216 0.1306539736 -0.7839099854 0.1312978808 -0.7842677312 0.0293133748 -0.0411000334
670295980.0 0.0303726732 -0.0378630313 0.1228330767 -0.7857911845 0.1224754515 -0.7848773103 0.0283011066 -0.0418134282
675295950.0 0.0293144859 -0.0379742468 0.1142231641 -0.7866859734 0.1149038729 -0.786992702 0.0278555567 -0.0414373695
680295920.0 0.0289044213 -0.0381595856 0.1055745771 -0.7881341787 0.1057554114 -0.7878151665 0.0277163939 -0.0420161711
685295890.0 0.0285347758 -0.037870166 0.0963281043 -0.7896231923 0.0969419025 -0.7889620022 0.0269228084 -0.0417829509
690295860.0 0.0275620076 -0.0381777513 0.0880108482 -0.7898073114 0.0885269228 -0.790139589 0.0264719869 -0.0422660484
695295830.0 0.0272545011 -0.0383442962 0.0799443708 -0.7908140494 0.0799956397 -0.7906686282 0.0257417582 -0.0424176585
700295800.0 0.026956732 -0.0380787528 0.0718884511 -0.7915525711 0.0717680729 -0.7918959197 0.0250103084 -0.0423222543
705295770.0 0.0259106335 -0.0383268955 0.0628400586 -0.7930054407 0.0628037191 -0.7925396357 0.0241813258 -0.0423833283
710295740.0 0.0252973956 -0.0385728841 0.0543222673 -0.7937365767 0.0540004296 -0.7929286101 0.0241235711 -0.0422233734
715295710.0 0.0247903766 -0.0379300888 0.0455743409 -0.793988324 0.0458201941 -0.7938187164 0.023054746 -0.0427879624
720295680.0 0.0247865926 -0.0384174661 0.0368354735 -0.7939910527 0.0372102223 -0.7948014085 0.0225642065 -0.0430639356
725295650.0 0.0232381374 -0.0380617159 0.0285190282 -0.7943797011 0.0285131677 -0.7942157527 0.0212169675 -0.0425254405
730295620.0 0.0221129063 -0.0386415447 0.0195776906 -0.794588458 0.0198547676 -0.7936984141 0.0210664289 -0.0422276916
735295590.0 0.0224762186 -0.0385825452 0.0108765234 -0.7952486162 0.0112788933 -0.7944254448 0.0202028404 -0.0433510512
740295560.0 0.0217446442 -0.0386418297 0.0026350389 -0.7950666996 0.0027346689 -0.7949425813 0.0190720736 -0.0425876941
745295530.0 0.0208463759 -0.0383704619 -0.0063801475 -0.7941341896 -0.0054556208 -0.7942157232 0.0180116448 -0.042959124
750295500.0 0.0200273434 -0.0382497952 -0.0143803479 -0.7948698103 -0.014930584 -0.7948695782 0.0179458942 -0.042961883
755295470.0 0.0194324465 -0.0385016637 -0.0232771913 -0.7949733909 -0.0232215024 -0.7946075823 0.0172678705 -0.0422953948
760295440.0 0.0189049978 -0.037983839 -0.0333619022 -0.7938522226 -0.0318212252 -0.7936782487 0.0170554699 -0.043876278
765295410.0 0.018827136 -0.0384459433 -0.0408993642 -0.7936414092 -0.0401208102 -0.7933413436 0.016298302 -0.0431209659
770295380.0 0.0179726563 -0.0380055149 -0.0487425306 -0.7926617535 -0.0490858322 -0.7935112188 0.0150233713 -0.0427998633
775295350.0 0.0171665966 -0.0382362447 -0.0580056922 -0.7928383114 -0.0577518377 -0.7921623511 0.015058397 -0.0427410307
780295320.0 0.0163006236 -0.0377771668 -0.0663077923 -0.7912043189 -0.0659392584 -0.7916886464 0.0145036373 -0.043030568
785295290.0 0.015860528 -0.038409272 -0.0747531839 -0.7913080157 -0.0745907558 -0.790881423 0.0129677773 -0.0423533648
790295260.0 0.0155480124 -0.0384446689 -0.083449766 -0.7904004315 -0.0829825343 -0.790386759 0.0123444795 -0.0419739836
795295230.0 0.0148745384 -0.0384162876 -0.0924281949 -0.7896095491 -0.0922380793 -0.7894883148 0.0122595002 -0.043141186
800295200.0 0.0135240734 -0.0379697055 -0.1001483656 -0.7881218222 -0.1005578916 -0.7883501213 0.011233297 -0.0425423027
805295170.0 0.0128939807 -0.0379284982 -0.1089853308 -0.7872808149 -0.1089570248 -0.7871341443 0.0114842856 -0.0421030134
810295140.0 0.012678267 -0.0379709435 -0.1178375487 -0.7852325358 -0.1176124644 -0.7856590134 0.0103003531 -0.0423910017
815295110.0 0.0119319063 -0.0376255818 -0.1260778246 -0.7843785077 -0.125597837 -0.7845010723 0.0095954535 -0.0422922896
820295080.0 0.0115612019 -0.0376171533 -0.1338250208 -0.7826764255 -0.134038624 -0.782855352 0.0081843668 -0.0410995886
825295050.0 0.0103763593 -0.0380074893 -0.1431426891 -0.7817573876 -0.14301927 -0.7810388341 0.0087480712 -0.0412891869
830295020.0 0.0098790223 -0.0375829411 -0.1514120722 -0.7797432451 -0.1514479511 -0.780054698 0.007332526 -0.0420264836
