!Created with skrf (http://scikit-rf.org).
# Hz S RI R 50.0 
!freq ReS11 ImS11 ReS21 ImS21 ReS12 ImS12 ReS22 ImS22
300000.0 -0.7727492581 -0.1501555842 -0.0002880466 0.0003235895 0.0004401807 9.36652e-05 0.8594339182 -0.0019261752
5299970.0 -0.7851538425 -0.0075412334 0.0001057904 -0.0002718354 -2.93443e-05 -6.41506e-05 0.8585436985 -0.0110434003
10299940.0 -0.7881272959 -0.0043304416 -0.0001538352 -0.0002029327 3.99522e-05 0.0001166345 0.8582605452 -0.0184661736
15299910.0 -0.7933850356 -0.0012159289 4.8025e-06 2.1704e-05 4.81595e-05 -8.90514e-05 0.857057729 -0.0275473989
20299880.0 -0.7995992592 0.0025459135 -2.72732e-05 -9.95077e-05 -0.0001334664 -8.93955e-05 0.8564978079 -0.0365700648
25299850.0 -0.8063824159 0.0084111959 0.0001089051 0.0001652346 -8.59189e-05 -3.5839e-05 0.8556113228 -0.0434040313
30299820.0 -0.8120031374 0.01632362 1.63972e-05 -0.0001942138 5.08564e-05 -1.11042e-05 0.8551036678 -0.052891796
35299790.0 -0.8172807795 0.0251262828 0.0001186748 0.0002895533 -3.084e-07 -0.0001143124 0.8543402553 -0.0604310367
40299760.0 -0.8214337873 0.0345316967 -8.57176e-05 -4.80957e-05 0.000291049 -7.75143e-05 0.8535664093 -0.0692201768
45299730.0 -0.8249006547 0.043913376 1.99442e-05 7.57876e-05 -2.40585e-05 -1.62152e-05 0.8528516378 -0.0771449396
50299700.0 -0.8271938306 0.0542027002 -2.46847e-05 -0.0001121733 2.4432e-05 7.2447e-06 0.8518619835 -0.0854903029
55299670.0 -0.828549017 0.0638055412 -0.0001612126 0.0001251904 0.0001370509 -1.2448e-05 0.8501953067 -0.0932800326
60299640.0 -0.8295713387 0.074435085 -4.80437e-05 -3.49779e-05 0.0001476116 0.0001729083 0.8497266293 -0.1020815811
65299610.0 -0.8308498158 0.0848080546 -0.0001870371 -6.98964e-05 5.8436e-05 -0.0001386516 0.8482644712 -0.1104372537
70299580.0 -0.8315986459 0.094327274 -0.0002137657 4.40208e-05 -5.68384e-05 6.49466e-05 0.8473451447 -0.1192315993
75299550.0 -0.831553903 0.1045795304 3.90628e-05 0.0001510504 -3.94403e-05 0.0001114241 0.8469904118 -0.1267996001
80299520.0 -0.8315966522 0.1145048324 -0.0002329518 -2.40691e-05 5.72128e-05 0.0001432159 0.8449535739 -0.1345986964
85299490.0 -0.8309226031 0.1244394713 8.11547e-05 -0.0001561908 0.0001257223 9.21707e-05 0.8434102494 -0.1428494723
90299460.0 -0.8301946199 0.1341758042 0.0002220474 0.0001966981 -1.87932e-05 5.93275e-05 0.8419235796 -0.1512530612
95299430.0 -0.8292216086 0.1435885279 -0.000208615 -0.0002103163 3.69186e-05 0.0001641592 0.8403512672 -0.1593632516
100299400.0 -0.8278804283 0.1529840394 -0.000139132 -0.0001551311 3.22247e-05 -0.0001348514 0.8386984741 -0.1675289697
105299370.0 -0.8263514275 0.1623290951 -0.0001608131 -8.06318e-05 -0.00014029 -9.16332e-05 0.8367855297 -0.1760889254
110299340.0 -0.8255859729 0.1711923486 4.254e-07 0.0001999234 -9.37516e-05 0.000249317 0.8352621663 -0.1832121297
115299310.0 -0.8236662836 0.1805102384 -0.0002028507 -9.79021e-05 -3.90475e-05 6.62628e-05 0.8332585098 -0.192401004
120299280.0 -0.8223494696 0.1895456786 5.99512e-05 -5.06645e-05 -0.0002193674 0.0001610211 0.8310868294 -0.2003698548
125299250.0 -0.8209068042 0.1989317498 -4.31221e-05 2.559e-05 5.33261e-05 -3.14121e-05 0.829092487 -0.2087087213
130299220.0 -0.8185047294 0.2071246629 -0.0001890896 8.7592e-06 0.0001439368 0.0001404666 0.8270865171 -0.2169599455
135299190.0 -0.8164595293 0.216921685 7.16815e-05 1.6647e-06 -8.9411e-06 0.0001025525 0.8255746699 -0.22455316
140299160.0 -0.8146209164 0.2257052557 3.3723e-05 -0.0001203888 -6.95651e-05 7.2793e-05 0.8228583731 -0.2324705671
145299130.0 -0.812407624 0.234118615 0.0001719149 -0.0001843462 0.0001007589 -3.25682e-05 0.8200865506 -0.2407347381
150299100.0 -0.8101328297 0.2429037609 -9.53666e-05 -0.0001971672 -5.18152e-05 -3.51767e-05 0.8179943857 -0.2488466973
155299070.0 -0.8076375827 0.2523955054 -6.57448e-05 4.01495e-05 0.0002212768 3.567e-07 0.81533337 -0.2561547653
160299040.0 -0.8051430309 0.2609303478 6.12231e-05 -0.0001065835 2.41235e-05 2.05659e-05 0.8129555392 -0.2646964036
165299010.0 -0.8023818076 0.2689875365 0.0002221207 2.45705e-05 -6.91128e-05 -0.0001060498 0.8104528122 -0.2726916218
170298980.0 -0.8000934813 0.2777365014 0.0001281918 -8.39431e-05 4.75527e-05 -6.80394e-05 0.8078026822 -0.2807381004
175298950.0 -0.7967635367 0.2871772509 9.01933e-05 0.0002457747 -0.0002397006 9.79356e-05 0.8044007586 -0.2880394158
180298920.0 -0.7939179768 0.295162652 -8.5254e-06 -1.7321e-05 0.0002109968 -5.1685e-06 0.8020183329 -0.2961246721
185298890.0 -0.7908373435 0.3046630081 0.000143576 7.24498e-05 -0.0001554615 5.83192e-05 0.7988031403 -0.3041725202
190298860.0 -0.7874891116 0.312429256 -0.0001187495 0.0001961722 0.00011767 -8.31608e-05 0.7961075788 -0.3115314298
195298830.0 -0.783460921 0.3210607331 -0.0001026784 5.02415e-05 -0.0001218443 -0.0002209239 0.7928232156 -0.319337328
200298800.0 -0.7808788361 0.329363994 9.6481e-06 -0.0001766297 -2.53542e-05 -0.0002405511 0.7901061059 -0.3278343374
205298770.0 -0.7773035794 0.3377777608 0.0001198082 0.0001852102 8.05494e-05 -8.52062e-05 0.7868426967 -0.3347220501
210298740.0 -0.773757089 0.345830632 4.03631e-05 -2.38521e-05 -3.97491e-05 6.18353e-05 0.7838416238 -0.3428081958
215298710.0 -0.7705459573 0.3545331102 0.0003150031 -5.06228e-05 4.17917e-05 2.60565e-05 0.7801547392 -0.3503515458
220298680.0 -0.7669024151 0.3621600152 -1.53467e-05 3.08521e-05 -0.0001402351 -0.0001130655 0.7764821409 -0.3574975993
225298650.0 -0.7633067695 0.3710966117 -1.37568e-05 -9.80592e-05 -0.0001439586 0.0001056962 0.7729225303 -0.365055278
230298620.0 -0.7587993025 0.3784711067 -0.0002085657 -2.76254e-05 1.09529e-05 4.95921e-05 0.7688431259 -0.3728697874
235298590.0 -0.754462735 0.3874101421 -1.83469e-05 0.0001215911 -3.342e-05 -0.0002053058 0.7662456521 -0.3794104975
240298560.0 -0.7509593358 0.3949494263 1.76559e-05 -2.6329e-06 -6.53094e-05 0.0001527472 0.7619778172 -0.3872382737
245298530.0 -0.7463579781 0.4027796384 7.63732e-05 0.0001017279 -2.96893e-05 6.89862e-05 0.7581446038 -0.394711671
250298500.0 -0.7422719078 0.4109629116 0.0001070442 6.57772e-05 1.54204e-05 9.82138e-05 0.7544462471 -0.4024392478
255298470.0 -0.7379019844 0.4189905777 1.63252e-05 -2.6132e-06 -5.75526e-05 -0.0001345887 0.7510676994 -0.4099740564
260298440.0 -0.7341723258 0.4259822936 7.3892e-05 -1.16794e-05 2.04145e-05 -1.77475e-05 0.7463847283 -0.4171842713
265298410.0 -0.7294233294 0.4339032232 1.8987e-06 5.72215e-05 -0.0002472258 9.12268e-05 0.7432125151 -0.4243237006
270298380.0 -0.7243253167 0.4417705619 -1.10718e-05 -1.22988e-05 -9.84642e-05 -6.31458e-05 0.7392515064 -0.4306924136
275298350.0 -0.7196830348 0.4494680548 -0.00031326 -7.66117e-05 1.79357e-05 9.9523e-06 0.734533191 -0.4373893391
280298320.0 -0.7152537833 0.4568692832 0.0001914709 0.0001321032 -8.1469e-06 5.266e-07 0.7307872885 -0.4450503915
285298290.0 -0.7103361651 0.4645976112 3.05743e-05 0.0001750618 -3.03925e-05 3.0314e-05 0.7265043437 -0.4521408886
290298260.0 -0.7053651496 0.4720309434 5.08571e-05 1.01768e-05 -1.7232e-06 -0.0001762226 0.7222165631 -0.4591417282
295298230.0 -0.700726825 0.4796866208 8.63096e-05 0.0001657506 0.0001974192 0.0001806955 0.7179879305 -0.4657676406
300298200.0 -0.6949688796 0.4865973997 -1.46559e-05 -3.42574e-05 0.0001100834 0.0001310891 0.713726648 -0.4733845816
305298170.0 -0.6900461844 0.4943106056 4.08455e-05 -0.0001061455 -5.95687e-05 -1.43104e-05 0.7095881749 -0.4798775596
310298140.0 -0.6845909278 0.501054449 8.19671e-05 -4.83825e-05 -5.33111e-05 -6.80174e-05 0.7055524008 -0.4866969118
315298110.0 -0.6797683999 0.5082688163 3.00805e-05 -4.4971e-05 -7.46394e-05 0.0001081185 0.7010303876 -0.4944272248
320298080.0 -0.6744616254 0.5159079635 0.0001447324 -3.61646e-05 7.99486e-05 -0.0001542738 0.6963450827 -0.501887738
325298050.0 -0.6683899104 0.5222855881 5.0447e-06 -0.0002136991 6.9566e-06 2.42757e-05 0.6909871686 -0.5093192115
330298020.0 -0.6630268573 0.5293464537 1.61718e-05 0.0001612237 -5.58154e-05 -7.40647e-05 0.6852899652 -0.517130913
335297990.0 -0.6571046403 0.5368085263 -3.7847e-05 7.61173e-05 0.0001098787 2.86169e-05 0.6796201838 -0.5233069916
340297960.0 -0.6520443277 0.5428050221 0.0003523597 -1.08437e-05 8.9006e-06 -0.0001194492 0.6743671752 -0.5304283404
345297930.0 -0.6462011017 0.5490235016 1.1516e-05 -8.98e-08 -7.07216e-05 -0.0001836736 0.668174875 -0.5363500294
350297900.0 -0.6403143642 0.5563637732 4.4196e-06 -0.0002178152 0.0002645925 -7.162e-06 0.6628466475 -0.5414481639
355297870.0 -0.6346499525 0.5629685983 -2.92805e-05 -0.0001406096 9.83355e-05 0.0001351659 0.6571015598 -0.5481239815
360297840.0 -0.6282889603 0.5693959386 7.78928e-05 -7.18444e-05 0.0001004662 -9.0743e-05 0.6521599476 -0.5538712164
365297810.0 -0.6220331744 0.575519618 -6.09838e-05 -0.0004047723 -2.65219e-05 -1.90478e-05 0.6461024419 -0.5604525165
370297780.0 -0.6164073463 0.5813465352 -0.0001110509 4.5104e-05 -5.45073e-05 -2.27407e-05 0.6406280934 -0.5660742537
375297750.0 -0.6100187851 0.588271291 -0.0002015236 2.68121e-05 3.1599e-05 -3.68861e-05 0.6351899747 -0.5722889444
380297720.0 -0.6039752952 0.5950309118 -0.0001209113 -2.20344e-05 -0.000307176 3.41445e-05 0.6296523535 -0.5777220235
385297690.0 -0.5980919264 0.6006172544 0.0002133997 0.000319477 3.6558e-05 -3.55129e-05 0.6236144502 -0.5838659528
390297660.0 -0.5912252503 0.60718774 0.0001245492 -0.0002484084 8.97632e-05 -4.26903e-05 0.6185930581 -0.5896693908
395297630.0 -0.5850879163 0.6131484902 0.0001920907 -2.2123e-05 -0.0001539394 2.33282e-05 0.6124965996 -0.5957143433
400297600.0 -0.5785820993 0.6191474373 0.0001458276 6.11024e-05 2.66305e-05 2.22344e-05 0.606651557 -0.6013974738
405297570.0 -0.5725612988 0.6250774903 0.0002759993 -1.40229e-05 1.50325e-05 0.000132454 0.6012366243 -0.6073500972
410297540.0 -0.5662302207 0.630996142 7.45679e-05 7.40744e-05 -0.0002635405 -4.43462e-05 0.5951675935 -0.6127644873
415297510.0 -0.5592228593 0.6363813999 -7.36342e-05 2.53266e-05 -4.26493e-05 0.0001296167 0.5886994807 -0.6182444888
420297480.0 -0.5517734852 0.6427936541 -2.18857e-05 8.69907e-05 8.53161e-05 4.75332e-05 0.5825908819 -0.6241983642
425297450.0 -0.5459034929 0.6478012704 -0.000111491 -4.67138e-05 0.0001864073 3.3614e-05 0.5767617519 -0.6292791765
430297420.0 -0.5391777463 0.6534687839 -7.77279e-05 0.0002020862 0.000169174 -0.0001943548 0.5706167583 -0.6350113656
435297390.0 -0.5322230752 0.658858251 -9.03379e-05 0.0001226728 0.000161364 -0.0002553562 0.5641960595 -0.6404798291
440297360.0 -0.5257489788 0.6641978031 3.7902e-05 0.0002925912 0.000111333 0.0001723487 0.5578562384 -0.645790612
445297330.0 -0.5189049012 0.6697918856 8.75288e-05 6.2577e-06 6.59381e-05 -0.0001415739 0.551616165 -0.6514812417
450297300.0 -0.5109609401 0.674756574 6.93802e-05 -0.0001576878 4.17343e-05 0.0001048486 0.5448031178 -0.6563676346
455297270.0 -0.5043352348 0.6796899532 -0.0001786547 4.24891e-05 -0.0003112058 6.60227e-05 0.5385957789 -0.6624851659
460297240.0 -0.4974007533 0.6858099344 1.89527e-05 0.0002263044 0.0001980183 9.72956e-05 0.5325238813 -0.6670640084
465297210.0 -0.490451506 0.6899266455 3.72123e-05 -4.47454e-05 -0.0001008805 0.0001190519 0.5253274826 -0.6723725188
470297180.0 -0.4827972064 0.6945480893 1.76578e-05 0.0001422049 9.96075e-05 -0.0002557179 0.5186084401 -0.6773550447
475297150.0 -0.4757478062 0.7003829067 -0.000112878 -0.0001131755 0.0001892576 9.53377e-05 0.5121907267 -0.6820236365
480297120.0 -0.4694936649 0.7050394963 -0.000116276 0.0002166488 3.27132e-05 -0.0001715471 0.5054294949 -0.6866682621
485297090.0 -0.4615112657 0.7095326257 -0.0001361183 0.000161188 -0.0001172924 -7.3356e-06 0.4983653315 -0.691505988
490297060.0 -0.4540253747 0.7137780806 4.91e-07 -0.0002108845 -0.0002173695 -0.0001151273 0.4916407733 -0.6967887566
495297030.0 -0.4469861924 0.7185710582 7.61811e-05 -6.88755e-05 6.30485e-05 0.0002170468 0.4848606234 -0.7012678428
500297000.0 -0.438358085 0.7233585514 3.14513e-05 0.0001245744 -3.01762e-05 -7.34922e-05 0.4776471844 -0.7062599212
505296970.0 -0.4310957308 0.727146399 -0.0002097228 -8.39414e-05 -0.0001209881 -0.0001485498 0.4696521565 -0.7108131064
510296940.0 -0.4243269326 0.7322581546 -8.4018e-05 4.98059e-05 -3.99378e-05 8.73177e-05 0.4631128827 -0.7146741918
515296910.0 -0.4175538186 0.7362485228 -8.6994e-05 -4.84358e-05 6.64967e-05 0.0001066033 0.4558063788 -0.7189758449
520296880.0 -0.4088598772 0.7404460438 9.2415e-05 -7.19247e-05 -9.77005e-05 -8.847e-07 0.4494689253 -0.7241100571
525296850.0 -0.4016688671 0.7446777656 0.0001645099 -9.1139e-05 -2.0762e-06 -5.94686e-05 0.4422824886 -0.7279784756
530296820.0 -0.3941692086 0.7478090247 -6.2649e-05 -3.40296e-05 2.14017e-05 -8.6018e-06 0.4345451626 -0.7328067694
535296790.0 -0.3861079269 0.7521553341 -1.90123e-05 0.0003337436 -0.0001048971 -0.0001799233 0.4271207168 -0.7375530094
540296760.0 -0.3784169429 0.7561065801 4.18158e-05 3.91899e-05 -4.44157e-05 0.0001109007 0.4197096114 -0.7404395889
545296730.0 -0.370802556 0.759737334 5.48381e-05 -5.8486e-05 -9.6162e-06 -8.76816e-05 0.4122574559 -0.7450132715
550296700.0 -0.3631537873 0.7638632709 -2.99813e-05 -6.55198e-05 -0.0001387915 7.25838e-05 0.404875841 -0.7492693259
555296670.0 -0.3549790434 0.766801193 6.22271e-05 4.662e-05 6.47333e-05 -1.15289e-05 0.3970349343 -0.7526516677
560296640.0 -0.3472136329 0.7703859057 1.29261e-05 2.2165e-05 -6.65128e-05 -9.89425e-05 0.3896749021 -0.7567700428
565296610.0 -0.3396286226 0.7740051193 8.60305e-05 0.0001254155 -6.52578e-05 -0.0001027285 0.3822377382 -0.7603248368
570296580.0 -0.3320881436 0.7772122064 0.0002197232 -0.0001396956 -5.03948e-05 1.19e-08 0.3743485395 -0.7638547045
575296550.0 -0.3234421424 0.7808542148 -0.0001700528 6.00078e-05 -1.00206e-05 0.0001501876 0.3666672143 -0.7680620942
580296520.0 -0.3155437627 0.7844189077 -6.95077e-05 1.1275e-06 2.18146e-05 0.0001000101 0.3587639394 -0.7714157718
585296490.0 -0.3075389697 0.7864715524 0.0003922123 -1.4045e-05 6.51223e-05 2.53288e-05 0.3511331394 -0.7751002331
590296460.0 -0.2996322289 0.7901065869 3.13737e-05 0.0002080086 -4.99701e-05 0.0001906581 0.343671841 -0.7774980695
595296430.0 -0.2907919534 0.7934155648 -0.0002451431 -9.34897e-05 -0.0001926082 -0.000129832 0.3356049151 -0.7812398359
600296400.0 -0.2830622034 0.7960666913 9.57746e-05 -7.53454e-05 0.0002743273 5.80342e-05 0.3282107777 -0.7840848556
605296370.0 -0.2748152059 0.7988169367 1.98348e-05 -1.28159e-05 -1.59128e-05 0.0001141814 0.3195738147 -0.7874443007
610296340.0 -0.2674841141 0.8017706059 0.0002380009 -0.0001334613 0.0002726892 -0.0001508652 0.3113614834 -0.7897661525
615296310.0 -0.2592946818 0.8043801647 -2.48862e-05 0.0001489299 -0.0001512461 -0.0002064277 0.3041636759 -0.793522963
620296280.0 -0.2510578007 0.806111457 -0.0003377354 6.40509e-05 -0.000157628 -1.92968e-05 0.2966516479 -0.7964123498
625296250.0 -0.242739017 0.80882465 0.0001638315 2.4295e-05 3.44848e-05 -5.48582e-05 0.2878342153 -0.798388651
630296220.0 -0.2338499614 0.8112411233 -1.86748e-05 3.34265e-05 5.08993e-05 -4.5241e-05 0.2794745791 -0.8013643956
635296190.0 -0.2264174693 0.8143399606 -7.22605e-05 -5.04255e-05 -0.0001095865 5.2515e-06 0.2720865509 -0.8039736954
640296160.0 -0.2175509226 0.8151663875 -7.29068e-05 0.0001434101 9.76193e-05 0.0002081415 0.2639277927 -0.8068944013
645296130.0 -0.2095821995 0.8181840132 -0.0001880791 3.7452e-06 -8.7387e-06 -3.94965e-05 0.2557432168 -0.8088033625
650296100.0 -0.2016952194 0.8206263781 7.17875e-05 -8.95818e-05 -0.0001628494 7.04449e-05 0.2476438106 -0.8115614549
655296070.0 -0.193162626 0.8220348172 -0.0001141493 -2.8183e-06 -9.21667e-05 0.0001372818 0.2391088112 -0.8135178652
660296040.0 -0.1850426279 0.8246460691 0.0001113784 1.04407e-05 -0.0002103964 -8.87474e-05 0.2313879097 -0.8159228291
665296010.0 -0.1764977971 0.82595726 -0.0001074514 2.36525e-05 -0.0001750254 -0.000105184 0.2235379375 -0.8176429559
670295980.0 -0.1676675627 0.8271743989 -7.01848e-05 0.0001683509 0.0001956752 -0.0001421508 0.2155025329 -0.8201618027
675295950.0 -0.1597652147 0.8283803115 7.52075e-05 -0.0003850156 6.99779e-05 -2.64095e-05 0.207365932 -0.8218748596
680295920.0 -0.1512465196 0.8307437047 -8.0581e-05 -4.31501e-05 -2.5024e-06 6.67422e-05 0.1988766396 -0.8238833533
685295890.0 -0.1427155855 0.831954567 -0.0002955703 -0.0002225823 -2.4389e-06 0.0001666302 0.1907313721 -0.8256480404
690295860.0 -0.1341187898 0.8339113083 0.0002059293 0.0002665419 4.08641e-05 0.0001136579 0.1823705528 -0.8273182028
695295830.0 -0.1261810324 0.8341850066 -0.0001251446 -0.0001068379 -0.0001088106 -2.3405e-06 0.1736980837 -0.8292057511
700295800.0 -0.1178211202 0.8356478084 4.04186e-05 0.0001938399 6.56973e-05 8.53494e-05 0.1656616849 -0.8304643946
705295770.0 -0.1091260812 0.8375136438 3.87761e-05 -8.83591e-05 8.71789e-05 -7.34214e-05 0.1570211338 -0.831689113
710295740.0 -0.1010823163 0.8381653143 1.08878e-05 -9.25939e-05 0.0001722091 -7.41222e-05 0.1481956448 -0.8325690964
715295710.0 -0.0927378672 0.8389146442 7.04926e-05 0.000151238 3.57657e-05 7.3436e-05 0.1407740686 -0.8343615733
720295680.0 -0.0844718337 0.839636273 0.0001154324 -5.66192e-05 3.8669e-06 -7.21838e-05 0.1327778872 -0.8357039465
725295650.0 -0.0744451757 0.8408320172 0.0001312285 2.87225e-05 0.0002567349 -1.57829e-05 0.1240907726 -0.8366224197
730295620.0 -0.067818757 0.841237902 -2.8641e-06 6.08856e-05 -0.0001387331 7.53583e-05 0.1155909747 -0.8382759484
735295590.0 -0.0578832131 0.8418073534 6.056e-06 8.5849e-06 1.49287e-05 -6.70485e-05 0.1072208723 -0.8391891585
740295560.0 -0.0501917701 0.8424390054 3.55453e-05 -0.0001617491 7.4427e-05 0.0001006286 0.0987402298 -0.8402389039
745295530.0 -0.0413283674 0.842550358 0.0001203056 0.0003266631 8.12906e-05 1.24173e-05 0.0899812167 -0.8405360417
750295500.0 -0.0335833622 0.8435075222 -0.0001065133 2.3227e-05 -0.0001540564 -4.3254e-05 0.0822169282 -0.8413624939
755295470.0 -0.0249169111 0.8433589026 1.62704e-05 0.0001136009 -6.757e-07 -2.36995e-05 0.0732619522 -0.8419291241
760295440.0 -0.016020259 0.8434859921 -2.04603e-05 -7.50361e-05 9.15548e-05 0.0001184235 0.0643407834 -0.8431174408
765295410.0 -0.0077874667 0.8434791089 4.51176e-05 -6.88009e-05 -1.67192e-05 -0.0001045008 0.056980345 -0.8421807416
770295380.0 0.0009040049 0.8437833368 6.06051e-05 -0.0001920762 0.0001695739 0.0001819089 0.0488775188 -0.8428901226
775295350.0 0.0085714225 0.8438238203 0.000102781 -2.22313e-05 0.0001238325 2.88698e-05 0.0401805725 -0.8440351851
780295320.0 0.0178235526 0.8430972517 0.0002564061 -2.84139e-05 -9.292e-05 -0.000187995 0.031102561 -0.8437798767
785295290.0 0.0262697861 0.8433006359 2.97879e-05 -8.2673e-05 0.0001126411 -0.0002472844 0.0230910322 -0.8440600535
790295260.0 0.0345255902 0.843105561 1.26697e-05 3.68768e-05 -0.0001922056 -0.0001345514 0.0151065808 -0.8440630177
795295230.0 0.0432088209 0.8430932343 -0.0003088359 -3.18136e-05 3.56583e-05 -0.0001638429 0.0061027046 -0.8441066243
800295200.0 0.0516162155 0.842519533 8.43797e-05 -9.085e-07 -0.0001102119 0.0001679988 -0.0017493325 -0.8441397637
805295170.0 0.0596682248 0.8422672537 0.0001256325 0.000218861 8.08616e-05 6.65897e-05 -0.0106635775 -0.843770423
810295140.0 0.0679961724 0.8410969479 -9.0536e-05 0.0002211452 9.70253e-05 0.0001123006 -0.0193703175 -0.8429147643
815295110.0 0.0772167126 0.840269954 8.36096e-05 9.35906e-05 -2.86176e-05 -1.57512e-05 -0.0277238954 -0.8427735074
820295080.0 0.085083332 0.8388925225 -0.0003196477 0.0002232732 -6.76652e-05 -1.95372e-05 -0.0365281666 -0.8423748206
825295050.0 0.0938796052 0.8385942931 4.63663e-05 -0.0001237028 -0.0001579482 6.46978e-05 -0.0441569601 -0.8417569818
830295020.0 0.1023928821 0.8378154007 2.76343e-05 4.56728e-05 5.27014e-05 -8.52689e-05 -0.0533880249 -0.841873987
835294990.0 0.1101825413 0.8366120493 -0.0001437232 -6.39774e-05 -4.85198e-05 2.92199e-05 -0.0613994583 -0.8408516845
840294960.0 0.1191140843 0.8352352969 0.0002246029 -0.0002636058 7.62877e-05 0.0001064762 -0.0704363103 -0.8389528929
845294930.0 0.1269887406 0.8345107171 8.00037e-05 -3.22776e-05 -0.0002650903 0.0001862349 -0.078027882 -0.8388242875
850294900.0 0.135540837 0.8326303216 3.28422e-05 0.0002437521 6.9052e-06 0.0001423476 -0.086294766 -0.8373620299
