!Created with skrf (http://scikit-rf.org).
# Hz S RI R 50.0 
!freq ReS11 ImS11 ReS21 ImS21 ReS12 ImS12 ReS22 ImS22
300000.0 -0.0468156623 -0.0593322931 -0.0010372136 -0.0001233482 0.000400651 0.0002197873 -0.7680992353 -0.1602965436
5299970.0 -0.0491494767 0.0156479169 -0.0001059999 3.05108e-05 0.0001277255 7.12e-08 -0.7847504175 -0.0083776762
10299940.0 -0.0432175866 0.0335314498 8.2574e-05 6.9872e-06 -0.0003087666 0.0001928591 -0.7881726964 -0.005071327
15299910.0 -0.03497904 0.0480614571 -0.000182367 -1.67237e-05 0.0001042788 -0.0001436564 -0.79331219 -0.0031187748
20299880.0 -0.0246380092 0.0597750379 0.0001503276 5.70677e-05 0.000101943 -5.68572e-05 -0.8004183509 0.0016046868
25299850.0 -0.0133463248 0.0691897797 3.29099e-05 -0.000165538 7.3661e-06 2.44997e-05 -0.8064629592 0.0074649212
30299820.0 -0.0014341626 0.07549284 -0.0001373035 -5.64782e-05 -3.53147e-05 0.0001915636 -0.8126162449 0.0152854305
35299790.0 0.0103648881 0.0805049052 0.0001928745 -0.0001107183 4.23861e-05 -3.15244e-05 -0.8175404954 0.0238883999
40299760.0 0.0218971165 0.0830386357 9.64209e-05 5.26022e-05 -0.0001516283 4.70971e-05 -0.821435913 0.0335158436
45299730.0 0.0325182456 0.0847557391 -0.0001740529 -2.03475e-05 -6.35458e-05 0.000115286 -0.8250200007 0.0424786222
50299700.0 0.0430744855 0.0843568157 8.75218e-05 -4.41037e-05 4.42444e-05 1.4873e-06 -0.8276814065 0.0523158832
55299670.0 0.0521858775 0.0833515361 0.0001283895 -0.0001663681 -0.0001504068 -6.76714e-05 -0.8298293326 0.0627949551
60299640.0 0.0608190902 0.081358192 9.7438e-05 4.74962e-05 3.8459e-06 5.2624e-05 -0.8313124139 0.0731058457
65299610.0 0.068559644 0.0788190856 -1.98002e-05 0.0001813114 0.0001123586 0.0001585644 -0.8312247189 0.0825769373
70299580.0 0.0756537701 0.0757225749 1.00135e-05 0.0001497289 0.000177398 7.76314e-05 -0.8320663291 0.0926604771
75299550.0 0.0821118484 0.0720999713 0.0001249863 4.74686e-05 3.93886e-05 0.0001843229 -0.8320435233 0.1023519515
80299520.0 0.0874752203 0.06863631 -9.93334e-05 5.56342e-05 -2.71664e-05 0.0001814381 -0.8317662049 0.1126889118
85299490.0 0.0929697405 0.0646777407 8.7455e-05 -3.53659e-05 -0.0001999936 -6.11781e-05 -0.8315910247 0.1219656893
90299460.0 0.0972022573 0.0610268721 8.06304e-05 3.57491e-05 -7.90234e-05 -1.87758e-05 -0.8306499222 0.1313543432
95299430.0 0.1014664309 0.0569022912 3.65892e-05 -0.0001176731 -7.48418e-05 4.57638e-05 -0.8298373719 0.1414258143
100299400.0 0.1049800116 0.0531402368 0.0001099514 -8.53057e-05 -0.0001443778 9.88694e-05 -0.8287346267 0.149693827
105299370.0 0.108081778 0.0487018124 0.0002881852 -0.0001128986 -7.80978e-05 1.83512e-05 -0.8277490433 0.1589232454
110299340.0 0.1110978331 0.044514246 1.22904e-05 -3.26532e-05 4.3788e-05 -6.86123e-05 -0.8264346411 0.1684213413
115299310.0 0.1134610333 0.0401055559 0.0002063879 5.55382e-05 3.15307e-05 4.64551e-05 -0.8247772625 0.1768234756
120299280.0 0.1157969384 0.0366577715 -1.56685e-05 -5.40036e-05 7.2213e-06 3.13404e-05 -0.8234345961 0.1856906588
125299250.0 0.1173740271 0.0323464863 -5.7435e-06 -7.65319e-05 -0.0001092397 5.04921e-05 -0.8215866816 0.1952303434
130299220.0 0.1193729589 0.0291584142 -7.966e-07 0.0001232649 -0.0002248115 -9.119e-06 -0.8200294469 0.204359819
135299190.0 0.1206730812 0.0250035248 -5.82604e-05 0.0001509831 9.43706e-05 1.7949e-05 -0.8183691143 0.2127973872
140299160.0 0.1218469044 0.0214625569 5.64178e-05 8.78034e-05 4.3673e-06 -6.97465e-05 -0.8158159724 0.2216193489
145299130.0 0.1229529808 0.0178715435 -9.48171e-05 -6.68055e-05 -4.07974e-05 0.0001233711 -0.8135645631 0.2297324016
150299100.0 0.1239591911 0.0142798866 -0.0001097183 0.0001806152 -5.73326e-05 0.000327791 -0.8115521545 0.2384904723
155299070.0 0.1245828314 0.0107515966 5.6871e-06 0.0002083429 0.0001961701 -5.43425e-05 -0.8097425322 0.2474634055
160299040.0 0.1250520846 0.0072694579 7.81551e-05 0.000176503 -4.16289e-05 0.0001116705 -0.807603311 0.2568133024
165299010.0 0.1255304553 0.004243587 4.1616e-06 7.71687e-05 1.04089e-05 -7.53617e-05 -0.8039962106 0.2648753952
170298980.0 0.1257944017 0.0010326398 0.0001233769 0.000205844 -1.54377e-05 0.0002410439 -0.8019802493 0.273663589
175298950.0 0.1261654677 -0.0020250651 0.0001916026 7.47408e-05 5.87656e-05 -0.0001394008 -0.7988565069 0.2827177225
180298920.0 0.1261160358 -0.005436906 -0.0001551835 -5.42088e-05 -8.36638e-05 0.0001118756 -0.7954483058 0.2905715913
185298890.0 0.1260463321 -0.0083081768 0.0002811042 -8.72271e-05 0.0001501298 7.29385e-05 -0.7936872813 0.298056415
190298860.0 0.1261122906 -0.0113249094 0.0002272184 0.0002410509 7.77424e-05 2.03814e-05 -0.7899628141 0.3075963422
195298830.0 0.1264156384 -0.0140688097 0.0002029385 0.0002921996 -1.31925e-05 -4.70161e-05 -0.7864946374 0.3154525716
200298800.0 0.1258118843 -0.0168274526 0.00021943 0.0001996902 -8.0834e-06 0.000112233 -0.7833478249 0.3242299768
205298770.0 0.1254105135 -0.0197561767 -5.30819e-05 0.0001259587 9.1802e-06 -0.0001082693 -0.7797520106 0.3322273892
210298740.0 0.125285786 -0.0222313444 3.4772e-05 3.2697e-05 -1.89606e-05 4.62956e-05 -0.7768050471 0.3407705453
215298710.0 0.1247764994 -0.0248977021 9.19409e-05 0.0003484661 5.68484e-05 4.86604e-05 -0.7728878308 0.3487468238
220298680.0 0.1241972718 -0.0275843166 -0.000310123 0.0001932097 0.0001658561 0.0001575639 -0.7693875197 0.3571597761
225298650.0 0.123637925 -0.0300666368 0.0001514588 0.000211636 -5.39708e-05 0.0001126656 -0.765595387 0.3650024221
230298620.0 0.1230869262 -0.0324837086 0.0001726497 0.0002052704 4.40095e-05 0.0001370642 -0.7617321551 0.3726816888
235298590.0 0.1222302375 -0.0349722103 9.01745e-05 -0.0001506001 0.000202584 -2.22683e-05 -0.757779208 0.3804344137
240298560.0 0.1214447941 -0.0371602695 4.18923e-05 2.71797e-05 0.0002121232 3.20546e-05 -0.7543278461 0.3882554738
245298530.0 0.1209473157 -0.0396620071 0.0001179835 -0.0001009805 0.0001004321 0.000231163 -0.749959606 0.3965299421
250298500.0 0.1202974204 -0.0418565489 0.0001298723 -0.0001176786 0.0002078385 0.0001515393 -0.7459648447 0.4045684257
255298470.0 0.1192228201 -0.0441131196 0.0001622476 2.73412e-05 0.0001425393 -2.95864e-05 -0.7412757877 0.4123512051
260298440.0 0.118904993 -0.046047365 0.0001621158 0.0001220031 2.55108e-05 -8.53e-06 -0.7367967927 0.4196076393
265298410.0 0.1176306396 -0.0481307471 0.0002243087 4.79527e-05 -1.50853e-05 3.09018e-05 -0.7324049288 0.4273808872
270298380.0 0.1170130892 -0.0500449638 -0.0001482973 -3.16881e-05 -0.0001165381 -5.55339e-05 -0.7276425198 0.4354411795
275298350.0 0.1159581579 -0.0522595187 5.44585e-05 5.7621e-06 0.0002008177 0.000153593 -0.7227251756 0.4432401614
280298320.0 0.1151822579 -0.0543509068 0.0001091991 0.000132454 8.19171e-05 0.0001137306 -0.719009037 0.450334495
285298290.0 0.1140388166 -0.0560686079 4.94154e-05 -8.6148e-06 0.0001613487 1.03185e-05 -0.7131933357 0.4577132553
290298260.0 0.1130801967 -0.0583624291 0.000161193 9.024e-06 -3.83189e-05 2.69166e-05 -0.7087544529 0.4661499222
295298230.0 0.1121752562 -0.0604000724 6.3832e-06 1.59913e-05 8.16304e-05 0.0001051878 -0.7037723108 0.4728088652
300298200.0 0.1113508764 -0.0622068169 0.0001163013 7.13037e-05 -2.86992e-05 2.22283e-05 -0.6986560851 0.4803301896
305298170.0 0.1105586088 -0.0641840351 7.43557e-05 -0.0001845803 0.0002011771 0.0001510138 -0.6935458819 0.4872301292
310298140.0 0.1093129292 -0.0664120305 1.25287e-05 -6.20977e-05 0.00025116 4.78137e-05 -0.6888868796 0.4954627548
315298110.0 0.107794396 -0.068282183 3.05684e-05 4.16134e-05 8.80576e-05 0.0001132654 -0.6834973941 0.5022250916
320298080.0 0.1065761069 -0.0701403612 8.43786e-05 0.0001133126 7.65859e-05 9.43284e-05 -0.6778016669 0.5096692152
325298050.0 0.1052535454 -0.0720225215 0.0001758522 -0.0001117158 0.0002156844 3.64534e-05 -0.6721904005 0.5158755666
330298020.0 0.1035866092 -0.0733352824 0.000127796 5.37039e-05 0.0002135203 -6.76532e-05 -0.6668504823 0.5230400941
335297990.0 0.1020761747 -0.0749621158 0.000126111 -6.16956e-05 3.51852e-05 -7.1848e-05 -0.6611148704 0.5303496371
340297960.0 0.1006375602 -0.0764430127 -2.13226e-05 0.0001711295 0.0002369148 3.33994e-05 -0.655628938 0.5371482626
345297930.0 0.0991124823 -0.0781202866 6.2323e-05 -1.41803e-05 0.0001897954 2.16786e-05 -0.6496071958 0.5439017576
350297900.0 0.0982799134 -0.0793715013 0.0003125323 3.26021e-05 -3.3189e-06 2.14542e-05 -0.6438552012 0.5508090484
355297870.0 0.0964389333 -0.0807510237 2.34205e-05 0.0001409954 8.59435e-05 0.000187762 -0.6378996895 0.5572041536
360297840.0 0.0951479748 -0.082229255 -7.0328e-06 0.000195394 -8.2627e-06 -0.0002471626 -0.6319063423 0.5636269034
365297810.0 0.0936878651 -0.0834817069 6.98714e-05 -0.0002078218 9.86114e-05 0.0002426566 -0.6259759404 0.5710909388
370297780.0 0.0923773734 -0.0850223731 2.637e-05 0.0002155276 0.000187939 -5.37381e-05 -0.6202188903 0.5767283066
375297750.0 0.0909788767 -0.0859816884 -3.00483e-05 -0.0001043378 0.0001368854 1.61686e-05 -0.6142530143 0.5829444487
380297720.0 0.0901540637 -0.0872147553 0.0001975554 1.34507e-05 0.0001323082 4.72203e-05 -0.6080698667 0.5904783521
385297690.0 0.0880307149 -0.0885426691 6.50494e-05 0.0001731657 4.70127e-05 2.44026e-05 -0.6022183877 0.5961168369
390297660.0 0.0868874154 -0.0899307967 0.0001857314 4.74559e-05 -6.4615e-06 0.0001707683 -0.5951713599 0.6018172705
395297630.0 0.0853786298 -0.0911141507 3.2856e-06 0.0001487726 5.02869e-05 -6.18533e-05 -0.5889318425 0.6081202929
400297600.0 0.0839005123 -0.0921414031 8.10984e-05 6.41495e-05 6.7917e-06 2.5553e-05 -0.5829952801 0.6144487648
405297570.0 0.0823600174 -0.0933107651 0.0001499126 -4.7914e-06 0.0001487856 0.0001769307 -0.5770667687 0.6203331752
410297540.0 0.0810592793 -0.0944433264 0.0002786386 -0.0001376436 0.000107074 2.91445e-05 -0.5700514324 0.625758468
415297510.0 0.0796489786 -0.0956001623 9.71235e-05 2.6114e-05 0.0001221873 -1.2673e-06 -0.5639339963 0.6318993567
420297480.0 0.0779235318 -0.0969008723 3.00866e-05 -1.8482e-06 0.0002120917 -0.0001490514 -0.5569174048 0.6369435512
425297450.0 0.0767309263 -0.0977236313 -3.68197e-05 -0.0001297604 -0.0001537118 2.87964e-05 -0.5500305559 0.6431429344
430297420.0 0.0748619304 -0.098614007 -0.0001137687 -3.962e-07 0.0001548227 2.92473e-05 -0.5439019802 0.6486819745
435297390.0 0.0736122369 -0.0998311024 -8.7293e-06 0.0001751556 0.0001664183 -0.0002976709 -0.5366570157 0.6537662731
440297360.0 0.0720390383 -0.1006404952 9.02475e-05 9.05022e-05 3.37382e-05 -0.0001279896 -0.5297392583 0.6589539221
445297330.0 0.0703524364 -0.1015222298 -2.91509e-05 -0.0001699873 9.81237e-05 8.7702e-06 -0.5237280162 0.6642826019
450297300.0 0.0688723133 -0.1028090141 0.0003793307 0.0001816398 3.18292e-05 2.56711e-05 -0.5168344412 0.6694580185
455297270.0 0.0672706772 -0.1032876858 0.000281841 -6.10749e-05 9.9578e-05 -2.9799e-05 -0.5094594981 0.6752067725
460297240.0 0.0656862303 -0.1044042189 0.000263812 6.97431e-05 -4.03788e-05 -7.66754e-05 -0.5027248463 0.6806311331
465297210.0 0.0642037492 -0.104902959 2.42271e-05 0.0001197739 0.0001697112 1.72179e-05 -0.4964212885 0.6850498029
470297180.0 0.0623994787 -0.1055159488 0.0001959674 0.0002514216 6.96428e-05 -1.05373e-05 -0.4892906406 0.6899121706
475297150.0 0.0610373454 -0.1066395859 0.0001980632 -4.2576e-05 0.0001820622 5.32319e-05 -0.4817608207 0.6948247092
480297120.0 0.0591844023 -0.1074020336 9.18819e-05 0.0002869264 -4.15455e-05 -7.0315e-06 -0.4752991946 0.7004972587
485297090.0 0.057808073 -0.1081555369 5.30788e-05 -0.0002035109 0.0001923165 -4.11609e-05 -0.4678286746 0.7041429116
490297060.0 0.0562100811 -0.1088265489 0.0003787755 3.38583e-05 0.0001990294 -0.0001540379 -0.4608849717 0.7086978564
495297030.0 0.0545539652 -0.10943551 6.49528e-05 -9.23201e-05 0.0001891517 0.000137046 -0.4534697096 0.712866022
500297000.0 0.0527155208 -0.1104294078 0.0001684007 2.70019e-05 0.00016945 3.36068e-05 -0.4460977061 0.7173422121
505296970.0 0.0509368309 -0.1108247328 8.28282e-05 0.000239936 8.26151e-05 -4.87234e-05 -0.4400512312 0.7216226082
510296940.0 0.0496653278 -0.1110981829 0.0002430609 8.02001e-05 6.87758e-05 6.13815e-05 -0.4316791963 0.7266450506
515296910.0 0.0477546284 -0.111838978 0.0002896464 -7.6271e-06 7.49912e-05 6.00316e-05 -0.4240950319 0.7311478816
520296880.0 0.0463022098 -0.1126052197 0.0002298742 0.0001664675 0.0001621365 -0.0001083502 -0.4170878036 0.7347020715
525296850.0 0.0446295694 -0.1130864156 4.83914e-05 -0.0001179821 -0.0001133202 -0.0001808878 -0.4094737775 0.7393664558
530296820.0 0.0427622052 -0.1134396485 0.0001735593 -0.0001735561 0.0002033097 7.28114e-05 -0.4029456314 0.7432155003
535296790.0 0.0415406054 -0.1141863932 0.0001283559 -0.0001277419 -4.36547e-05 -0.0001626787 -0.3952177187 0.7463022064
540296760.0 0.0393380218 -0.1147589331 -4.26176e-05 0.0001080466 -4.4456e-06 0.0002529933 -0.387740172 0.7505133126
545296730.0 0.0380944257 -0.1148686263 0.0001610143 2.99394e-05 9.34363e-05 -0.0001246276 -0.380212266 0.7541082791
550296700.0 0.0360153007 -0.1150955409 0.000163928 -6.398e-05 0.0002486433 -2.586e-07 -0.3729339147 0.7579569519
555296670.0 0.0344953759 -0.1154643276 0.0001985688 0.0001658115 -3.90569e-05 0.0001194901 -0.3652439294 0.7618960697
560296640.0 0.0328918889 -0.1162217894 0.0001963325 -3.39183e-05 0.0001376439 -1.21522e-05 -0.3569549859 0.7652070941
565296610.0 0.0310152293 -0.1161953609 0.0001817305 0.0001214335 0.0001021385 0.0003239084 -0.350028502 0.7688418948
570296580.0 0.0295253637 -0.116795432 -0.0001377434 7.19265e-05 6.6166e-06 0.0001173866 -0.3428801027 0.7726515943
575296550.0 0.0281084676 -0.1169785794 0.0001731021 1.1965e-06 -0.0001402885 3.25782e-05 -0.3341047423 0.7757542817
580296520.0 0.0263605043 -0.1173671098 8.30814e-05 0.0001183217 -0.0001427758 -6.19769e-05 -0.326813647 0.7788375149
585296490.0 0.0243543269 -0.1176895688 0.0002770301 -0.0002650997 9.47264e-05 5.00812e-05 -0.318759793 0.7816305372
590296460.0 0.022507378 -0.1177022116 0.0001023241 -6.32007e-05 8.07411e-05 -7.98238e-05 -0.3113819598 0.784877954
595296430.0 0.0211078284 -0.1178349779 0.0001517784 -1.07335e-05 5.27988e-05 -1.67362e-05 -0.3034163726 0.7875186542
600296400.0 0.0195506053 -0.1180158235 0.0004978875 8.78835e-05 7.3011e-06 -4.82217e-05 -0.2955694469 0.7909639998
605296370.0 0.0179585027 -0.1180299922 0.0003871498 0.0001154525 9.64171e-05 -2.68291e-05 -0.2885040634 0.7946101086
610296340.0 0.0160930366 -0.1184479926 0.0001744823 9.43676e-05 6.5744e-06 0.0001105881 -0.2800147025 0.7975374887
615296310.0 0.0145523477 -0.1181901435 0.0001653578 1.22088e-05 0.0002779986 -3.708e-05 -0.2723180804 0.7992691154
620296280.0 0.0126051557 -0.1183948478 7.65452e-05 -8.31728e-05 0.0003250086 -5.07777e-05 -0.2640135644 0.801930078
625296250.0 0.0107284309 -0.1184678107 -8.04292e-05 5.13511e-05 0.0001922946 4.11318e-05 -0.2562853593 0.8043890485
630296220.0 0.0090747704 -0.1184400418 0.0002077108 4.8713e-06 0.0002654231 2.22396e-05 -0.2486455789 0.8071545062
635296190.0 0.0076509758 -0.1186696811 0.0002027622 -6.89302e-05 2.2984e-05 -7.23308e-05 -0.2405759774 0.8090955838
640296160.0 0.0059219218 -0.1187238726 -4.07026e-05 -1.15609e-05 0.0002268667 3.38047e-05 -0.2318653663 0.8118499396
645296130.0 0.0038725425 -0.118633496 7.35937e-05 -6.15898e-05 7.16162e-05 0.0001043812 -0.224700671 0.8141915035
650296100.0 0.0024722277 -0.1179681244 0.0002331844 0.0001286435 0.0002309105 -9.0905e-05 -0.2165462085 0.8167417053
655296070.0 0.0010457466 -0.1181681334 2.8785e-05 -5.57592e-05 0.0001148025 -4.0558e-06 -0.2081492174 0.8178522915
660296040.0 -0.0012042666 -0.1178305221 0.0001231935 -0.0001060427 0.0001807156 -6.27097e-05 -0.1997234934 0.8203493958
665296010.0 -0.0026536591 -0.1179517403 0.0002344369 5.01439e-05 8.8442e-05 8.16653e-05 -0.1925418774 0.8223563414
670295980.0 -0.0041689901 -0.11807033 0.0001077348 -4.1088e-05 0.0001202348 -0.0002748933 -0.1847086039 0.8236235007
675295950.0 -0.0057819413 -0.1177472992 0.0001070143 -3.93998e-05 0.0003280808 -1.7224e-05 -0.1757649325 0.8260742778
680295920.0 -0.0075506193 -0.1171465181 0.0001537069 8.89106e-05 5.19073e-05 -2.92374e-05 -0.1674485601 0.827540551
685295890.0 -0.0092281694 -0.1170122481 7.32799e-05 -6.64874e-05 9.92649e-05 -0.0001751214 -0.1598093591 0.8291731602
690295860.0 -0.0106909673 -0.1168472938 3.03454e-05 -3.57645e-05 0.0001537233 -4.2504e-06 -0.1512988412 0.8304211346
695295830.0 -0.0125156381 -0.1166260361 5.87537e-05 -0.0001948357 3.38086e-05 -0.0001199075 -0.1430847682 0.832252537
700295800.0 -0.0139983434 -0.1161032044 -8.20003e-05 -7.92083e-05 4.51492e-05 3.58434e-05 -0.1347854499 0.8330612395
705295770.0 -0.0158038794 -0.1160975269 -0.0001726605 -4.23658e-05 0.0002169891 -0.0001418131 -0.1269156329 0.8351540997
710295740.0 -0.0173561685 -0.1157043617 0.0002712787 3.04599e-05 -0.0001397323 9.90074e-05 -0.1189513081 0.8358824854
715295710.0 -0.0191940843 -0.1151269662 0.000134043 3.46303e-05 0.0001160323 -7.52631e-05 -0.1103708015 0.8370109916
720295680.0 -0.020721195 -0.1148525856 -6.76586e-05 -0.0001165328 5.43888e-05 9.75562e-05 -0.1018927319 0.8384723503
725295650.0 -0.0223370476 -0.114244314 0.0003049418 -5.99631e-05 0.0001208461 -6.36889e-05 -0.0937853714 0.8398304525
730295620.0 -0.0240082337 -0.1142481956 0.0001627123 -0.0001901088 0.0001404393 -7.7696e-05 -0.0853982202 0.8401923779
735295590.0 -0.0252871717 -0.1136539115 0.0002436739 6.86146e-05 0.0001502303 -0.0001652722 -0.0765750557 0.840822576
740295560.0 -0.0268055932 -0.1128550492 9.16868e-05 -9.65734e-05 0.0002158924 6.6234e-05 -0.0686033587 0.8413223775
745295530.0 -0.0289707894 -0.1127123848 0.0001624727 3.21921e-05 0.0001630888 0.0001460518 -0.060427509 0.8423506876
750295500.0 -0.0304669015 -0.1119779714 0.0002277123 1.09405e-05 0.0002046832 -0.0001637309 -0.0522207299 0.8423442058
755295470.0 -0.0315521723 -0.1114580282 -6.42675e-05 -7.92205e-05 0.0002114843 -4.59439e-05 -0.0439421247 0.8436112068
760295440.0 -0.0337064728 -0.1108311645 0.0001438517 0.0001317759 8.60428e-05 -0.0001060178 -0.0360901734 0.8438873516
765295410.0 -0.0354013854 -0.1104457678 0.0003305949 -0.0001712499 3.83935e-05 -4.86243e-05 -0.0268111359 0.8443547218
770295380.0 -0.0366610338 -0.1098705611 0.0001021787 -0.0001978824 0.000262405 0.0002350857 -0.0182318312 0.8440402478
775295350.0 -0.0384376143 -0.1088545021 0.000160667 0.0001562795 0.0001589569 6.77319e-05 -0.0109332184 0.8437615863
780295320.0 -0.0397592984 -0.1085010935 0.0004223648 0.0001724286 0.0002592864 -0.0002978708 -0.0024818008 0.8444596612
785295290.0 -0.0413295889 -0.1077121554 7.15436e-05 -6.80736e-05 -3.93757e-05 -0.0001290087 0.0053030462 0.8444816274
790295260.0 -0.0429121843 -0.1068015122 6.53988e-05 -0.0001906612 0.0001145227 -0.000172187 0.014400878 0.8439880946
795295230.0 -0.0442199392 -0.1061243911 8.19873e-05 -3.09191e-05 0.0002088846 -4.90628e-05 0.0224626686 0.8442692089
800295200.0 -0.04550911 -0.105348374 0.0003388325 2.93839e-05 0.0002114415 0.0001444703 0.031045528 0.8438700142
805295170.0 -0.0473101141 -0.1049122921 0.0003104819 0.0001007636 0.0001451277 -0.0001371785 0.0389525136 0.8429152811
810295140.0 -0.0487463322 -0.1040776392 3.9193e-05 0.0001706423 0.0002247849 -8.2537e-06 0.0472829716 0.8438827975
815295110.0 -0.0502514041 -0.1030939754 8.70538e-05 0.0001466125 0.0002290609 -0.0001017213 0.0557437916 0.8426101172
820295080.0 -0.0518761908 -0.1026170628 0.0001855221 -0.0001223425 0.0003031853 6.55766e-05 0.0638003104 0.8418298943
825295050.0 -0.0531154081 -0.1013789491 9.95303e-05 -9.88468e-05 -9.34347e-05 -0.0002216803 0.0725496774 0.8415924606
830295020.0 -0.0543273249 -0.1006428172 0.0002822756 -0.0002531365 0.0002051113 1.38449e-05 0.0799759778 0.8404445183
835294990.0 -0.056178017 -0.0996057983 3.56635e-05 -6.70089e-05 4.7673e-05 -4.12444e-05 0.0888880614 0.8396967376
840294960.0 -0.0573833475 -0.0990732473 0.0002631845 0.0001783989 3.04575e-05 -1.04404e-05 0.0967374775 0.8388148567
845294930.0 -0.0588618838 -0.0980377246 0.0001968547 6.90374e-05 0.0001373155 -9.3491e-05 0.1049463086 0.8376774034
850294900.0 -0.0602132052 -0.0969830582 0.0001404291 -6.43217e-05 8.0734e-05 6.56e-08 0.112548709 0.8366470927
