!Created with skrf (http://scikit-rf.org).
# Hz S RI R 50.0 
!freq ReS11 ImS11 ReS21 ImS21 ReS12 ImS12 ReS22 ImS22
300000.0 -0.2410687873 -0.0896116492 0.4716847868 0.0603028337 0.470973813 0.0573624356 -0.2390055285 -0.0999130356
5299970.0 -0.2450239146 0.0067176167 0.4747496687 0.0047128788 0.4749552716 0.0050007244 -0.2408418926 0.0071819895
10299940.0 -0.2416294201 0.0177686225 0.4765865995 0.0061651682 0.476744682 0.0063533189 -0.2373674443 0.0204659321
15299910.0 -0.2374155387 0.0267022274 0.4805255548 0.0078334889 0.4803807744 0.0073481494 -0.2331878566 0.029880067
20299880.0 -0.2328187381 0.0340013986 0.4850522804 0.0081764863 0.4851005157 0.0077260768 -0.2275724489 0.0381115823
25299850.0 -0.2278337094 0.0402137904 0.4901487358 0.0070701904 0.4900863704 0.0072381607 -0.2218514737 0.0446273815
30299820.0 -0.2223904674 0.0451882313 0.4956406659 0.0047085953 0.4954881851 0.004723724 -0.2159976837 0.0501364548
35299790.0 -0.217436764 0.0490654573 0.5010119307 0.0010814583 0.5007439875 0.0013002584 -0.2104789092 0.054444529
40299760.0 -0.2126306752 0.0524116508 0.5059060038 -0.0023316777 0.5061551658 -0.0022812974 -0.2052275747 0.057599808
45299730.0 -0.2077726908 0.0547922682 0.5103027838 -0.0071867882 0.5104873312 -0.0071197023 -0.2003303307 0.060530975
50299700.0 -0.2036378272 0.0568943263 0.5148776613 -0.0127012707 0.5149409745 -0.0128711606 -0.1954556774 0.0625674297
55299670.0 -0.2000741357 0.0586186896 0.5188762775 -0.0189328701 0.5184470441 -0.018547 -0.1913618971 0.0640299732
60299640.0 -0.1959181717 0.0599157927 0.5217036203 -0.0248634959 0.5220377615 -0.0247742852 -0.1872397786 0.0655610923
65299610.0 -0.1930910113 0.0608412359 0.5245283723 -0.0310955599 0.5248784581 -0.0309751338 -0.1839117735 0.0669224508
70299580.0 -0.18976457 0.0621555386 0.5269553067 -0.0379743256 0.5270243867 -0.0378402906 -0.1806792048 0.0678179701
75299550.0 -0.1872142674 0.0630046063 0.5288123908 -0.044562799 0.528991462 -0.0447787785 -0.1778960039 0.0683555197
80299520.0 -0.1844514503 0.0634809854 0.530699063 -0.0516783034 0.5311608762 -0.0515773035 -0.1751143002 0.0691588024
85299490.0 -0.1822607115 0.0642692417 0.5319622445 -0.0580590502 0.5321244289 -0.0580813917 -0.1732117356 0.0697418361
90299460.0 -0.180490286 0.064993373 0.5329803652 -0.0654540524 0.5331922364 -0.0651464455 -0.1702615156 0.070208358
95299430.0 -0.1782079831 0.0654579003 0.5342952667 -0.0725307219 0.5339575999 -0.0722656526 -0.1683285636 0.0712197904
100299400.0 -0.1767552448 0.0664112011 0.5340172243 -0.079205103 0.5343251159 -0.0789865173 -0.1660759542 0.0715122927
105299370.0 -0.1750585964 0.0666307567 0.5346003401 -0.0858995985 0.5347404614 -0.086192044 -0.164094241 0.0726071453
110299340.0 -0.1733962692 0.0675588895 0.5346628159 -0.0926648106 0.5351670524 -0.092674744 -0.1628923692 0.0728679336
115299310.0 -0.1719017747 0.0680343922 0.5345537268 -0.0993207282 0.5344573358 -0.0996905102 -0.1611269185 0.0736654627
120299280.0 -0.1707185809 0.0684161475 0.5345124792 -0.1064230166 0.5344800837 -0.1066047887 -0.1596905267 0.074254036
125299250.0 -0.169462879 0.0693596 0.5337514644 -0.113027596 0.5342688922 -0.1127965993 -0.1586042717 0.0747844332
130299220.0 -0.1687183179 0.0703574021 0.5332359033 -0.1205091073 0.5334637616 -0.1199973824 -0.1569592144 0.07573595
135299190.0 -0.1674580381 0.0712410805 0.5331203814 -0.1266434686 0.5327760268 -0.1264596438 -0.1555587825 0.0765658923
140299160.0 -0.1664935958 0.0719755605 0.5320559341 -0.1329108063 0.531857557 -0.1332244709 -0.1545172667 0.0779782995
145299130.0 -0.1656406706 0.0729357963 0.5311622333 -0.1396692476 0.5311211854 -0.1394773842 -0.1532633271 0.0791631684
150299100.0 -0.1643934305 0.0738362431 0.5295989057 -0.1457732983 0.5299506708 -0.1457135423 -0.1523671964 0.0802283485
155299070.0 -0.1637909707 0.074901305 0.5287548707 -0.1534415936 0.5284841297 -0.1527563721 -0.1512720043 0.0811753302
160299040.0 -0.1627152538 0.076053589 0.5273367622 -0.15947362 0.5266518059 -0.1592317392 -0.1505215653 0.0821343481
165299010.0 -0.1619427799 0.0769252274 0.5258856831 -0.1661132659 0.5260408515 -0.1655412484 -0.1493163161 0.0836478649
170298980.0 -0.1614535047 0.0779174408 0.5239755627 -0.1718959105 0.5245527423 -0.1717823053 -0.1483611342 0.0848416303
175298950.0 -0.1608131238 0.0789219028 0.5232409321 -0.1781964162 0.5224323051 -0.1780655608 -0.1472773276 0.0860498248
180298920.0 -0.1600248247 0.0797973524 0.5210466994 -0.1845412594 0.5208949906 -0.1840383553 -0.1464958436 0.0873395906
185298890.0 -0.1589412246 0.0811929506 0.5192131161 -0.1907434725 0.5183884607 -0.1906917212 -0.1451477374 0.0887628627
190298860.0 -0.1586320089 0.0823846791 0.5172102222 -0.197183461 0.5175472872 -0.1967332925 -0.1447684624 0.0897760395
195298830.0 -0.1576697529 0.083344705 0.5147710024 -0.2028354381 0.5151329042 -0.203111861 -0.143318389 0.0909998734
200298800.0 -0.1567799213 0.0845048818 0.5132500564 -0.2095397228 0.5130027276 -0.2093253955 -0.1431147651 0.092400768
205298770.0 -0.1560906101 0.0857614493 0.5106541488 -0.2154391498 0.5104632659 -0.2149337293 -0.1420243044 0.093285076
210298740.0 -0.1552861351 0.0872146992 0.5086760741 -0.2209977447 0.5085352621 -0.2209387662 -0.140829268 0.0955184761
215298710.0 -0.1551113677 0.088313106 0.506509405 -0.227075816 0.5060340299 -0.2276773352 -0.1400206125 0.0964122445
220298680.0 -0.1539184497 0.089041952 0.5032095356 -0.2326361796 0.5037841349 -0.2325242745 -0.1396858613 0.0974826489
225298650.0 -0.1536075303 0.0907730759 0.5013387531 -0.2390199913 0.5016406181 -0.2384526898 -0.1391424067 0.0986911929
230298620.0 -0.1524881896 0.0922902997 0.4989528751 -0.2441814631 0.4996066667 -0.2444736838 -0.1380931085 0.100242024
235298590.0 -0.1518439301 0.0938620359 0.4963841132 -0.2502683499 0.4962847444 -0.2498421693 -0.1369532297 0.1018542434
240298560.0 -0.1510320529 0.0950045071 0.4936035142 -0.2561972329 0.493153389 -0.2561602722 -0.1357977711 0.1034415712
245298530.0 -0.1505227457 0.0962132623 0.491276326 -0.2618961482 0.4908358761 -0.262089608 -0.1346730385 0.1040406827
250298500.0 -0.1493909435 0.0976314035 0.4871959203 -0.2675684133 0.4872715197 -0.2673691745 -0.1340985273 0.105729193
255298470.0 -0.1485952528 0.0985125996 0.4842253738 -0.2726403428 0.484819841 -0.2726197224 -0.1326165649 0.106720824
260298440.0 -0.1479937585 0.1000312422 0.4816092026 -0.2786907966 0.48213554 -0.2783414518 -0.1317134116 0.1083552894
265298410.0 -0.1467870285 0.1019070382 0.4789273075 -0.2840558557 0.4792348657 -0.2837261057 -0.1307621428 0.1095270333
270298380.0 -0.1459377066 0.1030632112 0.4758567507 -0.2887807612 0.4762542753 -0.2891059229 -0.1293263532 0.1110565621
275298350.0 -0.1449949633 0.104383259 0.472759166 -0.2950453511 0.4727515445 -0.2947745769 -0.128101125 0.1121415105
280298320.0 -0.143854418 0.1058568497 0.4698278018 -0.3004385898 0.469803423 -0.3003009515 -0.1269824438 0.1135143282
285298290.0 -0.142994794 0.1071545396 0.4666558617 -0.3055986447 0.4664474459 -0.3055344517 -0.1256628659 0.114868474
290298260.0 -0.1418136795 0.1083344754 0.4631812138 -0.3106397382 0.4631976909 -0.310552277 -0.1241916059 0.1166997312
295298230.0 -0.1408744236 0.1097560029 0.4597723772 -0.3161037125 0.4596410152 -0.3160135885 -0.1228654369 0.1175433389
300298200.0 -0.1402439157 0.1109440915 0.4566573606 -0.3209559808 0.4564724787 -0.3213852897 -0.1215606375 0.1190876865
305298170.0 -0.1391479333 0.1120386716 0.4525984749 -0.3263940003 0.4526490515 -0.3262859024 -0.1198948109 0.120217293
310298140.0 -0.1380294892 0.1135972058 0.4492725254 -0.3319179803 0.4494326326 -0.3313882981 -0.1189625713 0.121417915
315298110.0 -0.1368590282 0.1145255193 0.4457114543 -0.3365453691 0.4457026576 -0.3365698461 -0.1176978333 0.1224920538
320298080.0 -0.1357468807 0.1159213936 0.4412636448 -0.3424998939 0.4419860086 -0.3418311811 -0.1161364984 0.1240925927
325298050.0 -0.1351466613 0.1170013547 0.4377996461 -0.3469596289 0.4378279064 -0.3468495136 -0.1153529621 0.1253504925
330298020.0 -0.1341475546 0.118378535 0.4337157182 -0.3519694767 0.4342224962 -0.3517464244 -0.1144261498 0.1265472403
335297990.0 -0.1330753649 0.1193711935 0.4299880216 -0.3565424134 0.4295336842 -0.3568750109 -0.1130991941 0.1283175929
340297960.0 -0.1326005666 0.1210303729 0.4255909379 -0.3612601644 0.425276309 -0.361693688 -0.1115650394 0.1298537296
345297930.0 -0.1316665483 0.1226139058 0.4219129109 -0.3661070042 0.4215246324 -0.3661907431 -0.1104720033 0.13079167
350297900.0 -0.130471526 0.123790575 0.4170838209 -0.3708232885 0.4171294233 -0.370852024 -0.1093088723 0.1326612626
355297870.0 -0.1293842639 0.1255642316 0.4134308325 -0.3754618114 0.4137613803 -0.3752071438 -0.1080146106 0.1339690561
360297840.0 -0.1281307314 0.1269158007 0.4097107357 -0.3796435151 0.4098541621 -0.3800257809 -0.1064887501 0.1355146526
365297810.0 -0.1273839443 0.1283475625 0.4049194994 -0.3846849746 0.4055846282 -0.3844784297 -0.1051074817 0.136676603
370297780.0 -0.125647078 0.1292863783 0.4003748358 -0.3888153574 0.4013931364 -0.3885703152 -0.1038599061 0.1383357156
375297750.0 -0.1244891321 0.1307756476 0.3964514277 -0.3935567598 0.397057194 -0.393369289 -0.1021947104 0.1391716308
380297720.0 -0.1235182794 0.1319960565 0.3919474587 -0.3977035882 0.3923825977 -0.3972472252 -0.1012298453 0.1404214345
385297690.0 -0.1225144506 0.1332207912 0.3876839277 -0.4019033829 0.3876394764 -0.4015097597 -0.0999656407 0.1421438965
390297660.0 -0.1211561854 0.1348104893 0.3833796963 -0.4061588878 0.3832621901 -0.4058046158 -0.0981169122 0.1429912845
395297630.0 -0.1198539939 0.1362323221 0.3787612481 -0.4103168467 0.3786527339 -0.4104885095 -0.0961433172 0.1443782176
400297600.0 -0.1186542378 0.1376113382 0.3738347758 -0.414789607 0.3746480341 -0.4145717923 -0.0952448451 0.145795781
405297570.0 -0.117769826 0.1387560753 0.3699291186 -0.418324384 0.3700921091 -0.4184831749 -0.0937695761 0.1470320346
410297540.0 -0.1160366318 0.1402494344 0.365291057 -0.4228187928 0.3656003709 -0.4225387115 -0.09211456 0.1483272889
415297510.0 -0.1146025183 0.1411825171 0.3599221257 -0.4267921581 0.3605602437 -0.4266603992 -0.0902751363 0.1496011457
420297480.0 -0.1134951078 0.1429473975 0.3555009067 -0.4306465216 0.3555425203 -0.4309181886 -0.0892952024 0.1504715497
425297450.0 -0.1120861668 0.1434661072 0.3511557448 -0.43426622 0.3513445655 -0.4345871196 -0.0875975337 0.1516484925
430297420.0 -0.1106417651 0.1447930928 0.3462554088 -0.4377405684 0.346345558 -0.4380448687 -0.0863384283 0.1522539335
435297390.0 -0.1094670823 0.1460585939 0.3413444503 -0.4418782342 0.3411144445 -0.4419268114 -0.083861727 0.1533992302
440297360.0 -0.1080726651 0.1473312872 0.3367627776 -0.4452909468 0.3366322636 -0.4452034373 -0.0825755824 0.1540001425
445297330.0 -0.1067174425 0.1481761974 0.332165593 -0.4490978931 0.331740594 -0.4491938387 -0.0809644571 0.1550941178
450297300.0 -0.1050161652 0.149428765 0.3266535639 -0.4527602511 0.3268746237 -0.4528959865 -0.0791257301 0.1559652837
455297270.0 -0.1037452629 0.1506681227 0.3218422913 -0.4561876158 0.3221664232 -0.456510813 -0.0774004836 0.1571759242
460297240.0 -0.1024403454 0.1516449906 0.3166676991 -0.4595553171 0.3168671836 -0.4597781956 -0.0756467346 0.1581378041
465297210.0 -0.1004184231 0.1529094496 0.3121250736 -0.4632452393 0.311786573 -0.4633803673 -0.0737178144 0.1590198697
470297180.0 -0.09915648 0.1538777924 0.3062241862 -0.4664555438 0.3065933101 -0.4667508339 -0.0718390116 0.1603053312
475297150.0 -0.0977235527 0.1547186659 0.3010985701 -0.4693870412 0.3017636837 -0.4697931698 -0.0695640663 0.1606883508
480297120.0 -0.0965241083 0.156152088 0.2965797197 -0.4730995262 0.296199727 -0.4733046131 -0.0676974668 0.1620577665
485297090.0 -0.094777312 0.157314614 0.2912854479 -0.4758728573 0.2914955928 -0.4759065965 -0.0661386634 0.1627476653
490297060.0 -0.0938280144 0.1582194393 0.2865902682 -0.4794882042 0.286306628 -0.4793824144 -0.0641286177 0.1639266226
495297030.0 -0.092048994 0.1593967768 0.2804975555 -0.4822056426 0.2812982842 -0.4823920334 -0.0625103892 0.1643918078
500297000.0 -0.0904871837 0.1603010343 0.2754848477 -0.4849688586 0.2753133872 -0.4850441651 -0.0604523974 0.1659299991
505296970.0 -0.0886766683 0.1611791312 0.2700858757 -0.4882069319 0.2700391651 -0.4884018037 -0.0589481924 0.1667866274
510296940.0 -0.0873915841 0.1621903283 0.2648548035 -0.4915210344 0.2648163094 -0.4916404995 -0.0568197604 0.1677108248
515296910.0 -0.0856227934 0.1632840167 0.2590990427 -0.4936391242 0.2594986884 -0.4939400176 -0.0551999894 0.1681690209
520296880.0 -0.0843879501 0.1641795128 0.2537347273 -0.4970071904 0.2538119814 -0.4967217685 -0.0532485939 0.1688124376
525296850.0 -0.0824289646 0.1650910539 0.2481676668 -0.4996749793 0.2491195002 -0.4997903048 -0.0514716445 0.1701602307
530296820.0 -0.0809262593 0.1663006196 0.2430424943 -0.5023610409 0.2431891436 -0.5020091193 -0.049588468 0.1706733728
535296790.0 -0.0795449552 0.1670162271 0.2379010174 -0.5047324715 0.2377242744 -0.5044442999 -0.0479173549 0.1710198118
540296760.0 -0.0780142789 0.1678966923 0.2322807522 -0.5076996584 0.232029137 -0.5074471078 -0.0460834578 0.1724929997
545296730.0 -0.076402421 0.1688945532 0.2261916521 -0.5096723677 0.2267997533 -0.5100548207 -0.0443955992 0.1728797909
550296700.0 -0.0740290773 0.1702060152 0.2208728868 -0.5124544587 0.2212751532 -0.5122096657 -0.0425856007 0.1735713654
555296670.0 -0.0731544592 0.1704156553 0.2157029126 -0.5146009282 0.2161696117 -0.5144181979 -0.040460167 0.1744886632
560296640.0 -0.0708915847 0.1720039306 0.209919227 -0.516979529 0.2101221074 -0.5167519754 -0.0386379282 0.1748245512
565296610.0 -0.0697359363 0.1724848756 0.2044768692 -0.5192583329 0.2043369396 -0.5189272286 -0.0369415338 0.1750721388
570296580.0 -0.0681634878 0.173251931 0.1986962042 -0.5219204285 0.1984003256 -0.5215374534 -0.0348610864 0.1762980573
575296550.0 -0.0667122523 0.1741891216 0.1933621405 -0.5235653295 0.1930709046 -0.5236177981 -0.0329505762 0.1764668641
580296520.0 -0.0647325574 0.1748565488 0.1871305919 -0.5255925886 0.1875218782 -0.5255682781 -0.0313070128 0.1767378338
585296490.0 -0.0632779713 0.175308097 0.181713252 -0.5271498232 0.1816848538 -0.5273875541 -0.0289764595 0.1774292969
590296460.0 -0.0612099144 0.1761641919 0.1758064119 -0.5281899008 0.1762389994 -0.5291457731 -0.0277012694 0.1777318374
595296430.0 -0.0592943926 0.1769762039 0.1701685342 -0.5313180361 0.170097019 -0.5310771424 -0.025296464 0.1778023777
600296400.0 -0.0579324422 0.177655525 0.1646169511 -0.5330785373 0.1645441007 -0.5325661165 -0.0236773579 0.1786002532
605296370.0 -0.0563158506 0.1783195364 0.1587467801 -0.5344991494 0.1587044733 -0.5344269563 -0.0213056629 0.1791461309
610296340.0 -0.0543849261 0.1791244597 0.1521978246 -0.5363713025 0.1529851187 -0.5361915212 -0.0192600624 0.1791182904
615296310.0 -0.0523544734 0.1794229362 0.1468224011 -0.5373850795 0.1468625864 -0.5380464052 -0.0169869614 0.1792274881
620296280.0 -0.0507198693 0.1800659504 0.1409800334 -0.5394087364 0.141135929 -0.5388529736 -0.0154333635 0.1799548997
625296250.0 -0.0492747842 0.1803809534 0.1358667038 -0.5408850997 0.1354738024 -0.5410843478 -0.0129934897 0.1799240486
630296220.0 -0.0466873544 0.1813586625 0.1287788488 -0.5423047665 0.1291572732 -0.542037733 -0.0113683778 0.1804628055
635296190.0 -0.0459558866 0.1819455844 0.1235245002 -0.543377538 0.1239051137 -0.5435484915 -0.0090082432 0.1804557865
640296160.0 -0.0439092515 0.1824739629 0.117658455 -0.5446674066 0.1180802146 -0.544860946 -0.0070114674 0.1806421616
645296130.0 -0.0420287352 0.1832011205 0.1114560839 -0.5456879084 0.1119732444 -0.545901558 -0.0048095147 0.1812175461
650296100.0 -0.040298806 0.183610198 0.1054054069 -0.5469628148 0.1061391307 -0.5469483096 -0.002627336 0.1807509366
655296070.0 -0.0390090398 0.1838869474 0.1001723619 -0.5481862699 0.1000239773 -0.548137733 -0.0004663109 0.1812125769
660296040.0 -0.0373559117 0.1841322037 0.0943013319 -0.5488851726 0.094095392 -0.5493264059 0.0015707517 0.1813687439
665296010.0 -0.0348848259 0.1848798304 0.0878207295 -0.5499981417 0.0881400379 -0.5499155133 0.0036731431 0.1819014062
670295980.0 -0.0337674359 0.1856333751 0.0819253779 -0.5506347137 0.0823937069 -0.5506053598 0.0053367009 0.1819205203
675295950.0 -0.0318351483 0.1860804325 0.0763004594 -0.5517840861 0.076254856 -0.5514349343 0.0075241114 0.1821685335
680295920.0 -0.0300093046 0.1866482656 0.0701245163 -0.5522568551 0.0701677834 -0.552736616 0.0093254771 0.1830436905
685295890.0 -0.0278358691 0.187543481 0.0641374709 -0.5535618332 0.0639402443 -0.5536810228 0.0113815563 0.1829087704
690295860.0 -0.0260145211 0.1875232874 0.0585282216 -0.5534126986 0.0582817672 -0.554286367 0.0135645255 0.1832221656
695295830.0 -0.0244666754 0.1873367485 0.0528129534 -0.5542430319 0.0517990142 -0.5546021699 0.0158498692 0.1826918778
700295800.0 -0.0223363591 0.1877044805 0.0462421998 -0.5547088374 0.0457646738 -0.5548300132 0.0173425399 0.1835371716
705295770.0 -0.0208748715 0.188815112 0.0402662911 -0.555339691 0.0406625046 -0.5551618739 0.0193602698 0.1830264453
710295740.0 -0.0187084814 0.189223373 0.0345318716 -0.5563045341 0.0348190453 -0.5560151854 0.0212606273 0.1827810528
715295710.0 -0.0174143435 0.1890609623 0.0288761121 -0.5559898782 0.028205358 -0.5562772112 0.0238125755 0.182867534
720295680.0 -0.0152450388 0.1895841073 0.0225366971 -0.5564142273 0.0228183535 -0.5563684749 0.0255999569 0.1831576382
725295650.0 -0.0133045038 0.189911873 0.0164969354 -0.5566728188 0.0163644244 -0.5569600988 0.0272651887 0.183236318
730295620.0 -0.0113794768 0.1903638562 0.010385742 -0.5566018192 0.0105174472 -0.556814452 0.0291814548 0.182833485
735295590.0 -0.0095339778 0.1906502081 0.0044283554 -0.557162575 0.0044738532 -0.5567625003 0.0307748532 0.1821674659
740295560.0 -0.0078656795 0.190977592 -0.0015519126 -0.556250022 -0.0015758465 -0.5563848262 0.033749642 0.1819609116
745295530.0 -0.0061173946 0.1910313487 -0.0073897752 -0.5561126023 -0.0079554635 -0.556449268 0.0357214416 0.1816505521
750295500.0 -0.0039499349 0.1912810746 -0.013610558 -0.556290575 -0.0134706679 -0.5568147146 0.0373731193 0.1816454135
755295470.0 -0.002126091 0.1911275368 -0.0191873175 -0.5562978854 -0.0196416597 -0.5565667062 0.03948142 0.1811285979
760295440.0 -0.0004764597 0.1914727983 -0.0255743484 -0.5564685985 -0.0258495205 -0.5562754247 0.0415704062 0.1808521527
765295410.0 0.0011313214 0.1915767457 -0.0317275566 -0.5558019978 -0.0320798508 -0.5558321936 0.0434071792 0.1805262152
770295380.0 0.0029862308 0.1917970189 -0.0378582344 -0.5552098381 -0.0373028241 -0.555354528 0.0448762273 0.1800900265
775295350.0 0.0047803926 0.1912797387 -0.0435410116 -0.5542035842 -0.0432366991 -0.5547519831 0.0465942382 0.1797501693
780295320.0 0.0066969756 0.1917685133 -0.0492342383 -0.5538146999 -0.0493410756 -0.554109154 0.0488144738 0.1790226433
785295290.0 0.0086340004 0.1914975681 -0.0559042615 -0.5528467201 -0.0553898421 -0.553566518 0.0515623555 0.1789892258
790295260.0 0.010863635 0.1919168367 -0.0608818686 -0.5529741992 -0.0606190896 -0.5527099299 0.0532363063 0.1783705911
795295230.0 0.0126525521 0.1916219046 -0.0671498739 -0.5519249921 -0.0668886754 -0.5522639297 0.0555761319 0.1779695914
800295200.0 0.0143828213 0.1919229936 -0.0736649563 -0.5508392848 -0.07325261 -0.5513404403 0.0574017849 0.1772938608
805295170.0 0.0160255288 0.1917180913 -0.0789248762 -0.5503157805 -0.0789555517 -0.5506153279 0.0591409111 0.1767526383
810295140.0 0.0180279659 0.1911733782 -0.0848286366 -0.5493061143 -0.085231013 -0.5496500236 0.0617693038 0.1766170643
815295110.0 0.0199242076 0.1913899432 -0.0907909006 -0.5483054056 -0.0906907998 -0.5483892363 0.0634188119 0.1758120293
820295080.0 0.0214021274 0.1921239395 -0.0969421055 -0.5475859666 -0.0962158394 -0.5470423303 0.0655564453 0.1754665548
825295050.0 0.0241715294 0.1913731486 -0.102372902 -0.5463376077 -0.1026265014 -0.5465346132 0.0676514744 0.1747664261
830295020.0 0.0257050158 0.1915203837 -0.1087478883 -0.5450348789 -0.1083050193 -0.5453655471 0.0704483745 0.1743714636
