!Created with skrf (http://scikit-rf.org).
# Hz S RI R 50.0 
!freq ReS11 ImS11 ReS21 ImS21 ReS12 ImS12 ReS22 ImS22
300000.0 -0.2421464477 -0.0912802304 0.4729166591 0.0617683031 0.4707539095 0.0591017567 -0.2385280386 -0.0998969657
5299970.0 -0.245089013 0.0060486513 0.4752508884 0.005221521 0.4749583856 0.005109071 -0.2407834646 0.0073514876
10299940.0 -0.2415579439 0.0176811308 0.4763391287 0.0060751015 0.4768275964 0.0065065267 -0.2374942934 0.0204903047
15299910.0 -0.2377586237 0.0271186002 0.4807862458 0.0073874525 0.4806937352 0.0075109412 -0.233304346 0.0301038073
20299880.0 -0.2328312999 0.0341076637 0.4850152977 0.0082150841 0.485323147 0.0081284272 -0.2278525996 0.0379950781
25299850.0 -0.2276729276 0.0403538553 0.4901672631 0.0070952857 0.4900434736 0.0073565845 -0.2219359927 0.0447413111
30299820.0 -0.2224880912 0.0452644386 0.4957692551 0.0048284856 0.4954550507 0.0049475686 -0.2160754091 0.0500059414
35299790.0 -0.2173293217 0.0490184802 0.5007299627 0.0017667101 0.5008966857 0.0014039791 -0.2107617883 0.0543467039
40299760.0 -0.2124234272 0.0524567987 0.5054463188 -0.0023858575 0.506298617 -0.0021470526 -0.2053540656 0.0575149597
45299730.0 -0.2079839003 0.0546626151 0.5103957566 -0.0067639166 0.5107561427 -0.0067835386 -0.2002967881 0.0604510841
50299700.0 -0.2038062442 0.0568313945 0.5149588399 -0.0124741597 0.5150324648 -0.0122654345 -0.1953548794 0.0624521206
55299670.0 -0.2000613909 0.0583976013 0.5184715346 -0.0188812237 0.5185779906 -0.0181121155 -0.1916064871 0.0645608677
60299640.0 -0.1961887806 0.0601155057 0.5218419432 -0.0249957711 0.5217432764 -0.0244713896 -0.1873448353 0.0654603283
65299610.0 -0.1932547527 0.0611215408 0.5249638931 -0.0311066402 0.5248446962 -0.0309188876 -0.1840607586 0.066589034
70299580.0 -0.189869367 0.0621262362 0.5272753511 -0.0377860192 0.5273780858 -0.0375880605 -0.1808402499 0.0676382992
75299550.0 -0.1872887528 0.0632043007 0.5290954351 -0.0442732505 0.5287170987 -0.044531783 -0.1778577161 0.0681448076
80299520.0 -0.1845847114 0.0637346155 0.5309110479 -0.051781711 0.5312328987 -0.0515976439 -0.1753751062 0.0690891307
85299490.0 -0.1823659335 0.064307637 0.5318880213 -0.0579867905 0.532346391 -0.0579252609 -0.1728683754 0.0695497241
90299460.0 -0.1801475476 0.0646411946 0.5326587496 -0.0651006515 0.5333739802 -0.0652507238 -0.170416582 0.0707398374
95299430.0 -0.1783469404 0.0652714359 0.534127399 -0.072088872 0.5339205373 -0.0725244534 -0.1677597711 0.0711505285
100299400.0 -0.1766605599 0.066402533 0.5339859608 -0.0791518379 0.534021687 -0.0787066872 -0.1658333946 0.0714245211
105299370.0 -0.1748317285 0.0669655773 0.5342753326 -0.0863764329 0.5348688255 -0.0861043592 -0.1641338451 0.0723845845
110299340.0 -0.1734632382 0.0675612915 0.5348905557 -0.0927736772 0.5349967992 -0.0924701164 -0.1629638135 0.0729514643
115299310.0 -0.1719955999 0.0684537036 0.5350007208 -0.0995859525 0.5347800712 -0.0996564359 -0.1611486803 0.0739819089
120299280.0 -0.1708421386 0.0684816495 0.5343055 -0.1063879957 0.5347337769 -0.1065181643 -0.1597354504 0.0745421538
125299250.0 -0.1696087215 0.0689999779 0.5345658116 -0.1125772598 0.5342619002 -0.1126811915 -0.1583569114 0.074641999
130299220.0 -0.168678247 0.0702898596 0.5334753946 -0.1199678427 0.5334840267 -0.119658723 -0.156952271 0.0758281842
135299190.0 -0.167448223 0.0714535181 0.5332477643 -0.1264509429 0.5325935184 -0.1261876527 -0.1557204895 0.0768534107
140299160.0 -0.1668003716 0.0720168974 0.531830529 -0.1330396973 0.5322075033 -0.1330882463 -0.1547408563 0.0780519154
145299130.0 -0.1654246272 0.0729979494 0.5312666347 -0.1396762013 0.5310147566 -0.1397925027 -0.1532805396 0.0787088526
150299100.0 -0.1644417821 0.0738819307 0.529934643 -0.1454020248 0.53018638 -0.1458343915 -0.1524747582 0.0801803578
155299070.0 -0.1638399488 0.0745367902 0.5287990591 -0.1531334851 0.5286099606 -0.1526137215 -0.1514192066 0.0813050404
160299040.0 -0.1629543064 0.0757538717 0.5273588057 -0.1588588833 0.5272690194 -0.1591710757 -0.1505673906 0.0822701002
165299010.0 -0.1620929532 0.0767953409 0.5257812464 -0.1658386029 0.5261853732 -0.1658399904 -0.1493819567 0.0837762581
170298980.0 -0.161250169 0.0775593368 0.5240535232 -0.1717861413 0.5245679725 -0.1716350191 -0.1484363329 0.08479491
175298950.0 -0.1606335114 0.0789399375 0.5233381451 -0.177980437 0.5226310219 -0.1783880538 -0.1474629487 0.0860704172
180298920.0 -0.1599610006 0.0799457616 0.5212204154 -0.1844082514 0.5211644507 -0.1841318448 -0.1467518206 0.0874005675
185298890.0 -0.1591373767 0.0810197611 0.5192805917 -0.1903665759 0.5190596393 -0.1903726777 -0.1456033355 0.0888757051
190298860.0 -0.1581549719 0.0824661225 0.5173361869 -0.1970589811 0.5178288363 -0.1965312948 -0.144663656 0.0899690668
195298830.0 -0.1577688791 0.0832501674 0.5154006559 -0.2029253844 0.515652722 -0.2027312446 -0.1435570422 0.0910064238
200298800.0 -0.1567959689 0.0848197484 0.5131239501 -0.2093834348 0.5130514919 -0.2090007905 -0.143065619 0.0924313816
205298770.0 -0.1561763317 0.0857217263 0.5109613456 -0.2155349778 0.5107976543 -0.2148229917 -0.1420684437 0.0931248876
210298740.0 -0.155438115 0.0869308595 0.5086639797 -0.2206785922 0.5085789696 -0.2205628387 -0.1407370748 0.0953992551
215298710.0 -0.1550580502 0.0884803328 0.5064796273 -0.2267821394 0.5066631005 -0.226899879 -0.1404361018 0.0962559856
220298680.0 -0.1540004895 0.0893984791 0.5036434749 -0.2326894472 0.5037623891 -0.2326922435 -0.1396730167 0.0977404669
225298650.0 -0.1532515255 0.0906401146 0.5016655039 -0.2385254361 0.5017604058 -0.2383389865 -0.1390791426 0.0989095792
230298620.0 -0.1526199161 0.0922736977 0.4988877884 -0.2442152807 0.4992997972 -0.244192129 -0.1378978186 0.1000094923
235298590.0 -0.1516435632 0.0936649301 0.4962388699 -0.2500145417 0.4965685888 -0.2496960553 -0.1367418887 0.1016123899
240298560.0 -0.1509398315 0.094968616 0.4937970436 -0.2560496152 0.4940146545 -0.2557712857 -0.1360074146 0.1033612762
245298530.0 -0.1507248504 0.0961739939 0.4912371338 -0.2616466113 0.4908865014 -0.261754868 -0.1345189995 0.104107788
250298500.0 -0.149278447 0.0974795604 0.4875644779 -0.2672352255 0.4877955319 -0.2667547691 -0.1340931914 0.1055904509
255298470.0 -0.1484054301 0.0987603676 0.484672314 -0.2722535236 0.4851500851 -0.2723615939 -0.1327500284 0.1066917258
260298440.0 -0.1478613615 0.1000131228 0.4820107022 -0.2788228123 0.4823422871 -0.2777541853 -0.1314590738 0.1083115514
265298410.0 -0.1468681161 0.1017528729 0.479121152 -0.2841131327 0.4791398694 -0.2834038562 -0.1307008095 0.1096617153
270298380.0 -0.1462889711 0.1028195103 0.4763536866 -0.2892085457 0.4763873609 -0.2892516837 -0.1296526832 0.1110483399
275298350.0 -0.1449002073 0.1043569802 0.4729135693 -0.2948008201 0.4730791102 -0.294547626 -0.1279947158 0.1124636242
280298320.0 -0.1440854041 0.1060162539 0.4697553943 -0.3003720874 0.4697381145 -0.2996791261 -0.1269036471 0.1137548607
285298290.0 -0.1431746136 0.107175849 0.4665082725 -0.3055105261 0.4663681656 -0.3054801709 -0.1256926348 0.11491064
290298260.0 -0.1417490938 0.1083159376 0.4630172375 -0.3102502841 0.4633237196 -0.3103691378 -0.1243066754 0.1163987165
295298230.0 -0.140738443 0.1094884523 0.4599326446 -0.3159466247 0.4600589468 -0.315596818 -0.1228139124 0.117873314
300298200.0 -0.1404522871 0.1110554719 0.4567160608 -0.320800085 0.4568428875 -0.3211146024 -0.121953401 0.1191613085
305298170.0 -0.1390919247 0.1121843072 0.4527183392 -0.3265255625 0.4528533983 -0.3261926155 -0.1201202641 0.1202532864
310298140.0 -0.1380503221 0.113788461 0.4493840594 -0.3315546125 0.4495015131 -0.3312479328 -0.1188688416 0.1216703451
315298110.0 -0.1370235012 0.1144339783 0.4458343097 -0.3364734922 0.4459200657 -0.3364331467 -0.1176625565 0.1228422464
320298080.0 -0.1359853388 0.1159844813 0.4415434975 -0.3419693441 0.4421248053 -0.3417348477 -0.116234992 0.1242329831
325298050.0 -0.1351552984 0.1173050716 0.4383935819 -0.3469241908 0.4380816792 -0.3467850817 -0.115275944 0.1254296889
330298020.0 -0.13412026 0.1182700537 0.4340336753 -0.3518701493 0.4341474292 -0.3518457736 -0.1142724973 0.1264527918
335297990.0 -0.133201952 0.1193642546 0.4300111046 -0.3560969502 0.4303298891 -0.3565701464 -0.1134099941 0.1282678765
340297960.0 -0.1326368648 0.1211310802 0.426134052 -0.3612344593 0.4255652329 -0.3617882239 -0.1114242849 0.1297515191
345297930.0 -0.1315799446 0.1228751994 0.4217880212 -0.366536924 0.421524778 -0.3662019799 -0.1105682641 0.1306812902
350297900.0 -0.1302859803 0.1239679822 0.4170291244 -0.3711273797 0.4175581268 -0.3708712922 -0.1092003172 0.1326231231
355297870.0 -0.1294580474 0.1255310255 0.4135711179 -0.3753066707 0.413908256 -0.375233209 -0.1081213657 0.134000366
360297840.0 -0.1280848138 0.1267351235 0.4100269178 -0.3794452001 0.4101994723 -0.379698093 -0.1066722437 0.1355589123
365297810.0 -0.127415185 0.1283044482 0.4053601163 -0.3843996524 0.4055868399 -0.3840728329 -0.1054300022 0.1365091469
370297780.0 -0.1258155898 0.1293182774 0.4005926864 -0.3884315668 0.4013479483 -0.3883004571 -0.1035170877 0.1380848771
375297750.0 -0.1243824325 0.1307268774 0.3964638875 -0.3931336897 0.3971355705 -0.3931054298 -0.1022398908 0.1391365734
380297720.0 -0.1234858172 0.1321496586 0.392493875 -0.3977543928 0.3926929736 -0.396931241 -0.1012837131 0.1408424844
385297690.0 -0.1224494944 0.1336013203 0.3878228029 -0.4016489943 0.3877544085 -0.4015759336 -0.099363621 0.1420509903
390297660.0 -0.1210987405 0.1350599957 0.3837312952 -0.4062841237 0.3831602924 -0.4055438787 -0.0982355052 0.1429505372
395297630.0 -0.1199079322 0.1364039236 0.3791293373 -0.4102834993 0.3793089912 -0.4100653264 -0.0962723888 0.1444383343
400297600.0 -0.1188137942 0.1376423373 0.3744382909 -0.4144620609 0.3744894242 -0.4142560268 -0.095162406 0.1459206903
405297570.0 -0.1175970106 0.1387624599 0.369817845 -0.4183344584 0.37001518 -0.4181614981 -0.0933984693 0.1469465703
410297540.0 -0.1159743309 0.1399336717 0.3655212464 -0.4224216871 0.3660353883 -0.4225307343 -0.0922189246 0.1484210685
415297510.0 -0.114633158 0.1414301497 0.3604069501 -0.4267421066 0.3610057362 -0.4263466356 -0.0904080927 0.1492316763
420297480.0 -0.1133115012 0.1426821938 0.3556137069 -0.4305764782 0.3560587445 -0.4306041506 -0.089108978 0.1502088326
425297450.0 -0.1121627403 0.1436857872 0.3518150323 -0.4342725237 0.3518424564 -0.434363583 -0.0876882086 0.151782012
430297420.0 -0.1108355889 0.1448529549 0.3464821836 -0.4378177131 0.3467715198 -0.4376492684 -0.0861081291 0.1524350872
435297390.0 -0.1095044744 0.1460971738 0.3416144144 -0.4417275973 0.3412602703 -0.4420122441 -0.0836856017 0.1536799353
440297360.0 -0.1080403672 0.1475944908 0.336798247 -0.4452978544 0.3369226273 -0.4453421645 -0.0824506546 0.1543366256
445297330.0 -0.1067475822 0.1483216529 0.3319756484 -0.4491244487 0.3323307154 -0.4486259938 -0.0805681105 0.1550518203
450297300.0 -0.1050745551 0.1494533052 0.3269077581 -0.4525910997 0.3268823806 -0.4529250246 -0.0789013048 0.1560346948
455297270.0 -0.103784645 0.1508032 0.3217519278 -0.4562164378 0.3222756926 -0.4564274749 -0.0773572951 0.156999687
460297240.0 -0.1023622499 0.1518529622 0.3168870931 -0.4599342475 0.3172155385 -0.4598596756 -0.0755119844 0.1582976295
465297210.0 -0.100532975 0.1531709701 0.3121792318 -0.4631463492 0.3119693999 -0.4633900178 -0.0736593556 0.159072459
470297180.0 -0.099332053 0.1539200229 0.3068409786 -0.4665110336 0.306820682 -0.466560583 -0.0717561728 0.1603243116
475297150.0 -0.0977743707 0.1548511432 0.3018337855 -0.4693362331 0.3017515073 -0.4692239641 -0.0695734089 0.16109073
480297120.0 -0.0964126285 0.1564733875 0.2970018239 -0.4732218441 0.296757766 -0.4730474205 -0.0677915607 0.1622538223
485297090.0 -0.0949361866 0.1572514111 0.2915213175 -0.476028304 0.2916501641 -0.4759707993 -0.0662298209 0.1627648087
490297060.0 -0.0935873091 0.1586006957 0.2866261531 -0.4794159788 0.2868223753 -0.4791910838 -0.0642503914 0.1640077002
495297030.0 -0.092180342 0.1593053097 0.2807636159 -0.4823379984 0.281737941 -0.4821139233 -0.0628791418 0.1648890957
500297000.0 -0.0905682027 0.1603240351 0.2757835232 -0.4850738329 0.2758026123 -0.4850989921 -0.0607671886 0.1661172215
505296970.0 -0.0887798084 0.1612502808 0.2702424922 -0.4881570282 0.2700966267 -0.4883666979 -0.0588144183 0.1667513503
510296940.0 -0.0871456607 0.1623336969 0.2650637693 -0.4912372554 0.2651262183 -0.4911667347 -0.0567803904 0.1677574201
515296910.0 -0.0857427329 0.1634408366 0.2597844468 -0.4939754666 0.2596899496 -0.4939594513 -0.0550133585 0.1683631398
520296880.0 -0.0844741492 0.1642954515 0.2543496093 -0.4970826234 0.2549064795 -0.4965052353 -0.0534823327 0.1689924848
525296850.0 -0.0826734239 0.1647544707 0.2487568034 -0.4993267605 0.2492608565 -0.4996954781 -0.0514307566 0.1700537603
530296820.0 -0.0808652525 0.166283704 0.2434947031 -0.5025129843 0.2435680982 -0.5022197489 -0.0496156983 0.1708160423
535296790.0 -0.0795764592 0.1671780133 0.238601071 -0.5044101128 0.2383076157 -0.5044349403 -0.0478637815 0.1712739181
540296760.0 -0.0781156455 0.1683732408 0.2324066778 -0.5074484346 0.2328215995 -0.5072876435 -0.0463236719 0.1725227646
545296730.0 -0.0764543008 0.1689991356 0.2266940271 -0.5095374108 0.2271060749 -0.5098579328 -0.044303665 0.1728672894
550296700.0 -0.0741865995 0.1702397268 0.2211783311 -0.5120735007 0.2214671098 -0.5125564884 -0.0422457667 0.1737614912
555296670.0 -0.0731549935 0.1706412819 0.2160592656 -0.5145494356 0.216262509 -0.5142794146 -0.0406108484 0.1744333633
560296640.0 -0.0709390378 0.1719779856 0.2100410675 -0.5169521913 0.2104562041 -0.5165451144 -0.0386915062 0.1745882971
565296610.0 -0.0698122603 0.1725970362 0.2046738439 -0.5191624986 0.204830834 -0.5190826484 -0.0367280835 0.1751621303
570296580.0 -0.0681251867 0.1732679977 0.1990214216 -0.521584588 0.1987959902 -0.5212200678 -0.0349708149 0.1763190331
575296550.0 -0.0666247905 0.1743308768 0.1934387645 -0.5234981604 0.1932947222 -0.5233497378 -0.032676323 0.1763866715
580296520.0 -0.0645113327 0.1751193663 0.1873537651 -0.5258089757 0.1877425793 -0.5254739196 -0.0312267651 0.1768130448
585296490.0 -0.0630080042 0.1754915571 0.1822131297 -0.5271029177 0.1824001116 -0.5275135805 -0.0290932868 0.1775061707
590296460.0 -0.0607832546 0.1764015335 0.1762066509 -0.5289095224 0.176524337 -0.529210372 -0.0274261301 0.178127942
595296430.0 -0.0593609556 0.1773252185 0.1699714475 -0.5313433833 0.1703127072 -0.5311024715 -0.0253037694 0.1778117667
600296400.0 -0.0577805699 0.1779050428 0.1647215977 -0.5331429711 0.1647586875 -0.5323488354 -0.023355455 0.1782561547
605296370.0 -0.055939484 0.1784382859 0.158689361 -0.5343058149 0.1591140089 -0.5347873488 -0.0212269736 0.1788898462
610296340.0 -0.0545466243 0.1791595368 0.153040258 -0.5360067432 0.1531516989 -0.5361749818 -0.0190386259 0.1793702973
615296310.0 -0.0524201529 0.1794790915 0.1468249323 -0.5375482183 0.1471595227 -0.5380035994 -0.0170630715 0.1794882231
620296280.0 -0.0507262648 0.1803667377 0.1412595042 -0.5395466345 0.1417775785 -0.5387684137 -0.0152729471 0.1797949414
625296250.0 -0.0491795504 0.1807819114 0.1360155746 -0.5410372623 0.1353727099 -0.5413228485 -0.0126771222 0.1804227961
630296220.0 -0.0467511953 0.1816909565 0.1290647927 -0.5424383177 0.129552715 -0.5421556317 -0.0109707965 0.1806254949
635296190.0 -0.0461178424 0.1821271295 0.1236412215 -0.5435166196 0.1241866965 -0.5435378167 -0.008952133 0.1805579881
640296160.0 -0.043839827 0.1826739463 0.1178514038 -0.5447847793 0.1182516111 -0.5449525483 -0.0069025467 0.1808034421
645296130.0 -0.0423813477 0.183431669 0.1123649546 -0.5457808365 0.1123838801 -0.5460917942 -0.0050145158 0.1810952408
650296100.0 -0.0403318001 0.1837903708 0.1060320213 -0.546898781 0.1065016124 -0.5472096623 -0.0025943633 0.1809416939
655296070.0 -0.0387332018 0.1843876539 0.1005349521 -0.548470717 0.1004368709 -0.548189213 -0.0004731349 0.1816110923
660296040.0 -0.0371164867 0.1844869295 0.0945908915 -0.5493441854 0.0946659828 -0.5492776172 0.0016677219 0.181959821
665296010.0 -0.0347114538 0.1849296691 0.08817928 -0.5503702941 0.0881967569 -0.5499919106 0.0038378734 0.1820486721
670295980.0 -0.0338828031 0.1855263231 0.0825928579 -0.5506682365 0.082609656 -0.5508703755 0.0053873074 0.1820988431
675295950.0 -0.0318089097 0.1864055118 0.076920825 -0.5518293764 0.0768961159 -0.5516292743 0.0070912783 0.1824246304
680295920.0 -0.0300725395 0.1865865607 0.0706739625 -0.5523675383 0.0701734123 -0.5531936745 0.0096214005 0.1830989394
685295890.0 -0.0278955905 0.1874510829 0.0648438392 -0.553412485 0.0644418157 -0.5534809972 0.0115133851 0.1825135661
690295860.0 -0.026051584 0.1876767205 0.0587660844 -0.5532619563 0.0587680432 -0.554246684 0.0135704275 0.1831229864
695295830.0 -0.0243463029 0.1879742985 0.0530741833 -0.5545322919 0.0523676977 -0.5544467106 0.015454695 0.1831344479
700295800.0 -0.0224892749 0.1882231712 0.0464595899 -0.5547751749 0.0463899023 -0.5549297667 0.0174678581 0.1835888363
705295770.0 -0.0207623268 0.1890435831 0.0403706416 -0.5555908195 0.0408286714 -0.555447097 0.0193416321 0.1835486209
710295740.0 -0.0184254419 0.1892110592 0.0350642305 -0.5561226911 0.0349761829 -0.5563127235 0.0212557553 0.1827879304
715295710.0 -0.017354456 0.189328758 0.029265913 -0.5564721723 0.0285320554 -0.5561365147 0.0235676668 0.1825373863
720295680.0 -0.0153423628 0.1898112903 0.0226702779 -0.5563747315 0.0228335408 -0.5563242627 0.0255878183 0.1831163554
725295650.0 -0.013153082 0.1901342718 0.0166948811 -0.5565067742 0.0169736378 -0.5570939106 0.0271564534 0.1832971878
730295620.0 -0.011215891 0.1905701124 0.0106533164 -0.5564928586 0.0107485942 -0.5566969771 0.0292620919 0.1827436711
735295590.0 -0.0096084475 0.1908617537 0.0047054769 -0.5572425333 0.0048518994 -0.5565234749 0.0308137065 0.1819683199
740295560.0 -0.0080524847 0.191194245 -0.0012957628 -0.5566399796 -0.001265474 -0.5569370605 0.03379761 0.1825922626
745295530.0 -0.0060150134 0.1911744428 -0.007468495 -0.556121376 -0.0075982485 -0.556691898 0.0355366537 0.1817782265
750295500.0 -0.003831347 0.1914798376 -0.0129862393 -0.5564847434 -0.0127586803 -0.5566660552 0.0371254925 0.1813745541
755295470.0 -0.002108309 0.191412977 -0.0191045775 -0.556465926 -0.0191702177 -0.5565524077 0.0397678739 0.1809767464
760295440.0 -0.0005097785 0.1916401673 -0.0250972841 -0.5562152979 -0.0251362146 -0.5563171559 0.0413729766 0.1806940639
765295410.0 0.0014198104 0.1917990732 -0.0312792235 -0.5559649783 -0.0317518786 -0.555892038 0.0436266512 0.1808109388
770295380.0 0.0029232976 0.191804474 -0.0374738263 -0.5554688067 -0.0372064251 -0.5553917422 0.0451464899 0.179946753
775295350.0 0.0049510137 0.1917934409 -0.0435776308 -0.5543638221 -0.0426350864 -0.5544583059 0.0467604501 0.179729818
780295320.0 0.0069987502 0.1920698585 -0.0493608105 -0.5540713463 -0.0484866629 -0.5543678352 0.0489962689 0.1788564176
785295290.0 0.0088854773 0.191476641 -0.0555096959 -0.5532297222 -0.0550633229 -0.5536704569 0.0514963252 0.1786482764
790295260.0 0.0111109905 0.1923791283 -0.06082919 -0.5530520884 -0.0598810054 -0.5527378647 0.0533985773 0.178277528
795295230.0 0.0126041188 0.1921741303 -0.0667125093 -0.5521358865 -0.0663855122 -0.5521489569 0.0559343589 0.1782035969
800295200.0 0.0142322537 0.1923107387 -0.0732048028 -0.5511087508 -0.0730739209 -0.5513412721 0.0574787939 0.177412624
805295170.0 0.0163661522 0.1919775643 -0.078511757 -0.5507281675 -0.0786605975 -0.5507133791 0.0593668818 0.1770490163
810295140.0 0.0179745813 0.1915234254 -0.0844352759 -0.5494193384 -0.0845778267 -0.5499489796 0.0616350046 0.1764570036
815295110.0 0.0199650454 0.1917861621 -0.0905336434 -0.5487226354 -0.0902181821 -0.5489216408 0.0632662009 0.1760164183
820295080.0 0.0214819337 0.1920821674 -0.0962607894 -0.5474729707 -0.0961362042 -0.5476232379 0.0654638229 0.1754723626
825295050.0 0.024139034 0.1917722945 -0.1019071056 -0.5462187046 -0.102390763 -0.5466166108 0.0676228439 0.1746912133
830295020.0 0.0256410436 0.191726622 -0.1080956927 -0.545187953 -0.1080488315 -0.5453608984 0.0702637782 0.1745013012
