!Created with skrf (http://scikit-rf.org).
# Hz S RI R 50.0 
!freq ReS11 ImS11 ReS21 ImS21 ReS12 ImS12 ReS22 ImS22
300000.0 -0.0993132027 -0.0630989124 0.6298861131 0.0585759012 0.6235197532 0.0603207324 -0.100904797 -0.0697668048
5299970.0 -0.1021100262 0.0132759232 0.6303438406 0.0097123761 0.6309239265 0.0103021596 -0.1012656037 0.0135101675
10299940.0 -0.0975795411 0.0294101289 0.6338777984 0.0154308824 0.6342964296 0.0156228917 -0.0962070026 0.0304231821
15299910.0 -0.0903096266 0.0426684077 0.6404014434 0.0204326183 0.6409340713 0.020745405 -0.0890838518 0.0433073123
20299880.0 -0.0819761319 0.0530657188 0.6485675797 0.0243150265 0.6486857687 0.0244804566 -0.0799902076 0.0544701126
25299850.0 -0.0724780299 0.0622232986 0.6578812493 0.0253824616 0.6580688527 0.0255273802 -0.0704869496 0.0631508841
30299820.0 -0.0625263469 0.0686979259 0.6672402488 0.0247274344 0.667380851 0.0249900313 -0.0601124719 0.06980053
35299790.0 -0.0525828181 0.0737513444 0.6778151431 0.0216576574 0.6772068588 0.021488686 -0.0499424131 0.0745581037
40299760.0 -0.0432654521 0.0772942007 0.6864841603 0.0174447061 0.6871517991 0.0174385723 -0.0404859221 0.0770795665
45299730.0 -0.0341349193 0.0792440081 0.6949196543 0.0122017556 0.6957082737 0.0121300583 -0.0316670548 0.0795890997
50299700.0 -0.0257254578 0.0800951751 0.7037588443 0.0049876659 0.7036127754 0.0057260524 -0.022462375 0.0801670136
55299670.0 -0.0177628978 0.0804941698 0.7108324352 -0.0030044508 0.7112380744 -0.0025095132 -0.0147976757 0.0805028705
60299640.0 -0.0101628275 0.0800616679 0.7175818142 -0.0109406189 0.7177175397 -0.0108115662 -0.00774212 0.079276875
65299610.0 -0.0037076899 0.0787485694 0.7232848761 -0.0199028454 0.7237497536 -0.0198837798 -0.001064689 0.078536993
70299580.0 0.0025702251 0.0774364626 0.7283521851 -0.0289047231 0.7285753097 -0.0288878935 0.0049162827 0.0766038718
75299550.0 0.0080562348 0.0759554107 0.7326995217 -0.0384286373 0.7330290281 -0.0383792692 0.0103693022 0.0747161197
80299520.0 0.0133112502 0.0734212647 0.7373146892 -0.0487708949 0.7371291447 -0.0484987549 0.0153092994 0.0726448661
85299490.0 0.01797586 0.0713247827 0.7402847316 -0.0584651447 0.7404918499 -0.0580213769 0.0197329783 0.0697435721
90299460.0 0.0216418225 0.068805278 0.7427358345 -0.068852502 0.7437923583 -0.0682992768 0.0236055179 0.0680407083
95299430.0 0.0259631241 0.0665320092 0.7462249003 -0.0781354396 0.7458954485 -0.0790702146 0.0276591586 0.0657010173
100299400.0 0.029055527 0.0646292978 0.7466359753 -0.0883058252 0.7473495205 -0.0890536348 0.0312194654 0.0629029212
105299370.0 0.0323346146 0.0620201092 0.7491411171 -0.0993333989 0.7492085891 -0.0989218857 0.0344355284 0.0608147195
110299340.0 0.0350615947 0.0597325733 0.7499331369 -0.1087545029 0.7501047983 -0.1087074819 0.0363928603 0.0581300975
115299310.0 0.0374628739 0.0573675061 0.7510576635 -0.1189799029 0.7509631903 -0.118948143 0.0392138858 0.0561019794
120299280.0 0.0400626703 0.0546443329 0.7517763403 -0.1290170242 0.7517092498 -0.1289132422 0.0411864405 0.0532883289
125299250.0 0.0418572459 0.0524279801 0.7522856099 -0.1386988068 0.7518097571 -0.1386558169 0.0429621488 0.0507187717
130299220.0 0.0434250438 0.0502520796 0.7513351157 -0.1493191353 0.7515874841 -0.1489148769 0.0449928636 0.048535966
135299190.0 0.0452901055 0.0484030294 0.7519374739 -0.1586675953 0.7511424865 -0.1582076755 0.0465086393 0.0466861355
140299160.0 0.0462895991 0.0461880756 0.7512248665 -0.1685129703 0.7512286735 -0.1689099522 0.0475761793 0.0448449499
145299130.0 0.0481449254 0.043954708 0.7502103317 -0.1784343859 0.7504211779 -0.1780923782 0.0492463297 0.0425316034
150299100.0 0.0494385093 0.042100029 0.7492521959 -0.1870756721 0.7494895983 -0.1875948884 0.0505311979 0.0405888755
155299070.0 0.0500154161 0.0398073044 0.7476949635 -0.1982397417 0.7477308199 -0.1975334498 0.0515135951 0.0386352189
160299040.0 0.0516978309 0.0382435581 0.7467083259 -0.2065725388 0.7458678506 -0.2071320298 0.0518315446 0.0362799254
165299010.0 0.0521247837 0.036480882 0.7447507796 -0.216832808 0.7449951829 -0.2168233692 0.0533386709 0.0350812204
170298980.0 0.0531325704 0.0341972043 0.7433463809 -0.2263307143 0.7433102595 -0.2257844194 0.053565648 0.0331718875
175298950.0 0.05356791 0.0325181614 0.7418946686 -0.2352201924 0.7412405086 -0.2348380557 0.0543243394 0.0316045701
180298920.0 0.0543136088 0.0309710814 0.7393051239 -0.2446748587 0.7387898815 -0.2443588173 0.0549767418 0.0299411036
185298890.0 0.0555141899 0.0289372001 0.7370389418 -0.2534270124 0.7369525062 -0.2536527002 0.0555324928 0.0284551189
190298860.0 0.0550316246 0.0277622084 0.7348327666 -0.2626137835 0.7352552771 -0.2628214741 0.0558462719 0.0263852384
195298830.0 0.056080881 0.0257478142 0.7319108202 -0.2720496414 0.7324850066 -0.271339446 0.0566923853 0.024884329
200298800.0 0.0563625038 0.0241965041 0.7292631662 -0.2809874055 0.729496584 -0.2805447165 0.0569423542 0.0236605273
205298770.0 0.0568374566 0.0229967628 0.7265217664 -0.2898999084 0.7263948748 -0.2891943136 0.0571647184 0.0212914557
210298740.0 0.0573323721 0.021125267 0.7236805943 -0.2980447544 0.723623984 -0.2979542477 0.0579510109 0.0209858769
215298710.0 0.0568657669 0.019893901 0.720860908 -0.3074106498 0.7205571077 -0.3069947507 0.0576387691 0.019635746
220298680.0 0.0576775802 0.0179187929 0.7172630235 -0.3154429372 0.717067325 -0.315797017 0.0575989506 0.0178785597
225298650.0 0.0580167372 0.0169580885 0.7146279981 -0.3245412748 0.7146756541 -0.3243362755 0.0575704121 0.0160147437
230298620.0 0.0579575536 0.015991765 0.711247824 -0.3324677471 0.711468037 -0.3328303974 0.0575186521 0.0147609067
235298590.0 0.0579241838 0.0143763192 0.7073310683 -0.3413917919 0.7071766908 -0.3409540852 0.0580965978 0.0135994253
240298560.0 0.0581952498 0.0133691922 0.7041024643 -0.3498321996 0.7038582989 -0.3497040315 0.0581570489 0.0130635624
245298530.0 0.0580836357 0.0121778358 0.7005186114 -0.3578603805 0.7003052112 -0.3584070926 0.0585018364 0.010856102
250298500.0 0.058686637 0.0110425272 0.6954750561 -0.3664310986 0.6953685982 -0.3657203547 0.0582871723 0.0104952932
255298470.0 0.0583508374 0.0093801813 0.6916120516 -0.373912359 0.6922851943 -0.3737196848 0.0586689349 0.009099684
260298440.0 0.0579271202 0.0079993981 0.6878207019 -0.3830924531 0.6882837978 -0.3822172364 0.0586699319 0.0080889773
265298410.0 0.058846821 0.0077157151 0.6841877302 -0.3909131704 0.6846093365 -0.3901753163 0.0585361918 0.0068177678
270298380.0 0.0586075259 0.0062396738 0.6805151656 -0.3982755707 0.6803259743 -0.3983376979 0.0583221094 0.0058217559
275298350.0 0.0590372913 0.0052111334 0.6759302233 -0.406603254 0.6758986328 -0.4066686448 0.0585538048 0.0045042456
280298320.0 0.0589431454 0.0043144434 0.6718000537 -0.41450529 0.6711399399 -0.4141771694 0.0585589839 0.0037493272
285298290.0 0.0587312447 0.0032893973 0.6671232877 -0.4219423388 0.6668241128 -0.4222070502 0.0587693728 0.0027394438
290298260.0 0.0588870846 0.0022021865 0.662542992 -0.4297229024 0.6623246688 -0.4299066034 0.0589325536 0.0022757949
295298230.0 0.0589540534 0.0009022734 0.6580852293 -0.4377409935 0.6580818081 -0.4374061541 0.0598624943 0.0005755692
300298200.0 0.0583711199 -0.0001529949 0.6536054383 -0.4450913807 0.6536511564 -0.4453867987 0.0589956295 -0.0002758287
305298170.0 0.0587483376 -0.0014430234 0.6483024226 -0.4534484166 0.64856695 -0.4528032938 0.0593736547 -0.0015987942
310298140.0 0.0584821606 -0.0024016679 0.6433847553 -0.4609132171 0.6438500422 -0.4604374871 0.0592572202 -0.0025525634
315298110.0 0.0582847407 -0.0039071873 0.6384238813 -0.4680155089 0.6385964796 -0.4683581675 0.058785519 -0.0038813372
320298080.0 0.0584276299 -0.0045509301 0.6326122043 -0.4757527769 0.6335692184 -0.475665008 0.0586651091 -0.0049493431
325298050.0 0.0577415882 -0.005849364 0.6274887836 -0.4830391588 0.6276397775 -0.4830811052 0.0577290377 -0.0058217276
330298020.0 0.0573763417 -0.0068237317 0.6219153863 -0.4908661625 0.6222405165 -0.4908406468 0.0574053608 -0.0071632091
335297990.0 0.0571116702 -0.0083812215 0.6162609059 -0.4974824801 0.6159972474 -0.4979744493 0.0561407805 -0.0073033381
340297960.0 0.0561649874 -0.0085360695 0.6097700819 -0.5046596135 0.610366608 -0.5047422633 0.0566602234 -0.008167164
345297930.0 0.0560639108 -0.0088390854 0.6045252572 -0.5115844331 0.6042856821 -0.5121719665 0.0562644003 -0.0097798806
350297900.0 0.0552925082 -0.0105354884 0.5980246309 -0.5180966006 0.5984200703 -0.5181843585 0.055494665 -0.0096567198
355297870.0 0.0550690141 -0.0101768371 0.5932737503 -0.5248629534 0.5931493211 -0.5247321205 0.0547647651 -0.0105158952
360297840.0 0.0546408573 -0.011080521 0.5882197665 -0.530998755 0.5878532581 -0.5315217692 0.0544973364 -0.0110932676
365297810.0 0.0541515403 -0.0116157885 0.5809493187 -0.5379917095 0.5818396469 -0.5384371107 0.0547572834 -0.0117175091
370297780.0 0.0545132726 -0.0127954172 0.575478623 -0.5447663265 0.5758584093 -0.5443795074 0.0541340462 -0.0124674759
375297750.0 0.0540197194 -0.013405435 0.5690918448 -0.5509534358 0.5702370252 -0.5510640349 0.0542410151 -0.0131723654
380297720.0 0.0537119904 -0.0140107359 0.563293691 -0.5577614927 0.5632073337 -0.5565761323 0.0534235396 -0.0140025267
385297690.0 0.0531439064 -0.0150767576 0.5570219403 -0.563662593 0.5568321323 -0.5636656366 0.0534484297 -0.014467982
390297660.0 0.0527536168 -0.0151642667 0.5506041824 -0.5700835922 0.5508967528 -0.5693564258 0.0528840966 -0.0156297912
395297630.0 0.0523204956 -0.0160308039 0.5446298982 -0.5755773384 0.5446322347 -0.5758751394 0.0532069055 -0.0161241063
400297600.0 0.0518481615 -0.0168085981 0.5375247567 -0.582499369 0.538401176 -0.5818775692 0.0526730973 -0.0162475921
405297570.0 0.0514571336 -0.0175812227 0.5315255933 -0.5879071948 0.5320727223 -0.5873663304 0.0518734935 -0.0169483074
410297540.0 0.0512820816 -0.0181009207 0.5253945919 -0.5938187093 0.5260595348 -0.5937255611 0.0515930582 -0.0171166382
415297510.0 0.0512960605 -0.0186836832 0.5183881521 -0.5998082492 0.5189995134 -0.5997900755 0.0514992504 -0.0182376746
420297480.0 0.0509728321 -0.0188711552 0.5120278753 -0.6056757059 0.5116418588 -0.6059023505 0.050778736 -0.0191857996
425297450.0 0.0502520941 -0.0204830918 0.5052392582 -0.6113632339 0.5059549089 -0.6113642042 0.0500216933 -0.0190150229
430297420.0 0.0500687631 -0.0208284034 0.498643258 -0.61650943 0.4989477628 -0.6163097746 0.0499000395 -0.0202680277
435297390.0 0.0496046361 -0.0210019066 0.4915948278 -0.6222298563 0.4918934119 -0.6220248893 0.0504860159 -0.0204677218
440297360.0 0.0493386156 -0.0217138128 0.484851992 -0.627908014 0.4851187723 -0.6276280081 0.0490642697 -0.021262355
445297330.0 0.0485197205 -0.0226395437 0.4782224554 -0.633362867 0.4782338714 -0.6321748645 0.0494726638 -0.0219721456
450297300.0 0.0488835342 -0.0228047163 0.4714482372 -0.638577788 0.4710544241 -0.6387707123 0.0488565474 -0.0227957211
455297270.0 0.0482198234 -0.0234764248 0.4636679623 -0.6438239066 0.4645212239 -0.6433838421 0.0483730907 -0.0229088631
460297240.0 0.0475614625 -0.0242253223 0.4567483769 -0.6489672628 0.4572838984 -0.6484673103 0.0480332132 -0.0232919233
465297210.0 0.0476464377 -0.0248216999 0.4502405917 -0.6539718026 0.4498906718 -0.6541122353 0.0478087453 -0.0244341151
470297180.0 0.0470860966 -0.025561143 0.4419999439 -0.6588703958 0.4427379237 -0.6585448424 0.0471294992 -0.0243908502
475297150.0 0.0467732573 -0.0261428718 0.4355827354 -0.6633959538 0.4351602534 -0.6625759325 0.0472642794 -0.0253578139
480297120.0 0.0461818803 -0.0257617558 0.4277208716 -0.6682677187 0.4279423159 -0.6684889567 0.0469681296 -0.0254552883
485297090.0 0.0455811526 -0.0268594793 0.4209337129 -0.6730327189 0.420953231 -0.6724977619 0.0462453632 -0.0262669275
490297060.0 0.0448053323 -0.0275759475 0.4137574202 -0.6780472404 0.4136699482 -0.6772953072 0.0460144994 -0.0263177016
495297030.0 0.0450503867 -0.0275173255 0.4053630982 -0.681979921 0.4062554326 -0.6820449984 0.0451468722 -0.0271792352
500297000.0 0.0442469682 -0.0285815044 0.3980946815 -0.6863370327 0.3980227965 -0.6862312758 0.0449632715 -0.0270709871
505296970.0 0.0442857553 -0.0288959447 0.3904427699 -0.6907988718 0.3907051409 -0.6905852158 0.044310105 -0.0277110712
510296940.0 0.0434034407 -0.0289752466 0.3829724765 -0.6954614475 0.3828645362 -0.6947199084 0.0440677677 -0.0278991745
515296910.0 0.0427678654 -0.0294207002 0.3751711882 -0.6992902447 0.3755284656 -0.6987524897 0.0437722289 -0.0288424502
520296880.0 0.0425277012 -0.0300774292 0.367791485 -0.7041384703 0.3681327373 -0.7030564032 0.0429511861 -0.0295446158
525296850.0 0.0423996138 -0.0312331377 0.3598724805 -0.7073293419 0.3607186276 -0.7075812264 0.0428573981 -0.0295633507
530296820.0 0.0419061913 -0.0310957202 0.3521540105 -0.7117378223 0.3523386506 -0.7113967548 0.0422511561 -0.0298957966
535296790.0 0.0408443281 -0.0315891131 0.3446637367 -0.7151634867 0.3448754316 -0.7149879426 0.0418026067 -0.0311432628
540296760.0 0.0406889402 -0.0318412862 0.3368360918 -0.7197056687 0.3369356838 -0.7188394787 0.04084584 -0.0305524326
545296730.0 0.039755306 -0.0322515862 0.3281731458 -0.7223083084 0.3289817128 -0.7227770103 0.0406007996 -0.031487249
550296700.0 0.039978013 -0.0325075315 0.3208932266 -0.7255142882 0.3207398219 -0.7266212488 0.0396517858 -0.031845681
555296670.0 0.0389184159 -0.0330187614 0.3131349834 -0.7299177128 0.3135570254 -0.7292803835 0.0396094744 -0.0320986367
560296640.0 0.0390338705 -0.0330000726 0.3048950497 -0.7330129775 0.3051466811 -0.7331592268 0.0387832443 -0.0327047547
565296610.0 0.0375006182 -0.0337424524 0.2963495767 -0.7363432562 0.2968547761 -0.7365139967 0.0384432378 -0.0332677069
570296580.0 0.0373890043 -0.0338612827 0.2880079096 -0.7402931561 0.2880020737 -0.7396140138 0.0379840531 -0.0328832685
575296550.0 0.0364336701 -0.0341005921 0.2804549486 -0.7435246189 0.2804530289 -0.7432539197 0.0381000856 -0.0339761953
580296520.0 0.0362901159 -0.0345950223 0.2725172756 -0.7463163495 0.2725555681 -0.7459278167 0.0371983533 -0.0343023751
585296490.0 0.0354549566 -0.0356865991 0.2642617753 -0.7478954946 0.2649028112 -0.7484119696 0.0365497371 -0.0346428703
590296460.0 0.0356084883 -0.0354248436 0.256506872 -0.750839742 0.2565574257 -0.7512513305 0.035322854 -0.0347723148
595296430.0 0.0350223235 -0.0356620912 0.2472132648 -0.75448675 0.2476924098 -0.7539803169 0.0355992304 -0.0351252011
600296400.0 0.0339573045 -0.0362095028 0.2394573812 -0.7569280543 0.2397331873 -0.7571547724 0.0344963524 -0.0356860534
605296370.0 0.0336373412 -0.0363465953 0.2317042195 -0.7595680606 0.2319516637 -0.7592339983 0.0340810368 -0.0357157444
610296340.0 0.0330255489 -0.0368099336 0.2227905192 -0.7616439014 0.2229754118 -0.7622145749 0.0339556654 -0.0361143879
615296310.0 0.0328803356 -0.0373791329 0.2146056546 -0.7641086305 0.2148172836 -0.76480511 0.0336289679 -0.0359716331
620296280.0 0.0323331253 -0.0377020677 0.206708226 -0.7664276661 0.2061339436 -0.7660971549 0.0324931339 -0.036630386
625296250.0 0.0312677433 -0.0384867542 0.1986048775 -0.769296036 0.1978826801 -0.7690656696 0.0327652247 -0.0367013704
630296220.0 0.0318320802 -0.0379604148 0.1889709977 -0.7708806606 0.1891404232 -0.7709379929 0.0315773097 -0.0370096486
635296190.0 0.0298592226 -0.0387705201 0.1811616815 -0.7726676392 0.1810933247 -0.7731340955 0.0313164705 -0.037035392
640296160.0 0.029616333 -0.0385857024 0.1725049505 -0.7744660323 0.1731995416 -0.774674101 0.0306320571 -0.0372041052
645296130.0 0.0292895505 -0.0386970479 0.1641494456 -0.7760998856 0.1646398749 -0.7766527071 0.0301967567 -0.0375586131
650296100.0 0.0289776667 -0.0394533388 0.1555540105 -0.7785326613 0.1562480771 -0.7786362079 0.030118306 -0.0386771157
655296070.0 0.0278708063 -0.0396710872 0.1475349998 -0.779976752 0.1475436532 -0.7801260096 0.0296826009 -0.0382941792
660296040.0 0.0268360258 -0.0403762657 0.138643637 -0.7821042703 0.1392247 -0.7820387961 0.0289011529 -0.0386686498
665296010.0 0.0274487228 -0.0398817658 0.129932121 -0.7828998739 0.1306301139 -0.7833591997 0.0287178293 -0.0381347235
670295980.0 0.0251917823 -0.0401584686 0.1214456968 -0.784470045 0.1214855918 -0.7842383418 0.027024219 -0.0386801291
675295950.0 0.0253298482 -0.0399298093 0.1136643333 -0.7849798683 0.1132975619 -0.785250373 0.0263996884 -0.0390681917
680295920.0 0.0243821533 -0.0409661295 0.1039636188 -0.7864074014 0.1039629827 -0.7870485285 0.0262860514 -0.0382512451
685295890.0 0.0241956618 -0.0401568022 0.0959943549 -0.7883686835 0.0959494384 -0.7879485201 0.0255077632 -0.0388451907
690295860.0 0.0237835566 -0.0404522751 0.0873081619 -0.7883600262 0.0874514983 -0.7894001509 0.0249034252 -0.038194495
695295830.0 0.0230863582 -0.0409674907 0.0787339613 -0.7893689591 0.0785645811 -0.7896153611 0.0240895209 -0.0389967525
700295800.0 0.0228319524 -0.0416757828 0.0702365792 -0.7902459381 0.0698202253 -0.790256505 0.023565039 -0.038613224
705295770.0 0.0217333803 -0.0407023357 0.0613623387 -0.7908827647 0.0618855064 -0.7911791364 0.0228184024 -0.0391802486
710295740.0 0.0216017945 -0.0411350952 0.0530346021 -0.7924963653 0.0533272936 -0.7924277313 0.022653864 -0.039993064
715295710.0 0.0200778622 -0.0414615162 0.0448448446 -0.792736556 0.0443550999 -0.7926077339 0.0221932861 -0.0398848394
720295680.0 0.0199714782 -0.0416886561 0.0354272698 -0.7928157544 0.0361676119 -0.7926339283 0.0213058623 -0.0391545241
725295650.0 0.0194099929 -0.0414589348 0.0266435539 -0.7933548995 0.0274065903 -0.7933118025 0.0200875095 -0.039487135
730295620.0 0.0193385101 -0.0413763628 0.017913109 -0.7928762526 0.0183958345 -0.7935549557 0.0196471932 -0.0401102655
735295590.0 0.0179371359 -0.0413869 0.0097024654 -0.7935222612 0.0099751011 -0.7936148168 0.0190373616 -0.0404557016
740295560.0 0.0171643832 -0.0415422037 0.0009708656 -0.7933112014 0.0012573234 -0.7932220132 0.0191638615 -0.0401366516
745295530.0 0.0167324048 -0.0414703038 -0.007334781 -0.7928103106 -0.0075224513 -0.7935418556 0.0185401808 -0.040703052
750295500.0 0.0164681112 -0.0416761962 -0.0160496191 -0.7928124802 -0.0160446956 -0.7939327082 0.0176763673 -0.0406044089
755295470.0 0.0159520344 -0.0422885902 -0.024450902 -0.7931512893 -0.0243621998 -0.7936211915 0.017768968 -0.0411965822
760295440.0 0.0150241655 -0.0416361201 -0.0329986326 -0.7931317921 -0.0335520987 -0.7933836255 0.0165987932 -0.0406938427
765295410.0 0.0142140038 -0.0418160024 -0.041742928 -0.7922693339 -0.0424461289 -0.7926851902 0.0162943153 -0.0406634022
770295380.0 0.0133630286 -0.0420361126 -0.0511889982 -0.7915027068 -0.0507787516 -0.7919204974 0.0156013903 -0.0411176285
775295350.0 0.0127942345 -0.0425278214 -0.0595922084 -0.7906265584 -0.0590148089 -0.7912775901 0.0139400825 -0.0405665928
780295320.0 0.0124260458 -0.042176205 -0.0679641738 -0.7900036758 -0.0666362652 -0.7903097529 0.0141159285 -0.0413998538
785295290.0 0.0113922845 -0.0426713427 -0.0770704223 -0.7895717113 -0.076220595 -0.7892179781 0.0141225241 -0.0408190946
790295260.0 0.0117992664 -0.0415839566 -0.0847338353 -0.7888222217 -0.0842978149 -0.788543856 0.0131258453 -0.0408811877
795295230.0 0.0107439836 -0.0423676782 -0.0932774174 -0.7875192156 -0.0927674201 -0.7877451817 0.0128950325 -0.0402882824
800295200.0 0.00980227 -0.0417448378 -0.1026224492 -0.7862983087 -0.1016012598 -0.7865658708 0.0122693169 -0.0406917392
805295170.0 0.0093629407 -0.0420426969 -0.1107136816 -0.7849840534 -0.1104874593 -0.7856863317 0.0115024507 -0.0401294895
810295140.0 0.0083614594 -0.0424336983 -0.1189483204 -0.7837696429 -0.1187617564 -0.7845246825 0.0115871833 -0.0401155703
815295110.0 0.0084244369 -0.0425822082 -0.1272911332 -0.7825954766 -0.1272943752 -0.7825165375 0.0104440326 -0.0398257101
820295080.0 0.0072119526 -0.0412672978 -0.1360957996 -0.7803865055 -0.1355694203 -0.7813870334 0.0098478245 -0.0402596726
825295050.0 0.0075045077 -0.0417310309 -0.1446124238 -0.7795506942 -0.1439098704 -0.7798743781 0.0096757548 -0.0399420645
830295020.0 0.0063624058 -0.0415580141 -0.1534135476 -0.7775753627 -0.1526784786 -0.7779361654 0.009742428 -0.0395438686
