!Created with skrf (http://scikit-rf.org).
# Hz S RI R 50.0 
!freq ReS11 ImS11 ReS21 ImS21 ReS12 ImS12 ReS22 ImS22
300000.0 -0.7766025864 -0.1464393257 -0.0016841642 -0.0011609782 -0.0006313057 1.81855e-05 -0.21096416 -0.0942706644
5299970.0 -0.7853533227 -0.0074012351 -0.0001137677 -0.0001185019 -7.10335e-05 -0.0002010741 -0.2162198068 0.0067328302
10299940.0 -0.7875490532 -0.0044333395 0.0001314978 -8.8734e-06 5.67681e-05 1.45232e-05 -0.2129682 0.0187609214
15299910.0 -0.7933508198 -0.001548521 -0.0001331753 -4.12508e-05 2.56678e-05 0.0002013262 -0.2079972858 0.0277279843
20299880.0 -0.7997319466 0.002306126 9.23351e-05 0.0001403726 -1.50413e-05 -0.0001896758 -0.2029490098 0.0356068956
25299850.0 -0.8064457097 0.0080166397 -0.0001091119 5.76283e-05 -7.85698e-05 9.68443e-05 -0.1974793467 0.0418564668
30299820.0 -0.812044346 0.0161156124 3.47525e-05 -0.0001666569 3.46921e-05 0.0001452829 -0.19156613 0.046172508
35299790.0 -0.8167780474 0.0249070411 9.6168e-06 -4.24021e-05 9.86425e-05 6.32312e-05 -0.1859719075 0.0500955001
40299760.0 -0.8214040252 0.0343760985 0.0001497137 9.52985e-05 9.12026e-05 -0.0001764393 -0.1802521845 0.0528972004
45299730.0 -0.8246762237 0.0442984641 -0.0001026944 -2.75623e-05 0.0001629333 -1.46865e-05 -0.1753339461 0.0550677697
50299700.0 -0.8269491495 0.0538269386 7.9649e-06 7.7414e-06 5.00077e-05 -0.0001066222 -0.1704406213 0.0567488944
55299670.0 -0.8287168903 0.0643022835 0.0001099306 6.94753e-05 4.59134e-05 9.66077e-05 -0.1665074884 0.0578727305
60299640.0 -0.8300028088 0.0745547157 3.70466e-05 -3.21917e-05 6.30345e-05 7.91596e-05 -0.1621961494 0.0586895097
65299610.0 -0.8314146868 0.0849599943 6.168e-06 1.48674e-05 -7.40341e-05 7.20219e-05 -0.1584816443 0.0592973278
70299580.0 -0.8316046224 0.0945312117 -4.82365e-05 0.0001958398 0.0001638976 -0.0001078845 -0.1552200282 0.0593288973
75299550.0 -0.8318971844 0.1045026996 1.55251e-05 -6.5372e-05 -1.21418e-05 9.88291e-05 -0.152607634 0.0594285651
80299520.0 -0.8310987469 0.1143044504 6.98218e-05 -0.0001011523 -3.06073e-05 -8.21369e-05 -0.150302914 0.0595181678
85299490.0 -0.8309208938 0.1243478446 5.13554e-05 -2.45198e-05 -1.67199e-05 -7.5697e-06 -0.1477857138 0.0593597223
90299460.0 -0.8300479285 0.1341358573 -8.40875e-05 7.0697e-05 0.0001832611 -2.70819e-05 -0.1453566993 0.0595004343
95299430.0 -0.8286573777 0.1439685523 3.77095e-05 -4.6986e-05 9.04867e-05 2.18463e-05 -0.1433277665 0.059551964
100299400.0 -0.8280845942 0.1531540174 -0.0001620945 1.3403e-06 0.0001159377 3.68976e-05 -0.1420698702 0.0594615679
105299370.0 -0.8263890317 0.1624017456 -0.0001570458 9.66108e-05 1.27539e-05 -4.47909e-05 -0.1396909898 0.0594059238
110299340.0 -0.8255632365 0.1705420534 -1.59904e-05 -7.13214e-05 0.0002387493 -4.87343e-05 -0.13860619 0.0598755598
115299310.0 -0.8234438475 0.180039172 -2.5898e-05 -0.0001269784 -0.0002269299 -0.0003114758 -0.1372647209 0.0593870344
120299280.0 -0.8217430558 0.1895752833 -2.3632e-06 0.0002528514 7.53651e-05 -0.0001438134 -0.136293925 0.0595776589
125299250.0 -0.8202859369 0.1986505879 0.0001149838 -1.64799e-05 0.0001338477 2.07539e-05 -0.1349340854 0.0592420224
130299220.0 -0.8181806862 0.2078236086 0.0001882724 -6.43742e-05 0.0001573804 0.0001207118 -0.1345515585 0.0598044715
135299190.0 -0.8165027587 0.2162078949 5.13394e-05 4.31719e-05 0.0001883964 -2.31495e-05 -0.1332729188 0.0592857581
140299160.0 -0.8148035212 0.2256266054 0.0001519456 -0.0002211202 5.84459e-05 -2.06534e-05 -0.1321236093 0.0600056032
145299130.0 -0.8121878194 0.2343126546 -2.02209e-05 -3.5518e-06 -3.05947e-05 -6.75419e-05 -0.1318528295 0.0603330659
150299100.0 -0.8099498446 0.2433805111 4.15341e-05 -7.23764e-05 0.0001601978 0.0001114646 -0.13110927 0.0601399174
155299070.0 -0.8072445211 0.2522354184 0.0001147501 8.44339e-05 8.42752e-05 -2.87106e-05 -0.1300440813 0.060800325
160299040.0 -0.8054894779 0.2611395167 5.84356e-05 0.0001204183 0.0002564265 3.77637e-05 -0.1294404171 0.0614216326
165299010.0 -0.8025844552 0.2694338087 -6.3691e-06 4.90047e-05 -2.24271e-05 0.000133838 -0.129086248 0.0617158449
170298980.0 -0.8001184661 0.2783231038 0.0001224509 6.13203e-05 2.75198e-05 -9.27982e-05 -0.1286025001 0.0621733965
175298950.0 -0.7967730153 0.2873836094 0.000131366 -2.8805e-06 -1.97279e-05 -0.0002165649 -0.1278859251 0.0628008297
180298920.0 -0.7940398243 0.295000381 5.9174e-06 3.0919e-05 0.0001455407 0.0001801082 -0.1270315366 0.0635091161
185298890.0 -0.7906235806 0.3042866269 9.11987e-05 5.01698e-05 8.49699e-05 9.26269e-05 -0.1268989139 0.0635227113
190298860.0 -0.7873623766 0.3123628516 0.0001097803 2.31327e-05 9.41851e-05 8.89674e-05 -0.1260512619 0.0643631989
195298830.0 -0.7838223225 0.3209185527 -2.68659e-05 -7.0197e-06 -1.18998e-05 3.0897e-05 -0.1257889218 0.0652165715
200298800.0 -0.7806883828 0.3292705175 7.94866e-05 0.0002305095 0.0001768621 0.0001639778 -0.1251414138 0.0654348471
205298770.0 -0.7771659972 0.3374352835 0.0001124261 3.9275e-06 0.0001116107 3.80348e-05 -0.1246696955 0.0666183544
210298740.0 -0.7736438978 0.345821371 -1.45595e-05 3.72217e-05 -6.81925e-05 0.000158474 -0.1241223177 0.0672883578
215298710.0 -0.7707974446 0.3541657443 0.0002530731 0.0001233951 3.25187e-05 0.0001171169 -0.1239897207 0.0680528827
220298680.0 -0.7671378335 0.3621955879 -3.52361e-05 -3.273e-07 -6.02139e-05 -0.0001468017 -0.1230684325 0.0687517724
225298650.0 -0.7629136321 0.3709571614 9.5987e-05 0.0001163323 1.86474e-05 4.56135e-05 -0.1229962175 0.0695809778
230298620.0 -0.7593689122 0.3787152752 0.0001610397 4.53281e-05 1.8119e-05 6.7771e-05 -0.1221700236 0.070312284
235298590.0 -0.7552119451 0.3874055781 -3.47983e-05 9.6931e-06 7.75492e-05 8.16038e-05 -0.1218672973 0.0711069683
240298560.0 -0.7509663759 0.395325787 -0.0001790644 -5.0083e-06 1.29892e-05 6.44583e-05 -0.1213203806 0.072289281
245298530.0 -0.7464578915 0.4029520068 0.0001944786 1.00169e-05 -5.85608e-05 0.0001326898 -0.1207118925 0.0729270865
250298500.0 -0.7423642402 0.4107376417 -6.67668e-05 0.0001528912 5.21171e-05 -2.141e-07 -0.1199701038 0.0741504754
255298470.0 -0.7373395366 0.4188502875 -4.21249e-05 0.0001949394 0.0001367184 0.000152406 -0.1194550192 0.0750146172
260298440.0 -0.733322765 0.4264427169 9.66097e-05 2.542e-05 0.0001203678 8.75821e-05 -0.1189957 0.0755330655
265298410.0 -0.7287669314 0.4346349746 0.0002371476 0.0001337827 2.25661e-05 0.0003020649 -0.1183631288 0.076525326
270298380.0 -0.7244932362 0.4417245125 0.0001060885 0.0002323028 5.23865e-05 8.16968e-05 -0.1176344694 0.0778036703
275298350.0 -0.7197447397 0.449204389 0.00017395 -0.0002192559 2.48569e-05 7.6182e-05 -0.1171004818 0.0789582982
280298320.0 -0.7149296664 0.4567144649 3.06168e-05 -4.71752e-05 -6.23907e-05 7.89066e-05 -0.1163993624 0.079859519
285298290.0 -0.7101088846 0.4646309045 -5.80532e-05 1.16578e-05 7.91656e-05 3.76386e-05 -0.1158585228 0.0805564876
290298260.0 -0.7049095482 0.4715736149 0.0002061028 -6.75581e-05 3.72827e-05 7.06075e-05 -0.1151234992 0.0822460842
295298230.0 -0.7009221916 0.479331337 0.0001836552 0.0001114365 0.0002374305 0.0001068667 -0.1148571498 0.0829761804
300298200.0 -0.6945949304 0.486690418 0.0001019478 6.92826e-05 0.0001792247 -4.12669e-05 -0.1139906026 0.084249359
305298170.0 -0.690133648 0.4940368425 0.0002136243 0.0001580992 0.000323721 -7.97976e-05 -0.1129971658 0.0854672683
310298140.0 -0.6845425494 0.5011494833 5.85496e-05 2.2149e-06 -0.0001121397 7.99225e-05 -0.1122827278 0.0865193274
315298110.0 -0.6796629154 0.5083026601 0.0002526038 0.0001828823 0.0004224096 9.6912e-06 -0.1118164545 0.0872259407
320298080.0 -0.6743033526 0.5155908961 0.0001575696 0.000193509 -8.33595e-05 0.000161769 -0.1108743356 0.0884845039
325298050.0 -0.6684277778 0.5222573262 0.0002643569 0.0001743195 0.0002696408 7.23866e-05 -0.1104458242 0.0892204884
330298020.0 -0.6624937153 0.529229738 0.0001401693 0.0001593703 8.02386e-05 0.0001356417 -0.1097660185 0.0902515399
335297990.0 -0.6569396024 0.536012529 0.0001565108 -8.41943e-05 0.0001770496 0.0001379744 -0.1092473024 0.0914612957
340297960.0 -0.6520881923 0.5431503167 0.0001381045 0.0002311994 0.0001989004 5.1278e-05 -0.1084825894 0.0923950786
345297930.0 -0.6463521008 0.5486922727 0.0001856166 0.0002069289 0.0001594838 -0.000111097 -0.1079829076 0.0936316433
350297900.0 -0.6403605275 0.5563140292 0.0001713737 -0.0001829141 0.0001553853 -0.0001320182 -0.1072453978 0.0947091276
355297870.0 -0.6338094957 0.5624017954 0.0002399633 0.0002579156 0.0002499759 5.90895e-05 -0.1065926039 0.0960337784
360297840.0 -0.6280087025 0.5691267385 2.53362e-05 -3.65299e-05 0.0002229318 -6.60115e-05 -0.1056556318 0.0971752139
365297810.0 -0.6222268876 0.575614367 0.0002297886 -2.3398e-06 0.0001359205 -1.80271e-05 -0.1050517871 0.0985981121
370297780.0 -0.615959731 0.5821467124 -7.86176e-05 -0.000235284 0.0002042359 2.2456e-05 -0.1045708769 0.0993940432
375297750.0 -0.6100985098 0.5888786279 0.0001558633 0.0001098793 0.0002181927 1.3315e-05 -0.1037677487 0.1007196315
380297720.0 -0.6039355995 0.5950134065 9.5623e-06 -9.19866e-05 0.0003232731 5.93011e-05 -0.1026812313 0.1020091564
385297690.0 -0.5975579194 0.6009743389 0.0001048717 1.97659e-05 -1.761e-07 -2.40173e-05 -0.1020720003 0.1033037509
390297660.0 -0.5914016299 0.6071970994 -6.49737e-05 8.09606e-05 9.76077e-05 9.70262e-05 -0.1011330312 0.1041874412
395297630.0 -0.5854866973 0.6130949745 0.0003609291 -4.62905e-05 0.0001206023 -4.12383e-05 -0.1001558729 0.1053951887
400297600.0 -0.5793390313 0.6196083456 0.0002664821 8.9012e-06 8.63928e-05 0.0001220582 -0.0996064371 0.1064032358
405297570.0 -0.5723420501 0.6252270751 0.0001386945 0.0001086479 0.0001761784 0.0001484235 -0.0988094719 0.1079770859
410297540.0 -0.5659418011 0.6313234353 8.40317e-05 0.0002658192 6.95885e-05 0.0001201743 -0.097899965 0.1091636683
415297510.0 -0.5593423059 0.6365584268 9.1162e-05 0.000214891 0.0001417725 9.65244e-05 -0.0969474946 0.1102333041
420297480.0 -0.5518176183 0.6421585222 0.0002432776 0.0001469484 0.0002728493 0.0002674267 -0.0960517928 0.1111390151
425297450.0 -0.5455145888 0.648222349 9.8888e-05 4.6709e-06 0.0002583465 7.08803e-05 -0.0948392658 0.1122661074
430297420.0 -0.5393375721 0.6535198066 -0.0001147298 -0.0001248407 0.0001301678 -5.90713e-05 -0.0940685216 0.1132507721
435297390.0 -0.5316044788 0.6590715462 0.0003935256 4.57829e-05 0.0001448516 5.06411e-05 -0.093214342 0.1148686976
440297360.0 -0.5253689494 0.6645771122 0.0003129484 0.0003260997 0.0001443486 0.0002121626 -0.0924185193 0.1154733654
445297330.0 -0.5185664449 0.6700581273 4.23012e-05 0.0002182025 0.0002611753 7.9618e-06 -0.0912832274 0.1163560616
450297300.0 -0.5115218147 0.6745439364 3.57475e-05 5.83371e-05 0.0002071577 -5.86734e-05 -0.0906576555 0.117830005
455297270.0 -0.5041421767 0.6801500279 0.000353598 0.0001416874 2.7398e-05 5.15806e-05 -0.0896731103 0.118762146
460297240.0 -0.4975078515 0.6854432054 0.0003471776 0.0001280387 7.86613e-05 -6.13406e-05 -0.0884487018 0.120011961
465297210.0 -0.4903965738 0.6908508378 9.72468e-05 0.0002714874 0.0001542122 -5.95777e-05 -0.0876461 0.120804515
470297180.0 -0.4830225519 0.694974645 0.0002284253 9.27164e-05 0.0002787284 -7.82081e-05 -0.0870707024 0.1218980969
475297150.0 -0.4756185384 0.7000706699 0.0001187085 2.55996e-05 6.4055e-06 0.0002414394 -0.0856745299 0.1231721482
480297120.0 -0.4684209454 0.7049648854 0.0003887794 0.0002064796 0.0001507917 0.0001343055 -0.0846916273 0.1243047749
485297090.0 -0.4613008922 0.7097168091 0.0003194277 0.0001172813 0.000117209 0.000133648 -0.0836252018 0.1248674647
490297060.0 -0.4538535606 0.713820081 -6.66225e-05 -0.0001311546 0.0001301757 -4.83747e-05 -0.0828230057 0.1261466654
495297030.0 -0.4467744399 0.7189652172 0.0001794005 -3.04544e-05 -1.01088e-05 0.0001434063 -0.0816067893 0.1268732461
500297000.0 -0.4388699948 0.7236669719 0.0003044862 5.45608e-05 5.93401e-05 0.0001226163 -0.0802810116 0.1279612285
505296970.0 -0.4310017954 0.7274886213 0.0001106402 0.0002169772 0.0003216863 6.04597e-05 -0.0798022133 0.1289665067
510296940.0 -0.4249364695 0.7322532628 -3.76096e-05 3.18101e-05 9.38286e-05 9.20384e-05 -0.0783819523 0.1300956254
515296910.0 -0.4172606723 0.7365012668 0.0001405604 -2.36886e-05 0.0002988072 2.09172e-05 -0.077261646 0.1308420133
520296880.0 -0.4089462916 0.7412160649 8.381e-06 -7.0315e-06 0.0001130696 0.000107938 -0.0761491275 0.1317715408
525296850.0 -0.402015467 0.7442302014 0.0001900426 0.0002400821 0.0001073373 -5.77599e-05 -0.0747858721 0.1328139877
530296820.0 -0.3940043649 0.7481615351 0.0003273302 5.73847e-05 0.000249135 4.827e-06 -0.0741406376 0.1336526697
535296790.0 -0.3863166827 0.7524007584 2.97652e-05 6.76457e-05 0.0001838123 -2.54262e-05 -0.0728905059 0.134195619
540296760.0 -0.378082284 0.7562829034 0.000307228 5.42524e-05 0.0001375343 0.0001200834 -0.0717732063 0.1355713167
545296730.0 -0.3713067731 0.7597978891 0.0004093579 0.0001594726 0.0002221714 9.23941e-05 -0.0706338483 0.1360545349
550296700.0 -0.3632850892 0.7636067548 4.18578e-05 5.39286e-05 0.0001517269 2.27273e-05 -0.0692170338 0.1368574862
555296670.0 -0.3542974143 0.7667391309 0.0001937258 4.88859e-05 0.000393979 9.43463e-05 -0.0679094191 0.1379423867
560296640.0 -0.3470540387 0.7709206518 0.0001897395 -4.09354e-05 0.0002070902 1.36944e-05 -0.066697841 0.138763559
565296610.0 -0.3395728318 0.7740374869 0.0001798196 -4.14388e-05 0.0002324143 8.89415e-05 -0.0659912103 0.1397078416
570296580.0 -0.331798384 0.7777339436 1.68547e-05 -9.19263e-05 0.000270734 6.79789e-05 -0.0646859667 0.140612602
575296550.0 -0.3238256775 0.7809122926 0.0003291014 7.46324e-05 0.0002880675 0.0001870836 -0.063298338 0.1413477424
580296520.0 -0.3153789243 0.7838208731 0.0003044837 4.8759e-05 0.0002089268 2.60175e-05 -0.0621403404 0.142226051
585296490.0 -0.3078070601 0.7866041964 0.0001866354 0.0002561957 0.0001611848 -3.03464e-05 -0.0609647601 0.1424408095
590296460.0 -0.2994990823 0.7899576099 0.0005308542 6.09677e-05 0.0003293439 -2.82007e-05 -0.0594986813 0.1437650646
595296430.0 -0.2913340204 0.7933260961 0.0001883269 0.0003132371 0.0003177072 9.66484e-05 -0.0585429736 0.1443816612
600296400.0 -0.2833854676 0.7955240988 3.84646e-05 0.0002184161 0.0002488916 -0.0001264896 -0.0571378828 0.1449698442
605296370.0 -0.2754902159 0.7989534652 3.68982e-05 2.90351e-05 0.0001863662 -1.0092e-06 -0.05584891 0.146060008
610296340.0 -0.2675701511 0.8017094841 0.0002460275 1.85895e-05 0.000288373 0.0001887757 -0.0546835226 0.1468876119
615296310.0 -0.2588458302 0.8045353133 0.0003121259 0.0001436962 0.0002090312 -4.46264e-05 -0.0538215955 0.1471641299
620296280.0 -0.2502523152 0.8062078762 0.0001654396 3.5327e-05 0.0002328146 1.44216e-05 -0.0523494729 0.1477684473
625296250.0 -0.2422341019 0.8092201759 0.0003360255 0.0001238513 0.0002416587 -2.41062e-05 -0.0507735811 0.1488692671
630296220.0 -0.2338801016 0.8120759151 0.000309428 9.81847e-05 0.0001739475 -0.000137182 -0.0492373148 0.1495888215
635296190.0 -0.2262939308 0.8142389342 0.0003685393 -0.0001234245 0.0002788903 -9.42234e-05 -0.048054494 0.1504011347
640296160.0 -0.2177770231 0.8156673721 -3.35329e-05 6.67189e-05 0.0002151994 0.0001250258 -0.0466292723 0.1508698477
645296130.0 -0.2099111579 0.8184064762 0.0002819392 -3.17775e-05 0.000284015 -0.0001625973 -0.0455107122 0.1513372048
650296100.0 -0.2009490843 0.8203785283 0.0002979307 0.0002042371 0.0001580304 0.0001061793 -0.0439964548 0.1524038387
655296070.0 -0.1928796699 0.8223974119 0.0003430127 -0.0001216552 0.0002574363 -9.39304e-05 -0.0428513724 0.1527283531
660296040.0 -0.1847509605 0.8247512284 0.0003210756 8.08274e-05 0.0001763683 -8.7056e-06 -0.0415158272 0.1531680475
665296010.0 -0.1764107725 0.825989834 0.0002300855 -0.0001972237 0.0003257248 5.56771e-05 -0.0401151277 0.1541613535
670295980.0 -0.1677975855 0.8274876382 1.4691e-06 -7.94119e-05 5.39866e-05 -0.0001388726 -0.0391081551 0.1544198506
675295950.0 -0.1601539486 0.829084925 0.0002415531 -2.52973e-05 5.69591e-05 -0.0001115176 -0.0372456587 0.1551520598
680295920.0 -0.1515052749 0.8306774663 0.0001703599 2.22275e-05 0.0002504704 0.0001882315 -0.0358441563 0.1558736653
685295890.0 -0.1428306739 0.8319228583 0.0004699304 0.0001028648 0.0002846389 2.79066e-05 -0.0344818199 0.1564421191
690295860.0 -0.1344780171 0.8338454859 0.000251469 6.7764e-05 0.0002481413 -8.5374e-06 -0.0331515806 0.1568019208
695295830.0 -0.1256266011 0.8343319376 0.0003988738 4.09407e-05 0.0003403395 0.0001026378 -0.0319169117 0.1572112587
700295800.0 -0.1180206194 0.8357242357 0.0001765104 0.0001031246 0.0002780437 6.76707e-05 -0.0302086762 0.1577477652
705295770.0 -0.1088540567 0.8374810241 0.0001071281 2.84598e-05 0.0002000909 -5.33487e-05 -0.0291315561 0.1584887568
710295740.0 -0.1011317839 0.8383750325 0.0001940674 -9.22548e-05 8.38327e-05 -0.0001302824 -0.0279947229 0.1591591211
715295710.0 -0.0929256582 0.8390870438 0.000260142 -4.77778e-05 0.0003864389 -7.76618e-05 -0.0262736522 0.1592611171
720295680.0 -0.0847698544 0.8399367887 0.0002629087 -1.2749e-06 -6.50864e-05 1.7924e-06 -0.0245499655 0.1593729046
725295650.0 -0.0749077313 0.840750589 0.0002434652 1.92697e-05 0.0001573144 0.0002715585 -0.0231988088 0.1601039754
730295620.0 -0.0668131982 0.8412128281 0.0003278544 -1.17722e-05 0.000363998 -0.0001204844 -0.0218632719 0.1604555074
735295590.0 -0.0579900924 0.8413009379 2.90193e-05 -7.34335e-05 0.000131783 -3.23524e-05 -0.0202608269 0.1607694627
740295560.0 -0.0502785333 0.842686822 0.0003647445 0.0001821624 0.0003429311 -0.0001385048 -0.0190079889 0.1610563225
745295530.0 -0.0416272789 0.8427920923 0.000275102 0.0002041376 0.0003725068 0.0002258305 -0.0172870131 0.1617836115
750295500.0 -0.0333301774 0.8428894208 0.0005253953 -5.71521e-05 0.0001471395 -0.0001098843 -0.0160826236 0.1619341371
755295470.0 -0.0238735699 0.8437192642 0.0004326539 -8.80428e-05 0.0001978714 2.66651e-05 -0.0147099781 0.1625583576
760295440.0 -0.015429622 0.8437134324 0.0002095655 0.0002042288 0.0003201319 0.0001136419 -0.0132954382 0.1627177794
765295410.0 -0.0078831154 0.8441892363 0.0006260211 -3.97544e-05 0.000287959 -3.001e-06 -0.0114612249 0.1630525356
770295380.0 0.0004974245 0.8445643773 0.0001827438 -0.000249711 0.0002072199 -0.000206901 -0.0098793737 0.1631625875
775295350.0 0.0090299514 0.8442849153 0.0001042657 -0.0002378877 0.0003923685 0.0001115576 -0.0088137014 0.1635437773
780295320.0 0.0174671463 0.8434282689 0.0002193459 0.0002137095 0.0001980368 1.63585e-05 -0.0073046373 0.1640290637
785295290.0 0.0260921477 0.8436496662 0.0003417177 -0.000314164 0.0002775851 -2.30041e-05 -0.0057778372 0.1644934154
790295260.0 0.0346643445 0.8426360927 0.0003561467 -0.0001695781 0.000357305 -0.0001055191 -0.0039777682 0.1643009041
795295230.0 0.0427840803 0.8433658451 0.0003288796 -0.000106894 0.0002714855 -9.65932e-05 -0.0023824137 0.164978537
800295200.0 0.0517065668 0.8423509168 0.0004262479 -0.000126298 0.0004282856 -0.0003386344 -0.0008226142 0.1648352758
805295170.0 0.0603811945 0.8421776799 0.0001686464 -0.0001752931 0.0003537175 -0.0001562928 0.0004042496 0.1650341173
810295140.0 0.0679831797 0.8411218523 0.0003452012 -0.0001835647 0.0002648673 -6.25675e-05 0.0024191745 0.1655014909
815295110.0 0.0771484837 0.8403563285 0.0004399464 -5.0503e-05 0.0002878939 -0.0001784925 0.0036576003 0.1656859943
820295080.0 0.0856250124 0.8390559369 0.0002359724 1.32485e-05 0.0003514983 -0.0001028727 0.0049955019 0.165740062
825295050.0 0.0940673342 0.8383103562 0.0002779718 -6.96325e-05 0.0004160652 -5.96417e-05 0.0068998368 0.1659948659
830295020.0 0.102571366 0.8376289212 0.0002656889 -0.0002202853 0.0003922983 -3.56139e-05 0.0080808463 0.1662457295
835294990.0 0.10999248 0.8365815036 0.0003561348 -9.7661e-06 0.0003541522 -0.0001007367 0.009787893 0.1658857388
840294960.0 0.1188003937 0.835403555 6.9505e-05 -0.0001843238 0.0004094027 -0.0003564338 0.0111763657 0.1664932389
845294930.0 0.1272713019 0.834814318 0.0001668726 -0.0001202774 0.0002306674 -0.0001041168 0.0126988757 0.1663903095
850294900.0 0.1351898571 0.8325813417 0.0003765834 -0.0003015715 0.0001929809 2.04233e-05 0.0142328205 0.1664033863
