!Created with skrf (http://scikit-rf.org).
# Hz S RI R 50.0 
!freq ReS11 ImS11 ReS21 ImS21 ReS12 ImS12 ReS22 ImS22
300000.0 -0.3234392461 -0.079296397 0.3773424762 0.0412005371 0.3730223015 0.0413277909 -0.321234614 -0.0966136301
5299970.0 -0.3263848383 0.0045971921 0.3782418915 0.0024352003 0.3781899275 0.0023975015 -0.3239257294 0.005036058
10299940.0 -0.3242374694 0.0134357635 0.3794939198 0.002086779 0.3794262613 0.0024836189 -0.3214638149 0.0158851509
15299910.0 -0.3216616818 0.02047581 0.3818252113 0.0022195981 0.3817808078 0.0021159193 -0.3181323141 0.0237474382
20299880.0 -0.3188609811 0.026343308 0.3848559161 0.0016395118 0.385159788 0.0016895162 -0.3148646025 0.030441193
25299850.0 -0.3159650177 0.0317695868 0.3882586844 -8.11112e-05 0.3880874236 0.0001746108 -0.3106893951 0.0360333116
30299820.0 -0.3127536225 0.0358866755 0.3916922439 -0.0021744212 0.3913636306 -0.002286147 -0.3070042348 0.0409432848
35299790.0 -0.3099422537 0.0399159689 0.3948909734 -0.0053006856 0.3947666888 -0.0055606906 -0.3035614753 0.0454322492
40299760.0 -0.3072153965 0.0436957767 0.3979180848 -0.0089991014 0.3978778177 -0.0088655013 -0.3002693695 0.0483948935
45299730.0 -0.3042822648 0.046675135 0.4006361329 -0.0129763386 0.4010006181 -0.0126290652 -0.2971910559 0.0516335087
50299700.0 -0.302325886 0.0495830984 0.4034597841 -0.0172007933 0.4034441298 -0.017016699 -0.2943229889 0.054534053
55299670.0 -0.3004927875 0.052163518 0.4058564591 -0.0222568458 0.4056877436 -0.0221350111 -0.2918071543 0.0571206417
60299640.0 -0.2978024938 0.0550295679 0.4073213255 -0.0270705663 0.4077274278 -0.026781348 -0.2891916114 0.0594835624
65299610.0 -0.296184524 0.0573342853 0.4090648393 -0.0319685097 0.4091820477 -0.0322268697 -0.2871055823 0.0617681015
70299580.0 -0.2944279322 0.0600735324 0.4106134241 -0.0369344178 0.4105278465 -0.0369857774 -0.2850758322 0.0638027711
75299550.0 -0.2928998033 0.0623305081 0.4112123541 -0.0419754924 0.4113750944 -0.0421312964 -0.2835222065 0.0657737053
80299520.0 -0.2915321378 0.0648129012 0.4124720005 -0.0475926643 0.4124366374 -0.047568274 -0.281631218 0.0679814383
85299490.0 -0.2901123079 0.0668132238 0.4127800439 -0.0521870599 0.4129679995 -0.0524015582 -0.2799837218 0.0697821569
90299460.0 -0.2888364763 0.0691551296 0.4129182661 -0.057748595 0.4134758506 -0.057776093 -0.2782382396 0.0721000321
95299430.0 -0.2873816519 0.0716541324 0.413404367 -0.0632104794 0.4134227718 -0.0633379683 -0.2766567654 0.0744455358
100299400.0 -0.2863881631 0.0743433414 0.4132087122 -0.0685025122 0.4132524785 -0.068094631 -0.2752773731 0.0758345285
105299370.0 -0.2853022244 0.0764399831 0.4136038874 -0.0738210052 0.4134488368 -0.0735902806 -0.2737461728 0.0779550656
110299340.0 -0.2838323101 0.0787446052 0.4133881958 -0.0787216774 0.413356763 -0.0783576281 -0.273148873 0.0800896553
115299310.0 -0.2828692422 0.0809698523 0.4129901261 -0.0839160686 0.412559951 -0.0839498547 -0.2714552352 0.0825125015
120299280.0 -0.2819775066 0.0830441548 0.4125269441 -0.0887204622 0.4123447874 -0.0889217514 -0.2704167521 0.084439186
125299250.0 -0.281231094 0.0853341514 0.4120545786 -0.0939412122 0.4119742791 -0.0938933844 -0.2693814065 0.0863756629
130299220.0 -0.2804275463 0.088259244 0.4111869397 -0.0992170025 0.4110399152 -0.0992512962 -0.2684489522 0.0886649611
135299190.0 -0.2793239759 0.090932065 0.4107189219 -0.1040603247 0.4104635866 -0.1038208363 -0.2670027208 0.0909817501
140299160.0 -0.2783577776 0.0931964597 0.4092376766 -0.1091385628 0.4097455415 -0.1093876432 -0.2664575205 0.0934802414
145299130.0 -0.2775881464 0.0958319629 0.4086693066 -0.1143279972 0.4086600601 -0.1142550694 -0.2654805642 0.0957898436
150299100.0 -0.2764068869 0.0983124161 0.4076345497 -0.1187243812 0.4078892567 -0.1187763306 -0.2645541285 0.0983635569
155299070.0 -0.2754022032 0.101005994 0.4068272411 -0.1243422115 0.4062165002 -0.1240664776 -0.2629141546 0.1006676654
160299040.0 -0.2748484154 0.103412805 0.4054494122 -0.1287397264 0.4049951718 -0.1288563915 -0.2625939198 0.1032203221
165299010.0 -0.2735503222 0.1060474345 0.4041119245 -0.1337008226 0.4041773455 -0.1340808571 -0.2612484583 0.105815106
170298980.0 -0.2726682902 0.1083247924 0.4023891158 -0.1384825895 0.402830604 -0.1385653345 -0.2603268415 0.1081403796
175298950.0 -0.2719111807 0.1109573157 0.4018646486 -0.142990661 0.4012522596 -0.1432256451 -0.259413409 0.1107088488
180298920.0 -0.2708281718 0.1140033897 0.3999798511 -0.1480845735 0.4000221211 -0.1477011971 -0.2584306906 0.113399818
185298890.0 -0.2693962294 0.1166184152 0.3984041572 -0.1528043355 0.3982798556 -0.1524602995 -0.2572587087 0.1158481175
190298860.0 -0.2687432214 0.1194732258 0.3970752389 -0.1574955638 0.3970459742 -0.157004315 -0.2561402184 0.1182808245
195298830.0 -0.2677510416 0.1217811329 0.3953285969 -0.1619859448 0.3948787054 -0.1619044692 -0.2550474176 0.1209287737
200298800.0 -0.2664000038 0.1244199089 0.3933231023 -0.1667482142 0.3935172243 -0.1669988396 -0.2544467929 0.1235731556
205298770.0 -0.2653100726 0.127330503 0.3912006094 -0.1716774283 0.3914589063 -0.1710324164 -0.253186634 0.1256898427
210298740.0 -0.264448104 0.1298486414 0.3897891555 -0.1751736186 0.3901068523 -0.1755743295 -0.2517557216 0.1286368181
215298710.0 -0.2636107303 0.1329306256 0.3882231944 -0.1803330685 0.3876662941 -0.1801906555 -0.2510453142 0.1309670199
220298680.0 -0.2618704678 0.1349029254 0.3856883586 -0.1845202531 0.3858979269 -0.1845974729 -0.2501790664 0.1333434193
225298650.0 -0.2611269374 0.1381501336 0.3836688926 -0.1893256468 0.3840722783 -0.1889280199 -0.2493126028 0.1358363233
230298620.0 -0.2596883482 0.1408622518 0.3820108901 -0.1933935243 0.3824943681 -0.1937009459 -0.2478161144 0.1386455776
235298590.0 -0.2582543407 0.1437053585 0.3800757942 -0.19813542 0.379985226 -0.1976559185 -0.2463955373 0.1411564112
240298560.0 -0.2568692895 0.1464128581 0.3777538557 -0.2024573702 0.3775879169 -0.2023291612 -0.2452899907 0.1440538836
245298530.0 -0.2560343963 0.1490620869 0.3756459491 -0.2065882517 0.375441964 -0.206716299 -0.2438891915 0.1462165945
250298500.0 -0.2540391174 0.1516536826 0.3726327204 -0.2111117836 0.3725248371 -0.2108291897 -0.2425257081 0.1486029931
255298470.0 -0.2527336119 0.1541624505 0.3701705929 -0.21506995 0.3705841033 -0.2150492221 -0.2412189773 0.1508183326
260298440.0 -0.2516595407 0.1567695623 0.3683595262 -0.2195140854 0.3683787486 -0.2192446115 -0.2397232204 0.1536591711
265298410.0 -0.249784425 0.159667332 0.3657471901 -0.2234220136 0.3661266324 -0.2231794284 -0.238151764 0.1562152821
270298380.0 -0.2486532706 0.1623274261 0.3640298585 -0.2274489496 0.363590223 -0.2275507068 -0.2367066264 0.1586179661
275298350.0 -0.2469281749 0.1650810091 0.3609455151 -0.2318073374 0.3610970857 -0.2317796773 -0.235156752 0.1609831306
280298320.0 -0.2450402148 0.1677327046 0.3582753205 -0.235811701 0.3585224709 -0.2357792975 -0.2332924411 0.1633456951
285298290.0 -0.2433720778 0.1707873773 0.3561106195 -0.2399147263 0.3558540437 -0.240134439 -0.2320051508 0.166079356
290298260.0 -0.2418669959 0.1731796609 0.3530292897 -0.243617223 0.3531014825 -0.2440066027 -0.2303390396 0.1689496858
295298230.0 -0.2397889212 0.1753700087 0.3505268251 -0.2480315763 0.3504384659 -0.2478370566 -0.2282728772 0.1708341715
300298200.0 -0.238546279 0.178220576 0.3479643222 -0.2515815849 0.3480343195 -0.2518943038 -0.2267341853 0.173449966
305298170.0 -0.2366255697 0.1804127559 0.3450460631 -0.2559576071 0.3451977406 -0.2558838173 -0.2244723907 0.1755330097
310298140.0 -0.2350521173 0.1834353967 0.3423125167 -0.2600109104 0.3425017536 -0.2595088525 -0.2233213625 0.1779641466
315298110.0 -0.2330727693 0.1856116611 0.3393888565 -0.2634623293 0.3393066809 -0.2637454678 -0.2214711925 0.1805295873
320298080.0 -0.2312302499 0.1882972181 0.3359913454 -0.2677423066 0.3365935103 -0.2674763255 -0.2194189524 0.1831991072
325298050.0 -0.2293075636 0.1908039286 0.3332384527 -0.2715681102 0.333190738 -0.2711712028 -0.2179440544 0.1853213282
330298020.0 -0.2275061913 0.1931434397 0.330263688 -0.2751110316 0.3304270474 -0.2750690872 -0.2160584339 0.1881961341
335297990.0 -0.2258520473 0.1954868468 0.3270367773 -0.278300062 0.3271587397 -0.2790265046 -0.2147376112 0.190817719
340297960.0 -0.2242391833 0.1982232642 0.3238512393 -0.2822120367 0.3234914206 -0.2825787051 -0.2120314628 0.193395811
345297930.0 -0.2222659477 0.2008659465 0.3204488303 -0.2860426224 0.3204348774 -0.2861558584 -0.210541475 0.1950981484
350297900.0 -0.2200649511 0.203236176 0.3170422109 -0.2898063964 0.3170894716 -0.2891340322 -0.2087153647 0.1981671552
355297870.0 -0.2180042688 0.2061325008 0.3138082358 -0.293389756 0.3142206046 -0.2927661245 -0.2070108193 0.2001781461
360297840.0 -0.2163301522 0.2084900075 0.3112794915 -0.2963320868 0.3111006433 -0.2962239995 -0.2048822388 0.2026806336
365297810.0 -0.2141209116 0.2109559541 0.3078548552 -0.2998598227 0.3076466098 -0.2998995908 -0.2026833294 0.2048357731
370297780.0 -0.2115492588 0.2129442319 0.3040211621 -0.3026972808 0.3046321846 -0.3029240781 -0.2006751617 0.2075865085
375297750.0 -0.2093900284 0.2155508796 0.3009124075 -0.3063844003 0.3011608722 -0.3065213176 -0.1985341408 0.209594679
380297720.0 -0.2075037707 0.2176931714 0.2972607487 -0.3096146391 0.2974387173 -0.3093579977 -0.196797184 0.2118563561
385297690.0 -0.2056863405 0.2202956834 0.2942491683 -0.3127676756 0.2936458402 -0.3129110548 -0.1945850972 0.214274737
390297660.0 -0.2030730348 0.2224523917 0.2903845665 -0.3160089866 0.2903366769 -0.316086935 -0.1927776502 0.2166358196
395297630.0 -0.2009688324 0.2250148584 0.2871617744 -0.3193902573 0.286928675 -0.319376667 -0.1902964534 0.2187057719
400297600.0 -0.1983812913 0.2272648192 0.2831923795 -0.3226827127 0.2833811615 -0.3227908148 -0.1879147399 0.2210299517
405297570.0 -0.1966138888 0.2295512347 0.2802392079 -0.3254616191 0.2800126022 -0.3256527196 -0.1862895871 0.2229866606
410297540.0 -0.1935610712 0.2316650287 0.2763165394 -0.328333707 0.2765491184 -0.3285816434 -0.1837828447 0.2255054163
415297510.0 -0.1913833828 0.2336295688 0.2723466464 -0.3318480679 0.272791399 -0.3317790623 -0.1815249931 0.2273165838
420297480.0 -0.1891591638 0.2364512415 0.268767393 -0.3350313153 0.2688626881 -0.3347858703 -0.1794033474 0.2290681363
425297450.0 -0.1865350643 0.2381727278 0.265357003 -0.3374752061 0.2659059648 -0.337716042 -0.1772829573 0.2312888705
430297420.0 -0.1842654167 0.2403379764 0.2616417046 -0.339946443 0.2615709555 -0.3403737686 -0.1750420587 0.2333291222
435297390.0 -0.1819250696 0.242535875 0.2572899204 -0.3430295672 0.2573650057 -0.3430116031 -0.171708433 0.2352726097
440297360.0 -0.1791834718 0.2444818964 0.2537504521 -0.3457831414 0.2541342619 -0.3460967598 -0.1696307239 0.2370036973
445297330.0 -0.1767238935 0.2465089302 0.250121729 -0.3487689195 0.2501201543 -0.3488687121 -0.1670089035 0.238759216
450297300.0 -0.17388143 0.2484647214 0.246168895 -0.3516015277 0.2464031687 -0.3517878885 -0.1648306007 0.2406973581
455297270.0 -0.1716478228 0.2504279877 0.2422024214 -0.3539341208 0.2422842288 -0.3539798437 -0.1621882374 0.242398891
460297240.0 -0.169047692 0.2523458174 0.2384240232 -0.3567505683 0.2384864163 -0.3566061277 -0.1595463486 0.2446141967
465297210.0 -0.16608568 0.2545888003 0.2344643142 -0.3591805244 0.2344766889 -0.3595277845 -0.157004802 0.2459090769
470297180.0 -0.1633632412 0.256179666 0.2299738449 -0.3618097609 0.2305424117 -0.3616217673 -0.1541204315 0.2483383935
475297150.0 -0.1607051746 0.2579272577 0.2263168276 -0.3640292545 0.2266272309 -0.3639242544 -0.1515380934 0.249463864
480297120.0 -0.1582472107 0.2602492472 0.2227119393 -0.3667366072 0.222270588 -0.3670796998 -0.1489319989 0.2515151373
485297090.0 -0.1553698115 0.261660931 0.2184528439 -0.3690226663 0.2188104976 -0.3690129006 -0.1463296396 0.2529386662
490297060.0 -0.1530767049 0.2637901795 0.2146898772 -0.3717369006 0.214716035 -0.3713545064 -0.1437216685 0.2550805625
495297030.0 -0.1502852534 0.265321735 0.2101440139 -0.3738019992 0.2105975601 -0.3735802152 -0.1411903616 0.2568890958
500297000.0 -0.1469726247 0.2670492719 0.2060289278 -0.3757485085 0.2058494241 -0.3756463998 -0.1380913775 0.2588133647
505296970.0 -0.1444846511 0.2686295328 0.2020888564 -0.3778753553 0.2019421392 -0.3781274704 -0.1354775282 0.2601488213
510296940.0 -0.1418394954 0.2703141233 0.1979739184 -0.3801197236 0.1980234501 -0.3807770693 -0.1326271311 0.2621451498
515296910.0 -0.138698088 0.2718945198 0.193546651 -0.3821767086 0.1937130857 -0.382491013 -0.1299364773 0.2632204992
520296880.0 -0.1361451185 0.2735351539 0.1896088357 -0.3845758248 0.1895794916 -0.3841552118 -0.1273265054 0.2645992238
525296850.0 -0.1329459063 0.2749585079 0.1851551234 -0.3860647758 0.1855863164 -0.3864506695 -0.1243145808 0.2665282679
530296820.0 -0.130120223 0.2768345745 0.1809214289 -0.3885508333 0.1812383521 -0.3885519053 -0.121662775 0.267891761
535296790.0 -0.1276847691 0.2780613255 0.1770762319 -0.390334297 0.1770845089 -0.390023389 -0.1192490323 0.2688014942
540296760.0 -0.1246286562 0.2798431647 0.172536751 -0.3924180941 0.1723089672 -0.3921846365 -0.1164771776 0.2708427776
545296730.0 -0.1218751441 0.2816020171 0.168210638 -0.3942287282 0.1683611687 -0.3939325605 -0.1137920205 0.2721009917
550296700.0 -0.1185098279 0.282829518 0.1637484063 -0.3961200277 0.1642036448 -0.3960485749 -0.1109667148 0.2739059272
555296670.0 -0.1157313242 0.28391078 0.1594521676 -0.3974752539 0.159835339 -0.3975249595 -0.1078398444 0.2752748978
560296640.0 -0.1126691286 0.2854349697 0.1554156377 -0.3990799893 0.1552408532 -0.3995302113 -0.104786027 0.2765089974
565296610.0 -0.109771388 0.2870494195 0.1508801901 -0.4009257603 0.1507875183 -0.400689446 -0.1020839408 0.277411155
570296580.0 -0.1070567228 0.2876725009 0.1465878583 -0.4025248271 0.1461657536 -0.4022655694 -0.0997214231 0.2792729735
575296550.0 -0.1036602598 0.2896183183 0.1418958227 -0.4040818157 0.1418455953 -0.4041353488 -0.0965095304 0.2802600275
580296520.0 -0.1006664592 0.2905290909 0.1376149017 -0.4056829307 0.1375775039 -0.4052751779 -0.093225944 0.2813741212
585296490.0 -0.0978796851 0.29159105 0.133368615 -0.4065261727 0.1331743023 -0.4071224021 -0.0905663845 0.2823416894
590296460.0 -0.0944402281 0.2929293974 0.1288586399 -0.4079493828 0.129002473 -0.4081983235 -0.0881489316 0.2835713669
595296430.0 -0.0915939778 0.2939432512 0.1243028158 -0.4097239052 0.1241989225 -0.4096600583 -0.0847270897 0.2840160212
600296400.0 -0.0887077956 0.2949241066 0.120024092 -0.4108957579 0.1197619509 -0.4109075815 -0.0819452187 0.285468875
605296370.0 -0.0858925266 0.2964063099 0.1151250446 -0.4122277568 0.115488861 -0.4120659465 -0.0785051584 0.2863769742
610296340.0 -0.0822834242 0.2972617103 0.110704294 -0.4134218375 0.110813047 -0.4132327534 -0.0758538964 0.2872460733
615296310.0 -0.0788023979 0.2980307122 0.1060546665 -0.4141916714 0.1060660164 -0.4150274461 -0.0725293986 0.2878917354
620296280.0 -0.0759980115 0.298894037 0.1016198804 -0.4154719795 0.101874948 -0.4154107473 -0.0697767655 0.2891084714
625296250.0 -0.0730542678 0.2997262768 0.0974278944 -0.4165244927 0.0972111486 -0.4166193641 -0.0660279059 0.289629593
630296220.0 -0.0693129566 0.3008200853 0.0923650541 -0.4175118423 0.0923464625 -0.4172660537 -0.0635597373 0.2905647601
635296190.0 -0.0668669246 0.3017404689 0.088381548 -0.418435369 0.0879935305 -0.4184942701 -0.0603343255 0.2913761056
640296160.0 -0.0636500363 0.3023053638 0.0838775389 -0.4191588445 0.0838583512 -0.4194956654 -0.0571790724 0.2920919261
645296130.0 -0.0606104435 0.303701429 0.0788992093 -0.4201876723 0.0794829594 -0.4202151538 -0.0540257589 0.2931330822
650296100.0 -0.0571243465 0.3039698903 0.0745076508 -0.420701883 0.0745283977 -0.4209264275 -0.0508704415 0.293186506
655296070.0 -0.0540221837 0.3046745155 0.0700701097 -0.421731735 0.070206402 -0.4217504947 -0.0477028273 0.2940253126
660296040.0 -0.0510607251 0.3052579672 0.0658192622 -0.4222743501 0.0654792405 -0.4223800127 -0.0442900371 0.2947915025
665296010.0 -0.0473521678 0.3056387426 0.0605290194 -0.4229939618 0.0605424651 -0.422868803 -0.0412143144 0.2960612838
670295980.0 -0.0449224852 0.3066073295 0.0562180111 -0.4235008307 0.0559647874 -0.4234353977 -0.0385779561 0.2961456723
675295950.0 -0.0416645859 0.3073086155 0.0517760406 -0.4241269944 0.0517980233 -0.423720031 -0.0354680268 0.2970469435
680295920.0 -0.038131047 0.3078426944 0.0467201138 -0.424381466 0.0466879302 -0.425097925 -0.0321807084 0.2979015752
685295890.0 -0.0347606249 0.3086817523 0.0421736635 -0.4251022349 0.0420220163 -0.4250110864 -0.0287794392 0.2982903611
690295860.0 -0.0315014295 0.3090224473 0.0378951629 -0.4253014074 0.0377208764 -0.4258549281 -0.0257471811 0.299258475
695295830.0 -0.0284898729 0.3092687388 0.0334524803 -0.4258528766 0.03317685 -0.4258007155 -0.0223337373 0.2993727001
700295800.0 -0.0249823361 0.3094473289 0.0282608221 -0.4256804814 0.0284819563 -0.4261095497 -0.0198385716 0.3001477434
705295770.0 -0.0221260689 0.3105869562 0.0238798525 -0.4263452033 0.0239276875 -0.4265168791 -0.016291813 0.3004305847
710295740.0 -0.0186064671 0.3110032394 0.0195363494 -0.4271882442 0.0194564973 -0.4266144787 -0.013321977 0.3004433025
715295710.0 -0.0157911608 0.3109046741 0.015251743 -0.4266360761 0.0142380366 -0.4268089685 -0.0103081736 0.3005018863
720295680.0 -0.0122056664 0.3109756061 0.010263373 -0.4267696536 0.0101969214 -0.4270058867 -0.006857967 0.3014291789
725295650.0 -0.0084559573 0.3115724449 0.0051094312 -0.4269201409 0.0057745481 -0.4273235229 -0.0044958692 0.3015608611
730295620.0 -0.0052262753 0.3117209202 0.000394741 -0.4265184561 0.0008543395 -0.4268419576 -0.0012219466 0.3014224432
735295590.0 -0.0022528199 0.3120970449 -0.004096254 -0.4272696034 -0.003764815 -0.4269512384 0.00163916 0.301505365
740295560.0 0.0007192565 0.3125074449 -0.0081615904 -0.4268203879 -0.0085594388 -0.4271286934 0.0055414894 0.3020098355
745295530.0 0.0040506182 0.3124767871 -0.0134245973 -0.426147313 -0.0133995827 -0.4264022487 0.0087359807 0.3016115183
750295500.0 0.0077844282 0.3122400889 -0.0178019044 -0.4262896958 -0.0175360126 -0.4263452351 0.011576136 0.3018204794
755295470.0 0.0108288819 0.3123054564 -0.0222767234 -0.4259493701 -0.0227007756 -0.4261403703 0.0151856029 0.3013905536
760295440.0 0.0135596559 0.3124422172 -0.0268401292 -0.4259796725 -0.0270633257 -0.4259185721 0.0178452593 0.3014260869
765295410.0 0.0172738506 0.3123947149 -0.0316427851 -0.4254855344 -0.0322945801 -0.4253805414 0.0210458248 0.3016373433
770295380.0 0.0200293538 0.3122644349 -0.0360793935 -0.4252050265 -0.0365803618 -0.42505998 0.024108588 0.3014271007
775295350.0 0.0231568377 0.3120059756 -0.0409831962 -0.4242991377 -0.0403504305 -0.4246100524 0.0268320699 0.3014158307
780295320.0 0.0269184577 0.3121636106 -0.0452773779 -0.4242300895 -0.0449146009 -0.4241298565 0.0302265164 0.3011454853
785295290.0 0.0296606255 0.3110891261 -0.0502359683 -0.4232354478 -0.0496308491 -0.4233703555 0.0338451294 0.3009189108
790295260.0 0.0337695946 0.3117479055 -0.0544352211 -0.4227109688 -0.0537619909 -0.4227743627 0.0370780417 0.3006829789
795295230.0 0.0368799334 0.3110345251 -0.0587074307 -0.4218665017 -0.0589010386 -0.4226431327 0.0404347989 0.3002696744
800295200.0 0.039751638 0.3112125927 -0.0636796821 -0.4216617986 -0.0633208166 -0.421473969 0.0433545498 0.2999671665
805295170.0 0.0431858732 0.310737858 -0.0681865704 -0.4209704913 -0.0679349216 -0.4208311315 0.0462447272 0.3000752915
810295140.0 0.0465724348 0.3099262323 -0.0721857837 -0.419531283 -0.0727608455 -0.4201545363 0.0500735379 0.299470241
815295110.0 0.0495594398 0.3096646314 -0.0769249298 -0.4187490425 -0.0770475218 -0.4192267213 0.0529802055 0.2990455802
820295080.0 0.052428775 0.3099291058 -0.0812015165 -0.418016042 -0.081435526 -0.4179523369 0.0564642667 0.298473577
825295050.0 0.0562022151 0.3092754352 -0.0857667804 -0.4171988523 -0.0861902868 -0.417277574 0.0596270627 0.2983699802
830295020.0 0.0592528856 0.3088551841 -0.0908336126 -0.4162611755 -0.0907090466 -0.4159532817 0.0633113664 0.2975468186
