!Created with skrf (http://scikit-rf.org).
# Hz S RI R 50.0 
!freq ReS11 ImS11 ReS21 ImS21 ReS12 ImS12 ReS22 ImS22
300000.0 -0.7743480528 -0.1404675026 -0.001360066 0.0007340846 0.0002855575 0.0009510737 -0.209869126 -0.0884375621
5299970.0 -0.7848748177 -0.0071938379 -6.77698e-05 -4.71061e-05 5.2364e-06 5.12879e-05 -0.2162478079 0.0067807834
10299940.0 -0.7876467987 -0.0045215241 4.3329e-06 9.34968e-05 -0.0001714239 -1.1465e-06 -0.2130632106 0.018582987
15299910.0 -0.7929988889 -0.0017101496 -8.93115e-05 5.62317e-05 6.59739e-05 9.77938e-05 -0.2082080478 0.0279033046
20299880.0 -0.7996616941 0.0023637468 6.96324e-05 0.0002138436 9.3174e-06 6.08034e-05 -0.2030510526 0.0355271731
25299850.0 -0.8063316196 0.0081444987 -1.36697e-05 1.52543e-05 -0.0001147336 -2.2387e-05 -0.1975032852 0.0415243125
30299820.0 -0.8120448408 0.0163620881 -0.0001807504 5.24131e-05 8.59485e-05 0.0001313404 -0.1915768251 0.0464731417
35299790.0 -0.8172986065 0.0248791465 -1.56074e-05 2.87857e-05 -1.2075e-06 0.0001731292 -0.1861177799 0.0502919636
40299760.0 -0.8216462544 0.0340002882 8.43611e-05 9.43458e-05 -8.78245e-05 1.1287e-06 -0.1801887219 0.0529213688
45299730.0 -0.824467483 0.0441585231 3.48822e-05 -0.0001447554 8.26203e-05 -6.67334e-05 -0.1754948552 0.0551268886
50299700.0 -0.826892143 0.0539883142 2.09024e-05 -0.0001574716 -5.0047e-05 3.74972e-05 -0.1705618713 0.0566293826
55299670.0 -0.8289134326 0.0638540749 -6.85994e-05 -6.58609e-05 2.86551e-05 0.0002335977 -0.1664251295 0.0577991755
60299640.0 -0.8299885445 0.0744501713 -8.50591e-05 5.25489e-05 4.38728e-05 6.0385e-05 -0.1623461796 0.0586391759
65299610.0 -0.8309236716 0.0848843312 6.4975e-05 -5.73805e-05 0.0002158386 5.56908e-05 -0.1586954465 0.0590317556
70299580.0 -0.8314743023 0.0945193533 9.98238e-05 -0.0002077145 -5.05324e-05 -9.65496e-05 -0.155164156 0.0589973648
75299550.0 -0.831709474 0.1049034492 -7.86087e-05 6.80804e-05 -0.0001150629 8.50664e-05 -0.1527731908 0.0594749673
80299520.0 -0.8312915896 0.1145579422 6.82777e-05 -6.96026e-05 -5.5156e-05 1.75322e-05 -0.1504193464 0.0595869486
85299490.0 -0.8307011844 0.1239890253 0.0001216349 -8.00032e-05 -7.91691e-05 4.05754e-05 -0.1474717174 0.0594275488
90299460.0 -0.8298062022 0.1339076312 6.95891e-05 -7.38064e-05 6.57279e-05 0.0002828213 -0.1455156692 0.0595553602
95299430.0 -0.8285597772 0.1435961389 -6.522e-05 -0.0001657004 -9.79055e-05 2.60253e-05 -0.1430733433 0.0594976907
100299400.0 -0.8278470359 0.1529976848 0.0001098472 0.0001600231 0.0001065721 -6.80593e-05 -0.1418352388 0.059537836
105299370.0 -0.8267572029 0.1620029484 -2.61667e-05 0.0002076894 -3.11995e-05 4.17506e-05 -0.1399918249 0.0593083211
110299340.0 -0.8252516004 0.1710595086 6.94663e-05 0.0001012239 4.1797e-05 -4.06703e-05 -0.1387105732 0.0594862238
115299310.0 -0.82366779 0.1806274206 0.0001327268 -4.05988e-05 -0.0001912357 -7.62204e-05 -0.1371783369 0.0590752606
120299280.0 -0.8219577394 0.1894409902 -4.33997e-05 5.02895e-05 -7.43582e-05 1.80757e-05 -0.1359879411 0.059232009
125299250.0 -0.8206678374 0.1983831013 -7.73625e-05 3.39595e-05 2.411e-07 8.48209e-05 -0.1347401795 0.0594084367
130299220.0 -0.8181317158 0.2078165926 2.04061e-05 0.0001798762 -5.38541e-05 -1.07e-08 -0.1342302523 0.0595436841
135299190.0 -0.8165659951 0.2163878443 7.0946e-05 0.0002244029 -4.02775e-05 0.0001441613 -0.1331686977 0.0599007287
140299160.0 -0.8147190956 0.2260145298 0.0001659704 4.93062e-05 4.68124e-05 0.0001101495 -0.1321101658 0.0598499348
145299130.0 -0.8124261905 0.2341344531 0.0001218902 0.0001374016 7.79769e-05 -8.0222e-05 -0.1318341236 0.0603273669
150299100.0 -0.8102867841 0.2430650717 2.62981e-05 0.0001087405 0.0001250534 -0.0001824289 -0.1307404043 0.0605381962
155299070.0 -0.8078912516 0.2521494158 -8.31486e-05 0.0001613969 0.0001307952 0.0003245695 -0.1303727655 0.0611302758
160299040.0 -0.8047403203 0.2610665361 -0.0001087339 0.0002544149 9.62458e-05 9.92959e-05 -0.1294254262 0.0612983676
165299010.0 -0.802105979 0.268849559 -0.0001095736 9.19832e-05 0.0001395785 6.14916e-05 -0.1290248214 0.0614184219
170298980.0 -0.799350984 0.2780498803 -9.8797e-05 7.39029e-05 7.22519e-05 9.48077e-05 -0.128363049 0.062392364
175298950.0 -0.7971237177 0.2869271963 1.49618e-05 -2.00018e-05 -0.0002189475 8.16531e-05 -0.1279084297 0.0627193087
180298920.0 -0.7935108578 0.2949551996 0.0001348586 0.0001212869 0.0001755984 -8.91545e-05 -0.1270135508 0.0634967748
185298890.0 -0.7903663785 0.3043525428 7.40867e-05 4.79167e-05 0.000126946 -4.03759e-05 -0.1269876005 0.0637838436
190298860.0 -0.7873382947 0.3122428897 -0.0001763957 -0.0001442888 8.72886e-05 5.26884e-05 -0.1261103515 0.06469015
195298830.0 -0.7839867386 0.3208599795 6.61108e-05 0.0001067339 -4.2088e-06 7.20599e-05 -0.1257080645 0.0651972463
200298800.0 -0.7804333857 0.3291704414 0.0001447293 -7.33968e-05 1.17451e-05 -1.36359e-05 -0.1248038769 0.0655602851
205298770.0 -0.7771210325 0.3376220721 -3.71987e-05 4.06834e-05 0.0001104463 0.000119619 -0.124634122 0.0664729021
210298740.0 -0.7738571291 0.3460397198 0.0001058244 0.0003011542 8.15186e-05 3.76288e-05 -0.1239555315 0.0669706676
215298710.0 -0.7700692919 0.3543410766 0.0001965125 0.0001528991 -1.60928e-05 0.0001590165 -0.1238254512 0.0679502477
220298680.0 -0.7673926997 0.3622015313 3.75047e-05 5.80402e-05 0.0001215924 -3.71147e-05 -0.1230597232 0.0689322592
225298650.0 -0.7631178248 0.3708526836 9.0541e-06 5.81838e-05 0.0002179954 6.93138e-05 -0.123264963 0.0695744475
230298620.0 -0.759123258 0.3786306559 2.17551e-05 0.0001646889 -0.0001363836 -2.26138e-05 -0.1222435134 0.0704846697
235298590.0 -0.7545883586 0.3869502985 0.0001406168 0.0001669356 -4.97588e-05 8.17936e-05 -0.1217151344 0.0711405987
240298560.0 -0.7507868485 0.3948647587 -3.01074e-05 0.0001397648 -3.80854e-05 7.22217e-05 -0.1212987697 0.0721207512
245298530.0 -0.7465085051 0.4027809878 -9.52317e-05 0.0001208782 -7.59712e-05 0.0001793157 -0.1207735091 0.0731534532
250298500.0 -0.7422824144 0.410951855 0.0001326125 -2.29219e-05 0.0001134629 -0.0001358668 -0.1199850383 0.0740328206
255298470.0 -0.7384502577 0.4188967124 7.8675e-05 0.0002172601 -1.39454e-05 0.0001203909 -0.1195282413 0.0752572109
260298440.0 -0.733448007 0.4260768631 0.0002251853 6.66919e-05 -3.2237e-05 1.34809e-05 -0.1190544802 0.0759223059
265298410.0 -0.7295894416 0.4344192419 0.0001178294 -4.74553e-05 0.0001242663 0.000312734 -0.1184688229 0.0766536681
270298380.0 -0.7245632473 0.4415454306 0.0002575459 0.0002381779 9.64026e-05 0.0003112933 -0.1176793342 0.0775077226
275298350.0 -0.7195961767 0.4488745449 0.0001722148 0.0001138676 6.95679e-05 0.0002605528 -0.117071517 0.0789428501
280298320.0 -0.7151370592 0.456545382 0.0002083509 -1.87823e-05 3.53452e-05 2.15142e-05 -0.1166926697 0.0798587006
285298290.0 -0.7102584868 0.4644425022 0.0001418572 5.61321e-05 8.27862e-05 0.0002080549 -0.1158598532 0.0807575309
290298260.0 -0.7054818055 0.4714764079 0.0002146792 3.4849e-05 8.9155e-06 -8.97385e-05 -0.1153988424 0.0820827858
295298230.0 -0.7007154866 0.4794216217 0.0003243758 -6.68528e-05 0.0001219921 7.2464e-06 -0.1148830917 0.0828205037
300298200.0 -0.6946976171 0.4866494901 0.000242014 0.0001465794 5.38007e-05 0.000242631 -0.1139855079 0.0840645502
305298170.0 -0.6897625209 0.4942575927 6.06004e-05 0.0002051611 4.22882e-05 0.0002997311 -0.1131191659 0.0855201297
310298140.0 -0.6844871384 0.5007754845 0.0001294393 0.0002011672 5.48975e-05 -6.5675e-06 -0.1125667978 0.0861720824
315298110.0 -0.6797893411 0.5077601076 0.0001470683 -2.55644e-05 9.91209e-05 8.23159e-05 -0.1116871248 0.087098884
320298080.0 -0.67415007 0.516093273 0.0002126602 3.3463e-06 8.28974e-05 0.0001348572 -0.1111259492 0.0881217777
325298050.0 -0.6681158173 0.522207514 0.0001248919 3.09226e-05 0.0001606782 2.95511e-05 -0.1102469506 0.089142602
330298020.0 -0.6629600003 0.5293932853 0.0001912784 0.000125054 8.40843e-05 0.0002122854 -0.1099874737 0.0903033026
335297990.0 -0.6569739156 0.5363760729 5.344e-06 3.8939e-06 0.000211756 0.0001484391 -0.1095052348 0.0912096538
340297960.0 -0.6523336986 0.5422523703 7.924e-06 7.61304e-05 7.06828e-05 8.43391e-05 -0.1085485312 0.0924854245
345297930.0 -0.6465484765 0.5492213092 -0.0001111626 -0.0002692698 0.000315667 2.50113e-05 -0.1078989209 0.0934365843
350297900.0 -0.6400645666 0.5562316457 4.287e-07 0.0003146513 6.5166e-05 0.0001728974 -0.1072272715 0.0946063202
355297870.0 -0.6342454478 0.5630573808 5.25831e-05 1.82183e-05 0.0001985237 -1.95716e-05 -0.106618664 0.0960835787
360297840.0 -0.6281149529 0.5686275959 7.34482e-05 -1.18024e-05 9.63427e-05 0.0002399394 -0.1058347907 0.0969596995
365297810.0 -0.6224137393 0.575786996 0.0001396004 0.0001596238 0.0004029731 6.42225e-05 -0.1053241466 0.0982632584
370297780.0 -0.6159571033 0.581135419 7.96234e-05 -0.0001416144 0.0004158394 0.0001152962 -0.1046067396 0.0990622338
375297750.0 -0.6102149126 0.5883996787 2.46391e-05 -3.02109e-05 5.42664e-05 1.22699e-05 -0.1032937136 0.1005667813
380297720.0 -0.60392056 0.5950051811 0.0002481473 0.0001724396 0.0001805026 0.0003101887 -0.1024648739 0.1019283706
385297690.0 -0.5976642373 0.6001562111 0.0003358113 0.0001075843 0.0001608973 0.0002688344 -0.1019094473 0.1031248975
390297660.0 -0.5912752102 0.6070023955 0.0001376998 0.0001371153 4.66059e-05 6.4586e-06 -0.1009010773 0.1041576818
395297630.0 -0.5851238824 0.6137499786 0.0001481621 0.000181171 0.0003893942 4.77736e-05 -0.1004797593 0.1051261382
400297600.0 -0.5791802036 0.618980877 9.98626e-05 -9.55661e-05 0.0001424601 0.0001503558 -0.0994759044 0.1062576954
405297570.0 -0.5725047066 0.6250822303 0.0001507923 -7.18437e-05 0.000427726 0.0001844859 -0.0986167492 0.1073297814
410297540.0 -0.5657054744 0.6311306301 0.0001290734 7.38814e-05 0.0001291104 9.01529e-05 -0.0977837796 0.1089580779
415297510.0 -0.5589167426 0.6367647426 -0.0001444873 0.0001250718 0.0001501861 7.58843e-05 -0.0969398256 0.1102063131
420297480.0 -0.5520760279 0.6424292949 0.0002136548 -6.19601e-05 0.0001744329 5.81008e-05 -0.0958491742 0.1108338398
425297450.0 -0.5456694375 0.6480570867 0.0002701089 0.0001032654 0.000136069 -9.3181e-06 -0.0949086437 0.1120773637
430297420.0 -0.5391206659 0.6532267336 5.70207e-05 0.0001902235 0.0001423507 0.0002485509 -0.0940071085 0.1134417481
435297390.0 -0.5321749457 0.6588571604 0.0001577612 0.0001018332 0.0002431982 -3.26747e-05 -0.0928578081 0.1144110456
440297360.0 -0.5251557244 0.664360796 -4.67899e-05 0.0001754296 0.0001279791 -9.38654e-05 -0.0924664943 0.1153803402
445297330.0 -0.5187490842 0.6697508892 0.0003042104 0.0001089033 4.197e-05 6.22429e-05 -0.0913917009 0.1162822246
450297300.0 -0.5113023168 0.6745476803 5.71237e-05 9.0852e-05 6.76072e-05 -0.0001870449 -0.0904524664 0.1175368358
455297270.0 -0.5044778476 0.6797014214 0.0001638382 9.50787e-05 0.0001073461 0.000282114 -0.0894780617 0.1186655581
460297240.0 -0.4976388421 0.6852635385 1.23372e-05 -9.41833e-05 4.66056e-05 3.00353e-05 -0.0883158283 0.1199127103
465297210.0 -0.4900325673 0.6905275869 0.0003274054 8.62028e-05 0.0001341946 -6.6685e-06 -0.0878429561 0.1205697089
470297180.0 -0.4823549563 0.6948462734 0.0001677005 7.4565e-06 0.0001025739 0.0001896073 -0.0868211572 0.1219895671
475297150.0 -0.4760817844 0.7003296775 0.0003891225 1.12613e-05 0.000165617 6.55208e-05 -0.0852321784 0.1230782712
480297120.0 -0.4686371612 0.7045814005 0.0002553044 2.65864e-05 0.0001765766 -0.0001737935 -0.0844002124 0.1243936979
485297090.0 -0.4612308557 0.7099543484 3.37992e-05 9.28038e-05 7.01753e-05 0.0001116297 -0.0836018729 0.1251316844
490297060.0 -0.4544099688 0.7141819906 0.000165799 7.44142e-05 0.0003028765 5.31963e-05 -0.0826001561 0.1259794939
495297030.0 -0.4467034769 0.7190259192 0.0001939852 8.1657e-05 0.0001985731 0.0002759906 -0.0811334917 0.1266516738
500297000.0 -0.4383797447 0.7236151865 0.0002253592 8.6753e-05 -4.95741e-05 8.1379e-06 -0.0804391287 0.1279536985
505296970.0 -0.4314786131 0.7271009017 0.0002529098 0.0001131251 0.0001638129 0.0001017272 -0.079676466 0.129398492
510296940.0 -0.4242256957 0.732142254 0.0005691209 -0.0001357931 6.84598e-05 2.107e-06 -0.0782228844 0.1301644795
515296910.0 -0.4170368325 0.7360154895 0.000417834 -1.87952e-05 9.32321e-05 6.46169e-05 -0.0770910659 0.1311491322
520296880.0 -0.4092643144 0.7403953098 7.86618e-05 -8.55282e-05 0.0001025448 0.0001727115 -0.0759063321 0.1317917287
525296850.0 -0.4020706475 0.7447475843 0.0001505148 2.2737e-05 0.000189046 1.33671e-05 -0.0748441338 0.1327500976
530296820.0 -0.3940111448 0.7483799379 0.0002412759 0.0001770185 0.0002578194 6.26137e-05 -0.0739644296 0.1338991219
535296790.0 -0.3858031802 0.7519115177 0.000214111 -0.0001747923 -6.52723e-05 5.34297e-05 -0.0730579483 0.1343619433
540296760.0 -0.3779840818 0.7562882682 4.06006e-05 0.0001012517 0.0003243748 2.13832e-05 -0.0715833567 0.135656198
545296730.0 -0.3710862578 0.760064704 0.0001411029 0.0001434495 0.0002124336 2.7752e-05 -0.0706315528 0.1362182485
550296700.0 -0.3632730515 0.7637189157 0.0003416031 8.19321e-05 0.0001648456 7.31831e-05 -0.0693192781 0.1372360681
555296670.0 -0.3542994485 0.7673497372 0.0002582739 0.0001913504 0.0002452237 6.9998e-06 -0.0680288165 0.1382281554
560296640.0 -0.3471616641 0.7704621528 2.29442e-05 0.0001023893 0.0002090613 9.65835e-05 -0.0668689972 0.138802023
565296610.0 -0.3398530688 0.7741348961 0.0001232473 0.0002194302 0.0003710601 0.0001151545 -0.0659593383 0.139659924
570296580.0 -0.331830035 0.7772010902 0.0001016569 0.0001922049 0.0001664496 2.76485e-05 -0.064907533 0.1408871865
575296550.0 -0.323745645 0.7811596586 0.0002526601 0.0002078179 0.0003614176 6.90149e-05 -0.0633945324 0.1414935473
580296520.0 -0.3157310699 0.7840747325 0.0004092227 0.0001127047 0.0003273845 0.000121077 -0.062156994 0.1425997528
585296490.0 -0.3075653106 0.7864467136 0.0002996588 5.23507e-05 0.0002403676 1.93375e-05 -0.0613154347 0.1428099851
590296460.0 -0.2999935855 0.7896022947 0.0002041271 2.6649e-06 0.000327711 -7.06808e-05 -0.059747764 0.143497027
595296430.0 -0.2915776219 0.792929171 0.0002270613 2.98015e-05 0.0002444186 -0.0001537847 -0.0588503373 0.1443781634
600296400.0 -0.2837913484 0.7957473152 0.0002879308 -4.32811e-05 0.0002389618 -0.0001010097 -0.0570987724 0.1452141834
605296370.0 -0.2752106298 0.7992169501 0.0001754525 0.0002312716 4.30462e-05 0.0001016971 -0.0560665151 0.1461315297
610296340.0 -0.2676176655 0.8014589846 0.0002431795 -7.69618e-05 0.0003569814 0.0001672044 -0.0546076772 0.146905673
615296310.0 -0.2592167176 0.8044816895 0.0001059367 -0.000107101 0.0001770414 0.0001179086 -0.0533518177 0.1474022067
620296280.0 -0.2510558299 0.8062029518 0.0001327264 0.0001554332 0.0001589909 -1.29747e-05 -0.0523702513 0.1479452392
625296250.0 -0.2428206943 0.8092508439 0.0001012926 2.29685e-05 0.0001006163 -0.0001552711 -0.0510585585 0.1488708746
630296220.0 -0.2338292494 0.8116620636 0.0001904911 -4.1946e-05 0.0002047302 7.16995e-05 -0.0492189233 0.1494434901
635296190.0 -0.2265583847 0.8144368258 0.0003763454 0.0001125081 0.0002570488 9.08222e-05 -0.0482723827 0.150193954
640296160.0 -0.2173358044 0.8152379559 0.0002922531 0.0001171577 0.0002239722 4.22149e-05 -0.0470609764 0.1509229492
645296130.0 -0.2100553904 0.818059572 0.0001450174 0.000120169 0.0003614229 0.0001073946 -0.04565381 0.1513035229
650296100.0 -0.2013491883 0.8205710377 8.25746e-05 0.0001625401 0.0002496366 6.31467e-05 -0.0444755526 0.1522269816
655296070.0 -0.1928336169 0.8218466508 0.0001479141 -0.0001759771 0.0001603618 6.92401e-05 -0.0428123818 0.1525153146
660296040.0 -0.185530244 0.8241960359 0.0001827069 0.0001162521 0.0003318696 -9.47411e-05 -0.041646463 0.1533263218
665296010.0 -0.17661264 0.8255779648 0.0002976165 2.84843e-05 0.0004360742 -3.77169e-05 -0.0404339872 0.1540409147
670295980.0 -0.167795156 0.8278475411 0.000233668 -1.3726e-06 0.0003985785 0.0001155665 -0.0389629784 0.1542920597
675295950.0 -0.1599744807 0.8282643922 0.0002513038 2.60364e-05 0.0001578307 -0.0002622974 -0.0372971056 0.1550479446
680295920.0 -0.151828164 0.8308317794 0.0001950599 -0.0001178024 0.0002842064 4.03464e-05 -0.0358561919 0.1555824074
685295890.0 -0.142571298 0.8322194513 0.0003024727 5.33841e-05 0.0003744349 -4.58262e-05 -0.0344120905 0.1560096882
690295860.0 -0.1342310674 0.8334231086 0.0002081312 -1.88068e-05 0.0002552346 -0.0001342213 -0.033031728 0.1566835274
695295830.0 -0.1258469079 0.8339494148 0.0003329246 -1.76393e-05 0.0003895532 0.0001773432 -0.0320903539 0.1573390146
700295800.0 -0.1175873278 0.8354762838 0.0004637221 -0.0001694087 0.0004563542 -6.0713e-05 -0.0301313266 0.1572504363
705295770.0 -0.1088643546 0.8375644614 0.0004145738 -0.0001518561 0.0002247883 -9.04763e-05 -0.0289826382 0.1582192847
710295740.0 -0.1007934894 0.838416659 0.0003900616 6.23086e-05 0.0002200615 4.93278e-05 -0.0279808618 0.1588763452
715295710.0 -0.0929702571 0.8390033725 0.0003650791 1.9764e-06 0.0002416059 -7.93907e-05 -0.0261717141 0.1592525423
720295680.0 -0.0841500248 0.8394641113 5.98879e-05 -0.000293529 0.000286055 -0.0001195492 -0.0245379533 0.1596920935
725295650.0 -0.0750492619 0.8408533832 0.0001916516 -9.30323e-05 0.0001683458 5.7841e-06 -0.0232408159 0.1599866852
730295620.0 -0.0673530979 0.8416833139 0.0002746565 -5.82605e-05 0.0002771406 6.96323e-05 -0.0217138412 0.1603621934
735295590.0 -0.0579683539 0.8418610957 0.0004041384 -5.00503e-05 0.0001816097 4.75109e-05 -0.0201200128 0.160984602
740295560.0 -0.0502788462 0.8428093967 7.37395e-05 -7.77322e-05 0.000418701 3.75049e-05 -0.0187954361 0.161033843
745295530.0 -0.0416657488 0.8423622193 0.0002220532 -2.93182e-05 0.0003521878 -0.0001739164 -0.017226914 0.1613677832
750295500.0 -0.0336827932 0.8433968409 0.0002217229 -0.0002032501 0.0002733465 1.40591e-05 -0.0161200631 0.1615503599
755295470.0 -0.0243322906 0.843046425 0.0002708073 8.28263e-05 0.0002336221 7.60858e-05 -0.0147805509 0.1626922452
760295440.0 -0.0158669592 0.8436419816 0.0003637191 0.0002439263 0.0004110496 1.4617e-06 -0.013097845 0.1625411813
765295410.0 -0.0082527905 0.8438946072 0.0003132945 2.92837e-05 0.000252348 -1.19442e-05 -0.0112034087 0.1632124425
770295380.0 0.0008036158 0.8442005124 0.0003830003 -9.8355e-06 0.0003524569 4.61802e-05 -0.0098099827 0.163353112
775295350.0 0.0087385783 0.8441034822 0.0003628145 -1.93931e-05 9.8782e-05 -7.84923e-05 -0.0087502013 0.1631667283
780295320.0 0.0177115699 0.8432360854 0.0001542956 -7.65364e-05 6.67545e-05 -0.000152291 -0.0066818946 0.1639013149
785295290.0 0.0258395754 0.8436483871 0.0002547222 -8.48769e-05 0.0003595849 2.8217e-05 -0.0056626538 0.1643326623
790295260.0 0.0346059648 0.843237387 0.0003478547 -8.78961e-05 0.0001746967 -1.6321e-06 -0.0037351576 0.1639934399
795295230.0 0.0429261545 0.8435533953 0.0002674474 -0.0001155501 0.0003617015 -7.51763e-05 -0.0022666373 0.1646733551
800295200.0 0.0515279223 0.8423585578 0.0002864151 -2.77391e-05 0.0002391394 -0.0001060062 -0.000873419 0.1645693151
805295170.0 0.0598757139 0.8420131632 0.0001503691 -2.83766e-05 0.0004768909 -5.89925e-05 0.000481388 0.1651396473
810295140.0 0.0685918793 0.8414836258 0.0004043422 -5.22129e-05 0.0003611675 0.0001199224 0.0022432306 0.1657714921
815295110.0 0.0769579999 0.8399428561 0.000283419 -0.0002125098 0.0001245675 -7.78413e-05 0.0040197054 0.1654578876
820295080.0 0.0855420171 0.8388231801 0.0004763427 5.853e-06 0.0001680826 -0.0001275527 0.0051458699 0.1655751359
825295050.0 0.0944081549 0.8380806696 -3.1053e-06 -0.0002139772 0.0002596583 -0.000210643 0.0069126974 0.1656782505
830295020.0 0.1025172324 0.8379993691 0.0001571065 -1.82158e-05 0.0004109813 -4.01494e-05 0.0080419127 0.1661170938
835294990.0 0.1102473316 0.8368946666 0.000190931 -0.0002830522 0.0001063605 -0.000309324 0.0098076862 0.1659161802
840294960.0 0.1187972658 0.8351217994 0.0001689281 -9.61859e-05 0.0003879921 -0.0003349364 0.0114448283 0.1665637166
845294930.0 0.1271154783 0.8342851536 0.0003333018 -0.0001131117 0.000280835 -0.0001223308 0.0129315142 0.1663900553
850294900.0 0.1350201691 0.8330113351 0.0003461784 4.17045e-05 0.0001914937 -0.0001582448 0.0143737729 0.1668327356
