!Created with skrf (http://scikit-rf.org).
# Hz S RI R 50.0 
!freq ReS11 ImS11 ReS21 ImS21 ReS12 ImS12 ReS22 ImS22
300000.0 -0.3250735371 -0.0814054701 0.3775684881 0.0437992901 0.3736540477 0.0399901909 -0.3201184398 -0.0968761243
5299970.0 -0.3263560034 0.0041204385 0.3783093105 0.0024685127 0.378433943 0.0026639382 -0.3238200009 0.0049024353
10299940.0 -0.3241545006 0.0133203449 0.3795399466 0.0021435244 0.3795346845 0.0023325986 -0.3215636074 0.0158032864
15299910.0 -0.3215349809 0.0204942086 0.3820429618 0.0022221566 0.3818607191 0.0019679404 -0.3183810681 0.0236336576
20299880.0 -0.3188102128 0.0261545419 0.384708029 0.0019767596 0.3849678107 0.0016007138 -0.3148138914 0.0305201317
25299850.0 -0.3157820629 0.0316945544 0.3881099504 0.000383189 0.3879853605 4.96009e-05 -0.3109738884 0.0359845407
30299820.0 -0.3128096393 0.0358917645 0.3915746124 -0.002350241 0.3916301731 -0.0022658209 -0.3073044404 0.040819268
35299790.0 -0.3096861488 0.0399587115 0.3944884819 -0.0053320293 0.3946474779 -0.0054343554 -0.3034554396 0.0451401288
40299760.0 -0.3071465773 0.0436410755 0.3977473702 -0.008723022 0.3985315134 -0.0087954365 -0.3002869355 0.0488199491
45299730.0 -0.3045870872 0.0465038488 0.4006022317 -0.0126160067 0.401227037 -0.0127026664 -0.2971330308 0.0518876722
50299700.0 -0.3025851138 0.0491679306 0.4034230126 -0.0170313616 0.403548394 -0.016897571 -0.2942533341 0.0543705297
55299670.0 -0.3002397743 0.0521376316 0.4055544227 -0.0223855002 0.4058051716 -0.0218635559 -0.291620158 0.0570723244
60299640.0 -0.2979184489 0.0548288422 0.4070329052 -0.0270556682 0.407704605 -0.0266802167 -0.2890683754 0.0593917123
65299610.0 -0.2963605607 0.0574444147 0.4089205615 -0.0320944623 0.4089476461 -0.0319366354 -0.2871244941 0.0613793355
70299580.0 -0.2944110208 0.0598630696 0.4102916739 -0.0368283676 0.4104285303 -0.0367001688 -0.2847869958 0.0637495186
75299550.0 -0.2928364864 0.0625574598 0.4112224179 -0.042264062 0.4113362583 -0.0423006047 -0.283069214 0.0658820054
80299520.0 -0.291720667 0.0649227482 0.4123613926 -0.0475342662 0.4122721575 -0.0475516568 -0.2814240593 0.0680402503
85299490.0 -0.2902077338 0.0668509352 0.4127384721 -0.0522097055 0.4126720916 -0.0523853007 -0.2799372995 0.069886017
90299460.0 -0.2887212036 0.0694549343 0.4128988915 -0.058159444 0.413226832 -0.0579308879 -0.2781079331 0.0721915217
95299430.0 -0.2874972752 0.0713151861 0.4136643535 -0.0628836652 0.4137106214 -0.0630838363 -0.2766783231 0.0741335266
100299400.0 -0.2864748348 0.0739291265 0.4131072181 -0.0680352914 0.4132961093 -0.0682166996 -0.2752219346 0.0761501101
105299370.0 -0.2851431016 0.0764074503 0.413141026 -0.0739993996 0.4134563058 -0.0739319805 -0.2737505041 0.0784972251
110299340.0 -0.28388664 0.0789284821 0.413366021 -0.0783883708 0.413073995 -0.0785596562 -0.2730207709 0.0801969858
115299310.0 -0.2828172282 0.0810548143 0.412937325 -0.0838311156 0.4130922604 -0.0836247107 -0.2717163674 0.082573698
120299280.0 -0.2817451251 0.0830378869 0.4122282662 -0.0890260415 0.4124578368 -0.0889839279 -0.270558016 0.084451913
125299250.0 -0.2807937969 0.0853948624 0.4122854207 -0.0938698395 0.4120994861 -0.0935791355 -0.2696625488 0.0864833239
130299220.0 -0.2804017125 0.0882679051 0.4109128693 -0.0993647215 0.4110763761 -0.0993128777 -0.2686126622 0.0886887516
135299190.0 -0.2789456908 0.0905467936 0.4103823387 -0.1037896319 0.4104373399 -0.1038196223 -0.2672650136 0.090828121
140299160.0 -0.2783563107 0.0934664574 0.4097853102 -0.1093727837 0.4098243986 -0.1089932509 -0.266125093 0.0934915059
145299130.0 -0.2772978137 0.0956363368 0.4089608112 -0.1140159604 0.4083060823 -0.1139466023 -0.2654670446 0.0957383227
150299100.0 -0.2763898311 0.0982585064 0.4079581317 -0.1187627484 0.4078266882 -0.1186096383 -0.264493944 0.0984538025
155299070.0 -0.2754846112 0.1006899133 0.406862806 -0.124317193 0.4064700755 -0.1239003801 -0.2629422407 0.1006984156
160299040.0 -0.2745584307 0.1037654269 0.4053209249 -0.1287696597 0.4051101654 -0.1287738558 -0.2629282534 0.103109028
165299010.0 -0.27365931 0.1059832235 0.4042089514 -0.1338974244 0.4042552781 -0.1336912998 -0.2612866633 0.1057745046
170298980.0 -0.2728524739 0.1085250107 0.4026953752 -0.1385033742 0.4027650779 -0.1385637664 -0.2602575139 0.1080985739
175298950.0 -0.2716655515 0.1111666169 0.4017178413 -0.1430114948 0.4012949755 -0.1429908479 -0.2596112462 0.1105948077
180298920.0 -0.2707740156 0.1140151335 0.3999977932 -0.1480003029 0.4000236498 -0.1477989097 -0.2584580315 0.1133222129
185298890.0 -0.2695584004 0.1162151341 0.3985358882 -0.1526031102 0.3982372238 -0.1525403991 -0.2573133023 0.1159363523
190298860.0 -0.2685948003 0.119344298 0.3970372951 -0.1576267677 0.3971418961 -0.1573179403 -0.2565146061 0.1181981167
195298830.0 -0.2676326454 0.1218720919 0.3952986691 -0.1619798915 0.3951458376 -0.1619630705 -0.2551103331 0.1209617114
200298800.0 -0.2665421304 0.1246798012 0.3936853692 -0.1666909888 0.3938119941 -0.166692774 -0.2544309657 0.1233577059
205298770.0 -0.2655579218 0.1274444388 0.3917405047 -0.1714287288 0.3913967865 -0.1709875729 -0.2531901027 0.1254335436
210298740.0 -0.2642253407 0.1298026145 0.3897234468 -0.1754448368 0.3896325816 -0.1752445826 -0.2520647407 0.1286123913
215298710.0 -0.2636043689 0.132801313 0.3882886138 -0.1800229 0.3878858966 -0.1801313651 -0.2511632294 0.1308919296
220298680.0 -0.2620995331 0.1351549833 0.3859677779 -0.1842484689 0.3858394453 -0.1842387134 -0.2501367644 0.1328959721
225298650.0 -0.2609317026 0.138122408 0.3841509825 -0.189220567 0.3841182827 -0.1890962715 -0.2489270453 0.1359669862
230298620.0 -0.2594629614 0.1408061277 0.3819089178 -0.1930908076 0.3824231107 -0.1934403958 -0.2477134586 0.1385323791
235298590.0 -0.2581645837 0.143728515 0.3798846969 -0.1979085199 0.38005377 -0.19741071 -0.2463217869 0.1410159048
240298560.0 -0.2569821095 0.1463459186 0.3779570412 -0.2023278512 0.3777574672 -0.202653511 -0.2451018656 0.1439906548
245298530.0 -0.2559164646 0.1491606692 0.3759929878 -0.2067025937 0.3756104426 -0.2065384801 -0.2439197197 0.1457062887
250298500.0 -0.2539253759 0.1518218346 0.3726328997 -0.2109668957 0.3727769524 -0.2103514227 -0.2426253952 0.1486538065
255298470.0 -0.2528813199 0.1541781512 0.3704416479 -0.2147560521 0.3707694554 -0.2148519041 -0.241214372 0.1508816103
260298440.0 -0.2516522079 0.1570065454 0.3683477582 -0.2191693959 0.3685689445 -0.2191244795 -0.2395596321 0.1538260513
265298410.0 -0.2499425191 0.1599620647 0.365775314 -0.2237916739 0.3664075298 -0.2229331918 -0.2383821363 0.1562297366
270298380.0 -0.2485194698 0.162403276 0.3637386322 -0.2272082119 0.3636794779 -0.2273669813 -0.2367354061 0.1587395676
275298350.0 -0.2469755694 0.1650543236 0.3611247423 -0.2318152251 0.360965363 -0.2313802401 -0.2350197904 0.1611609362
280298320.0 -0.2448783914 0.1679367628 0.3587578288 -0.2359662635 0.3586042027 -0.2354922216 -0.2334231403 0.1636167149
285298290.0 -0.2434753667 0.1707237073 0.3561313222 -0.2400247885 0.3558704465 -0.239742873 -0.2317848985 0.1658240272
290298260.0 -0.241581631 0.1730406376 0.3533007685 -0.2436209801 0.353401781 -0.2435945551 -0.230275632 0.1686163274
295298230.0 -0.2399571803 0.1755889853 0.3507809775 -0.2477709444 0.3504315442 -0.2479193995 -0.2283370032 0.1709333239
300298200.0 -0.2385586809 0.1784685557 0.3480825903 -0.2516502411 0.3482486762 -0.2518630023 -0.2267296098 0.1733160983
305298170.0 -0.2364924685 0.1806524343 0.3448100078 -0.2558725303 0.3451720351 -0.2556934724 -0.2245302256 0.1757623901
310298140.0 -0.2349416844 0.1833852547 0.3422372169 -0.2595698133 0.3426854065 -0.2596381718 -0.2230369634 0.1784479456
315298110.0 -0.2330546036 0.1857514057 0.3394556271 -0.2633705893 0.3397303967 -0.2632392218 -0.2212867569 0.18074392
320298080.0 -0.2310751403 0.1883398814 0.3359814798 -0.267721379 0.3364543879 -0.2675491163 -0.2194795173 0.1831574429
325298050.0 -0.2293402326 0.191036927 0.3333301663 -0.2714909648 0.3333597087 -0.2710494964 -0.2177487573 0.1855020591
330298020.0 -0.2275348441 0.1930570365 0.3302020389 -0.2751626152 0.3303355917 -0.2751037997 -0.2160669552 0.1879295872
335297990.0 -0.2257533159 0.1956264254 0.3271031683 -0.2782624772 0.3271873438 -0.2786158241 -0.2148225029 0.1906384877
340297960.0 -0.2244234246 0.1981697242 0.3240043631 -0.2819031161 0.3237208324 -0.2823610253 -0.212269981 0.19286409
345297930.0 -0.2222246647 0.2009617266 0.3206960126 -0.2862308516 0.320512832 -0.2857411266 -0.210531505 0.1951449691
350297900.0 -0.2202784996 0.2030933603 0.3172019985 -0.2895637726 0.3170621373 -0.2893166262 -0.2087764153 0.197711684
355297870.0 -0.2180485123 0.2059517371 0.3144348495 -0.2930064665 0.314826117 -0.2929142674 -0.207370916 0.2002125146
360297840.0 -0.2160594475 0.20842703 0.3113365673 -0.2960163927 0.3112011791 -0.2958821418 -0.2048264051 0.2026838331
365297810.0 -0.2142038694 0.2109966748 0.3075176016 -0.299829047 0.3074502785 -0.2997638878 -0.2026867197 0.2049148335
370297780.0 -0.2117391752 0.2130724679 0.3042665522 -0.302827405 0.3046851863 -0.3025088355 -0.2007813238 0.2070374896
375297750.0 -0.2098357686 0.2155558091 0.3006245528 -0.3062474664 0.3012894456 -0.3063817855 -0.1990589439 0.2094236612
380297720.0 -0.2072261775 0.2178039306 0.2972271631 -0.3096262464 0.2978972884 -0.3093532514 -0.1973326278 0.2116936373
385297690.0 -0.2055473478 0.2201131066 0.2937242014 -0.3128299971 0.2940265966 -0.3124869295 -0.1945880552 0.2140076267
390297660.0 -0.2029228595 0.2227914826 0.2905036665 -0.3160500593 0.2907128361 -0.3157333619 -0.192779906 0.2159212488
395297630.0 -0.2008446872 0.2250770399 0.2872155928 -0.3193529531 0.2868532433 -0.3191548875 -0.189608291 0.218630496
400297600.0 -0.1984749954 0.227526055 0.283315142 -0.3228903285 0.2838815403 -0.3225911132 -0.1881907698 0.2207718561
405297570.0 -0.1963156045 0.2292776162 0.2800214143 -0.3252268 0.2800219086 -0.3255588875 -0.1863326503 0.2231592354
410297540.0 -0.193582258 0.2315460837 0.2762512056 -0.3283327716 0.2767144131 -0.3285169585 -0.1833635618 0.2251305615
415297510.0 -0.1909517931 0.2336474965 0.2724483636 -0.3318476055 0.2729548037 -0.3317238695 -0.1815892584 0.2273144273
420297480.0 -0.1891648534 0.2365885915 0.2688135678 -0.3345573999 0.2690169064 -0.3344451989 -0.1792497055 0.2289871241
425297450.0 -0.1868197862 0.237933626 0.2658599548 -0.3369998121 0.265801077 -0.3376180509 -0.1768743517 0.2313844366
430297420.0 -0.1843711972 0.2406678964 0.2616339025 -0.3400789101 0.2615150847 -0.3399602832 -0.1743628717 0.23301346
435297390.0 -0.181624505 0.2425463255 0.2575806253 -0.3428909363 0.2575078436 -0.3430087258 -0.1718004722 0.23496961
440297360.0 -0.1791400476 0.2444694445 0.2538149221 -0.3455903197 0.2540731475 -0.3460058455 -0.1696495264 0.2372840691
445297330.0 -0.1768405764 0.2464211793 0.2504266875 -0.3487391262 0.2505797964 -0.3482893743 -0.1671731122 0.2384450805
450297300.0 -0.1738803447 0.2484127132 0.2462734955 -0.3512546184 0.2462997571 -0.3515342479 -0.1646004985 0.2403707418
455297270.0 -0.1717188388 0.2503695681 0.2421747878 -0.3539763769 0.2425310781 -0.3542353839 -0.1622889701 0.2426712129
460297240.0 -0.1690531771 0.2525612595 0.2385762631 -0.3566739205 0.2385709053 -0.3564530261 -0.1595605531 0.2444613267
465297210.0 -0.1661624816 0.254348481 0.2345462362 -0.3589924401 0.2347764326 -0.3591473591 -0.156752562 0.2458975671
470297180.0 -0.1635634057 0.2562014492 0.2303470663 -0.3615419019 0.230731165 -0.361783021 -0.1543383548 0.2483995714
475297150.0 -0.1611822503 0.2578626197 0.2264689551 -0.3639846237 0.2267790718 -0.3640530633 -0.1514774331 0.2495572918
480297120.0 -0.1584697642 0.2600988461 0.2227696458 -0.3666522105 0.2224379309 -0.3667748758 -0.1489067043 0.2515864718
485297090.0 -0.1555289491 0.2617065877 0.2188456666 -0.3688191019 0.2190722375 -0.3686944103 -0.1460768514 0.253190894
490297060.0 -0.1531930425 0.2635499385 0.2148664674 -0.3711708404 0.2145584033 -0.3711893487 -0.1435088657 0.2549368967
495297030.0 -0.1503854453 0.2649784207 0.2104374011 -0.3735508873 0.2108779622 -0.3732362959 -0.1410258487 0.2567316482
500297000.0 -0.147505532 0.2667814209 0.2062255317 -0.375352187 0.206290823 -0.3753504185 -0.138269939 0.2589437641
505296970.0 -0.1441755343 0.2685809692 0.2021795167 -0.3777547124 0.2024368078 -0.378067522 -0.1355581978 0.2600477798
510296940.0 -0.1418153782 0.2704382228 0.1981663018 -0.3803681469 0.1980091407 -0.3801155395 -0.1329475722 0.2615450868
515296910.0 -0.1386543028 0.2718745686 0.1936008248 -0.3819480694 0.1938428754 -0.3822034981 -0.1300276259 0.2632663744
520296880.0 -0.1362618494 0.2736627326 0.1901141652 -0.3846103727 0.1899274284 -0.3841199153 -0.1274670066 0.2648517271
525296850.0 -0.132949033 0.2747892304 0.1851440369 -0.3864168655 0.185827649 -0.386045992 -0.1248099795 0.2662351289
530296820.0 -0.1303137366 0.2766615353 0.1812691005 -0.3884554111 0.1811111563 -0.3882651419 -0.1219520289 0.2679747848
535296790.0 -0.1278799519 0.2780373192 0.1775706073 -0.3897914276 0.1768948035 -0.3895712606 -0.1193555845 0.2688903405
540296760.0 -0.1248202661 0.2797837916 0.1726431115 -0.3922812232 0.1724877695 -0.3921719704 -0.1164372582 0.2708667806
545296730.0 -0.1219236643 0.2811719752 0.1683708273 -0.3936514562 0.1684442266 -0.3937886589 -0.1137415836 0.2724452381
550296700.0 -0.1183903517 0.2826540203 0.1639999109 -0.3956663029 0.1641008591 -0.3956907348 -0.1108580689 0.2735621419
555296670.0 -0.1157735683 0.2838849838 0.16005686 -0.397467735 0.1600741322 -0.3974944711 -0.108129291 0.2752638567
560296640.0 -0.1126471236 0.285370783 0.1554891642 -0.3992879785 0.1553004209 -0.3991395454 -0.1049159175 0.2763167311
565296610.0 -0.1097745826 0.2869228336 0.1505901952 -0.4008063816 0.151448779 -0.4004871337 -0.102381672 0.2774393152
570296580.0 -0.1072178788 0.2879160057 0.1467962174 -0.4030711444 0.1462842797 -0.4023340173 -0.0995608208 0.2787293646
575296550.0 -0.1038420715 0.289452472 0.1423968868 -0.4041664189 0.1421239913 -0.4040367235 -0.0961499161 0.2798514917
580296520.0 -0.1008662732 0.2906808969 0.1377313779 -0.4055160301 0.1379642985 -0.4056159101 -0.0937324994 0.2809988764
585296490.0 -0.0980275995 0.2913875386 0.1337125858 -0.4066988026 0.1335508541 -0.4070666666 -0.0905846476 0.2824162878
590296460.0 -0.0945119486 0.2930189884 0.1289258431 -0.4079819527 0.129308666 -0.4080851956 -0.0881524559 0.2834334458
595296430.0 -0.0915839093 0.293962357 0.1240511632 -0.4098953956 0.1244376724 -0.4095633913 -0.0848984788 0.2837865992
600296400.0 -0.0884893351 0.2952616089 0.119992761 -0.4107609873 0.1200808128 -0.4105322685 -0.0818697877 0.285218408
605296370.0 -0.0858497456 0.2960833284 0.1155514942 -0.4121679287 0.115478452 -0.4120578479 -0.0787450007 0.2863908055
610296340.0 -0.0828088834 0.2972724971 0.1107948608 -0.4135096622 0.1111901534 -0.4134978119 -0.075802202 0.2871282145
615296310.0 -0.0790884902 0.2979828261 0.1062815507 -0.4144113145 0.1062403878 -0.4147921466 -0.0726230519 0.2880960714
620296280.0 -0.0762106062 0.2988509477 0.1019259019 -0.4152599896 0.1021801117 -0.415213713 -0.0700692482 0.288937443
625296250.0 -0.07311684 0.2997415014 0.0977766186 -0.4165834239 0.097109486 -0.4167596538 -0.0660901383 0.289580231
630296220.0 -0.0694418535 0.3011083408 0.0925598899 -0.4179672415 0.0927846243 -0.417545931 -0.0635325711 0.2905595646
635296190.0 -0.0669252304 0.301718973 0.0884115415 -0.4184226388 0.0883754036 -0.4182725282 -0.0601532059 0.2914659952
640296160.0 -0.0637587081 0.3026095741 0.0842448289 -0.4190661183 0.0839525405 -0.4193508015 -0.056946172 0.2921773554
645296130.0 -0.0607107295 0.3037328027 0.0790201098 -0.4201163966 0.0797696525 -0.4200614082 -0.0541443352 0.2929198777
650296100.0 -0.057197201 0.3039955175 0.0746425858 -0.4206433362 0.0744628055 -0.4209818835 -0.0506903204 0.2934842688
655296070.0 -0.0542111136 0.304993664 0.0701980366 -0.421658174 0.0702259053 -0.421568082 -0.047403613 0.2941027488
660296040.0 -0.0511378852 0.3054560722 0.0656014118 -0.422238957 0.0655535856 -0.4222881095 -0.0442190374 0.2947796472
665296010.0 -0.0474535912 0.3058167269 0.0609650635 -0.422852275 0.0608933276 -0.422910753 -0.0414075996 0.2957864971
670295980.0 -0.0451282371 0.307092632 0.0565575227 -0.4236831478 0.0564854649 -0.4236573467 -0.0386359414 0.2963456377
675295950.0 -0.0413618705 0.3073944932 0.0515822155 -0.4240967501 0.0520353026 -0.4237595569 -0.035544595 0.2972606435
680295920.0 -0.0382754063 0.3077026192 0.047172693 -0.4241620391 0.046826801 -0.4248117391 -0.0318699066 0.2977971216
685295890.0 -0.0350355667 0.3088872904 0.0424418604 -0.4250648033 0.0427642859 -0.4250014322 -0.0290585363 0.2979508663
690295860.0 -0.0316989743 0.3092011479 0.0380177806 -0.4252450237 0.0381218631 -0.4256574422 -0.0262914724 0.2988851794
695295830.0 -0.0287503185 0.309416155 0.0336596345 -0.4253327099 0.033348291 -0.4258305213 -0.0227407741 0.2994974582
700295800.0 -0.0252602105 0.3100184711 0.0287788313 -0.4258992564 0.0283740565 -0.4259854278 -0.0194497386 0.2999668801
705295770.0 -0.0222987044 0.3104725346 0.0241008649 -0.426086432 0.0243236993 -0.4262439672 -0.0165033729 0.3002380052
710295740.0 -0.018679713 0.3104877972 0.0194675857 -0.4269042809 0.0198004604 -0.4267839171 -0.0136390819 0.3003203637
715295710.0 -0.0156189859 0.3108073376 0.0152522298 -0.4265459133 0.0147905086 -0.4265979343 -0.0104973056 0.3004804871
720295680.0 -0.0124839851 0.3114692485 0.0104201286 -0.426722668 0.0104842052 -0.4266821214 -0.0071691085 0.3012038173
725295650.0 -0.0089983714 0.3113319001 0.0052823121 -0.4268187772 0.0061802769 -0.427104096 -0.0045509512 0.3014874536
730295620.0 -0.0055695173 0.3119648959 0.0008988263 -0.4266677352 0.0011505998 -0.4268585621 -0.0011715464 0.3014802856
735295590.0 -0.0024865825 0.3122112629 -0.0034412966 -0.4270320156 -0.0038638241 -0.4268267267 0.0016453689 0.3013369903
740295560.0 0.0007514045 0.3123391427 -0.0082423684 -0.4268063607 -0.0084336562 -0.4266889516 0.0056890989 0.3018330631
745295530.0 0.0040042518 0.3129011835 -0.0130731233 -0.4266038864 -0.0133201234 -0.4265086249 0.0085716032 0.3014174801
750295500.0 0.0074588129 0.3124094131 -0.0173271345 -0.4262038615 -0.0169728993 -0.4263544871 0.0114584157 0.3017282691
755295470.0 0.0108059998 0.3121416634 -0.0218080467 -0.4261339318 -0.0221849353 -0.4258773922 0.015141962 0.3012194734
760295440.0 0.0135331534 0.3123057568 -0.0263654275 -0.4258248282 -0.026748064 -0.4261476189 0.0179068523 0.3015164432
765295410.0 0.0169254911 0.3124374604 -0.031106215 -0.4256870448 -0.031668167 -0.4256696879 0.0212370773 0.3013256522
770295380.0 0.0201865404 0.3121835673 -0.0357887768 -0.424862686 -0.0359295899 -0.4248658786 0.02415872 0.3013918609
775295350.0 0.0233106169 0.3121640611 -0.0409198814 -0.4244276679 -0.0400568643 -0.4245809556 0.0267302031 0.3011225759
780295320.0 0.0268192966 0.3122431434 -0.0451765499 -0.4238205681 -0.0443465823 -0.4239131124 0.0301290979 0.3006981122
785295290.0 0.029519042 0.3114058075 -0.0497115618 -0.4230456505 -0.0495922627 -0.4233778185 0.0342838454 0.3007706219
790295260.0 0.0334340016 0.3118702214 -0.0540196335 -0.4228699797 -0.0539049786 -0.4227717654 0.0371099929 0.3004065164
795295230.0 0.0363298277 0.3115356156 -0.0583324617 -0.4221809733 -0.0585729457 -0.4222424266 0.0405792812 0.3001886489
800295200.0 0.0394115506 0.3112553891 -0.0635506121 -0.4211518324 -0.0632808487 -0.4216895719 0.0435256869 0.2998852876
805295170.0 0.0431392079 0.3106032019 -0.0679288447 -0.4207545242 -0.0678081872 -0.4209610375 0.0469348402 0.2995614507
810295140.0 0.0463405595 0.3106140281 -0.0724554161 -0.4201436315 -0.0724873563 -0.4199668693 0.0501380344 0.2993335549
815295110.0 0.0492763887 0.3098321693 -0.0768743411 -0.4188662507 -0.0766945978 -0.4190630288 0.0531193012 0.2991021986
820295080.0 0.0526698016 0.3099823531 -0.0813206732 -0.4182111146 -0.0810659573 -0.4180713339 0.0560089728 0.2987826296
825295050.0 0.0564524648 0.3091394671 -0.0857886773 -0.4167758007 -0.0856073767 -0.4173085733 0.0595021634 0.2984350593
830295020.0 0.0591707579 0.3089163967 -0.0904523752 -0.4161106051 -0.0903272318 -0.4159905348 0.0630582469 0.2978011035
