!Created with skrf (http://scikit-rf.org).
# Hz S RI R 50.0 
!freq ReS11 ImS11 ReS21 ImS21 ReS12 ImS12 ReS22 ImS22
300000.0 -0.0942066755 -0.0985889683 0.6222415654 0.0918777923 0.6197459369 0.0926319869 -0.0935126278 -0.1028275984
5299970.0 -0.1014696836 0.0117516804 0.6304768028 0.0109370113 0.6309288108 0.0112179788 -0.1016606518 0.0112086987
10299940.0 -0.0967505261 0.028613825 0.635256804 0.0159114845 0.6344960298 0.016651971 -0.0966365974 0.0286080269
15299910.0 -0.0892179011 0.0424419864 0.6404233416 0.021034606 0.6407994977 0.0211599116 -0.0898423537 0.041933659
20299880.0 -0.0804244621 0.0536546546 0.6485318804 0.0242253399 0.6491323324 0.0244920398 -0.0809968821 0.0529740606
25299850.0 -0.0703921482 0.0624717238 0.6581990042 0.0255764087 0.6581475657 0.0256848916 -0.0715027612 0.0618847093
30299820.0 -0.0608872726 0.0688182614 0.6679621178 0.0248875383 0.6677708424 0.0241340174 -0.0617313472 0.068392315
35299790.0 -0.0505984049 0.073651849 0.6771954807 0.0219381346 0.677691508 0.0216705529 -0.0524048488 0.0737805938
40299760.0 -0.0411602281 0.0763828865 0.6869926695 0.0179292358 0.6867306049 0.0178185734 -0.0427446205 0.0768638505
45299730.0 -0.0319610708 0.0783804541 0.6957715437 0.0126047319 0.6959836994 0.0121664667 -0.0332638361 0.0791435199
50299700.0 -0.0229695537 0.0790528312 0.703609531 0.0050761494 0.7040312924 0.0050865637 -0.0247183973 0.0802568971
55299670.0 -0.015275273 0.0790358557 0.711044887 -0.0025004373 0.7109135634 -0.0025355679 -0.0175209249 0.080387558
60299640.0 -0.0074328368 0.0786181053 0.7178043365 -0.0113712217 0.7182016536 -0.0110182974 -0.0096674427 0.0798977224
65299610.0 -0.0011890635 0.0772717244 0.7242032719 -0.0195266412 0.7240382231 -0.0198974329 -0.0028127693 0.0786359503
70299580.0 0.0052153724 0.0750616624 0.7290349566 -0.029047615 0.7292492033 -0.0287973095 0.0027104301 0.0771577424
75299550.0 0.0103093321 0.0732150468 0.7330779762 -0.0390983369 0.7335513441 -0.0387829242 0.0085657653 0.0753057737
80299520.0 0.0153665705 0.0715571267 0.7375570293 -0.0484759401 0.7380216548 -0.0487220518 0.0138197892 0.0736863442
85299490.0 0.019780425 0.0691741054 0.7416741513 -0.0583346306 0.7415581485 -0.0585288848 0.0179980347 0.0709454562
90299460.0 0.0239291675 0.0667761634 0.7435259244 -0.068734669 0.7435638612 -0.0680922498 0.0224215038 0.0693140745
95299430.0 0.0279932431 0.0642960575 0.7462009206 -0.0788091571 0.7462646627 -0.0789008937 0.0257816771 0.0665440298
100299400.0 0.0313587125 0.0617777798 0.7477796314 -0.0888490261 0.7477614961 -0.0890192323 0.0291446132 0.0644965652
105299370.0 0.0344533377 0.0591347838 0.7491402319 -0.0986960034 0.749618286 -0.0983590088 0.0328080196 0.06164897
110299340.0 0.0372871886 0.056451852 0.750662636 -0.108732014 0.7505553505 -0.1086343759 0.0347734436 0.0592259341
115299310.0 0.0395414913 0.0544675223 0.75135472 -0.1190737351 0.7510692273 -0.1188725693 0.0373716306 0.0575165816
120299280.0 0.0414008193 0.052146567 0.7518986274 -0.1297452474 0.7518435927 -0.1292101975 0.0396341268 0.0545153051
125299250.0 0.043636617 0.0498107364 0.7527300914 -0.1389437011 0.7522893894 -0.1384925193 0.042063182 0.0527058587
130299220.0 0.0457183699 0.0470204337 0.7522920715 -0.1493136148 0.7517236382 -0.1494963557 0.0437364748 0.050648878
135299190.0 0.0468531142 0.0454846626 0.7519343701 -0.1584879802 0.7524134989 -0.158899616 0.0453325341 0.0478979303
140299160.0 0.0488018735 0.0432320778 0.751875728 -0.1687124456 0.7508190785 -0.1684581119 0.0463876084 0.045257873
145299130.0 0.049328059 0.0411010922 0.7503881406 -0.1783274436 0.7504618529 -0.1781373799 0.0479772329 0.0434656865
150299100.0 0.0507772246 0.0393605416 0.7492354637 -0.1876505985 0.74906165 -0.1880008911 0.0491290574 0.0420478139
155299070.0 0.052484626 0.0371117762 0.7477293299 -0.1975094944 0.7480421316 -0.1978254114 0.0503754606 0.039565622
160299040.0 0.0532911218 0.0355055085 0.7465656624 -0.2072623455 0.7467732382 -0.2069546807 0.0507544518 0.0379857197
165299010.0 0.0543206786 0.03354199 0.7457067475 -0.2165076815 0.7446221832 -0.2166237502 0.0521857643 0.0356575421
170298980.0 0.0546401491 0.0319619805 0.7431013235 -0.2255070207 0.7432511954 -0.2261571751 0.0527033503 0.0338937405
175298950.0 0.0556562467 0.0302648461 0.7416243412 -0.2350000352 0.7414584431 -0.2353491545 0.0533309456 0.0322427805
180298920.0 0.0561052536 0.0288048927 0.7393134571 -0.2449564327 0.7392641471 -0.2444846402 0.0539872496 0.0308301394
185298890.0 0.0567911141 0.0271056357 0.7374520101 -0.2539512197 0.7374170999 -0.2533876661 0.0550548267 0.0289034796
190298860.0 0.0579153255 0.0256462375 0.7345885841 -0.262998891 0.7350482631 -0.2624433112 0.0552145398 0.0269413769
195298830.0 0.0576413429 0.024456599 0.7326350532 -0.2718014696 0.7324333172 -0.2716843425 0.0553676744 0.0258861906
200298800.0 0.0583315174 0.0225252067 0.7300230907 -0.281047964 0.7296845144 -0.2810703852 0.0561386811 0.0239227443
205298770.0 0.0581102879 0.020643568 0.7266206584 -0.2896456516 0.727269068 -0.28922587 0.0571020846 0.0226693517
210298740.0 0.0589257977 0.0199653178 0.7238029231 -0.298598438 0.7232840534 -0.2987452124 0.0566029031 0.0204962245
215298710.0 0.0593795938 0.0184800693 0.7211074989 -0.3067935273 0.7210684458 -0.3067411039 0.0569712564 0.0197035699
220298680.0 0.0595816944 0.0177036538 0.7177960701 -0.3156008321 0.7173130633 -0.3156868604 0.0572985067 0.0181012998
225298650.0 0.0597163895 0.0159298079 0.7139762144 -0.3244211923 0.7143555319 -0.3240610708 0.0572607459 0.0164191913
230298620.0 0.05988812 0.0149311913 0.7114834756 -0.3326122879 0.7110324368 -0.3329946926 0.0571220324 0.015086383
235298590.0 0.0596893092 0.0137947073 0.7080469096 -0.3419176346 0.707747118 -0.341629521 0.057761891 0.0141146095
240298560.0 0.0601482413 0.0129017925 0.7041397759 -0.3491356794 0.7038768424 -0.3495765109 0.0575851442 0.0125330482
245298530.0 0.0601526998 0.0114375386 0.7003794816 -0.3580665986 0.7002751236 -0.3582078514 0.057657181 0.0116813098
250298500.0 0.0601154824 0.0099187602 0.696716133 -0.3665815581 0.6964808599 -0.3659214971 0.0575628081 0.01051708
255298470.0 0.060337564 0.0097028485 0.6931456921 -0.374182343 0.6934243733 -0.3744562338 0.0577701318 0.0099466277
260298440.0 0.0604306988 0.0082581141 0.6889007984 -0.3817793866 0.6888440523 -0.3824381334 0.057811891 0.007645119
265298410.0 0.0599202482 0.0073615013 0.6841799915 -0.3909578129 0.6844752076 -0.3907191315 0.0588450335 0.0064260997
270298380.0 0.0601071522 0.0063108847 0.6805755461 -0.3984133313 0.6803202311 -0.3985584951 0.0583382094 0.0058167252
275298350.0 0.0604760727 0.0056629248 0.6753035709 -0.4064122487 0.6755365658 -0.4059419343 0.0579944838 0.0047158216
280298320.0 0.0596588491 0.0044984384 0.6722020085 -0.4137884132 0.6720452018 -0.4143518933 0.0583084416 0.0038039551
285298290.0 0.0599364799 0.0037819177 0.6672715969 -0.4216998627 0.6676720819 -0.4218017851 0.0580904914 0.0025449388
290298260.0 0.0598390367 0.0026498963 0.6632435291 -0.4297513346 0.6633433821 -0.4295657134 0.0580217642 0.0017540727
295298230.0 0.0598767519 0.0011489552 0.6585116044 -0.4378761743 0.6584389557 -0.4378843097 0.057639405 0.0002890146
300298200.0 0.0601401506 0.0011196905 0.6539111454 -0.4450297357 0.6535096071 -0.4448592936 0.05757624 -0.0008267853
305298170.0 0.0601118887 -0.0009444569 0.6492177212 -0.4534904046 0.6489094604 -0.4528014756 0.0576944677 -0.0024874261
310298140.0 0.0602890975 -0.0015370252 0.6443887549 -0.4608393342 0.6445864091 -0.4601773794 0.0577792503 -0.0036513949
315298110.0 0.0598061438 -0.0031745101 0.6394456901 -0.4684393606 0.6390736821 -0.4684955827 0.0575842053 -0.0044484491
320298080.0 0.0595338308 -0.0039835762 0.6335083446 -0.4763300121 0.6340913777 -0.4762140451 0.057203058 -0.0057118035
325298050.0 0.0587165132 -0.0052828092 0.6283526611 -0.4830675901 0.6286687116 -0.4833391903 0.0571443568 -0.0071134771
330298020.0 0.0574973894 -0.0060666423 0.6223251814 -0.4905821791 0.6230257361 -0.4905285978 0.0558668302 -0.008183051
335297990.0 0.0574953425 -0.0067149142 0.6175110011 -0.4977385812 0.617345318 -0.4975682978 0.0556854399 -0.0091542402
340297960.0 0.0566591524 -0.0077896185 0.6103761924 -0.5048892873 0.610605332 -0.5047060419 0.055202753 -0.009326872
345297930.0 0.0563421637 -0.0082481825 0.6055505619 -0.5119622339 0.6055475371 -0.511331309 0.0551751963 -0.0106965719
350297900.0 0.0558473211 -0.0090114791 0.6001905473 -0.5179470078 0.600558906 -0.5183573752 0.0547375752 -0.0113811009
355297870.0 0.0554228802 -0.0097931992 0.5944228575 -0.5241201502 0.5938470605 -0.5244458948 0.054317228 -0.0122566679
360297840.0 0.0553530741 -0.0102925681 0.5883483862 -0.5314897764 0.5885008652 -0.5317062508 0.0533048554 -0.0124575525
365297810.0 0.0542233747 -0.0108011116 0.5821721236 -0.5381643079 0.5823664041 -0.5381146871 0.0530793315 -0.0132155588
370297780.0 0.0547482421 -0.0114962943 0.5762543005 -0.5444013496 0.576672073 -0.5442591074 0.0527845521 -0.0140391638
375297750.0 0.0543522703 -0.0122506872 0.5704195058 -0.5508328371 0.5702938986 -0.5511384316 0.0525334496 -0.0149761113
380297720.0 0.0532793867 -0.0127992182 0.5647812481 -0.5577087197 0.5638114783 -0.5574284418 0.0524725068 -0.015293938
385297690.0 0.0530371734 -0.0135024135 0.557928078 -0.5640287459 0.5579535385 -0.5640742004 0.0521716399 -0.0156404601
390297660.0 0.0529788586 -0.0141644734 0.5520356458 -0.5694763276 0.552327857 -0.5694928908 0.0522351339 -0.0167348504
395297630.0 0.052851243 -0.0145636402 0.545977513 -0.5753799651 0.5454466932 -0.5754732306 0.0513591382 -0.0172201207
400297600.0 0.0520191803 -0.0157688852 0.5395043645 -0.5819747266 0.5398066007 -0.581718408 0.0514658938 -0.0174926954
405297570.0 0.0520203738 -0.0169210003 0.5329726362 -0.5874608013 0.5335239485 -0.5876680523 0.0507884093 -0.0181639463
410297540.0 0.0514766818 -0.0165923828 0.5263366894 -0.5940611084 0.526518552 -0.5938588586 0.0505680441 -0.0188330754
415297510.0 0.0508037077 -0.0173707382 0.5198519353 -0.599558833 0.5199498763 -0.5994284064 0.0506620407 -0.0193527757
420297480.0 0.0506012198 -0.0184746477 0.5130582949 -0.6057326858 0.5134238735 -0.6048379802 0.0503628765 -0.019932828
425297450.0 0.0513077466 -0.0189282859 0.5066346781 -0.6109867253 0.5069115813 -0.6110394291 0.0498545146 -0.0205921433
430297420.0 0.0500331341 -0.0192225919 0.5006097246 -0.6166376976 0.5005615355 -0.616066223 0.0502081112 -0.0213676535
435297390.0 0.0496930291 -0.0202151687 0.492874584 -0.6235142205 0.4929492996 -0.622050793 0.0487862109 -0.0216433759
440297360.0 0.0497950099 -0.0211166404 0.4861600365 -0.628387374 0.4855859966 -0.627927424 0.0487821765 -0.0222324103
445297330.0 0.0494185867 -0.0219714683 0.4798087441 -0.6325069941 0.4797064336 -0.6330137123 0.0481685525 -0.022522862
450297300.0 0.0487998691 -0.022147325 0.4721261666 -0.6379430264 0.4728501218 -0.638281061 0.0480017758 -0.0227417853
455297270.0 0.0478874431 -0.0227693687 0.4657188882 -0.6434883839 0.4656120785 -0.6434702822 0.0476303378 -0.0236938927
460297240.0 0.0479058633 -0.0231902276 0.4587307864 -0.6491327465 0.4586239821 -0.6487787919 0.047250334 -0.0244544103
465297210.0 0.0478283512 -0.0239774913 0.4508762943 -0.6537204364 0.4507606451 -0.6540070391 0.0476361498 -0.0243018013
470297180.0 0.047245303 -0.0249098874 0.4435963005 -0.65830565 0.4444366695 -0.6590338217 0.0470379884 -0.0254287454
475297150.0 0.0464402568 -0.0250180692 0.4370487565 -0.6634793752 0.4369970898 -0.6640710638 0.0466476677 -0.0259434417
480297120.0 0.0466572475 -0.0249868965 0.4293218971 -0.6680253588 0.4299942081 -0.6684807034 0.0456606824 -0.026886181
485297090.0 0.0461557168 -0.0265129158 0.4214144032 -0.6732093559 0.4221932318 -0.6729113139 0.0457129081 -0.0266150956
490297060.0 0.0462440713 -0.0265764554 0.4141196481 -0.6781044307 0.414950313 -0.6781229099 0.0450742581 -0.0275040101
495297030.0 0.0451523607 -0.0276868975 0.4080665767 -0.6827434264 0.4073624039 -0.6827340478 0.0454624692 -0.027990571
500297000.0 0.0447152946 -0.0276250855 0.3999770973 -0.6865553137 0.3997698492 -0.6872055567 0.0446297874 -0.0278398857
505296970.0 0.045063919 -0.0282151465 0.3927529622 -0.691511274 0.3921400476 -0.6910314388 0.0442859481 -0.0294712933
510296940.0 0.0443855763 -0.0291653884 0.3846740897 -0.6960559609 0.3853875011 -0.6962189855 0.0443882969 -0.0289908043
515296910.0 0.0437683835 -0.0291275772 0.3762502434 -0.6996942374 0.3763603692 -0.700064554 0.0436142025 -0.0305714757
520296880.0 0.0433739955 -0.0294921765 0.3694831256 -0.7039985226 0.3689560194 -0.7038837808 0.043925258 -0.0298477089
525296850.0 0.0431653086 -0.0302263413 0.3613993621 -0.7079308861 0.3615817889 -0.7077521527 0.0432662847 -0.0310012519
530296820.0 0.0423866189 -0.0311036157 0.3535740566 -0.7119725786 0.3537741345 -0.7116047439 0.0429680088 -0.0315572379
535296790.0 0.0428922107 -0.0310653971 0.345907821 -0.7152660861 0.3463142131 -0.7158040143 0.0430619196 -0.031711026
540296760.0 0.0420510598 -0.0314560655 0.3375561823 -0.7193350555 0.3380254177 -0.7194086072 0.0422959095 -0.0326434107
545296730.0 0.0406779735 -0.0316641518 0.3299138009 -0.723221537 0.3302596879 -0.7229835385 0.0417667845 -0.0328052898
550296700.0 0.0414962626 -0.0320659197 0.3224590796 -0.7269076109 0.3219026963 -0.7271189131 0.0417554748 -0.033299881
555296670.0 0.0405501987 -0.0326064768 0.314262427 -0.730582495 0.3144485619 -0.730229635 0.0408649853 -0.0343257589
560296640.0 0.0409667524 -0.0329679091 0.3059992441 -0.7337732298 0.3066751782 -0.733645269 0.0403745014 -0.0339816754
565296610.0 0.0395621828 -0.0334214874 0.2986078683 -0.7370730399 0.2982621585 -0.7361552542 0.0403110477 -0.0342565538
570296580.0 0.0391051176 -0.0337679901 0.2899398322 -0.7402789603 0.2900230427 -0.7402249388 0.0397076329 -0.0353495022
575296550.0 0.0390879109 -0.0341883486 0.2824800095 -0.7431744954 0.2823264474 -0.7435563781 0.0389553897 -0.0354408565
580296520.0 0.0385796304 -0.0340449576 0.2735379203 -0.7466252036 0.2737413834 -0.7463742606 0.0384629243 -0.0359013079
585296490.0 0.0380817954 -0.034275538 0.265987052 -0.7489334135 0.2656131416 -0.7490286735 0.0385947 -0.0359168109
590296460.0 0.0383538525 -0.0348210214 0.2576895195 -0.7525840616 0.2575511972 -0.7526959305 0.0375275366 -0.0362589934
595296430.0 0.0377039059 -0.0352174564 0.2490640225 -0.7552654291 0.2488180594 -0.7550016328 0.0372995088 -0.0372833266
600296400.0 0.0373189409 -0.0355423635 0.2406191023 -0.7576105119 0.2407004485 -0.7577975359 0.0369846509 -0.037579711
605296370.0 0.035941179 -0.0357472919 0.2334183362 -0.760353722 0.2324095512 -0.7602570915 0.0362160106 -0.0376924209
610296340.0 0.0361118247 -0.0356703208 0.2244131913 -0.7617374831 0.2249083845 -0.7625660622 0.0354377462 -0.0380893194
615296310.0 0.03591368 -0.0363312848 0.2160536343 -0.7651844805 0.2155194011 -0.7653374916 0.0354115482 -0.0384019416
620296280.0 0.0348048326 -0.036082972 0.2070073291 -0.7674075438 0.2069927014 -0.7674384651 0.0343088858 -0.0382079535
625296250.0 0.0344654554 -0.0368668705 0.1988495162 -0.7703792682 0.1989406428 -0.7701372017 0.0337428112 -0.0389531351
630296220.0 0.0341351671 -0.0364656681 0.1900051215 -0.7722374009 0.1906608346 -0.7718671372 0.0336262228 -0.0393362792
635296190.0 0.0331858626 -0.0366769085 0.1823531357 -0.7735405189 0.1821989829 -0.7736421667 0.0330082355 -0.0394824374
640296160.0 0.0327103311 -0.0369919741 0.1733433844 -0.7767192629 0.1732992696 -0.7762405835 0.0316819749 -0.0400940193
645296130.0 0.0327802902 -0.0367251443 0.1647968081 -0.7774615955 0.1654473211 -0.7776445865 0.0315586591 -0.0407232257
650296100.0 0.0320469993 -0.0372321795 0.1569972352 -0.7795720766 0.1568885995 -0.7798761946 0.0317622153 -0.0404916673
655296070.0 0.0313244574 -0.0375001331 0.147696666 -0.7817129415 0.1482022327 -0.7810457804 0.0304103885 -0.0405619713
660296040.0 0.0309229492 -0.0373830596 0.1397790578 -0.7830073092 0.1400106679 -0.7826992214 0.0296209317 -0.0415409044
665296010.0 0.0305478837 -0.0376465144 0.1305339508 -0.7840520163 0.1311299192 -0.7839721479 0.0293525017 -0.0413637059
670295980.0 0.0301588075 -0.0375886896 0.1221229809 -0.7854519388 0.1224976199 -0.7849091247 0.0283726059 -0.0417276597
675295950.0 0.0291219197 -0.037946505 0.1139488612 -0.7867239242 0.1140645995 -0.7866114671 0.0275454661 -0.04171861
680295920.0 0.0287080778 -0.0378814366 0.1055294685 -0.7882096909 0.1058375804 -0.787515759 0.0278425084 -0.0425078057
685295890.0 0.0284024532 -0.0379343124 0.096660268 -0.7893218286 0.0973242172 -0.7893764712 0.0269922631 -0.0419892415
690295860.0 0.0273865625 -0.0377684158 0.0880008905 -0.7900699095 0.0876404328 -0.7901118688 0.0262297073 -0.0426158227
695295830.0 0.0271650629 -0.03827005 0.0800208371 -0.7914652519 0.0793862152 -0.7907572908 0.025746975 -0.0422475641
700295800.0 0.0267065209 -0.0379838831 0.0714484407 -0.7918687392 0.0710164929 -0.7916594708 0.0248658458 -0.0425053962
705295770.0 0.0258081233 -0.0383824305 0.062271458 -0.7926005969 0.0626905038 -0.7921104553 0.0244637307 -0.0423229076
710295740.0 0.0253084492 -0.0384367183 0.0536387673 -0.7931441236 0.0539095612 -0.7931588966 0.0238256471 -0.0426852983
715295710.0 0.0248437702 -0.0382475399 0.0454141263 -0.7939191769 0.0455879731 -0.7937766115 0.0231121151 -0.0428717035
720295680.0 0.0248125247 -0.0382766165 0.0364365532 -0.793723087 0.0365972202 -0.7938926118 0.0224895608 -0.0430282167
725295650.0 0.0231389452 -0.0381582442 0.0283615537 -0.7944615047 0.0280882161 -0.7945877285 0.0214669281 -0.0425568405
730295620.0 0.0223055144 -0.0387838043 0.0193287307 -0.7942920474 0.019565635 -0.7938603118 0.020750655 -0.0422030391
735295590.0 0.0224209597 -0.0382521419 0.0104388462 -0.7945533499 0.0106529537 -0.7944729001 0.0200319612 -0.0434000563
740295560.0 0.0216488411 -0.0387313944 0.0017704639 -0.7949639804 0.0024253438 -0.7946503765 0.018997041 -0.0429120669
745295530.0 0.0208112073 -0.0385484496 -0.0068056227 -0.7945135409 -0.0058960562 -0.7940692522 0.017756329 -0.0431270332
750295500.0 0.0199951553 -0.0382655433 -0.0146580177 -0.7948672998 -0.0153946792 -0.7945609605 0.0180213653 -0.042967499
755295470.0 0.0192400491 -0.0380419909 -0.0235059252 -0.7947413486 -0.0233143641 -0.7946375457 0.0174008008 -0.0425092832
760295440.0 0.01873674 -0.0376305855 -0.0326732269 -0.7941025329 -0.0324913959 -0.793695747 0.0170728979 -0.0438861867
765295410.0 0.0186832538 -0.0383975698 -0.0410204325 -0.7937843681 -0.0406490556 -0.793366543 0.016115629 -0.0433067016
770295380.0 0.0177100977 -0.0378685047 -0.0490736777 -0.7928085484 -0.0492883039 -0.7931780381 0.0150888498 -0.0433153769
775295350.0 0.0170637551 -0.0381896602 -0.0580584805 -0.7931171632 -0.058018845 -0.7920862948 0.0149084202 -0.0426536936
780295320.0 0.0162181666 -0.0379718829 -0.0666143813 -0.7907841042 -0.0663770261 -0.7912877515 0.0146928325 -0.0432115274
785295290.0 0.0155945154 -0.0383173585 -0.0750732998 -0.7911039944 -0.0752906209 -0.7910185975 0.0132356965 -0.042379269
790295260.0 0.0154318535 -0.0384241469 -0.0832305093 -0.790656586 -0.0833432596 -0.7902513164 0.0123354348 -0.0420457942
795295230.0 0.014589078 -0.0384263771 -0.0924939529 -0.7894012617 -0.0923858932 -0.7891870781 0.0122589914 -0.0433241622
800295200.0 0.0132003142 -0.037728853 -0.1002321175 -0.7870950562 -0.1005821186 -0.787987688 0.0112995845 -0.0424710735
805295170.0 0.0126707859 -0.0378049727 -0.1094460764 -0.7876758009 -0.10887911 -0.7871454194 0.0114592305 -0.0423938649
810295140.0 0.0128186098 -0.0377629867 -0.1178068692 -0.7858661141 -0.1180198988 -0.7855460632 0.0103348082 -0.042396456
815295110.0 0.0118115667 -0.0377520706 -0.1261960827 -0.7843559225 -0.1258241417 -0.7842178937 0.0096917714 -0.0422889901
820295080.0 0.0114512828 -0.0376408581 -0.1341776896 -0.7826909927 -0.1338714152 -0.7827741494 0.0084100443 -0.0415736744
825295050.0 0.0104656976 -0.0377132707 -0.1435205593 -0.7818459904 -0.1430150091 -0.7809639083 0.0085717555 -0.0413403351
830295020.0 0.0098789005 -0.0374339635 -0.1520636462 -0.7793409578 -0.1515195681 -0.779638439 0.0076544474 -0.0420191198
