!Created with skrf (http://scikit-rf.org).
# Hz S RI R 50.0 
!freq ReS11 ImS11 ReS21 ImS21 ReS12 ImS12 ReS22 ImS22
300000.0 -0.1011717729 -0.072633208 0.6311656281 0.066891243 0.6253390277 0.0674442042 -0.1019379208 -0.0782387135
5299970.0 -0.1019225052 0.0130449518 0.6304602764 0.0099457509 0.6307330563 0.0105233772 -0.1007273784 0.0128116661
10299940.0 -0.097258266 0.0291251392 0.633769742 0.0156724258 0.634219962 0.0160010798 -0.0959275736 0.0301587527
15299910.0 -0.0901060338 0.0424943753 0.6405175366 0.0204335638 0.6406565569 0.0207028488 -0.0886231363 0.0435244176
20299880.0 -0.0817836661 0.0531973957 0.6485106418 0.0244824824 0.6486597937 0.0241880203 -0.0798262337 0.0545455802
25299850.0 -0.072318769 0.0619441365 0.6574183448 0.0251854815 0.6578440339 0.0256177449 -0.0699454146 0.0632245726
30299820.0 -0.06236899 0.0687312037 0.6676616676 0.0243677571 0.6671894038 0.0248216446 -0.0599320258 0.0702431714
35299790.0 -0.0522836888 0.0735760741 0.6771401623 0.0211057863 0.6773695105 0.0217374857 -0.0499315749 0.0749487337
40299760.0 -0.0434328006 0.077309085 0.6865782744 0.0170053117 0.686560635 0.017948442 -0.0403755333 0.0774433381
45299730.0 -0.034090715 0.0793747269 0.6948829131 0.0121989312 0.6954611986 0.0119556613 -0.031197768 0.0796130915
50299700.0 -0.0254869566 0.0804258046 0.7039923012 0.0047758681 0.7034786794 0.0055479639 -0.02279054 0.0805439074
55299670.0 -0.0175809009 0.0804341218 0.7108824772 -0.0030236342 0.7105589942 -0.0026861317 -0.0149487057 0.0806507079
60299640.0 -0.0101845395 0.0800946206 0.717274576 -0.0110445215 0.717745992 -0.0109620931 -0.0078313948 0.079471895
65299610.0 -0.0036865045 0.0786792066 0.7231167043 -0.0202076953 0.7240713406 -0.0196375405 -0.0011366619 0.0787854309
70299580.0 0.0025364244 0.0777430721 0.7287102913 -0.0293688394 0.7285746467 -0.0294270943 0.0047742322 0.0766849103
75299550.0 0.0081831293 0.0759932403 0.7328790225 -0.0387785894 0.7326084601 -0.0386465255 0.0098921371 0.0747978324
80299520.0 0.013084299 0.0737094757 0.7368016334 -0.0489061657 0.7376742124 -0.0485490938 0.0150370542 0.072712854
85299490.0 0.0176877649 0.0715414498 0.7402468987 -0.0579934743 0.7406326639 -0.0581468282 0.0194123777 0.0702303343
90299460.0 0.021869842 0.0690680228 0.7427133364 -0.0689165716 0.7437703141 -0.0683803093 0.023757424 0.0681396964
95299430.0 0.0260157863 0.0664808347 0.7455656228 -0.0788260838 0.7460162203 -0.0792593863 0.0275602607 0.0654520857
100299400.0 0.0288032663 0.0647132206 0.7470665055 -0.0889424169 0.7467820448 -0.0890136469 0.031489996 0.0626667977
105299370.0 0.0323311486 0.0621245051 0.7490576046 -0.0994697881 0.7491029196 -0.0992583537 0.0342621608 0.0609494479
110299340.0 0.0349263871 0.0598367741 0.7499202802 -0.1086801823 0.7494404762 -0.108673667 0.036259436 0.0580153669
115299310.0 0.0374026297 0.0576068995 0.7510035483 -0.1191891548 0.750420495 -0.1189928108 0.0388459895 0.0557236755
120299280.0 0.0398924516 0.054690181 0.7513057798 -0.1292593424 0.7518854662 -0.1292423045 0.0414302784 0.0532580248
125299250.0 0.0419083359 0.0521926376 0.7517707763 -0.1389433765 0.7516632347 -0.1385720819 0.0429095712 0.0505151944
130299220.0 0.0435520163 0.0503177084 0.7513401278 -0.1488253553 0.7513982222 -0.1489475203 0.0451208793 0.0480391848
135299190.0 0.0454400399 0.0482617008 0.7515551844 -0.1587861315 0.7511057956 -0.1585552825 0.0467072714 0.0461341726
140299160.0 0.0467785279 0.0462683052 0.7509050087 -0.1686114283 0.7505419626 -0.1687498728 0.0479906346 0.0445924842
145299130.0 0.0482020604 0.0437929088 0.7499017114 -0.1783749121 0.7495008852 -0.1782449044 0.049446527 0.0422316687
150299100.0 0.0496871741 0.0421834424 0.748013084 -0.1870236713 0.7492282589 -0.1874245759 0.0507760459 0.0401304834
155299070.0 0.0503670821 0.0400236555 0.7480950202 -0.1978318676 0.7479073353 -0.1978633078 0.0517524948 0.0384509776
160299040.0 0.0518266109 0.0383935458 0.7466941809 -0.2069859562 0.7458695311 -0.2073989748 0.0523184762 0.0364666151
165299010.0 0.0524062093 0.0364051722 0.7447629622 -0.216650949 0.7443909552 -0.2165881095 0.0533478181 0.035143792
170298980.0 0.0534721296 0.0340966136 0.7431548598 -0.226416465 0.7429999104 -0.2256956373 0.0542286151 0.033091375
175298950.0 0.0537344307 0.0323890517 0.7416723005 -0.2352185681 0.7406284124 -0.234951718 0.0546424874 0.0315845041
180298920.0 0.0545342839 0.0308585371 0.7391158185 -0.2442459688 0.739132095 -0.244181047 0.0552837242 0.0298411347
185298890.0 0.0555392061 0.0288849713 0.7365513892 -0.2534538084 0.7361255598 -0.2537983161 0.0558633314 0.0282813256
190298860.0 0.0554599045 0.0274944791 0.7339922523 -0.2629851331 0.7346704177 -0.2626463527 0.0564919436 0.026521425
195298830.0 0.0561330613 0.0254710528 0.7319056301 -0.2717018149 0.7323200316 -0.2714782472 0.0570991341 0.0252718818
200298800.0 0.0564588715 0.0240271078 0.728614065 -0.2810970787 0.728813193 -0.2811003271 0.0569457362 0.0236795654
205298770.0 0.0569521837 0.0228576985 0.7261883412 -0.2895838939 0.7258496148 -0.2898339482 0.0574375409 0.021296453
210298740.0 0.0572598617 0.0208822829 0.7229913812 -0.2984171115 0.7233521265 -0.2974282729 0.0577089331 0.0212896989
215298710.0 0.0570611887 0.019770012 0.7204292512 -0.3071664056 0.7201796983 -0.3074606705 0.0578679529 0.0197404462
220298680.0 0.0574920743 0.0180082534 0.71687059 -0.3158600909 0.7170175346 -0.3154753458 0.0577004308 0.0180920566
225298650.0 0.0577314342 0.0168694282 0.714008412 -0.3249279809 0.7141210499 -0.3242627594 0.0576056908 0.0166203426
230298620.0 0.0579780762 0.0159059389 0.7107297847 -0.332564166 0.7111864635 -0.3325791395 0.0575361249 0.0151356573
235298590.0 0.0580572647 0.0148739686 0.7072370713 -0.3412250571 0.7073920582 -0.3407145275 0.0577818995 0.0141650562
240298560.0 0.0582689358 0.0135718008 0.703878913 -0.3498865418 0.7035509101 -0.3497749761 0.0576602533 0.013162562
245298530.0 0.0578391821 0.0120266632 0.7000704089 -0.358349059 0.6998160265 -0.3582656059 0.0584443634 0.0110594075
250298500.0 0.0585061129 0.0112848441 0.6955074167 -0.366442421 0.6951452784 -0.3655664727 0.0580957547 0.0105551095
255298470.0 0.0586270255 0.0095584154 0.691381605 -0.3741553147 0.6921234716 -0.3738281482 0.0581557391 0.009231682
260298440.0 0.0581945773 0.0079672741 0.6876423169 -0.3832894043 0.6878511929 -0.3823879177 0.0585908715 0.0078849331
265298410.0 0.0591925331 0.0079286011 0.6838536569 -0.3908323171 0.6840919541 -0.3901558707 0.0583035062 0.0069000012
270298380.0 0.0585736454 0.0063273326 0.6799910264 -0.3987089314 0.6797122517 -0.3983124599 0.0580646567 0.0059370251
275298350.0 0.059188757 0.0051666723 0.6755008207 -0.4067261064 0.6754402913 -0.4062536208 0.0583305379 0.0046175205
280298320.0 0.0587090633 0.0044200427 0.671774212 -0.4144970644 0.6713448213 -0.4144225297 0.0589611075 0.0035446746
285298290.0 0.0588407796 0.0033031726 0.6666694795 -0.4227415504 0.6665586919 -0.4222539871 0.058614298 0.0024481421
290298260.0 0.0591084384 0.0022499662 0.6622172466 -0.4295523065 0.6621925322 -0.4299984816 0.0587407167 0.0017808621
295298230.0 0.0587496368 0.0010075109 0.6575511518 -0.4377827204 0.6576144748 -0.4379066371 0.0593593783 0.0005445192
300298200.0 0.0585775848 -6.60984e-05 0.6528516917 -0.4449297171 0.6531906291 -0.4456037275 0.0589350541 -0.0006772843
305298170.0 0.0587973139 -0.0011776732 0.6482696452 -0.4533118322 0.647913 -0.4527154239 0.0596096214 -0.0018362222
310298140.0 0.0583425508 -0.0022360862 0.642710446 -0.4611072824 0.6432913384 -0.4605834644 0.0595484146 -0.0030172601
315298110.0 0.0585596131 -0.0041659003 0.6386758376 -0.4682713426 0.6383139918 -0.4680912428 0.0587266041 -0.0042323084
320298080.0 0.0585241162 -0.0047899015 0.6320071107 -0.4764430929 0.6331947778 -0.47569077 0.0590177666 -0.0052334283
325298050.0 0.0579444031 -0.0059035033 0.6274854833 -0.4837427318 0.6276010089 -0.4832098697 0.0581170106 -0.0064970608
330298020.0 0.0575497147 -0.0071722912 0.6218091888 -0.4908096768 0.6218802082 -0.4904475668 0.0576080128 -0.0072909381
335297990.0 0.057264598 -0.0082345007 0.6159440569 -0.4980409701 0.6158669436 -0.498057681 0.0564948136 -0.007681102
340297960.0 0.0562855455 -0.0087970964 0.6098230633 -0.505028992 0.6100171749 -0.5048471636 0.057055686 -0.0086592876
345297930.0 0.0557552091 -0.0090993663 0.6039881931 -0.5115889161 0.6044107164 -0.5114904749 0.0566609464 -0.0093791437
350297900.0 0.0552492826 -0.0105273903 0.5981461507 -0.5183523023 0.5981991354 -0.5180105241 0.0552885233 -0.0097002478
355297870.0 0.0550240377 -0.0104365249 0.5926084342 -0.5250701066 0.5935495314 -0.5252082871 0.0552498561 -0.0105709263
360297840.0 0.0549141207 -0.0112847063 0.5871288378 -0.5311256879 0.5878795185 -0.5314450537 0.0550573175 -0.01096302
365297810.0 0.0539714721 -0.0119844351 0.5808607648 -0.538217361 0.581537322 -0.5381600516 0.0548503367 -0.0117420184
370297780.0 0.054485003 -0.0131418605 0.5747321307 -0.5445927291 0.5756272697 -0.5439120095 0.054089594 -0.0123898764
375297750.0 0.053841945 -0.013633511 0.5686738659 -0.5508518862 0.5701757445 -0.550646774 0.05435966 -0.0127723905
380297720.0 0.0537691579 -0.0142371374 0.5627380829 -0.5576529344 0.5632439742 -0.5567836616 0.0534484781 -0.0140033029
385297690.0 0.0531725516 -0.0150939875 0.5568669646 -0.5635362887 0.5566489821 -0.5632939356 0.0533115618 -0.014121783
390297660.0 0.0528766743 -0.0149195305 0.5506706035 -0.5699957545 0.5504616419 -0.5694738616 0.0526720084 -0.0150566024
395297630.0 0.0523282928 -0.0158707367 0.5443755867 -0.5762447219 0.5444621379 -0.5758317574 0.0529031841 -0.0156501476
400297600.0 0.0519697312 -0.0167256461 0.537150032 -0.5826429879 0.5382197922 -0.5817469314 0.0521330151 -0.0162520431
405297570.0 0.0513702519 -0.0173214025 0.5316097647 -0.5877994331 0.5312310885 -0.5872547751 0.0517917282 -0.0168114116
410297540.0 0.0515491803 -0.0180973307 0.5251577942 -0.5937615244 0.5257528617 -0.5936453772 0.0514234875 -0.0172044384
415297510.0 0.0511332974 -0.0186940232 0.5185216633 -0.5993363524 0.5187010845 -0.5997159531 0.051306856 -0.0179493125
420297480.0 0.051032088 -0.019009692 0.5116343286 -0.6055106967 0.5114814405 -0.6059233879 0.0509111659 -0.0189534864
425297450.0 0.0504066254 -0.0204340533 0.5049696208 -0.6110112869 0.5055335435 -0.6110563475 0.0497346554 -0.0188504601
430297420.0 0.0501061391 -0.0206749541 0.4979321865 -0.6163689047 0.4988562098 -0.6162403886 0.0496497481 -0.0199030308
435297390.0 0.0495504779 -0.0211163114 0.4908693665 -0.622692319 0.491184546 -0.6222376567 0.0502427105 -0.020489706
440297360.0 0.0495655592 -0.0214302967 0.4849053401 -0.6273567016 0.4845858432 -0.6275898892 0.0491278875 -0.0215558495
445297330.0 0.0486907001 -0.0229428671 0.4777275439 -0.6328276815 0.4777720312 -0.6325488982 0.0492509067 -0.0224391509
450297300.0 0.0489242316 -0.0230817545 0.4712506487 -0.6380389634 0.4709370801 -0.638885235 0.048424988 -0.0229854251
455297270.0 0.0484106913 -0.0235954054 0.4638145108 -0.6436174384 0.4644571773 -0.6436308072 0.0483745028 -0.0231673241
460297240.0 0.0479090778 -0.0242609514 0.4563265024 -0.6482399408 0.4568557291 -0.6484962857 0.0479044672 -0.0236398056
465297210.0 0.0477402615 -0.0248348849 0.4493577844 -0.6535855436 0.4498863457 -0.6540958186 0.0476845645 -0.0245178535
470297180.0 0.0470730122 -0.0256708899 0.4419355792 -0.6585283241 0.4424050028 -0.6586570866 0.047222451 -0.0248069508
475297150.0 0.0469481656 -0.026042143 0.4347685418 -0.6629506242 0.4353334744 -0.6628488932 0.0474181909 -0.0258066789
480297120.0 0.0461672476 -0.0261898361 0.4281681125 -0.6684559407 0.4276518046 -0.6689545134 0.0470489304 -0.0259690475
485297090.0 0.045672066 -0.0268437742 0.4202185228 -0.673009142 0.4207093768 -0.67282215 0.0464317099 -0.0267141097
490297060.0 0.0448238277 -0.0275302995 0.413062407 -0.6779684797 0.4131223265 -0.6772626387 0.0462322456 -0.0265101098
495297030.0 0.0446961396 -0.0277654022 0.4049948594 -0.6821777098 0.4058660927 -0.6817664947 0.0450628379 -0.0277099171
500297000.0 0.0441878502 -0.0286875694 0.3980366561 -0.6862647274 0.397864889 -0.6856193007 0.045100277 -0.02731378
505296970.0 0.04410422 -0.0291560632 0.3907535567 -0.6907925883 0.3900765408 -0.6905576275 0.0442789609 -0.0282978116
510296940.0 0.0434882984 -0.0292029839 0.3824507281 -0.6954730072 0.3826829858 -0.695153547 0.044522652 -0.0282053763
515296910.0 0.0427419551 -0.0293735625 0.3751287763 -0.6995359917 0.3749226648 -0.6989437303 0.0437540857 -0.0287052896
520296880.0 0.0424875479 -0.030328701 0.3672430714 -0.7040846542 0.3677963029 -0.7030269722 0.043211137 -0.0293916853
525296850.0 0.0422483179 -0.0312695351 0.359381848 -0.7075612503 0.3603239227 -0.706925974 0.0425243839 -0.0300227035
530296820.0 0.0415746 -0.0310450543 0.351542945 -0.7117760594 0.3517967691 -0.7110536542 0.0424104109 -0.0300133535
535296790.0 0.0407899 -0.0315736694 0.3446846096 -0.7149952918 0.3447542256 -0.7143066256 0.0419555296 -0.0310556946
540296760.0 0.0402693306 -0.0316658863 0.336061582 -0.7192596344 0.3363341728 -0.718925319 0.0408380184 -0.0305826473
545296730.0 0.0399299817 -0.0323905575 0.3276704743 -0.7225034803 0.3282812152 -0.7226908642 0.040453366 -0.0313170784
550296700.0 0.0398474728 -0.0324531503 0.3205904638 -0.7258446097 0.3207384626 -0.7261903973 0.0400121231 -0.0316468323
555296670.0 0.0389892571 -0.0328886885 0.3130159119 -0.7293085204 0.3125296222 -0.7289310364 0.0394465608 -0.0321705435
560296640.0 0.0386775741 -0.0329486558 0.3044720159 -0.7332838486 0.3044304146 -0.7331304903 0.0390582478 -0.0326487118
565296610.0 0.0377042778 -0.0337103848 0.2960015912 -0.7366226498 0.2964985433 -0.7359902559 0.0383086456 -0.0333343769
570296580.0 0.0372768537 -0.0337884353 0.2882351002 -0.7394872377 0.287780985 -0.7394690328 0.0381313709 -0.0326343723
575296550.0 0.0364491558 -0.0343544745 0.2799510043 -0.7427406803 0.280154361 -0.7425416378 0.0379793116 -0.0336609298
580296520.0 0.0362237894 -0.0346268488 0.2721389907 -0.7456293409 0.2725414525 -0.7456501224 0.0366644803 -0.0341156458
585296490.0 0.0354400021 -0.0356659256 0.2641715683 -0.7481626911 0.2647297697 -0.7483644394 0.0362225706 -0.034214338
590296460.0 0.0356296198 -0.0356270302 0.2556103611 -0.7503357511 0.2563137528 -0.7510767217 0.0349264637 -0.0345801944
595296430.0 0.0352654164 -0.0356885315 0.2472392937 -0.7552911967 0.2477340649 -0.7542854239 0.035330543 -0.035420708
600296400.0 0.0342006995 -0.0362977337 0.2391143759 -0.7568868514 0.2395441085 -0.7564556083 0.0344446587 -0.0354713366
605296370.0 0.0337767917 -0.036542099 0.2304387434 -0.7589697223 0.2311075664 -0.7590232058 0.0340543272 -0.0357519249
610296340.0 0.0333563985 -0.0368230705 0.2223930064 -0.7614614987 0.2229781422 -0.7618248176 0.0336936876 -0.036486446
615296310.0 0.0329519755 -0.0377753487 0.213884424 -0.7643078058 0.2144892239 -0.7647394753 0.0333899785 -0.0365844922
620296280.0 0.0322096536 -0.0378033804 0.205712374 -0.7659772711 0.2059937608 -0.7661640262 0.0322762422 -0.0368625945
625296250.0 0.0313301811 -0.0386060327 0.198434839 -0.7686343185 0.1979860348 -0.7691155424 0.0328654698 -0.0371667542
630296220.0 0.0320129759 -0.0381303454 0.1890606305 -0.7707050612 0.1886944091 -0.7705579576 0.0315007527 -0.0371227885
635296190.0 0.0297794726 -0.0389877 0.1807283051 -0.7730032648 0.1809996274 -0.7728978329 0.0312949588 -0.0374649459
640296160.0 0.0295959926 -0.0388924353 0.1724044748 -0.7743029882 0.1729575866 -0.7741110007 0.0305854889 -0.0378180543
645296130.0 0.0293228914 -0.0389425779 0.1634341251 -0.7760918847 0.1643110186 -0.7762499076 0.0299399465 -0.0381225177
650296100.0 0.0286150458 -0.0394823472 0.1548694113 -0.778886809 0.155732265 -0.7780199371 0.0300830751 -0.0389422486
655296070.0 0.0276610095 -0.0396258023 0.1471681034 -0.780054181 0.1476988734 -0.7799476979 0.0296425425 -0.0382725821
660296040.0 0.0266362545 -0.040448071 0.1382251668 -0.7815258133 0.1388183261 -0.7808955401 0.0289731215 -0.0387263098
665296010.0 0.0269325352 -0.0402045361 0.1290649079 -0.7825851642 0.1301514386 -0.7824447925 0.0284270625 -0.0384945491
670295980.0 0.0251046255 -0.0401590673 0.121512314 -0.7841051736 0.1213801996 -0.7843476051 0.0272143833 -0.0389854343
675295950.0 0.0254541209 -0.0400138086 0.113211551 -0.7850379925 0.1130062459 -0.7847831444 0.0266857488 -0.0394387613
680295920.0 0.0240256449 -0.0408280365 0.1037764903 -0.7863304512 0.1034559772 -0.7870102244 0.0261807559 -0.0387030705
685295890.0 0.0239889208 -0.0402066002 0.0953011617 -0.7877956272 0.0953188556 -0.7879131079 0.0255777166 -0.0389855598
690295860.0 0.023949928 -0.0408660595 0.0867904758 -0.7881764636 0.0867416927 -0.7885277009 0.0245351532 -0.0386405346
695295830.0 0.0230136331 -0.0413209452 0.0785817772 -0.7894021064 0.0777637856 -0.7895699146 0.0244213014 -0.038834644
700295800.0 0.02254971 -0.0414508874 0.0698097432 -0.7900929736 0.0696384227 -0.7892739085 0.0232698708 -0.0386281786
705295770.0 0.0213928456 -0.0406163942 0.0611226724 -0.7911176385 0.0611339346 -0.790979882 0.0228520291 -0.0390270895
710295740.0 0.0215015126 -0.0411734756 0.0529308374 -0.7921148898 0.0530467231 -0.7921348772 0.0228765246 -0.0399229373
715295710.0 0.0200389777 -0.0417775942 0.0446836024 -0.7923157763 0.0436447843 -0.792267899 0.0223951627 -0.0396342976
720295680.0 0.0200828682 -0.0416577625 0.035425976 -0.79327022 0.0361733266 -0.7925790407 0.021358879 -0.0391228917
725295650.0 0.0194151572 -0.041537199 0.0267336035 -0.7929363007 0.0268737733 -0.7930255534 0.0201491041 -0.039181134
730295620.0 0.0190765152 -0.0411758358 0.0180581956 -0.7925977364 0.0182931671 -0.7932308306 0.0197286483 -0.0399570534
735295590.0 0.0180943189 -0.0413861027 0.009559819 -0.7935052808 0.0092053985 -0.7933074595 0.0189484674 -0.0400828402
740295560.0 0.0172243383 -0.0414936397 0.0009030269 -0.7932292358 0.0005989683 -0.7932769324 0.0190861253 -0.0396881223
745295530.0 0.0168451479 -0.0414377343 -0.0075558311 -0.792560405 -0.008128839 -0.7929518958 0.0182144462 -0.0405340001
750295500.0 0.0164018431 -0.0418322368 -0.01592262 -0.7926138873 -0.0164324945 -0.7933097051 0.0173470417 -0.0400632932
755295470.0 0.01596284 -0.0420534338 -0.024628575 -0.7927951621 -0.0247457999 -0.7930880454 0.0176687979 -0.0405902975
760295440.0 0.0149830859 -0.0415311181 -0.0338331926 -0.7927704968 -0.0335313911 -0.7927519036 0.0164623882 -0.0406970455
765295410.0 0.0143504931 -0.0421652467 -0.0423206526 -0.792175336 -0.0425822042 -0.7926147744 0.0160516495 -0.0407645847
770295380.0 0.0134856933 -0.0421327122 -0.051416475 -0.7919420509 -0.0507151127 -0.7915435091 0.0152053488 -0.0411257526
775295350.0 0.0130398372 -0.0427124212 -0.0595577487 -0.7907750368 -0.0592431571 -0.7906567596 0.0136707444 -0.0404373661
780295320.0 0.0125354351 -0.0422646453 -0.0681272247 -0.7897580806 -0.0673099525 -0.7901774904 0.0134917816 -0.0411641867
785295290.0 0.0116321963 -0.0427612552 -0.0766819934 -0.7892240974 -0.0765554124 -0.7894277704 0.0139554021 -0.0409376551
790295260.0 0.0118061267 -0.0418166409 -0.0845956935 -0.7886112768 -0.0841441324 -0.7881841836 0.0125921747 -0.0410997032
795295230.0 0.0109020936 -0.0426307112 -0.0940686715 -0.7876289201 -0.092840244 -0.787833054 0.0128026343 -0.0405934152
800295200.0 0.009847986 -0.0418669742 -0.102924526 -0.7861320872 -0.1020096935 -0.7864724402 0.0118418591 -0.0412415712
805295170.0 0.0092902176 -0.0423889751 -0.1111483657 -0.7851029409 -0.1105143423 -0.7854270408 0.0112056189 -0.0407415294
810295140.0 0.0083927983 -0.0424343623 -0.1190203149 -0.7835031852 -0.1195063707 -0.7839547764 0.0111708022 -0.0403314117
815295110.0 0.0082473746 -0.0426424471 -0.1278933491 -0.7821600393 -0.1272384247 -0.7827155301 0.0101747408 -0.0406228558
820295080.0 0.0069954706 -0.0417009621 -0.1362387396 -0.7807202443 -0.1360243769 -0.7807452446 0.0094897963 -0.0402931581
825295050.0 0.0070906787 -0.042030215 -0.1438399521 -0.7794509292 -0.1445385196 -0.7796759256 0.0093581184 -0.0404592424
830295020.0 0.0063321255 -0.0418338589 -0.1532889447 -0.77723502 -0.1528763948 -0.7775308961 0.0097496308 -0.0398911536
