!Created with skrf (http://scikit-rf.org).
# Hz S RI R 50.0 
!freq ReS11 ImS11 ReS21 ImS21 ReS12 ImS12 ReS22 ImS22
300000.0 -0.1013607176 -0.066876637 0.6320970639 0.0625357887 0.6257050245 0.0620658047 -0.1032908395 -0.0736753981
5299970.0 -0.101922642 0.0132971274 0.6305483236 0.0101270493 0.6305310712 0.0102353953 -0.1006158227 0.0131774038
10299940.0 -0.0972072276 0.0292782961 0.6338632555 0.0152420497 0.6342497311 0.015750287 -0.0959337007 0.0303349752
15299910.0 -0.0900406033 0.0425864976 0.6405697746 0.0205047299 0.6403844848 0.0205488583 -0.0886895315 0.0437025139
20299880.0 -0.0815979694 0.0532877788 0.6483671619 0.0244378276 0.6485261197 0.0240427843 -0.0797624317 0.0546540767
25299850.0 -0.0723407151 0.062105571 0.6577292245 0.0250006897 0.6577308999 0.02559299 -0.0696391179 0.0634922105
30299820.0 -0.0620223822 0.0687791886 0.6672596821 0.0240551739 0.6671628153 0.0243122674 -0.0595701269 0.0699945144
35299790.0 -0.0522770794 0.0735383608 0.6769594933 0.0214522109 0.6770171644 0.0212513308 -0.0498265546 0.074902833
40299760.0 -0.0433644416 0.0771787351 0.6860375286 0.0171105398 0.6864993185 0.0175449698 -0.0404443169 0.0776007472
45299730.0 -0.0339835309 0.0793806297 0.6949369812 0.0115604422 0.6952975285 0.0119050719 -0.0313334607 0.0796468712
50299700.0 -0.0257531174 0.0800515843 0.703736307 0.0049531413 0.703344426 0.005486104 -0.0226660665 0.08050521
55299670.0 -0.0176827691 0.0803711183 0.7108509643 -0.0033613713 0.710728882 -0.0026853188 -0.0148189647 0.0808619928
60299640.0 -0.009924805 0.080152297 0.7175622496 -0.0114743352 0.7178653694 -0.0108668305 -0.0076310133 0.0795620487
65299610.0 -0.003562045 0.078886651 0.7232066715 -0.0206301761 0.7239375233 -0.0200760176 -0.0011877891 0.0785916166
70299580.0 0.0026535312 0.0775203547 0.7287145699 -0.0293289233 0.7283760709 -0.0293343068 0.0047582808 0.0768291064
75299550.0 0.0081717113 0.0759570106 0.7329050442 -0.0389817576 0.7328960177 -0.0390685931 0.0096850104 0.0747650493
80299520.0 0.0131730552 0.0735397379 0.737319626 -0.0488104485 0.7374275443 -0.0491881762 0.0150878736 0.0724489434
85299490.0 0.0177209229 0.0712629431 0.7401320454 -0.0583107987 0.7406085412 -0.0582584189 0.0191849195 0.0698515262
90299460.0 0.0217706267 0.0690549703 0.7428602415 -0.0690561315 0.7432817859 -0.0686311976 0.0237226026 0.0680955882
95299430.0 0.0258227732 0.0664471176 0.7455806687 -0.0789057673 0.7458141253 -0.0789797064 0.0272300429 0.0653378347
100299400.0 0.0287714631 0.0645241038 0.7464972989 -0.089004008 0.7469868172 -0.0890421154 0.0311107335 0.0624008922
105299370.0 0.0322216036 0.0620117953 0.7485563929 -0.0995290551 0.7489999755 -0.0994187281 0.0341438911 0.0605967589
110299340.0 0.034837808 0.0595948347 0.7500711121 -0.1090629577 0.7494109946 -0.10915392 0.0360483104 0.0574272599
115299310.0 0.0373998394 0.0573795715 0.7504239232 -0.1194436389 0.7505040401 -0.1191722872 0.0388586676 0.0554992477
120299280.0 0.0400049743 0.0547300952 0.7511577383 -0.1293045351 0.751652374 -0.1296680918 0.041380537 0.0530795471
125299250.0 0.0419890901 0.0522254972 0.7514267175 -0.1393315005 0.7517200255 -0.1395822045 0.042913494 0.0501160536
130299220.0 0.0434882932 0.0501822772 0.7511395478 -0.1494132278 0.7514480306 -0.1496307388 0.0450787162 0.0479681163
135299190.0 0.0452423339 0.0482193763 0.7509523107 -0.1592175014 0.7512202685 -0.1591991309 0.0466730225 0.0461996766
140299160.0 0.0467226647 0.0462337121 0.7507864626 -0.1691173692 0.750779809 -0.1690385539 0.0479681675 0.0442994781
145299130.0 0.0480567858 0.0437406557 0.7497580293 -0.1786487492 0.7494874856 -0.1785304135 0.0495380868 0.0420657233
150299100.0 0.0496189111 0.0420089244 0.7487073138 -0.1875463189 0.7487100656 -0.1876765066 0.0508041088 0.0400009649
155299070.0 0.0502321877 0.039463354 0.7476302252 -0.1981470769 0.7476208649 -0.1977192583 0.0518468576 0.0382968605
160299040.0 0.05155651 0.0381434679 0.7462673867 -0.2072818825 0.745760455 -0.2078835979 0.0523158977 0.0360204157
165299010.0 0.0523842705 0.0363122975 0.744645848 -0.2176732019 0.7446820499 -0.2169534304 0.0534405776 0.0352217627
170298980.0 0.0534073102 0.0339237891 0.7425747105 -0.2265169816 0.743106476 -0.2262125356 0.05428985 0.0331305378
175298950.0 0.0534211294 0.0321982724 0.7417001068 -0.2352835911 0.7407747823 -0.2356172544 0.0546481416 0.0310521524
180298920.0 0.054380365 0.0304695118 0.7389185919 -0.2448977444 0.73834211 -0.2445711696 0.0554425658 0.0296913435
185298890.0 0.0554715838 0.0286566251 0.7365301936 -0.2537620667 0.7361778179 -0.2536629306 0.0558124193 0.028536599
190298860.0 0.0554282783 0.0274223989 0.7341767323 -0.2632525249 0.7345630157 -0.2633263736 0.0564139431 0.0263065925
195298830.0 0.0559346227 0.025226789 0.7317926377 -0.2721356963 0.7320823553 -0.2717751363 0.0571006371 0.0252421697
200298800.0 0.0564160406 0.0240656205 0.7286466188 -0.2812624299 0.7293005869 -0.2815021119 0.0570063961 0.023819744
205298770.0 0.0568713132 0.0227764709 0.7257054956 -0.2902666571 0.7260116186 -0.289565341 0.057303198 0.0214211888
210298740.0 0.0573765033 0.0209404675 0.7233757299 -0.2981248874 0.7232287876 -0.2980834308 0.0579435696 0.0211064501
215298710.0 0.0568604631 0.0194936523 0.7200600075 -0.3075631665 0.7200181285 -0.3079162654 0.0577564977 0.0196584482
220298680.0 0.0576147342 0.0178042601 0.7168567326 -0.3155895284 0.716545747 -0.3160604842 0.057527089 0.017801815
225298650.0 0.0576688606 0.0166603941 0.7140770839 -0.3247125004 0.7132716793 -0.3244042147 0.0574134061 0.0165071383
230298620.0 0.0578781516 0.0157398949 0.7107761921 -0.3329104461 0.7111117725 -0.3331337645 0.0574074494 0.0152169904
235298590.0 0.0578262603 0.0145796047 0.7070500396 -0.3413890149 0.707195357 -0.3412932727 0.0576518733 0.0140430866
240298560.0 0.0580941015 0.0132388357 0.7032533271 -0.3502491868 0.703132006 -0.3500632804 0.0573879637 0.0131022137
245298530.0 0.0578821148 0.0118887826 0.6998105899 -0.3583182799 0.6996124625 -0.3586731832 0.0582075351 0.0108852677
250298500.0 0.0584431787 0.0111202755 0.6952817979 -0.3664960422 0.6949045484 -0.3659234832 0.0578514747 0.0103516603
255298470.0 0.0582694062 0.0091755072 0.6908885764 -0.37432126 0.6917831242 -0.374469232 0.0580640981 0.0089619188
260298440.0 0.0578120294 0.0081644566 0.6870237825 -0.382809355 0.6876736195 -0.3827491236 0.058478474 0.0079452613
265298410.0 0.0587809335 0.0075274908 0.6835959569 -0.3911389647 0.6836164944 -0.3907435236 0.0583447997 0.0069130734
270298380.0 0.0584333483 0.0062291158 0.6794640746 -0.398368621 0.6796575105 -0.3983659959 0.0576525476 0.0055972731
275298350.0 0.0589640556 0.0052486154 0.675518698 -0.4069898989 0.6756524586 -0.4066955505 0.0581684257 0.0044439382
280298320.0 0.0585914022 0.0043376427 0.6713169121 -0.4142107388 0.6708867555 -0.4146871331 0.0585324856 0.0035690873
285298290.0 0.0585885671 0.0030108761 0.6665512745 -0.4225601448 0.6660940343 -0.4227094132 0.0586172497 0.0021726361
290298260.0 0.0589843546 0.0020801877 0.6618539003 -0.429789933 0.6618362181 -0.4303100484 0.0586887533 0.0016767493
295298230.0 0.0587883872 0.0007141546 0.6569838471 -0.4376654697 0.657378527 -0.437634447 0.059251589 0.0002614765
300298200.0 0.0584098274 -0.0004046732 0.6531609977 -0.4452915185 0.6529224334 -0.4458341942 0.0585121889 -0.0008132063
305298170.0 0.0588228845 -0.001525589 0.647939703 -0.453303655 0.6475649293 -0.4527480079 0.0594241304 -0.0018960253
310298140.0 0.0585362009 -0.0024963767 0.6430967595 -0.4606160844 0.6434363049 -0.4608847344 0.059302965 -0.0030684498
315298110.0 0.0584308543 -0.0042987144 0.6384518372 -0.4683679782 0.6379106687 -0.4687041812 0.0586385164 -0.0042514729
320298080.0 0.0583873863 -0.0049761061 0.6321476749 -0.4760421562 0.6328576188 -0.4760181743 0.0586462656 -0.0054103254
325298050.0 0.0578017147 -0.0062025218 0.6269933492 -0.4835879117 0.626926119 -0.4834566346 0.0578755456 -0.0064163066
330298020.0 0.0575149138 -0.0075114068 0.6211823169 -0.4910989077 0.621365485 -0.4914148171 0.0572568847 -0.0080110348
335297990.0 0.0571893664 -0.0086799793 0.6153872189 -0.4979711601 0.6154242585 -0.4980892203 0.0565494845 -0.0076158507
340297960.0 0.0562027179 -0.0088448027 0.6093880936 -0.5048711055 0.608749995 -0.5056375307 0.0569053031 -0.0089839884
345297930.0 0.0557874094 -0.0091925395 0.6043824525 -0.5121402663 0.6038246789 -0.5120984634 0.0563865692 -0.0098002436
350297900.0 0.0550430265 -0.0109173197 0.5977231337 -0.5186909672 0.5976812785 -0.5185099437 0.0552625061 -0.009909318
355297870.0 0.054724888 -0.01064501 0.592109068 -0.5252150666 0.5924445868 -0.525097636 0.0551690909 -0.0108207461
360297840.0 0.05468419 -0.0117068445 0.5871349438 -0.5320198142 0.5871588419 -0.5314748338 0.054984768 -0.0113814488
365297810.0 0.0542345212 -0.0120452888 0.5807450698 -0.5385540477 0.5815704243 -0.5389040189 0.0547819894 -0.0117965444
370297780.0 0.0542777984 -0.0132360193 0.5744771908 -0.544635812 0.5752533304 -0.5442452534 0.0541888049 -0.0121122286
375297750.0 0.0538361875 -0.0139233751 0.5684269548 -0.5511240357 0.5695135823 -0.5515511865 0.0541480673 -0.0128440133
380297720.0 0.0534607268 -0.0143614603 0.5626233752 -0.5577135721 0.5623906868 -0.5571341971 0.0533529126 -0.014080632
385297690.0 0.0530561902 -0.0153334899 0.5563245583 -0.5638891602 0.5562197161 -0.5636196481 0.0534346062 -0.014264264
390297660.0 0.0528787326 -0.0154929811 0.5499959188 -0.5702310671 0.5499657631 -0.5697968265 0.0527684146 -0.0149462858
395297630.0 0.0521670648 -0.0161130566 0.5434541504 -0.575906119 0.5442075252 -0.57658385 0.0528966653 -0.0157083884
400297600.0 0.051738004 -0.01688536 0.5370340416 -0.5826953412 0.5374337104 -0.5822771263 0.051978059 -0.0165068922
405297570.0 0.0513726742 -0.0175016999 0.5311226661 -0.5880268531 0.531007786 -0.5877462233 0.0514810285 -0.0168146769
410297540.0 0.0513830887 -0.0182405869 0.5247498504 -0.5946368971 0.5249697375 -0.5939910913 0.0511682231 -0.0171865589
415297510.0 0.0512244101 -0.0187715087 0.5182268235 -0.6001304278 0.5180226075 -0.5999028091 0.0510944337 -0.0177524044
420297480.0 0.0506244105 -0.0191910221 0.5112989688 -0.6060909766 0.5112999256 -0.6063080653 0.0506262406 -0.0189364089
425297450.0 0.0503767467 -0.0205310084 0.5048644871 -0.6115062346 0.5049307746 -0.6119309725 0.0494556367 -0.0188096448
430297420.0 0.04974451 -0.0210319913 0.49765812 -0.6169474725 0.497630919 -0.6164675834 0.0496547515 -0.0198722657
435297390.0 0.0494064132 -0.0212700989 0.4908338667 -0.6225812372 0.490505273 -0.6228282222 0.0498578839 -0.0207869844
440297360.0 0.0492091472 -0.0217922862 0.4845377923 -0.6277707232 0.4844983836 -0.6275932239 0.0488033712 -0.021294394
445297330.0 0.0487050106 -0.0228046094 0.4775848169 -0.6332995807 0.4776082176 -0.632630303 0.0492497919 -0.0223416819
450297300.0 0.0486690395 -0.0234226295 0.4703720393 -0.6384194478 0.47024331 -0.6384999352 0.0484178876 -0.0229599193
455297270.0 0.0481965476 -0.0238108801 0.4633278991 -0.6434436412 0.4638411297 -0.6438139963 0.0479430297 -0.0232844128
460297240.0 0.0476221732 -0.0244088701 0.4560561235 -0.6487194305 0.4562590321 -0.6488104332 0.0478319414 -0.0236694348
465297210.0 0.0474599788 -0.0248289142 0.4492163003 -0.6537276148 0.4492332485 -0.6542950093 0.0476342577 -0.0247323272
470297180.0 0.0469608496 -0.0260523953 0.4412133951 -0.6586367655 0.4418133803 -0.658819619 0.0472107525 -0.0246753892
475297150.0 0.0466336257 -0.0262838441 0.434407048 -0.6632767858 0.4349914835 -0.6635280476 0.047292913 -0.0259608883
480297120.0 0.0462814471 -0.0260004025 0.4268946752 -0.66851677 0.426774801 -0.6689183884 0.0467928044 -0.0261318452
485297090.0 0.0453667682 -0.0271420231 0.4201920953 -0.6731553097 0.4198940796 -0.6726333126 0.0462429107 -0.0268107152
490297060.0 0.0445291829 -0.0279221782 0.4128434214 -0.6781523207 0.4128166873 -0.67784725 0.0458583926 -0.0267657317
495297030.0 0.0446234007 -0.0280283629 0.4049887919 -0.6824059451 0.405614273 -0.6820339212 0.0452648934 -0.0279598423
500297000.0 0.0440149225 -0.0290272355 0.3972665319 -0.6864557507 0.3965513003 -0.6858403228 0.0446744463 -0.0272937679
505296970.0 0.0437351648 -0.0295205848 0.3900925682 -0.6903158589 0.3897807971 -0.6908962346 0.0443771712 -0.0280518556
510296940.0 0.0429756315 -0.0297369738 0.3820529179 -0.69500587 0.3818939712 -0.6953100992 0.0443452549 -0.0285175247
515296910.0 0.0427108708 -0.0297921675 0.3744193601 -0.6998206266 0.374558664 -0.698963758 0.0437007545 -0.0286303149
520296880.0 0.0421037321 -0.0306593317 0.3669308972 -0.7040788729 0.3671543727 -0.7032254542 0.0429016807 -0.0294492561
525296850.0 0.0418206735 -0.0315012349 0.3586954532 -0.7070663155 0.3592296721 -0.7074390499 0.0425771227 -0.0300862104
530296820.0 0.0414225381 -0.0314377348 0.3512091146 -0.7120550245 0.3516471203 -0.7114165201 0.0421810307 -0.029963977
535296790.0 0.0404211384 -0.0318891349 0.3438356604 -0.7152918438 0.3436195436 -0.7145986748 0.041802112 -0.0311624456
540296760.0 0.0400504292 -0.031860671 0.3358926273 -0.7193678989 0.335511435 -0.7190564028 0.0405861839 -0.0304017835
545296730.0 0.0395142936 -0.0325212486 0.3274051972 -0.7227714509 0.3275619972 -0.7225113239 0.0404883984 -0.0315020334
550296700.0 0.0395848308 -0.0326957834 0.319415239 -0.7262943214 0.3199325286 -0.7264428904 0.039765897 -0.0317828345
555296670.0 0.0384331864 -0.03326382 0.3120881738 -0.7297472571 0.312564585 -0.7293035681 0.0395603135 -0.0319472634
560296640.0 0.0385530051 -0.0332435136 0.3036159233 -0.7328617227 0.3042019914 -0.7329629838 0.038646928 -0.0322599084
565296610.0 0.0374391913 -0.0340037592 0.2958283199 -0.736712987 0.2957822726 -0.7366105809 0.0382136614 -0.033106911
570296580.0 0.0370672132 -0.0341307044 0.2877568028 -0.7401869331 0.2871792803 -0.7395913508 0.0376813607 -0.0326101377
575296550.0 0.0362770047 -0.0345248207 0.2791597222 -0.7430276709 0.2796878242 -0.7432754343 0.0375467634 -0.0335229926
580296520.0 0.0360878229 -0.034615251 0.2714710373 -0.746059427 0.2719903167 -0.7458824665 0.0367982049 -0.0339844158
585296490.0 0.0352344778 -0.0357098922 0.2634900712 -0.7480441658 0.2638125774 -0.7487491094 0.0360690137 -0.0339171958
590296460.0 0.0352057496 -0.0354945348 0.2553744925 -0.7506517769 0.2548946376 -0.7511947046 0.0346829792 -0.0345251459
595296430.0 0.034965688 -0.0359664913 0.2470842313 -0.7550325742 0.2467816735 -0.7538284195 0.0350245401 -0.0351889067
600296400.0 0.0338122997 -0.0362958295 0.2387380926 -0.7571531753 0.238765447 -0.7566183616 0.0340889859 -0.0355706669
605296370.0 0.0334531466 -0.0367601164 0.2304687786 -0.7592995901 0.2308164775 -0.7590777134 0.0335490092 -0.0356016898
610296340.0 0.0331357379 -0.0370943618 0.2218244061 -0.7611627226 0.222293962 -0.7619634066 0.0336379436 -0.0360666597
615296310.0 0.0328595997 -0.0376851782 0.2137354875 -0.7643578285 0.2136191969 -0.7644342999 0.0330433017 -0.0362915433
620296280.0 0.031929389 -0.0378525128 0.2056212739 -0.7665248272 0.2053601271 -0.7661976494 0.0321324533 -0.0368500599
625296250.0 0.0310597621 -0.0386658308 0.1974449641 -0.7690138658 0.1970589461 -0.7688052447 0.0325076951 -0.0371434097
630296220.0 0.0315325132 -0.0383779072 0.1879163782 -0.7711109918 0.1880599778 -0.7710128499 0.0314178953 -0.0372365644
635296190.0 0.0295399314 -0.0389408404 0.1797963409 -0.7728478891 0.1800098935 -0.7729901172 0.0309990454 -0.0375841459
640296160.0 0.029265573 -0.0391213764 0.1715856348 -0.7743796606 0.1719862291 -0.7745918331 0.0302857637 -0.0379924502
645296130.0 0.0288769783 -0.0391617646 0.1631406443 -0.7759346248 0.1635272361 -0.776495976 0.0301231354 -0.0379138406
650296100.0 0.0288863544 -0.0397372753 0.1543432629 -0.7780667995 0.1549132588 -0.7781828026 0.0300849139 -0.0389930034
655296070.0 0.0275047801 -0.0401103414 0.1462545674 -0.7800511827 0.1464214729 -0.7801045491 0.0292664109 -0.0387117521
660296040.0 0.0264497583 -0.0407773772 0.1378112207 -0.7819255268 0.1379388633 -0.7815128345 0.0289577696 -0.0388934402
665296010.0 0.0269467817 -0.0403620734 0.1287611254 -0.7826754533 0.1294567916 -0.782987425 0.0282371712 -0.0384849095
670295980.0 0.0248371954 -0.0406306423 0.1206324392 -0.7842361078 0.1208408202 -0.7842404466 0.0272645384 -0.0391660913
675295950.0 0.0249737274 -0.0405428044 0.1123730006 -0.7852092959 0.1124366399 -0.7849994562 0.0264006442 -0.0392684246
680295920.0 0.0237810889 -0.0412159951 0.1032651456 -0.7864312017 0.1029962781 -0.7870737731 0.0265887768 -0.0383012533
685295890.0 0.0238490907 -0.0404583152 0.0949117326 -0.7881775696 0.0947692726 -0.7877180141 0.0255887706 -0.0389930128
690295860.0 0.023494386 -0.0410024952 0.0860878764 -0.7884366146 0.0861594667 -0.7889568708 0.0248718629 -0.0382806306
695295830.0 0.0228578558 -0.0413525603 0.0781949227 -0.7897575783 0.0775209875 -0.78913624 0.0243226235 -0.0390194737
700295800.0 0.0221149212 -0.0417748652 0.0689790144 -0.7899412247 0.0686184958 -0.7896894492 0.0237058766 -0.0384153401
705295770.0 0.0213525458 -0.0408430818 0.0601161072 -0.790849771 0.0608713551 -0.7907932736 0.0225308621 -0.0388678787
710295740.0 0.0210130867 -0.0413154412 0.052462563 -0.7920504111 0.0523276758 -0.791931723 0.0229824883 -0.0399344641
715295710.0 0.0197651596 -0.0416320139 0.043853414 -0.792428763 0.0430238091 -0.7919905038 0.0224791017 -0.0392869261
720295680.0 0.0196705107 -0.0416971657 0.0346884255 -0.7929180282 0.0348644206 -0.7922769835 0.0213578529 -0.0388682956
725295650.0 0.0193256129 -0.0417838133 0.0259230449 -0.7927188015 0.0259795966 -0.7929140411 0.0198895555 -0.0390931465
730295620.0 0.0188580192 -0.0413933234 0.0174188282 -0.7928318424 0.0169612737 -0.7930874825 0.0197602993 -0.0399428973
735295590.0 0.0178353719 -0.0416851146 0.0090891863 -0.7928001921 0.0083797314 -0.7932868399 0.0191040327 -0.040032196
740295560.0 0.0169756704 -0.0415940624 0.0003558212 -0.7931854534 8.94936e-05 -0.7933287882 0.0190736966 -0.0395203851
745295530.0 0.0166026039 -0.0417191035 -0.008253303 -0.7926272952 -0.0087954403 -0.7929417323 0.0180286163 -0.0402237538
750295500.0 0.0159191201 -0.0419626636 -0.0167661959 -0.7927473938 -0.0173415912 -0.7932137618 0.0173668869 -0.0399390141
755295470.0 0.0155878788 -0.0422743156 -0.0249960881 -0.7931452843 -0.0254905126 -0.7930255913 0.0174937378 -0.0403818971
760295440.0 0.0145800644 -0.0417324713 -0.0337549994 -0.7927874842 -0.0344358097 -0.79258674 0.0165333925 -0.0405004278
765295410.0 0.0141294217 -0.0419561345 -0.0429126444 -0.7912423685 -0.0435887661 -0.7921841536 0.0158901463 -0.0403522949
770295380.0 0.0132623248 -0.0424752345 -0.0516418658 -0.7916996358 -0.0519289949 -0.7914010736 0.0150113126 -0.0409321229
775295350.0 0.0127820421 -0.0430010573 -0.0601198499 -0.7900752691 -0.0596187131 -0.7906810591 0.0138261265 -0.0401304625
780295320.0 0.0122255573 -0.0424758889 -0.068653155 -0.7899231147 -0.0680550828 -0.7898416712 0.0133270676 -0.0414475757
785295290.0 0.011477944 -0.0430330582 -0.078070577 -0.7884758707 -0.077357143 -0.7889375019 0.0137896791 -0.0403456659
790295260.0 0.0116086158 -0.0417724792 -0.0852443387 -0.7879216448 -0.0848016144 -0.7880345065 0.0126434155 -0.0407786202
795295230.0 0.0104592143 -0.0426635517 -0.0940678826 -0.7872576246 -0.0939232764 -0.7874258194 0.0125608119 -0.0402423768
800295200.0 0.0096276595 -0.0419903413 -0.1037005746 -0.7856619271 -0.103080234 -0.785967378 0.0115626024 -0.0407038952
805295170.0 0.0090445943 -0.0425264662 -0.1117128928 -0.7850934258 -0.111754956 -0.7851457598 0.0109387276 -0.0403085443
810295140.0 0.0081417164 -0.0428689409 -0.1199280958 -0.7836461535 -0.1197608539 -0.7836527673 0.0111617189 -0.0402551218
815295110.0 0.0078954282 -0.0428640094 -0.1284471299 -0.7816228738 -0.128331173 -0.7824917523 0.0100234095 -0.0402697898
820295080.0 0.0064846938 -0.0418699185 -0.1370353896 -0.7804735558 -0.1369226717 -0.7803333296 0.0093323671 -0.0405263601
825295050.0 0.0066818619 -0.0422299593 -0.1448368995 -0.7785568823 -0.1455123563 -0.7795456202 0.0092989685 -0.0402679395
830295020.0 0.0061048407 -0.0419753655 -0.1539656769 -0.7770071203 -0.1536091638 -0.7773538878 0.0092651336 -0.0398488711
