!Created with skrf (http://scikit-rf.org).
# Hz S RI R 50.0 
!freq ReS11 ImS11 ReS21 ImS21 ReS12 ImS12 ReS22 ImS22
300000.0 -0.3159253867 -0.1045094521 0.372914887 0.0534247781 0.3750615661 0.0560003043 -0.3201288457 -0.1136601559
5299970.0 -0.3237480809 0.004775052 0.3787060255 0.002848955 0.378516305 0.0030911885 -0.3260928193 0.0025811648
10299940.0 -0.3210596533 0.015550006 0.3798059862 0.0023454762 0.3797021025 0.0023932432 -0.3241737409 0.0126653611
15299910.0 -0.3179034868 0.0234513071 0.381789732 0.0021696242 0.3819470503 0.0021435957 -0.321472336 0.0197788025
20299880.0 -0.3141785066 0.0302196399 0.3848935557 0.0015702089 0.3851984305 0.0018410613 -0.3181849377 0.0262352251
25299850.0 -0.3107573101 0.0355842549 0.3885281134 0.0002995552 0.3883715699 0.0001434095 -0.3155763871 0.0312411076
30299820.0 -0.3066732542 0.0404424659 0.3919706189 -0.0019803039 0.3914604278 -0.0021935911 -0.3125825 0.0354997023
35299790.0 -0.3028899532 0.0449374703 0.3950378547 -0.0053322482 0.3950952586 -0.0055515602 -0.3096068173 0.0393246265
40299760.0 -0.2994427784 0.0480638492 0.3981490919 -0.0085219218 0.3983782882 -0.0088291499 -0.3071772022 0.0431427364
45299730.0 -0.2965279741 0.0514688357 0.4010373269 -0.0125549621 0.4010031514 -0.0129597945 -0.3046374418 0.0462555477
50299700.0 -0.293278678 0.0540613496 0.4031045746 -0.0175157155 0.403694435 -0.0174323216 -0.3021694895 0.0494550828
55299670.0 -0.2906921648 0.0571967969 0.4053404526 -0.0221774103 0.4057798955 -0.0220474067 -0.3000213549 0.0520004564
60299640.0 -0.2882753224 0.0589615855 0.4076842263 -0.0269028511 0.4079453855 -0.0269925227 -0.2980358132 0.0546223477
65299610.0 -0.2861325047 0.0616246169 0.4097732533 -0.0314248479 0.4096049327 -0.0319595258 -0.2960098435 0.0571913496
70299580.0 -0.2838558632 0.0635322197 0.4106848219 -0.0366856133 0.4106572708 -0.0370368284 -0.2945938446 0.0593827457
75299550.0 -0.2817911619 0.0656900314 0.4112218569 -0.0420871816 0.4115356506 -0.0423325355 -0.2927432857 0.0620991847
80299520.0 -0.2803702194 0.0681289928 0.4128588704 -0.0478012581 0.4123817594 -0.047506807 -0.2915248905 0.0642666813
85299490.0 -0.2785116565 0.0697922567 0.4129712997 -0.0528354053 0.4127185612 -0.0527759983 -0.2902639699 0.0664513124
90299460.0 -0.2770894266 0.0721135228 0.4134722335 -0.0577521548 0.4136588193 -0.0578317257 -0.2884948297 0.0688925185
95299430.0 -0.2755757454 0.0741238443 0.4138192559 -0.0632464972 0.4141175088 -0.0633015754 -0.2875342848 0.071336697
100299400.0 -0.2744342073 0.076695926 0.4138491203 -0.0684519058 0.4136491922 -0.0682104848 -0.2865779545 0.0731845782
105299370.0 -0.2729469984 0.0785255652 0.4138280917 -0.0732830056 0.4138911326 -0.0736137198 -0.2851945891 0.0758634275
110299340.0 -0.2721043039 0.0804328021 0.4133080695 -0.0786294873 0.4134656917 -0.0787962019 -0.2845678875 0.0782976884
115299310.0 -0.2707320686 0.0823401993 0.4131735539 -0.0837702334 0.4132641773 -0.0837208192 -0.2829956198 0.0802303513
120299280.0 -0.2696722191 0.084957709 0.4127736215 -0.0891929275 0.4129968627 -0.0890368729 -0.2826246343 0.0823170608
125299250.0 -0.2688933282 0.0867637523 0.4123661997 -0.0938274223 0.412234901 -0.0940235813 -0.2809350474 0.0845141097
130299220.0 -0.2676331075 0.0890854449 0.4112527757 -0.0987628189 0.4117157295 -0.0990231953 -0.2807769213 0.0872524464
135299190.0 -0.2666187677 0.0910271065 0.4107569154 -0.1039715941 0.4103538671 -0.1038365295 -0.2795164974 0.0891946982
140299160.0 -0.2658955094 0.0937439464 0.4099160719 -0.1094926959 0.410265306 -0.1092036043 -0.2783684611 0.0922502024
145299130.0 -0.264753814 0.0959598912 0.4093882881 -0.1140197418 0.4090240457 -0.1136609838 -0.2780752129 0.0945618074
150299100.0 -0.2640206992 0.0980992234 0.4082008807 -0.1189644524 0.4084672908 -0.1188694797 -0.2768665273 0.0968615827
155299070.0 -0.2629289291 0.1010826461 0.4072407592 -0.124488241 0.4071306031 -0.1242079248 -0.2761501811 0.0995289082
160299040.0 -0.2619364255 0.1031548756 0.4053706612 -0.1283869427 0.4058744518 -0.1288751825 -0.2751960984 0.1022368882
165299010.0 -0.2611580201 0.1054854877 0.4047789923 -0.1336246935 0.4046816111 -0.1337963893 -0.2744639666 0.1045515276
170298980.0 -0.2601374137 0.1076012055 0.4028051746 -0.1383058488 0.403337858 -0.1384128078 -0.2731805147 0.1071793471
175298950.0 -0.2591115996 0.1103397366 0.4023166086 -0.1431056122 0.4021700301 -0.1433409855 -0.2723272244 0.1097870781
180298920.0 -0.2580170684 0.1126233103 0.4004586031 -0.1478793443 0.4005033906 -0.1478900608 -0.2709191571 0.1124773277
185298890.0 -0.256724985 0.1153502048 0.398370569 -0.152651426 0.3989608693 -0.1526283025 -0.2703409001 0.1147940101
190298860.0 -0.2558353638 0.1177434547 0.397108536 -0.1573853757 0.3974211815 -0.1574983073 -0.268837664 0.1177446786
195298830.0 -0.2547257429 0.1201153479 0.3955517109 -0.1617203275 0.3957627338 -0.1621742582 -0.2679954339 0.119967714
200298800.0 -0.2537264057 0.1229106719 0.3942180512 -0.1662281279 0.3939302504 -0.1665561597 -0.2663053894 0.1230567887
205298770.0 -0.2526014194 0.1252588539 0.3923040507 -0.171135703 0.3923761318 -0.171154372 -0.2654363193 0.1252460454
210298740.0 -0.251362527 0.1278379019 0.3905260183 -0.1760659469 0.3905686854 -0.1757656913 -0.2645497358 0.1281093795
215298710.0 -0.2502836494 0.1304030937 0.3884720132 -0.1802148449 0.3884213582 -0.1801238571 -0.2635581377 0.1306590637
220298680.0 -0.2489890559 0.1326632666 0.3861400772 -0.1845207052 0.3865329633 -0.1848311863 -0.262073798 0.1337239213
225298650.0 -0.2474855916 0.135625628 0.3843012559 -0.1888798224 0.3842953196 -0.1889987974 -0.261072846 0.1362899363
230298620.0 -0.2466643493 0.138320883 0.3826733875 -0.1934843776 0.382599028 -0.1936245818 -0.259611253 0.1388792418
235298590.0 -0.2454179588 0.1404516558 0.3806175738 -0.1976906847 0.3801267497 -0.1982881453 -0.2582740463 0.14139272
240298560.0 -0.2440878372 0.1432097929 0.3783602491 -0.2019525327 0.3781436598 -0.2019149958 -0.2571204365 0.144274745
245298530.0 -0.2427763203 0.1458541897 0.3756730738 -0.2066847606 0.3758209641 -0.2066331599 -0.2553629502 0.1469411106
250298500.0 -0.2416882763 0.1483288978 0.3736789899 -0.2105006879 0.3740189477 -0.2101960481 -0.2540538551 0.1496666316
255298470.0 -0.2400269707 0.1512935964 0.371046306 -0.2154645726 0.3714799375 -0.2150174022 -0.2525197403 0.1520429769
260298440.0 -0.2385692629 0.1534933497 0.3693999027 -0.2191460068 0.3692341433 -0.2193378305 -0.2510052245 0.1549554822
265298410.0 -0.2371540537 0.156321935 0.3665509554 -0.2238372062 0.3664016179 -0.2234763867 -0.2493203927 0.157597554
270298380.0 -0.2353815576 0.1583828443 0.3640295696 -0.2276570579 0.3643529996 -0.227725318 -0.2477925586 0.160196795
275298350.0 -0.2342351641 0.1612669933 0.3613879897 -0.2319877327 0.3617492646 -0.2317644964 -0.2460439236 0.1630433346
280298320.0 -0.2323337004 0.1636058374 0.3589566413 -0.2354028394 0.3587663225 -0.2360508591 -0.2447597445 0.1657822183
285298290.0 -0.2309324221 0.16642238 0.3565967515 -0.2397639509 0.3562707119 -0.2401575194 -0.2430997531 0.1685012186
290298260.0 -0.2295287742 0.168842443 0.3540723119 -0.2438945851 0.3539022308 -0.2441406661 -0.241259705 0.1713035628
295298230.0 -0.2276509675 0.1713443142 0.3514437469 -0.2478890031 0.3506739904 -0.2479081979 -0.2392379278 0.1738639244
300298200.0 -0.2258655873 0.1737588234 0.3481439726 -0.2519655274 0.3485963001 -0.2521928367 -0.2376732295 0.1764461709
305298170.0 -0.2239141989 0.1762572216 0.3458037597 -0.2562429185 0.346054785 -0.2561366657 -0.2354388708 0.1794322401
310298140.0 -0.2220139184 0.1783037775 0.3428800132 -0.2601639923 0.3429540729 -0.260366141 -0.2337597107 0.1820192702
315298110.0 -0.2207698993 0.1806498576 0.3398611459 -0.2638787695 0.3402852361 -0.2639239761 -0.2316639684 0.1843534455
320298080.0 -0.2184959715 0.1832313382 0.3370455417 -0.2677048854 0.3370751222 -0.2677581173 -0.2300647451 0.1866926903
325298050.0 -0.2170118716 0.1852760666 0.3342771179 -0.2713514416 0.3338774877 -0.2717422736 -0.2282994658 0.1894513413
330298020.0 -0.2153108018 0.1878747304 0.3304625687 -0.2751438574 0.3307167106 -0.275386228 -0.2265061222 0.1917657718
335297990.0 -0.213430058 0.1904299568 0.3279102936 -0.2791520827 0.3273091122 -0.27899675 -0.2246767695 0.1943805614
340297960.0 -0.2120090382 0.192849158 0.3245790788 -0.2826809836 0.3247919067 -0.2826314789 -0.2228472222 0.1969565912
345297930.0 -0.2099861579 0.1953201952 0.3211584673 -0.286175997 0.3208261555 -0.2861299028 -0.2206526584 0.1994913276
350297900.0 -0.207541995 0.1977117428 0.3176401 -0.2893492156 0.3180467382 -0.2896834343 -0.2186649255 0.2022568797
355297870.0 -0.2058991303 0.1998749935 0.3144929613 -0.293136323 0.314682179 -0.2931065758 -0.2169823409 0.2049746437
360297840.0 -0.2039117139 0.2022323267 0.311396564 -0.2965863003 0.3113547355 -0.2968047992 -0.2146374438 0.2074520519
365297810.0 -0.2018684677 0.2044159706 0.3078181208 -0.3003036891 0.308075453 -0.3001545528 -0.212387827 0.2101091927
370297780.0 -0.199335579 0.2067263095 0.3043993014 -0.3033472254 0.3047724145 -0.3035816566 -0.2104240165 0.2120315311
375297750.0 -0.1977435196 0.2092314624 0.3019442549 -0.3067629571 0.3013705997 -0.307159971 -0.2083358636 0.2149541903
380297720.0 -0.1951833936 0.2115445629 0.2977962566 -0.3101609545 0.2981779146 -0.3099268195 -0.2059466882 0.2175791817
385297690.0 -0.1932915753 0.2135875868 0.2943115006 -0.3130577024 0.2942563138 -0.313410519 -0.2034356471 0.220133243
390297660.0 -0.1910889741 0.2159061657 0.2907334801 -0.316668773 0.2910188116 -0.3171179089 -0.2010477957 0.2218117537
395297630.0 -0.1884122183 0.2178196392 0.2874112523 -0.3193216257 0.2875195551 -0.3197359709 -0.1989792866 0.2244057592
400297600.0 -0.1867007599 0.2201228439 0.2838479305 -0.3225275352 0.284085249 -0.3228035511 -0.1970691686 0.226259705
405297570.0 -0.1842262644 0.2225953085 0.2804745909 -0.32591624 0.2804841211 -0.3262832651 -0.1949565738 0.2295780483
410297540.0 -0.1815128317 0.224360784 0.2763469428 -0.3291083838 0.2763871378 -0.3287857629 -0.1922012628 0.2314519039
415297510.0 -0.1796240845 0.2266690168 0.2729057906 -0.3321107365 0.2731403723 -0.3316685036 -0.1898759027 0.2340240538
420297480.0 -0.1771280328 0.2283402865 0.2693044973 -0.3349214334 0.2691029715 -0.3348268393 -0.1876059894 0.2356135764
425297450.0 -0.1746862858 0.2304537376 0.265553821 -0.3379315219 0.2655677767 -0.3381240938 -0.1848555377 0.238453519
430297420.0 -0.1724577435 0.2325944207 0.2619911741 -0.3410188239 0.2620615818 -0.3408706077 -0.1827886681 0.2403324511
435297390.0 -0.1697230054 0.2346860512 0.2580845474 -0.3433670477 0.2582755919 -0.343418119 -0.1800143349 0.2426037561
440297360.0 -0.1674192205 0.2367843039 0.2541556188 -0.3466046923 0.2542264425 -0.3462977563 -0.1779965425 0.2440066819
445297330.0 -0.1646323565 0.238512496 0.2503629577 -0.3492796417 0.250263314 -0.3492624018 -0.1755034283 0.2466548265
450297300.0 -0.162118038 0.240505542 0.2464384918 -0.3515917708 0.2466176241 -0.3516471647 -0.1726548509 0.2484064092
455297270.0 -0.159875304 0.2422633259 0.243047573 -0.3544163154 0.2427031892 -0.3543937693 -0.1699441365 0.2507286544
460297240.0 -0.1573990043 0.2439443721 0.2388909943 -0.3568267665 0.2382156504 -0.3570809482 -0.1671534452 0.2530310957
465297210.0 -0.1545092009 0.2459100332 0.2346873512 -0.359909409 0.2349815332 -0.359385355 -0.1653124852 0.2545036188
470297180.0 -0.1523801914 0.2475629129 0.2307867165 -0.3618857813 0.2311511247 -0.3623053842 -0.1627482114 0.2566172193
475297150.0 -0.1497151904 0.2493560451 0.2268576785 -0.3643964658 0.2267225973 -0.3642617521 -0.1594750985 0.2584753503
480297120.0 -0.1470243955 0.2508344213 0.2228589343 -0.3668485924 0.2229312593 -0.3669553899 -0.1570080361 0.2605896762
485297090.0 -0.1440594352 0.2527054435 0.2186786476 -0.3691783298 0.2189154945 -0.369370416 -0.1547058517 0.2621343535
490297060.0 -0.1416010629 0.2542687905 0.2147041231 -0.3717353007 0.2149320907 -0.3715614435 -0.1515464853 0.2639857908
495297030.0 -0.1391377822 0.2562820639 0.210547024 -0.3739370012 0.2104352401 -0.3737517403 -0.1488131196 0.2656535503
500297000.0 -0.1361641271 0.2574194331 0.2063741834 -0.3762481683 0.2069672026 -0.3760608994 -0.1463966875 0.2675423822
505296970.0 -0.1333082338 0.2590858319 0.2020563681 -0.3779600939 0.2023737038 -0.3780234852 -0.1439584797 0.2691645108
510296940.0 -0.1308052108 0.2608309394 0.1981163712 -0.38059495 0.198358183 -0.3806236132 -0.1407596063 0.2712146579
515296910.0 -0.128378016 0.2627539575 0.193747584 -0.3827658282 0.1940965981 -0.3825360908 -0.1381458604 0.2727205372
520296880.0 -0.1253725004 0.2637584793 0.1896615802 -0.3843905391 0.1895817679 -0.384536027 -0.135238055 0.2745356591
525296850.0 -0.1225803606 0.2653637213 0.1854828624 -0.3863985637 0.1855427468 -0.3870472368 -0.1321506221 0.2760254311
530296820.0 -0.1200388064 0.2667560624 0.1817854994 -0.3880836743 0.181092531 -0.3883397066 -0.1299133305 0.2770904984
535296790.0 -0.1169917264 0.2682106199 0.1770554052 -0.3900785427 0.1769123796 -0.3903008553 -0.126938879 0.2789012335
540296760.0 -0.1144666222 0.2691052905 0.1729799351 -0.3922564557 0.1726974607 -0.3926135055 -0.124049628 0.2804854636
545296730.0 -0.1113586836 0.2706979469 0.1683383289 -0.3939590784 0.1684772406 -0.3942460691 -0.1215094686 0.2816489522
550296700.0 -0.1087537481 0.2720030522 0.1643453604 -0.3957805991 0.1647711358 -0.3964025418 -0.1182673537 0.2835932566
555296670.0 -0.1053478767 0.2732009118 0.1599314266 -0.3977056563 0.1600392554 -0.3978437112 -0.1155309636 0.2851076478
560296640.0 -0.1027416194 0.274487494 0.1554293536 -0.3989870726 0.155619312 -0.3992773527 -0.1121826628 0.2862751735
565296610.0 -0.1001370581 0.2757398178 0.1515375875 -0.4004927629 0.1511317567 -0.4008824935 -0.1095615319 0.287218955
570296580.0 -0.0968925649 0.2768549125 0.1466583896 -0.4022290026 0.1470456908 -0.4026346746 -0.1062429479 0.2892667129
575296550.0 -0.0939126275 0.2784532388 0.1422479985 -0.403523717 0.1427747349 -0.4040824353 -0.1032093735 0.290103913
580296520.0 -0.0911616747 0.2792727979 0.1383168573 -0.4056263263 0.1379755287 -0.4054965157 -0.1004953172 0.291486922
585296490.0 -0.0883088765 0.2801523763 0.134165361 -0.4069070864 0.133650778 -0.4068430608 -0.0975629946 0.2925011818
590296460.0 -0.0851388975 0.281014749 0.1290822019 -0.4078630981 0.1288993671 -0.4084545366 -0.0941850176 0.2937181333
595296430.0 -0.0820338094 0.2825296519 0.1247411439 -0.4095618302 0.1244960221 -0.4099015145 -0.0914314091 0.2945540978
600296400.0 -0.0792432985 0.2834962796 0.1201981641 -0.4108888848 0.1204657921 -0.411095767 -0.0881306442 0.2963734568
605296370.0 -0.0762503266 0.2847222958 0.115881401 -0.4122727847 0.115903748 -0.4122654626 -0.0850922562 0.297228515
610296340.0 -0.0732877102 0.2855054033 0.1115481825 -0.4131907092 0.1117557693 -0.4135263077 -0.0820635622 0.2980802502
615296310.0 -0.0702242636 0.286620286 0.1067984405 -0.4147293155 0.1068759065 -0.4146681699 -0.0792102825 0.2993962599
620296280.0 -0.0671951626 0.2873100997 0.1022523325 -0.4153725532 0.1020128476 -0.4154854952 -0.0761471366 0.2998367213
625296250.0 -0.0640465497 0.2881699163 0.0974732174 -0.4169378692 0.0980078551 -0.4168726829 -0.0730702023 0.3012739192
630296220.0 -0.0608323954 0.2889179558 0.0930541502 -0.4180330118 0.0936055674 -0.4177795983 -0.0700700243 0.3021882018
635296190.0 -0.0580011194 0.2900403124 0.0887783937 -0.4182306624 0.0883604358 -0.4184158388 -0.0669305189 0.3029086509
640296160.0 -0.0551462739 0.290258791 0.0843491558 -0.4193515278 0.084166272 -0.4196127873 -0.0635016662 0.3035763492
645296130.0 -0.0520274019 0.2910641952 0.0797410322 -0.4203149507 0.0798811416 -0.420481516 -0.0607587572 0.3043224354
650296100.0 -0.0489955222 0.2923627076 0.0752364301 -0.4210124045 0.0752579186 -0.4209370278 -0.0574198136 0.3051701697
655296070.0 -0.0458907473 0.2927102195 0.0707750451 -0.4218230076 0.0704256736 -0.4220292347 -0.0539833781 0.306023055
660296040.0 -0.042959365 0.2933544943 0.0661440243 -0.4219339318 0.0663771234 -0.4223724801 -0.0513511006 0.3067478398
665296010.0 -0.0393664795 0.2938149471 0.0615810296 -0.4231354877 0.062005396 -0.4233930947 -0.0482974254 0.3078132419
670295980.0 -0.0362353772 0.2945954907 0.0567367065 -0.4238027696 0.0572955633 -0.4236443755 -0.0452045324 0.3078185526
675295950.0 -0.0331866077 0.2950205871 0.0520451842 -0.4246334737 0.0524470161 -0.4246482435 -0.0415963132 0.3089297844
680295920.0 -0.0302862936 0.2955625955 0.0476002068 -0.4248593264 0.0475239654 -0.4247855021 -0.0383387842 0.309569587
685295890.0 -0.0270212969 0.2959889801 0.0429859375 -0.4254388076 0.0429058741 -0.425541691 -0.0352027424 0.310009438
690295860.0 -0.0237425303 0.2963908514 0.0383754971 -0.4253033262 0.0382005823 -0.4256235449 -0.0317107372 0.3101764286
695295830.0 -0.0203840918 0.2966950799 0.0334121406 -0.425859959 0.0334313722 -0.4264356292 -0.0289665955 0.3111766551
700295800.0 -0.0174964346 0.2971205555 0.0287140295 -0.4259811548 0.0290134049 -0.4265367095 -0.0255935003 0.3109393027
705295770.0 -0.0141268746 0.297464091 0.0246136622 -0.4266490407 0.0246691256 -0.426563145 -0.0226154186 0.3116906979
710295740.0 -0.0110453615 0.2979209776 0.0196250889 -0.4267065086 0.0197718826 -0.4267497069 -0.0195851934 0.3123644745
715295710.0 -0.0081138301 0.2983479749 0.0150440396 -0.4268185466 0.0153132253 -0.4271320658 -0.0161984421 0.312321091
720295680.0 -0.0050518191 0.2983720207 0.0105635751 -0.4267097019 0.0103698767 -0.4274288758 -0.012603447 0.312873922
725295650.0 -0.0015956021 0.2986941439 0.0054052982 -0.4267089369 0.0056832485 -0.4270361201 -0.0093841132 0.3131416157
730295620.0 0.0010669729 0.2984762917 0.0013319482 -0.426686619 0.0011181202 -0.427157303 -0.0063635744 0.3129846098
735295590.0 0.0050017678 0.2987456462 -0.003319733 -0.4271720222 -0.0030433279 -0.4272114056 -0.002960581 0.3133322039
740295560.0 0.0077011617 0.2991509698 -0.007694198 -0.4266008614 -0.0080024241 -0.426671012 0.0002871785 0.3134900449
745295530.0 0.0111826278 0.2987369374 -0.0126447324 -0.4268282067 -0.0120974993 -0.4271372566 0.0030553631 0.3137651921
750295500.0 0.0140379411 0.2987712175 -0.0172422257 -0.4259791624 -0.0171510187 -0.4265824978 0.0066640271 0.3134781633
755295470.0 0.017530272 0.2991217728 -0.0217991032 -0.4262857625 -0.021647902 -0.426498523 0.0096379864 0.3136463138
760295440.0 0.0203254193 0.2992021235 -0.0266643131 -0.4262754794 -0.0263371034 -0.4261566987 0.0127884866 0.3139510681
765295410.0 0.0234068258 0.2984987255 -0.0304811451 -0.4254444861 -0.0308762019 -0.4258954063 0.0168239352 0.3140148838
770295380.0 0.0268824134 0.2988878355 -0.0355446388 -0.4253221669 -0.035454059 -0.4254790443 0.0201147664 0.313793063
775295350.0 0.0298055959 0.2989052543 -0.0400422565 -0.4248696031 -0.0402314786 -0.425064635 0.022682503 0.3133121722
780295320.0 0.0330859963 0.2983814611 -0.0447136751 -0.4244926658 -0.0444684046 -0.4246506078 0.0260173313 0.3138352771
785295290.0 0.0362716487 0.2985992953 -0.0492967769 -0.423416446 -0.0492243318 -0.4237998036 0.0290815879 0.3133153981
790295260.0 0.0392044697 0.2980379549 -0.0536535882 -0.4231478124 -0.053993381 -0.4233538932 0.0328300076 0.3131410821
795295230.0 0.0424798976 0.2979195475 -0.0582533713 -0.4223059191 -0.058050916 -0.4229610653 0.0359007536 0.3134184252
800295200.0 0.0457581201 0.2975628125 -0.0631635929 -0.4219300849 -0.0634421151 -0.4221648613 0.0388247146 0.3126578789
805295170.0 0.0487216524 0.2971567826 -0.0676363153 -0.4207173234 -0.0673797667 -0.4210011261 0.0421429697 0.3121687961
810295140.0 0.0521044676 0.2969063339 -0.0717982272 -0.4203328788 -0.0716618582 -0.4209525578 0.0457100595 0.3124416224
815295110.0 0.055265743 0.2965174968 -0.0768294488 -0.41954532 -0.0766430384 -0.4196494447 0.0485383919 0.3119115988
820295080.0 0.0582021733 0.2956703513 -0.0805541978 -0.4183140374 -0.0811010205 -0.4188850569 0.0517944967 0.3115202933
825295050.0 0.0616252299 0.2954437 -0.0855697614 -0.4170037969 -0.085680233 -0.4177664192 0.0552805414 0.3111420438
830295020.0 0.0645733996 0.2951834284 -0.0901652365 -0.4166432684 -0.0902384306 -0.4170141632 0.0583540178 0.310422654
