!Created with skrf (http://scikit-rf.org).
# Hz S RI R 50.0 
!freq ReS11 ImS11 ReS21 ImS21 ReS12 ImS12 ReS22 ImS22
300000.0 -0.3165800308 -0.1302007177 0.3724219381 0.0654242678 0.372950549 0.0632749434 -0.3194347722 -0.1266647336
5299970.0 -0.3249419036 0.0026767558 0.3782398671 0.0032826185 0.3787927676 0.0032048088 -0.325750263 0.0022265052
10299940.0 -0.3226485191 0.014437127 0.3798253444 0.0024457124 0.3800573877 0.0027955227 -0.3234352626 0.0125534658
15299910.0 -0.3190708731 0.0223775418 0.3819994324 0.002446291 0.382537152 0.0026558364 -0.3207429835 0.0199403253
20299880.0 -0.3153532891 0.0291234234 0.3849249919 0.0017454143 0.3854075038 0.0019851462 -0.3180107521 0.0260703034
25299850.0 -0.3115141014 0.0349095046 0.3884739523 0.0003863759 0.3887825744 0.0004789453 -0.3149580868 0.0311872688
30299820.0 -0.3080253681 0.0396298218 0.3918689562 -0.0023842592 0.391980008 -0.0019978835 -0.3118325827 0.0356411637
35299790.0 -0.3046890385 0.0433324156 0.3951468355 -0.0049797333 0.3950096317 -0.0051180914 -0.309183133 0.0400462017
40299760.0 -0.3012849127 0.0469895616 0.3984827406 -0.0087159268 0.3986408693 -0.0084872769 -0.306515086 0.0435203437
45299730.0 -0.2980230882 0.0499804073 0.401119658 -0.0125641716 0.4015270859 -0.0126965859 -0.3037218544 0.0465913544
50299700.0 -0.2949061979 0.0529004714 0.403806024 -0.0175329805 0.4040269074 -0.0173219598 -0.3012929128 0.0498342994
55299670.0 -0.2921008171 0.0551769174 0.4054762111 -0.0217169293 0.4057681376 -0.0222141314 -0.2994237317 0.052239796
60299640.0 -0.2894315033 0.0578782609 0.4077884193 -0.0269219355 0.4079021691 -0.0266018599 -0.2970318014 0.0546891336
65299610.0 -0.2874427331 0.0601768994 0.409827523 -0.0315953913 0.4097532984 -0.0318594296 -0.2951360143 0.0575088023
70299580.0 -0.2852784497 0.0621175521 0.4110057388 -0.0365106847 0.4108177651 -0.0370515294 -0.2938245687 0.0596883161
75299550.0 -0.2833506169 0.064277095 0.4116634029 -0.0422565944 0.4120392956 -0.0419544979 -0.2919594486 0.0622395084
80299520.0 -0.2817390294 0.0663620568 0.4124551132 -0.0473783402 0.413225268 -0.0472472681 -0.2906694687 0.064868371
85299490.0 -0.2796539817 0.0683865722 0.4132314384 -0.0528891183 0.4134200888 -0.0526457132 -0.2890379408 0.0670610534
90299460.0 -0.2780686711 0.070844584 0.4137049826 -0.0578156125 0.4135822154 -0.0577140029 -0.2875648032 0.0692803371
95299430.0 -0.2768485704 0.0725012607 0.4138885137 -0.0628423346 0.4140578834 -0.0632670247 -0.2865028093 0.0718502925
100299400.0 -0.2753867428 0.074681632 0.4138933179 -0.0679910482 0.4141474645 -0.068123152 -0.2852491126 0.0745337521
105299370.0 -0.2738920643 0.0767484375 0.4137758721 -0.0734322018 0.4141830854 -0.0734274643 -0.2839447925 0.0762523726
110299340.0 -0.2726726826 0.0787564657 0.4138994333 -0.0781882704 0.4140733789 -0.0784983327 -0.2831545189 0.0783789715
115299310.0 -0.2716980327 0.0810020355 0.4133403575 -0.0835255434 0.41376628 -0.0836794937 -0.2821384268 0.0814604521
120299280.0 -0.2702896604 0.0833567648 0.4133446119 -0.089307307 0.4131905846 -0.0891518146 -0.2809209054 0.0833663664
125299250.0 -0.2694592832 0.0853605257 0.4126838054 -0.0939545638 0.4126546843 -0.0940439945 -0.2800482203 0.0857655949
130299220.0 -0.2682174654 0.0875427909 0.4119576153 -0.0991500517 0.4117475613 -0.0994709135 -0.2790999789 0.088456926
135299190.0 -0.2671714714 0.0899507362 0.4111784427 -0.1038602204 0.4113738949 -0.1043456489 -0.2783786061 0.0904519562
140299160.0 -0.266358285 0.0921843442 0.4103736097 -0.1093660473 0.4104742292 -0.108760699 -0.2774606193 0.0932617538
145299130.0 -0.2651464608 0.0946549716 0.4094538637 -0.1137640912 0.4097640946 -0.1138584959 -0.2767843027 0.0958498236
150299100.0 -0.2640450146 0.0967375157 0.4081536883 -0.1189269808 0.4083154621 -0.1188700421 -0.2757317245 0.0983673393
155299070.0 -0.2631222499 0.0992064112 0.4066758278 -0.1235669348 0.4073758971 -0.1239390875 -0.2746690592 0.1010278594
160299040.0 -0.2621435832 0.1021647735 0.4060208543 -0.1289932623 0.4061477311 -0.1291353122 -0.273817702 0.1037026783
165299010.0 -0.2609906681 0.1044147091 0.4050155937 -0.1335684114 0.4046711387 -0.1335690776 -0.2726777819 0.1060910815
170298980.0 -0.2601445798 0.1066918825 0.403227258 -0.1380247847 0.4035991063 -0.1380724448 -0.272017141 0.1085409365
175298950.0 -0.2590239338 0.109142243 0.4020959725 -0.1428106294 0.4024499905 -0.1436237237 -0.2710687343 0.111478421
180298920.0 -0.2581061962 0.111663483 0.4007240658 -0.1479913321 0.4009178626 -0.1481669085 -0.2701818821 0.1141348037
185298890.0 -0.256981324 0.1144606935 0.3993360709 -0.1526168614 0.3991876118 -0.1526826354 -0.2688107328 0.1163835966
190298860.0 -0.2556603294 0.1171550096 0.3971969934 -0.1569822578 0.397685161 -0.157282099 -0.2678652512 0.119247071
195298830.0 -0.2548741882 0.1195180346 0.3961703003 -0.1615918876 0.3960545682 -0.161927792 -0.2670032855 0.1218416248
200298800.0 -0.2534129166 0.122083048 0.394204147 -0.1669981706 0.3942307662 -0.1668550589 -0.2657684578 0.1245582338
205298770.0 -0.2525074536 0.1245666522 0.392087104 -0.1708828814 0.3923575602 -0.1710356524 -0.2645726386 0.1270629273
210298740.0 -0.2512415508 0.127373436 0.390748022 -0.1757992671 0.3904805598 -0.1758713604 -0.2637430703 0.1298774961
215298710.0 -0.250405557 0.1302347427 0.3882033556 -0.1799443896 0.3889945357 -0.1804358708 -0.2621636606 0.1326765752
220298680.0 -0.2491564304 0.1325195817 0.3866921071 -0.1846240752 0.3866714363 -0.1844657548 -0.2612253155 0.1353541063
225298650.0 -0.2476503497 0.1353774742 0.3840800163 -0.1885355965 0.3845904584 -0.1886123318 -0.2597982222 0.1378994636
230298620.0 -0.2465204749 0.1378544715 0.3826994627 -0.1931258896 0.3829429731 -0.1934637184 -0.2587387005 0.1405037151
235298590.0 -0.2455386594 0.1406775934 0.3804816503 -0.1980557167 0.3809220914 -0.1981278148 -0.2573000968 0.1437666749
240298560.0 -0.2439756786 0.1432193123 0.37836006 -0.2018738595 0.3782854467 -0.2020015802 -0.2562469657 0.1459325041
245298530.0 -0.2426728837 0.1455331606 0.375948424 -0.2064961851 0.3761902705 -0.2065441273 -0.2548859561 0.1487997211
250298500.0 -0.241563719 0.148033157 0.3739856965 -0.2102609246 0.3738993384 -0.2107503439 -0.253400479 0.1515982287
255298470.0 -0.2401177629 0.1510413626 0.3717933391 -0.2147017103 0.3721982813 -0.2152779694 -0.2518762885 0.1542822793
260298440.0 -0.2385524194 0.1535770479 0.3692956065 -0.2187140073 0.3693481539 -0.2188097747 -0.2505990646 0.1567301676
265298410.0 -0.2375671611 0.1560080198 0.36696432 -0.2235165066 0.3668099304 -0.2236483614 -0.2486600959 0.1591116662
270298380.0 -0.2358728098 0.1586741301 0.3643195051 -0.2272846508 0.3643237346 -0.2277702171 -0.2474639896 0.1621353787
275298350.0 -0.2344122532 0.1615511935 0.3613865533 -0.2312355165 0.3617691825 -0.2315846492 -0.2458884527 0.1649487786
280298320.0 -0.2330843336 0.1639183004 0.3593721158 -0.2351770434 0.3596151866 -0.2358084949 -0.2442681562 0.1676657536
285298290.0 -0.2315184341 0.1665509783 0.3566731543 -0.2394949029 0.3569413684 -0.2396983629 -0.2427783542 0.1704396911
290298260.0 -0.2299788507 0.1692361613 0.3544947508 -0.2435047666 0.3541758723 -0.24362808 -0.2411534866 0.1728937557
295298230.0 -0.2285038806 0.1715011126 0.3514526081 -0.2477579414 0.3515547557 -0.2479900028 -0.2393188412 0.1753251208
300298200.0 -0.2267719076 0.1743254614 0.3489150711 -0.2517618657 0.3489684023 -0.2515112249 -0.2376083337 0.1779067198
305298170.0 -0.2251712657 0.1763094882 0.3464035817 -0.2555019841 0.3464244108 -0.255861456 -0.2356563248 0.1803258277
310298140.0 -0.2231768756 0.1787950426 0.3434288835 -0.259332997 0.3436149351 -0.2589478257 -0.2340896881 0.1827728177
315298110.0 -0.2217233028 0.1810223468 0.3406657512 -0.2636408339 0.3406251359 -0.2637115106 -0.2321884989 0.1853728012
320298080.0 -0.2199634355 0.1836317988 0.3370692686 -0.2674990692 0.3379730968 -0.2677009757 -0.230345658 0.1879214983
325298050.0 -0.2185133024 0.1859315211 0.3343698349 -0.2710824199 0.3347032036 -0.2712850369 -0.2282768097 0.1902538206
330298020.0 -0.2172509186 0.1885474422 0.3315017172 -0.2751529246 0.331840931 -0.2750900495 -0.2269111272 0.1926719783
335297990.0 -0.2152017151 0.1910141609 0.3282818131 -0.2784730185 0.3285680592 -0.2786324831 -0.224837475 0.1955573275
340297960.0 -0.2136715818 0.1931137373 0.3249292144 -0.2825504101 0.3250177955 -0.2824225278 -0.2231408319 0.1981568959
345297930.0 -0.2118916069 0.1953544332 0.3217567149 -0.2860503868 0.322045803 -0.28603004 -0.2212443647 0.1999205171
350297900.0 -0.2100568665 0.1981114189 0.3190604987 -0.2890433719 0.3188504308 -0.2891751942 -0.2192588293 0.2028437533
355297870.0 -0.2082914792 0.2001703726 0.3156030597 -0.2926306984 0.3155452714 -0.2924342166 -0.2173458211 0.2053548397
360297840.0 -0.2064749414 0.2026782358 0.3121152924 -0.2964279414 0.3124042678 -0.2967109704 -0.215106002 0.2079545327
365297810.0 -0.2042642183 0.2048841971 0.3087005193 -0.2994715793 0.3091536355 -0.299978539 -0.2136368872 0.2103334982
370297780.0 -0.2024298472 0.2073477425 0.305407687 -0.3030317605 0.3058597333 -0.3029504392 -0.2113188148 0.212880167
375297750.0 -0.2005507234 0.2096334339 0.3021729931 -0.3063789498 0.3022235559 -0.30642393 -0.2086282573 0.2149409412
380297720.0 -0.19866106 0.2119608427 0.2990824489 -0.3099088043 0.299056328 -0.3100561886 -0.206534514 0.217702821
385297690.0 -0.1966155012 0.2140194256 0.2952615951 -0.3129673254 0.2955737632 -0.3134279953 -0.2044363677 0.2198514304
390297660.0 -0.1939368655 0.216295503 0.2919072214 -0.3159969842 0.2920449963 -0.3161604345 -0.2017700088 0.2217092357
395297630.0 -0.1917100442 0.2186029948 0.2883795679 -0.3189650475 0.2884875382 -0.3191587808 -0.1998065853 0.2242011218
400297600.0 -0.1901739769 0.2206225233 0.2852282054 -0.3224696393 0.2852113387 -0.3223498958 -0.1976409147 0.2266937511
405297570.0 -0.1880684373 0.2225054066 0.2813922396 -0.3251465954 0.2817780421 -0.3256102444 -0.1950981904 0.2292654123
410297540.0 -0.1857445108 0.2249729471 0.2780536989 -0.3284860147 0.2780775842 -0.3286376217 -0.1929494468 0.2314534907
415297510.0 -0.1833694623 0.2269645082 0.2740296334 -0.3318776862 0.2742705685 -0.3319133884 -0.1903660885 0.2334667339
420297480.0 -0.180873718 0.2285643123 0.2701865119 -0.3348087915 0.2705101532 -0.3346279393 -0.1876139292 0.2357907808
425297450.0 -0.1786903006 0.2306104247 0.2668009424 -0.3373186028 0.2667930533 -0.337669301 -0.1855502762 0.2376637025
430297420.0 -0.1766069425 0.232742078 0.2633756199 -0.3405133718 0.263460244 -0.3404292803 -0.1827878785 0.2399966334
435297390.0 -0.1739305154 0.2348951094 0.2593191971 -0.3438325354 0.2591696662 -0.3434742713 -0.1807664859 0.2423491544
440297360.0 -0.1715127498 0.2367940726 0.255091355 -0.3460900417 0.2554689596 -0.3461940016 -0.1780867768 0.2441228261
445297330.0 -0.1687362262 0.2382300254 0.2516843341 -0.3486808175 0.2519642567 -0.3491912866 -0.1751286953 0.2461303795
450297300.0 -0.1665893362 0.240307364 0.2479304221 -0.3516053022 0.248251083 -0.3514252895 -0.1727732678 0.2481128665
455297270.0 -0.1644367899 0.2420987556 0.2441768645 -0.3541838275 0.2440566939 -0.3546879859 -0.1698915201 0.2502241829
460297240.0 -0.1613498706 0.2441630182 0.2400523223 -0.3573467712 0.2404092128 -0.3572253333 -0.1678343387 0.2518497204
465297210.0 -0.1590888102 0.2457921196 0.2358675072 -0.3596517332 0.2357603367 -0.3597592081 -0.1645941744 0.254385626
470297180.0 -0.1563649978 0.2477159651 0.2321576028 -0.3617793554 0.2323906766 -0.3621091869 -0.1621800266 0.2558868496
475297150.0 -0.1541578406 0.2493447668 0.2283491781 -0.3643417198 0.2281576754 -0.3645096234 -0.159380572 0.2577370696
480297120.0 -0.1510622487 0.2513511842 0.2240786561 -0.3670761936 0.2241363149 -0.3670227554 -0.1569411436 0.2597288853
485297090.0 -0.148393424 0.2527483939 0.2198223128 -0.3694283061 0.2200640835 -0.3693946641 -0.1540336462 0.2616373716
490297060.0 -0.145398175 0.2545099466 0.2156396302 -0.3718738634 0.2161288874 -0.3720868471 -0.1512936433 0.2630063187
495297030.0 -0.1430822405 0.2559697007 0.2120908967 -0.3742254488 0.2116683283 -0.374124754 -0.1483251665 0.2646491285
500297000.0 -0.1402915749 0.2578679754 0.2079373214 -0.3764331108 0.2078679034 -0.3767199697 -0.1457981031 0.2666980856
505296970.0 -0.1370992547 0.2595433462 0.2037401687 -0.3786380767 0.2040365923 -0.3787054746 -0.1431057453 0.2679932576
510296940.0 -0.1344876861 0.2608651038 0.1994592433 -0.3814249608 0.1996242299 -0.3812655335 -0.1396016299 0.2705130891
515296910.0 -0.1316499118 0.2625244112 0.195104421 -0.3829023422 0.1947022687 -0.3828515693 -0.1371572791 0.27127388
520296880.0 -0.1289302239 0.2642399644 0.1909316824 -0.3851662562 0.1905880462 -0.384996142 -0.1342104772 0.2735578243
525296850.0 -0.1259588474 0.2654705362 0.1865290396 -0.3868766376 0.1864794045 -0.3869592359 -0.1314036908 0.2746066113
530296820.0 -0.1235638801 0.2669374651 0.1823068077 -0.3892665097 0.1825255594 -0.3887953302 -0.1281815998 0.2758897042
535296790.0 -0.1198610519 0.2685303311 0.1780489415 -0.3907523485 0.1780745387 -0.3911232092 -0.1251191613 0.2780159251
540296760.0 -0.117097014 0.2701449369 0.1739487649 -0.3927782028 0.1734538897 -0.3927710187 -0.1224148583 0.2792192245
545296730.0 -0.1145610377 0.2717172087 0.1697826074 -0.3943198392 0.1692908719 -0.3945645201 -0.1192951174 0.2806418309
550296700.0 -0.1112771881 0.2727366994 0.1653125423 -0.3966681823 0.1650980369 -0.3966914182 -0.1164582118 0.2821083403
555296670.0 -0.1083764982 0.2740934842 0.1607256124 -0.3984692893 0.1607418534 -0.3982268264 -0.1135402694 0.2829887127
560296640.0 -0.1051125467 0.2753279683 0.1562981948 -0.39978942 0.1564542811 -0.39994616 -0.11032815 0.2848915025
565296610.0 -0.1028013459 0.2763930453 0.1523967892 -0.4013494663 0.1519384845 -0.4013396403 -0.1071965629 0.286181634
570296580.0 -0.0994500279 0.2778132068 0.147686752 -0.4028646959 0.1476189437 -0.4030495848 -0.1045622491 0.2873037668
575296550.0 -0.0959651684 0.2792611151 0.1433383892 -0.4046311316 0.1432262702 -0.4048191068 -0.1013598317 0.2886700249
580296520.0 -0.0932631142 0.2806262227 0.1389922629 -0.4062483569 0.1388619811 -0.4063362225 -0.098870171 0.2897043468
585296490.0 -0.0900750292 0.2816752384 0.1347355216 -0.407633216 0.1341618517 -0.4076578864 -0.0952295534 0.2909750265
590296460.0 -0.0868030091 0.2829802672 0.1301274383 -0.4090143819 0.1300057494 -0.409423116 -0.0925822026 0.2919463392
595296430.0 -0.0838662696 0.2840192886 0.1250678037 -0.4103069726 0.1248091014 -0.4103710753 -0.0890982113 0.2929631853
600296400.0 -0.0804868548 0.2851123977 0.1206202516 -0.4116401753 0.12073054 -0.4117614976 -0.0860915411 0.2940699588
605296370.0 -0.0779570222 0.2863228234 0.116523306 -0.412428464 0.1164513484 -0.413349875 -0.0831109049 0.2953211994
610296340.0 -0.0743553448 0.2876850449 0.111835647 -0.4135764021 0.1122833419 -0.4139537647 -0.0801641231 0.2965987588
615296310.0 -0.0712499826 0.2883052475 0.1072479598 -0.4152487254 0.1070911902 -0.4155421125 -0.0764850854 0.2971691395
620296280.0 -0.0685533264 0.2899413034 0.1027416563 -0.4163178627 0.1025634691 -0.4161884391 -0.0738522256 0.2983358486
625296250.0 -0.065484574 0.2901400893 0.0983685288 -0.4178185687 0.0981089332 -0.4175102878 -0.0706090868 0.2989405831
630296220.0 -0.0624312368 0.2915838566 0.0935138825 -0.4184971977 0.0934118178 -0.4183644296 -0.0673476523 0.3000062678
635296190.0 -0.0591397205 0.2923928689 0.0891206189 -0.4192231169 0.0889604044 -0.4194759918 -0.0644393116 0.3004912481
640296160.0 -0.0560666221 0.2930443305 0.0847090096 -0.4202888426 0.0844860084 -0.4201811584 -0.0608918153 0.3015765295
645296130.0 -0.052680701 0.2943656545 0.0801227409 -0.4210381796 0.0801039535 -0.4211144677 -0.0583754007 0.3021924921
650296100.0 -0.049898598 0.2948581596 0.0755777596 -0.4218099919 0.0751352763 -0.4221433977 -0.054387027 0.3030563377
655296070.0 -0.046717557 0.2958290715 0.0706549161 -0.4226502755 0.0708404767 -0.4225234032 -0.0517185626 0.3037279509
660296040.0 -0.043438032 0.2966332786 0.0661555616 -0.423501569 0.0662107265 -0.4235539497 -0.0481836099 0.3043818152
665296010.0 -0.0403923995 0.2973749869 0.0612076918 -0.4238753894 0.0612308717 -0.4241275583 -0.0451927295 0.3048777138
670295980.0 -0.0372089651 0.29801727 0.0567664655 -0.425036797 0.0570952987 -0.4242338206 -0.0422580921 0.305305896
675295950.0 -0.0342442389 0.29839469 0.0524772878 -0.4248468142 0.0523357269 -0.4251198872 -0.0386228914 0.3064583855
680295920.0 -0.031451499 0.2993020097 0.0481292581 -0.4252167809 0.0478451436 -0.4257535823 -0.0354812801 0.306671264
685295890.0 -0.027874017 0.2999067543 0.0430853724 -0.426193039 0.04291877 -0.4261932654 -0.0323817717 0.3073641483
690295860.0 -0.0248070789 0.3003922023 0.0388020412 -0.4263666917 0.0383098142 -0.4267300162 -0.0290374924 0.307920815
695295830.0 -0.0218711699 0.3007371261 0.0347110192 -0.4268369947 0.0336772538 -0.4268286435 -0.0257088043 0.3085024979
700295800.0 -0.0183134156 0.3017191737 0.0296763697 -0.4271638199 0.0293879364 -0.4271453185 -0.0225296028 0.3084981335
705295770.0 -0.0155964701 0.3020310632 0.0248555574 -0.4276126865 0.0245222844 -0.4275709149 -0.0193481609 0.3094271971
710295740.0 -0.0126232499 0.3025383868 0.0203607806 -0.4274347652 0.0200567859 -0.4276968431 -0.0159069056 0.3095827332
715295710.0 -0.0092686695 0.3029059044 0.0158063062 -0.4281627697 0.0156251375 -0.4280881552 -0.0127589175 0.3095131337
720295680.0 -0.0056962214 0.3030018986 0.010680638 -0.427893057 0.0108200907 -0.4280381791 -0.0094127645 0.3097564165
725295650.0 -0.003168466 0.3035665825 0.0067796851 -0.4277602784 0.0063596555 -0.4280847058 -0.0066697079 0.3106246319
730295620.0 -0.0005141477 0.3038343294 0.0019134799 -0.4275273193 0.0016997514 -0.4277552053 -0.0031349109 0.3107126102
735295590.0 0.0031746695 0.3042761426 -0.0031900065 -0.4280295679 -0.0033149801 -0.4283259623 0.0002055488 0.3106977469
740295560.0 0.0060124291 0.3043230654 -0.0074404276 -0.4277550379 -0.0072012119 -0.4279357817 0.0034610042 0.3109163197
745295530.0 0.0091756916 0.3045516956 -0.0119038057 -0.4273272832 -0.0115189242 -0.4275972547 0.0061499145 0.3107246888
750295500.0 0.0119192598 0.3050332796 -0.0160692507 -0.4275353486 -0.0169075476 -0.4276236617 0.0097412529 0.3110103696
755295470.0 0.0151438277 0.3047508286 -0.0209875585 -0.427276517 -0.0211799029 -0.4277091919 0.0129637523 0.311443051
760295440.0 0.0183872591 0.3053389983 -0.0260869781 -0.4270693347 -0.0261416546 -0.4267555195 0.0166515458 0.3106628086
765295410.0 0.0216491893 0.3049592407 -0.030315058 -0.4266042492 -0.0302083362 -0.4266707111 0.0198619928 0.3110295648
770295380.0 0.024260526 0.3052275427 -0.0348846285 -0.4262161584 -0.0353506283 -0.4265633462 0.0228128976 0.3109751956
775295350.0 0.0275761896 0.3050867023 -0.0395668799 -0.4260209054 -0.0396788514 -0.4253866313 0.0260976786 0.3106321168
780295320.0 0.0306051966 0.3050980935 -0.0438091936 -0.4250586127 -0.0442104884 -0.4252988406 0.0295683239 0.3107405204
785295290.0 0.0337311845 0.3045492777 -0.04868532 -0.4247667648 -0.0485908194 -0.4252044138 0.0321813292 0.310899257
790295260.0 0.0367533933 0.3042488866 -0.05351505 -0.4239581109 -0.0530157485 -0.424418973 0.0355888671 0.3106366039
795295230.0 0.0396681339 0.3042305581 -0.0579739549 -0.4239059247 -0.0580130073 -0.4236165787 0.0388383085 0.3098270813
800295200.0 0.0427549626 0.3042556118 -0.0620172263 -0.422740326 -0.0622717774 -0.4232518715 0.0418836715 0.30986909
805295170.0 0.0454648965 0.3042570795 -0.066712204 -0.4223838994 -0.067369652 -0.4224666824 0.0459420422 0.3098663513
810295140.0 0.048898833 0.3039408301 -0.0712512128 -0.4212705207 -0.0717459795 -0.4213214421 0.0488778791 0.309267075
815295110.0 0.0516498414 0.3034699813 -0.0758045405 -0.4206823569 -0.0757492259 -0.4209374796 0.0516633183 0.3089009082
820295080.0 0.0547774763 0.3030595922 -0.0800879031 -0.4194544484 -0.0801962505 -0.4201284039 0.0545118157 0.3088213139
825295050.0 0.0577121201 0.3025405658 -0.0851620802 -0.4187888256 -0.0849783488 -0.4191582543 0.0588170972 0.3081011254
830295020.0 0.0610986909 0.3021013121 -0.0893790516 -0.417855991 -0.0894115654 -0.4181350489 0.0613733768 0.3076070569
