!Created with skrf (http://scikit-rf.org).
# Hz S RI R 50.0 
!freq ReS11 ImS11 ReS21 ImS21 ReS12 ImS12 ReS22 ImS22
300000.0 -0.2125384479 -0.0804229842 -0.001590827 0.0009455008 0.0004504302 0.0001988081 -0.7729471924 -0.1622029823
5299970.0 -0.2141793869 0.0084892772 -7.76454e-05 -0.0001666271 -0.0001327417 0.0001361409 -0.7855010078 -0.0085449141
10299940.0 -0.2102495989 0.0211808392 0.0001137513 -4.4389e-06 3.94993e-05 -0.0001509019 -0.7887698487 -0.0051845862
15299910.0 -0.2055603146 0.0311203125 -5.15184e-05 3.25358e-05 -7.41127e-05 0.0001537465 -0.7940129145 -0.0031542476
20299880.0 -0.1995114506 0.0388752994 -1.03068e-05 -3.86311e-05 -0.0001275827 -4.7018e-05 -0.800864728 0.0013318049
25299850.0 -0.19315192 0.0454409307 4.14922e-05 -2.65655e-05 1.15676e-05 -9.80911e-05 -0.8070919911 0.0073359755
30299820.0 -0.1864407686 0.0503525175 -0.0002142513 2.34872e-05 -5.88515e-05 7.36936e-05 -0.8131508607 0.015107851
35299790.0 -0.1800965383 0.0544424125 -0.0002279723 -4.46379e-05 0.000176329 -0.0001166544 -0.8179394698 0.0233342914
40299760.0 -0.1740182709 0.05707627 0.0001023373 -3.9059e-06 0.0001241386 -5.98856e-05 -0.8219985163 0.0331580458
45299730.0 -0.1683368905 0.0594668182 0.0001376982 0.0001640378 4.51962e-05 0.0002384288 -0.8253140331 0.0422617749
50299700.0 -0.1629756415 0.0607483294 -0.000249503 9.3119e-06 -0.0001251982 6.73357e-05 -0.8281338761 0.0529882945
55299670.0 -0.158295573 0.061887352 1.1877e-05 0.0001253442 0.0001338538 -8.12096e-05 -0.8300434708 0.0629816626
60299640.0 -0.1538513909 0.0619848615 0.0001090854 0.0001526084 -1.5093e-06 3.30849e-05 -0.8313063935 0.0730433644
65299610.0 -0.1499756913 0.0627213477 -0.0001511849 -0.000153031 -8.39038e-05 -0.0001058795 -0.8315315284 0.0828299663
70299580.0 -0.1464783227 0.0625922411 -0.0003048497 9.17906e-05 0.0001248094 0.0002336845 -0.8326085901 0.0930681443
75299550.0 -0.1431997215 0.0625881154 -7.70084e-05 0.0001047995 -0.0001200367 0.0001886627 -0.8326858823 0.1023134432
80299520.0 -0.1405050231 0.062762865 -6.25883e-05 -6.13405e-05 0.0001340101 3.52267e-05 -0.8326125269 0.1122589376
85299490.0 -0.1375229236 0.0622378416 -5.9016e-05 -5.46295e-05 0.0002142069 -5.69964e-05 -0.8318357786 0.1216183083
90299460.0 -0.1357022402 0.0623456547 -6.4736e-06 6.37402e-05 3.1599e-06 -3.71723e-05 -0.8308251042 0.1308069528
95299430.0 -0.133353231 0.0618920001 -0.0001904422 0.000101224 0.000127796 0.000248158 -0.830107176 0.1411610349
100299400.0 -0.1316483361 0.0618201513 0.0002246051 -0.0001101068 4.16021e-05 -0.0002260459 -0.8287682951 0.1495665326
105299370.0 -0.129667051 0.061695474 -7.1223e-05 -2.65781e-05 0.000167908 0.0001258237 -0.8274864302 0.1585899997
110299340.0 -0.1283304243 0.0614231834 -2.11961e-05 0.0001550049 5.91291e-05 0.0001037091 -0.8264540993 0.168057632
115299310.0 -0.1268923991 0.0611601209 -1.85458e-05 8.12474e-05 0.0001432703 5.45672e-05 -0.8244777024 0.1767401316
120299280.0 -0.1257951338 0.0613928146 -0.000238037 2.59061e-05 -4.16113e-05 7.44983e-05 -0.8234792127 0.1857880275
125299250.0 -0.1249207332 0.0610990804 -8.25661e-05 0.0001370376 0.0001654242 0.0001778179 -0.8218595849 0.1957146307
130299220.0 -0.1235766559 0.0613297821 -7.92687e-05 2.5807e-06 0.0001682635 -0.0001720869 -0.8197631354 0.2042726728
135299190.0 -0.1225240826 0.0611877661 0.0001496066 0.0001440101 8.20909e-05 -9.86929e-05 -0.8179043937 0.2126066473
140299160.0 -0.1217131217 0.0613811185 1.63049e-05 -6.61817e-05 -0.0001005682 8.50012e-05 -0.8156908867 0.2215041847
145299130.0 -0.1207770624 0.0613953278 -0.0001959898 0.0001097329 3.46056e-05 0.000196457 -0.8134963927 0.2301286185
150299100.0 -0.1199292744 0.0616412448 1.1233e-06 -0.0001414689 -6.4561e-06 0.0003201233 -0.8114690843 0.2386677961
155299070.0 -0.1193314585 0.061875437 -5.11124e-05 2.1869e-06 -7.64884e-05 0.0001529216 -0.8097226096 0.2469711246
160299040.0 -0.1189339146 0.0622724461 7.73883e-05 -3.10249e-05 -5.00088e-05 0.0001202089 -0.8075470947 0.2566076619
165299010.0 -0.1180535963 0.0623448833 1.63921e-05 5.72574e-05 6.95351e-05 -6.6963e-06 -0.8042078257 0.2650249606
170298980.0 -0.1174564047 0.0627941552 0.0001985604 0.0001329997 1.65075e-05 -9.3882e-06 -0.8018972175 0.2732681667
175298950.0 -0.1170104283 0.0635411377 2.44645e-05 4.45645e-05 0.0001741438 0.000144822 -0.7989134413 0.2819764021
180298920.0 -0.1163915486 0.0637533658 0.0001800272 -3.26949e-05 -0.000180541 5.89067e-05 -0.7950702517 0.2900297756
185298890.0 -0.116028455 0.0643963875 -9.67797e-05 -1.53108e-05 0.0001575609 -1.01304e-05 -0.7932532702 0.298637985
190298860.0 -0.1153386262 0.0648287901 3.36813e-05 6.62089e-05 -4.35497e-05 7.67286e-05 -0.7894572171 0.3073535312
195298830.0 -0.1145330187 0.0649842931 0.0002293389 0.0003049331 -0.0001051614 -1.47323e-05 -0.7871856816 0.3157160676
200298800.0 -0.1144379435 0.0661605665 0.0001176105 0.0004435115 1.86914e-05 3.29005e-05 -0.7835120516 0.3242586431
205298770.0 -0.1139766405 0.0665383807 -0.0001240181 -1.43432e-05 1.48411e-05 9.18486e-05 -0.7800797924 0.3321756226
210298740.0 -0.1130673204 0.0672776276 2.19098e-05 -6.45243e-05 6.73527e-05 4.76602e-05 -0.7771098914 0.3408058215
215298710.0 -0.112910412 0.0680481286 0.0001182665 -7.38984e-05 3.93125e-05 3.703e-05 -0.773654182 0.3484129669
220298680.0 -0.1122469147 0.0686156371 1.84927e-05 0.0001221655 8.78109e-05 0.0001304416 -0.7697886886 0.3568045928
225298650.0 -0.1120001496 0.069240666 -0.0001109667 0.0002591082 -1.17552e-05 0.0001317864 -0.7660535549 0.3648775609
230298620.0 -0.111591225 0.0700628182 8.80381e-05 -1.86951e-05 2.46872e-05 4.00874e-05 -0.7618573174 0.3727058682
235298590.0 -0.1113479617 0.0706544006 -2.4424e-05 4.15681e-05 0.0001157912 -2.58713e-05 -0.758223248 0.380661128
240298560.0 -0.1106225425 0.071638462 -3.92644e-05 8.95437e-05 0.0001389569 0.0002201475 -0.754277009 0.3885122544
245298530.0 -0.1101956493 0.0722501106 -0.0001051771 -0.0001056366 8.885e-05 4.03377e-05 -0.7499830699 0.3965712127
250298500.0 -0.1098779833 0.0731291364 -0.0001016379 9.31193e-05 -5.93434e-05 0.0001132984 -0.7458521268 0.404293023
255298470.0 -0.1091032279 0.0739535292 0.0001102646 -0.0001859604 -0.0001237784 -2.027e-07 -0.7416805106 0.4130335407
260298440.0 -0.1086689645 0.0748555275 0.000156695 -0.0001571007 0.0003746817 -0.0001052269 -0.737115104 0.4199999505
265298410.0 -0.108264866 0.0758129075 0.0002561068 0.0001290224 7.70968e-05 5.17391e-05 -0.7327788538 0.4276483166
270298380.0 -0.1078149221 0.0766153535 -9.78109e-05 0.0002021037 7.70792e-05 0.0001654031 -0.7272692546 0.4354110136
275298350.0 -0.107030881 0.077676527 0.0002978341 1.12191e-05 0.0001635058 -1.42946e-05 -0.7233688819 0.4430879029
280298320.0 -0.106445801 0.0786078857 0.0001139909 0.0001502544 6.1007e-06 9.83103e-05 -0.7189156035 0.4500750686
285298290.0 -0.1059682287 0.0794670876 3.96095e-05 -5.73744e-05 0.0001345232 0.0001087895 -0.7136797895 0.4575545775
290298260.0 -0.1054678426 0.0804061893 5.52143e-05 9.92247e-05 5.80227e-05 0.0001985994 -0.7091352497 0.4654900878
295298230.0 -0.1050151776 0.0812866843 0.0002065492 0.0002390744 7.99009e-05 0.0001431386 -0.7041568615 0.4732240118
300298200.0 -0.1042240512 0.0818190823 0.0001355176 5.25646e-05 7.73149e-05 0.000152319 -0.6994566233 0.4804376222
305298170.0 -0.1032891378 0.0831197365 -0.0001392044 9.57568e-05 0.0001600804 5.21805e-05 -0.6932943781 0.4875870921
310298140.0 -0.1028371671 0.0834920934 3.42643e-05 -6.26018e-05 0.0001175037 2.86068e-05 -0.6891644402 0.4948038832
315298110.0 -0.1027219023 0.0845004301 8.76333e-05 0.0001302284 -2.29157e-05 -9.85539e-05 -0.6835211211 0.5024103848
320298080.0 -0.1019079762 0.08550557 0.0004602006 0.00022241 0.0001991266 8.01129e-05 -0.6783263808 0.5098714517
325298050.0 -0.1014695141 0.0859711904 6.93168e-05 2.92731e-05 2.60016e-05 1.91866e-05 -0.6728802677 0.5162007334
330298020.0 -0.1009168014 0.0873108437 7.2388e-05 2.5486e-05 2.129e-07 0.0002132164 -0.6673238704 0.5232901027
335297990.0 -0.1004369726 0.0881580116 -1.84288e-05 -0.000112906 8.16102e-05 0.0001826869 -0.6609762653 0.5304411492
340297960.0 -0.099955371 0.0892225913 0.0003136149 0.0002470417 -5.1895e-06 5.44743e-05 -0.6560599825 0.5372959854
345297930.0 -0.0994769827 0.0900720539 9.4171e-05 6.38242e-05 -1.36211e-05 8.57027e-05 -0.6500871603 0.5441530929
350297900.0 -0.0983374162 0.0912787764 5.54164e-05 0.0001242235 0.0002569832 0.0002165755 -0.6439805278 0.55134659
355297870.0 -0.0982148494 0.0923363353 0.0003233672 8.67779e-05 -8.18426e-05 3.2641e-05 -0.6388204828 0.5574307914
360297840.0 -0.0974346003 0.0931150445 0.0001062518 -9.37665e-05 8.95908e-05 0.0002391427 -0.6323924173 0.5637819085
365297810.0 -0.0966120984 0.0941092709 0.0002491268 7.4321e-05 0.0004014663 1.5035e-06 -0.626426104 0.5709200498
370297780.0 -0.0959688565 0.0950727414 0.0002177075 0.0001611421 0.0001038779 0.0001359144 -0.621265747 0.5767473478
375297750.0 -0.095116991 0.0963533728 0.0001120115 0.0002091081 0.0003293664 -6.19795e-05 -0.6148080525 0.5832764619
380297720.0 -0.0943161083 0.0972044996 6.51448e-05 -0.0001819233 0.0001919528 -0.0001691729 -0.6083526987 0.5906611244
385297690.0 -0.0937638293 0.098631477 6.2978e-06 0.000250518 0.0003978972 0.0001276892 -0.6016900551 0.595904883
390297660.0 -0.0925747328 0.0992994964 -2.65864e-05 -9.5949e-05 6.11367e-05 6.71819e-05 -0.5956219847 0.6012326652
395297630.0 -0.0918549776 0.1001321773 3.05189e-05 9.30154e-05 0.0003980727 -3.56835e-05 -0.5894875399 0.6080313402
400297600.0 -0.0911756628 0.1013028278 -0.0001047673 0.0001463944 0.0002302816 0.0001560209 -0.58313264 0.6140490504
405297570.0 -0.0903247402 0.1023754937 -4.50157e-05 0.0001876652 0.0001003572 0.0001260552 -0.5770684302 0.6195865341
410297540.0 -0.08935293 0.1032638031 0.0001273101 3.1299e-06 0.0002469548 9.42038e-05 -0.5695893342 0.6254032755
415297510.0 -0.088396655 0.1041370016 0.000169921 0.0001925667 0.0001474423 -8.15059e-05 -0.5638502487 0.6318244111
420297480.0 -0.0877042603 0.1050826144 5.6515e-06 0.0001016042 -1.82757e-05 -0.0002151942 -0.5570121856 0.6370238746
425297450.0 -0.0867141776 0.1061577744 -4.52013e-05 0.0001520201 1.80612e-05 0.0001739867 -0.5504540021 0.64280384
430297420.0 -0.086011796 0.1071474401 0.0002927734 5.63139e-05 4.02706e-05 4.30707e-05 -0.543927792 0.6484001399
435297390.0 -0.0851731028 0.1078874894 0.0002201027 8.88222e-05 0.0001021719 3.70729e-05 -0.5371628051 0.6534715628
440297360.0 -0.0840971894 0.1091963102 4.2463e-05 -0.0001061197 0.0002456362 0.0002220317 -0.530552696 0.6587214421
445297330.0 -0.0832414473 0.1099550945 0.0001593603 8.63122e-05 -3.30329e-05 0.0002455209 -0.5236278012 0.6645227785
450297300.0 -0.0824738126 0.1105411354 0.0001007647 0.0002077125 0.0004751461 7.49696e-05 -0.5168510494 0.6690536881
455297270.0 -0.081325082 0.1119151481 0.0003290299 -1.96427e-05 -0.0001508738 7.0936e-06 -0.5098436117 0.6747607591
460297240.0 -0.080612433 0.1129665436 9.24082e-05 0.0001322202 4.40732e-05 -3.76085e-05 -0.5026773104 0.6804919231
465297210.0 -0.0795960717 0.1138622183 2.23956e-05 -1.73886e-05 0.0003648626 3.32326e-05 -0.4966163115 0.6846380784
470297180.0 -0.0785589331 0.1145143056 0.0002487382 0.00015448 0.0002281532 -1.92208e-05 -0.4898236632 0.6895233212
475297150.0 -0.0777800013 0.115679664 0.0002359526 -0.0002382802 0.0001985566 0.000213195 -0.4821491136 0.694654002
480297120.0 -0.0765599099 0.1164166728 0.0001339731 0.0001082201 9.74204e-05 0.0002739557 -0.4750230872 0.6999702772
485297090.0 -0.0755529436 0.1172292554 0.0001765948 -5.53872e-05 9.53668e-05 9.00006e-05 -0.468268322 0.7040524114
490297060.0 -0.0745486779 0.1180964536 0.0001227911 0.0001788716 0.0001224363 9.16086e-05 -0.4612524997 0.7084967714
495297030.0 -0.0736768087 0.119233685 0.0001075089 2.28361e-05 0.0001555601 0.0001126414 -0.4538892049 0.7132434103
500297000.0 -0.0723683062 0.1198230036 0.0001643763 0.0001929489 0.0001906055 0.0001029994 -0.4468030526 0.7179102869
505296970.0 -0.0715459766 0.1206941711 0.0003272456 -7.0889e-06 1.0914e-06 8.24724e-05 -0.4402531067 0.7220694203
510296940.0 -0.070408348 0.1216415339 0.0001894053 0.000277818 0.0002853586 0.0002427262 -0.4319390501 0.7264574003
515296910.0 -0.0694041296 0.1226300884 0.000132936 -0.0001208942 0.0002305124 -0.0001239555 -0.4249425616 0.7309214468
520296880.0 -0.0682299384 0.1231317216 0.0001594092 4.23184e-05 0.0002708872 -0.0001443791 -0.4177123101 0.7347175955
525296850.0 -0.066985042 0.124361011 0.000115007 1.26e-07 2.69914e-05 0.0001869838 -0.4100047905 0.7392952221
530296820.0 -0.0661956247 0.1248607604 0.0002616782 0.0002435202 0.0003169069 0.0001327481 -0.4032767955 0.7430179211
535296790.0 -0.0649517645 0.1257977024 0.0001917444 -0.0002986907 0.000143235 4.30655e-05 -0.3957369736 0.7465090358
540296760.0 -0.0638536007 0.1262172381 0.000307856 6.1035e-05 0.0003554105 -6.14474e-05 -0.388280524 0.7511791799
545296730.0 -0.0625740367 0.127236938 0.0002737805 0.0002941473 5.61705e-05 0.0002389241 -0.3812576017 0.7542671554
550296700.0 -0.0617977084 0.1284458651 0.0002644766 4.14068e-05 0.0002249185 0.0001794498 -0.373307899 0.7581980057
555296670.0 -0.0599431292 0.129033163 -0.0001647176 7.70796e-05 9.13162e-05 -0.0001059637 -0.3659091729 0.7618234671
560296640.0 -0.0590478527 0.1295581875 0.0001103993 9.4724e-05 -0.0001102108 -2.16692e-05 -0.3574762232 0.7655236149
565296610.0 -0.0580200892 0.1305963063 0.0001535454 -0.0001359073 3.78513e-05 6.74397e-05 -0.3505237745 0.768795465
570296580.0 -0.0568552889 0.1312196886 9.90196e-05 -0.0002252192 0.0002430337 0.0001716679 -0.3435088446 0.7724954481
575296550.0 -0.0553246038 0.1319658081 0.0001800443 0.0001994836 0.0001016177 -0.0001216887 -0.3348622484 0.7762102361
580296520.0 -0.0542258209 0.1325328007 0.0001981956 6.47211e-05 0.0001318719 0.000167195 -0.3273299861 0.7793595367
585296490.0 -0.0530742904 0.1330277055 0.0003529469 0.0001396628 0.0001766973 -0.0002161173 -0.3197029341 0.7817442894
590296460.0 -0.0519713191 0.1341525418 0.0002359615 7.66713e-05 0.0002683224 -0.0001783098 -0.3119326393 0.7849988427
595296430.0 -0.0507104668 0.1347959066 0.0002651518 1.6439e-06 0.0003098769 5.68094e-05 -0.304084909 0.7876432439
600296400.0 -0.0494867591 0.1354312216 0.000330105 4.32142e-05 0.0002792332 8.60063e-05 -0.2964819762 0.7913399806
605296370.0 -0.048260657 0.1361116549 0.0004700758 -0.0001038537 0.0001099978 -0.0001408359 -0.2887355686 0.7944912907
610296340.0 -0.0466981605 0.1367986442 0.0001690156 0.0001680899 0.0001246482 4.93378e-05 -0.2808159051 0.7973385373
615296310.0 -0.0457073407 0.1373542611 0.0003510229 -9.68624e-05 0.0002529352 0.0001977054 -0.2729245621 0.7995836502
620296280.0 -0.0440614474 0.1379204362 0.0001315587 0.0001591787 1.8909e-05 -3.9391e-06 -0.2647870659 0.8022592504
625296250.0 -0.0430203754 0.1386508775 0.0001473011 0.000133499 0.0001969181 -0.0001670647 -0.2571263989 0.8046312537
630296220.0 -0.0417797717 0.1391870873 0.0001254805 1.24278e-05 0.0002597434 0.0001162367 -0.2486367531 0.8077492564
635296190.0 -0.040505503 0.1396583456 0.0001847914 5.0557e-05 0.0002741515 1.13671e-05 -0.2410697326 0.8096888017
640296160.0 -0.0391464272 0.1402295399 0.0003037989 0.0001014104 0.000225492 -0.0001209898 -0.232317042 0.8116469568
645296130.0 -0.0381660308 0.1409150016 0.0002158128 0.0001456829 0.0002848466 0.000174016 -0.2249768703 0.8136633621
650296100.0 -0.0366075137 0.1416973466 0.0002254154 -0.0001969996 0.0003315653 2.30611e-05 -0.2168232252 0.8165087772
655296070.0 -0.0351947673 0.1420558679 0.0001891855 0.0002163827 0.0001155213 -0.0001105022 -0.2089295646 0.8179426681
660296040.0 -0.0343223631 0.142827919 0.0001061168 -2.1624e-06 0.0001469922 0.000105166 -0.2003695333 0.8202300159
665296010.0 -0.0325210021 0.1431137596 0.0003729929 9.82676e-05 0.0003742055 5.99062e-05 -0.1930881152 0.8220958237
670295980.0 -0.0312208029 0.1435729234 0.0002469911 2.14491e-05 0.0002759817 -8.68415e-05 -0.1851331052 0.8239674471
675295950.0 -0.0299508394 0.1439347808 0.0002148238 -7.60214e-05 0.0002287757 0.000142424 -0.1763376396 0.8261583411
680295920.0 -0.0288703076 0.144858623 0.0004731139 3.23825e-05 0.000286358 3.12132e-05 -0.1684071539 0.8276585723
685295890.0 -0.027082857 0.1452745889 5.33464e-05 -7.43058e-05 0.0002918831 -6.59111e-05 -0.159973731 0.8290756374
690295860.0 -0.0256710915 0.1455514848 0.0003220545 -8.63233e-05 0.0001119946 -8.90659e-05 -0.151658136 0.8304913138
695295830.0 -0.0245906246 0.1459996803 0.0001838433 -1.68794e-05 0.0002077238 -5.74295e-05 -0.1438131672 0.8319681401
700295800.0 -0.0230625361 0.1465810402 0.0002460441 0.0001287825 0.000215198 -5.4118e-05 -0.1351713882 0.8333194342
705295770.0 -0.0215084419 0.1469852313 0.00014652 0.0001053311 0.0004055787 0.0001469251 -0.1276815818 0.835497302
710295740.0 -0.0201653145 0.1474303457 0.0006080505 0.0002435844 0.0003050875 -1.41817e-05 -0.119449863 0.8364941902
715295710.0 -0.0190195988 0.1476581166 0.0003522186 -9.13632e-05 0.0001690887 0.0001599551 -0.1107248833 0.83712016
720295680.0 -0.0173411117 0.1481142339 7.16221e-05 -9.52248e-05 0.0001415775 0.0001401556 -0.1025892819 0.8385072616
725295650.0 -0.0156431329 0.1486664309 0.0002437717 -0.0001299917 0.0001486724 2.25176e-05 -0.0940838626 0.8397970996
730295620.0 -0.014560295 0.1487767679 0.0003491599 -3.32878e-05 0.0003004346 -0.0001000288 -0.0858305389 0.8402308351
735295590.0 -0.0129554563 0.1491019183 0.0002225341 4.08919e-05 0.0003599103 -2.8828e-05 -0.0771430991 0.8407110605
740295560.0 -0.011746425 0.1496187077 0.0001947428 -0.0001829395 0.0002474219 -0.0001127007 -0.0692408381 0.8409812195
745295530.0 -0.0104955814 0.1500847008 0.0002358394 -3.24489e-05 0.0001041523 -4.15269e-05 -0.0610358793 0.8422849232
750295500.0 -0.0089182948 0.1500003893 0.0004515343 0.0001120136 0.0004037088 -9.12427e-05 -0.0528106934 0.842463647
755295470.0 -0.0070105555 0.1505395026 0.0002605405 -1.18658e-05 0.000173634 -0.0001880535 -0.0446090321 0.843561603
760295440.0 -0.0057575594 0.1507104529 0.0003300797 7.575e-06 0.0002523907 2.04839e-05 -0.0364018344 0.8433027497
765295410.0 -0.0045455754 0.1509146463 0.0001653988 -9.96425e-05 0.0001660526 0.0003136487 -0.0275621873 0.8446004208
770295380.0 -0.0029419437 0.151349593 0.0003146633 -0.0002646517 0.0001164496 -2.66391e-05 -0.0189028046 0.844626956
775295350.0 -0.0018293535 0.1517946577 0.0003238459 -0.0002114822 0.0002656487 -0.0001963379 -0.0118494773 0.8442223907
780295320.0 -0.0001401674 0.151519944 0.0002027043 0.0001612299 0.0003581938 -0.0001904439 -0.0028828258 0.8450781103
785295290.0 0.0013464844 0.1522248962 0.0001874701 4.06658e-05 0.0004013465 4.23181e-05 0.0047280472 0.8444944045
790295260.0 0.0026579414 0.1521036652 0.000202895 9.279e-06 0.0003314748 6.16595e-05 0.0141564781 0.8446816749
795295230.0 0.0040040172 0.1526912899 0.0002233405 -2.046e-06 0.0003523928 -0.0001384468 0.0221658695 0.8449163387
800295200.0 0.0058312463 0.1527396151 8.63694e-05 -0.0002022041 0.0003242881 4.8668e-05 0.03047714 0.8441240726
805295170.0 0.0073929571 0.1528405476 0.000242603 -0.0003257098 0.0003838009 -1.22911e-05 0.0382944441 0.8435719209
810295140.0 0.0087533379 0.1527926004 0.0005057008 -0.0001565831 0.000261124 -0.0001569148 0.0467639311 0.8442850233
815295110.0 0.0101973119 0.1531604079 0.0005516149 -9.2319e-06 0.0001836195 4.022e-06 0.0552499059 0.8428773521
820295080.0 0.0116938343 0.1529415001 0.0002516378 -0.000188882 0.00027475 0.0001738159 0.0630402561 0.8423034962
825295050.0 0.0132839727 0.1531169946 0.000581274 7.73858e-05 9.22252e-05 -7.36339e-05 0.0717905912 0.8420979564
830295020.0 0.0147106113 0.1533963997 0.0003853024 0.0001606594 0.0004833067 -0.0002229078 0.0796176983 0.8411164361
835294990.0 0.0161451386 0.1536619619 0.0003868159 -0.000164146 0.0003406264 -0.0001048658 0.0880554273 0.8400306219
840294960.0 0.0177053726 0.1534245756 0.0001765859 -5.99371e-05 0.0002162305 -4.49342e-05 0.095970338 0.8394009235
845294930.0 0.0193356228 0.1534732222 0.0001786161 -0.000158705 0.0003427118 -0.000121877 0.1044016518 0.8386041374
850294900.0 0.0206713424 0.1534828937 0.0002447058 -0.0002955133 0.000231737 -4.16458e-05 0.112575078 0.837555797
