!Created with skrf (http://scikit-rf.org).
# Hz S RI R 50.0 
!freq ReS11 ImS11 ReS21 ImS21 ReS12 ImS12 ReS22 ImS22
300000.0 -0.0464091793 -0.0736545715 -0.0017262948 0.000880102 -0.0005041188 0.001585147 -0.7665448133 -0.1972474863
5299970.0 -0.0501426735 0.014357401 0.0001257971 0.0002392573 3.74422e-05 7.2155e-06 -0.7849087486 -0.0100649741
10299940.0 -0.0443994778 0.0328011796 5.95151e-05 1.45489e-05 -7.61206e-05 -3.44509e-05 -0.7871238269 -0.0054701422
15299910.0 -0.0358720844 0.0473750138 -0.0001936091 -0.0001822432 -0.0002410373 -5.02441e-05 -0.7923405491 -0.0028086474
20299880.0 -0.0257175667 0.0591799066 -4.85258e-05 7.95819e-05 -6.6216e-05 -0.000108911 -0.7995216654 0.0017375216
25299850.0 -0.0140119396 0.0685514469 -1.93769e-05 1.5678e-06 8.81546e-05 2.97615e-05 -0.805973242 0.0079983295
30299820.0 -0.0026952595 0.0752560502 -7.96672e-05 -4.51789e-05 -0.0001125585 2.85573e-05 -0.8118380388 0.0155969811
35299790.0 0.0092454517 0.0798611654 -5.77005e-05 9.46139e-05 -8.11733e-05 -4.898e-07 -0.8168312625 0.023968879
40299760.0 0.0205057214 0.0826584124 -0.0001218719 -9.19575e-05 -3.25535e-05 0.0001655433 -0.8212414261 0.033634682
45299730.0 0.0311833662 0.0838630892 4.0276e-06 2.16162e-05 -0.000231885 -2.05355e-05 -0.8237806985 0.0436155679
50299700.0 0.0417447606 0.0833579925 1.675e-06 3.42585e-05 -2.15543e-05 -0.0001258915 -0.8264871433 0.0538248611
55299670.0 0.0511204176 0.0826946312 -9.60302e-05 4.62348e-05 3.9889e-05 -2.73516e-05 -0.828900779 0.0637298765
60299640.0 0.0596073211 0.08061504 -6.57566e-05 -0.0001094288 -5.51145e-05 -0.0001587498 -0.8298848522 0.0741481323
65299610.0 0.0680157134 0.0782437338 2.77805e-05 -5.73669e-05 0.0001671547 -2.63391e-05 -0.8303991812 0.0838673117
70299580.0 0.0744167929 0.0750595493 -1.46248e-05 -0.0001412072 -8.22787e-05 2.5378e-06 -0.8307231547 0.0935101578
75299550.0 0.0809650075 0.0715752136 -0.0001761874 3.78414e-05 0.0002126913 -0.0001575747 -0.8304813431 0.1042379478
80299520.0 0.0866079754 0.0678065781 -6.9973e-06 9.03964e-05 2.17859e-05 -0.0002702622 -0.8304373092 0.1139582779
85299490.0 0.0921569714 0.0637871019 0.0001429955 -0.0002311198 6.65763e-05 0.0001374805 -0.8299212098 0.1233165066
90299460.0 0.0969563415 0.0599348531 2.16292e-05 -0.0001763238 0.0002063996 -0.0001443365 -0.8290963462 0.1329018486
95299430.0 0.1008861287 0.056107888 -3.93283e-05 -0.0001418537 -5.79578e-05 -0.0001068938 -0.8281748995 0.1424233624
100299400.0 0.104700027 0.0520764015 0.0001440725 -8.90215e-05 -4.40986e-05 3.8422e-05 -0.8269395241 0.1520084642
105299370.0 0.1080685386 0.047880537 5.25907e-05 0.0001071189 0.0001597113 3.30579e-05 -0.8255384753 0.1606743595
110299340.0 0.1109799146 0.0439878108 0.000137306 8.95322e-05 -0.000157643 -2.18903e-05 -0.8243975987 0.1700349099
115299310.0 0.1134854953 0.0397440443 0.0001853412 0.0001040358 0.0001400536 -0.0001048797 -0.8230420678 0.1790240423
120299280.0 0.1159528117 0.0358727799 1.39262e-05 -5.78838e-05 -0.0001622545 0.0002400857 -0.8207603002 0.1878045264
125299250.0 0.1176078185 0.0321795873 0.0001307089 8.55502e-05 -7.79892e-05 5.56375e-05 -0.8193625679 0.1966789203
130299220.0 0.1191844349 0.0281157777 -8.43326e-05 7.36929e-05 -4.71327e-05 -1.37398e-05 -0.8172326909 0.2056401731
135299190.0 0.1207783087 0.0243474906 -0.0002789558 0.0001104803 3.05967e-05 -0.000130517 -0.8156927716 0.2151117029
140299160.0 0.1220795372 0.0208694283 9.86214e-05 0.0001365899 -1.6569e-06 -6.90135e-05 -0.8137951126 0.2236908888
145299130.0 0.123610898 0.0172089756 -0.0001293108 4.68627e-05 0.0002890769 3.47938e-05 -0.8119765984 0.2326033899
150299100.0 0.1242452605 0.0136478648 6.78233e-05 0.0001701265 3.9901e-06 2.5565e-05 -0.8094718895 0.2413227422
155299070.0 0.124902339 0.0105251548 -5.63693e-05 -1.29349e-05 -1.74462e-05 -4.56259e-05 -0.8070506935 0.2507840377
160299040.0 0.1254235365 0.0073419131 -4.87161e-05 -3.753e-06 4.20038e-05 5.54834e-05 -0.8039662605 0.2589958462
165299010.0 0.1264560451 0.0043019375 -0.0001039205 6.97649e-05 -5.65853e-05 -8.22748e-05 -0.8015019841 0.2672358019
170298980.0 0.1264798298 0.0007565947 0.0001533117 0.0001055749 0.0001215554 -2.17378e-05 -0.7995866777 0.2753722724
175298950.0 0.1271736365 -0.0023091736 -7.8727e-06 0.0001944899 -4.44506e-05 9.10996e-05 -0.7966248516 0.2850028612
180298920.0 0.1268295189 -0.0052834091 -9.86734e-05 -0.0001305679 0.000117706 1.8201e-06 -0.7932481093 0.2934548976
185298890.0 0.1269220596 -0.0082969332 0.0001912893 0.0001018024 0.0002131586 9.61263e-05 -0.7905880435 0.3016841693
190298860.0 0.1267816986 -0.0112855382 4.45933e-05 6.47806e-05 0.0001904254 1.8538e-06 -0.7869561602 0.310150959
195298830.0 0.1270369472 -0.0136221506 -5.0716e-05 -0.0001345466 -0.0001312176 0.000151943 -0.7839556606 0.3182090794
200298800.0 0.1268410011 -0.0167302652 0.0001805056 1.86085e-05 0.0001687912 7.55137e-05 -0.7807628049 0.326685524
205298770.0 0.1261013644 -0.0192567961 -2.975e-07 -1.25294e-05 1.11605e-05 3.3684e-05 -0.7774164923 0.3348115559
210298740.0 0.1264358257 -0.0217582855 5.41674e-05 3.15495e-05 8.62608e-05 0.0001156319 -0.7741934901 0.3435071412
215298710.0 0.1256513971 -0.0244401402 -0.0001681452 0.0001966093 -0.0001411908 0.0001880657 -0.7700136439 0.3513480354
220298680.0 0.1253750555 -0.0269187904 0.0001001183 0.0001383208 4.66494e-05 7.41212e-05 -0.7664801518 0.3593130452
225298650.0 0.1248649774 -0.0293791574 3.44095e-05 0.000103757 4.9655e-05 5.30039e-05 -0.7629546049 0.3675387934
230298620.0 0.1240938975 -0.0313912173 -0.0001387979 1.1472e-05 -7.741e-06 -7.91055e-05 -0.7587675551 0.3754630836
235298590.0 0.1234983669 -0.0337344832 -0.0001518467 0.0001003169 0.0003052538 4.09076e-05 -0.7548913744 0.3834097846
240298560.0 0.1226765336 -0.0361180931 -7.4429e-06 0.0002453161 -3.6075e-06 0.0002202785 -0.7509436028 0.3913637341
245298530.0 0.1221618232 -0.0384162469 -8.52662e-05 0.0004331794 4.07007e-05 7.43335e-05 -0.7470217035 0.3992526087
250298500.0 0.1213802135 -0.0406289259 5.58e-06 0.0001090851 -2.46764e-05 -3.65716e-05 -0.7425086819 0.4073835081
255298470.0 0.1205716576 -0.0426360808 0.0001534798 3.32293e-05 3.13572e-05 3.92284e-05 -0.739165949 0.4145056258
260298440.0 0.1200667033 -0.044816632 5.11302e-05 6.24297e-05 0.0001265399 0.0002857754 -0.7340027108 0.4222508718
265298410.0 0.1187073155 -0.0469554938 0.0002291841 0.0001342301 0.000181593 0.0002056234 -0.7297779781 0.4299513379
270298380.0 0.1178116118 -0.048965712 0.0001873039 -5.01977e-05 -6.92465e-05 -4.09473e-05 -0.7248301224 0.4382665422
275298350.0 0.11715787 -0.0507619293 -3.70845e-05 -0.0001355605 0.0001959472 1.89732e-05 -0.7204018258 0.4454395408
280298320.0 0.1160795003 -0.0527712606 0.0001595565 -4.722e-07 0.0002099778 1.85584e-05 -0.7161685499 0.452835058
285298290.0 0.114893477 -0.0545877545 -0.0001043424 1.69114e-05 0.0001065486 -3.28351e-05 -0.7118474166 0.4601463632
290298260.0 0.1140403689 -0.05652565 0.0001018254 9.67317e-05 -1.97296e-05 6.74858e-05 -0.7067901247 0.467524252
295298230.0 0.1130396673 -0.058499367 -0.000202383 -0.0001588877 0.0001459762 -4.7127e-06 -0.7013240665 0.4750521442
300298200.0 0.1119871736 -0.0602525868 0.0002592441 -6.29065e-05 -0.000127158 -0.0001577909 -0.6963780459 0.48233081
305298170.0 0.1108844922 -0.0622125375 -8.78471e-05 0.0001134308 4.33405e-05 0.000377699 -0.6915905349 0.4890397205
310298140.0 0.1098911036 -0.0643833318 0.0002165517 -5.25681e-05 -0.000230796 -4.88054e-05 -0.6865532113 0.4967253348
315298110.0 0.1083605365 -0.0662219943 9.763e-05 7.06161e-05 0.0001485523 6.6589e-06 -0.6812145 0.5041945287
320298080.0 0.1071910222 -0.0681852145 0.000114723 9.88182e-05 4.31335e-05 6.00118e-05 -0.6759594302 0.5110840964
325298050.0 0.1052063876 -0.0702293614 1.08723e-05 0.0001504206 -3.59775e-05 -0.0001255323 -0.6701446316 0.5176595984
330298020.0 0.1038583207 -0.0713466229 0.0003048148 -2.29509e-05 2.3459e-06 0.0002584513 -0.6644678808 0.5242293001
335297990.0 0.1024918595 -0.0728798055 0.0002177445 -1.62283e-05 2.44396e-05 -2.5551e-05 -0.6594617385 0.5316021972
340297960.0 0.1007819103 -0.0743704742 0.0001587207 5.085e-07 2.91877e-05 0.0001849371 -0.6540251778 0.538815509
345297930.0 0.0996057654 -0.0760208302 2.52488e-05 9.47261e-05 0.000354942 -5.33105e-05 -0.6483605589 0.5450997316
350297900.0 0.0982997243 -0.0775440057 3.71654e-05 -0.0001387023 0.0002194465 6.94338e-05 -0.6431848335 0.5514882033
355297870.0 0.0970568096 -0.0788448457 0.000147756 -7.10917e-05 4.49753e-05 -1.66906e-05 -0.6371600663 0.5585862213
360297840.0 0.0953379185 -0.0803510238 0.0001006337 9.4173e-06 2.14885e-05 -1.48758e-05 -0.6308242141 0.5650399332
365297810.0 0.0940389568 -0.0815840634 0.0001701598 0.0001333412 -0.0001427793 4.53926e-05 -0.6257005098 0.5705627159
370297780.0 0.0922630887 -0.0831385272 0.0001089819 0.0003042179 8.17863e-05 5.14772e-05 -0.6197582765 0.5774817133
375297750.0 0.0911453044 -0.0842555237 6.51641e-05 3.78795e-05 3.75427e-05 -3.23304e-05 -0.6135806598 0.5838892729
380297720.0 0.089746892 -0.0852867379 8.8071e-05 4.44835e-05 0.0001056284 8.58339e-05 -0.6067516412 0.5902015562
385297690.0 0.0881647618 -0.0867529923 0.0001571542 -0.000125291 -3.02324e-05 -5.4498e-06 -0.6015088925 0.5966265965
390297660.0 0.0869785671 -0.0883756419 0.0002016388 5.708e-06 9.17501e-05 0.0002713851 -0.5946545321 0.601870235
395297630.0 0.0852673046 -0.0893618089 0.0002259613 -0.0001359084 4.07896e-05 0.0001163676 -0.5881512173 0.6078108732
400297600.0 0.0835116993 -0.0905701726 8.54515e-05 0.0003251515 0.0001446918 -0.0001129926 -0.5824867695 0.6142614281
405297570.0 0.0821768268 -0.0919668187 0.0002844051 0.0001492578 6.77722e-05 0.0001063833 -0.5758417231 0.6203760214
410297540.0 0.0809864868 -0.0928462828 0.0002531645 0.0001708269 0.0001285548 1.36551e-05 -0.569427094 0.6262269159
415297510.0 0.0792486502 -0.0939298561 0.0001782863 -3.77288e-05 0.0001527646 6.47297e-05 -0.5629185647 0.6314805245
420297480.0 0.0777506798 -0.09557925 0.0001843988 0.000166071 6.80087e-05 0.0001245081 -0.555773646 0.6381701786
425297450.0 0.0764858308 -0.0964869069 0.0001949278 0.0001213373 -3.8381e-06 9.91117e-05 -0.5495301362 0.6430867624
430297420.0 0.0748390999 -0.0975547701 0.0002228865 -0.0001146695 0.0002705354 0.0001658185 -0.5422780961 0.6485776675
435297390.0 0.073187188 -0.0984884577 0.0001699241 0.0002994208 0.0002437873 -7.49472e-05 -0.536096869 0.6545921949
440297360.0 0.0717648426 -0.0997076368 0.000114441 -2.86555e-05 0.0001819662 4.37469e-05 -0.5299771812 0.6597908855
445297330.0 0.07049583 -0.1007127722 0.0002940653 0.0001762424 -2.48687e-05 0.0001077221 -0.5227755483 0.6653862796
450297300.0 0.0687007902 -0.1019333783 -4.68612e-05 -0.0001313686 -8.7547e-06 9.7292e-05 -0.5154957893 0.6701116067
455297270.0 0.0671651733 -0.1026581338 0.0001096149 -9.0353e-05 6.42312e-05 -3.59478e-05 -0.5083774441 0.6754445292
460297240.0 0.0656828824 -0.1035209876 0.0002968897 -2.59248e-05 0.0001027858 -5.7864e-05 -0.5026557162 0.6800976599
465297210.0 0.0642913146 -0.1043652006 0.0001543069 0.0001539202 9.49374e-05 -1.86657e-05 -0.4952625157 0.6860011106
470297180.0 0.0626218664 -0.1052145228 0.0001559918 -8.17647e-05 0.0002281314 4.84496e-05 -0.4879013272 0.6903562708
475297150.0 0.0607601136 -0.1059243139 0.0002928382 6.31505e-05 0.000280446 -1.7889e-06 -0.4810269299 0.6951458184
480297120.0 0.0596574566 -0.1069014969 7.24492e-05 1.52922e-05 0.0002884476 -0.0001034773 -0.4745618542 0.6999391309
485297090.0 0.0580517097 -0.10766608 1.58652e-05 0.0001141452 0.0001190327 -3.33379e-05 -0.4666978045 0.704935424
490297060.0 0.0569469568 -0.1083864611 1.52206e-05 0.0001064465 8.91793e-05 1.77569e-05 -0.4597593222 0.7087812662
495297030.0 0.0549872152 -0.1094269335 0.0002607056 4.42183e-05 0.0002566229 -7.39685e-05 -0.4528840165 0.7137131393
500297000.0 0.0534514772 -0.1097440809 0.000156284 4.4787e-06 -3.90091e-05 -3.80346e-05 -0.4449568402 0.7187713209
505296970.0 0.0518291276 -0.1107589704 4.82882e-05 7.05898e-05 -7.44903e-05 -3.3352e-06 -0.437525294 0.7226295197
510296940.0 0.0504051146 -0.1113489159 -1.436e-05 6.11473e-05 4.7508e-06 1.52304e-05 -0.4300065302 0.7273456752
515296910.0 0.0488507132 -0.1117486225 3.82098e-05 0.0001201513 8.92744e-05 2.49308e-05 -0.4231379629 0.7307931854
520296880.0 0.0476101099 -0.1127974758 -0.0001435159 -5.5337e-06 0.0001895841 0.00016861 -0.4149116696 0.7363100401
525296850.0 0.0457548822 -0.1132560359 -3.26762e-05 0.0001494109 0.000123588 -0.0001118911 -0.4083354638 0.7394944363
530296820.0 0.0438743949 -0.1137122671 -0.0001279133 0.0001093756 0.0001168161 1.50209e-05 -0.4007588146 0.743404211
535296790.0 0.0426146956 -0.1141598278 0.0002804472 -0.0001677336 0.0001108567 -0.000134299 -0.3933200105 0.748282335
540296760.0 0.0411298813 -0.1145619436 0.0003440023 -0.0001188971 0.0002113713 0.0002106485 -0.3852205618 0.7515626071
545296730.0 0.0391917867 -0.1148304995 0.0001705171 -0.0001675922 0.0001253493 -2.53818e-05 -0.3776135209 0.7554284899
550296700.0 0.0379132181 -0.1152468741 0.0001310868 5.89639e-05 -3.05331e-05 9.78646e-05 -0.3700008401 0.7592466032
555296670.0 0.0364317235 -0.1157426598 -0.0001728167 0.0001076245 0.0001226885 0.0001065054 -0.3624456144 0.7622902193
560296640.0 0.0349451241 -0.1161858668 0.0001922494 -2.42363e-05 0.0002805868 0.0001504568 -0.3545150533 0.7669905301
565296610.0 0.0330448702 -0.1165137694 0.0002771849 -5.12268e-05 0.0001885719 0.0001057037 -0.3465705567 0.7700733799
570296580.0 0.0315020905 -0.1166475883 1.20006e-05 3.83007e-05 0.0002356392 -2.31423e-05 -0.3390963256 0.7729941575
575296550.0 0.0298900895 -0.1168859068 0.0003164469 0.0002500343 0.0001748576 -0.0001336627 -0.3312581012 0.7764783285
580296520.0 0.0283161738 -0.1167057825 0.0002793505 1.58303e-05 0.0001456204 1.03025e-05 -0.3236065029 0.779553414
585296490.0 0.0267870084 -0.1171129345 8.61594e-05 -3.7793e-06 0.00014814 -0.0001506645 -0.3148242402 0.7837201797
590296460.0 0.0252494663 -0.1172698113 2.50122e-05 0.0001608339 0.0001717552 0.0002000808 -0.3072947149 0.78608929
595296430.0 0.0234500828 -0.1176165529 0.0001003054 0.000173615 5.88148e-05 6.37622e-05 -0.3002374227 0.7891291078
600296400.0 0.0220115124 -0.1176383882 8.53551e-05 3.107e-07 0.0001883929 -0.000126496 -0.2921688236 0.7921977625
605296370.0 0.0199736014 -0.11745116 0.0002269168 -9.59334e-05 0.000190122 3.25158e-05 -0.283548083 0.7956222206
610296340.0 0.0187288886 -0.117708351 0.0001862904 -6.48143e-05 0.0002690803 -8.22486e-05 -0.2760791909 0.797633222
615296310.0 0.0171640957 -0.1178517643 0.0001036966 -2.06023e-05 0.0002269265 8.0107e-05 -0.2672229452 0.8004522867
620296280.0 0.0153777253 -0.1172664887 0.0002926893 9.87727e-05 -1.02044e-05 -0.0001279426 -0.2601572362 0.8034222148
625296250.0 0.0134959132 -0.1176618593 0.0001851651 -7.74226e-05 0.0001313085 6.18348e-05 -0.2519494207 0.8048055154
630296220.0 0.0119258735 -0.1175610671 -7.486e-06 8.5297e-06 5.66132e-05 -3.72151e-05 -0.2435284873 0.8077574308
635296190.0 0.0103775492 -0.1173213246 0.0001893459 -0.0001280042 0.0001931239 5.72299e-05 -0.2357603264 0.8103894509
640296160.0 0.0087930113 -0.1171257888 0.0001368694 0.000286317 3.64996e-05 -6.10383e-05 -0.2271370755 0.8123875047
645296130.0 0.0073781054 -0.1168192937 -4.75757e-05 2.26796e-05 0.0003048325 6.20886e-05 -0.2191848415 0.8144481382
650296100.0 0.0055631363 -0.1171198396 6.01338e-05 -9.01917e-05 0.000145539 -0.0001298174 -0.2103536221 0.8165927364
655296070.0 0.0038785374 -0.1166780689 1.28434e-05 3.42397e-05 0.000382701 8.63926e-05 -0.2032100328 0.8196573132
660296040.0 0.0020537408 -0.1165910455 0.0002919093 -0.0002878203 0.0002095095 3.85328e-05 -0.1939129623 0.8209856052
665296010.0 0.0005209116 -0.1161438781 0.0001488706 8.19477e-05 0.0002028571 0.0001151379 -0.1859918989 0.8223498199
670295980.0 -0.0013099994 -0.1160611403 0.0001568101 0.0001159407 0.0001165891 -0.0001072524 -0.1783381189 0.8245693205
675295950.0 -0.0031919749 -0.1158899534 0.00014017 -1.39291e-05 0.0001372053 -9.5372e-05 -0.1694351166 0.8262417869
680295920.0 -0.0047798363 -0.1153680013 3.55388e-05 2.45233e-05 0.0002977913 -3.26127e-05 -0.1611227049 0.8278979287
685295890.0 -0.0064715047 -0.1148647506 0.0003662503 3.9599e-05 0.0002589175 1.75659e-05 -0.1534043106 0.8299315073
690295860.0 -0.0079904207 -0.1146216848 1.92607e-05 -5.99756e-05 0.0001269816 8.567e-07 -0.1452630576 0.8309790274
695295830.0 -0.0098682748 -0.1142645959 0.0003234048 7.89786e-05 0.0002647141 -3.84966e-05 -0.1367803446 0.8329491806
700295800.0 -0.0112794142 -0.1138459864 8.73194e-05 -0.0001263122 0.000203789 5.216e-05 -0.128449147 0.8336513052
705295770.0 -0.0130570195 -0.1133377641 7.43842e-05 -4.57733e-05 0.0001666157 4.62385e-05 -0.1199710291 0.835620534
710295740.0 -0.0146776475 -0.112924046 0.0003919299 -4.70976e-05 0.0002223026 -1.61907e-05 -0.1119071748 0.8360645371
715295710.0 -0.0163229382 -0.1123564537 -1.11239e-05 -0.0001009779 0.0001202697 0.0001426542 -0.1029733394 0.8365646399
720295680.0 -0.0179258239 -0.1123017149 6.84479e-05 -0.000185533 7.11536e-05 -0.0001428373 -0.0945534833 0.8376807861
725295650.0 -0.0194850917 -0.1112788061 2.50803e-05 0.0001780956 0.0002414853 -0.0001738273 -0.0872524677 0.8397655319
730295620.0 -0.0217315779 -0.1110192598 0.0001749457 0.0001059434 0.000446231 -0.000179007 -0.0789246191 0.8399905881
735295590.0 -0.0233736718 -0.1104513183 0.0002833615 -0.0002345434 0.000284202 5.9772e-05 -0.0693045722 0.8406317599
740295560.0 -0.0251329159 -0.1101532687 0.0001547946 6.11793e-05 0.0001942137 -7.31851e-05 -0.0613307952 0.8413082574
745295530.0 -0.0266640972 -0.1094657273 0.0001038697 5.91741e-05 0.0001744228 -0.0001133277 -0.0534560848 0.8418342737
750295500.0 -0.0283740958 -0.1086709117 8.26679e-05 -3.8131e-06 1.38942e-05 -5.15353e-05 -0.0448930358 0.8423797899
755295470.0 -0.0298818584 -0.1081936088 7.13372e-05 -0.0002117844 -2.8088e-05 -0.0002069172 -0.0369201546 0.8427558448
760295440.0 -0.031496062 -0.1073441485 0.0002679009 7.8777e-06 3.60313e-05 -9.39543e-05 -0.0279629221 0.8427366302
765295410.0 -0.033120508 -0.1068795344 0.0003133433 0.0001774996 0.0002102851 -3.35057e-05 -0.0196633804 0.8433477637
770295380.0 -0.0349471018 -0.1060846696 0.0002982571 -0.0001131052 0.0001670603 -0.0001401468 -0.0116504135 0.8432351131
775295350.0 -0.0365630094 -0.1054345436 9.119e-05 -0.0001550959 0.0003479268 -5.83404e-05 -0.0026254199 0.8428567996
780295320.0 -0.0381246848 -0.104725758 0.0003936283 -6.96548e-05 9.81658e-05 -0.0002057461 0.0053573008 0.8436601276
785295290.0 -0.0396852835 -0.1041314106 4.19651e-05 -0.0003653192 4.25583e-05 8.3252e-05 0.0136232075 0.8437687219
790295260.0 -0.0413668556 -0.1037359354 -7.51926e-05 5.43811e-05 3.24725e-05 -5.08917e-05 0.0216732561 0.8431958269
795295230.0 -0.0428982711 -0.1029984601 4.9156e-06 1.64949e-05 3.5795e-06 0.0001493065 0.0299988525 0.8427611087
800295200.0 -0.0442985799 -0.102051833 0.0001810906 -4.3578e-05 8.74845e-05 -7.34776e-05 0.038469379 0.8421918084
805295170.0 -0.0461707147 -0.1011744889 0.0001586645 -2.41959e-05 0.0003686615 -0.0002218935 0.0470794216 0.842044058
810295140.0 -0.0475877348 -0.1004338633 0.0001382338 -2.83995e-05 0.0001324841 -5.19002e-05 0.0560039493 0.8413602529
815295110.0 -0.0494307027 -0.0997816401 -5.13246e-05 8.22189e-05 9.77345e-05 -0.0001234891 0.0633369442 0.8407113959
820295080.0 -0.0509260728 -0.0988935585 0.0001466187 -5.69875e-05 1.97281e-05 -0.0001087265 0.0713246611 0.8404030238
825295050.0 -0.0526056732 -0.0980794814 0.000120279 -1.33025e-05 0.0001356995 -0.0002074848 0.0801980049 0.8395947108
830295020.0 -0.0538821156 -0.0973552915 0.0001976415 -4.1926e-05 0.0002066073 -4.259e-05 0.0878681943 0.8382472695
835294990.0 -0.0556820924 -0.0963826821 0.000143477 1.48692e-05 0.0003200351 8.2414e-05 0.0971344789 0.8382243258
840294960.0 -0.0569782956 -0.0955261604 0.0002864504 3.8566e-05 9.42717e-05 -0.0001169687 0.1056995612 0.8368557677
845294930.0 -0.0585954255 -0.094621901 0.0002803687 -0.0001232813 0.0001948996 1.09927e-05 0.1138201548 0.8357353014
850294900.0 -0.059669505 -0.0939126306 2.39793e-05 1.5764e-05 0.0004271321 -4.26097e-05 0.1211161705 0.8345344454
