!Created with skrf (http://scikit-rf.org).
# Hz S RI R 50.0 
!freq ReS11 ImS11 ReS21 ImS21 ReS12 ImS12 ReS22 ImS22
300000.0 -0.7713353402 -0.1469093507 -0.0002012112 0.0006311097 -0.000618044 0.0003386516 0.859863758 -0.0017482283
5299970.0 -0.7849695677 -0.0075706658 -2.6975e-06 2.9031e-05 0.0001534679 2.45377e-05 0.8589366206 -0.010507207
10299940.0 -0.7873650469 -0.0042450258 -9.2174e-05 -3.6587e-05 0.0001056026 0.0003419086 0.8581691126 -0.0185981676
15299910.0 -0.7933552916 -0.0017369716 0.0002142759 8.1833e-06 -5.65406e-05 -5.75606e-05 0.857070595 -0.027418735
20299880.0 -0.7997037452 0.0019936548 9.70526e-05 -0.000251757 5.12643e-05 6.14784e-05 0.8567526522 -0.0363360223
25299850.0 -0.8061584884 0.0082991918 -9.22209e-05 0.0001215357 0.0001125096 2.72866e-05 0.8556579969 -0.0436583223
30299820.0 -0.8122286509 0.016171238 -3.74248e-05 -0.0001061695 -7.75429e-05 1.326e-07 0.8550892826 -0.0522770515
35299790.0 -0.8169072495 0.0250170302 -0.0001440603 -9.38841e-05 7.88487e-05 5.62353e-05 0.8543463127 -0.0601850915
40299760.0 -0.8214659426 0.0343908641 -4.19945e-05 9.44864e-05 -8.75917e-05 -2.23258e-05 0.8535418808 -0.0685744591
45299730.0 -0.8246728005 0.0439428964 0.0002030818 -5.6591e-05 2.00567e-05 -1.87262e-05 0.8526338844 -0.076898569
50299700.0 -0.8273539 0.0539411368 -0.0001537166 -2.3906e-05 1.3727e-05 0.0002507827 0.8518167928 -0.0851486162
55299670.0 -0.8287272544 0.0641103513 -7.7096e-06 -0.000153448 -0.0002159289 -9.76509e-05 0.8506232636 -0.0930980177
60299640.0 -0.8295748012 0.0744639356 9.78864e-05 9.7425e-06 6.18166e-05 1.28869e-05 0.8497717438 -0.1016467663
65299610.0 -0.8312864248 0.0849232447 -5.02178e-05 -9.59828e-05 5.70131e-05 0.0001091606 0.8488000658 -0.1103080427
70299580.0 -0.830987296 0.0946040375 5.78245e-05 0.0001394877 -0.0002402705 -4.6814e-05 0.8475352661 -0.1185597378
75299550.0 -0.8316069104 0.104339402 0.0001273344 -8.03509e-05 -5.87874e-05 0.0001193554 0.8467707595 -0.1266541222
80299520.0 -0.83175592 0.1145486146 -8.45553e-05 -1.43485e-05 -1.5796e-06 -7.57964e-05 0.8458282835 -0.134293472
85299490.0 -0.8309236245 0.1242583617 1.88417e-05 1.63621e-05 -0.0001030798 -6.04665e-05 0.8442076334 -0.1428253702
90299460.0 -0.8297796277 0.1337362746 7.79226e-05 -0.0001114108 -0.0002734379 1.87459e-05 0.8423455553 -0.1510719147
95299430.0 -0.8284504795 0.1434061742 6.15009e-05 0.000203522 -3.7718e-06 8.825e-06 0.8404700834 -0.1592432978
100299400.0 -0.8278850639 0.1532272461 3.83998e-05 -0.0002571898 -0.0003154793 -1.12568e-05 0.8391331532 -0.1674652199
105299370.0 -0.8266200986 0.1620231378 1.15091e-05 0.0001073911 2.88283e-05 -0.0001407691 0.837612655 -0.1755427924
110299340.0 -0.8252729667 0.170860642 5.96519e-05 -9.17291e-05 0.0001259078 -5.89251e-05 0.8353988685 -0.1836148148
115299310.0 -0.8237116272 0.1805492718 0.0001501484 -0.0001402281 8.5829e-06 3.57702e-05 0.8333804846 -0.1923919855
120299280.0 -0.8223384862 0.1892919284 -0.0002042932 0.0001107682 -8.25502e-05 0.0001057549 0.8311122084 -0.19975918
125299250.0 -0.8204900244 0.1984639794 -7.62737e-05 6.27954e-05 -0.0002238551 2.32518e-05 0.8294179596 -0.2083628107
130299220.0 -0.818540572 0.2076601739 -8.45569e-05 -0.0001295518 9.51335e-05 9.72159e-05 0.8274074403 -0.2162599659
135299190.0 -0.8165886562 0.2165934047 1.7968e-06 0.0001763354 -0.0002385097 -0.0002249897 0.8256247041 -0.224454675
140299160.0 -0.814851018 0.2258305739 -0.0002358737 0.0002214529 -5.2147e-05 -7.96004e-05 0.8234647567 -0.2324278917
145299130.0 -0.8122065232 0.2341322547 0.0001767682 5.74842e-05 -1.29906e-05 8.61831e-05 0.8207610568 -0.2410644068
150299100.0 -0.8096878613 0.2432292633 -0.0001596648 9.80466e-05 0.0001219327 -4.2553e-05 0.8182371178 -0.2482643386
155299070.0 -0.8078745099 0.2524561267 -0.0001853345 -3.66857e-05 -1.4187e-06 6.662e-05 0.8158384819 -0.2561507803
160299040.0 -0.8046450442 0.2612071315 -4.50797e-05 0.0001369947 -4.53863e-05 -9.46213e-05 0.8129421139 -0.264126384
165299010.0 -0.8019398504 0.2690991034 2.32442e-05 0.0001612188 -1.08954e-05 -0.0001366911 0.8113556202 -0.2724273363
170298980.0 -0.7992727032 0.2779431651 -9.344e-07 4.5592e-06 0.0001087418 -0.0001213392 0.8080571827 -0.2801995831
175298950.0 -0.7968318275 0.2872395099 5.5874e-05 -7.066e-07 4.11164e-05 -6.2945e-06 0.805013646 -0.288177643
180298920.0 -0.7940146908 0.2950772825 -1.86903e-05 -0.0001394715 -0.0001080345 -9.13091e-05 0.8022539653 -0.2960568042
185298890.0 -0.790620429 0.3040208572 4.85685e-05 -2.22755e-05 -4.67235e-05 0.0002317044 0.7992558551 -0.3043180236
190298860.0 -0.7878130158 0.3127251259 9.95726e-05 -5.03811e-05 -0.0001558481 2.3442e-05 0.7961385971 -0.3109315781
195298830.0 -0.7838344543 0.320627918 0.0001598292 -2.36183e-05 -6.12703e-05 -5.60445e-05 0.7932515201 -0.3194923512
200298800.0 -0.7809280299 0.3291629193 4.22235e-05 -0.0002139538 -6.38723e-05 3.35223e-05 0.7908950868 -0.3269709876
205298770.0 -0.7770673711 0.3370694032 -5.30125e-05 -0.0001917704 -4.7834e-06 -0.0001363299 0.7870672786 -0.334075378
210298740.0 -0.7739204568 0.3460287291 -0.0001339474 0.000151162 -6.3737e-05 2.69379e-05 0.7834623039 -0.3423057243
215298710.0 -0.7701590285 0.3540219948 -4.7614e-05 1.75113e-05 -0.0002283371 0.0001190294 0.7802117251 -0.3498523043
220298680.0 -0.767108455 0.3623240777 -8.44389e-05 -2.06586e-05 0.0001169062 -8.33199e-05 0.7766604575 -0.3570631709
225298650.0 -0.7629358815 0.3704998696 -9.73117e-05 -0.0001323175 -7.71909e-05 -0.0001759478 0.77284352 -0.3645349516
230298620.0 -0.7592445336 0.3786079447 -4.78567e-05 -0.0002595754 0.0001132877 3.28518e-05 0.7697211668 -0.3726956266
235298590.0 -0.7546853251 0.3869397873 -0.0001285508 -0.0001791913 -0.0001575931 9.00508e-05 0.766389075 -0.3795648051
240298560.0 -0.7512244222 0.3950023414 0.0001038179 0.0001219555 5.52068e-05 -4.62096e-05 0.7619330973 -0.3872516328
245298530.0 -0.7465617501 0.4028635885 2.2441e-05 0.0001583795 0.0001416083 0.0001317013 0.7587769028 -0.3945184985
250298500.0 -0.7423522359 0.4107549766 2.28071e-05 2.87477e-05 6.03702e-05 -1.82376e-05 0.7546741579 -0.4019298242
255298470.0 -0.7375158777 0.419111736 -6.65755e-05 -1.85029e-05 4.58222e-05 -0.0001118392 0.7512016596 -0.4090009118
260298440.0 -0.7334586477 0.4257585533 -9.05219e-05 0.0001066669 1.25585e-05 -8.92351e-05 0.7466941348 -0.4161017043
265298410.0 -0.7293197003 0.4339854003 -2.4153e-05 7.54648e-05 5.22313e-05 0.0001220051 0.7435754432 -0.4238700482
270298380.0 -0.7247770972 0.4412430074 5.4559e-05 0.0001080853 8.50203e-05 -0.0001170409 0.7395983047 -0.4301327917
275298350.0 -0.7195546792 0.4488495307 0.0001513784 -0.0001535496 -2.1978e-06 8.50509e-05 0.7353604336 -0.4371272529
280298320.0 -0.7149490763 0.4570153484 -5.99019e-05 0.0001516639 -9.66009e-05 7.57049e-05 0.7313970761 -0.4449343597
285298290.0 -0.710537455 0.4648940287 -2.32359e-05 -0.0001052983 -0.0001643474 -8.53719e-05 0.726407753 -0.4520212118
290298260.0 -0.7055818454 0.471319534 0.0001002772 -6.49755e-05 0.0002376045 -2.8525e-06 0.7226322612 -0.4591489474
295298230.0 -0.7004820236 0.4794034093 3.71621e-05 0.0001926201 6.39822e-05 0.000167519 0.7181869346 -0.4656173593
300298200.0 -0.6951012388 0.4863377005 -7.47538e-05 -0.0002744133 -6.23758e-05 0.0002196098 0.7137747694 -0.4732427921
305298170.0 -0.6900782676 0.4942992492 -0.0001864462 -7.55812e-05 -8.88231e-05 -6.39273e-05 0.709986699 -0.4796195461
310298140.0 -0.68440109 0.5010877096 -1.90822e-05 -0.0002169533 -0.0001383154 2.3592e-06 0.7059723309 -0.4868247153
315298110.0 -0.67930742 0.5078537225 -9.49152e-05 -6.84885e-05 8.32362e-05 2.6718e-05 0.7010095574 -0.4938522611
320298080.0 -0.6743291037 0.5155595515 -0.000132297 -2.0888e-06 4.06192e-05 0.000122409 0.6968880235 -0.5016154638
325298050.0 -0.6686262625 0.5223570069 9.00092e-05 -6.33332e-05 -0.0001616008 -5.65246e-05 0.6913344417 -0.5093554166
330298020.0 -0.6629007399 0.5296528773 -4.53681e-05 -0.0001908328 -0.0001197836 -9.36661e-05 0.6859893435 -0.5164778428
335297990.0 -0.6568165761 0.5362619619 8.41989e-05 6.73619e-05 0.0002549214 -6.7109e-06 0.6803616627 -0.5234737519
340297960.0 -0.6518715104 0.5431412099 -0.0001136617 -0.0002231635 -0.0001624277 8.1893e-05 0.6747077644 -0.5295428033
345297930.0 -0.6463329066 0.5490942182 -2.882e-05 -4.4653e-06 -0.0001188762 -4.61831e-05 0.6688049042 -0.5357635218
350297900.0 -0.6407766461 0.5562658586 6.0654e-06 -8.27064e-05 -6.6415e-06 2.96655e-05 0.663734944 -0.5413764845
355297870.0 -0.6340896696 0.5622226187 5.36834e-05 -0.0001815031 -0.0001242598 0.0001858068 0.6581777914 -0.5479199408
360297840.0 -0.6284204943 0.5690100878 -0.0001547597 -0.0001977076 7.37191e-05 1.54463e-05 0.6524644894 -0.5534725903
365297810.0 -0.6221716822 0.5755683835 0.0001139494 -8.0922e-05 -1.1217e-05 2.507e-07 0.6475233112 -0.5598660044
370297780.0 -0.6164582475 0.5816570026 -8.54782e-05 -5.07113e-05 -1.03189e-05 -0.0001343935 0.6413712566 -0.565989289
375297750.0 -0.6102959406 0.5878566001 0.0001163253 0.0001120087 -9.83502e-05 4.29495e-05 0.6356862682 -0.5720420811
380297720.0 -0.6041013903 0.5942285388 -4.94016e-05 0.0001812112 0.0001076369 -0.0001615333 0.6308990523 -0.5775509993
385297690.0 -0.5973941309 0.6009699662 -0.0001139936 0.0001709627 0.0001118673 5.00323e-05 0.6243188201 -0.5834337537
390297660.0 -0.5919136991 0.6072512837 1.34387e-05 -7.4687e-05 0.0001586962 1.03361e-05 0.6188508457 -0.589865522
395297630.0 -0.5853409313 0.6133620258 0.0001066399 2.5524e-05 0.0001266222 -7.25761e-05 0.6134955108 -0.5953201216
400297600.0 -0.5789337788 0.6192165775 -0.0002495138 0.0002423907 4.54696e-05 -6.96408e-05 0.6074847696 -0.6008231611
405297570.0 -0.572687445 0.6252340269 0.0001117541 -1.80051e-05 -0.0001749123 3.04681e-05 0.6017472439 -0.6068304647
410297540.0 -0.5658482882 0.6304121744 0.0001018637 -0.0001536299 0.0001110841 0.0002323038 0.5961066398 -0.6123262608
415297510.0 -0.5590712497 0.6367247955 -7.2223e-06 0.0001923224 6.22296e-05 -4.07785e-05 0.5895735468 -0.6178833201
420297480.0 -0.5518531528 0.6424877445 -8.28572e-05 5.47501e-05 -4.88152e-05 -0.0001857721 0.583417591 -0.6239073108
425297450.0 -0.5455400323 0.6481109315 8.99965e-05 -0.0002006299 -0.0001204558 0.0001818992 0.5778764036 -0.6286613892
430297420.0 -0.539467602 0.6532029057 0.0002765664 -4.90982e-05 8.41841e-05 -8.58637e-05 0.5716019112 -0.6348903768
435297390.0 -0.5319435346 0.6587011654 2.1028e-05 0.0001388909 6.0967e-06 -5.247e-06 0.5650264705 -0.640105375
440297360.0 -0.5251618588 0.664125797 -3.1222e-05 -0.0001211547 -0.0001424876 8.36936e-05 0.5586519087 -0.6458502566
445297330.0 -0.5183369065 0.6700905871 -0.0001519757 0.0001561915 -0.0001315339 -7.49423e-05 0.5525571435 -0.651327625
450297300.0 -0.5108397942 0.6743549291 4.78454e-05 8.20832e-05 0.000135542 -0.0001349419 0.5454828632 -0.6564429618
455297270.0 -0.5043607443 0.6799272622 -0.0001143045 -0.000179606 0.0001049173 0.0001581396 0.5392636938 -0.6618380378
460297240.0 -0.4976473696 0.6854942099 0.0001627835 -2.5662e-05 -0.0001952425 -0.0001030555 0.5333604618 -0.6664566133
465297210.0 -0.4901262497 0.6901171765 1.59126e-05 -0.0001503036 2.81832e-05 0.0001044889 0.5262734258 -0.6719322601
470297180.0 -0.4828625429 0.6946100813 -7.32048e-05 2.9011e-06 0.000136367 0.0002094963 0.5194271883 -0.6765363262
475297150.0 -0.4756015962 0.7004962283 5.1324e-06 -0.0001038674 2.73283e-05 0.000132784 0.5131358853 -0.6817718042
480297120.0 -0.4692384289 0.7045581021 0.0003097999 9.7292e-06 8.202e-06 -5.00766e-05 0.5058157368 -0.6869442155
485297090.0 -0.4614082609 0.7092611498 2.67753e-05 -0.0001014568 -3.12296e-05 9.89962e-05 0.499341406 -0.6920163797
490297060.0 -0.4542536453 0.7144023787 -2.58795e-05 3.6036e-05 -0.0001881615 -2.4654e-06 0.4925435087 -0.6964472742
495297030.0 -0.4475011483 0.7186183253 -4.01554e-05 2.73585e-05 -6.97256e-05 0.000112085 0.4857869152 -0.7011439736
500297000.0 -0.4387511435 0.723205832 -5.52063e-05 0.0001818571 4.44397e-05 6.25336e-05 0.4783609184 -0.7058946944
505296970.0 -0.431436666 0.72662055 -0.0003428648 8.33873e-05 -0.0001647051 -6.8334e-06 0.4711251308 -0.7109081196
510296940.0 -0.4242311272 0.7317352661 -0.0002019351 0.0001171795 -2.94782e-05 3.22198e-05 0.4633649957 -0.7145019659
515296910.0 -0.417065081 0.7362092424 -0.0001043857 -0.0001175876 -0.0001103294 -3.65062e-05 0.4562182033 -0.7186096648
520296880.0 -0.4092980535 0.7406857195 -0.0001381966 5.65213e-05 9.1858e-06 -3.40986e-05 0.4500125426 -0.7238499504
525296850.0 -0.4016581308 0.7441461361 -1.85083e-05 3.2784e-05 -0.0002022918 -1.68381e-05 0.4426683936 -0.7280176425
530296820.0 -0.3941221654 0.7480010238 -2.48482e-05 8.0353e-06 -0.0001688599 1.10249e-05 0.4353027205 -0.7322770488
535296790.0 -0.3863410464 0.7522299706 -0.0001483307 2.75813e-05 5.93417e-05 2.17812e-05 0.4280004317 -0.7376458625
540296760.0 -0.3786215219 0.7561674399 6.4991e-05 -3.92531e-05 -0.0001600271 -7.91247e-05 0.4199234664 -0.740623582
545296730.0 -0.371379363 0.7591619937 4.1627e-05 -7.47058e-05 0.0001007695 9.55532e-05 0.4133668358 -0.7455303223
550296700.0 -0.3633139961 0.76382877 -4.9126e-06 1.6718e-06 -0.0001212697 1.66801e-05 0.4060021242 -0.7488360508
555296670.0 -0.3549745725 0.7670028249 0.0001875081 -0.0001011881 -9.79746e-05 -6.81885e-05 0.3980301619 -0.7526691019
560296640.0 -0.3470863784 0.7705883432 7.15473e-05 -0.0001096918 7.09295e-05 4.27051e-05 0.3901811934 -0.7567343693
565296610.0 -0.3398433755 0.7742736862 -0.0001553292 3.89283e-05 -0.0001790064 -8.57382e-05 0.3831902813 -0.7603237968
570296580.0 -0.3320206772 0.7776248383 -0.0001789947 3.95862e-05 -9.933e-06 -1.60524e-05 0.3751965829 -0.7632896305
575296550.0 -0.3239155026 0.7808022435 -0.000170011 0.0002210902 -7.85084e-05 -0.0001883606 0.3675271494 -0.7673117341
580296520.0 -0.3155008899 0.7837716911 9.14941e-05 -5.87042e-05 4.92475e-05 -0.0002507518 0.359656707 -0.7705731222
585296490.0 -0.3076327263 0.7860623527 -0.0001146407 -0.0002701348 7.72625e-05 -0.0001439668 0.3519992045 -0.7750938198
590296460.0 -0.2998176717 0.7898140924 -0.0002620053 1.17544e-05 8.03882e-05 -2.777e-07 0.3442770856 -0.7774077129
595296430.0 -0.2910068735 0.7936158148 0.0002079749 -8.23669e-05 2.05801e-05 5.98365e-05 0.3362033225 -0.780784055
600296400.0 -0.2839865108 0.7960813133 -0.0001036513 3.7552e-05 -8.68978e-05 -3.20244e-05 0.3285754846 -0.7838035137
605296370.0 -0.2759138351 0.7983074737 -9.2295e-05 -0.0001433028 -3.94395e-05 2.3023e-05 0.3208085128 -0.7872609114
610296340.0 -0.2677161848 0.8013785071 4.30984e-05 8.48005e-05 0.0001286016 9.39794e-05 0.3124199686 -0.7898193491
615296310.0 -0.2595187493 0.8044429732 -6.99014e-05 -0.0002114346 -9.59588e-05 -2.62687e-05 0.305272928 -0.7934835527
620296280.0 -0.250717632 0.8059751223 9.76116e-05 0.000112911 0.0002462605 0.0001009647 0.2973140571 -0.796564387
625296250.0 -0.2432379771 0.8088061882 -7.87433e-05 4.61391e-05 -3.43537e-05 -2.04998e-05 0.289104813 -0.7985438524
630296220.0 -0.2342177709 0.8116587366 4.9112e-06 -2.1116e-06 -0.0002733809 -0.0001443082 0.2808818327 -0.8012197856
635296190.0 -0.2266003327 0.8139612428 -9.14174e-05 0.0001325883 0.0001091987 2.52461e-05 0.2730049891 -0.8035292943
640296160.0 -0.2183200906 0.8155987519 -8.5577e-06 -7.5849e-06 0.0002117105 0.000167427 0.2650055283 -0.8068570698
645296130.0 -0.2103647529 0.8178370069 7.22493e-05 0.0001517097 0.0002224162 3.00695e-05 0.2570677684 -0.8091887444
650296100.0 -0.2018660927 0.8207205237 -0.0001035432 5.077e-07 -1.63934e-05 -7.68423e-05 0.2484615285 -0.8111595999
655296070.0 -0.1932194885 0.8224086522 -0.0001860544 0.0001133891 0.0001714016 2.12737e-05 0.2401031271 -0.8135749004
660296040.0 -0.1854360035 0.8240770844 5.1166e-05 -2.41989e-05 -7.52432e-05 -2.93355e-05 0.2321230056 -0.8162955166
665296010.0 -0.1768152243 0.8258561648 2.22264e-05 0.0001725099 -0.0004174127 -1.29138e-05 0.2244843945 -0.8177062324
670295980.0 -0.1681266012 0.827555423 3.86513e-05 -4.95873e-05 -0.000185165 0.000117532 0.216173453 -0.8196798036
675295950.0 -0.1600136238 0.8287528354 -0.0001334793 8.10743e-05 4.6351e-06 -3.40319e-05 0.2080714393 -0.8222268907
680295920.0 -0.1520092882 0.8308288602 3.28092e-05 0.0001724837 0.0001398515 0.0001127311 0.2000438179 -0.824382745
685295890.0 -0.1429648523 0.8317719829 3.9251e-06 3.68413e-05 -6.8122e-05 0.0001964232 0.1917217168 -0.8257490265
690295860.0 -0.1345987264 0.8336638563 0.000102925 -0.0003025603 5.1964e-06 0.0001373199 0.1838565244 -0.8274207509
695295830.0 -0.1261146793 0.8340596671 -0.0001574825 -6.54967e-05 6.69705e-05 8.98821e-05 0.1746891387 -0.8292566945
700295800.0 -0.1178387049 0.8357222656 -0.0001181464 -8.46935e-05 8.02772e-05 -0.0001424813 0.1665003043 -0.8307639646
705295770.0 -0.1091550655 0.83749971 8.4731e-06 0.0001888934 3.73108e-05 0.0001392774 0.1582874857 -0.8315267121
710295740.0 -0.1012417868 0.8383471558 0.0002100746 -0.0001700513 1.39244e-05 -1.16828e-05 0.1499761889 -0.8331075398
715295710.0 -0.0932557713 0.8391913319 4.05879e-05 0.0001810601 0.0001991917 1.89914e-05 0.1414903086 -0.8346166478
720295680.0 -0.0844118621 0.8391669189 -8.73051e-05 -6.25672e-05 0.0002130521 -7.93372e-05 0.1336869527 -0.8357141804
725295650.0 -0.0751878073 0.8409962536 2.00265e-05 -1.8e-05 4.52049e-05 1.19011e-05 0.1256447194 -0.8367647401
730295620.0 -0.0672116279 0.8414774171 0.0001576413 -7.59682e-05 -0.0002017436 4.42961e-05 0.1165263458 -0.8383412281
735295590.0 -0.0582229612 0.8418312383 0.0002125424 -3.80703e-05 0.000300581 -4.1466e-06 0.1083320956 -0.8389045123
740295560.0 -0.0501781926 0.843147215 9.926e-06 -0.0001953821 -9.36482e-05 0.0001081841 0.0997787373 -0.8402976443
745295530.0 -0.0421172739 0.8424978079 -0.0001835527 8.8114e-05 1.38319e-05 -2.79569e-05 0.0909817725 -0.84036356
750295500.0 -0.0339906126 0.8424679938 -3.54455e-05 8.7533e-05 0.0002166556 -2.0609e-06 0.0832973667 -0.8420261716
755295470.0 -0.0245201155 0.8437462983 -0.000229765 -1.33725e-05 0.0001272683 1.5254e-05 0.0744536745 -0.8418123281
760295440.0 -0.0161042535 0.8435519261 -1.79091e-05 -5.61175e-05 0.0002422863 0.000123724 0.0657199716 -0.843179769
765295410.0 -0.0082956212 0.8434949156 0.0001766501 -9.25262e-05 -4.5389e-05 -0.000109728 0.0583631437 -0.8430440898
770295380.0 0.0005427778 0.8441261568 7.5513e-05 -0.0001279288 2.7708e-05 -4.46623e-05 0.0500324423 -0.843673699
775295350.0 0.0087993286 0.8441449209 0.0001323082 6.39656e-05 0.0003149193 7.6555e-06 0.0415448559 -0.8445326192
780295320.0 0.0174830922 0.8432169796 0.0001462123 0.0002191487 -3.78456e-05 6.67146e-05 0.0328961237 -0.8436994344
785295290.0 0.0261377336 0.8435103614 -0.0001887928 -0.0002347512 -0.0001261345 0.000245514 0.02429497 -0.8439327954
790295260.0 0.0339376661 0.843113992 3.39787e-05 1.37448e-05 5.59569e-05 0.0002548147 0.0162334925 -0.8441618836
795295230.0 0.0420659818 0.843408803 -3.9821e-05 -3.813e-07 3.66865e-05 1.65122e-05 0.0071118187 -0.8439342481
800295200.0 0.0509662249 0.8427362064 5.47778e-05 1.63868e-05 -0.0001767653 -5.48836e-05 -0.0011665204 -0.8443177151
805295170.0 0.0594910725 0.8419486763 0.0001173691 -8.8484e-05 -3.6576e-06 2.98203e-05 -0.0097199691 -0.8438467238
810295140.0 0.0680381048 0.8415672629 0.0001127184 2.34281e-05 -8.34364e-05 0.0001065905 -0.0177079445 -0.843413625
815295110.0 0.0768251515 0.8403600639 0.0001151499 6.6468e-06 0.0001249762 7.00898e-05 -0.0272587822 -0.8432805708
820295080.0 0.0850262811 0.8392980229 7.28933e-05 -2.13958e-05 8.08689e-05 -0.0002025175 -0.0350857677 -0.8427184619
825295050.0 0.0936230605 0.8385697473 0.0002288936 7.73959e-05 9.25933e-05 0.000131885 -0.04286187 -0.8420165118
830295020.0 0.1015411832 0.8379103446 -0.0001120805 -9.96945e-05 -4.15746e-05 -0.0002102216 -0.052138494 -0.8419967212
835294990.0 0.109905506 0.8363646769 -1.72498e-05 3.49475e-05 0.0001409885 -3.12218e-05 -0.0603979328 -0.8411786857
840294960.0 0.1185930323 0.8350310784 4.72798e-05 -0.0001846821 0.0001374433 -0.0001117677 -0.0691888181 -0.8394556067
845294930.0 0.1263135154 0.8344348088 -0.000130931 0.0001727411 1.2128e-05 -9.0266e-06 -0.0770342516 -0.8388002319
850294900.0 0.1347581388 0.8328313084 -5.57849e-05 0.000140959 0.0001963767 6.98099e-05 -0.0853377728 -0.8378775251
