!Created with skrf (http://scikit-rf.org).
# Hz S RI R 50.0 
!freq ReS11 ImS11 ReS21 ImS21 ReS12 ImS12 ReS22 ImS22
300000.0 -0.2115803595 -0.1017182307 -0.0009159241 -0.0001012842 0.0009348056 0.0003204868 -0.758719955 -0.1916983899
5299970.0 -0.2151655748 0.0068091231 0.0002017409 -1.21928e-05 -0.0001035291 0.0001539924 -0.7847465964 -0.009602994
10299940.0 -0.2117672913 0.0203706713 0.0001013035 8.9778e-05 -3.32347e-05 -2.04067e-05 -0.7874874671 -0.0054831392
15299910.0 -0.2061712009 0.0302100307 -6.2844e-06 6.50558e-05 -0.0001185007 -3.34046e-05 -0.7926071592 -0.002822701
20299880.0 -0.2007249782 0.0382685556 9.08223e-05 -4.4063e-06 0.0001008859 0.0001675668 -0.799272267 0.001538794
25299850.0 -0.1939817884 0.0447446177 -4.0147e-05 -0.0001684366 3.51851e-05 -9.34086e-05 -0.805873 0.0078327749
30299820.0 -0.1879251922 0.049677854 -4.65303e-05 -0.0002119569 3.54039e-05 7.20236e-05 -0.8117695714 0.0154728169
35299790.0 -0.1813037409 0.0532712811 2.52169e-05 0.0002673444 -0.0001857053 -6.05112e-05 -0.8168289962 0.0242944829
40299760.0 -0.1754077364 0.0562222147 -8.74486e-05 -9.88248e-05 0.0001577288 9.22804e-05 -0.8213338149 0.0339138083
45299730.0 -0.1696302594 0.0581245186 7.37661e-05 -9.69904e-05 2.62823e-05 -0.0001667132 -0.8239826383 0.0434276752
50299700.0 -0.1643385455 0.0596406588 1.44971e-05 -0.0001084178 -5.15795e-05 0.0001413407 -0.8267597735 0.0536893561
55299670.0 -0.1596226155 0.0605236252 3.77947e-05 -5.00431e-05 -0.000121353 -0.0001337586 -0.8284844704 0.064114023
60299640.0 -0.1551392213 0.0609569665 2.36029e-05 0.0001344469 0.0002449465 -0.0002272619 -0.8297701596 0.0740531134
65299610.0 -0.1510972519 0.0613913729 0.000247029 1.68073e-05 0.0001299641 -7.18331e-05 -0.8302469252 0.0839406944
70299580.0 -0.1478787358 0.0615594397 3.26208e-05 3.5835e-06 -0.0001902139 0.0002364517 -0.8307274182 0.0933765648
75299550.0 -0.1444301979 0.0612991771 -6.2418e-05 -5.37266e-05 2.43974e-05 -2.321e-06 -0.8305291472 0.1041118058
80299520.0 -0.1418419301 0.0614064072 -0.0001158918 -0.0001010255 6.316e-07 0.0001418994 -0.830697042 0.1141122519
85299490.0 -0.1387421742 0.0609985065 3.72738e-05 1.34757e-05 3.69374e-05 4.34213e-05 -0.8301147954 0.1232480049
90299460.0 -0.1362584443 0.060902006 0.0003157072 -2.11892e-05 1.61618e-05 3.90077e-05 -0.8285596918 0.1326313978
95299430.0 -0.1342153707 0.0607825487 -6.41974e-05 8.58637e-05 0.0001700583 0.0001267377 -0.8281199095 0.1423927839
100299400.0 -0.1321631358 0.0606454671 0.0002041663 5.3228e-05 -2.46794e-05 -0.000125499 -0.8271530759 0.1521196709
105299370.0 -0.1304864134 0.0601417469 0.0001025938 6.29332e-05 3.42427e-05 -7.07601e-05 -0.8256500667 0.1612058071
110299340.0 -0.1288650811 0.0602841629 -2.62772e-05 0.0001360491 -1.44942e-05 0.0001448564 -0.8241517101 0.1697640479
115299310.0 -0.1277516619 0.0601102939 -0.0002066137 0.0001029586 3.03535e-05 8.63468e-05 -0.822810201 0.1793102328
120299280.0 -0.1259477515 0.0600615442 7.7686e-05 4.53064e-05 0.0001083652 -3.95542e-05 -0.8208948493 0.1875912738
125299250.0 -0.1250194666 0.0599418844 -1.07609e-05 0.0001002076 7.3452e-06 -8.2085e-06 -0.8195991217 0.1971703925
130299220.0 -0.1239047303 0.0597820151 0.0001800578 4.45814e-05 0.0001599586 1.5056e-06 -0.817588269 0.2060509376
135299190.0 -0.1226311208 0.060094144 0.0001527187 0.0002190597 1.11911e-05 9.01148e-05 -0.8161396843 0.2152054923
140299160.0 -0.1217588934 0.0599112969 5.55396e-05 0.0001699274 -0.0002581787 1.74299e-05 -0.8137062081 0.223606252
145299130.0 -0.1208659606 0.0604599878 -0.0002305693 0.0001105331 3.04471e-05 0.0002644876 -0.8119368392 0.2327751515
150299100.0 -0.120011362 0.060635501 -1.86607e-05 0.0001737454 0.0001242063 1.78143e-05 -0.8095263407 0.241300043
155299070.0 -0.1194436658 0.0612220037 6.3709e-05 -0.0001688359 0.0001329617 0.0001652004 -0.8068991556 0.2504661602
160299040.0 -0.1190198184 0.06162467 -4.6603e-06 0.0002180334 -3.05004e-05 8.56806e-05 -0.804554806 0.2589858922
165299010.0 -0.1180413781 0.0619806039 8.89822e-05 0.0002852917 5.50656e-05 -0.0001081025 -0.8015684103 0.2674053775
170298980.0 -0.1172108852 0.0622177521 0.0001016344 -2.0998e-05 -0.0001446453 -0.0001989483 -0.7996856846 0.2755001984
175298950.0 -0.1168683435 0.0626375747 -0.0002247094 1.71548e-05 6.3576e-05 0.0001647593 -0.7964229209 0.2850400705
180298920.0 -0.1163400858 0.0632411466 0.000173051 -0.0001168874 6.33821e-05 -9.64235e-05 -0.7931741834 0.2931424601
185298890.0 -0.1157546025 0.0635799162 4.5538e-05 0.000149119 -3.32189e-05 9.49896e-05 -0.7905966672 0.3017476255
190298860.0 -0.1150527132 0.0646749972 -7.72079e-05 0.0002621011 0.0001151708 0.0001510594 -0.7869709783 0.3099159007
195298830.0 -0.1145626944 0.0652731978 0.0001957768 0.0002078138 2.37493e-05 0.0001877488 -0.7842705393 0.3181749461
200298800.0 -0.1138847798 0.0655850248 0.0001079847 -3.57106e-05 0.0002337115 -0.0001266586 -0.7806382831 0.3268152207
205298770.0 -0.1138148224 0.0664864496 0.0001392969 -7.99501e-05 0.000215665 5.93717e-05 -0.7776170916 0.33469802
210298740.0 -0.1129602308 0.0670557365 0.0003178734 7.70474e-05 4.46798e-05 -1.36618e-05 -0.7740984613 0.3431250294
215298710.0 -0.1128374888 0.0677946086 0.000210944 6.84935e-05 6.6483e-05 -0.0001288009 -0.7700797224 0.351185427
220298680.0 -0.1119378796 0.0684365639 -3.04181e-05 6.04241e-05 4.10249e-05 -3.55115e-05 -0.7668379934 0.35930517
225298650.0 -0.1114186545 0.069426592 -7.90115e-05 -2.553e-05 -2.16027e-05 -0.0001321037 -0.7633478923 0.3673048171
230298620.0 -0.1112928973 0.0702624173 0.0001581359 0.0003059362 8.4362e-06 9.2058e-06 -0.7591800542 0.37551672
235298590.0 -0.1108276947 0.0712162889 0.0001429517 3.08837e-05 -2.05189e-05 0.000144379 -0.7547357242 0.3832342848
240298560.0 -0.11044651 0.0719394007 -0.0001771464 0.0001463446 -7.3967e-05 0.0001823633 -0.7508674141 0.3905401943
245298530.0 -0.1098874281 0.0727299201 0.0001454337 0.0002698292 -6.29894e-05 0.0001086044 -0.7470484405 0.3988130469
250298500.0 -0.1095035214 0.0736521352 0.0002797457 0.0001527024 8.99621e-05 -0.0001140306 -0.7423169307 0.4068879042
255298470.0 -0.1089181913 0.0749359194 0.0002108164 -0.0002527242 4.21509e-05 5.78308e-05 -0.7385886312 0.4147126565
260298440.0 -0.1083288804 0.0755034651 -5.00046e-05 -0.0001313027 0.0001796439 -9.53822e-05 -0.7338771872 0.4217013371
265298410.0 -0.1079087008 0.0765137469 1.41421e-05 7.60187e-05 0.0001236296 5.04704e-05 -0.7299512245 0.4300242657
270298380.0 -0.107513491 0.0771640343 2.50495e-05 0.000104301 4.29236e-05 -0.0001021335 -0.7252846814 0.4381011481
275298350.0 -0.107293848 0.0784533889 7.6956e-06 -5.72533e-05 -3.94421e-05 -0.0001177814 -0.7205648057 0.445548277
280298320.0 -0.1064714812 0.0791770528 0.0001300575 8.2381e-05 -8.21149e-05 8.1009e-05 -0.7163408526 0.4529835397
285298290.0 -0.1063831776 0.0802755793 -7.01965e-05 0.0001005362 -6.65975e-05 -0.0001727116 -0.7120877318 0.460649646
290298260.0 -0.1054220964 0.0813645796 0.0001857474 1.48603e-05 0.0001559635 0.0001463708 -0.7062468131 0.4676650229
295298230.0 -0.1052390396 0.0820926608 -4.36012e-05 8.01121e-05 1.89027e-05 0.0001682713 -0.701533017 0.4747848696
300298200.0 -0.1048431953 0.0832007794 0.0001167111 2.00619e-05 -0.0001387419 -3.94175e-05 -0.6963565887 0.4824636923
305298170.0 -0.1041017453 0.0840848704 -5.74861e-05 8.41598e-05 -2.77388e-05 0.0003208075 -0.6912522977 0.4891378221
310298140.0 -0.1034283587 0.0845764526 2.36694e-05 0.0001275441 9.93614e-05 0.0001915413 -0.6861730597 0.4966910638
315298110.0 -0.1031982964 0.0855147194 3.70983e-05 0.0001980976 -3.59879e-05 0.0001049981 -0.6809395705 0.5042247612
320298080.0 -0.1025020453 0.0863744358 0.0001414487 1.0378e-06 0.0002159667 6.8688e-05 -0.6761455313 0.5103112332
325298050.0 -0.1024265802 0.0871334749 0.0001476118 -0.0002059287 0.0002396465 0.0001529564 -0.669812416 0.5176227718
330298020.0 -0.1018400655 0.0882933239 0.0002194976 -4.19741e-05 0.0001728073 0.0002926539 -0.6651221961 0.5241718205
335297990.0 -0.1015705283 0.0894335308 0.000218268 -3.11541e-05 4.63092e-05 0.0002790355 -0.6592728876 0.5314771738
340297960.0 -0.1010327331 0.0904250104 4.25025e-05 -1.8245e-05 1.61093e-05 -0.0001333704 -0.6543678672 0.5383912952
345297930.0 -0.1003443947 0.0915031006 -4.15233e-05 8.05836e-05 0.000279166 0.0002778319 -0.648446847 0.5444332651
350297900.0 -0.0998480921 0.0924194843 0.0002018218 0.0001310374 0.0002371136 6.52821e-05 -0.642690648 0.5511176353
355297870.0 -0.0993455886 0.0934231128 0.0001885546 6.48716e-05 0.0002444831 0.0001053624 -0.6367911516 0.5584217601
360297840.0 -0.0987524987 0.0946424292 -8.17953e-05 0.0001360682 -6.8774e-06 2.21025e-05 -0.6303455382 0.5645524353
365297810.0 -0.0976864926 0.0953584046 -4.34067e-05 1.96416e-05 0.0003129122 0.0001025669 -0.6257818447 0.5702232405
370297780.0 -0.0974034602 0.0962890518 -0.0001501409 -3.0859e-05 0.0001141991 0.0002608602 -0.6191304149 0.5774342616
375297750.0 -0.0968509341 0.0975528394 0.0003271388 8.53695e-05 0.0003582853 7.15999e-05 -0.6134243559 0.584284695
380297720.0 -0.0961076576 0.0985659891 0.0002792736 0.0002716962 1.93567e-05 0.0002657585 -0.6069188044 0.5903025899
385297690.0 -0.0952094453 0.0994784221 1.84e-06 8.23466e-05 3.73999e-05 0.0002375927 -0.6010897827 0.5966412027
390297660.0 -0.094334351 0.1001550893 8.04058e-05 -2.64763e-05 4.33201e-05 9.28718e-05 -0.5944866295 0.601500839
395297630.0 -0.0938376525 0.1014133115 0.0001733742 6.32559e-05 0.0001622675 0.0001964873 -0.5884459497 0.607619963
400297600.0 -0.0936162682 0.1024748404 9.85131e-05 0.0002705686 0.0001796313 0.0002556734 -0.5824697148 0.6139487235
405297570.0 -0.0925879739 0.1030253947 0.0001019672 0.0002745935 1.3395e-06 5.09924e-05 -0.5749728916 0.6205430522
410297540.0 -0.0912463673 0.1041486288 6.6411e-05 -7.34438e-05 -3.3113e-06 0.0002370808 -0.5689159985 0.6264806775
415297510.0 -0.0908192786 0.105063344 2.96289e-05 0.0001746172 1.02616e-05 9.06451e-05 -0.5629118317 0.631752152
420297480.0 -0.0901200157 0.1056933084 0.0003159194 -5.377e-06 0.0002234731 4.74634e-05 -0.5561366284 0.6382761235
425297450.0 -0.0890591842 0.1068865038 0.000427705 4.3232e-05 7.7376e-05 1.94323e-05 -0.5492807267 0.6430262657
430297420.0 -0.0883325098 0.107787871 0.0002480843 0.0001154205 0.0002874171 0.0002453672 -0.5424618251 0.6482671782
435297390.0 -0.0875197617 0.108447957 0.0001535266 -1.06944e-05 7.13083e-05 4.78965e-05 -0.5361368388 0.654053582
440297360.0 -0.086279194 0.1095018594 0.0003039028 4.20739e-05 3.19236e-05 -2.52197e-05 -0.5299348012 0.6593897828
445297330.0 -0.0855181846 0.1104326288 -2.31966e-05 -0.0001030236 2.51007e-05 -1.34612e-05 -0.5228861758 0.664796565
450297300.0 -0.0846199449 0.1112501754 9.99745e-05 0.0001240389 0.0001807633 0.0002346498 -0.5158931553 0.6697517193
455297270.0 -0.0840557397 0.1121332365 0.0002957575 -2.67183e-05 6.35019e-05 1.9093e-05 -0.5089158996 0.6750717588
460297240.0 -0.0828175342 0.1131285714 7.43552e-05 -4.89248e-05 7.44308e-05 0.0001068169 -0.5020952786 0.680035714
465297210.0 -0.0817059762 0.1140631103 9.8126e-05 -0.0001811422 0.0001899664 0.0001968884 -0.4952735061 0.6859826009
470297180.0 -0.0807591634 0.1148958146 0.0002933373 0.0001544107 0.0002094138 0.0001146776 -0.4877299307 0.6904802898
475297150.0 -0.0798454588 0.1158378734 0.000269239 0.0001511301 0.000364004 8.04058e-05 -0.4813435963 0.6958272309
480297120.0 -0.0785939202 0.1167297171 7.90362e-05 4.03037e-05 0.0002115618 2.42914e-05 -0.4745773681 0.6999270643
485297090.0 -0.0775642948 0.1175116686 0.000144809 6.46616e-05 -3.69431e-05 7.51366e-05 -0.4667649314 0.7047214605
490297060.0 -0.076028536 0.1183811086 0.0001935172 0.0001009508 0.0001727442 3.10856e-05 -0.4594036755 0.7088348814
495297030.0 -0.0754291055 0.1190358487 0.0002469895 -5.08229e-05 0.0001374683 9.46495e-05 -0.4521854096 0.7137814432
500297000.0 -0.0743751036 0.1200047483 0.0002076379 -8.38935e-05 0.0002014186 7.42634e-05 -0.445302564 0.7185248483
505296970.0 -0.0729409155 0.1206932972 0.00040853 0.0002596191 0.0002183777 0.0001608165 -0.4374471021 0.7224237872
510296940.0 -0.071867976 0.1217938495 0.0002824912 0.000218896 0.0002176654 4.69756e-05 -0.4301891634 0.7275571403
515296910.0 -0.0706094331 0.1226036613 0.0001452943 -0.00013259 9.1088e-05 5.33646e-05 -0.4229685991 0.731001813
520296880.0 -0.0694287215 0.1232058151 0.0001508412 8.49316e-05 0.0001783424 -1.23696e-05 -0.4150887717 0.7356327249
525296850.0 -0.0686811541 0.1238818594 5.70531e-05 -6.1155e-05 0.0001572652 -3.71169e-05 -0.4077588318 0.7400968774
530296820.0 -0.0674392848 0.1250313451 0.0002794634 4.3607e-06 0.000408875 0.0001488361 -0.4009000704 0.743721522
535296790.0 -0.0657712335 0.1257033462 0.0002082755 0.0001039742 0.0001471801 -2.39874e-05 -0.3928503517 0.7477246727
540296760.0 -0.0644237797 0.1265380784 -1.03653e-05 -7.0349e-06 0.00025844 2.05413e-05 -0.3853135938 0.7515683946
545296730.0 -0.0636523948 0.1277846556 0.0002255954 0.0001380858 0.0001274955 9.84025e-05 -0.3779056324 0.7554074057
550296700.0 -0.0621143892 0.1281522373 0.0002155862 -0.0001629216 5.39084e-05 7.27131e-05 -0.3700150743 0.7592559507
555296670.0 -0.0610046192 0.1289727522 0.0001425179 7.2827e-06 0.00027924 0.0001000869 -0.3627415287 0.7622559127
560296640.0 -0.0595830302 0.129696138 4.2443e-06 -4.37046e-05 0.0002154106 0.0001129361 -0.3545568264 0.7668746602
565296610.0 -0.0587024428 0.1307226811 8.8163e-05 8.63644e-05 0.0001406615 2.99127e-05 -0.3464345541 0.7700360922
570296580.0 -0.0571310372 0.1316938652 0.0001846935 5.47446e-05 0.0001122192 4.069e-05 -0.3393255086 0.7733338379
575296550.0 -0.0558554864 0.1323086667 0.0002080621 -1.36002e-05 0.0002129294 -4.85543e-05 -0.3310185755 0.7763505449
580296520.0 -0.0546299402 0.1334677009 0.0001951657 3.05949e-05 0.0002738131 -9.29656e-05 -0.3235598658 0.7795391156
585296490.0 -0.0531468945 0.1339176947 -0.0001049198 -3.62255e-05 0.0003291911 5.49823e-05 -0.3152272933 0.7834501807
590296460.0 -0.0518265187 0.1344507354 0.0001831514 1.91482e-05 0.0002324278 2.1135e-06 -0.3074709655 0.7858598193
595296430.0 -0.0505966 0.1352960445 0.0003018377 0.0001218195 0.0001997161 2.42029e-05 -0.2997344223 0.7890099716
600296400.0 -0.0492248297 0.1358554348 0.0002024105 -0.0001035802 0.0002628066 -3.89275e-05 -0.2918170822 0.7918681435
605296370.0 -0.0481016213 0.1371272913 0.0001279885 1.45069e-05 5.72058e-05 -3.09324e-05 -0.2834532886 0.7948487391
610296340.0 -0.0465272281 0.1376400315 -1.17818e-05 4.88319e-05 0.0001119953 0.0001248609 -0.2760872978 0.7977442698
615296310.0 -0.0452426154 0.1383012438 0.0001800193 -1.07164e-05 0.0002117635 -9.15103e-05 -0.2674309187 0.8004137104
620296280.0 -0.0439026566 0.1394731887 0.0001054638 -2.68522e-05 0.0001999671 -4.52689e-05 -0.2600706704 0.8031011646
625296250.0 -0.0428266993 0.1398926096 0.0002048712 0.0001448133 0.0003669099 3.05645e-05 -0.2513513553 0.8052447523
630296220.0 -0.0413952274 0.1407561325 3.60665e-05 -6.66322e-05 0.0002304559 -0.0001175189 -0.2433669501 0.8082079835
635296190.0 -0.0402084309 0.1413999774 0.0002299179 1.3552e-05 0.0003208801 0.0002057829 -0.2354565112 0.8099978514
640296160.0 -0.0384447715 0.1422445159 0.0001784387 0.0001384218 0.0002484865 -6.48684e-05 -0.2271444107 0.8126966042
645296130.0 -0.0370780785 0.1429823766 0.0001472094 -0.0001510633 0.0001284943 6.12525e-05 -0.2191445352 0.8141920177
650296100.0 -0.0359119778 0.1435007288 0.0002217272 -9.74128e-05 0.0001106052 0.0001415767 -0.2106436341 0.8167768176
655296070.0 -0.0346825492 0.1440833101 0.0001132585 3.55542e-05 0.0001340674 1.4244e-06 -0.2029494384 0.8187536531
660296040.0 -0.0330861544 0.1448171965 0.0002024091 5.95945e-05 0.0002374956 -3.07109e-05 -0.1944939245 0.8208777534
665296010.0 -0.0320781452 0.1455800684 0.000288767 1.0599e-05 0.000333434 -0.0001316737 -0.1858392963 0.8224315155
670295980.0 -0.0307131187 0.1461092083 0.0002240257 -3.48926e-05 0.0001356614 -6.75047e-05 -0.1785384037 0.8241382712
675295950.0 -0.0292231941 0.1467955363 0.0002902237 -2.8009e-06 0.0001792163 0.0001936426 -0.169435954 0.8265404809
680295920.0 -0.0280376816 0.1475698499 0.000184339 0.0001677539 0.0002369755 2.36213e-05 -0.1612508282 0.8280263509
685295890.0 -0.0263848094 0.1481852401 0.000185518 2.00054e-05 0.0002166826 2.3193e-06 -0.1529571399 0.8297130861
690295860.0 -0.0251594158 0.1484643763 0.0002297817 -2.11408e-05 0.0002698924 7.48083e-05 -0.1451539631 0.8310745575
695295830.0 -0.0237155512 0.1491727943 0.0002484928 1.93604e-05 0.000258813 -0.0001371145 -0.13704874 0.8332927159
700295800.0 -0.0224250679 0.1497102635 0.000296348 0.000111265 0.0001546316 7.91186e-05 -0.1284148497 0.8330808247
705295770.0 -0.0212857279 0.150148207 0.0004409056 -9.1929e-06 0.0001926208 0.0001790758 -0.1200014028 0.835514659
710295740.0 -0.0198047011 0.1507919253 0.000113608 0.0001197744 0.0004960353 3.69599e-05 -0.111468902 0.8358099103
715295710.0 -0.0182039875 0.151206179 4.36714e-05 -0.0003185948 0.0001719371 -7.74864e-05 -0.1031094149 0.8364468859
720295680.0 -0.0170220815 0.1514829575 0.0001541714 2.50804e-05 0.0002991996 -6.67547e-05 -0.0945798282 0.8378028585
725295650.0 -0.0157717596 0.1523043102 0.0002638026 -9.48188e-05 0.0002308411 0.0001107289 -0.0867772277 0.8391097887
730295620.0 -0.0148052113 0.152809005 3.78917e-05 -0.0001090103 0.0002896686 -5.13129e-05 -0.0784860936 0.840249124
735295590.0 -0.0131142472 0.1534467685 0.0001690409 -0.000103151 0.0001238768 5.53424e-05 -0.0694247087 0.8406507944
740295560.0 -0.0121366701 0.1536456278 3.11646e-05 -0.0001029023 0.0001636497 8.45145e-05 -0.0611222447 0.8412704203
745295530.0 -0.0105631573 0.1540825221 0.0002250651 9.45127e-05 0.0002417965 -4.95815e-05 -0.0533452658 0.8415518821
750295500.0 -0.0092805078 0.1547792901 0.0001531974 9.6742e-05 0.0001568853 -8.9365e-05 -0.0447473439 0.8423628045
755295470.0 -0.0076567798 0.1550070133 0.0002503901 -4.0706e-06 0.0002261349 2.66072e-05 -0.0366355344 0.8426967903
760295440.0 -0.0064604404 0.1555386168 8.611e-05 -0.0002028046 0.0003098258 -0.0001271238 -0.0278042202 0.8423853604
765295410.0 -0.0051409617 0.1555693217 6.83942e-05 -2.91945e-05 0.0001955709 -1.40783e-05 -0.0196049603 0.8432231767
770295380.0 -0.0039041378 0.1560727968 0.0001487156 7.34193e-05 0.0002578476 9.88672e-05 -0.0112677814 0.8431423924
775295350.0 -0.0025530079 0.1563818575 0.0002154346 5.87447e-05 0.0002271265 -0.0001441484 -0.0028310673 0.843012415
780295320.0 -0.0010356909 0.1564193045 -1.72521e-05 -8.10144e-05 0.0002882236 -3.25221e-05 0.0054186674 0.8434707975
785295290.0 9.5809e-05 0.1566539567 0.0002295063 4.88337e-05 0.0003281968 0.0001609962 0.0137516887 0.8433608149
790295260.0 0.0015188142 0.1569081741 0.0002315777 2.22015e-05 8.03893e-05 -0.0002133197 0.0221265349 0.8431977074
795295230.0 0.0028750297 0.1572264879 0.0002434175 -0.0002133083 0.0003758373 6.19188e-05 0.0301619383 0.8419661851
800295200.0 0.004197068 0.1574901771 0.0001898426 -0.0001116835 0.0001433835 -0.0001018964 0.0381155436 0.8422572791
805295170.0 0.0052575581 0.1578982262 0.0002998874 8.80222e-05 0.0001658479 2.56664e-05 0.0475131965 0.8419142482
810295140.0 0.0069242148 0.1580246805 0.0001590188 -0.0002130508 0.0002207594 -1.614e-07 0.055701828 0.8411181586
815295110.0 0.0082184775 0.1581234733 0.0003116354 -9.83286e-05 0.000208441 -0.0001284562 0.0633601034 0.840806673
820295080.0 0.0095491506 0.1583138945 0.0003314757 -5.215e-05 0.000141901 -7.85367e-05 0.0714551532 0.840243214
825295050.0 0.0108478041 0.1584636339 0.0003383859 -6.41097e-05 0.0003920077 -0.0001539631 0.0803471856 0.8392854489
830295020.0 0.0123967372 0.1585318335 0.0002654231 -0.0001842298 0.0002752741 -0.0002349154 0.0878888033 0.8379649271
835294990.0 0.0136531688 0.1583637434 0.0001721187 0.0001030476 0.0001709759 0.0001491728 0.0966805507 0.8376727093
840294960.0 0.0150524639 0.1585051513 0.0002536843 -0.0002549838 0.0002792223 -2.98696e-05 0.105812274 0.8367155578
845294930.0 0.0165978273 0.1586649278 0.0002399673 -2.41771e-05 0.0003567897 -1.5486e-06 0.1139829871 0.8355831139
850294900.0 0.0180636453 0.1585054448 0.0004882146 1.71145e-05 0.0003159612 -3.467e-05 0.1217891762 0.8344139395
