!Created with skrf (http://scikit-rf.org).
# Hz S RI R 50.0 
!freq ReS11 ImS11 ReS21 ImS21 ReS12 ImS12 ReS22 ImS22
300000.0 -0.1004487185 -0.0701974988 0.629890359 0.06580418 0.6231726856 0.0661787258 -0.0995643127 -0.0771055438
5299970.0 -0.1020656352 0.0131219916 0.6305316906 0.0098147745 0.6305300276 0.0103642033 -0.1007610576 0.0128894417
10299940.0 -0.0970661933 0.0292302356 0.6339857041 0.0151902347 0.6340896264 0.0153899455 -0.0955814584 0.0303752915
15299910.0 -0.0898483596 0.0424395353 0.6403049974 0.0203904836 0.6405743844 0.0204310433 -0.0885128113 0.0434859287
20299880.0 -0.0816665583 0.0532340391 0.6486845316 0.0240935176 0.6482153019 0.023807386 -0.0796588833 0.0542940423
25299850.0 -0.0723681969 0.0623075819 0.6575986737 0.0250540191 0.6574030432 0.0253179027 -0.06948713 0.0633304811
30299820.0 -0.0621450785 0.0687142714 0.6671861122 0.0244796634 0.6671536024 0.024131042 -0.0596029427 0.0699317692
35299790.0 -0.0524987587 0.0738293312 0.6769074214 0.0215917431 0.6771040967 0.0215779788 -0.0498938913 0.0749336414
40299760.0 -0.0430593102 0.0770685678 0.6862280186 0.0172455924 0.6862075584 0.0175250792 -0.0403887783 0.0776001076
45299730.0 -0.0338626514 0.0792829543 0.6947972745 0.0120280993 0.6953173146 0.0116183663 -0.0311825103 0.0798401278
50299700.0 -0.025647922 0.0803328348 0.7038631614 0.0049567538 0.7039429038 0.0052785359 -0.0226950952 0.0808311591
55299670.0 -0.0176658832 0.0802565175 0.7112011369 -0.0040254011 0.7102916576 -0.0026622383 -0.0147877746 0.0803511699
60299640.0 -0.0100062102 0.0798763281 0.7174063691 -0.0113528747 0.7174200729 -0.0112856261 -0.0075791711 0.079595316
65299610.0 -0.0037921395 0.0788992649 0.7235499104 -0.0201231833 0.7232804786 -0.0197047964 -0.0013543497 0.0783027448
70299580.0 0.002594902 0.0775536556 0.7288091278 -0.029392532 0.7286849436 -0.0289913103 0.0046090813 0.0768928403
75299550.0 0.0081416799 0.0757506846 0.7326286013 -0.0391412154 0.7328716725 -0.0388778237 0.010072249 0.0749832487
80299520.0 0.013067381 0.0735488361 0.7370157095 -0.0493227382 0.7371342571 -0.0493715118 0.0149749435 0.0726390191
85299490.0 0.0176510475 0.0714603708 0.7402051895 -0.0584750913 0.740540983 -0.0584759167 0.0193391151 0.0698850069
90299460.0 0.0218012798 0.0690093531 0.7423593724 -0.0691098074 0.7434560767 -0.0692085306 0.0235926462 0.0679948516
95299430.0 0.0258180696 0.0666004902 0.7454678307 -0.0785907076 0.7458627319 -0.0789809806 0.0273686723 0.0654756954
100299400.0 0.0290722304 0.0645444913 0.7464031621 -0.0891668428 0.7470759404 -0.0890662713 0.0310722494 0.0622897819
105299370.0 0.0322109609 0.0620226253 0.7489731872 -0.0990495689 0.7492548679 -0.0994515659 0.0342232466 0.0605336012
110299340.0 0.034937777 0.059698581 0.7499090936 -0.1091230292 0.7496178173 -0.1092828885 0.036220139 0.0577969607
115299310.0 0.0374163255 0.0572160087 0.7501892039 -0.1194346794 0.7505713146 -0.1192808303 0.0388218091 0.0554736707
120299280.0 0.0398498469 0.0546042838 0.7510879046 -0.129365526 0.7511946056 -0.1294832625 0.041528177 0.0530932058
125299250.0 0.0420373024 0.0521047189 0.7517155141 -0.1392923165 0.7516823287 -0.139142856 0.0429508769 0.0502029996
130299220.0 0.0436907704 0.050285673 0.7511613282 -0.1491816379 0.7517647471 -0.1491992126 0.0450770608 0.048132157
135299190.0 0.0453990644 0.0481586348 0.7512868871 -0.1595855667 0.751064756 -0.1586435822 0.0465847263 0.0458790513
140299160.0 0.0467454796 0.046315189 0.7508844276 -0.168868318 0.7505867128 -0.1691659142 0.0481071542 0.0440597316
145299130.0 0.0484048965 0.0436658091 0.7502939102 -0.1791340644 0.7495896242 -0.1779557652 0.0494676121 0.0420936819
150299100.0 0.0498604908 0.0420935724 0.7486651705 -0.1874527223 0.7483815343 -0.1875539118 0.050741714 0.0401443421
155299070.0 0.0503094759 0.0397638066 0.7478137161 -0.1983933308 0.7475163453 -0.1982155658 0.0518849958 0.0383436271
160299040.0 0.0521035089 0.0380944645 0.7460629702 -0.2073964636 0.7455998967 -0.2070540378 0.0521706296 0.0361941196
165299010.0 0.0524687237 0.0362885813 0.7441172597 -0.216953424 0.7444596722 -0.2173600832 0.0538255681 0.034708222
170298980.0 0.053458601 0.033842146 0.7427905385 -0.2266038085 0.7430150561 -0.2262729477 0.0545481955 0.0328958965
175298950.0 0.0539269441 0.0321153574 0.7412920577 -0.2352469145 0.7405111521 -0.235647531 0.054751108 0.0312493038
180298920.0 0.0545112778 0.0305467714 0.7389806056 -0.2451617038 0.7387534212 -0.2446136638 0.0558041749 0.0299723972
185298890.0 0.0557234412 0.0288436594 0.7365531598 -0.2538584898 0.7356978771 -0.2535373823 0.0556965475 0.0285179462
190298860.0 0.0555028253 0.027419085 0.7340392397 -0.263406547 0.7345630734 -0.2631818599 0.0566180707 0.026371493
195298830.0 0.0561580653 0.0250471108 0.7315852104 -0.2723984376 0.7318054925 -0.2716048976 0.0573130041 0.0250198238
200298800.0 0.0563624507 0.0240882105 0.7289798986 -0.2811950888 0.7289121637 -0.2813892164 0.0567307426 0.023738401
205298770.0 0.0570572922 0.0230017276 0.7257106208 -0.2900904975 0.7260896748 -0.2896935266 0.0573427673 0.0212567452
210298740.0 0.057147516 0.0209107716 0.7229460734 -0.2978969368 0.7231882222 -0.2976574974 0.0577898278 0.0213437236
215298710.0 0.0568055046 0.0197058719 0.7204392864 -0.307616835 0.7200382221 -0.3076066882 0.0576420605 0.0197433442
220298680.0 0.057406706 0.0177892247 0.7167465673 -0.3157083604 0.7168220767 -0.3156508487 0.057276769 0.0181316906
225298650.0 0.0579605342 0.0165721719 0.7139747709 -0.3250153545 0.7138255504 -0.324834428 0.0574967541 0.0165980946
230298620.0 0.0579287651 0.0157167242 0.7107287452 -0.3326854785 0.7112187248 -0.3334346332 0.0573890431 0.015077366
235298590.0 0.0576854583 0.0146989174 0.706789883 -0.3414998596 0.7064767501 -0.3409952558 0.0577771165 0.01378552
240298560.0 0.0581631012 0.0135900088 0.7034973496 -0.350162495 0.7028305009 -0.3500087509 0.0574159561 0.013051138
245298530.0 0.0578940984 0.0121046447 0.6998846476 -0.3585496663 0.6998971463 -0.3584084436 0.0582803555 0.010862398
250298500.0 0.0585710094 0.0108763126 0.6948185217 -0.3665494378 0.6946532283 -0.366059348 0.0576719303 0.0103406502
255298470.0 0.0582426222 0.0093337758 0.6910513251 -0.3747618901 0.6915403626 -0.3746643268 0.0581183834 0.008980564
260298440.0 0.0579337561 0.0082580657 0.6876379314 -0.3829038263 0.6877119237 -0.3824774125 0.0583875248 0.0078627166
265298410.0 0.0590032605 0.0075837208 0.6834974355 -0.3909283789 0.6838741507 -0.3904778616 0.058202311 0.0068733624
270298380.0 0.0583621309 0.0062735902 0.679774033 -0.3985447281 0.6797925928 -0.3981162132 0.0580388028 0.0057282397
275298350.0 0.0588495601 0.0054022939 0.67516666 -0.4066998628 0.6757166217 -0.4064851093 0.0582268161 0.0041907322
280298320.0 0.0587975655 0.0042244376 0.6712987699 -0.4145161871 0.670880053 -0.4146673357 0.058385088 0.0032037145
285298290.0 0.0586093392 0.0030178657 0.6664859605 -0.4222835475 0.6663298407 -0.4227547786 0.0584445366 0.0023139122
290298260.0 0.059187664 0.0019746879 0.6614858262 -0.4298342162 0.6617819618 -0.4299713308 0.05868892 0.0016784381
295298230.0 0.0590540846 0.0005727448 0.6577516414 -0.437918854 0.6571243347 -0.4375311095 0.0594440709 0.0001751706
300298200.0 0.0583952978 -0.0002596945 0.6527740292 -0.4447688526 0.6528416275 -0.4459147369 0.0584115944 -0.000888274
305298170.0 0.0585975118 -0.0016019554 0.6475079044 -0.4536671793 0.6476481432 -0.4526497256 0.059276523 -0.0021607122
310298140.0 0.0583533112 -0.0026700096 0.6429967564 -0.4611198781 0.6430721744 -0.4602933584 0.0593050583 -0.0031151767
315298110.0 0.0585052067 -0.0042387898 0.6378002039 -0.4687091634 0.6377168108 -0.4688136852 0.0586500823 -0.0044376922
320298080.0 0.0585777874 -0.0051204928 0.6316211249 -0.4767732488 0.6329444679 -0.4761526656 0.0588331862 -0.0054338706
325298050.0 0.0578407996 -0.0063103362 0.6267670625 -0.4841123771 0.6268786419 -0.4833948178 0.0578827247 -0.006411971
330298020.0 0.0572855443 -0.0075192047 0.621336506 -0.4907952893 0.6213015863 -0.4911469531 0.0575934871 -0.0076296024
335297990.0 0.0570811219 -0.008634872 0.6160563027 -0.4976335736 0.6154791091 -0.4982498262 0.0566422723 -0.0079106945
340297960.0 0.0560827529 -0.0090472769 0.609908826 -0.5050575681 0.6092854273 -0.505139089 0.0570393071 -0.0087571628
345297930.0 0.0556320178 -0.0093010151 0.6039707488 -0.5123870215 0.6039264871 -0.5121646652 0.0565197694 -0.0098816757
350297900.0 0.0552373507 -0.0111189125 0.5972777999 -0.5188896027 0.5977612989 -0.5187021146 0.0554714017 -0.0100921727
355297870.0 0.0549149685 -0.0105700753 0.5917715923 -0.5252235178 0.5926430851 -0.5252354951 0.0552762824 -0.0105270446
360297840.0 0.0546924703 -0.0116566632 0.5872566038 -0.5313497057 0.5872882259 -0.531796771 0.0549577125 -0.0111039548
365297810.0 0.0538807339 -0.0121072847 0.5806359303 -0.5388870328 0.581253555 -0.5380885873 0.054702172 -0.0116317574
370297780.0 0.0544120065 -0.0131258464 0.5745881112 -0.5448782499 0.5751405081 -0.5442057072 0.0543504567 -0.0123208225
375297750.0 0.0540852723 -0.0139200518 0.5685489508 -0.5510106276 0.56936261 -0.5515209995 0.0543552506 -0.0128444157
380297720.0 0.0536287374 -0.0141942109 0.5624350271 -0.5574519694 0.5624014094 -0.5568932448 0.0533716326 -0.0139455415
385297690.0 0.0527318866 -0.0152856608 0.556024093 -0.5638931252 0.5555486022 -0.5636401972 0.0535759617 -0.0141922391
390297660.0 0.0524099642 -0.0152021749 0.5498515903 -0.5704112198 0.5498206288 -0.569508182 0.0525533722 -0.0152693828
395297630.0 0.0519515494 -0.0161857102 0.5436610797 -0.575884869 0.5439436382 -0.5763661893 0.0531088222 -0.0157388395
400297600.0 0.051802201 -0.016793175 0.5367851905 -0.5829682931 0.5371975284 -0.5825571014 0.0522268452 -0.0162800099
405297570.0 0.051320148 -0.0174915231 0.5309205841 -0.5877425901 0.5308966791 -0.5876518499 0.0517210364 -0.0166831379
410297540.0 0.0513731145 -0.0181126929 0.5244361719 -0.5940767584 0.5248972305 -0.5942359575 0.0512202221 -0.0170320723
415297510.0 0.0512200321 -0.0187987623 0.5177838828 -0.6002887863 0.518358993 -0.5998866826 0.0509627019 -0.0179911824
420297480.0 0.0510433981 -0.0189194699 0.5110877433 -0.6060419216 0.5108947778 -0.6055494616 0.0503404882 -0.0190964228
425297450.0 0.0499726534 -0.0204416089 0.5047231118 -0.6115164198 0.5048193782 -0.6112704549 0.0496208768 -0.0189906529
430297420.0 0.0496836515 -0.0209404092 0.4980339942 -0.6163481061 0.4976902205 -0.6164460394 0.0495402881 -0.0200334572
435297390.0 0.049451349 -0.0214139517 0.4906688362 -0.6224714986 0.4904558204 -0.6220366075 0.0501349298 -0.02050124
440297360.0 0.0494144434 -0.0217918751 0.4839430675 -0.6276439069 0.4841866656 -0.6281244719 0.0485005435 -0.0217970247
445297330.0 0.0487731626 -0.0229612814 0.4776239875 -0.6333918112 0.477369204 -0.6326304391 0.0489979944 -0.0220885775
450297300.0 0.0489718216 -0.0231237003 0.4703435628 -0.6384771776 0.4699500122 -0.6388797272 0.0482616412 -0.0228928518
455297270.0 0.0481481992 -0.0235466222 0.4627571437 -0.6438989825 0.4636268842 -0.6439660246 0.0480897493 -0.0233827725
460297240.0 0.0476628167 -0.0241612473 0.456230793 -0.6487255764 0.4563427331 -0.6487548141 0.0476207099 -0.0239300323
465297210.0 0.0474423696 -0.0249510047 0.4491424732 -0.6537062274 0.4488860099 -0.6544462333 0.0472374408 -0.0247511908
470297180.0 0.0470368271 -0.0257091002 0.4415004504 -0.6586550563 0.4415936454 -0.6588630012 0.0470401637 -0.0251480793
475297150.0 0.046828579 -0.0264859725 0.434502688 -0.6628092371 0.4350004889 -0.662849562 0.0471537845 -0.0259509051
480297120.0 0.0460888478 -0.0260505606 0.4268464981 -0.6686007832 0.4266551587 -0.6689347759 0.046663921 -0.0263705129
485297090.0 0.0453581654 -0.0269751897 0.4200640626 -0.6724514211 0.4197763725 -0.6723802248 0.0463014323 -0.0268308426
490297060.0 0.0448539513 -0.0278538532 0.4127730445 -0.6779959443 0.4126253762 -0.6772637178 0.0458590395 -0.0269252048
495297030.0 0.0445749575 -0.0280104319 0.4047576274 -0.6821847107 0.4054699441 -0.6818843692 0.045038707 -0.0276828297
500297000.0 0.0441157826 -0.0289313966 0.3972303297 -0.68613253 0.3969202098 -0.6858797822 0.0449185146 -0.0273446509
505296970.0 0.0440584297 -0.0295439731 0.3903427374 -0.6905786207 0.3896883483 -0.690799554 0.0445125964 -0.0283044967
510296940.0 0.0432274924 -0.0293736833 0.3823270804 -0.6951769 0.3820922948 -0.6949732299 0.0442192284 -0.0283860101
515296910.0 0.042455846 -0.029929293 0.3744167167 -0.6996299436 0.3746680206 -0.6992291352 0.0439643907 -0.0286069408
520296880.0 0.0420182207 -0.0306522483 0.3667445255 -0.7035500876 0.3669646105 -0.7029419424 0.0430670042 -0.0295951566
525296850.0 0.0420078659 -0.0316718399 0.3588356481 -0.707804481 0.3596675847 -0.7077433925 0.0427565629 -0.0296981787
530296820.0 0.0413874762 -0.0314305403 0.3514525227 -0.7117275483 0.3514045141 -0.71129024 0.0424573681 -0.0301267505
535296790.0 0.0403103003 -0.0320241844 0.3439239869 -0.7152468854 0.344064815 -0.7146502088 0.0418630743 -0.0309559193
540296760.0 0.0399253411 -0.0321296508 0.3351059853 -0.719027625 0.335522465 -0.7190773095 0.040828365 -0.0300150533
545296730.0 0.0396226234 -0.032773823 0.3274612326 -0.7222809416 0.3272188608 -0.7225273611 0.0405483756 -0.031318423
550296700.0 0.0398087929 -0.0325426587 0.3199382248 -0.7260533173 0.3197334131 -0.7265946295 0.0396194814 -0.0316077035
555296670.0 0.0385928007 -0.0331683764 0.312136387 -0.7301044706 0.3122259947 -0.7295263353 0.0391625293 -0.0319391952
560296640.0 0.0384297266 -0.0332342777 0.3035752852 -0.7335319059 0.3039556771 -0.7331946942 0.0389494368 -0.0327057367
565296610.0 0.0374527313 -0.0339818499 0.2954631267 -0.7364453556 0.2957901197 -0.736516643 0.0379432123 -0.0330641535
570296580.0 0.0371429235 -0.0339923158 0.2880466406 -0.7397624216 0.2871152764 -0.7396597704 0.0375234275 -0.0323072076
575296550.0 0.0362729439 -0.0340773117 0.2796264444 -0.7430615683 0.2797769144 -0.7428555413 0.0373463156 -0.0336621378
580296520.0 0.0361721277 -0.0347117737 0.2712415623 -0.7456914203 0.2714607626 -0.7458843765 0.0364295887 -0.033930287
585296490.0 0.0355104245 -0.0358741898 0.2637828448 -0.7482158177 0.2636167812 -0.747895691 0.0364244373 -0.0341436669
590296460.0 0.0355337988 -0.0355213845 0.2555744213 -0.7505455448 0.2553183214 -0.751350048 0.0346082993 -0.0345173925
595296430.0 0.0348484693 -0.0357915685 0.2465931508 -0.7542678234 0.2465066965 -0.7544620709 0.0347529581 -0.0353361637
600296400.0 0.0340394058 -0.0363607795 0.2388000017 -0.7571404429 0.2386228716 -0.7565532185 0.0342609099 -0.0353601929
605296370.0 0.03349618 -0.0366186896 0.2305837275 -0.758968766 0.2304331546 -0.7591004855 0.0335486155 -0.035602186
610296340.0 0.0330947997 -0.0370853125 0.2215121165 -0.7615515169 0.2225896412 -0.7621636082 0.0334155574 -0.0363896158
615296310.0 0.0327871751 -0.0379161575 0.2137385489 -0.7638289419 0.2132137132 -0.7646647741 0.0327120061 -0.0363835997
620296280.0 0.0321688845 -0.0378863502 0.2053860868 -0.7665187181 0.2052982047 -0.7661874748 0.0321621356 -0.0366876057
625296250.0 0.0312749633 -0.0386845302 0.1974176283 -0.7687886631 0.197167645 -0.7690270416 0.0323763524 -0.0373387171
630296220.0 0.0318224673 -0.0384083218 0.1886151223 -0.770464361 0.188274847 -0.7705781391 0.0314409483 -0.0371040563
635296190.0 0.0295308121 -0.0391566862 0.1797536851 -0.7724723347 0.1802400673 -0.7732318237 0.0309307307 -0.0378811022
640296160.0 0.028974923 -0.0389804783 0.1713973563 -0.7745560962 0.1722816195 -0.7742117339 0.0305998222 -0.0379176162
645296130.0 0.0289912033 -0.0392061906 0.162628727 -0.7759029451 0.1640191372 -0.7765055984 0.030221933 -0.0379686393
650296100.0 0.028679356 -0.0397438509 0.1546814474 -0.7778358927 0.1551432892 -0.7784005044 0.0297003136 -0.0389962619
655296070.0 0.0273815468 -0.040279428 0.1458740311 -0.7798887792 0.1468055692 -0.7797697012 0.0292467361 -0.0384855192
660296040.0 0.0264962639 -0.0406401151 0.138196937 -0.7815721079 0.1378974459 -0.7816954925 0.0289492007 -0.0390066465
665296010.0 0.0269499636 -0.0405585577 0.1289464869 -0.7828812544 0.129635197 -0.7827312888 0.0284076666 -0.0385275141
670295980.0 0.0247873515 -0.040567322 0.1207816171 -0.7840403214 0.1204713702 -0.7842078606 0.0272876439 -0.0392229617
675295950.0 0.02493822 -0.0403234123 0.1121959144 -0.7856815941 0.1121432494 -0.7848165514 0.0264577851 -0.0393108103
680295920.0 0.0238401494 -0.0415092971 0.1031026514 -0.7866027774 0.1026363367 -0.7868721304 0.0261146768 -0.0386254191
685295890.0 0.0238353017 -0.0406205937 0.0951183303 -0.7874996511 0.0947162387 -0.7879790259 0.0257764639 -0.0391522486
690295860.0 0.0235815684 -0.0409093821 0.0861002939 -0.7878977773 0.0863636113 -0.7888727986 0.0247186167 -0.0385229435
695295830.0 0.0226084159 -0.0412280532 0.0780200259 -0.7890843767 0.0773524468 -0.7892941798 0.0243828453 -0.0389348796
700295800.0 0.0221503242 -0.0419540177 0.0690478961 -0.7902865496 0.0685193603 -0.7897321225 0.0233494965 -0.0383640719
705295770.0 0.0211390958 -0.0405862809 0.060447226 -0.7905150419 0.0604149059 -0.7910223785 0.022776674 -0.0391336891
710295740.0 0.0210449796 -0.041482779 0.0519986956 -0.792174081 0.0522847776 -0.7919172659 0.02306837 -0.0397488921
715295710.0 0.019836569 -0.0415448873 0.043616349 -0.792091248 0.0433502531 -0.7919765562 0.0220116361 -0.0396819341
720295680.0 0.0196408631 -0.0419157626 0.0347745419 -0.7925520142 0.0349671562 -0.7921171469 0.0212810047 -0.0389091918
725295650.0 0.0191398606 -0.0416995108 0.0262095464 -0.7933062357 0.0259375028 -0.7931125221 0.0202202552 -0.0391537933
730295620.0 0.0188346367 -0.0412474041 0.0173331018 -0.7931333937 0.0172888634 -0.7930178946 0.0195696215 -0.0395941897
735295590.0 0.0179803882 -0.0416298867 0.008527115 -0.7938108192 0.0089767787 -0.7931680958 0.0189052064 -0.0400938506
740295560.0 0.0170797232 -0.0418540378 -0.0001380621 -0.7930662941 8.80269e-05 -0.7928815931 0.0189518824 -0.0396121339
745295530.0 0.0166257353 -0.0417340682 -0.0084076262 -0.7923350557 -0.0083077901 -0.7933347671 0.0181197639 -0.0403662795
750295500.0 0.0160649859 -0.0417811739 -0.0166088289 -0.7927768116 -0.016955589 -0.7933628202 0.0172013427 -0.0400300445
755295470.0 0.0157244131 -0.0421842886 -0.0252203167 -0.7929756397 -0.0259450907 -0.7929222261 0.0173616594 -0.0405792562
760295440.0 0.0146892742 -0.0418878111 -0.0339428129 -0.7921589286 -0.0343018043 -0.7928494618 0.0166900046 -0.040263372
765295410.0 0.0142503943 -0.0420323464 -0.0432676973 -0.7918907469 -0.043682599 -0.7921661494 0.0159843072 -0.0402666717
770295380.0 0.0132641116 -0.0421374108 -0.0521710229 -0.7911977117 -0.0513837539 -0.7911670274 0.0149197112 -0.0410290082
775295350.0 0.0126654646 -0.0429106327 -0.0604470956 -0.7904811791 -0.0598700832 -0.7906203873 0.0136634885 -0.0403121396
780295320.0 0.0123272633 -0.0424507635 -0.0686422247 -0.7894684639 -0.0681649615 -0.7903241438 0.0132805335 -0.0413681001
785295290.0 0.011470593 -0.0431740906 -0.0775141629 -0.7887074544 -0.0770228332 -0.7888086375 0.013584188 -0.0407279756
790295260.0 0.0115021743 -0.041826165 -0.0853366753 -0.7885757367 -0.0848882572 -0.7882584367 0.012688094 -0.0410439266
795295230.0 0.010412381 -0.0425973462 -0.0942412555 -0.7871359529 -0.0937863814 -0.78770878 0.0124196056 -0.0407156133
800295200.0 0.0094991612 -0.0420274367 -0.1038418884 -0.7856171284 -0.1031606882 -0.7860336598 0.0115917012 -0.041049876
805295170.0 0.009099611 -0.0425919376 -0.1115771371 -0.7847026571 -0.1118872286 -0.7852172698 0.011184612 -0.0406509143
810295140.0 0.0079800806 -0.0429171568 -0.1199300237 -0.7832638604 -0.1198918769 -0.7839943809 0.0108152751 -0.0404794164
815295110.0 0.0078306064 -0.0430234028 -0.1287104035 -0.7821168825 -0.1284428247 -0.7820546301 0.0098283472 -0.0404554898
820295080.0 0.0067653333 -0.0420836274 -0.137012276 -0.7802980035 -0.1364085455 -0.7806948113 0.0095264628 -0.040710415
825295050.0 0.0071607517 -0.0422383668 -0.1447579348 -0.7789944306 -0.1450451882 -0.7792522141 0.0095163083 -0.0404487085
830295020.0 0.006028667 -0.0420827574 -0.1543454217 -0.7771242044 -0.15374235 -0.7766520793 0.0094305419 -0.0399290823
