!Created with skrf (http://scikit-rf.org).
# Hz S RI R 50.0 
!freq ReS11 ImS11 ReS21 ImS21 ReS12 ImS12 ReS22 ImS22
300000.0 -0.237456783 -0.099766432 0.4657060703 0.0653131927 0.4686704552 0.0698770429 -0.2359314151 -0.1097554267
5299970.0 -0.2436863667 0.0071480346 0.4735939939 0.005087698 0.4736921986 0.0058324289 -0.2439742762 0.0058635158
10299940.0 -0.2401895283 0.0195251465 0.4756712549 0.0063525357 0.4758740403 0.0067158185 -0.2409242591 0.0183880521
15299910.0 -0.2359745641 0.0291960073 0.4790562002 0.0077664304 0.4792632673 0.0081851877 -0.2364816294 0.0274781326
20299880.0 -0.2307404932 0.0372378718 0.4840882786 0.008413982 0.4843741067 0.0083904257 -0.2320811365 0.0354508254
25299850.0 -0.2247047468 0.0433675638 0.489660593 0.0073197598 0.4895612201 0.007573982 -0.2269402152 0.0416898074
30299820.0 -0.2188889674 0.0483658423 0.4949669752 0.0057158561 0.4947835045 0.0053205661 -0.2214755671 0.046758918
35299790.0 -0.212993703 0.0528610045 0.5002512228 0.0021131014 0.5003512073 0.0019581355 -0.2162645813 0.0510830858
40299760.0 -0.2075430163 0.0554084332 0.5052535664 -0.0012922598 0.5054227135 -0.001678313 -0.2113979789 0.0545868136
45299730.0 -0.2025040113 0.0585501082 0.5101174721 -0.0070326916 0.5100828153 -0.0064229929 -0.2066400537 0.0573367234
50299700.0 -0.1975571919 0.0601203999 0.5140084008 -0.0121480479 0.5145021991 -0.0121387338 -0.2022133059 0.0597870708
55299670.0 -0.1935581901 0.0618575079 0.5175436576 -0.0181365421 0.5176506348 -0.0181156601 -0.1981070588 0.0614788789
60299640.0 -0.1895585269 0.0627427961 0.5213717888 -0.024740511 0.5214646902 -0.0240659352 -0.1942779521 0.0632393516
65299610.0 -0.1861088545 0.064087821 0.5246096019 -0.0305820703 0.5246935233 -0.0301691089 -0.1911796872 0.0643649948
70299580.0 -0.1826199903 0.0643846911 0.5265805545 -0.0369113529 0.5268675364 -0.0372309948 -0.1880542251 0.0658264334
75299550.0 -0.179370829 0.0651870215 0.528542958 -0.0439445772 0.5284895521 -0.0439633168 -0.1848326282 0.0667962316
80299520.0 -0.1773770272 0.0655110132 0.5308090124 -0.0504139021 0.5305991517 -0.0512225623 -0.1824669913 0.0675095845
85299490.0 -0.1745820621 0.0658278011 0.5319119719 -0.0576622313 0.532107413 -0.0577669465 -0.1802753761 0.0684370535
90299460.0 -0.1725455706 0.0665425253 0.5329991697 -0.0645639909 0.5335700983 -0.0648069525 -0.1776338168 0.0693808496
95299430.0 -0.1704173368 0.0669557385 0.5341466621 -0.0719251448 0.5339980119 -0.0715906605 -0.1756800722 0.0702492068
100299400.0 -0.168911617 0.0678001162 0.534456842 -0.0787525487 0.5344400368 -0.0785003113 -0.1743149149 0.0709697939
105299370.0 -0.166968645 0.0681353992 0.5344686004 -0.0852123168 0.5347554465 -0.0857908145 -0.1720205992 0.0716404582
110299340.0 -0.1655013325 0.0684849462 0.5346310132 -0.0922079563 0.5348088912 -0.0923737734 -0.1708026959 0.072589157
115299310.0 -0.1637599793 0.068553019 0.5345845433 -0.099054917 0.5347716763 -0.0988127 -0.1688241195 0.0728613038
120299280.0 -0.1628751382 0.0693012794 0.5348861741 -0.1060405402 0.5347807184 -0.1061722759 -0.1679096827 0.0740245886
125299250.0 -0.1616222651 0.0698836104 0.5346772812 -0.1126498906 0.534472259 -0.1128356677 -0.166296534 0.0747380062
130299220.0 -0.160481565 0.070440079 0.5335447306 -0.1189011283 0.5338043167 -0.1193762186 -0.1650992134 0.0758934536
135299190.0 -0.1593341077 0.0709655154 0.5329916334 -0.125615122 0.5327776748 -0.1260535527 -0.1643320723 0.0768779036
140299160.0 -0.1584680934 0.0722219757 0.5321029015 -0.1327109612 0.5321527839 -0.1329443642 -0.1627769714 0.0781006545
145299130.0 -0.1575553549 0.0727441628 0.5315530786 -0.1393555196 0.5311978101 -0.1390104479 -0.1620259293 0.0785959263
150299100.0 -0.1566659371 0.0735263336 0.5304262347 -0.1459449994 0.5298290407 -0.1459182183 -0.1606682814 0.0800195129
155299070.0 -0.1558114802 0.0745890386 0.5289130601 -0.1527515822 0.5290180895 -0.1525451176 -0.1600164619 0.0811516208
160299040.0 -0.1548048481 0.0751994475 0.5274810723 -0.158443419 0.5278597217 -0.1588690078 -0.1589854766 0.0825519297
165299010.0 -0.1543012423 0.0760732812 0.5262455078 -0.1653550216 0.5263827721 -0.1650125488 -0.1578823028 0.0831091099
170298980.0 -0.1535896905 0.0771514337 0.5241793785 -0.1716709123 0.5244079866 -0.1715477215 -0.156915899 0.0843975344
175298950.0 -0.1525550753 0.0782312441 0.523336639 -0.1778952124 0.5234633003 -0.1779975385 -0.15607288 0.0857457776
180298920.0 -0.1517364142 0.0791322142 0.5213761125 -0.1842094223 0.5215278915 -0.183966169 -0.1546866557 0.087194024
185298890.0 -0.1508599559 0.0801211573 0.5192397763 -0.1903126568 0.5197425718 -0.1901318561 -0.1542402724 0.0881964068
190298860.0 -0.1503783167 0.0811302302 0.5175365634 -0.1969032891 0.5178111875 -0.1966313086 -0.1527962373 0.0895121537
195298830.0 -0.1495766193 0.0820353019 0.5159503971 -0.2025829477 0.5155736045 -0.2032583576 -0.1516628796 0.0904812966
200298800.0 -0.1486865613 0.0834736635 0.5136972589 -0.2082603198 0.5137495647 -0.208766539 -0.1510511049 0.0920444451
205298770.0 -0.1481288665 0.0844872409 0.5115248946 -0.2146931996 0.5116862964 -0.2147263642 -0.1501262505 0.0928686424
210298740.0 -0.1474680898 0.0854357452 0.508965102 -0.2210306176 0.5095470732 -0.2207180762 -0.1491747533 0.0948709481
215298710.0 -0.1465148849 0.0870509501 0.5067498872 -0.2264904558 0.5069607953 -0.2265312628 -0.1482503637 0.096180322
220298680.0 -0.1458825336 0.0878993199 0.5046239924 -0.2326471014 0.5044563651 -0.2326466182 -0.1467797009 0.0977181493
225298650.0 -0.1449503946 0.0894482627 0.501302556 -0.2383780092 0.5016836774 -0.2381966053 -0.1465269081 0.0989325516
230298620.0 -0.1446270565 0.0906798045 0.4998436149 -0.2442790355 0.4997666814 -0.2446178348 -0.1450497465 0.1001265953
235298590.0 -0.1434625263 0.0913681864 0.4965030575 -0.2497408984 0.4969144489 -0.2504657984 -0.14424472 0.1017903921
240298560.0 -0.1429306478 0.0929130244 0.4942459975 -0.2557047905 0.4941109355 -0.255641253 -0.1429690811 0.1033212673
245298530.0 -0.1419863104 0.0941297838 0.4907281325 -0.2613603634 0.4913545036 -0.2617674531 -0.1418054083 0.1045356601
250298500.0 -0.1415112463 0.0951715074 0.4884740712 -0.2666971748 0.4886887913 -0.2668700446 -0.1404589461 0.1061119313
255298470.0 -0.140780475 0.0967768554 0.4855862609 -0.2731682785 0.4859481987 -0.272397874 -0.13977773 0.1072294849
260298440.0 -0.1397144744 0.097900945 0.4826645495 -0.2779756674 0.4825884602 -0.2785395601 -0.1380916581 0.1090506612
265298410.0 -0.1386293333 0.09968726 0.4795080095 -0.2840830756 0.4792770913 -0.2840251975 -0.1375733146 0.1102527074
270298380.0 -0.1376314429 0.1003960156 0.4758899417 -0.2891135332 0.4765724814 -0.289689013 -0.1359583664 0.1120522586
275298350.0 -0.1371736315 0.1020039959 0.4732265986 -0.2948476428 0.4736192446 -0.294836918 -0.1347359276 0.1134595879
280298320.0 -0.1360917911 0.1033507045 0.4699943724 -0.2997200793 0.4701474638 -0.3002023158 -0.133614046 0.1148467109
285298290.0 -0.1350609912 0.1048575283 0.4668285085 -0.3051615871 0.4667536111 -0.3057110564 -0.132480615 0.1162912477
290298260.0 -0.1342746815 0.1059381518 0.4637025338 -0.3106146381 0.4634707775 -0.3106916284 -0.13080583 0.1177743503
295298230.0 -0.1332771804 0.1073895162 0.4603200705 -0.3161281208 0.4602121789 -0.3160431434 -0.1294543333 0.1192246686
300298200.0 -0.1321545513 0.1082662675 0.456686831 -0.3209609429 0.4567614021 -0.3214263786 -0.1284623415 0.1210698406
305298170.0 -0.1311081395 0.1096345297 0.4533524804 -0.3264084881 0.4540030835 -0.3267989736 -0.1267484594 0.1224275208
310298140.0 -0.1297736549 0.1106119225 0.4498521622 -0.3318654111 0.449871116 -0.3322153192 -0.1255759421 0.1239686135
315298110.0 -0.1289160429 0.1118037804 0.44599562 -0.3370155208 0.4462387078 -0.3373505807 -0.123913872 0.1249392057
320298080.0 -0.1279666077 0.1129481763 0.4423727556 -0.342084304 0.4423122734 -0.3420414063 -0.1227025425 0.1262236253
325298050.0 -0.1270733828 0.1139233454 0.4386676348 -0.3472748906 0.4387463875 -0.3474345947 -0.121255553 0.1276105453
330298020.0 -0.126237633 0.1155612124 0.4339050474 -0.3522664368 0.4345196151 -0.3523682683 -0.1203496796 0.1290965075
335297990.0 -0.1254284441 0.1165539546 0.430394785 -0.3568257892 0.4305943825 -0.3572298388 -0.1190326599 0.1305327794
340297960.0 -0.1246800959 0.1183176199 0.4261835606 -0.3622297662 0.4266763186 -0.3618689577 -0.117816634 0.1320298377
345297930.0 -0.1237831712 0.1194268694 0.4222300301 -0.366175084 0.4221057623 -0.3665338159 -0.1164277148 0.1331426286
350297900.0 -0.1221693231 0.1206837334 0.4176590334 -0.3709744156 0.4180248472 -0.3711768542 -0.1149216958 0.1352052743
355297870.0 -0.121439702 0.1221880872 0.4137719256 -0.3754925526 0.4140650088 -0.3756818287 -0.1135200837 0.1362371218
360297840.0 -0.1200528575 0.1234381674 0.4098841192 -0.3801983942 0.4096920167 -0.3802730829 -0.1119372433 0.1379723811
365297810.0 -0.1191326129 0.1248614684 0.4055986941 -0.384419142 0.4054977692 -0.3847502537 -0.1108449879 0.1393071427
370297780.0 -0.1176864547 0.1258166983 0.4010615278 -0.3890206232 0.4014152684 -0.3894232131 -0.1090752134 0.1408412205
375297750.0 -0.1170007247 0.1274739919 0.3974658469 -0.3938270364 0.3969925847 -0.3940224143 -0.1075163496 0.1423593994
380297720.0 -0.1154178188 0.1281784934 0.3924953123 -0.3976117919 0.3923781054 -0.3979812413 -0.1059971083 0.1438131638
385297690.0 -0.1144257819 0.1298548641 0.3884377977 -0.4016922072 0.3879098943 -0.4020908593 -0.1047778769 0.1451647688
390297660.0 -0.1131952556 0.1309614729 0.3835411073 -0.4066219966 0.3838081586 -0.4068875363 -0.1030009953 0.1462064648
395297630.0 -0.1115979451 0.1320351935 0.3794184902 -0.4103529178 0.3790885738 -0.4106682838 -0.1014726887 0.1483156261
400297600.0 -0.1107187137 0.1334756618 0.3744923126 -0.4147674487 0.3747537769 -0.415083372 -0.100112011 0.1490512498
405297570.0 -0.1093231813 0.1346743808 0.3699186161 -0.4187724371 0.370091382 -0.4192010253 -0.098446786 0.1504806629
410297540.0 -0.1077971469 0.1356916495 0.3644981775 -0.4228159328 0.3651332934 -0.4228627166 -0.0969014924 0.1519064878
415297510.0 -0.1067359069 0.137519652 0.3607089425 -0.4270228314 0.3611755572 -0.426873724 -0.0954246773 0.1533769094
420297480.0 -0.1050309699 0.1379206317 0.3558903499 -0.4311894497 0.3561428647 -0.4308283551 -0.0935125803 0.1542817841
425297450.0 -0.1037799207 0.1389760032 0.3510010044 -0.4345183476 0.3515115772 -0.4346997125 -0.0918063085 0.1559479914
430297420.0 -0.103033802 0.1406756852 0.3467236999 -0.4391293688 0.346795082 -0.4382704013 -0.0904244137 0.1564405289
435297390.0 -0.1011943581 0.1415491701 0.341877654 -0.4420565062 0.3417818918 -0.4419167087 -0.0885770416 0.1583032869
440297360.0 -0.0998369219 0.1427663157 0.3367355548 -0.4460768919 0.3364810347 -0.4459364572 -0.0868340898 0.1588021494
445297330.0 -0.0983933701 0.1438540647 0.3319110056 -0.4502076868 0.3318068982 -0.4496591049 -0.0852014629 0.1601879502
450297300.0 -0.0969071712 0.1447488854 0.3266684387 -0.4532151154 0.3270375655 -0.4534006716 -0.0836536766 0.1614465993
455297270.0 -0.0956428836 0.1457474508 0.3224338176 -0.4570252481 0.3223267816 -0.4565672325 -0.0811987573 0.1626281436
460297240.0 -0.0946819806 0.1469235228 0.3168634601 -0.4598299262 0.3165956784 -0.4603336687 -0.0799400918 0.1639039384
465297210.0 -0.0924828315 0.1477388637 0.3121119423 -0.4635224703 0.3120860125 -0.4635150363 -0.0784067232 0.1646681208
470297180.0 -0.0914311676 0.1487743913 0.3069428522 -0.4668857539 0.3072176686 -0.4670550295 -0.0770440308 0.165850631
475297150.0 -0.090024564 0.1493684499 0.3012357263 -0.4699815229 0.3020241327 -0.4696832792 -0.0747029104 0.1667502334
480297120.0 -0.088215265 0.1505148781 0.2964746936 -0.4731853841 0.2970532995 -0.4735272655 -0.0729802016 0.1684827454
485297090.0 -0.0869860976 0.1516322717 0.2916848591 -0.4768286182 0.2917167932 -0.4764620848 -0.0713782355 0.168711608
490297060.0 -0.0851648764 0.152412706 0.2861772256 -0.4797872522 0.2866530277 -0.4802298652 -0.0693204928 0.1700812117
495297030.0 -0.0842318729 0.1538246531 0.2810223393 -0.4831207996 0.2808458678 -0.4829319721 -0.0675527479 0.1706825545
500297000.0 -0.0822623425 0.1543414514 0.2752941107 -0.485925918 0.275641615 -0.4855437233 -0.065849541 0.1716866606
505296970.0 -0.0811130827 0.1553346492 0.270214811 -0.4882949892 0.2701537598 -0.4887663463 -0.0645228571 0.1728442318
510296940.0 -0.0795091618 0.1563318336 0.2648724329 -0.4917278772 0.2652126388 -0.4915151048 -0.0618165517 0.1738700978
515296910.0 -0.0781563689 0.1575719996 0.25947753 -0.4943229576 0.2595770223 -0.4945797726 -0.0602039219 0.1747577666
520296880.0 -0.0765652324 0.1580150043 0.2538875502 -0.4970228032 0.254220942 -0.4969689695 -0.0579812186 0.1754811434
525296850.0 -0.0751897083 0.1587194683 0.2488676482 -0.4996940653 0.248876863 -0.5001660609 -0.0562016133 0.1761339464
530296820.0 -0.0731609908 0.1595445392 0.2434008814 -0.5018414007 0.2433237153 -0.5024533102 -0.0546804656 0.1767534588
535296790.0 -0.0718866434 0.1604601401 0.237785183 -0.5049986376 0.2380030396 -0.504669544 -0.0525693306 0.177368147
540296760.0 -0.0703228618 0.1612241256 0.2323201486 -0.5079481995 0.2320609114 -0.508232969 -0.0509253753 0.1787236381
545296730.0 -0.0689957179 0.1624074169 0.2266156028 -0.5100011124 0.2270771349 -0.5101280292 -0.0491893486 0.1789938112
550296700.0 -0.0675959578 0.1629488594 0.2212625398 -0.5125296943 0.2218567573 -0.5130198185 -0.0472780529 0.1801291422
555296670.0 -0.0654317892 0.163579731 0.2159638557 -0.5151057626 0.2159601691 -0.514762504 -0.0451666152 0.1809157795
560296640.0 -0.0640817381 0.1643501698 0.2101544887 -0.5169040245 0.2100284137 -0.516776748 -0.0432313268 0.1811451559
565296610.0 -0.0628049896 0.1651351715 0.2043010314 -0.5192311032 0.2045172605 -0.5195385261 -0.0413874531 0.1818404528
570296580.0 -0.0605121442 0.1658310762 0.1985774605 -0.5213731839 0.19939712 -0.521491762 -0.0394777655 0.1829672242
575296550.0 -0.059308167 0.1668897475 0.1933462595 -0.5234445153 0.1936150788 -0.5231601329 -0.0371373691 0.1831028272
580296520.0 -0.0577098776 0.1672516739 0.1877244412 -0.5256419175 0.1874895659 -0.5257139198 -0.0351895311 0.1837077499
585296490.0 -0.0560483428 0.1679839756 0.1819728857 -0.5278260871 0.1817031056 -0.5274509275 -0.0335409412 0.184042716
590296460.0 -0.0547632797 0.168518637 0.1761496465 -0.529276534 0.1762033632 -0.5295826387 -0.0312600544 0.1850086066
595296430.0 -0.0529844529 0.1692650373 0.1705533613 -0.5307739028 0.1702916379 -0.5315092729 -0.0293185184 0.1851627446
600296400.0 -0.0512563397 0.1701994992 0.164184074 -0.5331932004 0.1647295391 -0.5333398263 -0.0271622581 0.1858671164
605296370.0 -0.04946918 0.1707541332 0.1587360961 -0.5349746781 0.1588163554 -0.53444073 -0.0253140881 0.1861255971
610296340.0 -0.047898527 0.1712354935 0.1532698801 -0.536371641 0.1534356868 -0.5367163117 -0.0231549687 0.1869541247
615296310.0 -0.0462602548 0.1722739773 0.1469257599 -0.5378347857 0.1470268507 -0.5379950658 -0.0212853224 0.1872076527
620296280.0 -0.0446327637 0.1724632255 0.141850486 -0.5391296831 0.1413579192 -0.5394800365 -0.0193860496 0.1871640531
625296250.0 -0.0429706568 0.1729707781 0.1353642316 -0.5413223253 0.1356170335 -0.5412987187 -0.0172238439 0.1876453212
630296220.0 -0.0409862313 0.1734840277 0.1292867347 -0.5425990216 0.1304105284 -0.5424565755 -0.0155283831 0.1882195398
635296190.0 -0.0394712666 0.1742252685 0.12378529 -0.5434442098 0.1237730234 -0.543344258 -0.0134216653 0.188646144
640296160.0 -0.0379556762 0.1745958921 0.1179357101 -0.5447991309 0.1178978364 -0.5450403843 -0.0109672178 0.1885868907
645296130.0 -0.0361020006 0.1753224249 0.1117624628 -0.5461228671 0.1121354314 -0.5465332597 -0.0094223631 0.1890024869
650296100.0 -0.0345239182 0.1761074594 0.1063409014 -0.5470415323 0.1063993541 -0.5473400558 -0.0072805943 0.1890243857
655296070.0 -0.0327733953 0.1760620296 0.1001334296 -0.5483331576 0.0999778352 -0.5484265718 -0.0046750869 0.1893896
660296040.0 -0.0313102431 0.1769448516 0.0941171783 -0.5491810489 0.0945096089 -0.5492538917 -0.0031884775 0.1893535332
665296010.0 -0.0293566075 0.1769934989 0.0884237329 -0.5504503504 0.0888209067 -0.5503790046 -0.0011183098 0.1898746725
670295980.0 -0.0273589516 0.1778931665 0.0825580596 -0.5514795551 0.0829236216 -0.5512884177 0.0005217945 0.1900157274
675295950.0 -0.0257657752 0.1780950041 0.0763495787 -0.5521903933 0.076992979 -0.552495887 0.0030837242 0.1903010527
680295920.0 -0.0241460512 0.1787084294 0.0705484609 -0.5529522133 0.0704221808 -0.5531863467 0.005215622 0.1902007649
685295890.0 -0.0224133043 0.179091662 0.0646775903 -0.5536383069 0.0644241357 -0.5535723484 0.0072447047 0.1904005789
690295860.0 -0.0201322589 0.1796678736 0.0584791894 -0.5536977714 0.058165123 -0.5540415482 0.0095775686 0.1907398667
695295830.0 -0.0184337355 0.1794157772 0.0518604008 -0.5549318529 0.0521932858 -0.5549247254 0.0112684567 0.1904837344
700295800.0 -0.0167414082 0.1798591336 0.0464857592 -0.555049302 0.0464861426 -0.5556591586 0.0134784784 0.1904170977
705295770.0 -0.0151260603 0.1803032716 0.0404118597 -0.5555791097 0.0407520838 -0.5558120777 0.0153278279 0.190602735
710295740.0 -0.0134591122 0.1806746239 0.0345402241 -0.5559938682 0.0345191957 -0.5560986939 0.017209968 0.190831611
715295710.0 -0.0116916505 0.1809703385 0.0284157349 -0.5564900168 0.0285808767 -0.5565956579 0.0195224099 0.1903178051
720295680.0 -0.0101405995 0.1810437227 0.022504786 -0.556525077 0.0227067168 -0.5566942299 0.0217867101 0.190315382
725295650.0 -0.0078083023 0.1810926828 0.0157213849 -0.5562963814 0.0164770154 -0.5568747212 0.0239056489 0.190548243
730295620.0 -0.0066907712 0.1814423763 0.0106385029 -0.5568707984 0.0105513606 -0.5569701757 0.0255929914 0.1900038427
735295590.0 -0.0041876822 0.1817530135 0.0046380755 -0.5569556558 0.0048337824 -0.5574223619 0.0276540424 0.1900445608
740295560.0 -0.002892562 0.1822857348 -0.0011885538 -0.5565397316 -0.0014452921 -0.5570000607 0.029942441 0.1897053446
745295530.0 -0.0008670688 0.1819982808 -0.0074567783 -0.5570865202 -0.0072026198 -0.5573539038 0.0316447261 0.1897714755
750295500.0 0.0008240005 0.1823591156 -0.0131901559 -0.5564268387 -0.0136153157 -0.5568440414 0.0341936829 0.1892257273
755295470.0 0.0032114517 0.1826690642 -0.0191094744 -0.5563357966 -0.0195569874 -0.5566534317 0.0358297027 0.1892945679
760295440.0 0.0044627767 0.1826257992 -0.0255996071 -0.5562416087 -0.0253966234 -0.5563044618 0.0376800364 0.1890612424
765295410.0 0.0062630951 0.1823694588 -0.0307977887 -0.5557181011 -0.0311344472 -0.5560454833 0.0408000456 0.1891093059
770295380.0 0.0084392671 0.1829987559 -0.0377005581 -0.5556255285 -0.0374709008 -0.5558204014 0.0427877505 0.188732162
775295350.0 0.010226895 0.183106987 -0.0437091129 -0.5546776524 -0.0435948027 -0.5555929821 0.0439971336 0.1880159947
780295320.0 0.0119648012 0.1827852172 -0.0494412981 -0.554306137 -0.0491888374 -0.5545812293 0.0463085785 0.1878946692
785295290.0 0.0135286043 0.1834054413 -0.0549334939 -0.5535330778 -0.0554269611 -0.5538638944 0.0478649981 0.1873624103
790295260.0 0.0155703936 0.1830293834 -0.0612324209 -0.5534523572 -0.0612668608 -0.5535457592 0.0506061531 0.1870846256
795295230.0 0.0169452618 0.183230557 -0.0667667755 -0.5519849902 -0.0669340662 -0.5524435082 0.0523989221 0.1870629517
800295200.0 0.018944288 0.1830439663 -0.0735136946 -0.5518075628 -0.0731956828 -0.5524197713 0.0544409422 0.1862340415
805295170.0 0.02043979 0.1832659715 -0.0790970748 -0.5505995935 -0.0790169878 -0.5507574412 0.0561393062 0.1856381175
810295140.0 0.0225932169 0.1828059006 -0.084566283 -0.5494998822 -0.0848610351 -0.5503555459 0.0585062347 0.1856980128
815295110.0 0.0244103689 0.1831436886 -0.0910572415 -0.5487213491 -0.0912343306 -0.5485404964 0.0604963357 0.1847771488
820295080.0 0.0262888388 0.1827209682 -0.0965224936 -0.5477914533 -0.0967018358 -0.5482527135 0.0624275773 0.1843652663
825295050.0 0.0279355663 0.1824311392 -0.10254435 -0.5461374391 -0.1026718187 -0.5467324684 0.0648247888 0.1841013931
830295020.0 0.029795449 0.1828169536 -0.1087058952 -0.5456748593 -0.1087867884 -0.5456299075 0.0664837392 0.1831381685
