!Created with skrf (http://scikit-rf.org).
# Hz S RI R 50.0 
!freq ReS11 ImS11 ReS21 ImS21 ReS12 ImS12 ReS22 ImS22
300000.0 -0.2341939893 -0.1210347018 0.466255619 0.0800958516 0.464893601 0.0792841383 -0.2352351928 -0.1256252039
5299970.0 -0.2451537182 0.0053429011 0.4737436652 0.0059771777 0.4745060894 0.005820947 -0.2437559943 0.0051037302
10299940.0 -0.2418834181 0.018458433 0.4763855979 0.0070527419 0.4758585951 0.0073445565 -0.2402154478 0.0180461637
15299910.0 -0.2369713391 0.0283203317 0.4791869455 0.0083976421 0.4797652404 0.0082670883 -0.2361576391 0.0275923668
20299880.0 -0.2316491531 0.0361413259 0.4840367341 0.0084640138 0.4842829766 0.0085397693 -0.2312960207 0.0354152861
25299850.0 -0.2257886157 0.0428420684 0.4897554999 0.0079496572 0.4898825994 0.007679407 -0.2261689345 0.041900524
30299820.0 -0.2202997435 0.0476922293 0.4952855246 0.005568932 0.4950519146 0.0054477558 -0.2208287838 0.046943276
35299790.0 -0.2142464131 0.0518190505 0.4999334512 0.0025118232 0.5004536238 0.0022984289 -0.2157638335 0.0514224458
40299760.0 -0.2092172497 0.0547433558 0.5056613575 -0.0013713606 0.5058874291 -0.0016926314 -0.2106478306 0.0548459184
45299730.0 -0.2041696299 0.057172125 0.5101701803 -0.0061578921 0.5107014713 -0.0061218097 -0.2057992669 0.0575977153
50299700.0 -0.199176456 0.0589009801 0.5146876787 -0.0118599124 0.5144872658 -0.011999051 -0.2012925157 0.059817096
55299670.0 -0.194999153 0.0603020335 0.518294508 -0.0174834795 0.5185223823 -0.0177349893 -0.1977398169 0.0617546361
60299640.0 -0.1906385737 0.0616420973 0.5215985073 -0.0239785609 0.5218843209 -0.0237155536 -0.1935553464 0.063329935
65299610.0 -0.1872519995 0.0625824806 0.5246901416 -0.0299357453 0.5253871361 -0.0306705075 -0.1899447948 0.064735964
70299580.0 -0.18393483 0.0630863177 0.5270407243 -0.0367176794 0.5276056468 -0.0369805759 -0.1874728214 0.0657559014
75299550.0 -0.180971157 0.0636949289 0.528869 -0.0444390769 0.5290798025 -0.0437818376 -0.1841380738 0.0668900678
80299520.0 -0.1782984235 0.0646336975 0.5310685526 -0.0505489865 0.531368998 -0.050782417 -0.181523227 0.0680865354
85299490.0 -0.1759401944 0.0649593401 0.5318904931 -0.0580057215 0.5325696113 -0.0575702289 -0.1791729812 0.0685424688
90299460.0 -0.1736571737 0.0653340405 0.5331143133 -0.0643264047 0.5332261535 -0.0645821967 -0.1769377219 0.0699162256
95299430.0 -0.1712373645 0.0657308496 0.5340757509 -0.0717079557 0.5345728898 -0.0718512643 -0.1749608312 0.0706947581
100299400.0 -0.1693882844 0.0660312568 0.5345984611 -0.0781583187 0.5348915972 -0.0783770185 -0.1733862734 0.0717388502
105299370.0 -0.1675041336 0.066722934 0.5349808786 -0.0852124866 0.5355553108 -0.0851766513 -0.1710145563 0.0721049229
110299340.0 -0.1657716875 0.0670228256 0.5350552172 -0.0917249621 0.5354368507 -0.0918326236 -0.169641911 0.0729354813
115299310.0 -0.1646638829 0.067552889 0.5351511096 -0.0986631841 0.5352709062 -0.0983875152 -0.1683575102 0.0740983148
120299280.0 -0.1635040644 0.0682434819 0.535328527 -0.1061336969 0.5349680045 -0.1063532554 -0.166620067 0.0745870927
125299250.0 -0.161808389 0.0685763895 0.5345060347 -0.112131964 0.5348053521 -0.112316798 -0.165429055 0.0758857405
130299220.0 -0.1605855561 0.0692987726 0.5344786818 -0.1195535245 0.5341719299 -0.1199734763 -0.1641241133 0.0769015608
135299190.0 -0.1594664657 0.0699665604 0.5332260429 -0.1255547362 0.5337287293 -0.1257094507 -0.1630631445 0.0777529775
140299160.0 -0.158364039 0.0709403075 0.5328905301 -0.133008564 0.5331681279 -0.1326138567 -0.1622829178 0.0787474124
145299130.0 -0.157793959 0.0715166618 0.5316088375 -0.1388568733 0.5316550883 -0.138722105 -0.1610144463 0.0799799181
150299100.0 -0.1566889626 0.0723327817 0.5303804424 -0.1457224182 0.5303760137 -0.1457617245 -0.1597945013 0.0809805757
155299070.0 -0.1556679373 0.0735527335 0.5289110323 -0.1522523998 0.5294422042 -0.1524688914 -0.1588987809 0.0824227159
160299040.0 -0.1548118306 0.0743701577 0.5279001523 -0.1586519414 0.5279043439 -0.1590194724 -0.1578713567 0.0836443916
165299010.0 -0.1537586896 0.0753132373 0.5264040535 -0.1647586821 0.5266699181 -0.1653626226 -0.1566712114 0.084378781
170298980.0 -0.1531791993 0.0762968896 0.524663104 -0.171801429 0.5251239783 -0.1714583878 -0.1563210392 0.0858003339
175298950.0 -0.1522327158 0.0772805366 0.5233731031 -0.1776740238 0.5240079878 -0.178196948 -0.1550324501 0.0872803929
180298920.0 -0.1517498653 0.0785469384 0.521437309 -0.1844076213 0.5217880826 -0.1843599757 -0.1541874646 0.0885368908
185298890.0 -0.1509514833 0.0794182485 0.5200126794 -0.1900811327 0.5196869158 -0.190340757 -0.152874411 0.0893981809
190298860.0 -0.1496874593 0.0808363169 0.517710958 -0.1964598526 0.5180216993 -0.1965072431 -0.1522516604 0.0907634473
195298830.0 -0.1489993749 0.0818314859 0.5158880571 -0.2023644346 0.5158021165 -0.2026315245 -0.1515207012 0.0922642344
200298800.0 -0.148372034 0.0827940435 0.5143643863 -0.2090998034 0.5141691403 -0.2091123919 -0.1503470812 0.0934699334
205298770.0 -0.1479978522 0.0837690926 0.5115707973 -0.2145810185 0.5116242813 -0.2143841169 -0.1491808777 0.0948417404
210298740.0 -0.1470477176 0.0855387035 0.5096570584 -0.2210139632 0.5092621553 -0.2207120858 -0.1486272774 0.0964831079
215298710.0 -0.1462111463 0.0865555392 0.5069965101 -0.2264063129 0.5068715958 -0.2270109632 -0.1474125923 0.0978285099
220298680.0 -0.1452534296 0.0877877448 0.5044720457 -0.2325367406 0.5045104559 -0.2325340746 -0.146305867 0.0989769115
225298650.0 -0.1445036631 0.0890358813 0.5018587094 -0.2386436247 0.5022406889 -0.2380947909 -0.1456114968 0.1003205915
230298620.0 -0.1434214334 0.0905468522 0.4997127772 -0.2443455664 0.5001095942 -0.2445698531 -0.1447728121 0.1018512396
235298590.0 -0.1431331358 0.0918399716 0.4971815571 -0.2506625627 0.4970982992 -0.2503635483 -0.1432021984 0.1034078045
240298560.0 -0.1424657226 0.0931473507 0.4941501959 -0.2554392669 0.4943798526 -0.2556101277 -0.1427007073 0.1044367843
245298530.0 -0.1413184236 0.0943108275 0.4913941402 -0.2615517188 0.4915841832 -0.2617435462 -0.1414130459 0.1061611958
250298500.0 -0.14106211 0.0954493778 0.4890640959 -0.2669232726 0.4890224863 -0.2668723077 -0.1405149003 0.1076831009
255298470.0 -0.1397212438 0.0971377563 0.4860831813 -0.2720344044 0.4863208439 -0.2731706813 -0.1392164876 0.1094832805
260298440.0 -0.1388608279 0.0982402527 0.4829924828 -0.277788964 0.4832468342 -0.277946278 -0.1387322912 0.11036495
265298410.0 -0.1384720003 0.0997765639 0.4797777207 -0.2843878748 0.4799972702 -0.2840264037 -0.1370393773 0.1118387588
270298380.0 -0.1378328588 0.1008083512 0.4769389926 -0.2888380401 0.4770242166 -0.2892053243 -0.1360501733 0.1132412514
275298350.0 -0.1368404181 0.1025879484 0.4734049364 -0.2941623744 0.4736889706 -0.2943804756 -0.1349178662 0.1150196484
280298320.0 -0.1359978302 0.1037567022 0.4707511621 -0.2994681542 0.4708631614 -0.2999254395 -0.1337837773 0.1164607353
285298290.0 -0.1352319721 0.105147006 0.4671903289 -0.3052551935 0.4675277398 -0.3051213313 -0.1325757969 0.118000574
290298260.0 -0.1344381035 0.1066132846 0.4646575833 -0.3101847309 0.4642599512 -0.3102611442 -0.131130074 0.1191631069
295298230.0 -0.1332741619 0.1076204924 0.4607937937 -0.3159036761 0.4607448029 -0.316449877 -0.1297553492 0.1206312257
300298200.0 -0.1324716099 0.1091140351 0.4575315041 -0.3212210912 0.4575642442 -0.3207019991 -0.1288968646 0.122081641
305298170.0 -0.1312676575 0.1099332769 0.4539303476 -0.3266262546 0.4542567784 -0.3267796138 -0.1271786452 0.1233514873
310298140.0 -0.1302071004 0.1112245345 0.4503655242 -0.3314312574 0.4505152389 -0.3314612418 -0.1257227727 0.1242690101
315298110.0 -0.1296569868 0.1123081027 0.4470586737 -0.3368363267 0.4469690885 -0.3369323873 -0.1246188182 0.1260179322
320298080.0 -0.1287559686 0.1136540063 0.4426390725 -0.3420726057 0.4430067389 -0.3421339417 -0.1233410884 0.1269885869
325298050.0 -0.1280685349 0.1146284495 0.4388369786 -0.3468020582 0.439603389 -0.3469725792 -0.1219451829 0.1284382497
330298020.0 -0.1276817633 0.1163531768 0.4350327137 -0.3521600894 0.4356401466 -0.3517547526 -0.1215214147 0.1295261209
335297990.0 -0.1265891256 0.1171107173 0.4312220753 -0.3562700999 0.4315922272 -0.3568077464 -0.119976613 0.1310469267
340297960.0 -0.1259855825 0.1186690572 0.4269749156 -0.3616224183 0.4269253401 -0.3614570686 -0.1188124541 0.1326093088
345297930.0 -0.1252418108 0.1196995256 0.4228537157 -0.3665195176 0.4230808067 -0.3662800356 -0.1173744751 0.1338934787
350297900.0 -0.1242268978 0.1213589435 0.4190718546 -0.3706678582 0.4194664758 -0.3707723704 -0.1163038354 0.1352361654
355297870.0 -0.1232210718 0.1224898397 0.4150730512 -0.3751602083 0.4147312389 -0.3752784401 -0.1145486477 0.1369340726
360297840.0 -0.1221136269 0.1240552128 0.4099159745 -0.3798712097 0.4110285239 -0.3802362393 -0.1134041976 0.1381534295
365297810.0 -0.1211097144 0.1254109875 0.406665023 -0.3845723236 0.4064251351 -0.3842771868 -0.1122647758 0.1395024273
370297780.0 -0.1201674669 0.1265754345 0.4017112462 -0.3887830427 0.4024101323 -0.3887178812 -0.1106499843 0.1406019388
375297750.0 -0.1189633293 0.1278171376 0.3979447135 -0.3931693668 0.3980057581 -0.3933758651 -0.109033553 0.142212267
380297720.0 -0.1181409907 0.1292841751 0.3937019144 -0.3982491404 0.3935482235 -0.397961285 -0.1072824123 0.1436686176
385297690.0 -0.1168812707 0.130246392 0.3889853797 -0.40160134 0.38913473 -0.4024284348 -0.1058091845 0.1449432699
390297660.0 -0.1154430639 0.1312283721 0.3845803408 -0.4061462986 0.3850861437 -0.4061200174 -0.104486364 0.1458419873
395297630.0 -0.1143633146 0.1326245235 0.3800403575 -0.4096955515 0.3799556585 -0.4100070297 -0.1027681174 0.1471285541
400297600.0 -0.1137751989 0.1336436397 0.3757019957 -0.4143877862 0.3758957709 -0.4143510946 -0.1012090071 0.1488361925
405297570.0 -0.1122200321 0.1345326642 0.3711711172 -0.4183517956 0.3714691153 -0.4189098537 -0.099325724 0.1503659168
410297540.0 -0.1109140459 0.136203062 0.3665367275 -0.4227917754 0.3669247961 -0.4224608135 -0.0980619701 0.1512194715
415297510.0 -0.1097573157 0.1374271688 0.3618461107 -0.4266557574 0.3625871823 -0.4266294136 -0.0963408243 0.1525054083
420297480.0 -0.1086972996 0.1382332122 0.3571514663 -0.4305900357 0.3576639394 -0.4307840842 -0.0942635494 0.1543783243
425297450.0 -0.1070860523 0.139338025 0.3526831229 -0.434292382 0.3525117991 -0.4342885631 -0.0929543083 0.154846368
430297420.0 -0.1059705917 0.1406873792 0.3482666471 -0.4385164803 0.3482648709 -0.4381313451 -0.0907891291 0.1563095272
435297390.0 -0.1047520389 0.1415461896 0.343008386 -0.4423949647 0.3431528771 -0.4425420574 -0.0894117671 0.1576334559
440297360.0 -0.1030820012 0.1427327033 0.337596817 -0.4460772337 0.3380129561 -0.4460905501 -0.0879630063 0.1586933451
445297330.0 -0.1019293837 0.1434556395 0.333470937 -0.4493385321 0.3333942269 -0.4495001246 -0.0859255636 0.1597563277
450297300.0 -0.1007810742 0.1448598407 0.3285458437 -0.4528695011 0.3286493975 -0.4528139315 -0.0840619612 0.1608393722
455297270.0 -0.0995674744 0.1457722575 0.3234704708 -0.4567159093 0.323661759 -0.4567676704 -0.0824020933 0.1619118182
460297240.0 -0.0976676053 0.1468800038 0.3186363362 -0.4608262355 0.3183149833 -0.4605360415 -0.0805870977 0.1627277813
465297210.0 -0.096440772 0.1478723885 0.3128198395 -0.4637354968 0.3131432702 -0.4640695451 -0.0785130316 0.1643554608
470297180.0 -0.0949912804 0.1487220516 0.3081282091 -0.4670299992 0.3081619613 -0.4667733577 -0.0766111749 0.1647434916
475297150.0 -0.0936356044 0.150201402 0.3029638817 -0.4703668319 0.3033553183 -0.4704462482 -0.0749971582 0.1660890347
480297120.0 -0.0917972239 0.1512414073 0.2981395454 -0.4737066288 0.2982467685 -0.4736536103 -0.0735981361 0.1669982284
485297090.0 -0.0905817229 0.1517601253 0.2924218885 -0.4766084241 0.2925738697 -0.4765732567 -0.0712677317 0.168116458
490297060.0 -0.0884589136 0.1529764838 0.2872681729 -0.4801791834 0.287538076 -0.4804591043 -0.0696170805 0.1689918792
495297030.0 -0.0878387147 0.1537646055 0.2828075975 -0.483260031 0.2823121553 -0.4830996427 -0.0671988026 0.1696146079
500297000.0 -0.0862645107 0.1550429141 0.2772772322 -0.4862291769 0.277060243 -0.4867520225 -0.0654803826 0.1705746497
505296970.0 -0.0840807369 0.1557969924 0.2718148136 -0.4894676113 0.2717378061 -0.4889295458 -0.0636423525 0.1712853872
510296940.0 -0.0825302017 0.1565929416 0.2663235628 -0.4923743418 0.2665252505 -0.4923597069 -0.0613474975 0.172318386
515296910.0 -0.0812379667 0.1578670168 0.2603947325 -0.4949159618 0.2607141303 -0.4950885571 -0.0599540812 0.1727018323
520296880.0 -0.079374611 0.1587466471 0.2554293348 -0.4975999142 0.2551685997 -0.4976411439 -0.0573505482 0.1738469741
525296850.0 -0.0779183925 0.1593158809 0.2500684968 -0.5002651636 0.2497299062 -0.5003550226 -0.0556567553 0.1743483178
530296820.0 -0.0767104569 0.1604454032 0.2445650379 -0.5034202152 0.2446242346 -0.5030371352 -0.0538010364 0.1754264966
535296790.0 -0.0742750442 0.1613287597 0.238843494 -0.5056443651 0.239321814 -0.5056381979 -0.0515341684 0.1763198151
540296760.0 -0.0727296472 0.1625445218 0.2335519156 -0.5080697681 0.2330933639 -0.5083418694 -0.0497442619 0.1769312211
545296730.0 -0.0717714891 0.1634627536 0.2277697585 -0.5108058892 0.2275172879 -0.5105460779 -0.0474903465 0.177414636
550296700.0 -0.0694586323 0.1639479443 0.2224643302 -0.5132755692 0.2219906134 -0.5132854067 -0.0453341332 0.1778818168
555296670.0 -0.0679798156 0.1648684597 0.2163528313 -0.5158666989 0.2166518776 -0.5157301212 -0.0436390854 0.1782940302
560296640.0 -0.0660546948 0.1656545042 0.2108334572 -0.5182058803 0.2109797692 -0.5182267645 -0.0417284134 0.1794678077
565296610.0 -0.0651020858 0.1664650652 0.2057518748 -0.5199550905 0.2054667756 -0.5198658045 -0.0396206333 0.1801132824
570296580.0 -0.0629595345 0.167414011 0.199227171 -0.522302806 0.1996418977 -0.522160133 -0.0377022092 0.1801502038
575296550.0 -0.0609132264 0.1680118017 0.1944407042 -0.5242227644 0.19431123 -0.52441272 -0.0355645289 0.1809428222
580296520.0 -0.0594996933 0.1691276568 0.1881387517 -0.5264432887 0.1880870018 -0.5269041483 -0.0337710434 0.1815287805
585296490.0 -0.0575791923 0.1697108112 0.1826409835 -0.5283352721 0.1820250208 -0.5278928114 -0.0312989472 0.181998128
590296460.0 -0.0553786277 0.1703711963 0.1766895313 -0.530455143 0.1769692799 -0.5306940105 -0.0297709806 0.1827870974
595296430.0 -0.0540484156 0.17134622 0.1706840666 -0.5321026801 0.1709446463 -0.532299442 -0.0275288221 0.1826954975
600296400.0 -0.0520105642 0.1720640881 0.1649993886 -0.5340195622 0.1649893024 -0.5337663661 -0.0253119699 0.1830188577
605296370.0 -0.0508012546 0.1727921621 0.1602786761 -0.5358205503 0.1591199031 -0.5357427999 -0.0231127582 0.1839111449
610296340.0 -0.0486400926 0.1736476776 0.1535774439 -0.5369270505 0.15406371 -0.5370546964 -0.0213913697 0.1842315421
615296310.0 -0.0468340144 0.1743207176 0.1476839584 -0.5394419586 0.1473066383 -0.5390199765 -0.0189262438 0.1847514412
620296280.0 -0.0453946509 0.1753113098 0.1418872684 -0.5405048366 0.1415943455 -0.5403060361 -0.0174217017 0.1851667347
625296250.0 -0.0437839152 0.1756954138 0.13601689 -0.5419633699 0.1359885534 -0.5419060599 -0.0153327947 0.1852274764
630296220.0 -0.0417807824 0.1764704614 0.1296726352 -0.5434731984 0.1297866972 -0.54311889 -0.0129049598 0.185709113
635296190.0 -0.0401710155 0.1773301187 0.1245072274 -0.5447397496 0.1241596224 -0.5447243 -0.0111245837 0.1857439349
640296160.0 -0.0384184925 0.1777571123 0.1184908535 -0.5461542589 0.1180981926 -0.5461519686 -0.0090652537 0.186346629
645296130.0 -0.0364125147 0.1786048449 0.1121757227 -0.5471269529 0.1123283716 -0.5469214594 -0.0072605119 0.1859582494
650296100.0 -0.0345977239 0.1789916713 0.10650696 -0.5482489303 0.1062924679 -0.5485999643 -0.0043179344 0.18620059
655296070.0 -0.033348059 0.1796244734 0.1001171876 -0.549922579 0.1003986869 -0.5493104918 -0.0028859213 0.1868094372
660296040.0 -0.031080544 0.1803101773 0.0946383959 -0.5504076083 0.0946748628 -0.550684468 -0.0006728769 0.1864326376
665296010.0 -0.0294491467 0.1809047223 0.088280386 -0.5507907894 0.0884120115 -0.5508737169 0.0015935319 0.1867835028
670295980.0 -0.0278532768 0.1816666963 0.0824673302 -0.5525797395 0.0826415165 -0.5517012768 0.003193929 0.1868706733
675295950.0 -0.0259819451 0.1818843668 0.0764663556 -0.5526516564 0.0767194504 -0.5529279201 0.0052504245 0.1871815434
680295920.0 -0.0245685256 0.1826092713 0.0710121413 -0.5535517037 0.0705409766 -0.5539164209 0.0077633868 0.1872986327
685295890.0 -0.0222519752 0.1831538243 0.0641961381 -0.55475693 0.0645283325 -0.554697265 0.0096475033 0.1874882664
690295860.0 -0.0207889653 0.1835602904 0.058763493 -0.5549993383 0.0583520077 -0.5552890176 0.0116206191 0.1874178432
695295830.0 -0.0188933376 0.1840936818 0.0530690135 -0.5560234007 0.0527525391 -0.5557101089 0.0135014803 0.18747964
700295800.0 -0.0168995878 0.1844481042 0.0473068235 -0.5563234252 0.0468845364 -0.5561802125 0.0157732819 0.1872584597
705295770.0 -0.0154813354 0.1850432764 0.0409824912 -0.5571010659 0.040572931 -0.556647445 0.0180450484 0.1875199533
710295740.0 -0.0138707297 0.185186196 0.035170647 -0.5569141342 0.0344297522 -0.5574025529 0.0200934219 0.1876752697
715295710.0 -0.0116408757 0.1859496894 0.028921055 -0.5574385302 0.0287126947 -0.5574137175 0.0221614506 0.1872409163
720295680.0 -0.0098383004 0.1861596931 0.0228729571 -0.5574431812 0.0224067721 -0.5578538169 0.0241368613 0.1872064928
725295650.0 -0.0088506395 0.1867722482 0.0173464801 -0.5580102348 0.016556467 -0.5579512296 0.0259219979 0.1874565347
730295620.0 -0.007149105 0.1867853837 0.0108023739 -0.5577091535 0.0108069982 -0.5573919309 0.0281408402 0.1874138825
735295590.0 -0.0048064999 0.1872572081 0.0050233373 -0.5582174446 0.0046659367 -0.5580951741 0.0301715292 0.1868644336
740295560.0 -0.0035278122 0.1872883593 -0.0011896589 -0.5583506901 -0.000979603 -0.5582344059 0.0318888897 0.1868208972
745295530.0 -0.0015988361 0.1879584247 -0.0069326787 -0.5576210967 -0.0066570346 -0.5579392238 0.0335683558 0.1867544889
750295500.0 3.6212e-06 0.1880448196 -0.012845349 -0.5579744635 -0.0133615291 -0.5577182723 0.035846615 0.1866286528
755295470.0 0.0017413141 0.1882568319 -0.0186979138 -0.5577054668 -0.0189328284 -0.5581402052 0.0381275527 0.1865660879
760295440.0 0.0034663429 0.1888848838 -0.025908134 -0.5573574679 -0.0252158446 -0.5570105248 0.0404257985 0.1852786061
765295410.0 0.0055387371 0.1882711442 -0.031185214 -0.5567239813 -0.0306586962 -0.5569879726 0.0422346565 0.1857219355
770295380.0 0.0069936977 0.1890248148 -0.0364384994 -0.5561074336 -0.0368293695 -0.5567398059 0.0441273089 0.1852861447
775295350.0 0.0088340235 0.189117999 -0.0429523094 -0.5563089627 -0.0426679904 -0.5557678822 0.0464047626 0.1850282649
780295320.0 0.0102212444 0.1892894114 -0.0484542813 -0.55513975 -0.0489127035 -0.555676612 0.0487606406 0.1846935354
785295290.0 0.0121857791 0.1892042862 -0.0548487687 -0.554730763 -0.0548591675 -0.5551148656 0.0500149825 0.1847699515
790295260.0 0.013961202 0.1891569958 -0.0605867795 -0.5542129083 -0.0607640416 -0.5547550091 0.0522694728 0.1844221344
795295230.0 0.0154995814 0.1893349088 -0.0668122541 -0.5540167257 -0.0665727379 -0.5544251839 0.0545528856 0.1832390597
800295200.0 0.0170462607 0.1898150803 -0.0723756843 -0.5524326282 -0.0727644777 -0.5527732366 0.0560929412 0.183070852
805295170.0 0.0188480507 0.1896060421 -0.0782093398 -0.5520060531 -0.0785562203 -0.5520251469 0.0586903551 0.1825590306
810295140.0 0.0209289586 0.1898711508 -0.0844265603 -0.5509327406 -0.0845768217 -0.5510443919 0.0608406127 0.1820112025
815295110.0 0.0223185454 0.1899163718 -0.090586133 -0.5501758724 -0.0900868793 -0.5505828257 0.0623047808 0.181607194
820295080.0 0.0241990944 0.189713738 -0.095888782 -0.5490154172 -0.0958519739 -0.5495775275 0.0638199288 0.1814829718
825295050.0 0.025655786 0.1893719535 -0.1019391468 -0.5482173327 -0.1018874378 -0.5481169237 0.0663890733 0.180948908
830295020.0 0.0274993094 0.1894511176 -0.1076775721 -0.5468341726 -0.1078481619 -0.5473270245 0.0683818739 0.1800256765
