!Created with skrf (http://scikit-rf.org).
# Hz S RI R 50.0 
!freq ReS11 ImS11 ReS21 ImS21 ReS12 ImS12 ReS22 ImS22
300000.0 -0.2333529437 -0.1300701966 0.4660873743 0.0852153841 0.4671772487 0.0837807886 -0.2359774168 -0.1286845516
5299970.0 -0.2419176669 0.0054489276 0.4751552501 0.0059798691 0.4750131394 0.0061434442 -0.2445280478 0.0047940033
10299940.0 -0.2388430531 0.0187549438 0.4774474168 0.0069432483 0.4772018406 0.0068750772 -0.2410156286 0.017310848
15299910.0 -0.2338695275 0.0286859957 0.4805981975 0.0080313723 0.4810331727 0.0081222188 -0.2370687223 0.0262866506
20299880.0 -0.2285821432 0.0369256934 0.4853318193 0.0079809178 0.4855332377 0.0082652471 -0.2322340325 0.0339955181
25299850.0 -0.2225819132 0.0438492502 0.4909088732 0.0076093278 0.4911634226 0.0071801216 -0.2270980035 0.0400697659
30299820.0 -0.2171282638 0.0487084874 0.4961577493 0.0051396104 0.4961481392 0.0051126268 -0.221779578 0.0451333601
35299790.0 -0.2113386984 0.0530464777 0.5008936028 0.0021774099 0.5014752608 0.0020313003 -0.2168717757 0.0491084899
40299760.0 -0.2062111161 0.0561960187 0.5063297295 -0.0019247499 0.5067371475 -0.002038404 -0.2119596041 0.0523874489
45299730.0 -0.2010638377 0.0587163407 0.5113580546 -0.0065326723 0.5111816946 -0.0068832903 -0.2069814663 0.0547693006
50299700.0 -0.1962234934 0.0608178118 0.51525765 -0.0124418472 0.5154170741 -0.0126203276 -0.2026628132 0.0570252139
55299670.0 -0.1921017399 0.0625405544 0.5192495621 -0.018062267 0.518970149 -0.0183504618 -0.1989767691 0.0583332948
60299640.0 -0.187817364 0.063922001 0.5222989085 -0.0247151127 0.5223698006 -0.0248115794 -0.1954571862 0.0597166469
65299610.0 -0.1842694229 0.0651614442 0.525689733 -0.0308966464 0.5256316463 -0.0310427198 -0.1918390341 0.0607794354
70299580.0 -0.1807398168 0.065666401 0.5276083841 -0.0375663137 0.5277538451 -0.0374224975 -0.1891458346 0.0619309688
75299550.0 -0.1779997471 0.0666017965 0.5293271679 -0.0447652003 0.5296650154 -0.0446100696 -0.1860664166 0.0627967316
80299520.0 -0.1753355037 0.0674837709 0.5314993203 -0.0513593 0.5316535323 -0.0513233916 -0.184022593 0.063837958
85299490.0 -0.1726567966 0.0681669567 0.5328017483 -0.0580501361 0.5330880167 -0.0582212848 -0.1816160594 0.0642480137
90299460.0 -0.1702183367 0.0691009896 0.5334848194 -0.0652738958 0.5334903851 -0.0651641875 -0.1793053063 0.0648711876
95299430.0 -0.1682019733 0.0696916361 0.5344873874 -0.0718536265 0.5348698104 -0.0723345195 -0.1778635029 0.0653888025
100299400.0 -0.1659360288 0.070360078 0.5350263015 -0.0788072593 0.5351487133 -0.0788400841 -0.1760672484 0.0665555855
105299370.0 -0.1642092578 0.0706873965 0.535114264 -0.0857053756 0.5355355896 -0.0859532196 -0.1738438584 0.0665923122
110299340.0 -0.1623832483 0.0715200642 0.535493279 -0.092238644 0.5359409861 -0.092418303 -0.1728449116 0.0674223549
115299310.0 -0.1608552597 0.0725719361 0.5352105896 -0.0993432869 0.5356939866 -0.0996055549 -0.1714270826 0.0685380747
120299280.0 -0.1594297083 0.0731833959 0.5352523724 -0.1066341989 0.5353570914 -0.106431586 -0.1700438118 0.0687221487
125299250.0 -0.1581561355 0.0739578494 0.5348183454 -0.1129624387 0.5345194109 -0.112644824 -0.1688578985 0.0698351867
130299220.0 -0.1565708604 0.0746364535 0.5341290277 -0.1195402287 0.5341229176 -0.12011436 -0.1676733275 0.0703780438
135299190.0 -0.1553884871 0.0759146517 0.5339867407 -0.1261795494 0.5338046586 -0.1264881215 -0.1666820359 0.0707698962
140299160.0 -0.1541789455 0.0766982745 0.5329950102 -0.1331414027 0.5331178535 -0.1323958754 -0.1664729148 0.0716672267
145299130.0 -0.1534181948 0.0778169843 0.5318604113 -0.1393553996 0.5319544708 -0.1394067976 -0.1651087307 0.0731575333
150299100.0 -0.1521491597 0.0788559255 0.5309009521 -0.1460988225 0.530671613 -0.14632329 -0.1642784623 0.0741251265
155299070.0 -0.1509011939 0.0799965924 0.5291550291 -0.1526156884 0.5298724773 -0.1527960248 -0.1633514979 0.0750049702
160299040.0 -0.1500905301 0.0811641959 0.5280537209 -0.1590385646 0.5284044981 -0.1590487734 -0.1626874754 0.0760900924
165299010.0 -0.1487896715 0.0822658101 0.5271454171 -0.1654753923 0.5267529072 -0.1656249057 -0.1617349276 0.0766554844
170298980.0 -0.1481573168 0.0833911722 0.5249235254 -0.1715477723 0.5254294697 -0.1718022989 -0.1611834742 0.0776524044
175298950.0 -0.1468429515 0.0848421611 0.5238125397 -0.1780989346 0.5240677242 -0.1783902782 -0.1604157739 0.0795010192
180298920.0 -0.1458516657 0.0860091885 0.5216258067 -0.1845861666 0.5218100649 -0.1845447503 -0.1595412681 0.0802592401
185298890.0 -0.1449949096 0.0872748985 0.520214557 -0.1905315602 0.5198057544 -0.1906218879 -0.1585481138 0.0810734631
190298860.0 -0.1437735953 0.0889443303 0.517721137 -0.1968629056 0.518649008 -0.1967142908 -0.158123248 0.082560418
195298830.0 -0.1430213266 0.0903464953 0.5161994334 -0.2026302758 0.5164329248 -0.202963361 -0.1573908737 0.083712289
200298800.0 -0.1418487818 0.091157225 0.5140267821 -0.2097428818 0.5141671708 -0.2091386565 -0.1565146748 0.0844227299
205298770.0 -0.1414323939 0.0926889387 0.5117566867 -0.2152644064 0.5120516274 -0.2146293638 -0.1556599181 0.085865799
210298740.0 -0.1401970468 0.0944614283 0.5096325491 -0.2212165686 0.509248948 -0.2208701417 -0.1551816802 0.0869209099
215298710.0 -0.1392911898 0.0955949238 0.5070225539 -0.2264973675 0.5073440633 -0.2271469908 -0.1540804159 0.0882471753
220298680.0 -0.1379682807 0.0969616487 0.5045979697 -0.2327689383 0.5048517451 -0.2328660628 -0.1535183108 0.0895002834
225298650.0 -0.1369267912 0.0981067675 0.5018234002 -0.2381692612 0.5025865064 -0.2381323463 -0.1532278823 0.0905480461
230298620.0 -0.1361072159 0.10029021 0.500022449 -0.2446944507 0.5001189443 -0.2443022776 -0.1523336003 0.0918845088
235298590.0 -0.1355203799 0.1012651504 0.4970202748 -0.2502577048 0.4973742774 -0.2503207335 -0.1513274202 0.0933581542
240298560.0 -0.134272864 0.1027528379 0.4943957566 -0.2553594858 0.4944927053 -0.2555857801 -0.150515177 0.0942754134
245298530.0 -0.1334616999 0.1040556115 0.4915484687 -0.2618519568 0.4917391632 -0.2618041879 -0.1497198795 0.0960567158
250298500.0 -0.132356252 0.1052766919 0.4888076584 -0.2668495295 0.4888620423 -0.2668821061 -0.148806322 0.0974097239
255298470.0 -0.1311100834 0.1073304986 0.4862130424 -0.2724948605 0.4865680881 -0.2726916072 -0.1481411175 0.098418606
260298440.0 -0.1300189141 0.1083300008 0.4830208872 -0.2775768048 0.4833278029 -0.2781483304 -0.1475797361 0.0996706178
265298410.0 -0.1292022884 0.1100330071 0.4803473958 -0.2840535408 0.4796815974 -0.2842296224 -0.1458638772 0.1009460926
270298380.0 -0.1282083104 0.1112830197 0.4768511651 -0.2891203925 0.4771830695 -0.2892540764 -0.1454965446 0.1025441444
275298350.0 -0.1269622901 0.113336879 0.4733129594 -0.2943589035 0.4738694263 -0.2944134331 -0.1444097003 0.1042506738
280298320.0 -0.1263752371 0.1143907837 0.4709083103 -0.2992916446 0.4708614901 -0.2997322704 -0.1434400427 0.1055962823
285298290.0 -0.1249945488 0.1160818506 0.467561879 -0.3053684348 0.4678863723 -0.3050339623 -0.142658675 0.1069776355
290298260.0 -0.1238193457 0.117622156 0.4646867979 -0.3104989996 0.4645301616 -0.3101916396 -0.1419041279 0.108146569
295298230.0 -0.1227585641 0.1184156808 0.4608221883 -0.3158679805 0.4613590569 -0.3162245329 -0.1407834602 0.109237282
300298200.0 -0.1212758187 0.1201908544 0.457105552 -0.3208549281 0.4578031797 -0.3207695575 -0.1398472321 0.1106862733
305298170.0 -0.1201734212 0.1212267993 0.4543022874 -0.3261006555 0.4543036427 -0.3264131569 -0.1387368078 0.1115620513
310298140.0 -0.1185747106 0.1224170523 0.4506650428 -0.3309531896 0.4509790637 -0.3311592071 -0.1374383769 0.1129133382
315298110.0 -0.1177693032 0.1236716557 0.4465374759 -0.3367465953 0.4469309264 -0.3370876426 -0.1364255662 0.1142699741
320298080.0 -0.1165045653 0.1252314608 0.4427226378 -0.3418359538 0.4437307175 -0.3425919884 -0.1359129852 0.1156988257
325298050.0 -0.1155072163 0.1258738327 0.4393916916 -0.3466109029 0.4395920308 -0.3467437259 -0.134458766 0.1166240829
330298020.0 -0.1150646662 0.1276894044 0.4356259556 -0.3518461067 0.4358235867 -0.3521201223 -0.134028381 0.1180414971
335297990.0 -0.113437624 0.1292599676 0.4313165881 -0.3568164322 0.4316693314 -0.3566557028 -0.1329902854 0.1189813973
340297960.0 -0.1124276896 0.1302319425 0.4271246338 -0.3616110073 0.427090437 -0.3615309066 -0.1322034932 0.1207918313
345297930.0 -0.111360969 0.1316626805 0.4231627142 -0.3661432199 0.4234415668 -0.3666669483 -0.1310935422 0.122185387
350297900.0 -0.1101177572 0.132978108 0.419284124 -0.3704221981 0.419609551 -0.3706168907 -0.1302280725 0.1232201184
355297870.0 -0.1090092198 0.134295693 0.4153343707 -0.3748066371 0.4152283725 -0.3749467798 -0.128598393 0.1245248014
360297840.0 -0.1076282116 0.1359680974 0.4108824977 -0.3798966064 0.4111108173 -0.3804721662 -0.1275672273 0.1261533433
365297810.0 -0.1063334957 0.1372347539 0.406903404 -0.3839822228 0.4069033633 -0.3844714858 -0.1268947092 0.1274560605
370297780.0 -0.1046395085 0.13829976 0.4019818125 -0.3888428188 0.402567268 -0.3889278912 -0.1256847286 0.1289894898
375297750.0 -0.1034851609 0.1395145604 0.3980574829 -0.3930295227 0.3985503626 -0.3932728078 -0.1242535188 0.1300152527
380297720.0 -0.102285794 0.1412017004 0.3942148748 -0.3977089714 0.3936544781 -0.3977460758 -0.12320375 0.1317190223
385297690.0 -0.1008911711 0.1424055601 0.3897361369 -0.4021218668 0.3896542049 -0.4022942566 -0.121968085 0.1329089664
390297660.0 -0.099030249 0.143345309 0.3850358627 -0.4057138458 0.3856838164 -0.406034415 -0.1208283206 0.133992466
395297630.0 -0.0975015534 0.144574813 0.3805519151 -0.4098969791 0.3807131623 -0.4098841499 -0.1195672686 0.1352873399
400297600.0 -0.0961702032 0.1455945421 0.3760726654 -0.4139880248 0.3762841642 -0.4143691016 -0.1181749314 0.1370469113
405297570.0 -0.094750025 0.1466789853 0.3717614385 -0.4184069724 0.3718777613 -0.4184787466 -0.1165662607 0.138257126
410297540.0 -0.0931957014 0.1481831625 0.3671846862 -0.4228264918 0.367387036 -0.4223638683 -0.1156612544 0.1394487842
415297510.0 -0.0920143888 0.1494738161 0.3621121895 -0.4266352043 0.3627189776 -0.426621383 -0.1140739212 0.1408235397
420297480.0 -0.0904035268 0.1500528744 0.3578239567 -0.4304924071 0.3578607787 -0.4304951579 -0.1128242098 0.142294075
425297450.0 -0.0882029646 0.1511977428 0.3533954115 -0.4340142603 0.3529914194 -0.4344929476 -0.1113874466 0.1429233164
430297420.0 -0.0871230198 0.1525164006 0.348889503 -0.4381819088 0.3486820615 -0.4379518424 -0.1099337569 0.1444076098
435297390.0 -0.0853225796 0.1537169341 0.343561483 -0.4427440588 0.3438486601 -0.4419947953 -0.1090421137 0.145956127
440297360.0 -0.0834412267 0.1542183143 0.3383613211 -0.4457509081 0.338935357 -0.445709082 -0.1074417624 0.1471847168
445297330.0 -0.0818502642 0.1551111253 0.3341677486 -0.4487044888 0.3337932577 -0.4494356003 -0.105844595 0.1484109886
450297300.0 -0.0799534286 0.1562394141 0.3291669091 -0.4531103054 0.3293416352 -0.4530062984 -0.104544794 0.1494801142
455297270.0 -0.0786299891 0.1574093139 0.3240220998 -0.4564673012 0.3244087265 -0.4566459591 -0.1028072195 0.1504773665
460297240.0 -0.0767010716 0.1585038471 0.3191632081 -0.4608458607 0.3190277354 -0.4605223162 -0.1015345952 0.1517182979
465297210.0 -0.0747981916 0.1593223185 0.3133481148 -0.4640229668 0.313587096 -0.4637573311 -0.0998105051 0.1531108516
470297180.0 -0.0730610024 0.159927083 0.3084316179 -0.4668529745 0.3088348595 -0.4666989688 -0.098502364 0.1535970045
475297150.0 -0.0714944802 0.1611114767 0.3036007485 -0.470195532 0.3042096079 -0.4705680375 -0.0969921416 0.1547423897
480297120.0 -0.069399231 0.1623319351 0.298617892 -0.4734293845 0.2987220112 -0.4737900795 -0.0954313604 0.1563092704
485297090.0 -0.0675488506 0.1624401897 0.2931072554 -0.4765717818 0.2931327107 -0.4767249667 -0.0941777048 0.1572803462
490297060.0 -0.0653530034 0.1636825889 0.2877348335 -0.4800820155 0.288031058 -0.4802355388 -0.0923408043 0.1579387294
495297030.0 -0.064154435 0.1641704855 0.2832633831 -0.4832487582 0.2829343305 -0.4831123434 -0.0906240032 0.159073663
500297000.0 -0.0621761186 0.1654896851 0.2778042255 -0.4859057844 0.2775603204 -0.4862474279 -0.0891141688 0.1605830629
505296970.0 -0.0599622717 0.1660773313 0.2723688697 -0.4896523314 0.2724571463 -0.4891739157 -0.0875193229 0.1609382893
510296940.0 -0.0578902943 0.1669401846 0.2669052363 -0.4926046228 0.2673286367 -0.4923701346 -0.085585032 0.1622333067
515296910.0 -0.0563189371 0.1678443812 0.2612748099 -0.4950241443 0.26100309 -0.494751639 -0.0842005111 0.1626576673
520296880.0 -0.0542603537 0.1686380494 0.256200943 -0.4974878706 0.255766486 -0.4976160338 -0.0818931077 0.1643471294
525296850.0 -0.0523309121 0.169247037 0.2504944806 -0.500109034 0.2502478498 -0.4999678549 -0.0806116477 0.1648767182
530296820.0 -0.0508273393 0.1699460937 0.2450537399 -0.5032092885 0.2448221013 -0.502997469 -0.0788283824 0.1655151255
535296790.0 -0.0479198579 0.1705840829 0.2394640985 -0.5055702085 0.2394943716 -0.505708617 -0.0771906281 0.1669914368
540296760.0 -0.0462965241 0.1713172336 0.2338077732 -0.5080302687 0.2339885453 -0.5080128589 -0.0759621676 0.1673962102
545296730.0 -0.0449423473 0.1721551983 0.2288118148 -0.5104907535 0.2283328104 -0.510418096 -0.0741232452 0.1686579701
550296700.0 -0.0421885403 0.1727667477 0.2227468195 -0.5127012188 0.2226750586 -0.513296704 -0.0721565768 0.1692774151
555296670.0 -0.0402983862 0.1734396822 0.217475678 -0.5157752429 0.2173277359 -0.5152596232 -0.0708586448 0.1696522961
560296640.0 -0.0376793029 0.1738719474 0.2113570494 -0.5179128508 0.2123531217 -0.517811495 -0.0694985428 0.1712118535
565296610.0 -0.0366447597 0.1745166702 0.2066797213 -0.5201948288 0.2059713579 -0.5195746067 -0.0675536431 0.1717303149
570296580.0 -0.0344405091 0.1755891613 0.2002589849 -0.5223148651 0.2004325994 -0.5222297837 -0.0658088478 0.1724075099
575296550.0 -0.0319022487 0.175694006 0.1951100019 -0.5244343427 0.1948546437 -0.5241271149 -0.0638367854 0.1729442647
580296520.0 -0.0300565285 0.1765185167 0.1889810192 -0.5261930044 0.1889478447 -0.5263633732 -0.0627317736 0.174056679
585296490.0 -0.0281781557 0.1770433791 0.183889785 -0.5282699392 0.1829100721 -0.5283627132 -0.060175787 0.1750764862
590296460.0 -0.0254951542 0.1774133424 0.1777586153 -0.5303991393 0.1776172106 -0.5306791425 -0.0589847662 0.175818986
595296430.0 -0.023654654 0.1779479406 0.1714362551 -0.5319546473 0.1714823316 -0.5321742168 -0.0570765971 0.1761553444
600296400.0 -0.0215221356 0.1786000176 0.165711437 -0.5337533518 0.1659839233 -0.5341107183 -0.0555479036 0.1767598041
605296370.0 -0.0197844832 0.1790799191 0.1606102686 -0.5355389209 0.1600364663 -0.5358483927 -0.0535105781 0.1777109773
610296340.0 -0.0173022233 0.1795052169 0.1545275043 -0.5364875037 0.1546670768 -0.5371084515 -0.0521560376 0.178394542
615296310.0 -0.0151405827 0.1799983114 0.1482964852 -0.5392574167 0.1482712381 -0.5390892637 -0.0500071131 0.1788087714
620296280.0 -0.0136406708 0.1808499926 0.1428668993 -0.5405975066 0.1424911655 -0.5406215454 -0.048471372 0.1797605724
625296250.0 -0.0115732386 0.1808349291 0.1367314189 -0.5422878295 0.1368569255 -0.5422932629 -0.046957255 0.1800438139
630296220.0 -0.009190129 0.1813682684 0.1306779996 -0.5437910432 0.1304959705 -0.5432074572 -0.0446595776 0.1807878013
635296190.0 -0.0073449806 0.1819928445 0.1250629805 -0.5446144734 0.1246480675 -0.5445305772 -0.0430573945 0.1809816033
640296160.0 -0.0049750377 0.1819385123 0.1192800955 -0.5460997876 0.1190606081 -0.5458771105 -0.0413923733 0.1815168942
645296130.0 -0.0029608135 0.1826668122 0.1132449389 -0.5468322814 0.1133087474 -0.5469978182 -0.0399908191 0.1819699055
650296100.0 -0.0010215451 0.1825376969 0.1072956293 -0.5483416309 0.1070152415 -0.548498666 -0.0372731795 0.1827065267
655296070.0 0.0007960327 0.1829387376 0.1013621395 -0.5497617227 0.1013002789 -0.5492165913 -0.0364888306 0.1833086605
660296040.0 0.0029460272 0.1832094112 0.0953351639 -0.550413911 0.0953701651 -0.5506536634 -0.0344904196 0.1834589641
665296010.0 0.0052100655 0.1834849082 0.0890141406 -0.5510765244 0.0893630168 -0.5510634563 -0.0324320715 0.1840796909
670295980.0 0.0070180894 0.183915522 0.0835235071 -0.5521037066 0.0831501482 -0.5518987992 -0.0311057785 0.1843093565
675295950.0 0.0092742617 0.1839303584 0.0777000611 -0.5528662528 0.0774192791 -0.5532186979 -0.029027204 0.1853822043
680295920.0 0.010811403 0.1842170376 0.0719818135 -0.5534290531 0.0716958266 -0.5534643073 -0.0269220173 0.1851981458
685295890.0 0.0132459167 0.1846096087 0.0653274996 -0.5545459709 0.0652962511 -0.5544845698 -0.0253775936 0.1861516378
690295860.0 0.0149271398 0.1844139695 0.0598124507 -0.5547782894 0.0593586105 -0.5555231371 -0.0235525403 0.1862399943
695295830.0 0.0174150402 0.1846086822 0.0538606019 -0.5558597148 0.0534910503 -0.5559191634 -0.021728335 0.1869675897
700295800.0 0.0192639481 0.1849716229 0.0480125297 -0.5565840364 0.0474825128 -0.5562800472 -0.0198456778 0.1869708955
705295770.0 0.0213879166 0.184764224 0.041738303 -0.5572170831 0.041585981 -0.5570251669 -0.0181935666 0.1876718641
710295740.0 0.0232408658 0.1846900033 0.0357444259 -0.5570598278 0.0354356022 -0.5574645357 -0.0161547443 0.1881265754
715295710.0 0.0253159952 0.1850349982 0.030249827 -0.5577768886 0.0297058331 -0.5579146768 -0.0143957412 0.1881851149
720295680.0 0.0275915088 0.1848460901 0.0234939748 -0.5578147747 0.0233214505 -0.558205886 -0.0125549873 0.1883466343
725295650.0 0.028967891 0.184976778 0.0180884649 -0.5579663323 0.0176901068 -0.558119677 -0.0110882058 0.1889312592
730295620.0 0.0309829053 0.1847514434 0.0117309571 -0.5577942584 0.0116745251 -0.5574927956 -0.0091189855 0.1895367382
735295590.0 0.0331583894 0.1846390696 0.0055259967 -0.5584622821 0.005650646 -0.5581379111 -0.0071205537 0.189308729
740295560.0 0.0347428002 0.1845484949 -0.000181448 -0.5582834272 -0.0001451442 -0.5583439802 -0.0055616332 0.1896480671
745295530.0 0.0366893251 0.1846697953 -0.0059747499 -0.557744508 -0.0056818259 -0.5580999883 -0.0038705305 0.1897446584
750295500.0 0.0384232557 0.1844530348 -0.011768253 -0.5577970957 -0.0124828181 -0.5580355573 -0.0020021551 0.1899671333
755295470.0 0.0406598791 0.1840947285 -0.0179489432 -0.5583303903 -0.0181420893 -0.5579078124 0.0001548055 0.1904191583
760295440.0 0.0425281049 0.1843612551 -0.0245870318 -0.5574105458 -0.0241013744 -0.5570516503 0.0019237891 0.1898952359
765295410.0 0.0447378678 0.1834834794 -0.0301122637 -0.55751999 -0.0300969486 -0.5573165974 0.0041680588 0.190525398
770295380.0 0.0464215393 0.1835571837 -0.036088659 -0.5563841814 -0.035909185 -0.557398273 0.0050699196 0.1907225944
775295350.0 0.0483089483 0.1832091672 -0.0419500833 -0.5564442203 -0.0418206878 -0.5563021587 0.0076216538 0.1908217305
780295320.0 0.050203877 0.183015333 -0.0475115506 -0.5557473126 -0.047491114 -0.5557995236 0.0093220678 0.1907876206
785295290.0 0.0521014771 0.1825572653 -0.05371872 -0.5555944004 -0.0537971414 -0.5555355675 0.010611569 0.1912522026
790295260.0 0.0541808777 0.1822192884 -0.0598285444 -0.5545814882 -0.0597647208 -0.5551646138 0.0125917164 0.1916152542
795295230.0 0.0559546444 0.181699349 -0.0656259745 -0.554062303 -0.0658168703 -0.5541630383 0.0145356911 0.1905556789
800295200.0 0.0576405984 0.1815720957 -0.0710562637 -0.5529837732 -0.0718444613 -0.5534536917 0.0162255358 0.1911210438
805295170.0 0.0596848524 0.1813280033 -0.0774134091 -0.5523716529 -0.077632597 -0.5529114186 0.0186459828 0.1909054529
810295140.0 0.0619532564 0.1806385641 -0.083545483 -0.5512065448 -0.0835219004 -0.5518642185 0.0203719236 0.1908187365
815295110.0 0.063306984 0.180077405 -0.0890896645 -0.550380708 -0.0890388281 -0.5509734996 0.021859234 0.1911737443
820295080.0 0.0653045654 0.1794827271 -0.0949470401 -0.5493911574 -0.0948964479 -0.550157123 0.0231616418 0.1914596246
825295050.0 0.0670198529 0.178915704 -0.1012337734 -0.5486108148 -0.1009909902 -0.5488018359 0.0259222486 0.1914671454
830295020.0 0.069083154 0.178352323 -0.1067411648 -0.547160284 -0.106694907 -0.5477674817 0.0273334471 0.1906071722
