!Created with skrf (http://scikit-rf.org).
# Hz S RI R 50.0 
!freq ReS11 ImS11 ReS21 ImS21 ReS12 ImS12 ReS22 ImS22
300000.0 -0.1006160149 -0.0660728297 0.6308485865 0.0620009894 0.6248695376 0.0628586526 -0.1018410575 -0.0745686992
5299970.0 -0.1021872212 0.0134636235 0.6303286964 0.0097179286 0.6306569679 0.0101229185 -0.1008797695 0.0129636258
10299940.0 -0.0972673076 0.0294409089 0.6341952339 0.0151117805 0.634139288 0.0155931245 -0.0959795733 0.0304852094
15299910.0 -0.0898864683 0.042477352 0.6405846503 0.0202567427 0.6406015029 0.0206367011 -0.0883139569 0.0436322706
20299880.0 -0.0815295775 0.0531566786 0.648483933 0.0242446238 0.6482930003 0.0237695474 -0.0796525307 0.0546347726
25299850.0 -0.0723166045 0.0622160613 0.6578481599 0.0250225678 0.6577150244 0.0253776277 -0.0698170863 0.0634491875
30299820.0 -0.0622536779 0.0688723991 0.6671854891 0.0241032113 0.6670525916 0.0244067232 -0.0598235627 0.0701133896
35299790.0 -0.0524601722 0.0736364884 0.6771038753 0.0213175154 0.6770092848 0.021483921 -0.0497918529 0.0746704521
40299760.0 -0.04340214 0.0773078597 0.6859477635 0.0171056069 0.6865582866 0.017115116 -0.040297644 0.0775544623
45299730.0 -0.0341533225 0.0794256122 0.6954039454 0.011649564 0.6953798833 0.0118866657 -0.031221274 0.0797327619
50299700.0 -0.0258013108 0.0799490677 0.703419198 0.0047926173 0.7034740381 0.0052150209 -0.0228329427 0.0804648899
55299670.0 -0.0176048075 0.0803553722 0.7107328133 -0.0036419403 0.7105421021 -0.0028386063 -0.0148532727 0.0805282282
60299640.0 -0.009732552 0.0799918136 0.7172674514 -0.0119360851 0.7177908311 -0.0112592968 -0.0075792146 0.0795597059
65299610.0 -0.0036177641 0.0787611951 0.7233860152 -0.0202508834 0.7236472066 -0.0201045198 -0.0008842724 0.0785589202
70299580.0 0.0027021848 0.07761354 0.7288027281 -0.029759003 0.7287689166 -0.0290991379 0.0049249017 0.0768067401
75299550.0 0.0082259252 0.0758556003 0.7326596896 -0.0391062787 0.7325506343 -0.0393908447 0.0100028533 0.0747030673
80299520.0 0.0130122534 0.0735697019 0.7370370549 -0.04895739 0.7374058997 -0.0490934106 0.0148386227 0.0729923258
85299490.0 0.017593673 0.0713954538 0.7405326103 -0.0585547583 0.7403163273 -0.0586737615 0.0194197379 0.069720277
90299460.0 0.0216497338 0.0688460138 0.7426057257 -0.0690920855 0.7431934233 -0.0687854162 0.0237505724 0.0676021408
95299430.0 0.0258672979 0.0663489353 0.74589043 -0.0790404158 0.7456631072 -0.0795833582 0.0275206658 0.0657066086
100299400.0 0.0289196791 0.0647460549 0.7462853265 -0.0892025355 0.7472587492 -0.0889543924 0.0309449549 0.0624285694
105299370.0 0.0322468843 0.0618649595 0.7486461413 -0.099627976 0.7487942408 -0.0994498024 0.0339842857 0.0605910179
110299340.0 0.0350864938 0.0597542007 0.7500563956 -0.1091349543 0.7497125316 -0.1092688039 0.0359578005 0.0579213302
115299310.0 0.0376393417 0.0571890883 0.7507981246 -0.1193411414 0.7503560017 -0.1193690782 0.0388370957 0.0556921795
120299280.0 0.0396769633 0.0544995143 0.7509691192 -0.129098243 0.7511710654 -0.1297418762 0.0413019573 0.0529334127
125299250.0 0.0419390366 0.0521537377 0.751478719 -0.1390958751 0.7515096155 -0.1391301069 0.0428087287 0.0503093518
130299220.0 0.0435745459 0.0503724684 0.7510117985 -0.1496055957 0.7511728603 -0.1494666547 0.0450114116 0.0480700708
135299190.0 0.0451515592 0.0484801668 0.7515973557 -0.159481886 0.7510554165 -0.1589579921 0.046843447 0.0461059616
140299160.0 0.0466383451 0.0461210911 0.7508894736 -0.1689605924 0.7506111689 -0.169020228 0.0478416816 0.0442512048
145299130.0 0.0483158786 0.0438048923 0.7497005039 -0.1786385153 0.7496615326 -0.1785812525 0.049352934 0.0419985442
150299100.0 0.0498224179 0.0420481464 0.748326199 -0.1876083561 0.7486279531 -0.1872580623 0.0509238848 0.0402826674
155299070.0 0.0503645053 0.0396176607 0.7475361457 -0.1986491372 0.7474804338 -0.1976620449 0.0515611447 0.0382437122
160299040.0 0.0518670266 0.0379882594 0.7461686231 -0.2077919078 0.7457450537 -0.2078986262 0.0522516839 0.0359377294
165299010.0 0.0523969256 0.0361930545 0.7445008487 -0.2172093749 0.744544422 -0.2174280189 0.0537557415 0.0349237278
170298980.0 0.0534254565 0.03390457 0.7431541724 -0.2264432685 0.7428407932 -0.2263495618 0.0542640913 0.0328553874
175298950.0 0.0538284834 0.0322029705 0.7412848742 -0.2353094156 0.7402998652 -0.2357687605 0.0548628188 0.0311652002
180298920.0 0.0543885559 0.0305077631 0.7387411962 -0.2450710188 0.7384597155 -0.2446010462 0.0555588122 0.029817561
185298890.0 0.0555442585 0.0286298906 0.7364545323 -0.2534813419 0.7362498328 -0.2540067196 0.0556593828 0.0283534784
190298860.0 0.0554535769 0.0273185528 0.7341499496 -0.2635763979 0.7342443768 -0.2629456136 0.0560857915 0.026171895
195298830.0 0.0562320005 0.0250831371 0.7317009577 -0.2725828898 0.7317593894 -0.2718528458 0.0571727525 0.0248430987
200298800.0 0.056367121 0.024114145 0.7288307276 -0.2809963116 0.7290409339 -0.2815434757 0.0566462525 0.0236182659
205298770.0 0.0568713456 0.0227382658 0.7258528994 -0.2903690035 0.725723304 -0.2899201855 0.0576119531 0.0213814967
210298740.0 0.0571004162 0.0207040405 0.7231487453 -0.2982150517 0.7228216996 -0.2983835994 0.0577314925 0.0211118806
215298710.0 0.0568068568 0.0194729649 0.7202032748 -0.3075670666 0.7196155405 -0.3078769591 0.0577505438 0.0196367033
220298680.0 0.0576722973 0.0176944455 0.7163514521 -0.3163230176 0.7169131406 -0.3164062964 0.0576422761 0.0182427677
225298650.0 0.0578228787 0.0166953654 0.7138745307 -0.325006833 0.7139192298 -0.3248296201 0.0573413928 0.0165171224
230298620.0 0.057897734 0.0154387904 0.7099160349 -0.3330969881 0.7109100833 -0.33336649 0.0571340511 0.0149877651
235298590.0 0.0579483615 0.0144073975 0.7065425007 -0.3416901707 0.7065216396 -0.3409864741 0.057600186 0.0137515063
240298560.0 0.057944403 0.0133963624 0.703263568 -0.3498781105 0.7028086712 -0.3502119885 0.0576410986 0.0128335891
245298530.0 0.0579520536 0.0118938908 0.6999822547 -0.3583065433 0.6995385144 -0.3584388101 0.0583465729 0.0110890999
250298500.0 0.0584900047 0.0111232614 0.6949183216 -0.3664769542 0.6946923544 -0.3662606505 0.0578884341 0.010348961
255298470.0 0.0583244852 0.0091780038 0.6911055032 -0.3740291813 0.6915150971 -0.3740726595 0.0580939727 0.008814685
260298440.0 0.0580073013 0.0080192524 0.6873487807 -0.3835369971 0.6877396833 -0.3828641561 0.0585526992 0.0078887111
265298410.0 0.0588311504 0.0075131015 0.6830645522 -0.3910951695 0.6833400687 -0.3909614854 0.0579528835 0.0068660029
270298380.0 0.0585780349 0.0061042838 0.6794364197 -0.399040198 0.6799476887 -0.3986168207 0.0579211436 0.0054805939
275298350.0 0.0586376211 0.0049975929 0.6751095029 -0.4074446625 0.6749739442 -0.4067785404 0.0582576463 0.0042091072
280298320.0 0.0588126745 0.0041628551 0.6711276219 -0.4147098376 0.6705573777 -0.4148159729 0.0585547403 0.0033795696
285298290.0 0.0586615016 0.0029639727 0.666827147 -0.4225289084 0.6656882534 -0.4226977021 0.0583466668 0.0021688989
290298260.0 0.0588681437 0.0021565861 0.6616308946 -0.429857244 0.6614701199 -0.4303797527 0.0586162519 0.0016435071
295298230.0 0.0587825728 0.000643876 0.657273168 -0.4377551842 0.6573029212 -0.4380922148 0.059225262 1.32094e-05
300298200.0 0.0583752371 -0.0003271433 0.6531575093 -0.4452718233 0.6528091328 -0.4458846214 0.0586233229 -0.0008183111
305298170.0 0.05878003 -0.001632835 0.6471467112 -0.4541599176 0.6478352245 -0.4528560999 0.0595730849 -0.0021941721
310298140.0 0.0583702095 -0.0027604163 0.6427316942 -0.4610293754 0.6433002374 -0.4608134272 0.0591797646 -0.0029842022
315298110.0 0.0583156968 -0.004097249 0.6376326707 -0.4686466796 0.6382454327 -0.4686727801 0.058866794 -0.0046885393
320298080.0 0.058178676 -0.0050673602 0.6318725369 -0.4765277044 0.6322815382 -0.4760341712 0.0585418645 -0.0054776228
325298050.0 0.057830571 -0.0061417964 0.6265618434 -0.4840691385 0.627062524 -0.4838702309 0.0578630204 -0.0066290764
330298020.0 0.0575017663 -0.0075535692 0.6211776587 -0.4910881791 0.6209659214 -0.4909007384 0.0573145392 -0.0075294158
335297990.0 0.0569303547 -0.008718047 0.615741054 -0.4978834043 0.6156868365 -0.4982413242 0.0565121561 -0.0078288442
340297960.0 0.0561963718 -0.0091066152 0.6098908539 -0.5053883246 0.6090303007 -0.5054575562 0.0568902601 -0.00877502
345297930.0 0.0558403696 -0.0094930231 0.6039233751 -0.512338195 0.6040885105 -0.5119769736 0.0564520319 -0.0099339252
350297900.0 0.0550404042 -0.0111423737 0.597054368 -0.5187073346 0.5977733385 -0.5186333093 0.0554883467 -0.009905709
355297870.0 0.0548140232 -0.0109062565 0.5920262866 -0.5253329338 0.5923111381 -0.5254472124 0.0552328504 -0.0107046123
360297840.0 0.0546162627 -0.0116072512 0.5871071459 -0.5314741801 0.5874094237 -0.5320173078 0.0548944621 -0.0112882295
365297810.0 0.0537838136 -0.0122419755 0.5802811306 -0.538922155 0.5811197375 -0.5388764727 0.0547953277 -0.0117058281
370297780.0 0.0544243043 -0.0134271177 0.5742636993 -0.5447127303 0.5748476463 -0.5444834789 0.0543809862 -0.0121300195
375297750.0 0.0538382875 -0.0137696683 0.5681022 -0.5514007775 0.5693209507 -0.5513960581 0.0542172766 -0.0128639407
380297720.0 0.0535479248 -0.0141670793 0.5620265434 -0.5577687214 0.5622512157 -0.5564164945 0.0533884773 -0.0141068804
385297690.0 0.0527567785 -0.0151045152 0.5560962097 -0.5643120564 0.5560899396 -0.5635175468 0.0533852717 -0.0142391658
390297660.0 0.052583375 -0.0154492433 0.5495783761 -0.5705308078 0.5498359994 -0.570073061 0.0527692947 -0.0153836774
395297630.0 0.0523190089 -0.0163939012 0.544248856 -0.5761275316 0.543757373 -0.5767756577 0.0529707805 -0.0157845002
400297600.0 0.0517646794 -0.0168360706 0.537161371 -0.5830065925 0.5372022186 -0.5825040952 0.0520950975 -0.0161237885
405297570.0 0.0510710211 -0.0176834359 0.5307880872 -0.5878904088 0.5309936783 -0.5878107407 0.0516189107 -0.0171345636
410297540.0 0.0512052658 -0.0182034188 0.5245570536 -0.5945526701 0.52459641 -0.5941680229 0.0511417859 -0.0172260605
415297510.0 0.0511508625 -0.0189167742 0.5174385932 -0.6002358796 0.5181765345 -0.6003272927 0.0510155842 -0.0177027491
420297480.0 0.050924048 -0.0191635695 0.5111279048 -0.6059843319 0.5107668249 -0.6061043872 0.0503098588 -0.0191001524
425297450.0 0.0501505217 -0.0204063069 0.5047167172 -0.6116229752 0.504814437 -0.6112217663 0.0494044004 -0.0189794053
430297420.0 0.0498182703 -0.0209067448 0.497517628 -0.616394753 0.4975244008 -0.6165406849 0.0493918755 -0.020046517
435297390.0 0.0493455025 -0.0213675051 0.4902898428 -0.6226396325 0.4909644078 -0.6224548431 0.0498635037 -0.0204167492
440297360.0 0.049464032 -0.0218812604 0.4844013256 -0.627461115 0.483812862 -0.6285747846 0.0486006039 -0.0214155407
445297330.0 0.048687209 -0.0230580744 0.4776051372 -0.6329238875 0.4775347703 -0.6326364866 0.0490469987 -0.0223800684
450297300.0 0.04866522 -0.0232192464 0.4702185071 -0.6385978232 0.4700911397 -0.638977192 0.048403824 -0.0230029096
455297270.0 0.0482278188 -0.023724787 0.4630680816 -0.6440633917 0.4631838218 -0.6435766832 0.0477058929 -0.0233522748
460297240.0 0.0474829321 -0.0243676959 0.4552863791 -0.6486554127 0.4558899481 -0.6491169405 0.0478091535 -0.0237589936
465297210.0 0.0475204815 -0.0250759637 0.4489996127 -0.654238407 0.4486785253 -0.6544393884 0.0472739081 -0.0249193831
470297180.0 0.0468930606 -0.0258578006 0.4411264841 -0.6590854004 0.4415930586 -0.6588848163 0.0469530196 -0.0251394098
475297150.0 0.0466175902 -0.0267191453 0.4339289395 -0.6629257575 0.4347735666 -0.6631237373 0.0474006008 -0.0259569269
480297120.0 0.0460270684 -0.0262220329 0.4270816395 -0.6688212583 0.426977406 -0.6689369371 0.0468425414 -0.0259696987
485297090.0 0.0452441584 -0.0271431155 0.4199058604 -0.6726054551 0.4197932777 -0.6724398042 0.0462029331 -0.0270296308
490297060.0 0.0444590425 -0.0280699261 0.4125127151 -0.6783223619 0.4127321675 -0.6775848022 0.0458993165 -0.0268091678
495297030.0 0.0445840622 -0.028099123 0.4044983501 -0.6824289145 0.405199978 -0.6823107221 0.0449868166 -0.0278014218
500297000.0 0.0441547006 -0.0291320686 0.3973346065 -0.6863245407 0.3965438723 -0.6860595607 0.045032258 -0.0278535216
505296970.0 0.0438953098 -0.0293582515 0.3898807701 -0.690872301 0.3893918853 -0.690750566 0.0441744781 -0.0280298925
510296940.0 0.0429426034 -0.0296956078 0.3821128944 -0.6952631398 0.3818688359 -0.6951109062 0.0441423349 -0.0283033725
515296910.0 0.0425430259 -0.0297896871 0.374141598 -0.6994929419 0.3742266258 -0.6991994461 0.043915949 -0.028902967
520296880.0 0.0420147349 -0.0306909555 0.3667779016 -0.7040444015 0.3666613505 -0.7033276375 0.0429415365 -0.0296033008
525296850.0 0.0418547056 -0.031583932 0.3584404806 -0.7074031245 0.3593205007 -0.7075857909 0.0424165547 -0.0299626098
530296820.0 0.0412167129 -0.0314140846 0.350990575 -0.711667168 0.3509064872 -0.7115584468 0.042493143 -0.0303146198
535296790.0 0.040410728 -0.0318244874 0.3437961468 -0.7150158782 0.3438294467 -0.7148765314 0.041710392 -0.0311308838
540296760.0 0.0398226348 -0.0320190548 0.3355664953 -0.7195408791 0.3354908911 -0.7192597257 0.0407350628 -0.0304545926
545296730.0 0.0395002183 -0.0329261232 0.3270035497 -0.722502286 0.3277656169 -0.7225395652 0.0403129499 -0.031393204
550296700.0 0.0395306623 -0.032667626 0.3197591187 -0.7260461455 0.3197270464 -0.7263437387 0.0393816929 -0.0313779907
555296670.0 0.0385609095 -0.0332098605 0.3119894438 -0.729254411 0.3121830873 -0.7297971734 0.0394495041 -0.0316269889
560296640.0 0.0386190454 -0.0332789446 0.3035337012 -0.7336369398 0.3039059959 -0.733044175 0.0388270582 -0.0327051292
565296610.0 0.0372009819 -0.0342427251 0.2953136035 -0.7362461749 0.2958670808 -0.7364520437 0.0379385817 -0.0328981773
570296580.0 0.037017053 -0.0342560267 0.2875269704 -0.739839953 0.2870173984 -0.7393342035 0.0374194889 -0.0325923408
575296550.0 0.0361221885 -0.0344460596 0.2793883676 -0.7431796654 0.2793206054 -0.7435835327 0.0373578753 -0.0334527009
580296520.0 0.0360890081 -0.0349646423 0.2711252358 -0.7457376834 0.2715118016 -0.745839713 0.036600994 -0.0339962619
585296490.0 0.0352030088 -0.0357054555 0.2634024303 -0.7482085437 0.2634628118 -0.7487953568 0.0357462729 -0.0340513307
590296460.0 0.0353812238 -0.0357380145 0.2552840123 -0.7505208728 0.2552068989 -0.7510042884 0.0346409689 -0.0345492308
595296430.0 0.0349425089 -0.0357847486 0.2465120429 -0.7544928203 0.246453741 -0.7540470172 0.0345913121 -0.035359847
600296400.0 0.033883367 -0.036284676 0.2382703547 -0.7567433582 0.2382176956 -0.7563730451 0.0341362852 -0.0355806927
605296370.0 0.0335084028 -0.0365332295 0.2301215064 -0.7593799199 0.2304160567 -0.7592098527 0.03357564 -0.0356893595
610296340.0 0.0331385058 -0.0370691614 0.2216288221 -0.7614150907 0.22211901 -0.7620833674 0.0335350662 -0.036372187
615296310.0 0.0325226231 -0.0377652899 0.2135305201 -0.7640766061 0.2135242659 -0.764639252 0.0330685593 -0.0365121849
620296280.0 0.0322486141 -0.0379601981 0.205405355 -0.7660114648 0.2052608997 -0.7656601999 0.0320547981 -0.0370644144
625296250.0 0.0308623424 -0.038659584 0.1975747269 -0.7689568487 0.1968157843 -0.7690119088 0.0323434021 -0.0371651842
630296220.0 0.031760411 -0.0382181856 0.187825171 -0.771435453 0.1875242783 -0.7706214574 0.031690102 -0.0372484181
635296190.0 0.0294480285 -0.0392159396 0.1801759769 -0.7725345853 0.1797451028 -0.7729139412 0.0310465883 -0.0375135326
640296160.0 0.0294338725 -0.0391217303 0.1711999522 -0.7741335147 0.1720169759 -0.7749631916 0.0301316375 -0.0380377335
645296130.0 0.0289728693 -0.0393383486 0.1625763675 -0.7765464013 0.163315286 -0.7766772159 0.0300319657 -0.0382060801
650296100.0 0.0284998001 -0.0394282715 0.1542826272 -0.777920873 0.1548416608 -0.7782671027 0.0300085947 -0.0390342463
655296070.0 0.0273933912 -0.040323843 0.1462453092 -0.779981417 0.1459311014 -0.7799326273 0.0293447887 -0.0385981905
660296040.0 0.0262320948 -0.0409955969 0.1375112982 -0.7811293643 0.1378983157 -0.7816255232 0.0288407939 -0.038790649
665296010.0 0.0267368826 -0.0403834682 0.1285430118 -0.7825876475 0.1293127729 -0.7829557594 0.0280289799 -0.0385412897
670295980.0 0.0248750569 -0.0407821803 0.1204953577 -0.7840518172 0.1204476153 -0.7840975459 0.0270253196 -0.0389610568
675295950.0 0.0250123383 -0.0404223471 0.1121031187 -0.7849948783 0.111843711 -0.7849291429 0.026365243 -0.0391187633
680295920.0 0.0237676492 -0.0413000015 0.1027432241 -0.7860861023 0.1025028992 -0.7871113607 0.0260471411 -0.0387064536
685295890.0 0.0237663301 -0.0408421369 0.0945505313 -0.7880009105 0.0947873481 -0.7873706212 0.0254126351 -0.0391652633
690295860.0 0.0236167389 -0.0408624631 0.086250151 -0.7883312949 0.0857928456 -0.7891780334 0.02473472 -0.0386066275
695295830.0 0.0225205707 -0.0414956977 0.0777115419 -0.7893169871 0.0771644825 -0.7891051955 0.0243711525 -0.0390850724
700295800.0 0.022127233 -0.0417268159 0.0686897286 -0.7900138054 0.0681922823 -0.7894723048 0.0235999481 -0.038519982
705295770.0 0.021131955 -0.0410102434 0.0601659599 -0.7911432108 0.0603605656 -0.7910330336 0.0228797823 -0.0390889144
710295740.0 0.0210903733 -0.0413027002 0.0519672325 -0.7923062681 0.0522336645 -0.7919879555 0.0228339858 -0.0400752846
715295710.0 0.0197045764 -0.0418356775 0.0433785971 -0.792127563 0.0427304217 -0.7920824833 0.0220674026 -0.0396711924
720295680.0 0.0194649101 -0.0419420482 0.0346348762 -0.7927707998 0.0348413974 -0.7921758211 0.0214979693 -0.0388342571
725295650.0 0.0191501373 -0.0416788592 0.0255791301 -0.7925005316 0.025939796 -0.7926429927 0.0201458046 -0.0392295974
730295620.0 0.0185093528 -0.0413892362 0.0168423724 -0.792658982 0.0170236078 -0.7929692824 0.0196126202 -0.0396601425
735295590.0 0.0176604783 -0.0416372223 0.0088962739 -0.7926934189 0.0085844454 -0.7932716616 0.0186318432 -0.0399255052
740295560.0 0.0167798924 -0.0416024472 -0.0004812154 -0.792649918 -0.0004726864 -0.7927832486 0.0189187555 -0.0395517192
745295530.0 0.0165629841 -0.0417045112 -0.0086134582 -0.7926231167 -0.0088155221 -0.7930336945 0.0181125145 -0.0404688846
750295500.0 0.0162848584 -0.0420742721 -0.0172339071 -0.7925037411 -0.0168910097 -0.7930726199 0.0173921735 -0.04003211
755295470.0 0.0154064806 -0.0420605067 -0.0255063092 -0.7924937359 -0.0254639814 -0.7932095562 0.0173566423 -0.040597526
760295440.0 0.0147457513 -0.042050442 -0.0347920782 -0.7929880669 -0.0347319203 -0.793030496 0.0163556839 -0.0404094919
765295410.0 0.0140513398 -0.0420956115 -0.0431494682 -0.7919058806 -0.0435587403 -0.7921872214 0.0159784808 -0.0405318026
770295380.0 0.0130135129 -0.0423092765 -0.0522075727 -0.7915896958 -0.0518507348 -0.7915547503 0.0147861135 -0.0409695356
775295350.0 0.0125209704 -0.043066887 -0.0607693765 -0.7902078296 -0.0602493844 -0.7906561457 0.0136284141 -0.0402903714
780295320.0 0.012270521 -0.0424589132 -0.0689841832 -0.7894535578 -0.0683485429 -0.789895874 0.0132378241 -0.0412522877
785295290.0 0.0111421158 -0.0431093469 -0.0777827184 -0.7886541819 -0.0774658078 -0.7891664741 0.0137573513 -0.0403874612
790295260.0 0.0111114869 -0.0419030864 -0.0854404158 -0.7882301173 -0.0847603895 -0.7878418556 0.0127336078 -0.0409356971
795295230.0 0.0104529485 -0.0426341224 -0.0943246075 -0.7871523439 -0.0943278825 -0.7873089392 0.0124138678 -0.0400502682
800295200.0 0.0093823853 -0.0421154678 -0.1037492533 -0.7855106258 -0.1030362381 -0.7863206519 0.0114588959 -0.0411299628
805295170.0 0.0088149001 -0.0424173846 -0.1120288805 -0.7844759825 -0.1118229815 -0.7850601218 0.0109619938 -0.040520335
810295140.0 0.0080633416 -0.0427427113 -0.1202274431 -0.7836782157 -0.1197066231 -0.7840200796 0.0111384871 -0.0403607121
815295110.0 0.0078189709 -0.0428960474 -0.128719701 -0.7817619563 -0.1282875208 -0.7818583704 0.0097352457 -0.0401810885
820295080.0 0.0067049275 -0.0418172834 -0.1372033146 -0.7804104269 -0.1367259741 -0.7802179111 0.0093464742 -0.040293052
825295050.0 0.0069269857 -0.0421271855 -0.1452891675 -0.7790062842 -0.145842463 -0.7790767696 0.009319531 -0.0406188971
830295020.0 0.0058123144 -0.041950037 -0.1543056324 -0.7767971964 -0.1540274111 -0.7771822314 0.0092870033 -0.0399340789
