!Created with skrf (http://scikit-rf.org).
# Hz S RI R 50.0 
!freq ReS11 ImS11 ReS21 ImS21 ReS12 ImS12 ReS22 ImS22
300000.0 -0.7739619142 -0.1308380179 6.50224e-05 0.000915196 -0.0001692344 0.0001578528 0.8585334988 -0.0024706981
5299970.0 -0.7856135583 -0.0070147368 3.8418e-05 0.0001268808 -2.41538e-05 0.0001629363 0.8598549003 -0.0100374635
10299940.0 -0.7878688219 -0.0043906555 -0.000205847 -0.0003023052 -4.3258e-06 -2.51333e-05 0.8587623471 -0.0186034194
15299910.0 -0.7939960692 -0.002393103 -0.000150916 -2.5111e-06 -0.0002548587 -2.75204e-05 0.8573315075 -0.0269433266
20299880.0 -0.7999302507 0.0022736051 8.76402e-05 -0.0002511486 9.53526e-05 4.55884e-05 0.8567006665 -0.0355891243
25299850.0 -0.8063024682 0.0075751334 3.93807e-05 -4.43815e-05 -3.17905e-05 -1.7957e-06 0.8562491031 -0.0432100994
30299820.0 -0.812397697 0.0152765046 -3.74974e-05 -2.39616e-05 0.0001234329 -5.1922e-05 0.8552971431 -0.0520052382
35299790.0 -0.8174858105 0.0241829694 0.0001746586 4.9443e-06 -1.20623e-05 0.0001913476 0.8546052637 -0.059633891
40299760.0 -0.8215914542 0.0336795661 -4.2217e-05 -5.53402e-05 -0.0002240383 -2.80618e-05 0.8536052512 -0.0678911927
45299730.0 -0.8242791665 0.0424820188 -5.49432e-05 4.4116e-05 0.0003217916 -5.64616e-05 0.8527054106 -0.0763485594
50299700.0 -0.8272703128 0.0527301113 0.0001125394 0.0001192978 4.16526e-05 0.0001658519 0.8519093664 -0.0840460633
55299670.0 -0.8296634513 0.062661251 -0.0001407147 8.31243e-05 0.0001233113 9.89787e-05 0.8509415068 -0.0925751863
60299640.0 -0.8302277212 0.0733585108 -5.75198e-05 -0.0001738748 3.69738e-05 6.98776e-05 0.8493590946 -0.1009105288
65299610.0 -0.8309111288 0.0836753512 3.97896e-05 -6.12016e-05 -0.0002084782 -2.4086e-06 0.8490366483 -0.1088103286
70299580.0 -0.8315776462 0.093421598 -8.77561e-05 9.6913e-06 -5.54746e-05 -6.44015e-05 0.8478013613 -0.117307037
75299550.0 -0.8318406422 0.103276424 -6.10128e-05 0.0001704407 -0.000115893 -4.48102e-05 0.8459407474 -0.1256663885
80299520.0 -0.8320529612 0.1128837634 5.80083e-05 -3.58007e-05 -0.0001082951 -0.0001125359 0.8453486188 -0.1334241282
85299490.0 -0.8308681873 0.1226859979 1.12218e-05 0.0001216034 -0.0003142605 -0.0003424825 0.8440364665 -0.1419033112
90299460.0 -0.8302356194 0.1322845665 3.66068e-05 4.75975e-05 0.000118777 -5.32653e-05 0.8423456897 -0.1497301405
95299430.0 -0.8294004069 0.1417245481 0.0002540785 -0.0001574038 4.13539e-05 3.99361e-05 0.8405099014 -0.1582360989
100299400.0 -0.8283694199 0.1506735783 -2.59755e-05 4.71138e-05 9.17661e-05 6.65609e-05 0.8394662898 -0.1662719517
105299370.0 -0.8273821847 0.1601010673 -0.0001530685 -0.0002332974 0.0001810846 -0.0002673459 0.8378046936 -0.174888339
110299340.0 -0.8259000139 0.1694527268 8.34502e-05 -0.0002273959 5.10455e-05 -6.45125e-05 0.8357926583 -0.1822880171
115299310.0 -0.8235265348 0.1781119079 -3.37162e-05 -0.0001272796 5.39492e-05 -6.32068e-05 0.8342575377 -0.1906463654
120299280.0 -0.8223556124 0.1868384615 -0.0001528463 -2.72831e-05 -2.54629e-05 -0.0001539959 0.8326523371 -0.1990277608
125299250.0 -0.8207275653 0.1960703293 0.0001010852 0.0002116955 -0.0001788461 0.000107463 0.8302814506 -0.2063682711
130299220.0 -0.819091838 0.2051335641 5.179e-05 0.0001458583 -1.00026e-05 0.0001755253 0.8286355742 -0.215122788
135299190.0 -0.8169222506 0.2139613279 7.47006e-05 -0.0001479818 -2.90815e-05 4.0171e-05 0.8259812274 -0.22221808
140299160.0 -0.8146050024 0.2229509111 0.0001340752 0.0001352835 0.0001728419 3.15687e-05 0.8237320122 -0.2306526474
145299130.0 -0.8124867158 0.2323830584 -5.43008e-05 5.50973e-05 0.0001081188 -0.0001349114 0.8223308848 -0.2383919548
150299100.0 -0.8103626538 0.2410029039 -5.43021e-05 -2.10025e-05 -9.03943e-05 -0.0001378697 0.8197047641 -0.246670383
155299070.0 -0.8079139153 0.2489197137 2.12352e-05 -0.000109569 1.2268e-06 8.24706e-05 0.8170296869 -0.254735947
160299040.0 -0.8049996017 0.257315264 -9.45948e-05 -3.2109e-05 0.0001264033 3.69215e-05 0.8149154889 -0.2626183476
165299010.0 -0.8028002233 0.266727527 0.0003635127 0.0001615852 -0.0001021344 -9.94033e-05 0.8116491849 -0.2703147689
170298980.0 -0.7999206896 0.27505977 -3.79459e-05 -0.0001491047 0.000149545 9.21912e-05 0.8094791955 -0.2779543569
175298950.0 -0.7973965373 0.2844410028 3.50068e-05 7.86385e-05 0.0003022804 7.53926e-05 0.8065157204 -0.2861072483
180298920.0 -0.7947604355 0.2924047069 0.0002311712 0.000149689 7.13265e-05 0.0001199474 0.8037678077 -0.2941388416
185298890.0 -0.7914867403 0.3008883069 -0.0001321085 -9.12103e-05 0.0002525939 2.76856e-05 0.8009186217 -0.3017376025
190298860.0 -0.7886102304 0.3090870002 -0.0002380574 0.0001121593 0.0001573243 9.61508e-05 0.7976677462 -0.3087950047
195298830.0 -0.7853740879 0.3179951437 -0.0001528564 0.0001194503 -0.00017275 1.93333e-05 0.7951348737 -0.3166199965
200298800.0 -0.7815813351 0.3262633531 9.21656e-05 -0.0001055859 9.46302e-05 -0.0001636809 0.791447688 -0.3245396778
205298770.0 -0.7782716992 0.3338344411 -9.19716e-05 -0.0001417309 -6.33337e-05 -0.0001036312 0.7883925439 -0.3318969722
210298740.0 -0.7751103126 0.3426234907 -4.9792e-06 9.26474e-05 3.61103e-05 -0.0001496837 0.7847152627 -0.3392852006
215298710.0 -0.7722414768 0.3505723088 -4.66051e-05 -7.55983e-05 -0.0001231692 -0.0001400333 0.7815084563 -0.347144927
220298680.0 -0.7672327748 0.3587839456 7.29929e-05 -0.0001215306 4.63306e-05 7.54003e-05 0.7778892477 -0.3542147591
225298650.0 -0.7647083113 0.3663688978 -0.0002898789 6.25401e-05 0.0001029167 -6.56479e-05 0.7737145261 -0.361624491
230298620.0 -0.7601821687 0.3747982915 6.49394e-05 -1.22266e-05 1.8594e-06 -8.57074e-05 0.7708688733 -0.369169699
235298590.0 -0.7562704635 0.3833576314 7.6902e-05 -0.0001196205 -0.0001970783 -3.7129e-05 0.7669870733 -0.3770466956
240298560.0 -0.7520858517 0.3908201601 9.57466e-05 -9.87111e-05 -9.3632e-06 0.0001050429 0.7631598168 -0.3846044597
245298530.0 -0.7486701981 0.3985498618 9.63356e-05 -0.0002451765 1.98636e-05 -2.98982e-05 0.7595237207 -0.3916056172
250298500.0 -0.7443305665 0.406867375 6.66022e-05 4.80211e-05 -8.65328e-05 1.1264e-06 0.7557746815 -0.3989759789
255298470.0 -0.739309574 0.4137406189 -3.95964e-05 -0.0001596333 0.0001602803 0.0002382587 0.7517996658 -0.4063976851
260298440.0 -0.7356156142 0.4209879026 5.97786e-05 3.53117e-05 -0.0002577792 -2.59193e-05 0.7479153069 -0.4131937777
265298410.0 -0.7315485319 0.4294584431 0.0001878029 0.0003891579 0.0001532866 -4.3417e-06 0.7439991888 -0.4213100972
270298380.0 -0.7267723165 0.4370481674 -7.86681e-05 1.03734e-05 -7.88921e-05 1.36306e-05 0.7403431434 -0.4278152389
275298350.0 -0.7223437379 0.4444404163 6.38514e-05 0.0001748212 0.0001637852 -9.38856e-05 0.7356676838 -0.4348995608
280298320.0 -0.7172024927 0.4519280144 8.45466e-05 -0.0001622329 -0.0003027438 0.0001313992 0.7321391301 -0.4428486536
285298290.0 -0.7129465098 0.4596837139 0.000112766 -7.37609e-05 -4.5714e-05 -0.0002340083 0.7279254055 -0.4496400805
290298260.0 -0.7080282246 0.4673132946 -2.53737e-05 2.09156e-05 -0.0001672764 -1.84498e-05 0.7241000641 -0.456595218
295298230.0 -0.7026655537 0.4740803466 -0.0001040062 6.29797e-05 -0.0001897327 2.06004e-05 0.7200262446 -0.4634561472
300298200.0 -0.6982130823 0.4813836645 -6.79639e-05 5.29425e-05 2.851e-06 -0.0001959728 0.71572152 -0.4709531905
305298170.0 -0.6928271024 0.4880700381 -2.92682e-05 -0.0001174728 3.21408e-05 -0.0001977125 0.7115022495 -0.4790403736
310298140.0 -0.6873996367 0.4959436672 0.0001396086 -2.9253e-06 7.84846e-05 -8.53111e-05 0.706027201 -0.4865032548
315298110.0 -0.6829635031 0.5030356102 -0.0001303202 -4.96873e-05 -8.0095e-05 0.0001728061 0.7004426546 -0.4942700011
320298080.0 -0.6772958382 0.5104572664 -0.0001160998 0.000203468 8.20196e-05 0.000115345 0.6963838145 -0.5012134659
325298050.0 -0.6719573308 0.5173187686 -0.0001242026 8.31927e-05 0.0001327981 1.50254e-05 0.6908128071 -0.5081364319
330298020.0 -0.6663351436 0.523856274 7.12933e-05 7.09669e-05 -1.1323e-06 -7.74655e-05 0.68398606 -0.5148675614
335297990.0 -0.6611695561 0.5300944749 -3.81332e-05 5.69299e-05 -0.0001551349 -8.30968e-05 0.6791133759 -0.5206278225
340297960.0 -0.6561127875 0.537498148 3.21135e-05 -6.3161e-05 1.16002e-05 -5.0026e-05 0.6739917684 -0.5274544503
345297930.0 -0.6505046001 0.5435201331 0.000111985 -2.05127e-05 -3.1487e-06 1.16353e-05 0.6679285708 -0.5334594009
350297900.0 -0.6445184451 0.5508325664 -0.0001921281 5.34245e-05 -0.0001079833 -8.01e-08 0.6621588164 -0.5390638391
355297870.0 -0.638224943 0.5578109337 -0.0002754404 0.0002492224 -0.0001645194 -5.27274e-05 0.657411468 -0.5456838413
360297840.0 -0.6327613355 0.5635701115 -2.33262e-05 4.86263e-05 1.44318e-05 -0.000131304 0.6514569243 -0.5523891982
365297810.0 -0.6273620274 0.5703359548 9.15741e-05 3.58223e-05 -2.45033e-05 1.25648e-05 0.6464647781 -0.5589153558
370297780.0 -0.6213254352 0.5767153314 3.88293e-05 -9.95195e-05 9.8547e-06 -0.0001730147 0.6406691574 -0.5638307198
375297750.0 -0.6150040029 0.5831493961 8.1089e-06 -0.0001423569 0.0001620687 -2.23958e-05 0.634729307 -0.5705174578
380297720.0 -0.608985203 0.5887978952 -0.0001613993 -4.71209e-05 3.2496e-05 9.68608e-05 0.6285486273 -0.5765841507
385297690.0 -0.6036272575 0.5949370969 8.38973e-05 6.46934e-05 0.0002871707 -7.15465e-05 0.623502938 -0.5820400202
390297660.0 -0.5971301457 0.6015267017 -0.0001768847 -5.01656e-05 0.0002070076 3.61647e-05 0.6167549211 -0.5880869515
395297630.0 -0.5907523004 0.6075840147 -1.92687e-05 -0.0001679273 6.70526e-05 0.0002003466 0.6115628264 -0.5938247642
400297600.0 -0.5844667632 0.6140388154 0.0001818391 5.92603e-05 5.90822e-05 -6.89033e-05 0.6060055531 -0.5992871896
405297570.0 -0.5784863423 0.6192437349 6.7957e-05 -0.0003336516 0.0001556616 -0.0001796094 0.6001508204 -0.6057444153
410297540.0 -0.5712142429 0.6251977499 0.0002380696 5.86281e-05 -1.89981e-05 -5.53368e-05 0.5940498971 -0.6115983035
415297510.0 -0.5643208441 0.630572668 -0.0001886829 0.0002219079 -0.0001007843 -6.97886e-05 0.587333013 -0.6172605514
420297480.0 -0.5591095983 0.6373012303 -7.53774e-05 -0.0001347872 -0.0001612088 -3.36017e-05 0.5818119765 -0.6228401963
425297450.0 -0.5516490125 0.6421254084 -0.0001539698 -1.7493e-06 0.0001514466 8.92698e-05 0.5758298406 -0.6283358858
430297420.0 -0.5455695343 0.6482127213 -0.0001573165 0.0001325573 0.0002230985 2.8546e-05 0.5695307903 -0.6343234161
435297390.0 -0.5390653526 0.6534045195 0.0001249789 -0.0002991918 0.0001544575 0.0001409907 0.5633886846 -0.6393966556
440297360.0 -0.5320931208 0.6591120066 8.42032e-05 -0.0001256064 3.07813e-05 4.08073e-05 0.5567829908 -0.6446997372
445297330.0 -0.5248649038 0.6641860606 0.0001205373 9.1659e-05 0.0001036009 -9.7331e-06 0.5511189611 -0.6511513037
450297300.0 -0.5185353952 0.669046259 1.0001e-05 1.26748e-05 -0.0001138812 -0.000183871 0.5445328806 -0.6556331866
455297270.0 -0.5117263123 0.6741682928 0.0001045747 5.98918e-05 -5.36487e-05 0.0001649006 0.5376333619 -0.6607863709
460297240.0 -0.5052581244 0.6794693874 -0.000144327 -1.20788e-05 -0.0001213022 -0.0001728646 0.5312528322 -0.6665517626
465297210.0 -0.4978210891 0.6849749008 0.0001571206 0.000125435 -9.07803e-05 -9.76475e-05 0.5246382559 -0.6708596225
470297180.0 -0.4903434064 0.6898473604 1.22247e-05 -0.0001343487 -9.82429e-05 -0.0001588996 0.5179341179 -0.6761922905
475297150.0 -0.4837031575 0.6941726751 -0.0001950995 0.0001856952 0.0001326608 2.56877e-05 0.5110198636 -0.6811460248
480297120.0 -0.4765669934 0.699498584 4.83349e-05 -1.78262e-05 -0.0001440513 -0.000159588 0.5053094551 -0.6853724083
485297090.0 -0.4690897341 0.7038872362 5.54136e-05 -5.86166e-05 0.000203828 0.0001267197 0.4981098334 -0.6904515335
490297060.0 -0.4624507919 0.7085857869 -2.14483e-05 8.3212e-06 0.0001710872 -0.0001233955 0.4909352636 -0.6958136964
495297030.0 -0.4551249937 0.7128215944 6.10139e-05 -3.21807e-05 9.43819e-05 -4.2692e-06 0.4844304761 -0.6998743741
500297000.0 -0.4477401275 0.7180701576 0.000175752 -1.7449e-05 -7.6589e-06 -0.0001554016 0.4778279049 -0.7049075966
505296970.0 -0.4396144245 0.7224416967 9.17165e-05 2.77357e-05 9.6465e-05 -0.00010545 0.4701021886 -0.7091773759
510296940.0 -0.4330457166 0.7267908972 -3.84424e-05 -3.73578e-05 3.71951e-05 0.0001106018 0.4632770974 -0.7134074185
515296910.0 -0.425084184 0.7304683485 0.00012081 8.14145e-05 3.81839e-05 5.35763e-05 0.4564353648 -0.7178134416
520296880.0 -0.4184487433 0.7352329886 -0.0001091237 -3.8621e-05 0.0001478843 1.2375e-05 0.4490016985 -0.7232349824
525296850.0 -0.4100698512 0.7388860132 -0.0002827356 -0.0003543383 2.6479e-05 -0.0001128879 0.4417797249 -0.7261437431
530296820.0 -0.4028090968 0.7429019247 4.9823e-06 -0.0001315772 -2.01544e-05 6.23108e-05 0.4349162281 -0.7308101759
535296790.0 -0.3957666878 0.7464428959 -5.01379e-05 0.0002995468 -2.45727e-05 -2.86239e-05 0.427234229 -0.7351127045
540296760.0 -0.3884423313 0.7507913267 9.751e-05 -0.0001975478 -2.30948e-05 1.46244e-05 0.4200632501 -0.738338178
545296730.0 -0.3809783737 0.7548216658 -3.26832e-05 0.0001737952 6.90636e-05 -6.95149e-05 0.4127860667 -0.7432085314
550296700.0 -0.3733728836 0.758765604 -0.0001682403 0.0003577337 -2.3174e-06 -5.4599e-05 0.4057678802 -0.7473026982
555296670.0 -0.3652577213 0.762222055 -6.38692e-05 -9.68689e-05 -0.0001357372 -6.14975e-05 0.3980609901 -0.7508417024
560296640.0 -0.3574250823 0.7660681637 -0.0001582158 0.0002204466 0.0001164183 -0.0002114136 0.3903564384 -0.7541447636
565296610.0 -0.3497214568 0.7697780376 5.56263e-05 7.3799e-06 6.14554e-05 1.58742e-05 0.3832544274 -0.7577103982
570296580.0 -0.3428877922 0.7723538241 -9.93124e-05 5.60519e-05 0.0002361985 6.566e-07 0.3754175586 -0.7617507547
575296550.0 -0.3348265111 0.7768909095 1.8765e-06 0.0002689902 0.0001432339 -1.27099e-05 0.3679047973 -0.7649826892
580296520.0 -0.3264454526 0.7795929337 -0.000199928 7.91516e-05 -0.0002510321 0.0001837361 0.360309156 -0.7690822562
585296490.0 -0.3190094601 0.7826477532 -8.35052e-05 -0.0001125646 0.0002325674 -0.0001005536 0.3534866382 -0.7720135368
590296460.0 -0.3107085179 0.7856855225 6.94197e-05 0.0001389122 0.0003616883 0.0001331707 0.3447260998 -0.7750846686
595296430.0 -0.3029360685 0.78799069 -3.47223e-05 -0.000119301 -6.90792e-05 7.9479e-05 0.337021281 -0.77860118
600296400.0 -0.2953591605 0.7921930865 -0.0002264493 -0.0001126265 -9.271e-07 -0.0001117035 0.3306218813 -0.7824365169
605296370.0 -0.2874932412 0.794480229 -0.0001182322 0.0001012354 -3.04672e-05 -0.0002040786 0.3223733117 -0.7851661976
610296340.0 -0.2789833564 0.7972216844 0.0001638334 -0.0001838954 -1.86122e-05 -7.49842e-05 0.3146564405 -0.7882932276
615296310.0 -0.2706626872 0.8001890884 -0.0001954895 7.4855e-06 4.49835e-05 5.96846e-05 0.3067244522 -0.7914379569
620296280.0 -0.2634415853 0.8019083943 8.59965e-05 9.2804e-06 0.0001754334 -0.0001543592 0.2991942848 -0.7944416472
625296250.0 -0.2553492533 0.8055018268 4.96422e-05 -0.0001407909 -7.70239e-05 7.1041e-06 0.2914499436 -0.7968370041
630296220.0 -0.2465810564 0.8079551017 -8.293e-07 4.60897e-05 0.0002203165 -2.21e-06 0.2826210919 -0.798999304
635296190.0 -0.238797681 0.8100557553 -0.0001417711 -6.57062e-05 0.0002569746 -2.6919e-05 0.2751450773 -0.8023487797
640296160.0 -0.2315899495 0.8119774888 -0.0002202012 -0.0001653063 -4.42368e-05 2.41373e-05 0.2672929406 -0.8046891804
645296130.0 -0.2228700467 0.8154096297 1.59894e-05 4.12765e-05 5.3113e-06 -2.98305e-05 0.2594312488 -0.8072615099
650296100.0 -0.2147751904 0.8165770433 2.24442e-05 2.58793e-05 -9.3804e-06 -1.75524e-05 0.2517121681 -0.8108462315
655296070.0 -0.2066666396 0.8186863048 -0.0002369292 7.91472e-05 -9.66736e-05 -4.10382e-05 0.2441200792 -0.8121978923
660296040.0 -0.198247841 0.8207810345 -5.15793e-05 -0.0002375891 -4.55704e-05 0.0003097916 0.2362794546 -0.813991926
665296010.0 -0.1900391812 0.8221583186 -0.0001397655 3.96257e-05 4.51875e-05 -4.4141e-05 0.2275463221 -0.8168223063
670295980.0 -0.1821729642 0.8242661455 8.87448e-05 -7.27978e-05 4.69196e-05 9.03818e-05 0.2193426813 -0.8185279502
675295950.0 -0.1736546361 0.8261691577 -0.0001135631 8.17199e-05 6.76412e-05 9.99964e-05 0.2109997043 -0.8199923836
680295920.0 -0.165457239 0.8280509572 -0.0002303282 9.83825e-05 -7.96758e-05 2.47478e-05 0.2033612474 -0.8217310656
685295890.0 -0.1571155159 0.830115275 9.66574e-05 3.43452e-05 2.46994e-05 -0.0001944447 0.195304932 -0.8239851239
690295860.0 -0.1491054304 0.8308733811 1.05246e-05 0.0002716136 3.70837e-05 -6.53981e-05 0.1869160703 -0.8255293721
695295830.0 -0.1411361987 0.8315822885 9.83451e-05 -0.00020429 -7.2366e-06 -0.0001145112 0.1787909047 -0.8271584323
700295800.0 -0.1315547092 0.8339406295 7.61537e-05 0.0002623896 2.91432e-05 0.0001679103 0.1706073174 -0.8293039007
705295770.0 -0.1242863455 0.8353891491 4.558e-06 -1.3319e-06 -0.0001017391 9.58072e-05 0.1620258241 -0.8299366937
710295740.0 -0.1163401675 0.8364367888 7.43214e-05 -0.0001014688 -6.47786e-05 0.0001491209 0.1535510588 -0.831760929
715295710.0 -0.1078448594 0.8370575933 1.28067e-05 -7.40523e-05 6.14074e-05 -5.34274e-05 0.145529728 -0.8332136448
720295680.0 -0.099074261 0.8382385275 0.0003071969 -0.0001075132 0.0001219017 -5.35281e-05 0.1374760982 -0.8341295776
725295650.0 -0.0909523878 0.8399444412 -0.0001846219 -9.76891e-05 0.0001566835 8.23758e-05 0.1292589907 -0.8348189066
730295620.0 -0.0820927278 0.8402214597 0.0001294143 7.97911e-05 -4.29169e-05 -2.07528e-05 0.120161435 -0.8368763499
735295590.0 -0.0749496866 0.8409751339 5.83965e-05 2.63537e-05 9.48757e-05 3.88158e-05 0.1122173365 -0.8380207013
740295560.0 -0.0662757629 0.8419890221 -0.0002612578 -0.0002298874 -9.52919e-05 -3.881e-06 0.1040421663 -0.8383113556
745295530.0 -0.0578991945 0.8429629132 6.56576e-05 0.0001144797 3.70608e-05 7.18999e-05 0.0961375026 -0.8391019583
750295500.0 -0.0488761554 0.8429075502 0.0001031204 8.34058e-05 -7.0607e-05 0.0002347576 0.0870061973 -0.8400822122
755295470.0 -0.0411357526 0.8428878376 8.096e-06 9.99829e-05 6.61854e-05 6.7563e-05 0.0792605825 -0.8417223096
760295440.0 -0.0328570022 0.8434369066 -6.10943e-05 -6.85058e-05 -3.15066e-05 0.0003129796 0.0713211795 -0.8416453644
765295410.0 -0.0247927777 0.8441171406 -9.1736e-05 0.0001414895 8.46905e-05 -0.0001791033 0.0628921146 -0.8424749245
770295380.0 -0.0161659692 0.8444557157 -0.0001372654 6.03214e-05 -2.10838e-05 4.91374e-05 0.0543680285 -0.8431832269
775295350.0 -0.0078308977 0.8443282676 0.0001116948 0.0001671793 2.7828e-05 0.0001519784 0.0449527923 -0.8427786369
780295320.0 0.0001971933 0.8440801467 -4.85711e-05 0.0001801285 6.35353e-05 -4.69412e-05 0.0379588234 -0.8436781158
785295290.0 0.0087264095 0.8435077831 -0.0001290924 0.0001149663 -0.0002084046 -6.99621e-05 0.0295736869 -0.8436253934
790295260.0 0.0177220599 0.843960024 5.86598e-05 -6.38727e-05 1.13363e-05 -9.3635e-06 0.0220132096 -0.843916952
795295230.0 0.0254434085 0.8434351025 0.0001176773 5.8294e-05 8.0307e-05 7.86978e-05 0.0129596218 -0.8444027131
800295200.0 0.0341449771 0.8431575371 5.1369e-06 -5.00385e-05 -5.27343e-05 3.46953e-05 0.0041633511 -0.8437585186
805295170.0 0.0427644864 0.8434142308 6.44937e-05 -4.17145e-05 0.0002759333 -9.56728e-05 -0.0038244591 -0.8436472842
810295140.0 0.0507181258 0.8424390904 -0.0001503711 -0.000131447 -7.55281e-05 -0.0001785738 -0.0113745558 -0.8436386078
815295110.0 0.0590810889 0.8419311012 5.18544e-05 -5.18828e-05 -0.0001270781 0.0002065101 -0.0205915283 -0.8432511631
820295080.0 0.066996437 0.8416419244 -6.36565e-05 7.03587e-05 -0.000108373 -1.20695e-05 -0.0292609073 -0.8431130613
825295050.0 0.0763601654 0.8404476965 -1.49203e-05 -1.80711e-05 8.83629e-05 -5.25779e-05 -0.0367058249 -0.8426746413
830295020.0 0.0836355578 0.840165896 0.0001033822 -1.65933e-05 -7.86983e-05 -0.000305009 -0.0448896761 -0.841815751
835294990.0 0.0920747177 0.839594679 -0.0001259097 -4.68328e-05 -5.61863e-05 -8.83221e-05 -0.0536920902 -0.8411651407
840294960.0 0.1000792763 0.8380513556 -4.50483e-05 -8.10449e-05 4.62441e-05 -1.34232e-05 -0.0624541902 -0.8404059082
845294930.0 0.1082362769 0.8374561014 0.0002176225 5.94501e-05 -8.18775e-05 4.13615e-05 -0.0704544644 -0.8390539196
