!Created with skrf (http://scikit-rf.org).
# Hz S RI R 50.0 
!freq ReS11 ImS11 ReS21 ImS21 ReS12 ImS12 ReS22 ImS22
300000.0 -0.3241404051 -0.0777518266 0.3782068225 0.0413765729 0.3739358071 0.0393413904 -0.3202396385 -0.0916499127
5299970.0 -0.3265356316 0.0043725439 0.3784698317 0.0023837455 0.3784868342 0.0024990321 -0.3243173997 0.0050865214
10299940.0 -0.3243828608 0.0136023013 0.3794762068 0.0017682844 0.3793926502 0.0024563856 -0.3216996494 0.0160550326
15299910.0 -0.3214035606 0.0203974141 0.3818417918 0.0021084277 0.3820991199 0.0022496599 -0.31866171 0.0237983005
20299880.0 -0.3187095304 0.0262144909 0.3848484461 0.0018258808 0.3848290313 0.0016002396 -0.3151691685 0.0297576528
25299850.0 -0.3156837634 0.0315000934 0.3880994793 0.0002130377 0.3881815081 7.55954e-05 -0.3111473299 0.0359040806
30299820.0 -0.3126659822 0.0361023779 0.3914969423 -0.0023645834 0.3915686405 -0.002440812 -0.3072668777 0.0407280937
35299790.0 -0.3100713945 0.0400063834 0.3948566047 -0.0052742095 0.3949281511 -0.0054309978 -0.3036791665 0.0451520017
40299760.0 -0.307120817 0.0434570267 0.3977902269 -0.0088697158 0.397739733 -0.0088083988 -0.300358627 0.048179499
45299730.0 -0.3045507413 0.0465325013 0.400426315 -0.0125949315 0.4009386212 -0.0127475847 -0.2972043487 0.0517870487
50299700.0 -0.3025682955 0.0495013021 0.4037002674 -0.0175776941 0.4035596927 -0.0170341354 -0.2943872795 0.0540943141
55299670.0 -0.3001407962 0.0521769156 0.4056965835 -0.022406406 0.4054832432 -0.0217353466 -0.2917961203 0.0570583471
60299640.0 -0.2980074308 0.05484572 0.4072900274 -0.0271518551 0.4077615988 -0.0266152335 -0.2890479481 0.0591446607
65299610.0 -0.2962389461 0.0573882144 0.4088914614 -0.0320785528 0.4094180191 -0.031763235 -0.2872193082 0.0615003043
70299580.0 -0.2945137178 0.0596008572 0.4101543799 -0.0366725651 0.4105254698 -0.0369262995 -0.285129916 0.0637393298
75299550.0 -0.2930011347 0.0625131388 0.4111564418 -0.0421730508 0.4112328417 -0.042169153 -0.2830891934 0.0658640953
80299520.0 -0.2914734572 0.0647289778 0.4125687823 -0.0477374587 0.412298636 -0.0477050856 -0.2813769733 0.0680373588
85299490.0 -0.2903033535 0.0667425936 0.4129283542 -0.0521406283 0.4127760501 -0.0523525217 -0.2799755291 0.0699368614
90299460.0 -0.2889593939 0.0692170397 0.4133204567 -0.0579497337 0.413296181 -0.05792005 -0.2778788222 0.0724821549
95299430.0 -0.287212257 0.0715030542 0.413567301 -0.0630912949 0.4135954229 -0.0630910577 -0.2763696645 0.0742715282
100299400.0 -0.2863895939 0.0738407658 0.4135843062 -0.0683078594 0.4132007256 -0.0681685435 -0.2750265392 0.0762087917
105299370.0 -0.2849464645 0.0762449722 0.4131216191 -0.0733962453 0.4135953181 -0.0735309304 -0.2734787083 0.078246104
110299340.0 -0.2839731566 0.0784860842 0.4132421538 -0.0784410989 0.4130839429 -0.0786359609 -0.2729050896 0.0806521648
115299310.0 -0.2827820105 0.080961113 0.4128757864 -0.0838803289 0.4128267667 -0.0836677312 -0.271687126 0.0825334658
120299280.0 -0.2821766985 0.0832746316 0.4124882748 -0.0889606787 0.4125397012 -0.0889197171 -0.2705455595 0.0846834424
125299250.0 -0.2810999314 0.0854713793 0.4120170308 -0.0940591233 0.4122249449 -0.0938008314 -0.2696222943 0.086624757
130299220.0 -0.280307055 0.0883373554 0.4112565895 -0.0994277782 0.4111829354 -0.0990537359 -0.268576759 0.0887937962
135299190.0 -0.2791456273 0.0907174975 0.4105830752 -0.1038549088 0.4105937034 -0.1040086045 -0.2672909931 0.0912309641
140299160.0 -0.2784003325 0.0929725185 0.409773773 -0.1093601618 0.4098742084 -0.1091564438 -0.2663073277 0.093846116
145299130.0 -0.2775255376 0.0957335448 0.4089221735 -0.113887563 0.4086112543 -0.1139286875 -0.2654701055 0.095921453
150299100.0 -0.2764079653 0.0981525728 0.4079172246 -0.1186194953 0.4076707252 -0.1181782788 -0.2647436754 0.0986203559
155299070.0 -0.2756091759 0.1007291171 0.4072467429 -0.124110051 0.4066458296 -0.1238503968 -0.2636239855 0.1009162091
160299040.0 -0.2745253496 0.1035018342 0.4055615613 -0.1285506827 0.4053725265 -0.1289049633 -0.2631098596 0.103322947
165299010.0 -0.2739334801 0.105990833 0.4042823193 -0.1338878916 0.40459603 -0.1336458001 -0.2616863423 0.1058694044
170298980.0 -0.2729071433 0.1085165072 0.4026826971 -0.1383083393 0.4028055178 -0.138286177 -0.2607910753 0.1080749909
175298950.0 -0.2718639498 0.1112729586 0.4016763185 -0.1429831188 0.4014470151 -0.1430536505 -0.259949901 0.1107398713
180298920.0 -0.2712203268 0.114011824 0.400326276 -0.1481023113 0.4000914789 -0.1475820831 -0.2589146424 0.1131767709
185298890.0 -0.2696297755 0.1165951595 0.3985702666 -0.1526094452 0.398113203 -0.152459292 -0.2574438634 0.1156390142
190298860.0 -0.2687536513 0.1194919547 0.3970621764 -0.1575535454 0.3971022884 -0.1569646495 -0.256804773 0.118155676
195298830.0 -0.2677819032 0.1215580091 0.3950705172 -0.1618682252 0.3956431913 -0.1614124373 -0.2556944709 0.1207952065
200298800.0 -0.2662993126 0.1247456689 0.3934673236 -0.166816702 0.3937061925 -0.1663487394 -0.2547425948 0.1230454133
205298770.0 -0.2656237957 0.127435419 0.3916424579 -0.171601898 0.3919203053 -0.1708783764 -0.2534224841 0.1255291357
210298740.0 -0.2642633572 0.1297160496 0.3895729543 -0.1755310206 0.3901780127 -0.175603041 -0.2520776696 0.1283460402
215298710.0 -0.2636234044 0.1327232565 0.3882248279 -0.1802156565 0.3880047255 -0.1800775048 -0.2511751442 0.1307424053
220298680.0 -0.2620074522 0.1349414114 0.3855677687 -0.1846621285 0.3860811905 -0.1845340045 -0.2504630841 0.1329254771
225298650.0 -0.2611842267 0.1380317644 0.3841797475 -0.1893111449 0.3841343031 -0.1888360899 -0.2489150406 0.1357310363
230298620.0 -0.2593248733 0.1405579986 0.3821388292 -0.1932408406 0.3827418459 -0.1933650754 -0.2478856726 0.1381720585
235298590.0 -0.2582500745 0.1436717755 0.3798817806 -0.1976856709 0.3800498055 -0.1976158011 -0.2465099452 0.1410961821
240298560.0 -0.257180556 0.146521456 0.3778550126 -0.2026151774 0.3775801994 -0.2022381397 -0.245106149 0.1437549287
245298530.0 -0.2560351134 0.1489037091 0.3757339107 -0.2066759837 0.3754960707 -0.2063853146 -0.2439587635 0.1457290192
250298500.0 -0.2539057992 0.1516500608 0.3727344182 -0.2111154029 0.3728266612 -0.2107136038 -0.2426092438 0.1482002818
255298470.0 -0.2528478315 0.1537195561 0.3702737162 -0.2146284149 0.3706720298 -0.2150556037 -0.2411330999 0.1508981635
260298440.0 -0.2517768159 0.1567515545 0.3687166526 -0.2193250792 0.3688397002 -0.2191144771 -0.2395795288 0.1536529324
265298410.0 -0.249948279 0.1597434921 0.365936316 -0.2235672701 0.3663699032 -0.223262943 -0.2382299182 0.1559810328
270298380.0 -0.2484606125 0.1623765934 0.3636436471 -0.2274544251 0.3639641473 -0.2272862624 -0.2365405835 0.1584870045
275298350.0 -0.246974645 0.1650490849 0.3611756545 -0.2312947474 0.3612699956 -0.2314196962 -0.2350353641 0.1612016384
280298320.0 -0.2448635284 0.1678595398 0.3585829139 -0.2359753237 0.3588477774 -0.2357535648 -0.2334220421 0.1636965342
285298290.0 -0.243750827 0.1705362191 0.3562156632 -0.2395456506 0.3559343301 -0.2397155539 -0.2318466352 0.1662688942
290298260.0 -0.2417865558 0.1731156902 0.3532748299 -0.2436754539 0.3534030968 -0.2438068439 -0.2303941114 0.169017016
295298230.0 -0.2400713544 0.1755892456 0.3507568039 -0.2477476655 0.3506047903 -0.247715917 -0.2284184181 0.170954139
300298200.0 -0.2385461829 0.1784107155 0.3480287694 -0.2515207829 0.3484521543 -0.251929971 -0.2266190679 0.173690064
305298170.0 -0.2365967927 0.1805954583 0.3449360414 -0.2557376038 0.3452715913 -0.255481424 -0.2246823918 0.1759507052
310298140.0 -0.2348924631 0.1834419368 0.3420231605 -0.2596605336 0.3425115808 -0.2593884315 -0.223346668 0.1783514707
315298110.0 -0.2332628939 0.185881891 0.3397627156 -0.2634424378 0.3394737405 -0.263562034 -0.2214162836 0.1810092719
320298080.0 -0.2311410425 0.1881870586 0.3361239198 -0.2675792787 0.3366851735 -0.2671863943 -0.2196552814 0.1833044267
325298050.0 -0.2295777717 0.1908856605 0.3337368194 -0.2712871156 0.333585728 -0.2711182195 -0.218240805 0.1856022934
330298020.0 -0.2277573294 0.1928875691 0.3302350852 -0.275244888 0.3305292985 -0.2747951116 -0.2165168635 0.1879052268
335297990.0 -0.2257790268 0.1954674906 0.3273203638 -0.2784827174 0.3274042099 -0.278781607 -0.2148710314 0.1905805041
340297960.0 -0.2242936329 0.198316822 0.3240654295 -0.282300189 0.3238638152 -0.2823617831 -0.2125914619 0.1930721859
345297930.0 -0.2222398617 0.2009311883 0.3208043563 -0.286272152 0.3207341452 -0.2859830436 -0.2106785078 0.194868326
350297900.0 -0.2203597882 0.2029956547 0.3170109801 -0.2893817417 0.3173418394 -0.2894305213 -0.2092646664 0.1980415178
355297870.0 -0.2178258706 0.206213374 0.3140408024 -0.2928269589 0.3142563176 -0.2926837098 -0.2074634534 0.2001671228
360297840.0 -0.216017236 0.2082043497 0.3113977669 -0.2961983463 0.3111823999 -0.2960257763 -0.2053288222 0.2026434223
365297810.0 -0.2140758796 0.2110401 0.3075880085 -0.2998469723 0.307847677 -0.2998500756 -0.2028495079 0.2049309248
370297780.0 -0.2117999319 0.2132113812 0.3042072755 -0.3027669833 0.3044532407 -0.3029898581 -0.2011197583 0.2072379603
375297750.0 -0.2094870746 0.2155120227 0.3009613774 -0.3062354377 0.3013340168 -0.3063891943 -0.1992356588 0.2095223614
380297720.0 -0.2075182537 0.2177298908 0.2978376811 -0.3094790657 0.2976236383 -0.3091786528 -0.1972982938 0.211652564
385297690.0 -0.205540019 0.2199966354 0.294223443 -0.3125418939 0.2938902649 -0.3127969981 -0.1947740973 0.2140848848
390297660.0 -0.2031747621 0.2227153443 0.2907264734 -0.3159559027 0.2906935023 -0.3157341315 -0.19274912 0.2163873368
395297630.0 -0.2008948941 0.2249949248 0.2873559829 -0.3194160316 0.287321213 -0.3190021642 -0.1902369122 0.2183817218
400297600.0 -0.1984746112 0.2273901191 0.2832333094 -0.3228557114 0.2836541059 -0.3224577477 -0.1881859562 0.2205520789
405297570.0 -0.1964179272 0.2293808218 0.2801682144 -0.3252303006 0.2801681432 -0.3253032191 -0.1861964693 0.2225998335
410297540.0 -0.1938215505 0.231831715 0.2765135716 -0.3285204352 0.2767179034 -0.328580003 -0.1838457618 0.2249274943
415297510.0 -0.1914116247 0.2336306793 0.2727075143 -0.3314402673 0.2729396177 -0.3317498636 -0.1815526668 0.2272055034
420297480.0 -0.1893431363 0.2361135691 0.2688028249 -0.3344206315 0.2690593877 -0.3346118615 -0.1792381557 0.2290451482
425297450.0 -0.1866928102 0.238035305 0.2657506648 -0.3371871417 0.2658147814 -0.3377620896 -0.1769904409 0.231257617
430297420.0 -0.1842160499 0.2402194415 0.2618821647 -0.3400673722 0.261950942 -0.3399602898 -0.1745744747 0.2332238361
435297390.0 -0.1817601063 0.242422995 0.25773121 -0.3430201091 0.2575903632 -0.3428792684 -0.1717737733 0.2350128704
440297360.0 -0.179221216 0.2445636254 0.2540228092 -0.3455770858 0.254297463 -0.3457550816 -0.1696056826 0.2370567378
445297330.0 -0.1765893595 0.2464163515 0.2502414734 -0.3487194315 0.2503941657 -0.3482408789 -0.1668168702 0.2389628227
450297300.0 -0.1740240868 0.248310971 0.2461724496 -0.3512482302 0.2465428335 -0.3511686972 -0.1646510948 0.2408533618
455297270.0 -0.1717144998 0.2505137031 0.2425422625 -0.3540210976 0.2428719836 -0.354041006 -0.1622844437 0.2423035352
460297240.0 -0.1693297711 0.2525108814 0.238681068 -0.3563718844 0.2387381621 -0.356491186 -0.1596778012 0.2448373151
465297210.0 -0.1661289818 0.2545426664 0.2343653615 -0.3591403423 0.2347467622 -0.3593815887 -0.1568399477 0.2462606663
470297180.0 -0.1636753695 0.2560659792 0.2306830796 -0.361854224 0.2308218944 -0.361576933 -0.154104335 0.248515506
475297150.0 -0.1611379717 0.2578966672 0.2265937501 -0.3636286222 0.2268132812 -0.3638648982 -0.1515950293 0.2498125902
480297120.0 -0.1584510796 0.2601321387 0.2228917642 -0.3669978078 0.2227783594 -0.3668117075 -0.1489659451 0.251745301
485297090.0 -0.1557273996 0.2618664206 0.2187008918 -0.3688810352 0.2190128834 -0.3687338382 -0.1463168323 0.253259235
490297060.0 -0.1533327354 0.2635911398 0.2150512848 -0.3715488154 0.2149803598 -0.3715299413 -0.144037839 0.255296031
495297030.0 -0.1501400307 0.2652297818 0.2102490747 -0.3732898958 0.2109888572 -0.3733023482 -0.1414576385 0.2570510569
500297000.0 -0.1474416141 0.2669817424 0.2065355915 -0.3753249565 0.2064403445 -0.3755881692 -0.138491892 0.2590746668
505296970.0 -0.1443677529 0.2689243747 0.2021319939 -0.3776245734 0.2021940718 -0.3779814471 -0.1358778946 0.2606199933
510296940.0 -0.1418706655 0.2703314519 0.1979973232 -0.3802053475 0.1981887451 -0.3801334972 -0.1330690379 0.261706732
515296910.0 -0.1387750956 0.2720954703 0.193804816 -0.3822683357 0.1939850957 -0.3820751087 -0.1301915071 0.2634250516
520296880.0 -0.1363995036 0.2739047894 0.1894971064 -0.3845996121 0.1900674599 -0.3842989614 -0.1275261856 0.2649548759
525296850.0 -0.1329006551 0.2748501123 0.1853459086 -0.3863551656 0.1855486997 -0.3861024991 -0.1249419016 0.2662432759
530296820.0 -0.1301515115 0.2769301523 0.1812331333 -0.3885002111 0.1814509288 -0.3882879645 -0.1222140576 0.2680042185
535296790.0 -0.1276480969 0.278376655 0.1771112222 -0.3902241283 0.177305591 -0.3896676096 -0.1194862982 0.2690421354
540296760.0 -0.1247984206 0.279566513 0.1726695196 -0.3922546986 0.1727694546 -0.3922946521 -0.1168232925 0.2710389732
545296730.0 -0.1217048577 0.2813659334 0.1684993299 -0.393773852 0.1684957206 -0.3941436602 -0.1137045831 0.2719126107
550296700.0 -0.1186407233 0.2829521253 0.1643069778 -0.3958554921 0.1646893551 -0.3958005749 -0.1112048374 0.2735674079
555296670.0 -0.1161128506 0.283856326 0.1599682165 -0.3974615923 0.1602226488 -0.3972248519 -0.1082900471 0.2751141497
560296640.0 -0.1127321433 0.2856111947 0.155405633 -0.3993236435 0.1553870638 -0.3991904962 -0.1047665746 0.2760708521
565296610.0 -0.1099302287 0.2867901489 0.1511003198 -0.4007649051 0.1514847143 -0.4006534324 -0.102449517 0.2770275802
570296580.0 -0.1071814286 0.2878737626 0.1469498975 -0.4026909929 0.1467616929 -0.4023446528 -0.0996435218 0.2786129313
575296550.0 -0.1043183348 0.2892756726 0.142682433 -0.4039671818 0.1423988157 -0.4040053505 -0.096339066 0.2798662055
580296520.0 -0.1008054498 0.2906595861 0.1379732955 -0.4056480098 0.1381623458 -0.4055599707 -0.093464168 0.2810002207
585296490.0 -0.0979247876 0.291608845 0.133710845 -0.4066457129 0.1338386878 -0.406802241 -0.0906301851 0.2822100193
590296460.0 -0.0948715038 0.2927182705 0.1292605329 -0.4080603208 0.1292053231 -0.4083876395 -0.0877861602 0.2833771128
595296430.0 -0.0912946595 0.2940422358 0.1241697578 -0.4095686565 0.124617535 -0.4094501959 -0.0847299037 0.2840052425
600296400.0 -0.0887714468 0.295234602 0.1203412717 -0.4107674942 0.120129856 -0.4106572638 -0.0818134765 0.2853285828
605296370.0 -0.0857612734 0.2963977032 0.1155674226 -0.4119955142 0.11602674 -0.4122606544 -0.0784754798 0.2864398117
610296340.0 -0.0825142055 0.297189651 0.1109651461 -0.4130421035 0.1111706364 -0.4132418949 -0.0755154921 0.2873926289
615296310.0 -0.0790245069 0.2983346613 0.1063380057 -0.4143774601 0.1064571622 -0.4146202285 -0.0723379356 0.288039493
620296280.0 -0.0762603028 0.2989279699 0.1021298106 -0.4154094664 0.1021331134 -0.4155688019 -0.0695931437 0.2891741031
625296250.0 -0.0732935206 0.2997609007 0.097742779 -0.4167415702 0.097793893 -0.4169856814 -0.0664052305 0.2895591296
630296220.0 -0.0693473561 0.3009668377 0.0924790402 -0.4177006266 0.092960771 -0.4176393131 -0.0633382188 0.2908170172
635296190.0 -0.0670342973 0.301851658 0.0885586727 -0.4183186127 0.0884712289 -0.4186659361 -0.0602950715 0.291600944
640296160.0 -0.0639254928 0.3025081141 0.0840013767 -0.4193576971 0.0842211964 -0.4194325828 -0.0570851483 0.2925385928
645296130.0 -0.0602299766 0.3037064464 0.0790861411 -0.4200739531 0.07958345 -0.4202543621 -0.0541485478 0.293361912
650296100.0 -0.0575898021 0.3039644622 0.0750188942 -0.4204955498 0.0750144758 -0.421066377 -0.0510589284 0.2938081181
655296070.0 -0.0541526818 0.3052803268 0.0701848492 -0.4219756735 0.0703150465 -0.4220371541 -0.0478880643 0.2946551282
660296040.0 -0.0513413292 0.3053130239 0.0658302363 -0.4224857433 0.0656082572 -0.4225592152 -0.0444888015 0.2951385436
665296010.0 -0.0475231746 0.305874958 0.0605579371 -0.4231279817 0.0607910801 -0.4233116065 -0.0412167242 0.2960968129
670295980.0 -0.0450533445 0.3069524969 0.056566469 -0.423582806 0.0564867027 -0.4237193608 -0.0386835255 0.2966357922
675295950.0 -0.0414408807 0.3073819533 0.0518833155 -0.4240726388 0.0520904674 -0.4238509814 -0.0359464815 0.2973693546
680295920.0 -0.0381900009 0.3079216862 0.0473121215 -0.4245531871 0.0470772351 -0.4248828847 -0.0325903939 0.2981311039
685295890.0 -0.0348769689 0.3092601811 0.0428018266 -0.4255172353 0.0425114538 -0.4249133007 -0.0293625121 0.2979791344
690295860.0 -0.0315943899 0.3092301722 0.0379900503 -0.4253695473 0.0380016327 -0.4255412396 -0.0262940067 0.299167994
695295830.0 -0.0284398451 0.3095938857 0.033734023 -0.4255955645 0.0337452689 -0.425637997 -0.0231809205 0.2992209738
700295800.0 -0.0250879645 0.309961182 0.0288184734 -0.4260020997 0.0286534764 -0.4261562011 -0.0203809094 0.3001424085
705295770.0 -0.0220896237 0.3104403962 0.0239927466 -0.4265431734 0.0244853645 -0.4265515201 -0.0169134938 0.3002571602
710295740.0 -0.0187580198 0.3106316891 0.0197698072 -0.4264584275 0.0199153022 -0.4267785737 -0.013896231 0.3003159817
715295710.0 -0.0158253101 0.3111948504 0.0151710471 -0.4267879622 0.0148969538 -0.4268306049 -0.0101031638 0.3006838805
720295680.0 -0.0125169435 0.3113851925 0.010476375 -0.4269610695 0.0105879845 -0.427046117 -0.0071788552 0.3012630246
725295650.0 -0.0087237259 0.3119657114 0.0056886574 -0.4269488759 0.0056961822 -0.4270283312 -0.0044746613 0.3014637348
730295620.0 -0.0055050091 0.3122114275 0.0008948857 -0.4269159752 0.0011941938 -0.4267948725 -0.0013973685 0.3011487622
735295590.0 -0.0025765777 0.3120622121 -0.0035456437 -0.4268278155 -0.0033948799 -0.4269715078 0.0016821889 0.3014126971
740295560.0 0.0005889743 0.31227466 -0.0081639848 -0.4267125042 -0.0079270528 -0.42683768 0.0051468847 0.3014685212
745295530.0 0.0039017572 0.312679603 -0.0127591868 -0.4264478352 -0.0128833633 -0.4266056205 0.0085182095 0.3012658765
750295500.0 0.0072302805 0.3124544927 -0.0173320281 -0.426176743 -0.0169061466 -0.426235543 0.0114322699 0.3015006292
755295470.0 0.0105160856 0.3124055957 -0.0217328435 -0.4261856439 -0.0218559678 -0.4265654177 0.015014702 0.3013590698
760295440.0 0.0134491093 0.3123232917 -0.026528711 -0.4262069739 -0.0262857877 -0.4263227305 0.0175625866 0.3011172264
765295410.0 0.0168282622 0.3127860507 -0.031327644 -0.4258206539 -0.0314563523 -0.4254384787 0.0212803169 0.3015410495
770295380.0 0.0198841057 0.3127641773 -0.0359575678 -0.4252789549 -0.035929064 -0.4249893404 0.0242067666 0.3012940851
775295350.0 0.0233251655 0.3121309738 -0.0404548423 -0.4240187401 -0.0398028885 -0.424425789 0.0270182015 0.3013515117
780295320.0 0.0264502875 0.3122481665 -0.0450244047 -0.4241434898 -0.0443263218 -0.4240037292 0.0301544045 0.3010321465
785295290.0 0.0295338418 0.311452754 -0.0496710989 -0.4230816645 -0.0493791468 -0.4234961125 0.0342393544 0.3008243105
790295260.0 0.0336125589 0.3120575412 -0.0535404774 -0.4228774697 -0.053385673 -0.4228396502 0.0372330891 0.3011515453
795295230.0 0.0365451472 0.3111833188 -0.0586147712 -0.4219163073 -0.058133145 -0.4226376414 0.0403704041 0.3005518118
800295200.0 0.0395747352 0.3114609858 -0.0637977923 -0.4214903833 -0.0629804922 -0.4215158757 0.0432768106 0.3003470808
805295170.0 0.0431366462 0.3110398272 -0.0676675238 -0.4208315726 -0.0675568414 -0.4209954097 0.0464987204 0.2999609404
810295140.0 0.0463129732 0.3104047776 -0.0719750081 -0.4198833917 -0.0721513804 -0.4202698293 0.0503111509 0.2998624923
815295110.0 0.0495028854 0.3100861767 -0.0768176198 -0.4188832402 -0.0763696454 -0.4194346894 0.0529925975 0.2994532475
820295080.0 0.0526185871 0.3099844275 -0.0810653848 -0.4184051687 -0.0807053829 -0.4184266569 0.0560765847 0.2987836001
825295050.0 0.0562641062 0.3093011189 -0.0854063546 -0.4167452319 -0.0854736358 -0.417417393 0.0593064718 0.2986160173
830295020.0 0.059473339 0.3092810163 -0.0904581306 -0.4161129078 -0.0901996142 -0.4162865315 0.062940997 0.2979350427
