!Created with skrf (http://scikit-rf.org).
# Hz S RI R 50.0 
!freq ReS11 ImS11 ReS21 ImS21 ReS12 ImS12 ReS22 ImS22
300000.0 -0.2403951213 -0.0788321516 0.4719126303 0.0518710125 0.4684698874 0.0514515608 -0.2424718786 -0.0917247537
5299970.0 -0.2440873984 0.0074813522 0.4734805472 0.0045163064 0.4734178387 0.0049404738 -0.2440036161 0.0074819779
10299940.0 -0.2409218743 0.0188293482 0.4753727552 0.0059590573 0.4754520263 0.0062819589 -0.2406302255 0.0203684551
15299910.0 -0.2365270121 0.0279492652 0.4789441735 0.0077914425 0.479222148 0.0077690225 -0.2360989426 0.0296294645
20299880.0 -0.2318995258 0.0356381982 0.4839320249 0.0080635231 0.4839895932 0.0080698139 -0.2305642736 0.0375605504
25299850.0 -0.2269393723 0.0421545303 0.4890455879 0.0071827212 0.4891541392 0.007421761 -0.2248530084 0.0438490208
30299820.0 -0.2214579507 0.0471013285 0.4943283654 0.0054295849 0.4940423568 0.0054585615 -0.2188200254 0.0489408472
35299790.0 -0.216261756 0.0514402497 0.4999386467 0.0018652227 0.4998608032 0.0021021648 -0.2137401135 0.0533921247
40299760.0 -0.2116529804 0.0550011554 0.5050223456 -0.0014068943 0.5053849114 -0.0014965062 -0.2084649803 0.0561848931
45299730.0 -0.206671096 0.0577781382 0.5097697066 -0.0066580317 0.5100094453 -0.0065406095 -0.2031314131 0.0591653919
50299700.0 -0.2022959492 0.0599657812 0.5140809844 -0.0122379513 0.5142343905 -0.0117776772 -0.1984686459 0.0606986351
55299670.0 -0.198124602 0.0617469875 0.5180191285 -0.0183079234 0.5180002166 -0.0180259976 -0.194603787 0.0620597203
60299640.0 -0.194446044 0.0637353408 0.5212474696 -0.0247563652 0.5215370907 -0.0240464284 -0.190432825 0.063209845
65299610.0 -0.1911178068 0.0648807649 0.523935534 -0.0310228375 0.5242601679 -0.0305236823 -0.1871160366 0.0640784202
70299580.0 -0.1882279932 0.0661263398 0.5266408579 -0.0371510063 0.5266505286 -0.0370753448 -0.1838829528 0.0646624701
75299550.0 -0.1852640315 0.0672074192 0.528424504 -0.0437608896 0.5283576453 -0.043895122 -0.1810929478 0.0654747824
80299520.0 -0.1826902448 0.0682168413 0.5305119998 -0.0514252143 0.5307305383 -0.0511630905 -0.1785331219 0.0661206948
85299490.0 -0.1802384186 0.0689883279 0.5318212234 -0.057475695 0.5317835568 -0.0576063879 -0.1761549017 0.0663248141
90299460.0 -0.1779522429 0.0697478291 0.532350231 -0.0649053209 0.5328110085 -0.0648378711 -0.1740057291 0.0666528207
95299430.0 -0.1755941914 0.0705244527 0.5336325217 -0.0719794952 0.5337913051 -0.0716451438 -0.1716261961 0.0672052354
100299400.0 -0.1739728602 0.0715468214 0.5336324285 -0.0783360951 0.5336963801 -0.0787470206 -0.1694644683 0.0673585225
105299370.0 -0.1719799338 0.072308136 0.5339906734 -0.0861154127 0.5346156131 -0.0855578635 -0.1673708312 0.0681391921
110299340.0 -0.170388493 0.0733608735 0.5346879447 -0.092503214 0.5344078341 -0.0919666791 -0.1665214145 0.0683143933
115299310.0 -0.1688768907 0.0741406099 0.534101181 -0.0994240061 0.5345127078 -0.0993552526 -0.1646572078 0.0689740113
120299280.0 -0.1674138005 0.0748291802 0.5339744096 -0.1059938727 0.5342985785 -0.1060654901 -0.1633312831 0.0693714455
125299250.0 -0.1660485515 0.0754644173 0.5341209057 -0.1125337589 0.5340782138 -0.1124835173 -0.1624124289 0.0696288466
130299220.0 -0.1650971654 0.0767159761 0.5331547991 -0.1199579547 0.5331554303 -0.119515414 -0.1610621441 0.070405283
135299190.0 -0.1637818991 0.0780492977 0.532631096 -0.1265059769 0.5328461876 -0.1258898112 -0.1596268228 0.0710575788
140299160.0 -0.1627301489 0.0788511652 0.5319306784 -0.1329409956 0.5319840516 -0.1327979607 -0.1588279636 0.0722219855
145299130.0 -0.1614003435 0.0797796114 0.5309303163 -0.1395279807 0.5308495308 -0.1389192018 -0.1576024604 0.0726877668
150299100.0 -0.1598698419 0.0810973297 0.5295953278 -0.1457313547 0.5298093508 -0.1451405632 -0.1568407121 0.0739715577
155299070.0 -0.1593393785 0.0820198426 0.5285037878 -0.1527821033 0.5281469628 -0.1525197164 -0.1558327428 0.0746892561
160299040.0 -0.1580592604 0.0834249143 0.5272660514 -0.1589008245 0.5266673449 -0.1587912829 -0.1554387439 0.0753671029
165299010.0 -0.1573346971 0.0846893506 0.5257008795 -0.1656279455 0.5260697845 -0.1655470215 -0.1540932346 0.0766488705
170298980.0 -0.1563559337 0.0856055236 0.5242437372 -0.1717719097 0.5244617204 -0.1715154949 -0.1535429724 0.0775603491
175298950.0 -0.1554576661 0.086983276 0.5226647886 -0.1779741831 0.5219857771 -0.1778672062 -0.1527215123 0.078609831
180298920.0 -0.1546674732 0.0883824908 0.5206682221 -0.1844371911 0.5206287326 -0.1838410264 -0.1518537195 0.0797237897
185298890.0 -0.153298308 0.0893433059 0.5193535581 -0.1903709508 0.5187807331 -0.1903152574 -0.1513100086 0.0811775363
190298860.0 -0.1527858933 0.0909745539 0.517341398 -0.1967813419 0.5174712651 -0.1966385857 -0.1507031156 0.081831968
195298830.0 -0.1517403025 0.0920956656 0.5152489071 -0.202815918 0.5150998282 -0.2024878898 -0.1496297455 0.0828263378
200298800.0 -0.1507428105 0.0935399481 0.5128540632 -0.2088653075 0.5132154731 -0.2090901702 -0.1492045549 0.0844495803
205298770.0 -0.1498978792 0.0949262218 0.5104856918 -0.215046764 0.5105216867 -0.2148800532 -0.1484636561 0.0847750118
210298740.0 -0.1489433562 0.0960876847 0.508407124 -0.2206054937 0.5086131023 -0.220927877 -0.1473698588 0.0868782147
215298710.0 -0.1482732934 0.0977115231 0.5063885217 -0.2270237182 0.5065665319 -0.227332063 -0.1473118366 0.0877055393
220298680.0 -0.1470236756 0.0990425679 0.5035914581 -0.232648388 0.5035329777 -0.2327802815 -0.1466302847 0.0887180822
225298650.0 -0.1460481442 0.1005377932 0.5010846424 -0.2386628135 0.5013909899 -0.2387220345 -0.146307096 0.0899652755
230298620.0 -0.1454062415 0.1023463408 0.4987215043 -0.2443026428 0.4991581033 -0.2443307871 -0.1456880905 0.090722535
235298590.0 -0.1439733335 0.1037514088 0.4964575978 -0.250343181 0.4964178522 -0.25011108 -0.1447643523 0.0923716771
240298560.0 -0.1431451609 0.1051311066 0.4936327398 -0.2562161996 0.4935008609 -0.2562007949 -0.1440271938 0.093631803
245298530.0 -0.1423074865 0.1064805957 0.4908679103 -0.2616048345 0.4909915665 -0.2619976044 -0.1431117066 0.0944338856
250298500.0 -0.1409713694 0.1079744829 0.48734262 -0.267548124 0.4875758008 -0.2669910801 -0.1424629892 0.0959494861
255298470.0 -0.1400653776 0.1092053991 0.4841537016 -0.2726720374 0.484746388 -0.272720424 -0.1415633877 0.0969395776
260298440.0 -0.1393601003 0.1104883572 0.4818215021 -0.2786371453 0.4820216928 -0.2781819609 -0.1404889014 0.0982451506
265298410.0 -0.1376402669 0.1125909675 0.4791639434 -0.28366275 0.4791432048 -0.2838833436 -0.1395713773 0.0995999584
270298380.0 -0.1366933173 0.1137999714 0.4760147158 -0.2892142386 0.4762321979 -0.28908017 -0.1390756836 0.1005026434
275298350.0 -0.1352504201 0.1152285194 0.4730059403 -0.294666206 0.4730709794 -0.2949114223 -0.1378661758 0.1019287338
280298320.0 -0.1340185395 0.1169652007 0.4699141874 -0.3001508549 0.4693547947 -0.3000593643 -0.1369226234 0.103189457
285298290.0 -0.1328803053 0.1182706153 0.4663015843 -0.3054197443 0.4660757793 -0.3057119856 -0.1356521501 0.1042895352
290298260.0 -0.1314630191 0.1196316867 0.4627102692 -0.3105518541 0.4628153892 -0.3110101877 -0.1348557511 0.1056025428
295298230.0 -0.1302189791 0.1209889787 0.4594046398 -0.3162620092 0.4598175406 -0.3160113854 -0.1334748838 0.1065776195
300298200.0 -0.1292180448 0.1222876456 0.4565321336 -0.3209339146 0.456172793 -0.3215058507 -0.1328682234 0.1078415188
305298170.0 -0.1276372399 0.1234472602 0.4526612293 -0.3266912638 0.4524072828 -0.3263367724 -0.1312609755 0.108962139
310298140.0 -0.1265342162 0.1253161732 0.449120885 -0.3315956254 0.4495310195 -0.3316839404 -0.1305148074 0.1101601428
315298110.0 -0.1252398415 0.1262241837 0.4453872332 -0.3365198685 0.4454298756 -0.3369578865 -0.1294155469 0.1113148177
320298080.0 -0.1237459058 0.1273700663 0.4413094499 -0.3421804146 0.441948854 -0.3420486494 -0.1285928796 0.1127851979
325298050.0 -0.1225660997 0.1289470053 0.4377782126 -0.3472035904 0.4377501136 -0.3470430336 -0.1279715775 0.1139220035
330298020.0 -0.1213730461 0.1299719963 0.4335044691 -0.3521555088 0.4338073831 -0.3519880775 -0.1268475636 0.1150058738
335297990.0 -0.1201784035 0.1311271545 0.429663378 -0.3566456339 0.4297423542 -0.3568840179 -0.1262108088 0.1167366618
340297960.0 -0.1191637982 0.1326556319 0.4251648918 -0.3614331164 0.4253661995 -0.361571701 -0.1246584429 0.1179821005
345297930.0 -0.1180158741 0.1344599099 0.4213049542 -0.3665962167 0.421187437 -0.3663015102 -0.1243100266 0.1190301362
350297900.0 -0.1165692425 0.1354093769 0.4169264107 -0.3713343048 0.4170888145 -0.3709168728 -0.1234213354 0.1211722424
355297870.0 -0.115232816 0.1374609439 0.4131469661 -0.3753863343 0.413470905 -0.37562918 -0.1221768275 0.1221059098
360297840.0 -0.1135780767 0.1386991828 0.4096002689 -0.3799232294 0.4092111555 -0.3799197507 -0.1210176447 0.1236525982
365297810.0 -0.1124927896 0.1405089776 0.4049322838 -0.3844852054 0.4047794855 -0.3848006322 -0.1197944106 0.1250224427
370297780.0 -0.110588122 0.1414190359 0.4004218192 -0.3885919344 0.4006767223 -0.3888022226 -0.1187906517 0.1263574603
375297750.0 -0.1093887549 0.1425476258 0.3962279958 -0.3933126701 0.3965101096 -0.3934211404 -0.1178738234 0.1275049077
380297720.0 -0.1078342471 0.1441555142 0.3920873829 -0.397893761 0.3920004867 -0.3970402055 -0.1171424661 0.1285265779
385297690.0 -0.1066316289 0.1455551 0.3875280421 -0.402125916 0.3872716073 -0.4017351909 -0.1158100346 0.1301290396
390297660.0 -0.1047408753 0.1468535163 0.3829386152 -0.406719247 0.3827491111 -0.4059009731 -0.1149708615 0.1313262974
395297630.0 -0.1030681704 0.1483884599 0.3788313678 -0.4108841983 0.37869035 -0.4106219894 -0.1132158306 0.1326360796
400297600.0 -0.1017373414 0.1498738752 0.3736297459 -0.4151925262 0.374004001 -0.4148313677 -0.1121639237 0.133801003
405297570.0 -0.1004380928 0.150609804 0.3694136316 -0.4187190458 0.3697387102 -0.4183514902 -0.1111304461 0.1351053627
410297540.0 -0.0984557443 0.1519869493 0.3649574885 -0.4229046083 0.3653645635 -0.4227541837 -0.1099994949 0.1364587813
415297510.0 -0.0963981441 0.1528069067 0.360032057 -0.4265285097 0.360596521 -0.4268633024 -0.1086730614 0.1376005948
420297480.0 -0.0953238915 0.1546435258 0.3552687541 -0.4306084829 0.3554492057 -0.4307830894 -0.1076706014 0.1383650352
425297450.0 -0.093756694 0.1553950839 0.350868324 -0.434576026 0.3510924857 -0.4346863247 -0.1067960184 0.1402129959
430297420.0 -0.0918391437 0.1565778059 0.3460423624 -0.4379097973 0.3457984505 -0.4379078682 -0.10531544 0.1407794504
435297390.0 -0.0903164442 0.1580536199 0.3411023398 -0.4422191764 0.3408497024 -0.44234556 -0.1033834413 0.1421754439
440297360.0 -0.0884797233 0.1592419814 0.3363616424 -0.4456797238 0.3363238191 -0.4458506649 -0.1025672392 0.1428062635
445297330.0 -0.0866730762 0.1599247279 0.3316272025 -0.4496046123 0.3311962066 -0.4489338026 -0.1003991461 0.1438461603
450297300.0 -0.0847551011 0.1608819034 0.3261648256 -0.4528868412 0.3260360919 -0.4530013439 -0.0995388866 0.1448693737
455297270.0 -0.0830188261 0.1621020891 0.3210630816 -0.4565460582 0.3214876289 -0.4568690286 -0.0982731835 0.1457219457
460297240.0 -0.0815829135 0.1629571198 0.3160152698 -0.4597116529 0.3165215921 -0.4599912544 -0.0966396573 0.1469883978
465297210.0 -0.0794641558 0.1644038781 0.3114928474 -0.4636851275 0.3111866273 -0.4638263852 -0.0951813054 0.1479511211
470297180.0 -0.0776637276 0.1650877882 0.3060231492 -0.4667734562 0.3062865996 -0.4666396513 -0.0933392574 0.1490077793
475297150.0 -0.075812186 0.1657506231 0.3007402352 -0.4694641762 0.3014768491 -0.4697042913 -0.0918460078 0.1498089843
480297120.0 -0.0742868941 0.1673710804 0.2960933882 -0.4730997373 0.2961007744 -0.4735490635 -0.0905809152 0.1511052603
485297090.0 -0.0725290706 0.1680143512 0.2911581142 -0.4760726344 0.2908158949 -0.4761992622 -0.0888665326 0.1519106463
490297060.0 -0.0709681145 0.1688555529 0.2859970381 -0.4797002908 0.2860156374 -0.4793438555 -0.0874714241 0.1529894211
495297030.0 -0.0689786545 0.1698051595 0.2802544738 -0.4823609849 0.2808173594 -0.4826282836 -0.0861825959 0.154386955
500297000.0 -0.0667694339 0.1708407734 0.2753989176 -0.4852837182 0.2747765477 -0.485451136 -0.0844731151 0.1555594692
505296970.0 -0.0651884872 0.1717761689 0.2701029801 -0.4882479361 0.2695907576 -0.4885973438 -0.0830383287 0.1563555932
510296940.0 -0.0631370161 0.1722184273 0.2644932297 -0.4911826235 0.2642864047 -0.4917210383 -0.0814939656 0.1574846601
515296910.0 -0.061093447 0.1732404455 0.2585562919 -0.4944603309 0.2588532239 -0.4939798727 -0.0798421928 0.1585179911
520296880.0 -0.059490538 0.1743045836 0.2537880476 -0.4974725117 0.2535211483 -0.4966872477 -0.0783491367 0.1589899078
525296850.0 -0.0571436379 0.1747381255 0.2479026981 -0.4999314881 0.2485569371 -0.4995651798 -0.0772573674 0.1604240044
530296820.0 -0.0554317449 0.1757744974 0.2426850946 -0.5028303758 0.2426170843 -0.5023579125 -0.0754301276 0.1613095762
535296790.0 -0.0537827288 0.1765358691 0.2374747802 -0.5049807012 0.2374777917 -0.5045556743 -0.0740616027 0.1619800093
540296760.0 -0.0519937434 0.1774756991 0.2315798395 -0.5076072558 0.2315252552 -0.5077585586 -0.0725319042 0.1632037369
545296730.0 -0.049832045 0.1777429196 0.2262713642 -0.5096228051 0.2261431042 -0.509893067 -0.071259013 0.1638070449
550296700.0 -0.0475472402 0.1785917507 0.2201490849 -0.5123046868 0.220600917 -0.512536769 -0.0697463016 0.1650954309
555296670.0 -0.045926197 0.179095411 0.2147475322 -0.5144800155 0.2153439466 -0.5148071307 -0.0680089917 0.1660339378
560296640.0 -0.0436390591 0.180277386 0.2097245916 -0.5169518514 0.2094994983 -0.5173351992 -0.0664883844 0.1669227682
565296610.0 -0.0418194758 0.1807161558 0.2032985316 -0.5193693885 0.2038324234 -0.519596216 -0.0654553767 0.1672150214
570296580.0 -0.0398420028 0.1814771038 0.1981188892 -0.5217060689 0.1976903524 -0.5212622122 -0.0636814802 0.1682639808
575296550.0 -0.0381840013 0.1821494562 0.1926050092 -0.5237026674 0.1922483082 -0.5239643624 -0.0617790613 0.1693654982
580296520.0 -0.0359158626 0.182704668 0.1870807057 -0.5258975198 0.1867350414 -0.5258096531 -0.0603173247 0.1695983506
585296490.0 -0.033996388 0.1825774673 0.1809452486 -0.5276910087 0.1810340286 -0.5278197837 -0.0588922698 0.1704072399
590296460.0 -0.0317148475 0.1833851861 0.1753614983 -0.5289526122 0.1752343817 -0.5291134633 -0.0574326452 0.171074098
595296430.0 -0.0296046302 0.1840394389 0.169519065 -0.5314570796 0.1694511183 -0.5315644838 -0.0554478644 0.1712317744
600296400.0 -0.0276798296 0.1843722052 0.1636139905 -0.5331615356 0.16383993 -0.5325897135 -0.0540794339 0.1720709659
605296370.0 -0.0260050031 0.1848240121 0.1578108692 -0.5346226752 0.1579853638 -0.5349211317 -0.0521654759 0.1728876449
610296340.0 -0.023913215 0.185324857 0.1520354834 -0.5366738176 0.1521241663 -0.5362312279 -0.050097988 0.1733873838
615296310.0 -0.0214113351 0.185288252 0.1461474221 -0.5378866155 0.146094248 -0.5381816879 -0.0484659595 0.1737298882
620296280.0 -0.0195433462 0.1854613381 0.1401725191 -0.5396917017 0.1404204273 -0.5391525155 -0.0473916311 0.1747396846
625296250.0 -0.0177157739 0.1858935097 0.1350275857 -0.5409052313 0.1346908032 -0.5413068876 -0.0448053796 0.1749629471
630296220.0 -0.0150787894 0.1862608531 0.1283458646 -0.5424101251 0.1284120844 -0.5421905782 -0.0432569775 0.1756146363
635296190.0 -0.0138098668 0.1865159394 0.1230696808 -0.5433039457 0.1228599952 -0.5437474614 -0.041476398 0.1762569544
640296160.0 -0.0113558023 0.1867187584 0.1168350303 -0.5446579784 0.1171067425 -0.5444170754 -0.0397460369 0.1766866105
645296130.0 -0.0094523451 0.1875387823 0.1109141534 -0.5458347583 0.1114932126 -0.5458719171 -0.0379803083 0.1775549699
650296100.0 -0.0071553918 0.1875446775 0.1047768338 -0.5467013493 0.1051198068 -0.5470740099 -0.0361621878 0.177313307
655296070.0 -0.0055183655 0.1875240143 0.0989080137 -0.5482866663 0.0992923371 -0.5482118161 -0.0342330762 0.1780803994
660296040.0 -0.0034310225 0.1874835041 0.093530585 -0.5491989174 0.0933593953 -0.5493947998 -0.0325602812 0.1787567667
665296010.0 -0.0011560792 0.1875621287 0.0870829486 -0.5502880708 0.0872833691 -0.5502396057 -0.0305925417 0.1795511625
670295980.0 0.0001372438 0.1878413384 0.0813580115 -0.5507832573 0.0815861883 -0.5508477248 -0.0294192934 0.1796935742
675295950.0 0.0025174786 0.1883920852 0.0755519197 -0.5518417904 0.0757655598 -0.5512415568 -0.0277994394 0.180259059
680295920.0 0.0045875752 0.188100626 0.0690568104 -0.5524848548 0.0692414597 -0.5529849575 -0.0256940314 0.1812890038
685295890.0 0.0070752528 0.1889613541 0.0634053792 -0.5528557977 0.0633506659 -0.5532413209 -0.0238144859 0.1813190937
690295860.0 0.0093470068 0.1886221082 0.0575306294 -0.5532100519 0.0575598775 -0.5541239559 -0.0221392257 0.1827131218
695295830.0 0.0109587354 0.1884154803 0.0518678688 -0.5542452586 0.0512936224 -0.5542613619 -0.0202844779 0.1827775537
700295800.0 0.013112383 0.1881916162 0.0454831815 -0.5544282749 0.0452869551 -0.5547524276 -0.0183022911 0.183450142
705295770.0 0.0149632889 0.189280907 0.0395136451 -0.5553253579 0.040036515 -0.5553914396 -0.0171136128 0.1836638474
710295740.0 0.0174658835 0.1886966786 0.0335479283 -0.5564329433 0.0339160259 -0.5559271433 -0.015148866 0.1837048568
715295710.0 0.0191009763 0.1885864798 0.0280152376 -0.5562910917 0.0273568366 -0.5560013084 -0.0132035542 0.1835159554
720295680.0 0.0214031616 0.1883371845 0.0218594226 -0.5563631657 0.0215759066 -0.5563984041 -0.011285921 0.1848694281
725295650.0 0.0237774524 0.1885799394 0.0154722651 -0.5564756914 0.0158329979 -0.5570405267 -0.0102171568 0.1851770278
730295620.0 0.0259385819 0.1887558097 0.0092001011 -0.5561871914 0.0093909315 -0.5563306188 -0.0083951851 0.1847997104
735295590.0 0.0278914572 0.1885560065 0.0035311515 -0.5568961209 0.003546208 -0.5568167387 -0.006865739 0.1850878025
740295560.0 0.0298836308 0.1883972799 -0.0026457974 -0.5566675504 -0.0026706628 -0.5567734801 -0.0046713413 0.1857654371
745295530.0 0.0316269108 0.1883026694 -0.0086620611 -0.5559674107 -0.0089417742 -0.5565782868 -0.0028920884 0.1853486721
750295500.0 0.0339848545 0.1875444322 -0.0141921531 -0.5563377337 -0.0144765225 -0.5563915499 -0.001203848 0.1856382645
755295470.0 0.0360941849 0.1874813591 -0.0202837398 -0.5562133641 -0.0203722134 -0.5559352453 0.0008370071 0.1852641868
760295440.0 0.0381292079 0.1870663906 -0.0265468762 -0.556095364 -0.0264070462 -0.5561521197 0.0022817131 0.1856254459
765295410.0 0.0402434564 0.1870582849 -0.0324117392 -0.5557650701 -0.0329944672 -0.5556841438 0.0043106787 0.1860024968
770295380.0 0.0420636051 0.186664619 -0.0385530338 -0.5553138555 -0.0385446819 -0.5548704741 0.0060896891 0.1856657041
775295350.0 0.0438846885 0.1858256124 -0.0446501921 -0.5543604291 -0.0439953116 -0.5546410854 0.0072105101 0.1859022159
780295320.0 0.046410392 0.1856786199 -0.0505076628 -0.5537805913 -0.0497783785 -0.5539586941 0.0091996802 0.1856214112
785295290.0 0.0479383609 0.1850293695 -0.0566370369 -0.5528905812 -0.0563402766 -0.5531597506 0.0117321072 0.1857874532
790295260.0 0.050401045 0.1851912831 -0.0618593678 -0.5525249267 -0.0613625151 -0.5526814636 0.0132619619 0.1858906567
795295230.0 0.0523198717 0.1844205588 -0.0681675582 -0.5518689942 -0.067856197 -0.5519221237 0.0152853323 0.1858807203
800295200.0 0.0541345135 0.184110563 -0.075048914 -0.5509366882 -0.0742310564 -0.5510262458 0.0170233649 0.1859845875
805295170.0 0.0560713172 0.1835794101 -0.0799138754 -0.5500543893 -0.0801189253 -0.5502560432 0.0185455834 0.1860038514
810295140.0 0.058174355 0.1827497052 -0.0860281376 -0.5490514289 -0.0860629089 -0.5493201385 0.021097243 0.1859787039
815295110.0 0.060222099 0.1821006705 -0.0917218426 -0.5479125279 -0.0914459709 -0.5482352493 0.0226737379 0.185971648
820295080.0 0.0620366097 0.1822912014 -0.0981052545 -0.5471761982 -0.0975505554 -0.547247162 0.0246311171 0.1857905048
825295050.0 0.0645632155 0.1811964062 -0.1032287922 -0.545918285 -0.1034394119 -0.5462506407 0.0267483785 0.1858491887
830295020.0 0.0664030613 0.1808638265 -0.1095415858 -0.5448653127 -0.109365957 -0.5447322655 0.0290082153 0.1855913457
