!Created with skrf (http://scikit-rf.org).
# Hz S RI R 50.0 
!freq ReS11 ImS11 ReS21 ImS21 ReS12 ImS12 ReS22 ImS22
300000.0 -0.7820659152 -0.115176056 -0.0005230035 0.0011018649 -3.07497e-05 -0.0006869643 0.8590750866 -0.0030780907
5299970.0 -0.7851586314 -0.0061711602 1.90651e-05 -0.000224245 -0.0001192556 0.000100767 0.8595011843 -0.0100700931
10299940.0 -0.7881700334 -0.0044193819 -4.71154e-05 -4.35906e-05 0.0001306595 0.0001210766 0.8581087568 -0.018121386
15299910.0 -0.7935830924 -0.0022485905 9.79538e-05 -0.000165264 -4.76984e-05 6.3693e-05 0.8573497917 -0.0274055195
20299880.0 -0.800338119 0.0017007132 3.1715e-06 -3.71824e-05 5.47595e-05 0.000162358 0.8569192723 -0.0358656844
25299850.0 -0.8066276748 0.0081733134 1.95978e-05 0.0001316651 -7.69651e-05 8.07855e-05 0.8561697887 -0.043637858
30299820.0 -0.8126820693 0.0149674582 -1.21894e-05 -1.8292e-05 -0.0001124685 -4.2824e-05 0.8550414361 -0.0524972131
35299790.0 -0.8174771729 0.0241872032 4.14908e-05 7.91287e-05 7.35945e-05 4.85363e-05 0.8542641987 -0.059586879
40299760.0 -0.8208922812 0.0333094628 -0.0002750582 5.73948e-05 -4.43712e-05 -0.0001268143 0.8539496859 -0.0679145789
45299730.0 -0.8247424307 0.042589486 -7.90823e-05 0.0001145372 0.0001555536 -8.62962e-05 0.8527281531 -0.0763520734
50299700.0 -0.8272522014 0.0530789424 -6.6772e-06 -0.0001449669 8.86412e-05 -3.27812e-05 0.8521894388 -0.0843503489
55299670.0 -0.8294217918 0.0628818103 4.13684e-05 -8.04752e-05 -8.29467e-05 -3.3937e-05 0.8513992356 -0.092943024
60299640.0 -0.8301636749 0.0732498476 0.000124967 8.2029e-06 9.6964e-06 -6.75399e-05 0.8499653755 -0.1009690937
65299610.0 -0.8311414123 0.083297353 7.2162e-06 -0.0001229709 -4.59186e-05 -0.0001672205 0.8495616187 -0.1089093436
70299580.0 -0.8314744712 0.0934704232 0.0001810296 9.30768e-05 0.0001291968 1.86798e-05 0.8480640343 -0.117191467
75299550.0 -0.8320816236 0.1035211258 -8.4328e-06 -0.0001197423 -2.02405e-05 0.0001187969 0.8467228242 -0.1257190531
80299520.0 -0.8317251823 0.1134376863 -0.0001418291 9.27084e-05 -0.000126429 0.000124059 0.8455821903 -0.1337887635
85299490.0 -0.8314023982 0.1227234724 -1.49554e-05 -0.0001404076 9.3205e-06 0.0001338287 0.8445874145 -0.1419666051
90299460.0 -0.8300756258 0.1318611061 0.0002141633 0.0002127888 -3.70159e-05 9.95246e-05 0.8427163257 -0.149967161
95299430.0 -0.8289575008 0.1416296145 -1.53359e-05 -0.0001478046 -2.14332e-05 -7.79103e-05 0.8411788142 -0.1579573937
100299400.0 -0.8276550853 0.1505641071 0.0001946479 0.0001043395 -9.428e-05 -0.0001723817 0.8398564503 -0.1670056103
105299370.0 -0.8269504671 0.160005089 -4.33781e-05 3.44106e-05 6.23448e-05 0.0001891289 0.8378175398 -0.1740709298
110299340.0 -0.8249465582 0.1692307928 -7.19794e-05 0.0001304779 -0.000189904 -1.66369e-05 0.8363765636 -0.1825561018
115299310.0 -0.8237397974 0.1780405501 0.0001009028 0.0002154011 -5.13076e-05 2.03699e-05 0.8346010006 -0.1899271923
120299280.0 -0.8218965199 0.1868005719 0.000176162 -8.56e-07 -4.34429e-05 -7.3451e-06 0.8323339628 -0.1987954282
125299250.0 -0.8204288399 0.1955943004 1.87812e-05 -0.0001001604 0.0002994498 -0.0001705094 0.8309852597 -0.2064723928
130299220.0 -0.8188337654 0.204928895 -0.0002503554 -4.243e-06 5.85085e-05 3.78975e-05 0.828788828 -0.2152161605
135299190.0 -0.816809498 0.2142321791 2.58787e-05 -6.93289e-05 1.1507e-05 -4.25879e-05 0.8266713309 -0.2221341654
140299160.0 -0.8145787968 0.2228722028 3.64426e-05 3.50855e-05 -5.43871e-05 1.99911e-05 0.8241256573 -0.2308206187
145299130.0 -0.8127844505 0.2320735661 -2.22651e-05 0.0001027004 -0.000124631 3.90409e-05 0.8220739968 -0.2382105437
150299100.0 -0.8105652907 0.2409003298 -8.82563e-05 0.0001154451 -5.21152e-05 -7.57959e-05 0.8195032388 -0.2470263087
155299070.0 -0.8075205484 0.2491411189 6.56499e-05 0.0001322506 9.1101e-06 -0.0001895337 0.8171373678 -0.2544706754
160299040.0 -0.8053368253 0.2578796554 -4.17948e-05 -9.17724e-05 -2.32053e-05 -4.29608e-05 0.8148021346 -0.2619310351
165299010.0 -0.8023875181 0.2665327929 -2.59176e-05 -1.77222e-05 2.0485e-05 -1.21561e-05 0.8117616157 -0.2707205321
170298980.0 -0.8004031146 0.2750987641 -3.25253e-05 -8.2756e-05 9.24438e-05 4.12848e-05 0.8089973259 -0.2778770747
175298950.0 -0.7968969835 0.2838902482 -3.76068e-05 3.13753e-05 -4.61601e-05 -0.0001210595 0.8065618355 -0.2860247297
180298920.0 -0.7949123613 0.2922330033 3.09916e-05 0.0001562444 -0.0001717865 1.27751e-05 0.8034244044 -0.2940533285
185298890.0 -0.7909921329 0.3006003277 0.0001828442 -0.0002572593 3.68107e-05 -0.0002388907 0.8001645079 -0.3019346253
190298860.0 -0.7880137577 0.3093165875 -6.36988e-05 -0.0001671912 -0.0001638263 3.63424e-05 0.7977871941 -0.3085871237
195298830.0 -0.78523042 0.3176218137 6.31356e-05 -4.23187e-05 -0.0001335778 -1.72853e-05 0.7945194238 -0.3163693837
200298800.0 -0.781789818 0.3259633179 -1.0769e-06 0.0001287844 0.0001661914 -2.9979e-06 0.7914327617 -0.324581359
205298770.0 -0.7785018691 0.3338869072 -0.0001493416 6.39394e-05 6.36432e-05 0.0001432487 0.7879480381 -0.3322994566
210298740.0 -0.774921495 0.3418954497 5.85228e-05 -7.46081e-05 4.96414e-05 8.15696e-05 0.784977319 -0.3394986193
215298710.0 -0.7717165244 0.3506335842 -2.34784e-05 8.78617e-05 0.0002039355 0.0001518822 0.7819695454 -0.3470947205
220298680.0 -0.7671432462 0.3583205086 0.000137105 -0.0001038666 -2.61682e-05 0.0001518161 0.7776094708 -0.3545778483
225298650.0 -0.7644370875 0.3669266755 9.34972e-05 2.38497e-05 -0.000146376 5.73469e-05 0.7742163299 -0.3618571651
230298620.0 -0.759825896 0.3741684376 0.000246785 8.47413e-05 4.46135e-05 -2.97593e-05 0.7710140599 -0.3699349428
235298590.0 -0.7563391488 0.3832261563 -0.0001031503 5.56498e-05 1.21083e-05 -0.0002234232 0.7673726371 -0.3773892502
240298560.0 -0.7526776379 0.3906444511 0.0001445733 -0.000158832 2.56286e-05 1.94427e-05 0.7641168961 -0.3850690967
245298530.0 -0.748195751 0.3981475671 -7.9783e-05 -0.0003839861 -0.0001058257 0.0001255339 0.7599912186 -0.3922434958
250298500.0 -0.7439247348 0.4065698723 -8.09517e-05 0.0002914987 -4.9983e-05 0.000120247 0.755919625 -0.3989657788
255298470.0 -0.7399668966 0.4138965599 -0.0001448346 -0.0004105296 -0.0002331392 -7.9707e-06 0.7520533367 -0.4069841392
260298440.0 -0.7355572131 0.4213847272 -9.30567e-05 -5.34438e-05 -2.3358e-06 -8.83714e-05 0.7483059592 -0.4134908702
265298410.0 -0.7315544426 0.430210165 -8.22059e-05 0.0001973019 -0.0001019192 -3.15514e-05 0.7443921155 -0.4208032486
270298380.0 -0.7273342606 0.4367926551 -0.0001262209 -4.5355e-06 0.0002829383 -1.819e-05 0.7404237403 -0.4280651038
275298350.0 -0.7223670832 0.4448925892 -8.78487e-05 -0.0001439152 -0.0002143221 0.0001027435 0.735748655 -0.4350068435
280298320.0 -0.7167908164 0.4524563216 0.0001500406 0.000111495 4.3486e-06 -0.000100699 0.7322602015 -0.4429808409
285298290.0 -0.713025256 0.4598882647 0.0001691554 -0.0001286881 0.0001192469 -0.0001426985 0.7284748622 -0.449484337
290298260.0 -0.7084255516 0.4672995159 -0.0001680578 9.02412e-05 -0.0001000803 -0.0001398127 0.7239033204 -0.4571951948
295298230.0 -0.7028381907 0.4743960443 1.39702e-05 -7.86808e-05 1.54523e-05 8.84952e-05 0.7200975274 -0.4638367713
300298200.0 -0.6975795589 0.4814091592 3.27564e-05 0.0001247674 -5.42668e-05 -5.73962e-05 0.7156162011 -0.4709328178
305298170.0 -0.6926641325 0.4877951661 -2.55275e-05 4.30566e-05 8.9984e-05 0.0001631206 0.7116284572 -0.4784288739
310298140.0 -0.6875817161 0.4958096497 0.0001254764 -6.04892e-05 -2.26845e-05 -9.02907e-05 0.7067669671 -0.4867493074
315298110.0 -0.6830136981 0.5030495079 -9.5327e-06 0.0001331629 0.0002578505 0.000113747 0.7011381056 -0.4944319129
320298080.0 -0.6774558787 0.5101251913 0.0001493926 6.3842e-06 -1.73533e-05 0.0001412937 0.6959393847 -0.5011263065
325298050.0 -0.672365055 0.5171327891 -6.17024e-05 -7.17961e-05 3.0835e-05 -2.11137e-05 0.6901667915 -0.5081700608
330298020.0 -0.6663281785 0.523670054 1.745e-06 -3.6539e-06 9.5168e-05 2.24043e-05 0.6841609761 -0.514728179
335297990.0 -0.6611284581 0.5304163357 6.47687e-05 0.0002154178 1.16164e-05 -7.79932e-05 0.6787518289 -0.5209413555
340297960.0 -0.6560517083 0.5375017661 2.44332e-05 -9.96507e-05 -6.68727e-05 -0.0001033759 0.6734686891 -0.5271130788
345297930.0 -0.6503619613 0.5442048173 -5.97044e-05 -9.10162e-05 0.0001873566 7.94599e-05 0.668244844 -0.5337093873
350297900.0 -0.6446934625 0.5507730307 0.000188143 0.0001615147 -8.15656e-05 -5.5017e-06 0.6618587311 -0.5390641845
355297870.0 -0.6380198446 0.5580791709 -3.44525e-05 -0.0001721507 0.0001086107 -0.0002013878 0.6571723986 -0.5459243928
360297840.0 -0.6326410484 0.5632929115 -5.3799e-06 -3.9281e-06 8.28891e-05 0.0001966045 0.6517471889 -0.5523737719
365297810.0 -0.6266454213 0.5703993797 8.6204e-05 -8.01846e-05 -5.90038e-05 8.6928e-06 0.6462191492 -0.5582861366
370297780.0 -0.6208970012 0.5768430068 4.26859e-05 4.2926e-05 0.0001863648 1.81169e-05 0.6409506383 -0.564251983
375297750.0 -0.6149828826 0.5829155054 -0.0002543331 6.12776e-05 5.22597e-05 4.82343e-05 0.6350900926 -0.5703917854
380297720.0 -0.6088673009 0.5887009046 -0.0001896798 -8.6516e-06 -7.51979e-05 -1.27138e-05 0.6287082637 -0.5769349629
385297690.0 -0.6031914431 0.5953308056 -2.68046e-05 2.58171e-05 7.43117e-05 -0.0002618886 0.6237401719 -0.5824691439
390297660.0 -0.5968163155 0.601150515 -0.0001763345 5.61874e-05 1.91778e-05 0.0001326518 0.6177462692 -0.5887010101
395297630.0 -0.5903788036 0.6078167868 5.37094e-05 2.13168e-05 0.0001411017 8.13344e-05 0.6118251272 -0.5943214507
400297600.0 -0.5838194923 0.6138201933 -0.0001421262 -3.86201e-05 -5.40964e-05 6.33648e-05 0.6060455937 -0.5996209043
405297570.0 -0.5779474758 0.6190313514 3.22245e-05 8.14557e-05 -0.0001857024 -2.88954e-05 0.6003342631 -0.605899396
410297540.0 -0.5713909606 0.6251317003 4.86748e-05 0.0001521723 2.74871e-05 4.52648e-05 0.594471468 -0.6120229837
415297510.0 -0.5644938315 0.6309232861 -3.18586e-05 0.0001452592 -9.94729e-05 -1.38762e-05 0.5881787862 -0.6174873359
420297480.0 -0.5589551337 0.637085668 0.0001224859 0.0001165535 0.0001802687 -6.37327e-05 0.5825325503 -0.6230550445
425297450.0 -0.5523388601 0.6425675085 -8.37078e-05 0.0001669331 5.7871e-05 -1.7227e-06 0.5760487582 -0.6287980988
430297420.0 -0.545288751 0.6481968889 0.0001386371 0.0001454817 1.93917e-05 0.0001856672 0.569517566 -0.6345500983
435297390.0 -0.5387647445 0.6531840878 -3.74187e-05 2.4382e-06 -3.17371e-05 7.07733e-05 0.563252179 -0.6399448993
440297360.0 -0.531868583 0.658583479 -0.0002007855 0.0002934039 4.20308e-05 2.64057e-05 0.557008796 -0.6445601508
445297330.0 -0.5250509127 0.6640785384 -0.0002247828 8.34152e-05 -0.0001170797 0.0001501944 0.5512566006 -0.6509392629
450297300.0 -0.5183697469 0.668895106 4.26932e-05 -0.0001734397 -0.0002057308 7.7748e-06 0.544079331 -0.6549954756
455297270.0 -0.5120874464 0.6741306993 0.0001462908 -0.0001764009 5.65957e-05 9.29308e-05 0.5380245679 -0.6608999651
460297240.0 -0.5052175175 0.6798079927 -0.000183829 7.41039e-05 9.0181e-05 0.0001037364 0.5312891014 -0.6664163106
465297210.0 -0.4976984305 0.6849594504 2.9911e-06 7.88856e-05 0.0001746833 -0.000133533 0.5247068474 -0.6706820118
470297180.0 -0.4906233302 0.6898946908 -0.0001482935 1.44508e-05 7.453e-06 9.32011e-05 0.5185934757 -0.6759316229
475297150.0 -0.4839260472 0.6939404199 -0.0002460624 4.87763e-05 -0.0001598289 -0.0002873214 0.5112904558 -0.680848987
480297120.0 -0.4767490404 0.699274701 -0.0001633111 2.14235e-05 5.43978e-05 2.73371e-05 0.5045515734 -0.6854077619
485297090.0 -0.4692471596 0.7037615986 0.0001270598 0.0001201859 -5.84372e-05 9.60342e-05 0.4983385468 -0.690700168
490297060.0 -0.462520236 0.708422823 -7.70869e-05 6.16856e-05 0.000157275 2.70536e-05 0.4912157476 -0.695714772
495297030.0 -0.4551934361 0.7132467438 0.0001345549 -0.0001330267 -1.2162e-06 0.0001120184 0.4842067981 -0.7001977997
500297000.0 -0.4477172067 0.718138701 -0.0001087797 4.9986e-05 1.01488e-05 -3.95986e-05 0.4771140846 -0.7050912465
505296970.0 -0.4404271559 0.7223493698 0.0001748348 6.6648e-05 -0.0002253691 -0.0002091576 0.4702095234 -0.7092834112
510296940.0 -0.4334007476 0.7263491764 8.47838e-05 -6.09942e-05 0.0001064729 -0.0001108639 0.463180209 -0.7139740613
515296910.0 -0.4249322442 0.7303503743 0.0001530289 -5.45671e-05 -9.87343e-05 -0.0001226359 0.4565571473 -0.7179990915
520296880.0 -0.4182613305 0.7352394725 9.34487e-05 -0.0001641234 -5.83619e-05 -0.0001216479 0.4490713279 -0.7232240406
525296850.0 -0.4104627101 0.7388814535 -8.86348e-05 -8.41029e-05 9.96276e-05 4.50926e-05 0.4418658049 -0.7264963417
530296820.0 -0.4028572459 0.743136844 4.82476e-05 5.4656e-06 -9.61825e-05 8.69058e-05 0.4351432043 -0.7306419601
535296790.0 -0.3961705492 0.7468737088 0.0001030177 -0.0001137261 6.70226e-05 5.79017e-05 0.4271514263 -0.7356556592
540296760.0 -0.3880179069 0.750759673 0.0001714958 -4.87725e-05 0.0002173982 -4.01895e-05 0.4203451305 -0.7389932796
545296730.0 -0.3811298373 0.7547943513 0.0001498427 0.0001231812 -5.63928e-05 -5.34622e-05 0.4131564664 -0.743397793
550296700.0 -0.3727951983 0.758671243 0.0001894855 -0.0002940511 -0.000102722 -3.55617e-05 0.4052302675 -0.7481198316
555296670.0 -0.3649796876 0.7616428023 -4.84516e-05 -0.0001755204 -3.334e-05 6.3214e-06 0.3982205532 -0.7511163947
560296640.0 -0.3578489918 0.7661656687 0.0001432826 -3.52722e-05 -0.0002238232 8.99666e-05 0.3903681541 -0.7548117704
565296610.0 -0.350085598 0.7693453464 4.18718e-05 -9.38834e-05 -0.0001268687 -0.0001159256 0.383508106 -0.7585121238
570296580.0 -0.342765273 0.7723794456 4.1791e-05 0.0002293847 3.40734e-05 7.67803e-05 0.375524889 -0.7623714376
575296550.0 -0.3347558401 0.7767561494 0.000119299 -7.96427e-05 -0.0001021585 3.71627e-05 0.3679419672 -0.7658723632
580296520.0 -0.3266755664 0.7793847975 -0.0003361058 0.0003275922 -0.0001658564 -0.0001541928 0.3606205684 -0.7698988402
585296490.0 -0.3189971074 0.7821892882 -0.0001063249 0.0001091138 1.52224e-05 -0.0001284157 0.3534685698 -0.7730915529
590296460.0 -0.310994346 0.7858224369 4.881e-06 -0.0001174917 2.94146e-05 -3.275e-06 0.3448409957 -0.7752052786
595296430.0 -0.3032877932 0.78813844 4.89172e-05 0.0002854395 0.0001423486 -4.52311e-05 0.3374543874 -0.7790847776
600296400.0 -0.2949491498 0.7921828283 -0.0002142796 -3.19467e-05 0.0001071107 -0.0001619253 0.3310499847 -0.7827683585
605296370.0 -0.2883248531 0.7942361867 -1.92742e-05 8.1474e-06 7.6427e-05 -0.0001475792 0.3223725092 -0.7860409781
610296340.0 -0.2791316305 0.7974026688 -0.0001194429 -9.49079e-05 0.0001311658 2.48621e-05 0.3145761746 -0.7881841187
615296310.0 -0.2702939109 0.8002597472 -7.8e-06 0.0001593255 0.000177355 1.85947e-05 0.3068509701 -0.7913774319
620296280.0 -0.2631201515 0.8025331208 -5.55423e-05 -0.0001428769 8.77906e-05 -6.22734e-05 0.2994325093 -0.7944153255
625296250.0 -0.255053067 0.8055738328 0.0001242562 4.09128e-05 -6.25833e-05 0.0001082919 0.2911947644 -0.7970047302
630296220.0 -0.2463839424 0.807769637 0.0001185903 0.0001012014 0.0001147481 -3.70499e-05 0.2825996883 -0.7995416325
635296190.0 -0.2389616299 0.8099264362 7.1302e-05 0.0001348149 0.000163837 -4.24481e-05 0.2760144498 -0.8026628664
640296160.0 -0.2315928091 0.8124525892 9.57675e-05 -0.0002024043 0.0001322322 0.0001177282 0.2671521631 -0.8047313904
645296130.0 -0.2225314608 0.8150179753 0.0001693566 5.16877e-05 -0.0001377377 -4.79649e-05 0.2594773248 -0.8074670595
650296100.0 -0.214732399 0.8166995965 -0.0002355539 0.0002078152 -4.28375e-05 -4.51107e-05 0.2521166438 -0.811012989
655296070.0 -0.2065310865 0.8189391789 3.68835e-05 0.0001509058 -0.0001421001 0.0001276196 0.2445826471 -0.811439385
660296040.0 -0.1986291533 0.8204184014 -0.0001138248 8.55641e-05 4.41658e-05 0.0001193912 0.2362245328 -0.8146302239
665296010.0 -0.1897803455 0.8223425951 -0.0001093438 -0.0001242737 -1.7466e-06 -2.7795e-06 0.2274891042 -0.8163005346
670295980.0 -0.1823508502 0.8243202735 7.19227e-05 -9.28593e-05 -0.0001077199 4.31516e-05 0.2193665897 -0.818863496
675295950.0 -0.1737517901 0.8255708116 -1.2431e-06 -2.36151e-05 1.59242e-05 -1.74842e-05 0.2112125524 -0.8202335207
680295920.0 -0.1655637616 0.8281501616 -8.79382e-05 -7.3162e-06 0.0001072103 -0.0001447847 0.2036153475 -0.8222245599
685295890.0 -0.1569342755 0.8306092086 2.50996e-05 7.1571e-06 0.0002645364 0.0001590674 0.1948930363 -0.8243100433
690295860.0 -0.1492076473 0.8308643632 -3.51041e-05 -1.69517e-05 0.0001450422 -0.0001501604 0.1869029177 -0.8256562297
695295830.0 -0.1408630301 0.8323722152 -0.0001266781 -7.41809e-05 0.0001516568 1.47252e-05 0.1787047926 -0.827544995
700295800.0 -0.1321401686 0.8339704404 -1.41438e-05 -0.0001179684 -5.42056e-05 7.70058e-05 0.1702409437 -0.8295873987
705295770.0 -0.1244534851 0.8348018199 0.0001123222 -0.0001355577 4.56215e-05 -4.72325e-05 0.1621853662 -0.8298886121
710295740.0 -0.115539569 0.8364803495 8.132e-07 -0.0001306801 1.83768e-05 -1.70712e-05 0.1534261767 -0.8317716012
715295710.0 -0.1075592067 0.8376598112 -0.0001453567 0.0001774274 7.5688e-06 0.0001818181 0.1455929206 -0.8336557694
720295680.0 -0.0991828246 0.8382227805 5.5142e-06 9.29218e-05 9.17926e-05 9.33628e-05 0.1370933117 -0.8345570138
725295650.0 -0.0911327436 0.8396123542 -0.0001011241 -4.91188e-05 0.0001455499 6.33309e-05 0.1286662448 -0.8355794764
730295620.0 -0.0820699654 0.8403068219 -2.35192e-05 -6.61178e-05 6.43929e-05 6.28667e-05 0.1201366965 -0.8369610872
735295590.0 -0.0743813571 0.8415268775 0.0001760708 -6.3347e-06 -5.00899e-05 7.24444e-05 0.1120318658 -0.8387630918
740295560.0 -0.0659821255 0.8418607823 6.07796e-05 2.60717e-05 9.25583e-05 3.01276e-05 0.10409162 -0.8384993918
745295530.0 -0.0578569989 0.8423557346 -9.71768e-05 -2.62023e-05 -6.28557e-05 0.0001325109 0.096120535 -0.8397203013
750295500.0 -0.0488320517 0.8427164255 6.60889e-05 -1.72514e-05 6.157e-07 -9.83788e-05 0.0875405885 -0.8402440324
755295470.0 -0.0411479691 0.8430614851 -0.000138299 -8.33106e-05 7.19301e-05 -4.82952e-05 0.0796655386 -0.8418565981
760295440.0 -0.0328399866 0.8434889955 -7.46148e-05 0.0001133394 -3.22003e-05 0.0002381555 0.0713598657 -0.8420507819
765295410.0 -0.0246685907 0.8432631322 5.92371e-05 -0.0001504161 8.4915e-05 -0.0001990795 0.0628021224 -0.8426343526
770295380.0 -0.0159576512 0.8444579765 -3.5392e-06 -4.56373e-05 0.0002410955 -9.47524e-05 0.0537616371 -0.8431731544
775295350.0 -0.0075537411 0.8441270453 -4.95578e-05 0.0001832647 -3.72949e-05 1.34243e-05 0.0456901651 -0.8433967141
780295320.0 0.0005182935 0.8439914212 0.0001004935 -0.0001718414 0.0001056418 -9.77072e-05 0.0379336454 -0.8440502878
785295290.0 0.0086415175 0.8436713483 -4.84561e-05 -3.2036e-06 4.5981e-05 8.9879e-06 0.0296569456 -0.843910287
790295260.0 0.0177672726 0.8439174155 -0.0001456513 0.0001603565 1.18507e-05 7.39695e-05 0.0218338209 -0.8441909278
795295230.0 0.0252914701 0.8428488821 3.70261e-05 0.0001716023 8.71135e-05 6.70015e-05 0.0132809313 -0.844232634
800295200.0 0.0343649832 0.8433716521 0.0001152352 -7.1131e-06 -0.0001051064 0.0001243485 0.003743032 -0.8433818511
805295170.0 0.0425676595 0.8431563582 -9.87424e-05 1.4813e-05 6.48965e-05 6.06691e-05 -0.0044101322 -0.8429404972
810295140.0 0.0506582897 0.8425119245 0.0001054673 -6.29949e-05 -7.45888e-05 2.0683e-05 -0.0115351465 -0.8438742807
815295110.0 0.0595954508 0.8415558265 0.0001595592 -0.0001646807 -3.75274e-05 -0.0001862156 -0.0205885214 -0.843358765
820295080.0 0.0672790714 0.8415507557 7.414e-07 6.2013e-06 6.17266e-05 -4.13103e-05 -0.0290408079 -0.8426873659
825295050.0 0.0761509578 0.840334948 1.24303e-05 0.0003329606 0.0001010157 1.14207e-05 -0.0368001739 -0.8420373076
830295020.0 0.0837450771 0.839845578 4.45448e-05 5.91162e-05 0.0002529399 -3.41833e-05 -0.0446966115 -0.8414975367
835294990.0 0.092169638 0.8391036531 2.48007e-05 9.40042e-05 -0.0001037574 -2.7085e-05 -0.0537897986 -0.8411778269
840294960.0 0.1001050056 0.8385177157 -3.79781e-05 -7.11292e-05 -0.0002605022 0.0001214338 -0.0622100715 -0.8402263228
845294930.0 0.108549394 0.8369146992 2.71219e-05 0.0002103007 -0.0001123882 2.39986e-05 -0.0708680296 -0.8390243549
850294900.0 0.1166385569 0.8360006189 -0.0001365155 0.0002388626 -7.85123e-05 7.10595e-05 -0.0793041541 -0.8384350755
