!Created with skrf (http://scikit-rf.org).
# Hz S RI R 50.0 
!freq ReS11 ImS11 ReS21 ImS21 ReS12 ImS12 ReS22 ImS22
300000.0 -0.2329288875 -0.1133031185 0.4652557936 0.0742218395 0.4689046872 0.0764871623 -0.2353017827 -0.1174099255
5299970.0 -0.240689002 0.0066580723 0.4752962214 0.0057384558 0.4749535528 0.0058685974 -0.2444224273 0.0054792368
10299940.0 -0.2370939715 0.0198879814 0.4771692701 0.0063044124 0.4772527721 0.0066151012 -0.2414709399 0.0174664692
15299910.0 -0.2328287582 0.0298116944 0.480370344 0.0073456407 0.4804043308 0.0076326596 -0.2371439549 0.0265970905
20299880.0 -0.2273033063 0.0379968666 0.4851234139 0.0079581093 0.4851610149 0.0082145088 -0.2326738328 0.0342143221
25299850.0 -0.2216327528 0.0444849121 0.4903775589 0.0067615582 0.4906127373 0.0070152813 -0.2276527099 0.0400974923
30299820.0 -0.2156038972 0.0495236997 0.4962678566 0.0051504507 0.4956360099 0.0048549328 -0.2224082389 0.0449196331
35299790.0 -0.2099426296 0.0543083318 0.5014877032 0.001548112 0.501141568 0.0017467508 -0.2171344987 0.0487778267
40299760.0 -0.2044492347 0.0568899001 0.5062487363 -0.0020506974 0.5063914028 -0.0023638499 -0.2125732083 0.0521590986
45299730.0 -0.1993409714 0.0601705755 0.5107288806 -0.0069973565 0.5110705891 -0.0071069299 -0.2078188509 0.0547621826
50299700.0 -0.1946822835 0.0620645318 0.5146697437 -0.0127489079 0.5152215905 -0.0128389338 -0.2032786402 0.0568344664
55299670.0 -0.1905581819 0.063725064 0.5185099288 -0.0185982515 0.5186651021 -0.0184273543 -0.199942205 0.0582500088
60299640.0 -0.1863939059 0.0649516278 0.5216880959 -0.0248215239 0.5218449073 -0.0249883019 -0.1960898085 0.0595330748
65299610.0 -0.1828402903 0.0662872312 0.5248645181 -0.0307983809 0.5254306911 -0.0311051374 -0.1930108819 0.0608806078
70299580.0 -0.1795915667 0.0670592325 0.5272536036 -0.0375277132 0.5274877417 -0.0376665772 -0.1899221941 0.0618726526
75299550.0 -0.1763741279 0.0678786782 0.5292255112 -0.0445834465 0.5288578487 -0.0445714084 -0.187355755 0.0627020914
80299520.0 -0.1741692048 0.0689779593 0.5312912306 -0.0516522319 0.5314858241 -0.051308334 -0.1847802343 0.062991777
85299490.0 -0.1713488171 0.0691372634 0.5322736618 -0.0583955398 0.5322763727 -0.058505111 -0.1822945678 0.0638465828
90299460.0 -0.1693309555 0.0701481887 0.5336814329 -0.0650632107 0.533774566 -0.0651500646 -0.1801098256 0.0644522128
95299430.0 -0.1671950196 0.0712202286 0.5344785192 -0.0726764847 0.5343595946 -0.0723798589 -0.1783040843 0.0653542644
100299400.0 -0.165445203 0.0715980134 0.5349849834 -0.0789021565 0.5346570364 -0.0792541976 -0.1769014857 0.0655087869
105299370.0 -0.1634178 0.0722518493 0.5348412687 -0.0856139219 0.5350190494 -0.0858467702 -0.1749734721 0.066326597
110299340.0 -0.1617405628 0.0729236716 0.5351660063 -0.0926317196 0.5351987443 -0.0932679658 -0.1737594196 0.0670634893
115299310.0 -0.1603291685 0.0734706591 0.5352055579 -0.0994318537 0.53525544 -0.0996002884 -0.1723092554 0.0672680559
120299280.0 -0.1590770396 0.0743967496 0.5348537177 -0.1062990246 0.5347699061 -0.1067319406 -0.1713834997 0.0680820936
125299250.0 -0.1578769194 0.075150925 0.5344844333 -0.1130207808 0.5347021678 -0.1132029996 -0.1699480924 0.0687290905
130299220.0 -0.1564286338 0.0760464944 0.5336083079 -0.119642405 0.5338940894 -0.1198700039 -0.1688394962 0.0695479256
135299190.0 -0.1550472923 0.0767788613 0.5331065387 -0.1263637939 0.5328666386 -0.1262840451 -0.1679850717 0.0701331337
140299160.0 -0.1541596538 0.0781611368 0.5324288803 -0.1329786885 0.5324252307 -0.1334038794 -0.1665926944 0.0711738918
145299130.0 -0.1531178584 0.0789179478 0.5320344797 -0.1399482095 0.5315548235 -0.1392461262 -0.1663556917 0.0716011986
150299100.0 -0.151975587 0.0798440943 0.5302804844 -0.146163435 0.5306874844 -0.1460803612 -0.1653810449 0.0725237833
155299070.0 -0.1511180585 0.0812952043 0.5290991352 -0.1531749016 0.5293087959 -0.1528909575 -0.1647001979 0.0733414727
160299040.0 -0.1498617357 0.0820955992 0.5275292835 -0.1588162875 0.5278347406 -0.1590623194 -0.1632580718 0.0748297936
165299010.0 -0.1494133119 0.0831849728 0.526412473 -0.1654942732 0.5264051324 -0.1657214681 -0.1630772817 0.0755322312
170298980.0 -0.1484227335 0.0843531039 0.5243007609 -0.1718908263 0.5246929959 -0.1717817745 -0.1620380735 0.0764726591
175298950.0 -0.1473807367 0.0854711746 0.5233746033 -0.1779704775 0.523252089 -0.1784010965 -0.1611524803 0.0776620356
180298920.0 -0.146178952 0.0868808564 0.5218178301 -0.1847510597 0.5216594917 -0.1845067151 -0.1602673963 0.078865326
185298890.0 -0.1454286918 0.0880123006 0.5192176147 -0.1907073263 0.5196861928 -0.1905007695 -0.1597398911 0.0795123565
190298860.0 -0.1444099997 0.0892142204 0.5174595943 -0.1970246251 0.5178609999 -0.1968037253 -0.1584103454 0.080825722
195298830.0 -0.1434883795 0.090268534 0.5158220982 -0.2025572023 0.5159334498 -0.2031672828 -0.1578265166 0.0817878417
200298800.0 -0.1423914194 0.0916988796 0.5139511302 -0.2085106116 0.5135581998 -0.2088475075 -0.1572117418 0.0831268264
205298770.0 -0.1418300701 0.0929945276 0.5116277285 -0.2148717132 0.5117396011 -0.2148237562 -0.1562942883 0.0839081274
210298740.0 -0.1408811842 0.0943160721 0.5096445422 -0.2212589685 0.5096017024 -0.2214540324 -0.1556951783 0.0850724007
215298710.0 -0.13972073 0.0956749516 0.5070596952 -0.2266191065 0.5068329728 -0.2270520676 -0.1552301746 0.0866557902
220298680.0 -0.1386770695 0.0969808 0.5044779333 -0.2329335713 0.504591503 -0.2326584185 -0.153965272 0.0878717141
225298650.0 -0.1378253896 0.0985264518 0.501955887 -0.2383800077 0.5018666311 -0.2384375108 -0.1534432298 0.0891270689
230298620.0 -0.1371517175 0.0998377391 0.4998836196 -0.2444240384 0.4995300289 -0.2444888052 -0.1525113322 0.0902550941
235298590.0 -0.1355658886 0.1010129816 0.4968904042 -0.2500845104 0.497142255 -0.2503194326 -0.1517926875 0.0915004778
240298560.0 -0.1351094071 0.1025619637 0.4944408933 -0.2556693198 0.4945960273 -0.2558274284 -0.150960688 0.0930662777
245298530.0 -0.1334950146 0.1038027433 0.4907823339 -0.2613127742 0.491168082 -0.2612885181 -0.1501317978 0.0943727422
250298500.0 -0.1329272181 0.1050225515 0.4884800418 -0.2667164067 0.4890018225 -0.2664988748 -0.1488956143 0.0954120275
255298470.0 -0.1318044071 0.1068502345 0.4855315715 -0.2728860935 0.4855626597 -0.2728540841 -0.148159944 0.0966492585
260298440.0 -0.130637197 0.1081007252 0.4827790679 -0.2780549232 0.4829565989 -0.2783096151 -0.1468204469 0.0982549592
265298410.0 -0.1291735163 0.1098539933 0.4796695041 -0.2840738201 0.4795757474 -0.2838635412 -0.146149703 0.0995204359
270298380.0 -0.1281297597 0.1109117388 0.476058334 -0.2893800903 0.4768697857 -0.2890868987 -0.1453495946 0.1010737537
275298350.0 -0.1273290524 0.112624756 0.473445152 -0.2951273279 0.473863831 -0.2950032045 -0.1444563134 0.1021559231
280298320.0 -0.1261554368 0.1138048856 0.4704276762 -0.299453595 0.4702328383 -0.300143581 -0.1432426759 0.1038724961
285298290.0 -0.1248585049 0.1153389805 0.4669643546 -0.3053071276 0.4667433119 -0.3054282571 -0.1423599686 0.1050913105
290298260.0 -0.1238062832 0.1166774574 0.4639854271 -0.3104488957 0.4636033953 -0.3107422902 -0.1408107791 0.1067699449
295298230.0 -0.1225521861 0.1181042917 0.4605953409 -0.3159765034 0.4604633092 -0.3157157029 -0.1400027319 0.107680679
300298200.0 -0.1208483648 0.1194063062 0.4568140883 -0.3211157549 0.4569848244 -0.3213961981 -0.1391994935 0.1092030228
305298170.0 -0.1197603867 0.120824571 0.4538367921 -0.3263888213 0.4542129909 -0.3268588796 -0.137536347 0.1110416717
310298140.0 -0.1182247473 0.1218878959 0.45016299 -0.3318445138 0.4501401401 -0.3322050188 -0.1368410973 0.1124866082
315298110.0 -0.117197911 0.1231602307 0.4463380945 -0.3369487428 0.4465980159 -0.3369116828 -0.1355221811 0.1130893644
320298080.0 -0.1157438921 0.1244408991 0.4424754735 -0.3417402941 0.4425772226 -0.3418574494 -0.1346720371 0.1144654504
325298050.0 -0.1147047346 0.125577808 0.439180664 -0.347447311 0.4390560938 -0.3474863925 -0.1337317469 0.115886082
330298020.0 -0.1133875356 0.126843645 0.4339777316 -0.3521051763 0.4343231454 -0.3522392947 -0.1326868198 0.1171267419
335297990.0 -0.1119664292 0.1282942452 0.4306021807 -0.3571888303 0.4306875863 -0.3573860488 -0.1318091061 0.1186163973
340297960.0 -0.1112799234 0.1297459153 0.4263405726 -0.3618509872 0.4270817295 -0.3614430686 -0.1311673931 0.1200750587
345297930.0 -0.1101673906 0.1309346509 0.4227971475 -0.3659571406 0.4219395976 -0.3659284276 -0.1297257752 0.1208704189
350297900.0 -0.1083772357 0.1324499011 0.4182673304 -0.3705946924 0.4185873317 -0.3709737259 -0.128927749 0.1230039678
355297870.0 -0.1072372459 0.1336931859 0.4140832321 -0.3754793437 0.4142503214 -0.3755945189 -0.1278504204 0.12436777
360297840.0 -0.1056523794 0.1350803799 0.4101345882 -0.3800043594 0.4099425186 -0.3800027272 -0.1265521659 0.1259198806
365297810.0 -0.1039406727 0.1361144061 0.4055841348 -0.3842781428 0.4056734865 -0.3849438737 -0.1255175531 0.1273727745
370297780.0 -0.1024549402 0.1377206341 0.4014977942 -0.3889547914 0.4016601883 -0.3893107384 -0.1242604345 0.1288173656
375297750.0 -0.1012436869 0.1395513321 0.397803375 -0.3935141645 0.3973390517 -0.3937394835 -0.1228306149 0.130399542
380297720.0 -0.0995839953 0.1403266916 0.39283056 -0.3977583326 0.3929431503 -0.3979616718 -0.1216001778 0.1319820777
385297690.0 -0.0982356722 0.1416271606 0.3885641125 -0.4015818741 0.3882915351 -0.4019497276 -0.1203732376 0.1334116241
390297660.0 -0.0968046674 0.1428579094 0.3839728594 -0.4064076631 0.3838841623 -0.406593505 -0.1191777826 0.1342818017
395297630.0 -0.0947768687 0.1440093797 0.3798082287 -0.4102387477 0.3795493137 -0.4106429206 -0.1181344029 0.1360145965
400297600.0 -0.0935097878 0.1454940196 0.3750276501 -0.4145905875 0.3750207509 -0.4148210161 -0.1173326769 0.1371480949
405297570.0 -0.0918684345 0.1465619954 0.3704492185 -0.418761714 0.3704346688 -0.4188717586 -0.1154281873 0.1386531106
410297540.0 -0.0898526913 0.1474486712 0.3654390067 -0.4225364511 0.3657265705 -0.4227839166 -0.1143980204 0.139981432
415297510.0 -0.0885914213 0.1490850937 0.3612713725 -0.4266337801 0.3612561023 -0.4264062729 -0.1131693964 0.1414277295
420297480.0 -0.0868671764 0.1496574134 0.3561074376 -0.4307084597 0.3562859568 -0.4308760532 -0.1116681795 0.1422069613
425297450.0 -0.0847722135 0.1510846453 0.3517140166 -0.4346172734 0.3522007146 -0.4345660849 -0.1101507141 0.1441032958
430297420.0 -0.0837070308 0.1521801193 0.3470933786 -0.4386805141 0.3471253811 -0.4383510375 -0.1092257745 0.1447446853
435297390.0 -0.0816165444 0.1531842646 0.342031345 -0.4420499456 0.3423501168 -0.4418092177 -0.1080673621 0.1464826832
440297360.0 -0.0797803119 0.1539457465 0.3371351662 -0.4455189941 0.3370396571 -0.4457382625 -0.1064420819 0.1472251182
445297330.0 -0.0780140303 0.1552007249 0.331922763 -0.4500937294 0.3320422025 -0.4495732482 -0.1049671567 0.1486427803
450297300.0 -0.0761376885 0.1558138677 0.3265459806 -0.4529597128 0.3277565941 -0.4533214497 -0.1038498943 0.1501037704
455297270.0 -0.0749581693 0.1570016701 0.3228469713 -0.457063894 0.3225474102 -0.4567035595 -0.1017273591 0.151211421
460297240.0 -0.0731763974 0.1582526389 0.3173233771 -0.4600153432 0.3171325973 -0.4599785626 -0.1006873903 0.1528172244
465297210.0 -0.0709671331 0.1591666781 0.3126292162 -0.4635116117 0.3128324188 -0.4636678354 -0.0998380469 0.1532357946
470297180.0 -0.0696955587 0.1599360204 0.307578119 -0.4667613072 0.3076601179 -0.4667150507 -0.098376629 0.1547371858
475297150.0 -0.0678472981 0.1604022793 0.3021088356 -0.4699854859 0.3021476758 -0.469758393 -0.096391662 0.1556444952
480297120.0 -0.0656207013 0.1614961452 0.2968713449 -0.4734633569 0.2975576711 -0.4733770778 -0.0954142456 0.1572775301
485297090.0 -0.0640457266 0.1623490528 0.2921560096 -0.4765027499 0.2919398321 -0.476685578 -0.0938143684 0.1579107674
490297060.0 -0.062222952 0.1632291745 0.286719629 -0.4800500587 0.2869234657 -0.4796882807 -0.0922692141 0.1592433533
495297030.0 -0.0605345845 0.1643149878 0.2813293901 -0.4829236209 0.2811258469 -0.4830494041 -0.0905936525 0.1599150135
500297000.0 -0.0581805425 0.1646210148 0.2759188168 -0.4859752152 0.2760117602 -0.4859981006 -0.089327018 0.1613747759
505296970.0 -0.0569513136 0.1652449938 0.2705045166 -0.4881955651 0.270694683 -0.4883620522 -0.0883059253 0.1625252672
510296940.0 -0.0550353466 0.166522992 0.2654781244 -0.491661606 0.2656735207 -0.4915258403 -0.0858160836 0.1636358234
515296910.0 -0.0533955597 0.1672285811 0.2600023612 -0.4941760483 0.2602540089 -0.4945657652 -0.0847257794 0.1646509973
520296880.0 -0.0510682528 0.1678523436 0.2545874907 -0.4972191468 0.2549136032 -0.4969922291 -0.0829654647 0.165418553
525296850.0 -0.0494181268 0.1683263912 0.2494141671 -0.4997657782 0.2493974484 -0.4999172697 -0.0812169019 0.1662319728
530296820.0 -0.0475470284 0.1690199149 0.2439623102 -0.5019145501 0.2438404807 -0.5025749907 -0.080031621 0.1669673706
535296790.0 -0.0457623096 0.1698574279 0.2384546776 -0.5047560039 0.2386098305 -0.5047927866 -0.0783026582 0.1680622546
540296760.0 -0.0438551875 0.1700013819 0.232781095 -0.507664529 0.2328771116 -0.5075756608 -0.077208494 0.1690492402
545296730.0 -0.0418533161 0.1711141448 0.2271346232 -0.5097658481 0.2273328459 -0.5101443698 -0.0755916814 0.1696455107
550296700.0 -0.0401818388 0.1714052862 0.2219259691 -0.5123946413 0.2222890289 -0.5125903917 -0.0738262278 0.1709466805
555296670.0 -0.0377215583 0.171963457 0.216267381 -0.5149317438 0.216215571 -0.5145801977 -0.0722204484 0.1720216078
560296640.0 -0.0363499491 0.1726626798 0.2108921963 -0.5168811975 0.2110245289 -0.5169581199 -0.0706701853 0.1727880134
565296610.0 -0.034560265 0.1729583244 0.2051377355 -0.5192544734 0.2049772286 -0.519452903 -0.0689951607 0.1729791742
570296580.0 -0.0322279813 0.1734524594 0.1992402314 -0.5213379071 0.1997393618 -0.5215987745 -0.0673399437 0.1747156512
575296550.0 -0.0301646965 0.1743894379 0.1936037201 -0.5232795043 0.1941459793 -0.5233516757 -0.0655386628 0.175155015
580296520.0 -0.0283718211 0.1745016996 0.1884149771 -0.5253663656 0.1881114864 -0.5255540969 -0.0640903531 0.1759070224
585296490.0 -0.0260923979 0.1749214759 0.1824999765 -0.5274543765 0.182482954 -0.5272870025 -0.0625938228 0.1763277448
590296460.0 -0.0245302426 0.1754072059 0.1763125448 -0.5295887643 0.176411594 -0.5294854038 -0.0606570952 0.1774009267
595296430.0 -0.0225622171 0.1760778107 0.171101415 -0.5313280598 0.170680457 -0.5316387799 -0.05905272 0.177794102
600296400.0 -0.020713135 0.176152069 0.1649996596 -0.5330045547 0.1657932454 -0.5328517786 -0.0575327844 0.1790013336
605296370.0 -0.0185420477 0.1766393402 0.1594999828 -0.5351487063 0.15944656 -0.5343932485 -0.0554608332 0.1796587862
610296340.0 -0.0170207926 0.1770491327 0.1541795378 -0.5363556244 0.1541001471 -0.5364558512 -0.0539025726 0.1808438717
615296310.0 -0.0149323767 0.1776405321 0.1480193489 -0.5381639596 0.1478415957 -0.5381289218 -0.0519463134 0.181116757
620296280.0 -0.0128708782 0.1778698695 0.1423454179 -0.5394333996 0.1423869009 -0.5396341082 -0.0504927407 0.1815951199
625296250.0 -0.0107808034 0.1780812347 0.1360530538 -0.5415810365 0.1359087557 -0.5412872596 -0.0485892674 0.1824661712
630296220.0 -0.0085456717 0.1783137897 0.1301866678 -0.5421515783 0.1308623379 -0.5423481584 -0.0471076481 0.1829546743
635296190.0 -0.00681129 0.1784526634 0.1245635874 -0.5432406552 0.124120686 -0.5433044968 -0.0451439969 0.1835249248
640296160.0 -0.0048130263 0.1785709186 0.1186896702 -0.5449110107 0.1185419065 -0.5449176941 -0.04304578 0.184056211
645296130.0 -0.0029617279 0.1791996602 0.1126519539 -0.5464379514 0.1126194602 -0.5461698793 -0.0423656765 0.184518507
650296100.0 -0.0008834499 0.1796629981 0.1075013941 -0.547182196 0.1072937497 -0.5472878585 -0.0404082684 0.1851272745
655296070.0 0.0007438913 0.179158102 0.1010871258 -0.5485533152 0.1007024951 -0.548317666 -0.0377117147 0.1858804941
660296040.0 0.0026249504 0.1798061926 0.095328712 -0.5492689366 0.0953167538 -0.5494016254 -0.0367022481 0.1861126007
665296010.0 0.0048700637 0.1795253764 0.0889954839 -0.5507104998 0.0899310752 -0.5505659037 -0.0349774396 0.187143602
670295980.0 0.0073915969 0.1798814141 0.0834274563 -0.5512773577 0.0835172668 -0.5512121428 -0.0333426515 0.1873805932
675295950.0 0.0092572362 0.1799595162 0.0771258403 -0.5519804239 0.0773950124 -0.5524590388 -0.0311104208 0.1879289923
680295920.0 0.0111987185 0.1801099542 0.0710361338 -0.5531593609 0.0709058633 -0.5530227501 -0.0290920723 0.1884402707
685295890.0 0.0131286516 0.1802335634 0.0654574759 -0.5536858115 0.0652580414 -0.5540766496 -0.027624324 0.1890067954
690295860.0 0.0153945485 0.1799485249 0.059627973 -0.5539232993 0.0591816876 -0.5542723656 -0.0257111265 0.1894804604
695295830.0 0.0173967536 0.179802861 0.0528327851 -0.5548436841 0.0527523445 -0.5547133534 -0.0240390966 0.1899131429
700295800.0 0.0195458788 0.1799593377 0.0470597343 -0.5554987122 0.0472686525 -0.5556390396 -0.0221735522 0.1894686172
705295770.0 0.0215269599 0.1801376515 0.0411665744 -0.5559032819 0.0414527241 -0.5558494035 -0.0205859929 0.1903838881
710295740.0 0.0234483274 0.1801991163 0.0356698567 -0.5565552112 0.0353186129 -0.5557640129 -0.0191616029 0.1908462244
715295710.0 0.0253375348 0.1798290503 0.0292603503 -0.5565397767 0.0296281928 -0.5566666623 -0.0169860909 0.1908820099
720295680.0 0.0271517989 0.1794193418 0.0236556134 -0.5564343999 0.0235052278 -0.5570164997 -0.0147744516 0.1913712505
725295650.0 0.029818016 0.1793163653 0.0169072631 -0.5570607758 0.0173991026 -0.5566191503 -0.0134854831 0.1915754681
730295620.0 0.0311467563 0.1790242098 0.0112893596 -0.55697216 0.0110836628 -0.5571599464 -0.0111935354 0.1916577807
735295590.0 0.0338817021 0.1790191036 0.005483061 -0.5571581563 0.0058006797 -0.557099716 -0.0094962519 0.1921525203
740295560.0 0.0353665834 0.1788624543 -0.0010024707 -0.5567370058 -0.000858954 -0.5569762132 -0.0074116112 0.1919796534
745295530.0 0.0375668295 0.1785280025 -0.0066350391 -0.5573818968 -0.0063442874 -0.5573187296 -0.0061836535 0.1926704687
750295500.0 0.0394576235 0.1782444343 -0.0126310363 -0.5569468682 -0.0122475709 -0.5564416779 -0.0038418609 0.1925639003
755295470.0 0.041764607 0.1780604669 -0.0187361254 -0.5563450779 -0.0181402272 -0.5569807529 -0.0024437035 0.1928870515
760295440.0 0.0434572219 0.1775917316 -0.0246755549 -0.556074495 -0.0245617146 -0.5567130364 -0.000800183 0.1929971202
765295410.0 0.0453243724 0.1769316561 -0.0300285312 -0.5553359247 -0.0303634777 -0.5564241228 0.0019764511 0.193526291
770295380.0 0.0474694346 0.1772348914 -0.0365094794 -0.5551940434 -0.036561079 -0.5557927979 0.003739657 0.1934806543
775295350.0 0.0496349368 0.1764939592 -0.0427615811 -0.5548084355 -0.0423367052 -0.5552782262 0.0046425985 0.1929333248
780295320.0 0.0515539092 0.1760650644 -0.0481637046 -0.5549278817 -0.0481446181 -0.5548292952 0.0071595202 0.193582801
785295290.0 0.0533257938 0.176243514 -0.0546271878 -0.5539404617 -0.05415409 -0.5543055365 0.0086608201 0.1935566997
790295260.0 0.0551097623 0.1753590662 -0.0606146822 -0.5537862106 -0.0603091936 -0.5540238893 0.0108149036 0.1937445187
795295230.0 0.0572014946 0.1750981883 -0.0657739621 -0.5522522037 -0.0661870438 -0.5524781308 0.0126200031 0.1941694071
800295200.0 0.0594865796 0.1747679885 -0.0727453865 -0.5520011166 -0.0728402223 -0.5522022481 0.0144358091 0.1938843498
805295170.0 0.0610682859 0.1739161196 -0.0781795912 -0.5508415518 -0.0780995884 -0.5508066183 0.016085903 0.1938416201
810295140.0 0.0631493368 0.1735094821 -0.0838179937 -0.5502614525 -0.0838259056 -0.5509145352 0.0181734794 0.1938145631
815295110.0 0.0650675204 0.1730328304 -0.0899365145 -0.5487858011 -0.0902598412 -0.5492586669 0.0200891661 0.1935658137
820295080.0 0.0671003124 0.1722009962 -0.0959143466 -0.5485534266 -0.0957782235 -0.5486688316 0.0216899077 0.1937798141
825295050.0 0.0691629741 0.1716296173 -0.1014577369 -0.5464505209 -0.1017405514 -0.547180688 0.0239174611 0.193997182
830295020.0 0.0707724625 0.1713006884 -0.1077220624 -0.5458549579 -0.107999044 -0.546207844 0.0255614427 0.1936090895
