!Created with skrf (http://scikit-rf.org).
# Hz S RI R 50.0 
!freq ReS11 ImS11 ReS21 ImS21 ReS12 ImS12 ReS22 ImS22
300000.0 -0.0956873184 -0.0978647422 0.6230771948 0.0901154687 0.6208951676 0.0921718141 -0.0951785618 -0.1043529954
5299970.0 -0.1013670292 0.0117323516 0.6306235444 0.0113102689 0.6308461032 0.0114843958 -0.101726657 0.0111195614
10299940.0 -0.0968730676 0.0287387046 0.6346457167 0.016453058 0.6341648776 0.0165072765 -0.0963420257 0.0283100213
15299910.0 -0.0891958475 0.0422247369 0.6403014318 0.0212709205 0.640856398 0.0216532793 -0.0896608739 0.0415617722
20299880.0 -0.0802688728 0.0533815312 0.6486317522 0.0242832345 0.6491096009 0.024398581 -0.0807134085 0.0530546596
25299850.0 -0.0702350236 0.0624490696 0.6582440836 0.0260582405 0.6584194375 0.0255348685 -0.0715301425 0.0617845579
30299820.0 -0.0608878381 0.0687413421 0.6681267389 0.024859514 0.6680251359 0.0244195354 -0.0615698978 0.0685096904
35299790.0 -0.0502855019 0.0733697568 0.6772169998 0.0222742142 0.6771281976 0.0214735799 -0.0522592921 0.0734338486
40299760.0 -0.0411222335 0.0763149492 0.6867178819 0.0176222317 0.686782693 0.0174663602 -0.0425075658 0.0769257485
45299730.0 -0.031831054 0.0785549935 0.6960557474 0.0126830139 0.6962195443 0.0122216346 -0.0328947357 0.0791838032
50299700.0 -0.0230227718 0.0790088795 0.7040946805 0.005366337 0.7038992559 0.0050143153 -0.0244504048 0.0801669954
55299670.0 -0.0152408764 0.079008766 0.7112338538 -0.0027230265 0.7105117189 -0.0027751471 -0.0171053534 0.0805090369
60299640.0 -0.0077179051 0.0784935261 0.7178490479 -0.0114426962 0.7180369684 -0.0105825786 -0.0097775394 0.0795440499
65299610.0 -0.0013581343 0.0772105058 0.7244707127 -0.0195472569 0.7241676715 -0.0200863521 -0.0024815957 0.0786556661
70299580.0 0.0052068642 0.0752432969 0.7292065714 -0.0288436845 0.7292208024 -0.0289702532 0.002975934 0.077232874
75299550.0 0.0103861477 0.0733678855 0.7332664921 -0.0389227473 0.7333631577 -0.0390966813 0.0085689912 0.0751942216
80299520.0 0.0155559705 0.0713968381 0.7379166294 -0.048996629 0.7379223012 -0.0487065258 0.0138729553 0.0736668301
85299490.0 0.0200113278 0.0691490915 0.7412548276 -0.0589713947 0.7409398078 -0.0584269324 0.0180957961 0.071032562
90299460.0 0.0241042153 0.0668599856 0.743356636 -0.0686624582 0.7434852503 -0.0686192099 0.0227032856 0.0693394904
95299430.0 0.0279630198 0.0640246658 0.746079945 -0.0789582514 0.7462104692 -0.0791643749 0.0260262476 0.0666000619
100299400.0 0.0314518884 0.0614921697 0.7477006926 -0.0886173168 0.7477431803 -0.0888842611 0.0291380271 0.0645477138
105299370.0 0.0345007955 0.0591491127 0.749475703 -0.0986759729 0.7499276039 -0.0991081078 0.0327026137 0.0616468146
110299340.0 0.0371989381 0.056368515 0.7504115263 -0.1083930704 0.7507652593 -0.1082261146 0.0348496171 0.0594230414
115299310.0 0.0394907059 0.0542287618 0.7517334145 -0.1188689208 0.7512192417 -0.1188453645 0.0374292435 0.0573595735
120299280.0 0.0417842632 0.0520719754 0.7517485005 -0.1300525765 0.7515875554 -0.1291755937 0.0399168824 0.0547477842
125299250.0 0.0439820791 0.0495391409 0.7522952542 -0.1389215034 0.7517195325 -0.1383642434 0.0422537073 0.0528762462
130299220.0 0.0457644374 0.0468767068 0.7519803847 -0.1490994684 0.7513794943 -0.1491293866 0.0436210212 0.0508011809
135299190.0 0.0471624278 0.0454158284 0.7519983702 -0.1587095946 0.7520876321 -0.1589317534 0.0453587778 0.0479977372
140299160.0 0.0487867361 0.0432397813 0.7518249052 -0.1689320666 0.7511720766 -0.1677973387 0.0461236065 0.0457256233
145299130.0 0.0494850651 0.041001333 0.7500077619 -0.1785812072 0.7501130558 -0.1787145689 0.0481652318 0.0436148069
150299100.0 0.0509153589 0.0392268927 0.7490958437 -0.1878916772 0.7495865502 -0.1882488041 0.0491773864 0.0418498521
155299070.0 0.0523328523 0.0373581424 0.7484206567 -0.1976835079 0.748466849 -0.1978898184 0.0505677541 0.0395937311
160299040.0 0.053265221 0.0356399742 0.7465767433 -0.2070095946 0.7464499134 -0.2070246285 0.0509788808 0.0379482665
165299010.0 0.0543467111 0.0333445219 0.7456052935 -0.2163506866 0.7449575906 -0.2167225202 0.0523416108 0.0357093373
170298980.0 0.0552033161 0.0318449959 0.7434974164 -0.2254333855 0.7431861266 -0.2257282845 0.0526675887 0.0338615213
175298950.0 0.0559116331 0.030345525 0.7420075962 -0.2353955165 0.7419218436 -0.2358739372 0.05355797 0.0324581348
180298920.0 0.0563250938 0.0285700947 0.7396820876 -0.2446775743 0.7389856713 -0.244342583 0.053943726 0.0307473302
185298890.0 0.0566604761 0.0269822313 0.7376673149 -0.2533719114 0.7372187965 -0.2533996918 0.0551588125 0.0293337332
190298860.0 0.0578743088 0.0255793445 0.7343350157 -0.262969973 0.7353343286 -0.2623968861 0.0551521897 0.0276376358
195298830.0 0.0578518324 0.0241234587 0.7326613647 -0.2718262574 0.7327779105 -0.2713658702 0.0557186175 0.0259912826
200298800.0 0.0583932413 0.0224328374 0.7301667193 -0.2811261105 0.7295747636 -0.2807482901 0.0563090446 0.0242333939
205298770.0 0.0583763891 0.0206874581 0.7267902891 -0.289322053 0.7270223654 -0.2888471452 0.0568939908 0.0227775045
210298740.0 0.059009872 0.0198612368 0.7243080639 -0.2982583164 0.7236571889 -0.2983336369 0.0566425375 0.0209768496
215298710.0 0.0593234657 0.0184615015 0.7208641261 -0.3071025804 0.7208763578 -0.3070984404 0.0571843812 0.0199403831
220298680.0 0.0595802775 0.0176619294 0.7170234546 -0.3153556252 0.7172857798 -0.3161926146 0.0577119284 0.0181011914
225298650.0 0.0597029816 0.0158870417 0.7144413289 -0.3241570874 0.7144302639 -0.3242362944 0.0575233736 0.0164421148
230298620.0 0.0602132902 0.0150727207 0.7112591777 -0.3331065681 0.7114706572 -0.3330102595 0.057609724 0.0152768924
235298590.0 0.0597672559 0.0138928011 0.7075154003 -0.3421274873 0.7076899888 -0.3412303277 0.0580642386 0.014208582
240298560.0 0.0602726764 0.0129676714 0.7042890928 -0.3490305598 0.7042347204 -0.3493403449 0.0577634853 0.01294471
245298530.0 0.060170634 0.0113575767 0.7004837502 -0.3578790748 0.699829551 -0.3577951784 0.0576417261 0.0120156406
250298500.0 0.0601921796 0.0101691009 0.6968353852 -0.3660047031 0.6967037566 -0.3661772692 0.0577976611 0.0107889809
255298470.0 0.0605097918 0.0095954099 0.6934873114 -0.3740723108 0.6928421192 -0.3741190504 0.0580699507 0.0098907529
260298440.0 0.0607462441 0.0079981214 0.6892582817 -0.381820748 0.6887882273 -0.3821381524 0.0579000013 0.0078203645
265298410.0 0.0600682906 0.0074524617 0.6845592291 -0.3906901774 0.6845120927 -0.3905831756 0.0587270175 0.0066825896
270298380.0 0.0599490293 0.0059489733 0.6802990651 -0.398890521 0.6802657581 -0.3982857032 0.0581533088 0.0059248861
275298350.0 0.0603979623 0.0057418829 0.6757346894 -0.4059408536 0.6752537538 -0.4061918697 0.0578132406 0.0050852405
280298320.0 0.0596676471 0.0044363443 0.671523477 -0.4141066553 0.6718984808 -0.4143418606 0.0585541807 0.0038554328
285298290.0 0.0599047512 0.0033490756 0.6671006781 -0.421656566 0.6674022488 -0.4215356988 0.057988746 0.0026968867
290298260.0 0.059881585 0.0026907006 0.6633163923 -0.4298557686 0.6629413533 -0.4297258242 0.0582502199 0.0016030641
295298230.0 0.0599591617 0.0012620835 0.6587416772 -0.4376922906 0.6580519312 -0.4381967309 0.0581740861 0.0002923167
300298200.0 0.0601425218 0.0009051991 0.6539720964 -0.4450513952 0.653786835 -0.4456913386 0.0579683387 -0.0007528499
305298170.0 0.0600026102 -0.0007594489 0.6490552712 -0.4530804855 0.6494411471 -0.45328413 0.0580274637 -0.0022214832
310298140.0 0.0602363414 -0.001920098 0.6444850803 -0.4603950891 0.643728611 -0.4603497038 0.0582511683 -0.0037478757
315298110.0 0.059685394 -0.0032181452 0.6390882957 -0.4691679066 0.6389285164 -0.4689602825 0.0579883605 -0.0043876786
320298080.0 0.0596003469 -0.0036673513 0.6331814648 -0.475492538 0.6341325453 -0.4757737005 0.0572852353 -0.0057670367
325298050.0 0.058548852 -0.0054203776 0.6284486613 -0.4827149639 0.6288811745 -0.4828901247 0.0569469903 -0.0068985293
330298020.0 0.0573646862 -0.0060385683 0.6226402513 -0.4906403319 0.6235204006 -0.4908836076 0.0561299757 -0.0077995042
335297990.0 0.0575833757 -0.006675743 0.6174787793 -0.4973632541 0.6171483685 -0.4977399434 0.055783304 -0.0089904871
340297960.0 0.0568693031 -0.0075985122 0.6110281491 -0.504756083 0.6107173683 -0.5043678395 0.0552921159 -0.0094035265
345297930.0 0.0563642208 -0.0081727509 0.606020635 -0.5116503257 0.6054707893 -0.5115969125 0.0551408545 -0.0103875402
350297900.0 0.0557650638 -0.0088635469 0.6004032634 -0.5178703775 0.6003460676 -0.5182858623 0.0545634308 -0.0115011674
355297870.0 0.0555041813 -0.0099107542 0.5940725706 -0.5245121976 0.5940228254 -0.5244217296 0.0545245225 -0.0122101247
360297840.0 0.0552984063 -0.0103629518 0.587551585 -0.5318211789 0.5886802604 -0.5320136511 0.0534929756 -0.0120736224
365297810.0 0.0546181294 -0.0110295655 0.582371915 -0.5382779335 0.5821152081 -0.5380410208 0.0531990601 -0.0132062036
370297780.0 0.0546615284 -0.0112033283 0.5756448178 -0.5446601612 0.5766246458 -0.5445191808 0.0528085829 -0.0138600662
375297750.0 0.0543239828 -0.0121601138 0.5705094529 -0.5508862305 0.5706144387 -0.550651849 0.0527655754 -0.0147517785
380297720.0 0.0533528369 -0.0126461114 0.5649326647 -0.5576074682 0.5644421623 -0.557569177 0.0520581315 -0.0149419196
385297690.0 0.0531996725 -0.0137079467 0.557705088 -0.563655937 0.5582927994 -0.5643922623 0.0520223762 -0.0154613883
390297660.0 0.0528301923 -0.0143582676 0.5521474143 -0.5698666765 0.552063559 -0.5696114464 0.0521013453 -0.016733866
395297630.0 0.052989651 -0.014963044 0.5460305753 -0.5755612455 0.5455971107 -0.5754201764 0.0513118121 -0.0172451685
400297600.0 0.0521491244 -0.0157864155 0.5392780749 -0.5819815567 0.539561601 -0.5821573481 0.051485183 -0.0173520815
405297570.0 0.0521458454 -0.0166251587 0.5333671175 -0.5878953515 0.532978667 -0.5878761456 0.0511205035 -0.0178102455
410297540.0 0.0513752888 -0.0166551335 0.5263230591 -0.5941867891 0.5268179972 -0.5937694768 0.0505436545 -0.0187963692
415297510.0 0.0508411297 -0.0173511539 0.5201662104 -0.5994424834 0.5203134482 -0.6001419631 0.0503488552 -0.0190354462
420297480.0 0.0506319038 -0.0183187893 0.5134365538 -0.6056681116 0.5136800411 -0.6053220956 0.0502139455 -0.0195591043
425297450.0 0.0509357931 -0.0189669087 0.5071174299 -0.6109479125 0.5059833738 -0.6112840719 0.0497874697 -0.0205836817
430297420.0 0.0498316307 -0.0193770706 0.5010324803 -0.6168108667 0.5006620879 -0.615832523 0.049897364 -0.0211335319
435297390.0 0.0497412367 -0.0203086347 0.4930380595 -0.622812003 0.4927678093 -0.6224037541 0.0488394425 -0.0212899767
440297360.0 0.0496553244 -0.0211637796 0.4860220314 -0.628104989 0.4861144434 -0.6273764347 0.0488669347 -0.0217946229
445297330.0 0.0491927932 -0.0219606315 0.4800397614 -0.6329020566 0.479204685 -0.6333735606 0.0482824644 -0.0221532678
450297300.0 0.0488018888 -0.02242941 0.4724492508 -0.6378719417 0.4727378202 -0.6385830466 0.0480904653 -0.0227888398
455297270.0 0.047898277 -0.0230658371 0.4656473847 -0.6434439773 0.4655551723 -0.6438680396 0.0476284031 -0.0233300785
460297240.0 0.0479721925 -0.0232548891 0.4586215535 -0.6493417038 0.4580950621 -0.6490705228 0.0473897712 -0.0243342036
465297210.0 0.047669758 -0.0238543966 0.4506868871 -0.6537069736 0.4505382854 -0.6538394019 0.0477510639 -0.0239064573
470297180.0 0.0472729565 -0.0251041762 0.444085114 -0.6586543043 0.4444214672 -0.6585595615 0.047152351 -0.0252504464
475297150.0 0.0462217109 -0.0251478969 0.4367082858 -0.6642124081 0.4369922185 -0.6637973039 0.0466601576 -0.0256987208
480297120.0 0.0465597995 -0.0249459455 0.4293585561 -0.6683855918 0.4296882953 -0.6682572419 0.0456071688 -0.0262726511
485297090.0 0.0462001013 -0.0267624206 0.4217679642 -0.6739226072 0.4226116086 -0.6730201186 0.0458055391 -0.0263793478
490297060.0 0.0459777063 -0.0265658067 0.4139734085 -0.6780566233 0.4146723211 -0.6780887384 0.045119567 -0.0273524931
495297030.0 0.0450023465 -0.0279604909 0.4072719317 -0.6822579535 0.4073618959 -0.6826538343 0.0453372366 -0.0277767383
500297000.0 0.0447940524 -0.0274107435 0.4000280581 -0.6863910467 0.3996994949 -0.6869356463 0.0447963586 -0.027784334
505296970.0 0.0448396224 -0.0282608298 0.3925244549 -0.6915279423 0.3924826446 -0.6912361189 0.0443615377 -0.029284961
510296940.0 0.0440602041 -0.0289545384 0.3845622402 -0.6962183128 0.3850651851 -0.6961517828 0.0443784501 -0.0292425327
515296910.0 0.0437817935 -0.0290600955 0.3763626653 -0.6998225773 0.3767305532 -0.7001593883 0.0438003672 -0.030262029
520296880.0 0.0433146574 -0.0293489483 0.3694398996 -0.7040105096 0.3690820727 -0.7037393516 0.0437543521 -0.0298981569
525296850.0 0.0432899173 -0.0303837146 0.3618187576 -0.7074964198 0.3614503841 -0.7076606568 0.0438082321 -0.0306158869
530296820.0 0.0425382242 -0.0310526147 0.3538343709 -0.7122141508 0.3540526161 -0.711791527 0.0430927574 -0.0315281852
535296790.0 0.0429710683 -0.0310493178 0.3460672931 -0.7159759002 0.3462102795 -0.7156721601 0.0428435074 -0.0316204564
540296760.0 0.0420821478 -0.0312779439 0.3379029446 -0.719384499 0.3382758087 -0.7191492687 0.0420459504 -0.0323495412
545296730.0 0.040912067 -0.0317460102 0.3303961392 -0.7229330864 0.3304104021 -0.7226975618 0.0418991099 -0.0326397642
550296700.0 0.0413827809 -0.032247251 0.3221512796 -0.7263357598 0.3223313216 -0.7270911493 0.0416030975 -0.0329826276
555296670.0 0.0407004605 -0.0328037896 0.3141850304 -0.7307869183 0.3145708081 -0.7304690062 0.04081999 -0.0339817203
560296640.0 0.0409621934 -0.0330338789 0.3061874216 -0.7334577308 0.3067925766 -0.7335092173 0.0404303688 -0.0337162287
565296610.0 0.0397030657 -0.0336359793 0.2987722809 -0.7373086723 0.2983599301 -0.736570023 0.0403120063 -0.0339829342
570296580.0 0.0391767412 -0.0336344687 0.2898186845 -0.7403566028 0.2904959462 -0.7405738399 0.0397101611 -0.0353581423
575296550.0 0.0391417375 -0.0345000638 0.2821345825 -0.7432479719 0.2824197414 -0.7435103586 0.0389628244 -0.0350694219
580296520.0 0.0387483976 -0.034077774 0.2740032912 -0.7463969278 0.2736990335 -0.7467952802 0.0384643595 -0.035845307
585296490.0 0.0382914275 -0.0346033145 0.2662216055 -0.7492873484 0.2660372623 -0.7493935001 0.0384640586 -0.0357158604
590296460.0 0.0385202874 -0.0349304045 0.2577562319 -0.7524343075 0.2575480033 -0.7528645547 0.0375101158 -0.0362252751
595296430.0 0.0379437231 -0.0353973898 0.2488139813 -0.7550386996 0.2488939644 -0.7553317424 0.0372846777 -0.0370702425
600296400.0 0.0374441302 -0.0355011766 0.2409103551 -0.7573473301 0.2410577796 -0.7576013375 0.037038793 -0.037320548
605296370.0 0.0361194434 -0.0358905743 0.2331816151 -0.7604622519 0.2325721153 -0.7606150166 0.0361163659 -0.03754032
610296340.0 0.0362546931 -0.0356952663 0.224136493 -0.7624168815 0.224665127 -0.7624264263 0.0354479705 -0.0378302245
615296310.0 0.0362920165 -0.0361557942 0.2161571887 -0.7656815198 0.216084726 -0.7653341656 0.0353512221 -0.0383548725
620296280.0 0.0348324944 -0.035998158 0.2075550256 -0.7672634469 0.2074593571 -0.7671019 0.0343717376 -0.0383434099
625296250.0 0.0345487052 -0.0365350471 0.1991795371 -0.7702776704 0.1993507799 -0.7697860921 0.033373199 -0.0388428797
630296220.0 0.0342838879 -0.0366167735 0.1902163018 -0.7720402993 0.1902832202 -0.7719050357 0.0335140614 -0.0390840116
635296190.0 0.0331294669 -0.0365720079 0.1824368429 -0.7738920317 0.1822890343 -0.7734807115 0.0330490765 -0.0394870852
640296160.0 0.0326525296 -0.0372209623 0.1733523396 -0.7766122676 0.1736409953 -0.7761004488 0.0319370742 -0.0399106338
645296130.0 0.0329732348 -0.0367226703 0.1653820822 -0.7777023119 0.1655005098 -0.7774401415 0.0312916206 -0.0407193191
650296100.0 0.0320742877 -0.0372910044 0.1569596806 -0.7800091691 0.1566260589 -0.7798317844 0.032062248 -0.04051643
655296070.0 0.0314320014 -0.0373931874 0.1476125147 -0.7813137176 0.1482561604 -0.7807831828 0.030223943 -0.0404783834
660296040.0 0.0311100118 -0.0374319856 0.1398053235 -0.7827486264 0.1399112796 -0.7829974759 0.0296399756 -0.0413984298
665296010.0 0.030559268 -0.0377463938 0.1304628051 -0.7837131323 0.1308011337 -0.7840203755 0.0293075281 -0.0410970923
670295980.0 0.0303386829 -0.0378330671 0.1223469858 -0.7856557029 0.1224931837 -0.7849976513 0.0283776161 -0.0417446386
675295950.0 0.0292366557 -0.0380689749 0.113613239 -0.7865646575 0.1142922588 -0.7865489317 0.0277595656 -0.041393043
680295920.0 0.0288207908 -0.0378409382 0.1053744896 -0.7877728639 0.1055112883 -0.7877089957 0.0276055165 -0.0419374777
685295890.0 0.0287986312 -0.0378451604 0.0962700651 -0.789282946 0.0970888087 -0.7893274088 0.027031595 -0.0415954403
690295860.0 0.0274187293 -0.03779546 0.0879443244 -0.7896344014 0.0876512651 -0.7903267937 0.0263790103 -0.0422877922
695295830.0 0.0274374067 -0.0383912997 0.0799583093 -0.7913807087 0.0800523309 -0.7905385864 0.025606396 -0.0423380138
700295800.0 0.0271424885 -0.0377795013 0.0717058504 -0.7919958889 0.0712656581 -0.7912431976 0.0250312491 -0.0420983909
705295770.0 0.0258907716 -0.0382800991 0.0625991965 -0.7931456185 0.0629867481 -0.7922511735 0.0243954219 -0.042359483
710295740.0 0.0253574624 -0.038372592 0.0541609824 -0.7933757175 0.0535794842 -0.7931068265 0.0240368174 -0.0422605103
715295710.0 0.0248169543 -0.0380130487 0.0452391661 -0.7942095478 0.045445678 -0.7938005998 0.0231143086 -0.0429819378
720295680.0 0.0249141297 -0.0381879134 0.0364265891 -0.7940791214 0.0363771279 -0.7939685935 0.0225403815 -0.0427802213
725295650.0 0.0229480658 -0.0381343901 0.0280279858 -0.7943620857 0.0283192207 -0.7945235734 0.0214488387 -0.042467398
730295620.0 0.0222336437 -0.0385769436 0.0189349626 -0.7943244153 0.0193081423 -0.7937767841 0.0207491879 -0.0421679257
735295590.0 0.0224297815 -0.0384856486 0.0106760097 -0.7951142824 0.0108583566 -0.7943806025 0.0201512517 -0.0433485574
740295560.0 0.0217664248 -0.0387473029 0.0023328436 -0.7951856029 0.0029412666 -0.7951105328 0.0191889002 -0.042765051
745295530.0 0.0210418582 -0.0383512145 -0.0066890081 -0.7942433495 -0.005834597 -0.7948932151 0.0180157781 -0.0430160453
750295500.0 0.0202175785 -0.0383113124 -0.0145009703 -0.7949658151 -0.0148343652 -0.7941992596 0.0180317949 -0.0427517668
755295470.0 0.0192752376 -0.0383492269 -0.023032662 -0.7948885917 -0.0231372575 -0.7945562579 0.0174952854 -0.0424712032
760295440.0 0.0187307671 -0.0378399106 -0.0330078932 -0.7942466484 -0.0323481503 -0.7938015703 0.016881188 -0.0439275153
765295410.0 0.0186160812 -0.03840281 -0.0409277451 -0.7934744901 -0.0406340676 -0.7936610261 0.0162152658 -0.0429973272
770295380.0 0.0178771471 -0.0378693507 -0.0493550135 -0.7929109394 -0.0492597624 -0.79307445 0.0150029224 -0.0430061151
775295350.0 0.0172322817 -0.0382242104 -0.0580953001 -0.7923439563 -0.0578466636 -0.7919339182 0.0148772257 -0.0425285816
780295320.0 0.0163483885 -0.0378893808 -0.0665252966 -0.7911419553 -0.0662950029 -0.7912667303 0.0145423703 -0.0432172265
785295290.0 0.0156409367 -0.0385977888 -0.0751719794 -0.7913424063 -0.0748114055 -0.7904372845 0.0129456255 -0.042330155
790295260.0 0.0155626361 -0.0385248735 -0.0835804513 -0.79046009 -0.0829955184 -0.7901350551 0.0124452876 -0.0419515677
795295230.0 0.014443597 -0.0386181809 -0.0920502434 -0.7895327929 -0.0919037427 -0.7892463723 0.0120855367 -0.0432007993
800295200.0 0.0136409537 -0.037805581 -0.1003473076 -0.7875671349 -0.1009131804 -0.7881902776 0.011146647 -0.0425477654
805295170.0 0.012926232 -0.0378897906 -0.1091890545 -0.7867566715 -0.1089729921 -0.787052612 0.011143301 -0.042353963
810295140.0 0.0129139462 -0.0375571848 -0.1176846143 -0.7855107867 -0.1177143891 -0.7859195216 0.0105408008 -0.0423593667
815295110.0 0.012088794 -0.0377424692 -0.1262040847 -0.7841862506 -0.1256542417 -0.7848157146 0.0094370065 -0.0423787476
820295080.0 0.0114796979 -0.0377425813 -0.1342205922 -0.7822834624 -0.1343600859 -0.7832632841 0.0079622198 -0.04132012
825295050.0 0.0105271714 -0.0378330882 -0.1432181485 -0.7815858758 -0.1430387654 -0.78103845 0.008527574 -0.0413024447
830295020.0 0.0099267875 -0.0376647874 -0.1515779767 -0.7794465222 -0.1518835584 -0.7801448305 0.0074466469 -0.0420781954
