!Created with skrf (http://scikit-rf.org).
# Hz S RI R 50.0 
!freq ReS11 ImS11 ReS21 ImS21 ReS12 ImS12 ReS22 ImS22
300000.0 -0.0487199583 -0.0585426607 -0.0018138157 0.0012236471 0.0004791447 0.0021317454 -0.7700669152 -0.1668098576
5299970.0 -0.0490915566 0.015866203 9.79008e-05 -0.0002278688 -7.08311e-05 4.97949e-05 -0.7848537057 -0.0085739099
10299940.0 -0.0433263765 0.0334719439 1.89459e-05 6.37971e-05 -9.5301e-05 0.0001156928 -0.7882146694 -0.0052641012
15299910.0 -0.0350752799 0.048048746 0.0002455024 0.0001624744 -4.06429e-05 0.0001575923 -0.7937297978 -0.0035705797
20299880.0 -0.0248512351 0.0596928623 -5.2476e-06 8.34384e-05 -2.24839e-05 1.7775e-05 -0.8007036153 0.0014929098
25299850.0 -0.0133151502 0.0689935187 -7.47223e-05 -4.66932e-05 0.0001733728 3.89183e-05 -0.8066366486 0.007307005
30299820.0 -0.001352817 0.0757666169 0.0001335286 8.21184e-05 -6.45983e-05 7.8723e-06 -0.8122001389 0.0151768592
35299790.0 0.0103725266 0.0805897888 -4.48976e-05 0.0003050866 4.05834e-05 1.87481e-05 -0.8176060997 0.0240700211
40299760.0 0.0219404009 0.0831137596 6.01227e-05 0.000132491 -0.0001918581 0.0001419831 -0.8212910346 0.0334590453
45299730.0 0.0324752019 0.084731249 3.11733e-05 0.0001820527 4.75587e-05 3.36375e-05 -0.8250022996 0.0422802994
50299700.0 0.0429226294 0.0843510551 -0.0001115598 -1.1189e-05 -1.2152e-05 -0.0001115363 -0.827411907 0.052433736
55299670.0 0.0521553006 0.0834223002 -3.56465e-05 -7.18379e-05 5.90021e-05 -3.36185e-05 -0.8300852032 0.0631185353
60299640.0 0.0607027037 0.0813519093 -0.0001166725 0.00036202 5.7744e-06 0.0001133473 -0.8309526094 0.0731840048
65299610.0 0.0682564635 0.0789333669 -3.40814e-05 -0.0001048307 0.0001055477 8.5911e-06 -0.8313810505 0.08258032
70299580.0 0.0756916947 0.0756020335 -8.58215e-05 0.0001410067 4.68852e-05 -3.13249e-05 -0.8318979747 0.0930450615
75299550.0 0.0821784714 0.0722647323 1.70832e-05 -0.0001260395 -0.0001814141 -1.67604e-05 -0.8328182318 0.1018127351
80299520.0 0.0876113332 0.0689267277 0.000212508 0.0001264364 -5.068e-05 0.0001488102 -0.8323013221 0.1127272606
85299490.0 0.0927863349 0.0647404535 -1.87089e-05 -8.37404e-05 4.99013e-05 8.77642e-05 -0.8317581792 0.1218642281
90299460.0 0.0973835845 0.0609559749 -2.3748e-06 -5.37837e-05 8.64923e-05 7.78631e-05 -0.8307804855 0.1314512266
95299430.0 0.1011335051 0.0567043647 4.76425e-05 -7.10161e-05 4.16754e-05 9.78887e-05 -0.8301172845 0.1411034636
100299400.0 0.1046222273 0.0530105296 -0.0002098446 0.0002226053 -2.06e-08 0.0001060637 -0.8290749171 0.1498829145
105299370.0 0.1081610798 0.0486545828 -4.44678e-05 -6.02885e-05 -4.26372e-05 3.18056e-05 -0.8274378874 0.1594305099
110299340.0 0.1107323014 0.0446910818 -5.72172e-05 -8.43978e-05 -0.0001750386 5.94839e-05 -0.8268646902 0.1681905079
115299310.0 0.1132530007 0.0402483558 6.81095e-05 9.22545e-05 -0.0002355488 3.28625e-05 -0.8249625422 0.1771570934
120299280.0 0.1153892426 0.0367631154 -5.95903e-05 0.000169997 -0.0001838104 2.20589e-05 -0.8235204875 0.1864757517
125299250.0 0.1172144132 0.0325360655 -6.05183e-05 -5.01198e-05 3.61394e-05 -0.0001356521 -0.8217477365 0.1954341405
130299220.0 0.1193243661 0.0290460746 -2.475e-06 3.26391e-05 -6.59347e-05 -7.49488e-05 -0.8200346103 0.2038620619
135299190.0 0.1206244339 0.0252740159 0.0001821783 -0.0001156779 4.3168e-05 0.0001110849 -0.817880577 0.2123517062
140299160.0 0.1217698956 0.0215690986 -2.13456e-05 -0.0001011552 -7.80969e-05 2.58765e-05 -0.8154304409 0.2210101862
145299130.0 0.1229375237 0.0179889495 6.94769e-05 8.03445e-05 -6.4898e-06 1.84716e-05 -0.8134408744 0.2300272365
150299100.0 0.1238337577 0.0142334399 4.1603e-06 3.01547e-05 0.0002103699 0.000102444 -0.8116357787 0.2386014885
155299070.0 0.1244940794 0.0111792161 0.0001366242 9.95852e-05 2.43024e-05 0.0002044373 -0.8095549868 0.2478768511
160299040.0 0.1251550366 0.0074760776 8.1113e-05 7.678e-07 6.31935e-05 0.0002248218 -0.8074424788 0.2562985566
165299010.0 0.1255394213 0.0044946687 -6.44609e-05 -2.29107e-05 1.41184e-05 0.000194202 -0.8042663394 0.2651967444
170298980.0 0.1255120144 0.0008911971 3.07234e-05 -9.80393e-05 3.7331e-06 4.62248e-05 -0.8016081784 0.2734886026
175298950.0 0.1261541508 -0.0018064274 0.000154844 2.62642e-05 -1.3853e-05 -8.44112e-05 -0.7991409386 0.2821350955
180298920.0 0.126101955 -0.0051634716 0.0001410053 -0.0001372923 0.0001111866 9.4693e-06 -0.7959532281 0.2899297213
185298890.0 0.1260010931 -0.008392629 9.5923e-05 0.000229799 0.0001037855 5.27835e-05 -0.7930214013 0.2984014763
190298860.0 0.1258451301 -0.0112479839 -1.33657e-05 -8.2494e-06 7.2275e-06 8.93038e-05 -0.7894669211 0.3075453442
195298830.0 0.1263740481 -0.0141210483 0.0001349212 0.0001599287 -1.67261e-05 -1.16046e-05 -0.7868348127 0.3152399403
200298800.0 0.1257202119 -0.0168229921 -6.0836e-05 0.0002022571 0.000238591 4.99329e-05 -0.7833066606 0.3238880656
205298770.0 0.1253821128 -0.0194779339 4.979e-07 0.0003502823 1.94575e-05 -1.984e-05 -0.7799675861 0.3323738887
210298740.0 0.1252482465 -0.0220502537 -9.07335e-05 -0.0001244799 2.54211e-05 1.47307e-05 -0.7768416051 0.340607112
215298710.0 0.1246342642 -0.025005419 4.32577e-05 -0.0001438289 4.03382e-05 -1.41193e-05 -0.7737984661 0.3483210315
220298680.0 0.1241035115 -0.0274047539 5.7472e-06 0.0001137746 0.0001553269 -0.0001737521 -0.7700242341 0.3569494291
225298650.0 0.1237074269 -0.0300733002 0.000137071 -0.0001188883 0.0001767081 6.21475e-05 -0.7663149853 0.3646571722
230298620.0 0.1231731222 -0.032432999 0.0001249681 0.0002551908 -1.66407e-05 -5.13138e-05 -0.7620083111 0.3727586992
235298590.0 0.1224365499 -0.035100329 8.32577e-05 -4.44357e-05 1.28466e-05 0.0001293551 -0.7580222526 0.3805902765
240298560.0 0.121766621 -0.0374092251 0.0002586303 -9.50122e-05 -5.12098e-05 8.00248e-05 -0.7540252397 0.388522869
245298530.0 0.121241107 -0.0395056705 -0.0001012089 6.68955e-05 -0.0001728882 0.0002213706 -0.750087951 0.3966766524
250298500.0 0.1201441552 -0.0416930805 2.85441e-05 6.5511e-06 -7.33437e-05 1.90687e-05 -0.745990798 0.4045298518
255298470.0 0.1195667505 -0.0441572686 6.13959e-05 0.0002576314 0.0001138271 2.00321e-05 -0.741540442 0.4122890733
260298440.0 0.1189618115 -0.0459318068 8.94492e-05 -0.0001651976 -5.77172e-05 0.0001965615 -0.7370496127 0.4199640885
265298410.0 0.1177948231 -0.0482526674 -7.8e-07 -0.0001577804 6.6153e-06 -4.51079e-05 -0.7328804487 0.4277981183
270298380.0 0.1170095647 -0.0500147834 0.000101794 -3.40525e-05 3.53397e-05 2.55597e-05 -0.7277849921 0.4352664886
275298350.0 0.1158779653 -0.0523037315 0.0001254673 0.0001922241 4.79051e-05 3.58264e-05 -0.7230079951 0.4431678125
280298320.0 0.1149229887 -0.0540366563 -7.857e-06 -1.19179e-05 2.50044e-05 0.000128479 -0.7187300136 0.4503459459
285298290.0 0.1139372307 -0.0560046911 2.35776e-05 -5.49124e-05 5.96468e-05 0.0001483889 -0.713204586 0.4581109919
290298260.0 0.113201941 -0.0578720103 -0.0001099065 -3.91049e-05 -4.85972e-05 -5.7058e-06 -0.7091055788 0.4656066529
295298230.0 0.1121867142 -0.0602953308 0.0001460514 3.0987e-05 0.0001968325 -3.39e-07 -0.7037772805 0.4729992891
300298200.0 0.1114076551 -0.0625543005 -8.46069e-05 0.0001276173 6.98194e-05 7.02123e-05 -0.698633918 0.4801523181
305298170.0 0.1106291171 -0.0639791375 0.0001931332 0.0001137175 0.0001362821 9.3966e-05 -0.6933687279 0.4875139854
310298140.0 0.1091812836 -0.0662916548 2.8957e-06 -3.47771e-05 4.79796e-05 -4.4716e-06 -0.6888619054 0.4947564125
315298110.0 0.107636275 -0.0681998604 2.27622e-05 0.0001345935 7.4308e-05 0.0001437541 -0.68315622 0.5018147544
320298080.0 0.1066718099 -0.0699711459 0.0001376553 -0.0001459448 0.0001391928 6.03441e-05 -0.6779776375 0.5093077976
325298050.0 0.104931602 -0.0720510428 8.01003e-05 -9.27405e-05 5.0679e-05 1.65011e-05 -0.6721961205 0.5161974759
330298020.0 0.1037302529 -0.0733890167 -9.82936e-05 3.97212e-05 -0.0001473314 0.0001529504 -0.6669187837 0.523083304
335297990.0 0.1021607462 -0.0748438939 -0.0001288791 0.0001325309 2.53081e-05 5.59704e-05 -0.6618221451 0.5300146271
340297960.0 0.1005118222 -0.0763924668 0.0002242552 -6.31474e-05 5.73348e-05 1.46705e-05 -0.6555908931 0.537364192
345297930.0 0.099146994 -0.0777357604 8.57273e-05 -0.0001488268 7.89765e-05 -4.09997e-05 -0.6497634261 0.5438416702
350297900.0 0.098181274 -0.0792812264 -3.99165e-05 -0.0002178482 6.71355e-05 5.3496e-05 -0.6439487761 0.551336149
355297870.0 0.0963398756 -0.0807720529 -0.000134619 0.0001435913 6.3335e-05 0.0001011611 -0.6383489507 0.55696949
360297840.0 0.0949529239 -0.082211499 0.0002525523 0.0001880794 5.1771e-06 4.5801e-05 -0.6328238054 0.5635101175
365297810.0 0.0939354221 -0.0836445985 2.40616e-05 9.40811e-05 -0.0001214564 -0.0001492155 -0.6265274364 0.5704888436
370297780.0 0.0921357942 -0.0848516445 -4.01907e-05 0.0001537749 -2.66229e-05 5.87692e-05 -0.621052083 0.576509038
375297750.0 0.090945479 -0.0857886923 0.000185871 4.99102e-05 0.000162687 -7.01486e-05 -0.6139879822 0.583315459
380297720.0 0.0897510111 -0.0872708054 0.0002469845 5.13602e-05 3.08599e-05 -0.000129504 -0.608148535 0.5902881599
385297690.0 0.0881039583 -0.0884645205 7.78833e-05 -4.35543e-05 8.96448e-05 7.42086e-05 -0.6016608653 0.5961309311
390297660.0 0.0869191426 -0.0897684915 -1.73968e-05 -2.8832e-05 3.40215e-05 0.0002188639 -0.5952545603 0.601695614
395297630.0 0.0854982307 -0.0910424776 0.0001054113 0.0002532489 8.13392e-05 0.0001317896 -0.5891991428 0.6077814973
400297600.0 0.0838300748 -0.0920724233 -2.34825e-05 -7.55855e-05 7.27976e-05 0.0001879372 -0.5832737168 0.6137152958
405297570.0 0.0827714682 -0.0933025364 3.0782e-05 0.0001769189 4.0409e-06 -4.47328e-05 -0.5776988545 0.6201031669
410297540.0 0.0811136221 -0.0944622595 6.56153e-05 -3.92892e-05 0.0001016894 -8.92359e-05 -0.5702118078 0.6257046555
415297510.0 0.0796653938 -0.095385556 -6.85889e-05 9.47523e-05 0.0002210089 -1.775e-07 -0.563409949 0.6319194381
420297480.0 0.0777239005 -0.0966167072 0.0003787792 7.4009e-06 -2.12148e-05 4.12238e-05 -0.5568912418 0.6369201881
425297450.0 0.0764377957 -0.0976938946 3.93248e-05 7.64579e-05 5.76269e-05 -0.0001982833 -0.5502435595 0.6431955679
430297420.0 0.0748801667 -0.0988819467 0.0002551768 -1.26066e-05 0.000196134 0.000119848 -0.5436282449 0.6485974111
435297390.0 0.0733834437 -0.0997456362 0.0001657723 0.0001391958 5.91887e-05 6.1695e-05 -0.536965 0.6541272667
440297360.0 0.0719331551 -0.1006377099 2.62663e-05 0.0002809943 0.0002121185 -3.27892e-05 -0.5302566175 0.6593262362
445297330.0 0.0704843142 -0.1014523749 4.85628e-05 3.374e-06 -1.4987e-05 -0.0002262619 -0.5235746171 0.6642888103
450297300.0 0.0690799466 -0.1024412408 -6.67125e-05 0.0001066563 0.0002953668 -7.3796e-06 -0.5169856787 0.6695399443
455297270.0 0.0671699114 -0.1032175899 -0.000116232 -3.94115e-05 -2.54714e-05 0.0001283312 -0.5101587109 0.6747519325
460297240.0 0.0654420985 -0.1041410048 7.97917e-05 6.15254e-05 -9.12099e-05 0.0001911486 -0.50259068 0.6803601724
465297210.0 0.0643003844 -0.104972259 0.0002887247 -1.4871e-06 -5.20827e-05 0.0001027132 -0.4955943297 0.6849374007
470297180.0 0.0624690487 -0.1057127116 -1.43371e-05 9.321e-07 9.56598e-05 -0.0002150035 -0.4897904629 0.6895471552
475297150.0 0.0607744141 -0.1065503938 0.0003674106 -0.000102223 -1.48423e-05 0.0002435212 -0.4824391976 0.6944345107
480297120.0 0.0592686112 -0.1073570465 0.0001830275 6.24227e-05 0.0001666899 0.0002033071 -0.4757233272 0.7000953037
485297090.0 0.057664996 -0.107963441 -1.02244e-05 6.16567e-05 5.25809e-05 0.0001658155 -0.4680099179 0.7036388213
490297060.0 0.0561557481 -0.1088071669 2.7789e-06 8.5123e-06 9.63586e-05 3.28396e-05 -0.4611933962 0.7088280535
495297030.0 0.0542737623 -0.1095664895 0.0001973606 0.0001561247 9.59945e-05 1.6315e-06 -0.4533654363 0.7132324354
500297000.0 0.0530055002 -0.1104135528 0.0002474203 1.91471e-05 3.70013e-05 0.0001030113 -0.4471464106 0.7175549062
505296970.0 0.0508594986 -0.1107749563 9.05549e-05 0.0001240853 3.29211e-05 -4.94868e-05 -0.440368622 0.7225919356
510296940.0 0.049780514 -0.1113191716 -6.88379e-05 0.0001024643 0.0003035899 -0.0001519525 -0.4322632292 0.7262457701
515296910.0 0.0476553764 -0.1117767143 0.0001955721 -0.0001205548 2.983e-05 0.0001737414 -0.4248361791 0.730720672
520296880.0 0.0464196632 -0.1124243633 5.46287e-05 0.0002296968 -1.9478e-06 6.38996e-05 -0.4177921984 0.7349928734
525296850.0 0.0448368301 -0.1127986213 9.78615e-05 0.0001530746 0.0001088048 0.0001139898 -0.4099181571 0.7395836515
530296820.0 0.0427319264 -0.1133351109 0.0002361476 9.5488e-05 0.0001882317 -0.0002119155 -0.4032716829 0.7429031355
535296790.0 0.0414715046 -0.1139826756 0.0002961743 0.0002155154 0.0001890261 0.0001055617 -0.3956315306 0.7467228745
540296760.0 0.0395643713 -0.1147442442 6.55658e-05 -3.55989e-05 0.0001705774 -0.0001375868 -0.3881067776 0.7506982421
545296730.0 0.0378718986 -0.1147752265 -9.13787e-05 4.39912e-05 0.0002281973 -9.6189e-05 -0.3808920838 0.7543908102
550296700.0 0.0359943055 -0.11510433 0.0003872816 -8.4694e-06 0.0001545584 0.0001554862 -0.3729657219 0.7578882842
555296670.0 0.0347623182 -0.1157150305 0.0001848784 1.63095e-05 0.0002187242 -2.91529e-05 -0.3656893928 0.762471534
560296640.0 0.033033119 -0.116086508 0.0003620557 0.0003232765 1.07936e-05 -1.76015e-05 -0.3578301614 0.7655201833
565296610.0 0.0312678466 -0.1162765206 0.0001430533 0.0002613403 0.0001498078 7.13858e-05 -0.3500110309 0.7688396676
570296580.0 0.0298113384 -0.1166578034 0.0002439092 -0.0001514093 0.0001257905 -6.97208e-05 -0.3432613838 0.7723607922
575296550.0 0.0280263212 -0.1169800898 0.0002472735 3.34963e-05 -1.77103e-05 -5.88107e-05 -0.3347795459 0.775635334
580296520.0 0.0261742534 -0.1172782126 -0.0001145753 -0.0001052082 0.0001105042 -8.7333e-05 -0.3274266507 0.7793272022
585296490.0 0.0244785431 -0.1176410168 6.40952e-05 0.0001450574 0.0001369795 0.0001284198 -0.3195383919 0.7821320578
590296460.0 0.022631588 -0.1176476975 0.0001238544 -6.4436e-06 -0.00011483 0.000109586 -0.3120192546 0.7851677461
595296430.0 0.0212986411 -0.1178532914 0.000147683 -0.0002016472 0.0002706109 0.0001804221 -0.3040726084 0.7873202176
600296400.0 0.0193664636 -0.1180350895 -3.94514e-05 -3.06409e-05 0.0001788548 0.0001832447 -0.2963312542 0.7915009623
605296370.0 0.0178607482 -0.1181943261 -0.0001525776 -7.4722e-06 -4.87575e-05 3.39576e-05 -0.2886055485 0.7944663368
610296340.0 0.0160880881 -0.1184088354 0.0002421476 5.74692e-05 7.1694e-05 -7.95979e-05 -0.2803606664 0.7973838934
615296310.0 0.0143805203 -0.1180672739 5.24216e-05 -0.0001054871 0.0001374042 -1.92866e-05 -0.2728848268 0.7998829514
620296280.0 0.0127952984 -0.1185823639 0.0001659133 -7.14987e-05 0.0001720158 0.0001173203 -0.2646099266 0.8024377728
625296250.0 0.0110055324 -0.1182835105 0.0001160616 2.9614e-06 2.58545e-05 -6.87836e-05 -0.2567277655 0.8049022456
630296220.0 0.0093224827 -0.1185459418 0.0002907197 0.0001059846 9.29208e-05 4.23319e-05 -0.2488230861 0.8074038808
635296190.0 0.0076528378 -0.1187557421 0.0001935922 0.0002640925 0.0001540606 -2.95048e-05 -0.2414590748 0.8091917275
640296160.0 0.0060783724 -0.1182331191 5.90337e-05 6.17482e-05 -1.9469e-06 -2.84944e-05 -0.2325914661 0.8119665177
645296130.0 0.0040348606 -0.1183254849 0.000134562 0.0001747673 0.0003092273 -8.17603e-05 -0.2253787498 0.8140011178
650296100.0 0.0025339327 -0.1180297585 0.0002985388 -2.25678e-05 0.0001925826 -1.76358e-05 -0.2170498098 0.8164780406
655296070.0 0.0009468425 -0.1182553919 -0.0001634468 -0.0001049884 0.0003344703 0.0001105513 -0.2082641819 0.8182722281
660296040.0 -0.0008951406 -0.1180016201 8.25086e-05 -4.82358e-05 0.0001031516 0.0001108498 -0.2004153804 0.8207939911
665296010.0 -0.0025829377 -0.1178044788 0.0002563679 0.0001265289 -4.14546e-05 2.0506e-05 -0.1927944272 0.8220569255
670295980.0 -0.0040907387 -0.1176166124 0.0003274287 4.32922e-05 3.12782e-05 0.0002558578 -0.1853652017 0.8241119798
675295950.0 -0.0057797653 -0.1175009329 0.0002029826 -3.62836e-05 1.40027e-05 -1.78938e-05 -0.1765469514 0.8262646208
680295920.0 -0.0074316732 -0.1169127761 -3.9152e-06 1.68197e-05 0.0002311948 -4.76875e-05 -0.1681274344 0.8276765301
685295890.0 -0.0092836336 -0.1169696257 0.0001815061 0.0001130795 6.91684e-05 9.17648e-05 -0.1602100794 0.8293866977
690295860.0 -0.0105305937 -0.1165582164 0.0002527439 2.76004e-05 1.83453e-05 -3.13458e-05 -0.1520386212 0.8307180935
695295830.0 -0.012398719 -0.1164458174 0.000262615 7.59398e-05 9.27839e-05 3.68994e-05 -0.1439945074 0.8322863774
700295800.0 -0.014178888 -0.1161046769 0.0002772785 0.0001567936 0.00021028 0.0001336085 -0.1352368595 0.8333482781
705295770.0 -0.0155522012 -0.1159599457 9.24299e-05 -0.0001099485 0.000322012 -0.0002222267 -0.1274437981 0.8347543773
710295740.0 -0.0173055052 -0.1156589305 0.0002109545 -5.867e-05 0.0002170297 -0.0001831339 -0.119558803 0.8362496263
715295710.0 -0.0193714375 -0.1152446037 -1.54219e-05 -2.71921e-05 0.0001816831 -4.24022e-05 -0.1108661501 0.8374476519
720295680.0 -0.0205416453 -0.1149148815 0.0001148491 -4.28451e-05 0.0002319137 -2.56555e-05 -0.1026409714 0.8385210593
725295650.0 -0.0222021911 -0.1142926136 0.0002726225 -2.19004e-05 9.75527e-05 -6.65431e-05 -0.0942189905 0.8395415066
730295620.0 -0.0240981391 -0.1140193068 0.0002667121 6.56845e-05 0.0001420432 7.18733e-05 -0.0853382898 0.8400806335
735295590.0 -0.0252488072 -0.1133752031 0.000281662 -0.0001150063 0.0002310852 -6.55952e-05 -0.0770565725 0.8409738762
740295560.0 -0.0270179935 -0.1128847812 -4.59085e-05 -2.45011e-05 1.02431e-05 -2.19446e-05 -0.0688364182 0.8408519011
745295530.0 -0.0287651064 -0.1125133944 0.0003195085 8.99831e-05 0.0001850696 -6.70818e-05 -0.0607465307 0.8422101951
750295500.0 -0.0302864468 -0.1118626906 0.0001569878 -0.0001080098 1.311e-06 4.39821e-05 -0.0527601932 0.8426362342
755295470.0 -0.031614713 -0.1112188616 9.22629e-05 -0.0001229215 0.0001797378 -3.07991e-05 -0.0443303286 0.8435474257
760295440.0 -0.0335319724 -0.1107775517 0.0002654095 2.76323e-05 -1.37196e-05 0.0001358151 -0.0363894863 0.8442449014
765295410.0 -0.035002374 -0.1103715953 0.0002264962 -1.47348e-05 0.0002284934 -8.42606e-05 -0.0271143847 0.8447720972
770295380.0 -0.0364972627 -0.1098014338 6.11469e-05 4.17532e-05 2.78047e-05 1.93536e-05 -0.0188434546 0.8441002817
775295350.0 -0.0382044939 -0.1088594715 -9.66369e-05 0.0002234999 0.0002555479 -4.15751e-05 -0.0116867625 0.8440189964
780295320.0 -0.0396668803 -0.1083073256 -3.93946e-05 -0.0002201528 6.2398e-05 -9.10717e-05 -0.0027224188 0.8448112672
785295290.0 -0.041343869 -0.1073954393 -1.03759e-05 -0.0001381568 7.37976e-05 3.98257e-05 0.0050407563 0.8444372912
790295260.0 -0.0427194902 -0.1069959002 0.0001219925 -0.0001155013 5.29974e-05 -9.44818e-05 0.0144160215 0.8448042117
795295230.0 -0.0442483029 -0.1060558973 0.0001765235 -9.05733e-05 4.34248e-05 0.0002443066 0.0220409443 0.8444005101
800295200.0 -0.0451396151 -0.1053173309 0.0003425486 -0.0002562605 0.0002004203 -7.80325e-05 0.0303095794 0.8436524992
805295170.0 -0.0470788759 -0.1045937981 5.08157e-05 -0.0001583083 2.92066e-05 -0.000160626 0.038567468 0.8434600694
810295140.0 -0.0485880534 -0.103826321 6.78273e-05 -0.0001340837 0.0001455175 -3.52073e-05 0.0467641612 0.8441609791
815295110.0 -0.0499314426 -0.1030937366 9.39749e-05 3.77503e-05 4.5046e-05 -0.0001520035 0.0554904157 0.8430626751
820295080.0 -0.0515191002 -0.1023653265 -5.0782e-06 -7.7613e-05 5.90786e-05 5.39198e-05 0.0632218527 0.8422758151
825295050.0 -0.0531506759 -0.1015020412 0.0002678395 -0.0002307875 0.0002039444 4.97864e-05 0.0715682035 0.8416661614
830295020.0 -0.0541902532 -0.1006765453 0.0002120919 -9.57447e-05 0.0002236131 -6.32861e-05 0.0797804043 0.8411568974
835294990.0 -0.0559306932 -0.0997979143 7.86353e-05 -9.51757e-05 0.0003648291 3.71706e-05 0.0882479322 0.8402258447
840294960.0 -0.057125468 -0.0987362024 0.0001166649 -0.0001880639 0.0004113046 -9.90504e-05 0.0959932933 0.8395620984
845294930.0 -0.0587349937 -0.0978578776 0.0001370004 -1.66118e-05 0.0001061546 3.67224e-05 0.1041751052 0.8381210456
850294900.0 -0.0599133844 -0.0969035354 0.0002605565 -0.0001352588 4.65871e-05 4.56627e-05 0.1125479066 0.8372102428
