!Created with skrf (http://scikit-rf.org).
# Hz S RI R 50.0 
!freq ReS11 ImS11 ReS21 ImS21 ReS12 ImS12 ReS22 ImS22
300000.0 -0.2334414833 -0.1287195936 0.4659904988 0.083478105 0.4671158968 0.083753467 -0.2350535034 -0.1278242252
5299970.0 -0.2417029923 0.0051931445 0.4748760711 0.0061504261 0.4752741155 0.0058495671 -0.2443629797 0.0044460659
10299940.0 -0.2387084796 0.0188929436 0.4772297415 0.0068031471 0.4773163311 0.0068900149 -0.2408659821 0.0171284335
15299910.0 -0.2336708623 0.0289723315 0.4804677433 0.0080587433 0.4808324982 0.0083945144 -0.2369437202 0.0264205105
20299880.0 -0.2285245068 0.0371374051 0.4856898791 0.0081119454 0.4855652948 0.0081599605 -0.2319673532 0.0338185555
25299850.0 -0.2225813369 0.0435787594 0.4907617807 0.007819644 0.490983045 0.0072845202 -0.2267686385 0.0402812593
30299820.0 -0.2170116346 0.0486674876 0.4962639417 0.0050514134 0.4960841366 0.0048473784 -0.2217199824 0.0447916446
35299790.0 -0.2114200671 0.0528199911 0.5012160874 0.0021301027 0.5013683974 0.0018540746 -0.2167779606 0.0491069173
40299760.0 -0.2063197964 0.0561214743 0.5063278573 -0.0021289038 0.5068212737 -0.0024475449 -0.211884436 0.0521625983
45299730.0 -0.2013252449 0.0588711654 0.5112632647 -0.006673408 0.5113446073 -0.006967125 -0.2070044312 0.0549204781
50299700.0 -0.1958301168 0.0607133387 0.5150236853 -0.0124275714 0.5154772042 -0.0125973131 -0.2028575614 0.0569300249
55299670.0 -0.1920789907 0.0625989072 0.5190173128 -0.0180521778 0.5189326456 -0.0184960445 -0.1992077882 0.058707425
60299640.0 -0.1877294417 0.0641310676 0.5223866973 -0.0248202324 0.522352559 -0.0247300258 -0.1954639943 0.0597104442
65299610.0 -0.1840317688 0.0653897529 0.5253043762 -0.031117266 0.5255140087 -0.0310322421 -0.1920397074 0.0611082838
70299580.0 -0.1807463109 0.0659395398 0.5276463175 -0.0373876461 0.5280336284 -0.037723141 -0.1894420916 0.0621041042
75299550.0 -0.177961267 0.0666522275 0.5292380233 -0.0443554881 0.5297362724 -0.0444648752 -0.1863619032 0.0627100691
80299520.0 -0.1753865341 0.0676663955 0.5316385507 -0.0513022657 0.5318083306 -0.0512759769 -0.1837454077 0.0635835966
85299490.0 -0.1723456914 0.0683813933 0.5327307958 -0.0584192247 0.53314764 -0.058236816 -0.1818100375 0.0642565408
90299460.0 -0.1700551749 0.0691014099 0.5333874506 -0.0652224947 0.5334242866 -0.0647121259 -0.1791735319 0.0650752458
95299430.0 -0.1681088889 0.0696908923 0.5343928563 -0.0719156904 0.5346956004 -0.0721148468 -0.177674851 0.0657175902
100299400.0 -0.1660867772 0.0702698284 0.5352099523 -0.0784172487 0.5352517471 -0.0790957038 -0.1759030118 0.0663804437
105299370.0 -0.1638287364 0.0709877932 0.5350398623 -0.0858612079 0.5357107401 -0.0857957784 -0.1739313353 0.0665291496
110299340.0 -0.1622445019 0.0716117636 0.535426002 -0.0917705956 0.5358472088 -0.0923405616 -0.1729672187 0.067439333
115299310.0 -0.1610469148 0.0725762066 0.5352844023 -0.0991281359 0.5354896986 -0.0995402115 -0.1714782287 0.0685638984
120299280.0 -0.1593267113 0.0732399877 0.5354271158 -0.1064016172 0.5350857162 -0.1062988869 -0.1701870807 0.068508809
125299250.0 -0.1579906501 0.0739918128 0.5349387852 -0.1127811316 0.5347404638 -0.1127973158 -0.1689113497 0.0697854647
130299220.0 -0.1566559955 0.0746084953 0.5341689441 -0.1197109134 0.5342755605 -0.1199110615 -0.1677228368 0.0704094339
135299190.0 -0.1554341466 0.0759791163 0.5338279238 -0.1262901334 0.5338977577 -0.1266554975 -0.1665834955 0.0710329008
140299160.0 -0.1543200614 0.0767071907 0.5330803445 -0.1329820333 0.5330894387 -0.132689666 -0.1661499893 0.0720171158
145299130.0 -0.1532662309 0.0780588814 0.5319191431 -0.1391863192 0.5319962105 -0.1395809297 -0.1651775565 0.0729781286
150299100.0 -0.1521712127 0.0788165502 0.5308264713 -0.1459871868 0.5304770075 -0.1461829047 -0.1641685669 0.0743120116
155299070.0 -0.1507684523 0.0800124718 0.5290474505 -0.152424543 0.5297204087 -0.1524731447 -0.1629050153 0.0747151351
160299040.0 -0.1498500173 0.0812325084 0.5282599826 -0.1590361114 0.5278056423 -0.159165588 -0.1626540404 0.0759469075
165299010.0 -0.1486970288 0.0820443302 0.5267395673 -0.1651208644 0.5262582463 -0.1656155903 -0.1614273953 0.0767280157
170298980.0 -0.1479071485 0.0834748032 0.5251021715 -0.1717447464 0.5252163428 -0.1717131164 -0.1612340958 0.0777808569
175298950.0 -0.1466849238 0.0846333808 0.5235901954 -0.1780577864 0.5238230451 -0.1781458875 -0.1601125994 0.0791548601
180298920.0 -0.1458939529 0.0860033549 0.5217104998 -0.1842257755 0.5215710748 -0.1846983973 -0.1594956249 0.080047195
185298890.0 -0.1451400586 0.087299444 0.5205809667 -0.1903995148 0.5198391254 -0.1902900166 -0.1586666327 0.0807824638
190298860.0 -0.1437603429 0.0889087528 0.5176192435 -0.1969837946 0.5184615759 -0.1967350153 -0.157827393 0.08229242
195298830.0 -0.1430214701 0.090071061 0.5162793967 -0.2028882486 0.5163897744 -0.202837104 -0.1572209396 0.0835643452
200298800.0 -0.1417004303 0.090864363 0.5139751392 -0.2090288 0.5143251066 -0.2088970461 -0.1566018463 0.084585671
205298770.0 -0.1413522444 0.0925403605 0.5116341765 -0.2146474311 0.5120704127 -0.2145058903 -0.1556157822 0.0856528117
210298740.0 -0.1401263621 0.093978966 0.5092218673 -0.2210885122 0.5093194074 -0.220925831 -0.1552990775 0.0869061637
215298710.0 -0.1391059981 0.0955804874 0.5071238456 -0.2266531103 0.5071767321 -0.2267226261 -0.1541678047 0.0883055717
220298680.0 -0.1381249012 0.0968865321 0.5043408757 -0.2329053497 0.5044836292 -0.2330193819 -0.1534938348 0.0895597393
225298650.0 -0.1372093502 0.098512792 0.5021284626 -0.2385633706 0.5026080837 -0.2382030454 -0.1526483618 0.0906722636
230298620.0 -0.1359231094 0.0996143395 0.4998895656 -0.2441126819 0.4999682615 -0.244605436 -0.1522091534 0.0918301638
235298590.0 -0.1353795605 0.101369706 0.4973948686 -0.2503119993 0.4975373484 -0.2501464549 -0.151172216 0.0933270359
240298560.0 -0.1341468153 0.1027038594 0.4942804011 -0.2554471415 0.4944514729 -0.2557136818 -0.150636803 0.0945265626
245298530.0 -0.1334328767 0.1040571268 0.4917347575 -0.2616176462 0.4917983489 -0.2616498998 -0.1498231591 0.0960116846
250298500.0 -0.1323589884 0.1055554068 0.4891495111 -0.2671726666 0.4892244441 -0.2670243051 -0.1490351141 0.0972483616
255298470.0 -0.1312040278 0.1071996874 0.4863207937 -0.2722293585 0.4867169727 -0.2731610864 -0.1481761143 0.0989198825
260298440.0 -0.1301297375 0.1083896203 0.4834602233 -0.277469597 0.4833371627 -0.2778220371 -0.1474811504 0.0998199804
265298410.0 -0.129359284 0.1101478609 0.4799343485 -0.2839145635 0.4801361005 -0.2840626031 -0.1457180083 0.101167855
270298380.0 -0.1281883032 0.1113633154 0.4770726063 -0.2889909535 0.477120368 -0.2892915749 -0.1451543087 0.1026169213
275298350.0 -0.1270320674 0.1130678113 0.4736866717 -0.2939938672 0.4737383874 -0.2946015673 -0.1442155738 0.1040673645
280298320.0 -0.1262007341 0.1145345191 0.4709144455 -0.2995744733 0.4712586571 -0.300111808 -0.1435108387 0.1053325501
285298290.0 -0.1250680715 0.1157810345 0.4670233083 -0.3048620852 0.4676820849 -0.3050526 -0.1426939034 0.1068625196
290298260.0 -0.1237926898 0.117626485 0.4643350241 -0.3104564148 0.4644289628 -0.3105907161 -0.1415693303 0.1079811454
295298230.0 -0.1226424479 0.1183272242 0.4608566232 -0.316050434 0.4611988171 -0.3160546815 -0.140761749 0.1092395383
300298200.0 -0.1213028472 0.1203457835 0.4578398389 -0.3211436978 0.4577586301 -0.3208982168 -0.1397903657 0.1107638784
305298170.0 -0.1200268387 0.1212069444 0.4540212143 -0.3259529405 0.4544597322 -0.3262722208 -0.1386428708 0.1116789185
310298140.0 -0.1186102313 0.1225430008 0.450525148 -0.3310672855 0.4509710522 -0.3311370603 -0.1375168783 0.1129364274
315298110.0 -0.1177125255 0.1237093673 0.4469318313 -0.3365539181 0.4471626809 -0.3369119873 -0.1364917369 0.1142666542
320298080.0 -0.1165030753 0.1253213175 0.4429155634 -0.3419647583 0.443797491 -0.3420645294 -0.1358571617 0.1153239437
325298050.0 -0.1153720095 0.1257956641 0.4390870655 -0.3465652924 0.4400826272 -0.346500118 -0.1345978026 0.1167187292
330298020.0 -0.1145060321 0.1278033557 0.4351274299 -0.3518628429 0.4359548209 -0.3520249375 -0.1339965943 0.1176791602
335297990.0 -0.1135955726 0.1288561715 0.4316686751 -0.3565736925 0.4314332333 -0.3567636819 -0.1327682831 0.1192775819
340297960.0 -0.1124765848 0.1301928063 0.4267727992 -0.3614020257 0.4270226176 -0.3613657658 -0.1318269523 0.1208065721
345297930.0 -0.1112812473 0.131682029 0.4233383972 -0.3664331586 0.4232564434 -0.3659420113 -0.1311560645 0.1218010937
350297900.0 -0.1100881906 0.1330124284 0.4195052331 -0.370756369 0.41967754 -0.3707030549 -0.1302940438 0.123029981
355297870.0 -0.1088652506 0.1345252201 0.4152630189 -0.3750275005 0.4151360441 -0.3748533739 -0.1286889313 0.124668973
360297840.0 -0.1073228765 0.1358319656 0.4108316014 -0.3801093815 0.4111994067 -0.3800841626 -0.1276909882 0.1262948111
365297810.0 -0.1060612073 0.1372420373 0.4064347271 -0.3843883081 0.4067176992 -0.3842913863 -0.1269013418 0.1271957887
370297780.0 -0.1047918781 0.1385102922 0.4021182531 -0.3888593371 0.4025189746 -0.3885237026 -0.1255826277 0.1288012385
375297750.0 -0.1033051445 0.1397734664 0.3981540317 -0.3931357502 0.398386359 -0.3935332954 -0.1243055969 0.130041282
380297720.0 -0.1023021092 0.1410591015 0.3940166145 -0.3979120932 0.3943042618 -0.3977651936 -0.1234094285 0.1316549983
385297690.0 -0.1010264206 0.1419577396 0.3895438749 -0.4010906763 0.3895634591 -0.4022843409 -0.1218988659 0.1331057732
390297660.0 -0.0989920464 0.1433247648 0.3845779258 -0.4056069045 0.3855466917 -0.4063125509 -0.1206776045 0.1340029996
395297630.0 -0.0972794613 0.1446989005 0.3804916713 -0.409781883 0.3806392154 -0.4099038213 -0.11959757 0.1350052686
400297600.0 -0.0964090892 0.1457307928 0.3764399656 -0.4143468958 0.3766038173 -0.4144120465 -0.1181179629 0.1369382413
405297570.0 -0.094955775 0.1466934699 0.3719059721 -0.4177525378 0.3719814469 -0.418575446 -0.1166039351 0.1384641799
410297540.0 -0.0930838094 0.1482035869 0.3670315913 -0.4225998174 0.3673453433 -0.4222193315 -0.1157370967 0.1394261486
415297510.0 -0.0919364163 0.1492638366 0.3621780096 -0.4263363973 0.3627789885 -0.4267778179 -0.1141066174 0.1408949378
420297480.0 -0.0904074898 0.1501839393 0.3579134184 -0.4302225006 0.3580212641 -0.4304195438 -0.1124813391 0.1422150935
425297450.0 -0.0886804141 0.1511390655 0.3537513466 -0.4342505028 0.3527987131 -0.4342002869 -0.1114217736 0.1428619193
430297420.0 -0.0867744888 0.1524286501 0.3488990577 -0.4383403416 0.3488416053 -0.4379439913 -0.1099701408 0.1443640607
435297390.0 -0.0850338891 0.1532163964 0.3429886721 -0.4424571237 0.3436100249 -0.4419893132 -0.1096375962 0.1460478653
440297360.0 -0.0835979564 0.1542631301 0.3382299914 -0.4459005512 0.3385388676 -0.4459643112 -0.1072887917 0.1470980211
445297330.0 -0.081771963 0.1551753993 0.3339431071 -0.4491689435 0.3339430171 -0.4494462723 -0.1058825071 0.1484018081
450297300.0 -0.0801611984 0.1561446793 0.3287014952 -0.4528042973 0.3292265856 -0.4529291994 -0.1044086461 0.1494450168
455297270.0 -0.0786720416 0.1572566094 0.3240159273 -0.4564916059 0.3241164894 -0.4568345831 -0.1029307962 0.1505700833
460297240.0 -0.0766278561 0.1581007811 0.3188567129 -0.4604508162 0.3189785498 -0.4603683007 -0.101584837 0.1515049072
465297210.0 -0.0751144423 0.1589926964 0.3137043023 -0.4639928301 0.3137671259 -0.464126989 -0.0997919935 0.1534674841
470297180.0 -0.0731182326 0.1599472707 0.3088548211 -0.4666374848 0.3089874731 -0.4668768627 -0.0983783781 0.1537172274
475297150.0 -0.0718212213 0.1612527818 0.3039383011 -0.470570432 0.3041022612 -0.4704025244 -0.0970051997 0.1549267256
480297120.0 -0.0692224919 0.1623644708 0.2983742971 -0.4737675252 0.2987652718 -0.4734474798 -0.0956614436 0.1559558959
485297090.0 -0.0677856023 0.1626616101 0.2935523863 -0.4767093298 0.2933457505 -0.4764968645 -0.0941096406 0.1573427776
490297060.0 -0.0653768689 0.1634949094 0.2878399538 -0.4798948373 0.2884443781 -0.4801726987 -0.0925503303 0.1582774109
495297030.0 -0.064235426 0.1639697208 0.2831817386 -0.483208603 0.2832752255 -0.4830832516 -0.0907598606 0.1592090497
500297000.0 -0.062248595 0.1652123537 0.2775309907 -0.485730276 0.2776473851 -0.4860106539 -0.0890985112 0.1603557736
505296970.0 -0.0599193922 0.1663365444 0.272617113 -0.4892118788 0.2721613343 -0.489038094 -0.087437243 0.1608652123
510296940.0 -0.0581000622 0.1669520374 0.2669552642 -0.4923325225 0.2671998968 -0.4924508374 -0.085668959 0.1621185329
515296910.0 -0.0563663344 0.1677313231 0.2612609174 -0.494822424 0.2613293799 -0.4950935712 -0.0843472968 0.1629995193
520296880.0 -0.0541088984 0.1685459169 0.2561915055 -0.4979756998 0.2559683464 -0.4976056882 -0.0823192168 0.1644095218
525296850.0 -0.0521736358 0.1692912317 0.2503350949 -0.5003067242 0.2505891245 -0.500343008 -0.0806827948 0.165129523
530296820.0 -0.0505484844 0.1699215376 0.2448751493 -0.5031157746 0.2450961801 -0.5027976569 -0.0791652254 0.1656456838
535296790.0 -0.0479322183 0.1704650804 0.2397852389 -0.5055800924 0.2396823963 -0.5057204412 -0.0774602134 0.1670067731
540296760.0 -0.0462054931 0.1716126598 0.2341972924 -0.5078679653 0.2337563156 -0.5080427394 -0.075936903 0.1673862327
545296730.0 -0.0447861519 0.1722723145 0.2286983587 -0.5104031213 0.2285707298 -0.5102817564 -0.0739833128 0.1686435136
550296700.0 -0.0423015218 0.1727416665 0.2229890933 -0.5131842023 0.2227107602 -0.5132460884 -0.072221699 0.1693167375
555296670.0 -0.0403341562 0.1734746078 0.217231504 -0.5156671473 0.217262057 -0.5153720107 -0.0707176285 0.1699272867
560296640.0 -0.0379132278 0.1737540146 0.211575789 -0.5175518281 0.2120260393 -0.5176904715 -0.0692212109 0.171084269
565296610.0 -0.036581015 0.1745350203 0.2064911932 -0.5202081969 0.2060514163 -0.5195755028 -0.0670547427 0.1719653119
570296580.0 -0.0345363563 0.1754341845 0.2003123023 -0.522566988 0.2005058237 -0.5222130365 -0.0658891788 0.1723116815
575296550.0 -0.0319620119 0.1758273465 0.1947626275 -0.5244375559 0.1945906672 -0.52448587 -0.0639768135 0.1732597448
580296520.0 -0.0300293824 0.1766042015 0.18907853 -0.5262483742 0.1890412671 -0.5266054486 -0.0625637086 0.1740386555
585296490.0 -0.0278930511 0.1768776469 0.1834508524 -0.5279229074 0.1831627007 -0.5282793306 -0.0602076924 0.1748447425
590296460.0 -0.0254042632 0.1775816781 0.177766854 -0.5302640837 0.1778431781 -0.5306004737 -0.0591732178 0.1756006832
595296430.0 -0.0236894002 0.1779925828 0.1715574187 -0.5318381348 0.1711886915 -0.5320963644 -0.0570545004 0.1762287452
600296400.0 -0.02153859 0.1785114623 0.1654524156 -0.5339431379 0.165668953 -0.5340675463 -0.0552535304 0.1766508258
605296370.0 -0.0199353185 0.1791176654 0.1605970849 -0.5352406318 0.1596398768 -0.5358789533 -0.0535406141 0.1775772549
610296340.0 -0.0173776302 0.1795207768 0.1545928328 -0.5367833361 0.1546551128 -0.537293541 -0.0520650097 0.1783378279
615296310.0 -0.0151788424 0.1799432285 0.1486326506 -0.5391968891 0.1481625084 -0.5391748811 -0.0498334236 0.1789978156
620296280.0 -0.0134017879 0.1805784197 0.1424533105 -0.5405258398 0.1425401269 -0.5403591156 -0.0486280119 0.1795776157
625296250.0 -0.0116992921 0.1810266004 0.1369582412 -0.5420464304 0.1367338151 -0.5418151963 -0.0466286147 0.1799176729
630296220.0 -0.0093792077 0.1814735548 0.1307760907 -0.5436673645 0.1308362694 -0.5434672508 -0.045006553 0.1806805094
635296190.0 -0.0072708141 0.1817843416 0.1248212846 -0.5444223252 0.1248333202 -0.5445240357 -0.0431043104 0.1812553237
640296160.0 -0.005335997 0.1817789169 0.118870525 -0.5459999617 0.1191768387 -0.5458448724 -0.0415909988 0.1816296216
645296130.0 -0.0027551353 0.1826659072 0.1131855686 -0.5471408955 0.1130888495 -0.5468055322 -0.0396923004 0.1817418975
650296100.0 -0.0010434013 0.1825612086 0.1072042892 -0.5483040426 0.1071015253 -0.5486651914 -0.0372602366 0.1826888375
655296070.0 0.0009525959 0.1830602702 0.1011865765 -0.549624403 0.1012912172 -0.5494460925 -0.0363912245 0.1836002902
660296040.0 0.0029209718 0.1832178234 0.0959142044 -0.5505284654 0.0949867971 -0.5504938247 -0.0341740381 0.1834410622
665296010.0 0.0052890477 0.1833029917 0.0889191331 -0.550938975 0.0890135224 -0.5511229708 -0.0324340466 0.1842855021
670295980.0 0.0071385846 0.183856697 0.0834406807 -0.5525648274 0.0833728001 -0.5521194297 -0.0311363022 0.1843360418
675295950.0 0.0089579833 0.1840069634 0.0777934783 -0.5529588884 0.0776517408 -0.5533081712 -0.029021987 0.1852542331
680295920.0 0.0109747628 0.1843479386 0.0717277105 -0.5540781938 0.0718056233 -0.5538966432 -0.0269592011 0.1849504306
685295890.0 0.0136974466 0.1844283129 0.0653060346 -0.5549469613 0.0655123245 -0.5547491123 -0.0254572766 0.1860674814
690295860.0 0.0150792166 0.184760918 0.0596937252 -0.5551646755 0.0593692699 -0.555481572 -0.0233890583 0.1863835599
695295830.0 0.0173547988 0.1844364694 0.0541507309 -0.555987985 0.0534496957 -0.5560311273 -0.0218333505 0.1868570137
700295800.0 0.0195165773 0.1849303185 0.0481572905 -0.556369186 0.0478915392 -0.5564070667 -0.0198444866 0.1869303445
705295770.0 0.0212211327 0.185261811 0.0418231878 -0.5572576765 0.0416555818 -0.5566267845 -0.0181966964 0.1877227859
710295740.0 0.0232063693 0.1847965296 0.0359334462 -0.5573026684 0.0356184438 -0.5576151008 -0.0162275043 0.1880782395
715295710.0 0.0253996219 0.1851232307 0.0298698295 -0.5577814623 0.0297018415 -0.557662006 -0.014330334 0.1879300939
720295680.0 0.0276097968 0.1846545422 0.0236450193 -0.5576484338 0.0234945017 -0.5579823154 -0.0126308933 0.1882879344
725295650.0 0.0288884931 0.1850399687 0.0182540649 -0.5581862127 0.0179347225 -0.5582630303 -0.0111194579 0.189129459
730295620.0 0.0306900852 0.1847687517 0.0115148523 -0.5577723565 0.0116481656 -0.5580143694 -0.0092214689 0.1895330331
735295590.0 0.0331125854 0.1848072393 0.0054871675 -0.5584662173 0.0056462533 -0.558432185 -0.0073533886 0.1891507004
740295560.0 0.034850224 0.1844644198 -1.90311e-05 -0.558164455 3.04251e-05 -0.558626373 -0.005770379 0.1898865586
745295530.0 0.0366480314 0.1843844822 -0.0057841589 -0.5572578383 -0.0056579805 -0.558222087 -0.0041639176 0.1897945657
750295500.0 0.038318361 0.1844812108 -0.0116666831 -0.5575493274 -0.0123262988 -0.5580631158 -0.0020050747 0.1901152191
755295470.0 0.0404510144 0.184180014 -0.0177588808 -0.558123253 -0.0180689196 -0.558302302 3.01087e-05 0.1906816889
760295440.0 0.042453031 0.1843607302 -0.0243362892 -0.5575440184 -0.0242850007 -0.55718991 0.0019500273 0.1898978477
765295410.0 0.0448862384 0.1835853219 -0.030223448 -0.5569999516 -0.0299119688 -0.5574302009 0.003482481 0.1906435691
770295380.0 0.0463369729 0.1834897897 -0.0358196205 -0.5565327542 -0.0362309329 -0.5572020055 0.0051907876 0.190708377
775295350.0 0.0481795576 0.1831082657 -0.0415755428 -0.5562361065 -0.04180555 -0.5561028687 0.0075428425 0.1905359425
780295320.0 0.0503906839 0.1829909457 -0.0476252934 -0.5552483021 -0.047876309 -0.5557427585 0.0093094774 0.1909085789
785295290.0 0.0520951052 0.1820894085 -0.0538033843 -0.5548790133 -0.0537110606 -0.5557267289 0.0103668912 0.1913358712
790295260.0 0.0538916411 0.1820433962 -0.0596067767 -0.5548850409 -0.0594354066 -0.5553250661 0.0125775856 0.1913212488
795295230.0 0.055901716 0.1813523388 -0.0655237002 -0.5538589378 -0.0658454352 -0.5542256433 0.0145052781 0.1902937527
800295200.0 0.0575621805 0.1815246471 -0.0711378999 -0.5530857678 -0.0714622194 -0.5532693603 0.0161531497 0.1909472723
805295170.0 0.0594899268 0.1811971193 -0.0773090623 -0.5523925985 -0.0774508229 -0.5528073052 0.0186340333 0.1910905541
810295140.0 0.0617229028 0.1806342634 -0.083405994 -0.5514779472 -0.0832065885 -0.551375573 0.020367689 0.1909426814
815295110.0 0.0637480503 0.1800956841 -0.089056737 -0.5509319686 -0.0890979259 -0.5508019692 0.0219622267 0.1909902073
820295080.0 0.0652378343 0.1796925663 -0.0948651414 -0.5496200653 -0.0949704949 -0.5498602037 0.0233661689 0.1915921972
825295050.0 0.0668599929 0.1789400929 -0.1009450575 -0.5485556927 -0.1011687589 -0.5485483276 0.0257793889 0.1914321289
830295020.0 0.0690146524 0.1782404559 -0.1068919726 -0.5471954626 -0.1070177629 -0.5477362639 0.0274864206 0.1907793856
