!Created with skrf (http://scikit-rf.org).
# Hz S RI R 50.0 
!freq ReS11 ImS11 ReS21 ImS21 ReS12 ImS12 ReS22 ImS22
300000.0 -0.2156973643 -0.0651023357 -0.0007517514 0.0008524249 0.000986746 0.0005789852 -0.7747343425 -0.1410882712
5299970.0 -0.2167261916 0.0080234679 -0.0001419833 -4.43602e-05 -6.58622e-05 -0.0001218986 -0.7851281904 -0.0077764106
10299940.0 -0.2133703097 0.0192505676 8.15814e-05 -5.9141e-06 -1.29247e-05 -5.0144e-06 -0.7878246141 -0.0035559595
15299910.0 -0.2086082469 0.0282401288 -4.40381e-05 -0.0001169482 -2.73535e-05 2.72714e-05 -0.7930678657 -0.0016570595
20299880.0 -0.2032193968 0.0358265429 0.0001221617 -0.0001496332 2.70199e-05 3.80916e-05 -0.7997795358 0.0021132447
25299850.0 -0.1976906511 0.0422230081 3.17497e-05 -6.08078e-05 -1.807e-06 0.0001107253 -0.8058907384 0.0080001359
30299820.0 -0.1921317318 0.0466824106 7.02714e-05 0.0001104446 -5.71294e-05 9.48092e-05 -0.8120225679 0.0161421582
35299790.0 -0.186406033 0.0504981304 7.1232e-06 -2.98738e-05 5.21639e-05 -0.0001484258 -0.816887038 0.0253223012
40299760.0 -0.1805505425 0.0537569096 -5.28753e-05 9.32305e-05 -0.000103789 -0.0001297548 -0.8215345566 0.0343557853
45299730.0 -0.1752846342 0.0552185991 -1.82433e-05 4.854e-05 -2.54031e-05 -0.0002133232 -0.8250489142 0.0442051812
50299700.0 -0.1709582672 0.0569360925 1.86891e-05 -0.0001310359 5.7313e-05 -0.0001469169 -0.8275025949 0.0542093406
55299670.0 -0.1664554643 0.0578996041 -9.06145e-05 0.0001021871 9.13537e-05 -3.96667e-05 -0.8294551778 0.0645868115
60299640.0 -0.1623979263 0.0589296914 1.60143e-05 0.0002110662 -4.10271e-05 0.0002070228 -0.8307519363 0.0741926281
65299610.0 -0.1587620419 0.0592558274 0.000111709 -9.35741e-05 5.4441e-05 -7.76447e-05 -0.8317664281 0.0845559019
70299580.0 -0.1557431242 0.059733384 -1.22494e-05 0.0001309837 -9.56775e-05 -6.94899e-05 -0.8318289966 0.0941024153
75299550.0 -0.1527782036 0.0599885584 0.0002063622 2.32481e-05 0.0001327493 0.0001169623 -0.8318882035 0.1044947877
80299520.0 -0.1498483798 0.0600403707 2.12251e-05 0.0001156546 -0.0001010438 6.0964e-06 -0.8321944812 0.1138671316
85299490.0 -0.1475979903 0.0598374754 0.0001185028 -4.27247e-05 0.000113328 0.0001242491 -0.831675451 0.1238317278
90299460.0 -0.1454530319 0.0600991044 0.0002310568 9.3776e-06 4.28054e-05 -0.0001510445 -0.8310782945 0.1331644215
95299430.0 -0.1432942468 0.0598068463 1.234e-07 0.0001848118 0.0002316427 0.0001104485 -0.8290400418 0.1424683069
100299400.0 -0.1416755931 0.0600085282 5.1405e-06 5.67498e-05 0.0001609999 2.17941e-05 -0.828494901 0.152534637
105299370.0 -0.1401216901 0.0600452274 0.0002608304 0.0001657734 4.46041e-05 9.6148e-05 -0.826907214 0.1608639469
110299340.0 -0.1386108278 0.0599961007 1.54598e-05 0.0002071703 -0.0001926655 1.84488e-05 -0.8253292326 0.1706467915
115299310.0 -0.1369785102 0.0597933961 0.0001466866 6.7752e-05 -3.3363e-05 7.59901e-05 -0.8236161489 0.1799054752
120299280.0 -0.1361403899 0.0597276787 0.0001008287 0.0001755231 -0.0001124853 9.43124e-05 -0.8223814932 0.1886140057
125299250.0 -0.1350369911 0.0598759801 4.7828e-06 0.0001388632 0.0001008078 0.0001382912 -0.8207906072 0.1979750122
130299220.0 -0.1340364897 0.0603428171 3.71953e-05 5.22929e-05 -2.34717e-05 -5.50075e-05 -0.8187922357 0.2068844911
135299190.0 -0.1333019419 0.0604855573 -0.0001831705 6.45674e-05 0.0001847367 0.0001350282 -0.8168401447 0.2161338709
140299160.0 -0.1324942063 0.0608099097 8.94967e-05 9.41694e-05 8.89657e-05 -1.09563e-05 -0.8141824734 0.2247948633
145299130.0 -0.1314036378 0.0612949181 -5.74325e-05 4.73931e-05 3.35397e-05 5.6805e-05 -0.8126183093 0.234198665
150299100.0 -0.1304944581 0.0615025892 0.0003272409 -7.19225e-05 2.50836e-05 -1.68144e-05 -0.8102988932 0.2433696666
155299070.0 -0.1301669668 0.0619057416 3.77621e-05 0.000156031 -3.24574e-05 0.0001308618 -0.8072887927 0.251482889
160299040.0 -0.1296828267 0.0622860163 8.6014e-06 -6.94564e-05 0.0002329908 4.85689e-05 -0.8050676895 0.2603827968
165299010.0 -0.1287567386 0.0627172442 -5.96384e-05 7.46002e-05 -1.75269e-05 2.09327e-05 -0.8022074733 0.2692110989
170298980.0 -0.1284010699 0.0636007905 4.59685e-05 0.0001547933 8.4771e-05 -9.63463e-05 -0.7991849811 0.2774632984
175298950.0 -0.1279691266 0.0642162572 -5.6715e-05 3.38932e-05 8.19377e-05 -2.76155e-05 -0.7971876164 0.2862459757
180298920.0 -0.127105844 0.0647074794 -1.78618e-05 0.0001610713 -1.4396e-06 -1.84705e-05 -0.793870714 0.2950720596
185298890.0 -0.1267168226 0.0651872441 -7.5655e-06 2.68882e-05 8.09893e-05 9.87197e-05 -0.7903952917 0.3033823634
190298860.0 -0.1261496833 0.065863271 -0.0003210408 0.0002626392 6.21446e-05 0.00034235 -0.7880518908 0.3121013517
195298830.0 -0.1258677796 0.0666260602 0.0002887277 -2.68423e-05 0.0001384428 7.14017e-05 -0.7844390496 0.3208423974
200298800.0 -0.125160127 0.0674661717 6.6258e-06 0.0001380097 -1.95814e-05 0.0001701805 -0.7820524188 0.3291744857
205298770.0 -0.1250447648 0.0679883643 0.0001075056 -4.83365e-05 -5.104e-05 0.0001089486 -0.7777270849 0.3373174436
210298740.0 -0.1244410861 0.0688765573 0.0001519052 5.88731e-05 -9.15868e-05 6.83382e-05 -0.7745547044 0.3456933909
215298710.0 -0.1240936337 0.0697552869 -4.67962e-05 0.0001266505 -3.36811e-05 9.4478e-05 -0.7715528457 0.3544667079
220298680.0 -0.1234753968 0.070336015 -7.17751e-05 0.0001301884 5.76049e-05 -3.4898e-05 -0.7671686549 0.3613805932
225298650.0 -0.1234972621 0.0712110566 0.0001881942 3.84454e-05 -0.0001466665 0.0002021526 -0.7636660955 0.3703975246
230298620.0 -0.1227629634 0.0720794645 0.0001138306 0.0001302365 4.91197e-05 6.73363e-05 -0.7596638221 0.3782109576
235298590.0 -0.1219430499 0.073294547 0.0002890683 0.000166414 -1.75168e-05 0.0002720636 -0.7558943445 0.3869703918
240298560.0 -0.1216791397 0.0740470903 6.44565e-05 -2.06707e-05 0.0001436539 -4.52491e-05 -0.7517673131 0.3948943775
245298530.0 -0.1211763101 0.0749550501 8.93529e-05 0.000170691 2.47419e-05 0.0001813474 -0.7475193716 0.4022581959
250298500.0 -0.1209213268 0.0758613872 -0.0001907178 0.0002564188 0.0001159029 0.0002112239 -0.7434114349 0.4102071812
255298470.0 -0.1204853183 0.0767461965 -0.000134898 0.0002512436 5.30906e-05 4.03524e-05 -0.7384908272 0.4173988443
260298440.0 -0.1197670123 0.0778525584 0.0001040049 4.33764e-05 8.4974e-06 0.0001856933 -0.734993063 0.4256339299
265298410.0 -0.1196645566 0.079146342 7.93017e-05 0.000113788 0.0002135842 4.86453e-05 -0.7304833995 0.4333343133
270298380.0 -0.1190136334 0.0799314503 0.0002464617 6.51482e-05 0.0001288264 0.0002432032 -0.7254579704 0.4407039038
275298350.0 -0.1186129113 0.080783935 8.11274e-05 0.0001510894 -4.33492e-05 6.8384e-05 -0.7207628595 0.4483814875
280298320.0 -0.1176756165 0.0815979422 -2.44251e-05 8.2291e-06 1.67942e-05 8.9738e-05 -0.715859047 0.4558621622
285298290.0 -0.1170664352 0.0831407312 0.0001012777 9.11894e-05 -6.47186e-05 -0.0001103835 -0.7110765384 0.4633153306
290298260.0 -0.1165806688 0.0840161463 0.0001566717 7.72921e-05 0.0002324028 0.0002217389 -0.7054870776 0.4708331431
295298230.0 -0.1159208272 0.0845711711 8.79885e-05 4.39633e-05 0.0001662865 5.55429e-05 -0.7011127082 0.4776109648
300298200.0 -0.1151944039 0.085844103 6.93972e-05 1.42918e-05 0.0001053856 5.3945e-06 -0.6959556197 0.4852442465
305298170.0 -0.1146264997 0.0866707416 0.0002217957 7.98163e-05 -2.68791e-05 3.92017e-05 -0.6900536447 0.4932799528
310298140.0 -0.1140227541 0.0881557742 0.0001089576 -1.71209e-05 0.000175609 -5.64978e-05 -0.6861518566 0.4995080366
315298110.0 -0.1133791574 0.0887579608 0.0001689397 7.21945e-05 7.0796e-06 8.44652e-05 -0.679918612 0.5062926472
320298080.0 -0.112752401 0.0896618532 4.44192e-05 2.37033e-05 6.37368e-05 -6.17969e-05 -0.6751974679 0.5142238986
325298050.0 -0.1118731921 0.0908282301 1.2742e-06 6.08524e-05 3.7475e-05 4.02814e-05 -0.6690417346 0.5208126493
330298020.0 -0.1114830739 0.0915336915 0.0001273513 0.0001589067 2.00724e-05 4.76248e-05 -0.6638420395 0.5283034913
335297990.0 -0.1109094333 0.0925734613 0.0004062985 -5.2398e-05 -0.0002303764 0.0001271313 -0.6586557599 0.5351859704
340297960.0 -0.1106969916 0.0938004418 7.06786e-05 6.7625e-06 0.0001670597 0.0001161598 -0.6523541701 0.542066779
345297930.0 -0.1099482024 0.0949441398 0.000119375 9.17927e-05 7.25385e-05 0.0002236434 -0.6471109211 0.5481859425
350297900.0 -0.1090741614 0.0963299961 -4.53266e-05 0.0002040919 -2.66767e-05 5.09527e-05 -0.6413160213 0.5552255326
355297870.0 -0.1083047101 0.0973700214 -3.47668e-05 -4.71775e-05 4.09223e-05 0.0001966033 -0.6356720062 0.5618111017
360297840.0 -0.1075267841 0.0982667161 0.000164553 -6.76883e-05 8.55628e-05 0.000134223 -0.629579913 0.5690405258
365297810.0 -0.1074096318 0.0995514671 -0.0001624125 0.0002206789 0.0002067975 4.19617e-05 -0.6235282121 0.574932821
370297780.0 -0.1063531443 0.100392696 0.0003267985 -5.86e-07 7.61427e-05 0.0002385146 -0.6176569008 0.5813155002
375297750.0 -0.1053016947 0.1015960925 0.0001997922 6.40008e-05 0.0001641721 0.000160017 -0.6121179051 0.5878857195
380297720.0 -0.1047637984 0.1026049325 0.0002511034 2.12399e-05 0.0002877848 6.59418e-05 -0.6057951768 0.5937788145
385297690.0 -0.1044033765 0.1039364669 0.0003700268 8.5347e-06 0.0001102607 0.0001196747 -0.5993434934 0.600617432
390297660.0 -0.1036864748 0.1050026372 0.0002401502 -4.26556e-05 0.0002200379 0.0001530273 -0.5930525479 0.6062405331
395297630.0 -0.1022341555 0.1061658588 0.0001424439 0.0001662137 0.000101945 0.0001440974 -0.5866451021 0.6127480363
400297600.0 -0.1013109399 0.1074329613 0.000202984 0.0001357238 0.0001245704 5.43505e-05 -0.5808551772 0.6185528046
405297570.0 -0.1008398309 0.1083848351 3.70722e-05 -2.17219e-05 7.56294e-05 4.49419e-05 -0.5741149105 0.6243493977
410297540.0 -0.09994546 0.1093472227 0.0001476614 -3.41994e-05 0.0001448849 0.0001487435 -0.5677474802 0.6307721491
415297510.0 -0.0989098337 0.1099635448 0.0002097163 0.0001036183 0.00012289 0.0002168218 -0.5613303336 0.6361217984
420297480.0 -0.0985713347 0.111690454 -0.0001931048 0.0002345251 9.54149e-05 -0.0001683377 -0.5546282007 0.6421989878
425297450.0 -0.0971398037 0.1126612541 7.1879e-05 2.44365e-05 0.0001627547 3.55009e-05 -0.5482796805 0.6474687593
430297420.0 -0.0961373882 0.1136094629 0.0001472876 0.0001921364 6.90278e-05 -2.18939e-05 -0.5412437808 0.6526166807
435297390.0 -0.0951374353 0.1146354328 0.0001751289 -6.79664e-05 0.000118501 -3.88058e-05 -0.5343904178 0.6583355605
440297360.0 -0.0945564773 0.115588557 0.0001593939 0.0002048628 0.0003354904 0.0001213972 -0.5275768007 0.6635490332
445297330.0 -0.0932732883 0.1164624232 -7.70294e-05 -9.36024e-05 0.0003206393 0.00010449 -0.5205741807 0.668859597
450297300.0 -0.0923869424 0.1176053704 0.0001123775 -6.65249e-05 0.0003078917 8.26166e-05 -0.5136479356 0.6737340188
455297270.0 -0.0917167834 0.1187999983 0.000203469 5.09004e-05 0.0001297127 -4.87852e-05 -0.5067934326 0.678390595
460297240.0 -0.0905963829 0.1198268829 0.0001339084 9.41853e-05 0.0002692677 3.76579e-05 -0.499761049 0.6839493068
465297210.0 -0.0894348276 0.1208691334 7.39974e-05 0.0001228801 0.0002656913 0.0003305023 -0.4922689381 0.6886698349
470297180.0 -0.0883295177 0.1215222466 7.70009e-05 5.1806e-05 6.7033e-06 0.0001267337 -0.4847804146 0.6944577351
475297150.0 -0.0875470154 0.1225714487 7.81388e-05 -0.0002019686 0.0002299503 0.0002567914 -0.4775306789 0.6984834812
480297120.0 -0.0863759442 0.123854735 0.0001471146 5.70037e-05 0.0002318249 0.0002972963 -0.4702060762 0.7035347767
485297090.0 -0.0855546978 0.1248754694 8.58336e-05 0.0002115147 0.0001505748 -9.06496e-05 -0.4631316985 0.7080532829
490297060.0 -0.0845351883 0.1258640689 0.000323509 0.0002407255 0.000305884 4.90289e-05 -0.4559537329 0.7126157334
495297030.0 -0.0833473426 0.1267195041 3.99663e-05 3.56962e-05 0.0002150592 7.25957e-05 -0.4486964798 0.7176827441
500297000.0 -0.0818553722 0.1274104155 7.21131e-05 0.0002287912 8.66367e-05 -9.3004e-05 -0.4415484042 0.7227312536
505296970.0 -0.0808789682 0.1285643373 9.17322e-05 0.0001642523 -3.14331e-05 4.56217e-05 -0.4340162283 0.7267406309
510296940.0 -0.0795415918 0.1293050342 3.14705e-05 3.68796e-05 0.0002615093 0.0001269494 -0.4262963387 0.7307429118
515296910.0 -0.0783274181 0.1304669005 0.0002283301 0.0001081931 0.00020176 0.0002669248 -0.418803299 0.7350179199
520296880.0 -0.0772845852 0.1314069454 0.0002352044 -1.75261e-05 0.0002986617 -3.77232e-05 -0.4112215541 0.7390854618
525296850.0 -0.0764657679 0.1319908483 -6.22637e-05 0.0001026545 -5.74457e-05 4.7481e-06 -0.4039109112 0.7432768689
530296820.0 -0.0749779315 0.1332163959 0.0001171666 2.37262e-05 9.24849e-05 5.9193e-06 -0.3964332211 0.7474073148
535296790.0 -0.0740844924 0.1341881059 4.91475e-05 -7.9891e-06 0.0002302564 -5.75898e-05 -0.3891208432 0.7514358285
540296760.0 -0.0728461687 0.1349998576 3.34168e-05 -6.95781e-05 0.0003209701 4.48713e-05 -0.3809784042 0.7552264792
545296730.0 -0.0717161058 0.1359235778 1.25944e-05 5.30536e-05 -4.3052e-06 0.0002000945 -0.373659152 0.7589180344
550296700.0 -0.0702634796 0.1364664902 0.0002108793 -6.22401e-05 0.0001704997 0.0002795322 -0.366370946 0.7631827431
555296670.0 -0.0694504324 0.1372241952 0.0002126144 6.92323e-05 0.0002921713 0.0001130561 -0.3582665217 0.7673430434
560296640.0 -0.0680291502 0.1382599712 0.0002927053 6.27887e-05 8.75336e-05 -8.27999e-05 -0.3504124469 0.7711380601
565296610.0 -0.0671103013 0.139023821 0.0001998178 -5.5017e-05 0.0002010604 -5.07566e-05 -0.3426853186 0.7736045999
570296580.0 -0.065799956 0.1398015049 0.000258976 1.4858e-06 0.0004210533 -8.11408e-05 -0.3347266731 0.778072559
575296550.0 -0.064281079 0.1407093947 6.15637e-05 0.0001081455 0.0001164784 -8.09664e-05 -0.3267612047 0.7803632575
580296520.0 -0.0631415742 0.141661717 0.0003231721 0.0001284466 4.29955e-05 0.0001884222 -0.3188541024 0.7836688957
585296490.0 -0.062042994 0.1419959925 0.0002049803 5.2747e-05 0.0002764462 3.69074e-05 -0.310790713 0.7874336223
590296460.0 -0.0604349869 0.1431286936 0.0003959559 -9.02789e-05 0.0001379831 -2.6474e-05 -0.303179735 0.7901916719
595296430.0 -0.0595206615 0.1436514218 0.0004039709 8.97139e-05 1.97098e-05 0.0001908411 -0.2948400134 0.792327237
600296400.0 -0.0582365913 0.1447950245 8.62459e-05 0.0002327621 -1.04983e-05 6.03291e-05 -0.2873982934 0.7952117423
605296370.0 -0.0571973527 0.1449743406 2.29731e-05 -7.6688e-05 0.0002149272 0.0001759214 -0.2782337023 0.7983826346
610296340.0 -0.0555622276 0.1461054277 0.0004757361 0.0002125713 0.0001538414 -0.0001086282 -0.270513908 0.8011411302
615296310.0 -0.053883392 0.1465278048 0.0004717435 -0.0001534116 0.0003157601 0.000197786 -0.2619530863 0.8030220225
620296280.0 -0.0528964186 0.1470864678 0.0003470277 -0.0001335537 0.0002291092 -6.86131e-05 -0.2546335055 0.8063476461
625296250.0 -0.0519227197 0.1479525145 0.0002943784 0.0002100007 0.0002557226 7.28126e-05 -0.2460205278 0.8078815525
630296220.0 -0.0498625505 0.1488394783 0.000472691 -1.56975e-05 0.0002036802 8.764e-05 -0.2377789122 0.8105959805
635296190.0 -0.0486976271 0.1494029374 0.0003323462 0.0002762692 -1.4115e-05 7.0663e-06 -0.2299014523 0.8129716459
640296160.0 -0.0477060667 0.1500050762 0.0002126416 -0.0001426273 0.0002859237 0.000146355 -0.2213594563 0.8154187027
645296130.0 -0.0461533793 0.150960125 0.0004199281 5.48838e-05 5.41545e-05 6.12932e-05 -0.2134108307 0.8172576582
650296100.0 -0.0447316217 0.151457787 0.0001338226 -2.85534e-05 0.0002963771 -4.92331e-05 -0.2051110709 0.8186036714
655296070.0 -0.0433030393 0.1519622124 0.0002753171 0.0001230055 0.0003081136 -0.0002025883 -0.1963503404 0.8206832648
660296040.0 -0.0421047687 0.1524011044 0.000170783 -0.0002725387 0.0002613939 5.55147e-05 -0.1880737477 0.8232774774
665296010.0 -0.0401221928 0.1528083566 0.0002675632 2.66891e-05 0.0002114058 0.0001119658 -0.1795101833 0.8254246774
670295980.0 -0.0394806685 0.1537893421 0.0001889655 1.88073e-05 0.000116132 0.000166598 -0.1725940156 0.8269052224
675295950.0 -0.037479048 0.1544154546 1.67891e-05 3.5255e-06 0.0002668995 0.0001367166 -0.1636890952 0.8288313107
680295920.0 -0.0362063147 0.1549057417 0.0003309372 -8.99357e-05 0.00040144 -4.28398e-05 -0.1552650799 0.8311015587
685295890.0 -0.0348146681 0.1557099681 0.0002831295 5.1452e-05 0.0002077329 -0.0001693053 -0.1463442419 0.8321159526
690295860.0 -0.0334996579 0.1561152738 0.000271148 0.0004107563 0.0001958062 -4.15377e-05 -0.1381121829 0.8336679783
695295830.0 -0.0320564014 0.1563765938 0.0002701788 -0.000127025 9.17319e-05 9.99724e-05 -0.1298233162 0.8348583133
700295800.0 -0.0307829488 0.1567808769 0.0002306941 9.82563e-05 0.0004302531 9.73734e-05 -0.1226174751 0.8359655408
705295770.0 -0.0293528043 0.157556151 0.0003171478 -6.35292e-05 0.0002568885 0.0001173265 -0.1140176859 0.8382107796
710295740.0 -0.0277361802 0.1580193216 0.0003603692 -1.8666e-06 0.0002604135 8.57613e-05 -0.1049258749 0.8385637423
715295710.0 -0.0263100801 0.1583990256 0.0003191302 4.03401e-05 0.0002839802 -0.0002306878 -0.0966036669 0.8386894501
720295680.0 -0.0249438983 0.1587491139 0.000124923 -8.43466e-05 0.0003713278 -2.23517e-05 -0.0882161489 0.8402016949
725295650.0 -0.0233093578 0.1595543 0.0005611268 -0.0001073172 0.0004393672 -2.14963e-05 -0.0802664916 0.8420235535
730295620.0 -0.021655156 0.159773131 0.0001497727 -8.52606e-05 0.000268667 -8.72467e-05 -0.0727218126 0.8417762296
735295590.0 -0.020514434 0.1603158626 0.0004362347 -2.26313e-05 0.0003860076 6.7982e-06 -0.0634771133 0.8426767115
740295560.0 -0.0190333658 0.1607440048 0.0002396108 -9.4828e-06 0.0004435541 5.326e-07 -0.0543371145 0.8437224342
745295530.0 -0.0177162901 0.1612502614 0.000170236 0.0001592975 0.0003537954 -0.0001682537 -0.0463759011 0.8439119556
750295500.0 -0.0158554094 0.161363849 0.0001993843 -1.1196e-06 0.0005003082 2.3499e-06 -0.0382049307 0.8437012467
755295470.0 -0.0142099832 0.1614197003 0.0003536005 7.63004e-05 0.0002563106 -0.0002798308 -0.0296995733 0.8438363016
760295440.0 -0.0130007165 0.1618237788 6.8676e-05 6.78119e-05 0.000372094 -1.6631e-06 -0.0209178235 0.8443442141
765295410.0 -0.0115068341 0.1622757122 0.0003651779 -0.0001830487 0.0001078989 6.8276e-06 -0.012813362 0.8449547624
770295380.0 -0.0099659982 0.1626356339 0.0003941486 -5.73451e-05 0.0003372146 -9.27991e-05 -0.0044734866 0.8448072509
775295350.0 -0.0089596624 0.1626474573 0.0002211991 5.8829e-06 0.0002531598 0.000217617 0.0032578669 0.844154429
780295320.0 -0.0070688648 0.1631580656 0.0001819779 5.31084e-05 0.0001981883 5.1029e-05 0.0120516742 0.8441630072
785295290.0 -0.0058820552 0.163266008 0.0002602351 -0.0001293259 -3.92573e-05 4.36456e-05 0.0206897953 0.8438021252
790295260.0 -0.0037442014 0.163719374 0.0001770958 0.0001007864 0.0002935519 1.97959e-05 0.0300251735 0.8444179447
795295230.0 -0.0024890588 0.1641327159 0.0002519169 -1.56299e-05 0.0004173397 7.4886e-06 0.0381382362 0.8431557093
800295200.0 -0.0010846873 0.1641320825 0.0001528949 -0.0001880761 0.0003151858 -3.18994e-05 0.0473321298 0.8427462812
805295170.0 0.0006782324 0.1642273579 0.0002682648 -6.99143e-05 0.0002294312 0.0002492639 0.0548163825 0.8426777945
810295140.0 0.0021165757 0.1645474853 0.0001173012 -0.0001547316 0.0004574157 -0.0001511086 0.063286898 0.8414360194
815295110.0 0.0035694328 0.1647072925 0.0003757349 -1.02923e-05 0.0001678432 -0.0001677657 0.0716106143 0.8412310116
820295080.0 0.0051045935 0.1649445016 0.0002874621 0.0003647042 0.0003077906 9.71126e-05 0.0802795031 0.8405033932
825295050.0 0.006983644 0.1648336594 0.0001617692 -0.000190893 2.40116e-05 -5.24564e-05 0.0883673125 0.8399875017
830295020.0 0.0085025798 0.1651028818 0.0002563791 -0.0001017875 0.0006196343 0.0001405327 0.0976678783 0.8385709985
835294990.0 0.0098660689 0.1652434262 0.0002176998 0.0001534247 0.0003960007 -0.0001688477 0.105653101 0.8374556489
840294960.0 0.0115332268 0.1654106357 0.0004147903 -0.0001669997 0.0002756002 -0.0002060846 0.1135218898 0.8365609275
845294930.0 0.012912091 0.1654702047 0.0002556341 4.68179e-05 0.0003898279 -6.8748e-06 0.1217185937 0.835247154
850294900.0 0.0146246989 0.165637976 0.000355251 -0.0002220927 0.0002769565 -0.0001089121 0.1297041266 0.8342311556
