!Created with skrf (http://scikit-rf.org).
# Hz S RI R 50.0 
!freq ReS11 ImS11 ReS21 ImS21 ReS12 ImS12 ReS22 ImS22
300000.0 -0.3178719933 -0.1286219392 0.3707359945 0.0649486611 0.3719591802 0.0654021629 -0.3142332588 -0.1304483936
5299970.0 -0.3251261385 0.0026894336 0.3785700002 0.0033362862 0.3786334546 0.0032850293 -0.3259605758 0.0020552151
10299940.0 -0.3225130119 0.0144426027 0.3801680096 0.0026461033 0.3799391686 0.0030496044 -0.3230301706 0.0127935252
15299910.0 -0.3189708073 0.0224558448 0.3821046219 0.0027016667 0.3824277746 0.002641805 -0.3208581677 0.0196235563
20299880.0 -0.3153795366 0.0289531783 0.3851557234 0.0018504494 0.3852419305 0.0017506833 -0.3179300113 0.026033967
25299850.0 -0.3114915998 0.0349303492 0.388554792 0.0005378649 0.3884101681 0.0003584361 -0.3148854986 0.0312882049
30299820.0 -0.3081382597 0.0392594001 0.3918899992 -0.0021306798 0.3922265964 -0.0019734148 -0.3119723768 0.0359043703
35299790.0 -0.3044840675 0.0433553649 0.3950249006 -0.0049553964 0.3953277404 -0.0053173504 -0.3091599637 0.0399847212
40299760.0 -0.3012807967 0.0469554401 0.3985405584 -0.0086615159 0.3984714366 -0.0085924052 -0.3064124825 0.0434078549
45299730.0 -0.2978778176 0.0499791773 0.4010838494 -0.0127135547 0.4015031463 -0.012887302 -0.3036867668 0.046603677
50299700.0 -0.2948788645 0.052674998 0.4035864413 -0.0169898872 0.4038349279 -0.0174361892 -0.3011633114 0.0498500121
55299670.0 -0.2922467427 0.0552435745 0.4059903598 -0.0215580838 0.4058818982 -0.0219808567 -0.2991492502 0.0523317835
60299640.0 -0.289727479 0.0577821466 0.4080657475 -0.0268895668 0.4081719296 -0.0269040371 -0.2971550179 0.0547432846
65299610.0 -0.2872818642 0.0601930555 0.4099379479 -0.0313719308 0.4096660033 -0.0318303455 -0.2951704018 0.0575648519
70299580.0 -0.2852548941 0.0622751765 0.4109179592 -0.0365777394 0.4110673491 -0.0364859075 -0.293703002 0.0600280131
75299550.0 -0.2836615766 0.0643103465 0.4117773142 -0.0421934736 0.4120524957 -0.0422318374 -0.2915815168 0.0623613618
80299520.0 -0.2818234022 0.0664714499 0.4124591092 -0.0471709437 0.4130116997 -0.0474613873 -0.2904654677 0.0647861532
85299490.0 -0.27995502 0.0684290646 0.4131633413 -0.0527853265 0.4135992256 -0.0521774665 -0.2891019492 0.0669801091
90299460.0 -0.2782641778 0.070731543 0.4136217896 -0.0576246741 0.4135432532 -0.0577042171 -0.2877245774 0.0691824435
95299430.0 -0.2767772164 0.0725542863 0.4140999387 -0.0627272958 0.4141138323 -0.063057879 -0.2865547917 0.0719486121
100299400.0 -0.2752406008 0.0743627807 0.4138913933 -0.0678373454 0.4140413158 -0.0683930424 -0.2852946169 0.0743378543
105299370.0 -0.2742436414 0.076724616 0.4139055504 -0.073209437 0.4142611031 -0.0733969923 -0.2837987223 0.0761866919
110299340.0 -0.2728187427 0.0787940601 0.4137491527 -0.0782072412 0.414025817 -0.078007691 -0.2830514832 0.0787746859
115299310.0 -0.2715603987 0.0811940051 0.4133794187 -0.0836689896 0.4136369391 -0.0835391169 -0.2822780391 0.0811953149
120299280.0 -0.2706430346 0.0833289362 0.4132803311 -0.088958335 0.4133824704 -0.0891154405 -0.2808131216 0.0834610229
125299250.0 -0.2693506088 0.0852338262 0.4127997999 -0.0938397804 0.4125718329 -0.0936127854 -0.2799494069 0.0858113357
130299220.0 -0.2680653825 0.0871305773 0.4117129858 -0.0988616183 0.4119173162 -0.0995997396 -0.2788699222 0.0883163072
135299190.0 -0.2673432681 0.0897452052 0.4110783839 -0.1036185235 0.4111813099 -0.1040852394 -0.2780809118 0.0906210944
140299160.0 -0.2661324267 0.0923180526 0.410551934 -0.1091057734 0.4103197351 -0.1089407148 -0.2777394516 0.0928724846
145299130.0 -0.2654267601 0.0947167287 0.4095701961 -0.1136984185 0.4094230113 -0.1140142454 -0.2764844069 0.0958184629
150299100.0 -0.2642769154 0.096849699 0.408381777 -0.1188295642 0.4086279185 -0.1191179644 -0.2758060352 0.0984469422
155299070.0 -0.2629758903 0.0994600354 0.406766579 -0.1239780289 0.4075101301 -0.1238931581 -0.2745097179 0.1010148202
160299040.0 -0.2622030342 0.1019849346 0.4061908301 -0.1284657357 0.406266762 -0.1288299577 -0.2738629706 0.1036360316
165299010.0 -0.2612057373 0.1042268304 0.4050632418 -0.1331993968 0.4050787111 -0.1336248672 -0.2728928648 0.1061056166
170298980.0 -0.2603423068 0.1066849186 0.403399705 -0.1386109935 0.403852566 -0.1382506849 -0.2722352185 0.1084520549
175298950.0 -0.2592740569 0.1092288453 0.4020700978 -0.1429167003 0.4025563321 -0.1435319333 -0.2710007619 0.11147662
180298920.0 -0.2584854741 0.1117771914 0.4006134724 -0.1483076372 0.400783169 -0.1483124612 -0.2700001593 0.1141000381
185298890.0 -0.2569465396 0.1143484546 0.3992637201 -0.152409252 0.3993630765 -0.1525618204 -0.2687447264 0.1164934505
190298860.0 -0.2556993508 0.117071203 0.3969353814 -0.1573508721 0.3978285384 -0.1571352204 -0.2678778425 0.1193849463
195298830.0 -0.2550279821 0.1195598705 0.3961029564 -0.1616292268 0.3962227272 -0.1621236029 -0.2670266435 0.1218668432
200298800.0 -0.2534340651 0.1219273066 0.3940645864 -0.1668604062 0.3944648249 -0.1667409035 -0.2657270404 0.1246098593
205298770.0 -0.2529738188 0.1245768581 0.3923034827 -0.1706169182 0.3926984527 -0.1707694464 -0.2644712345 0.1270640307
210298740.0 -0.2515291918 0.1277534679 0.3905347732 -0.1756164576 0.3905814432 -0.1758697506 -0.263667623 0.1299144102
215298710.0 -0.2502238591 0.1299437053 0.3888245067 -0.1800575013 0.3886828975 -0.1799236403 -0.262124877 0.132330089
220298680.0 -0.249329557 0.1323778349 0.3866659039 -0.1849115131 0.3867024324 -0.1847120067 -0.2611732278 0.1353681548
225298650.0 -0.2478072882 0.1352903696 0.3843578592 -0.1888369496 0.384703787 -0.1889632602 -0.259846469 0.1381817559
230298620.0 -0.2462286311 0.1379545116 0.3824614162 -0.1935159104 0.3829821322 -0.1936189222 -0.2588157347 0.1403946976
235298590.0 -0.2455296343 0.1406013035 0.3806840702 -0.1983449631 0.3809383871 -0.1982316736 -0.2574636667 0.1437915784
240298560.0 -0.2440868241 0.1433819168 0.3782788214 -0.2020140555 0.3785384088 -0.2019904825 -0.2562083849 0.1458536614
245298530.0 -0.2427735539 0.1456945978 0.3759614781 -0.2064268672 0.3761816673 -0.2065023804 -0.2546132656 0.1486730401
250298500.0 -0.2413482893 0.148392833 0.3737387771 -0.2105311745 0.3740993891 -0.2107157665 -0.2533767444 0.1516785836
255298470.0 -0.2399902624 0.1510810619 0.3716826274 -0.2148100076 0.3720134212 -0.2152999215 -0.2519944182 0.1541912378
260298440.0 -0.2386675096 0.1536202858 0.3696623236 -0.2184910157 0.3696194824 -0.2189597481 -0.2509111671 0.156609097
265298410.0 -0.2373028136 0.1562216397 0.3671498114 -0.2235505942 0.3668210829 -0.2236592941 -0.2489468531 0.1595340122
270298380.0 -0.2357122178 0.1587279185 0.3640357485 -0.2276008388 0.3645685741 -0.2276232656 -0.2474185103 0.1623614189
275298350.0 -0.2344682183 0.1614632604 0.361622975 -0.2310557916 0.3618034365 -0.231733944 -0.2457943992 0.1649569761
280298320.0 -0.2331497596 0.164357247 0.3595325664 -0.2358289325 0.3596057487 -0.2357625563 -0.2444584833 0.167445791
285298290.0 -0.231411201 0.1665470435 0.3567074644 -0.2397128438 0.3570634146 -0.2397345547 -0.2428369302 0.1704008855
290298260.0 -0.2298614828 0.1694652395 0.3544836642 -0.2437850788 0.354406615 -0.243738445 -0.240684805 0.1729019182
295298230.0 -0.228593546 0.171498876 0.3516818463 -0.2479013144 0.3519896217 -0.247823185 -0.2395792051 0.1754156381
300298200.0 -0.2267868428 0.1742515128 0.3490353767 -0.2518234491 0.3488936647 -0.2514700121 -0.2374881431 0.1780787108
305298170.0 -0.2251086623 0.1764641304 0.3461415505 -0.2555315507 0.3463928029 -0.2556104094 -0.2358449206 0.1802861524
310298140.0 -0.223365816 0.1788977251 0.3432779325 -0.2596036771 0.3435545524 -0.2594423361 -0.2340136111 0.1828879561
315298110.0 -0.2219797173 0.1811969466 0.3405061048 -0.263666593 0.3404552712 -0.263643228 -0.2321471154 0.1854923417
320298080.0 -0.220181526 0.1838628458 0.337344987 -0.2676658607 0.3378342582 -0.2673324557 -0.2304853252 0.1876757696
325298050.0 -0.2188028942 0.1856913992 0.3344286583 -0.2710759748 0.3349171051 -0.2713354061 -0.2283111857 0.1903558351
330298020.0 -0.2170429854 0.1885308703 0.3314483798 -0.2750517615 0.3316066911 -0.2751191826 -0.2270226684 0.1928282111
335297990.0 -0.2152207539 0.190614513 0.3281431982 -0.2784420756 0.3287153892 -0.2791713828 -0.2251016393 0.1956219788
340297960.0 -0.2138982529 0.1931942983 0.3253076132 -0.2824548361 0.3250116536 -0.2823565988 -0.2234622315 0.1978786873
345297930.0 -0.2118719408 0.1955121669 0.3220258886 -0.2858849873 0.3219317001 -0.2858552895 -0.2209742902 0.2001506618
350297900.0 -0.210052506 0.1979846651 0.3189564521 -0.2892845052 0.3188461287 -0.2892320387 -0.2193846452 0.2025294169
355297870.0 -0.2083192573 0.2006205214 0.3154016966 -0.2926333302 0.3155791197 -0.292347715 -0.2172858216 0.2054090862
360297840.0 -0.2065108818 0.2027373308 0.3121683341 -0.2962321739 0.3123263647 -0.2965777384 -0.2151256062 0.2079559756
365297810.0 -0.2045553934 0.2052557342 0.3090090093 -0.2999207073 0.3089284466 -0.299661798 -0.2133381982 0.2099859458
370297780.0 -0.2024320995 0.2069747165 0.3049374116 -0.3031190042 0.3055398694 -0.3030794324 -0.2113025259 0.2123861014
375297750.0 -0.2004404483 0.2096350435 0.302207739 -0.3063946834 0.3025898702 -0.3064475683 -0.2089842942 0.2150736046
380297720.0 -0.198931761 0.2121270487 0.2994335278 -0.3102273463 0.2988888171 -0.3099636738 -0.2066938311 0.2176769273
385297690.0 -0.1966344042 0.2142991915 0.2953625027 -0.3130725515 0.2952487612 -0.3133770852 -0.20447398 0.2202641208
390297660.0 -0.1943367529 0.216186049 0.2920713934 -0.3158469872 0.2920706695 -0.3164415187 -0.201785213 0.2219694952
395297630.0 -0.192094774 0.2184842928 0.2884528043 -0.319077265 0.2883603004 -0.3191078241 -0.2000220948 0.2241373458
400297600.0 -0.190322063 0.2203662479 0.285117292 -0.3223557577 0.2853723417 -0.3225676666 -0.1976606433 0.2266845069
405297570.0 -0.1878939572 0.2224279429 0.2816095858 -0.3255383025 0.2818287545 -0.3255685588 -0.1952256497 0.2288532004
410297540.0 -0.1853999183 0.225023724 0.2774524834 -0.3291778835 0.2777330061 -0.3285702607 -0.1926258443 0.2312547219
415297510.0 -0.183446374 0.2269901969 0.2745131393 -0.3318791679 0.2746589677 -0.3318834905 -0.190304316 0.2333207305
420297480.0 -0.1811566148 0.2287674549 0.2706144059 -0.3351948432 0.2706845391 -0.3345164993 -0.1875701132 0.2357815545
425297450.0 -0.1784209748 0.2307807888 0.2666828556 -0.3376643941 0.2669169744 -0.3375837857 -0.1855168941 0.2375689337
430297420.0 -0.1760910806 0.2329765928 0.2630145645 -0.3406761123 0.2634990891 -0.3403421667 -0.1827153541 0.2397828736
435297390.0 -0.1742365922 0.2346892858 0.2592204928 -0.3437510928 0.2590744292 -0.3435110992 -0.1805589917 0.2423359779
440297360.0 -0.1713730902 0.2366602243 0.2553576301 -0.3462771514 0.2554801595 -0.3463716201 -0.1782323684 0.2441240923
445297330.0 -0.1688297186 0.2382500091 0.2516990007 -0.3487726636 0.2518513978 -0.3491467378 -0.1754485077 0.2462202187
450297300.0 -0.1666858886 0.2402948115 0.2477529903 -0.3516286172 0.2480080969 -0.351786674 -0.1730713741 0.248334654
455297270.0 -0.1644110021 0.2423999867 0.2442672573 -0.3545718797 0.2443622487 -0.3542656341 -0.1702546499 0.2501952207
460297240.0 -0.161338259 0.2441855869 0.2399954881 -0.3576019336 0.2400982559 -0.3570915769 -0.1676851112 0.2521134103
465297210.0 -0.1589788667 0.2457826473 0.2357219825 -0.3598325215 0.235568542 -0.359823664 -0.1646279856 0.2545480687
470297180.0 -0.1565674566 0.2475531164 0.2320980366 -0.3618278214 0.232057996 -0.3621187719 -0.1618987286 0.2561238145
475297150.0 -0.1538718901 0.249637535 0.2282309379 -0.3648168025 0.2283276883 -0.3646235421 -0.1594536987 0.2578315662
480297120.0 -0.1507260726 0.251487149 0.2239231753 -0.3670170383 0.224111019 -0.3669609014 -0.1570694704 0.2597510024
485297090.0 -0.1488869942 0.2525787837 0.2200413839 -0.3692652606 0.2199404476 -0.3695297384 -0.154206415 0.2616920144
490297060.0 -0.1450466666 0.2545826977 0.2155573782 -0.3723602138 0.2158519677 -0.3717392221 -0.1515103478 0.2629858428
495297030.0 -0.1430679008 0.2561130404 0.2123468303 -0.3742621924 0.21186108 -0.3740478955 -0.1481575365 0.264703407
500297000.0 -0.1403728618 0.2581274544 0.2076793902 -0.3762555984 0.2078715247 -0.3764610754 -0.1457678202 0.2666240385
505296970.0 -0.1371380535 0.2594383455 0.2040472494 -0.378779796 0.2034673671 -0.3785956203 -0.1428682296 0.268264785
510296940.0 -0.1347012283 0.2610959308 0.1995819952 -0.3817750338 0.1997649719 -0.3813941259 -0.139707733 0.270193023
515296910.0 -0.1318724961 0.2628634634 0.1951524031 -0.383181423 0.1948509914 -0.3830074742 -0.1373146735 0.2713326972
520296880.0 -0.1290386297 0.2642362467 0.1912240302 -0.385063781 0.1906070331 -0.384905125 -0.1339036623 0.2734633904
525296850.0 -0.1261511126 0.2657406465 0.1867246413 -0.387341466 0.1864181144 -0.3871762044 -0.1311567473 0.2747590027
530296820.0 -0.1233681767 0.2668402101 0.182073863 -0.3891024203 0.1822891006 -0.3889319359 -0.1286425305 0.2759901743
535296790.0 -0.1198534216 0.2686434849 0.1779177018 -0.3908090971 0.1782502921 -0.3911642396 -0.1254571216 0.2778644544
540296760.0 -0.1169603791 0.2701764632 0.1738744855 -0.3930618229 0.173378515 -0.3928289814 -0.1223530037 0.2791154654
545296730.0 -0.1145868474 0.2718390269 0.1695363564 -0.3949501142 0.1693374957 -0.3946781301 -0.1196317552 0.2807310961
550296700.0 -0.1112626288 0.2728165017 0.1651973915 -0.3964357949 0.1650507082 -0.3969089403 -0.1164800078 0.282008942
555296670.0 -0.1082727009 0.2742105962 0.1608596422 -0.3984536965 0.1609351404 -0.3982829046 -0.1137710158 0.2827613628
560296640.0 -0.1051095864 0.2754044 0.1560662717 -0.3999351243 0.1564394772 -0.4001018371 -0.1105530077 0.2849219863
565296610.0 -0.1026778182 0.2769829571 0.1523163279 -0.4015725798 0.1522847507 -0.4011229811 -0.1075848774 0.2859650916
570296580.0 -0.0996157381 0.2782582582 0.1476702681 -0.403198865 0.1476502498 -0.4031041589 -0.104464258 0.2870037811
575296550.0 -0.0962007465 0.2793390237 0.143308896 -0.4045283354 0.1430779289 -0.4046356357 -0.1016061696 0.2881739772
580296520.0 -0.0935336724 0.2805768812 0.1390436443 -0.4062184 0.138749584 -0.40649555 -0.0986181324 0.2896205848
585296490.0 -0.090192839 0.2819617376 0.1346862426 -0.4078117988 0.1338586811 -0.4076093279 -0.0951206237 0.2911070298
590296460.0 -0.0865750535 0.2831069222 0.1302240273 -0.409126858 0.1298909704 -0.4091401408 -0.0928261724 0.2915549715
595296430.0 -0.0838978595 0.2841215606 0.1248696316 -0.4104313312 0.124827425 -0.4106418835 -0.0894470257 0.2932718553
600296400.0 -0.0808229872 0.2850982838 0.1204893103 -0.4115801653 0.1207586267 -0.4117095625 -0.086285408 0.2939469235
605296370.0 -0.0779838736 0.2863337 0.1168136758 -0.4130203061 0.1160409144 -0.413005121 -0.0829264152 0.2951858362
610296340.0 -0.0744144654 0.2874166024 0.1115295773 -0.4137442331 0.1121280183 -0.41410376 -0.0800016865 0.2964005457
615296310.0 -0.0712888038 0.2882977953 0.1074061846 -0.4152045315 0.1070983238 -0.4154319214 -0.0767865688 0.2971803152
620296280.0 -0.0685485697 0.2900626851 0.1027830898 -0.4166627297 0.1028049288 -0.416672934 -0.0741126742 0.298507384
625296250.0 -0.0656914422 0.2903509867 0.0982030392 -0.4176902696 0.0981520057 -0.4175266184 -0.0706013533 0.2989891727
630296220.0 -0.062227431 0.291809318 0.0935260202 -0.4186864254 0.0934177548 -0.4186697901 -0.0670014081 0.3000160098
635296190.0 -0.0593706388 0.2927593013 0.0894383541 -0.4194117417 0.0892795567 -0.4193118639 -0.0642795137 0.3005877445
640296160.0 -0.0560189123 0.2932561353 0.0848265835 -0.420440373 0.0842958553 -0.4202817072 -0.0609069605 0.3016380064
645296130.0 -0.0526786049 0.2944249475 0.0796342855 -0.4209008243 0.079724203 -0.4209449027 -0.0580066142 0.301739992
650296100.0 -0.0496278303 0.2948466436 0.0753810525 -0.4221899895 0.0748657078 -0.422161388 -0.0544036176 0.3030573001
655296070.0 -0.04686272 0.2959246099 0.0706291314 -0.4229183992 0.0705244411 -0.4224713567 -0.0515281188 0.3037108483
660296040.0 -0.0435544143 0.2966003766 0.0663605984 -0.423618822 0.0657876558 -0.4232949412 -0.0481800654 0.3044567819
665296010.0 -0.0403803173 0.2971971415 0.061158306 -0.4234837347 0.0614549227 -0.4238541819 -0.0450461338 0.3049605899
670295980.0 -0.0372029444 0.2981150219 0.0568081289 -0.4246142292 0.0568681467 -0.4241456621 -0.0424549941 0.3054750771
675295950.0 -0.0343077135 0.2987464601 0.0524578025 -0.4248997508 0.052171234 -0.4250588395 -0.0386903417 0.3064910193
680295920.0 -0.0310063326 0.29938433 0.0475103861 -0.4252188706 0.0474216257 -0.4253281464 -0.0349834822 0.306450336
685295890.0 -0.027938824 0.3001600347 0.0430201604 -0.4261687885 0.0428591383 -0.4261392828 -0.0323832318 0.307310927
690295860.0 -0.0248365204 0.3005387658 0.038529478 -0.4266048441 0.0378979599 -0.4266398394 -0.0290008136 0.3078989194
695295830.0 -0.0216584017 0.3008196985 0.0343055722 -0.4267955515 0.0336198031 -0.4268909672 -0.0260181683 0.3081700649
700295800.0 -0.0184471692 0.3017968896 0.0295761927 -0.4272467851 0.029103152 -0.4271833103 -0.0222916542 0.3085103715
705295770.0 -0.0155596169 0.3022382813 0.0249641673 -0.427736248 0.0245203029 -0.4274184353 -0.0193742477 0.3091655056
710295740.0 -0.0125947103 0.3021485075 0.0203389311 -0.427682056 0.0198968003 -0.4278909488 -0.0160546875 0.3093428931
715295710.0 -0.0091728065 0.3029836974 0.0155713971 -0.4280635958 0.0150828149 -0.427888839 -0.0127039111 0.3094580128
720295680.0 -0.0057222521 0.3030957332 0.0109223747 -0.4278626633 0.0107460437 -0.4280893402 -0.00969823 0.3099590989
725295650.0 -0.0031275394 0.303748944 0.0064959075 -0.4278808752 0.0059936852 -0.4282204772 -0.0065401204 0.3106378307
730295620.0 -0.0001436391 0.3040224659 0.0016924016 -0.4279409008 0.0014321301 -0.4277088671 -0.0032174788 0.3107030563
735295590.0 0.0029930159 0.3044346393 -0.0029865634 -0.4280406779 -0.003069332 -0.4279718795 -5.0028e-06 0.3104807832
740295560.0 0.0057907748 0.3041073702 -0.0078491677 -0.427851192 -0.0077586207 -0.4281542074 0.0033533612 0.3109223228
745295530.0 0.0091262685 0.3045182701 -0.011925349 -0.4273376225 -0.0117990305 -0.427641173 0.0060499296 0.3108498115
750295500.0 0.0119355125 0.3047529318 -0.0161385498 -0.4273701284 -0.0167203896 -0.4278225797 0.0098186253 0.3111349054
755295470.0 0.0151612068 0.3049839771 -0.0209743333 -0.4274653078 -0.0213438587 -0.4277404693 0.0131549933 0.3113312243
760295440.0 0.0181691497 0.3051487021 -0.0260383089 -0.4270778622 -0.0262641111 -0.4267611512 0.0164248827 0.3107295818
765295410.0 0.0214983485 0.3048502966 -0.0306357501 -0.4265997615 -0.0304467444 -0.4267620717 0.0195496541 0.31091408
770295380.0 0.0244534647 0.3050844203 -0.0347659824 -0.4259429779 -0.0350949305 -0.4264296865 0.022367826 0.3109088811
775295350.0 0.0275839288 0.3050617185 -0.0396131228 -0.426095439 -0.0397410008 -0.4259114222 0.0260791087 0.3107978933
780295320.0 0.0307418987 0.3049765525 -0.0439664344 -0.4250287074 -0.0442696897 -0.4254456114 0.0294833066 0.3108251065
785295290.0 0.0339187748 0.3049315326 -0.0490304819 -0.4248105386 -0.0488515244 -0.4249066013 0.0322681267 0.3109345915
790295260.0 0.0366762298 0.3043586797 -0.0530625304 -0.4242395563 -0.0533257248 -0.4246291288 0.0354631967 0.3101774671
795295230.0 0.0396676327 0.3042868113 -0.0577740712 -0.4236637784 -0.0580112724 -0.4236691848 0.0388269117 0.3098094496
800295200.0 0.0425032494 0.3042279585 -0.0617977079 -0.4227323402 -0.0626558536 -0.4229920185 0.0419193039 0.30972268
805295170.0 0.0455221881 0.3040152304 -0.0668307488 -0.4225469631 -0.0668584399 -0.4225065037 0.0458119727 0.3091672788
810295140.0 0.0490280427 0.304100062 -0.0716850731 -0.4214237347 -0.0716147843 -0.4215194695 0.0490564921 0.3090175897
815295110.0 0.0515079495 0.3036190012 -0.0758714623 -0.4209242062 -0.0760477197 -0.4208944752 0.0516291487 0.3085964815
820295080.0 0.0548284333 0.3029887964 -0.0805098901 -0.4198513095 -0.0804750558 -0.4201113995 0.0547158988 0.3088405422
825295050.0 0.0577659884 0.3026154236 -0.0850329342 -0.4189346338 -0.0850956303 -0.4189790908 0.0585370683 0.3082495637
830295020.0 0.0612762884 0.3023416473 -0.0896841578 -0.4179302973 -0.0893844911 -0.4178355195 0.0615478032 0.307157866
