!Created with skrf (http://scikit-rf.org).
# Hz S RI R 50.0 
!freq ReS11 ImS11 ReS21 ImS21 ReS12 ImS12 ReS22 ImS22
300000.0 -0.7699873424 -0.1507691358 -0.000680915 0.0012770745 0.0006938586 0.00195646 -0.0472145312 -0.0671392526
5299970.0 -0.7851414504 -0.0076458051 0.0001024606 0.000134662 -1.18636e-05 -0.0001459921 -0.0487030752 0.0143330535
10299940.0 -0.787355343 -0.0042843432 -0.000268724 0.0001578146 8.69051e-05 6.32927e-05 -0.0430464917 0.0314477055
15299910.0 -0.7932242172 -0.001650695 -4.74676e-05 0.0001110317 8.06342e-05 -5.22445e-05 -0.0346787997 0.0455897496
20299880.0 -0.7997968655 0.0021447886 -0.0001561442 -6.1387e-06 1.81885e-05 8.14849e-05 -0.0247487192 0.0569785889
25299850.0 -0.8061826077 0.0086213511 -0.0002010549 -1.19546e-05 -0.0001837036 -1.39613e-05 -0.0143792808 0.0661472412
30299820.0 -0.8116395734 0.0165201842 -5.12853e-05 0.0001551229 0.0001598167 -0.0001276074 -0.0033288047 0.0725278959
35299790.0 -0.8163105784 0.0249948197 -9.2203e-06 0.0001622745 0.000130166 -0.0001680286 0.0081727282 0.0770429943
40299760.0 -0.8211745044 0.0344671027 -0.0001116122 -7.40254e-05 -9.4648e-06 0.0002540263 0.019245683 0.0797977096
45299730.0 -0.8247555369 0.0438491202 -0.0002379254 -6.44906e-05 0.0001176181 0.0001590785 0.0294801186 0.0814026183
50299700.0 -0.8265671321 0.0538451123 -0.0002026913 -0.0001133499 2.82651e-05 0.0001435888 0.0395913213 0.0815071318
55299670.0 -0.8286996375 0.0640639702 0.0001200711 0.0001021408 5.84058e-05 6.01685e-05 0.0484222853 0.0803141748
60299640.0 -0.8300438745 0.074184871 -9.58235e-05 -0.0001140342 0.0001752116 0.0003653196 0.0567635782 0.0783249479
65299610.0 -0.8308723712 0.0844448474 -5.6266e-06 0.0001351305 4.1927e-05 -0.000143523 0.0642758001 0.0759260398
70299580.0 -0.8312422577 0.0946270794 5.97192e-05 2.78024e-05 0.00016337 -0.0001102804 0.0713675026 0.0731457941
75299550.0 -0.8313681753 0.1049788981 0.0001026847 0.0002712094 -9.39637e-05 0.000133539 0.0773207782 0.0698642308
80299520.0 -0.8314653097 0.1147768326 -5.00631e-05 -2.90784e-05 -4.09295e-05 1.57201e-05 0.0826818991 0.0662915992
85299490.0 -0.8307935098 0.123971874 -8.5947e-06 -4.08229e-05 -4.27836e-05 0.0001752303 0.0877018434 0.0625672116
90299460.0 -0.8297821164 0.1338749976 0.0001170186 0.0002543435 0.0001223053 0.0002785975 0.0923169529 0.0586830462
95299430.0 -0.828431394 0.1434257456 -0.0001300056 -8.61118e-05 -0.0001058739 -8.37565e-05 0.0965463431 0.0548666271
100299400.0 -0.8276105905 0.1531118779 -3.4662e-05 0.0001216715 -0.0001165063 -0.0001327175 0.0998515288 0.0508267455
105299370.0 -0.826531744 0.1621147351 0.0001176368 -1.56406e-05 2.18811e-05 4.64139e-05 0.10330203 0.0467968275
110299340.0 -0.8253001866 0.1711565986 5.16611e-05 -0.0001437798 -5.63015e-05 8.92158e-05 0.1054557386 0.0432088797
115299310.0 -0.8235980371 0.1805267287 5.46669e-05 0.000113708 -0.0003652581 0.0001417482 0.1080740964 0.0385254303
120299280.0 -0.8217206483 0.189499483 1.65504e-05 -0.0001061299 4.62879e-05 -1.87862e-05 0.1104366654 0.0350525577
125299250.0 -0.8204300299 0.1983268583 -0.0001395539 0.0001873585 0.0002782677 -4.65422e-05 0.1124163552 0.0310006782
130299220.0 -0.8183873498 0.2076202627 -6.92074e-05 -1.17927e-05 -7.37979e-05 5.48708e-05 0.113864249 0.0276278636
135299190.0 -0.8162808187 0.2163313877 9.8455e-06 -5.78943e-05 6.34463e-05 -0.0001600946 0.1152932653 0.0235741008
140299160.0 -0.8142555313 0.2257264137 7.46165e-05 1.5322e-05 -0.0001513504 2.44515e-05 0.1166747086 0.0199700704
145299130.0 -0.8121856693 0.234391457 6.58383e-05 0.0001692516 -6.15931e-05 0.0001169532 0.1173840879 0.0166123258
150299100.0 -0.8102736336 0.243137562 0.0001149772 7.73842e-05 0.0002181198 -7.01446e-05 0.118352347 0.0127876082
155299070.0 -0.8076382658 0.2521505419 6.5816e-05 1.84576e-05 -2.11427e-05 -6.5561e-05 0.1189943664 0.0095742262
160299040.0 -0.8043294077 0.2610737274 -0.0001717266 0.0001102304 4.98815e-05 0.0001502734 0.119532658 0.006275437
165299010.0 -0.8021229857 0.2691177963 7.41571e-05 -1.64162e-05 0.0001088057 -1.747e-05 0.1198373968 0.0028260829
170298980.0 -0.7997638859 0.2780015058 2.34985e-05 7.78972e-05 1.1171e-05 0.0001634923 0.1205556464 4.18776e-05
175298950.0 -0.7969599581 0.2871370939 4.23247e-05 5.16789e-05 0.0001561297 0.000218567 0.1202297154 -0.0032424818
180298920.0 -0.7938179911 0.2947259366 -0.0002790805 -8.4529e-05 -2.7341e-06 0.0001306711 0.1208416754 -0.0063179621
185298890.0 -0.7907308803 0.3042719394 2.30308e-05 0.0003188907 0.0001738526 0.000230732 0.1204575018 -0.0094641088
190298860.0 -0.7878884313 0.3125226773 -3.35285e-05 4.914e-06 9.44665e-05 2.81714e-05 0.1208415576 -0.0119316817
195298830.0 -0.7836941087 0.3209380902 0.0001020736 -3.78333e-05 6.9295e-06 -4.3538e-06 0.1205692903 -0.0148430568
200298800.0 -0.7804508642 0.3291456738 -2.64803e-05 2.8867e-05 -7.97644e-05 0.0001012957 0.1208088551 -0.017885187
205298770.0 -0.7772479853 0.3373314074 5.5066e-06 5.26646e-05 3.90342e-05 4.60534e-05 0.1202131911 -0.0204475024
210298740.0 -0.7735284826 0.3454937638 9.96902e-05 7.5225e-05 -7.22185e-05 0.000394868 0.1198172121 -0.0230041094
215298710.0 -0.7703382349 0.3540487375 -6.17795e-05 0.0001052597 3.9172e-05 -1.41948e-05 0.1189901824 -0.02579043
220298680.0 -0.7673615807 0.3620908393 0.0001470479 5.66327e-05 6.47328e-05 -7.61488e-05 0.1191562128 -0.0283367744
225298650.0 -0.7626271159 0.3708114486 -0.0001243598 -9.65825e-05 5.2919e-05 2.12326e-05 0.1181675359 -0.0303965601
230298620.0 -0.7590651635 0.3784541667 0.0001052239 0.0001530267 0.0001363421 -4.55756e-05 0.117922137 -0.03309464
235298590.0 -0.7545775224 0.387523164 -6.21015e-05 0.0002575177 8.1447e-05 -9.38041e-05 0.117134776 -0.0354232785
240298560.0 -0.750782825 0.3948301112 0.0002979802 0.000132253 0.0001420607 0.0001010524 0.1165400451 -0.0375879515
245298530.0 -0.7465051387 0.4031382037 -6.09146e-05 0.0002579276 -9.41314e-05 -7.15141e-05 0.1159806097 -0.0398089116
250298500.0 -0.7423954648 0.4107059922 -0.0001004586 6.7345e-05 4.9582e-06 8.13876e-05 0.1154084398 -0.0420692595
255298470.0 -0.7375344988 0.4188610844 -5.03753e-05 -9.4157e-06 -5.03337e-05 0.0002300247 0.1143976336 -0.0441630142
260298440.0 -0.7334581501 0.4262619792 0.0002468539 -1.17577e-05 5.77279e-05 -5.05217e-05 0.1135832622 -0.0462641548
265298410.0 -0.7290880919 0.4340244153 2.2925e-05 -7.5682e-05 4.39211e-05 4.81032e-05 0.1129295627 -0.0485888493
270298380.0 -0.7240981028 0.4414493629 9.05962e-05 8.9255e-05 2.0734e-05 0.0001275226 0.1123400015 -0.0506553828
275298350.0 -0.719510623 0.4493910662 -0.0001339073 0.0001012367 -0.0001937734 0.0002532102 0.1110777142 -0.0523712811
280298320.0 -0.7143862824 0.4569061358 -5.19639e-05 -4.15635e-05 2.27146e-05 4.85211e-05 0.110410686 -0.054184869
285298290.0 -0.7109416602 0.4645637253 0.0001457146 0.0002333578 7.43373e-05 4.55862e-05 0.109283809 -0.0560596759
290298260.0 -0.7049934471 0.4717311636 -7.93478e-05 0.0001024981 0.0001438143 -1.7077e-05 0.1087572407 -0.0580330376
295298230.0 -0.700456831 0.4790529615 1.50291e-05 0.0002231903 -1.7075e-05 0.0003107321 0.1076810047 -0.0600927182
300298200.0 -0.6950814771 0.4865456717 0.0001336475 -9.7148e-06 3.86276e-05 9.34981e-05 0.1067717839 -0.0616430714
305298170.0 -0.6903388436 0.4941808442 0.0002186524 -5.70323e-05 3.45908e-05 -1.71906e-05 0.1061968277 -0.063110258
310298140.0 -0.684942346 0.5003663354 1.40488e-05 5.49405e-05 0.0001595532 -9.9719e-05 0.1050756732 -0.064915538
315298110.0 -0.6794911389 0.5078542158 -5.15539e-05 -5.36699e-05 0.0001972517 -0.0001543947 0.1042671852 -0.0666522593
320298080.0 -0.6739546791 0.5150749797 3.33257e-05 -2.75101e-05 0.0002495955 0.0001181785 0.1030190877 -0.068980426
325298050.0 -0.6685083483 0.5218639097 3.0209e-05 6.64827e-05 3.36789e-05 1.94779e-05 0.1015881024 -0.0705278008
330298020.0 -0.6628450383 0.5289674111 0.0001199248 0.0002746112 0.0001153898 -3.25765e-05 0.1005184316 -0.0725463081
335297990.0 -0.6572510227 0.5365144349 0.0001219757 0.0001744053 0.000130963 8.5244e-05 0.0988669611 -0.0740383124
340297960.0 -0.6521756656 0.5425018811 0.0003097641 5.75489e-05 -1.4974e-06 6.70998e-05 0.0976349132 -0.0756830381
345297930.0 -0.646203731 0.5486840967 -1.91971e-05 -9.71284e-05 4.4483e-05 0.0001522236 0.0961936313 -0.0771384009
350297900.0 -0.6397327144 0.5564179924 -0.0001132028 -3.3591e-06 0.0001880255 -9.3743e-05 0.0947742338 -0.0781155738
355297870.0 -0.634464706 0.5624055852 0.0001620199 -2.14492e-05 0.0001834537 0.0001403984 0.09346543 -0.0792532227
360297840.0 -0.6285080282 0.5687432449 4.64039e-05 -1.42326e-05 -0.0001504434 -1.97212e-05 0.0922682983 -0.0802998769
365297810.0 -0.6225685415 0.5753547815 -8.76679e-05 -7.0749e-05 -2.53968e-05 4.3341e-05 0.0907235178 -0.0816528233
370297780.0 -0.6161045131 0.5814178933 0.0002047041 0.0001264007 8.80193e-05 6.63285e-05 0.0892336768 -0.0831496262
375297750.0 -0.6101190903 0.5880165225 1.24411e-05 1.55265e-05 0.0002035735 -2.82385e-05 0.0882278029 -0.0840693149
380297720.0 -0.6039470198 0.5953166395 1.88326e-05 -4.88819e-05 3.74325e-05 9.98875e-05 0.0869391418 -0.0851872792
385297690.0 -0.5974629152 0.6008485405 0.0003016478 3.83741e-05 -9.17697e-05 -0.0001744622 0.0854177196 -0.0860509454
390297660.0 -0.5914502286 0.6069268747 0.0001434895 -6.74633e-05 5.48301e-05 0.0001814503 0.0839524737 -0.0877033267
395297630.0 -0.5853671268 0.6126438069 6.14674e-05 0.0002112624 0.0001195781 7.10823e-05 0.0825441391 -0.0885077053
400297600.0 -0.579022046 0.6188771277 -3.73418e-05 1.5164e-06 -4.3254e-06 0.0001780065 0.0809776599 -0.0896580273
405297570.0 -0.5728564401 0.6252741337 0.0001012029 2.5261e-05 0.0001948894 -0.0001022633 0.0796821368 -0.0904792578
410297540.0 -0.5651713511 0.6308065088 6.56526e-05 -0.0001262362 5.38537e-05 -3.1749e-06 0.0782948878 -0.0915121867
415297510.0 -0.5593596685 0.6368271025 -7.3226e-06 2.87812e-05 -0.000159202 3.04137e-05 0.0766213047 -0.0924129092
420297480.0 -0.552246785 0.6418726783 0.0001567792 -1.17155e-05 1.92818e-05 0.0002428541 0.075135375 -0.0937029682
425297450.0 -0.5451513885 0.6478777271 -8.78042e-05 -0.0001057241 6.90127e-05 -6.78499e-05 0.073795705 -0.09458144
430297420.0 -0.5390107396 0.6529921938 8.94491e-05 4.62942e-05 0.0001326859 6.42798e-05 0.0722750634 -0.0952740412
435297390.0 -0.5323963701 0.6592625788 -5.76223e-05 7.84584e-05 5.91766e-05 -7.05015e-05 0.0709909589 -0.0961876543
440297360.0 -0.5254621177 0.6640664216 2.5357e-06 0.0001689695 4.59899e-05 -0.000124023 0.0693154042 -0.0971377811
445297330.0 -0.5184584165 0.6696292597 0.0001906177 0.0002235261 5.89393e-05 0.0001334333 0.0676295225 -0.0979652766
450297300.0 -0.5109447563 0.6745045762 9.30743e-05 -6.05262e-05 -3.34e-08 -4.03116e-05 0.065802035 -0.0987362597
455297270.0 -0.5046371298 0.6797758633 0.0002258498 3.6741e-05 1.53968e-05 -7.62284e-05 0.0646152511 -0.0995750505
460297240.0 -0.4974418882 0.6852702315 -0.0002069466 -3.4926e-06 1.36388e-05 0.0001698682 0.063271301 -0.1003444427
465297210.0 -0.4903108957 0.6904712584 8.87398e-05 7.73766e-05 0.0001722294 8.94586e-05 0.061243805 -0.1012616342
470297180.0 -0.4831244986 0.6946128268 0.0002168572 6.60835e-05 0.0001063124 0.0001139268 0.0595014876 -0.102021132
475297150.0 -0.4754031703 0.6999615453 0.0001645746 0.0002396182 0.0003162325 -9.16577e-05 0.0583823927 -0.1027857501
480297120.0 -0.4688759207 0.7044275766 -5.48989e-05 0.0001943725 8.58986e-05 3.43845e-05 0.0565795798 -0.1028023672
485297090.0 -0.4609113907 0.7095008634 9.4301e-05 -5.18626e-05 0.0002591216 7.26518e-05 0.0549407731 -0.1036897198
490297060.0 -0.4543443296 0.7138588572 -9.15191e-05 -0.0001512567 7.79437e-05 -6.89866e-05 0.0531525716 -0.1044038534
495297030.0 -0.4472666744 0.7187033222 4.49691e-05 -1.45359e-05 0.0002077191 0.0001337799 0.0517415794 -0.10532079
500297000.0 -0.4388538526 0.7233285261 0.0001776731 -4.91331e-05 0.0001063967 0.0002448122 0.0499317668 -0.1055999264
505296970.0 -0.4318582091 0.7268939434 0.000344275 8.14141e-05 0.0001961675 -0.0001607972 0.047968118 -0.1058596757
510296940.0 -0.4241227105 0.7320561481 -3.87313e-05 -8.92981e-05 5.17402e-05 -0.0001782077 0.0465051058 -0.106437661
515296910.0 -0.4171333812 0.7363700619 -3.10868e-05 6.22165e-05 0.0001815699 -3.6912e-05 0.0450836175 -0.1071940748
520296880.0 -0.4093612281 0.7404770776 -3.24e-08 8.94724e-05 0.0001133957 -1.377e-07 0.043475485 -0.1078964709
525296850.0 -0.4019127513 0.7445569648 7.7004e-06 0.0001961907 -3.40677e-05 0.00013028 0.0419934541 -0.1081674045
530296820.0 -0.3945123558 0.7481305556 4.93125e-05 -7.37401e-05 -1.384e-05 3.5336e-06 0.0398358642 -0.1085784681
535296790.0 -0.3861467716 0.7527846031 0.0001064542 -0.0002041264 7.23056e-05 3.18742e-05 0.0383777406 -0.1096193565
540296760.0 -0.3783339386 0.7559689327 -5.04076e-05 -2.2032e-05 7.4414e-06 -4.99158e-05 0.0363813746 -0.1094942978
545296730.0 -0.3710063219 0.759470981 7.99429e-05 6.4675e-06 4.96668e-05 2.60405e-05 0.0347192041 -0.1100590712
550296700.0 -0.3634978883 0.7635097705 0.000157837 4.29556e-05 0.0001292767 1.97337e-05 0.033114609 -0.1102575392
555296670.0 -0.3545273987 0.7672414577 0.0003938225 -0.0001000911 7.7745e-05 3.52036e-05 0.0313070742 -0.1105094456
560296640.0 -0.3475224879 0.7703947133 0.0001931772 0.0001691207 0.0002950299 4.23889e-05 0.029753867 -0.1111384499
565296610.0 -0.3399474566 0.7735819952 0.000297107 8.88016e-05 7.00851e-05 -5.89258e-05 0.0280146162 -0.1109501109
570296580.0 -0.3319472307 0.7776273414 0.0002810587 -0.0001860337 0.0001774668 0.0002124617 0.0264876886 -0.1111094053
575296550.0 -0.3237777054 0.7808451762 0.0002821007 0.0001046631 0.000254947 4.04165e-05 0.0248025217 -0.1116918781
580296520.0 -0.3158911268 0.7840827612 0.00030081 0.0001584489 8.36157e-05 1.74967e-05 0.0228572179 -0.1116806845
585296490.0 -0.3077262259 0.7863927054 0.0001619647 -0.0002015065 1.54483e-05 -2.9263e-05 0.0209475432 -0.1124045163
590296460.0 -0.299913589 0.7896351717 6.5118e-05 -9.75081e-05 0.0001241725 6.12378e-05 0.0197166936 -0.1122428605
595296430.0 -0.2920414673 0.7937249802 0.0001000313 0.0002561058 2.22656e-05 5.77e-06 0.0175811976 -0.1128011388
600296400.0 -0.2837967524 0.795504029 8.84419e-05 6.92527e-05 0.0001679236 -7.24276e-05 0.0162126971 -0.1126184841
605296370.0 -0.2758230081 0.7985567114 -7.7563e-06 8.66873e-05 -1.54234e-05 -0.0001398069 0.0143238768 -0.1127353569
610296340.0 -0.2674501902 0.8013355417 0.0002614971 -3.86688e-05 3.3553e-05 5.09774e-05 0.0125704952 -0.1125350333
615296310.0 -0.2591963454 0.8041065695 0.0001603249 4.30225e-05 3.7447e-05 -9.68175e-05 0.0110368501 -0.1131076552
620296280.0 -0.251217159 0.8057226843 2.16199e-05 5.965e-07 0.0003183381 5.49522e-05 0.009291198 -0.1131852831
625296250.0 -0.2425045837 0.8089341258 0.0002279997 1.5734e-06 0.0002476921 -5.52216e-05 0.0074870593 -0.1129754669
630296220.0 -0.2344152997 0.8119725816 0.0002892998 -1.6337e-05 0.0004201046 0.0001461577 0.00591747 -0.1130579117
635296190.0 -0.2263069529 0.8135487648 -2.3957e-05 0.0001174983 9.47939e-05 -0.0001697894 0.0043087113 -0.1126222245
640296160.0 -0.2179841222 0.8149467998 -3.4449e-06 0.0001002877 0.0001282832 -0.0001713759 0.0026860482 -0.1127492103
645296130.0 -0.2100656622 0.8176426209 0.0001658884 -6.48851e-05 0.0001870321 -0.0001234988 0.0008124524 -0.1130565685
650296100.0 -0.2017974724 0.8202729157 0.0002486599 6.43294e-05 0.000130131 -4.08316e-05 -0.0010512622 -0.1126260142
655296070.0 -0.1931059477 0.8215913294 0.0001533955 5.47206e-05 -3.1186e-06 -5.51944e-05 -0.0026482002 -0.1123180313
660296040.0 -0.1854017422 0.8239023294 0.0002881694 -1.42705e-05 0.0002038794 -2.36386e-05 -0.0040276669 -0.1126016873
665296010.0 -0.1769744851 0.82573588 0.0001961496 -0.0001783746 -0.0001468804 -4.66221e-05 -0.0059341938 -0.1121419972
670295980.0 -0.1679153873 0.8274850654 0.0001473892 -3.6365e-05 7.65547e-05 2.1618e-06 -0.0072795923 -0.1123008111
675295950.0 -0.1597947063 0.8283274318 0.0003145439 0.0001934342 5.25409e-05 0.0001236437 -0.0091977747 -0.1118427824
680295920.0 -0.1517799967 0.8308222933 0.0001765959 -7.17311e-05 0.0002879349 0.0001170555 -0.0108691618 -0.1117750401
685295890.0 -0.1431313486 0.8319184465 0.0003267049 0.0001803846 0.0002355687 -2.76415e-05 -0.0126092131 -0.1113656687
690295860.0 -0.1343912339 0.8338661361 0.0002888163 0.0003363327 0.0001702984 6.86387e-05 -0.014081346 -0.1110156296
695295830.0 -0.1263739953 0.8344250413 -4.73291e-05 -8.084e-06 0.0002294137 -5.69904e-05 -0.0158889313 -0.1106995848
700295800.0 -0.1181303427 0.8356522478 9.617e-05 1.12966e-05 -6.29973e-05 0.0001792956 -0.0175241288 -0.1106305878
705295770.0 -0.1092562629 0.8371967371 0.0001039033 0.0001087672 0.0001429319 -4.68874e-05 -0.0191307618 -0.1099655416
710295740.0 -0.1015228652 0.8382048047 0.0002031173 -0.0002054272 0.0002640647 -3.98311e-05 -0.0209426163 -0.1094144693
715295710.0 -0.0929049078 0.8391559948 0.0001311138 -1.50472e-05 8.74349e-05 0.0001214237 -0.0224620277 -0.1091543199
720295680.0 -0.0845830327 0.8399924519 0.0003247103 -6.16089e-05 0.0001343419 8.1521e-06 -0.0241582507 -0.1088161059
725295650.0 -0.0749549689 0.8406456108 0.0001300421 -1.44003e-05 0.0001904131 -0.0001338588 -0.0257947395 -0.1083218606
730295620.0 -0.0675580618 0.8409503043 3.76599e-05 -4.46108e-05 0.0002214653 -1.2369e-05 -0.0274703343 -0.1079287807
735295590.0 -0.0585081119 0.8415637253 0.0004594946 -7.27794e-05 -2.0941e-06 6.68558e-05 -0.0287935635 -0.1074644067
740295560.0 -0.0501081958 0.8428354686 8.64261e-05 9.79678e-05 0.0001730738 -8.65544e-05 -0.0304346951 -0.1070599315
745295530.0 -0.0421666828 0.8423088706 5.592e-06 0.0002273679 0.0002679195 0.0001427492 -0.0325094288 -0.1062840829
750295500.0 -0.0338316473 0.8432083099 7.31212e-05 6.04191e-05 6.14442e-05 -0.0001019816 -0.0339122869 -0.1060950217
755295470.0 -0.0247707802 0.8434243126 -0.0001755143 -7.43657e-05 0.0001263351 7.12262e-05 -0.0357702992 -0.1051498692
760295440.0 -0.0164574003 0.8435775887 0.0001972306 7.2462e-05 0.000295126 -6.79658e-05 -0.0369178651 -0.1044951897
765295410.0 -0.0080606653 0.8436031977 0.0001231884 -5.15202e-05 0.0001871601 7.5885e-06 -0.0385697157 -0.1037560365
770295380.0 0.0002848744 0.8442640969 0.0001026712 5.65505e-05 0.0001466358 -0.0001612266 -0.0397338823 -0.1032935068
775295350.0 0.0090132309 0.84380306 4.80857e-05 -7.32625e-05 0.0002026522 1.98085e-05 -0.0418399615 -0.1032048559
780295320.0 0.0173588633 0.8431211675 -0.0002108192 -0.0001618734 -0.0001217286 0.0001229905 -0.0434016841 -0.10192642
785295290.0 0.0259384194 0.8440602188 -6.4566e-06 -1.1682e-05 0.0001255309 -7.41328e-05 -0.0449292185 -0.1011189147
790295260.0 0.0340631377 0.8427505815 0.0002229732 -3.66502e-05 0.0002918445 0.0001673782 -0.0462204994 -0.1006680967
795295230.0 0.0425096436 0.8434209396 0.0002484253 -6.63561e-05 0.0001462832 3.12877e-05 -0.0479011598 -0.0997528938
800295200.0 0.051596773 0.8426863609 0.0001358346 -8.44789e-05 0.0002475743 -4.55848e-05 -0.0493517308 -0.0992234958
805295170.0 0.0597746403 0.8426457335 0.0002555451 7.7107e-06 -1.92461e-05 0.0001237763 -0.051120419 -0.0983621149
810295140.0 0.0683612061 0.8411521848 9.5875e-05 9.24922e-05 5.73066e-05 7.58914e-05 -0.0522234537 -0.0973514902
815295110.0 0.0766098904 0.8401922858 -3.7528e-05 -2.79898e-05 0.000202907 -7.5525e-06 -0.0537701812 -0.0966609344
820295080.0 0.0848389562 0.8389465204 0.0001536247 1.78816e-05 0.0001031555 -0.0002171131 -0.0553754932 -0.0960857803
825295050.0 0.0940511752 0.8381432703 0.0001984621 9.64955e-05 6.09609e-05 6.6706e-06 -0.05670067 -0.0949809062
830295020.0 0.1022152986 0.8376948162 0.0002335766 -0.0001013884 5.21136e-05 0.000216872 -0.0583106334 -0.0942784959
835294990.0 0.1098024837 0.8369275659 0.0001465729 9.91992e-05 0.0002973886 -0.000205204 -0.0595777383 -0.0933156985
840294960.0 0.1188495746 0.8352257686 0.0001405096 1.19665e-05 6.987e-05 -9.40381e-05 -0.061100086 -0.0919491532
845294930.0 0.1267667744 0.834436226 -0.0002110192 -0.0001033995 0.000175582 6.02427e-05 -0.0623881401 -0.0914648581
850294900.0 0.1357053464 0.8327275343 8.28668e-05 -0.0001123239 -0.0001437181 -0.0001280363 -0.0638243052 -0.0899148236
