!Created with skrf (http://scikit-rf.org).
# Hz S RI R 50.0 
!freq ReS11 ImS11 ReS21 ImS21 ReS12 ImS12 ReS22 ImS22
300000.0 -0.235962313 -0.1065286957 0.4673432079 0.0693494113 0.4710698281 0.0709724082 -0.2389067437 -0.1072358977
5299970.0 -0.2404997265 0.00717618 0.4750283704 0.0053813517 0.4749883359 0.0058073327 -0.2444594413 0.0055071222
10299940.0 -0.2370952831 0.0200848284 0.4771293365 0.0060158311 0.4770131295 0.0065879976 -0.2415847122 0.0177146919
15299910.0 -0.2328059025 0.0298513759 0.4806199342 0.0075865863 0.4802495749 0.0073923833 -0.2373210447 0.0262838605
20299880.0 -0.2275356652 0.0378484045 0.4853605827 0.0079111486 0.4854313934 0.0081410439 -0.2327488794 0.0340469425
25299850.0 -0.2216231461 0.0444273953 0.4904500907 0.0065222109 0.4906535427 0.0069551198 -0.2277151583 0.0398646796
30299820.0 -0.2156151588 0.0496155021 0.4962607998 0.005148249 0.4957182902 0.00480059 -0.222586704 0.0448263307
35299790.0 -0.2099405158 0.0540919073 0.5010807048 0.0014755163 0.5014541143 0.0015614068 -0.217305602 0.0486833418
40299760.0 -0.2045126441 0.0570233311 0.5065510826 -0.0022206833 0.5064512959 -0.0020166505 -0.212814215 0.0520734693
45299730.0 -0.1995132065 0.0603170351 0.5110945728 -0.0074863514 0.5112375065 -0.0070912365 -0.2078257532 0.0544729799
50299700.0 -0.1944609439 0.0620441323 0.5147062734 -0.0128077485 0.5149318761 -0.0130076921 -0.2034230567 0.056603858
55299670.0 -0.1905887606 0.063717539 0.5186745329 -0.0189824019 0.5189337031 -0.0184157069 -0.2000625655 0.0580559048
60299640.0 -0.1863554896 0.0649454765 0.521910877 -0.0248990195 0.5220449671 -0.0248175706 -0.1961351924 0.0595599095
65299610.0 -0.1830251603 0.0665009684 0.525140473 -0.0309427269 0.5252902264 -0.0309925816 -0.1930431035 0.0606292629
70299580.0 -0.1793007254 0.0669029666 0.5273439085 -0.0378113238 0.5272940161 -0.0379775181 -0.1899318912 0.0615304628
75299550.0 -0.176381372 0.0679861711 0.5290642742 -0.0447287453 0.5291850477 -0.0446854934 -0.1870285834 0.0626424869
80299520.0 -0.1741086162 0.0689996099 0.5315641877 -0.0518623485 0.5312484357 -0.0513881187 -0.1846986333 0.0629592865
85299490.0 -0.1713917128 0.0694427627 0.5326146356 -0.0586768977 0.5322037004 -0.0585048188 -0.1824649195 0.0636106358
90299460.0 -0.1694032121 0.0702461958 0.5333593889 -0.0652662685 0.533579957 -0.0650823284 -0.1800589006 0.0644066995
95299430.0 -0.1671653894 0.0709465872 0.534542089 -0.0726431199 0.5341292041 -0.0721949828 -0.1783798152 0.065073209
100299400.0 -0.165300445 0.0718742698 0.534747992 -0.0793214809 0.5344605714 -0.0793227135 -0.1767414898 0.0656784223
105299370.0 -0.1633736305 0.0725539186 0.5345789109 -0.0856071453 0.5350587142 -0.0859979822 -0.1747436664 0.0660898843
110299340.0 -0.1619503185 0.0728591744 0.5349083995 -0.0926181575 0.5353217495 -0.092980674 -0.1737547361 0.0670151001
115299310.0 -0.1600835017 0.0734268005 0.5350366308 -0.0995383875 0.5354163679 -0.0992822742 -0.1724338896 0.0670260158
120299280.0 -0.1590502673 0.0744120406 0.5351767984 -0.1062538518 0.5350889648 -0.1066481276 -0.1712912785 0.0681120135
125299250.0 -0.1578584542 0.0752323061 0.5343421753 -0.1129093645 0.5345131985 -0.1130661681 -0.1696028312 0.0682477374
130299220.0 -0.1562773436 0.0758285003 0.5338287382 -0.1193927109 0.5336345142 -0.120371523 -0.1683693985 0.0696871246
135299190.0 -0.1553773968 0.0766658149 0.5330998703 -0.1262945262 0.5329271143 -0.1264019389 -0.1680492683 0.0704777916
140299160.0 -0.1543320241 0.0780694639 0.5326431016 -0.1332173765 0.5326481122 -0.1331058061 -0.1667559135 0.0708569852
145299130.0 -0.1531494311 0.0789081254 0.5320300774 -0.1397572033 0.5314148984 -0.1392228438 -0.1661744631 0.0716963436
150299100.0 -0.1521046719 0.0797136377 0.5302756215 -0.1459224932 0.5300680536 -0.146054569 -0.165045142 0.0724748509
155299070.0 -0.1512147656 0.0815248603 0.5294701328 -0.1532546455 0.5291014108 -0.1531044128 -0.1642642344 0.0737409776
160299040.0 -0.1499589295 0.0820992879 0.5276873369 -0.1589932275 0.5277399568 -0.159515168 -0.1634849831 0.0751731603
165299010.0 -0.1492561058 0.0830500414 0.5265537209 -0.1655893558 0.5263986682 -0.1655927133 -0.1626742699 0.0753071495
170298980.0 -0.1484343654 0.0843337362 0.523896015 -0.1718243348 0.5245977985 -0.1722521162 -0.161772238 0.0766196508
175298950.0 -0.1472722841 0.0856771744 0.5234312084 -0.1783743476 0.523473084 -0.1782612587 -0.1611193561 0.0776351919
180298920.0 -0.1461954783 0.0867640963 0.5215493389 -0.184815912 0.5215047888 -0.184180069 -0.1601968144 0.0789576391
185298890.0 -0.1453407479 0.0878473403 0.5196829837 -0.1908657848 0.5196911181 -0.1905226384 -0.1595162441 0.0796896225
190298860.0 -0.1443933505 0.0892094065 0.5176703523 -0.1971765004 0.5178906018 -0.1969586936 -0.1583728729 0.0808194309
195298830.0 -0.143394838 0.090099401 0.5158028816 -0.2027063507 0.5156494001 -0.2032187303 -0.1578548821 0.0818453516
200298800.0 -0.1425827745 0.0916837788 0.5137196083 -0.2085326587 0.5136086748 -0.2088987727 -0.1567973174 0.0832594495
205298770.0 -0.1416486219 0.0929870632 0.5116313006 -0.214763555 0.5115572496 -0.2151254555 -0.1564647451 0.0839303289
210298740.0 -0.140626769 0.0941793639 0.5090987181 -0.2211727277 0.5092290645 -0.2214676092 -0.1557287933 0.0857425804
215298710.0 -0.1398031953 0.0955337155 0.5066584362 -0.2268878401 0.5068271092 -0.2267830583 -0.1551382879 0.0866792625
220298680.0 -0.1387602909 0.0969316679 0.5046161186 -0.2328924779 0.5047097612 -0.2332341756 -0.1540141362 0.0882666351
225298650.0 -0.1376912428 0.0983358345 0.5017916344 -0.2385606078 0.5018233792 -0.2386475238 -0.1536649568 0.0891836311
230298620.0 -0.1371070364 0.0997228913 0.4996218288 -0.2443098081 0.4995241788 -0.2446756691 -0.1527298732 0.090406755
235298590.0 -0.1357673146 0.1010360776 0.4969586489 -0.2502644271 0.497117748 -0.2504721417 -0.1516722517 0.0913846613
240298560.0 -0.1350569982 0.1023601881 0.4942640115 -0.2555559403 0.4940720389 -0.255833066 -0.1509897369 0.0930438679
245298530.0 -0.1337333068 0.1037646418 0.4909447419 -0.2614508826 0.4912726495 -0.2618614726 -0.1500626574 0.0945704161
250298500.0 -0.1329982715 0.1051559243 0.4882514588 -0.2668531956 0.4886424492 -0.266617816 -0.1488074871 0.0956296825
255298470.0 -0.1318766063 0.1068766916 0.4851628856 -0.2729470512 0.4858567547 -0.2725628724 -0.1481540326 0.0966670776
260298440.0 -0.1307135301 0.1080549953 0.4825720387 -0.2781712981 0.4826249897 -0.2784868461 -0.1468136601 0.0983735322
265298410.0 -0.1293591112 0.1097223756 0.4798721645 -0.2843784645 0.479553281 -0.2840278695 -0.1465012262 0.0996117751
270298380.0 -0.1282603688 0.1108981406 0.4763001703 -0.2892044549 0.4766232729 -0.2892519239 -0.1454048315 0.101101336
275298350.0 -0.1274765619 0.1126726396 0.473546111 -0.2947257363 0.4736117817 -0.2949896094 -0.1443845976 0.1024815397
280298320.0 -0.1262695426 0.1138544299 0.4701037059 -0.2998089251 0.4699873345 -0.3003959795 -0.143422857 0.1039831376
285298290.0 -0.124764624 0.1155864764 0.4670445122 -0.3055879822 0.4668370637 -0.3052877264 -0.1428648236 0.1049538557
290298260.0 -0.1236565862 0.1164932953 0.4639532816 -0.3107330386 0.4636530115 -0.3106463453 -0.1414120426 0.1066407007
295298230.0 -0.1224926917 0.1180556253 0.4604061863 -0.3156995261 0.4599406126 -0.316398197 -0.140186119 0.1078882554
300298200.0 -0.1207510367 0.1193011672 0.4566497702 -0.3214800685 0.4571212072 -0.3217144221 -0.139273395 0.109343967
305298170.0 -0.1195694758 0.1206905495 0.4534190691 -0.3264908763 0.4534279324 -0.32644343 -0.1379835677 0.1107564838
310298140.0 -0.1180082153 0.1217894311 0.4499612567 -0.3319919661 0.4499395152 -0.3319093495 -0.1368072761 0.112344199
315298110.0 -0.1171882459 0.123144614 0.4460248171 -0.336956174 0.4460219718 -0.3371952968 -0.135671545 0.1132937641
320298080.0 -0.1159856554 0.1241641261 0.4427870582 -0.3423383206 0.4425954905 -0.3421397602 -0.1349030379 0.1146363182
325298050.0 -0.1147874778 0.1255809293 0.4392987705 -0.3476541694 0.4387504101 -0.3474573708 -0.1337163519 0.1157917344
330298020.0 -0.1133344113 0.1267800817 0.4340365315 -0.3522657394 0.4345942608 -0.3524386501 -0.1332002795 0.1168785205
335297990.0 -0.1122380634 0.1281103928 0.4304294702 -0.3570493705 0.4304902453 -0.3570417182 -0.1320716181 0.118221545
340297960.0 -0.1113559435 0.1295111444 0.4261949327 -0.3619000922 0.4267517965 -0.3618283853 -0.131409867 0.1197925997
345297930.0 -0.1100113649 0.1310308272 0.4220267684 -0.366171569 0.4217685835 -0.3662076828 -0.1298127545 0.1210646752
350297900.0 -0.1084677322 0.1326297069 0.4183191404 -0.3708187068 0.4184237977 -0.3708496142 -0.1291011182 0.1227344006
355297870.0 -0.1071128344 0.1335703457 0.414048173 -0.3757352737 0.4140660516 -0.3756999253 -0.1280074837 0.1243916857
360297840.0 -0.1055359036 0.1350967777 0.4099099883 -0.3803137146 0.4097393153 -0.3803601852 -0.1264973795 0.1257097982
365297810.0 -0.103951134 0.1362718557 0.405228032 -0.3847973055 0.4057100943 -0.3847209549 -0.1256306201 0.127483129
370297780.0 -0.1025061322 0.1372483033 0.4014868696 -0.3890378943 0.4011990067 -0.3895306005 -0.1241654049 0.128519802
375297750.0 -0.1013422982 0.1393109948 0.3977471062 -0.3938195012 0.3966642756 -0.3938759304 -0.1231354387 0.1302699321
380297720.0 -0.0997962493 0.1401034716 0.3927968223 -0.3975781142 0.3927530191 -0.3977962669 -0.121756021 0.1313949619
385297690.0 -0.0979904621 0.1416607873 0.3880779938 -0.4016835312 0.3882612717 -0.4018087153 -0.1209969786 0.1329023225
390297660.0 -0.0965844524 0.1427419134 0.3839718777 -0.406416293 0.3838404317 -0.4067316995 -0.1191546494 0.1339100944
395297630.0 -0.0947595382 0.1438919779 0.3795961774 -0.4105157523 0.3793903357 -0.4105188858 -0.1179335295 0.1357472303
400297600.0 -0.093631442 0.145177269 0.374740458 -0.4146550739 0.3750674543 -0.4147957197 -0.1171141234 0.1365250423
405297570.0 -0.0918504973 0.1464659944 0.3702455593 -0.4188916979 0.3704904984 -0.4191031326 -0.115966938 0.1386969426
410297540.0 -0.090069739 0.14767965 0.3651735021 -0.4228534911 0.3655370461 -0.4227818496 -0.1141983639 0.1392860801
415297510.0 -0.0886194195 0.1490324953 0.3610884887 -0.4267623812 0.3609366642 -0.4267775054 -0.1129882609 0.1412801605
420297480.0 -0.0869111749 0.1497804524 0.3563160998 -0.430973586 0.3565005036 -0.4305464437 -0.1116553827 0.1420004074
425297450.0 -0.0851204782 0.1508720846 0.3517425863 -0.434538551 0.3519270332 -0.4346940878 -0.1100572015 0.1437807173
430297420.0 -0.0836594043 0.1520881227 0.3469821254 -0.4389251217 0.3469393636 -0.438610437 -0.1090841632 0.1446891693
435297390.0 -0.0814452125 0.1528126158 0.3423217712 -0.4422760589 0.3423008308 -0.442142142 -0.1074641043 0.146334202
440297360.0 -0.0798259499 0.1537937545 0.3370727959 -0.445780213 0.3367016547 -0.4457665351 -0.1062662065 0.14718753
445297330.0 -0.0782491907 0.1551197076 0.3318531973 -0.4498560962 0.3321082817 -0.4495534562 -0.104961864 0.1482630668
450297300.0 -0.0762007325 0.1557162258 0.3269744083 -0.4530293899 0.3275346793 -0.453308711 -0.1035758763 0.1498133926
455297270.0 -0.0749649929 0.1570944254 0.3226461308 -0.4566501721 0.3224574358 -0.4565846942 -0.1018119385 0.1510837873
460297240.0 -0.0733112983 0.1580618734 0.3174086496 -0.4600283202 0.3168666607 -0.4597701257 -0.100282815 0.1524979064
465297210.0 -0.071158826 0.15867377 0.3122324743 -0.4637414399 0.3124215884 -0.4637654328 -0.09945227 0.1533816814
470297180.0 -0.0696512526 0.159810631 0.3071779223 -0.4666408974 0.3073451568 -0.4670555326 -0.0982727755 0.154343269
475297150.0 -0.0679361614 0.1604238436 0.3019853612 -0.4701353002 0.3020868643 -0.4695413028 -0.0961476238 0.1556792451
480297120.0 -0.0656515538 0.1611746913 0.2969458358 -0.4732774358 0.2975006513 -0.4734451098 -0.0951706686 0.1574034875
485297090.0 -0.0637815007 0.1622915389 0.2918903541 -0.476486174 0.2917634628 -0.4766005462 -0.0936576034 0.1577240953
490297060.0 -0.0620397389 0.1629640465 0.2866388445 -0.4798803282 0.2865946835 -0.4797847712 -0.0920495972 0.1593615803
495297030.0 -0.0605550285 0.1640414382 0.2813389104 -0.4828736048 0.2809434701 -0.4829570153 -0.0904236902 0.1600051034
500297000.0 -0.0583479144 0.164553205 0.2758221989 -0.4859251293 0.2759436792 -0.4856562864 -0.0892317935 0.1611571406
505296970.0 -0.0570227553 0.1651898763 0.2705811082 -0.4885700975 0.2705337429 -0.488391382 -0.088067187 0.162476558
510296940.0 -0.0548777171 0.1664928788 0.2649569782 -0.4920098093 0.2651374215 -0.491770937 -0.0858410972 0.1637541753
515296910.0 -0.0532235422 0.1670982487 0.2596359649 -0.494345129 0.2600035973 -0.4940828265 -0.0847704472 0.1644310381
520296880.0 -0.0512756416 0.1675245216 0.2546729882 -0.4968666947 0.2545547896 -0.4968088042 -0.0829416391 0.1654544322
525296850.0 -0.049557417 0.1682103075 0.2488654027 -0.5001780657 0.2493143829 -0.4998935961 -0.0811382922 0.1663763853
530296820.0 -0.0474737472 0.1689669041 0.2437287839 -0.5019548373 0.2435201881 -0.5025179663 -0.0801140605 0.1668303793
535296790.0 -0.0456279752 0.169624722 0.2378838176 -0.5049951867 0.2382902188 -0.5048826842 -0.0785014673 0.1678558769
540296760.0 -0.0438039771 0.1698363582 0.2328383615 -0.5079869378 0.2323217335 -0.5079090297 -0.0769864401 0.1693554323
545296730.0 -0.042015365 0.1710326711 0.2275095424 -0.510116702 0.2271952529 -0.5104550102 -0.075492648 0.1698478391
550296700.0 -0.0403136965 0.1713945483 0.2218206098 -0.5126187749 0.222287226 -0.5126729842 -0.0738899635 0.171350481
555296670.0 -0.0377982021 0.1718305152 0.2161293423 -0.514957872 0.2163161439 -0.5147769911 -0.0724744464 0.1721662661
560296640.0 -0.0361243347 0.172539575 0.2105930361 -0.5170601101 0.2107932153 -0.5169645407 -0.0704808874 0.1726873697
565296610.0 -0.0345635631 0.1730497885 0.2046470385 -0.5191257619 0.2048955522 -0.5194762143 -0.0693184562 0.173439523
570296580.0 -0.0322314582 0.1733340659 0.1990551688 -0.5211619586 0.1994585592 -0.5217268361 -0.0672084743 0.1748441411
575296550.0 -0.0303162878 0.1742081305 0.1933328161 -0.5235197133 0.1938503432 -0.5234022694 -0.0656836866 0.175226753
580296520.0 -0.0285656585 0.1746434824 0.1880858583 -0.5255715601 0.1878705172 -0.5256164672 -0.0638202479 0.175955745
585296490.0 -0.0263531746 0.1747472259 0.1823936698 -0.5272954132 0.1821476845 -0.5275787748 -0.0624829851 0.1764784113
590296460.0 -0.025001371 0.1751735056 0.176710546 -0.52954919 0.1762304622 -0.529639395 -0.0603405551 0.1778652911
595296430.0 -0.0229115404 0.1759529812 0.1709557879 -0.5314165143 0.1706596348 -0.531586522 -0.0588798664 0.1783441364
600296400.0 -0.0208366838 0.1762145729 0.1649937797 -0.5332244601 0.1652737473 -0.5333192699 -0.057125015 0.1790659256
605296370.0 -0.0186846323 0.1768824112 0.1594003201 -0.534920282 0.159381094 -0.5347804308 -0.0554465102 0.1794152134
610296340.0 -0.0169870707 0.1768831654 0.153775217 -0.5361260597 0.1538117762 -0.5366575972 -0.0536785428 0.1808177119
615296310.0 -0.0149698192 0.1775327216 0.147689283 -0.5379019275 0.147575246 -0.537875522 -0.0521325995 0.1808899126
620296280.0 -0.0129121487 0.1775225173 0.1420093749 -0.5395618422 0.1417639009 -0.539652974 -0.0506403033 0.1814210211
625296250.0 -0.0107615853 0.1778456258 0.1351064694 -0.5410687531 0.1358998132 -0.5413303265 -0.0487577345 0.1825360882
630296220.0 -0.0088643553 0.1783518273 0.1300375788 -0.5425540121 0.1304380325 -0.5424823679 -0.0472526286 0.1835088627
635296190.0 -0.0071076828 0.178274463 0.1241986109 -0.543512251 0.1240829402 -0.5433481213 -0.045292387 0.1833414113
640296160.0 -0.0048073631 0.1785699712 0.1182998005 -0.5450085676 0.1182658747 -0.5450227578 -0.0432555002 0.183982837
645296130.0 -0.002980988 0.1788990384 0.1124191643 -0.5464861601 0.1125205054 -0.5463231196 -0.0422504463 0.1843184095
650296100.0 -0.0009404613 0.1793595456 0.106908468 -0.5473327585 0.1065589157 -0.5471040336 -0.0401520836 0.1851209525
655296070.0 0.0009968829 0.1789574077 0.1005389941 -0.5482973469 0.1006227387 -0.5486261007 -0.0381243673 0.1862746432
660296040.0 0.002528588 0.1794982091 0.0952426597 -0.5490803914 0.094644275 -0.5491774206 -0.0366731258 0.1861578702
665296010.0 0.0052420961 0.1794564217 0.0889914778 -0.5505303609 0.0894738038 -0.5504984848 -0.0350706409 0.1867200151
670295980.0 0.0074945363 0.1795720216 0.0828420402 -0.5512526298 0.0832880321 -0.5513937739 -0.0334791927 0.1871676535
675295950.0 0.0092583981 0.179546419 0.0767179549 -0.5522807173 0.0768667945 -0.552695781 -0.0311767874 0.1880334515
680295920.0 0.0111232725 0.1801813691 0.0708468003 -0.5530556771 0.070789729 -0.5528830764 -0.0294136483 0.1880218531
685295890.0 0.0127834035 0.1797849691 0.0654719729 -0.5536869629 0.0649939113 -0.5539829849 -0.0274592494 0.1887579469
690295860.0 0.0152533218 0.1799971459 0.0591556422 -0.5539172827 0.0586515136 -0.554059393 -0.0258772245 0.1891839354
695295830.0 0.0173212739 0.1795622944 0.0525444764 -0.5547611263 0.0527571329 -0.5548765399 -0.0245039444 0.1895314967
700295800.0 0.019670914 0.1798506415 0.0465889363 -0.5556209867 0.0469118017 -0.5558806259 -0.022181237 0.1897296013
705295770.0 0.021504003 0.1799213231 0.0410823135 -0.5558848007 0.0411474547 -0.5559263881 -0.0208308256 0.1901492334
710295740.0 0.0233723186 0.1798838428 0.0350869818 -0.5561261534 0.034725385 -0.5561016358 -0.0193961884 0.1906234671
715295710.0 0.0251908803 0.1796706011 0.0293880945 -0.5564389074 0.0290424152 -0.5565777152 -0.0169318765 0.1906282618
720295680.0 0.0269245197 0.1791663104 0.0230325429 -0.5567914259 0.0230572632 -0.5569391878 -0.0147252272 0.1912791237
725295650.0 0.0295255495 0.1794101084 0.0171211908 -0.5569260995 0.0170523244 -0.5568996546 -0.0133549523 0.1914255855
730295620.0 0.0309652269 0.1789453139 0.0109183626 -0.5570110996 0.0110096941 -0.5569697184 -0.0113044633 0.1912504239
735295590.0 0.0334570191 0.1790070928 0.0052390408 -0.5571883234 0.0053059642 -0.5573053113 -0.0093433353 0.1918567749
740295560.0 0.0353526694 0.1789067603 -0.0009548139 -0.5569012144 -0.0013612418 -0.5568312068 -0.007357859 0.1920356713
745295530.0 0.0375092352 0.1783379076 -0.0069452132 -0.5568617055 -0.0068375769 -0.5575956937 -0.0057474906 0.1924230609
750295500.0 0.0393374111 0.1780835583 -0.0127800858 -0.5569239529 -0.0130930089 -0.5566115824 -0.0037533588 0.1922406323
755295470.0 0.0418920265 0.177927514 -0.0192490054 -0.5565963372 -0.0188482188 -0.5573711151 -0.0024207001 0.1926582068
760295440.0 0.0434578036 0.1776410597 -0.025299805 -0.5562782596 -0.0249854424 -0.5565081607 -0.000536556 0.1928256787
765295410.0 0.0453820744 0.176874259 -0.03038554 -0.5555706067 -0.0305276901 -0.556158275 0.002007739 0.193251599
770295380.0 0.0478483549 0.1769630627 -0.0371461966 -0.5552265878 -0.0369915239 -0.5558560243 0.0037466404 0.1932192141
775295350.0 0.0493213077 0.1766703223 -0.0431071996 -0.5548440063 -0.0427050021 -0.5551303651 0.0049306305 0.19286485
780295320.0 0.0515558892 0.1761360769 -0.0489181733 -0.555078326 -0.0485273572 -0.5547818156 0.0073398501 0.1937066325
785295290.0 0.0535160353 0.1759035861 -0.0547162084 -0.5534778068 -0.0546744215 -0.5540909261 0.0085963453 0.1932650385
790295260.0 0.0553091018 0.1754387572 -0.0606522032 -0.5537108223 -0.0607936658 -0.5536167822 0.0110730755 0.1933716661
795295230.0 0.0572829888 0.1750621154 -0.0662833475 -0.5521544853 -0.0663906534 -0.5528673676 0.0128433923 0.1939289966
800295200.0 0.0593268734 0.174439596 -0.0727522548 -0.551857521 -0.0729727423 -0.5519611814 0.0150253797 0.1935496296
805295170.0 0.061012757 0.1737444376 -0.0782630137 -0.5507686199 -0.0786451989 -0.5508796327 0.0163513453 0.1934726626
810295140.0 0.0633196215 0.1732265972 -0.0842007566 -0.5501301701 -0.0842902041 -0.550511408 0.0183700211 0.1939277652
815295110.0 0.0652235194 0.1729395222 -0.090543935 -0.5490672133 -0.0907493426 -0.5491178246 0.0201468666 0.1933890051
820295080.0 0.0670870247 0.1717898856 -0.0962542334 -0.547997277 -0.0964045999 -0.5485346614 0.0219024949 0.1934117982
825295050.0 0.0692043073 0.1714749651 -0.1022622463 -0.5470204512 -0.1022845599 -0.5468719672 0.0241324546 0.1935716821
830295020.0 0.0710712953 0.1712692736 -0.1078869597 -0.5460481337 -0.1085460612 -0.5466474458 0.0258113367 0.1931981472
