!Created with skrf (http://scikit-rf.org).
# Hz S RI R 50.0 
!freq ReS11 ImS11 ReS21 ImS21 ReS12 ImS12 ReS22 ImS22
300000.0 -0.3222615604 -0.0803647687 0.3773868411 0.0417733084 0.3739816604 0.0402838588 -0.3215071844 -0.0951870568
5299970.0 -0.3264766649 0.0048347656 0.3781909303 0.0024006465 0.3783627539 0.0025129008 -0.3237482174 0.0047658831
10299940.0 -0.3242908385 0.0132023645 0.3793331452 0.0019743429 0.3795472413 0.002452975 -0.3216309947 0.0160363762
15299910.0 -0.3217131877 0.0204766876 0.3818269772 0.0018928282 0.3818388954 0.0022608175 -0.3185221994 0.0239345921
20299880.0 -0.3186788308 0.0260335951 0.3850486838 0.0018335771 0.384969004 0.0017242162 -0.3147437302 0.0303174196
25299850.0 -0.3157457074 0.0316077587 0.3883586895 0.000125352 0.3879126041 -6.37926e-05 -0.3108306462 0.0361123502
30299820.0 -0.3128859523 0.0357932723 0.3914447561 -0.0021921166 0.3916070492 -0.0021408172 -0.3069917337 0.0411768266
35299790.0 -0.3099414647 0.0399352378 0.3949006135 -0.0054985405 0.3949632003 -0.0054132224 -0.3034927612 0.0452822971
40299760.0 -0.3073731701 0.0435292122 0.3980771846 -0.0089615384 0.3979695615 -0.0086672407 -0.3002329316 0.0482900838
45299730.0 -0.3045634927 0.0467458486 0.4005751506 -0.0130198129 0.4010863381 -0.0127797957 -0.2973334895 0.0520309232
50299700.0 -0.3021888326 0.0495857183 0.4033439391 -0.017488635 0.4034720416 -0.0170861006 -0.2941929714 0.0542467162
55299670.0 -0.3002253285 0.0523240575 0.4055594375 -0.0220177732 0.4055847117 -0.0221650895 -0.2916966144 0.0572183551
60299640.0 -0.2981331022 0.0547664462 0.4074786999 -0.0270373732 0.4078453557 -0.0268885079 -0.289207021 0.0593159489
65299610.0 -0.2963035163 0.0573317289 0.4090689188 -0.0320970088 0.4093260172 -0.0319524876 -0.2870674067 0.0615739227
70299580.0 -0.2946381378 0.0601365312 0.4104912248 -0.0370663733 0.4103399872 -0.0368283724 -0.2848283503 0.06379893
75299550.0 -0.2928937921 0.0625661821 0.411226568 -0.0425182767 0.4112137315 -0.0422192565 -0.2833440911 0.0656549548
80299520.0 -0.2916888617 0.0649258675 0.4124159721 -0.0474827027 0.4125431088 -0.0476064675 -0.2812226223 0.068145246
85299490.0 -0.2903291131 0.0667893327 0.412726645 -0.0521294181 0.4129352823 -0.05228326 -0.2798476502 0.0698433461
90299460.0 -0.2887845786 0.0694380791 0.4128243142 -0.0579871422 0.4132665293 -0.0579844034 -0.2779882892 0.0720328621
95299430.0 -0.2875083128 0.0714314332 0.4135293696 -0.0629529966 0.4136253512 -0.0633469491 -0.2768189184 0.0745239571
100299400.0 -0.2863720556 0.0743186687 0.4130166885 -0.0686002638 0.4132304865 -0.0685595425 -0.275311792 0.0761776489
105299370.0 -0.2851149719 0.0761579514 0.4132285351 -0.0738037413 0.4134561968 -0.0735465335 -0.2735414935 0.078060913
110299340.0 -0.2840372078 0.0785123663 0.4133908676 -0.0785554045 0.4129718093 -0.078593058 -0.2729032748 0.0800308886
115299310.0 -0.2830565428 0.0810677243 0.4131231585 -0.0839998534 0.4130991917 -0.0837429914 -0.2717052418 0.0824152647
120299280.0 -0.2819687743 0.0831490945 0.412332901 -0.0890997042 0.4122695033 -0.0892461142 -0.2703976528 0.0846225644
125299250.0 -0.2810047841 0.0853166012 0.411708021 -0.0941299177 0.4124692625 -0.0939629272 -0.2698184445 0.0863380212
130299220.0 -0.2803592818 0.0881576218 0.4110565185 -0.0990734847 0.4110779375 -0.0991030637 -0.2684733164 0.088592572
135299190.0 -0.279367345 0.0908205239 0.4105157818 -0.1043665571 0.4106400267 -0.1042383292 -0.267435681 0.0909248625
140299160.0 -0.2786717115 0.0932847878 0.4098742081 -0.1094520091 0.4096178597 -0.1092588123 -0.2665196532 0.0935103335
145299130.0 -0.2774786969 0.0957771766 0.4089262367 -0.1141210733 0.4084613604 -0.1137584251 -0.2655734712 0.0959195435
150299100.0 -0.2762849216 0.0983670382 0.4075930709 -0.1189397618 0.4076580737 -0.1184476241 -0.264297448 0.0983723569
155299070.0 -0.2758636927 0.1005870345 0.4067836997 -0.1241729311 0.4062870002 -0.1240314658 -0.2630290449 0.1006971169
160299040.0 -0.2747764424 0.1036116432 0.4056219759 -0.1289170059 0.4048937398 -0.1288631551 -0.2627304012 0.1031507606
165299010.0 -0.2737346967 0.1059464366 0.4041877801 -0.1339825633 0.4043143205 -0.1339550914 -0.2610797031 0.1059024997
170298980.0 -0.2727676397 0.1086159094 0.4025479677 -0.1385096928 0.4031284896 -0.1382747587 -0.2603225381 0.1078933419
175298950.0 -0.2719307889 0.1111854463 0.4015707678 -0.1430076172 0.4013262684 -0.1431131032 -0.2596685203 0.1107337429
180298920.0 -0.2709209023 0.1139507448 0.4001581944 -0.1478980602 0.3997892567 -0.1475432686 -0.2584269707 0.11318158
185298890.0 -0.2693258824 0.1165418367 0.3984152296 -0.1529402102 0.3984788075 -0.1525533769 -0.2573168152 0.1157666532
190298860.0 -0.2689740127 0.1194562715 0.3968766278 -0.1575130501 0.3969364523 -0.1572188459 -0.2562887554 0.1183383742
195298830.0 -0.2677740752 0.121839035 0.3950583076 -0.1620419474 0.3954829446 -0.1619733634 -0.255224344 0.1209982595
200298800.0 -0.2663501442 0.1246596062 0.3935664023 -0.1667187358 0.3934839269 -0.1668744038 -0.2545355363 0.1235236559
205298770.0 -0.2653762722 0.1272358597 0.3914343833 -0.171118851 0.3916048071 -0.1709463364 -0.2528933547 0.1255902913
210298740.0 -0.2643529607 0.1296732568 0.3897638348 -0.1755757772 0.3896337901 -0.1755223124 -0.251812856 0.1285484525
215298710.0 -0.263409604 0.1325392958 0.3880128186 -0.1801955749 0.3877942429 -0.180614411 -0.2510562955 0.1311565737
220298680.0 -0.261886516 0.1352668669 0.3855964933 -0.184534707 0.3860225916 -0.1846181966 -0.250139546 0.1335835209
225298650.0 -0.2609447812 0.1377218947 0.384058902 -0.1890647565 0.3840539549 -0.1891856657 -0.2492095088 0.1363561183
230298620.0 -0.2597543721 0.1407127889 0.3818662735 -0.1933621401 0.3828324483 -0.193512896 -0.2480770102 0.1384072842
235298590.0 -0.2583049306 0.1438708371 0.3798183551 -0.1980991151 0.3801671693 -0.1979207648 -0.2466610563 0.1413207073
240298560.0 -0.2572824231 0.1465647162 0.3778767647 -0.2026755552 0.3775200426 -0.2024476745 -0.2449678342 0.1438876162
245298530.0 -0.2558154178 0.1488469684 0.3754658558 -0.206737103 0.3755912084 -0.206834217 -0.2441234583 0.1457602886
250298500.0 -0.2542733923 0.1517651519 0.37259354 -0.2113204368 0.3728056425 -0.2107293265 -0.2427984497 0.14873327
255298470.0 -0.2527480222 0.1540874802 0.3699349993 -0.2147918316 0.3706240301 -0.2149960276 -0.2413704683 0.1508866078
260298440.0 -0.2516599392 0.1570075571 0.3682158978 -0.2195169155 0.3685449827 -0.2192996 -0.2394721798 0.1535850379
265298410.0 -0.2499666016 0.1598464384 0.3657709499 -0.2235353627 0.3664590363 -0.2233506447 -0.2382776607 0.1559721565
270298380.0 -0.2489122858 0.1624011011 0.3637549572 -0.2273336815 0.3635536701 -0.2273935926 -0.2370780514 0.1587523328
275298350.0 -0.2467572516 0.1650961757 0.3608655919 -0.2319246575 0.3614080772 -0.2316337018 -0.2350848815 0.1611796124
280298320.0 -0.2450784411 0.1680283249 0.3585113396 -0.2358875933 0.35847917 -0.2356554032 -0.2333575296 0.1637032456
285298290.0 -0.2437649476 0.1708595172 0.3558506701 -0.2398988195 0.3560022793 -0.2397941201 -0.2318844136 0.1658845431
290298260.0 -0.2419603411 0.1730068968 0.3534193422 -0.2437569541 0.353285392 -0.2439685607 -0.2300985404 0.1688098441
295298230.0 -0.2398847829 0.17579173 0.3504110527 -0.2479341626 0.3505856743 -0.2476388222 -0.2281174772 0.1708235037
300298200.0 -0.2384622245 0.178345156 0.3482609009 -0.2516713185 0.3479368484 -0.2521538645 -0.2266861262 0.1733635744
305298170.0 -0.2366710078 0.1805197335 0.3450084184 -0.2557943498 0.3453643615 -0.2557944723 -0.2243990353 0.175655893
310298140.0 -0.234995223 0.1834778306 0.3424943721 -0.2595380211 0.3426912879 -0.2596711042 -0.2231163787 0.1780932776
315298110.0 -0.2331119205 0.1857317731 0.3394263981 -0.2633876918 0.3394758296 -0.2638583431 -0.221138548 0.1804751531
320298080.0 -0.2312211228 0.1883300553 0.3359494433 -0.2672892181 0.3364657242 -0.2675881843 -0.2194704346 0.1832713279
325298050.0 -0.2293397156 0.1908720529 0.3335080335 -0.2715257613 0.3333806891 -0.2713395119 -0.2179081242 0.1853105783
330298020.0 -0.2275572967 0.1931162055 0.3300895923 -0.2753272545 0.3304616985 -0.2753781782 -0.2162100839 0.18778988
335297990.0 -0.2256240664 0.1955390354 0.3267805211 -0.2784481339 0.326914172 -0.2787936452 -0.2147673057 0.1907963086
340297960.0 -0.2242394392 0.1981274913 0.3240543494 -0.2823854174 0.3238101115 -0.2826495288 -0.2120627277 0.1930911992
345297930.0 -0.2220991691 0.2008292686 0.320414168 -0.2863912194 0.3202574245 -0.2859059048 -0.2106014742 0.1949825663
350297900.0 -0.2203801108 0.2030837235 0.3171248739 -0.2893131658 0.3171406021 -0.2895482675 -0.2089232054 0.1980127895
355297870.0 -0.2180774151 0.2060503453 0.3141507733 -0.2930631683 0.3143807329 -0.2925202767 -0.2069892004 0.199801346
360297840.0 -0.2162611115 0.2079890325 0.3113550757 -0.2963751017 0.3113865743 -0.2962618536 -0.2049987128 0.2027946218
365297810.0 -0.214364682 0.2108635624 0.3077942971 -0.3000689493 0.3078669574 -0.2999330727 -0.2027652834 0.2049194999
370297780.0 -0.2117415979 0.2130911536 0.304105342 -0.3028368456 0.3044036203 -0.3027246659 -0.2005657646 0.2073370564
375297750.0 -0.2093693802 0.2155339584 0.3009931539 -0.3063624975 0.3011902343 -0.3064993144 -0.1986441022 0.2093213704
380297720.0 -0.2071081323 0.2177863355 0.2971955316 -0.3096189833 0.2977417191 -0.3095333096 -0.1970621064 0.21173515
385297690.0 -0.2054900366 0.2203583362 0.2941844473 -0.312924192 0.2936847418 -0.3129562333 -0.1945565219 0.214240404
390297660.0 -0.2031674898 0.2228841214 0.2901841692 -0.3162600753 0.2903760165 -0.3159377545 -0.1928174418 0.2164123863
395297630.0 -0.2006522435 0.2252417655 0.2871573332 -0.3194524579 0.2871462774 -0.3192692671 -0.1900029061 0.2183272208
400297600.0 -0.1981241841 0.2273466155 0.2830996115 -0.3227280176 0.28342701 -0.3225777001 -0.1881388074 0.2208401909
405297570.0 -0.1963394598 0.2293790591 0.2798485757 -0.325403129 0.2798600695 -0.3252896408 -0.1860346446 0.2228720669
410297540.0 -0.1936794491 0.2317207949 0.2761298347 -0.3286554012 0.27679813 -0.3287881255 -0.1838511171 0.2253218711
415297510.0 -0.1911040694 0.2338688724 0.2722245514 -0.3319886778 0.2728602597 -0.3315629319 -0.1814934567 0.2268766899
420297480.0 -0.1892996671 0.236372085 0.2686829192 -0.3347384142 0.2689855094 -0.3347626706 -0.1792944973 0.2291751327
425297450.0 -0.1866120294 0.2381334234 0.2655442784 -0.3376966348 0.2655339479 -0.3377109692 -0.1770654115 0.231241621
430297420.0 -0.1841970201 0.2404084217 0.2616261631 -0.340040126 0.2613995862 -0.3400809899 -0.1746996751 0.2328297064
435297390.0 -0.1817544298 0.2425934694 0.2575347036 -0.3432894233 0.2573557926 -0.3433326696 -0.1717760545 0.2352477547
440297360.0 -0.1793793808 0.2445800464 0.2536287923 -0.3458331339 0.2541800108 -0.3459798996 -0.1698413152 0.2367849037
445297330.0 -0.1766937391 0.2463807596 0.2502791062 -0.3485179517 0.2502449906 -0.3485326481 -0.1669668957 0.2384616939
450297300.0 -0.1739627593 0.2482646182 0.2464231762 -0.3513541899 0.2465537 -0.3515273704 -0.1645685456 0.2404292182
455297270.0 -0.1714623829 0.2503221311 0.2419214166 -0.353806296 0.242281189 -0.3541356169 -0.1622704775 0.2423465038
460297240.0 -0.1692068388 0.2524935054 0.2384823531 -0.3566117462 0.2384696935 -0.356593191 -0.1597108602 0.2443861451
465297210.0 -0.1662002549 0.2544280998 0.2348521299 -0.3589218314 0.2347173544 -0.359687562 -0.156925269 0.2458113986
470297180.0 -0.1634653071 0.2562068897 0.2301728849 -0.3618848967 0.2308198409 -0.3618986303 -0.1542992807 0.248423779
475297150.0 -0.1610190196 0.2579591175 0.2261697276 -0.3635766942 0.226637706 -0.364007774 -0.1515233251 0.2495054873
480297120.0 -0.1581120763 0.2601457232 0.2222703588 -0.3666267749 0.2222515085 -0.3670837574 -0.1486982288 0.2514218
485297090.0 -0.1556482869 0.2617883471 0.2187096783 -0.3689349318 0.2184740271 -0.3686405894 -0.1462448206 0.2530619785
490297060.0 -0.1532952161 0.2636001508 0.2146222479 -0.3711656446 0.214456965 -0.3713788554 -0.1436990536 0.2550473784
495297030.0 -0.1503814429 0.2652940035 0.2103524294 -0.3736036278 0.210746402 -0.3734606787 -0.1412519971 0.2566218957
500297000.0 -0.1473165434 0.2669148824 0.2063287367 -0.3754824859 0.206184063 -0.3757400192 -0.1381684721 0.2588784958
505296970.0 -0.1445579367 0.2686618179 0.2019678232 -0.378135422 0.2020071407 -0.3779386187 -0.1354141575 0.2601594811
510296940.0 -0.1416355491 0.2702323562 0.1981304703 -0.3804710904 0.197538564 -0.3804119781 -0.132645772 0.2616081194
515296910.0 -0.1387951721 0.2719372517 0.1935534874 -0.3821567608 0.1939282426 -0.382421466 -0.1298284766 0.2634308614
520296880.0 -0.1362005429 0.2734304907 0.1896078677 -0.3846995722 0.1897900657 -0.3842450006 -0.1274266613 0.2649026011
525296850.0 -0.1330367733 0.2747882845 0.1851469735 -0.3863905248 0.1855234628 -0.3863838874 -0.1245667564 0.2666653422
530296820.0 -0.1302535767 0.2768247121 0.1810249572 -0.388374179 0.1812544934 -0.3885938803 -0.1214479278 0.268081898
535296790.0 -0.1274591269 0.2782980099 0.1770571737 -0.3901279981 0.177212346 -0.3899528972 -0.1192381511 0.2693625819
540296760.0 -0.1246190175 0.279431169 0.1725034797 -0.3923980666 0.1727302871 -0.392447388 -0.1164900251 0.2710027729
545296730.0 -0.1218488694 0.2812841338 0.167991753 -0.3939495657 0.168415382 -0.3938598734 -0.114007897 0.2720311767
550296700.0 -0.1185680486 0.2828830746 0.1637663564 -0.3956543935 0.1638659123 -0.3959949313 -0.1109463889 0.2737283998
555296670.0 -0.1155586134 0.2839766649 0.1597368784 -0.3976433241 0.1600119743 -0.3976054107 -0.1081566782 0.2755170792
560296640.0 -0.1127021697 0.2855708935 0.1553681506 -0.3992758613 0.1553884124 -0.3991383799 -0.1048635883 0.2762626937
565296610.0 -0.1099893404 0.2867989363 0.1509409458 -0.4009062299 0.1509787764 -0.4010038445 -0.1024387345 0.2775430143
570296580.0 -0.1069541246 0.2878249472 0.1464622944 -0.4024397324 0.1461612572 -0.4025807829 -0.0995050385 0.2789446851
575296550.0 -0.1039332404 0.2895311078 0.1421612454 -0.404547275 0.1418353236 -0.4040331564 -0.0963079184 0.2799306579
580296520.0 -0.1005655106 0.2905633984 0.1375683821 -0.4057933374 0.1376938812 -0.4057393293 -0.0934340523 0.2814040407
585296490.0 -0.0977355911 0.2916167769 0.1331624041 -0.4069567202 0.1334690817 -0.4069495764 -0.0907267578 0.2826030818
590296460.0 -0.0943317903 0.2929006536 0.1287526166 -0.4080149314 0.1290027849 -0.4082744858 -0.0880697609 0.2833539366
595296430.0 -0.0914210073 0.2941089999 0.124107228 -0.4095178009 0.123983557 -0.4093850762 -0.0847842066 0.2841100801
600296400.0 -0.0885203033 0.2951294474 0.1198555697 -0.411031053 0.1198459433 -0.4106516335 -0.0819692178 0.2850896655
605296370.0 -0.0856265495 0.2962927305 0.1151989515 -0.4119906909 0.1154675043 -0.4124372153 -0.0785247068 0.286400988
610296340.0 -0.082348104 0.2970627405 0.1106693203 -0.4134298849 0.1107531472 -0.4132309255 -0.0756000431 0.2872107006
615296310.0 -0.0790164975 0.2982382412 0.1060215322 -0.4144298157 0.1059363701 -0.4146088607 -0.0725143896 0.2883064095
620296280.0 -0.0760656239 0.298751898 0.1017086732 -0.4154402893 0.1018403587 -0.4149767649 -0.0698064746 0.2889124161
625296250.0 -0.0729850353 0.2997330538 0.0977231544 -0.4170215987 0.0972406972 -0.4169025835 -0.0661908408 0.2897774393
630296220.0 -0.0691880513 0.300819144 0.0924066921 -0.4176639737 0.0924083393 -0.4177238382 -0.0633180845 0.290904511
635296190.0 -0.0668268822 0.3016224134 0.0880184967 -0.4184291541 0.0880413979 -0.4185413894 -0.0599972527 0.2915653451
640296160.0 -0.0636138325 0.3027077899 0.0836331557 -0.4192767875 0.0835072964 -0.4194433244 -0.0570071944 0.2921053469
645296130.0 -0.0602944381 0.3036223486 0.078931075 -0.4198901478 0.0793757216 -0.4200075635 -0.0541819428 0.2931310574
650296100.0 -0.0572755248 0.3038825625 0.0746356452 -0.4207406122 0.0743619616 -0.4212451394 -0.0507967101 0.2931942733
655296070.0 -0.0541046235 0.30488526 0.0700766963 -0.4214732152 0.0701429339 -0.4216324735 -0.0475210156 0.2941460167
660296040.0 -0.0510699068 0.3052635512 0.0656689454 -0.4222820378 0.065556081 -0.4225145386 -0.0443965284 0.2948772697
665296010.0 -0.0476762975 0.3056842738 0.0605486093 -0.4229816023 0.0605944478 -0.4228664193 -0.0409155748 0.2958571425
670295980.0 -0.0449391894 0.3067039366 0.0562102621 -0.4233677998 0.0563142746 -0.4235649211 -0.0385067831 0.2962248956
675295950.0 -0.0416211662 0.3072557424 0.0518365641 -0.4240220824 0.0518987011 -0.4237326893 -0.0354372471 0.2970955907
680295920.0 -0.0381420962 0.3078241713 0.0469971644 -0.4246354462 0.0468489714 -0.4249327288 -0.0321657077 0.2978982463
685295890.0 -0.0349331587 0.308650565 0.0425047808 -0.4251083719 0.042389381 -0.4251462558 -0.0288160041 0.2980207457
690295860.0 -0.0312260584 0.308962751 0.0372712537 -0.4252278252 0.0375867655 -0.4255826378 -0.0257589291 0.299385319
695295830.0 -0.0282205199 0.3094289709 0.033554986 -0.4254832597 0.0331964978 -0.4258179033 -0.0224769138 0.2990099919
700295800.0 -0.0250234215 0.3097576602 0.0282176006 -0.4259573686 0.028465982 -0.4261601385 -0.0196596886 0.2998738402
705295770.0 -0.022060452 0.3105912249 0.0239988849 -0.4260083733 0.024238966 -0.4265281472 -0.0167639607 0.3006088903
710295740.0 -0.0185097692 0.3106005362 0.0192605674 -0.4268714409 0.0195458787 -0.4268746023 -0.0133828567 0.300262803
715295710.0 -0.0156210161 0.3108724241 0.0150153214 -0.4266673961 0.0145915294 -0.4269290723 -0.010093627 0.3007385448
720295680.0 -0.0122103017 0.3114347747 0.0100903331 -0.4268911556 0.0101930389 -0.4272351085 -0.0068250482 0.3012320773
725295650.0 -0.0089752835 0.3115710998 0.0056536605 -0.4269933793 0.0059309066 -0.4269629407 -0.0043024769 0.3016411598
730295620.0 -0.0054496964 0.3120594038 0.0006928307 -0.4267116661 0.0009567544 -0.4271418708 -0.0012157215 0.3016572264
735295590.0 -0.0025532396 0.3121446267 -0.0035219731 -0.4273240829 -0.0039998609 -0.4268111824 0.0020540585 0.3012474384
740295560.0 0.0006547294 0.3123514022 -0.0084837997 -0.4266410831 -0.008397981 -0.4269795964 0.0055255035 0.301864015
745295530.0 0.003966592 0.3125772516 -0.0129166858 -0.4262905279 -0.0132523856 -0.4266069206 0.0086040846 0.301998925
750295500.0 0.0074933353 0.3122037785 -0.0177002066 -0.4263597099 -0.0175070119 -0.426484555 0.0115079028 0.3017818699
755295470.0 0.0110070406 0.3123988302 -0.022291985 -0.4263039505 -0.022272982 -0.4261914514 0.0149059971 0.3015815572
760295440.0 0.0137272932 0.3124411993 -0.0271212908 -0.4259519608 -0.0269849538 -0.4261071518 0.018046843 0.3014318028
765295410.0 0.0170157208 0.3123784764 -0.0318264521 -0.4253638772 -0.0320108985 -0.4254345912 0.0212886588 0.3017427495
770295380.0 0.0200192184 0.3124580015 -0.0360466929 -0.42511886 -0.0361365871 -0.424906376 0.0239796265 0.3013706464
775295350.0 0.0233055015 0.3119413723 -0.0410356026 -0.4243292603 -0.0401298134 -0.4245732988 0.0267565139 0.3012480946
780295320.0 0.0268293079 0.3119642704 -0.0453528301 -0.4235832077 -0.0448182752 -0.4239176495 0.0302529359 0.3010662877
785295290.0 0.0297707647 0.3115742015 -0.0499570215 -0.4233928805 -0.0498537541 -0.4236131384 0.0339963227 0.3006928585
790295260.0 0.0336812197 0.311796728 -0.0540560097 -0.4229020433 -0.0539043401 -0.422880009 0.0373243832 0.3006509838
795295230.0 0.0365590962 0.3110881099 -0.0586830433 -0.4220951167 -0.0588365972 -0.4223788157 0.0406208342 0.3002804255
800295200.0 0.0397650494 0.3108990213 -0.0639352213 -0.4211655527 -0.0634169801 -0.4212569329 0.0436036481 0.3000244665
805295170.0 0.0430633846 0.3107220767 -0.067967143 -0.4208538791 -0.0680509102 -0.4207717294 0.0464367557 0.2997121311
810295140.0 0.0462393103 0.3103960919 -0.0724989779 -0.4197538209 -0.0723246178 -0.4201450627 0.0500583516 0.2996502634
815295110.0 0.0497192686 0.3097613728 -0.0769155 -0.4186307054 -0.0768229185 -0.4192563595 0.0531595259 0.2988657267
820295080.0 0.0524214051 0.3100034567 -0.0815680169 -0.4177021619 -0.0810933152 -0.4182789685 0.056501247 0.2986857339
825295050.0 0.0563059975 0.3089446717 -0.085874715 -0.4170081072 -0.0858728374 -0.4173151673 0.0594958651 0.2984166308
830295020.0 0.0591155488 0.30876361 -0.0905468118 -0.4160440533 -0.0905105599 -0.4160816212 0.0631692012 0.297775661
