!Created with skrf (http://scikit-rf.org).
# Hz S RI R 50.0 
!freq ReS11 ImS11 ReS21 ImS21 ReS12 ImS12 ReS22 ImS22
300000.0 -0.7794184824 -0.1101542931 -0.0012127738 0.0011794153 0.000221534 0.0007625177 -0.0507101979 -0.0632116534
5299970.0 -0.7851599348 -0.0062726983 4.61904e-05 -0.0001266081 -9.98541e-05 0.0001438305 -0.0495718456 0.0153200987
10299940.0 -0.787851569 -0.0037655398 -3.80728e-05 -9.84432e-05 6.4366e-05 -0.0001915293 -0.0437198143 0.0338574455
15299910.0 -0.793300008 -0.0020560965 -7.98132e-05 2.3927e-05 -3.63374e-05 -9.68362e-05 -0.0351649776 0.048099975
20299880.0 -0.8002861699 0.0022847361 -0.0001116331 0.0001009891 1.99829e-05 1.90913e-05 -0.0250690446 0.0600982891
25299850.0 -0.8059828227 0.0078553264 0.0002786714 3.89336e-05 -2.57999e-05 -9.17458e-05 -0.0139394636 0.0694192958
30299820.0 -0.8126073283 0.0154541135 1.06531e-05 0.0001411564 -0.0001556185 -0.0001839666 -0.0022252774 0.0764374494
35299790.0 -0.8172468424 0.024696931 -5.5009e-05 -1.04833e-05 4.85496e-05 0.0002450935 0.0095358588 0.0811149574
40299760.0 -0.8216469326 0.0338189463 0.0001717778 0.0002023961 8.74143e-05 0.0001397476 0.0208080321 0.0836369843
45299730.0 -0.8241459967 0.0431724133 0.0001570884 -0.0001333083 -0.0001044273 -0.0001011809 0.0313460768 0.0851243985
50299700.0 -0.8272296559 0.0531000587 2.20253e-05 -4.78662e-05 -3.28086e-05 -2.47855e-05 0.0414230512 0.0850752908
55299670.0 -0.8295484037 0.0633289904 -3.96437e-05 -1.9296e-06 -2.07283e-05 6.58918e-05 0.0506108371 0.0839518409
60299640.0 -0.8301399254 0.0736567466 0.0001204355 -3.02195e-05 0.0002179634 3.65751e-05 0.0593775283 0.0819351579
65299610.0 -0.8311339522 0.0836035329 -0.000158006 -0.0001058574 -1.57736e-05 1.20794e-05 0.0668030474 0.0791279461
70299580.0 -0.8315799474 0.0940857478 6.1274e-06 4.4291e-05 3.36851e-05 0.0001701723 0.0737695564 0.0761542557
75299550.0 -0.8323406917 0.1037174056 -7.91377e-05 -1.86643e-05 9.90736e-05 5.56609e-05 0.0802354076 0.0725433173
80299520.0 -0.8320362957 0.1134624249 2.39405e-05 0.0001828826 -0.0001031026 -1.5476e-05 0.0855871051 0.0692075999
85299490.0 -0.831100597 0.1224727545 -0.0002028264 -0.0001230805 6.16739e-05 0.0001651508 0.090684076 0.0650833563
90299460.0 -0.8299324136 0.1323300497 -0.0001713116 8.5833e-06 0.0001596859 6.24783e-05 0.0955727891 0.0607554271
95299430.0 -0.8289505685 0.1423766876 -0.0003722997 0.0001333988 1.5814e-05 -1.0647e-06 0.0991407248 0.0568539112
100299400.0 -0.8279405736 0.1510079575 4.15686e-05 0.0001444872 7.30973e-05 4.10781e-05 0.1034818743 0.0525270357
105299370.0 -0.8273607286 0.1602100476 6.74236e-05 -5.33522e-05 -0.0001516623 0.0001400374 0.1067710531 0.0484802379
110299340.0 -0.825585397 0.1699348704 -0.0002168672 0.000222345 -3.50475e-05 -3.81498e-05 0.109278082 0.0445040657
115299310.0 -0.823746088 0.1787996211 -7.9359e-06 5.0464e-05 1.25537e-05 -3.21897e-05 0.1120515376 0.040482449
120299280.0 -0.8220832922 0.187741279 -4.48788e-05 0.0001108082 3.28198e-05 3.28146e-05 0.1144662167 0.0365532491
125299250.0 -0.8203336009 0.1960591908 0.0001222382 -7.83763e-05 -0.0001294152 -0.000258274 0.1161716528 0.0322464783
130299220.0 -0.8189776827 0.2055144918 7.0367e-06 -6.09908e-05 0.0001087218 -0.0001087814 0.1181343096 0.0283747279
135299190.0 -0.8171144015 0.214194566 -0.0001539922 0.0001376628 9.8607e-05 -2.2579e-06 0.1201115789 0.0246935479
140299160.0 -0.8148070252 0.2236947834 -4.5577e-05 9.82728e-05 9.03219e-05 -5.71707e-05 0.1211294027 0.0212854831
145299130.0 -0.8125035455 0.2322349232 9.9272e-06 -4.64929e-05 -1.728e-07 6.69746e-05 0.1220733392 0.0178259313
150299100.0 -0.8098842709 0.2411531791 3.92222e-05 9.19705e-05 0.0002063499 0.0001693482 0.1232214347 0.0146878292
155299070.0 -0.8077189015 0.2495239619 -7.66083e-05 0.0001157026 1.49926e-05 8.40802e-05 0.1238224739 0.0112547982
160299040.0 -0.8050364427 0.2585718741 3.7486e-05 0.0001306291 4.2135e-05 3.5043e-06 0.1242687465 0.0081146522
165299010.0 -0.802583066 0.2666444999 3.15944e-05 0.0001826518 0.0002451458 2.89713e-05 0.1251556268 0.0047143099
170298980.0 -0.7997655739 0.2757742689 -0.0001717002 -1.46576e-05 6.39584e-05 -4.23517e-05 0.1251161426 0.0015223556
175298950.0 -0.7968960003 0.2844075985 -7.2007e-06 0.0001529041 2.6249e-05 6.55436e-05 0.125316706 -0.0014354554
180298920.0 -0.7946258605 0.2928583867 1.60727e-05 5.64638e-05 0.0002509404 2.77381e-05 0.1256577809 -0.0043995134
185298890.0 -0.791336465 0.3011623435 3.18296e-05 0.0002124305 6.19069e-05 -0.0001506672 0.1257208496 -0.0071238498
190298860.0 -0.7884408705 0.3101575172 6.49255e-05 3.91823e-05 -0.0001979098 9.94256e-05 0.1256171634 -0.0098953161
195298830.0 -0.7851727796 0.3181030511 -9.78336e-05 0.0002697008 0.0001445174 1.04727e-05 0.1253788023 -0.0127936972
200298800.0 -0.7813496762 0.3269708349 3.861e-06 3.4319e-06 -2.14249e-05 0.0002242485 0.124879384 -0.0157825305
205298770.0 -0.7782876746 0.3342048068 2.81813e-05 -2.016e-05 4.61326e-05 0.0001016907 0.1245825106 -0.0184377748
210298740.0 -0.7747874001 0.3425159853 8.67083e-05 -7.16034e-05 0.0001899922 -5.75363e-05 0.1241101843 -0.0207758891
215298710.0 -0.7714825528 0.351256586 -2.5626e-06 -3.44698e-05 7.05044e-05 -0.0002045763 0.1235817422 -0.0236572726
220298680.0 -0.7671432387 0.3595150903 0.0001032967 -1.35371e-05 -1.55735e-05 6.57096e-05 0.1226773153 -0.0262485887
225298650.0 -0.7640863996 0.3666279134 3.22875e-05 5.09653e-05 0.0001196739 6.61192e-05 0.1220442425 -0.0287427542
230298620.0 -0.7600963514 0.3756568884 0.0001652028 -2.964e-05 0.0001673001 -5.76202e-05 0.1214379179 -0.0310943118
235298590.0 -0.7562531731 0.3834521051 4.9271e-06 1.95034e-05 -4.69346e-05 0.0002433263 0.1209282057 -0.0332602263
240298560.0 -0.7518202174 0.3912323868 8.3986e-05 -0.0001353879 -7.1462e-05 -9.3715e-06 0.1202686354 -0.0360124731
245298530.0 -0.7481227118 0.399298408 0.000129452 -0.0001549124 6.92617e-05 6.55022e-05 0.1196049852 -0.0386533895
250298500.0 -0.7443286236 0.4067908116 -4.27003e-05 0.0001881603 -4.46693e-05 -8.35559e-05 0.1182573364 -0.0408984045
255298470.0 -0.7398346876 0.4145069753 0.0002428037 4.72597e-05 0.0001810239 0.0001565303 0.1175995975 -0.0433038085
260298440.0 -0.7354802249 0.4217542435 0.0002223519 -6.33268e-05 -2.33534e-05 0.0001764782 0.1169490712 -0.0452502796
265298410.0 -0.7311071774 0.4297535792 8.89883e-05 6.94614e-05 0.0001101913 -3.01432e-05 0.1162072963 -0.0472888308
270298380.0 -0.7272646611 0.4376065281 -0.0001143424 -8.64644e-05 -1.16383e-05 0.0001011253 0.1152343422 -0.0495960702
275298350.0 -0.7223401478 0.4448926597 -3.35579e-05 -3.36837e-05 4.92383e-05 0.0002675209 0.1147291561 -0.0513593571
280298320.0 -0.7171045974 0.4531172318 -4.713e-05 2.6082e-06 -1.79688e-05 2.57108e-05 0.1136760958 -0.0540366176
285298290.0 -0.7125468608 0.4604682987 7.64982e-05 9.8094e-05 0.00022512 0.0001666332 0.1126725228 -0.0559343864
290298260.0 -0.7076345306 0.4677546313 6.79893e-05 -0.0002497254 0.0001829256 0.0001712724 0.1118651344 -0.057849684
295298230.0 -0.7024108597 0.474585991 -1.70024e-05 0.0001163562 -9.22175e-05 0.0001078209 0.1110812398 -0.0601210043
300298200.0 -0.6977053972 0.4821007896 0.0001030784 0.0003131167 -2.46e-07 1.08366e-05 0.1100768049 -0.0615802917
305298170.0 -0.6922169345 0.4885226289 9.2413e-06 -6.64587e-05 -3.7202e-06 -0.0001622918 0.1098141228 -0.064032016
310298140.0 -0.6875045615 0.4962609473 3.88159e-05 -8.24921e-05 -2.33912e-05 0.000124212 0.1078588754 -0.0657934842
315298110.0 -0.6823543392 0.503306071 0.0001365641 0.000185525 0.0001319184 0.0001827186 0.1070998338 -0.0674502993
320298080.0 -0.6772658653 0.5107848483 0.0001392954 0.0002181158 6.29744e-05 9.30382e-05 0.1059503806 -0.0692369433
325298050.0 -0.6720583289 0.5174495342 1.68469e-05 4.80355e-05 0.0001082747 -2.5409e-05 0.1045395664 -0.0714782539
330298020.0 -0.6664298476 0.5241172541 0.0002450338 2.99428e-05 -7.36238e-05 5.56649e-05 0.1027752073 -0.0728436813
335297990.0 -0.6606003657 0.5307203969 -6.21908e-05 0.0001246208 0.000212713 5.56943e-05 0.1015132756 -0.0737903063
340297960.0 -0.6556710503 0.5380739157 3.1703e-06 0.0001366964 0.0001058042 1.92801e-05 0.100583042 -0.0753862114
345297930.0 -0.6499045222 0.5445380692 0.0001633374 0.0002005696 -0.0001250204 0.0001563724 0.0989112046 -0.076564055
350297900.0 -0.6441405836 0.5508355264 0.0002023431 0.0001983548 -0.000163809 0.0001090678 0.09722865 -0.0776637006
355297870.0 -0.6378634827 0.558382906 -0.000172993 7.43045e-05 1.62623e-05 0.0001127119 0.0960169566 -0.0791986769
360297840.0 -0.6324705239 0.5637710797 7.42586e-05 0.0001984064 0.0001942288 -5.93146e-05 0.094641831 -0.0804249057
365297810.0 -0.6273776803 0.5703729154 6.56697e-05 -6.12866e-05 0.0002138606 3.37467e-05 0.0932958897 -0.0818509392
370297780.0 -0.6203469 0.5771038547 -6.02135e-05 1.47185e-05 0.0001072074 0.000209666 0.0919934985 -0.0828286935
375297750.0 -0.6141735176 0.5832834038 0.0001537009 0.0001516889 9.89032e-05 -2.07819e-05 0.0900621152 -0.0844096266
380297720.0 -0.6083565667 0.5896424593 0.0002623146 -5.36079e-05 9.93325e-05 -0.0001364077 0.0885264523 -0.0854515033
385297690.0 -0.6027081349 0.5954478415 -9.06389e-05 1.79022e-05 0.0001656034 8.40541e-05 0.0873323333 -0.0868105213
390297660.0 -0.5966971753 0.6015463685 6.08805e-05 -0.0001317481 0.0001952957 7.15013e-05 0.0851656346 -0.0879058243
395297630.0 -0.5902690935 0.6083133776 -7.91605e-05 -1.23847e-05 0.0001378644 0.0002554357 0.0843423412 -0.0892536539
400297600.0 -0.5839992558 0.6142736968 5.40583e-05 6.43016e-05 4.38103e-05 0.0001308229 0.082832051 -0.0900107915
405297570.0 -0.5773910168 0.6196643921 4.69286e-05 0.0001329985 -3.11206e-05 -0.0001253562 0.0809308678 -0.0914457059
410297540.0 -0.5710288363 0.6256254412 0.0001477938 -1.49199e-05 9.48721e-05 0.0002156146 0.0796700204 -0.0926675632
415297510.0 -0.5639511412 0.6309667548 0.0001482151 0.0002401061 0.0001703391 -2.8189e-05 0.0780331515 -0.0938042598
420297480.0 -0.5586483189 0.637419828 0.0002552401 5.1969e-06 0.0001292956 2.27091e-05 0.0763079322 -0.0948229327
425297450.0 -0.5513308891 0.6433807159 0.0002550179 0.0002674642 0.0001177151 0.000127806 0.0750336638 -0.0959214278
430297420.0 -0.5449529571 0.6483323234 -7.43379e-05 -4.9245e-05 -5.3059e-06 0.0001447883 0.0729999295 -0.097355229
435297390.0 -0.5384730504 0.6535110286 0.0003258804 -1.18383e-05 0.0001358953 0.0001824837 0.0718374613 -0.0986589797
440297360.0 -0.5314735812 0.6588863507 7.49987e-05 0.0002299203 0.0001024637 -1.6116e-05 0.0703652579 -0.0993626793
445297330.0 -0.5248240887 0.6645624436 0.0001497191 0.0001012665 0.0001284669 -8.8797e-06 0.0689666356 -0.1009191576
450297300.0 -0.5179712202 0.6694331884 0.0001614954 -3.09831e-05 0.0002197042 -9.76332e-05 0.0672049008 -0.1012998162
455297270.0 -0.5108890845 0.6748673417 8.52035e-05 8.42875e-05 -0.000129168 3.5645e-06 0.0660876922 -0.1026210273
460297240.0 -0.5045389694 0.6798978724 -4.58376e-05 0.0002748017 0.0001727771 -0.0001236671 0.0643992885 -0.102987758
465297210.0 -0.4972642382 0.6851535043 7.92859e-05 0.0001496171 0.0003498341 6.54155e-05 0.0634543459 -0.1039947613
470297180.0 -0.4899545756 0.6901049612 -0.0001032942 -1.44768e-05 4.83095e-05 6.96252e-05 0.0613611002 -0.1045831975
475297150.0 -0.483515597 0.6946830469 0.0001816308 5.52557e-05 0.0002801403 0.0001782722 0.0601665217 -0.1056917203
480297120.0 -0.4764861756 0.6998141904 0.0001507276 -4.49369e-05 4.0986e-05 -7.11864e-05 0.0586052796 -0.1060316597
485297090.0 -0.4688157225 0.7041640385 0.0003087276 -0.0001595369 3.6168e-05 -0.0002956714 0.0573111375 -0.1071984472
490297060.0 -0.4619959655 0.7084507167 -3.5546e-06 0.0001129535 0.000215058 3.49778e-05 0.0554833175 -0.1079400532
495297030.0 -0.4545919595 0.7125611054 -5.8819e-05 0.0001123452 -2.40595e-05 0.0001468131 0.0538002499 -0.108278406
500297000.0 -0.4473850612 0.7179156261 -0.0001597098 8.38872e-05 2.20848e-05 -0.0001185679 0.0525558985 -0.1083907404
505296970.0 -0.4396977548 0.7222996405 0.0001999842 -6.71301e-05 0.000122774 -7.33484e-05 0.0509034586 -0.1094071101
510296940.0 -0.4329030405 0.7267495978 0.0002776118 -5.88858e-05 1.63417e-05 -2.41721e-05 0.0492479453 -0.110075088
515296910.0 -0.4247585674 0.7306369313 6.23349e-05 4.41576e-05 -4.15785e-05 -0.0001002879 0.047540033 -0.110403104
520296880.0 -0.4184514547 0.735725281 8.13877e-05 0.0001000719 -3.26167e-05 -2.43566e-05 0.0458499181 -0.1110533218
525296850.0 -0.4097719367 0.7394322434 0.0001804082 -7.33319e-05 0.0004790269 4.30392e-05 0.0444231521 -0.1108898435
530296820.0 -0.4023116905 0.7435244907 8.38836e-05 5.8257e-05 6.4657e-05 0.0001893104 0.0424166635 -0.1111363555
535296790.0 -0.3957752129 0.7470750385 8.76622e-05 6.73884e-05 -3.5002e-06 -0.000123198 0.040492749 -0.1122274436
540296760.0 -0.3878753144 0.7511750466 0.0001876944 4.02364e-05 0.0001708058 4.18504e-05 0.0389591249 -0.1122491592
545296730.0 -0.3801753225 0.7549722782 0.0004360994 0.0001036114 1.6296e-06 7.63398e-05 0.0374002123 -0.1130043541
550296700.0 -0.3725725851 0.7594641039 -3.17387e-05 5.6985e-06 0.0002519613 0.000112737 0.0355585698 -0.1131183894
555296670.0 -0.3648054707 0.7622208898 0.0002442511 -1.80762e-05 0.0001017926 0.000154837 0.0335646685 -0.1133007633
560296640.0 -0.3571994288 0.7665992877 0.0001194823 -2.52722e-05 1.67854e-05 0.0001405313 0.0320459099 -0.1135798915
565296610.0 -0.3491125066 0.7702029673 7.72184e-05 2.92934e-05 -0.0001221728 -8.63085e-05 0.0304939454 -0.1141826757
570296580.0 -0.3417906688 0.772602977 6.90505e-05 0.0001030359 8.44562e-05 1.78725e-05 0.0283173916 -0.1142000177
575296550.0 -0.3341936845 0.7769039194 6.87891e-05 -6.28203e-05 2.16703e-05 0.0001396126 0.0264711364 -0.1143771197
580296520.0 -0.3257089031 0.7799999528 -3.8707e-06 8.84413e-05 -5.48872e-05 -3.12246e-05 0.0246157178 -0.1150763359
585296490.0 -0.3181231494 0.7828759283 0.0002221779 -8.47177e-05 0.0001832959 -9.8417e-05 0.023337493 -0.1153024893
590296460.0 -0.3100792389 0.7862351824 3.37077e-05 7.39781e-05 0.0001640304 -0.000179593 0.021060129 -0.1157718283
595296430.0 -0.302359084 0.788784406 -6.56294e-05 0.0001644892 8.65457e-05 7.89594e-05 0.0196660312 -0.1162965939
600296400.0 -0.2947927712 0.7922003999 -5.05995e-05 0.0002061407 0.0002615037 -2.63137e-05 0.0179738477 -0.1165727924
605296370.0 -0.2870639012 0.7949878559 -7.11243e-05 6.95911e-05 2.937e-06 9.46744e-05 0.0162331933 -0.1164707661
610296340.0 -0.2787449657 0.7975112236 0.0001376452 -0.0001149102 8.62159e-05 -0.0001901484 0.0145473148 -0.1164325667
615296310.0 -0.2700339748 0.7998465993 0.0002768157 -5.68472e-05 -8.92986e-05 8.78547e-05 0.0129919818 -0.1170154935
620296280.0 -0.2622235344 0.8024960283 -1.8865e-06 -1.33628e-05 0.0002247416 -0.0001550388 0.01132025 -0.1169525084
625296250.0 -0.2548452128 0.8053941571 0.0002065359 0.0001079419 2.80784e-05 -0.0001390473 0.0100668956 -0.1171028929
630296220.0 -0.2459061022 0.8073999633 0.00015808 6.04557e-05 0.0002963863 0.0001066832 0.0082230485 -0.116977134
635296190.0 -0.2380173922 0.81018009 0.0001726061 -1.54464e-05 0.0001641201 9.09882e-05 0.0064057441 -0.1171997239
640296160.0 -0.2305555496 0.8124784969 2.91364e-05 -8.2596e-06 -1.05334e-05 9.407e-05 0.0048675237 -0.1173520213
645296130.0 -0.2221167992 0.8154024668 9.39408e-05 0.0002695883 0.0001491839 -7.93257e-05 0.0032703146 -0.1170332712
650296100.0 -0.214063923 0.8167374321 -5.6437e-05 -0.0001923739 0.0002704416 -0.000214221 0.0019132675 -0.117142627
655296070.0 -0.2055093456 0.8190394091 0.000217653 4.97632e-05 0.0004707083 -5.72531e-05 0.0005438992 -0.1168075798
660296040.0 -0.1972515657 0.820518894 0.0001105663 7.77522e-05 0.0001629631 -0.0001407892 -0.0009153056 -0.1166353484
665296010.0 -0.1886811506 0.8226327686 9.39023e-05 -6.65242e-05 0.0001133943 0.0002075161 -0.0027649611 -0.1163820096
670295980.0 -0.1812087932 0.8243616108 6.15022e-05 -0.0002207394 4.05893e-05 -0.0001955108 -0.0047151569 -0.1162828596
675295950.0 -0.1733102227 0.8259722963 -4.202e-07 -3.71005e-05 3.01681e-05 -7.36073e-05 -0.0063866938 -0.1157132674
680295920.0 -0.1643742081 0.8278414699 -4.60172e-05 -2.37008e-05 0.00013601 0.0001322081 -0.0077320872 -0.1155302459
685295890.0 -0.1565472937 0.8301667052 -0.0001902531 0.0001501763 0.0002320512 3.51096e-05 -0.0093227938 -0.115243263
690295860.0 -0.148497636 0.8311428281 0.0001957219 -0.0001750169 0.0002079919 -3.33143e-05 -0.0112201331 -0.1143873512
695295830.0 -0.1401255399 0.8322433509 0.0001524784 1.80353e-05 5.42686e-05 5.39471e-05 -0.012685026 -0.1142113293
700295800.0 -0.1310989117 0.8337225787 3.84795e-05 9.174e-05 0.0002236524 -0.0001051435 -0.0143393613 -0.1139994546
705295770.0 -0.1234437062 0.8353891694 0.0001384224 -5.25589e-05 -3.7249e-05 1.80455e-05 -0.0160869304 -0.112895524
710295740.0 -0.1149867693 0.8359755501 0.0002527325 -7.53e-06 0.0001728842 6.89834e-05 -0.0181512966 -0.1131821627
715295710.0 -0.1067474498 0.8375522788 0.0001590783 -2.9946e-05 0.0002385958 -4.28796e-05 -0.0199993942 -0.1128573589
720295680.0 -0.0981913503 0.8384893076 1.59265e-05 0.0001254524 0.0001251776 -6.06737e-05 -0.0212082093 -0.112006845
725295650.0 -0.0902127692 0.8396632922 0.000170191 9.62169e-05 0.0002082214 -9.94183e-05 -0.0231477991 -0.111119213
730295620.0 -0.0818374463 0.8401771277 7.05751e-05 -0.0001195905 0.0001927021 0.0001070891 -0.0247854259 -0.1111767883
735295590.0 -0.0735896901 0.8412707348 0.0001151318 -8.79394e-05 0.0001343734 -6.61843e-05 -0.0269624908 -0.1111111461
740295560.0 -0.0650176035 0.8417260344 0.0002315037 -0.0001660549 0.0001788671 -0.0001730458 -0.0280652921 -0.1101370443
745295530.0 -0.056633711 0.8425991095 -2.3341e-06 -0.0001642807 0.0001140616 0.0002072578 -0.0299336993 -0.1102300002
750295500.0 -0.0482518781 0.8431692114 4.16693e-05 -0.0001618356 9.65379e-05 -0.0001004071 -0.0313337726 -0.1089697455
755295470.0 -0.0398915505 0.8431153501 7.8665e-05 -1.90375e-05 6.19739e-05 -4.02473e-05 -0.0332209477 -0.1093249299
760295440.0 -0.0320234449 0.8433541865 0.0001383106 -0.0001955842 0.0003644378 -9.34715e-05 -0.0350234454 -0.1085767871
765295410.0 -0.023509441 0.8441455653 -0.0001221026 -0.0001446738 0.0001266829 4.68677e-05 -0.0365198239 -0.1078813679
770295380.0 -0.0153290956 0.8438451113 -7.59716e-05 6.3758e-06 0.0001465418 -6.80691e-05 -0.0380250737 -0.1074585396
775295350.0 -0.0067801068 0.843934293 8.75641e-05 -0.0001673244 2.59734e-05 -2.20595e-05 -0.0398508199 -0.1069440203
780295320.0 0.0018317677 0.8438591871 3.75146e-05 0.0001647105 0.0002619247 -9.74018e-05 -0.0409560086 -0.1064194047
785295290.0 0.0097839973 0.8434180382 -8.21989e-05 9.70738e-05 0.0001139159 -0.0001840025 -0.0420898057 -0.1054251248
790295260.0 0.0184048864 0.8436667245 0.0003579243 8.69559e-05 7.59209e-05 -2.53828e-05 -0.0437348282 -0.1049643949
795295230.0 0.0263261711 0.8434387589 -0.0001528927 6.4637e-06 0.0001627589 -4.78387e-05 -0.0452024467 -0.1042966652
800295200.0 0.0348374914 0.8433145803 0.0002393504 -0.0001372047 5.47121e-05 2.00008e-05 -0.0467825059 -0.1036351274
805295170.0 0.0432298686 0.8430840846 5.15902e-05 7.63557e-05 0.0002744533 -0.000162161 -0.0481968808 -0.1030315353
810295140.0 0.0519496042 0.8423700064 0.000286705 -0.0001953026 -4.80725e-05 -0.0001501684 -0.049281406 -0.1024200438
815295110.0 0.0596048126 0.8418248217 0.0001314865 -2.67149e-05 0.0001762509 -0.0001140717 -0.0509799815 -0.1014492787
820295080.0 0.0682684807 0.8409797001 4.12819e-05 -6.04735e-05 -4.21704e-05 -0.0001376928 -0.0521218732 -0.1006727075
825295050.0 0.0772923162 0.8402904393 0.0002156733 4.73778e-05 -3.68853e-05 -0.0003199774 -0.0535385903 -0.0997761629
830295020.0 0.084768915 0.8396357884 9.25677e-05 -2.822e-06 5.61931e-05 -5.40011e-05 -0.0546688975 -0.0990595354
835294990.0 0.09297993 0.8390568543 3.0825e-05 -0.0001480521 -4.28265e-05 -0.000152726 -0.0565541673 -0.0978865938
840294960.0 0.1008026998 0.8380776425 -5.16877e-05 -0.0002317495 0.0002844953 8.02679e-05 -0.0574801721 -0.0968401378
845294930.0 0.1093431664 0.8366105943 0.0002150632 -0.0002930282 0.0001687553 -0.0001540328 -0.0587801536 -0.0961331231
850294900.0 0.1173648211 0.8358045366 6.47355e-05 2.92195e-05 0.0001847084 8.3276e-06 -0.060371458 -0.0945760258
