!Created with skrf (http://scikit-rf.org).
# Hz S RI R 50.0 
!freq ReS11 ImS11 ReS21 ImS21 ReS12 ImS12 ReS22 ImS22
300000.0 -0.2364182306 -0.1109400057 0.4670514327 0.0720921146 0.4713316046 0.0754846067 -0.2373084493 -0.1133885396
5299970.0 -0.2408660312 0.0069960996 0.4754128462 0.0049950543 0.4752158779 0.0057425432 -0.2449273712 0.0055129555
10299940.0 -0.2374444714 0.0200036142 0.4770918359 0.0061107709 0.4768226323 0.0063418883 -0.2418728614 0.0176446127
15299910.0 -0.2331328323 0.0296576833 0.4809611822 0.0075265228 0.4807435362 0.0076805276 -0.2373590626 0.0263406254
20299880.0 -0.2273429286 0.0376446874 0.4852422597 0.008233834 0.485468484 0.0078884512 -0.2330772318 0.034023977
25299850.0 -0.2215622422 0.0442950623 0.4904938968 0.0066152525 0.4904996517 0.0070570543 -0.2280941846 0.0401470405
30299820.0 -0.2158559849 0.049307381 0.49635322 0.0048704964 0.4954537064 0.0050061304 -0.2226995116 0.0448094945
35299790.0 -0.209893219 0.05408691 0.5013474415 0.0014945048 0.5011239712 0.0016892218 -0.2172185772 0.0489194152
40299760.0 -0.2046943261 0.0570950946 0.5064778542 -0.0021003412 0.5064013916 -0.002234928 -0.212880304 0.0519733396
45299730.0 -0.1999016772 0.060008337 0.5112434445 -0.0072448454 0.5110434409 -0.0068280035 -0.2082472707 0.0544007389
50299700.0 -0.194645434 0.0617642027 0.5147263282 -0.0127294104 0.5152005474 -0.012339193 -0.2039971911 0.0564564304
55299670.0 -0.1906280635 0.063982501 0.5185383424 -0.0187830672 0.5189084606 -0.018528964 -0.2000458567 0.0579413514
60299640.0 -0.1863026224 0.0650045911 0.5222725247 -0.0248190207 0.5220008258 -0.0248333528 -0.1962378474 0.059481111
65299610.0 -0.1831442155 0.0664163895 0.5250691727 -0.0306013075 0.5252547871 -0.0309206888 -0.1930761725 0.0608714523
70299580.0 -0.1796562235 0.0669970014 0.5273038948 -0.0378393859 0.5272518594 -0.0376348132 -0.1902518458 0.0612908758
75299550.0 -0.1763514947 0.0683151083 0.5291347225 -0.0443941887 0.5293434577 -0.0447626393 -0.1873920323 0.0622354493
80299520.0 -0.1741268491 0.0689714404 0.5313053814 -0.0515476992 0.5313227048 -0.0512832829 -0.1849508783 0.0629217073
85299490.0 -0.1713856748 0.0693679207 0.5325987831 -0.0583218354 0.5324683551 -0.0582031745 -0.1826650799 0.0633502654
90299460.0 -0.1692763182 0.0703498298 0.5332139814 -0.0650677842 0.5338286138 -0.0651935516 -0.1803876652 0.0643504004
95299430.0 -0.1672135022 0.0712328711 0.5346035632 -0.0724730141 0.5343772153 -0.0721892807 -0.1785516447 0.0648178731
100299400.0 -0.165512171 0.0717810982 0.5346353445 -0.0793004164 0.5346693954 -0.0790317693 -0.1769119585 0.0655442892
105299370.0 -0.1635442827 0.0723628823 0.5351916928 -0.0853656459 0.5350377811 -0.086040619 -0.1750249047 0.06606869
110299340.0 -0.1619428446 0.0730601834 0.5350079839 -0.092589212 0.5351819382 -0.0930332317 -0.1735580201 0.0669284687
115299310.0 -0.1602295445 0.0735674776 0.5349916016 -0.0992752343 0.5352942984 -0.0992789645 -0.1723239934 0.0671415795
120299280.0 -0.15907007 0.0743083145 0.5349975328 -0.1064320894 0.5351201476 -0.1067882833 -0.1713406182 0.0681112578
125299250.0 -0.1577038445 0.0752428067 0.5346511404 -0.1130496241 0.5349522784 -0.1132754578 -0.1701859025 0.0685861396
130299220.0 -0.1566077357 0.076214629 0.5339962503 -0.1194177006 0.53404106 -0.1199716051 -0.1686840791 0.0692838722
135299190.0 -0.1551180641 0.0767165289 0.533416541 -0.1260900012 0.5328377051 -0.1263605496 -0.1679074246 0.0701717148
140299160.0 -0.1543942449 0.0781222195 0.5326517197 -0.133020896 0.5322945078 -0.1327379719 -0.1668151782 0.0709730124
145299130.0 -0.1530124787 0.0789341043 0.5316464837 -0.1396278222 0.5315061522 -0.1394073572 -0.1661665314 0.0716577993
150299100.0 -0.1519175949 0.0797579271 0.5301776096 -0.1461204847 0.5305363014 -0.1460716877 -0.1651761007 0.072544604
155299070.0 -0.1511393275 0.0812299152 0.5294235782 -0.1526397594 0.5290414947 -0.1528252001 -0.1640550454 0.0733597534
160299040.0 -0.1501129367 0.0819775058 0.5272889766 -0.1587340669 0.5279646666 -0.1590200864 -0.1635498555 0.0749956605
165299010.0 -0.1492303074 0.0831945788 0.5266400078 -0.1655721757 0.5266556427 -0.1657000587 -0.1628003253 0.0752492781
170298980.0 -0.148511603 0.0846203146 0.5245261288 -0.1718241522 0.5247264892 -0.171939242 -0.1619959813 0.0762888745
175298950.0 -0.1473359342 0.0855736432 0.5237907305 -0.177748318 0.5237262916 -0.178185844 -0.1612909881 0.0777392779
180298920.0 -0.1461903202 0.0866247322 0.5215922887 -0.1847674821 0.5214456972 -0.1842056071 -0.1599458391 0.0790477609
185298890.0 -0.1451940721 0.0879451632 0.5193784534 -0.1910442147 0.5196524083 -0.1905619663 -0.1598002226 0.0796573867
190298860.0 -0.1442358273 0.0892229738 0.5172568193 -0.1969861173 0.5178180783 -0.1968367284 -0.1581328356 0.0808947986
195298830.0 -0.1435983135 0.0903670731 0.5158614968 -0.2023753676 0.5157678407 -0.2033511764 -0.1577430561 0.081765601
200298800.0 -0.1424626459 0.0919056214 0.5139368516 -0.2086123392 0.5139238938 -0.2086523656 -0.1569637789 0.0832765401
205298770.0 -0.1416512981 0.0928726833 0.5117747655 -0.2148250407 0.5116658005 -0.2147655832 -0.1563289574 0.0842058649
210298740.0 -0.1409447802 0.0942172078 0.5092176587 -0.2211034399 0.509404137 -0.2211252862 -0.1556445361 0.0855889658
215298710.0 -0.1399411967 0.0956413456 0.5072349206 -0.2267755885 0.5073091666 -0.2266641204 -0.1552952562 0.0867811082
220298680.0 -0.1389212157 0.0968468928 0.5044501026 -0.2327744145 0.5046086367 -0.233043106 -0.1540794786 0.0882880574
225298650.0 -0.1375320202 0.0985186992 0.5019060135 -0.2383563523 0.5016625049 -0.2380854936 -0.1533053431 0.0891430081
230298620.0 -0.1369902173 0.0997305792 0.4997274568 -0.2445167968 0.5000389362 -0.244548905 -0.1528463358 0.090487903
235298590.0 -0.1358325055 0.1009928507 0.4971133012 -0.2496447441 0.496993461 -0.2503649718 -0.1514341202 0.0914672974
240298560.0 -0.1348919479 0.1025054642 0.4942376677 -0.2557978702 0.4944222119 -0.2553861002 -0.150887145 0.0930275612
245298530.0 -0.1337199829 0.1037286325 0.4908255301 -0.2613143658 0.4914759079 -0.2614187967 -0.1502859648 0.0942255631
250298500.0 -0.1330833608 0.1053993546 0.4888608866 -0.2668309908 0.4891630745 -0.2668695226 -0.1491329765 0.0958267525
255298470.0 -0.1319103974 0.1067169787 0.4856488671 -0.2728731228 0.4855084545 -0.2727498053 -0.1480956184 0.096910349
260298440.0 -0.130812441 0.1082567968 0.4830037572 -0.278285832 0.4830486277 -0.2777759007 -0.1472592868 0.0984582819
265298410.0 -0.1292642785 0.1098082347 0.4796504605 -0.2841287552 0.4795878179 -0.2835688745 -0.1466734197 0.0995241153
270298380.0 -0.1283590503 0.1109492372 0.4763907478 -0.2890225507 0.476643642 -0.2895013132 -0.1454062266 0.1012373127
275298350.0 -0.127225916 0.1124227599 0.4735406194 -0.2948241257 0.4737189903 -0.294972181 -0.1442383574 0.1027848991
280298320.0 -0.1263647519 0.1141464513 0.4703693525 -0.2994953754 0.4703432334 -0.2999369673 -0.1435035134 0.1040948172
285298290.0 -0.1248279792 0.1152908421 0.4670667379 -0.305165965 0.4668986161 -0.3053101592 -0.1427304684 0.1053703809
290298260.0 -0.1237634507 0.1166662659 0.4641159158 -0.3106356008 0.4636666785 -0.3105831604 -0.1413455298 0.1069145611
295298230.0 -0.1225566128 0.1182428131 0.4607151155 -0.3162910062 0.4601667797 -0.3158393354 -0.1401844033 0.1080807847
300298200.0 -0.1208696508 0.1194812938 0.4567193276 -0.3210339955 0.457509642 -0.3213115523 -0.1396439544 0.1093486737
305298170.0 -0.1195933943 0.1208054138 0.4536132847 -0.3265699631 0.4539387929 -0.3266676211 -0.1376879138 0.1108131343
310298140.0 -0.1182257251 0.1219870155 0.4503182432 -0.3317051442 0.4501103066 -0.3322483083 -0.1369327964 0.112487715
315298110.0 -0.1171020498 0.1232539522 0.4462379237 -0.3367596943 0.4464856118 -0.3370833784 -0.1358408974 0.1133097968
320298080.0 -0.1156706115 0.1243870838 0.442506903 -0.3418117669 0.4425836882 -0.3420329283 -0.1349168066 0.1144876558
325298050.0 -0.1146371615 0.1256371643 0.4392126017 -0.347015216 0.4389507986 -0.3474246689 -0.1340183267 0.1158240825
330298020.0 -0.1133639911 0.1270638088 0.4340803971 -0.3522253649 0.4344403105 -0.3518849813 -0.1333520662 0.1168932843
335297990.0 -0.1121593349 0.1282006427 0.4307510567 -0.3569586989 0.4306301832 -0.3568642005 -0.1320635481 0.1182480034
340297960.0 -0.1114501709 0.1299741193 0.4263604061 -0.3620297227 0.4267211295 -0.3615158821 -0.1311875172 0.1201786446
345297930.0 -0.1101775877 0.1312968713 0.4229789776 -0.3661922646 0.4221908296 -0.3659597424 -0.130263822 0.1211675876
350297900.0 -0.1084100882 0.1323895037 0.4183130841 -0.3704726502 0.4185405864 -0.3712621212 -0.1292074385 0.1228810512
355297870.0 -0.1071012928 0.1338232676 0.4141778637 -0.3754332465 0.4143456416 -0.3757935523 -0.1280705927 0.1244947559
360297840.0 -0.105564111 0.1350292156 0.4101074091 -0.3800307978 0.4098634135 -0.3802123601 -0.1264687707 0.1260483616
365297810.0 -0.1041268746 0.1364891056 0.4057856304 -0.3843396079 0.4056165733 -0.3845288175 -0.1253560259 0.1276788044
370297780.0 -0.1025493198 0.1375424839 0.4013655042 -0.3888569223 0.4017272825 -0.3894569042 -0.1243627595 0.1286999416
375297750.0 -0.1012234623 0.1392809255 0.3976582487 -0.3936947616 0.3973009459 -0.3936284529 -0.1230662362 0.1302541937
380297720.0 -0.0997649591 0.1401380508 0.3930800577 -0.3976712633 0.3927974291 -0.3978058819 -0.1217005624 0.1315908484
385297690.0 -0.097982939 0.1414613899 0.388515068 -0.401339711 0.3884606232 -0.402039853 -0.1204855766 0.1331914918
390297660.0 -0.0968022586 0.1426160738 0.3840454311 -0.4064027436 0.3841929782 -0.4065344111 -0.1196769136 0.1339961526
395297630.0 -0.0946718447 0.1440490704 0.3796446484 -0.4103330425 0.3799095465 -0.4105419712 -0.1180009161 0.1356148842
400297600.0 -0.0934028789 0.1453142566 0.3752442562 -0.4146293383 0.3757132912 -0.4146939628 -0.1174842499 0.1369874851
405297570.0 -0.0916323575 0.1467335886 0.370571016 -0.4186430893 0.3707216061 -0.4188349457 -0.1156374979 0.1387569098
410297540.0 -0.0899722488 0.1476737601 0.3652107173 -0.4226493039 0.365686781 -0.4230184529 -0.1142094492 0.1398389454
415297510.0 -0.0886232563 0.1488687646 0.3611239319 -0.426651725 0.3612758374 -0.4265667698 -0.1131006545 0.1416228716
420297480.0 -0.0869200293 0.149637995 0.3563918661 -0.4307118062 0.3567738149 -0.4307738431 -0.1118052282 0.1422017071
425297450.0 -0.0848688326 0.1507838779 0.351615484 -0.434641299 0.3520886098 -0.434430121 -0.1100898178 0.1441015851
430297420.0 -0.0837314315 0.1521915751 0.3468792353 -0.4386160685 0.3474521056 -0.4386247792 -0.1092288134 0.1449101738
435297390.0 -0.0817131807 0.1529396829 0.3423658608 -0.4418028201 0.3423184673 -0.4417938092 -0.1076377996 0.1465197939
440297360.0 -0.079873634 0.1539342087 0.3370258353 -0.4456773187 0.3370951947 -0.4461661726 -0.1063918553 0.1473109589
445297330.0 -0.0779441436 0.1549870454 0.3318491771 -0.4496271052 0.3323616591 -0.4494778814 -0.1048480022 0.1486351672
450297300.0 -0.0761903944 0.1560119952 0.3273359093 -0.4528414738 0.3275603761 -0.453329826 -0.1036385487 0.1498626377
455297270.0 -0.0749954596 0.1567568694 0.3226423993 -0.4565794455 0.3231769276 -0.456746314 -0.1019843145 0.1512421143
460297240.0 -0.0733610473 0.1580252157 0.3169096175 -0.4596293234 0.3171358651 -0.4598375743 -0.1004708212 0.152936101
465297210.0 -0.0711549569 0.1588654819 0.3124489378 -0.4634411358 0.3126079312 -0.4636102061 -0.0993710686 0.1534863668
470297180.0 -0.0695195093 0.1598217455 0.3075680879 -0.4667951928 0.3077313724 -0.4667637638 -0.0980740749 0.1547398704
475297150.0 -0.0676706046 0.160275255 0.3019321298 -0.4697542765 0.3025233692 -0.469462492 -0.0962349216 0.1559390915
480297120.0 -0.065910207 0.161230979 0.2969034759 -0.4730682454 0.2974252337 -0.4733882536 -0.0952240529 0.1576270461
485297090.0 -0.0639445187 0.1622100007 0.2918742557 -0.4766416267 0.2921724358 -0.4765216521 -0.0936965402 0.1581098971
490297060.0 -0.0620864142 0.1631408696 0.2870128578 -0.479494909 0.2869986239 -0.4796917742 -0.0921146066 0.1593703251
495297030.0 -0.0607301903 0.1643230595 0.2813457582 -0.4828881248 0.2813985209 -0.4826554659 -0.090634431 0.1601530999
500297000.0 -0.0584915111 0.1647119947 0.2760744279 -0.485895261 0.2764205538 -0.4860778638 -0.0894563985 0.1616540004
505296970.0 -0.057205756 0.165509039 0.2713877162 -0.4879488234 0.2708844694 -0.4881201242 -0.0881389314 0.1625007623
510296940.0 -0.0548478565 0.1663146918 0.2654862942 -0.491415644 0.2656247158 -0.4916883779 -0.086355871 0.1638790749
515296910.0 -0.0532989923 0.1670774281 0.2599150007 -0.4940763087 0.2606467629 -0.49447984 -0.0848334297 0.1643455783
520296880.0 -0.0511068182 0.1675989744 0.2546307421 -0.4969713308 0.2551276795 -0.496895697 -0.0830484581 0.1657156209
525296850.0 -0.0492811453 0.168318686 0.2495079655 -0.4997722559 0.2493958836 -0.5001645118 -0.0812092744 0.1667686141
530296820.0 -0.047546198 0.1689210316 0.2442279506 -0.5019535519 0.2441440393 -0.5021468708 -0.0803004546 0.166997272
535296790.0 -0.0457070862 0.1696705374 0.2385789516 -0.5043794274 0.2386393509 -0.5048566267 -0.0785928548 0.1682796017
540296760.0 -0.0438595101 0.1701488251 0.2331733899 -0.5077501577 0.2332343895 -0.5078922742 -0.0774466916 0.169201076
545296730.0 -0.0419326175 0.1711823171 0.2274834541 -0.5100091138 0.2276235449 -0.510452189 -0.0756645497 0.1699153628
550296700.0 -0.0401574605 0.1714541627 0.2218914464 -0.512278585 0.2223789019 -0.5128312462 -0.0739471442 0.1711673437
555296670.0 -0.0377393987 0.1721393451 0.2160308891 -0.5147214224 0.2164741664 -0.5149571609 -0.0725065383 0.1721287694
560296640.0 -0.036044718 0.1725167388 0.2108655409 -0.5168144705 0.2110196974 -0.5168158657 -0.0707384222 0.1730835205
565296610.0 -0.0346819948 0.1730165634 0.2050676725 -0.519233514 0.2051920702 -0.5194598643 -0.0691931033 0.1734158757
570296580.0 -0.0322124916 0.173401368 0.1994911422 -0.5212811911 0.1999631446 -0.5214377078 -0.0675264657 0.1749277231
575296550.0 -0.0303623213 0.1744132347 0.1936070964 -0.5229301577 0.1941198704 -0.5231578169 -0.0658103145 0.1756415327
580296520.0 -0.0285065038 0.1745897413 0.1887675083 -0.5255577252 0.1884978614 -0.5257043326 -0.0641870915 0.1761647327
585296490.0 -0.0263016085 0.1748401457 0.1827154008 -0.5273327298 0.1821536042 -0.5275074443 -0.0626231204 0.176501523
590296460.0 -0.0248920511 0.1752967429 0.1768561097 -0.5293737064 0.1764684952 -0.5294629701 -0.0608558463 0.177509818
595296430.0 -0.0225347019 0.1760501668 0.171225978 -0.5312616079 0.1711056287 -0.5314638562 -0.0593073416 0.1781945962
600296400.0 -0.0206352816 0.176129767 0.165055346 -0.533159842 0.1655252127 -0.5332296734 -0.0573572987 0.1794509512
605296370.0 -0.0184978318 0.1768695114 0.1593110106 -0.5350578478 0.1596933269 -0.5349661291 -0.055630884 0.1798829126
610296340.0 -0.0168551316 0.1771676061 0.154329204 -0.5367100693 0.1539414374 -0.5368620681 -0.0537998215 0.1806162142
615296310.0 -0.01478847 0.1774234161 0.1477440692 -0.5378834708 0.1478002396 -0.5382496104 -0.0521352198 0.1812614035
620296280.0 -0.0128249981 0.1775778016 0.1422148914 -0.539524569 0.1422202537 -0.5394880352 -0.050567377 0.1814942691
625296250.0 -0.0107996438 0.1779722885 0.1357161863 -0.5411032866 0.1362039495 -0.541537351 -0.0489046531 0.1826311729
630296220.0 -0.0089542386 0.1784342626 0.1300133653 -0.542549296 0.1306341345 -0.5428497938 -0.0473260883 0.183263753
635296190.0 -0.0069508575 0.1785893242 0.1241991285 -0.5435147648 0.1242139258 -0.5435724314 -0.0454586605 0.1836567276
640296160.0 -0.004979081 0.1787056417 0.1190168637 -0.5449481079 0.1186992523 -0.5450441589 -0.0434245688 0.1840435907
645296130.0 -0.0027611377 0.1792599861 0.1125158765 -0.5466384878 0.1130649236 -0.5465343781 -0.0424295148 0.1845345062
650296100.0 -0.0010421727 0.1796766334 0.1072380976 -0.5471692475 0.1072296757 -0.5470868641 -0.0403805804 0.1850861811
655296070.0 0.0008914347 0.1791438954 0.1009612545 -0.5484682975 0.1008028394 -0.5486269934 -0.0379263382 0.1859094276
660296040.0 0.0025959444 0.1799364251 0.0953339173 -0.5494356615 0.0955348748 -0.5492903868 -0.0370267051 0.1861675574
665296010.0 0.0049951364 0.1796585695 0.089802955 -0.5505479381 0.0897843129 -0.5504919528 -0.0351771845 0.186884554
670295980.0 0.0074891788 0.1797232293 0.0832380388 -0.5513443741 0.0836715527 -0.5511751539 -0.0336807901 0.1871846015
675295950.0 0.0092748267 0.1798730918 0.0772153214 -0.5521786837 0.0773924111 -0.5525474217 -0.0313663431 0.1879329736
680295920.0 0.0111158141 0.1800050764 0.0713042381 -0.5529225086 0.0710905871 -0.5531658219 -0.0295557341 0.188337942
685295890.0 0.0129906275 0.1799881982 0.0655639219 -0.5538403225 0.0652765648 -0.5540838048 -0.0277724274 0.1888305837
690295860.0 0.0151968444 0.1796592198 0.0594455464 -0.5535584172 0.0589884503 -0.5542473404 -0.0258966269 0.1892033315
695295830.0 0.0175659379 0.1796527758 0.0526713585 -0.5548301114 0.0536120867 -0.5548949205 -0.0244628108 0.1895602782
700295800.0 0.0195660935 0.1799519903 0.0470290203 -0.5555521326 0.0473666608 -0.5556275182 -0.0224347053 0.1895756003
705295770.0 0.0213702855 0.1799230452 0.0413820246 -0.5558841953 0.0416420116 -0.5557216436 -0.0207797935 0.1903492556
710295740.0 0.023247982 0.1800573091 0.0350779372 -0.5561011172 0.0353415891 -0.5566042682 -0.01940058 0.1913355339
715295710.0 0.0254372414 0.1797329083 0.029343189 -0.5564789942 0.0296343943 -0.5567889037 -0.0170806775 0.190739599
720295680.0 0.0271727884 0.1791782024 0.0233982165 -0.5562612476 0.023766952 -0.557224728 -0.0149485784 0.191276955
725295650.0 0.0296515215 0.1794788318 0.0172936708 -0.557042546 0.0174123892 -0.5570721493 -0.0133912904 0.1918215742
730295620.0 0.0311646062 0.1791123923 0.0114857511 -0.5569204657 0.0111202098 -0.5571948686 -0.0112561787 0.1913137693
735295590.0 0.0337549457 0.178900337 0.00557472 -0.5571963913 0.0056789776 -0.5571415992 -0.009216179 0.1921341318
740295560.0 0.0355351999 0.1787887853 -0.000968143 -0.5568723861 -0.0006323405 -0.5568800559 -0.0075205528 0.1921501439
745295530.0 0.0373589647 0.1782981438 -0.0065630278 -0.5571725283 -0.0061134703 -0.5574046486 -0.0059419759 0.1926952995
750295500.0 0.0393982244 0.1781733334 -0.0124297245 -0.5564560344 -0.0123962954 -0.5567291821 -0.0038218544 0.1923161278
755295470.0 0.0419025056 0.1778288976 -0.0185834054 -0.5565145676 -0.0183277809 -0.5566347009 -0.0021721344 0.1932076586
760295440.0 0.043475287 0.1777733314 -0.0246243073 -0.5563609782 -0.0241862118 -0.5565115949 -0.0007260207 0.1931020334
765295410.0 0.0450020609 0.1770090321 -0.0297310297 -0.5558558031 -0.0303414481 -0.556501859 0.0023002969 0.1935564465
770295380.0 0.0473984233 0.177153147 -0.0364458844 -0.5552527825 -0.0364838304 -0.5563145858 0.0036324165 0.1936217533
775295350.0 0.049558991 0.1765750866 -0.0424728133 -0.5548550867 -0.0423507233 -0.5554171501 0.0050441464 0.1931635484
780295320.0 0.0516354636 0.1760928983 -0.0480414739 -0.5545716282 -0.0479755612 -0.5550291 0.0070881637 0.1935634718
785295290.0 0.0534051746 0.1759493852 -0.0543335257 -0.5537517472 -0.0541251379 -0.5543030797 0.0085423391 0.1936186754
790295260.0 0.0554816993 0.1756465249 -0.0603925319 -0.5536802302 -0.060124724 -0.5540520456 0.0112015757 0.1937714643
795295230.0 0.0572952537 0.1749227917 -0.0658689708 -0.5525627466 -0.0660693889 -0.5529173732 0.0124754728 0.1944845313
800295200.0 0.0593770265 0.1746671571 -0.0723747599 -0.5520492808 -0.0726973331 -0.5523479781 0.014706412 0.193918798
805295170.0 0.0608878494 0.1741392796 -0.0780168577 -0.5509474066 -0.0779519917 -0.5507516464 0.0162067686 0.1939339039
810295140.0 0.0630833904 0.1736125269 -0.0836893238 -0.5504698102 -0.0838165846 -0.5506245391 0.018498331 0.1942829033
815295110.0 0.0652952906 0.1731257835 -0.0900434788 -0.5489808259 -0.090155465 -0.5494216931 0.0198481688 0.1936734184
820295080.0 0.067085419 0.1720730955 -0.0954644851 -0.548084105 -0.0959018889 -0.548425744 0.021620772 0.1937599028
825295050.0 0.0690790462 0.1717555826 -0.1017548168 -0.5468212841 -0.1016215154 -0.5471633534 0.0238258149 0.1938912022
830295020.0 0.0710144598 0.1712754304 -0.10746592 -0.545881838 -0.1080954872 -0.546370359 0.0258247132 0.193605269
