!Created with skrf (http://scikit-rf.org).
# Hz S RI R 50.0 
!freq ReS11 ImS11 ReS21 ImS21 ReS12 ImS12 ReS22 ImS22
300000.0 -0.2374591717 -0.1214237162 0.4674557712 0.0793730215 0.4647786419 0.0807021418 -0.2329671562 -0.1252143699
5299970.0 -0.2446791968 0.0053415348 0.473698615 0.0057945401 0.474031181 0.0058537211 -0.2435340091 0.0051775699
10299940.0 -0.2417708455 0.0183961379 0.4762646441 0.0072022755 0.4762023883 0.0071577624 -0.2400570356 0.0181556611
15299910.0 -0.2367477756 0.0282387838 0.4792035867 0.0085038 0.4796593181 0.0084712936 -0.2358941305 0.0273472333
20299880.0 -0.2317908474 0.0359785637 0.4840669543 0.0085726806 0.484649074 0.0087974474 -0.2312247355 0.0352378251
25299850.0 -0.22555643 0.0427777214 0.4897638213 0.007895302 0.4900083161 0.0077585209 -0.2261532284 0.041754763
30299820.0 -0.2203123802 0.047832782 0.4950515008 0.0052114716 0.4951654124 0.0054536075 -0.2205806918 0.0470964993
35299790.0 -0.2144580076 0.0519506585 0.5001074053 0.0025330448 0.5005774712 0.0022157327 -0.2157151286 0.051251801
40299760.0 -0.209123025 0.054606076 0.5055262503 -0.001595965 0.5058463041 -0.0016441651 -0.2106995306 0.05465633
45299730.0 -0.2041616677 0.0571708042 0.5106079236 -0.0061316247 0.5104819082 -0.0063753643 -0.2056850006 0.0574448735
50299700.0 -0.1990402443 0.0592551325 0.5147106208 -0.0121309652 0.5143853719 -0.0120782094 -0.2013216462 0.0602065686
55299670.0 -0.1950617869 0.0605090754 0.5185721482 -0.0175929161 0.5182666609 -0.0178773653 -0.1975756719 0.0619502804
60299640.0 -0.1907310947 0.0618061165 0.5218240453 -0.024143028 0.5216491615 -0.0244271001 -0.1935605325 0.063358211
65299610.0 -0.1871820974 0.0627215939 0.5247400935 -0.0302215459 0.5246555963 -0.0303034826 -0.1898720089 0.0648815328
70299580.0 -0.183952458 0.0631056701 0.527064764 -0.0370191087 0.5273404499 -0.0367421973 -0.1872718821 0.0659674426
75299550.0 -0.1810276907 0.0636248842 0.5290156914 -0.0437529189 0.5294757448 -0.0436713747 -0.1841795414 0.0670609468
80299520.0 -0.1781783545 0.0646252562 0.5310713563 -0.0507417294 0.5311394633 -0.0509616548 -0.1815117185 0.0681644169
85299490.0 -0.1759525228 0.0649484344 0.5324035264 -0.0575205796 0.5322310199 -0.0575466044 -0.179233054 0.0685484028
90299460.0 -0.1735287007 0.0653066397 0.5332965901 -0.0646696585 0.5333184912 -0.0642836579 -0.176948233 0.0697875714
95299430.0 -0.1714511561 0.0656021273 0.534131316 -0.0715763075 0.5346029921 -0.07177637 -0.1751613948 0.0707216791
100299400.0 -0.169387937 0.0660449377 0.5346331872 -0.0780473515 0.5347732575 -0.0785959162 -0.1730557839 0.0717751169
105299370.0 -0.1676499368 0.0665344698 0.5349912108 -0.0852319349 0.5352436163 -0.0851555232 -0.1708800482 0.0721230213
110299340.0 -0.165887804 0.0669121116 0.5352540238 -0.0918070781 0.5353017051 -0.0921913607 -0.1698890935 0.0731539771
115299310.0 -0.1646716783 0.0678683191 0.5351362965 -0.0989493053 0.535287756 -0.0986756884 -0.1682255137 0.0744987571
120299280.0 -0.1632797052 0.0683564545 0.5352717413 -0.1061344958 0.5348246021 -0.1059813228 -0.1670344037 0.0747701577
125299250.0 -0.1619334513 0.0688306745 0.5347144365 -0.1123422235 0.5346675923 -0.1123894445 -0.1653459516 0.0761800823
130299220.0 -0.1607595626 0.0690669736 0.534067632 -0.1190988278 0.5339998865 -0.1198142112 -0.1639487298 0.0768163261
135299190.0 -0.1596229878 0.0699927413 0.5334966795 -0.125741037 0.5334635614 -0.1264919008 -0.1628301249 0.0776984006
140299160.0 -0.158546819 0.0708044704 0.5327815123 -0.1326008625 0.5325419965 -0.1323752935 -0.1624956422 0.0785606157
145299130.0 -0.1578234639 0.0717673317 0.5318266683 -0.1392195795 0.5319902346 -0.1391398498 -0.1608633011 0.0799541375
150299100.0 -0.1566981163 0.072621104 0.53066184 -0.145762493 0.5305852096 -0.1457512169 -0.1597555969 0.081409142
155299070.0 -0.1555075856 0.0734374322 0.528946599 -0.152261867 0.5295050344 -0.1520917045 -0.1586746425 0.0821602486
160299040.0 -0.1548327263 0.0745028249 0.5277918907 -0.1588055308 0.5279149702 -0.1592989812 -0.1579631077 0.0838107479
165299010.0 -0.1538100196 0.0752069566 0.5264991456 -0.1648697491 0.5263578547 -0.1651757023 -0.1566969215 0.0843537292
170298980.0 -0.1529838692 0.0763220078 0.5246109343 -0.1714207998 0.5248055613 -0.1713682829 -0.156002999 0.0856057773
175298950.0 -0.1521598623 0.0770114409 0.5232803288 -0.1776266551 0.5240211233 -0.1780004658 -0.1550068482 0.0870898196
180298920.0 -0.1516591417 0.0782548767 0.5217373454 -0.1842126243 0.521602584 -0.1842302612 -0.1539502019 0.0884244523
185298890.0 -0.1507639978 0.07967028 0.5200005175 -0.1902414116 0.5200114158 -0.190402296 -0.1529298475 0.0893925914
190298860.0 -0.149661833 0.0808022712 0.5174945923 -0.1964177721 0.5183378856 -0.196500908 -0.1520219114 0.0909780214
195298830.0 -0.1490228747 0.0819365212 0.5163194858 -0.2022770029 0.5163369835 -0.2026423043 -0.1513862839 0.0924413455
200298800.0 -0.1483348893 0.0829234589 0.5139783349 -0.2091660426 0.5141760527 -0.2090797051 -0.1500814874 0.093727865
205298770.0 -0.1477008482 0.0840022469 0.5116962667 -0.2146282052 0.5119232967 -0.2145087687 -0.1489844415 0.0949484963
210298740.0 -0.1466531727 0.085378736 0.5094388721 -0.220675137 0.5092283564 -0.2210463033 -0.1483841579 0.0960393436
215298710.0 -0.1459403858 0.0866352131 0.5068046087 -0.226499556 0.5071155581 -0.2267713679 -0.1473705532 0.0976507855
220298680.0 -0.1454346646 0.0878405615 0.5040957927 -0.2327041428 0.5047713349 -0.2328749397 -0.1461324101 0.0990452276
225298650.0 -0.1443486163 0.0890263036 0.5018513293 -0.2380863011 0.5022350222 -0.237914681 -0.1453433814 0.1003278542
230298620.0 -0.1437100823 0.0903669793 0.4995202548 -0.2442220447 0.4997447745 -0.2444730439 -0.1444100702 0.1015602545
235298590.0 -0.143365999 0.0918993603 0.4971340631 -0.2509209374 0.4975185902 -0.2504100951 -0.14365882 0.1036567377
240298560.0 -0.1422187607 0.093097002 0.4945305687 -0.2554326872 0.4943843743 -0.255630798 -0.1425350311 0.1045470679
245298530.0 -0.1414648205 0.0940098431 0.4913079908 -0.2616270188 0.4914616838 -0.2617517584 -0.1416037392 0.1062274201
250298500.0 -0.1408283365 0.0956381512 0.4891723798 -0.2669838692 0.4888958857 -0.2669769984 -0.140415737 0.1076327878
255298470.0 -0.1399599654 0.0970501262 0.4861451081 -0.2723984123 0.4863735391 -0.2727880911 -0.1395799852 0.109466718
260298440.0 -0.1389190603 0.0981544907 0.483032685 -0.2774739008 0.4831357519 -0.2781075937 -0.1385910228 0.1102758402
265298410.0 -0.1385164582 0.0997274868 0.4797446961 -0.2839461732 0.4798934794 -0.2839368642 -0.1364969213 0.1114951497
270298380.0 -0.1378714675 0.100864213 0.4770226299 -0.2888721196 0.4771200464 -0.2894571121 -0.1357615901 0.1137315846
275298350.0 -0.1366336355 0.1025945534 0.4732385342 -0.2944791007 0.4737158428 -0.2946020913 -0.1349292006 0.1152827128
280298320.0 -0.1362036492 0.1035965153 0.4707006113 -0.2990674744 0.4708504932 -0.2999387264 -0.1333617558 0.116161177
285298290.0 -0.1351287339 0.1051214906 0.4671139782 -0.3049075602 0.4675496922 -0.3049337494 -0.1325613479 0.1180182109
290298260.0 -0.1342263984 0.1065263674 0.4646664437 -0.3104936609 0.4642129139 -0.3106070157 -0.1312194228 0.1193614765
295298230.0 -0.1333743477 0.1074358057 0.4603156246 -0.3158725303 0.4608392198 -0.3162026846 -0.1298088534 0.1207590215
300298200.0 -0.1324544883 0.109185695 0.4571187509 -0.3209358669 0.4573862157 -0.3208680549 -0.1286500545 0.1223877829
305298170.0 -0.1316274221 0.109991913 0.4541070564 -0.32624689 0.4540465634 -0.3262982982 -0.1272461113 0.1229990185
310298140.0 -0.1303184822 0.1110522879 0.4504071055 -0.3314819296 0.450555186 -0.3310351731 -0.1260101597 0.1243942858
315298110.0 -0.1297554333 0.1120397513 0.4468445465 -0.3369249721 0.4465781872 -0.3368840687 -0.1245263645 0.1257818449
320298080.0 -0.1286350403 0.1136461571 0.44247512 -0.3420849751 0.4435671947 -0.3420421903 -0.1235746134 0.1272023944
325298050.0 -0.1280443313 0.1143964846 0.4391382397 -0.346831558 0.4393677794 -0.3470384549 -0.1221733452 0.1285282417
330298020.0 -0.1277031505 0.1160670044 0.4348067572 -0.3521505455 0.4358225483 -0.352122489 -0.1214734899 0.1298554059
335297990.0 -0.1265032826 0.1172512501 0.4309978497 -0.3564133397 0.431203563 -0.3569575978 -0.1198380074 0.1309677749
340297960.0 -0.1257439148 0.1184923201 0.4269531581 -0.36177187 0.4266671397 -0.3618792066 -0.1185573827 0.132789929
345297930.0 -0.1251020888 0.1197576813 0.4230772001 -0.3665088442 0.4227912564 -0.3665431641 -0.1171249115 0.1338822301
350297900.0 -0.1240103112 0.1210664233 0.4190707753 -0.3703243394 0.419401192 -0.3707129631 -0.1162428034 0.135267078
355297870.0 -0.1230411509 0.1223021644 0.4148434681 -0.3749701781 0.4148697461 -0.374923063 -0.1141462583 0.136629017
360297840.0 -0.1220079069 0.1238601233 0.4101074592 -0.3795106181 0.4107035534 -0.3800508749 -0.1133389632 0.137857274
365297810.0 -0.1211287802 0.1252379143 0.4062289133 -0.3845993591 0.4064066296 -0.3843277024 -0.1121934827 0.1394954235
370297780.0 -0.1196243373 0.1263381037 0.4013680217 -0.3887371025 0.4023619867 -0.3891026666 -0.1106805808 0.1409474855
375297750.0 -0.1188378183 0.1278180247 0.3981562562 -0.3935492035 0.3978228673 -0.3936209816 -0.1089277405 0.1419164887
380297720.0 -0.1179438788 0.1290552491 0.393908555 -0.397913437 0.3934594721 -0.3976338127 -0.1075161052 0.1433797843
385297690.0 -0.1169264019 0.1303141399 0.3892952577 -0.4017890691 0.3892644986 -0.4023654236 -0.1058683982 0.1449470521
390297660.0 -0.1154095789 0.1314590863 0.3845057824 -0.4060498912 0.3847958093 -0.4061411472 -0.1041190673 0.1459757573
395297630.0 -0.1141969786 0.1326369626 0.3804992934 -0.4101065796 0.3801514162 -0.4101486255 -0.102872877 0.1471896434
400297600.0 -0.1135254171 0.1337634649 0.3758705307 -0.4147374572 0.3759836037 -0.4146443549 -0.1010564924 0.1489450533
405297570.0 -0.1122444812 0.1344349116 0.3712263558 -0.418310508 0.3713538115 -0.4186193831 -0.0994803403 0.1499068057
410297540.0 -0.1110156312 0.1362881052 0.3670412324 -0.4227501061 0.3669917369 -0.4227553577 -0.0978542042 0.1516000775
415297510.0 -0.1102127397 0.1372979046 0.3619649728 -0.4266513148 0.3623571119 -0.4267280014 -0.096290677 0.1527947811
420297480.0 -0.1087174115 0.1381835628 0.3572429601 -0.4305938259 0.3575195909 -0.430751905 -0.0944310659 0.1540428167
425297450.0 -0.1070103991 0.1394274683 0.3528057501 -0.4343003085 0.3525276002 -0.4347487942 -0.0928869408 0.1549196182
430297420.0 -0.1064629993 0.1407369353 0.3483302155 -0.4385198134 0.348179762 -0.4379248934 -0.0906928149 0.1562012845
435297390.0 -0.1047082477 0.1416713218 0.3429712174 -0.4428377589 0.3433523041 -0.4422016765 -0.0897637853 0.1577989023
440297360.0 -0.1030102328 0.1425890073 0.3378250347 -0.445882651 0.3378611818 -0.4459649987 -0.08770309 0.1586618894
445297330.0 -0.1017634204 0.1435246299 0.3331309392 -0.4492916959 0.3336258973 -0.4499702838 -0.086035931 0.1600128603
450297300.0 -0.1006696165 0.1447866636 0.3283733571 -0.4528170499 0.3284426128 -0.4526459907 -0.0842045864 0.1606768334
455297270.0 -0.0993778542 0.1458050394 0.3235521366 -0.4566729491 0.323670966 -0.4567627112 -0.0823643235 0.1622105364
460297240.0 -0.0979182867 0.1470929537 0.318674247 -0.4610368029 0.3182777427 -0.4607101281 -0.0806244019 0.162809528
465297210.0 -0.0966218181 0.1479026213 0.3132508935 -0.4637000912 0.312974427 -0.463888179 -0.0782269858 0.1643768637
470297180.0 -0.0951949657 0.1487154378 0.3082658191 -0.4667871506 0.3082316066 -0.4669128031 -0.0767314485 0.1648056732
475297150.0 -0.0936943195 0.150122355 0.3032124538 -0.4705326545 0.3032912159 -0.4708081526 -0.0749798783 0.1658204392
480297120.0 -0.0918884389 0.1515713547 0.2983919141 -0.4739023 0.2981475447 -0.4732647672 -0.0731203112 0.1668825107
485297090.0 -0.0905838661 0.1518209416 0.2925046572 -0.4770450023 0.2927006568 -0.4767120878 -0.0714051838 0.1682211166
490297060.0 -0.0886071207 0.1528216379 0.2869851573 -0.4800309952 0.2876975785 -0.480088679 -0.0696769186 0.1686504727
495297030.0 -0.0877667632 0.1536882673 0.2824162803 -0.483451042 0.2821026091 -0.4835124482 -0.0673508233 0.169596577
500297000.0 -0.0862588659 0.1548236955 0.2769337294 -0.4859526375 0.2772461579 -0.4865429595 -0.0654486373 0.1708794233
505296970.0 -0.0841740292 0.1557550332 0.2719539222 -0.4895689332 0.271635122 -0.4892700954 -0.0637048766 0.1714107955
510296940.0 -0.0829256104 0.156863127 0.2664754578 -0.4928518472 0.2668385201 -0.492607012 -0.061436108 0.1726676018
515296910.0 -0.0812011567 0.1579261171 0.26085854 -0.4948364468 0.2603441077 -0.4948117723 -0.0596710536 0.1725629486
520296880.0 -0.0795801772 0.1587110574 0.2556004726 -0.4976847918 0.2550485082 -0.4974932105 -0.0572293879 0.174000061
525296850.0 -0.0778945401 0.1594431143 0.2496123202 -0.5003519534 0.2495998672 -0.5003876134 -0.0555152837 0.1745063357
530296820.0 -0.07659677 0.1601343763 0.2442060707 -0.5027969998 0.244693966 -0.5032471617 -0.0537433258 0.1751827338
535296790.0 -0.0743361067 0.1613213847 0.239072445 -0.5056331398 0.2390457637 -0.5057817115 -0.0512296302 0.1763375389
540296760.0 -0.0728070248 0.1623993346 0.2331381488 -0.5083825948 0.2332955418 -0.5086050977 -0.0494856834 0.17661614
545296730.0 -0.071689204 0.1633005263 0.2278171541 -0.5106256871 0.2277040304 -0.5102834508 -0.0474140662 0.1773836107
550296700.0 -0.0694774911 0.1639554457 0.2222716558 -0.5131271641 0.2219975147 -0.5132288588 -0.0453132609 0.1777756455
555296670.0 -0.0680997547 0.1646246022 0.2167601426 -0.5156442711 0.2167590745 -0.5153948764 -0.0438491681 0.1780812173
560296640.0 -0.0659070028 0.1654682232 0.210898551 -0.5178532559 0.2111856522 -0.5178169306 -0.0415939279 0.1794974086
565296610.0 -0.0647434337 0.166544622 0.2060780885 -0.5203379244 0.2053656388 -0.5195415435 -0.0393304487 0.1799918955
570296580.0 -0.0630579117 0.1672105082 0.1994975298 -0.5219337139 0.1999146995 -0.5225282665 -0.0376617796 0.1800798656
575296550.0 -0.0612511016 0.1678425349 0.1942702935 -0.5245490479 0.1942187487 -0.5243236542 -0.03553029 0.1810606874
580296520.0 -0.0597438146 0.1690262909 0.188604672 -0.5264101023 0.188328701 -0.5265981406 -0.0338169741 0.1813355958
585296490.0 -0.0576408087 0.169723247 0.1825594144 -0.5280674496 0.1820865307 -0.5283179369 -0.0314097289 0.1822896556
590296460.0 -0.0552515724 0.1703472058 0.1768155427 -0.5301950389 0.1765770853 -0.5304626116 -0.0295186868 0.1828045244
595296430.0 -0.0543354132 0.1711971521 0.1705266445 -0.5321070702 0.1707838432 -0.5323298617 -0.0274341117 0.1829141695
600296400.0 -0.052133411 0.1718896018 0.1650020599 -0.533678405 0.1647394228 -0.5337961462 -0.0250042469 0.1832539843
605296370.0 -0.0507010214 0.1728005146 0.160014588 -0.535562103 0.1593835359 -0.5360563929 -0.0232329081 0.1838401695
610296340.0 -0.0485758603 0.1736957043 0.1535559011 -0.5366756624 0.1537898382 -0.5372240215 -0.0215316107 0.1844631015
615296310.0 -0.0466368532 0.1741680136 0.147920373 -0.5389907356 0.1475240304 -0.5390591029 -0.0188084486 0.1846137498
620296280.0 -0.0455166106 0.1750153847 0.1418581016 -0.5406402201 0.1414563001 -0.5403350536 -0.0169342017 0.1853270595
625296250.0 -0.0435757087 0.1756574798 0.1360291419 -0.5420765248 0.1360719734 -0.5420015376 -0.0154373873 0.1851777376
630296220.0 -0.0418135693 0.176530327 0.1296803133 -0.5434110025 0.1298652795 -0.5431425306 -0.0131046996 0.1857300942
635296190.0 -0.0403108878 0.1774562672 0.1246204779 -0.5446004461 0.1240290082 -0.5443460129 -0.0111405953 0.1858125403
640296160.0 -0.0384500633 0.1776483099 0.1186267329 -0.5463893301 0.1182285229 -0.5462093064 -0.0093153441 0.1860331681
645296130.0 -0.0364861397 0.1786953209 0.1124188317 -0.5472509745 0.1122228507 -0.5471100677 -0.0070843424 0.1860499001
650296100.0 -0.0347311883 0.1787547749 0.1063813497 -0.5482079497 0.1063157264 -0.5485221982 -0.0045601708 0.1866857433
655296070.0 -0.0331935318 0.1796904012 0.100234377 -0.5495419736 0.1005965906 -0.5492608236 -0.0029802999 0.1866614223
660296040.0 -0.0312420982 0.1804171623 0.0944733552 -0.5507912881 0.0943791757 -0.5505059361 -0.0007428381 0.1865753518
665296010.0 -0.0293403226 0.1807225324 0.0880366106 -0.5510670371 0.0886072537 -0.5510701913 0.001167448 0.1870971081
670295980.0 -0.0276620932 0.1814968672 0.0824190811 -0.5524589472 0.0826394448 -0.5517612598 0.0030333281 0.1869486636
675295950.0 -0.0260325934 0.1818584434 0.0767106077 -0.5526216111 0.076323233 -0.5531723385 0.0053526911 0.1872159459
680295920.0 -0.0243805349 0.1824357806 0.0707967744 -0.5534829507 0.0704117511 -0.5538290342 0.0078490953 0.1869118328
685295890.0 -0.0222323098 0.1829748649 0.0644169256 -0.5547265774 0.0647021208 -0.5545132796 0.0096431942 0.1874277647
690295860.0 -0.0207063846 0.18355489 0.0589394422 -0.5551221396 0.0585015035 -0.5552970204 0.0116741781 0.1872902391
695295830.0 -0.0189436209 0.1838837833 0.0532172721 -0.555943235 0.0525983034 -0.5554733066 0.0138004593 0.187443225
700295800.0 -0.0169990364 0.1845126241 0.0469512678 -0.556120198 0.0465963022 -0.5562249307 0.0158336977 0.1875890006
705295770.0 -0.0155577681 0.1849690977 0.0407842249 -0.5569490527 0.0405444888 -0.5569539188 0.0178870838 0.1879640588
710295740.0 -0.0134780672 0.185142833 0.0347445612 -0.5568603282 0.0347415421 -0.5573588035 0.0199012448 0.1877291669
715295710.0 -0.0117533007 0.1857492933 0.0289467978 -0.5573335334 0.0288831874 -0.557461149 0.0220345108 0.1868252254
720295680.0 -0.0095006125 0.1860554254 0.0224657106 -0.5573720954 0.0225181415 -0.5577261717 0.0239624177 0.1870335391
725295650.0 -0.0086228397 0.1865517969 0.0171816115 -0.5580332008 0.0168205725 -0.5577217526 0.0257716729 0.1875837576
730295620.0 -0.0072989138 0.1864450256 0.0110419615 -0.5576642107 0.0107270562 -0.5577072182 0.0278428406 0.187563209
735295590.0 -0.0049602967 0.1870811056 0.0046945064 -0.5580063862 0.0048674579 -0.5580464289 0.0300163795 0.1867107216
740295560.0 -0.0034707209 0.1870687907 -0.0009095179 -0.5581245325 -0.0012253461 -0.5581256022 0.0320105113 0.1873179344
745295530.0 -0.0014131928 0.1878486317 -0.0069000919 -0.5572657912 -0.0065639681 -0.5579222705 0.0337165193 0.1868113269
750295500.0 -9.8798e-05 0.1882250046 -0.0129385438 -0.5578004431 -0.013363496 -0.5577863627 0.0358161982 0.1865443374
755295470.0 0.0014622266 0.1882870618 -0.0187468976 -0.5581365104 -0.0190338535 -0.5581324013 0.0383877542 0.1867458621
760295440.0 0.0035587445 0.1892456091 -0.0259565422 -0.557569457 -0.0252616876 -0.5571962775 0.0404921699 0.1854338474
765295410.0 0.0054060581 0.1884476318 -0.0306975433 -0.5565559917 -0.0307438648 -0.5571837548 0.0424144016 0.1855382441
770295380.0 0.0066916696 0.1890148546 -0.0364348753 -0.5565437665 -0.0371056439 -0.556784982 0.0440860474 0.1852879136
775295350.0 0.0085469099 0.1890475785 -0.0426594739 -0.556026168 -0.0428208802 -0.555973805 0.0462026951 0.1849225732
780295320.0 0.010587753 0.189435949 -0.0489686039 -0.5550493072 -0.0490173538 -0.5555727483 0.0486581122 0.1844608001
785295290.0 0.0123930169 0.1891728926 -0.0550021634 -0.5548616276 -0.0547247121 -0.555319919 0.0500388731 0.1845216451
790295260.0 0.0138926359 0.1889980507 -0.0609115644 -0.5539959447 -0.0609662245 -0.5546433529 0.0520866186 0.1844695212
795295230.0 0.0156254924 0.1892426254 -0.0668545126 -0.5538919186 -0.0667480919 -0.5540318407 0.0538687589 0.18328213
800295200.0 0.0171049917 0.1895551693 -0.0722176976 -0.5528438137 -0.0724031208 -0.5529652688 0.0562807976 0.1831518333
805295170.0 0.0187588794 0.1896451986 -0.0784462568 -0.5524173733 -0.0785110782 -0.5524401252 0.0587818685 0.1826656876
810295140.0 0.0211179775 0.1899012822 -0.0842702469 -0.5508752436 -0.0847415203 -0.5514389316 0.0604348627 0.1819784946
815295110.0 0.0223758265 0.1897717138 -0.0899982062 -0.5502231351 -0.0902118877 -0.5506532835 0.062468717 0.1815673461
820295080.0 0.0241973287 0.1896902974 -0.095824425 -0.5488247918 -0.0959628723 -0.5496707147 0.0636035382 0.1819523006
825295050.0 0.0257345645 0.1893429871 -0.102278009 -0.5482273644 -0.1021055943 -0.5481518322 0.0666003286 0.1811474279
830295020.0 0.0276367023 0.1895458171 -0.1081292584 -0.5467116445 -0.108199806 -0.5470245394 0.068134569 0.1798158991
