!Created with skrf (http://scikit-rf.org).
# Hz S RI R 50.0 
!freq ReS11 ImS11 ReS21 ImS21 ReS12 ImS12 ReS22 ImS22
300000.0 -0.2379632949 -0.1179296317 0.4673503635 0.0774344796 0.4650397199 0.0782375934 -0.2339267412 -0.1252247844
5299970.0 -0.2447305535 0.0053378805 0.4736277292 0.005843336 0.474169154 0.0060182609 -0.2437023368 0.0050874851
10299940.0 -0.2418097578 0.0185049498 0.4758820725 0.0066363241 0.4759009983 0.0074149349 -0.2400694135 0.0182325809
15299910.0 -0.2366952391 0.0281948232 0.4794160968 0.0081347175 0.4798418489 0.0084556191 -0.2358521328 0.0275209119
20299880.0 -0.2317173391 0.0364218657 0.4841586108 0.0085242263 0.4846833814 0.0088108034 -0.2311914546 0.0352774257
25299850.0 -0.2258561139 0.0429326555 0.4896625197 0.0079936832 0.4897585149 0.0075130373 -0.2258026973 0.0419410441
30299820.0 -0.2203427368 0.0477665033 0.4948847134 0.0056470839 0.4953575145 0.0054047238 -0.2206326494 0.0468655614
35299790.0 -0.2141293476 0.051907495 0.4998520696 0.0023737856 0.500228929 0.0020813394 -0.2154896018 0.0514018667
40299760.0 -0.2091245059 0.0548209126 0.5054943652 -0.0013755874 0.5057710926 -0.0017473313 -0.2108755758 0.0546545759
45299730.0 -0.2040400433 0.0571332934 0.5101904852 -0.0058029156 0.5106900125 -0.0065030012 -0.2054777347 0.0576453712
50299700.0 -0.1991522678 0.0590670697 0.5145365176 -0.0122155591 0.5145031044 -0.0122071229 -0.2011382232 0.0601403096
55299670.0 -0.1949472337 0.0606189516 0.5185698809 -0.0177732616 0.5180993736 -0.017741573 -0.1974917753 0.0618038816
60299640.0 -0.1909660981 0.0617709064 0.5220398719 -0.023862527 0.5218055877 -0.0240936229 -0.1936897934 0.0633334394
65299610.0 -0.187084427 0.0626765912 0.5252741228 -0.0304216555 0.5247847338 -0.03028481 -0.1900725133 0.0644421305
70299580.0 -0.1840353057 0.0629791756 0.5269839717 -0.036617206 0.5273881673 -0.0369093318 -0.187289849 0.0658177828
75299550.0 -0.1808880304 0.0636389912 0.5286721797 -0.044067275 0.5291493783 -0.044013296 -0.1839301759 0.0670743673
80299520.0 -0.178430808 0.064567694 0.5309913281 -0.0507428754 0.5313607046 -0.0509140512 -0.1817059468 0.0680429043
85299490.0 -0.175842776 0.0649592125 0.5324397764 -0.0578718422 0.532511386 -0.0575034105 -0.179272177 0.0686863428
90299460.0 -0.1737137988 0.065533053 0.5333953517 -0.0645688762 0.5333998884 -0.0645078079 -0.1766743281 0.0698002277
95299430.0 -0.1713049571 0.0658995813 0.5338314273 -0.0713545764 0.5346098873 -0.0719527684 -0.174902995 0.0708156191
100299400.0 -0.1693100259 0.0660799992 0.534633772 -0.0782744825 0.5345758915 -0.0784554228 -0.1731717381 0.071708301
105299370.0 -0.167768051 0.0666882902 0.5350903314 -0.0852499897 0.5352267852 -0.0850857761 -0.1710139789 0.0724724578
110299340.0 -0.1660996232 0.0665921923 0.5352710137 -0.0910769703 0.5355241142 -0.0916566649 -0.1699945754 0.0731230766
115299310.0 -0.1645936913 0.0677459464 0.5353737812 -0.0984865904 0.5349972021 -0.0990971747 -0.168136602 0.074127032
120299280.0 -0.1631723056 0.0683766371 0.5352609963 -0.1061803722 0.5351354862 -0.1058173233 -0.166723829 0.0748060705
125299250.0 -0.1618198468 0.0688990986 0.534830721 -0.11279911 0.5346930442 -0.1123138038 -0.1652889074 0.0761972923
130299220.0 -0.1606655479 0.0691012091 0.5343110327 -0.1191409817 0.5341240837 -0.1195429892 -0.1640040355 0.0770065003
135299190.0 -0.1595168504 0.0702142367 0.5334467276 -0.1255930043 0.53384764 -0.1263583803 -0.1627593459 0.0778916167
140299160.0 -0.1584712487 0.0710667435 0.5328411781 -0.1325873653 0.5323392281 -0.1325700223 -0.1622215167 0.0787273293
145299130.0 -0.1577794824 0.0719913091 0.5315485172 -0.139178307 0.5318383086 -0.1393014741 -0.1607093373 0.0800315451
150299100.0 -0.1566126167 0.0722644718 0.5304696285 -0.1458751317 0.530596883 -0.145784866 -0.1599617137 0.0812263092
155299070.0 -0.1553677826 0.0733193915 0.5287968954 -0.1523109718 0.5295213825 -0.1524398341 -0.1587348442 0.0822643171
160299040.0 -0.1547848225 0.0745634851 0.5281720634 -0.1587567282 0.5280390493 -0.1586312349 -0.1580895091 0.0835250283
165299010.0 -0.1541313505 0.0753991481 0.5269174016 -0.1648822368 0.5265820534 -0.165230598 -0.1565309873 0.0846103046
170298980.0 -0.1532259165 0.0762626602 0.5247223411 -0.1718211068 0.5255871768 -0.1713843985 -0.1561733474 0.085731581
175298950.0 -0.152371006 0.0773922776 0.5233807419 -0.1776840287 0.5237975881 -0.1781483801 -0.1548059848 0.0871495647
180298920.0 -0.1517331579 0.0783567144 0.5216534687 -0.1840483889 0.5219042589 -0.1842311845 -0.1541711109 0.0883611578
185298890.0 -0.1505526927 0.0793291768 0.5200481845 -0.190348733 0.5197240246 -0.190482568 -0.1530573827 0.0897156157
190298860.0 -0.1499570314 0.0807902594 0.5175220311 -0.196570962 0.5181601611 -0.1962652943 -0.152201754 0.0910596402
195298830.0 -0.1491323908 0.0818051297 0.5158691809 -0.2024707155 0.5165773616 -0.2025395796 -0.1513155018 0.0926371343
200298800.0 -0.1482964574 0.0826713636 0.5140679883 -0.2091908634 0.5141974884 -0.2089951479 -0.1502068372 0.0935454048
205298770.0 -0.1478277922 0.0839484074 0.5113690168 -0.2146195608 0.5121389415 -0.2145411538 -0.1492627925 0.0950656422
210298740.0 -0.1469709159 0.0853792271 0.5094360521 -0.2208152996 0.5090708902 -0.2209988904 -0.1484536788 0.0961278579
215298710.0 -0.1462445548 0.0865940486 0.5071253982 -0.2265079569 0.5069298875 -0.2266425722 -0.1474973106 0.0975935845
220298680.0 -0.1452676787 0.0878523227 0.5043984607 -0.2324256691 0.5043689349 -0.2327818603 -0.1464689271 0.0991609088
225298650.0 -0.1445022356 0.0891866144 0.5020054704 -0.2383481669 0.5019376129 -0.2384109045 -0.1451208322 0.100544156
230298620.0 -0.1436232404 0.0906347513 0.4994263298 -0.2444923824 0.4999933216 -0.2446996677 -0.1447102106 0.1018278769
235298590.0 -0.1433585083 0.0917766138 0.4971568995 -0.2504708233 0.4969140229 -0.2500341568 -0.1432656171 0.1033046233
240298560.0 -0.1422719797 0.0934085332 0.4938290761 -0.2556239926 0.4942238666 -0.2558443809 -0.1424517832 0.1045007385
245298530.0 -0.1414939401 0.0940941951 0.4912860769 -0.2615368418 0.4917973947 -0.261730624 -0.1415137444 0.1063307835
250298500.0 -0.140856144 0.095415171 0.4887532234 -0.2672915124 0.4885777647 -0.2668460533 -0.1403929811 0.1078041308
255298470.0 -0.1397687967 0.0972496607 0.4861033705 -0.272372137 0.4864775276 -0.2726555935 -0.1395593958 0.1092118682
260298440.0 -0.1389434178 0.0981563668 0.483541104 -0.27769314 0.4830482662 -0.2778320129 -0.1384658586 0.1103109237
265298410.0 -0.1385700158 0.0997520824 0.479759957 -0.2837864965 0.4800513849 -0.2842146347 -0.1368338122 0.1118223746
270298380.0 -0.1379642008 0.1008583982 0.4767263012 -0.2892129411 0.4768107257 -0.2892169735 -0.1360433871 0.1135848929
275298350.0 -0.1367953024 0.102598355 0.4733392286 -0.2944353208 0.4734492172 -0.2945144227 -0.1346676437 0.1149708557
280298320.0 -0.1363189067 0.1036840164 0.4707693633 -0.2995491507 0.4706108395 -0.3001541913 -0.1333669858 0.1163888355
285298290.0 -0.1353049256 0.104923295 0.4672628989 -0.3048825013 0.4674039355 -0.3049658875 -0.1325245769 0.1180107914
290298260.0 -0.1343486762 0.1065547468 0.4646158595 -0.3103759425 0.4639702637 -0.3106295292 -0.1311611354 0.1192308278
295298230.0 -0.1333027059 0.1074035236 0.4606050777 -0.3159401532 0.4608160869 -0.3159188536 -0.1299393095 0.1203080555
300298200.0 -0.1323673587 0.1091514338 0.457424597 -0.3210531585 0.4574552863 -0.3209724248 -0.128499936 0.1222002834
305298170.0 -0.1312704517 0.1099148829 0.4538132739 -0.326525364 0.454076062 -0.3265589125 -0.1275555853 0.1233189969
310298140.0 -0.1301062674 0.1113527386 0.4502577099 -0.3312304044 0.4502529885 -0.3314065439 -0.1257039795 0.1245539962
315298110.0 -0.1299347625 0.1123812625 0.4466227789 -0.3369863374 0.4469218885 -0.336784115 -0.1245876759 0.1258441124
320298080.0 -0.1285985749 0.1137648274 0.4424247716 -0.3418889944 0.4435984498 -0.3421464155 -0.1237224568 0.127129877
325298050.0 -0.1279353686 0.114828536 0.4389612823 -0.3470620487 0.4392788356 -0.3468805115 -0.1219654647 0.1281692787
330298020.0 -0.1275575103 0.1159753388 0.4349678516 -0.3521442858 0.4354869141 -0.3517873491 -0.1213766053 0.1295479342
335297990.0 -0.1265056564 0.1174797092 0.4312565032 -0.3566492012 0.4311400084 -0.3567170655 -0.119970913 0.130809614
340297960.0 -0.1258026253 0.1186185164 0.4268265747 -0.3617566597 0.4266716751 -0.3615809155 -0.1185173689 0.1326945887
345297930.0 -0.1248582288 0.1197815138 0.422659711 -0.3661993516 0.422860332 -0.366280616 -0.1174164371 0.1336127434
350297900.0 -0.1241165844 0.1210883032 0.4189853688 -0.370500399 0.4195435585 -0.3706728102 -0.1162278898 0.1351823762
355297870.0 -0.1232578341 0.1222828569 0.4148518538 -0.375151202 0.4148362784 -0.3749680306 -0.1145817527 0.1368428978
360297840.0 -0.1220230308 0.1240798335 0.4104840749 -0.3799969945 0.4106164947 -0.3799034476 -0.1133702007 0.1381314684
365297810.0 -0.1211155227 0.1253012301 0.4062580564 -0.3841520224 0.4065792566 -0.3843297795 -0.1120489323 0.1392876463
370297780.0 -0.120156356 0.1263498075 0.4016516165 -0.3890062744 0.4023150394 -0.3889207695 -0.1107161769 0.1409088901
375297750.0 -0.1189831254 0.1278207429 0.3977823671 -0.3932330459 0.3981648761 -0.3933776635 -0.1088466999 0.1420443613
380297720.0 -0.1179570816 0.1291442812 0.3934678851 -0.3980235706 0.3934017644 -0.3977175118 -0.1072917686 0.1438218833
385297690.0 -0.1172827456 0.1300900623 0.3891725513 -0.4019537609 0.3892064603 -0.4025494134 -0.1058363705 0.1451500674
390297660.0 -0.1155005113 0.1312569623 0.3846478363 -0.4058568836 0.3850121405 -0.4063279249 -0.1039822747 0.14607161
395297630.0 -0.1142603746 0.1327437832 0.3801771651 -0.4101825069 0.3803757531 -0.4101012839 -0.1027243893 0.1472763387
400297600.0 -0.1134493549 0.1339447965 0.3761455935 -0.4144910872 0.3759741754 -0.4147808531 -0.1010521734 0.1490345171
405297570.0 -0.1122448602 0.1347451039 0.371356644 -0.4185485559 0.3717099774 -0.4184890026 -0.0993124202 0.1503304006
410297540.0 -0.1109684039 0.1362899164 0.3666640326 -0.4226833779 0.3668856761 -0.4225694515 -0.0981119736 0.1515028158
415297510.0 -0.1099698666 0.1374106033 0.3620002645 -0.4266265312 0.3627878647 -0.4268363491 -0.0960968805 0.1528034119
420297480.0 -0.1087429125 0.1381652597 0.3570798398 -0.4309368773 0.3574313669 -0.4311427054 -0.0941982368 0.1539058119
425297450.0 -0.1071601482 0.1395562679 0.3524548077 -0.4343394429 0.3525495867 -0.434505675 -0.092727395 0.1549733697
430297420.0 -0.1061061534 0.1405206544 0.3482576192 -0.4381344773 0.3484096685 -0.4380888795 -0.0908849652 0.15620587
435297390.0 -0.1048893375 0.1414267096 0.3430522712 -0.4426287414 0.342936172 -0.4421787677 -0.0898644277 0.157634488
440297360.0 -0.1031861062 0.1427359335 0.3375682843 -0.4464365572 0.3380303728 -0.4458844669 -0.0879661968 0.1585002406
445297330.0 -0.1018490534 0.1433269335 0.3335782367 -0.4494450165 0.3330636894 -0.449844331 -0.0856658646 0.1598447549
450297300.0 -0.1007500455 0.1444808649 0.3280682866 -0.452878443 0.3285787902 -0.4528736595 -0.0841026246 0.1607360955
455297270.0 -0.0994916674 0.1459257219 0.3237516211 -0.4567517033 0.3234353497 -0.4566364887 -0.0822843479 0.1618309571
460297240.0 -0.0975695829 0.1470489806 0.3183035697 -0.4606895902 0.318468038 -0.4605276914 -0.0807229627 0.1627196613
465297210.0 -0.0964847877 0.1478994622 0.3130188628 -0.4636149839 0.3131605187 -0.4641639529 -0.0787242798 0.1644937877
470297180.0 -0.0951598134 0.1488261557 0.3078855288 -0.4667101103 0.3083968888 -0.4670435809 -0.076725702 0.1649201919
475297150.0 -0.0939040208 0.1501311955 0.3030035423 -0.4703224949 0.3030608422 -0.4706150968 -0.0747431826 0.1659255135
480297120.0 -0.0919325921 0.1512025555 0.297705386 -0.4735786788 0.2980655652 -0.4735007831 -0.0733793302 0.1672307596
485297090.0 -0.0905148745 0.1517305326 0.2925842132 -0.4768073821 0.2927583839 -0.476958062 -0.0715230335 0.1680710592
490297060.0 -0.0886149786 0.153271243 0.2869720313 -0.480607808 0.2873665497 -0.4802421841 -0.0693458568 0.168951647
495297030.0 -0.0877260352 0.1536131152 0.282589061 -0.4834154127 0.2822197635 -0.4832816452 -0.0674464842 0.1696758939
500297000.0 -0.086321761 0.1549709176 0.2773073343 -0.48608882 0.2767869553 -0.4865451822 -0.0657134318 0.1706466151
505296970.0 -0.084160818 0.1558923419 0.2716040547 -0.4896196842 0.2713309876 -0.4889682233 -0.0635856126 0.1711509155
510296940.0 -0.0827051434 0.1566890309 0.2661323302 -0.4927316748 0.2665840677 -0.4925808673 -0.0614191169 0.1725585449
515296910.0 -0.0812660606 0.1578068282 0.2609286335 -0.4950450064 0.2606037916 -0.4950682477 -0.0599389832 0.1728641213
520296880.0 -0.079656061 0.1588125693 0.255490287 -0.4976691689 0.2554085743 -0.4976405995 -0.0575499246 0.174214336
525296850.0 -0.077948401 0.1591906203 0.2497939453 -0.4999822336 0.249683907 -0.5006984538 -0.0557507545 0.1748819482
530296820.0 -0.0767314368 0.1603212866 0.2445476108 -0.5034662098 0.2443521657 -0.5031167188 -0.0534282821 0.1753757147
535296790.0 -0.0742729375 0.1613112033 0.2385390074 -0.5057257127 0.2388665404 -0.5057247121 -0.0515386355 0.1764471917
540296760.0 -0.0728572456 0.1624338307 0.2331351137 -0.5086401273 0.2331954279 -0.50816606 -0.0496651411 0.1762660478
545296730.0 -0.0719127495 0.1630477977 0.2280025802 -0.5107478816 0.2276326729 -0.5105736196 -0.0475893606 0.1775563878
550296700.0 -0.0694169679 0.1642725718 0.2218767567 -0.5132405665 0.222156459 -0.5134304627 -0.0456391675 0.1778783769
555296670.0 -0.0682401835 0.1646620996 0.2165434251 -0.5157503555 0.2169513783 -0.515785122 -0.0436305475 0.1781066869
560296640.0 -0.0657159478 0.1655152339 0.2108308014 -0.5177836151 0.2111308263 -0.5179368245 -0.0414494615 0.1795539644
565296610.0 -0.0648233491 0.1662505781 0.205774422 -0.5200620495 0.2055579117 -0.5195922572 -0.0394449963 0.1799082382
570296580.0 -0.0630463071 0.1675238495 0.1995272655 -0.5225499578 0.1995681922 -0.5222806348 -0.0376730187 0.1804606777
575296550.0 -0.0609625309 0.1678629145 0.1943786463 -0.5244324211 0.1941043523 -0.5242313586 -0.0357256155 0.1809206129
580296520.0 -0.0593845794 0.1689964039 0.1886005092 -0.5262693276 0.188492752 -0.5267257131 -0.0339081202 0.1815170403
585296490.0 -0.0578004872 0.1699670729 0.1830032097 -0.5282766773 0.182388218 -0.5281092602 -0.0309335864 0.1822159378
590296460.0 -0.0553493659 0.1702772678 0.1767340466 -0.5302250464 0.176931936 -0.5304711579 -0.029880732 0.1828342368
595296430.0 -0.0540622724 0.171356806 0.1706624689 -0.5323249401 0.170485034 -0.5321839712 -0.0273439794 0.1827512381
600296400.0 -0.051999184 0.1720825646 0.1648170684 -0.533733441 0.1647160213 -0.5340405378 -0.0253294832 0.1833021834
605296370.0 -0.050689164 0.1728738472 0.1597392538 -0.5356941049 0.1590360515 -0.5357221073 -0.0234543224 0.1838424228
610296340.0 -0.0485741761 0.1738405702 0.1534320471 -0.5368073834 0.1540090686 -0.5372790103 -0.0215308752 0.1844355627
615296310.0 -0.0467127412 0.1742846001 0.1476254888 -0.5392526402 0.1473511271 -0.5391087635 -0.0193010137 0.184675069
620296280.0 -0.0454247338 0.1753059767 0.141792565 -0.5404632895 0.1415340954 -0.5401699198 -0.0174427657 0.1850378722
625296250.0 -0.0437746775 0.1756118769 0.1358935928 -0.5421121371 0.1357774619 -0.5420825101 -0.0151237924 0.1851325156
630296220.0 -0.04193986 0.1765920917 0.1300705465 -0.5438843944 0.1297929316 -0.5433391644 -0.0130707202 0.1859180796
635296190.0 -0.0403261918 0.1771681558 0.1244925597 -0.5448817444 0.1238869208 -0.5444621038 -0.0109967241 0.1860546216
640296160.0 -0.0381905539 0.1777340529 0.1178433702 -0.545810717 0.1180905307 -0.5459303192 -0.0090676228 0.1861481809
645296130.0 -0.0363456242 0.1788363616 0.1121385806 -0.5472428848 0.1120845876 -0.5472507467 -0.0070121486 0.1860662259
650296100.0 -0.0345678712 0.1789872867 0.106596996 -0.5488109827 0.1061423702 -0.5488747718 -0.0041957617 0.1863474979
655296070.0 -0.0328180784 0.1795320745 0.0999849003 -0.5497051365 0.1005420027 -0.5491938404 -0.0028540829 0.1867017019
660296040.0 -0.0310327067 0.1804894413 0.0944814928 -0.5509055129 0.0942109987 -0.5508060311 -0.0007365906 0.1867796357
665296010.0 -0.0294147654 0.1808236383 0.0880387854 -0.5511304055 0.0881480193 -0.5513722839 0.0013796464 0.1869066531
670295980.0 -0.027581251 0.1814032441 0.0825635603 -0.5523664773 0.0823874112 -0.5520648326 0.0029734808 0.1872242032
675295950.0 -0.0257080727 0.1819037716 0.0764799522 -0.5529984501 0.0764426933 -0.5530249595 0.0053590566 0.1872687229
680295920.0 -0.0244021624 0.1824667009 0.0709299839 -0.553795476 0.0707782107 -0.5536257318 0.0077173692 0.1871383041
685295890.0 -0.0222790071 0.1832927837 0.0646159452 -0.5546642437 0.0647139237 -0.5546395168 0.0096373536 0.1875829696
690295860.0 -0.0207437204 0.1834788824 0.0587351735 -0.5551734123 0.0582349311 -0.5552659495 0.01181769 0.1873122944
695295830.0 -0.0186924336 0.1838675713 0.0529925299 -0.5557161784 0.0524882945 -0.5556258136 0.0136924168 0.1873717791
700295800.0 -0.0168189285 0.1847406785 0.0466014449 -0.5563284402 0.0464506295 -0.5561806039 0.0158349113 0.1871961247
705295770.0 -0.0154620163 0.1848089372 0.0408901523 -0.5568445661 0.0405201567 -0.5564883928 0.0179981614 0.187515145
710295740.0 -0.0136087752 0.1849114578 0.0348046397 -0.5567598565 0.0342859877 -0.5573096509 0.0199960487 0.1875732974
715295710.0 -0.0119084789 0.1860842157 0.0290311714 -0.5576814502 0.0286552475 -0.5574430473 0.0221618764 0.1872224432
720295680.0 -0.009747337 0.1860154148 0.0224672731 -0.5573873433 0.0222630965 -0.5579402594 0.0241570331 0.1868830408
725295650.0 -0.0085977579 0.1865597356 0.0170273185 -0.5578538859 0.0169349737 -0.557992449 0.0258862474 0.1872431675
730295620.0 -0.0072925276 0.1867795176 0.0110182747 -0.5576079561 0.0107254385 -0.5574637315 0.0279686852 0.1872357627
735295590.0 -0.0047303113 0.1871156525 0.0048861096 -0.5580984621 0.0045630268 -0.5580378881 0.02995912 0.1866214311
740295560.0 -0.0035396567 0.187302526 -0.0012722104 -0.5584018549 -0.0011206736 -0.5583371544 0.0319274084 0.1868783155
745295530.0 -0.0017526764 0.1878065961 -0.0069250005 -0.5573581637 -0.0066841499 -0.5579466731 0.0336967843 0.1863849563
750295500.0 -0.0001079337 0.1880537072 -0.0128294304 -0.5576054117 -0.0133358218 -0.5579714436 0.0358067311 0.1862375364
755295470.0 0.0014423128 0.1882097867 -0.0184823395 -0.557665331 -0.0194373108 -0.5581528888 0.0381527426 0.1866264495
760295440.0 0.0035041602 0.1889369545 -0.0254152163 -0.5575145231 -0.025659591 -0.5568314441 0.0404061906 0.1851071624
765295410.0 0.0055602365 0.1886363696 -0.0314945594 -0.5568552829 -0.0309311771 -0.5568155809 0.0425346362 0.1854525189
770295380.0 0.0068966305 0.1893798161 -0.036899773 -0.5565157513 -0.0369502793 -0.5567589669 0.0439794126 0.1851413676
775295350.0 0.0086021269 0.1891748692 -0.0431639666 -0.5564017182 -0.0430029863 -0.5558535231 0.0464403298 0.1847393682
780295320.0 0.0104440471 0.1893956623 -0.04885996 -0.5553020466 -0.0490770876 -0.5556041071 0.048480889 0.18459384
785295290.0 0.0123688932 0.1892830646 -0.0546636883 -0.5549033748 -0.055090904 -0.5550414736 0.0502090644 0.1845693956
790295260.0 0.0140405719 0.1890965341 -0.0608833293 -0.5544222397 -0.0606738074 -0.554698818 0.0524270367 0.1843376033
795295230.0 0.0156264407 0.189341461 -0.0665499468 -0.5540060351 -0.0669953045 -0.5537718522 0.0543061458 0.1832038242
800295200.0 0.0167143745 0.1894187201 -0.0716499903 -0.5525418151 -0.0725988522 -0.5528748665 0.0560046372 0.1829528929
805295170.0 0.0190807978 0.1896352466 -0.0787666691 -0.5516726642 -0.0784458491 -0.552178348 0.0586773059 0.182425829
810295140.0 0.0208334535 0.1897826105 -0.084417373 -0.5511135856 -0.0847595711 -0.5514005081 0.0607061864 0.182217369
815295110.0 0.0222799933 0.1897502396 -0.0904082591 -0.5500731798 -0.0898553284 -0.5503217094 0.0622709566 0.181450658
820295080.0 0.0242068812 0.1897585889 -0.0960631204 -0.5491184488 -0.0956751682 -0.5494769875 0.0637036969 0.1815780893
825295050.0 0.0256846593 0.189352449 -0.1021933492 -0.5480545738 -0.1021802825 -0.5481083431 0.066566159 0.1808584515
830295020.0 0.0277434359 0.1892774004 -0.1083260206 -0.5469268386 -0.1079001679 -0.5472793655 0.0682107779 0.1797606364
