!Created with skrf (http://scikit-rf.org).
# Hz S RI R 50.0 
!freq ReS11 ImS11 ReS21 ImS21 ReS12 ImS12 ReS22 ImS22
300000.0 -0.2096375604 -0.1027543132 0.0015435727 0.0009701802 0.000433806 0.0011648983 -0.7654073582 -0.1966622205
5299970.0 -0.2152622844 0.0067190968 2.48866e-05 -0.0003296694 9.829e-05 -1.24824e-05 -0.7850625194 -0.0099007374
10299940.0 -0.2117377042 0.0202864883 -0.0001437335 0.0001229461 -1.8034e-05 -7.62622e-05 -0.7869168597 -0.0053116018
15299910.0 -0.2064063864 0.0301093481 -0.0002345449 -2.32472e-05 4.53845e-05 8.50826e-05 -0.7923074749 -0.0026480222
20299880.0 -0.2006621995 0.0383352832 0.0002809928 0.0001199424 -0.0001216343 5.8367e-05 -0.7990934138 0.0016398791
25299850.0 -0.1939015866 0.044724394 -2.9422e-06 -0.0002791165 4.33875e-05 -8.78125e-05 -0.8053915854 0.0077875898
30299820.0 -0.1876785704 0.0495583537 1.10485e-05 -3.95839e-05 -7.8192e-06 0.0001107767 -0.8113208404 0.0157159219
35299790.0 -0.1813274024 0.0536041415 -0.0001348993 0.0002492454 8.63354e-05 2.90161e-05 -0.8169472839 0.0244774671
40299760.0 -0.1754328848 0.0563973191 6.06651e-05 0.0003187888 0.0001812655 -6.9892e-06 -0.82079576 0.033784664
45299730.0 -0.1696697323 0.0582969333 4.98386e-05 -3.2109e-06 -0.0001848759 -0.0001015523 -0.8237875064 0.0433292259
50299700.0 -0.1646428237 0.0596188183 7.49835e-05 0.0002732952 1.11992e-05 0.0001421393 -0.8259092633 0.0539000651
55299670.0 -0.1596793096 0.0606214681 5.06534e-05 0.0002379659 9.3309e-06 -9.20277e-05 -0.8284647985 0.0637870244
60299640.0 -0.1552484964 0.0611553401 -5.21582e-05 1.31178e-05 -0.0001027165 7.51014e-05 -0.8294175817 0.0739937124
65299610.0 -0.1509014982 0.0616083922 -7.82138e-05 -9.44194e-05 -0.0001510963 -0.0001204777 -0.8300102608 0.0835598657
70299580.0 -0.1478202576 0.0612917373 1.65657e-05 -0.0001290869 0.0001174949 1.45359e-05 -0.8305648556 0.0936977596
75299550.0 -0.1445542464 0.0614934746 0.0001689175 0.0002634882 -3.99669e-05 6.08649e-05 -0.8304337172 0.1040089016
80299520.0 -0.1415617199 0.0615098164 0.0001981149 0.0001329502 -5.93428e-05 -5.79246e-05 -0.8305199215 0.1140466044
85299490.0 -0.1388236923 0.0609619514 0.0001548714 -8.31575e-05 2.519e-07 -2.31906e-05 -0.8295195251 0.1232727811
90299460.0 -0.1364119332 0.0611078848 -0.0001558213 5.98987e-05 5.6866e-06 -1.2596e-05 -0.8285523714 0.1326629342
95299430.0 -0.1343469711 0.0608332277 0.0002154325 -9.97239e-05 6.85937e-05 -0.0001974806 -0.8279485658 0.1424363944
100299400.0 -0.1321889441 0.0602260442 3.1879e-05 -0.0001129805 8.60473e-05 -1.70407e-05 -0.8267355054 0.151769415
105299370.0 -0.1304037429 0.0603508562 -0.0001684358 7.29038e-05 0.0002010358 -1.70497e-05 -0.8256765541 0.1607830755
110299340.0 -0.1285812524 0.0599844668 0.0001382914 0.0002921583 -9.0652e-06 -0.0001390928 -0.8239321905 0.1697427073
115299310.0 -0.1275106719 0.0599996305 8.38698e-05 6.88503e-05 0.0001042906 -0.0001239344 -0.8229440565 0.1792063815
120299280.0 -0.1259297623 0.0600626386 -4.86e-07 0.0001254433 6.28297e-05 -6.10197e-05 -0.8203781276 0.1876501253
125299250.0 -0.1248761037 0.0597736696 0.0001114187 -4.93905e-05 0.0001334178 3.48599e-05 -0.8193915809 0.1971993748
130299220.0 -0.123624734 0.0598982414 -0.0001015011 1.26596e-05 0.0001281578 5.00962e-05 -0.8171765254 0.2054810221
135299190.0 -0.1227353842 0.0601079916 0.0003120042 3.15203e-05 -0.0001676896 8.47835e-05 -0.8156465015 0.2151882679
140299160.0 -0.1218606781 0.0602220526 9.89697e-05 0.0001625757 1.68433e-05 -1.54575e-05 -0.8134459078 0.2233496038
145299130.0 -0.1208721731 0.0606275623 0.0001683544 -0.0001230136 -1.94044e-05 2.46017e-05 -0.8119815211 0.2326011684
150299100.0 -0.1201501355 0.0602917648 0.0001297829 -4.69922e-05 0.0001280351 6.62232e-05 -0.8090310128 0.2416377542
155299070.0 -0.1196243038 0.0612157824 0.0002059135 9.18985e-05 -3.734e-07 0.0001517863 -0.8065155988 0.2501388946
160299040.0 -0.1187561416 0.0615972329 7.71028e-05 -5.50268e-05 -3.8134e-06 2.42581e-05 -0.804315717 0.2587554128
165299010.0 -0.1180363287 0.0618709531 0.0001508252 -0.0001699503 0.0001019529 0.0002866028 -0.8013652104 0.2676043007
170298980.0 -0.1176267093 0.0621812518 6.50559e-05 -9.87283e-05 -0.0001546332 0.0001263809 -0.7989783431 0.2752818495
175298950.0 -0.1167525076 0.0625671807 -0.0001878941 -0.0001461325 4.13951e-05 -5.94507e-05 -0.7961759181 0.2848919464
180298920.0 -0.1167711592 0.0632274607 -6.49353e-05 0.000133719 6.7267e-05 0.0001611929 -0.7931742273 0.2934058541
185298890.0 -0.1157789558 0.0637795456 0.0001723131 8.24921e-05 6.51163e-05 -1.94448e-05 -0.7902592729 0.3015955188
190298860.0 -0.1152998434 0.0644885824 0.0001398994 8.66189e-05 0.0001295845 0.0001570481 -0.7871401443 0.3095031886
195298830.0 -0.1143969287 0.0651109598 0.0001485064 -1.15659e-05 0.0001822847 0.0001286449 -0.7836295052 0.3180091446
200298800.0 -0.1136689427 0.065725843 -3.61302e-05 0.0002219049 6.56529e-05 0.0001181263 -0.7810049663 0.3268070808
205298770.0 -0.113559121 0.0662051813 1.1754e-06 8.24258e-05 6.13269e-05 0.0001883669 -0.777589405 0.3351739626
210298740.0 -0.113027563 0.0669091223 7.70232e-05 3.73651e-05 -4.12633e-05 -7.52706e-05 -0.7737915747 0.3431786308
215298710.0 -0.112720589 0.0677752856 6.61572e-05 0.0001431007 -0.0001514762 -8.1659e-06 -0.7699337156 0.3513922378
220298680.0 -0.1119379758 0.0683876701 0.0001755716 -2.6595e-06 -0.0002234087 0.0001553591 -0.7661720196 0.3593796316
225298650.0 -0.1115831186 0.0693844519 6.24002e-05 0.000157833 -0.0001021598 -1.8345e-06 -0.762709851 0.3674134036
230298620.0 -0.1112742047 0.0704355185 0.0001075898 6.41542e-05 4.36345e-05 0.0001888132 -0.758911278 0.3753192177
235298590.0 -0.1108362438 0.0713057386 0.0001347435 9.4975e-06 -8.39458e-05 9.26432e-05 -0.7548778189 0.3832601638
240298560.0 -0.1104459984 0.0718418331 8.19152e-05 1.44184e-05 1.90894e-05 5.68496e-05 -0.7507181124 0.3907317552
245298530.0 -0.1098028056 0.0724986955 1.03464e-05 -0.00010458 9.25975e-05 -0.000107408 -0.7467505251 0.3989174363
250298500.0 -0.1094931622 0.0736604035 0.0001282307 0.0001367382 0.0001543752 0.0001081473 -0.7425068572 0.4073537515
255298470.0 -0.1090651046 0.074862035 0.0001180207 4.13441e-05 6.71587e-05 -6.7758e-05 -0.7388746608 0.415220872
260298440.0 -0.1084663116 0.0755530359 0.0001210724 -0.0001599225 -5.70994e-05 9.99126e-05 -0.7339233874 0.4215828377
265298410.0 -0.1080260625 0.0765727417 0.00019703 -1.6329e-05 5.6311e-06 0.0002279847 -0.7298318187 0.4299938252
270298380.0 -0.1075211088 0.0771904924 -1.98198e-05 0.0001795546 0.0001793951 8.53373e-05 -0.7248302781 0.4381314614
275298350.0 -0.1072697053 0.0784951211 -0.0001676283 0.0001721673 0.0001254508 0.000226554 -0.7200990772 0.4449958712
280298320.0 -0.106768671 0.0792659614 0.0002055355 4.61256e-05 0.0001348854 6.29584e-05 -0.7161714119 0.4529403327
285298290.0 -0.1061594756 0.0802496654 -3.13041e-05 0.0002503925 0.0001095451 0.0001429124 -0.7117688098 0.4610003783
290298260.0 -0.1054715179 0.0813985409 4.09663e-05 0.0002169186 4.19023e-05 8.98426e-05 -0.7062645586 0.4674798426
295298230.0 -0.1051933357 0.0821110478 0.0002304969 8.96381e-05 -7.67875e-05 0.0001126301 -0.7016859924 0.4752649632
300298200.0 -0.1047501813 0.0833042335 8.26543e-05 -0.0001426127 -2.3806e-05 0.0002468531 -0.6962734249 0.4823688188
305298170.0 -0.1041616453 0.0839923162 0.0001725087 0.0001384588 -0.0001397334 8.92093e-05 -0.6910510647 0.4896985477
310298140.0 -0.1036432507 0.0847374255 -6.45625e-05 0.0002160818 9.38043e-05 0.0002842788 -0.6861977284 0.4968042886
315298110.0 -0.1032674433 0.0855942006 0.000142244 7.27028e-05 0.0002152309 7.48895e-05 -0.6810834708 0.5041618731
320298080.0 -0.1024624597 0.0864869706 5.90334e-05 0.0001039349 0.0001300911 9.00383e-05 -0.6759476055 0.510725119
325298050.0 -0.1024055712 0.0871799094 9.71001e-05 0.000139414 0.0001748096 -1.43144e-05 -0.6697138322 0.5175073262
330298020.0 -0.1017864049 0.0882996204 -6.25749e-05 6.47509e-05 0.0001207219 0.0001269374 -0.665013691 0.5244436895
335297990.0 -0.1014166154 0.0893803718 0.0001015385 0.0001057904 2.03929e-05 -9.68314e-05 -0.6593171237 0.5315842259
340297960.0 -0.1010075824 0.0904362725 -7.3064e-06 0.0002239552 0.0002087308 0.0001315973 -0.6540554307 0.5387246345
345297930.0 -0.1006338109 0.0913572272 -8.9714e-06 0.0002486643 0.0001125446 0.0001939216 -0.6484706801 0.5447110746
350297900.0 -0.0996607373 0.0922340305 0.0001212947 -4.50095e-05 0.0001569116 2.98566e-05 -0.6437890708 0.5512159433
355297870.0 -0.0993420262 0.0933598381 0.0001515613 0.0002196157 -9.02417e-05 0.0001243904 -0.6366842835 0.5587632304
360297840.0 -0.0986302273 0.0944691622 0.0001562446 0.000244069 9.19785e-05 -7.28599e-05 -0.6302632167 0.5650793313
365297810.0 -0.0978984162 0.0956736345 0.0002904724 6.72019e-05 0.0001957977 -8.50939e-05 -0.6255735534 0.5709187176
370297780.0 -0.0973824157 0.0963969904 0.0003158853 0.0001755985 0.0002718853 6.80795e-05 -0.6188157753 0.5779096002
375297750.0 -0.0968332033 0.0975272899 9.72617e-05 -3.95208e-05 4.15332e-05 0.000200829 -0.6130088102 0.5839229563
380297720.0 -0.0960198682 0.0987788655 8.96111e-05 0.0001358001 0.0002355525 0.0001390665 -0.6066465332 0.5905832735
385297690.0 -0.0955331332 0.0994540259 0.0001080512 -3.65524e-05 0.0001050902 -3.61563e-05 -0.6011959153 0.5965633005
390297660.0 -0.0941787905 0.1002615693 8.9719e-06 0.000317615 9.8168e-05 0.0001073061 -0.5942623668 0.6021013123
395297630.0 -0.0938967581 0.1013488822 -2.27041e-05 4.02954e-05 0.0001985313 -8.72864e-05 -0.5880895539 0.6078517162
400297600.0 -0.0933570354 0.1023020716 0.000104862 0.0002642921 0.0001348413 -3.26331e-05 -0.5826613352 0.614373134
405297570.0 -0.0927344791 0.1029854127 0.0002870172 0.0002257987 9.84575e-05 -2.51657e-05 -0.5750286915 0.6201488451
410297540.0 -0.0916646655 0.1040595008 0.0001428768 0.0001313383 0.000106495 -4.27023e-05 -0.5691629337 0.6265903612
415297510.0 -0.0909371898 0.1051100148 0.0003032216 0.0003222759 0.0002424298 3.65137e-05 -0.5624549028 0.6316656903
420297480.0 -0.0900951705 0.1058216875 0.0002205779 0.0001119275 0.0001540375 -2.1546e-05 -0.5561550783 0.6382379992
425297450.0 -0.0891177338 0.1067853949 0.0001563714 0.0001452127 0.0002110211 0.0002513295 -0.5496887139 0.642623084
430297420.0 -0.0884372681 0.1078092869 0.0001923566 0.0001160832 0.0002543264 -3.30592e-05 -0.5429873254 0.6485123579
435297390.0 -0.0874888427 0.1085811782 6.9087e-05 -5.862e-06 0.000244313 8.84753e-05 -0.5361006981 0.6546764288
440297360.0 -0.0865647481 0.109399792 0.000116626 0.0003040994 0.0001101159 0.0001433029 -0.5304627729 0.659376936
445297330.0 -0.0856024025 0.1101066979 7.51339e-05 9.3072e-05 5.25284e-05 7.0867e-06 -0.5226568196 0.6648482694
450297300.0 -0.0845638985 0.1110236051 8.35502e-05 0.0002594129 9.48095e-05 9.87285e-05 -0.5155273501 0.6697416542
455297270.0 -0.0837205642 0.1121083759 0.0002614337 -6.00615e-05 7.22633e-05 -4.49589e-05 -0.5093068063 0.6749171914
460297240.0 -0.0826738641 0.1128867621 0.0001699168 -1.55034e-05 0.0001605064 5.13254e-05 -0.5020348203 0.6802501647
465297210.0 -0.0816252098 0.1139439832 0.0003169794 0.0001181666 0.000200851 9.47006e-05 -0.4949238853 0.6859151025
470297180.0 -0.0810117126 0.1149232987 0.0002471653 6.96608e-05 0.0001745279 3.46926e-05 -0.487788617 0.6908823522
475297150.0 -0.0798994391 0.1158209521 -1.71752e-05 -1.6585e-06 0.0002962106 -1.43463e-05 -0.4810019256 0.6954547991
480297120.0 -0.0786750929 0.1166444792 0.0004138374 0.0001592927 5.8414e-05 -2.06511e-05 -0.4738521112 0.7001968409
485297090.0 -0.0776405562 0.1175455725 3.2226e-05 0.0001051695 -3.09124e-05 -2.36788e-05 -0.4669445701 0.7051666505
490297060.0 -0.0763181361 0.118276035 0.0003168256 -5.78418e-05 0.0001873422 9.75505e-05 -0.4593846673 0.7093755018
495297030.0 -0.0753212997 0.1189853759 0.0001241364 8.05819e-05 0.0002699448 2.03784e-05 -0.4519921339 0.7139932396
500297000.0 -0.0743286487 0.1200494069 8.07016e-05 2.92736e-05 0.0001454139 7.87424e-05 -0.4452675039 0.718573293
505296970.0 -0.0729179894 0.1207051889 0.0003780323 -8.39331e-05 0.0001660597 3.33896e-05 -0.4372856135 0.7227171448
510296940.0 -0.0717369236 0.1214095304 6.82129e-05 -0.0001247291 5.3702e-06 -0.0001282132 -0.4300192173 0.7274619389
515296910.0 -0.0706394752 0.1225074678 0.0003379987 8.87727e-05 0.0001074577 -2.16147e-05 -0.4228138938 0.7314929274
520296880.0 -0.0695885608 0.123328443 -1.4658e-06 -0.0001760422 0.0001144971 -2.89263e-05 -0.4149394665 0.7357399932
525296850.0 -0.0685556676 0.1239876099 0.000143217 8.51605e-05 0.0001560007 0.0001962415 -0.4073586789 0.7397462961
530296820.0 -0.0675573479 0.1250015041 2.30552e-05 -0.0001660904 0.0002001048 5.82545e-05 -0.4008520737 0.7432999266
535296790.0 -0.0658419235 0.1257955155 -5.0079e-06 0.0001815607 0.0002029274 -5.3959e-06 -0.3932454521 0.7481770204
540296760.0 -0.0645403631 0.1264551536 0.0001638499 7.11972e-05 0.000384255 0.0001679976 -0.3850049194 0.751774373
545296730.0 -0.0636854795 0.1277155542 0.0002076251 8.71833e-05 0.0001912215 0.0001620434 -0.3776072418 0.7554201315
550296700.0 -0.062334706 0.1281802119 5.07172e-05 0.0001911586 0.0001134769 2.59681e-05 -0.3697309613 0.7590507105
555296670.0 -0.0608898287 0.1291776907 0.0002416857 1.63351e-05 0.0002549994 0.0001233665 -0.3629206338 0.7622552695
560296640.0 -0.0597436609 0.1296279116 0.0002808819 7.70272e-05 0.0001803211 0.0001671958 -0.3544254922 0.7666376226
565296610.0 -0.05854795 0.1308251919 0.0003637416 -0.0001189899 0.0001848652 -3.7998e-05 -0.346692559 0.7702976051
570296580.0 -0.0571302923 0.1316163244 0.0002115754 1.48555e-05 0.0002464006 0.0001546712 -0.3393868761 0.7729953199
575296550.0 -0.0556649093 0.1321904185 1.30811e-05 7.67218e-05 0.000175852 0.0001153031 -0.3307924493 0.77661349
580296520.0 -0.0548398471 0.1330026325 0.0001113005 -2.92855e-05 0.0002949575 -1.24586e-05 -0.3234273005 0.7790983399
585296490.0 -0.0532153709 0.1341370039 -2.6393e-05 -6.03371e-05 0.0001220196 0.0001572111 -0.3148589223 0.783142617
590296460.0 -0.0516269769 0.1346493559 0.0001461216 -3.56194e-05 0.0001711347 -1.76508e-05 -0.3074166669 0.7860702613
595296430.0 -0.0504974876 0.1353382902 0.0001661935 2.63834e-05 5.51901e-05 8.49418e-05 -0.2994968165 0.789555791
600296400.0 -0.0492602138 0.1361027208 0.0001250576 0.0001588232 0.0002273872 -1.92843e-05 -0.2919154709 0.7917650032
605296370.0 -0.0480795508 0.1369631054 0.0002173087 -0.0001206644 2.45043e-05 0.000112732 -0.2835480884 0.7951794194
610296340.0 -0.0465957662 0.1378777853 0.0001332219 2.7214e-05 0.0002621753 0.0001069227 -0.2759578326 0.7973577497
615296310.0 -0.0452313729 0.1384149198 0.0001328498 -8.00838e-05 0.0002450748 0.0001839375 -0.2669712036 0.8005694815
620296280.0 -0.0440797198 0.139481484 0.000228821 -0.0001058403 0.0003065098 7.3271e-05 -0.2596913731 0.8027910898
625296250.0 -0.0428920446 0.1397617135 9.314e-07 -1.47806e-05 0.0003897684 -5.8667e-05 -0.251376087 0.8051640759
630296220.0 -0.0413711601 0.1407826481 0.0002760457 2.71665e-05 8.85189e-05 -4.03453e-05 -0.2434393671 0.8079263616
635296190.0 -0.040072075 0.1414607606 0.0002624823 5.05735e-05 0.0001891954 7.23954e-05 -0.2351102146 0.8098101078
640296160.0 -0.0388201315 0.1417968963 0.0003298515 4.73196e-05 0.0001958359 0.0001475275 -0.2270532354 0.8129650969
645296130.0 -0.0371801252 0.1429145546 0.000247617 7.08401e-05 0.0003503124 -0.0001950577 -0.2192425651 0.8144847689
650296100.0 -0.035727849 0.1434203475 0.0001909409 0.0002067468 0.000211376 4.62614e-05 -0.2107268468 0.8166553385
655296070.0 -0.034638283 0.1440554484 0.0001134335 3.01905e-05 0.0004290812 9.83233e-05 -0.2029512175 0.8191040105
660296040.0 -0.0330948093 0.1446891621 0.0005119914 0.0002154092 0.0001362564 -9.79298e-05 -0.1943463092 0.8211612909
665296010.0 -0.0317790741 0.1454514638 0.0001621086 -5.50946e-05 7.80068e-05 -7.25035e-05 -0.1861334631 0.8223980862
670295980.0 -0.0306721298 0.1461400845 0.0001734258 9.11912e-05 0.0003105774 3.40769e-05 -0.178276079 0.8245673415
675295950.0 -0.029372116 0.1464506695 0.0001482303 -6.00908e-05 0.0002247319 3.34785e-05 -0.1698280938 0.8266865518
680295920.0 -0.0280959136 0.147442001 0.0004490569 -0.0001822903 0.0002628469 -8.0362e-05 -0.1612523378 0.8276879596
685295890.0 -0.0265991554 0.148057873 0.0001024485 -4.27868e-05 9.01588e-05 -6.43178e-05 -0.152867957 0.8292982462
690295860.0 -0.0252213526 0.1486462084 0.0002206568 -0.0002022413 0.0002239412 2.80575e-05 -0.1448337155 0.8313687241
695295830.0 -0.0236673513 0.1490222737 0.0001069413 7.79199e-05 8.37843e-05 -6.91661e-05 -0.1366531539 0.8329421408
700295800.0 -0.0223319914 0.1500601524 3.97174e-05 5.27926e-05 0.0002896284 6.53729e-05 -0.1280171838 0.8332300061
705295770.0 -0.0212095171 0.1504632537 0.000391241 -8.55052e-05 0.0001627619 -3.77802e-05 -0.1201573813 0.8359037312
710295740.0 -0.0197444365 0.150674535 0.0002314881 -7.18042e-05 0.0003030797 9.53973e-05 -0.1116769091 0.8360834059
715295710.0 -0.0180616912 0.1513623028 0.0002606605 -7.09717e-05 0.0002234335 0.0001694614 -0.1030440452 0.837116741
720295680.0 -0.0169124674 0.1513417398 0.000228465 1.77844e-05 0.0001804458 -0.0002073958 -0.0948169562 0.837605359
725295650.0 -0.0156906878 0.1526024606 0.0002089587 4.73226e-05 0.0002770436 7.63338e-05 -0.0867522327 0.839346234
730295620.0 -0.0146663916 0.1528106846 0.0002424136 8.44019e-05 0.0001311102 0.0001376924 -0.0785410553 0.8397662206
735295590.0 -0.0133796141 0.1536054248 0.0002264583 0.0001632154 0.0001974966 -8.58664e-05 -0.0694454312 0.8403039299
740295560.0 -0.0120217894 0.1536027703 0.0003441936 -0.0003602233 0.0001786561 -3.52392e-05 -0.0616837724 0.8415209791
745295530.0 -0.0106359464 0.1541184609 0.0002933158 -7.04591e-05 0.0002369106 -6.0709e-06 -0.0536192034 0.8412980827
750295500.0 -0.0094250415 0.1546325358 0.0002764555 -9.16354e-05 0.0003418046 5.19321e-05 -0.0452325847 0.842345377
755295470.0 -0.0080403152 0.1549553226 0.0001800954 0.000172494 0.0001900667 8.97254e-05 -0.0367119849 0.842607798
760295440.0 -0.0065801652 0.1554975355 0.0003064874 1.94815e-05 0.0002537485 -6.3344e-05 -0.0278620493 0.8426126686
765295410.0 -0.005034666 0.155492101 0.0004166033 2.512e-07 0.0002501206 -0.0001660664 -0.0193198059 0.8433095347
770295380.0 -0.0040342774 0.155970862 0.0002497756 -0.0001307107 0.000316833 -2.1179e-05 -0.0115671476 0.8427935078
775295350.0 -0.002603451 0.1563930663 0.0001188112 -0.0001288137 0.00028005 -0.0001088447 -0.0031148228 0.843145122
780295320.0 -0.0007890509 0.1567467294 5.7216e-05 -9.79279e-05 9.28048e-05 -0.0001470566 0.0051594485 0.8433277575
785295290.0 0.0002835145 0.1567655702 0.0003225359 1.7972e-05 0.0002629587 -6.09895e-05 0.0132086047 0.8432699641
790295260.0 0.0013875933 0.1567859455 0.0001614716 -4.61687e-05 0.0002577823 -0.0001608901 0.0216562225 0.8429756169
795295230.0 0.0028531304 0.1570249739 6.13679e-05 4.33771e-05 0.0001722834 -6.55221e-05 0.0301909826 0.8425988716
800295200.0 0.0040154464 0.1576541644 0.0003449999 0.000143982 0.0003794806 -9.01813e-05 0.0385782625 0.8418155253
805295170.0 0.0054471103 0.1578679396 0.0001432086 -0.0001757997 0.0003755654 6.83692e-05 0.0473739439 0.8418961013
810295140.0 0.0070100746 0.1580718003 0.0003895661 -0.0002421566 0.0001628376 -0.0002520012 0.055767678 0.8411817055
815295110.0 0.0081448434 0.1580207611 -4.97808e-05 -1.38374e-05 0.0001905316 -0.0001718617 0.0633884669 0.8406370223
820295080.0 0.0093515265 0.1582389112 0.0001437148 -1.46864e-05 0.000265304 -0.0001381305 0.0715006769 0.8399172339
825295050.0 0.0107080993 0.1583054727 0.000159647 0.0001453502 0.0001599957 -8.56072e-05 0.0802270757 0.8389733794
830295020.0 0.0124706792 0.1585252342 0.0002301021 -8.18868e-05 0.0003055885 -0.0001427722 0.0881011999 0.8378526884
835294990.0 0.0134571974 0.1585568461 0.0001289685 -4.52032e-05 0.0003956159 -5.2841e-06 0.096502192 0.8374246154
840294960.0 0.015122609 0.1584666211 0.0004725155 9.8743e-06 0.0002908867 -9.93283e-05 0.1052792513 0.8361908402
845294930.0 0.0163064322 0.1587350219 0.0001101596 -0.0002745578 8.3965e-06 -0.0001743268 0.1139987559 0.8354001689
850294900.0 0.0183971341 0.1584956978 0.00013431 -2.40882e-05 6.45055e-05 4.68644e-05 0.121166826 0.8345375738
