!Created with skrf (http://scikit-rf.org).
# Hz S RI R 50.0 
!freq ReS11 ImS11 ReS21 ImS21 ReS12 ImS12 ReS22 ImS22
300000.0 -0.7750587002 -0.0912412677 -0.0029840375 0.0021854486 -0.0004823177 0.0028966823 -0.7751709397 -0.1307812075
5299970.0 -0.7849737707 -0.005128601 8.85282e-05 0.000208985 -8.17021e-05 0.0002006029 -0.7846319102 -0.0068593105
10299940.0 -0.7873390998 -0.0037720802 0.0002095324 0.0001559606 -0.000185208 -0.0001445268 -0.7879896418 -0.0035518173
15299910.0 -0.7936514074 -0.0018388292 -0.0001787013 4.3821e-06 0.0001022327 4.2317e-05 -0.7933443346 -0.0013514241
20299880.0 -0.8000519848 0.0015076047 -0.000120026 9.31606e-05 2.09024e-05 -3.49104e-05 -0.8000429626 0.0021750594
25299850.0 -0.8065279279 0.0075562662 -8.6765e-06 -0.0001282799 4.87578e-05 1.61503e-05 -0.8061273768 0.0081633642
30299820.0 -0.8125127756 0.0154524732 6.31334e-05 -0.000162728 -3.5898e-06 -0.0001377047 -0.8120269361 0.0160106986
35299790.0 -0.8174984452 0.0247909901 9.0096e-05 0.000210994 5.9841e-05 -7.62998e-05 -0.8174472768 0.0250165362
40299760.0 -0.8216057097 0.0339208059 0.0001909965 -0.0002436606 0.0001681374 -2.4646e-06 -0.8214239798 0.0346038789
45299730.0 -0.824385301 0.0432143178 1.15396e-05 -0.0001845948 2.52826e-05 8.60996e-05 -0.8252475019 0.0439441887
50299700.0 -0.826987911 0.0530250358 -0.000162719 -0.0001564008 -1.79926e-05 8.8816e-06 -0.8274406478 0.0538896405
55299670.0 -0.8289001152 0.0626909523 -5.00581e-05 -7.07058e-05 1.13115e-05 -9.85211e-05 -0.8297829982 0.0644984108
60299640.0 -0.8299933054 0.0733686256 -7.87273e-05 -0.0001103137 1.14946e-05 0.0001568737 -0.8306210188 0.073618296
65299610.0 -0.8311528087 0.0837904068 0.0001675459 0.0001025627 -7.31848e-05 0.0001711263 -0.8322241023 0.0841983324
70299580.0 -0.8317810385 0.0933655447 6.76299e-05 -0.0002175322 -1.00325e-05 -5.73422e-05 -0.8311663074 0.0942595786
75299550.0 -0.8316165088 0.103810609 -6.55e-06 0.000163328 3.03622e-05 8.64662e-05 -0.8323234738 0.103765763
80299520.0 -0.8319108089 0.1131460585 5.9631e-06 -3.57318e-05 0.0001025902 1.54318e-05 -0.8320644574 0.1137352001
85299490.0 -0.8314372979 0.1228548623 -0.0002227576 4.38425e-05 0.0002377463 -3.63847e-05 -0.8313262773 0.1234020162
90299460.0 -0.8299751373 0.1321333973 -1.73081e-05 0.0001515897 -4.24689e-05 6.03634e-05 -0.8308542567 0.1330939315
95299430.0 -0.829290313 0.1418644865 -1.93701e-05 -7.61449e-05 5.50729e-05 1.96196e-05 -0.8294271318 0.1429200754
100299400.0 -0.8278940233 0.1510663342 -0.0002646663 4.72083e-05 0.0001472258 1.96359e-05 -0.8283390372 0.1518186012
105299370.0 -0.8271199622 0.1599981086 -4.68359e-05 3.24444e-05 0.0001032753 -3.75742e-05 -0.8269367043 0.1611434016
110299340.0 -0.825599867 0.1695895781 3.6452e-06 9.11392e-05 -9.07557e-05 9.55374e-05 -0.8260743495 0.1706614545
115299310.0 -0.8242345321 0.1788134574 0.0002434714 -9.7959e-05 7.85516e-05 6.6741e-05 -0.824061679 0.1797740867
120299280.0 -0.8223595039 0.1869163394 6.37749e-05 2.72724e-05 0.0002018098 -2.26476e-05 -0.8224125721 0.1888941155
125299250.0 -0.8205366614 0.195842337 -3.55128e-05 -8.97933e-05 -0.0001196444 0.0001922196 -0.8209176152 0.1977474913
130299220.0 -0.8190161015 0.2054500939 0.0001768438 -7.95045e-05 -7.01282e-05 -0.0001370995 -0.8189510787 0.2065210294
135299190.0 -0.8168617338 0.2143395022 1.62658e-05 -0.0002901098 -3.75592e-05 -0.0001544208 -0.8166665696 0.2162171045
140299160.0 -0.8147851379 0.2233287243 0.0001901104 0.0002197184 5.21505e-05 1.63334e-05 -0.8147889536 0.2250679272
145299130.0 -0.8124377401 0.2323335919 -7.01865e-05 5.80063e-05 3.70075e-05 3.20362e-05 -0.8124165105 0.2341915643
150299100.0 -0.8104084227 0.2408082849 9.95739e-05 5.5033e-05 8.51838e-05 -4.29452e-05 -0.8106516058 0.2432771845
155299070.0 -0.8081601342 0.2494607134 -3.98468e-05 1.76525e-05 -1.07957e-05 -7.89935e-05 -0.8078945713 0.2516275264
160299040.0 -0.8053862562 0.2582370764 -0.0001998092 0.0001292195 -0.0001144529 0.000230999 -0.8055610341 0.2605657345
165299010.0 -0.8027684287 0.2667422398 1.09187e-05 -0.000145968 -0.0001651354 6.7278e-05 -0.803101457 0.2694993921
170298980.0 -0.7996687475 0.2752849325 -6.63653e-05 -0.0001696389 7.39922e-05 -4.65174e-05 -0.7996020721 0.2776321666
175298950.0 -0.7974161737 0.2842553102 9.61001e-05 -0.0001577787 8.25866e-05 -9.00275e-05 -0.7972575818 0.286438762
180298920.0 -0.7947296954 0.2928062797 -0.000121215 -0.0002421135 -2.38006e-05 0.000173852 -0.7940917255 0.2951910262
185298890.0 -0.7916473131 0.3008794126 -6.66698e-05 7.73839e-05 -0.0001587561 6.89737e-05 -0.7905940088 0.3037907612
190298860.0 -0.7887367291 0.3093116144 7.39053e-05 2.81265e-05 9.16214e-05 -2.0385e-05 -0.7882437476 0.3124405761
195298830.0 -0.7849965487 0.3179795096 7.26433e-05 -0.0001075361 6.70683e-05 -7.46509e-05 -0.7850630838 0.3208151075
200298800.0 -0.78135119 0.3256603193 -1.25739e-05 7.2262e-06 5.5196e-05 5.67192e-05 -0.7814600172 0.329081151
205298770.0 -0.7786288857 0.3346917324 3.2412e-06 0.0001500896 9.05788e-05 -3.48214e-05 -0.7776132032 0.3371153572
210298740.0 -0.7748250294 0.342397652 -4.67001e-05 3.14008e-05 0.0001109365 -0.0001579082 -0.774748682 0.3461673339
215298710.0 -0.7717041558 0.3505620859 -0.0002241843 8.85e-06 -6.71538e-05 -6.75725e-05 -0.7712681901 0.3541429762
220298680.0 -0.7679252192 0.3583852384 0.000122258 -4.19563e-05 6.71645e-05 0.0001130641 -0.7678323081 0.3615157891
225298650.0 -0.7644725156 0.3666468675 -0.0001440989 2.73229e-05 -0.0002573747 -5.31688e-05 -0.7639069829 0.3702087989
230298620.0 -0.7604189706 0.374388114 -6.4358e-05 8.977e-07 0.00016552 5.51542e-05 -0.7600455355 0.378223079
235298590.0 -0.756312398 0.3832968843 -0.0001978112 -2.86371e-05 -3.82432e-05 2.2002e-06 -0.7562304351 0.3866210094
240298560.0 -0.7519296803 0.3908656727 8.09596e-05 4.65077e-05 3.03138e-05 -8.47069e-05 -0.7518374826 0.3951023102
245298530.0 -0.7490551656 0.3990155598 3.8158e-05 -3.36279e-05 -0.0001235643 -0.0001303562 -0.7480056352 0.4022941025
250298500.0 -0.7442189774 0.4062331997 0.0001919494 -0.0001678019 0.0001717336 9.772e-07 -0.7433992148 0.4105145259
255298470.0 -0.7394803194 0.4140668694 0.000105746 8.22461e-05 1.67382e-05 0.0001220296 -0.7384728294 0.4177127968
260298440.0 -0.7354778012 0.4211362397 -6.8182e-06 0.0001740861 -0.000212839 0.0001297115 -0.7351408416 0.4262653834
265298410.0 -0.7315416221 0.4299413795 -8.95162e-05 -8.02608e-05 -2.74399e-05 1.22615e-05 -0.7302527947 0.433517105
270298380.0 -0.727030418 0.4371803445 0.0001594818 -0.0001193492 -0.000106654 4.57896e-05 -0.7257745813 0.4409113099
275298350.0 -0.7221446994 0.4445525242 -6.74034e-05 1.04479e-05 -1.93624e-05 2.27425e-05 -0.7207121388 0.4484209288
280298320.0 -0.7172841346 0.4518054287 4.00993e-05 -0.0001676328 1.56519e-05 0.000126039 -0.7157250579 0.4557450346
285298290.0 -0.7126393798 0.4599553021 -2.10425e-05 4.2813e-06 6.13254e-05 -0.0001362722 -0.7110511737 0.4635802282
290298260.0 -0.7078912649 0.4674952673 5.02552e-05 0.0001002165 8.11974e-05 -2.24722e-05 -0.7059428143 0.470933539
295298230.0 -0.7022744088 0.4744858413 0.0001104261 6.42211e-05 -7.83978e-05 -0.0001232929 -0.7013133873 0.4782746076
300298200.0 -0.6977490308 0.4810434293 -0.0001709537 0.0001207717 -0.0001514496 8.17957e-05 -0.6962364139 0.4857582053
305298170.0 -0.6926885681 0.4879694729 -5.13444e-05 5.51982e-05 -0.0002066014 9.29479e-05 -0.6906263086 0.4930829646
310298140.0 -0.687596436 0.4964081234 -7.79296e-05 0.0001662951 -6.5793e-05 3.6597e-06 -0.6862821521 0.5000594873
315298110.0 -0.6826945083 0.5028156796 -0.0002093507 -0.0001318034 0.0001159807 -0.0003264688 -0.6806375412 0.507097953
320298080.0 -0.6770861756 0.5098125228 8.18135e-05 0.0001110918 -0.0002672658 -0.000146534 -0.6751809794 0.514678553
325298050.0 -0.6716887595 0.5169017378 -2.05793e-05 4.33337e-05 4.16842e-05 5.42272e-05 -0.6694132484 0.5214466997
330298020.0 -0.666210332 0.5239159562 0.0001155287 -0.0001660067 -9.41366e-05 -4.95066e-05 -0.6638949144 0.528555673
335297990.0 -0.6608311542 0.5306481127 2.7085e-05 9.23878e-05 0.0002310705 7.87283e-05 -0.6586217768 0.5354673351
340297960.0 -0.6557808122 0.5373228322 -0.0002474541 9.19151e-05 -0.0002648675 -9.17861e-05 -0.6528722019 0.5420960143
345297930.0 -0.6502205723 0.5446173087 0.0001486019 -0.000122788 7.65835e-05 1.97691e-05 -0.6470023463 0.5491122295
350297900.0 -0.6446084017 0.5511496236 4.39607e-05 0.0001399733 -4.14422e-05 0.0001009435 -0.6418246152 0.5553641621
355297870.0 -0.6377251431 0.5582778669 0.0002140472 -0.000153179 7.64505e-05 6.5466e-05 -0.6363367046 0.5619180008
360297840.0 -0.6325360985 0.5637630451 2.04352e-05 0.0002332736 -2.81802e-05 -0.0001293417 -0.6296977769 0.5682252333
365297810.0 -0.6270611021 0.5703262549 -0.0001469356 0.0001691068 0.0001119254 0.0001458337 -0.6237428485 0.5754687748
370297780.0 -0.6211447965 0.5769098133 0.0002077316 1.86415e-05 5.05533e-05 0.0001090348 -0.6180583937 0.5817860859
375297750.0 -0.6142668892 0.5829388013 5.46805e-05 0.0001755274 -0.0002648699 7.4879e-06 -0.6122340699 0.5874927988
380297720.0 -0.6088175671 0.5893855 -0.0001101165 -0.0002909829 -2.21912e-05 -2.61457e-05 -0.6060482238 0.5936184055
385297690.0 -0.6033471024 0.5951841354 7.07884e-05 -0.0002153157 -0.0001752918 -4.6554e-06 -0.599541373 0.6008794672
390297660.0 -0.5970347042 0.6012978309 -0.0003155396 -0.0001812896 -1.32888e-05 -0.000109319 -0.59352346 0.6064799748
395297630.0 -0.590634293 0.6079292907 0.0001618968 0.0001347398 -0.0002181903 -2.98095e-05 -0.5863058605 0.6129992191
400297600.0 -0.5840178591 0.6141181231 -6.49156e-05 -0.0001277001 -1.93523e-05 5.03877e-05 -0.5805652989 0.6186352963
405297570.0 -0.5784415191 0.6194412927 0.0001554177 9.87713e-05 -4.84092e-05 -6.4642e-05 -0.5743733847 0.6245041885
410297540.0 -0.5711706562 0.6254238099 -6.21918e-05 8.635e-06 0.0001412858 4.60731e-05 -0.5679036437 0.6303814896
415297510.0 -0.5645042452 0.6314049206 -9.80754e-05 -0.0001156786 4.9738e-06 -0.0001118188 -0.5607922873 0.6361154941
420297480.0 -0.558889366 0.6368438536 -3.77829e-05 2.10784e-05 -0.0001804853 8.85637e-05 -0.5547860585 0.6425664336
425297450.0 -0.5517040207 0.6422825885 3.49647e-05 4.13976e-05 5.9745e-06 2.25177e-05 -0.548277255 0.6480419831
430297420.0 -0.5454814127 0.6476629104 3.05718e-05 -2.12057e-05 -0.0001144631 9.08415e-05 -0.5415602091 0.652800523
435297390.0 -0.5388417847 0.6533553295 8.88618e-05 -4.49525e-05 7.54255e-05 8.39988e-05 -0.5341332607 0.6584743412
440297360.0 -0.5316268832 0.6587866853 -1.62409e-05 2.26611e-05 -0.0002011278 -0.0001131915 -0.5278737773 0.6635269905
445297330.0 -0.5254626364 0.6642628479 -0.0003825529 -0.000199575 -5.53665e-05 -8.57461e-05 -0.5205169321 0.6686175319
450297300.0 -0.5180674629 0.6694803335 -0.0001300474 -0.0001308541 -6.40587e-05 -6.21685e-05 -0.5134327301 0.6742063481
455297270.0 -0.5118790015 0.6746510498 -1.50677e-05 -3.89729e-05 0.0002735956 2.91038e-05 -0.5067206138 0.6789315679
460297240.0 -0.5049766771 0.6793676501 5.6071e-05 0.000111132 -0.0001182635 0.0001055301 -0.4997437755 0.6844157161
465297210.0 -0.4974847796 0.6848285245 0.0001075315 -2.6755e-05 -6.8194e-06 0.0001865256 -0.4919761123 0.6891088253
470297180.0 -0.4904790558 0.6898084156 -0.0001198439 3.10381e-05 -1.198e-06 3.6158e-05 -0.4850748112 0.6948871294
475297150.0 -0.4833933519 0.6940083991 6.5346e-05 3.15614e-05 -6.25892e-05 5.36213e-05 -0.4777813843 0.6990127606
480297120.0 -0.4765917734 0.699784652 -0.000222544 -2.49051e-05 -8.16706e-05 6.75551e-05 -0.4703302212 0.7040551258
485297090.0 -0.4692650214 0.703957791 8.32268e-05 -4.30473e-05 -0.0002767881 0.0001881293 -0.4634861846 0.7087064838
490297060.0 -0.4624149939 0.7085518502 6.38518e-05 -0.0001149736 0.0002869937 -0.0001082153 -0.4560399773 0.7128823741
495297030.0 -0.4548043879 0.713063535 -7.78501e-05 -9.36527e-05 9.04982e-05 -0.0001923483 -0.4486714842 0.7178626356
500297000.0 -0.4476698415 0.7178179509 0.0001324253 -5.8365e-05 6.66962e-05 -4.25973e-05 -0.4415077385 0.7229279836
505296970.0 -0.440609176 0.7224762192 -8.30821e-05 -1.31555e-05 -8.64897e-05 -1.10134e-05 -0.4338422093 0.7268650421
510296940.0 -0.4330488683 0.7261282598 4.45368e-05 -0.0001083305 -4.74169e-05 -8.0039e-06 -0.4262691323 0.7312157028
515296910.0 -0.4250986898 0.7306751841 0.0002140067 8.9756e-06 6.8699e-05 4.34975e-05 -0.4188264392 0.7354024419
520296880.0 -0.4183818122 0.7353463916 -2.3268e-05 -2.34708e-05 -8.08173e-05 -7.44603e-05 -0.4112332453 0.739104231
525296850.0 -0.4103680202 0.7392214675 7.51485e-05 5.84115e-05 4.56947e-05 -0.0001172072 -0.404358737 0.74402786
530296820.0 -0.4027674258 0.7436114659 -8.642e-05 0.0001314242 7.8117e-05 -0.0001028682 -0.3967775308 0.74760503
535296790.0 -0.395657923 0.7467962644 -0.0002634335 3.08927e-05 -1.26568e-05 1.04263e-05 -0.3894771698 0.7511875245
540296760.0 -0.3882410772 0.7507519506 3.70567e-05 1.32425e-05 5.82223e-05 -8.8181e-06 -0.38070454 0.7559875819
545296730.0 -0.3809610804 0.7550883271 -6.7584e-05 0.0001381174 -6.02039e-05 -5.68261e-05 -0.3732014584 0.759504997
550296700.0 -0.3734800511 0.759021644 -1.69415e-05 0.0001024785 -0.000136969 6.46006e-05 -0.3653108969 0.7630765335
555296670.0 -0.3650782194 0.7611433253 -0.0001752147 -0.0003061397 3.9954e-05 0.0002102697 -0.3582893922 0.7672864623
560296640.0 -0.3569755662 0.7655238244 -0.0002422441 1.06783e-05 -3.64413e-05 0.0002038991 -0.3504158133 0.7705848992
565296610.0 -0.3496357927 0.7696178159 0.0002047122 -4.77476e-05 -0.0001233743 0.0001124577 -0.3421717446 0.7736139417
570296580.0 -0.3421633379 0.7720551467 9.34355e-05 8.81039e-05 -7.35625e-05 -8.44672e-05 -0.3348189545 0.7777815178
575296550.0 -0.3344862804 0.7765113887 0.0001677047 -0.0001152424 -0.000116175 0.0001707543 -0.326702217 0.7810504188
580296520.0 -0.3268130281 0.7797421535 0.0001771382 -0.0001111252 -0.0001258844 8.32894e-05 -0.3183412434 0.7839190723
585296490.0 -0.3190300572 0.7827610723 0.0001284979 -0.0003721647 0.0001188193 -0.0001770295 -0.3105789524 0.7870318792
590296460.0 -0.3100808596 0.7855601323 0.0001270714 -4.2319e-05 -2.94747e-05 0.0001090924 -0.3029839637 0.7901384628
595296430.0 -0.3030215596 0.7880316547 -6.19897e-05 1.47549e-05 0.0001095571 0.0002103655 -0.2945821516 0.7926404022
600296400.0 -0.2946835112 0.7916178812 -3.30353e-05 0.0001061738 0.0001141887 6.70341e-05 -0.2870507423 0.7953241666
605296370.0 -0.2875907022 0.7943536052 -9.31731e-05 -4.6063e-06 1.7729e-05 8.30421e-05 -0.2782120409 0.7984483409
610296340.0 -0.2790766723 0.7973739757 -0.0002231338 4.23945e-05 7.84427e-05 -0.0001000745 -0.2705207139 0.8006118902
615296310.0 -0.2703130025 0.7999707101 -3.90153e-05 -0.0002010322 0.0001294843 -8.80192e-05 -0.2620336774 0.8036464038
620296280.0 -0.2630670189 0.8021421663 0.0001057256 -0.0001388003 0.0001134542 0.0001956287 -0.2538959122 0.8062185651
625296250.0 -0.2544980738 0.8052387468 -0.0001449247 -1.7877e-05 -0.000108895 -2.43855e-05 -0.2454368869 0.8078906524
630296220.0 -0.2461047709 0.8082984965 -0.0001265837 1.74422e-05 6.6748e-06 -6.3071e-05 -0.2376984356 0.8110095654
635296190.0 -0.238706714 0.8105332063 0.000100973 -7.81854e-05 -1.73946e-05 -4.20274e-05 -0.2295203931 0.8128823126
640296160.0 -0.2310879371 0.8125168531 1.58198e-05 -0.0002172331 -0.0001787056 -3.0769e-05 -0.2212880392 0.8159243046
645296130.0 -0.2226593041 0.8152365648 0.0001494232 -4.80805e-05 -0.0002484014 0.0002906363 -0.2134636328 0.8177802881
650296100.0 -0.2137894893 0.8166888496 4.90831e-05 -4.727e-07 -0.0001564307 0.0002308411 -0.2049353855 0.8189322226
655296070.0 -0.2062319359 0.8190579625 9.94918e-05 0.0001342289 8.71308e-05 -6.25243e-05 -0.1965198204 0.8212151401
660296040.0 -0.1981924834 0.820565628 8.69018e-05 -5.18464e-05 4.54453e-05 5.56149e-05 -0.1875138648 0.8235498316
665296010.0 -0.1893746303 0.8220749771 8.55138e-05 8.66297e-05 2.84624e-05 9.76869e-05 -0.1794867761 0.8255388409
670295980.0 -0.1819776027 0.8245105148 -0.0002433345 9.51687e-05 0.0001537337 5.13371e-05 -0.1713418683 0.8270240283
675295950.0 -0.1732653662 0.8259462777 5.73849e-05 9.85928e-05 6.30092e-05 -0.0001569719 -0.1636379378 0.8293532459
680295920.0 -0.164745194 0.8279180025 8.61832e-05 2.40578e-05 9.79189e-05 0.0001801694 -0.1550042357 0.8310905237
685295890.0 -0.1564246327 0.8306074714 -0.0001417334 -6.24004e-05 1.67939e-05 8.09089e-05 -0.1465611331 0.8318534606
690295860.0 -0.1488905756 0.8307790516 0.0002025598 9.69468e-05 -9.64923e-05 1.19202e-05 -0.1387907669 0.8338825927
695295830.0 -0.1405896025 0.8322208248 -5.51158e-05 -6.0557e-06 -9.40296e-05 0.0001374539 -0.129807608 0.8346594771
700295800.0 -0.1317120226 0.8337264729 0.0002484531 9.54006e-05 3.78035e-05 -0.0001287642 -0.1222330322 0.8361761503
705295770.0 -0.1238715621 0.8350871196 -0.0001115913 0.000188327 -3.8834e-05 2.57033e-05 -0.1138995186 0.8378363591
710295740.0 -0.1155384247 0.8364592804 1.2075e-05 0.0002466674 -0.0002467109 -0.0001758774 -0.1048517107 0.8388695609
715295710.0 -0.1073140797 0.8372954576 0.0002012992 5.57594e-05 0.000203632 7.73225e-05 -0.0967541637 0.8394640327
720295680.0 -0.098651203 0.8380631587 -0.000103497 5.85868e-05 7.04487e-05 6.69659e-05 -0.0882858922 0.8404506458
725295650.0 -0.0908978553 0.839701143 -5.559e-07 2.09878e-05 -1.74878e-05 -5.04958e-05 -0.0804421301 0.8419223153
730295620.0 -0.0818926257 0.8402930125 8.47872e-05 0.0001389436 -4.46084e-05 6.18393e-05 -0.0723162243 0.8422791695
735295590.0 -0.0741940083 0.8411927691 -9.51817e-05 2.64818e-05 4.12792e-05 0.0002231277 -0.063683285 0.8428054215
740295560.0 -0.0657969072 0.8417407563 0.0002164723 -0.0001916543 0.0001998674 -5.7349e-06 -0.0541264251 0.8441689295
745295530.0 -0.0573120216 0.8425030067 -0.0001302682 -0.0002337252 4.65314e-05 0.000168556 -0.0455908233 0.8435611774
750295500.0 -0.0484754907 0.8429489991 9.35463e-05 0.000150279 -0.0002283123 5.28506e-05 -0.0381143721 0.8443498694
755295470.0 -0.0409727225 0.8426978165 -1.338e-05 -0.0001028586 -1.22222e-05 -8.71905e-05 -0.0292887774 0.8439512302
760295440.0 -0.0326739628 0.8433056701 8.64338e-05 0.000173585 -0.000118315 -0.0001891882 -0.0210415343 0.8444495959
765295410.0 -0.0240801777 0.8436598948 -3.94988e-05 -7.14661e-05 6.52096e-05 -7.0521e-05 -0.0124650334 0.8449359635
770295380.0 -0.0159073875 0.8438738529 0.0001126336 -0.000127402 -0.000245098 -2.96799e-05 -0.003890268 0.8445039616
775295350.0 -0.0072170628 0.8437623251 8.22257e-05 -0.0002238634 -5.42325e-05 9.59488e-05 0.0035942118 0.8444569832
780295320.0 0.0008541672 0.8441446884 6.31998e-05 -0.000242963 9.87516e-05 8.04882e-05 0.0123167863 0.8439839231
785295290.0 0.0090432707 0.8434019037 -0.0003170798 4.53446e-05 -2.23153e-05 -5.42782e-05 0.0215209968 0.8440346174
790295260.0 0.0178233659 0.8439750517 -0.0001645127 -0.000217161 -3.44185e-05 0.0001913151 0.0299738694 0.844285197
795295230.0 0.0258228929 0.84369523 -5.05932e-05 -0.0001088563 6.25276e-05 0.0002285138 0.0389906326 0.8430726748
800295200.0 0.0337693771 0.8430901502 7.84911e-05 -7.67827e-05 6.07463e-05 6.33509e-05 0.0468273822 0.8432399338
805295170.0 0.0428353597 0.8429683387 -0.0001258354 0.0001189104 5.96864e-05 0.0002445843 0.0546719876 0.8428490754
810295140.0 0.0516466023 0.8427128884 -1.98302e-05 -6.36793e-05 -2.77258e-05 -4.67028e-05 0.0633454041 0.8419757397
815295110.0 0.0590137453 0.8417924895 3.05123e-05 -0.000116488 2.15023e-05 -3.00247e-05 0.0720341952 0.8411530209
820295080.0 0.0676908229 0.841491602 -2.36705e-05 -5.9589e-05 -0.0001642803 2.516e-07 0.0803127004 0.8404066283
825295050.0 0.0767904498 0.8403829898 3.01375e-05 -6.66346e-05 -0.0001659335 -7.16278e-05 0.0886436135 0.8399779272
830295020.0 0.0841791112 0.8397803725 -0.0001611609 0.0002031118 0.0001821246 3.5974e-05 0.0979922791 0.8388739837
835294990.0 0.0922572784 0.838750659 9.85146e-05 -2.84849e-05 -8.74253e-05 -0.0001299295 0.1051717048 0.838173198
840294960.0 0.1007350259 0.8383593768 8.94233e-05 -0.0003725537 0.0001632913 6.6287e-05 0.1133029259 0.8372700382
845294930.0 0.108630689 0.8372377854 -4.627e-07 0.0002188504 -6.94214e-05 -7.2848e-05 0.1217847152 0.8353541922
850294900.0 0.116780713 0.8358921906 -6.88377e-05 -0.0001299132 6.6885e-05 6.9352e-05 0.1300313429 0.8340143627
