!Created with skrf (http://scikit-rf.org).
# Hz S RI R 50.0 
!freq ReS11 ImS11 ReS21 ImS21 ReS12 ImS12 ReS22 ImS22
300000.0 -0.3200521241 -0.0838075668 0.376110225 0.0472007056 0.3725733056 0.0430862649 -0.3177360973 -0.1009285495
5299970.0 -0.326478027 0.0041961076 0.3783865806 0.0024091851 0.3784339964 0.0024976241 -0.3241396454 0.0047247293
10299940.0 -0.3242648455 0.0134483715 0.3791911795 0.0021120295 0.3793906717 0.0024002486 -0.3213354113 0.0158591679
15299910.0 -0.3215725965 0.0203725269 0.3818915198 0.002257818 0.3821866436 0.0020969892 -0.3181746412 0.0237743108
20299880.0 -0.3188250211 0.0259890783 0.384914752 0.0020337004 0.3848998898 0.0015180038 -0.3150014373 0.0303516095
25299850.0 -0.3156981656 0.0314103736 0.3882290685 0.0001169636 0.3881106685 7.18618e-05 -0.3107837703 0.0358955328
30299820.0 -0.3127863014 0.0356778581 0.391627628 -0.0020483211 0.3914316007 -0.002035351 -0.3067576437 0.0405796934
35299790.0 -0.3101091548 0.0400585725 0.3947266664 -0.0056063048 0.3946874122 -0.0052698602 -0.3034738115 0.0449047701
40299760.0 -0.3074431004 0.0436114618 0.3979956537 -0.0086657939 0.397986061 -0.0087271112 -0.3003964901 0.0483246232
45299730.0 -0.3049421047 0.0465512789 0.4007713601 -0.0129384751 0.4013065244 -0.0127613608 -0.2970591836 0.0519895126
50299700.0 -0.3023523707 0.0491820971 0.4035384311 -0.017030019 0.4036475077 -0.0169745517 -0.2941371807 0.0545452537
55299670.0 -0.3003305559 0.0519720109 0.4054825536 -0.0223304639 0.4058806731 -0.0220866596 -0.2917638039 0.0571722792
60299640.0 -0.2981280621 0.0550381027 0.407669894 -0.0268836139 0.4078218124 -0.0265827535 -0.2889339514 0.0593639882
65299610.0 -0.2963769784 0.0573819956 0.4092255251 -0.0317992469 0.4090775172 -0.0322112397 -0.2870590816 0.0617591819
70299580.0 -0.294549228 0.0598246984 0.4105051891 -0.0369166991 0.4103251172 -0.0368807008 -0.2849388129 0.0637782721
75299550.0 -0.292935556 0.0626179105 0.4112596871 -0.0420749389 0.4112382492 -0.0424351643 -0.283047637 0.0656217712
80299520.0 -0.2917506564 0.0646851974 0.4124251351 -0.0478123812 0.412359654 -0.0474492388 -0.2812871212 0.0683355281
85299490.0 -0.290428118 0.0670314947 0.4128027075 -0.0523309632 0.4127945473 -0.0522005603 -0.279899532 0.0698197457
90299460.0 -0.28871678 0.0695767554 0.4130036225 -0.0580358401 0.4134516581 -0.0576780217 -0.2782452127 0.0720809237
95299430.0 -0.2872543262 0.0716512206 0.4135863489 -0.0629454708 0.413683976 -0.0632460204 -0.2768218646 0.0744866763
100299400.0 -0.2864358779 0.0741648649 0.4131241548 -0.0681159411 0.4133244451 -0.0680720517 -0.2751062571 0.0758839877
105299370.0 -0.2851826984 0.0763570816 0.4131986436 -0.0734525949 0.4134296628 -0.0735556435 -0.2734075103 0.0782267147
110299340.0 -0.2841279551 0.078598627 0.4131139337 -0.078868927 0.4131571071 -0.0784386706 -0.2729002063 0.0802692894
115299310.0 -0.282944913 0.0807419206 0.4131689958 -0.083724193 0.4128399742 -0.0836085326 -0.2715963642 0.0825562329
120299280.0 -0.2817988734 0.0830735221 0.4125657665 -0.089076113 0.412559998 -0.088581795 -0.2702918296 0.0844452619
125299250.0 -0.2810462788 0.0855125645 0.411928941 -0.093998348 0.4119028554 -0.0936097353 -0.2694921625 0.0864768338
130299220.0 -0.2800984879 0.0882109198 0.4112637557 -0.0992394189 0.4111194823 -0.099007901 -0.268529032 0.0886367897
135299190.0 -0.2793111916 0.0908098652 0.410685751 -0.1039772399 0.4105375005 -0.1036697375 -0.267135857 0.0909626481
140299160.0 -0.278628859 0.0931399698 0.409783468 -0.1089886015 0.4096864895 -0.1092330282 -0.2660322458 0.0934870141
145299130.0 -0.2773723402 0.0956367294 0.4090414471 -0.1140044976 0.4085290167 -0.1139575727 -0.2651784553 0.0958223845
150299100.0 -0.2763768716 0.0981157765 0.4076292958 -0.118350505 0.4079593446 -0.1184663239 -0.2643573623 0.0984735167
155299070.0 -0.2756159487 0.1008357778 0.4070641243 -0.1243477876 0.4066757002 -0.1238107712 -0.2633040816 0.1007053898
160299040.0 -0.2745044696 0.1033944532 0.4054015567 -0.1285926366 0.4052604936 -0.1284710129 -0.2626224026 0.1032719648
165299010.0 -0.2737239919 0.1059068126 0.4039061827 -0.1339048693 0.4041611676 -0.1335970436 -0.2612398172 0.1056883941
170298980.0 -0.2726416586 0.1086322932 0.4026051194 -0.1384596696 0.4029690016 -0.138505765 -0.2602548024 0.1081296517
175298950.0 -0.2720300166 0.1112048792 0.4017253227 -0.1429312235 0.4014070919 -0.1430516127 -0.2595921217 0.1109419747
180298920.0 -0.2709640645 0.1139100759 0.4002371685 -0.1479780746 0.3999068125 -0.1475368492 -0.2583895386 0.1134847132
185298890.0 -0.2697378971 0.1164999532 0.3986913651 -0.15252757 0.3981638723 -0.1524989331 -0.2572434349 0.1161104612
190298860.0 -0.2685756763 0.1195776438 0.3968826579 -0.1572912969 0.3972102182 -0.1570343699 -0.2563318142 0.1184562003
195298830.0 -0.2678751485 0.1219743059 0.3954007036 -0.1618010588 0.3952656899 -0.1616449903 -0.2550273688 0.1209127366
200298800.0 -0.2661787458 0.1246724558 0.3933750191 -0.1665252346 0.3935339903 -0.1666991541 -0.2544361953 0.1233025484
205298770.0 -0.2653905265 0.1274372032 0.3917956014 -0.1714320474 0.3917167937 -0.1707872158 -0.2531631297 0.1251678537
210298740.0 -0.2643286599 0.1299398431 0.389811352 -0.1754147724 0.3896942371 -0.175195882 -0.2516535679 0.1285250767
215298710.0 -0.2634602679 0.1328398606 0.3882726545 -0.1804908264 0.3879771484 -0.1804477643 -0.2513406174 0.1312035531
220298680.0 -0.2623706053 0.1352589121 0.3858706888 -0.1844992695 0.3860296816 -0.1846996661 -0.2503784868 0.1333244787
225298650.0 -0.2610645718 0.1378460552 0.3841113258 -0.1891899929 0.3843461912 -0.1891859568 -0.2488726433 0.1360248364
230298620.0 -0.2598982334 0.1410144931 0.3821929876 -0.1931814298 0.3824923173 -0.1931344771 -0.2479849391 0.1382028243
235298590.0 -0.2581249561 0.1436247711 0.3798726755 -0.1976460724 0.3796848834 -0.1974650731 -0.2464741814 0.1412463169
240298560.0 -0.2572702999 0.1463562036 0.377836131 -0.2023656728 0.3775553644 -0.2021813299 -0.2453002804 0.1440027982
245298530.0 -0.2559235314 0.1490065428 0.3758533098 -0.2066443007 0.3755996284 -0.2066261422 -0.2439295169 0.1457824709
250298500.0 -0.2540402724 0.1519673672 0.3724447387 -0.2108720247 0.3728323546 -0.2104348972 -0.2425717055 0.1484770853
255298470.0 -0.2526990175 0.153987757 0.3703110962 -0.2146587463 0.3708417166 -0.214726007 -0.2411809289 0.1509267354
260298440.0 -0.2516435992 0.156960183 0.3683096472 -0.2196792826 0.3685533424 -0.2190212294 -0.2395754561 0.1536808262
265298410.0 -0.2500348421 0.1598382112 0.3660475713 -0.2238679577 0.3660614019 -0.2231434263 -0.238081853 0.1563832641
270298380.0 -0.2485621143 0.1623838946 0.3636794183 -0.2273672671 0.3637640292 -0.2272778629 -0.2368078211 0.1587689648
275298350.0 -0.2468705449 0.1650500025 0.3611138669 -0.2314269755 0.3614520869 -0.2313077383 -0.2353216893 0.161200734
280298320.0 -0.2450051966 0.1679221625 0.3588434015 -0.2357367267 0.3585197954 -0.2355224047 -0.2332471892 0.1637415644
285298290.0 -0.2436767647 0.1706611343 0.3563784122 -0.2397067204 0.3557787806 -0.2399945706 -0.231742038 0.1662359589
290298260.0 -0.2416488546 0.1734638929 0.3529422778 -0.2436817245 0.3532763702 -0.2436172706 -0.2301815282 0.1685892612
295298230.0 -0.2400119471 0.1754123821 0.3509735914 -0.2474840407 0.3508118773 -0.2476844437 -0.2282257862 0.1707294608
300298200.0 -0.2385714363 0.1782010608 0.348220025 -0.2513328248 0.3482296047 -0.2519623802 -0.2267142463 0.1734628786
305298170.0 -0.2366389179 0.1804261125 0.3448826207 -0.2558775603 0.3452481008 -0.255482735 -0.2244860348 0.1755544885
310298140.0 -0.235040476 0.183352887 0.3423294995 -0.2596693933 0.3427988162 -0.2595816449 -0.2230990325 0.1783425533
315298110.0 -0.2330921769 0.1858182611 0.3396738794 -0.2631929995 0.3398478808 -0.2630811004 -0.2213550389 0.1804570072
320298080.0 -0.2310229442 0.1882041384 0.3361098852 -0.2677422207 0.3364839851 -0.2673054856 -0.2195089395 0.1830414502
325298050.0 -0.2294847176 0.1907597727 0.3334254386 -0.270984288 0.3335081115 -0.2708806513 -0.2180520252 0.1853159342
330298020.0 -0.2278963851 0.1929911259 0.3304809073 -0.2747222399 0.3307165153 -0.2749942371 -0.2158780976 0.1878654491
335297990.0 -0.2258145594 0.1955836338 0.3273318342 -0.2783275785 0.3271062743 -0.2787173528 -0.2144932424 0.1905737644
340297960.0 -0.2239910566 0.1983670143 0.323633961 -0.2818884025 0.3240329255 -0.2821187346 -0.2125540901 0.1929695521
345297930.0 -0.2223614365 0.2009243088 0.3208226656 -0.285905294 0.3207325348 -0.2857037388 -0.210723525 0.1949913358
350297900.0 -0.2203605892 0.2031736821 0.3169990524 -0.2895227385 0.3172427276 -0.2890302924 -0.2091988503 0.1979157091
355297870.0 -0.2181982371 0.2060541224 0.3142226626 -0.2930249676 0.3145671624 -0.2928305366 -0.2070928093 0.2002090368
360297840.0 -0.2161007759 0.2081157548 0.3114717388 -0.2961584172 0.3112435962 -0.2960034964 -0.204786227 0.2024172342
365297810.0 -0.2142701582 0.2112639915 0.3077987606 -0.2999617099 0.3079904893 -0.2997799174 -0.2028991292 0.205238595
370297780.0 -0.2118423349 0.2131929738 0.304276211 -0.3026921477 0.3049899961 -0.3027955368 -0.2008090817 0.2073738289
375297750.0 -0.2095474402 0.2156907998 0.3010434634 -0.3063797763 0.3017068075 -0.3063096183 -0.1990143013 0.2093175315
380297720.0 -0.2077310034 0.2179033879 0.2976396882 -0.3096620068 0.2975062496 -0.3091154101 -0.197198884 0.2117821465
385297690.0 -0.2054448974 0.2202760179 0.2939091181 -0.312536268 0.2939533547 -0.3129158899 -0.1947544587 0.2142693466
390297660.0 -0.2029056673 0.2230057286 0.290482958 -0.3163976505 0.2904485876 -0.315816957 -0.1926736467 0.2162302016
395297630.0 -0.2006520724 0.2253431867 0.2869638271 -0.3194283541 0.2870633878 -0.319342693 -0.1901258338 0.218539151
400297600.0 -0.1984141064 0.2273710956 0.2831238528 -0.3228672582 0.2837324985 -0.3224827039 -0.1881538014 0.2208326519
405297570.0 -0.1964887491 0.2295549177 0.2799662658 -0.3255049697 0.2801617915 -0.3252263449 -0.1863540395 0.2228316691
410297540.0 -0.1936681391 0.2315568419 0.2765253483 -0.328298006 0.2771206753 -0.3286299334 -0.184140398 0.2254157721
415297510.0 -0.1911618599 0.2337804791 0.2725822914 -0.3318535507 0.2729182385 -0.331659491 -0.1814076981 0.2271102358
420297480.0 -0.1892889902 0.236324784 0.2691728661 -0.3345299494 0.2693495862 -0.3345641577 -0.1794678707 0.2289950927
425297450.0 -0.1867278071 0.2383717852 0.2655287854 -0.3375965448 0.2658542341 -0.3374682336 -0.1772905937 0.2314724684
430297420.0 -0.1843370358 0.2401362368 0.2614817409 -0.3399711928 0.2617468074 -0.3400872775 -0.1746287497 0.2330278661
435297390.0 -0.1820272971 0.242633008 0.2577892621 -0.3430553013 0.2576375885 -0.343240831 -0.1716328589 0.2350286905
440297360.0 -0.1791008781 0.2447633787 0.254056846 -0.3458303937 0.2540336323 -0.3459293738 -0.1697001854 0.237189427
445297330.0 -0.176847407 0.2465267404 0.2507670729 -0.3486044712 0.2504117192 -0.3483204895 -0.167145178 0.2386308586
450297300.0 -0.1743578231 0.2481897925 0.2469682907 -0.3513134915 0.2466853473 -0.351702918 -0.1647892379 0.2403792904
455297270.0 -0.1716896548 0.2505551717 0.2423144729 -0.3535834944 0.2427120306 -0.3539003932 -0.162428411 0.2424126834
460297240.0 -0.1690252701 0.2525077336 0.2384241222 -0.3564422622 0.2386746942 -0.3564828638 -0.1595960373 0.2445406527
465297210.0 -0.1661154491 0.2546556332 0.2347817456 -0.3592203254 0.2347248891 -0.3594698635 -0.1567069718 0.245851479
470297180.0 -0.1634262255 0.2560278048 0.2304005498 -0.361728228 0.2310505195 -0.3614233644 -0.154130656 0.2480472947
475297150.0 -0.1609728076 0.257765452 0.2268517974 -0.363898262 0.2269214638 -0.3635870542 -0.1513749094 0.2495128982
480297120.0 -0.158080331 0.2601393329 0.2226428075 -0.3667379315 0.2225421169 -0.3668440896 -0.1489867622 0.2515148814
485297090.0 -0.1556801654 0.2617663612 0.2188190313 -0.3688272287 0.2188905765 -0.3686498916 -0.146192609 0.2532161234
490297060.0 -0.1532928365 0.2638105903 0.215114098 -0.371027566 0.2149412184 -0.3710607571 -0.1436366876 0.2552767739
495297030.0 -0.1503269358 0.2655616691 0.2101061746 -0.3735336158 0.2110194461 -0.3736781135 -0.1411523612 0.2568531447
500297000.0 -0.1472097434 0.2671692273 0.2061829339 -0.3753455115 0.2063878961 -0.3755544449 -0.1382323496 0.2589557424
505296970.0 -0.1441959006 0.2688440724 0.2021160863 -0.3781000801 0.2020264372 -0.378069167 -0.1355322671 0.2603139935
510296940.0 -0.1419897822 0.2705743258 0.1981300791 -0.3800682907 0.1981115023 -0.3805462129 -0.1327127086 0.2620132317
515296910.0 -0.1386382844 0.2719343198 0.1940270015 -0.3821958706 0.1939809761 -0.3821841228 -0.1299115191 0.2632594391
520296880.0 -0.1364804778 0.2736282363 0.1900556943 -0.3842028638 0.1897429966 -0.3839378272 -0.1275349663 0.2650795552
525296850.0 -0.1332688504 0.2749629701 0.1852007411 -0.3862901275 0.1856407781 -0.385814104 -0.1245220567 0.2668109903
530296820.0 -0.1302575407 0.2768595694 0.1814181406 -0.3882082565 0.1812889153 -0.3881359941 -0.1220939005 0.2678120063
535296790.0 -0.1274937594 0.2784240343 0.177014378 -0.3903070209 0.177033049 -0.3899877228 -0.1191140126 0.2692573585
540296760.0 -0.124765096 0.279850642 0.1725017519 -0.3920904379 0.1724520834 -0.392273391 -0.1166387962 0.2707376638
545296730.0 -0.1218967923 0.281352467 0.1683568531 -0.3939415832 0.1683641058 -0.3940003323 -0.1135417105 0.2721459206
550296700.0 -0.1186551582 0.2829398775 0.1641794862 -0.3958971953 0.1643103279 -0.3959166762 -0.1112457957 0.2737677824
555296670.0 -0.1156752448 0.2840809528 0.159913308 -0.3973694451 0.1598650176 -0.3973392691 -0.1079432481 0.2752324788
560296640.0 -0.1126029703 0.285852779 0.1556301693 -0.3990423141 0.1557201508 -0.399211624 -0.1051702779 0.2765117816
565296610.0 -0.1096172807 0.2870737652 0.1508169249 -0.4010065005 0.1515544308 -0.4008265423 -0.1024770605 0.277469146
570296580.0 -0.1070912427 0.2880138126 0.1468817216 -0.4024596448 0.1466318176 -0.4024945407 -0.0998338389 0.2789800777
575296550.0 -0.1038909864 0.2896853217 0.1425131258 -0.4042673641 0.142392973 -0.404043738 -0.0964580171 0.280213615
580296520.0 -0.1006905656 0.2908947226 0.1376448518 -0.4058087853 0.1382872038 -0.4055044805 -0.093390178 0.281015901
585296490.0 -0.0977137668 0.2914436485 0.133609818 -0.4064075122 0.1337806059 -0.4069126186 -0.0907240354 0.2824898481
590296460.0 -0.0945596064 0.2930388996 0.1291703084 -0.4079263221 0.1293014922 -0.4081669664 -0.0880634143 0.2835959322
595296430.0 -0.0915070766 0.2941547514 0.1244340319 -0.409733118 0.1243741193 -0.4097100786 -0.0847669009 0.2839314904
600296400.0 -0.0888669966 0.295159399 0.1202060826 -0.4109569906 0.1203669272 -0.4107071633 -0.0819052911 0.2852476997
605296370.0 -0.0859252209 0.2962297052 0.1156902098 -0.4121280114 0.1158617736 -0.4119871681 -0.0786279093 0.2864240621
610296340.0 -0.0826627926 0.2974174688 0.1107279178 -0.4131930928 0.1110607082 -0.4130928584 -0.0756120587 0.2870753617
615296310.0 -0.0790524918 0.2979031454 0.1065267909 -0.4142082127 0.1063370242 -0.4147092837 -0.072315464 0.2881739386
620296280.0 -0.0763141215 0.2991140115 0.1020614042 -0.4155339134 0.102308277 -0.4151117676 -0.0701466425 0.289183946
625296250.0 -0.0733421503 0.2998097588 0.097927556 -0.4167070474 0.0975150408 -0.4167692424 -0.0660549471 0.2898254298
630296220.0 -0.0694236887 0.3009638237 0.0928702633 -0.4175955083 0.0928800035 -0.4172337785 -0.0631936141 0.2907630547
635296190.0 -0.0671204558 0.301782112 0.0884041275 -0.418469814 0.0884543469 -0.4181498594 -0.0602095665 0.2914817284
640296160.0 -0.0636829253 0.3024696951 0.0838629116 -0.4191645679 0.0841235541 -0.4192991224 -0.0570950624 0.2922254701
645296130.0 -0.0603504841 0.3037889128 0.0793133859 -0.419695247 0.0796314204 -0.420204972 -0.0541170532 0.2932013729
650296100.0 -0.0571752191 0.3041689451 0.0742837636 -0.4205896174 0.0749027054 -0.4209209485 -0.0507110352 0.2932444243
655296070.0 -0.0542011694 0.3051860348 0.0699777736 -0.421548646 0.0705090573 -0.4216202515 -0.047609192 0.2943070717
660296040.0 -0.0512715847 0.3053235739 0.0657784981 -0.4222891945 0.0659077012 -0.4227765055 -0.0442435366 0.2950328139
665296010.0 -0.0476487203 0.3059451303 0.0609128129 -0.4229271389 0.0610709661 -0.4228022172 -0.0412144273 0.2959844536
670295980.0 -0.0451287734 0.3071880448 0.0566385865 -0.4232426286 0.056747208 -0.4236126352 -0.0384721399 0.2965181104
675295950.0 -0.0414216394 0.3074188222 0.052024367 -0.4239668754 0.0521364988 -0.4239758508 -0.0355994946 0.2970805162
680295920.0 -0.0382090187 0.308115437 0.0472736086 -0.424762461 0.0470399755 -0.4250921152 -0.0320858841 0.2981204601
685295890.0 -0.035067207 0.3092261525 0.0427996898 -0.4254962228 0.0426467444 -0.4253777264 -0.0287022328 0.2983843745
690295860.0 -0.0317244853 0.3090328505 0.038192424 -0.4249390935 0.0381522129 -0.4259106677 -0.0259338606 0.2993905262
695295830.0 -0.0284379545 0.3097632208 0.033958565 -0.4257118363 0.033231086 -0.4255779435 -0.0226577921 0.2994706275
700295800.0 -0.0250181064 0.3099401937 0.0287087341 -0.4260535403 0.0286523928 -0.4258610755 -0.0201440044 0.2998148066
705295770.0 -0.0221075817 0.3107499353 0.0241438365 -0.4264188353 0.0246096038 -0.4263109001 -0.0165623499 0.3004560587
710295740.0 -0.0183389358 0.3110980737 0.0193409422 -0.4267493099 0.0198155497 -0.4268912304 -0.0135486674 0.3002180103
715295710.0 -0.0159032281 0.3110280553 0.0153730901 -0.4266878127 0.0149090122 -0.4264427531 -0.0104375025 0.300422105
720295680.0 -0.0123293113 0.3117823097 0.0105568204 -0.4269668405 0.0106074573 -0.4270653877 -0.0071278307 0.3016038095
725295650.0 -0.0088047484 0.3117740617 0.0055222748 -0.4269726609 0.006128982 -0.4268058266 -0.0045256235 0.3016399725
730295620.0 -0.0055217698 0.3121491215 0.0007967899 -0.4266688189 0.0014823775 -0.4270210768 -0.0015706922 0.3014111205
735295590.0 -0.0025067452 0.3125814167 -0.003486481 -0.4268999284 -0.003263823 -0.4265015555 0.0014659672 0.3014436583
740295560.0 0.0005245214 0.3125697078 -0.008244574 -0.4266511881 -0.0079266783 -0.4269966121 0.0053843206 0.301879687
745295530.0 0.0039265703 0.3127201944 -0.0130397877 -0.4264414677 -0.0127842291 -0.4266203212 0.0082849704 0.3017389985
750295500.0 0.0075905548 0.3127067603 -0.0173497104 -0.4260369555 -0.0170410279 -0.4264705459 0.0112870726 0.3014743431
755295470.0 0.0107480132 0.3124896463 -0.0216112853 -0.425987134 -0.0220370114 -0.4260614186 0.0149968699 0.3012867504
760295440.0 0.0136575246 0.3127722283 -0.0264025342 -0.4261573914 -0.0264069662 -0.4261078342 0.0178020967 0.3016083358
765295410.0 0.016954075 0.312710854 -0.0309197006 -0.4254371768 -0.0315358636 -0.4256845122 0.020919002 0.3015693773
770295380.0 0.0200828687 0.3125666157 -0.0360887048 -0.4253997513 -0.0359013219 -0.4245985235 0.0238565856 0.3013064108
775295350.0 0.0234809835 0.3119604907 -0.0404399886 -0.4244241627 -0.0401015408 -0.4243001952 0.0267768258 0.3011098946
780295320.0 0.0267428991 0.3124696443 -0.0450560287 -0.4241480607 -0.0444193204 -0.4241062575 0.0299974817 0.3008871378
785295290.0 0.0297478842 0.3116285404 -0.0495461826 -0.4232921356 -0.0494075324 -0.4234615546 0.0338355656 0.3006300232
790295260.0 0.033688821 0.312293773 -0.0539517826 -0.4231590339 -0.0533527536 -0.4228015665 0.0370011187 0.3006528127
795295230.0 0.0367389854 0.3115052893 -0.0587552157 -0.4218116605 -0.0580772127 -0.4221754974 0.0402884166 0.3005076913
800295200.0 0.0394000922 0.3115060864 -0.0634998392 -0.4217922966 -0.0630889246 -0.4216078408 0.0434064378 0.3001201054
805295170.0 0.0431935429 0.3109740776 -0.067579501 -0.4209337786 -0.0677761302 -0.4208455845 0.0464736289 0.2996992065
810295140.0 0.0462624576 0.3106991445 -0.0722248984 -0.4198363334 -0.07226875 -0.4201954872 0.0500291088 0.2993938414
815295110.0 0.0495065149 0.3099530322 -0.0769498636 -0.4187427913 -0.076302908 -0.4192434005 0.0528465121 0.2990200718
820295080.0 0.0525768372 0.3101228264 -0.081348648 -0.4180465606 -0.0811709631 -0.4182779136 0.056240533 0.2987583104
825295050.0 0.0562359664 0.3092233376 -0.0853800107 -0.4170887292 -0.0857170776 -0.4174024763 0.059437404 0.2982757268
830295020.0 0.0592764291 0.3091826986 -0.0904465642 -0.4161289074 -0.0902392342 -0.4161943588 0.0631641894 0.2976451171
