!Created with skrf (http://scikit-rf.org).
# Hz S RI R 50.0 
!freq ReS11 ImS11 ReS21 ImS21 ReS12 ImS12 ReS22 ImS22
300000.0 -0.0953954636 -0.1023630429 0.6232190662 0.093699375 0.6222691299 0.0940321302 -0.0964642135 -0.1061159927
5299970.0 -0.1015704752 0.0112441038 0.630306635 0.0110428839 0.6309618251 0.0110286642 -0.101387415 0.0113722499
10299940.0 -0.0967468009 0.0287146983 0.6345394978 0.0161966951 0.6346033204 0.0163074031 -0.0961986218 0.028353087
15299910.0 -0.0893320429 0.042349339 0.6402685838 0.0213926502 0.6409158279 0.0214177634 -0.0896629611 0.0417689505
20299880.0 -0.08049946 0.053370587 0.6488600532 0.0242978986 0.6493466573 0.0245517205 -0.0807048095 0.0530039711
25299850.0 -0.0702937365 0.0623264444 0.6582994481 0.0260944169 0.6580429542 0.0260550526 -0.0718508967 0.0619971033
30299820.0 -0.0607117878 0.068912345 0.6683296129 0.0248620662 0.6677358017 0.0243967097 -0.0618189493 0.0683518768
35299790.0 -0.0505562825 0.0734821688 0.6770220787 0.0222890017 0.6773695815 0.0219817922 -0.0524158423 0.0735049109
40299760.0 -0.0412406039 0.0760834853 0.6870142745 0.0171844378 0.6868392216 0.0174711691 -0.0429179398 0.0769291349
45299730.0 -0.0318678569 0.0784295462 0.6960620077 0.0125508984 0.6961724014 0.0121746548 -0.0334419584 0.0793376853
50299700.0 -0.0229027227 0.0790060182 0.7038330096 0.0051126256 0.7040706327 0.0049524201 -0.0246641421 0.080282931
55299670.0 -0.0152464991 0.0790380634 0.7109946011 -0.002050709 0.7108110057 -0.0027538361 -0.0172501376 0.0802541349
60299640.0 -0.0075361453 0.0786677555 0.7178095443 -0.0112021202 0.7178882137 -0.0111129421 -0.0095369307 0.0796078439
65299610.0 -0.0013393952 0.0770676968 0.7241884744 -0.0192734004 0.7240268555 -0.0197773444 -0.0027565434 0.0785945893
70299580.0 0.0052806999 0.0752181251 0.7294574368 -0.0285806643 0.7293403768 -0.0291446569 0.0029414973 0.0770319761
75299550.0 0.0104075835 0.0733994408 0.7334474832 -0.0388595855 0.7334327983 -0.0386391069 0.0086728917 0.0754239048
80299520.0 0.0151620599 0.0712825703 0.7376345263 -0.0485453065 0.7378311673 -0.048815864 0.0135465191 0.0736800482
85299490.0 0.0199178238 0.0691019481 0.7408755687 -0.0585560572 0.7408526782 -0.0586981318 0.0179762126 0.0709694829
90299460.0 0.0240592134 0.0667653818 0.743280104 -0.0684520697 0.7432737227 -0.0682087478 0.0224550347 0.0691854665
95299430.0 0.0280324703 0.0641962686 0.7465367912 -0.0787521857 0.7464868637 -0.078971861 0.026008932 0.0665305101
100299400.0 0.0313069169 0.0616761689 0.747687017 -0.0884965637 0.7477687041 -0.0886948255 0.0290598969 0.0648535152
105299370.0 0.0342569615 0.059323126 0.749158433 -0.0987948092 0.7499007231 -0.0986463278 0.0325616643 0.0619240675
110299340.0 0.0374110783 0.056248944 0.7502651028 -0.1084923451 0.7508548528 -0.1084139247 0.0349491647 0.0595305562
115299310.0 0.0394449121 0.0542813526 0.7514366453 -0.1190833656 0.7515661657 -0.118924114 0.0374988584 0.0575186895
120299280.0 0.0414870342 0.0521983728 0.7523776997 -0.1296420349 0.7522119089 -0.1291439389 0.0397973137 0.0545020969
125299250.0 0.0438110068 0.0496633825 0.752306711 -0.1389637251 0.7521729289 -0.1388906808 0.0422501209 0.0527918981
130299220.0 0.0456527019 0.0470423802 0.7521350144 -0.1489493079 0.7520436884 -0.1494050934 0.0440132568 0.050500558
135299190.0 0.0471010962 0.0455241087 0.7521375179 -0.1584444379 0.7519776719 -0.1590238463 0.045460899 0.0478946975
140299160.0 0.0487885937 0.0433689508 0.7519122881 -0.1688210391 0.7513561578 -0.168176747 0.0460537386 0.045418596
145299130.0 0.0492259704 0.0411266987 0.7503377453 -0.1778934552 0.7508575761 -0.1783807411 0.0479963796 0.0438147339
150299100.0 0.0508068967 0.0391671812 0.7494618522 -0.1879922325 0.7495738412 -0.1876294387 0.0492431141 0.0421055745
155299070.0 0.0525394383 0.0370770267 0.7474665775 -0.1974912789 0.7486829124 -0.1978406432 0.0506185023 0.0396115748
160299040.0 0.0531033753 0.035631809 0.7470952821 -0.2070171117 0.7469628642 -0.207051292 0.0509300474 0.0382633352
165299010.0 0.0542780674 0.0335422823 0.7458497045 -0.2161076481 0.7451234092 -0.2166026488 0.052167602 0.0359672586
170298980.0 0.0553330329 0.03193112 0.7435564016 -0.225758727 0.7433558727 -0.2263114587 0.0525040827 0.0339743865
175298950.0 0.0558062585 0.0304581666 0.7421359843 -0.2351509751 0.7419995087 -0.2358816342 0.0533849362 0.0326396138
180298920.0 0.0564091704 0.0287321665 0.7396475693 -0.2443644874 0.7393539968 -0.2446676762 0.0539792722 0.0307573958
185298890.0 0.056842903 0.0272990742 0.73763659 -0.2536741429 0.7372729114 -0.2534414547 0.0551020464 0.0289119467
190298860.0 0.0577257166 0.0256974287 0.7342600125 -0.2623492266 0.7351836335 -0.2627355255 0.0552088407 0.0273201763
195298830.0 0.0577576309 0.0243041723 0.7327389128 -0.2717916912 0.7330822748 -0.2717361704 0.0555488894 0.02592961
200298800.0 0.0585226479 0.0226957398 0.7299682641 -0.281148929 0.7297092632 -0.2810572719 0.0561736249 0.0240821836
205298770.0 0.0582324604 0.0207676801 0.7265942209 -0.2895968959 0.7273510619 -0.2895464096 0.0568232563 0.0226950097
210298740.0 0.0589590513 0.0200620576 0.7244906359 -0.298194412 0.7234694256 -0.2979687275 0.0563678801 0.0211776394
215298710.0 0.0596174473 0.0188007503 0.720871802 -0.3062739568 0.7208233198 -0.3072430079 0.0570191832 0.0198438881
220298680.0 0.0597931945 0.0175974295 0.7177232848 -0.3156176474 0.7176387038 -0.3160235475 0.0574361906 0.0181360129
225298650.0 0.0597902927 0.0159885958 0.7141380036 -0.3241704274 0.7146891444 -0.3241169068 0.0575813974 0.0166916623
230298620.0 0.0602043062 0.0150630643 0.7113402859 -0.3329036217 0.7113429434 -0.3331511664 0.057159798 0.0152121331
235298590.0 0.0597548 0.013879039 0.7082954805 -0.3415378937 0.7077701396 -0.3413107496 0.0577183246 0.0142910893
240298560.0 0.0604363767 0.0129377873 0.7043488081 -0.3495559272 0.7039151489 -0.349312659 0.0574153154 0.0126688448
245298530.0 0.0601646384 0.011270664 0.7006080932 -0.3581615099 0.7003416591 -0.3584035709 0.0580227532 0.0119234116
250298500.0 0.0601114501 0.0102578237 0.6967584104 -0.3661380915 0.69668438 -0.3660517848 0.0577046628 0.0108145689
255298470.0 0.0606868134 0.0097455237 0.6927484659 -0.3740280538 0.6936909315 -0.3741141963 0.0577722702 0.0097620155
260298440.0 0.0606346291 0.0082235576 0.689511725 -0.3819285764 0.6887285063 -0.3823725071 0.0578376678 0.0078524072
265298410.0 0.0600031532 0.0074805593 0.6846785756 -0.390631881 0.6842070769 -0.3908333861 0.0588652592 0.0067699496
270298380.0 0.0601453248 0.0062163576 0.6802589179 -0.3982414102 0.6803916536 -0.3980381971 0.0583041545 0.0057544147
275298350.0 0.0604877297 0.005901642 0.6757637935 -0.405623024 0.6756788755 -0.4060891272 0.0576106721 0.0051070213
280298320.0 0.0595996388 0.0046941639 0.6722465563 -0.413475565 0.6721975438 -0.4141574808 0.0583062591 0.0040152705
285298290.0 0.0598956398 0.0034725983 0.6676641287 -0.4218019825 0.6677647918 -0.4212334509 0.0578816516 0.0028948491
290298260.0 0.0600212321 0.0026787701 0.6640684529 -0.4298556729 0.6633603997 -0.4298649475 0.0584076564 0.0017781501
295298230.0 0.0599362592 0.0014415761 0.6585476217 -0.4375316832 0.6587283444 -0.438027225 0.0578731866 0.0003961678
300298200.0 0.0601795448 0.000637166 0.6535818991 -0.4450651976 0.6538822867 -0.4450784879 0.0578200268 -0.0008194247
305298170.0 0.0602506956 -0.0007828845 0.6489951106 -0.4536394941 0.6493261087 -0.4532664845 0.0577869519 -0.0022072175
310298140.0 0.0603877624 -0.0015958408 0.6447996139 -0.4603474215 0.6444213964 -0.4602965604 0.0579655111 -0.0036315426
315298110.0 0.0600308966 -0.0031244905 0.6391699757 -0.4688195413 0.6392795729 -0.4685449257 0.0576917886 -0.0043893945
320298080.0 0.0594739616 -0.0040075064 0.6330657343 -0.4759239919 0.6343190842 -0.4758216177 0.0573791261 -0.0055401152
325298050.0 0.0584377131 -0.0053456411 0.6284026101 -0.4826021665 0.6288270859 -0.4834875338 0.0571213046 -0.0066336489
330298020.0 0.0575239213 -0.0058942998 0.6226292737 -0.4908451504 0.6236703089 -0.4908832707 0.0561258338 -0.0077138735
335297990.0 0.0576649561 -0.0066281541 0.6174643434 -0.4975056835 0.6175076635 -0.4977205625 0.0557440076 -0.0086694148
340297960.0 0.0571823284 -0.0075352195 0.6111462306 -0.5049356863 0.6111483614 -0.5045184287 0.0552695111 -0.0092583604
345297930.0 0.0564638446 -0.0085361286 0.605791388 -0.5116501081 0.6053242364 -0.5120641893 0.0554988516 -0.0104631582
350297900.0 0.0557396352 -0.0091551635 0.6007646159 -0.518079692 0.6009343628 -0.5181060423 0.0548215049 -0.011229895
355297870.0 0.0555862311 -0.0096258142 0.5945687935 -0.5241356601 0.5943584106 -0.5246649226 0.0543673299 -0.0118952244
360297840.0 0.0553052194 -0.0102965568 0.5882675292 -0.5316263125 0.5883346461 -0.5320510265 0.0534509927 -0.0121443513
365297810.0 0.0546211729 -0.0109913207 0.5824171253 -0.5380852047 0.582535161 -0.5383870514 0.0530454638 -0.0130675109
370297780.0 0.0548696659 -0.0113300456 0.5762986024 -0.5445064883 0.5767085921 -0.5444209405 0.0530176549 -0.0137662411
375297750.0 0.0543068495 -0.0119829812 0.5706583775 -0.551136917 0.5705451086 -0.5511726239 0.0529297384 -0.0146700593
380297720.0 0.0534106222 -0.0125571973 0.5652016018 -0.5574881921 0.5643760653 -0.5576143014 0.0521514879 -0.0149909692
385297690.0 0.0531635182 -0.0134311928 0.5580683656 -0.5635245214 0.5588719701 -0.5641272758 0.051976415 -0.0154776126
390297660.0 0.0530449041 -0.0143774866 0.5521603181 -0.5692053508 0.5525202049 -0.5698276449 0.0522438117 -0.0166572009
395297630.0 0.0529965581 -0.0150935392 0.5457844585 -0.5751251079 0.5456416472 -0.5753617435 0.0513965705 -0.0171658425
400297600.0 0.0521487088 -0.0154757233 0.5396978888 -0.5823049471 0.5397996356 -0.582123521 0.0513486586 -0.0171510606
405297570.0 0.0519614546 -0.0166212828 0.5327568754 -0.5879158448 0.5332394754 -0.587817139 0.0508012532 -0.0178922141
410297540.0 0.0514777376 -0.0164874906 0.5265304251 -0.5939821295 0.5270830503 -0.5941685323 0.0506946344 -0.018664861
415297510.0 0.0507249475 -0.0173076059 0.5198494347 -0.5995773833 0.5210681103 -0.599525599 0.0504075851 -0.0189952581
420297480.0 0.0506955683 -0.0183679753 0.5134255768 -0.6054899315 0.5138832573 -0.6056157898 0.0501767047 -0.0195570458
425297450.0 0.0509461715 -0.0188446429 0.5072461192 -0.6110115857 0.5069322487 -0.6111279248 0.0498673113 -0.0205760481
430297420.0 0.0500712939 -0.0194994394 0.5008293244 -0.6168042128 0.5008320957 -0.6165268901 0.0498311769 -0.0208231845
435297390.0 0.0498588242 -0.0203465924 0.4931482067 -0.6226528212 0.4936007065 -0.6224622471 0.048753352 -0.0212345006
440297360.0 0.0496863878 -0.0210520859 0.4863742721 -0.627812108 0.4860999251 -0.6274878201 0.0487608256 -0.0218445343
445297330.0 0.0494572808 -0.022248251 0.4798265097 -0.6328441564 0.4795905813 -0.6332371812 0.0484472055 -0.0223264814
450297300.0 0.0487249508 -0.0219511788 0.4724283638 -0.6375921141 0.4729428693 -0.6378465954 0.0484274811 -0.0227438789
455297270.0 0.0479788427 -0.0229324137 0.4661007535 -0.6432056781 0.4662123711 -0.6437488856 0.0477227661 -0.0233589164
460297240.0 0.048188733 -0.0232260547 0.4590959446 -0.6496193959 0.4587649476 -0.6489330327 0.0474010793 -0.0241207419
465297210.0 0.0477499188 -0.0240215034 0.4511742958 -0.6538296092 0.4509478532 -0.6538742269 0.047555459 -0.0238389481
470297180.0 0.0470857376 -0.0249258656 0.4441926158 -0.659022628 0.4448668819 -0.6589057232 0.0472816206 -0.0250872768
475297150.0 0.0465607006 -0.0248794303 0.4370162626 -0.6641092983 0.4371980398 -0.663790612 0.0465656932 -0.0257396548
480297120.0 0.0469099469 -0.0250528684 0.4298142688 -0.6682694948 0.4300295229 -0.6684687234 0.0458846034 -0.0261003996
485297090.0 0.0462610848 -0.026821253 0.4216642384 -0.6732425907 0.4225776914 -0.6731254319 0.0459154303 -0.0262891161
490297060.0 0.0462241534 -0.0265391874 0.4143336827 -0.6774802751 0.4148932651 -0.6779963 0.0451770243 -0.0270860297
495297030.0 0.0452101614 -0.0276463557 0.407416599 -0.6824777214 0.40742802 -0.6824566766 0.0454747806 -0.0276877365
500297000.0 0.0449496253 -0.0276889502 0.4002051068 -0.6864967899 0.4001473562 -0.6870716556 0.0445903192 -0.0280342963
505296970.0 0.0448444986 -0.0282918271 0.3921660457 -0.6913862266 0.3925353373 -0.6911914634 0.0444744404 -0.0291360395
510296940.0 0.0444723825 -0.0291105515 0.3849967381 -0.6964485495 0.3853939715 -0.6961787489 0.0442774574 -0.0286403007
515296910.0 0.0436971499 -0.028965317 0.3767457111 -0.6999261805 0.3765071439 -0.7003706439 0.0439700362 -0.0301691808
520296880.0 0.0435161015 -0.0296174002 0.3698208117 -0.7039112739 0.3694643727 -0.7038616178 0.0439707465 -0.0297157733
525296850.0 0.0429892652 -0.0302654025 0.361553511 -0.7079053703 0.3613155553 -0.707796521 0.0435343796 -0.0306547273
530296820.0 0.0426065679 -0.0311045846 0.3540596259 -0.7121700925 0.3541588218 -0.7118046573 0.0431004149 -0.0313226166
535296790.0 0.0429741338 -0.0311667911 0.3464506611 -0.7153993196 0.3461816304 -0.7156546692 0.0429580096 -0.0313050276
540296760.0 0.0420777972 -0.0311553254 0.3373746369 -0.7197131823 0.3380355861 -0.7195564885 0.0420555013 -0.0326331181
545296730.0 0.0410195768 -0.0316732454 0.3299144955 -0.7228564492 0.3304417466 -0.7232898736 0.0418932434 -0.0328398531
550296700.0 0.0415678587 -0.0322379883 0.3226497316 -0.7269051237 0.3220934111 -0.7270396575 0.041711989 -0.0329457319
555296670.0 0.0408105939 -0.0327569332 0.3144190883 -0.7309854219 0.3145760631 -0.7308131851 0.0407683518 -0.0341583755
560296640.0 0.0411846604 -0.0333168226 0.3059231918 -0.7335431151 0.3070114709 -0.7340403099 0.0401087903 -0.0336638636
565296610.0 0.0396584013 -0.0336276574 0.2985947979 -0.7372699182 0.2985846317 -0.7368671504 0.0405010603 -0.0342617512
570296580.0 0.0391234782 -0.0337247517 0.290100888 -0.7403600333 0.2907112488 -0.7403914911 0.0397280596 -0.0350938747
575296550.0 0.0388709976 -0.0342768736 0.2823513173 -0.7435075763 0.2824457364 -0.7435980792 0.0392800331 -0.0352257757
580296520.0 0.0388931719 -0.0344782809 0.2739751028 -0.7466582694 0.2740888647 -0.7467758443 0.0384975744 -0.0358742491
585296490.0 0.0384492069 -0.034642157 0.2663001011 -0.7495535785 0.2660689833 -0.7490862555 0.0386236926 -0.0357788438
590296460.0 0.0384853694 -0.0349854938 0.2578485144 -0.7519832253 0.2577849606 -0.7530242422 0.0374782287 -0.0360243176
595296430.0 0.037627771 -0.0352724054 0.2487630293 -0.755136258 0.2491319318 -0.7552626557 0.0376141596 -0.0372358705
600296400.0 0.0376088379 -0.0356987269 0.2407835064 -0.7576326025 0.2410883675 -0.7578467149 0.0368640783 -0.0372895287
605296370.0 0.0365652585 -0.0357493909 0.2336684764 -0.7602282374 0.2324759205 -0.7604847737 0.0365869645 -0.0372900117
610296340.0 0.0363910063 -0.0356871381 0.2243652139 -0.761581086 0.2251000859 -0.7625767516 0.0355853533 -0.0377573888
615296310.0 0.0362009622 -0.0364371262 0.2165264839 -0.765711661 0.2160279142 -0.7652808907 0.0355093316 -0.0378110454
620296280.0 0.0350041849 -0.0361281543 0.2073244761 -0.7676224742 0.207713891 -0.7675006568 0.0345643618 -0.0384032746
625296250.0 0.0346286852 -0.0366822804 0.1996127084 -0.7701107359 0.1994147266 -0.7700459982 0.0335929713 -0.0384305864
630296220.0 0.0341663095 -0.0365028238 0.1901912247 -0.7723371327 0.1909530048 -0.7717745724 0.0335930278 -0.039024422
635296190.0 0.0333528801 -0.0366405838 0.1824194177 -0.7735444215 0.1823521902 -0.7736738591 0.0333883632 -0.0392960255
640296160.0 0.0329383758 -0.0369260238 0.1733888791 -0.7762752239 0.1739184 -0.7759339787 0.0320224346 -0.0396410192
645296130.0 0.0330687656 -0.0366410214 0.1653878513 -0.7780033867 0.1656373484 -0.7777649772 0.031539455 -0.0406480574
650296100.0 0.0320267758 -0.0375845311 0.1565614024 -0.7797965088 0.1570682808 -0.7799199571 0.0317971878 -0.0403300735
655296070.0 0.0316869661 -0.0375304364 0.1480156414 -0.7816893459 0.1482902817 -0.7810506808 0.0305097771 -0.0404924784
660296040.0 0.0312605916 -0.0374874003 0.1400541189 -0.7829067621 0.1400470022 -0.7830188729 0.0299094505 -0.0415323004
665296010.0 0.0306765587 -0.0376198376 0.1305261176 -0.7837825969 0.1314153125 -0.7838128412 0.0295689465 -0.0409684691
670295980.0 0.0301636056 -0.0379110042 0.1226368561 -0.785745974 0.1227993213 -0.785421242 0.0285276643 -0.0416010036
675295950.0 0.0294083854 -0.0381934523 0.1140949435 -0.7872363243 0.114146079 -0.7867373439 0.0278870881 -0.0412567821
680295920.0 0.0287773924 -0.0379307997 0.1054712583 -0.7877987937 0.106310971 -0.7876214388 0.0277509912 -0.042148367
685295890.0 0.0286706651 -0.0378341835 0.0972921543 -0.789576938 0.0974035087 -0.7893692552 0.0272447307 -0.0414456866
690295860.0 0.0273792409 -0.0380221358 0.0881178456 -0.7906206124 0.0882333548 -0.790473359 0.0261415554 -0.0424388644
695295830.0 0.027344727 -0.0384248332 0.0801162211 -0.791131491 0.0800217234 -0.7906535579 0.0255436742 -0.0424926141
700295800.0 0.0267954027 -0.0382466847 0.0717001916 -0.7918467054 0.0715968908 -0.7916838793 0.0251386454 -0.0424829873
705295770.0 0.0256746661 -0.038096143 0.062947047 -0.7933293953 0.0627069478 -0.792470145 0.024579289 -0.0423764887
710295740.0 0.0254641874 -0.0384864257 0.0542774443 -0.7930967013 0.05419373 -0.7936121252 0.0239761712 -0.0422020458
715295710.0 0.0248381282 -0.0379672642 0.0454701755 -0.7940972986 0.045952841 -0.7936999504 0.0232038233 -0.0428178965
720295680.0 0.0248909145 -0.0382042748 0.0367712931 -0.7938243729 0.0371933744 -0.7943315891 0.0227138762 -0.0428915425
725295650.0 0.0232410781 -0.0381837285 0.0284896217 -0.794882017 0.0284986442 -0.7944109537 0.02147298 -0.0427489793
730295620.0 0.0224432332 -0.0387943378 0.0194213155 -0.7943303343 0.0194835796 -0.7940314935 0.0210139906 -0.0421776907
735295590.0 0.0227699636 -0.0384302838 0.0112701256 -0.7952251013 0.0111205375 -0.7951022031 0.0200911701 -0.0431166966
740295560.0 0.0214029277 -0.0386718223 0.0028194765 -0.7954684243 0.0025616428 -0.795082763 0.0192543008 -0.0425668026
745295530.0 0.0207364909 -0.0384673457 -0.005850309 -0.7943657462 -0.0054759563 -0.7944612478 0.0183453192 -0.0428715992
750295500.0 0.0200132499 -0.0381704391 -0.0146342066 -0.7948473818 -0.0151008585 -0.7944420007 0.0181482696 -0.0427964391
755295470.0 0.0194798957 -0.0383192597 -0.0231676692 -0.7950614882 -0.0234775217 -0.7946236623 0.0175555294 -0.0422508204
760295440.0 0.0188072934 -0.0377835855 -0.0329245245 -0.794339964 -0.0318864379 -0.7938216538 0.0169916868 -0.0437880885
765295410.0 0.0188700171 -0.0386669878 -0.0406272327 -0.7937082803 -0.0402386794 -0.7934755237 0.0163865208 -0.042767221
770295380.0 0.0180587446 -0.0380088356 -0.0486991888 -0.7925285373 -0.0489919236 -0.7934995867 0.0152724689 -0.0428834282
775295350.0 0.017274343 -0.0386119259 -0.0575583604 -0.7929279516 -0.0576578757 -0.791929443 0.0151134113 -0.0426327531
780295320.0 0.0165835028 -0.0377794317 -0.06624075 -0.7915377501 -0.0658391696 -0.7917434463 0.0146307632 -0.0431555361
785295290.0 0.0158474859 -0.038301038 -0.0748957086 -0.791288691 -0.0749753028 -0.7913452523 0.0129707592 -0.0422818357
790295260.0 0.0154603116 -0.038641822 -0.0833807388 -0.7906089391 -0.0829445332 -0.7907277664 0.0125334664 -0.0420855289
795295230.0 0.014600041 -0.0386147757 -0.0921852966 -0.7898541939 -0.0920469687 -0.7897298787 0.0121089815 -0.0431910261
800295200.0 0.013598273 -0.0379192861 -0.1000394507 -0.7877430585 -0.1004597733 -0.7884649112 0.0112773144 -0.0425277335
805295170.0 0.0129929522 -0.0384162341 -0.109084615 -0.7874848766 -0.1087850049 -0.7868506088 0.011673041 -0.0422068638
810295140.0 0.0130015849 -0.0379674821 -0.1171250447 -0.7855114045 -0.1173565607 -0.7853313974 0.0106614821 -0.0422201863
815295110.0 0.0118880912 -0.03754415 -0.1262407247 -0.784369588 -0.1253473569 -0.7846845951 0.0096193726 -0.0422756809
820295080.0 0.0115409894 -0.037650476 -0.1337558948 -0.782658216 -0.1343900931 -0.7830678257 0.0081216022 -0.041298671
825295050.0 0.0104844809 -0.0377827315 -0.1429070586 -0.7825032668 -0.1427282762 -0.7814460163 0.0089184212 -0.0408555605
830295020.0 0.0098720276 -0.0374811738 -0.1514090559 -0.7796753171 -0.1514339449 -0.7798602125 0.0077876912 -0.0417597277
