!Created with skrf (http://scikit-rf.org).
# Hz S RI R 50.0 
!freq ReS11 ImS11 ReS21 ImS21 ReS12 ImS12 ReS22 ImS22
300000.0 -0.7749559089 -0.1762377384 -0.0007387335 -0.000402921 0.0019127591 0.0011783409 -0.0446950146 -0.0774102008
5299970.0 -0.7862046573 -0.0091424299 4.00415e-05 6.96687e-05 2.61302e-05 1.59698e-05 -0.0487772223 0.014498146
10299940.0 -0.789019591 -0.0057513438 -6.13186e-05 -0.0001089386 3.24175e-05 -0.0001366109 -0.0432077698 0.032115491
15299910.0 -0.7942378694 -0.003198201 5.22017e-05 0.0001036559 -6.5255e-06 5.85849e-05 -0.0349254123 0.046547107
20299880.0 -0.8007547007 0.0006113861 -0.0001058949 -0.0001067904 -8.52864e-05 5.99664e-05 -0.0253081616 0.0585562405
25299850.0 -0.8077166741 0.0064608325 3.88656e-05 -1.91603e-05 1.69558e-05 -1.03693e-05 -0.0144062351 0.067770474
30299820.0 -0.8142768254 0.0138221349 -9.13492e-05 0.0002509875 -0.0003089228 6.4471e-06 -0.0028709619 0.0747245075
35299790.0 -0.8182669991 0.0233113405 -0.0001219208 4.29012e-05 0.0001047294 6.4315e-06 0.008422257 0.0793557742
40299760.0 -0.8237642705 0.0317712647 -9.95464e-05 0.0002115016 6.50174e-05 0.0002147403 0.0197045298 0.0826881866
45299730.0 -0.8264527525 0.0419155035 -3.3751e-05 -5.53172e-05 4.1451e-06 1.08103e-05 0.0302509747 0.0842631778
50299700.0 -0.8289576319 0.0516892659 -2.77612e-05 7.55338e-05 9.37456e-05 5.65538e-05 0.040220032 0.08473069
55299670.0 -0.8315213472 0.0614775968 -2.4246e-05 -0.0001427219 0.0001022534 -3.5001e-06 0.0495274421 0.0835417574
60299640.0 -0.8326182255 0.0717021665 6.50089e-05 0.0001695381 0.000132549 0.0001384834 0.0581995827 0.0815575695
65299610.0 -0.8336458711 0.0816852857 2.40203e-05 7.91856e-05 0.0002057738 6.16247e-05 0.0658054817 0.0794740615
70299580.0 -0.8336819221 0.0913062834 6.73418e-05 6.69724e-05 -5.76184e-05 -2.2861e-06 0.0724659525 0.0770624288
75299550.0 -0.8341808676 0.1020476162 -3.96375e-05 -3.68186e-05 0.0001640561 3.15735e-05 0.0791057608 0.0736196948
80299520.0 -0.8340795365 0.1121673216 -0.0001263765 -8.21522e-05 0.0001621832 -0.0001561091 0.0847136534 0.0701344822
85299490.0 -0.8329535563 0.1215268933 -5.06482e-05 0.0001966381 8.74085e-05 -7.21731e-05 0.0898955625 0.0666627271
90299460.0 -0.8326178729 0.1313254616 -8.68807e-05 -0.000137061 -0.0001081418 -4.88768e-05 0.0944244504 0.0629260298
95299430.0 -0.8316593278 0.1406036259 -0.0001756923 0.0003430989 8.45571e-05 0.0001108343 0.0984408456 0.0594150938
100299400.0 -0.8299759736 0.1500283803 -8.25459e-05 6.66051e-05 3.20574e-05 -3.8991e-05 0.1021517882 0.055454284
105299370.0 -0.8286117162 0.1593216415 -0.0001845023 0.0001373984 0.000166727 2.05057e-05 0.1058438531 0.0513212373
110299340.0 -0.8274432798 0.1685812166 -0.0001064992 0.0002278249 8.6359e-06 -0.0001500776 0.108152329 0.0475764062
115299310.0 -0.8258159354 0.1775784501 6.73058e-05 -0.0001255548 -1.79091e-05 -1.58417e-05 0.1108909984 0.0438715789
120299280.0 -0.8246385458 0.1863446747 0.0002324999 2.58994e-05 -2.5026e-06 1.70829e-05 0.1130995059 0.040050121
125299250.0 -0.8230544477 0.195715942 8.92128e-05 0.0002082038 0.0001877088 3.8112e-06 0.1152980821 0.0361341903
130299220.0 -0.8202125199 0.2051232491 1.14478e-05 0.0001767834 0.0001375986 0.0003916682 0.1169708594 0.0326499581
135299190.0 -0.8187897611 0.2141816052 -0.000208472 6.76229e-05 -0.0002066063 0.0001484323 0.1187544134 0.0290056045
140299160.0 -0.8169581727 0.2230504076 -4.41238e-05 9.6414e-05 6.17936e-05 1.72898e-05 0.1196365693 0.0259520044
145299130.0 -0.8146171277 0.2323740721 0.0001656738 9.53324e-05 9.19419e-05 -9.26512e-05 0.120894576 0.0222966484
150299100.0 -0.8125091431 0.2409398181 1.37793e-05 0.0001808094 6.73731e-05 6.13047e-05 0.1217458099 0.0190838353
155299070.0 -0.8099148964 0.2501358617 -0.0001189395 6.00997e-05 0.0002173802 2.03797e-05 0.122890748 0.0158777835
160299040.0 -0.8076364257 0.2589279779 -7.59633e-05 6.90939e-05 0.0001203657 -1.01093e-05 0.1229444768 0.0126747564
165299010.0 -0.8044768317 0.267804831 3.97896e-05 0.0001627025 0.0001057819 0.0002297509 0.1241161785 0.0094145487
170298980.0 -0.8014826259 0.276318618 -2.064e-05 0.000273445 -5.95582e-05 0.0001302911 0.1240605066 0.0064682414
175298950.0 -0.7993649074 0.2843639093 0.0001037047 0.000223039 9.62116e-05 0.0001196314 0.1245110595 0.0035844163
180298920.0 -0.7958072388 0.2928767187 -3.40364e-05 0.0001956587 0.000225341 4.07497e-05 0.1250190839 0.0004702867
185298890.0 -0.7925297811 0.3022288618 9.01176e-05 0.00012415 9.9177e-06 0.0001257474 0.1251026964 -0.0025223489
190298860.0 -0.7894700447 0.3112156062 -5.32031e-05 0.0001339823 2.75834e-05 0.0001276086 0.1250293504 -0.0051504218
195298830.0 -0.7865824889 0.3192525797 -1.61704e-05 9.78532e-05 -0.0001311857 0.0001211317 0.1248835711 -0.0078385739
200298800.0 -0.782941481 0.3280032002 1.53142e-05 0.0001567361 0.0002415689 -0.0001466341 0.1248666028 -0.0103432987
205298770.0 -0.7796376405 0.3364337224 0.0001024835 0.0003142744 0.0002084778 4.91854e-05 0.1248640649 -0.01313782
210298740.0 -0.776356263 0.3449589399 0.0002592551 0.0001753091 0.0001256787 2.8318e-05 0.1244223704 -0.0154390074
215298710.0 -0.7723077752 0.3531216098 3.12574e-05 0.00022369 -0.0001608753 0.0003619084 0.1242689101 -0.0181425084
220298680.0 -0.7685826337 0.3604381636 4.44611e-05 5.1914e-06 0.000148168 9.67152e-05 0.1239741943 -0.0202069167
225298650.0 -0.7648840993 0.3696272206 -2.70193e-05 0.0001762057 -9.525e-06 0.0002274365 0.1234538999 -0.0227990063
230298620.0 -0.7611853487 0.3771320331 0.0003147933 0.0001238792 6.26809e-05 -5.45763e-05 0.1227084079 -0.0250358977
235298590.0 -0.7570478851 0.3860603235 0.0001937789 0.0001354519 0.0001626294 7.35177e-05 0.1223490057 -0.0270764026
240298560.0 -0.752921253 0.3932803049 0.0002333162 0.0001069037 0.0002934772 0.0002132786 0.121698829 -0.0295728141
245298530.0 -0.7486791028 0.401601975 0.0002214792 0.000136366 6.05475e-05 0.0002715061 0.1210783725 -0.0315097926
250298500.0 -0.7447206334 0.4096212506 0.0001094211 5.4833e-06 0.0001654204 0.0003239007 0.1205105777 -0.0334890768
255298470.0 -0.7410898494 0.4171593188 9.0544e-06 -7.75915e-05 0.0003231229 0.0001477121 0.119903001 -0.0358383105
260298440.0 -0.7361504164 0.4250267766 5.54338e-05 0.0003164957 0.0001655701 0.0001955836 0.1192605945 -0.0377894809
265298410.0 -0.7317836388 0.4330867008 0.0002222243 1.63398e-05 6.70243e-05 -4.37446e-05 0.1188633642 -0.0399180262
270298380.0 -0.7275154769 0.4405534669 2.4786e-05 0.0002817418 -2.03868e-05 -0.0001342014 0.1179064711 -0.042103506
275298350.0 -0.7234002067 0.4478115069 7.37218e-05 0.0002064367 0.0002776052 0.0001272895 0.1172864852 -0.0438561672
280298320.0 -0.7184825368 0.4555733901 0.0001580576 -0.0001646471 0.0001403842 0.0001094224 0.1161990061 -0.0455600736
285298290.0 -0.7138620667 0.4630168459 0.0002002184 0.0002413296 3.1214e-06 -5.7804e-06 0.1158358738 -0.0474512988
290298260.0 -0.7086777558 0.4708833683 5.38124e-05 2.7778e-06 0.0001767183 0.0001660769 0.1147552542 -0.0491367789
295298230.0 -0.7040486632 0.4780969944 0.0001677053 0.0001582334 0.0003427514 0.0001437575 0.1140460057 -0.0511751843
300298200.0 -0.6991629475 0.4853864974 0.0001174024 3.95022e-05 0.0001944277 0.0001090829 0.1131364169 -0.0524923462
305298170.0 -0.6943542475 0.4927694615 7.7084e-06 0.0002570515 0.0002074369 0.0003142096 0.1125808496 -0.0545316641
310298140.0 -0.6890374458 0.4997601631 -2.133e-07 0.0001018082 5.72681e-05 0.0002013644 0.1112992937 -0.055852536
315298110.0 -0.6844781035 0.5070418302 0.0001038944 0.0002584785 0.0001437258 0.0001369289 0.1107124402 -0.0579253928
320298080.0 -0.6790780716 0.5141954001 9.25725e-05 7.25549e-05 0.0003035509 0.0003457352 0.1093946089 -0.0596096162
325298050.0 -0.6737061358 0.5213881574 0.0002274431 3.89076e-05 0.0001522921 4.53232e-05 0.1087803551 -0.0615338826
330298020.0 -0.6683162121 0.5279963406 0.000177499 0.0003193546 0.0002151911 1.9713e-06 0.1074474689 -0.0633897745
335297990.0 -0.6625915979 0.5351095785 -6.91748e-05 0.0001954875 0.000217672 0.0002374409 0.1062993293 -0.0650464661
340297960.0 -0.6578501877 0.5413781052 0.0003062101 8.59506e-05 0.0004195079 0.0001498506 0.1048600363 -0.066794651
345297930.0 -0.6521385301 0.5481507967 0.0004242723 3.35357e-05 0.0003398019 6.49879e-05 0.1036544625 -0.0678213149
350297900.0 -0.646343913 0.5550060091 -1.19259e-05 6.80067e-05 -4.98513e-05 0.0001717597 0.1022916465 -0.0694508121
355297870.0 -0.6411418832 0.5611718589 0.0002547394 -2.6955e-06 -4.40702e-05 0.0003890374 0.1010496331 -0.0704735128
360297840.0 -0.6346948346 0.5683776244 -2.571e-06 0.0001458469 0.0002092597 0.0001956079 0.1002036242 -0.0720885479
365297810.0 -0.629124873 0.5745596818 9.39154e-05 5.46832e-05 9.21258e-05 0.0001283965 0.0988310036 -0.0733218332
370297780.0 -0.62365082 0.5805904182 4.29366e-05 0.0001162296 0.0002951024 4.05138e-05 0.097295588 -0.0744222743
375297750.0 -0.6180825189 0.58689195 4.11592e-05 7.96156e-05 0.0001444903 0.0001709513 0.0963486096 -0.0758872317
380297720.0 -0.6119565447 0.5933671193 5.28661e-05 0.0001429446 0.0002861123 -4.73046e-05 0.0952215026 -0.0768783291
385297690.0 -0.6059628962 0.6000949532 0.0002885819 7.16682e-05 0.0002967932 7.47358e-05 0.0938784878 -0.0779510235
390297660.0 -0.5985022586 0.6052903657 0.0004744788 0.0001719882 4.77878e-05 0.0001550381 0.0924833625 -0.0790912662
395297630.0 -0.5927230366 0.6123442663 0.0002666715 0.0001404276 0.0001823159 0.0001453404 0.0913008887 -0.0806078243
400297600.0 -0.5868099668 0.6178045059 9.40585e-05 4.09412e-05 0.0004346906 0.0002191795 0.0902906571 -0.0814150078
405297570.0 -0.5804750453 0.6232204279 0.0003643186 0.0001264386 0.0003301226 0.0002308366 0.0890317905 -0.0826019286
410297540.0 -0.5741083582 0.629429278 0.0004533044 -2.28585e-05 0.0003218154 0.000109853 0.0873356233 -0.0833210725
415297510.0 -0.5677902633 0.6356499426 8.12315e-05 7.06853e-05 0.0003721153 3.6857e-06 0.0864995239 -0.0847251916
420297480.0 -0.5609385004 0.6409631804 0.0002196419 0.0001378393 0.0002814121 0.0001495861 0.0854182707 -0.0856710108
425297450.0 -0.5543273156 0.6465860318 -3.00849e-05 -0.0002388693 0.0003890388 0.0001037679 0.0836628916 -0.0872625366
430297420.0 -0.5478122619 0.6518914024 0.0004922531 0.0001645244 0.0002763256 0.0001912348 0.0827016734 -0.0878499972
435297390.0 -0.5417038506 0.6572540214 0.0003696876 0.0001344136 0.0003884203 2.56407e-05 0.0809804088 -0.0888248609
440297360.0 -0.5337914053 0.6628837777 0.0002107948 0.0001670788 0.0001420882 0.0001866426 0.0800278971 -0.0896225531
445297330.0 -0.5270604372 0.6678385665 0.0003088576 0.0002717673 9.91358e-05 3.66354e-05 0.0785749523 -0.0905953154
450297300.0 -0.5202632829 0.6732715108 0.0003284064 0.0001526668 0.0001534748 0.0003664715 0.0776587587 -0.0915268444
455297270.0 -0.5137316023 0.6785820291 1.9527e-05 0.0001956295 0.0001608013 0.0001697229 0.0759892362 -0.0921359494
460297240.0 -0.5059109926 0.6844185806 0.0005603363 7.9155e-05 0.0003369333 -2.00326e-05 0.0744356661 -0.0933444581
465297210.0 -0.4995603995 0.6893081912 0.0003720698 0.0001882597 0.0002261086 0.0002555844 0.0733126972 -0.0937475907
470297180.0 -0.491226075 0.6942681583 7.475e-05 0.000172159 0.0002043758 6.0004e-06 0.0716906409 -0.0945541907
475297150.0 -0.4845419243 0.6988337077 0.0002554343 0.0001659222 0.0003584474 0.0001531187 0.0707562125 -0.0953838017
480297120.0 -0.4770036546 0.7044442469 0.0004171033 0.0001031276 0.0002962194 0.0001415282 0.0692039978 -0.0961864981
485297090.0 -0.4703987487 0.7083782245 0.0003344049 7.95643e-05 0.0003287125 2.25351e-05 0.0677067739 -0.0971876519
490297060.0 -0.4619397299 0.7139572338 0.0003268311 3.68348e-05 0.0002791979 9.13261e-05 0.0663075999 -0.0978689133
495297030.0 -0.454795225 0.7177838621 0.0001743735 0.0002470843 0.0003351039 0.0001652146 0.0653125599 -0.0984770448
500297000.0 -0.4471814872 0.7219583083 0.0002826349 0.0002104836 0.0002607614 5.03148e-05 0.06389984 -0.0991701974
505296970.0 -0.439583159 0.7272354371 0.0003087402 6.6115e-05 6.59643e-05 2.50996e-05 0.0621824579 -0.0998650854
510296940.0 -0.4320648605 0.7313059829 0.000220121 6.84539e-05 0.0003956914 0.0001556798 0.0611010398 -0.100396853
515296910.0 -0.4244144782 0.7353871508 6.47325e-05 2.20283e-05 0.0001416131 -5.39112e-05 0.0596616251 -0.1011356763
520296880.0 -0.4161478534 0.7399178015 8.26561e-05 0.0001091933 0.0001635697 0.0002940126 0.0583878951 -0.1015656557
525296850.0 -0.4087661417 0.7441103457 0.0002975376 -2.83189e-05 0.0002337332 3.4587e-06 0.0567130394 -0.1023958483
530296820.0 -0.4013072298 0.7477494057 0.0002861496 -8.6075e-06 8.55426e-05 -3.4051e-05 0.0553815545 -0.103045691
535296790.0 -0.3927952289 0.7519921472 0.0002998756 0.000150763 0.0003354262 4.39605e-05 0.0541316081 -0.103130428
540296760.0 -0.3851425111 0.7557964601 0.0002988943 0.000134471 0.000113023 0.0002205117 0.052458296 -0.1038209305
545296730.0 -0.3776366738 0.7603661877 0.0002028664 3.87998e-05 0.0003705188 5.89549e-05 0.050970697 -0.1041217494
550296700.0 -0.3693827782 0.7639872384 8.57417e-05 -8.89723e-05 0.0001386828 0.0002056157 0.0497976202 -0.1046508399
555296670.0 -0.3611987677 0.7673682312 0.0004309858 0.0002227513 2.05051e-05 8.06109e-05 0.0478130911 -0.1056362076
560296640.0 -0.3535996494 0.770992589 0.0004377588 0.0002172072 0.0004188482 8.24209e-05 0.0469155988 -0.1057511583
565296610.0 -0.3456867008 0.7743374345 0.0001788628 3.47169e-05 0.0003422267 0.0001130285 0.0452440555 -0.1060621938
570296580.0 -0.336627785 0.7786543255 0.0003173828 8.09342e-05 0.0003899031 -8.87554e-05 0.0438477079 -0.1065221062
575296550.0 -0.3281415105 0.7815739135 0.0004358472 -6.6279e-06 0.0004320947 0.0001284372 0.042538259 -0.1067616928
580296520.0 -0.3214197752 0.7843744385 0.0004110098 0.0002197967 0.0002338609 -1.625e-06 0.0410466987 -0.107394164
585296490.0 -0.3124552794 0.7875926542 0.0003781276 0.0002185058 0.0004385216 7.9676e-05 0.0398226115 -0.1073556241
590296460.0 -0.303908955 0.7904544657 0.0002564409 -7.03612e-05 0.0004970163 8.27398e-05 0.0379063947 -0.1078622407
595296430.0 -0.2959841296 0.7938675074 0.0001584504 -6.81267e-05 0.0001753325 -3.68582e-05 0.0364758868 -0.1080706829
600296400.0 -0.2882793822 0.7967501739 0.0006159495 0.000281259 0.0003562653 1.0234e-06 0.0352435231 -0.1085060688
605296370.0 -0.2799235848 0.7995761884 0.0003870061 3.76359e-05 0.0003167302 6.29515e-05 0.0339028152 -0.1088670439
610296340.0 -0.2714656849 0.8030314927 0.0003477883 -5.33086e-05 0.0001127427 -3.97273e-05 0.032169292 -0.1090773844
615296310.0 -0.2628308685 0.8051470011 0.0005479711 0.0001838037 0.0004256068 0.0001058285 0.0309754671 -0.1093492117
620296280.0 -0.2554518637 0.8083564772 0.0003653538 2.23866e-05 0.0002564764 0.0001239211 0.0292569553 -0.109105059
625296250.0 -0.2477217569 0.8102661576 0.0004602425 0.0002397556 0.000348724 0.000122399 0.0278697957 -0.1094133312
630296220.0 -0.2388121511 0.8128189974 0.0004050369 -4.87449e-05 0.0003305009 5.65632e-05 0.0263371515 -0.1098455278
635296190.0 -0.2307175823 0.8156610861 0.0003947779 1.96366e-05 0.000380068 7.54583e-05 0.0248155624 -0.1096098222
640296160.0 -0.2216907399 0.8173465181 0.0003712793 0.0002330197 0.0002871 -9.86712e-05 0.0235607717 -0.1098278159
645296130.0 -0.2138256957 0.820267216 0.0003022009 8.68578e-05 0.0002787211 -0.0001872615 0.0218640344 -0.1098690959
650296100.0 -0.2054222051 0.8218161416 0.0002571304 0.0001048702 0.0001999972 -4.12465e-05 0.0205551621 -0.1099790854
655296070.0 -0.1973344188 0.8243892924 0.0004610778 -9.3688e-06 0.0003366169 -8.82029e-05 0.018792519 -0.1098784289
660296040.0 -0.1891026446 0.8263012532 0.0003612187 1.99812e-05 0.000387628 1.35228e-05 0.0174318371 -0.1101437806
665296010.0 -0.1813820333 0.8283625629 0.0004476635 3.51499e-05 0.0004225725 5.65136e-05 0.016462553 -0.1099435226
670295980.0 -0.1727950143 0.8305816816 0.0003267338 0.0001767001 0.0003159062 -0.0001367868 0.0145835707 -0.1101357655
675295950.0 -0.163904327 0.831773526 0.0002299153 -6.89802e-05 0.0003028438 -8.6907e-05 0.0132508824 -0.1099447729
680295920.0 -0.15599571 0.8336726076 0.0003138953 8.91222e-05 0.0005293961 0.0001586318 0.0119568937 -0.1100684407
685295890.0 -0.147657079 0.8356487287 0.0003621268 -0.0001098463 0.0003234496 0.0001892053 0.0104110847 -0.1097502969
690295860.0 -0.1392911035 0.8371518665 0.0003859431 0.0001635182 0.0004601637 5.09237e-05 0.0090442217 -0.1096888475
695295830.0 -0.131088002 0.8386920515 0.0003087756 -0.0002320996 0.0004112116 -9.86069e-05 0.0076004442 -0.1095295088
700295800.0 -0.1223222068 0.8396258671 0.0002714034 -6.60198e-05 0.0002163658 -6.36846e-05 0.0063479335 -0.1094637614
705295770.0 -0.1147099012 0.8411727295 0.0004331417 3.415e-07 0.0003822705 8.2305e-06 0.004760968 -0.1093931867
710295740.0 -0.106850341 0.8420689735 0.0002676124 1.36574e-05 0.0002743309 0.0001558717 0.0033158979 -0.1091969766
715295710.0 -0.0976912749 0.8437722944 0.00048301 -8.42713e-05 0.0005629134 -0.0001770186 0.0018793689 -0.1092401932
720295680.0 -0.0890539851 0.8443249467 0.0004633142 6.32839e-05 0.0003772478 -5.77654e-05 0.0005328551 -0.1092691591
725295650.0 -0.0814247417 0.846192476 0.0004492045 3.70099e-05 0.0003368242 7.9844e-05 -0.0009963519 -0.1084833252
730295620.0 -0.0736311385 0.8461775591 0.0002642734 -5.15003e-05 0.0005999275 2.76871e-05 -0.0024361495 -0.1084199991
735295590.0 -0.0656087673 0.8472793225 0.0003331461 2.70159e-05 0.0004405665 -4.101e-06 -0.0036793137 -0.108101955
740295560.0 -0.056933128 0.8476208547 0.00014687 0.0001621501 0.0003558808 -2.9224e-06 -0.00501296 -0.1078805035
745295530.0 -0.0488307249 0.8489156678 0.0002292004 2.44884e-05 0.0003459429 -8.6583e-06 -0.00683077 -0.1076959279
750295500.0 -0.0409881279 0.8490177938 0.0004763676 -4.71695e-05 0.0002442693 2.4172e-05 -0.0079468838 -0.1075834124
755295470.0 -0.0322745089 0.8501017573 0.0002771298 -3.9597e-06 0.0004652134 3.19849e-05 -0.0094384649 -0.1069380936
760295440.0 -0.0239830981 0.8505170881 0.000313639 7.021e-07 0.0004200336 -0.0001858796 -0.0106219562 -0.1065514536
765295410.0 -0.0159144888 0.8509023645 0.0004183003 -0.000130704 0.0005397637 -9.58922e-05 -0.0120293122 -0.1064386782
770295380.0 -0.0083581868 0.8503939775 0.0004870467 -4.64565e-05 0.000588029 4.19276e-05 -0.0138898243 -0.105878984
775295350.0 -6.8309e-05 0.8512649327 0.0004102309 -3.25626e-05 0.0004384319 -0.0001945737 -0.0146313964 -0.1056526329
780295320.0 0.008936158 0.8513361361 0.0003208094 -0.0001039769 0.0007973454 -2.9365e-05 -0.0159668394 -0.1051373754
785295290.0 0.0169945073 0.850975321 0.0005472581 -6.00515e-05 0.0004773489 -0.0001690031 -0.0176815233 -0.1046448243
790295260.0 0.0245221248 0.8507377483 0.0004317776 -0.0002233114 0.0004803373 3.47448e-05 -0.0189618728 -0.1041224213
795295230.0 0.0332217048 0.8505782811 0.0004599788 -0.000141431 0.0006338964 -0.0001225939 -0.0203694199 -0.1043017074
800295200.0 0.0413256148 0.8507572772 0.0004610651 -5.35066e-05 0.0002401744 -0.0001671457 -0.0216345725 -0.1034342528
805295170.0 0.0493242225 0.8504424739 0.000624115 -8.41792e-05 0.0004747911 -4.41579e-05 -0.0227170558 -0.103252442
810295140.0 0.0575546877 0.8507600275 0.0004218102 -0.0002566091 0.0005303558 0.0001478949 -0.024464508 -0.1023779721
815295110.0 0.0654578302 0.8497536932 0.0005897949 -0.0001539344 0.0005885151 -0.0003270317 -0.0257803214 -0.1020173257
820295080.0 0.0736810977 0.8487983173 0.0005184266 -0.0001480566 0.0003161683 -0.0001625322 -0.0270053227 -0.1007823552
825295050.0 0.0821800402 0.8482118759 0.0004045432 -4.15567e-05 0.0004901157 -7.44643e-05 -0.0279795617 -0.1005492465
830295020.0 0.0905375086 0.8480483111 0.0004806303 -0.0001482214 0.0003072023 -0.0002105357 -0.0295687525 -0.1002811559
835294990.0 0.0980659371 0.8463227772 0.0003974363 -6.81803e-05 0.0003148023 -0.0001729349 -0.0310310514 -0.0991249779
840294960.0 0.1069646878 0.8455730765 0.0003638252 -9.31388e-05 0.0004123829 -0.0001219323 -0.0319844501 -0.0991537038
845294930.0 0.1141857695 0.8442293607 0.0006734488 -0.0002466059 0.000323338 -3.61496e-05 -0.0335254455 -0.0979807832
850294900.0 0.1239979266 0.843370508 0.0002250099 -0.0003821266 0.0003208948 -0.0001879534 -0.0345936539 -0.097834109
