!Created with skrf (http://scikit-rf.org).
# Hz S RI R 50.0 
!freq ReS11 ImS11 ReS21 ImS21 ReS12 ImS12 ReS22 ImS22
300000.0 -0.2382089215 -0.0963901586 0.4661230593 0.0637901352 0.4676882908 0.0690807383 -0.2367306814 -0.1101661666
5299970.0 -0.2438925476 0.0070850094 0.4737855503 0.0052650402 0.4737892977 0.0058768877 -0.2441278372 0.0057673213
10299940.0 -0.2402676195 0.0198597143 0.4761853147 0.0061909423 0.4756473028 0.0066892245 -0.240876365 0.0182944365
15299910.0 -0.2358857677 0.0294555503 0.4793422187 0.0075910929 0.4793313622 0.0081259618 -0.2366130328 0.0273868056
20299880.0 -0.2306575085 0.0369992816 0.4842433323 0.008567428 0.4840224611 0.0083419048 -0.2321841347 0.035492152
25299850.0 -0.2247929402 0.0435337666 0.4893847118 0.0071542295 0.4892484971 0.0075305607 -0.2266690225 0.0413809015
30299820.0 -0.2188396131 0.0485425714 0.4954371217 0.0055371447 0.4948485434 0.0055055425 -0.2216006387 0.046898656
35299790.0 -0.2131545458 0.052765618 0.5000741346 0.0021964567 0.5004583562 0.0022684696 -0.2160911158 0.0511188614
40299760.0 -0.207484441 0.0556383384 0.5049491611 -0.0016508959 0.505277173 -0.0016686342 -0.2114972362 0.0546962793
45299730.0 -0.2025801262 0.0585377021 0.5103378185 -0.0069063063 0.5101381375 -0.0063324209 -0.2065878578 0.0572421161
50299700.0 -0.1974893637 0.0599963721 0.5139581162 -0.0116745957 0.5143974982 -0.0123031679 -0.2020045126 0.0597428175
55299670.0 -0.1936432174 0.0617832324 0.5176206181 -0.0181844201 0.518100771 -0.0180754919 -0.1983011767 0.0615042104
60299640.0 -0.1892553523 0.0623965941 0.5211531191 -0.0243055947 0.5215092589 -0.0239727952 -0.1945731608 0.0631849252
65299610.0 -0.1861169647 0.0637600716 0.5244621593 -0.0302058419 0.5248251982 -0.0305539125 -0.1912851813 0.0647643891
70299580.0 -0.182602751 0.0643932771 0.5267467856 -0.0369920237 0.5267974087 -0.0371453126 -0.1879175045 0.0656540945
75299550.0 -0.179652659 0.064909351 0.5286619803 -0.0443228516 0.5287374625 -0.0442997166 -0.1851241443 0.0668116589
80299520.0 -0.1772048849 0.0656621935 0.5309305796 -0.0512260462 0.5308017981 -0.050764159 -0.182672042 0.0671485342
85299490.0 -0.174780277 0.0658446148 0.5320330997 -0.0577396225 0.5319629617 -0.0577567698 -0.1803492227 0.0683697379
90299460.0 -0.1726444361 0.0665221712 0.5327257162 -0.0645927554 0.5333399376 -0.0647528744 -0.1776505875 0.0692689085
95299430.0 -0.1706542596 0.067106311 0.534105558 -0.0720457732 0.534048762 -0.0717672822 -0.1758291896 0.070238416
100299400.0 -0.1688470225 0.0676299654 0.5342588162 -0.0786262194 0.534260034 -0.0784122263 -0.1743010912 0.0705554145
105299370.0 -0.1669126067 0.0681424219 0.5345743516 -0.0853403309 0.5348757688 -0.085327209 -0.1720512619 0.0718038184
110299340.0 -0.1653306895 0.0684225555 0.5345187396 -0.0921231857 0.5349371058 -0.0925936723 -0.1706396769 0.0726321923
115299310.0 -0.1641094177 0.0684287826 0.5348968737 -0.0989331204 0.534937745 -0.0990464496 -0.1689928219 0.0732767797
120299280.0 -0.1627950883 0.0694783554 0.5346910592 -0.1056409521 0.5346434439 -0.1061667155 -0.1678725216 0.0742926406
125299250.0 -0.1616772546 0.0697828558 0.5341065267 -0.1123820243 0.5346249951 -0.1127459449 -0.1662785706 0.074760477
130299220.0 -0.1606158949 0.0705932212 0.5336643533 -0.1193001874 0.5338402175 -0.1194786579 -0.1652894548 0.0759614971
135299190.0 -0.1594585727 0.0710665934 0.5330763672 -0.1258236391 0.5327768293 -0.1260756776 -0.1643310328 0.0769937926
140299160.0 -0.1585383246 0.0723219968 0.5324587812 -0.1332271925 0.5325829553 -0.1325623552 -0.1627370797 0.0778265976
145299130.0 -0.1574393648 0.0728948765 0.5314198954 -0.1393769126 0.5311186605 -0.1390106252 -0.1621191297 0.0786912692
150299100.0 -0.1567068825 0.0735432366 0.5302981557 -0.1456802979 0.5302848064 -0.1456571269 -0.1607044559 0.0797228086
155299070.0 -0.156056249 0.0748404686 0.5288434938 -0.152711993 0.52925189 -0.1527411086 -0.1602700138 0.080915495
160299040.0 -0.1550426709 0.0753669932 0.5276160428 -0.1584338949 0.5276034882 -0.1590954009 -0.1590506198 0.082535334
165299010.0 -0.1544122635 0.0759604935 0.5264859056 -0.1651503755 0.5260632924 -0.1652429604 -0.1580758163 0.0830385698
170298980.0 -0.1537341022 0.0770578979 0.5241943745 -0.1716767472 0.5246222938 -0.1715799409 -0.156829914 0.0845650591
175298950.0 -0.1524429008 0.0782218848 0.5233133396 -0.177508532 0.5237352736 -0.1779361582 -0.1559501351 0.0856340556
180298920.0 -0.1519000241 0.0789957493 0.5214616429 -0.184252815 0.5214978838 -0.1840532776 -0.1550458094 0.0872014868
185298890.0 -0.1506894465 0.0802882442 0.5187834107 -0.1904843564 0.519707388 -0.1904254872 -0.1542534478 0.0879861548
190298860.0 -0.1502443273 0.0811389247 0.5171398729 -0.1965708051 0.5177793955 -0.1966162152 -0.1528273041 0.0893523036
195298830.0 -0.1495148911 0.0820943725 0.515515848 -0.2025534252 0.515635963 -0.202980728 -0.1520778246 0.0903070934
200298800.0 -0.14887208 0.0834070629 0.5136362172 -0.2083849325 0.5134096486 -0.2086590295 -0.1505946402 0.0923503091
205298770.0 -0.1480772864 0.0844795639 0.5116427428 -0.2146325974 0.5116715043 -0.2148326298 -0.1498179068 0.0928907614
210298740.0 -0.1475259955 0.0855472993 0.5094122595 -0.22080698 0.5091008035 -0.2210882688 -0.1492514945 0.0947072902
215298710.0 -0.1465519771 0.0866268826 0.5066444993 -0.2269008712 0.5069873949 -0.2264772219 -0.14820441 0.0959109624
220298680.0 -0.1460701607 0.0880193547 0.5043858856 -0.232967095 0.5044863693 -0.2331248805 -0.1471518082 0.0976864569
225298650.0 -0.1450707486 0.0896356583 0.5019363019 -0.2386570998 0.5016871665 -0.2382975924 -0.1463284029 0.0990630939
230298620.0 -0.1444324442 0.0905891473 0.4996370736 -0.2443465554 0.4995850471 -0.2446229059 -0.1449712714 0.1005319243
235298590.0 -0.1436078789 0.0915333836 0.4969869531 -0.2499306662 0.4969809142 -0.2501867274 -0.1439530228 0.101309477
240298560.0 -0.1431169101 0.0928833362 0.4943134683 -0.2558102159 0.4944007439 -0.2554282086 -0.143151665 0.1033450996
245298530.0 -0.1417920347 0.0942498402 0.4905245415 -0.261725603 0.4911809683 -0.2618689256 -0.1418921855 0.1047471851
250298500.0 -0.1413630339 0.095315644 0.4881062167 -0.2669808586 0.488493659 -0.2665171294 -0.1405543703 0.1059886018
255298470.0 -0.1406686649 0.0967158871 0.4850254339 -0.272799574 0.4853788942 -0.2726976346 -0.139502942 0.107276165
260298440.0 -0.1396629039 0.097781058 0.4825735001 -0.2780655792 0.4826539722 -0.2782672749 -0.1382889167 0.10896261
265298410.0 -0.1388734387 0.0996037952 0.4794614038 -0.2840501166 0.4793971507 -0.2840641671 -0.1373495678 0.1102199991
270298380.0 -0.137801557 0.1005198544 0.4759634341 -0.288950948 0.4767417722 -0.2892854584 -0.135882157 0.1121438049
275298350.0 -0.1371178766 0.1019804842 0.4730895119 -0.2951226856 0.473579539 -0.2948509482 -0.1349141114 0.1132879574
280298320.0 -0.1361220118 0.1030469121 0.4699581214 -0.299799705 0.469797023 -0.3003607776 -0.1334320783 0.1149456198
285298290.0 -0.1352428426 0.1048379309 0.4666390948 -0.3051877638 0.4666374934 -0.3054640586 -0.1324612814 0.1162812699
290298260.0 -0.1342935052 0.1057974643 0.4634839055 -0.310404957 0.4636821939 -0.3106923622 -0.1306250451 0.1180748802
295298230.0 -0.1333338456 0.1071630445 0.4605296398 -0.3159418781 0.4600145383 -0.3159793784 -0.129521938 0.1193855807
300298200.0 -0.1318693896 0.1084264576 0.4566897427 -0.3210425688 0.456933733 -0.3214472813 -0.1283607248 0.1206376837
305298170.0 -0.1309051641 0.1094934701 0.4536476146 -0.326555422 0.4536519523 -0.32677715 -0.1263843279 0.1223228031
310298140.0 -0.1298848485 0.1106852104 0.4495177816 -0.3318046517 0.449908719 -0.3322056316 -0.1253961696 0.1239311955
315298110.0 -0.1291763563 0.1120604437 0.4461878379 -0.3371405391 0.4460724051 -0.3371748372 -0.1237524167 0.1248370241
320298080.0 -0.1282547974 0.1133797307 0.4425006919 -0.3427689822 0.4424534984 -0.342339884 -0.1229781329 0.1263966878
325298050.0 -0.1271606693 0.11418584 0.4387216676 -0.3476881554 0.4386107172 -0.3475562206 -0.1215343547 0.1276943709
330298020.0 -0.1263039094 0.1155496412 0.434383637 -0.3522464972 0.4343972917 -0.3521672697 -0.1202603426 0.1289574706
335297990.0 -0.1251448731 0.1167655054 0.4304462873 -0.357129996 0.4302952593 -0.3572873304 -0.119052153 0.1302990209
340297960.0 -0.1247176236 0.1181720012 0.4262671579 -0.3621673466 0.426368447 -0.361922877 -0.1178435221 0.1318056382
345297930.0 -0.1240135121 0.1193514489 0.4221665268 -0.3661349688 0.421931166 -0.3662213712 -0.1160677182 0.1331551096
350297900.0 -0.1221066633 0.1207708105 0.4178617749 -0.3706084471 0.4182842076 -0.370912656 -0.1148372295 0.1348889237
355297870.0 -0.1217458715 0.1218859405 0.4141046062 -0.3754897698 0.4136442932 -0.3759601033 -0.1138148264 0.1362605841
360297840.0 -0.1202931324 0.1231930205 0.4095641734 -0.3800996337 0.4095876356 -0.3803218336 -0.1120484405 0.1378096066
365297810.0 -0.1191345178 0.1247139932 0.4056917264 -0.3845664188 0.4053033501 -0.3848955148 -0.1106596192 0.1395106413
370297780.0 -0.1178879288 0.1256744891 0.4013118433 -0.3889652082 0.4009154919 -0.3894241456 -0.1091961665 0.1408099765
375297750.0 -0.1166308636 0.1276701932 0.397455975 -0.3938826461 0.3968604846 -0.3938252585 -0.1077469386 0.1424421736
380297720.0 -0.1154091735 0.128507972 0.3929270674 -0.3976319376 0.3924822263 -0.3978705504 -0.105967125 0.1440005536
385297690.0 -0.1143070398 0.1297582368 0.3880894778 -0.4017780683 0.3879196798 -0.4022549881 -0.1046158929 0.1452365094
390297660.0 -0.1130934423 0.1309780401 0.3835870524 -0.406667711 0.3835688012 -0.4067589486 -0.1027149509 0.1462715369
395297630.0 -0.1117741368 0.1321897351 0.3795877772 -0.4105480497 0.3791430265 -0.4105759877 -0.1014441731 0.1479712493
400297600.0 -0.1106017236 0.1333936512 0.3743185553 -0.4145175469 0.3750113212 -0.4150896348 -0.1004573685 0.1490900733
405297570.0 -0.1093897076 0.1346897965 0.3700122294 -0.4187333266 0.370004205 -0.4190799364 -0.0985174503 0.1506400668
410297540.0 -0.1079576073 0.1356422509 0.3651511715 -0.4227419037 0.3655185945 -0.4227455922 -0.0968009169 0.1518594037
415297510.0 -0.1067059002 0.1374271486 0.3607608539 -0.4270072585 0.3609945709 -0.4266298124 -0.095456106 0.1533055766
420297480.0 -0.1052939375 0.1378537195 0.3559475666 -0.4311223453 0.3560219332 -0.430541035 -0.0931838708 0.1540753267
425297450.0 -0.1038504401 0.1391558522 0.3511638135 -0.4344086059 0.3518497922 -0.4345745444 -0.0916063419 0.1557177485
430297420.0 -0.1027779356 0.1406894174 0.3464191019 -0.4389397927 0.3469013183 -0.4388448349 -0.0902306532 0.1566124521
435297390.0 -0.1010781998 0.1416055538 0.3418205228 -0.4422866147 0.3419265611 -0.4419490509 -0.0884224982 0.1582604777
440297360.0 -0.0997923782 0.1423921994 0.33661343 -0.4459292062 0.3363925176 -0.4458988619 -0.086888248 0.1588680313
445297330.0 -0.0982360075 0.1438455035 0.3316522822 -0.4497972038 0.3317154978 -0.449691296 -0.0848557067 0.1603337917
450297300.0 -0.0969328578 0.1448031641 0.326680956 -0.4535571698 0.3271043854 -0.4533529066 -0.0833009016 0.1614196675
455297270.0 -0.0958599454 0.1457883691 0.3221788078 -0.4569336896 0.32267959 -0.4567566356 -0.081548014 0.1629050371
460297240.0 -0.0944690931 0.1469600984 0.3170350473 -0.4599016718 0.3166833305 -0.4600065358 -0.0796843838 0.1639422821
465297210.0 -0.0926654031 0.1479247324 0.3119037198 -0.4635486927 0.3119403544 -0.4638304748 -0.0784600045 0.1647178545
470297180.0 -0.0912833682 0.1490152626 0.3069001708 -0.4669770571 0.3071672983 -0.4669622294 -0.0769351156 0.165980577
475297150.0 -0.0899773379 0.1496462613 0.3014559406 -0.4700994243 0.3019225976 -0.4697846922 -0.0747017628 0.1671083562
480297120.0 -0.0882756222 0.150538642 0.2965871833 -0.4733397683 0.296683771 -0.4734815788 -0.0730998484 0.1685729962
485297090.0 -0.0868049757 0.151594106 0.2914564149 -0.4768256548 0.2917310054 -0.4765909586 -0.0712697925 0.1689699628
490297060.0 -0.0853372754 0.1521954562 0.2863814766 -0.4795552693 0.2861843097 -0.4799301395 -0.0694299859 0.1702005064
495297030.0 -0.0839705356 0.1536070374 0.2808699685 -0.4828491023 0.2805230687 -0.4828409046 -0.0674890261 0.1707022185
500297000.0 -0.0822961447 0.1543556441 0.2754747137 -0.4856749952 0.2757147743 -0.4858411572 -0.0658415469 0.1715413733
505296970.0 -0.0808914485 0.1551852859 0.2697194217 -0.4883289376 0.270339777 -0.4887343928 -0.064401561 0.172882374
510296940.0 -0.0794877596 0.1565306001 0.2647317293 -0.4920360006 0.2651123411 -0.4915652407 -0.0619495293 0.1736327454
515296910.0 -0.0783092502 0.1574394402 0.25902458 -0.4942450626 0.2597077912 -0.4943604582 -0.0602623562 0.174575007
520296880.0 -0.07643958 0.1579475324 0.2542281526 -0.4969798635 0.2542786452 -0.4969269879 -0.0581848547 0.1753795343
525296850.0 -0.0751952259 0.1587131568 0.2485995339 -0.5000618753 0.2486149634 -0.5003290106 -0.0562464785 0.176285623
530296820.0 -0.0735296163 0.1597066985 0.2435235723 -0.501932051 0.2435894885 -0.5026087513 -0.0548208576 0.176648584
535296790.0 -0.0721768225 0.1605889937 0.2378843407 -0.5044874298 0.2381953447 -0.5045162791 -0.0523210656 0.1773465392
540296760.0 -0.0703170262 0.1610570821 0.2321648062 -0.5078421021 0.2318302465 -0.5079285435 -0.0513900772 0.1784184761
545296730.0 -0.0689668675 0.1624838161 0.2267781421 -0.5098221077 0.2271162456 -0.5101814605 -0.0490670004 0.1789180676
550296700.0 -0.0676974546 0.162796809 0.2214295079 -0.5125239334 0.2219789228 -0.5125794441 -0.0472404655 0.1801681822
555296670.0 -0.0654342594 0.1636928778 0.2154441296 -0.5149202156 0.2158237209 -0.514885278 -0.0452973602 0.1807944145
560296640.0 -0.0641429275 0.1643047091 0.2101552999 -0.5170302773 0.2104463591 -0.516652438 -0.0432475787 0.1813439817
565296610.0 -0.0627282102 0.1651647539 0.2039951978 -0.5197948061 0.204166701 -0.5194095532 -0.041328264 0.1818453016
570296580.0 -0.060694343 0.1659286172 0.1989463106 -0.5212692602 0.1992533252 -0.5216161949 -0.0394003025 0.1829341793
575296550.0 -0.0594771 0.1669278249 0.1933820796 -0.5232972957 0.1935050676 -0.5234493169 -0.037091318 0.1832793225
580296520.0 -0.0579667275 0.1675288533 0.187656287 -0.5257013652 0.1873693302 -0.5258422731 -0.0352881877 0.1837155876
585296490.0 -0.0561036849 0.1677416896 0.1821593285 -0.5275710773 0.1817624477 -0.5271179485 -0.0335634189 0.183925228
590296460.0 -0.0547974288 0.1684527914 0.1761442014 -0.5295576913 0.1759260471 -0.5295297408 -0.0314008724 0.184782284
595296430.0 -0.0530073408 0.1697159533 0.1702806458 -0.5317263118 0.1704658237 -0.5314588865 -0.0292371749 0.1850715186
600296400.0 -0.0512531505 0.1700284404 0.1645361971 -0.5333225045 0.1648996437 -0.5331785185 -0.0275960265 0.1856760075
605296370.0 -0.0493168589 0.1708790671 0.1586603815 -0.5351231376 0.158934119 -0.5345577028 -0.0251926278 0.1859573588
610296340.0 -0.0479857072 0.1713652362 0.1531848913 -0.5366747776 0.1531452308 -0.536689639 -0.0229460426 0.1870334771
615296310.0 -0.0465533101 0.1721548318 0.1471119781 -0.5379250311 0.1472113411 -0.5383165261 -0.0211823609 0.1873345896
620296280.0 -0.0447496836 0.1722144682 0.1416767 -0.5391411667 0.1416905011 -0.5395847764 -0.0193049268 0.1872567932
625296250.0 -0.0427399909 0.1729928272 0.1349904675 -0.5413999608 0.135306675 -0.5412772472 -0.0172899894 0.1881030114
630296220.0 -0.0410450124 0.1733980388 0.12971856 -0.5425466432 0.1298402939 -0.5430014892 -0.0153045757 0.1882472997
635296190.0 -0.0396192323 0.1743495704 0.1238054438 -0.5434148688 0.1240166927 -0.5432767702 -0.0136177936 0.1885655879
640296160.0 -0.0378086836 0.1744979605 0.1181257334 -0.5450134891 0.1179396678 -0.5451729195 -0.0106723324 0.1886269273
645296130.0 -0.0361092367 0.1753056999 0.1116865175 -0.5462638575 0.1119347288 -0.5464032055 -0.0092926177 0.1886644502
650296100.0 -0.0344650431 0.1762222448 0.10662827 -0.5473302352 0.1067618793 -0.5472182449 -0.0073497002 0.1892136612
655296070.0 -0.0329021066 0.1759074247 0.1001905479 -0.5482153978 0.1000679176 -0.5486736451 -0.0048251128 0.1897484837
660296040.0 -0.0315158769 0.1770270001 0.09384637 -0.5493889139 0.0946215086 -0.5493358022 -0.003114467 0.1896706523
665296010.0 -0.0293565414 0.1770202952 0.0886322818 -0.5504024634 0.0888269611 -0.5502938333 -0.0011678318 0.1901251703
670295980.0 -0.0273720607 0.177824365 0.082746613 -0.5513591598 0.0827958178 -0.5513055587 0.0006638387 0.1900069174
675295950.0 -0.0257852652 0.1781714011 0.0762495044 -0.5520686556 0.076520348 -0.5525597203 0.0034214356 0.190368561
680295920.0 -0.0243869068 0.1786740147 0.0702265077 -0.5529433532 0.07025682 -0.5529454563 0.0053717437 0.19054132
685295890.0 -0.0224004947 0.178930819 0.0643401287 -0.5533132323 0.0644983554 -0.5539330313 0.0073301019 0.1908384492
690295860.0 -0.0203275259 0.1792120609 0.0584960395 -0.5537038658 0.0582605628 -0.5540305672 0.0099365345 0.1909111579
695295830.0 -0.0186421984 0.1794639299 0.052095642 -0.5546576805 0.0522740822 -0.5548985984 0.011112206 0.1907806595
700295800.0 -0.0165378938 0.1800829505 0.046314652 -0.5554964228 0.0463848481 -0.5555650833 0.0137619075 0.1901588571
705295770.0 -0.0151991582 0.1804320345 0.0402847237 -0.5553439365 0.0406299117 -0.5557225576 0.0154671509 0.1906369874
710295740.0 -0.0133370237 0.1806590919 0.0341729213 -0.5560895013 0.0346395817 -0.5560118218 0.0168520224 0.1909185616
715295710.0 -0.0115179087 0.1808297228 0.0280327606 -0.556165833 0.0286493188 -0.5564748099 0.0193799821 0.1901195141
720295680.0 -0.0098561965 0.1810150385 0.0224061614 -0.5564589155 0.0225520949 -0.5569859808 0.0222301127 0.1904802867
725295650.0 -0.0078809059 0.181479261 0.0158884015 -0.5566467641 0.0165467941 -0.5566976157 0.0236924012 0.1903393534
730295620.0 -0.0065326159 0.1813135801 0.0103764851 -0.5568838204 0.0103718184 -0.5571459515 0.0259493691 0.1897998039
735295590.0 -0.0042896636 0.1816753198 0.0048821426 -0.5570995908 0.0048122284 -0.5572198274 0.0277626618 0.1901108034
740295560.0 -0.002586545 0.1822262442 -0.0015432463 -0.5564024096 -0.0016734714 -0.5569076074 0.0301083239 0.1897857975
745295530.0 -0.0008536162 0.1819243802 -0.0074754747 -0.5564885305 -0.0074868002 -0.5572176407 0.0319898442 0.189848388
750295500.0 0.0007696401 0.1821332237 -0.0132747799 -0.55653239 -0.0132162934 -0.5567799777 0.0340006699 0.1890840036
755295470.0 0.0032154522 0.182692431 -0.0196726 -0.5566309853 -0.0194427334 -0.5567329102 0.0359395279 0.1892802741
760295440.0 0.0043222787 0.1828661855 -0.0255398021 -0.5561106467 -0.0253292476 -0.5563449274 0.0374541772 0.1887522724
765295410.0 0.0061002432 0.1826196417 -0.0312257685 -0.555502013 -0.0313288311 -0.5560538713 0.0405487855 0.1888625764
770295380.0 0.0084208866 0.1828432864 -0.0375557031 -0.5549674258 -0.0373549427 -0.5559275536 0.0425234501 0.1886269222
775295350.0 0.0099308997 0.1831475598 -0.0436970692 -0.5546138859 -0.043381279 -0.5551793144 0.0442239825 0.1876831572
780295320.0 0.011914786 0.1828641571 -0.0491414604 -0.5544878585 -0.0488035124 -0.55484978 0.0461453187 0.1879958127
785295290.0 0.0134247676 0.1834300398 -0.0553283856 -0.5533886224 -0.0555019556 -0.5538371059 0.0480511798 0.1872809788
790295260.0 0.0152704786 0.1830615587 -0.0613052447 -0.5531247398 -0.0612563476 -0.5536482667 0.0506175653 0.1869234917
795295230.0 0.017179459 0.1832162363 -0.0667359588 -0.5522062714 -0.0669876262 -0.5527100163 0.0526103342 0.1869118096
800295200.0 0.0191734017 0.183259574 -0.0732503952 -0.5519414168 -0.0734638797 -0.5519854938 0.0545377481 0.1862489223
805295170.0 0.0205286007 0.1831128841 -0.0789511717 -0.5505751268 -0.0789897108 -0.551235332 0.0562846994 0.1854561552
810295140.0 0.0224197199 0.1830747948 -0.0846374355 -0.5499933115 -0.0848842993 -0.5504400129 0.0586979873 0.1854364446
815295110.0 0.0244078006 0.1829112209 -0.09074969 -0.5487659554 -0.0910349085 -0.5490782661 0.0603706759 0.1846494915
820295080.0 0.0262533683 0.1826370056 -0.0968468602 -0.5479604341 -0.096897062 -0.5480264445 0.0623562854 0.184428817
825295050.0 0.0280635732 0.1829100264 -0.1027267177 -0.5465139093 -0.1029045947 -0.5466009196 0.0647959816 0.1839008188
830295020.0 0.0298687131 0.182769812 -0.1088409815 -0.5454730432 -0.1090026734 -0.5457316874 0.0664172521 0.1831860566
