!Created with skrf (http://scikit-rf.org).
# Hz S RI R 50.0 
!freq ReS11 ImS11 ReS21 ImS21 ReS12 ImS12 ReS22 ImS22
300000.0 -0.1003481099 -0.0721629089 0.6304110834 0.0672217462 0.624917572 0.0675283022 -0.1011477525 -0.0787864939
5299970.0 -0.1020940422 0.0128689447 0.6306437324 0.009950021 0.6306507484 0.0101985756 -0.1007747819 0.0128823467
10299940.0 -0.0970787991 0.0294690235 0.6339508187 0.0153534993 0.634208246 0.0157370671 -0.0957726525 0.0302142737
15299910.0 -0.0898625581 0.0425270065 0.640560318 0.0204747928 0.6406713607 0.0204419012 -0.0882248814 0.0434135333
20299880.0 -0.0816086399 0.0531764194 0.6483495076 0.0242456727 0.6484233697 0.024322405 -0.0798173885 0.0544985652
25299850.0 -0.0721460354 0.0621802807 0.6575174184 0.0248418562 0.6577931883 0.0252835807 -0.0697584717 0.0633648971
30299820.0 -0.0622056996 0.0686249569 0.6670230938 0.0245453237 0.6673073797 0.0243525706 -0.0597111103 0.0700661686
35299790.0 -0.0524900306 0.0736317483 0.6772966412 0.0212557466 0.6770291022 0.0216477077 -0.0498430251 0.0748728009
40299760.0 -0.0431088277 0.077266072 0.6862053706 0.017261753 0.6866988899 0.0177845406 -0.0403707241 0.0777703016
45299730.0 -0.0341288612 0.079197684 0.6950411119 0.0117550143 0.6951960342 0.0121385944 -0.0314601551 0.0797366029
50299700.0 -0.0256862606 0.0802043723 0.7038776879 0.0049756028 0.7037452884 0.0052454864 -0.0226384946 0.0809123054
55299670.0 -0.017659424 0.0802950371 0.7110014018 -0.0031824598 0.7105785314 -0.00263916 -0.0148143281 0.0806240293
60299640.0 -0.0098653095 0.0800809819 0.7169079438 -0.0114381891 0.7175706132 -0.0109736272 -0.0078179971 0.0795809078
65299610.0 -0.0037082336 0.0788259279 0.7232636047 -0.0203264926 0.7235925894 -0.019892229 -0.0013378046 0.0787781425
70299580.0 0.0027913228 0.0775637066 0.7283262398 -0.0294313904 0.7287225135 -0.0290057723 0.0047002257 0.0768297044
75299550.0 0.0081542876 0.0760484415 0.7326534131 -0.0388612525 0.7330257915 -0.0386941641 0.0100659989 0.0750765852
80299520.0 0.0130303459 0.0737894082 0.7369959402 -0.0490232545 0.7372863406 -0.0487820822 0.0147848088 0.0727132722
85299490.0 0.0175907606 0.0715271291 0.7398216313 -0.0582577385 0.7405129994 -0.0582310262 0.0192805275 0.069952017
90299460.0 0.0215685438 0.0687726385 0.7426609793 -0.0693644628 0.7431800223 -0.068917165 0.023310033 0.067848772
95299430.0 0.0258554427 0.0664820268 0.7455845393 -0.0790385469 0.7455938839 -0.0795309311 0.0271334327 0.0655931699
100299400.0 0.028969319 0.0646639093 0.7466527526 -0.0886282521 0.7472721241 -0.0888298159 0.0309803129 0.0625707578
105299370.0 0.0323126301 0.0621823412 0.7483076161 -0.0990953862 0.7487054465 -0.0992499204 0.0340651095 0.060936763
110299340.0 0.0347577587 0.0597565085 0.7500164325 -0.1087689616 0.7499670715 -0.1089535269 0.0359909972 0.0576447659
115299310.0 0.0375865166 0.0574523946 0.7505587069 -0.1191660284 0.7507638261 -0.1193802532 0.0390316712 0.0555241147
120299280.0 0.0397281228 0.0548989081 0.7511954926 -0.1294885918 0.751453946 -0.1294340714 0.0415744123 0.0528928788
125299250.0 0.0416645097 0.0521903885 0.7512686762 -0.1389547292 0.7517909178 -0.1388544508 0.0426806446 0.0500368508
130299220.0 0.0436746544 0.050589934 0.7510667088 -0.1493984899 0.7511034964 -0.1493827467 0.0450488096 0.0480521075
135299190.0 0.0455980144 0.0484182051 0.7514768674 -0.1587708131 0.7507072169 -0.1587909434 0.0469804041 0.0459139508
140299160.0 0.0470187219 0.0460924853 0.7507875371 -0.1688035655 0.7512176004 -0.1687627649 0.0478568479 0.0442678582
145299130.0 0.048268613 0.0437469891 0.7498107955 -0.1786915735 0.749796298 -0.1781403152 0.0494197873 0.0419403659
150299100.0 0.0497286134 0.0420938723 0.7483714502 -0.1876276678 0.7489776003 -0.1875294328 0.0510798492 0.0400382316
155299070.0 0.0505508716 0.03989038 0.7477166574 -0.1984421267 0.7475188314 -0.1983010362 0.0517557213 0.0382267974
160299040.0 0.0520664796 0.0382306299 0.7464132881 -0.2073684055 0.7455293093 -0.2074970577 0.0521579019 0.036294428
165299010.0 0.0525898151 0.0364081682 0.7446607299 -0.21683361 0.7449441477 -0.216741915 0.0535339298 0.0348350287
170298980.0 0.0535409931 0.0340049143 0.7431390327 -0.2263369249 0.7429372848 -0.2259834746 0.0542635627 0.0330448171
175298950.0 0.0538363189 0.0324495855 0.7417782161 -0.235871998 0.7409162271 -0.2355986482 0.0550628818 0.0316292323
180298920.0 0.0542857843 0.0307350026 0.7386074919 -0.2446769654 0.7389131722 -0.24454966 0.0554420244 0.0301040157
185298890.0 0.0558540182 0.0285830793 0.7365683859 -0.2538191695 0.736255285 -0.253632402 0.0560581232 0.028436893
190298860.0 0.0556101553 0.0273558299 0.7338743766 -0.2629978933 0.7341707925 -0.2627290964 0.0565336988 0.0262670774
195298830.0 0.0561853768 0.0252159878 0.7319400892 -0.2723034644 0.7322506851 -0.2716346298 0.0570774908 0.0253633262
200298800.0 0.056483167 0.0242276468 0.7291081555 -0.2808591063 0.7289399597 -0.2809160103 0.0570648261 0.0237714551
205298770.0 0.0569134952 0.0228108494 0.7256855045 -0.2900660585 0.7259955174 -0.2892259892 0.0575726654 0.0213968633
210298740.0 0.0571653653 0.0208165564 0.7228176763 -0.298117548 0.7231954965 -0.2977671346 0.0576651602 0.0214181369
215298710.0 0.0569981714 0.0197043372 0.7204704186 -0.3079875859 0.7199942893 -0.307435866 0.0579501966 0.0199888709
220298680.0 0.0574568018 0.0176769972 0.7164745905 -0.3158007585 0.7166040856 -0.3156804244 0.0574769593 0.0180181632
225298650.0 0.0577067715 0.0168116016 0.7141279359 -0.324530046 0.7140567655 -0.3242235259 0.0574701015 0.0165633318
230298620.0 0.0580314735 0.0157835092 0.7103883091 -0.3328305836 0.7108949516 -0.3328333464 0.0575455369 0.0152084222
235298590.0 0.0579160556 0.014624108 0.7065736654 -0.3415001033 0.7068539793 -0.3409602422 0.0577183991 0.0138358987
240298560.0 0.0578840092 0.0134667705 0.7034327604 -0.3495680896 0.7030727263 -0.3500303499 0.0576704553 0.0131272948
245298530.0 0.0579878653 0.0119869371 0.7001512806 -0.3581690399 0.6994938669 -0.3583519206 0.0583237669 0.010933532
250298500.0 0.0583353898 0.0112100988 0.6951626785 -0.3665540552 0.6947985353 -0.3661533937 0.0579655867 0.0106725953
255298470.0 0.0584815133 0.0095088886 0.6916277975 -0.3742042989 0.6916959493 -0.3741118326 0.0580288867 0.0089834614
260298440.0 0.0578981899 0.0082547645 0.6880216396 -0.3830909087 0.6877329331 -0.3822092069 0.0586484202 0.007809668
265298410.0 0.0588600601 0.0077224962 0.6831236861 -0.3910961849 0.6835217602 -0.3904934149 0.0581964489 0.0071020074
270298380.0 0.0586350682 0.0063322014 0.6797824938 -0.3978909568 0.679162824 -0.3985869492 0.0578501073 0.0058200534
275298350.0 0.0589711524 0.0052004301 0.6750166025 -0.406952963 0.6754910031 -0.4067921085 0.0582808501 0.0044876978
280298320.0 0.0585495297 0.0044377515 0.6710081684 -0.4148670272 0.6709593355 -0.4143914937 0.0582895566 0.0035257127
285298290.0 0.0587943479 0.0031681866 0.6665896598 -0.4222388932 0.6663783868 -0.4219739844 0.058641525 0.0023733344
290298260.0 0.0589284278 0.0021053505 0.66148458 -0.4300398049 0.6615307263 -0.4300376903 0.0586884085 0.0016723484
295298230.0 0.0592147084 0.0008645526 0.6578515299 -0.437494486 0.6573770545 -0.4372295296 0.0595812761 0.0001975538
300298200.0 0.058468005 -0.0002676296 0.6533139525 -0.444956911 0.6530787495 -0.4456306494 0.0587198741 -0.0008469927
305298170.0 0.0591109706 -0.0014257428 0.6474955548 -0.4536712726 0.6476211402 -0.4529587544 0.059695262 -0.0018028117
310298140.0 0.0584860841 -0.0022789918 0.6430452425 -0.4610022606 0.6434284876 -0.4602335487 0.0594145878 -0.0026274706
315298110.0 0.0585024174 -0.0041047913 0.6377502142 -0.4686591541 0.6382281067 -0.4685392155 0.0589548315 -0.0044332913
320298080.0 0.0584999037 -0.0049858991 0.6324086271 -0.4758105957 0.6325968147 -0.4759970408 0.0588009501 -0.0055237109
325298050.0 0.0578448015 -0.006044885 0.6272819195 -0.4836032499 0.6274038952 -0.4831503991 0.0583056961 -0.0065262322
330298020.0 0.0575230803 -0.0075040175 0.6215245151 -0.491345435 0.6217774839 -0.4906603691 0.0572890874 -0.0077506433
335297990.0 0.0572417378 -0.0085953732 0.6163437299 -0.4977759933 0.615519936 -0.4980442028 0.0567445759 -0.0080367991
340297960.0 0.0561140671 -0.0089417451 0.6097253839 -0.5051284988 0.6093944294 -0.5046524796 0.0570988667 -0.0085380428
345297930.0 0.0559983333 -0.0093280189 0.6037988672 -0.5119294759 0.6041078526 -0.512093529 0.056388663 -0.0097487492
350297900.0 0.055183636 -0.0109185871 0.59769666 -0.5184386459 0.5977659421 -0.5187970061 0.0559840635 -0.0098293094
355297870.0 0.0551449595 -0.0104627203 0.5921310494 -0.5251680024 0.5925670566 -0.5248189234 0.0555071511 -0.0106807693
360297840.0 0.0545922376 -0.0114889448 0.5872373573 -0.5314192688 0.5874087287 -0.5316216325 0.0552039363 -0.0109570476
365297810.0 0.0541404461 -0.0120542978 0.5807388161 -0.5383984747 0.5812307682 -0.5384700406 0.0547974596 -0.0116503399
370297780.0 0.0543556724 -0.0133115622 0.5745028573 -0.5448925705 0.5751767735 -0.544076695 0.0542969424 -0.0121667717
375297750.0 0.0538229816 -0.013838568 0.5687866243 -0.5512029153 0.5694978199 -0.5507378376 0.0541405085 -0.0127471231
380297720.0 0.0537088383 -0.0141908114 0.5626328428 -0.5576742237 0.5631119509 -0.5568992388 0.0536724262 -0.0138756268
385297690.0 0.0527565059 -0.0150869654 0.5560370055 -0.563573429 0.5559692405 -0.5634865962 0.0532349453 -0.0141821253
390297660.0 0.0524807982 -0.0153705684 0.5500627413 -0.5700919366 0.5500555747 -0.569566267 0.0528534281 -0.0153042911
395297630.0 0.0522206431 -0.0161619638 0.5439632569 -0.5758822515 0.5439043108 -0.5764807987 0.0530530845 -0.0156199801
400297600.0 0.0517720652 -0.016680533 0.5368746933 -0.5828341709 0.537779329 -0.5821116526 0.052399714 -0.0161313489
405297570.0 0.0512553386 -0.0172419058 0.530768995 -0.5880031775 0.530894177 -0.5877157906 0.0515862546 -0.0165731433
410297540.0 0.0513742921 -0.0181343687 0.5248538612 -0.594195069 0.5254880935 -0.594277685 0.0510162814 -0.0172190146
415297510.0 0.0512756951 -0.0188047652 0.5177494871 -0.6000904967 0.5186167509 -0.5999454763 0.0508825454 -0.0179671887
420297480.0 0.0511577457 -0.0190060916 0.5110557044 -0.6055642457 0.5115907678 -0.6055224303 0.0504922372 -0.0191464249
425297450.0 0.05036671 -0.0205083696 0.5050998132 -0.6110200236 0.5048903256 -0.6113520665 0.0496965632 -0.0187691263
430297420.0 0.049853179 -0.0207953741 0.4982464333 -0.6166273287 0.4981761261 -0.616347397 0.0493664605 -0.0203136933
435297390.0 0.0493786459 -0.0212782612 0.4903882105 -0.6225123761 0.4910814912 -0.6222799567 0.0499280168 -0.020627208
440297360.0 0.0495513776 -0.0215507405 0.484081739 -0.6275084804 0.4842032249 -0.6276262435 0.0489448197 -0.0214944593
445297330.0 0.0487908335 -0.022990551 0.478061655 -0.6331129889 0.4779120601 -0.6325725538 0.0491293346 -0.0222363254
450297300.0 0.0489526554 -0.0230329762 0.4707507566 -0.6381040404 0.4703566641 -0.6386905701 0.0483317573 -0.0229930027
455297270.0 0.0482247973 -0.0237504764 0.4625718116 -0.6435525664 0.4637258765 -0.6434561586 0.0480748576 -0.0232326846
460297240.0 0.047749413 -0.0243894684 0.4561902408 -0.6486116661 0.4564943084 -0.6488288691 0.0474994891 -0.0237401638
465297210.0 0.0478116592 -0.0248724707 0.4491221951 -0.6539470659 0.4490976222 -0.6542192725 0.0475699701 -0.024874516
470297180.0 0.0472061271 -0.0257929062 0.441360948 -0.658914126 0.4421126485 -0.6588191358 0.0471479111 -0.0253794691
475297150.0 0.0469485981 -0.0264401047 0.434552372 -0.6630509464 0.4343474851 -0.6630125864 0.0471306703 -0.0258312786
480297120.0 0.0461936569 -0.0261995845 0.4274227239 -0.668795324 0.4268057901 -0.6687611319 0.0470599625 -0.0261301009
485297090.0 0.0457418037 -0.0268897881 0.4203700496 -0.6727253241 0.4199114907 -0.6727839517 0.0463742282 -0.0271871414
490297060.0 0.0450826802 -0.0277248946 0.4128892913 -0.6782224889 0.4129024299 -0.6773427879 0.0460159978 -0.027117099
495297030.0 0.0444724089 -0.0281249798 0.404884168 -0.6820432933 0.4055971385 -0.6817924745 0.0452359547 -0.0278107646
500297000.0 0.0441441324 -0.0287712924 0.397056916 -0.6860346111 0.3972682044 -0.6861580624 0.0451090562 -0.0272941101
505296970.0 0.043987067 -0.029307587 0.3901414808 -0.6905402916 0.3899681299 -0.6906865172 0.044635509 -0.0283733357
510296940.0 0.0432867275 -0.0294536778 0.3823256942 -0.6953307306 0.3823659945 -0.6952129984 0.0446332386 -0.0282433792
515296910.0 0.0428874762 -0.0298057961 0.3743879863 -0.6996239581 0.3747432522 -0.6989744634 0.0439119446 -0.0289132699
520296880.0 0.0419961105 -0.0304752518 0.3666758919 -0.7037009991 0.3676276828 -0.7030074403 0.0434746487 -0.0291579282
525296850.0 0.0418374022 -0.0315862345 0.359227572 -0.7077599721 0.3595700154 -0.7072886963 0.0428424793 -0.0297075768
530296820.0 0.0413888776 -0.0312504296 0.3518539038 -0.7114928333 0.35180551 -0.7114766895 0.0427832199 -0.0303150454
535296790.0 0.0405154397 -0.0317715271 0.3437330467 -0.715036585 0.3443502343 -0.714430407 0.0421483373 -0.0312479534
540296760.0 0.0401044486 -0.0317079411 0.3356826663 -0.7191771747 0.3359691276 -0.7189198518 0.0406912603 -0.0304178451
545296730.0 0.0396913389 -0.0325994854 0.3275532785 -0.7225481316 0.3280508055 -0.7226444074 0.0405887486 -0.0313564861
550296700.0 0.0400124588 -0.0327138261 0.3198211393 -0.725412343 0.320272483 -0.7262524358 0.0399665442 -0.0314096518
555296670.0 0.038622682 -0.0329144302 0.3121279001 -0.7295900218 0.3127417136 -0.7294513234 0.0394436843 -0.0318420314
560296640.0 0.038547815 -0.0328209249 0.3041366057 -0.7332397602 0.3040571043 -0.7329102308 0.0390185257 -0.0325074335
565296610.0 0.0374683965 -0.0337620429 0.2959074365 -0.736144436 0.2964289822 -0.7363038393 0.0379320151 -0.0332126486
570296580.0 0.0370504921 -0.0339532688 0.2880497706 -0.7398432117 0.287412355 -0.7390552254 0.0378628553 -0.0324570811
575296550.0 0.0363841119 -0.034194589 0.2799123093 -0.7428409402 0.2798580755 -0.7426881516 0.0374091059 -0.0333993719
580296520.0 0.0361583121 -0.0344443974 0.2717133183 -0.7462213186 0.2720088196 -0.7456113245 0.036822104 -0.0341162723
585296490.0 0.0357910556 -0.035860747 0.2640850112 -0.7482744747 0.2638018555 -0.7483598623 0.0360197066 -0.0341680525
590296460.0 0.0355462885 -0.0354291573 0.2555679954 -0.7511241957 0.2554839256 -0.7511224183 0.0347370695 -0.0345479913
595296430.0 0.0349788388 -0.0352748067 0.2466582933 -0.7541794159 0.2469451407 -0.7540263677 0.0350688123 -0.0352781677
600296400.0 0.0340403096 -0.0365217583 0.238748409 -0.756841842 0.2389193901 -0.7565688664 0.0341687202 -0.0354478717
605296370.0 0.0339024307 -0.0364638979 0.2308794054 -0.7589022252 0.2305416109 -0.7594458561 0.0336017017 -0.0357064894
610296340.0 0.0331850756 -0.0370280704 0.2221681456 -0.7620346541 0.2229354924 -0.7617276617 0.0337737928 -0.0365111318
615296310.0 0.032789215 -0.0378131152 0.2135839875 -0.7642365731 0.2139090719 -0.7649154924 0.032893719 -0.0364593888
620296280.0 0.0319965669 -0.0378071289 0.2059226622 -0.7667781676 0.2061225399 -0.7663313517 0.0322421395 -0.0370075121
625296250.0 0.030955698 -0.0387129026 0.1978988936 -0.7696301915 0.1978040267 -0.7692259463 0.0324598334 -0.0371213776
630296220.0 0.0318538825 -0.0383614542 0.1881002705 -0.7710393628 0.1884575377 -0.7709591798 0.031613027 -0.0373704645
635296190.0 0.0299457684 -0.0391959681 0.1804389066 -0.7730662477 0.1805920176 -0.7725735334 0.0312448953 -0.0376533341
640296160.0 0.0294097013 -0.0390902141 0.1717391788 -0.7742308307 0.1722182462 -0.7742812818 0.0302952749 -0.0377755526
645296130.0 0.0291636999 -0.0389837807 0.1631572 -0.7761532143 0.1638556195 -0.7764164263 0.0301799396 -0.0380259354
650296100.0 0.0287205833 -0.0396968958 0.1544256126 -0.7778944966 0.1553193307 -0.7783862905 0.0302764077 -0.0393474794
655296070.0 0.027531387 -0.0402257143 0.1461018941 -0.7797165284 0.1471453403 -0.7801013924 0.0293026904 -0.0386128153
660296040.0 0.0266482764 -0.0407110059 0.138074597 -0.7815617851 0.1386715736 -0.7813765356 0.028977434 -0.0389255321
665296010.0 0.0271277642 -0.0403500208 0.1292060864 -0.7826633548 0.1296046701 -0.7830125917 0.0286749927 -0.0385865122
670295980.0 0.0249617216 -0.040367843 0.1206626299 -0.7840961118 0.1211452817 -0.784072494 0.0275804788 -0.0389239384
675295950.0 0.025260058 -0.0404611334 0.1126596399 -0.7855347063 0.1125933048 -0.7844418389 0.0264431737 -0.0393798992
680295920.0 0.0240238152 -0.0411286222 0.1034561461 -0.7863204318 0.1029053851 -0.7872940568 0.0264512191 -0.0386980685
685295890.0 0.023714807 -0.0403838306 0.095180007 -0.7873645546 0.0945651795 -0.7874626959 0.0257436459 -0.0391689796
690295860.0 0.023537802 -0.0407824739 0.0867633833 -0.7878724085 0.0863349758 -0.7889098065 0.0249878117 -0.0386523634
695295830.0 0.022693649 -0.0411173447 0.0787514269 -0.7895885639 0.0775938699 -0.7893453696 0.0244457742 -0.0390312142
700295800.0 0.0225014662 -0.0416855913 0.0694249991 -0.7899648865 0.0688952804 -0.7892642686 0.0237745188 -0.0384080805
705295770.0 0.0211762388 -0.0407135538 0.0604796359 -0.7905957275 0.0607117651 -0.7908884122 0.0230617103 -0.0390067335
710295740.0 0.0212048815 -0.0412563989 0.0522167766 -0.7919251801 0.0523899392 -0.7922313305 0.0228379294 -0.0397692424
715295710.0 0.0198771403 -0.0416073124 0.0438250094 -0.7921043352 0.0432477712 -0.7917821394 0.0223431202 -0.0394909424
720295680.0 0.0199116179 -0.0416563587 0.0352497996 -0.7930240747 0.0350174378 -0.7925881366 0.0217212743 -0.0391218276
725295650.0 0.0194834357 -0.0416142551 0.0260980563 -0.7928420897 0.0266398697 -0.7930007479 0.0202585186 -0.0390570229
730295620.0 0.0191030511 -0.0413478858 0.0178029366 -0.7922319019 0.0174908067 -0.7936562074 0.0196693954 -0.0398422958
735295590.0 0.0179021529 -0.0412833551 0.0090351837 -0.7932989169 0.009083994 -0.7928976875 0.0188114073 -0.0398826842
740295560.0 0.0171056464 -0.0414444639 0.0005281352 -0.7931441574 0.000518091 -0.793082003 0.0190586449 -0.0397762483
745295530.0 0.0168930681 -0.041652416 -0.0081534767 -0.7923583344 -0.0084238241 -0.7933276468 0.017905185 -0.0403395781
750295500.0 0.0161446546 -0.0416931023 -0.0169904369 -0.7927368175 -0.0167220166 -0.7932529415 0.0172809856 -0.0399024372
755295470.0 0.015889936 -0.0420536454 -0.0249598632 -0.7925514484 -0.0250971736 -0.7930518418 0.0174551968 -0.0407919209
760295440.0 0.0150495374 -0.0416737527 -0.0337689519 -0.7926419604 -0.0338098521 -0.7927758991 0.0164657463 -0.040669734
765295410.0 0.0142926902 -0.0420794202 -0.04275276 -0.791996162 -0.0428162438 -0.7920777084 0.0160096157 -0.0403669201
770295380.0 0.0133901069 -0.0422556859 -0.0517160676 -0.7915442327 -0.0514504052 -0.7916113546 0.0147675269 -0.0408549485
775295350.0 0.0128763628 -0.042777337 -0.0601555416 -0.7904753858 -0.0595323621 -0.7911307172 0.0135044346 -0.0405677198
780295320.0 0.0125910606 -0.0422808306 -0.0686874245 -0.7894521324 -0.0674498176 -0.7898854196 0.0135228644 -0.0414187937
785295290.0 0.0114183692 -0.0429205677 -0.0775406694 -0.7885646257 -0.0767057505 -0.7886592003 0.0136698264 -0.0407037078
790295260.0 0.0115075436 -0.0419877871 -0.0851450958 -0.788287762 -0.0844109741 -0.7880690205 0.0129331384 -0.0409992208
795295230.0 0.010757771 -0.0426470599 -0.0939902289 -0.7871996603 -0.0930397172 -0.7872523883 0.012484203 -0.0405801273
800295200.0 0.0096495202 -0.0418853926 -0.1033474563 -0.7857533101 -0.102288769 -0.7864254833 0.01184125 -0.0411397455
805295170.0 0.0092183661 -0.0424665067 -0.11163525 -0.7848965878 -0.111429126 -0.7853234994 0.0111530658 -0.0407739513
810295140.0 0.0081537038 -0.0427806697 -0.1194931196 -0.7836270488 -0.1194852962 -0.78377835 0.0111415343 -0.04026196
815295110.0 0.0079147397 -0.042984757 -0.1278777409 -0.7819973968 -0.1281337873 -0.7820522077 0.0100493496 -0.0404976417
820295080.0 0.0067190792 -0.0417567327 -0.1365468238 -0.7805248207 -0.1364036343 -0.7805506582 0.009376514 -0.0407707595
825295050.0 0.0068989798 -0.0420905863 -0.1444849494 -0.7784985115 -0.1448400913 -0.7792427228 0.0096675787 -0.0406504572
830295020.0 0.0061492888 -0.0417329636 -0.1541298351 -0.7775475565 -0.153288739 -0.7773629184 0.0095636812 -0.0400666818
