!Created with skrf (http://scikit-rf.org).
# Hz S RI R 50.0 
!freq ReS11 ImS11 ReS21 ImS21 ReS12 ImS12 ReS22 ImS22
300000.0 -0.0468188437 -0.0688695966 -0.0011340623 0.0008561629 -0.0010411401 0.0003295833 -0.7677278895 -0.1774541685
5299970.0 -0.0502676423 0.0144665965 -0.0001313477 5.3124e-05 -6.8858e-06 2.68133e-05 -0.7852548366 -0.0092779103
10299940.0 -0.0446177879 0.0327342974 0.0001243248 3.13725e-05 0.0002104451 0.0001734563 -0.7875835088 -0.0054778708
15299910.0 -0.0357795903 0.0473876542 3.765e-07 3.18e-05 5.62965e-05 -1.558e-05 -0.792948359 -0.0025562516
20299880.0 -0.0256804651 0.05918561 -1.89342e-05 -6.46356e-05 -5.60774e-05 3.40435e-05 -0.7998633823 0.0016744048
25299850.0 -0.0140979724 0.0685811104 3.44655e-05 -2.86813e-05 2.47461e-05 -0.0001689619 -0.8062195583 0.0080825082
30299820.0 -0.0028152819 0.0754391773 4.58196e-05 -8.1294e-06 2.4382e-05 -0.0002203319 -0.8121038962 0.0157811642
35299790.0 0.0091611823 0.0798097485 -0.0001452623 -0.0002192555 7.95287e-05 -0.0001440016 -0.817142356 0.0248831256
40299760.0 0.0206441425 0.0826902213 5.59006e-05 -1.72968e-05 -0.00012821 7.10545e-05 -0.8215521008 0.0336194699
45299730.0 0.0310817749 0.0838521735 -4.65907e-05 -2.42696e-05 -7.056e-07 4.08501e-05 -0.8240154841 0.0437917896
50299700.0 0.041604082 0.0835091409 -2.73784e-05 0.0001640095 -4.20083e-05 -9.39929e-05 -0.8268650795 0.0540225878
55299670.0 0.0509164711 0.0827448384 -8.94535e-05 1.38539e-05 -7.48824e-05 0.0002076058 -0.8286754761 0.0636708316
60299640.0 0.0596667573 0.0806354875 -9.59192e-05 4.50455e-05 2.34971e-05 -0.0001993509 -0.8295230255 0.0740453776
65299610.0 0.0678905221 0.0784681598 3.2947e-05 8.07791e-05 0.0002532043 -4.88868e-05 -0.8304262882 0.0835799627
70299580.0 0.0743590942 0.0749562845 7.45549e-05 0.0001364839 6.28896e-05 0.0001165011 -0.8309560103 0.0937260377
75299550.0 0.080899998 0.0717913238 8.17637e-05 0.0001305715 -1.6433e-06 0.0001230547 -0.830945966 0.1038078539
80299520.0 0.0869355196 0.0678762097 -0.0001564508 0.0001792472 -2.11929e-05 9.08149e-05 -0.8309545314 0.1139863417
85299490.0 0.0919137411 0.0639372081 -8.92363e-05 -1.12486e-05 0.0001313401 3.54504e-05 -0.8304490972 0.1232784721
90299460.0 0.0968290294 0.0599077455 0.0001629927 9.0124e-05 -4.31518e-05 0.0001714678 -0.8290167128 0.1325941695
95299430.0 0.1009030471 0.0561116194 -2.33303e-05 0.0001960312 -4.08208e-05 2.35821e-05 -0.8283306828 0.1425565235
100299400.0 0.1046737351 0.0520247632 6.98451e-05 -0.0004144686 8.36389e-05 0.000100835 -0.8272620558 0.15181298
105299370.0 0.1080251147 0.0478578254 -3.68576e-05 -6.43808e-05 0.0001127613 1.12868e-05 -0.8259238359 0.1610577724
110299340.0 0.1108162618 0.0436765675 -0.0001106303 -4.2603e-06 -3.07211e-05 1.36318e-05 -0.8243763404 0.1697144534
115299310.0 0.113386698 0.0398899305 5.29103e-05 0.0001619586 0.0001713149 -6.41424e-05 -0.8230358634 0.1790182592
120299280.0 0.11578408 0.0359697398 2.74957e-05 0.0002340899 -3.91105e-05 6.92955e-05 -0.8210164086 0.1880031555
125299250.0 0.1176369656 0.0320395124 -0.0001099563 0.0002673666 0.0001031765 1.23e-08 -0.8199273684 0.1975589671
130299220.0 0.1194196925 0.0278725037 8.34198e-05 0.0001416188 4.3504e-06 0.0002949223 -0.8178800946 0.2060861882
135299190.0 0.1209104853 0.0244332025 0.0001387577 7.35295e-05 6.87366e-05 -4.17827e-05 -0.8160173733 0.2152842732
140299160.0 0.1221268744 0.020760302 8.81114e-05 0.0001446424 -0.0001020278 -3.35116e-05 -0.8142563627 0.2234431106
145299130.0 0.1234696037 0.0173199419 -4.91069e-05 -0.0002321969 4.38605e-05 -9.56109e-05 -0.811796764 0.2326703798
150299100.0 0.1242940306 0.0136814392 -3.51304e-05 -4.15218e-05 0.0001463752 -5.2124e-06 -0.8097329335 0.241341193
155299070.0 0.1251481262 0.0106808627 7.12757e-05 -6.05953e-05 -0.0001019742 0.0001619685 -0.8073842428 0.2503198958
160299040.0 0.1256637473 0.0072245819 0.0002151024 -3.46942e-05 -8.38904e-05 -3.44082e-05 -0.8047784654 0.259078886
165299010.0 0.1264044323 0.0040184512 -1.43084e-05 0.0003815707 -1.6708e-06 9.19824e-05 -0.8019541038 0.2670539642
170298980.0 0.1263396217 0.00052846 -0.0002085669 6.78877e-05 0.0001518592 3.38041e-05 -0.8001767651 0.275853735
175298950.0 0.1268191198 -0.0022060443 4.20733e-05 6.09517e-05 6.55826e-05 0.0001441167 -0.7960042263 0.2847527345
180298920.0 0.1268043236 -0.0052696623 0.0001540426 0.0002876707 2.93207e-05 -0.0001237747 -0.7938639402 0.2932332365
185298890.0 0.1268973407 -0.0082853936 7.04434e-05 0.0001225264 -5.46135e-05 2.4544e-05 -0.7909646036 0.3019896231
190298860.0 0.1267807589 -0.0109369306 0.0001785258 -0.0001118612 -6.982e-07 -0.0002043382 -0.7870335322 0.3100162234
195298830.0 0.1270058655 -0.013432089 8.7639e-06 0.0001543879 -0.0001232961 6.93911e-05 -0.7842321565 0.3181236493
200298800.0 0.1269351854 -0.0166244164 0.0001338614 0.0001360924 -6.78477e-05 -0.0002295655 -0.7810485318 0.3267596028
205298770.0 0.1261595011 -0.0192446369 3.59637e-05 -0.0002263454 -4.7252e-06 0.0001498983 -0.7777694866 0.3353445414
210298740.0 0.1262349746 -0.0219356521 -5.49242e-05 -0.0001231811 -1.06837e-05 -6.92687e-05 -0.7740465604 0.343399346
215298710.0 0.1256046284 -0.0244290992 -2.78936e-05 7.87378e-05 -0.000116139 2.86274e-05 -0.7707089552 0.3510617009
220298680.0 0.1253008869 -0.0267961995 1.61469e-05 3.73066e-05 0.0001148663 7.38258e-05 -0.7666665538 0.3592089902
225298650.0 0.1245719444 -0.0292277203 0.0003282636 2.00013e-05 0.0001129508 9.01547e-05 -0.7633779375 0.3676945033
230298620.0 0.1240101809 -0.031667243 0.0001941794 0.0001716309 0.0001502103 -3.1597e-06 -0.7588445893 0.3756158098
235298590.0 0.1232965506 -0.0338029831 0.0001298685 -8.32726e-05 0.0001430962 -3.77243e-05 -0.755091254 0.3837379935
240298560.0 0.1228477363 -0.0361106313 0.0002911953 -0.0001313967 -1.56754e-05 6.33936e-05 -0.7511062381 0.3907844783
245298530.0 0.1219171725 -0.03860668 1.36955e-05 -0.0001304062 0.0002765532 4.63487e-05 -0.7476043888 0.3986255617
250298500.0 0.1210467418 -0.0405025141 0.0001968689 1.70918e-05 0.000180396 -2.1583e-06 -0.7429725832 0.4068381462
255298470.0 0.1204864468 -0.0424551285 4.4665e-05 -5.34064e-05 -2.81557e-05 0.0002693748 -0.738651777 0.4144534572
260298440.0 0.1198768444 -0.0449631527 0.0001946506 9.96852e-05 -0.0001584655 0.0001343035 -0.7341301477 0.4220528863
265298410.0 0.1186802275 -0.0470020458 2.25494e-05 0.0003061857 -3.33328e-05 -0.0001161924 -0.7296437394 0.4302154202
270298380.0 0.1178216744 -0.0490315812 -0.0002052509 2.54853e-05 0.0002163385 1.81434e-05 -0.7250034773 0.4380296386
275298350.0 0.1171094718 -0.0506465733 -5.51657e-05 0.0001464058 0.0001435253 0.0001314939 -0.7207220959 0.4454227766
280298320.0 0.115760653 -0.0526322523 6.28207e-05 0.0001910974 3.13511e-05 -0.00018964 -0.7159749411 0.4526420996
285298290.0 0.1150797276 -0.0547963871 8.92575e-05 0.0001285716 0.0001518009 0.0002239443 -0.7115153818 0.4607277391
290298260.0 0.113899531 -0.0564507988 5.47981e-05 0.0002614397 0.0002242432 -0.0001854475 -0.7065781941 0.4676483743
295298230.0 0.112854586 -0.0585317669 0.0002525903 -9.63189e-05 0.0001722097 0.0001225577 -0.7013971173 0.4754617461
300298200.0 0.1116495693 -0.0604236089 0.0001639678 3.82975e-05 7.84801e-05 -0.0001366054 -0.6967662067 0.4820696623
305298170.0 0.1108587997 -0.0622782063 3.24353e-05 -0.0001599438 -0.0001423453 0.0001136158 -0.6912130558 0.4898850606
310298140.0 0.1098113415 -0.0647404134 4.02729e-05 0.0001578257 4.97688e-05 -7.18333e-05 -0.6857614307 0.4969781814
315298110.0 0.1084102527 -0.0664055577 1.7015e-06 2.59395e-05 -0.0001340266 0.0001933313 -0.6813078458 0.5038911801
320298080.0 0.1072533807 -0.0683267565 -1.05232e-05 5.495e-05 3.94223e-05 4.33969e-05 -0.6762278853 0.5104044786
325298050.0 0.1051825686 -0.0703036768 0.0001939884 1.51829e-05 -0.0001043472 0.0001824699 -0.6700457892 0.5176049792
330298020.0 0.1038133666 -0.0715322795 0.0002760962 0.0001799389 0.0001940424 7.82778e-05 -0.6652212279 0.5244771485
335297990.0 0.1022659707 -0.0730704973 0.0001200456 0.0001353218 -3.9794e-06 -0.0001246818 -0.6594796673 0.5313150935
340297960.0 0.1009242583 -0.0744376973 0.0001284834 -7.1773e-06 0.0002025109 3.81726e-05 -0.6542810606 0.5380694349
345297930.0 0.0996865743 -0.0759818872 -0.0001136602 6.61257e-05 0.0001026713 6.53202e-05 -0.6487024447 0.5448385916
350297900.0 0.0980115606 -0.0776264066 0.0001095847 0.0002357383 0.0001730365 -0.0001646839 -0.6430567866 0.5512509329
355297870.0 0.0967726761 -0.0787257661 -1.6194e-06 -8.9099e-06 0.0001574492 8.7735e-05 -0.6370187066 0.5583468902
360297840.0 0.0953225324 -0.0800644051 0.0001813991 3.98474e-05 0.0002386435 9.00964e-05 -0.6303861841 0.5648073495
365297810.0 0.0939910399 -0.0817088614 2.63575e-05 0.0002826314 0.0001061202 -0.0001616935 -0.6260506056 0.5707154821
370297780.0 0.0923350178 -0.0829393852 3.22679e-05 1.18881e-05 1.96253e-05 2.28396e-05 -0.6193926879 0.5779017902
375297750.0 0.0910139988 -0.0842940825 9.44482e-05 -2.3635e-05 0.0002226883 9.2143e-06 -0.6132692506 0.5836395253
380297720.0 0.0896834804 -0.0852397401 -2.24047e-05 8.13705e-05 3.8985e-06 -2.20182e-05 -0.6070084464 0.5903405216
385297690.0 0.0882496146 -0.0866682535 9.42859e-05 -4.57224e-05 3.74011e-05 0.0002259224 -0.6013008189 0.596448651
390297660.0 0.0868195088 -0.0881081587 -6.88003e-05 0.0001489448 0.0001117849 0.000273728 -0.5946485352 0.6017073313
395297630.0 0.0854976839 -0.0891898988 9.64923e-05 9.27186e-05 -5.36526e-05 0.0001338349 -0.5884383847 0.6076655783
400297600.0 0.0835371052 -0.0904768412 0.0001444652 7.9811e-06 1.25492e-05 0.0001217099 -0.5828509846 0.6141227993
405297570.0 0.0822111543 -0.0917447349 0.0001384856 0.0001528858 4.62634e-05 7.30989e-05 -0.5755732175 0.6201265657
410297540.0 0.0813602814 -0.0929754757 0.0002740659 0.0002714397 5.11878e-05 6.47567e-05 -0.5693684473 0.6265037627
415297510.0 0.0794335245 -0.0940702732 0.0003162776 -4.99741e-05 8.643e-06 -3.25223e-05 -0.5630675018 0.6312448889
420297480.0 0.0775277407 -0.0954480742 4.17209e-05 2.72325e-05 0.0001723695 -1.88042e-05 -0.5559541341 0.637997982
425297450.0 0.0764663895 -0.0963816228 0.0002268286 0.0001775387 0.0002136586 0.0003228933 -0.5492091743 0.6426056844
430297420.0 0.074907176 -0.0976142113 -7.64091e-05 -5.32869e-05 8.61989e-05 4.14973e-05 -0.5428707123 0.6484537267
435297390.0 0.0732010595 -0.0983516168 -5.02274e-05 3.61382e-05 1.19839e-05 0.0001317051 -0.5365149568 0.6546063768
440297360.0 0.0716721439 -0.0996185734 9.97359e-05 0.0001784905 0.0002198055 6.08575e-05 -0.5298142431 0.6593195128
445297330.0 0.0701385311 -0.1006143138 0.0001298779 -4.74142e-05 0.0001404226 -7.2444e-06 -0.5227592064 0.6651657568
450297300.0 0.0688484997 -0.1015637311 0.0001058121 0.0001855765 0.0001295111 -7.31743e-05 -0.5158858469 0.6689243701
455297270.0 0.06716298 -0.1025561078 4.40721e-05 -3.565e-07 0.0001233752 8.51633e-05 -0.5093200229 0.674987726
460297240.0 0.0659263383 -0.1035464308 -4.40013e-05 3.7033e-05 0.0002161225 2.71e-07 -0.5023844822 0.6795970619
465297210.0 0.0642981916 -0.104343811 0.0003133978 0.0001474453 9.30913e-05 -9.05535e-05 -0.4951348714 0.6857168445
470297180.0 0.0626425151 -0.1051463041 -6.5465e-05 -0.0001516518 4.85345e-05 2.99662e-05 -0.4879056403 0.6901828005
475297150.0 0.0607751202 -0.1061817963 -0.0001198239 -1.69969e-05 -1.52728e-05 -1.85762e-05 -0.4813589512 0.6959251584
480297120.0 0.0597817617 -0.1066750224 -2.75364e-05 0.0001154234 8.2169e-05 0.0002388683 -0.474288815 0.7001317816
485297090.0 0.0578581776 -0.1076423468 0.0002335266 0.0001490051 0.0001077171 -2.06965e-05 -0.4672091772 0.7045076565
490297060.0 0.0568060926 -0.1084626436 5.4645e-06 8.04801e-05 -7.6614e-05 -3.00069e-05 -0.4599490721 0.7089553602
495297030.0 0.0550356681 -0.1091743019 5.31824e-05 -4.6923e-05 0.0001327369 9.77988e-05 -0.4520211267 0.7130870159
500297000.0 0.0532998715 -0.1099421267 0.0001291413 -5.97838e-05 0.0003049437 -4.16273e-05 -0.4452191038 0.7183593252
505296970.0 0.0518825429 -0.1107326675 4.56653e-05 3.987e-07 0.0002827221 -9.71704e-05 -0.4373111382 0.7223866547
510296940.0 0.0506106719 -0.1111399251 -8.64444e-05 -0.0002015203 6.78891e-05 8.131e-07 -0.4303579885 0.7277755355
515296910.0 0.048645303 -0.111629513 0.0004011057 7.7341e-06 0.0001303037 -2.13268e-05 -0.4231328707 0.7310278637
520296880.0 0.0473289423 -0.1126015516 6.92307e-05 3.63525e-05 0.0002973071 8.15924e-05 -0.4148212055 0.7356081384
525296850.0 0.0455460868 -0.1130124893 -3.90053e-05 -5.4469e-05 0.0002043838 1.98652e-05 -0.4081040941 0.7397334468
530296820.0 0.0439556114 -0.1134449294 -1.09333e-05 1.22153e-05 0.0001201723 -2.03001e-05 -0.4005035088 0.7430997601
535296790.0 0.0427663867 -0.1139892462 0.0002052187 6.29624e-05 -1.98131e-05 1.49836e-05 -0.3934539883 0.7476702913
540296760.0 0.0412003072 -0.1146705947 2.66137e-05 4.89439e-05 0.0003313004 0.000101819 -0.385306558 0.7513523331
545296730.0 0.0393289499 -0.1145448599 5.25495e-05 0.0001250238 8.53696e-05 0.0002986043 -0.3775341893 0.7554327174
550296700.0 0.0379224638 -0.1152725355 0.0001394564 0.0001058587 0.0001442267 -0.0001040096 -0.3699935243 0.7589178417
555296670.0 0.0361965888 -0.1156143111 0.0002775916 -3.781e-06 9.92634e-05 8.94318e-05 -0.3626045167 0.7621237179
560296640.0 0.0345921566 -0.1158153433 0.0001232466 0.0001429626 0.0001209388 -6.07371e-05 -0.3540537282 0.7668001549
565296610.0 0.0327384903 -0.1162252028 0.0002008126 7.7206e-06 0.0002925517 -3.66354e-05 -0.3470845247 0.770060677
570296580.0 0.0313911315 -0.1163700545 3.68091e-05 -6.58807e-05 9.88352e-05 -0.0001173661 -0.3383351886 0.7730767061
575296550.0 0.0297118965 -0.1170628674 0.0001398648 -7.03202e-05 9.20579e-05 -0.0001003956 -0.331000923 0.7762719101
580296520.0 0.0284146021 -0.1169161574 7.30212e-05 0.000128401 0.0002153262 2.8288e-06 -0.3235818122 0.7792604788
585296490.0 0.0268474873 -0.117011108 7.18578e-05 1.72328e-05 0.0002379882 -5.23683e-05 -0.3152142585 0.7835327657
590296460.0 0.0252547125 -0.1170473231 0.0001568812 8.48374e-05 0.0001558872 7.37282e-05 -0.3076600384 0.7857674779
595296430.0 0.023328517 -0.1174149896 8.74092e-05 -4.87959e-05 -7.57658e-05 1.729e-07 -0.2998231846 0.7894296846
600296400.0 0.0218152375 -0.117640261 3.28808e-05 -4.54948e-05 0.0001313009 -2.16335e-05 -0.2919431203 0.7915305245
605296370.0 0.0200847535 -0.1175633849 6.67097e-05 -5.87983e-05 0.0001563868 -0.0001021159 -0.2838358507 0.7950103209
610296340.0 0.018756059 -0.1175133678 0.0001083755 0.0002228022 8.88931e-05 -2.0797e-05 -0.2758705308 0.7978720384
615296310.0 0.0171283889 -0.117527456 6.95993e-05 1.78101e-05 2.30786e-05 -3.68881e-05 -0.267456796 0.8006902288
620296280.0 0.0152474047 -0.1174670876 0.0001969083 -0.0001707769 0.0002437727 -0.0001304979 -0.2595656824 0.8033548887
625296250.0 0.0135702823 -0.1177349938 0.0002838167 0.0001233302 0.0001689973 -0.0001578757 -0.251057246 0.8052835713
630296220.0 0.0119505622 -0.1173470535 2.13383e-05 -0.0001573475 0.0001345786 -4.51569e-05 -0.2434182693 0.8078533133
635296190.0 0.0102533105 -0.1172132866 -5.38301e-05 1.06425e-05 0.0001020274 -6.98654e-05 -0.2356852484 0.8097130184
640296160.0 0.0084871603 -0.1171758495 0.0001517323 0.0001696858 0.0003746464 -4.34176e-05 -0.2267186886 0.8122154897
645296130.0 0.0072131159 -0.1168179835 0.0001397133 3.97401e-05 0.0003409141 0.0001374998 -0.2189834512 0.8143743502
650296100.0 0.0052898187 -0.1168209516 0.0001591506 -0.0001736812 0.0001043267 0.0001292684 -0.2102421911 0.8167428816
655296070.0 0.0036820546 -0.1168173226 0.0002656334 -6.65842e-05 0.000100464 -0.0001171007 -0.2031847528 0.8188826115
660296040.0 0.0020269338 -0.1163478034 9.51456e-05 1.37739e-05 0.0001914768 4.18528e-05 -0.1937523747 0.8209151441
665296010.0 0.0004983023 -0.1162283146 0.0001450231 -4.909e-05 0.0002708382 -0.0002087676 -0.1858751227 0.8228403231
670295980.0 -0.0013326667 -0.1161236065 1.49007e-05 0.0001236897 5.55489e-05 7.6257e-06 -0.1782608042 0.8243148924
675295950.0 -0.0030465929 -0.1159072463 0.0003263587 -0.000140179 0.0001554253 -0.0001247152 -0.1696381292 0.8264677083
680295920.0 -0.004869103 -0.1151896735 0.0002089313 1.94758e-05 -3.96898e-05 7.12313e-05 -0.1612590401 0.8278067814
685295890.0 -0.0065655441 -0.1147280815 0.0001129427 -7.6466e-05 6.98148e-05 -4.198e-07 -0.1529523049 0.8295665193
690295860.0 -0.0079025333 -0.1144754605 0.0001602965 -0.0001775219 0.0001935127 -0.0001377339 -0.1451342247 0.8314489379
695295830.0 -0.0098785877 -0.114365871 0.0002898762 -5.67377e-05 0.0001556535 2.99575e-05 -0.136672794 0.8329554057
700295800.0 -0.0114111305 -0.1137336744 8.65678e-05 7.0281e-06 0.0002069984 1.34561e-05 -0.1286002813 0.8337422304
705295770.0 -0.0133862104 -0.1133236524 -2.7268e-06 -0.0002415127 7.31581e-05 5.78332e-05 -0.1201382348 0.8354516073
710295740.0 -0.0149750106 -0.1129825022 3.47532e-05 -5.95029e-05 0.0001116329 -6.33279e-05 -0.1118202838 0.83600885
715295710.0 -0.0163059615 -0.1126398198 0.000209183 -9.8105e-06 7.05762e-05 -0.0001909134 -0.1030478823 0.8371108099
720295680.0 -0.0181042988 -0.1122953796 0.0003434468 -7.69852e-05 -8.2986e-06 -6.81995e-05 -0.0952591899 0.8376668671
725295650.0 -0.0196794226 -0.111240323 0.0002249252 -0.0002069992 1.40196e-05 -0.0002609547 -0.0868649159 0.839105164
730295620.0 -0.0219859724 -0.1109539325 -0.0001017678 -5.4181e-06 9.01273e-05 0.0002187644 -0.0788372554 0.8403070865
735295590.0 -0.0232412628 -0.1102847902 0.0001808884 2.45463e-05 0.0001122199 5.15841e-05 -0.0697412651 0.8406929245
740295560.0 -0.0251321448 -0.1101303836 4.91796e-05 -0.0002873219 0.0001040608 -0.0001219224 -0.0612124634 0.8412865589
745295530.0 -0.0265509507 -0.109331303 -0.0001306755 9.74016e-05 0.0002673119 -0.0001378083 -0.0532346585 0.8414969018
750295500.0 -0.028534201 -0.1085248612 0.0001041536 0.0001129277 6.72892e-05 0.0001028892 -0.044273388 0.8421543599
755295470.0 -0.0301230954 -0.1081893781 0.0003967245 8.2595e-06 0.0001455263 0.0001171842 -0.0362819702 0.8430910587
760295440.0 -0.0313315431 -0.1072026898 0.0001117443 -0.0001479001 6.69819e-05 -5.97824e-05 -0.0277562379 0.8426238874
765295410.0 -0.0330439424 -0.1068719921 5.7208e-06 3.18264e-05 0.0002881451 -4.858e-05 -0.0193192983 0.8432335853
770295380.0 -0.0349356051 -0.1060249006 0.0001667883 -0.0001943974 0.0001329253 3.53266e-05 -0.0112168063 0.843027926
775295350.0 -0.0366148864 -0.1055174737 0.0002178227 -4.77185e-05 4.93745e-05 -3.73104e-05 -0.0030184042 0.8431990604
780295320.0 -0.0380195405 -0.1046400374 0.0002880336 -4.87298e-05 0.0001348568 -5.74034e-05 0.0057273965 0.8438555502
785295290.0 -0.039713277 -0.1040753439 0.0001162577 -8.37516e-05 0.0001861155 4.17278e-05 0.0137681447 0.8433271292
790295260.0 -0.0413644134 -0.1035164164 0.0002392138 -6.71337e-05 0.0001432512 -0.0001395336 0.0218294397 0.8430131388
795295230.0 -0.0429946466 -0.1027347395 0.0001189769 2.44973e-05 0.0001435666 -5.19086e-05 0.0298211962 0.8421641606
800295200.0 -0.0447866077 -0.1022241175 0.0001652911 -0.0001138141 0.0001239057 -7.18583e-05 0.038700495 0.8422847432
805295170.0 -0.0460007713 -0.1012471099 0.0001636493 -0.0002822927 0.0002976631 0.0001249002 0.0477953084 0.8419964039
810295140.0 -0.0479557049 -0.1001021476 0.0001486768 6.96556e-05 5.66022e-05 0.0001249399 0.0561021618 0.841050292
815295110.0 -0.0493995063 -0.0997797968 0.0003880473 -7.8756e-05 0.0001813471 3.17374e-05 0.0633185156 0.8409885241
820295080.0 -0.0509214604 -0.0987623935 0.0003193692 0.0002409921 0.0002255086 0.0001751424 0.0717099578 0.8405437196
825295050.0 -0.0526729964 -0.0979961716 -0.0001390256 -6.20839e-05 0.0003032213 -2.60416e-05 0.0806487926 0.8392491009
830295020.0 -0.0538814501 -0.0973257298 9.48933e-05 -0.0001175801 0.0001917965 -0.0001130002 0.0883166182 0.837802648
835294990.0 -0.0556207323 -0.0966460787 0.000259242 -0.000117217 0.0002149434 -0.0001706312 0.0970660971 0.8381040891
840294960.0 -0.056797109 -0.0955819048 0.0006421889 -0.0001677141 0.0001268636 -3.63816e-05 0.105765377 0.836987222
845294930.0 -0.0585206042 -0.0944849155 0.0002236251 -0.0003115019 0.0001322536 -0.000102119 0.113832861 0.8357829413
850294900.0 -0.0599447748 -0.0937110975 0.0002634623 -0.0001816793 7.8603e-05 3.26276e-05 0.1216969059 0.8352942869
