!Created with skrf (http://scikit-rf.org).
# Hz S RI R 50.0 
!freq ReS11 ImS11 ReS21 ImS21 ReS12 ImS12 ReS22 ImS22
300000.0 -0.239563435 -0.0929528122 0.4713443033 0.0626550908 0.4696564221 0.0585973028 -0.2378694237 -0.0989955737
5299970.0 -0.2451752145 0.0063347617 0.4751472329 0.0053578079 0.4748524404 0.0051586061 -0.2410415146 0.0072858606
10299940.0 -0.2418432956 0.0176093927 0.4766586938 0.0062227295 0.476619874 0.0062059421 -0.2376061363 0.0204648095
15299910.0 -0.2373414337 0.0268289532 0.4801814594 0.0075563907 0.4805297398 0.0075592331 -0.2330619473 0.029996561
20299880.0 -0.2327362851 0.0339761577 0.4852009538 0.0080790799 0.4851392836 0.0083321743 -0.2279962211 0.0379587929
25299850.0 -0.2276545754 0.040100423 0.4902328417 0.0073683179 0.490136184 0.0072172649 -0.2219609589 0.0449396963
30299820.0 -0.2225668907 0.0449696206 0.4958168094 0.0050655226 0.4955342749 0.0050005365 -0.2162755269 0.0500140052
35299790.0 -0.2175954053 0.0490587822 0.5006849244 0.0014555614 0.5007750236 0.0016380905 -0.2106310316 0.0545538546
40299760.0 -0.2127352457 0.0524253815 0.5060456692 -0.0025426064 0.5061786948 -0.0024124874 -0.205176927 0.0574996333
45299730.0 -0.2079287806 0.0547170175 0.5104267088 -0.0067955786 0.5109266622 -0.0068490013 -0.2002816451 0.060399866
50299700.0 -0.2036766426 0.0567615082 0.5150017557 -0.0125513804 0.5147890793 -0.0123760457 -0.1955777199 0.0624836598
55299670.0 -0.199873502 0.0583210419 0.5183469009 -0.0191110384 0.5186233802 -0.0184451819 -0.1915495601 0.0642976741
60299640.0 -0.1958416476 0.0599267324 0.5218242721 -0.0247331874 0.5220913665 -0.024654656 -0.1872020977 0.0652802014
65299610.0 -0.1929422947 0.0608970341 0.524846571 -0.0313589054 0.5248982987 -0.0311678184 -0.1839129875 0.066458128
70299580.0 -0.1901204838 0.0621524154 0.5272491341 -0.0377962526 0.5271359093 -0.0377020871 -0.1810356826 0.0675563488
75299550.0 -0.1870756371 0.0631135533 0.5290143924 -0.0446809914 0.5290877486 -0.0444927227 -0.1778624803 0.0684844845
80299520.0 -0.184660542 0.0636355448 0.5308138067 -0.0516625761 0.5309678129 -0.0516648519 -0.175199667 0.0690506005
85299490.0 -0.1826718184 0.0640836278 0.531789285 -0.0579181942 0.5322063245 -0.0579658172 -0.1730946268 0.0695245513
90299460.0 -0.1801737065 0.0647926644 0.5327163835 -0.0651081378 0.5332564439 -0.0655190784 -0.1701505606 0.0704117462
95299430.0 -0.1780031925 0.0653581565 0.5341217597 -0.0720005097 0.5340544832 -0.0722300284 -0.1681103302 0.0711431051
100299400.0 -0.1768960125 0.0663444716 0.5341554181 -0.0786248192 0.5341061951 -0.0787966769 -0.1658770615 0.0714707938
105299370.0 -0.1751193358 0.0670472934 0.5347854764 -0.0862431148 0.5346688157 -0.0860066311 -0.1641246171 0.0724191037
110299340.0 -0.1731731763 0.0676042587 0.535064809 -0.0928068327 0.5346405426 -0.092211864 -0.1629062212 0.0728944776
115299310.0 -0.1719258677 0.0681244919 0.5347272892 -0.0995041289 0.5346228321 -0.0994027706 -0.1612007079 0.0736254658
120299280.0 -0.1705107927 0.0685983615 0.5345859144 -0.1064132229 0.5343629918 -0.1062459844 -0.1594023611 0.0744828676
125299250.0 -0.1694396833 0.0691226331 0.5341866116 -0.1126095616 0.5340314562 -0.1129557685 -0.158566811 0.0749684505
130299220.0 -0.1683178136 0.0701862576 0.5334905987 -0.119640416 0.5337008817 -0.1196867137 -0.1572708019 0.0756322973
135299190.0 -0.167576726 0.0710915847 0.532797699 -0.126381659 0.5329627786 -0.125981944 -0.1556540776 0.0766627781
140299160.0 -0.1666303618 0.0721565152 0.5320905753 -0.1331622964 0.5317147579 -0.1329086403 -0.1544698161 0.0780948496
145299130.0 -0.1654570328 0.0729176619 0.5311953387 -0.1396016819 0.5310875622 -0.1393808484 -0.1537811891 0.0791148916
150299100.0 -0.1643594522 0.0739596112 0.5299691019 -0.1458502843 0.529921094 -0.1451912129 -0.1524228013 0.0801843802
155299070.0 -0.1638068084 0.0745016154 0.5288856444 -0.1528009049 0.5285379585 -0.1523759381 -0.1512559493 0.0811610882
160299040.0 -0.1629194296 0.076137175 0.5270684989 -0.1590113075 0.5273590473 -0.1591253615 -0.1505482281 0.0823910016
165299010.0 -0.1622663614 0.0768430649 0.5258794792 -0.1655958523 0.5261507747 -0.165594943 -0.1490139679 0.0837594901
170298980.0 -0.161495617 0.0779419856 0.5246915901 -0.1721016243 0.5245780626 -0.1721314176 -0.1483261878 0.0848904758
175298950.0 -0.1608138161 0.0787296149 0.5231089003 -0.1776805326 0.5225816882 -0.178110183 -0.147553066 0.0863190227
180298920.0 -0.160093312 0.0799790111 0.5212333258 -0.1842710261 0.5207806422 -0.1842635733 -0.1462499572 0.0872117254
185298890.0 -0.1588980935 0.0810796269 0.519218614 -0.1904152679 0.5190480317 -0.1905585944 -0.1456418951 0.0886803268
190298860.0 -0.1584949248 0.0826209076 0.5176531473 -0.1968349643 0.51778149 -0.1964468427 -0.1447632591 0.0899636861
195298830.0 -0.1576808688 0.0832868251 0.5153458508 -0.2028706012 0.5154173579 -0.2025958611 -0.1436237387 0.0913073902
200298800.0 -0.156907767 0.0846259346 0.5131155193 -0.2090057931 0.5132842926 -0.2089453942 -0.1433792124 0.0925087423
205298770.0 -0.1561784082 0.0858783835 0.5108139141 -0.2153412386 0.5109457136 -0.2149163246 -0.1422282379 0.0931307876
210298740.0 -0.1554442276 0.0870285684 0.5088053988 -0.2205872303 0.5088120756 -0.2210001566 -0.1410525632 0.0953647193
215298710.0 -0.1549653962 0.0884051434 0.5063339741 -0.2270607435 0.5064868561 -0.226979534 -0.140739104 0.0962731042
220298680.0 -0.154191571 0.0894961505 0.5037626909 -0.2326985162 0.5037908579 -0.2326536798 -0.1395474203 0.0975406842
225298650.0 -0.1533294857 0.0907656423 0.5013323069 -0.2388859461 0.5015765106 -0.2383563739 -0.1389235827 0.0990089408
230298620.0 -0.1524683156 0.0923152388 0.4992188013 -0.2442986119 0.4992106324 -0.2443500032 -0.1378311858 0.1002134052
235298590.0 -0.1517902335 0.0937189796 0.4961922208 -0.2500108809 0.4965541264 -0.2496718327 -0.1366938188 0.1018700799
240298560.0 -0.1511452507 0.0950888073 0.4940120336 -0.2559886059 0.4937260731 -0.2558435895 -0.1358391562 0.1032762968
245298530.0 -0.1504102386 0.0961312618 0.4915025565 -0.2615939157 0.4908800367 -0.261651396 -0.1345661162 0.1038009345
250298500.0 -0.1492126595 0.0977079092 0.4876829181 -0.2674855021 0.4876650639 -0.2664741702 -0.1338123451 0.1053513199
255298470.0 -0.1483824067 0.0985338802 0.4847029468 -0.2723657927 0.484925957 -0.2721830039 -0.1325558765 0.1068371825
260298440.0 -0.1479228045 0.1000026737 0.4819655288 -0.2784282134 0.4822237361 -0.2781423164 -0.1313471904 0.1082818927
265298410.0 -0.146724992 0.1017782043 0.4789317315 -0.2843233063 0.4793546501 -0.28355696 -0.1305377085 0.1097448789
270298380.0 -0.1461471743 0.1029504516 0.4760068857 -0.2888499533 0.4763270861 -0.2893358567 -0.1295243407 0.1112711992
275298350.0 -0.1449258106 0.1044258632 0.4733328983 -0.2946274384 0.4729064884 -0.2943605879 -0.1279898028 0.1125368911
280298320.0 -0.1438852317 0.1059596622 0.4702238609 -0.3000819474 0.4698466848 -0.2997704944 -0.1266390796 0.1138118685
285298290.0 -0.1430643609 0.1071633694 0.466790187 -0.3052840058 0.4665611476 -0.3052034515 -0.1258021788 0.114865573
290298260.0 -0.1417322189 0.1083772306 0.4632320781 -0.3103523638 0.4636265504 -0.3106931921 -0.1245161272 0.1166481976
295298230.0 -0.1407249062 0.1096768445 0.459759572 -0.315711539 0.4602192016 -0.3157856238 -0.1229924012 0.1176160026
300298200.0 -0.1400790193 0.1111154692 0.4568794723 -0.3205484177 0.456624149 -0.3211385961 -0.1216889656 0.1192684475
305298170.0 -0.1389247979 0.1120739295 0.4529973463 -0.3263359721 0.4530606932 -0.3261806088 -0.1199443357 0.1204082611
310298140.0 -0.1380647341 0.1135619783 0.4493860571 -0.3313520016 0.4495536407 -0.3313177148 -0.1189604112 0.1216306239
315298110.0 -0.1369722507 0.1144004546 0.4460754008 -0.3365597838 0.4460021247 -0.3366816732 -0.1177016459 0.1229411127
320298080.0 -0.1358076744 0.1158861662 0.4414100625 -0.3421280147 0.44217586 -0.341800456 -0.1164001271 0.1241633391
325298050.0 -0.1349755029 0.1171597362 0.4379961741 -0.3472330091 0.4380605981 -0.346677153 -0.115527436 0.1255300958
330298020.0 -0.1339466259 0.1183887295 0.433669827 -0.3519582623 0.4346634805 -0.3515311836 -0.1142717315 0.1266762269
335297990.0 -0.1330998747 0.119442009 0.4297726778 -0.356375165 0.4301317886 -0.3564320506 -0.1134663999 0.1284056253
340297960.0 -0.1326995897 0.1214106187 0.4256505249 -0.3615804595 0.4255801753 -0.3614575093 -0.1113781301 0.1297114841
345297930.0 -0.1315578138 0.1226642553 0.4220357461 -0.3662998525 0.4217675623 -0.3662392422 -0.1107934694 0.1308814043
350297900.0 -0.130323545 0.1236991354 0.4169252521 -0.3709022141 0.417529554 -0.3704340065 -0.1095421177 0.132862241
355297870.0 -0.1291527886 0.1255352287 0.4132831226 -0.3753272114 0.413828477 -0.3748942779 -0.1082742574 0.1336005769
360297840.0 -0.1281076419 0.1268663261 0.4100559153 -0.3798333764 0.4098876636 -0.3796289845 -0.1068316722 0.1354230662
365297810.0 -0.1272077508 0.1283798472 0.4054279667 -0.3844247079 0.4057780056 -0.3844367769 -0.1052374992 0.1366425186
370297780.0 -0.1257724646 0.1296752056 0.4004571798 -0.3887647653 0.4013778782 -0.3881471293 -0.1038593562 0.1382118926
375297750.0 -0.1245790074 0.1308652317 0.3967808052 -0.3930091166 0.3974993829 -0.3931493068 -0.1022593985 0.139203985
380297720.0 -0.1234564983 0.1322224166 0.3922601423 -0.3976968597 0.3927274253 -0.3970116688 -0.1013408735 0.1405630593
385297690.0 -0.1224896854 0.133619708 0.3879631596 -0.4018717652 0.3877157959 -0.4014778495 -0.0995328472 0.1420738202
390297660.0 -0.1210703908 0.1348724044 0.383654204 -0.4060627244 0.3836168407 -0.4055926037 -0.0982202999 0.1432226177
395297630.0 -0.1197770318 0.1363720356 0.3789575837 -0.4102451933 0.3793750848 -0.4101596287 -0.0963704062 0.1443077557
400297600.0 -0.1186807527 0.1376014954 0.3745608721 -0.4147475182 0.3747190603 -0.4146932199 -0.0951844844 0.145746174
405297570.0 -0.1176657384 0.1387823216 0.3697092281 -0.4181700524 0.3701649972 -0.4178981291 -0.0938246796 0.1469655879
410297540.0 -0.1160898921 0.1399331727 0.3656205305 -0.4225850791 0.3658957371 -0.422412951 -0.0919630905 0.1481693398
415297510.0 -0.1143786733 0.1411377203 0.3600737342 -0.4265244018 0.361051749 -0.4269483591 -0.0904813395 0.1493663563
420297480.0 -0.1135096245 0.1427621215 0.3561271091 -0.4306819611 0.3559604538 -0.430536746 -0.0889751768 0.1500728689
425297450.0 -0.1121375064 0.1435806417 0.3516089925 -0.4340497185 0.3519917552 -0.4344132931 -0.0878750455 0.1517077056
430297420.0 -0.1107978012 0.1448828889 0.3461886822 -0.4374088459 0.3467118532 -0.4374469305 -0.0859598856 0.1522717697
435297390.0 -0.1096630554 0.1462239576 0.341833987 -0.4417932301 0.341475001 -0.4417019435 -0.0837509955 0.1533875653
440297360.0 -0.107815748 0.1475505435 0.3363097571 -0.445349707 0.3369665621 -0.4455569723 -0.0825296 0.1543160187
445297330.0 -0.1066407966 0.148392409 0.3324673516 -0.4490205254 0.3321057789 -0.4485992633 -0.0805289781 0.1550795388
450297300.0 -0.1050489412 0.1495432181 0.3268692354 -0.4526054062 0.3270112967 -0.4528814625 -0.0790284232 0.1560870658
455297270.0 -0.1036927517 0.1508477922 0.3218997136 -0.4562021761 0.3223846286 -0.456279508 -0.0773713614 0.1570550123
460297240.0 -0.1024104984 0.1518567487 0.3167211972 -0.4598838856 0.3172122054 -0.4595790266 -0.075365128 0.158718562
465297210.0 -0.1006733857 0.1528458335 0.3122712648 -0.4627804321 0.3120635414 -0.4636161202 -0.073659642 0.1590825778
470297180.0 -0.0992324303 0.1539748294 0.3069464845 -0.4666624775 0.3069039363 -0.4666067047 -0.0717084165 0.160132593
475297150.0 -0.097626894 0.1548190983 0.301736463 -0.4693430588 0.3018141626 -0.4695574547 -0.0696984289 0.1609281426
480297120.0 -0.0965161167 0.1564274024 0.2967072597 -0.4735323284 0.2965621083 -0.4733667254 -0.0679550556 0.1620233303
485297090.0 -0.0948133225 0.1573889347 0.2916947828 -0.4758619498 0.2919469794 -0.4756110081 -0.0664489367 0.162760175
490297060.0 -0.0939807542 0.158291184 0.2869677526 -0.4795199792 0.2865644283 -0.4785664827 -0.0644172725 0.1639885918
495297030.0 -0.0919454895 0.1594282205 0.2806212269 -0.4822718833 0.2814923103 -0.482031596 -0.0626072819 0.1647112044
500297000.0 -0.0903117646 0.1602858174 0.275530537 -0.4850928637 0.2758360247 -0.4849282319 -0.0606247669 0.1664923971
505296970.0 -0.0888181397 0.1615137636 0.2705429994 -0.4882318887 0.2704241489 -0.488402935 -0.0589776892 0.1667040161
510296940.0 -0.0872518232 0.1623759242 0.265181546 -0.4910704629 0.2652468714 -0.491204026 -0.0567540074 0.1677066565
515296910.0 -0.0855652371 0.1633173594 0.2597098235 -0.4942379385 0.2597173099 -0.4941545688 -0.0547926075 0.1687080741
520296880.0 -0.0843406944 0.1644475174 0.2543049095 -0.4972068387 0.2546792139 -0.4965626063 -0.0534797905 0.169044509
525296850.0 -0.0823345 0.1647864614 0.2486427021 -0.4994672331 0.2489820914 -0.4993164509 -0.0516378716 0.1698083604
530296820.0 -0.0809780779 0.1663967983 0.2433756799 -0.5022614037 0.2439056671 -0.5022053846 -0.0499170319 0.1708235019
535296790.0 -0.0796127267 0.1671574952 0.2385558596 -0.5049034454 0.2382607222 -0.5041913116 -0.0478781689 0.1710644802
540296760.0 -0.0780283724 0.1681152994 0.2325531043 -0.5074568138 0.2325491902 -0.5076767798 -0.0464042249 0.1723287073
545296730.0 -0.0761066899 0.1691356263 0.2267247986 -0.5099466868 0.2273479803 -0.5096165424 -0.0445836219 0.1725831635
550296700.0 -0.0744252778 0.1700300109 0.2215350677 -0.512133399 0.2216579336 -0.5123828567 -0.0426990619 0.1736289501
555296670.0 -0.0729028143 0.1706820107 0.2160099159 -0.5144505712 0.2163586234 -0.5141796663 -0.0404516359 0.174295287
560296640.0 -0.0713541464 0.1718662376 0.2105252817 -0.5167719224 0.2101484794 -0.5167402832 -0.0386525287 0.1746564709
565296610.0 -0.0698447321 0.1725969811 0.2048870406 -0.5190181295 0.2050380022 -0.5191725595 -0.0368276385 0.1751205214
570296580.0 -0.0681193571 0.173550424 0.1992882914 -0.5217679086 0.1983745004 -0.5213925554 -0.0351378715 0.1763133728
575296550.0 -0.0664656826 0.1745388141 0.1931400553 -0.523730019 0.1935481977 -0.5231846198 -0.0330131493 0.1764865133
580296520.0 -0.0643965193 0.1750394931 0.1874288827 -0.5256924004 0.18774875 -0.5253751146 -0.0309570054 0.1765807601
585296490.0 -0.0632283334 0.175385603 0.1825797638 -0.5266298835 0.1822376086 -0.5272429266 -0.0291519892 0.1774869519
590296460.0 -0.0610879216 0.1765080367 0.17640967 -0.5287041664 0.1763434211 -0.5293481881 -0.0273529578 0.1779386921
595296430.0 -0.0593803519 0.1770839216 0.1702500604 -0.5313877803 0.1704758077 -0.5311231243 -0.024971724 0.1779401857
600296400.0 -0.0580195582 0.1777251336 0.16472866 -0.5329064471 0.1650577589 -0.5327540434 -0.0236356254 0.1783321538
605296370.0 -0.0562952855 0.1784421313 0.1589019289 -0.5345604156 0.15916493 -0.5349145073 -0.0213191059 0.1789626302
610296340.0 -0.0545748071 0.1792594436 0.1529678786 -0.5360374641 0.1533577354 -0.5363570557 -0.0193971189 0.1790953249
615296310.0 -0.0524082552 0.179503852 0.1469474191 -0.5375370418 0.1471287895 -0.5380550348 -0.0169564458 0.1794414453
620296280.0 -0.0506832841 0.1800270032 0.1414415367 -0.5390278895 0.1418073489 -0.5391469862 -0.0153457454 0.1799252584
625296250.0 -0.0491494735 0.1806008192 0.136370849 -0.5411765611 0.1356947344 -0.541212287 -0.0125466195 0.179960017
630296220.0 -0.0466900908 0.1814462501 0.1286648199 -0.5422129239 0.1296213532 -0.5420753375 -0.0111602458 0.1805273666
635296190.0 -0.0460232242 0.1822616032 0.1237539786 -0.543815358 0.1240648052 -0.5438085489 -0.0087398277 0.1807493872
640296160.0 -0.043964311 0.1828356073 0.1180350728 -0.5446598715 0.1187734061 -0.544944662 -0.0069570568 0.1808927859
645296130.0 -0.0420507164 0.1834163388 0.1118344132 -0.5455547665 0.1125883054 -0.5455969009 -0.0049548688 0.1812968108
650296100.0 -0.040331275 0.1838828013 0.1060531212 -0.5468505939 0.1065443434 -0.5470823538 -0.0025378798 0.1808447881
655296070.0 -0.0385558611 0.1842300604 0.1003475476 -0.5485530234 0.1007123189 -0.5480475348 -0.0005844402 0.1813235037
660296040.0 -0.0369994367 0.1844129638 0.0941098298 -0.5489871215 0.0948217432 -0.5491441634 0.00168571 0.1816553788
665296010.0 -0.0349594099 0.184970685 0.0879345153 -0.5503772602 0.088490059 -0.549898017 0.0037156566 0.1826363709
670295980.0 -0.0338258253 0.1856854434 0.0826162271 -0.5504596919 0.0827127759 -0.5511484549 0.0051863501 0.1818118392
675295950.0 -0.0315961159 0.1863723289 0.0767313367 -0.5519662138 0.076823212 -0.5516435029 0.00713423 0.1826561063
680295920.0 -0.0302347625 0.1866661227 0.0708631297 -0.5525626958 0.0702352618 -0.5529891683 0.0093305663 0.1830355601
685295890.0 -0.0279117366 0.1876624141 0.0648566718 -0.5532156698 0.0643072802 -0.5532950584 0.0113784544 0.182452513
690295860.0 -0.0259944757 0.1875817033 0.0585924776 -0.5535796941 0.0586532109 -0.5540866199 0.0134129852 0.1832203981
695295830.0 -0.0242258529 0.1879274463 0.0530549768 -0.5542617003 0.0525969346 -0.5543469479 0.015495498 0.1833882362
700295800.0 -0.0223115751 0.1879080633 0.0464127265 -0.5544614505 0.0463903297 -0.5547390622 0.0174318555 0.1832402566
705295770.0 -0.0207880637 0.189050832 0.0404317679 -0.5553918458 0.0410674448 -0.5555303523 0.01901605 0.1834321039
710295740.0 -0.0188356425 0.1892937508 0.0352556474 -0.5562268287 0.0351254982 -0.5563662292 0.0215610515 0.1827787215
715295710.0 -0.0173126971 0.1893667864 0.02893549 -0.556449585 0.0286698006 -0.5564906165 0.0235196443 0.1831027279
720295680.0 -0.0154265376 0.1897754183 0.0231248156 -0.5564416249 0.0232117707 -0.5567859471 0.0253877809 0.1833335724
725295650.0 -0.0131478275 0.1901832884 0.0164310589 -0.5568669726 0.0169265265 -0.5568984585 0.0272535537 0.1831274969
730295620.0 -0.0114401448 0.1906621675 0.0106817499 -0.5564576259 0.0111213236 -0.5570812329 0.0287025015 0.1826662648
735295590.0 -0.0095777099 0.1907817836 0.004925186 -0.5569261669 0.0049830308 -0.5568209503 0.030458147 0.1824808618
740295560.0 -0.0080649003 0.1910565714 -0.0012409603 -0.556662699 -0.0012664962 -0.5569081689 0.0335387497 0.1824662397
745295530.0 -0.0060776121 0.1916224154 -0.007097149 -0.5563419641 -0.0071259206 -0.5564129669 0.035178882 0.1815013191
750295500.0 -0.0037862407 0.1914917766 -0.0130188139 -0.5566364485 -0.0131376229 -0.5564710376 0.0371688422 0.1815876688
755295470.0 -0.0021508751 0.191456194 -0.0189118045 -0.5560819523 -0.0190892954 -0.556515543 0.0395814906 0.1810340047
760295440.0 -0.0005839233 0.1914669298 -0.0249030333 -0.5567779176 -0.0249659346 -0.5564732689 0.0411451196 0.180911674
765295410.0 0.0013890716 0.1917448811 -0.0311348766 -0.5556538876 -0.0314805255 -0.5560345785 0.0433316102 0.1805672761
770295380.0 0.0030830902 0.1917581055 -0.0374314414 -0.555231318 -0.037542084 -0.5550088751 0.0453752684 0.1799918697
775295350.0 0.0047051167 0.1916486152 -0.0431869969 -0.5545749332 -0.0426423142 -0.5546353224 0.0468132019 0.1796790243
780295320.0 0.0069198734 0.1921585646 -0.0493105927 -0.5541382119 -0.0481279527 -0.554164645 0.0488272939 0.1790217152
785295290.0 0.0084665894 0.1918710114 -0.055379144 -0.5532595274 -0.0545973676 -0.5538052226 0.0515447514 0.1786320528
790295260.0 0.0109729629 0.1923472923 -0.0611083067 -0.5532354348 -0.0602451474 -0.553120816 0.0534343679 0.1784220667
795295230.0 0.0125384867 0.1919574109 -0.0667963237 -0.5522958676 -0.0662224939 -0.5525854871 0.0556591211 0.1780996307
800295200.0 0.0142818796 0.1922321368 -0.073673607 -0.5510823749 -0.072767652 -0.5512750218 0.0575988521 0.1773349788
805295170.0 0.0163761681 0.1919243287 -0.0788964347 -0.5507135434 -0.078558368 -0.5510279583 0.0595299326 0.1772724655
810295140.0 0.0180328 0.1917580326 -0.0844143412 -0.5495395709 -0.0844856707 -0.5497321675 0.0618452794 0.1766564208
815295110.0 0.0199220726 0.1917431646 -0.0906453377 -0.5487425786 -0.0903509708 -0.5488242745 0.063332919 0.1760901727
820295080.0 0.0215472974 0.1922108902 -0.0965120254 -0.5474658732 -0.0959205542 -0.5472618246 0.0655107325 0.1754180184
825295050.0 0.0241018062 0.1918985235 -0.1017927584 -0.5459906375 -0.1022059897 -0.5465582911 0.0678078327 0.1749446245
830295020.0 0.0257732001 0.1917483017 -0.1084121949 -0.5449728998 -0.1083564302 -0.5454065913 0.0705568366 0.1746942007
