!Created with skrf (http://scikit-rf.org).
# Hz S RI R 50.0 
!freq ReS11 ImS11 ReS21 ImS21 ReS12 ImS12 ReS22 ImS22
300000.0 -0.2143864243 -0.0580618884 0.0001413827 -0.0007634816 0.0008350431 7.11904e-05 -0.7740909812 -0.1346859667
5299970.0 -0.2169211665 0.0083911443 0.0002629268 4.08256e-05 7.7945e-05 0.0001160121 -0.7843049951 -0.0071688124
10299940.0 -0.2132922704 0.0194786408 -0.0001502702 0.0001872822 -1.94887e-05 -2.27071e-05 -0.7876353719 -0.0036109247
15299910.0 -0.208612166 0.028649428 0.0001092817 -9.09256e-05 -7.17544e-05 -0.0001486215 -0.7933623554 -0.0015666215
20299880.0 -0.203463544 0.0360625967 -0.0001495305 5.40872e-05 -2.74663e-05 4.111e-06 -0.7997927745 0.0022148477
25299850.0 -0.1976481676 0.0420920388 8.45511e-05 -7.10555e-05 8.43755e-05 0.0001064648 -0.8058797975 0.0084416307
30299820.0 -0.1922947548 0.0468130025 -5.05951e-05 0.0003514463 0.000131096 0.0002388858 -0.8124350566 0.0164045143
35299790.0 -0.1862128953 0.0506424052 0.0002469036 -5.21539e-05 2.23276e-05 8.73112e-05 -0.8171700481 0.0252443068
40299760.0 -0.1806976985 0.0536736315 -6.9722e-06 0.0001482913 9.57705e-05 0.0002846078 -0.8214529597 0.0348100802
45299730.0 -0.1755245595 0.0554496977 -0.0001469085 0.0001752467 -6.87982e-05 -9.93334e-05 -0.8251685336 0.0441428904
50299700.0 -0.1709800275 0.0569002783 -0.0001882596 0.0001726417 4.0519e-06 3.50518e-05 -0.8272299218 0.0538874102
55299670.0 -0.1664517594 0.0578179103 -0.0001237979 0.0001497214 0.0001229119 3.82431e-05 -0.829468272 0.0645950013
60299640.0 -0.1623799146 0.0587274051 -2.55222e-05 1.28284e-05 0.0003513734 6.82081e-05 -0.830374126 0.0743057451
65299610.0 -0.1586634654 0.0591896385 5.6569e-06 0.000115374 8.268e-06 -6.44552e-05 -0.8321379557 0.0842977762
70299580.0 -0.1557175867 0.0597172962 0.0001151616 -5.71454e-05 0.000125885 0.0002127711 -0.83205125 0.0943765024
75299550.0 -0.1528633742 0.0599954575 0.0001795434 -8.51271e-05 -3.83425e-05 0.0001503096 -0.8327624832 0.1042395565
80299520.0 -0.1498885205 0.0599706573 -9.10115e-05 5.76848e-05 2.10987e-05 9.6406e-06 -0.8324080979 0.1139837398
85299490.0 -0.1475897629 0.0599136171 -0.0001171216 -0.0001489981 0.0001237938 0.0001935895 -0.8317473517 0.1235081274
90299460.0 -0.1453437604 0.0600432913 -3.81996e-05 0.0002472289 4.24285e-05 9.89018e-05 -0.8312382579 0.1334093375
95299430.0 -0.1432749112 0.0596260752 0.0001138903 0.0001924561 7.21853e-05 -4.31368e-05 -0.8294107541 0.142772397
100299400.0 -0.1417069679 0.0598966896 -0.0001343625 0.0001581542 0.000102123 -2.65462e-05 -0.8283269439 0.1523771937
105299370.0 -0.1399736738 0.0599783876 -2.66773e-05 0.0001184901 -1.26045e-05 1.1831e-06 -0.8272554942 0.1610630813
110299340.0 -0.1386189283 0.0601300685 -8.09823e-05 -6.08775e-05 -9.96943e-05 5.91465e-05 -0.8252556413 0.1707959504
115299310.0 -0.1371285424 0.0597046585 -9.90607e-05 0.0001221764 1.88117e-05 -2.6457e-06 -0.8244160737 0.1799153107
120299280.0 -0.1361295524 0.059896441 -3.30183e-05 0.0001719925 -3.39644e-05 0.0001710122 -0.822232415 0.1888406633
125299250.0 -0.135151914 0.0598222847 0.0001987882 3.8597e-05 0.0001203996 4.27322e-05 -0.8209275788 0.1980487053
130299220.0 -0.1341690289 0.0603768282 7.09436e-05 -3.15521e-05 5.5599e-06 0.0001517197 -0.8189279827 0.2070727929
135299190.0 -0.1330797099 0.0607425581 -2.54447e-05 -0.0001635323 -3.90731e-05 0.0002468145 -0.817040218 0.2159035315
140299160.0 -0.1323488677 0.0607561324 -2.18704e-05 5.22929e-05 8.77941e-05 -8.25641e-05 -0.8144080548 0.2247183293
145299130.0 -0.1315360499 0.0613635221 -1.49228e-05 -3.30108e-05 -4.7122e-05 -7.26067e-05 -0.8124475571 0.234152137
150299100.0 -0.1304796763 0.0615645364 4.44339e-05 -9.9392e-06 0.0001135104 0.0001180631 -0.8109096551 0.2433263717
155299070.0 -0.1303690468 0.0617090127 -0.000126394 5.93016e-05 -3.23426e-05 -0.0001821104 -0.8074978274 0.2521020697
160299040.0 -0.1296885032 0.0624932547 7.61518e-05 0.0001096435 -1.9077e-06 0.0001261874 -0.8051973024 0.260569902
165299010.0 -0.1288551481 0.062957848 0.0002669529 0.0002613695 -0.0002129449 9.79778e-05 -0.8026326855 0.2695558494
170298980.0 -0.1285794673 0.0636663717 0.0001595348 1.29775e-05 0.0002438841 0.0001500063 -0.7997999993 0.278054029
175298950.0 -0.1280294799 0.0640983923 0.0001483109 0.000290149 0.0001238138 0.000161854 -0.7969767353 0.2869055571
180298920.0 -0.1273042907 0.0644763977 0.00038359 0.0002282666 -1.16866e-05 9.16481e-05 -0.7935867511 0.2954385816
185298890.0 -0.1266750111 0.0653789904 0.0002122558 9.2199e-05 6.41216e-05 2.80434e-05 -0.7906955877 0.303934672
190298860.0 -0.1261261122 0.0660753754 -0.0001499174 0.0001163702 0.0002174283 0.0002057472 -0.7881721621 0.3124702497
195298830.0 -0.1258848869 0.0665447833 -0.0001169554 0.0002092139 0.0001619934 2.14122e-05 -0.7845022996 0.321012457
200298800.0 -0.1250570968 0.0674796649 0.0001434873 0.0002689655 0.0002738547 -2.7774e-06 -0.7819501255 0.3290691835
205298770.0 -0.1248455675 0.0679353372 -9.16874e-05 0.0001617907 -5.83591e-05 0.0001590825 -0.7778776216 0.3376104631
210298740.0 -0.1244593876 0.0686039176 0.0001038687 -8.02035e-05 -5.48695e-05 0.0001275224 -0.7747221044 0.345700449
215298710.0 -0.1240798797 0.0698517528 -0.000108328 0.0001045285 -0.0001633185 0.0003632004 -0.7709180511 0.3541414388
220298680.0 -0.1235069846 0.070458965 0.0001192314 7.36555e-05 6.41674e-05 0.0001097331 -0.7680124309 0.3623642634
225298650.0 -0.1232209057 0.0711438292 -2.5104e-05 -6.47154e-05 6.5416e-05 2.52594e-05 -0.7635370381 0.3704824795
230298620.0 -0.1228105514 0.0722180419 0.0002201128 0.0001478678 0.0001606928 -6.48949e-05 -0.7599941673 0.3787704532
235298590.0 -0.1222358668 0.0733177003 -6.61018e-05 0.0002776054 0.0001044398 0.0002047555 -0.7557226673 0.3869060083
240298560.0 -0.1218104759 0.0738604983 0.0001859028 -0.0001870062 0.000104586 0.0001008643 -0.7516997155 0.395170133
245298530.0 -0.1212892598 0.0747533062 0.000219148 -3.45515e-05 -8.62607e-05 0.0002229722 -0.7478135004 0.4027389026
250298500.0 -0.1207876798 0.075546392 0.0001270555 5.21754e-05 9.36751e-05 -1.17514e-05 -0.7440441279 0.4101755899
255298470.0 -0.1206942031 0.0764287249 -4.59708e-05 4.56613e-05 5.89429e-05 0.000111348 -0.7389472283 0.4180886416
260298440.0 -0.1200845677 0.077489406 0.0003488473 3.78075e-05 -6.21933e-05 0.0001168208 -0.7352960456 0.4264376313
265298410.0 -0.1195849523 0.0787351388 0.0003353655 0.0001499257 0.000153504 0.0001817128 -0.7299318723 0.4332449129
270298380.0 -0.1190980537 0.0798482725 7.0591e-05 -0.000118175 5.07615e-05 0.000121415 -0.7259049971 0.4414620683
275298350.0 -0.1183666968 0.0807416049 0.0002271722 3.50379e-05 4.79675e-05 -0.00020702 -0.7207666002 0.448797059
280298320.0 -0.1174604933 0.0814093388 4.0577e-05 0.0001054011 0.0001840615 0.0001371147 -0.7160655551 0.456481216
285298290.0 -0.1170723221 0.0829532627 -1.27769e-05 8.13413e-05 8.0815e-05 0.0001085883 -0.710730729 0.4640299668
290298260.0 -0.1163259452 0.0836793089 -1.63052e-05 -3.93981e-05 -2.73452e-05 2.71711e-05 -0.7061479622 0.4708919124
295298230.0 -0.1160071114 0.0845044057 8.24433e-05 -5.44699e-05 -4.61164e-05 0.0001533435 -0.7011724016 0.4778398708
300298200.0 -0.1153179456 0.0858382577 0.0002663994 4.8692e-06 -0.0001319996 -7.99952e-05 -0.6962063769 0.485206646
305298170.0 -0.1145671225 0.0866382922 0.0001557197 8.11164e-05 9.29546e-05 0.0001331165 -0.6903740425 0.4929811498
310298140.0 -0.1141168907 0.0879249616 -6.33411e-05 -3.78089e-05 0.000331534 0.0002068307 -0.6854639478 0.4996737545
315298110.0 -0.1132873443 0.088706846 0.0001291496 -0.0001120558 3.18338e-05 -1.8462e-05 -0.6802565941 0.5067701604
320298080.0 -0.1126727411 0.089530709 -6.14504e-05 0.0001757778 -3.97811e-05 3.40799e-05 -0.6744789647 0.5144181421
325298050.0 -0.1121384053 0.090580862 5.48437e-05 -8.2379e-06 0.0001854373 0.0001363803 -0.668906214 0.5209893607
330298020.0 -0.1116868492 0.0913333052 8.5316e-05 3.062e-06 2.76933e-05 0.0001843405 -0.6636718259 0.5285364545
335297990.0 -0.1108343437 0.0925438459 -4.62266e-05 0.0002318788 2.70007e-05 0.0001913326 -0.6586573965 0.5354819232
340297960.0 -0.1106549159 0.0937335652 0.0001191228 0.0001864206 0.0001513205 5.06666e-05 -0.6527335578 0.542134055
345297930.0 -0.1099052834 0.0947755161 -0.0001220607 -0.0001092171 0.0002756611 -8.0383e-05 -0.6471824305 0.5484398228
350297900.0 -0.1089954907 0.0960466878 0.0001457216 -6.07773e-05 9.00122e-05 0.0001982342 -0.6416955889 0.555727416
355297870.0 -0.1082023535 0.0971324847 0.0002249901 0.0001684713 0.0001764515 0.0001920402 -0.6356549902 0.561583354
360297840.0 -0.1078314207 0.0981567359 0.0003204912 0.0001749487 0.0001359911 0.0001621948 -0.6295265508 0.5686974824
365297810.0 -0.1074551189 0.0993874878 0.000228294 9.45388e-05 0.000234626 0.0002306996 -0.6231377486 0.5754001258
370297780.0 -0.1063476228 0.1005098625 0.0001450298 -1.89463e-05 1.36539e-05 0.0002203691 -0.6173765502 0.5821946281
375297750.0 -0.1054461632 0.1015669097 0.0001488016 0.0001082021 6.51788e-05 0.0001740033 -0.611827403 0.5877879182
380297720.0 -0.1046975383 0.1025916368 0.0002071673 -0.0001593904 0.0001227059 0.0001947185 -0.6056127772 0.5941657908
385297690.0 -0.1041777648 0.1038223842 0.0001484607 6.72313e-05 0.0001585628 0.0001764739 -0.5992022617 0.6009245539
390297660.0 -0.1035254813 0.1049372061 0.0001032422 5.37926e-05 0.0003039493 0.0001432109 -0.5933078575 0.6066981451
395297630.0 -0.1023553984 0.1059854919 0.0001459482 0.0001074414 0.0001907716 -1.07449e-05 -0.5864259685 0.6136533158
400297600.0 -0.1014564687 0.1070709652 0.0001301629 1.02131e-05 0.0002289292 5.83998e-05 -0.5806884218 0.6192181662
405297570.0 -0.1007631952 0.1082039754 8.53031e-05 0.0002577025 0.0002375127 -7.7211e-05 -0.5739253933 0.6247437326
410297540.0 -0.0999535496 0.1094993329 0.0003825468 0.0003362714 0.0001402979 0.0002433863 -0.5673236872 0.630659817
415297510.0 -0.0989307666 0.110145629 0.0001352814 0.0002830439 0.0002358032 5.56222e-05 -0.5612611865 0.6362688178
420297480.0 -0.0985413821 0.1116659195 0.0001967637 3.01592e-05 0.0002634396 0.0001027322 -0.5545230056 0.6428642436
425297450.0 -0.0970386351 0.1125507085 0.0001969452 0.0001006363 5.36802e-05 0.0001881476 -0.5473713197 0.6481705955
430297420.0 -0.0961243085 0.1134871627 0.0002684054 0.0001199791 0.0002297648 0.0001329004 -0.5410173582 0.6529389623
435297390.0 -0.0954895964 0.1145778816 0.0001754883 0.0001478188 6.451e-07 5.74019e-05 -0.5339948087 0.6587473265
440297360.0 -0.0943268785 0.1153730875 0.0001405294 -4.11721e-05 0.0001430765 -1.27755e-05 -0.5273097154 0.6637209422
445297330.0 -0.0934851105 0.1165242479 0.000173624 0.0002230157 0.0001212583 0.0001674031 -0.5206786136 0.6686158134
450297300.0 -0.0926014344 0.1175681432 0.0001762446 -1.1263e-06 0.000207732 7.15147e-05 -0.513543611 0.6741110657
455297270.0 -0.0916408557 0.1186208997 0.000278275 -0.0001084212 0.000235717 0.000168506 -0.5063909554 0.6787146719
460297240.0 -0.090869173 0.1195004312 0.0001142771 -1.82313e-05 0.0002629438 1.7082e-06 -0.4999459889 0.6843504702
465297210.0 -0.0898024524 0.1208179329 0.00031841 0.000114018 0.0002316158 3.27996e-05 -0.4918282575 0.6889394854
470297180.0 -0.0884151335 0.121590409 0.000214476 -0.0001753835 0.0001836811 0.0001095114 -0.4849812355 0.6945227846
475297150.0 -0.0874756377 0.1223181946 5.44829e-05 0.0002818166 0.0002521828 0.0002166908 -0.4774080519 0.6984407347
480297120.0 -0.0863181375 0.1233776468 0.0001334106 0.0003319583 0.000283866 0.0001440786 -0.4696608952 0.7037198914
485297090.0 -0.0852592453 0.1248139919 5.00047e-05 -9.00356e-05 9.14137e-05 0.0002632534 -0.4635670278 0.7089416118
490297060.0 -0.084257162 0.1256865825 0.0001869632 1.64272e-05 0.0001864749 0.0001848555 -0.4556519741 0.7130057942
495297030.0 -0.0834358111 0.1266643306 0.0001032965 -2.62627e-05 6.24278e-05 -7.9852e-06 -0.4486372541 0.7177045073
500297000.0 -0.0818512817 0.1275987388 0.0002387292 -0.0001373497 0.0001154727 8.99352e-05 -0.4411140014 0.7229419369
505296970.0 -0.0810477591 0.1283714375 0.0001935751 -1.07193e-05 0.0003153727 8.94398e-05 -0.4338189679 0.7266814882
510296940.0 -0.0798799389 0.1293784215 0.0001179602 -0.0002514592 0.0001196783 4.63453e-05 -0.4261949956 0.7308402222
515296910.0 -0.0782548532 0.1301186152 0.0002059016 -6.74816e-05 0.0003068518 3.96629e-05 -0.418734082 0.7355862847
520296880.0 -0.0777820731 0.131186404 0.0001654857 -0.0001646101 0.0001076262 5.75367e-05 -0.4112596966 0.7390950533
525296850.0 -0.0763986372 0.1316656425 5.00936e-05 6.0751e-06 0.0002869382 0.0002262885 -0.4040682207 0.7440714917
530296820.0 -0.0751320609 0.1327600844 0.0003115867 -0.0001030009 0.0002999757 0.0001098347 -0.3966989461 0.747566201
535296790.0 -0.0741921598 0.1341132637 -6.47931e-05 9.7634e-06 0.0003108586 -9.58658e-05 -0.3892176443 0.751689759
540296760.0 -0.0734097182 0.1344825043 -4.12425e-05 0.0002199815 0.00020329 5.90753e-05 -0.3809327637 0.7555019384
545296730.0 -0.0718756095 0.135694722 8.99701e-05 0.0001264961 0.0002465925 0.0002388523 -0.3734598304 0.7590021938
550296700.0 -0.0703043873 0.1363752686 0.0001937146 7.47669e-05 0.0001213193 -0.0001232029 -0.3651686925 0.7638251504
555296670.0 -0.0694556629 0.1370595813 0.0003026867 -0.000210694 0.0001506128 -0.0001095676 -0.3581746251 0.7673085556
560296640.0 -0.067891182 0.138067749 0.0003513096 -8.61678e-05 2.83551e-05 -0.0001817518 -0.3496128679 0.7711854504
565296610.0 -0.0668839573 0.1388538152 0.0002354712 8.83421e-05 0.0001881178 0.0001204211 -0.3419224824 0.7743246945
570296580.0 -0.0661493522 0.1394211123 0.0002959672 4.15289e-05 0.0003684753 7.22652e-05 -0.3346516268 0.7778356179
575296550.0 -0.0644594555 0.1406614307 0.0003113223 8.3319e-05 0.0002372172 -2.62463e-05 -0.3264651176 0.780891848
580296520.0 -0.0626766762 0.1414394251 0.0001687916 0.0001001348 0.0002186298 3.82686e-05 -0.3178185701 0.7838956727
585296490.0 -0.0622639006 0.1420525337 0.0001729005 0.0002587497 0.0001348503 7.82387e-05 -0.3105002626 0.7870539635
590296460.0 -0.0606117642 0.142868742 0.0002541362 -0.0002369939 0.0002017437 -5.33339e-05 -0.3029221172 0.7900473524
595296430.0 -0.0592367132 0.1436080341 0.0002313461 0.0001364463 0.0001750295 0.0001953777 -0.2943452288 0.7922357865
600296400.0 -0.0581976948 0.1443588163 0.00013909 -0.0001397778 0.0002083866 -2.3922e-05 -0.2867019987 0.7955412576
605296370.0 -0.0569062892 0.1450409955 0.0001479826 0.0003114938 0.0001639017 2.52762e-05 -0.2779561781 0.798715764
610296340.0 -0.0556026845 0.1457789138 0.0003866063 -0.0001476704 0.0003630305 9.38357e-05 -0.2707001335 0.8010192467
615296310.0 -0.0540678831 0.1464388835 0.0002977175 9.98006e-05 0.0002057985 0.0001964452 -0.2615387497 0.8034226483
620296280.0 -0.052976172 0.147108409 0.0001983595 -3.8312e-05 0.000235727 -1.70077e-05 -0.2543700535 0.8061152108
625296250.0 -0.0516634642 0.1477166778 0.0003424457 4.07885e-05 0.0001782348 -0.0001470374 -0.2450699365 0.8086125086
630296220.0 -0.0501306201 0.1482668071 0.0003818674 -0.0001129144 0.0001820469 9.66715e-05 -0.2375481544 0.8110692154
635296190.0 -0.0490389137 0.1491661203 0.0003482571 -2.40959e-05 0.0005333098 0.0001638214 -0.229327786 0.8134782685
640296160.0 -0.047386157 0.1497819101 0.0003355831 0.0001046113 0.0003070941 1.37204e-05 -0.2210614404 0.8156694328
645296130.0 -0.046186365 0.1504496626 0.0002228282 -0.0001026704 0.0002293181 -7.97475e-05 -0.2127183506 0.8179938098
650296100.0 -0.0445546082 0.1512572997 0.0005320855 -0.0001154106 0.0001229511 7.60187e-05 -0.2047123796 0.819112809
655296070.0 -0.0434958691 0.1519961119 0.0001143896 -0.0001399388 0.000272214 2.6646e-05 -0.196218764 0.8211828553
660296040.0 -0.0422034562 0.1520965604 0.0001617398 -0.0001170571 0.0002883115 -6.07635e-05 -0.1872573591 0.8234771869
665296010.0 -0.0403120887 0.152599454 0.000353373 -6.33332e-05 0.0002015588 0.000181467 -0.1794094687 0.8257324689
670295980.0 -0.0393575388 0.1535930334 0.0002128333 -5.30807e-05 0.0002513403 -7.5039e-05 -0.17220382 0.8269380184
675295950.0 -0.0379823177 0.1539571898 0.0001610524 1.26912e-05 0.0001056116 -0.0001342526 -0.1632293181 0.8287233442
680295920.0 -0.0363139344 0.154635665 8.15881e-05 -4.00622e-05 0.000318693 0.0001441178 -0.1544176102 0.8313134099
685295890.0 -0.0348523718 0.1555207337 0.0001470422 0.0001028135 7.98086e-05 9.41602e-05 -0.1459228798 0.8318662303
690295860.0 -0.0333529759 0.1557551239 0.0003852444 -1.91795e-05 0.000370322 -3.7615e-06 -0.1385660425 0.8336025208
695295830.0 -0.0321884655 0.1562332962 0.0002363222 7.10264e-05 0.0004655599 0.0001753639 -0.1293686691 0.8350242543
700295800.0 -0.0308668232 0.1565918383 0.000194433 8.28656e-05 0.0002799706 0.0001129402 -0.1217771331 0.8360192422
705295770.0 -0.0293937066 0.1573383628 0.0002927692 -9.57832e-05 0.0002481771 -2.97202e-05 -0.1134236446 0.8385832653
710295740.0 -0.0276705452 0.157863069 0.0003772171 -8.07657e-05 0.0003749572 3.30984e-05 -0.1048468268 0.8384006974
715295710.0 -0.0264124311 0.1577182505 0.0003442687 5.93209e-05 0.0001768095 8.21945e-05 -0.0963213638 0.8391304626
720295680.0 -0.0249893091 0.1586086579 0.0004101468 -0.0002237435 0.0003496318 -4.91495e-05 -0.0879441884 0.841148823
725295650.0 -0.0232832936 0.1590111662 0.0002739695 0.0001679004 0.0001920813 3.37468e-05 -0.0799590653 0.8421771188
730295620.0 -0.0219356408 0.1595594418 0.0003286532 -0.0001681039 0.0003343533 -6.06697e-05 -0.0714859651 0.8421580135
735295590.0 -0.02054343 0.1601156672 0.0004878268 -3.73822e-05 0.0002231806 5.63728e-05 -0.0630870736 0.8425537103
740295560.0 -0.0191584995 0.160497033 4.79947e-05 -5.7952e-05 0.0003585059 5.826e-05 -0.0539897615 0.8438007578
745295530.0 -0.0178093667 0.1610698209 0.0001585052 -0.0001162465 0.0002376297 -7.6767e-05 -0.0454058603 0.8438307101
750295500.0 -0.0158959198 0.1613444721 0.0004212075 -0.0001809817 0.0003808611 0.0001143335 -0.0378188431 0.8440599453
755295470.0 -0.014594913 0.1612269301 2.04819e-05 -2.80495e-05 0.0002649967 1.86211e-05 -0.028700704 0.8440426155
760295440.0 -0.0132094796 0.1617385189 0.0002843653 0.0002354095 0.0003366701 -0.0001490796 -0.0206689918 0.8448181645
765295410.0 -0.0115887224 0.1621257371 0.000337906 -4.52902e-05 0.0004448457 0.0002979983 -0.0121141966 0.8448611275
770295380.0 -0.0101576881 0.1622603569 0.0004269504 -0.0001169759 9.42187e-05 -0.0001368795 -0.0040835456 0.8448710349
775295350.0 -0.0086795448 0.1624226663 0.0004135019 -6.59171e-05 0.0003787393 -4.79766e-05 0.0038066173 0.8442356789
780295320.0 -0.0070716325 0.1628284541 0.0002015541 -9.49702e-05 0.0002023945 0.0001025497 0.0126809452 0.8442334855
785295290.0 -0.0058357644 0.1627402582 0.0005320851 -6.21276e-05 0.0003477254 -0.0002420416 0.0214563893 0.8441753025
790295260.0 -0.003579001 0.1636128748 0.0004109415 -0.0002540933 8.45446e-05 -0.000101969 0.0297862595 0.8439608291
795295230.0 -0.0027415408 0.1640387187 0.0002002212 -3.78432e-05 0.0001712742 3.26105e-05 0.0385567935 0.8428954161
800295200.0 -0.001035002 0.1641638838 0.0001731142 -0.0002203446 0.0003210371 9.52989e-05 0.047514828 0.8430033986
805295170.0 0.0005562252 0.1641382239 0.0001944364 -0.0002693574 0.0001320386 -7.76156e-05 0.0546217164 0.8428972196
810295140.0 0.0020848378 0.1640491167 0.0001963626 -0.000133763 0.0001783497 -1.04569e-05 0.0638259404 0.8418676102
815295110.0 0.0035527635 0.1643536929 0.0004543585 -8.50592e-05 0.0003588043 4.76446e-05 0.0723789082 0.8411710101
820295080.0 0.0048477532 0.1647435533 0.000178506 0.0001774667 0.0001661553 -0.0002503582 0.0804338098 0.8402780322
825295050.0 0.0070306726 0.1645678309 0.0003384574 -0.000219014 0.0001543591 5.20672e-05 0.0885525065 0.8400291615
830295020.0 0.0085481606 0.1650157412 7.2233e-05 -0.0001484116 0.0003755336 -0.0002833972 0.0977190411 0.8388858158
835294990.0 0.0098323955 0.165118983 0.0002330067 -8.57583e-05 0.0003399814 -8.15569e-05 0.1054820534 0.8375462136
840294960.0 0.0110066356 0.1653762718 0.000293243 -0.0001229741 0.0002231838 -0.0002460358 0.1139005455 0.837023926
845294930.0 0.0129811163 0.1653957509 0.0003415329 2.03658e-05 0.0001135601 -5.01059e-05 0.1219377031 0.8355299739
