!Created with skrf (http://scikit-rf.org).
# Hz S RI R 50.0 
!freq ReS11 ImS11 ReS21 ImS21 ReS12 ImS12 ReS22 ImS22
300000.0 -0.3213418614 -0.0812692062 0.3758166929 0.0412276593 0.3721412404 0.0396037509 -0.319688485 -0.0944218264
5299970.0 -0.3264740587 0.0036508782 0.3781673179 0.0028604696 0.3781079928 0.0025281642 -0.3238772461 0.0046884367
10299940.0 -0.3239900461 0.0131963062 0.3794481087 0.0019768106 0.379571651 0.0025550609 -0.3216351524 0.0159667618
15299910.0 -0.3213218934 0.0204016557 0.3818024826 0.0019770906 0.3818822411 0.0019808385 -0.3183967803 0.0236654525
20299880.0 -0.3189224843 0.026183199 0.3846494067 0.0015902982 0.3847478862 0.0016927871 -0.3150695815 0.0301701297
25299850.0 -0.3155926779 0.0315210042 0.387969614 8.60565e-05 0.3882133637 0.0003232552 -0.3111686784 0.0359921041
30299820.0 -0.3126233398 0.035692362 0.3915054068 -0.0024312072 0.391448093 -0.0023084451 -0.3068686429 0.0412582473
35299790.0 -0.3098846275 0.0399940102 0.3947870411 -0.0058139083 0.3948904053 -0.0054404528 -0.3035206253 0.045083256
40299760.0 -0.307315208 0.0436273117 0.3977196937 -0.0088023271 0.3981464171 -0.0087295217 -0.3002429759 0.0485422647
45299730.0 -0.3046977565 0.0465925684 0.4008373717 -0.0129483567 0.4010800768 -0.0126419598 -0.2974548493 0.0518378073
50299700.0 -0.3027922265 0.049411935 0.4037994373 -0.0172003437 0.4033127858 -0.0171823145 -0.2942802038 0.0542921725
55299670.0 -0.3001099246 0.0520240304 0.4059460518 -0.0221706396 0.4054342521 -0.0219236895 -0.2916855529 0.057276723
60299640.0 -0.2978965179 0.0548660599 0.4073541479 -0.0271953428 0.4076554292 -0.0267715124 -0.2891296794 0.0591522176
65299610.0 -0.2961884213 0.0574518781 0.409248551 -0.0321857244 0.4091548491 -0.0318413777 -0.2869526357 0.0615725228
70299580.0 -0.2946825434 0.0600348657 0.4104223872 -0.0373161859 0.4104125012 -0.0367968749 -0.2849358976 0.0641103026
75299550.0 -0.2932904984 0.0626686555 0.4115188421 -0.0421137449 0.4110977522 -0.0421941677 -0.2831908796 0.0656929008
80299520.0 -0.2915770484 0.0648034429 0.4124688661 -0.0474195742 0.4125589283 -0.0476200338 -0.2814726716 0.0681884263
85299490.0 -0.2903308976 0.0672157501 0.4128457796 -0.0525101221 0.4130693727 -0.052353741 -0.2800923734 0.0699848776
90299460.0 -0.2887006572 0.0694377879 0.4124971857 -0.058038517 0.4132403764 -0.0578340461 -0.2784496963 0.0717868921
95299430.0 -0.2873263688 0.0713784408 0.4133911116 -0.063216578 0.4135160498 -0.0631354547 -0.2767341136 0.0740384601
100299400.0 -0.2864019098 0.0742762818 0.4132666263 -0.0684245874 0.4132977753 -0.0682530406 -0.2752382944 0.0762358972
105299370.0 -0.2850230315 0.0764165713 0.413255495 -0.0737132665 0.4137385882 -0.0734479612 -0.2735952428 0.078239021
110299340.0 -0.2839421605 0.0788808864 0.4133154154 -0.0786298637 0.4128915084 -0.0783840791 -0.2727749839 0.080323719
115299310.0 -0.2828467937 0.081110692 0.4126760139 -0.0839961872 0.4130459463 -0.0837834113 -0.2715496797 0.0822668616
120299280.0 -0.282021481 0.0832882286 0.4124577369 -0.0888691378 0.4123923409 -0.0888598867 -0.2702126874 0.0847279238
125299250.0 -0.281244325 0.0853851012 0.41170755 -0.0939290856 0.412181342 -0.0934535651 -0.2693953248 0.0861924102
130299220.0 -0.2803453482 0.0882010101 0.4111811372 -0.0990525946 0.4111540782 -0.0989592812 -0.2681770631 0.0886528334
135299190.0 -0.2794322495 0.0906340767 0.4107875348 -0.1040500643 0.4106467933 -0.1041195021 -0.2672300974 0.0909978018
140299160.0 -0.2786084051 0.0934524531 0.4098556717 -0.1092282675 0.4097892627 -0.1090971181 -0.266235788 0.0936266975
145299130.0 -0.2770400038 0.0953587915 0.408862532 -0.1136974804 0.4085334085 -0.1139334956 -0.2651927287 0.0956103439
150299100.0 -0.2764666025 0.0982650908 0.4076008535 -0.1187941439 0.4076970861 -0.1187158642 -0.2643811665 0.0986263764
155299070.0 -0.2756233733 0.1006555884 0.4066132842 -0.1240660155 0.4065383068 -0.1239544179 -0.2632133217 0.1008909825
160299040.0 -0.2743692981 0.1034824234 0.4051514135 -0.1286389625 0.4053434926 -0.1288292281 -0.2629234752 0.1031923811
165299010.0 -0.2736241048 0.105998396 0.4040690683 -0.1338200985 0.4041241545 -0.1338495616 -0.2611953898 0.1056578879
170298980.0 -0.2728192114 0.1086246323 0.4025549489 -0.1382914441 0.402964323 -0.1383352618 -0.259890029 0.1079011939
175298950.0 -0.2717755284 0.1111325803 0.4015673523 -0.1430845816 0.4012850209 -0.1433871491 -0.259531762 0.1108587006
180298920.0 -0.2709472788 0.1139045523 0.4000351087 -0.1480269527 0.3999657351 -0.1478444994 -0.2588132955 0.1132919601
185298890.0 -0.2697437013 0.1164306465 0.3985574197 -0.1525143273 0.3983755809 -0.1524828369 -0.2574464405 0.1160490712
190298860.0 -0.2686696087 0.1192454477 0.3966737689 -0.1572874208 0.3973790543 -0.1571994779 -0.256405986 0.1183480323
195298830.0 -0.2677019662 0.1217691751 0.3950972894 -0.1617010486 0.3955361888 -0.1615451897 -0.2551288485 0.1208238452
200298800.0 -0.2664989925 0.1243729157 0.3933674808 -0.1666108015 0.393582196 -0.1668384693 -0.2546195406 0.1233653118
205298770.0 -0.2653877786 0.1272946778 0.3914971142 -0.1713414309 0.3913248234 -0.1709748683 -0.2532658018 0.1254965155
210298740.0 -0.2642093826 0.1298676126 0.3895825428 -0.1754446256 0.3896977785 -0.1753200139 -0.2518547456 0.1285982172
215298710.0 -0.2635539608 0.1326919698 0.3880773776 -0.1804025968 0.3882950167 -0.1803035389 -0.2512002566 0.1308450884
220298680.0 -0.2619843018 0.1351761751 0.3857152527 -0.1844680228 0.3859820726 -0.1845772292 -0.2502401359 0.133464665
225298650.0 -0.260914005 0.1378313004 0.3836394578 -0.1893887641 0.3841374856 -0.1891231617 -0.2488854574 0.135787204
230298620.0 -0.259694737 0.1406842363 0.3817940247 -0.193222314 0.3823461563 -0.19327973 -0.2480112405 0.1384963606
235298590.0 -0.2582646983 0.1438002202 0.3798927979 -0.1976401896 0.3797748443 -0.1974057209 -0.2465484595 0.1410962787
240298560.0 -0.2571073028 0.1463538672 0.3778428014 -0.2024478068 0.3775573096 -0.2021214543 -0.245072824 0.143863075
245298530.0 -0.2554845149 0.1488498566 0.3758332723 -0.206411608 0.3754959466 -0.2064990965 -0.2438310009 0.1458297122
250298500.0 -0.2540664559 0.1516838749 0.3730403125 -0.2108180216 0.37302076 -0.2102344108 -0.2428715372 0.148285854
255298470.0 -0.2529151138 0.1541020536 0.3706315953 -0.2145317298 0.3707996249 -0.2146678298 -0.2412231963 0.150707403
260298440.0 -0.2516908311 0.1568561203 0.3684146272 -0.2193018283 0.3686422216 -0.2190173107 -0.2396413994 0.1536016807
265298410.0 -0.2500882234 0.1600264137 0.3660520483 -0.2236709605 0.3663781163 -0.2233321413 -0.2382630892 0.1562688841
270298380.0 -0.248689651 0.1626136367 0.3637664049 -0.2272919321 0.3634668491 -0.227354961 -0.2369323995 0.1588097646
275298350.0 -0.247010624 0.1650003606 0.3611030172 -0.2317520603 0.3614713214 -0.231644848 -0.2352908082 0.1610461418
280298320.0 -0.2448332265 0.168027396 0.3586400051 -0.2358582638 0.3588199467 -0.2356675573 -0.2336415529 0.1637703784
285298290.0 -0.2437926884 0.1708078693 0.3562518139 -0.2396745829 0.3559232604 -0.2394353804 -0.2318294356 0.1658811127
290298260.0 -0.2419787484 0.1732666958 0.3531493538 -0.2435460137 0.3537657846 -0.2436567313 -0.2303369198 0.1687335005
295298230.0 -0.2400233529 0.1756462145 0.3508318534 -0.2477294303 0.3505692282 -0.2476302248 -0.228509782 0.170755215
300298200.0 -0.2387100922 0.1782404586 0.3480992813 -0.2513458162 0.3479256677 -0.2519385635 -0.2267273509 0.1734525448
305298170.0 -0.2364270107 0.1804414524 0.3447729931 -0.2556201063 0.3451430108 -0.2554631263 -0.2245679634 0.1757000058
310298140.0 -0.2351921978 0.1834922526 0.3424057845 -0.2594776095 0.3424927509 -0.2593793037 -0.2231282009 0.1782824957
315298110.0 -0.2331527719 0.1858152506 0.3396796935 -0.2633951801 0.3397505921 -0.2631491143 -0.2214154765 0.1804936614
320298080.0 -0.2311767668 0.1882321762 0.3360211107 -0.2674129685 0.3365371483 -0.2671594693 -0.2195463217 0.1832386303
325298050.0 -0.2295771802 0.1906333697 0.3335751917 -0.2709734887 0.3335179962 -0.2711953087 -0.2178977437 0.1855684242
330298020.0 -0.2273319269 0.1930133408 0.3301664844 -0.274829775 0.3302741784 -0.2752404151 -0.2162244455 0.18782811
335297990.0 -0.2253846406 0.1952266248 0.3268626359 -0.2783680333 0.3269599222 -0.2782569928 -0.2148473428 0.190831168
340297960.0 -0.2240519844 0.1983933918 0.3239759014 -0.2822936902 0.3240245228 -0.2820207607 -0.2125333895 0.1931131237
345297930.0 -0.2222959349 0.2009335478 0.3205470962 -0.2858101797 0.3204032848 -0.2859779547 -0.2103841146 0.1949835189
350297900.0 -0.2202371636 0.2033227827 0.3168844543 -0.2892899526 0.3173773065 -0.2891520041 -0.2092686641 0.1980987739
355297870.0 -0.217939115 0.2062334161 0.3143454135 -0.2929909978 0.3144152101 -0.2924790898 -0.2071680788 0.1999622315
360297840.0 -0.2158517473 0.2083481022 0.3109171659 -0.2959839158 0.3114073596 -0.2958436908 -0.2051209268 0.2026307998
365297810.0 -0.2143069225 0.2108766197 0.307799111 -0.2997420895 0.3079377168 -0.2998902413 -0.2028610267 0.2048086057
370297780.0 -0.2115642953 0.2129772508 0.3040589792 -0.3027995796 0.3048039386 -0.3026954711 -0.2007203869 0.2072119919
375297750.0 -0.209112976 0.2156305699 0.3008852851 -0.3064201156 0.3012280809 -0.3062459898 -0.198565446 0.2092876198
380297720.0 -0.2075781152 0.218141567 0.297815665 -0.309707267 0.2974966236 -0.3089679829 -0.1969244896 0.2117563661
385297690.0 -0.2055399569 0.2203291951 0.2939641695 -0.3129319434 0.2938435962 -0.3126830003 -0.1945006634 0.2140412817
390297660.0 -0.2030783306 0.2226468672 0.2908412861 -0.3157832607 0.2907412853 -0.3157755612 -0.1927349501 0.2164799476
395297630.0 -0.2006026728 0.2252116409 0.2874930883 -0.3191439521 0.2872241947 -0.3193295983 -0.1898576929 0.2188341486
400297600.0 -0.1984527453 0.2276310496 0.2833740229 -0.3227315902 0.2836627025 -0.3223427571 -0.1879994944 0.2207720624
405297570.0 -0.1963586991 0.2296269537 0.2798276757 -0.3250010748 0.2801393601 -0.3249479385 -0.1859218983 0.2228224734
410297540.0 -0.1938734258 0.2319107876 0.2767395363 -0.3286149933 0.2768503771 -0.3282989092 -0.1834851954 0.2251371084
415297510.0 -0.1913275011 0.2338601858 0.2723422119 -0.3315815246 0.2731264317 -0.3316125444 -0.1814753199 0.2270019243
420297480.0 -0.1893392733 0.2365338385 0.2689998218 -0.3345977138 0.2688870651 -0.3346645338 -0.1792388046 0.2288851958
425297450.0 -0.1865376582 0.2379276413 0.2657109774 -0.3372214787 0.265760886 -0.3376304522 -0.1770811657 0.231376214
430297420.0 -0.1842076289 0.2401921104 0.2614897863 -0.3398476754 0.2618629525 -0.3400162915 -0.1748727648 0.2328446842
435297390.0 -0.1818631177 0.2423583016 0.2577079597 -0.343086871 0.2579893223 -0.3430054414 -0.1722129697 0.2349616246
440297360.0 -0.1790745554 0.2446829287 0.2541289827 -0.3459033284 0.2540076044 -0.3459622974 -0.169746865 0.2369834364
445297330.0 -0.1764558016 0.2463745832 0.2502653977 -0.3485659456 0.2502158828 -0.3485259228 -0.167082357 0.2387128888
450297300.0 -0.1741094456 0.2482193759 0.2465024246 -0.3510091819 0.2464105883 -0.3514138545 -0.1647254917 0.2403261146
455297270.0 -0.171690389 0.2505406294 0.2425018392 -0.3536947966 0.2427138771 -0.3542106173 -0.1624317771 0.2425504184
460297240.0 -0.169221783 0.2526395257 0.2385208959 -0.3564846409 0.2388373994 -0.356538076 -0.1596385088 0.2443299354
465297210.0 -0.1661658445 0.2544812153 0.2349008548 -0.3593397229 0.2349028143 -0.3593617895 -0.1569122257 0.245815258
470297180.0 -0.1633448659 0.2562003856 0.2303939327 -0.3616251564 0.2308152987 -0.3618134346 -0.1541839062 0.2481352767
475297150.0 -0.1610963505 0.2577565476 0.2265648655 -0.3635836163 0.2267322596 -0.3638359481 -0.1515234933 0.2494260848
480297120.0 -0.1585089592 0.2601828992 0.2229298846 -0.3668450465 0.2225958467 -0.3665600322 -0.1488944043 0.2513479175
485297090.0 -0.155813542 0.2618110657 0.2187834569 -0.3686066641 0.2188683971 -0.3687477087 -0.1460865562 0.2529943769
490297060.0 -0.1531045545 0.2636398945 0.2147178661 -0.3712998849 0.2146949885 -0.371070223 -0.1436668176 0.2550504895
495297030.0 -0.1504200656 0.2651768498 0.2103578644 -0.3735721244 0.2109287252 -0.3734593795 -0.1410319261 0.2568193888
500297000.0 -0.1473747724 0.2671329556 0.2065610007 -0.3755754575 0.2063913236 -0.3752672378 -0.1379749821 0.2589538995
505296970.0 -0.1443234162 0.2687743884 0.2022247024 -0.3776374227 0.2018090062 -0.3778776807 -0.1356452279 0.2600311401
510296940.0 -0.1418624116 0.2705634939 0.1981709718 -0.3800406838 0.1980576258 -0.3801318297 -0.1326722061 0.2618343597
515296910.0 -0.1386849824 0.2721759049 0.1938544861 -0.3820698666 0.1941475842 -0.3819587982 -0.1304142367 0.2631787581
520296880.0 -0.1363565928 0.2739345081 0.1899850126 -0.3844624176 0.1896978783 -0.3840005179 -0.1271671033 0.2647545207
525296850.0 -0.1329292275 0.2750933562 0.1853840272 -0.3861108181 0.1860540611 -0.3863896289 -0.124482294 0.2664458694
530296820.0 -0.1301055784 0.2769109304 0.1810562905 -0.38835182 0.1813026967 -0.3882836796 -0.1219177557 0.2681466827
535296790.0 -0.1277823933 0.2783447717 0.1773332621 -0.3900244221 0.1772483001 -0.3899532018 -0.1192736318 0.2693541368
540296760.0 -0.1247410303 0.2796791153 0.1728429253 -0.3922631575 0.1728068408 -0.3922160256 -0.1161511215 0.2712138967
545296730.0 -0.121657888 0.281311838 0.1683121572 -0.3936518308 0.1685733093 -0.3939027603 -0.1138638259 0.272267372
550296700.0 -0.1185095052 0.2829192709 0.1641536771 -0.3961032703 0.1642112808 -0.395800618 -0.1109508141 0.2735210597
555296670.0 -0.1158900588 0.2838050114 0.1597202743 -0.3974745501 0.1600927916 -0.3971915638 -0.1080862162 0.2749684275
560296640.0 -0.1124298893 0.2858909527 0.1555175145 -0.3996912908 0.1558232601 -0.3991244347 -0.1051279367 0.2765662926
565296610.0 -0.1100244627 0.287041566 0.1510178767 -0.4007010694 0.1516853207 -0.4010169392 -0.1026207751 0.2775580873
570296580.0 -0.1066472992 0.2880929566 0.1466857764 -0.4026392159 0.1464706232 -0.4022917467 -0.0995469921 0.2790048616
575296550.0 -0.1040602985 0.289556524 0.1424593987 -0.403954858 0.1422051984 -0.4040059568 -0.0963967518 0.2800587762
580296520.0 -0.100865258 0.2910036716 0.1378230854 -0.4056483493 0.1380495682 -0.4057352103 -0.0937800938 0.281060836
585296490.0 -0.0978167504 0.2915935 0.1332802641 -0.406351265 0.1337084829 -0.4068965826 -0.0907448534 0.282132582
590296460.0 -0.0944130805 0.292980521 0.1288228348 -0.4079635451 0.1292517648 -0.4080731753 -0.0878514923 0.2834242013
595296430.0 -0.091613809 0.2940798982 0.1241066114 -0.4097851015 0.1245310035 -0.4092935423 -0.0846257581 0.2839199881
600296400.0 -0.0886282706 0.2952208428 0.1199841727 -0.4109209828 0.1203085956 -0.4107449663 -0.0819861511 0.2853083046
605296370.0 -0.0854253356 0.2961497663 0.1152297332 -0.4118501429 0.1157921785 -0.4120607798 -0.0786871464 0.2862319933
610296340.0 -0.0825148455 0.2972916555 0.1111854537 -0.4129481348 0.1111687815 -0.4130674035 -0.075824118 0.2870219697
615296310.0 -0.0790164412 0.2982978463 0.1063971547 -0.4141851659 0.1063484913 -0.4144192196 -0.0724385945 0.2877315376
620296280.0 -0.0761393482 0.2987712067 0.1021237547 -0.4150709705 0.1022007323 -0.4154206633 -0.0699940588 0.288766046
625296250.0 -0.0730848621 0.2999075915 0.0976194986 -0.4166365167 0.0977512209 -0.416641931 -0.0661063631 0.2896728133
630296220.0 -0.069163197 0.3008913987 0.0923057739 -0.4172495145 0.0925027932 -0.4171667403 -0.063098384 0.290647103
635296190.0 -0.066901717 0.3018843796 0.0885071603 -0.41835151 0.0888193237 -0.4185406753 -0.0601685216 0.2912163873
640296160.0 -0.063842056 0.3027023696 0.0840289471 -0.4192543674 0.0843349072 -0.4196124581 -0.056968333 0.2920713189
645296130.0 -0.0602664205 0.3037769998 0.0790574404 -0.420013046 0.0796701632 -0.4203175525 -0.0540981057 0.2930092582
650296100.0 -0.0571879925 0.3039411546 0.0745824182 -0.4207824471 0.0750471396 -0.4209248342 -0.0507189534 0.2935152737
655296070.0 -0.0540732849 0.3050138501 0.0705834057 -0.4218612987 0.0701832973 -0.4216810146 -0.0476806235 0.2941638717
660296040.0 -0.0511988372 0.3056948413 0.0657812678 -0.4223195145 0.0656400296 -0.4224344809 -0.0442827583 0.2948167896
665296010.0 -0.0476172564 0.3060427632 0.0603989204 -0.4228566031 0.0609713149 -0.4230822514 -0.0414279225 0.2960924728
670295980.0 -0.0448579449 0.3070762157 0.0564527669 -0.4234934125 0.0567694758 -0.4233674772 -0.0387422129 0.2963290101
675295950.0 -0.0414617462 0.3074718453 0.0518180147 -0.4236947654 0.0520754948 -0.4237425777 -0.0356310233 0.2970970696
680295920.0 -0.0378188794 0.308080747 0.0471654649 -0.424470255 0.0471098495 -0.4252019098 -0.0318744124 0.2981923214
685295890.0 -0.0349133959 0.3090280668 0.0424223018 -0.4251047132 0.0426890174 -0.425383664 -0.0290053705 0.2980844103
690295860.0 -0.031506955 0.3089383535 0.0378286146 -0.4248619528 0.037913913 -0.4256396769 -0.0259846485 0.2990912146
695295830.0 -0.0286307207 0.3093134918 0.0339683494 -0.4257648992 0.0330648697 -0.4257282731 -0.0224181822 0.2991766256
700295800.0 -0.0251702875 0.3099642629 0.0287879493 -0.4258751185 0.0285748789 -0.4259882306 -0.0198572497 0.2997563241
705295770.0 -0.022487732 0.3108295872 0.024210718 -0.4264822582 0.0244523571 -0.4264141173 -0.0166268179 0.3002818051
710295740.0 -0.0187012766 0.3110119047 0.0198982051 -0.427003394 0.0196239303 -0.4267223115 -0.0136548626 0.2999295055
715295710.0 -0.0157143933 0.3112875854 0.0153062885 -0.4270308154 0.0148731397 -0.426503539 -0.0102420505 0.3007479051
720295680.0 -0.0122680189 0.3113747646 0.0103028287 -0.4268799739 0.0107378381 -0.4267320761 -0.0072474358 0.3013384188
725295650.0 -0.0089030685 0.3119467379 0.0058639826 -0.4267034501 0.0059695003 -0.4269707708 -0.004376816 0.3015255453
730295620.0 -0.0056277397 0.3118763647 0.0014050076 -0.4266226793 0.0013168431 -0.4269014318 -0.0011867115 0.3014473644
735295590.0 -0.0025532344 0.3122398122 -0.0035964967 -0.4267789729 -0.0035106487 -0.4269297048 0.001876359 0.3012779031
740295560.0 0.0004878477 0.3127544543 -0.0078938636 -0.426809307 -0.0080077354 -0.4269207019 0.005432323 0.3020899177
745295530.0 0.0037438466 0.3125647894 -0.0127555519 -0.4262113067 -0.0128946292 -0.42629276 0.0084114426 0.3015306305
750295500.0 0.0073952955 0.3127939587 -0.016840579 -0.4261904101 -0.0170991778 -0.4264125319 0.0115102312 0.3017462148
755295470.0 0.0108967742 0.3125002095 -0.0217662327 -0.4262552616 -0.0218087573 -0.4261141169 0.0151457082 0.3012035562
760295440.0 0.0135348861 0.312594772 -0.0263479832 -0.4261220773 -0.0264244091 -0.4262488636 0.0174664998 0.3015272273
765295410.0 0.0169566028 0.3126493729 -0.0313571772 -0.4253539855 -0.0311177916 -0.4258031639 0.0212550757 0.3016028694
770295380.0 0.0199118858 0.3125813063 -0.0356407341 -0.4250190616 -0.0354477121 -0.4250085545 0.0239717746 0.3012375798
775295350.0 0.0233408043 0.3122812956 -0.0407667661 -0.4239948983 -0.0399080393 -0.424587705 0.0267294878 0.3011340399
780295320.0 0.0266199213 0.3122290074 -0.0450755439 -0.4239936293 -0.0443936632 -0.4238797476 0.030503261 0.3009457458
785295290.0 0.0297131962 0.311890447 -0.0498606022 -0.4230067533 -0.049446512 -0.4235784381 0.0337995651 0.3010259484
790295260.0 0.0335234698 0.3118236625 -0.0538799082 -0.4229804411 -0.0532229535 -0.4225472223 0.0370568701 0.3008980627
795295230.0 0.0364602437 0.3114703063 -0.0583633293 -0.421984465 -0.0582565215 -0.4225791295 0.0403469494 0.300160511
800295200.0 0.0393443567 0.3114469195 -0.0633813574 -0.4215615995 -0.0631409942 -0.4214619181 0.0435843709 0.3003425773
805295170.0 0.042953965 0.3108759869 -0.0678768004 -0.4206406291 -0.0677118656 -0.4208923479 0.0464150654 0.299671691
810295140.0 0.0463547545 0.3105613458 -0.0721879785 -0.4196685627 -0.0723698486 -0.420150722 0.0500648953 0.2994845991
815295110.0 0.0492998547 0.3097416313 -0.0769762096 -0.418577416 -0.0763468436 -0.4192059061 0.0527434247 0.2988563124
820295080.0 0.0524531314 0.3101160995 -0.0811564646 -0.4181734964 -0.0807322734 -0.4182482094 0.05645044 0.2989888757
825295050.0 0.0563124303 0.3093743563 -0.0853102195 -0.4172637671 -0.0857177577 -0.4171088371 0.0593865485 0.2982243133
830295020.0 0.0591249367 0.3089070037 -0.0904537466 -0.4161124221 -0.0902786636 -0.4164682493 0.0631688879 0.2977261564
