!Created with skrf (http://scikit-rf.org).
# Hz S RI R 50.0 
!freq ReS11 ImS11 ReS21 ImS21 ReS12 ImS12 ReS22 ImS22
300000.0 -0.095094895 -0.1033627054 0.6233460742 0.0943610699 0.6215267593 0.0966158933 -0.0954948934 -0.1075259702
5299970.0 -0.1012988587 0.0112965834 0.6304886995 0.0114935236 0.6310662208 0.0114233841 -0.1016268096 0.0107965074
10299940.0 -0.0968358021 0.0285980403 0.6345674389 0.0164269058 0.6343084494 0.0166108099 -0.096443618 0.0284524004
15299910.0 -0.0893760832 0.0423823263 0.6406793944 0.0213483672 0.64081529 0.0212229795 -0.0897315278 0.0416822534
20299880.0 -0.0805582313 0.0535125406 0.6489221828 0.0243196747 0.6492175411 0.0245874171 -0.0808326701 0.0528903467
25299850.0 -0.070133003 0.0624885366 0.6584801593 0.0258508457 0.6582125209 0.0254504455 -0.07164311 0.0618531783
30299820.0 -0.0608898988 0.0686968473 0.6680542581 0.0246764378 0.6680139681 0.0244879499 -0.0619103781 0.0685636328
35299790.0 -0.0505067388 0.0732465088 0.6769372583 0.0223033155 0.6771271783 0.0218085993 -0.0523110539 0.0736977251
40299760.0 -0.0411055076 0.0764397101 0.686780883 0.017422455 0.6868927464 0.0174636596 -0.0425404092 0.0769574898
45299730.0 -0.0320449224 0.0782669445 0.6954526262 0.0125059475 0.6961486058 0.0116854076 -0.0329343512 0.079026395
50299700.0 -0.0229501357 0.079135637 0.7039506365 0.0048093492 0.7039109905 0.0048427891 -0.0245689616 0.080268534
55299670.0 -0.015217015 0.0787595511 0.7115205338 -0.0022642119 0.7108775737 -0.002693591 -0.0171763596 0.0803382591
60299640.0 -0.0076997542 0.0786366374 0.718014159 -0.0112913891 0.7179907398 -0.0109311192 -0.0095594726 0.0797919
65299610.0 -0.0012724803 0.0771686713 0.7244840626 -0.0192963257 0.7242854088 -0.019752599 -0.0025318375 0.0785487857
70299580.0 0.0055369085 0.0753941048 0.7294990411 -0.0285719469 0.7292183609 -0.0290219684 0.0032265776 0.0772292201
75299550.0 0.0105473257 0.0733541822 0.7332589225 -0.03962036 0.7333776941 -0.03869109 0.0086703118 0.0754589682
80299520.0 0.0154505622 0.0713645523 0.7375103622 -0.0485204628 0.7378877862 -0.0488995317 0.0136333677 0.0735518221
85299490.0 0.0197888227 0.0691733422 0.7409428482 -0.0586161243 0.7412374551 -0.0584099197 0.0181019188 0.0709153982
90299460.0 0.0240729845 0.0667786186 0.7431215975 -0.0686290278 0.7433620138 -0.0687761325 0.0225675597 0.0692671021
95299430.0 0.0280599397 0.0641355636 0.7458695546 -0.0785653933 0.7465602933 -0.0793083458 0.0260164607 0.0666437432
100299400.0 0.0313207995 0.0615934415 0.7477138637 -0.0884819544 0.7475178464 -0.0890510401 0.0291195357 0.0647315801
105299370.0 0.0343120887 0.0590185551 0.7489689371 -0.0989281391 0.749870076 -0.0987793709 0.0327737285 0.0617796653
110299340.0 0.0374399 0.0564776622 0.750579233 -0.1085094745 0.7509074614 -0.1085379465 0.035057904 0.0594589993
115299310.0 0.0397047371 0.0544003837 0.7514148507 -0.1188534452 0.7512254516 -0.1186645247 0.0373417407 0.0575287938
120299280.0 0.0415479227 0.0521109514 0.7523283166 -0.1296826478 0.7519612109 -0.1294194589 0.0396819847 0.0546512355
125299250.0 0.0438477292 0.0496148332 0.7521032025 -0.1386360212 0.7522890066 -0.1386966114 0.0419560691 0.0530695295
130299220.0 0.045834577 0.0472463624 0.7520245156 -0.1487141285 0.7522080654 -0.1493668357 0.0439187334 0.0507145911
135299190.0 0.0468080661 0.0454346505 0.7520598628 -0.1580571612 0.7519552762 -0.1590029896 0.0457727925 0.0480409444
140299160.0 0.0490551053 0.0432783473 0.7515737374 -0.1686258598 0.7511654574 -0.1681376367 0.0461082229 0.0458206569
145299130.0 0.0494142322 0.0412268554 0.7503771047 -0.1778918256 0.7504869928 -0.1777205411 0.0479465089 0.0437715577
150299100.0 0.0509837489 0.0392621295 0.7492603333 -0.1878845273 0.7495611211 -0.1879698273 0.0490277846 0.0421099906
155299070.0 0.0523767467 0.0372208019 0.7476388118 -0.1973256614 0.7484688983 -0.1977924709 0.0506835843 0.0396581358
160299040.0 0.0533472438 0.0357280625 0.7470020269 -0.2069528845 0.7468360173 -0.2071192651 0.0511587273 0.038346583
165299010.0 0.0543294488 0.0334401616 0.745616306 -0.2159746872 0.7450712596 -0.216670928 0.0522840461 0.0360277974
170298980.0 0.055088293 0.0318145647 0.7427825671 -0.2256930218 0.7432310865 -0.2260063695 0.052724545 0.0340157468
175298950.0 0.0560435915 0.0303846865 0.7415486198 -0.2349486762 0.7420668417 -0.2355474498 0.053768649 0.0327430622
180298920.0 0.0564717746 0.028970388 0.739602435 -0.2444867239 0.7394363566 -0.2448234008 0.0542884918 0.0307760519
185298890.0 0.0568123125 0.0271074478 0.7380941656 -0.2537065273 0.7372599689 -0.2533705071 0.0552049493 0.0289228214
190298860.0 0.0579643032 0.0256813137 0.7342131144 -0.2626193951 0.7348122769 -0.2626756563 0.055342267 0.0273123001
195298830.0 0.0580393182 0.0240508482 0.7324243828 -0.2717190277 0.7327163813 -0.2717414967 0.055508639 0.0259834936
200298800.0 0.0584852056 0.0221445807 0.7298162542 -0.2809573335 0.7297272638 -0.2808460027 0.0562202362 0.0239216419
205298770.0 0.0581496004 0.0208285603 0.726941201 -0.2893182498 0.7275355037 -0.2891415477 0.0570062455 0.0228343394
210298740.0 0.0587882033 0.0200552574 0.7243631004 -0.2978948205 0.7238296386 -0.2982301577 0.0569707961 0.020974752
215298710.0 0.0594714452 0.0186469928 0.7209261882 -0.3064040647 0.7208316817 -0.3069766493 0.0572081496 0.0200396388
220298680.0 0.0597423782 0.0175048712 0.7175144929 -0.3158896217 0.7173981087 -0.3158117399 0.0572855474 0.0182538153
225298650.0 0.0599937282 0.0160875666 0.7141787003 -0.3238718899 0.7145673526 -0.3240481749 0.0575627199 0.016644198
230298620.0 0.0603281348 0.0151275826 0.7111455045 -0.3325008368 0.7113524352 -0.3329774956 0.0574354453 0.0152120008
235298590.0 0.0597810094 0.0138456896 0.7078309879 -0.3420606836 0.7081597602 -0.341110053 0.0578557275 0.0143408294
240298560.0 0.0603641385 0.012875206 0.7039142416 -0.349208997 0.7042022154 -0.3494127079 0.0576712467 0.0126894259
245298530.0 0.06020229 0.0112213523 0.7003703629 -0.3579374896 0.7000561921 -0.3581221231 0.0578340014 0.0116951879
250298500.0 0.0602031091 0.0102847124 0.6970337511 -0.3661221753 0.6966890717 -0.3658120132 0.0578763351 0.0106324482
255298470.0 0.0607212706 0.0096343367 0.6932267568 -0.3742792589 0.6933182377 -0.3741917762 0.0580473891 0.010066615
260298440.0 0.060616888 0.0081645343 0.689419189 -0.381353952 0.6891490058 -0.3822600803 0.0579015271 0.0079107841
265298410.0 0.0601667171 0.0076150203 0.6848214103 -0.3906804415 0.6844747397 -0.3908736658 0.0588491375 0.0066471103
270298380.0 0.0600724213 0.0059779149 0.6805992337 -0.3983489775 0.6803779207 -0.3978531667 0.0580833347 0.0061369582
275298350.0 0.0605677656 0.0057015104 0.6760983855 -0.4058869892 0.6753694712 -0.4063277815 0.0577580025 0.0050147239
280298320.0 0.0596694882 0.0045238587 0.6713403079 -0.4135582121 0.6725112094 -0.4141368912 0.0586000898 0.0040477438
285298290.0 0.0601145248 0.0033064257 0.6673110996 -0.4220349342 0.6674029495 -0.4211181869 0.0581919513 0.0026437487
290298260.0 0.0599657384 0.0026498796 0.6635816497 -0.4297555615 0.6633428891 -0.4294733931 0.0581979858 0.00181791
295298230.0 0.0598699074 0.0013739778 0.6585457254 -0.4378978779 0.6587573506 -0.4376438409 0.0580559774 0.0006233432
300298200.0 0.0602601739 0.0010692709 0.6539923116 -0.4450624643 0.6536193879 -0.4451172314 0.058043605 -0.0004416352
305298170.0 0.0602034545 -0.0009464256 0.6492864222 -0.4531928631 0.6493232012 -0.4530964799 0.0578405832 -0.0020790855
310298140.0 0.0601327433 -0.0015710129 0.6441771323 -0.4602336595 0.6445859407 -0.4600782311 0.0580398468 -0.003544128
315298110.0 0.059718121 -0.0032303892 0.6394763904 -0.4682759684 0.639306104 -0.468213909 0.0576162489 -0.0043347118
320298080.0 0.0596277623 -0.003819368 0.6332560762 -0.4757097308 0.6342931752 -0.4760189235 0.0574241282 -0.0056205771
325298050.0 0.0585565868 -0.005415284 0.6285806234 -0.4827710695 0.6287403637 -0.4831706682 0.0570934671 -0.0067622134
330298020.0 0.0575002499 -0.0058891231 0.6228697592 -0.4903768131 0.6232850694 -0.4903834711 0.0561350599 -0.0077746686
335297990.0 0.0577377184 -0.0067690187 0.6172622029 -0.4978312494 0.6171734713 -0.4976620631 0.0555353903 -0.0087740899
340297960.0 0.0569919333 -0.0076986223 0.6113908898 -0.5050647633 0.6108728024 -0.5045460321 0.0551493909 -0.0089765089
345297930.0 0.0563489589 -0.0085576162 0.6055493693 -0.5121283422 0.6056929162 -0.5117705894 0.0550026533 -0.0102446804
350297900.0 0.0558269224 -0.0091793211 0.6004725267 -0.5180454642 0.6007292043 -0.5177642869 0.0547196195 -0.0114205329
355297870.0 0.0557952713 -0.0096799173 0.5948291984 -0.5242336986 0.5942544614 -0.5244553909 0.0545043259 -0.0118100047
360297840.0 0.0552894955 -0.0103803782 0.5881682537 -0.5314977998 0.5880886556 -0.5319416786 0.0535742845 -0.0120181545
365297810.0 0.0548432108 -0.0110298743 0.5824106282 -0.5380579047 0.5825521782 -0.5381591538 0.0528462191 -0.0132230843
370297780.0 0.0545061388 -0.011458455 0.5756666987 -0.5444838868 0.5764282456 -0.54435401 0.0529390828 -0.0140757751
375297750.0 0.0542838597 -0.0121674851 0.5706500725 -0.5509426244 0.5709344702 -0.5508501235 0.0529135802 -0.0146948494
380297720.0 0.053434223 -0.0128087343 0.5643367247 -0.5581549465 0.5642368443 -0.5574800453 0.0520696389 -0.0148504095
385297690.0 0.0533307259 -0.0137501448 0.5579305837 -0.5632453743 0.5584660692 -0.564308886 0.0520762689 -0.0154912577
390297660.0 0.0530633327 -0.0143286925 0.5524553193 -0.5693540823 0.5524332476 -0.5700648061 0.0524056133 -0.0165819969
395297630.0 0.0531290028 -0.0151609509 0.5461284859 -0.5753721607 0.5457523605 -0.5757459264 0.0514821959 -0.0170587051
400297600.0 0.05216584 -0.015904047 0.5395550094 -0.5820256562 0.5401328262 -0.5817697581 0.0514857988 -0.0173295887
405297570.0 0.0520257848 -0.0167773323 0.5330810183 -0.5871588857 0.5331689342 -0.5879393537 0.0511633772 -0.0177108447
410297540.0 0.0514757785 -0.0166405509 0.5269730391 -0.5936379694 0.5267965634 -0.5939220529 0.0506051585 -0.0186255414
415297510.0 0.0511738122 -0.0175443933 0.5201401845 -0.5995128914 0.5207299517 -0.5997268922 0.0505929429 -0.0188800812
420297480.0 0.0509222414 -0.0183703847 0.5133174326 -0.605234934 0.5140425437 -0.6059403299 0.0501910053 -0.0194936047
425297450.0 0.0511092844 -0.0189105464 0.507283848 -0.6107462365 0.5070276763 -0.6110958107 0.0498295194 -0.0204043946
430297420.0 0.0499779908 -0.0192025773 0.5004503393 -0.6162081598 0.5009488237 -0.6158859974 0.0500335641 -0.021143256
435297390.0 0.0498052408 -0.0204566674 0.4930342173 -0.622695519 0.4934113206 -0.6221678257 0.0486868396 -0.0211837981
440297360.0 0.0497067864 -0.0210418943 0.4864869258 -0.6279765181 0.4866325961 -0.6279156219 0.0487230384 -0.0218554148
445297330.0 0.0495046622 -0.0219034314 0.4803866786 -0.632657298 0.4796029248 -0.6335923436 0.0484881851 -0.0220288105
450297300.0 0.0488857931 -0.0221787738 0.4730459063 -0.6385250461 0.4730189304 -0.6378212348 0.047867365 -0.0225396416
455297270.0 0.04782522 -0.0228616944 0.4665165117 -0.6432019959 0.4658535494 -0.643867977 0.0477951156 -0.0232946845
460297240.0 0.0481534269 -0.023563326 0.4589088263 -0.6496596501 0.4588650145 -0.6485327803 0.0472386079 -0.0240236784
465297210.0 0.0478010629 -0.0242279664 0.4515204229 -0.6536106655 0.4510966063 -0.6539695174 0.0474056224 -0.0237597606
470297180.0 0.0471423838 -0.0249244921 0.4440697457 -0.6583050944 0.4447109879 -0.6583187739 0.0471396891 -0.0250361983
475297150.0 0.0464663846 -0.0251740976 0.4374720458 -0.6634513814 0.4373422868 -0.6639607205 0.0468631274 -0.0253821168
480297120.0 0.0466584338 -0.0253991927 0.4295540172 -0.6682847802 0.4296163749 -0.6681822268 0.0459483286 -0.0260881973
485297090.0 0.0463136142 -0.0267474915 0.4225387551 -0.6730741369 0.4224042785 -0.673176976 0.0459706823 -0.0261889918
490297060.0 0.0461817381 -0.0266215531 0.414383229 -0.6774584976 0.4153140465 -0.678265455 0.0450661237 -0.0269648568
495297030.0 0.0453356438 -0.0278304108 0.4077799018 -0.6826224312 0.4074650142 -0.6828544184 0.0455933405 -0.0275483086
500297000.0 0.0448375617 -0.0278711079 0.4000647618 -0.6860015941 0.4004251382 -0.686852868 0.0448460294 -0.0276506186
505296970.0 0.0451063619 -0.0284261775 0.3924873223 -0.6915867889 0.3927750972 -0.6910033978 0.0446489705 -0.0291105767
510296940.0 0.0443688146 -0.0290734869 0.3855586776 -0.6963794838 0.3853450392 -0.6963693258 0.0443065904 -0.0288366252
515296910.0 0.0436657489 -0.0292115181 0.3768438492 -0.6997973322 0.3765592818 -0.6999934251 0.0437902484 -0.0301404006
520296880.0 0.0436866963 -0.0296065877 0.3695397149 -0.703554277 0.3694521885 -0.7035696667 0.0440187843 -0.029448328
525296850.0 0.0435903707 -0.0304705118 0.3620462551 -0.7075583438 0.3616184869 -0.7077058619 0.043418333 -0.0305763905
530296820.0 0.0427417675 -0.0310875706 0.3542681502 -0.7120080991 0.3541284159 -0.7117544519 0.0430314711 -0.0313854467
535296790.0 0.0429468347 -0.0312248295 0.3465520947 -0.7157095835 0.346636055 -0.7156545745 0.0429374613 -0.0309827363
540296760.0 0.0419840071 -0.0313482346 0.3380471742 -0.7192880969 0.3382879527 -0.7193879323 0.0423284376 -0.0323591111
545296730.0 0.0408621245 -0.0318414537 0.3302208221 -0.7230019623 0.3301806339 -0.7227513879 0.0423175716 -0.0325852675
550296700.0 0.0415388803 -0.0323889498 0.3225759589 -0.7268132964 0.3223664446 -0.7271467644 0.0418557669 -0.0329766725
555296670.0 0.0408057339 -0.0327275061 0.3145349519 -0.7304735892 0.3147608762 -0.7305504766 0.041014212 -0.033985114
560296640.0 0.0411811873 -0.0331688715 0.3065313244 -0.7336055868 0.3068940012 -0.7337380193 0.0405420561 -0.0336433438
565296610.0 0.039734963 -0.0336482153 0.2991302637 -0.7370859328 0.2992458129 -0.7364322686 0.0404138582 -0.0342388861
570296580.0 0.0392366784 -0.0336803851 0.2900980402 -0.7403104824 0.2908767001 -0.7406939211 0.0397936391 -0.0349625353
575296550.0 0.0389999632 -0.034299087 0.2826360499 -0.743568389 0.2824515164 -0.7431775679 0.0391601638 -0.0350571178
580296520.0 0.0388846614 -0.0341988076 0.2743670353 -0.7466600385 0.2739137381 -0.7468688197 0.0385084706 -0.0352679245
585296490.0 0.0384240885 -0.0345620253 0.266684834 -0.7490103529 0.2660450565 -0.7487712731 0.0385134112 -0.0354971061
590296460.0 0.038752113 -0.0349865094 0.2578926178 -0.7518969694 0.2578736636 -0.7525714453 0.0374735508 -0.0357558338
595296430.0 0.0379111573 -0.0352680724 0.249097758 -0.7551323208 0.2491342094 -0.755434648 0.0373877429 -0.0367491885
600296400.0 0.0375111308 -0.0356789771 0.2409779104 -0.7575877976 0.2409273287 -0.7582147333 0.0370711706 -0.0369981452
605296370.0 0.0360516435 -0.0359258829 0.233596052 -0.7605828848 0.2329602729 -0.760682461 0.0363669531 -0.0373783852
610296340.0 0.0365875514 -0.0356760603 0.225067087 -0.7616048828 0.2251018199 -0.7621602903 0.0355615617 -0.0374962976
615296310.0 0.0361079849 -0.0365699834 0.2161148349 -0.765535589 0.2157815699 -0.7653430846 0.0355634715 -0.0379216671
620296280.0 0.0350844748 -0.0363025282 0.2071087792 -0.7672797061 0.2074098112 -0.7672121916 0.0344178633 -0.0379991701
625296250.0 0.0346971891 -0.0367967914 0.1990299978 -0.7702764524 0.1997545104 -0.7700406152 0.0336443545 -0.0384641335
630296220.0 0.0344693307 -0.0369125826 0.1905241219 -0.7719733643 0.1909167117 -0.7718840785 0.0334320444 -0.0387653208
635296190.0 0.0334614751 -0.036907915 0.1826385135 -0.7738097625 0.1827965161 -0.7738612003 0.0329920065 -0.0390888943
640296160.0 0.033073975 -0.0371171892 0.1740337537 -0.776463339 0.1739478047 -0.7759395494 0.0321354335 -0.039559566
645296130.0 0.0328939367 -0.0368433329 0.1648467725 -0.7770425361 0.1660035422 -0.7776794258 0.0315364187 -0.040414121
650296100.0 0.0321066412 -0.0374148615 0.1572025316 -0.7799876316 0.1569302922 -0.7797111528 0.0321621437 -0.0401881286
655296070.0 0.0315615362 -0.0376567536 0.1483416577 -0.7814803426 0.1487661945 -0.7808579013 0.0303687565 -0.0401983037
660296040.0 0.0313065656 -0.037565515 0.1401270828 -0.7832723413 0.1400230948 -0.782938153 0.029833045 -0.0411383508
665296010.0 0.0306815231 -0.0378087844 0.1309229901 -0.784078725 0.1311487593 -0.7840670232 0.0293253309 -0.0409500381
670295980.0 0.0302802128 -0.0376886552 0.1226307524 -0.7856306178 0.1225449105 -0.7849220227 0.0283509096 -0.0415426014
675295950.0 0.0293569266 -0.0380941551 0.1144389225 -0.7862472361 0.1148874639 -0.7862957592 0.0280441697 -0.0413516541
680295920.0 0.0290455272 -0.0381147763 0.1064196138 -0.7878044896 0.1062539527 -0.7881291842 0.0278288049 -0.0422497922
685295890.0 0.0284645623 -0.03778468 0.0971970855 -0.7893768173 0.0969180814 -0.7892344964 0.0272286319 -0.0414178186
690295860.0 0.0275990494 -0.0381255638 0.0884823351 -0.7899194061 0.0882713718 -0.790399006 0.0263852037 -0.0421656034
695295830.0 0.027459521 -0.0386323308 0.0804927435 -0.7914522122 0.0800994168 -0.7910983433 0.0258831714 -0.0422239492
700295800.0 0.0269843324 -0.0382272794 0.0715352691 -0.7920714702 0.0714634842 -0.791693378 0.0252251476 -0.0420649129
705295770.0 0.0257649524 -0.0383379728 0.062919836 -0.7932688322 0.0631593054 -0.7922260631 0.0245263939 -0.0421811952
710295740.0 0.0254556476 -0.0386705381 0.0544959195 -0.7937644213 0.0545875013 -0.7932778495 0.0242215664 -0.0420912925
715295710.0 0.0246188134 -0.0381912223 0.0452911656 -0.7936710861 0.0457979895 -0.7942264978 0.0231949601 -0.0427707874
720295680.0 0.0247801462 -0.038459545 0.0371854536 -0.7938012204 0.0371872231 -0.7943227138 0.0226107311 -0.0428172016
725295650.0 0.0231991559 -0.038216423 0.0282248842 -0.7944473652 0.0284601824 -0.794504489 0.0215089822 -0.0424239982
730295620.0 0.022312395 -0.0388235634 0.0197266747 -0.794559079 0.0196980003 -0.7940118675 0.0209413247 -0.0421182629
735295590.0 0.0224600321 -0.0385233598 0.0110271126 -0.7949524665 0.0111744397 -0.795263819 0.0201611322 -0.0431087017
740295560.0 0.0217219373 -0.0389080355 0.0023833714 -0.7948812209 0.0030417872 -0.7953378361 0.0193225933 -0.0423736038
745295530.0 0.0208409283 -0.0386027586 -0.0059625088 -0.7941685593 -0.0053957991 -0.7947009087 0.0182028542 -0.0427877389
750295500.0 0.0199127167 -0.038460967 -0.0147047137 -0.7946941797 -0.0149639615 -0.7945150997 0.0180404662 -0.042566513
755295470.0 0.0192967559 -0.0384932617 -0.0230066942 -0.794895717 -0.0226586856 -0.7944968276 0.0176591919 -0.0421701914
760295440.0 0.0187909083 -0.0378927569 -0.0324321816 -0.79481382 -0.0320395108 -0.7940030275 0.0169818133 -0.0435718372
765295410.0 0.0185920475 -0.0387103723 -0.0405692671 -0.7937298206 -0.0399669654 -0.7934669122 0.0162660501 -0.0429556372
770295380.0 0.0179051544 -0.0383548599 -0.0491079393 -0.793161944 -0.0491541793 -0.7936945069 0.0153422139 -0.0428020681
775295350.0 0.017373931 -0.0384143107 -0.0577533796 -0.7926835966 -0.0571085155 -0.7922664003 0.0152066319 -0.0422507453
780295320.0 0.0165061612 -0.0379757848 -0.0657386376 -0.7909739481 -0.0657053702 -0.7918972031 0.0147756349 -0.0429335314
785295290.0 0.0157526828 -0.0381122419 -0.0746580298 -0.7911349389 -0.0747258315 -0.7912282819 0.013077988 -0.0421924823
790295260.0 0.0155155629 -0.0384210634 -0.0828812507 -0.7906130908 -0.082642919 -0.7906506372 0.0125586443 -0.0418623487
795295230.0 0.0145160878 -0.038623242 -0.0921548017 -0.7896902458 -0.0919328058 -0.7899523601 0.0124399565 -0.0430934681
800295200.0 0.0135628255 -0.0378418512 -0.099800956 -0.7877155085 -0.1001482326 -0.7880125304 0.0115301386 -0.0420674908
805295170.0 0.0128481016 -0.0382505738 -0.1086526941 -0.7869096601 -0.1085669596 -0.7875550881 0.0115780416 -0.0422587334
810295140.0 0.012673254 -0.0379902303 -0.1175479386 -0.7857075651 -0.1173846327 -0.7857423819 0.0106295902 -0.04213068
815295110.0 0.0118770775 -0.0375822911 -0.1259348397 -0.7846199951 -0.1255647825 -0.7845359467 0.0098349337 -0.0421385264
820295080.0 0.0115224141 -0.0379888437 -0.1336412602 -0.7828950552 -0.1342521673 -0.7830346091 0.0080204909 -0.0409025217
825295050.0 0.0105362379 -0.038129881 -0.1431538244 -0.7817295243 -0.142656761 -0.7809795012 0.0088143302 -0.0408528193
830295020.0 0.009694253 -0.0377388893 -0.1512953834 -0.7800481561 -0.1511719444 -0.7800731311 0.0076272197 -0.0417278068
