!Created with skrf (http://scikit-rf.org).
# Hz S RI R 50.0 
!freq ReS11 ImS11 ReS21 ImS21 ReS12 ImS12 ReS22 ImS22
300000.0 0.8591538748 -0.0027677172 -0.0008365002 -0.0002104877 -0.0005020905 9.66288e-05 -0.7748186763 -0.1318661862
5299970.0 0.8594266307 -0.0100281908 0.0001743152 0.000193645 -0.0001580746 0.0001940446 -0.7841707342 -0.0074093014
10299940.0 0.8577699682 -0.0186575227 -5.36417e-05 1.9618e-06 3.46417e-05 -2.94623e-05 -0.7877616637 -0.0037647508
15299910.0 0.8572726277 -0.0271464036 0.0003205905 -2.4197e-05 1.93056e-05 -2.34576e-05 -0.7928006609 -0.0011620749
20299880.0 0.8566533357 -0.0354214535 -6.14058e-05 -7.31793e-05 -0.0001560381 0.0001244567 -0.7994918528 0.0026410729
25299850.0 0.8559515328 -0.0431791837 -0.0002099219 -0.0001181469 7.3908e-05 0.0001469293 -0.8057453098 0.0085351566
30299820.0 0.8542182913 -0.0522911345 -9.96133e-05 -0.0002823862 -6.43263e-05 -0.000158459 -0.8116503356 0.0163396532
35299790.0 0.8542915616 -0.0604285453 0.0001016932 7.86348e-05 0.0001087714 2.82409e-05 -0.8170520384 0.0252225762
40299760.0 0.8533683081 -0.0691230817 -0.0001225273 -4.62565e-05 -7.81852e-05 0.0001039841 -0.8213392708 0.0347792672
45299730.0 0.8532004954 -0.0769458231 -1.43912e-05 0.0001346137 0.0001561531 3.05612e-05 -0.8248501747 0.0442621044
50299700.0 0.8521306751 -0.0846556876 -0.0002203432 -0.0001463244 -8.36075e-05 1.82057e-05 -0.8270751511 0.0542789908
55299670.0 0.850918031 -0.0938163922 -0.0001573693 0.0001587926 5.63881e-05 -0.0001122604 -0.8294805202 0.0644621497
60299640.0 0.849988638 -0.1014050979 0.0002372745 0.0001632403 -9.39982e-05 1.4947e-05 -0.8304129707 0.074115792
65299610.0 0.8482053328 -0.1097602139 8.1716e-05 -4.62037e-05 -0.0001174568 -9.34328e-05 -0.8319733011 0.0842567313
70299580.0 0.8472392088 -0.1182885754 -2.8204e-05 0.0002814225 9.50808e-05 -4.6524e-05 -0.8316285034 0.0943684439
75299550.0 0.8460471112 -0.1263396141 -0.0001604886 -2.70301e-05 -4.88759e-05 7.1875e-05 -0.8322424558 0.1042630407
80299520.0 0.8447997092 -0.134779333 6.78094e-05 8.32924e-05 -7.59417e-05 4.02954e-05 -0.8321065106 0.1140908875
85299490.0 0.8432817309 -0.1428908122 2.73107e-05 -7.45737e-05 0.0001169571 3.73776e-05 -0.8318563609 0.1236567232
90299460.0 0.8420956051 -0.150972646 -8.7007e-06 -0.0001074831 5.19136e-05 -8.24977e-05 -0.8306293381 0.133272641
95299430.0 0.8399460826 -0.159727524 0.0001893539 8.27161e-05 0.0001520201 5.517e-06 -0.8291128565 0.1430447001
100299400.0 0.8379966751 -0.1677227155 -4.73753e-05 4.30641e-05 -5.17706e-05 -0.0002498077 -0.8285423861 0.1517452655
105299370.0 0.8371720733 -0.1753900869 5.59421e-05 8.45018e-05 -1.31456e-05 -0.000132658 -0.8267646558 0.1606066772
110299340.0 0.8353700777 -0.1843350498 -3.18888e-05 5.2122e-05 4.6586e-06 -9.14826e-05 -0.8254558399 0.1706785795
115299310.0 0.8333436266 -0.1922262525 9.95932e-05 -1.95007e-05 0.0001848167 -0.000215817 -0.8240039889 0.1801553006
120299280.0 0.8317503753 -0.2001367968 0.0002361216 -3.58134e-05 4.68724e-05 -5.02838e-05 -0.8221937796 0.188614527
125299250.0 0.8292857705 -0.2082243155 4.04519e-05 0.0001291514 9.52829e-05 3.12003e-05 -0.8209013305 0.1978298866
130299220.0 0.827294764 -0.216562198 0.0001517478 -4.4331e-06 0.0001868078 -4.56865e-05 -0.8186271009 0.2067668068
135299190.0 0.8257251444 -0.2241127746 0.0001735358 9.63059e-05 -0.0001850299 7.19984e-05 -0.816415604 0.2157024565
140299160.0 0.8230081074 -0.2322516399 -0.0001530346 -1.7141e-05 0.0001379686 2.86398e-05 -0.8139455609 0.2248371285
145299130.0 0.8201071339 -0.2405136885 -0.0001741534 0.0002352648 0.0001015551 -0.0001410325 -0.811981442 0.2339831699
150299100.0 0.8183768703 -0.2481912577 6.33591e-05 -0.0001575884 9.15045e-05 -5.08051e-05 -0.8101810669 0.2430756734
155299070.0 0.8155680666 -0.2567056861 -0.000123783 -6.55992e-05 0.0001090342 -6.84055e-05 -0.807204371 0.2515658709
160299040.0 0.8130525594 -0.2645014813 -1.76876e-05 0.0001650849 0.000119771 2.79248e-05 -0.8050823419 0.2604333717
165299010.0 0.8103206112 -0.2722816156 6.97462e-05 -4.16555e-05 -0.0002905226 9.00906e-05 -0.8020598993 0.26924438
170298980.0 0.8076744928 -0.2802447185 5.8022e-06 -3.30477e-05 -6.04599e-05 0.0001277013 -0.7991155777 0.2779621828
175298950.0 0.8044038288 -0.2882669647 -6.40161e-05 -0.0001308269 2.40909e-05 -8.0257e-06 -0.7965388771 0.286568105
180298920.0 0.802725125 -0.2955204086 0.0001392256 -0.0002182814 4.89285e-05 -0.0002198401 -0.7936995087 0.2950423203
185298890.0 0.7990743079 -0.3038673774 0.000183003 0.0001998637 0.0001012107 6.67219e-05 -0.7901622951 0.3039570304
190298860.0 0.7955230779 -0.3114856527 7.77454e-05 -5.20488e-05 -3.82275e-05 -0.0001689312 -0.7880700799 0.3123509689
195298830.0 0.7927850124 -0.3188636227 -1.5393e-06 8.92889e-05 8.4612e-05 -0.0001776484 -0.7844627562 0.3210298905
200298800.0 0.7889381483 -0.3260947782 -0.0001688651 1.87733e-05 0.0002654836 -3.5586e-05 -0.7816887329 0.3294320246
205298770.0 0.7859052591 -0.3346481666 -0.0001082747 0.0001345296 -0.0001022166 -0.0001072175 -0.7775197589 0.3375914182
210298740.0 0.7827645678 -0.3420616766 0.0001067215 -6.90092e-05 -2.00546e-05 1.61299e-05 -0.7739842261 0.34558346
215298710.0 0.7796146533 -0.3502851254 -2.09202e-05 -9.21606e-05 4.12572e-05 -0.000113564 -0.7703983792 0.3537215377
220298680.0 0.7762856156 -0.35744714 -0.0001453302 0.000156254 -2.6116e-05 -5.53108e-05 -0.7673165137 0.3620003975
225298650.0 0.7723698924 -0.365544666 -9.28095e-05 -4.47728e-05 -0.0001521848 0.0001283111 -0.7637713249 0.3700878293
230298620.0 0.7686021898 -0.3724552404 -6.49245e-05 2.87284e-05 6.41817e-05 0.0001536784 -0.7597992664 0.3779237207
235298590.0 0.7645299012 -0.3800041841 2.28629e-05 -6.84989e-05 2.21571e-05 -2.854e-07 -0.7553680698 0.3866231156
240298560.0 0.7613594722 -0.3875388973 -3.13019e-05 -1.8751e-06 -7.2226e-06 0.0001337609 -0.7515039606 0.3955795298
245298530.0 0.7571105993 -0.3950213898 5.92701e-05 3.79945e-05 -0.0001009463 -4.26219e-05 -0.7473609628 0.4022333747
250298500.0 0.753270703 -0.4018444716 -0.0001667477 -1.55037e-05 2.83747e-05 3.95172e-05 -0.7434948016 0.4099591115
255298470.0 0.7492365025 -0.4100377327 9.34031e-05 -2.94312e-05 -0.0001319846 6.62053e-05 -0.7382836438 0.4174770502
260298440.0 0.7453637239 -0.4169014381 -6.5299e-05 1.82973e-05 -0.0001495441 -0.0001267049 -0.7346484963 0.426248863
265298410.0 0.7407992954 -0.4240340059 -0.0001002281 2.42485e-05 -8.578e-06 4.33986e-05 -0.7301815785 0.4336606502
270298380.0 0.7370494578 -0.4311618668 2.08059e-05 -2.92912e-05 -6.15462e-05 -3.2321e-05 -0.7254933205 0.4412231731
275298350.0 0.7328230452 -0.4387266837 0.000234891 3.9854e-06 6.0809e-06 0.000242077 -0.7208912976 0.4484387069
280298320.0 0.7280946973 -0.4455105761 -0.0002520396 -0.0001879634 -5.89769e-05 -5.00818e-05 -0.7157816795 0.4560416163
285298290.0 0.7251462748 -0.4527324288 -6.60144e-05 0.0001445825 -1.89431e-05 7.50747e-05 -0.7107793329 0.4631452312
290298260.0 0.7199623616 -0.4595374228 -1.2634e-06 3.4216e-06 -9.96928e-05 -4.9455e-05 -0.7058711927 0.4707240561
295298230.0 0.7158382708 -0.4669561839 0.0001710505 0.0003100294 -0.0001434897 -1.84966e-05 -0.7008980656 0.4778891139
300298200.0 0.7113796421 -0.4740938039 0.0001127579 4.4009e-06 0.0001275653 -0.0004295754 -0.6958028531 0.4852484718
305298170.0 0.7066009147 -0.4811134628 6.11893e-05 4.4723e-06 3.54418e-05 0.0001071914 -0.6902989124 0.4929890399
310298140.0 0.7026320061 -0.4884068139 -2.8847e-06 0.000117336 2.48836e-05 1.10031e-05 -0.6860255763 0.5002112283
315298110.0 0.6980224499 -0.4955985378 -0.000154025 -8.43248e-05 -5.89747e-05 -9.46467e-05 -0.6796639517 0.5068436647
320298080.0 0.6938547102 -0.5034646836 -0.0001497552 -0.0001566735 -7.57789e-05 -1.38453e-05 -0.6740595267 0.5144643673
325298050.0 0.6875817003 -0.5104730706 -4.51397e-05 -3.56002e-05 -0.0001372574 1.06431e-05 -0.6691770965 0.5211093035
330298020.0 0.6822346734 -0.5181464573 -0.0002172361 2.62738e-05 -6.52574e-05 0.0001411183 -0.6635503557 0.528309563
335297990.0 0.676050554 -0.5247215533 2.19695e-05 -4.54108e-05 7.26525e-05 0.0001230574 -0.6584339359 0.5356500749
340297960.0 0.6700178984 -0.5316890976 3.63084e-05 -7.57211e-05 -0.0001413467 -6.93428e-05 -0.6519571703 0.5421372828
345297930.0 0.6638769368 -0.5378257677 -9.18253e-05 -3.06754e-05 -4.66442e-05 9.88041e-05 -0.6463975075 0.5483595742
350297900.0 0.6582752784 -0.5436152226 3.85202e-05 -0.0002404494 0.0003238661 -0.0001859685 -0.6413048645 0.5550934348
355297870.0 0.6532809709 -0.5498740952 -0.0001568836 5.8422e-05 -8.69731e-05 -7.1257e-05 -0.6360031691 0.5615955764
360297840.0 0.6468811647 -0.556404698 2.6811e-06 5.10124e-05 -0.0002306213 2.7981e-05 -0.6302887908 0.5690712158
365297810.0 0.6411117516 -0.562597082 0.0001519086 2.01023e-05 -1.11411e-05 -0.0001435125 -0.6233894285 0.5752463437
370297780.0 0.6359986466 -0.5681092068 0.0001010379 -1.0711e-06 0.0001229642 -0.0001074926 -0.6175050081 0.5820252798
375297750.0 0.6294175993 -0.5741825825 0.0001145521 -0.0001306487 8.99797e-05 -1.68833e-05 -0.6111689185 0.5879274123
380297720.0 0.6243586948 -0.5805871265 -7.36296e-05 -8.7619e-06 -9.37639e-05 2.65173e-05 -0.6058392407 0.5942424768
385297690.0 0.6182501889 -0.586163641 -0.0002654142 0.0001315065 -0.0002529827 -2.83117e-05 -0.5993584423 0.6006287471
390297660.0 0.6127520745 -0.5917509405 7.6734e-06 0.0001292474 -0.0001806074 -2.26215e-05 -0.5934055254 0.6065176132
395297630.0 0.6061960036 -0.5980110854 -0.0001914928 0.0001123597 -8.74637e-05 -0.0001595227 -0.5864589213 0.6131142478
400297600.0 0.6010324854 -0.6039849321 -6.83213e-05 3.97544e-05 -3.08081e-05 3.41328e-05 -0.5805571868 0.6185791782
405297570.0 0.5946171372 -0.6095088812 0.0001540597 -1.23599e-05 0.0001494329 6.50707e-05 -0.5742821498 0.6250033358
410297540.0 0.5885231467 -0.6156932848 -0.0002634239 8.11963e-05 6.6423e-05 -8.42676e-05 -0.5671733336 0.6308400653
415297510.0 0.5826714586 -0.621529439 -0.0001207961 6.00574e-05 -0.0001236955 -4.38357e-05 -0.5610176761 0.6366019925
420297480.0 0.5762061913 -0.6263979074 -1.2229e-06 -0.0001316201 -5.07128e-05 -8.906e-07 -0.5544060695 0.6422774678
425297450.0 0.5698542618 -0.6321132037 0.0002047353 -0.0001557812 -9.02983e-05 -0.0001483876 -0.5476300939 0.647570302
430297420.0 0.5640009009 -0.6374938948 -0.0001177168 1.44027e-05 -0.0001049674 7.16816e-05 -0.5409230722 0.6532338299
435297390.0 0.5577995364 -0.6429196406 -0.0001449509 -2.9246e-06 -7.47536e-05 2.3708e-05 -0.5341199889 0.6584991257
440297360.0 0.5508427691 -0.6490220768 -0.0001120066 -0.0001252647 9.21415e-05 -7.85709e-05 -0.5275508976 0.6638945765
445297330.0 0.5441906135 -0.6539021961 -9.23116e-05 -8.3613e-05 -3.56861e-05 0.0001067449 -0.5205305725 0.6686426137
450297300.0 0.5380994653 -0.6590535103 0.0002003641 0.0001129389 -6.17671e-05 -0.0001514267 -0.5132355548 0.6740192292
455297270.0 0.5308948786 -0.6638840278 -6.66694e-05 2.34958e-05 -0.0001162097 0.0002012257 -0.5064414189 0.6785183553
460297240.0 0.5249953404 -0.6693160883 -0.0001080579 -1.53252e-05 -0.0001138906 -0.0001108136 -0.4994266091 0.6839682437
465297210.0 0.5181485841 -0.674372707 0.0001430673 -1.49207e-05 -9.73632e-05 -2.31813e-05 -0.4915916807 0.6889897333
470297180.0 0.5112990546 -0.6793025054 0.0001666678 2.77893e-05 -3.49291e-05 0.0001346294 -0.4846974454 0.6937778973
475297150.0 0.504932504 -0.6845763712 0.0001971261 -3.60828e-05 -2.03e-05 -0.0001610153 -0.4776742704 0.6983597924
480297120.0 0.4974088026 -0.689246026 -0.0003072024 5.80177e-05 2.95758e-05 -5.42032e-05 -0.4702103927 0.7035349217
485297090.0 0.4904380835 -0.6941009043 0.0001378184 0.0001874704 -4.63784e-05 1.6159e-06 -0.4630195831 0.7080409769
490297060.0 0.4831426636 -0.6991042134 -4.85862e-05 -0.0002004756 -2.3605e-06 2.95444e-05 -0.4559995088 0.7125151442
495297030.0 0.4770119393 -0.7030402526 3.34435e-05 -6.39162e-05 -6.06823e-05 -0.0001120463 -0.4486855054 0.7178287164
500297000.0 0.4697675565 -0.7083129821 -9.1008e-06 0.0001503588 -1.87343e-05 -2.02978e-05 -0.4406878478 0.722332664
505296970.0 0.463089731 -0.7124126482 -0.000162765 -0.0001857702 -4.05084e-05 -8.3751e-05 -0.4334800762 0.7262697735
510296940.0 0.4558034905 -0.717288705 0.0002339277 2.75369e-05 -0.0001043001 -7.18785e-05 -0.4262960807 0.7308347173
515296910.0 0.4489426698 -0.7215733956 6.33992e-05 8.33651e-05 -0.0001317908 -8.34223e-05 -0.4189230677 0.7349500522
520296880.0 0.4412688035 -0.7258227134 6.42854e-05 1.97234e-05 0.0001337184 6.42623e-05 -0.41106688 0.7388214066
525296850.0 0.4338679485 -0.730280743 0.0001113072 4.83292e-05 9.21588e-05 0.0003462211 -0.4043026052 0.7442228256
530296820.0 0.4269603585 -0.7337891505 -0.0002407041 8.66691e-05 9.80642e-05 0.0001324839 -0.3963461009 0.7477818912
535296790.0 0.4196722447 -0.737888018 -1.68464e-05 -8.44411e-05 -0.0001363474 0.0001566382 -0.3894304036 0.7516487855
540296760.0 0.4120484788 -0.741801 -2.82796e-05 4.1469e-06 -0.0001233653 -3.60786e-05 -0.3808426781 0.7557473035
545296730.0 0.4043685726 -0.7459717573 4.46072e-05 2.4508e-06 -8.28193e-05 4.13084e-05 -0.3736570923 0.758801566
550296700.0 0.3974960364 -0.7490048718 -9.56921e-05 -4.38824e-05 -7.82213e-05 0.0002388166 -0.3655846603 0.7630956885
555296670.0 0.3896882928 -0.7532276201 -9.3247e-06 -6.34747e-05 6.54183e-05 7.77634e-05 -0.358114718 0.7671172313
560296640.0 0.3819603785 -0.7567741719 9.33506e-05 0.0001020745 7.30071e-05 -6.72366e-05 -0.3500550262 0.7708704007
565296610.0 0.3751141301 -0.7608454093 0.00033418 -4.21134e-05 0.000124208 6.8599e-06 -0.3420857564 0.7732372861
570296580.0 0.3668596191 -0.7642302764 6.485e-06 5.012e-07 -9.9482e-05 -6.84067e-05 -0.3353359613 0.7770694434
575296550.0 0.3593433455 -0.7676303799 -0.0001829686 -1.02114e-05 -5.87549e-05 -1.22591e-05 -0.3264412773 0.7804769652
580296520.0 0.352272778 -0.7714337681 -0.0002284157 1.40532e-05 -0.0001238035 1.33002e-05 -0.3181121385 0.7839805477
585296490.0 0.3433853817 -0.7751343201 -0.0001492861 -3.3768e-05 5.45158e-05 -8.64837e-05 -0.3103156902 0.7873734492
590296460.0 0.3366358394 -0.777134755 2.30716e-05 5.21936e-05 -0.000144564 0.0001260056 -0.3028979956 0.7899396249
595296430.0 0.3282899549 -0.7809359208 -6.2377e-06 3.637e-05 0.0002435318 0.0001166303 -0.2947429804 0.7923205642
600296400.0 0.3205113879 -0.7837867203 0.0002046136 -8.35302e-05 -0.0001152186 -9.46518e-05 -0.2866955435 0.7951239688
605296370.0 0.3130585973 -0.7868561639 0.0001173676 1.72941e-05 1.81577e-05 0.0002562919 -0.2782959207 0.7985554662
610296340.0 0.3045273409 -0.7899808846 3.75803e-05 -2.13528e-05 -2.04511e-05 0.0001703038 -0.2701766095 0.8013227602
615296310.0 0.2976288484 -0.7937692691 -0.000199782 9.03856e-05 -7.08023e-05 2.50415e-05 -0.2618443224 0.8030883303
620296280.0 0.2890543638 -0.7959403926 0.0002891249 -0.0001471438 0.000105309 -9.6175e-05 -0.254377577 0.8057497202
625296250.0 0.2816906871 -0.7986253407 2.56504e-05 0.0002008637 -4.70896e-05 0.0001129897 -0.2454918912 0.8077903727
630296220.0 0.2742802807 -0.8013032634 -3.38089e-05 5.60384e-05 -9.448e-07 -0.0001558542 -0.2374173067 0.8108329032
635296190.0 0.2655159372 -0.8040276792 -7.69355e-05 0.0001615235 7.41846e-05 0.0001459395 -0.2293938234 0.8126868002
640296160.0 0.257405782 -0.8063943582 -5.30088e-05 -9.86858e-05 -0.0001343165 -1.73725e-05 -0.2212142788 0.8152392796
645296130.0 0.2489502243 -0.8084793953 -0.000239975 0.0001544057 3.8478e-06 8.82665e-05 -0.2128034537 0.8173908714
650296100.0 0.2410763877 -0.8110994651 -5.54491e-05 3.29624e-05 -0.0001271824 -5.44441e-05 -0.2049893758 0.8187369852
655296070.0 0.2330504481 -0.8136409611 -3.5849e-06 5.9149e-05 -0.0001602854 -0.0001320724 -0.1966411769 0.8206155704
660296040.0 0.2250901005 -0.8149120293 -0.0001126427 -0.0001241056 2.6648e-06 4.99202e-05 -0.1875572003 0.8234485522
665296010.0 0.216597908 -0.8173059064 -2.32597e-05 5.2474e-06 -0.0001237966 -6.45368e-05 -0.1790920712 0.8248339706
670295980.0 0.2079446152 -0.819311561 -2.87318e-05 0.000241981 5.58563e-05 -0.0002426916 -0.1716921001 0.8264370022
675295950.0 0.2002358723 -0.8212485261 0.0002600843 6.94134e-05 -4.7735e-05 0.0001243975 -0.1635027964 0.8281564122
680295920.0 0.1918232867 -0.8230620768 5.76188e-05 -1.7658e-05 -6.05587e-05 -7.6683e-05 -0.1550440615 0.8311144473
685295890.0 0.1847044236 -0.8243369675 0.0001371927 2.34113e-05 7.47785e-05 -0.0001147299 -0.1457261429 0.8313310526
690295860.0 0.1759270596 -0.82597277 1.017e-07 0.0001746535 1.05972e-05 0.0001797297 -0.1384942462 0.8336412542
695295830.0 0.1673680845 -0.8278480506 0.0001465283 7.9871e-05 0.0001454403 0.000168834 -0.1296938426 0.8344256551
700295800.0 0.1594484272 -0.8296503553 -8.85925e-05 -3.63524e-05 -2.76419e-05 9.4275e-05 -0.1219456877 0.8359442695
705295770.0 0.1507106311 -0.830869986 -0.0001331088 -9.80348e-05 0.0001344634 5.26328e-05 -0.1137774655 0.8379587222
710295740.0 0.1421940351 -0.8321548076 -5.25255e-05 -0.0001326377 -1.23852e-05 -0.0001522784 -0.1050393304 0.8380342838
715295710.0 0.1339331905 -0.833466431 3.63789e-05 0.000101824 9.59428e-05 4.67684e-05 -0.0961383997 0.8391280673
720295680.0 0.1261834287 -0.8348712906 -0.0001312268 -0.0001274852 -3.11172e-05 -0.0001295875 -0.088188304 0.8409605575
725295650.0 0.1174872928 -0.8351640171 -0.0002116249 -4.8741e-05 -5.98298e-05 6.1944e-05 -0.0799595256 0.8421155112
730295620.0 0.1092113468 -0.8362370781 1.99627e-05 -0.0002463931 -0.0001306562 4.4462e-06 -0.0721951542 0.8420635557
735295590.0 0.1007500888 -0.836413899 -1.55157e-05 5.468e-05 -5.91797e-05 -3.82325e-05 -0.0631912941 0.8428767991
740295560.0 0.0921038366 -0.8378758534 0.000127114 0.0002875446 -7.42401e-05 -0.0001070627 -0.054104378 0.8436523421
745295530.0 0.0841143543 -0.8388869721 -2.8223e-06 -1.31411e-05 0.0001378359 0.0002266409 -0.0460544294 0.8438427692
750295500.0 0.0757475296 -0.8393572353 7.83561e-05 -9.75236e-05 -8.92971e-05 -0.0001957613 -0.037996986 0.8438339646
755295470.0 0.0672142169 -0.8400231586 9.15248e-05 0.0002386159 2.21248e-05 -9.58868e-05 -0.0290165001 0.8436734065
760295440.0 0.0587436044 -0.8403956696 -8.65747e-05 0.0001130445 -8.34582e-05 -1.7747e-05 -0.0210107403 0.8445160486
765295410.0 0.0505877635 -0.8408740465 -0.0001766665 7.48944e-05 7.02516e-05 0.0001049807 -0.0124256958 0.8448988498
770295380.0 0.0420936968 -0.8416043161 7.17085e-05 -5.24001e-05 -0.0002487408 0.0001049601 -0.0042587683 0.8443940083
775295350.0 0.0335690469 -0.8417107491 5.98814e-05 -1.92221e-05 7.5105e-05 -0.000112514 0.0040849712 0.8438945921
780295320.0 0.0255805065 -0.8415396435 0.0001482232 -1.91074e-05 -5.84045e-05 -0.0001255501 0.0125912499 0.8440110504
785295290.0 0.0170412518 -0.8417031185 -0.0002771494 6.8674e-06 6.90511e-05 2.23382e-05 0.02113812 0.8434641174
790295260.0 0.0085297551 -0.841810351 6.07521e-05 0.000120253 -0.0001093764 -0.0001477662 0.0302557984 0.8440270436
795295230.0 0.0002734735 -0.8414981072 9.41485e-05 0.0001824976 0.0001002155 9.97e-07 0.0389415443 0.8427481864
800295200.0 -0.008843704 -0.840909657 0.0001002757 -0.0002219166 -0.0001738096 -7.7779e-06 0.0474087754 0.8425800412
805295170.0 -0.0169209454 -0.8411543851 0.0001530991 -1.59829e-05 -0.0001001158 -0.0003115746 0.0547263614 0.8420530289
810295140.0 -0.0251933999 -0.8407915722 -4.51401e-05 -0.0001712297 -0.000228296 4.44429e-05 0.0636779938 0.8415862471
815295110.0 -0.0336023352 -0.8409010179 -2.4484e-05 0.0001783586 -3.86881e-05 0.0002978037 0.0721497111 0.841041898
820295080.0 -0.0421394225 -0.8395255293 -5.74099e-05 8.78353e-05 7.6914e-06 -2.61997e-05 0.0803113521 0.8403086318
825295050.0 -0.0503757327 -0.8391240723 6.94815e-05 3.09833e-05 0.0001230356 -1.78427e-05 0.089193078 0.839400136
830295020.0 -0.0583394368 -0.8389922857 -1.25488e-05 9.58873e-05 1.96403e-05 -0.0003071973 0.098065081 0.8380415237
835294990.0 -0.0671843499 -0.8373240836 9.9213e-05 -0.0001447086 -7.12067e-05 -2.54134e-05 0.1052081216 0.8373339855
840294960.0 -0.0749107213 -0.8365061951 0.0002051669 8.19435e-05 -0.0001526003 0.0001293364 0.1132117955 0.8363017387
845294930.0 -0.083982096 -0.8360263766 -3.29127e-05 0.0001798316 0.0001463104 -2.94629e-05 0.1218420444 0.835132645
