!Created with skrf (http://scikit-rf.org).
# Hz S RI R 50.0 
!freq ReS11 ImS11 ReS21 ImS21 ReS12 ImS12 ReS22 ImS22
300000.0 -0.2145692179 -0.0609282705 -0.001992814 0.0002255347 0.0010995215 0.001008705 -0.7787783722 -0.1243617424
5299970.0 -0.2167767121 0.0080421312 9.30279e-05 0.0002429855 -0.0001797004 -0.0001828686 -0.785141624 -0.0072112036
10299940.0 -0.2133983347 0.0191246998 -0.0001482981 -4.75938e-05 -0.0003209978 -0.0001948136 -0.7886999072 -0.0035845949
15299910.0 -0.2087793381 0.0284343478 -2.7997e-06 0.0001145258 3.28091e-05 0.0001434957 -0.7937588038 -0.0017663861
20299880.0 -0.2034026584 0.0357937139 6.35182e-05 -0.0002042668 4.81384e-05 9.42311e-05 -0.8004965149 0.001918488
25299850.0 -0.1978354202 0.0421066047 -0.0001848782 -7.1857e-05 2.32551e-05 0.0001682851 -0.8069627642 0.0082461301
30299820.0 -0.1921333537 0.0468309538 -0.0001623483 -4.1041e-05 0.0001181018 3.603e-06 -0.8124645227 0.01575562
35299790.0 -0.1864257939 0.0504913732 2.47281e-05 -9.7759e-06 -0.0001451497 0.000311735 -0.8174236513 0.0250692314
40299760.0 -0.1805434962 0.053528842 -0.0002110192 -3.13023e-05 -7.21234e-05 -4.22238e-05 -0.8216213481 0.0342089208
45299730.0 -0.1755096341 0.0554235289 4.39309e-05 4.77065e-05 0.0001275735 2.4498e-05 -0.8257774979 0.0436277378
50299700.0 -0.1706986711 0.0569324616 -0.0001332187 0.0001240989 4.43225e-05 2.8349e-05 -0.8277039188 0.0535066077
55299670.0 -0.1666211955 0.0578809819 4.81131e-05 1.41459e-05 6.32139e-05 0.0001388383 -0.8296699109 0.0642284024
60299640.0 -0.1623365718 0.0587915602 6.0968e-05 0.0001391669 6.549e-05 -8.90877e-05 -0.8300398565 0.0738730824
65299610.0 -0.1586217357 0.0592263003 0.0002073144 0.0001258929 -4.2326e-06 5.58212e-05 -0.8319322389 0.0837527986
70299580.0 -0.1555035828 0.0594306416 3.20524e-05 -6.54322e-05 -6.76171e-05 2.28703e-05 -0.8320983305 0.0941830915
75299550.0 -0.1524700675 0.0599755716 6.411e-07 0.000102285 -9.49084e-05 5.5172e-05 -0.8325049198 0.1035732517
80299520.0 -0.1497152227 0.0602457076 7.18392e-05 0.0001116272 4.26575e-05 0.0001582676 -0.8317790494 0.1133997487
85299490.0 -0.1477950486 0.0596993625 0.0002208356 -0.0002260034 0.0002622165 -0.0002184697 -0.8314346465 0.1234463803
90299460.0 -0.1451446337 0.059923611 2.75221e-05 1.05311e-05 -8.29e-06 3.80412e-05 -0.8309510509 0.1332920681
95299430.0 -0.1433964685 0.0596239739 -0.0002617498 3.02372e-05 -3.32515e-05 0.0001097732 -0.8293336325 0.1430231445
100299400.0 -0.1416648857 0.0599350711 -3.8559e-06 3.47981e-05 9.91115e-05 5.6943e-05 -0.8287057745 0.1517750803
105299370.0 -0.1400532759 0.0600334985 7.30481e-05 6.6441e-06 6.55907e-05 0.0001988577 -0.826560166 0.1608438136
110299340.0 -0.1384150657 0.0599959739 -6.0059e-05 9.93132e-05 0.0002296801 -5.7092e-05 -0.8257917837 0.170809481
115299310.0 -0.136948036 0.0599817282 -2.01103e-05 -3.24299e-05 -4.06138e-05 0.000106346 -0.8243244987 0.1798738132
120299280.0 -0.1358901609 0.0599718859 -4.99354e-05 -0.0002116437 6.11012e-05 0.0001804312 -0.8224238378 0.1888031002
125299250.0 -0.1349479226 0.0599229597 0.0001556118 3.19594e-05 0.0001812141 -7.39108e-05 -0.8216315302 0.1980095232
130299220.0 -0.1341310984 0.0603934195 -5.71635e-05 -2.57592e-05 3.72648e-05 -3.66841e-05 -0.8191220489 0.2067710797
135299190.0 -0.1332231069 0.0607379747 9.68085e-05 0.0001366301 -0.0001347349 0.000181268 -0.8165848918 0.2161182282
140299160.0 -0.1322735097 0.0607543476 -0.0001100482 9.10226e-05 7.261e-07 7.48061e-05 -0.8146013964 0.2251882606
145299130.0 -0.1315282181 0.0610536329 0.0001475697 -0.0001798432 -1.60276e-05 8.7976e-06 -0.8126868589 0.2340454921
150299100.0 -0.1306244953 0.0613672078 1.72112e-05 9.96073e-05 -0.0002081133 -0.0001861525 -0.8110161226 0.2433766385
155299070.0 -0.1300650721 0.0619398723 2.3299e-05 0.0001110149 6.44167e-05 4.99454e-05 -0.8077665567 0.2519820194
160299040.0 -0.1296679657 0.0624697524 0.0001156503 0.0002501684 -1.0882e-05 0.0001277264 -0.8059976792 0.2607776219
165299010.0 -0.1289890057 0.0628611194 -6.80533e-05 5.13378e-05 -3.74569e-05 7.66028e-05 -0.8036143889 0.2692241237
170298980.0 -0.1287523255 0.0634332888 0.0002133755 -0.0002032869 1.1307e-06 6.8982e-06 -0.8000428779 0.2780482318
175298950.0 -0.1279421597 0.0638760556 4.56265e-05 0.0001790614 0.0001083285 0.000155176 -0.7977576296 0.2864090691
180298920.0 -0.1275343512 0.0647786565 0.0001651841 2.68326e-05 -0.0001016935 -4.04296e-05 -0.7944291712 0.2954003235
185298890.0 -0.1266514809 0.0651505643 -5.3341e-05 -1.0608e-05 -4.35067e-05 0.0001134489 -0.7912575868 0.3034999346
190298860.0 -0.126297538 0.0657472907 -6.14506e-05 0.0002627248 3.90185e-05 -8.6463e-05 -0.7886896633 0.3116746166
195298830.0 -0.1260861549 0.066597037 7.8455e-06 0.000191077 -0.000325054 5.8441e-06 -0.7850270502 0.3208594136
200298800.0 -0.1252493793 0.0675596143 0.0001349445 0.0001964808 -9.44898e-05 4.04929e-05 -0.7823477545 0.3286987818
205298770.0 -0.124864468 0.0680714877 0.0001320305 0.0001423866 -0.0001991929 0.0002434254 -0.7779405522 0.3371120819
210298740.0 -0.1245860739 0.0686354234 0.000224247 0.0001365135 2.70973e-05 0.0001281917 -0.7750420522 0.3452319847
215298710.0 -0.1240694297 0.0697657283 0.0001181068 8.45845e-05 -0.0002469054 6.3455e-06 -0.7713655755 0.3536470318
220298680.0 -0.1237870589 0.0701828347 4.46824e-05 0.0002810589 -7.3106e-06 0.0001075392 -0.767713574 0.3617341595
225298650.0 -0.1230714006 0.0712497005 0.0001217611 0.000314538 0.0001372464 -1.49293e-05 -0.7640489478 0.369525804
230298620.0 -0.1227895057 0.072290044 6.13868e-05 9.39544e-05 -0.0001828472 0.0001934612 -0.7600575356 0.3781904875
235298590.0 -0.1219979225 0.0731358836 1.94855e-05 0.0001716922 0.0001595976 0.0002079037 -0.755869207 0.3863811846
240298560.0 -0.121901812 0.0739317186 6.52438e-05 0.0001585032 -5.223e-05 0.000199092 -0.7517042425 0.3947680437
245298530.0 -0.1213711886 0.0747007829 0.0002583763 -4.76819e-05 3.02129e-05 0.0001098674 -0.7482835857 0.4022234206
250298500.0 -0.1207572694 0.0756879591 0.0003605076 0.0001212907 0.0001175271 0.0003296183 -0.7431699181 0.4097598408
255298470.0 -0.1205072591 0.076375923 2.36612e-05 1.01797e-05 -5.69532e-05 9.63289e-05 -0.7389189427 0.4177734174
260298440.0 -0.1200576909 0.0777003562 0.0001366742 -5.41676e-05 5.90684e-05 0.0002791871 -0.7349806892 0.4259149714
265298410.0 -0.1194281838 0.0789376861 0.0001250292 0.0002760756 0.0002730951 0.0003582034 -0.7303765854 0.4333961836
270298380.0 -0.1190123571 0.0799704526 6.5626e-06 0.0001562052 0.0003636309 0.0003187035 -0.7257277811 0.4412234986
275298350.0 -0.1185225346 0.08065633 0.0001463499 0.0001326584 0.0002282481 6.20668e-05 -0.7209319378 0.4482550674
280298320.0 -0.1177772567 0.0817567421 -0.0002263915 -4.18755e-05 0.0001108461 0.0002145131 -0.7158932505 0.4560624498
285298290.0 -0.117178843 0.0830444341 7.89166e-05 -0.0001981737 0.0001422062 -0.0001217354 -0.7108058523 0.4637045226
290298260.0 -0.1164182864 0.0838812504 -4.95e-08 0.0001688212 9.40081e-05 0.0001768637 -0.7065328422 0.4705055516
295298230.0 -0.1158242665 0.084721678 0.0001264619 5.75015e-05 -8.0631e-05 0.000302636 -0.7016437782 0.4779705515
300298200.0 -0.1151330266 0.0858577067 0.0001783679 0.0001263983 0.0002333035 1.25431e-05 -0.6963591713 0.4850035104
305298170.0 -0.1144544782 0.0866222752 6.85452e-05 0.0003010722 8.42914e-05 0.0001305324 -0.6908779447 0.4928227435
310298140.0 -0.1142476552 0.0877865264 0.0002450896 0.0003001518 -8.24385e-05 2.48082e-05 -0.6863416785 0.5000304423
315298110.0 -0.1132273207 0.0889524561 0.0002730663 -2.93546e-05 4.8231e-06 0.0001140794 -0.6803240877 0.5072143197
320298080.0 -0.1128408439 0.0897838069 0.0001507848 8.17378e-05 0.0001448182 5.64906e-05 -0.6758034015 0.5147165904
325298050.0 -0.1121101235 0.090681155 6.52929e-05 0.0002153496 0.0001239823 0.0001266859 -0.669456202 0.5214122369
330298020.0 -0.1114138146 0.0914453417 9.08149e-05 0.0002688053 0.0002907984 0.0002965336 -0.6646423029 0.5285240739
335297990.0 -0.1110085089 0.0925043202 0.0002416829 0.0001211773 3.90058e-05 1.1533e-06 -0.6594289064 0.5355662363
340297960.0 -0.110600116 0.0937493268 0.0003225169 0.0001981312 0.0001331931 0.0002235718 -0.6534066271 0.5427920813
345297930.0 -0.109976513 0.0948409034 4.64965e-05 0.0001841885 6.83527e-05 0.0002160715 -0.6475228769 0.5487118412
350297900.0 -0.1093543941 0.0960240345 0.0002096755 0.000130812 0.0002379424 -0.0001174863 -0.6420181972 0.5556053264
355297870.0 -0.1086041944 0.0973503919 3.58559e-05 4.51872e-05 0.0001108069 3.04174e-05 -0.636377463 0.5617580514
360297840.0 -0.1077838779 0.0982889947 2.01373e-05 0.000152546 0.0002126047 -5.47876e-05 -0.6303264838 0.568729908
365297810.0 -0.1074184516 0.0994214459 5.62397e-05 0.0001404483 0.0001283428 1.40897e-05 -0.623883762 0.5753820314
370297780.0 -0.1061653459 0.1006268243 3.25421e-05 2.85005e-05 -1.97946e-05 0.0001176758 -0.6176559865 0.5814895868
375297750.0 -0.1054501964 0.1016770516 0.0001546461 0.0001707708 0.0002623887 -9.05139e-05 -0.6119562647 0.5873455144
380297720.0 -0.1047218103 0.1024437842 9.81172e-05 -4.91235e-05 0.0001734254 7.07368e-05 -0.6065287703 0.5938330027
385297690.0 -0.1043162914 0.1038023941 0.0002650503 2.23084e-05 0.0001183371 2.84858e-05 -0.5999628531 0.6005625857
390297660.0 -0.1032893351 0.1049508707 4.54426e-05 -0.0002554979 0.0003207054 -4.217e-07 -0.5939611208 0.606264553
395297630.0 -0.1024787668 0.1059841918 6.3399e-05 8.36453e-05 0.0001981233 0.0002555468 -0.5869494359 0.6125257653
400297600.0 -0.101438882 0.1071780804 7.5787e-05 0.0001709404 0.0003203668 -6.8967e-06 -0.5811876513 0.6179636818
405297570.0 -0.1008555616 0.1082511577 0.0002067832 -7.74158e-05 0.0002651471 0.000236742 -0.5743350697 0.6243781043
410297540.0 -0.1000269265 0.1093647611 0.0001501768 0.0002275401 0.0001044344 0.0002389184 -0.5675708764 0.6302654282
415297510.0 -0.0989020477 0.1100188657 8.19002e-05 -1.8151e-06 1.94555e-05 0.00018519 -0.561320366 0.6361561048
420297480.0 -0.0983856937 0.1115972077 6.69307e-05 -4.53598e-05 0.0001878811 -9.13878e-05 -0.5547598632 0.6423012349
425297450.0 -0.0971543654 0.112718231 0.0002113046 3.89354e-05 -0.0001898044 0.0001455342 -0.5482671967 0.647376465
430297420.0 -0.0961768616 0.1134499263 0.0001434199 6.1641e-06 0.000240599 7.0733e-05 -0.5414158746 0.6526308763
435297390.0 -0.0952754069 0.1146251123 0.0002093937 -0.0001030383 0.0001791946 4.12724e-05 -0.5342925926 0.658292735
440297360.0 -0.094607257 0.1157935828 0.0002706375 -6.18743e-05 0.0001313308 -2.80577e-05 -0.5276256653 0.6635770226
445297330.0 -0.093682297 0.1167116218 0.000397097 -8.93441e-05 0.0003928322 -1.57242e-05 -0.5210244756 0.6684759138
450297300.0 -0.0925133668 0.1175365667 9.07593e-05 9.64677e-05 0.0001000238 0.0001138509 -0.513495204 0.6739896989
455297270.0 -0.0916150438 0.1185716988 0.0001408814 0.0001201735 0.0001224459 0.0001951838 -0.5069171406 0.6788084311
460297240.0 -0.0904979233 0.1196927238 0.0003566593 2.76697e-05 3.5101e-06 3.57082e-05 -0.5005834776 0.6843987642
465297210.0 -0.0896399165 0.1208965401 0.0001428933 0.0003037453 0.0002308713 0.0001094397 -0.4926666249 0.6894665666
470297180.0 -0.0886219797 0.1217709868 9.93413e-05 0.0002045674 9.58582e-05 5.50486e-05 -0.4853762239 0.6943079492
475297150.0 -0.0876520503 0.1223895774 0.0001873066 1.84135e-05 0.0001541013 9.69089e-05 -0.4780785242 0.6990538103
480297120.0 -0.0864502312 0.1235102434 0.0003182413 -0.0003019554 0.0004074987 1.46886e-05 -0.4708093498 0.7040031013
485297090.0 -0.0852731354 0.124559605 0.0001041466 5.8477e-05 0.0002520053 5.04035e-05 -0.4636877206 0.7088780954
490297060.0 -0.0844009772 0.1259540496 6.01488e-05 0.0001520564 4.0017e-06 0.0001042412 -0.4564896143 0.7130453286
495297030.0 -0.0835212604 0.1265478133 0.0004289828 0.0002027372 7.93025e-05 -0.0001106144 -0.4496599293 0.718081573
500297000.0 -0.0819770042 0.1274851465 0.0003326166 2.00724e-05 0.0001531229 5.76052e-05 -0.4414404793 0.7229488533
505296970.0 -0.0809025863 0.1282680682 0.0001824546 0.0002613345 9.06656e-05 6.24546e-05 -0.4345032481 0.7266918709
510296940.0 -0.0800792141 0.1295545566 5.78708e-05 0.0002058648 0.0001149426 8.68492e-05 -0.426874802 0.7312263931
515296910.0 -0.0784687404 0.1301720626 0.0003851154 0.0001061068 0.0001023395 -3.81421e-05 -0.4192220363 0.7354221906
520296880.0 -0.0777091818 0.1312593988 -0.0001162266 0.0001408482 0.0001010258 5.65788e-05 -0.4117410494 0.7391209485
525296850.0 -0.0764147524 0.1317429798 0.0001609555 8.89636e-05 7.31155e-05 8.49993e-05 -0.4049075865 0.7434904482
530296820.0 -0.0751911995 0.1328804174 6.90704e-05 -0.0001146079 0.0002122604 -2.09096e-05 -0.3966851834 0.7471480163
535296790.0 -0.0741929894 0.1338823402 0.0002680875 4.00811e-05 0.0002462659 -1.73896e-05 -0.3900460109 0.7511835803
540296760.0 -0.0731635582 0.1349122719 0.0002245359 2.90837e-05 0.0003631438 0.0001881644 -0.3816716802 0.7554401774
545296730.0 -0.0718422203 0.1355148399 0.00021483 -3.60838e-05 0.0001743732 0.0001428441 -0.37391939 0.7590107868
550296700.0 -0.0709059851 0.1366437993 0.0001693615 8.27864e-05 9.75465e-05 -4.34747e-05 -0.3664636416 0.7624435467
555296670.0 -0.0695295689 0.1371729622 0.0001951443 -4.27799e-05 6.86512e-05 -1.46671e-05 -0.3587269562 0.7665272086
560296640.0 -0.067976464 0.1383032829 8.69256e-05 1.1225e-06 0.0001541561 8.87262e-05 -0.3503415831 0.7706179565
565296610.0 -0.0670702783 0.1391053539 0.000194966 3.98321e-05 0.0001078805 0.0001110377 -0.3426534462 0.7731683894
570296580.0 -0.0659391776 0.1397104911 4.86605e-05 9.88428e-05 0.0004214085 1.55521e-05 -0.3357334975 0.7776240437
575296550.0 -0.0647743702 0.1407264277 0.0001918154 -0.0002196289 0.0002982243 0.0001164701 -0.32733908 0.7805450405
580296520.0 -0.0630811853 0.141608697 0.0001193968 0.0001755129 0.0004186492 -1.13173e-05 -0.3183868504 0.7835346391
585296490.0 -0.0620024062 0.1421643293 0.0002667247 4.76141e-05 0.0003115654 0.0001263219 -0.3106558933 0.7869398944
590296460.0 -0.060424736 0.1427650891 0.0001895386 0.0001444307 0.0001590629 -5.48777e-05 -0.3031683753 0.7900895887
595296430.0 -0.0591959893 0.1437870989 0.0004044227 9.04511e-05 3.81219e-05 3.04489e-05 -0.2951099626 0.7924128585
600296400.0 -0.0585036209 0.1445393763 0.0002111454 0.0002425452 0.0002336776 0.0002800547 -0.2877538524 0.7952142795
605296370.0 -0.0568807359 0.1453114681 0.0002650938 -5.73467e-05 0.0002451296 6.83518e-05 -0.2784075378 0.7983859447
610296340.0 -0.055466196 0.1458790633 2.1445e-05 0.000213997 6.13406e-05 7.23729e-05 -0.2706059995 0.8014443491
615296310.0 -0.0539536204 0.1466398344 0.00025749 -8.93425e-05 0.0001359009 1.09683e-05 -0.2619496381 0.8034817921
620296280.0 -0.0531308803 0.1473714108 0.0002169943 -6.53518e-05 0.0001443101 -0.0001184497 -0.2543700668 0.8063066302
625296250.0 -0.0513870818 0.1480449333 0.0001281745 -4.47709e-05 0.0002475446 5.19516e-05 -0.2454731818 0.808574348
630296220.0 -0.049781301 0.1484395899 6.52513e-05 4.01699e-05 0.0003080641 3.05297e-05 -0.238395934 0.8112192695
635296190.0 -0.0487748378 0.1496027655 0.0002406289 -6.77377e-05 0.0003138005 8.75312e-05 -0.2298059182 0.8131744053
640296160.0 -0.0475066239 0.1497281332 7.94809e-05 -6.4754e-06 3.78548e-05 7.1109e-05 -0.2212487156 0.8159393226
645296130.0 -0.0460480275 0.1506773673 0.0003220371 -0.0001118517 0.0001908591 1.78364e-05 -0.2136115878 0.8179782317
650296100.0 -0.0444757826 0.1513055939 0.0003202092 0.0002617698 0.0001946181 -5.29566e-05 -0.2055205439 0.8194994853
655296070.0 -0.0435877588 0.1518763022 0.0001322723 -3.1853e-05 0.0001324061 8.39659e-05 -0.1971492869 0.8214185799
660296040.0 -0.042049045 0.1522874561 0.0003070869 -3.41873e-05 0.0002483448 -6.69439e-05 -0.1883939618 0.8235739437
665296010.0 -0.0403038548 0.1528499776 2.10232e-05 6.6307e-06 0.0001888312 0.0001684078 -0.1796998066 0.8255080717
670295980.0 -0.0395083473 0.1537878423 0.0002124733 7.53779e-05 0.0001000983 -5.30405e-05 -0.1722545334 0.827275722
675295950.0 -0.0378319193 0.1542946653 0.0002086507 -0.0001720296 0.0001335363 6.9248e-06 -0.1645204041 0.8293998631
680295920.0 -0.0366864969 0.1550469741 3.21414e-05 -2.43221e-05 0.0002071947 -5.16492e-05 -0.1558296635 0.8314919727
685295890.0 -0.0348188699 0.1554109965 0.0003827495 0.0002456199 0.0003068903 -2.001e-05 -0.1467441174 0.8323299252
690295860.0 -0.0335226201 0.1560659012 0.0003040073 -0.0001178548 0.0003080018 -4.53753e-05 -0.1393815176 0.8340537388
695295830.0 -0.0321707791 0.156318089 0.0003019231 0.0002257185 0.0003161363 0.0001551502 -0.1302884401 0.8350390861
700295800.0 -0.0305194638 0.1570553054 0.0003152471 0.0001386047 0.0001708838 6.4028e-05 -0.1227378828 0.836235061
705295770.0 -0.0293358513 0.1572925156 0.0003560464 -5.55608e-05 0.0001207571 -0.0001051744 -0.1139630523 0.8381037398
710295740.0 -0.0276120786 0.1580985484 0.0003017819 6.17931e-05 0.0002354746 1.43023e-05 -0.1058619714 0.8384532767
715295710.0 -0.0265673439 0.158223511 0.0002753267 4.11917e-05 0.0003033626 -0.0001326434 -0.0971956733 0.8394239186
720295680.0 -0.025132382 0.1588314538 0.000425295 -1.23347e-05 8.75958e-05 -6.57333e-05 -0.0883033863 0.8405691607
725295650.0 -0.0233150152 0.159297164 -8.86273e-05 -4.38326e-05 0.0002389264 -5.88737e-05 -0.0807076605 0.841641319
730295620.0 -0.0219690306 0.1597717047 0.0003098206 -8.09333e-05 0.0002073045 -5.0286e-05 -0.0725664466 0.8418256447
735295590.0 -0.0205149909 0.1601816117 0.0003119201 0.0003150436 0.0002850087 9.80226e-05 -0.0641339841 0.8422807199
740295560.0 -0.0188464003 0.1605087681 0.0002983747 -0.0002601268 0.0001821333 -7.54194e-05 -0.0548466543 0.8437580928
745295530.0 -0.01772821 0.1607333263 0.0002304509 -0.0001334452 0.0001544339 0.0002401841 -0.0466625721 0.8437235434
750295500.0 -0.0157832048 0.1612760284 0.0002420483 -2.6747e-06 0.000350301 5.37657e-05 -0.0386266766 0.8441040761
755295470.0 -0.0143593603 0.1614781839 0.0006209392 -0.0001522584 0.0003918847 -0.0001191301 -0.0294238876 0.8437174405
760295440.0 -0.0130450111 0.1616077357 0.0005094143 0.0002356332 0.0004377844 9.5291e-06 -0.0214357449 0.8448881789
765295410.0 -0.0114793193 0.1622639171 0.0005283051 0.0001269229 0.0001054513 0.0001529022 -0.0127601973 0.8451172316
770295380.0 -0.0102321752 0.1625322472 0.000251701 -0.0002100209 0.0002125431 0.000134133 -0.004395132 0.8446574947
775295350.0 -0.0089176166 0.1628740777 0.0004277661 -0.0003490682 0.0003339354 4.44784e-05 0.0031909191 0.8444007792
780295320.0 -0.0070921 0.1630408363 0.0004408667 -1.9713e-05 0.0003212613 8.39348e-05 0.0122204872 0.8447623976
785295290.0 -0.0058535239 0.163044371 0.0003785499 0.0001341004 4.16172e-05 -8.89724e-05 0.0208208672 0.8442985346
790295260.0 -0.0039909663 0.1637625185 0.0001990324 0.0001384174 0.0002907111 -0.0001264166 0.0302768373 0.8449708777
795295230.0 -0.0023933778 0.1638685414 0.0001707584 0.0001678329 0.0002024478 -0.0002100379 0.0382725592 0.8436603366
800295200.0 -0.001332262 0.1639643107 0.0002682105 -0.0001775156 0.0002536826 -6.97279e-05 0.0466721043 0.8432344494
805295170.0 0.0006863353 0.1641294067 0.0004614942 -0.0001038665 3.93767e-05 -0.0001987191 0.0543214028 0.8431252827
810295140.0 0.0022987427 0.1643062564 0.0002862305 -6.21491e-05 0.0002668853 -0.0002447376 0.0632217226 0.8424444387
815295110.0 0.0035052894 0.1645334903 0.0003487713 -2.15758e-05 0.0004237908 -0.0002077033 0.0715589131 0.8418933376
820295080.0 0.0053041376 0.1649635096 0.000224552 -0.0001483652 0.0004070963 0.0001191003 0.0795921007 0.8414753959
825295050.0 0.0070700825 0.1649617932 0.000121477 -0.0002586762 0.0004579568 -9.77348e-05 0.0879803495 0.8407475241
830295020.0 0.0085190217 0.1651331817 0.0004329566 -0.0001530602 0.0002860973 -8.59207e-05 0.0973155119 0.8392327296
835294990.0 0.0098794521 0.1655596761 0.0003782527 4.1238e-05 0.0003501797 -5.16964e-05 0.104819619 0.838303884
840294960.0 0.0113644835 0.165463868 0.0002191495 -9.07544e-05 0.000381022 -0.0001949657 0.1130180283 0.8375202682
845294930.0 0.0130264972 0.1656224142 0.0003847145 0.0001116409 0.0003779719 -0.0002404693 0.1212048543 0.8357076129
850294900.0 0.0143920479 0.1658887639 0.000152396 -8.7737e-05 6.99234e-05 -0.0001025933 0.1294209864 0.8346216808
