!Created with skrf (http://scikit-rf.org).
# Hz S RI R 50.0 
!freq ReS11 ImS11 ReS21 ImS21 ReS12 ImS12 ReS22 ImS22
300000.0 -0.3225515101 -0.078244339 0.3781007913 0.0426367453 0.3746782374 0.0405161602 -0.322136352 -0.0951079767
5299970.0 -0.3265488682 0.0044224845 0.378223395 0.0023773108 0.3787228454 0.0026785215 -0.3243682166 0.0047556618
10299940.0 -0.3241106551 0.0133929969 0.3794549297 0.0018042214 0.3795218012 0.0023225658 -0.3215699491 0.0159740475
15299910.0 -0.3215317111 0.0203832008 0.3817948794 0.0020102326 0.3819432145 0.0022710063 -0.318518636 0.0235395524
20299880.0 -0.3186071655 0.0264133832 0.3849336966 0.0018725814 0.3847104386 0.0013707121 -0.3147051824 0.0303583274
25299850.0 -0.3155576982 0.0314749887 0.3880010253 -1.11905e-05 0.3880400046 -1.87345e-05 -0.311078753 0.0361780483
30299820.0 -0.3125850357 0.0359052478 0.3914815374 -0.0022345204 0.3915769505 -0.00226945 -0.3070328261 0.0408726916
35299790.0 -0.31017412 0.0400459162 0.3950757761 -0.0054722837 0.3947378363 -0.005148483 -0.3035980472 0.0450542671
40299760.0 -0.3071967528 0.0435269913 0.3976889096 -0.0087007842 0.3981409232 -0.0088824885 -0.3005703424 0.0484342586
45299730.0 -0.3045475937 0.0464862451 0.4006295773 -0.0127914541 0.4009503844 -0.0128395109 -0.2971361887 0.0516781448
50299700.0 -0.3023209507 0.0495774097 0.4033769373 -0.0175337546 0.403604635 -0.0170078328 -0.2941650531 0.0542054666
55299670.0 -0.3002544089 0.052059368 0.4055065372 -0.0223670278 0.4053399622 -0.0222455491 -0.2915164044 0.0571290829
60299640.0 -0.2978680474 0.0550057803 0.4074168694 -0.0270968991 0.4075892366 -0.026546499 -0.2890308888 0.0592339068
65299610.0 -0.2962343432 0.0574898365 0.4090514722 -0.0322321637 0.4093786024 -0.0318940152 -0.2872141847 0.0614881914
70299580.0 -0.2947635836 0.0599107142 0.4105370565 -0.0371295704 0.4103041824 -0.0367943733 -0.2852008204 0.0638961775
75299550.0 -0.2931631008 0.062393625 0.4116583289 -0.0421334876 0.4111703385 -0.0424441269 -0.2833275127 0.065900885
80299520.0 -0.2917215973 0.064991285 0.4123275242 -0.0476001006 0.4122531567 -0.0472136704 -0.2814192027 0.0679916253
85299490.0 -0.2905612349 0.0670532896 0.4128065646 -0.0523995637 0.4126862227 -0.0524187839 -0.2800646725 0.069843893
90299460.0 -0.2889673937 0.069285437 0.413013375 -0.0580408947 0.4134824186 -0.0580185502 -0.2781579769 0.0721158285
95299430.0 -0.2873387125 0.0714418761 0.4133620793 -0.0629862741 0.4134853198 -0.0631020243 -0.2766377428 0.0742244306
100299400.0 -0.2860130323 0.0740585787 0.4131668981 -0.0683373441 0.413282636 -0.0682282633 -0.2748793789 0.0760044755
105299370.0 -0.2849547762 0.0763994099 0.4131494011 -0.0735151202 0.4134008978 -0.0735853407 -0.2737698536 0.0780164887
110299340.0 -0.2839528725 0.078863834 0.4131761573 -0.0782628166 0.4131383531 -0.0784211483 -0.2726697909 0.080044085
115299310.0 -0.2829970669 0.0808941262 0.4129596773 -0.0837499546 0.412728103 -0.0837467189 -0.2718118032 0.0826381162
120299280.0 -0.2820267186 0.0830040825 0.412311798 -0.0889704496 0.4121011646 -0.0891278168 -0.2703495477 0.0846686383
125299250.0 -0.280860197 0.0853583662 0.4118366135 -0.0938087952 0.411980625 -0.0938867039 -0.2695929261 0.0866675769
130299220.0 -0.2802660968 0.0880622425 0.4109288422 -0.0988521607 0.4115862155 -0.0991860707 -0.2685881697 0.0885690204
135299190.0 -0.2791902869 0.0906956336 0.4106343767 -0.1042283602 0.4102603022 -0.103945797 -0.2671360551 0.0909431067
140299160.0 -0.2784277488 0.0931448713 0.4098302765 -0.1092023309 0.409739228 -0.1092571364 -0.266369598 0.0934356035
145299130.0 -0.2773880074 0.095704756 0.4088293823 -0.114060612 0.4084902647 -0.1141981376 -0.265304095 0.0958161646
150299100.0 -0.276209958 0.0983744002 0.4077632698 -0.1185530519 0.4074827393 -0.118536297 -0.2644071893 0.0985075583
155299070.0 -0.2755372063 0.1009348373 0.4066881053 -0.124476145 0.4064260108 -0.1235906588 -0.2631850087 0.1006479227
160299040.0 -0.2749132869 0.1034777023 0.4056093242 -0.128907799 0.4051426447 -0.1286793821 -0.2626396143 0.1033909209
165299010.0 -0.2737791708 0.1061187497 0.4042689003 -0.1340467223 0.4043299132 -0.1338814095 -0.2612769351 0.1057914237
170298980.0 -0.2728254525 0.1085393495 0.4029219597 -0.138423402 0.4028546108 -0.1382085593 -0.2602023044 0.1080415797
175298950.0 -0.2719264606 0.1111630585 0.4018086032 -0.1432056674 0.4014217661 -0.1428804451 -0.2595041838 0.1107838358
180298920.0 -0.271101556 0.1138377055 0.4001024269 -0.1480521973 0.3996118945 -0.1478623251 -0.258325549 0.1131424829
185298890.0 -0.2695284497 0.1167541337 0.3981555777 -0.1528875379 0.3981758746 -0.1525619 -0.2573183565 0.115814922
190298860.0 -0.2687530267 0.1191625013 0.3969111755 -0.1575713084 0.3971066879 -0.1573010718 -0.2563678769 0.1182718939
195298830.0 -0.2678068578 0.1215205556 0.395212514 -0.1616895455 0.395249906 -0.1616730678 -0.2552687508 0.1209262208
200298800.0 -0.2663107406 0.1244128146 0.3934042084 -0.1664821124 0.39341939 -0.1668000334 -0.2544792817 0.1231914636
205298770.0 -0.2655433813 0.1271146959 0.3913547666 -0.1713280342 0.3915686503 -0.1709977716 -0.2530152306 0.1256148235
210298740.0 -0.2643306269 0.1297746559 0.3897627957 -0.1754040411 0.3898942506 -0.1754372154 -0.2517369505 0.1285865039
215298710.0 -0.2633611727 0.1327789092 0.3879034555 -0.1804927953 0.3879469305 -0.1806250806 -0.2510602698 0.131186666
220298680.0 -0.262253674 0.1351459453 0.3858677743 -0.184704653 0.3858537043 -0.1846709831 -0.2501895484 0.1336096581
225298650.0 -0.2611577127 0.1377456022 0.3838496386 -0.1889748159 0.3840467013 -0.1891150481 -0.2487644756 0.1360340795
230298620.0 -0.2595492375 0.1407938562 0.3819231532 -0.1931888211 0.3820853837 -0.1935179048 -0.2477760343 0.1383294831
235298590.0 -0.2583399327 0.1436847243 0.3799148508 -0.1981209881 0.3800209235 -0.1976513273 -0.2465226388 0.141165519
240298560.0 -0.2571267052 0.1462008004 0.3776508993 -0.2022792271 0.3773525936 -0.2022669541 -0.2451593978 0.1438202902
245298530.0 -0.2559497097 0.1490455742 0.3756460423 -0.2067464769 0.3755177197 -0.2064355941 -0.2439232454 0.1456698015
250298500.0 -0.2542168344 0.1518098662 0.3726053974 -0.2112077996 0.3727672738 -0.2107217987 -0.2430192331 0.1484876038
255298470.0 -0.2530926913 0.1539815275 0.3703549428 -0.2149039236 0.3706819549 -0.2148699347 -0.2409030215 0.1509650606
260298440.0 -0.25159994 0.1568708722 0.3679372401 -0.2194296936 0.3684041222 -0.2194059734 -0.2393764322 0.154004061
265298410.0 -0.249944645 0.1599523667 0.3660713879 -0.223420913 0.3663434519 -0.2235802111 -0.2382543476 0.1562054478
270298380.0 -0.248563309 0.1624975303 0.3635956825 -0.2277173458 0.3637282805 -0.2276162596 -0.2370053339 0.1586043093
275298350.0 -0.2468122404 0.1651267631 0.3609363907 -0.2317861572 0.3612122614 -0.231721995 -0.235211083 0.1611919808
280298320.0 -0.2451781285 0.1678620213 0.3587524525 -0.2359342845 0.3586904814 -0.2357587171 -0.2336979338 0.1633233227
285298290.0 -0.2435609517 0.1706682778 0.3560748994 -0.2400321061 0.3558589785 -0.2400078182 -0.2319128372 0.166123918
290298260.0 -0.241610636 0.1731938104 0.3530893407 -0.2437512188 0.3534693214 -0.2441525886 -0.2301832217 0.1689206632
295298230.0 -0.2402465712 0.1755593207 0.3507261436 -0.2477760983 0.3503314437 -0.2477380187 -0.2284628857 0.1709037244
300298200.0 -0.2386977059 0.1783372122 0.3481754611 -0.2516151527 0.3481498588 -0.251937803 -0.2268028621 0.1734768655
305298170.0 -0.2365686917 0.180680206 0.3449158304 -0.2559479127 0.3449059451 -0.2558485651 -0.2245443279 0.1757187454
310298140.0 -0.2350370581 0.1834645979 0.3421598935 -0.2597212667 0.3425753647 -0.2596800064 -0.2232607958 0.1784076139
315298110.0 -0.2331730567 0.1857510338 0.3396231918 -0.2637438703 0.3395874527 -0.2637950367 -0.221417747 0.1805447086
320298080.0 -0.2312186821 0.1881214019 0.3361289691 -0.2673218766 0.3364761255 -0.2674316397 -0.2197355588 0.1830915953
325298050.0 -0.2292734721 0.1906955676 0.3331259717 -0.2712295736 0.3334053316 -0.2711523718 -0.2178921184 0.1853156557
330298020.0 -0.227497877 0.1930799739 0.3299692605 -0.2750359092 0.3303703125 -0.274940677 -0.2159032414 0.1880017784
335297990.0 -0.2255885828 0.1953898191 0.327124323 -0.278344475 0.3270461308 -0.2787590048 -0.2150616398 0.1906040551
340297960.0 -0.2241454593 0.1984601788 0.3236713977 -0.282301268 0.3232890871 -0.2825764364 -0.2120446582 0.1931477449
345297930.0 -0.2220806385 0.2008004543 0.3205029526 -0.285723109 0.3204987398 -0.28589594 -0.2107594141 0.1952977555
350297900.0 -0.2201597634 0.2033649909 0.3169107412 -0.289290509 0.3171445562 -0.289450442 -0.2089756114 0.198035574
355297870.0 -0.2179978308 0.2060710167 0.3141615622 -0.2930128647 0.3143722026 -0.292576347 -0.2072554129 0.2003056382
360297840.0 -0.2164055428 0.2083148214 0.311482937 -0.2963110739 0.3113804 -0.2962709339 -0.2052972589 0.2027935034
365297810.0 -0.2140655947 0.211058564 0.3075047306 -0.2998411945 0.308069059 -0.2998444592 -0.2030593551 0.2049517261
370297780.0 -0.2119560012 0.2131160609 0.3042305615 -0.303034079 0.3046685977 -0.3028186356 -0.2010357934 0.2071824619
375297750.0 -0.209737029 0.2154182628 0.3005314281 -0.3063730673 0.3011494224 -0.306723604 -0.1988646458 0.2096031497
380297720.0 -0.207345807 0.2178410186 0.2976124537 -0.3097744484 0.2975013645 -0.3093721457 -0.1970018861 0.2120700964
385297690.0 -0.2055584128 0.2203023191 0.293963179 -0.3128172 0.2937347252 -0.3128941619 -0.1947018754 0.2140916796
390297660.0 -0.2033723173 0.2225975768 0.2905561721 -0.3163305103 0.2904188328 -0.3160137826 -0.1926455554 0.2160523036
395297630.0 -0.2006842948 0.2250857775 0.2872691054 -0.3193616906 0.2870677147 -0.3193836728 -0.1900350139 0.2186745144
400297600.0 -0.1985266697 0.2275748568 0.2832165215 -0.3226580782 0.2832499953 -0.3224526046 -0.1881174715 0.2206680838
405297570.0 -0.1964022576 0.2295895876 0.2802482096 -0.3252263598 0.2802114134 -0.3253320466 -0.1866001917 0.2230292768
410297540.0 -0.1938409657 0.2315515294 0.2764328246 -0.3284431473 0.2766957995 -0.3290994782 -0.1838148695 0.2253290836
415297510.0 -0.1912528121 0.2338910278 0.2725447342 -0.3317465896 0.2730002313 -0.331669758 -0.181414555 0.2271096847
420297480.0 -0.1892405196 0.2363638241 0.2689067013 -0.3346836126 0.2690847338 -0.3347574459 -0.1789752723 0.2290645405
425297450.0 -0.1866259262 0.238245954 0.2655579864 -0.3375542412 0.2656086014 -0.337804509 -0.1767144172 0.2316741669
430297420.0 -0.1838280888 0.2402849459 0.2613226952 -0.3402101576 0.2614174127 -0.3400585643 -0.1745903109 0.233162868
435297390.0 -0.1817208629 0.2424015805 0.257543374 -0.3432284328 0.257637363 -0.3433025024 -0.1721390753 0.2350601985
440297360.0 -0.1791415423 0.2444364172 0.2537304278 -0.3461219808 0.2541863552 -0.3457605731 -0.1696301012 0.2368977196
445297330.0 -0.1765027216 0.2462824119 0.2500883569 -0.34860956 0.2502861717 -0.3484897879 -0.1674350624 0.23856921
450297300.0 -0.1741454843 0.2483927496 0.2461862527 -0.3514749229 0.2463373893 -0.3515562914 -0.1647285534 0.240465383
455297270.0 -0.1712328987 0.2504068226 0.2421640169 -0.3539535861 0.2426528194 -0.3543473156 -0.1623088186 0.2425322248
460297240.0 -0.1691097759 0.2523195819 0.2383307517 -0.3564204935 0.2388676562 -0.3567746618 -0.1595291017 0.2445254389
465297210.0 -0.1664743857 0.2543682612 0.2349521635 -0.3591958265 0.2343532057 -0.3596853951 -0.1570320844 0.2460535931
470297180.0 -0.1632819277 0.2562367267 0.2303663252 -0.3616256862 0.2304370707 -0.3619013819 -0.154278904 0.2482199045
475297150.0 -0.1608366824 0.2577987104 0.2264416678 -0.363885024 0.2264034294 -0.3639213864 -0.1513638607 0.2494508219
480297120.0 -0.1582561346 0.2601860726 0.2225375942 -0.3670738128 0.2222679273 -0.3669292631 -0.1487104615 0.251488115
485297090.0 -0.1552977748 0.2619085332 0.2183908004 -0.3688962274 0.2185143267 -0.3689343723 -0.1461175518 0.2532636838
490297060.0 -0.1530606407 0.2635801765 0.2146097356 -0.3712727748 0.2142685276 -0.3714689233 -0.1432286738 0.2548979142
495297030.0 -0.1501714625 0.2651493961 0.2099158217 -0.3736335827 0.2109892335 -0.3737959103 -0.1411461757 0.2568672256
500297000.0 -0.1473673872 0.2671922822 0.206653518 -0.3756746663 0.2060824305 -0.3756785578 -0.1379961951 0.25894139
505296970.0 -0.1444333647 0.2688963252 0.2021993111 -0.3779329653 0.2021905572 -0.3778647541 -0.1356866313 0.2601719002
510296940.0 -0.1415638521 0.2703775374 0.1978747512 -0.3801602158 0.1977945391 -0.3803539279 -0.1327888485 0.2617047534
515296910.0 -0.1384903449 0.2719620386 0.1933787503 -0.3820638803 0.1937292496 -0.3823630679 -0.1300422754 0.2633895311
520296880.0 -0.1360633339 0.2735131785 0.1898838805 -0.3846350895 0.1896754291 -0.384210449 -0.127515684 0.2646428209
525296850.0 -0.1328499371 0.2750371661 0.185122749 -0.3864148303 0.1855964952 -0.3863792036 -0.124368613 0.2665344861
530296820.0 -0.1300885389 0.2767632046 0.1806258608 -0.3883970374 0.1811136116 -0.3883539888 -0.121750046 0.267525421
535296790.0 -0.1274008124 0.2785216102 0.1770396243 -0.3902076551 0.1770673393 -0.3896924033 -0.1193358163 0.269123589
540296760.0 -0.1246408993 0.2797810772 0.1727542422 -0.3923386834 0.1724832916 -0.3919028519 -0.1166315437 0.2708512838
545296730.0 -0.1217874366 0.2812744277 0.1681237049 -0.3937838514 0.1682963425 -0.3940910133 -0.1135273081 0.2723190567
550296700.0 -0.1185492016 0.2826708479 0.1634799192 -0.3957641458 0.1640787193 -0.3959005281 -0.1109439343 0.2735633606
555296670.0 -0.1159035978 0.2839446094 0.1598538588 -0.3974482414 0.1599180403 -0.3971437388 -0.1082646803 0.2752525612
560296640.0 -0.1123389735 0.2855131169 0.1554737229 -0.3994014313 0.1553513307 -0.3994676037 -0.1047498433 0.2766314673
565296610.0 -0.1100499355 0.2866562501 0.1507613345 -0.400757348 0.1508954199 -0.400847009 -0.1023018463 0.277401723
570296580.0 -0.1071245858 0.287969941 0.146634125 -0.4027617829 0.1464005682 -0.4027731405 -0.0997019711 0.2792254515
575296550.0 -0.1040658525 0.2895481306 0.142335923 -0.404186319 0.1420365911 -0.4041746378 -0.0963752165 0.280120746
580296520.0 -0.1005626813 0.2904606683 0.1374228907 -0.4055865055 0.1379517415 -0.4056736392 -0.0934108515 0.2810123232
585296490.0 -0.0976615024 0.2915352873 0.1334807107 -0.4065791589 0.1335235525 -0.4068221757 -0.0903767282 0.2823439983
590296460.0 -0.0944577119 0.292844246 0.1290129421 -0.4078511905 0.1290443688 -0.4082124107 -0.088090702 0.2834224908
595296430.0 -0.0915567814 0.2940891296 0.1239246635 -0.4098509309 0.1243501707 -0.4097178614 -0.0847702751 0.2840464409
600296400.0 -0.0886085698 0.2950864761 0.1200673929 -0.4108814882 0.1198974005 -0.4105921223 -0.0819799706 0.2850430589
605296370.0 -0.0857477231 0.2959526545 0.1153100476 -0.4122842771 0.1156108668 -0.4121396251 -0.0787771854 0.2861530881
610296340.0 -0.0824543609 0.2972096031 0.1107192924 -0.4131501758 0.111151319 -0.4130567007 -0.0755279158 0.2871692694
615296310.0 -0.078977951 0.2977984274 0.1059746225 -0.4142745921 0.1060884493 -0.4145887467 -0.0723509373 0.2881715736
620296280.0 -0.0761537609 0.2987057143 0.1016164745 -0.4151052361 0.1018994906 -0.4153297572 -0.0698204974 0.2890909047
625296250.0 -0.0729406398 0.2997275929 0.0976291698 -0.4164888427 0.0973253588 -0.4167917069 -0.066222085 0.2897825724
630296220.0 -0.0694455608 0.3006915122 0.0924969637 -0.4177620784 0.0927257943 -0.4177848435 -0.0635850493 0.2908992096
635296190.0 -0.067074725 0.3017526408 0.0883970486 -0.418517546 0.0881269153 -0.4185891063 -0.0603275012 0.2913626068
640296160.0 -0.063874161 0.3026416418 0.0836237175 -0.4192170492 0.0840257701 -0.4195203176 -0.0572227387 0.2921529732
645296130.0 -0.060326392 0.3035579281 0.0791349953 -0.4201848266 0.0791968973 -0.4203266539 -0.0539165448 0.2929894956
650296100.0 -0.0571319534 0.303946833 0.0744266584 -0.4204960832 0.074728699 -0.4209044001 -0.050874713 0.2932225351
655296070.0 -0.0541545947 0.3047893644 0.0699037183 -0.4217576071 0.0699961325 -0.4215535457 -0.0477185291 0.294160157
660296040.0 -0.0511137718 0.3052232523 0.0652356915 -0.4223962895 0.0652614598 -0.4224745365 -0.0443072762 0.2951540534
665296010.0 -0.0474158304 0.3056870309 0.060539627 -0.4229119232 0.0609549337 -0.4230458107 -0.0413397913 0.2957775172
670295980.0 -0.0450433145 0.3067328057 0.0564938553 -0.4235738095 0.0561265513 -0.4233927334 -0.0386272222 0.2961977135
675295950.0 -0.0414770147 0.3070847514 0.0519564753 -0.4239285375 0.0518530329 -0.4239357307 -0.0353671822 0.2969208645
680295920.0 -0.0381843749 0.3076983403 0.0470919659 -0.4244467053 0.0465202576 -0.425028351 -0.0320063333 0.2979331244
685295890.0 -0.0347262244 0.3088713867 0.0424067148 -0.425177893 0.0421944168 -0.425413183 -0.028801948 0.2983068478
690295860.0 -0.0314509566 0.3090323368 0.0378276169 -0.4250209191 0.0378006329 -0.4258133672 -0.0258668332 0.2989237171
695295830.0 -0.0285223083 0.3095670164 0.0336562802 -0.4257091189 0.0328860169 -0.4260199547 -0.0223611375 0.2992241189
700295800.0 -0.0250501349 0.3096518716 0.0282614262 -0.4258857885 0.0286301054 -0.4261342569 -0.0199415735 0.2998833308
705295770.0 -0.0222215197 0.3102645068 0.0236591073 -0.426630085 0.0242505089 -0.4265234342 -0.0166732688 0.3002818838
710295740.0 -0.0185706259 0.3106870093 0.0194349132 -0.4267749838 0.0196552648 -0.4269361251 -0.0135952531 0.3002225478
715295710.0 -0.0156670496 0.3109995354 0.0153502403 -0.4270553189 0.0144446406 -0.4267519269 -0.0102458741 0.3004532665
720295680.0 -0.0120978251 0.3113137006 0.0098790873 -0.4269547851 0.0101913125 -0.4271649562 -0.0070056645 0.3017473621
725295650.0 -0.0090638111 0.3116166888 0.0056049012 -0.4268839964 0.0057239206 -0.4270843637 -0.0040699269 0.3015358802
730295620.0 -0.0056448979 0.3120521423 0.001191482 -0.4266325334 0.0010011874 -0.4269257288 -0.0013369005 0.3012156435
735295590.0 -0.0024862945 0.3121927841 -0.003469566 -0.4270788586 -0.0037859251 -0.4270504056 0.0017219149 0.3014413422
740295560.0 0.000644156 0.3124834414 -0.0081754151 -0.4269559309 -0.0082209052 -0.4267984919 0.0055860604 0.301844838
745295530.0 0.0039033025 0.3124259687 -0.0129444765 -0.4264176434 -0.0130056561 -0.4264459875 0.0084430489 0.3012150281
750295500.0 0.0074326404 0.31232267 -0.0176759482 -0.4259869609 -0.0174166087 -0.4265898864 0.0113471482 0.301681044
755295470.0 0.0107428586 0.3123875394 -0.0218880178 -0.4261931409 -0.0221980881 -0.4261354976 0.0150950055 0.3015338795
760295440.0 0.0137630028 0.3122612668 -0.0268421827 -0.4259597403 -0.0270149542 -0.4260213874 0.0181847576 0.3015259212
765295410.0 0.0169541641 0.3123607299 -0.0312636462 -0.4253073453 -0.0319940688 -0.4256300554 0.0212924309 0.3017805601
770295380.0 0.0201414622 0.3121357936 -0.0364515034 -0.4250636788 -0.0360700563 -0.4249036361 0.0240126266 0.3011905897
775295350.0 0.0233708904 0.3118707005 -0.0407220307 -0.4241011945 -0.0405114205 -0.4244438641 0.0268225087 0.3016046622
780295320.0 0.0270224745 0.3119993336 -0.0454644188 -0.4238504069 -0.0447991325 -0.4240474915 0.0304653561 0.3009752719
785295290.0 0.0298088733 0.311538146 -0.0500915865 -0.4232025667 -0.0501327771 -0.4234593691 0.0339699928 0.300745052
790295260.0 0.0335120572 0.311645899 -0.0543580335 -0.4228727984 -0.0536988327 -0.4228482266 0.0371403491 0.3004616709
795295230.0 0.0365799545 0.3112844281 -0.0590087213 -0.4221356918 -0.0586944591 -0.4223146016 0.0403583148 0.30038116
800295200.0 0.0395923203 0.3110698201 -0.0634504836 -0.4212185267 -0.0635369463 -0.4213388412 0.0434774389 0.2999220648
805295170.0 0.0430676223 0.3108462841 -0.0681055845 -0.4205421505 -0.0682368982 -0.4207021394 0.0463517153 0.2999031415
810295140.0 0.0464016375 0.3102628443 -0.072822026 -0.4198844131 -0.0727482673 -0.4200796753 0.0501777832 0.299448221
815295110.0 0.0493897956 0.3099112387 -0.0772183138 -0.4188551776 -0.0766322211 -0.4191717768 0.0530089533 0.2990404779
820295080.0 0.0525658082 0.3097428891 -0.0814414703 -0.4178412081 -0.0810465178 -0.4181919397 0.0563250576 0.2987021656
825295050.0 0.0563917227 0.3093292857 -0.0857700081 -0.4170387136 -0.0858731366 -0.417326404 0.0594645441 0.2982605106
830295020.0 0.0589539497 0.3088845257 -0.0903992594 -0.416065729 -0.0906398856 -0.4162003517 0.0630633612 0.2977803649
