!Created with skrf (http://scikit-rf.org).
# Hz S RI R 50.0 
!freq ReS11 ImS11 ReS21 ImS21 ReS12 ImS12 ReS22 ImS22
300000.0 -0.2387584781 -0.0905941477 0.4702367302 0.0610512647 0.4692405155 0.0591765063 -0.2377466607 -0.0997604904
5299970.0 -0.2449174167 0.0063767557 0.4748980871 0.0051945906 0.4747683472 0.0050275125 -0.2407630812 0.0069636078
10299940.0 -0.2418958932 0.0176488823 0.4769025049 0.0061293266 0.4766993153 0.0065409865 -0.2376907113 0.0207185902
15299910.0 -0.2372819236 0.0268502482 0.4804502862 0.0074542491 0.4806440256 0.0075669435 -0.2330402756 0.0302379396
20299880.0 -0.2326925301 0.0340052938 0.4851491371 0.0082010304 0.4848152931 0.0080647294 -0.2278937565 0.0382179387
25299850.0 -0.2277033363 0.040456922 0.4902669997 0.0067983924 0.4902877736 0.0073880585 -0.2214859923 0.0445954338
30299820.0 -0.2223406292 0.0450753239 0.4952092055 0.0047645157 0.4952162632 0.0049669404 -0.2161540988 0.0500141787
35299790.0 -0.2174607174 0.0491967243 0.5006670668 0.0014436354 0.500956237 0.0014444748 -0.2104035066 0.0546203304
40299760.0 -0.2126792905 0.0526695826 0.5058857544 -0.0024498621 0.5061753504 -0.0022388017 -0.2052401357 0.0576417932
45299730.0 -0.2080833201 0.0548534258 0.5101183069 -0.0069049643 0.5106646129 -0.0070580499 -0.2001877243 0.0604537086
50299700.0 -0.2037688289 0.0567781542 0.5150256524 -0.0123035998 0.5146856444 -0.0122192637 -0.1954926848 0.062553426
55299670.0 -0.2000103882 0.0584323762 0.5185941072 -0.0188221994 0.5185142516 -0.0184569421 -0.1912808348 0.0644581352
60299640.0 -0.1959365546 0.0598948601 0.5220921712 -0.0248482412 0.5218153888 -0.0247899206 -0.1872934988 0.0654673918
65299610.0 -0.19318507 0.060866825 0.5245636717 -0.0312046117 0.5249918546 -0.0311580496 -0.1841369501 0.0666528386
70299580.0 -0.1899340982 0.0620647572 0.5271545724 -0.0379024987 0.526925543 -0.0377807132 -0.1809317626 0.0673454771
75299550.0 -0.1869679984 0.0630931004 0.528450795 -0.044713209 0.529139503 -0.0447058505 -0.1779049239 0.06837729
80299520.0 -0.1847546873 0.0637734383 0.5312940254 -0.0516348561 0.5310679208 -0.0516698157 -0.1752627278 0.0692002737
85299490.0 -0.1826342896 0.0641511627 0.5318264608 -0.0579561201 0.5321645719 -0.0579479868 -0.1728285702 0.0697030986
90299460.0 -0.1804818732 0.0650356514 0.5328598883 -0.0654310134 0.533255278 -0.0653112562 -0.1705282189 0.0704998928
95299430.0 -0.1780829921 0.0652835164 0.534082645 -0.0721235069 0.533843762 -0.0726602138 -0.1683160746 0.0713200187
100299400.0 -0.176667247 0.0663841417 0.5338168828 -0.079108612 0.5342787356 -0.0789857472 -0.166156891 0.0713917161
105299370.0 -0.1748622233 0.0669180446 0.5344269837 -0.0862335611 0.5346685078 -0.0858548969 -0.1640005376 0.0724913748
110299340.0 -0.1732632605 0.0676350537 0.5346430914 -0.0928559242 0.5348463568 -0.0922349594 -0.1629970592 0.072778917
115299310.0 -0.171733424 0.068119893 0.534418665 -0.0994453132 0.5347657675 -0.0997512193 -0.1611299802 0.0735622284
120299280.0 -0.1703348798 0.0684066273 0.5342551592 -0.106435016 0.5344575343 -0.1064336986 -0.1594285101 0.074555682
125299250.0 -0.1693562007 0.0692593053 0.5339329776 -0.1131842072 0.5341756824 -0.1130170954 -0.1583784078 0.0748154632
130299220.0 -0.16862503 0.0701922404 0.5334867447 -0.119886854 0.5334983556 -0.1198670621 -0.1570424448 0.0755585393
135299190.0 -0.1675663922 0.0711546139 0.5331390743 -0.1265796626 0.5327689481 -0.1264403598 -0.155483059 0.076788586
140299160.0 -0.1666822299 0.0720031354 0.5323603857 -0.1331739256 0.5321341054 -0.1333378632 -0.1544792629 0.0779287766
145299130.0 -0.1655943129 0.0729281216 0.5314568553 -0.139814696 0.5309195658 -0.1394927368 -0.1532027953 0.0789416219
150299100.0 -0.1642065399 0.0739154564 0.5295930592 -0.1456137735 0.5302067816 -0.1453611469 -0.1523324707 0.080396599
155299070.0 -0.1638149477 0.0745426732 0.5289879728 -0.1530702821 0.5284430767 -0.1527694791 -0.1508413716 0.0812542054
160299040.0 -0.1627202427 0.0759231814 0.5269628633 -0.1589960933 0.5270036649 -0.1594026765 -0.1504950374 0.0819965502
165299010.0 -0.1619315269 0.077030935 0.5256134956 -0.1659032671 0.5261634329 -0.1660373236 -0.1492063762 0.0837555937
170298980.0 -0.1612169491 0.0775350171 0.5240501583 -0.1718876311 0.5244540758 -0.1716692934 -0.1484450714 0.0847593463
175298950.0 -0.1605930599 0.0788788631 0.5231045591 -0.1776412559 0.5225490321 -0.178037626 -0.1472034716 0.0862008839
180298920.0 -0.1599773287 0.0800989648 0.5212754183 -0.1845630503 0.5207207922 -0.1844113166 -0.1461835216 0.0874626943
185298890.0 -0.1587654499 0.080888197 0.5190987624 -0.1901801092 0.5189805988 -0.1905157892 -0.1453980483 0.088781922
190298860.0 -0.1582703456 0.0822652533 0.5170796943 -0.1969404697 0.5173668209 -0.1970327012 -0.1446055397 0.0897513519
195298830.0 -0.1576203717 0.083265384 0.5152635874 -0.2029879636 0.5153346743 -0.2028277396 -0.1433723388 0.0910674627
200298800.0 -0.1568647509 0.0847838374 0.5130022882 -0.2092247137 0.5132261424 -0.2092625799 -0.1430710778 0.0927365191
205298770.0 -0.1561515858 0.0860038146 0.510407293 -0.2153832155 0.5108963865 -0.2149496288 -0.1420588372 0.0931927698
210298740.0 -0.1555665635 0.0867416734 0.5082723271 -0.2205377188 0.5084584876 -0.2205986275 -0.1408312758 0.0952022719
215298710.0 -0.1549422145 0.0883642169 0.5063140083 -0.2271530893 0.5061461449 -0.227242848 -0.1403243024 0.0963236107
220298680.0 -0.1540802888 0.0893712566 0.5033233933 -0.2328696046 0.5037937391 -0.2329500146 -0.1395310012 0.0977398153
225298650.0 -0.1533552076 0.0906589807 0.50143341 -0.2385238314 0.5014445574 -0.2386957891 -0.1390046578 0.0990806117
230298620.0 -0.1524648201 0.0921060172 0.4988684104 -0.2441312633 0.4993404231 -0.244443863 -0.138046029 0.1000132972
235298590.0 -0.1518077703 0.0936027667 0.4965265733 -0.2501915121 0.4964849268 -0.2503482203 -0.1369827069 0.1021625741
240298560.0 -0.1510031103 0.0948485891 0.4936729196 -0.25574975 0.4933095873 -0.2563596014 -0.1358315688 0.1033737536
245298530.0 -0.1502711354 0.096229481 0.4914199913 -0.2616429158 0.4910164693 -0.2613915296 -0.1347470221 0.1038202843
250298500.0 -0.1493253411 0.0977581204 0.4873814765 -0.2673224805 0.4873866028 -0.267013529 -0.1338046231 0.1057253224
255298470.0 -0.1485875372 0.0983044768 0.4847195703 -0.2723017813 0.4854280877 -0.2726300761 -0.1329268879 0.1069091894
260298440.0 -0.1479983721 0.0997314034 0.4822378321 -0.2787784311 0.4820467354 -0.2782997309 -0.1312563657 0.1081211299
265298410.0 -0.1468865496 0.1019333588 0.4788570766 -0.2842271622 0.4792584692 -0.2837064082 -0.1307557038 0.1097516234
270298380.0 -0.1460489167 0.1031051335 0.4761961553 -0.2890245103 0.4763269219 -0.2891728701 -0.1296930414 0.1109419879
275298350.0 -0.1448136459 0.1045288146 0.4729764093 -0.2947593898 0.4731302805 -0.2947263255 -0.1282238337 0.1123219944
280298320.0 -0.1439454402 0.1056584252 0.4698238445 -0.3000300768 0.4697920816 -0.3000955522 -0.1270848729 0.113577703
285298290.0 -0.1431082224 0.1072877878 0.46638362 -0.3055727256 0.4656953975 -0.3053682211 -0.1257639684 0.1149763798
290298260.0 -0.1418340543 0.108331461 0.4624130874 -0.3103414469 0.4628616776 -0.3107093861 -0.1244173079 0.1168490339
295298230.0 -0.1406304859 0.1097259628 0.4594188409 -0.3157803949 0.4597428899 -0.3156954157 -0.1224573174 0.117441138
300298200.0 -0.1402858087 0.1110252835 0.4565841547 -0.3209021323 0.4566776285 -0.3215111703 -0.121969211 0.1186741325
305298170.0 -0.1388981661 0.1120064452 0.4524123882 -0.3265141756 0.4526149459 -0.3260706794 -0.1197300661 0.1201028259
310298140.0 -0.1380764144 0.1137101069 0.4492757567 -0.3316690012 0.4493380089 -0.3314664109 -0.1191206555 0.1214389029
315298110.0 -0.1368749028 0.1144742014 0.445285462 -0.3365478676 0.4458637432 -0.336493604 -0.1174817 0.1226417655
320298080.0 -0.1356582548 0.1160548047 0.4412218152 -0.3422081373 0.4420659086 -0.3418795104 -0.1163175525 0.1239831725
325298050.0 -0.1348935658 0.1173434537 0.4376917296 -0.347147269 0.437916551 -0.346847886 -0.1151490434 0.1251482093
330298020.0 -0.1338843236 0.1181270438 0.4334389444 -0.3517453729 0.4341213185 -0.3517698752 -0.1140598648 0.1268007939
335297990.0 -0.1331729685 0.1191712967 0.4298376988 -0.3562279319 0.4298170234 -0.3567952531 -0.1131039979 0.1284528052
340297960.0 -0.1325971365 0.1209384536 0.4256416965 -0.3614172753 0.4253935216 -0.3612081754 -0.1115731522 0.1297008405
345297930.0 -0.13151671 0.1225881239 0.4215837177 -0.3660494235 0.4215383647 -0.3659028411 -0.1103516399 0.1306755522
350297900.0 -0.1303282225 0.1238715846 0.4170702938 -0.3711722054 0.4171891457 -0.3708002208 -0.1093058466 0.1325302157
355297870.0 -0.1293985989 0.1254410695 0.4132111233 -0.3754867418 0.413634619 -0.3749503629 -0.1082784104 0.1337492646
360297840.0 -0.1281681358 0.1267357814 0.4095203223 -0.3796242164 0.4096387951 -0.3795967595 -0.1065939489 0.1351980807
365297810.0 -0.1272167704 0.1283579945 0.4052663359 -0.3848428109 0.4053199195 -0.3846653593 -0.1049469218 0.1367946756
370297780.0 -0.1258300388 0.1295076974 0.4008570819 -0.3887715128 0.4010196797 -0.3881392589 -0.1036487963 0.1379697912
375297750.0 -0.1243433148 0.1309232978 0.3965002368 -0.3928866846 0.3969243048 -0.3930715395 -0.1023467293 0.1392044721
380297720.0 -0.1233014832 0.1319101557 0.3922041008 -0.3976586324 0.3923436396 -0.3968534281 -0.1012657255 0.140483947
385297690.0 -0.1224913023 0.1336008097 0.3872340354 -0.4017206654 0.3874086608 -0.4016738073 -0.0995111918 0.1420010007
390297660.0 -0.1214484429 0.1349467358 0.3832877703 -0.4059043618 0.3831303023 -0.4058481654 -0.0981483622 0.1431327748
395297630.0 -0.1198207551 0.1364230386 0.3790402553 -0.4102025128 0.3788418459 -0.4102580122 -0.0962420345 0.1443550594
400297600.0 -0.1184984152 0.1376068945 0.3743957342 -0.4149154954 0.3742336283 -0.4143526513 -0.0951275265 0.1456572848
405297570.0 -0.1174920947 0.1386105004 0.3696050854 -0.418064989 0.3698492567 -0.4180869076 -0.0937851655 0.1466358057
410297540.0 -0.1157956172 0.1400282319 0.365255219 -0.422569437 0.3657845506 -0.4226500289 -0.0920989375 0.1481723196
415297510.0 -0.1143288877 0.1412633121 0.3603883256 -0.4269014618 0.3607950959 -0.4265979574 -0.0904357796 0.149267421
420297480.0 -0.1133043011 0.1428805631 0.3559267019 -0.4305702032 0.3558812808 -0.430513829 -0.0892191316 0.1500597504
425297450.0 -0.1118867957 0.1436515695 0.3510391299 -0.4343232256 0.3514932447 -0.4345875785 -0.0878691467 0.1518735984
430297420.0 -0.1107830798 0.1447982928 0.3464648899 -0.4376290092 0.3467261037 -0.4377435146 -0.0860168005 0.1521352181
435297390.0 -0.1093619203 0.1462753532 0.3410974451 -0.4418602542 0.3413912415 -0.441753289 -0.0837226786 0.1533263216
440297360.0 -0.1079538685 0.1474380603 0.336592058 -0.4452782623 0.3367969362 -0.4453384265 -0.0827246623 0.1541944125
445297330.0 -0.1065178236 0.1482212463 0.3318510875 -0.4489102474 0.332064825 -0.4489034998 -0.0807468467 0.1550103278
450297300.0 -0.1050231118 0.1494834952 0.3270206015 -0.4524381049 0.3267303776 -0.4532603381 -0.0789860955 0.1561903664
455297270.0 -0.1037351409 0.1506411148 0.3215713574 -0.456282329 0.3221566547 -0.4564043149 -0.0772442196 0.1568277044
460297240.0 -0.1023309587 0.1516689372 0.3168314707 -0.4599711618 0.3170525687 -0.4594784998 -0.0755936214 0.1582371255
465297210.0 -0.1008357381 0.152979148 0.3122414274 -0.46310668 0.3120368974 -0.4632925988 -0.0734546059 0.1588863592
470297180.0 -0.0991029188 0.1537744856 0.3065462695 -0.4664150176 0.3069307718 -0.466556747 -0.0718318095 0.1601112429
475297150.0 -0.0976706737 0.1549365118 0.3017994639 -0.4691519682 0.3019644712 -0.4692780989 -0.0697955018 0.1606898113
480297120.0 -0.0964213111 0.1563412811 0.296238941 -0.4731190419 0.2963606459 -0.4733698226 -0.0679206023 0.1620221612
485297090.0 -0.0949054548 0.1572627949 0.2914745806 -0.4757725499 0.2914969797 -0.4759610575 -0.0662213468 0.1625375176
490297060.0 -0.0936554148 0.1583777219 0.2864698991 -0.4793874647 0.2865109854 -0.4790764458 -0.0643541983 0.1638648404
495297030.0 -0.0921409787 0.1591948692 0.2805319306 -0.4822363934 0.2813669615 -0.482219424 -0.0624763518 0.1647282051
500297000.0 -0.0904860159 0.1601893081 0.2753915359 -0.4850199418 0.275768472 -0.4850572764 -0.0603385733 0.1659360926
505296970.0 -0.0887349847 0.1612020795 0.2704942874 -0.4879029691 0.2704088161 -0.4881932451 -0.0593230205 0.1665027402
510296940.0 -0.0873316044 0.1623316791 0.2647626396 -0.4910902813 0.2648323085 -0.4912186054 -0.0568263508 0.1675893455
515296910.0 -0.0859126261 0.1633514744 0.2595999205 -0.4940997683 0.2597418331 -0.4938519784 -0.0550294413 0.1684648528
520296880.0 -0.0843091362 0.1643664727 0.2541698168 -0.4972494181 0.2542194871 -0.4965901712 -0.0533009265 0.1687268117
525296850.0 -0.0822712927 0.1649971287 0.2483658608 -0.4991271299 0.2492561799 -0.4991777288 -0.0517118751 0.1697296469
530296820.0 -0.0807199222 0.1661554853 0.2429741709 -0.5025145061 0.2433364291 -0.5022709909 -0.0497104076 0.1706860868
535296790.0 -0.0795752489 0.1671814101 0.2382346497 -0.5048768177 0.2381147756 -0.5039570021 -0.0479561209 0.1707474176
540296760.0 -0.0780861132 0.1683761527 0.2324521547 -0.5075865013 0.2324338668 -0.5070306742 -0.0460864041 0.172368653
545296730.0 -0.0761716234 0.1690565146 0.2266519056 -0.5096808457 0.2270376081 -0.5096760853 -0.0444260899 0.1728340151
550296700.0 -0.0742364345 0.1700206026 0.2213727083 -0.511995328 0.2212180496 -0.5121351611 -0.0424207417 0.173608537
555296670.0 -0.072773408 0.1707416274 0.2158094887 -0.514559007 0.2162656058 -0.5142419069 -0.0405768125 0.17453543
560296640.0 -0.0709320601 0.1720483646 0.2098581024 -0.5171134165 0.2103822289 -0.5170075968 -0.0386593763 0.1748854999
565296610.0 -0.0695950949 0.1726322725 0.2043604628 -0.5192565652 0.2047584241 -0.5188938147 -0.0368883245 0.1752838761
570296580.0 -0.0681318724 0.1733961451 0.1988247088 -0.5221447178 0.1985760776 -0.5211945093 -0.0346769411 0.1763212923
575296550.0 -0.0662027156 0.1745755217 0.1933119724 -0.5236349594 0.1932863624 -0.5234916441 -0.0327502506 0.17650095
580296520.0 -0.0645359069 0.1752823011 0.1872439836 -0.5256538155 0.1872999334 -0.5256115749 -0.0306449767 0.1768676393
585296490.0 -0.0631507369 0.1755511928 0.1820213682 -0.5271723627 0.1821750303 -0.5274706685 -0.0293923801 0.1775324625
590296460.0 -0.0610485124 0.1765264745 0.1764886757 -0.5286743885 0.1761787745 -0.5292985547 -0.0276197486 0.1779611126
595296430.0 -0.0594564872 0.1772301353 0.169800952 -0.5314274839 0.169925959 -0.5312031707 -0.0252196278 0.1778571722
600296400.0 -0.0580715362 0.1776855135 0.164559911 -0.533174732 0.1647123799 -0.5325812017 -0.0233037957 0.1782935316
605296370.0 -0.0562545302 0.1785448947 0.1585950444 -0.5345078464 0.1591316171 -0.534175246 -0.0213582272 0.1788964086
610296340.0 -0.0541316966 0.1790480608 0.1525170516 -0.5361047086 0.1532815386 -0.5359932348 -0.0193126174 0.1791125132
615296310.0 -0.0523937934 0.1795785234 0.146826512 -0.5377665051 0.1471583363 -0.5380024745 -0.0172028568 0.1793322585
620296280.0 -0.0507927952 0.1802677687 0.1411906435 -0.5394266234 0.1411072436 -0.538901764 -0.0154390992 0.1799469497
625296250.0 -0.0494130993 0.18062295 0.1361503767 -0.540970507 0.1358265482 -0.5411886765 -0.0128301201 0.1800210059
630296220.0 -0.046859227 0.1814185215 0.1288915704 -0.5423827265 0.1295806452 -0.5418278385 -0.0113466959 0.1802873174
635296190.0 -0.0458877521 0.1819877787 0.1234581379 -0.5434869699 0.1238187128 -0.5433360606 -0.009103117 0.1807783967
640296160.0 -0.0441583163 0.1826951751 0.1181173708 -0.5446103884 0.1180944737 -0.5449005527 -0.0070638752 0.1806892
645296130.0 -0.0421179381 0.1833817281 0.1118956168 -0.5457472443 0.1125240602 -0.5461014372 -0.0048679795 0.1809624715
650296100.0 -0.0401154741 0.1836466909 0.1058343441 -0.5470805039 0.1060563494 -0.5470521945 -0.0026069522 0.1806441878
655296070.0 -0.0386692687 0.1841459252 0.1001010826 -0.5483762876 0.1004498807 -0.5484712109 -0.0002646928 0.1814252622
660296040.0 -0.0371574699 0.1843813572 0.0940636069 -0.549132175 0.0942868866 -0.5494569131 0.0017495612 0.1812826929
665296010.0 -0.0347010277 0.1848181012 0.0877973663 -0.5499017575 0.0881674192 -0.5502033845 0.0037628275 0.1822999914
670295980.0 -0.0338793423 0.1856442686 0.0824344599 -0.5509440388 0.0824693382 -0.5507395834 0.0053049976 0.1819105058
675295950.0 -0.0316414275 0.1864226795 0.0766586297 -0.5518481831 0.076881084 -0.5511419504 0.0073388698 0.1822050343
680295920.0 -0.0299585668 0.186394998 0.0702113927 -0.5524047225 0.0697189135 -0.5530629114 0.0096517272 0.1824347332
685295890.0 -0.0280003763 0.1874221994 0.0648708679 -0.5534960615 0.063928205 -0.5532305617 0.0118413891 0.1824046254
690295860.0 -0.0258940705 0.1873753415 0.0585679388 -0.553174195 0.0582723174 -0.5540911838 0.0136525593 0.1831344471
695295830.0 -0.0244047426 0.1877808329 0.0530013 -0.5541068182 0.052213562 -0.5544469322 0.015713951 0.1829288935
700295800.0 -0.022465311 0.1879917699 0.0466417408 -0.5547714032 0.0465253216 -0.5545437278 0.0171794439 0.1833513943
705295770.0 -0.0208005855 0.1892840932 0.040731163 -0.5555892804 0.0406318951 -0.5554398116 0.0195880763 0.1834831194
710295740.0 -0.0186990046 0.1892372948 0.0346315094 -0.5562990941 0.0347969694 -0.55584199 0.021429464 0.182505159
715295710.0 -0.017644858 0.189126195 0.0291220963 -0.5559286573 0.0283768643 -0.5560042528 0.0236178687 0.1827746985
720295680.0 -0.0152831232 0.1896219917 0.0226477373 -0.5566583655 0.0226752541 -0.5567576126 0.025763508 0.1830688088
725295650.0 -0.0132199441 0.1899069754 0.016665383 -0.5564534996 0.0167137883 -0.5567904115 0.0272545376 0.1833263131
730295620.0 -0.0111814538 0.1906226337 0.0106830864 -0.5565168083 0.0108065331 -0.5568248786 0.0292040987 0.1825279228
735295590.0 -0.0095333129 0.1905473158 0.0046446521 -0.5571103398 0.0043586357 -0.5567071407 0.0310633985 0.1822032479
740295560.0 -0.0079702589 0.1909948949 -0.0012913621 -0.5568202812 -0.0014007103 -0.5571260293 0.0334720672 0.1826785172
745295530.0 -0.0061015576 0.1916199273 -0.0072588283 -0.5563362426 -0.0075939747 -0.5567634777 0.0353007666 0.181683207
750295500.0 -0.0037473546 0.1913609024 -0.0133222491 -0.5563308215 -0.0133414621 -0.5564002789 0.0368972305 0.1813429377
755295470.0 -0.0022434523 0.1912736437 -0.0192123576 -0.5561503029 -0.0194009524 -0.5564905111 0.0394992485 0.1810071323
760295440.0 -0.0004793923 0.1918709396 -0.0254338839 -0.5560596574 -0.0254196132 -0.556179836 0.0412810119 0.1805813563
765295410.0 0.0013175333 0.1917000789 -0.0314200669 -0.5555256741 -0.0317010906 -0.5557621452 0.0433284078 0.1806333543
770295380.0 0.0029478302 0.1916552058 -0.0374818337 -0.5556074744 -0.0374073623 -0.5551690993 0.0454005615 0.1799841869
775295350.0 0.0048480579 0.1919376692 -0.0436096119 -0.5546592238 -0.0433315725 -0.5546944308 0.0468120085 0.1799694412
780295320.0 0.0071174033 0.1918252934 -0.0495600494 -0.5539622823 -0.0488032852 -0.5541242993 0.0489171118 0.1788225996
785295290.0 0.0085015384 0.1915353006 -0.0553834073 -0.5530331287 -0.0552419375 -0.5538987043 0.0514399419 0.1785696569
790295260.0 0.0110669948 0.1922280025 -0.0612426207 -0.5529301143 -0.06028794 -0.5528380042 0.0533772248 0.1784770213
795295230.0 0.0125676408 0.1918496471 -0.0670211306 -0.5522188481 -0.0667884757 -0.5520932698 0.0555387752 0.1778143568
800295200.0 0.0140803738 0.1922087034 -0.0735918945 -0.5511061232 -0.0727883184 -0.5513280151 0.0575961932 0.1774282348
805295170.0 0.0164512856 0.1919389763 -0.0789715722 -0.5503515721 -0.0790191973 -0.5505929095 0.0591664836 0.1769627778
810295140.0 0.01778946 0.1916417423 -0.0844002763 -0.5494246821 -0.0847440017 -0.5501859813 0.0618261852 0.1764975484
815295110.0 0.0197894484 0.1915609176 -0.0906026376 -0.5483404516 -0.0902566989 -0.5486631994 0.0633274788 0.1758926828
820295080.0 0.0215154551 0.1921280221 -0.096707834 -0.5474545916 -0.096314936 -0.5474343496 0.065645683 0.1753548352
825295050.0 0.0239809543 0.1916591865 -0.1022639873 -0.546408707 -0.1022674814 -0.5468286401 0.0677861122 0.1746834668
830295020.0 0.0255928526 0.1916514064 -0.1084192965 -0.5448132675 -0.108456817 -0.5453489112 0.0701423496 0.1743353167
