!Created with skrf (http://scikit-rf.org).
# Hz S RI R 50.0 
!freq ReS11 ImS11 ReS21 ImS21 ReS12 ImS12 ReS22 ImS22
300000.0 -0.241986032 -0.0888406143 0.4731831057 0.059425455 0.4707895044 0.055770256 -0.2391728823 -0.0957277207
5299970.0 -0.2451572014 0.0065140741 0.4750816495 0.004927165 0.4748167352 0.0052473305 -0.2413086414 0.0074672122
10299940.0 -0.2416303751 0.0180791552 0.4764840296 0.0056870952 0.4766268938 0.0062930304 -0.2376893678 0.020447026
15299910.0 -0.2374827237 0.0270113983 0.4806014828 0.0071069046 0.4806266846 0.007117797 -0.2330963337 0.0302619648
20299880.0 -0.2328011194 0.0339342586 0.4847957875 0.008313918 0.4853106226 0.008015208 -0.2280435232 0.0380941384
25299850.0 -0.2278309858 0.0405542832 0.490235641 0.0067700374 0.4900633013 0.0071157012 -0.2216646319 0.0448176707
30299820.0 -0.2226266188 0.0451028947 0.4953107171 0.0051663282 0.4955750979 0.0048374088 -0.2159982565 0.0501390706
35299790.0 -0.2174632876 0.0491122283 0.5009987741 0.0015394471 0.5007922528 0.0015139681 -0.210598173 0.0545743634
40299760.0 -0.2127792284 0.0525234686 0.506046463 -0.0025116266 0.5057472134 -0.0022238937 -0.2052587802 0.0573424753
45299730.0 -0.2079507671 0.0549839203 0.5106389098 -0.0073345745 0.5109503862 -0.0068043223 -0.2004719707 0.0605946899
50299700.0 -0.203875206 0.0566685527 0.5152486728 -0.0126541488 0.514983084 -0.0126879472 -0.1956142179 0.0623740237
55299670.0 -0.1998236683 0.0582455051 0.5185045162 -0.0189163341 0.5186348983 -0.0186055124 -0.1912937223 0.0643484986
60299640.0 -0.1960582602 0.0600226493 0.521600626 -0.0247913142 0.5220026588 -0.0246944889 -0.1871787276 0.0655552913
65299610.0 -0.193081557 0.0607230018 0.5248627054 -0.0314421325 0.5246756869 -0.0311134498 -0.1841800291 0.0666708698
70299580.0 -0.1898692617 0.0619991249 0.5271097002 -0.0382400588 0.5269817136 -0.0378796025 -0.1806871178 0.0675866707
75299550.0 -0.1872011839 0.062952505 0.5290226527 -0.0445238845 0.5289210372 -0.044782825 -0.1779140268 0.0682491241
80299520.0 -0.1844817515 0.0634990902 0.5307789893 -0.0515823297 0.5311176634 -0.051543248 -0.1752904406 0.0691171721
85299490.0 -0.1827401473 0.0641800498 0.532549819 -0.057976293 0.5321859814 -0.0582580745 -0.172829825 0.0695578201
90299460.0 -0.1801630244 0.0648349586 0.5328670021 -0.0657479349 0.5336405958 -0.0652434411 -0.1705803249 0.0702391211
95299430.0 -0.1782098962 0.0654813776 0.5342219501 -0.0724915925 0.5339161053 -0.0726719045 -0.1681593025 0.0713547544
100299400.0 -0.1765949079 0.0662800985 0.5338384168 -0.0788520314 0.5340222381 -0.0790111407 -0.1660411283 0.0716026837
105299370.0 -0.174787664 0.0668372442 0.534408163 -0.0860091882 0.5346135555 -0.0865604306 -0.1641327804 0.0725411998
110299340.0 -0.1732284798 0.067417679 0.5350644607 -0.0926068919 0.5346122257 -0.09236046 -0.1628436514 0.0727926009
115299310.0 -0.1720958806 0.0682286116 0.534846274 -0.0996591392 0.5346855501 -0.0996106817 -0.161055898 0.0736979064
120299280.0 -0.170759435 0.068556361 0.5344275759 -0.1065693452 0.5347470921 -0.1066357614 -0.1594801106 0.0744762699
125299250.0 -0.16945901 0.069133259 0.533895852 -0.1130239112 0.5343601774 -0.1129888008 -0.1584743559 0.0750310284
130299220.0 -0.1687736017 0.0701518203 0.5333139243 -0.1198063027 0.5336915633 -0.1198221785 -0.1572360917 0.0757479181
135299190.0 -0.1674075929 0.0712527264 0.5327682501 -0.1263259917 0.5328815037 -0.1266439608 -0.155684067 0.0766277669
140299160.0 -0.1667643762 0.0722908129 0.5321044842 -0.1335551388 0.5319687752 -0.1332494615 -0.1545262949 0.0780632106
145299130.0 -0.1656775924 0.0729335018 0.5312272204 -0.1397740205 0.5311163121 -0.1394645069 -0.153447921 0.0790098213
150299100.0 -0.1642303814 0.0740145571 0.529889701 -0.1460219975 0.5303519883 -0.1454303692 -0.1524299234 0.0802488848
155299070.0 -0.1640502778 0.0747711865 0.5292326251 -0.1530982585 0.5288183246 -0.1527486186 -0.1511052967 0.0814034147
160299040.0 -0.1629048366 0.0758798228 0.5271891515 -0.1590158913 0.5270781775 -0.1592915039 -0.1505520364 0.082231109
165299010.0 -0.1620551235 0.0768345336 0.5258486452 -0.1657922915 0.5255287287 -0.1657719329 -0.1492056902 0.0837697269
170298980.0 -0.1616597377 0.0777754709 0.5244429584 -0.171869551 0.5244777013 -0.1720735497 -0.1483836946 0.0848092056
175298950.0 -0.1609515533 0.0788690669 0.5232519888 -0.1779474426 0.5226677891 -0.1782243788 -0.1477585225 0.0861708731
180298920.0 -0.1601602886 0.0799091955 0.5209056487 -0.1841954245 0.5209149968 -0.1843209769 -0.1465467444 0.0871465195
185298890.0 -0.1590221148 0.0810750662 0.5188300005 -0.1905207868 0.5187643395 -0.1905806081 -0.1455699134 0.0885670387
190298860.0 -0.1585998154 0.0825542807 0.5175819587 -0.197093299 0.517500668 -0.196546486 -0.1448016896 0.0898270426
195298830.0 -0.157652413 0.0831407538 0.5152992998 -0.2027807206 0.515305691 -0.2027643458 -0.14356303 0.0911986836
200298800.0 -0.1568411682 0.0845877712 0.5128520333 -0.2093369708 0.5135930523 -0.2095163263 -0.1431820601 0.0923090186
205298770.0 -0.1560511652 0.0859855035 0.5106863203 -0.2153142501 0.5106250639 -0.2149702406 -0.1418127155 0.0932594188
210298740.0 -0.1553561437 0.0867679973 0.5082831193 -0.22065306 0.5090035823 -0.2206375621 -0.1409098235 0.0953282393
215298710.0 -0.155188589 0.0882457713 0.5061717084 -0.2267500965 0.5063926335 -0.2275599383 -0.1402007301 0.0967512414
220298680.0 -0.1539901891 0.08925259 0.5033833791 -0.2326628505 0.5039245554 -0.23284219 -0.1394847933 0.0975085196
225298650.0 -0.1533690831 0.0903901758 0.5011176665 -0.2390823531 0.5016026334 -0.2387126782 -0.1388253271 0.0987901226
230298620.0 -0.152657931 0.0922941791 0.4990630271 -0.2443303776 0.499335687 -0.244598447 -0.1380133441 0.1000818155
235298590.0 -0.1518759656 0.0936661117 0.4957531614 -0.2502978272 0.4965932329 -0.2501252046 -0.1369772691 0.1017789302
240298560.0 -0.1511994795 0.0949748615 0.4941376807 -0.2561933582 0.493602125 -0.2563950512 -0.1358963477 0.1033976396
245298530.0 -0.1504027422 0.0961292376 0.4914331282 -0.2617646135 0.4909938788 -0.2621059149 -0.1346058767 0.1039955516
250298500.0 -0.1493289351 0.0975989015 0.4876298135 -0.2674813242 0.4874961931 -0.2670326922 -0.1339984979 0.105641403
255298470.0 -0.1482955162 0.0987533078 0.4844033006 -0.272330859 0.4850181883 -0.2727194988 -0.1330094169 0.106734622
260298440.0 -0.1481723711 0.1001075991 0.4822867492 -0.2789615364 0.4823749035 -0.2783435266 -0.1315042543 0.1084062065
265298410.0 -0.1465788813 0.1015881919 0.478852612 -0.2843349107 0.4791310708 -0.2838708244 -0.1306593234 0.1099172321
270298380.0 -0.1458297643 0.1029947279 0.4761636308 -0.2890807292 0.4762030064 -0.2892195704 -0.1295935925 0.1110888734
275298350.0 -0.1447560303 0.1044945843 0.4728044795 -0.2947549835 0.4728130262 -0.2949305422 -0.128042987 0.1123504139
280298320.0 -0.1438495592 0.105790125 0.4700068974 -0.3002289212 0.4695738051 -0.2999420801 -0.1268457407 0.1137656939
285298290.0 -0.1432828216 0.107021518 0.4667481644 -0.3054728753 0.4662525326 -0.3054303423 -0.1253461621 0.1149355353
290298260.0 -0.1419526315 0.1086444189 0.4629712553 -0.3104561769 0.4631972228 -0.3105972878 -0.1243545025 0.1168528227
295298230.0 -0.1409083762 0.1096159807 0.459713035 -0.3159382628 0.4595619563 -0.3159589845 -0.1228464848 0.1175707668
300298200.0 -0.1401927625 0.1110209723 0.4568588857 -0.3211165958 0.4564536794 -0.3213319053 -0.121694724 0.1189405702
305298170.0 -0.1390396713 0.1121678559 0.4525925747 -0.326813917 0.4528674533 -0.3263077294 -0.1199707828 0.1202056285
310298140.0 -0.1381336176 0.1135730742 0.4490566258 -0.3316960993 0.4494569866 -0.3318416125 -0.1191464725 0.1215755498
315298110.0 -0.1372059043 0.1146361342 0.445957796 -0.3368130824 0.4459871711 -0.3367211767 -0.1178324738 0.1225862093
320298080.0 -0.1358478534 0.1159171619 0.4417121267 -0.3423446957 0.4424568037 -0.3419522812 -0.1165987085 0.1243739491
325298050.0 -0.1348987723 0.1168509135 0.4382656243 -0.3468451767 0.4379424002 -0.3473047968 -0.1155264098 0.1254325078
330298020.0 -0.1342746062 0.1181241 0.4340237978 -0.3521236377 0.4342455495 -0.3518508779 -0.1142425804 0.1263923601
335297990.0 -0.1330509163 0.1195325462 0.429921417 -0.3566475617 0.4298464505 -0.3567332418 -0.1135217529 0.1284428653
340297960.0 -0.1324451927 0.1209451389 0.4253323308 -0.3614553964 0.4255741324 -0.3617058451 -0.1114109212 0.1298068891
345297930.0 -0.1313885377 0.1226277991 0.4217984441 -0.3662124187 0.4214790216 -0.3663717609 -0.110636059 0.1306405369
350297900.0 -0.1304717271 0.1237146336 0.4171251258 -0.3709154389 0.4173510403 -0.3710158079 -0.1093968339 0.1324816403
355297870.0 -0.1291894413 0.1254940507 0.413078184 -0.3757022267 0.4137217806 -0.3752027571 -0.108229245 0.1335730691
360297840.0 -0.1283801665 0.1267162882 0.4101021901 -0.3799516424 0.4096826305 -0.3795955874 -0.1069372888 0.1352426151
365297810.0 -0.1274261807 0.1285652254 0.4051746558 -0.3843567 0.4051761118 -0.3847274324 -0.1050129275 0.1365060401
370297780.0 -0.125753249 0.129208572 0.4006418457 -0.3886067474 0.4009967049 -0.3883736222 -0.1040336323 0.1381211777
375297750.0 -0.1245679166 0.1308730711 0.3966701246 -0.3931453892 0.3971219493 -0.3932978739 -0.1024429392 0.1394654876
380297720.0 -0.1235272807 0.1319711097 0.3919901588 -0.3976609437 0.3923465829 -0.3970223741 -0.1012000257 0.1404342979
385297690.0 -0.1225984563 0.1332619949 0.3879909133 -0.4019805699 0.3876127986 -0.4021060213 -0.099769199 0.1418886012
390297660.0 -0.1212305493 0.1348753659 0.3834406921 -0.4061878141 0.3832383281 -0.406074379 -0.0982929128 0.1430899385
395297630.0 -0.1201452995 0.1361974457 0.3792298585 -0.41044534 0.3787109015 -0.4104911611 -0.0963730724 0.1444171365
400297600.0 -0.1187414238 0.1375679112 0.3742481554 -0.4146080295 0.3742397072 -0.4145089534 -0.0948105547 0.1457353723
405297570.0 -0.1177907959 0.1389484287 0.3697563619 -0.4184078634 0.3698295121 -0.4182451392 -0.0937419479 0.1469585389
410297540.0 -0.1161123377 0.139958495 0.3654758013 -0.4226968004 0.3655111518 -0.4227185093 -0.0920169104 0.1482131065
415297510.0 -0.1144398874 0.1410344427 0.3604449321 -0.4267058911 0.3608789647 -0.4267530101 -0.0904630175 0.1492361106
420297480.0 -0.1136338792 0.1429001897 0.3557056182 -0.4305998028 0.3560668935 -0.4307669218 -0.089202985 0.1498391878
425297450.0 -0.1122750966 0.1433590327 0.3515233069 -0.4338783622 0.3513809851 -0.4344576431 -0.0878363896 0.1515927645
430297420.0 -0.1106955959 0.1448179769 0.3461844821 -0.4376196894 0.3464242243 -0.4377695757 -0.0860157443 0.1524491099
435297390.0 -0.1095292995 0.1461729922 0.3409062584 -0.4420502442 0.3415204377 -0.4421600927 -0.0834192151 0.1535354842
440297360.0 -0.1080796817 0.1474262994 0.3367160731 -0.4459171372 0.3366588564 -0.4457914863 -0.0826270193 0.154278971
445297330.0 -0.1064209721 0.1482648583 0.3321351952 -0.4490658758 0.331874688 -0.4487736853 -0.0804793365 0.1550317962
450297300.0 -0.1049802124 0.1494041353 0.3272221101 -0.4522725714 0.3266224669 -0.4528103524 -0.0789366217 0.1560628846
455297270.0 -0.1040550048 0.1506942596 0.3215812394 -0.456359159 0.3221982872 -0.4564550035 -0.0773282936 0.1571252074
460297240.0 -0.1023541739 0.1518099804 0.3165164109 -0.4596419747 0.3169296907 -0.4599217939 -0.0755779631 0.1583450402
465297210.0 -0.1007888627 0.1528348814 0.3122488181 -0.4633103202 0.3118439187 -0.4638641828 -0.0735895685 0.1588899211
470297180.0 -0.0993167314 0.1537394027 0.306498749 -0.4668829304 0.3068962073 -0.466488616 -0.0718236407 0.1603374321
475297150.0 -0.0979942159 0.1548003191 0.301629651 -0.4692319161 0.3018136746 -0.4696660332 -0.0697617752 0.1607089074
480297120.0 -0.096415209 0.1565379241 0.296354143 -0.4732454477 0.2963198091 -0.4734251016 -0.0678775706 0.161900379
485297090.0 -0.0949872665 0.1571444943 0.2917605173 -0.4762697802 0.2913972952 -0.4759733987 -0.0662019128 0.1629966938
490297060.0 -0.0937864279 0.158346106 0.2866960762 -0.4797077432 0.2866185201 -0.479161761 -0.0645249691 0.1640960297
495297030.0 -0.0921756546 0.1592887646 0.2811594408 -0.4824197516 0.2814482901 -0.4825951626 -0.0627891163 0.1649406548
500297000.0 -0.0906488085 0.1600842437 0.2760003359 -0.4849474604 0.2750427943 -0.485291915 -0.0607120804 0.1659505607
505296970.0 -0.0884139289 0.1612536799 0.2703386732 -0.4882525988 0.2698731407 -0.4885180558 -0.0589839784 0.1665922901
510296940.0 -0.0874975061 0.1624635135 0.265197977 -0.4911637608 0.2649424307 -0.4915941494 -0.0572777152 0.1676790404
515296910.0 -0.0857730826 0.1634364649 0.2597379187 -0.4941220927 0.2594757989 -0.4942947593 -0.0550809026 0.1685422657
520296880.0 -0.0843262447 0.1644569234 0.2543155819 -0.497226297 0.2541653579 -0.4966421413 -0.0536169648 0.169010291
525296850.0 -0.0823848637 0.1646100186 0.2480869688 -0.4995292859 0.2490707183 -0.4995792554 -0.0514573987 0.1696026959
530296820.0 -0.080777543 0.1659590692 0.2433199847 -0.5024663765 0.2431795458 -0.5019923961 -0.0496311234 0.1706099727
535296790.0 -0.0796189149 0.167132074 0.2379800768 -0.5046671487 0.238076297 -0.5042639122 -0.0481269429 0.1710891164
540296760.0 -0.0779654565 0.1680740077 0.2322445126 -0.507708089 0.2321662371 -0.5076736734 -0.0461573993 0.1722434961
545296730.0 -0.07647628 0.1689389142 0.2266508247 -0.5098781102 0.2272443574 -0.5096710836 -0.0443095353 0.1726971583
550296700.0 -0.0744341762 0.16984052 0.2211377774 -0.5121414482 0.2214365691 -0.5124812039 -0.0425681774 0.1736942684
555296670.0 -0.0731864405 0.1705121805 0.2158626238 -0.5145259158 0.2159193003 -0.5149552838 -0.0404079058 0.17452614
560296640.0 -0.0708830444 0.17167012 0.2100468866 -0.5171673799 0.2100988998 -0.5169560959 -0.0387263123 0.1747234102
565296610.0 -0.069885245 0.1725064335 0.2043689863 -0.5191160824 0.204789561 -0.5193181772 -0.0368542239 0.1752108033
570296580.0 -0.0681539409 0.1731557255 0.1988455439 -0.5218451723 0.1983265983 -0.5214903402 -0.0349429673 0.1762351683
575296550.0 -0.066700001 0.1743027459 0.1933278526 -0.5237973754 0.1930502843 -0.5233376697 -0.0327325839 0.176392893
580296520.0 -0.0646918944 0.1750138574 0.1875915148 -0.525570171 0.1873485065 -0.5256765181 -0.030856171 0.1769637634
585296490.0 -0.0630350459 0.1754671812 0.1817585931 -0.5272123744 0.1819964135 -0.5275402953 -0.0291488922 0.177691349
590296460.0 -0.0609937386 0.1764304348 0.1761894123 -0.5291073985 0.1760019179 -0.5294239776 -0.0274007991 0.1782314742
595296430.0 -0.0595000561 0.1771277751 0.1697311151 -0.5316563137 0.1701010135 -0.5311471051 -0.0252168211 0.1780213479
600296400.0 -0.0579803852 0.1781883506 0.1646990695 -0.53319217 0.1642366352 -0.5329598258 -0.0234469981 0.1784270287
605296370.0 -0.0560988388 0.1781320428 0.1585319264 -0.5345631714 0.1585560135 -0.5347055919 -0.0213164511 0.1791241167
610296340.0 -0.0542858587 0.1791678296 0.1525302636 -0.5359719149 0.1531695621 -0.5366684897 -0.019325136 0.1792449032
615296310.0 -0.0523939736 0.179434592 0.1471127597 -0.53757938 0.1467737167 -0.5383237594 -0.016905997 0.1795866808
620296280.0 -0.0509618879 0.1800058399 0.141186754 -0.5393552903 0.1412651404 -0.5395406332 -0.0153856746 0.1800235862
625296250.0 -0.0493815277 0.1804987756 0.1361456532 -0.5411945666 0.1358472527 -0.541214228 -0.0126321643 0.1799570504
630296220.0 -0.046705883 0.1812655017 0.1288714834 -0.5426069528 0.1291068512 -0.5420486791 -0.0113392828 0.1805735093
635296190.0 -0.0458934082 0.1815274642 0.1237204812 -0.5432370127 0.1238139026 -0.543604695 -0.0090489729 0.1808394861
640296160.0 -0.0442164068 0.1826088058 0.1179208889 -0.5445154739 0.1179266829 -0.5450027667 -0.0068225822 0.1809809453
645296130.0 -0.0421576412 0.1833958842 0.111658452 -0.5455722799 0.1122294971 -0.5460236383 -0.0050676847 0.1810566594
650296100.0 -0.040123038 0.1836224207 0.1058082995 -0.5469683358 0.1056096225 -0.5471523332 -0.0025668987 0.1808899064
655296070.0 -0.0387682116 0.1840120709 0.1000125567 -0.5481711825 0.100502109 -0.5482795011 -0.0003823137 0.1814401981
660296040.0 -0.0373085101 0.1843283592 0.0944230164 -0.5494201667 0.0942202611 -0.5497326538 0.0018083914 0.1816913032
665296010.0 -0.0347070494 0.1848285834 0.0878903659 -0.5500119581 0.0881430111 -0.5500073923 0.0038308404 0.182116291
670295980.0 -0.0338520662 0.1855989639 0.082382728 -0.5513844437 0.0820190981 -0.5508950094 0.0051299231 0.1821006146
675295950.0 -0.0317191867 0.1861399616 0.076564108 -0.551656026 0.0767697401 -0.5514853814 0.0071514225 0.1825176365
680295920.0 -0.0301777722 0.1865549994 0.0702143738 -0.5522063732 0.0696968112 -0.5530330753 0.0096782169 0.1828197473
685295890.0 -0.0279795273 0.1874579716 0.0638153544 -0.5534971811 0.0643772047 -0.5532832659 0.0115044377 0.1823760987
690295860.0 -0.0260781665 0.1875343725 0.0581808797 -0.553771922 0.0583912041 -0.55420164 0.0133007395 0.1831008268
695295830.0 -0.024025982 0.1876811296 0.0525915514 -0.5543528532 0.0523065519 -0.5546327405 0.0155253548 0.1832149657
700295800.0 -0.0223006739 0.187975918 0.0460814946 -0.5548280735 0.0463980379 -0.5550154913 0.0171938012 0.1833035403
705295770.0 -0.02072837 0.188838061 0.0401101503 -0.5552574702 0.040624015 -0.5558309917 0.0195000232 0.1833645228
710295740.0 -0.0188146108 0.1891554153 0.0347771375 -0.5567199529 0.0347682466 -0.5562369163 0.021312501 0.1825593816
715295710.0 -0.0172784001 0.189232603 0.0287670178 -0.5563680755 0.0281337768 -0.5562619787 0.0236139326 0.1827813814
720295680.0 -0.0153727268 0.1896545716 0.0223743755 -0.5566936053 0.0225760586 -0.5568577645 0.0257582926 0.183382891
725295650.0 -0.0134501175 0.1900051939 0.0165711472 -0.5564354263 0.016161029 -0.5572013792 0.0273000675 0.1832307998
730295620.0 -0.011403178 0.1903063551 0.0105004102 -0.5564570819 0.0106922656 -0.5569117488 0.0288604435 0.1828555657
735295590.0 -0.0095759836 0.1908321987 0.0047722369 -0.557080115 0.0042946134 -0.5568220434 0.031079829 0.1822664875
740295560.0 -0.0081147849 0.1908570139 -0.001522154 -0.5566120414 -0.0016092692 -0.556912214 0.0335641891 0.1826023992
745295530.0 -0.0061394262 0.1912940037 -0.0075311191 -0.5562535344 -0.0079211141 -0.5566441077 0.0352140352 0.1818441375
750295500.0 -0.003800743 0.1912264788 -0.013754976 -0.5562184987 -0.013255095 -0.5568858255 0.0371867926 0.1820047848
755295470.0 -0.0017952043 0.1910845997 -0.0193257834 -0.5563850362 -0.0192930044 -0.5561496811 0.03941598 0.1809062398
760295440.0 -0.0005012648 0.191503225 -0.0256478394 -0.5560520741 -0.0256619258 -0.5566821654 0.0411586533 0.1807474527
765295410.0 0.0017067469 0.191760665 -0.0319142054 -0.5555823194 -0.0319883239 -0.555856099 0.0434627552 0.1805482303
770295380.0 0.0029824609 0.1916876554 -0.0376452401 -0.5554456092 -0.0375428394 -0.555250897 0.0451829688 0.1798876579
775295350.0 0.0049785775 0.1912489202 -0.0437967211 -0.5542507278 -0.0431848405 -0.5546299961 0.0467823782 0.1797875591
780295320.0 0.0070486029 0.1919403544 -0.0497663354 -0.5540301543 -0.0489605447 -0.5541793584 0.0490050132 0.1788495977
785295290.0 0.0084633923 0.1914840749 -0.0555647454 -0.5531119793 -0.0554210753 -0.5535942199 0.0515929733 0.1787778156
790295260.0 0.0110854719 0.1920904052 -0.0609785882 -0.5529723735 -0.0606866063 -0.552952808 0.0534504201 0.1784507492
795295230.0 0.0125147047 0.1915416186 -0.0671493852 -0.5520606683 -0.0671577617 -0.5522721786 0.0557186264 0.1781341028
800295200.0 0.0142154524 0.192181089 -0.0736536381 -0.5512241891 -0.0730943316 -0.5512801315 0.0576047852 0.1778282829
805295170.0 0.0162141967 0.1916977593 -0.0792605653 -0.5507585812 -0.0796586526 -0.5506624734 0.0593807203 0.1771846611
810295140.0 0.0177216001 0.1914414818 -0.0846445042 -0.5495946447 -0.0851151773 -0.5498149898 0.0618705414 0.1768173795
815295110.0 0.0199321682 0.1915347936 -0.0910876039 -0.5482747562 -0.0903034672 -0.548702263 0.0635552648 0.1761403928
820295080.0 0.0213610995 0.1919179901 -0.0966101525 -0.5469027466 -0.0960797283 -0.5473252121 0.065117054 0.1755687209
825295050.0 0.023934099 0.191555157 -0.1024611851 -0.5463967541 -0.1024575823 -0.5466767177 0.0674837765 0.1748658005
830295020.0 0.0254225414 0.1916373203 -0.1087996006 -0.5450703975 -0.1086840337 -0.5450864336 0.0701703816 0.1743334631
