!Created with skrf (http://scikit-rf.org).
# Hz S RI R 50.0 
!freq ReS11 ImS11 ReS21 ImS21 ReS12 ImS12 ReS22 ImS22
300000.0 -0.2429023274 -0.0948751335 0.4724290213 0.0629766658 0.4704151881 0.0588929731 -0.2371865764 -0.099786958
5299970.0 -0.2449475908 0.0065073574 0.4749111057 0.0049946843 0.4749010382 0.0050977161 -0.2409639011 0.0071317423
10299940.0 -0.2417257617 0.0179580584 0.4765716343 0.0060909629 0.476619675 0.0064898869 -0.2374831952 0.020635847
15299910.0 -0.2374550454 0.0268462276 0.4807809206 0.007284701 0.4807650232 0.0071718038 -0.2329468081 0.0304169876
20299880.0 -0.2326752177 0.0336209775 0.4849274761 0.0082638887 0.4850601361 0.0078797549 -0.2275064191 0.0382604598
25299850.0 -0.2279341448 0.0402578112 0.4900689129 0.0069180799 0.4898252783 0.0073416652 -0.221679249 0.0446707405
30299820.0 -0.2225115262 0.0451212892 0.4955866566 0.0047414593 0.4956418991 0.0047817701 -0.2157795786 0.050216522
35299790.0 -0.2173632231 0.0489513166 0.5005525399 0.0012448035 0.5008110179 0.0014284922 -0.210377165 0.0548090705
40299760.0 -0.2127598104 0.0523942478 0.50602968 -0.0021146946 0.5062278757 -0.002245007 -0.2051366918 0.0575407511
45299730.0 -0.2079592386 0.0546649998 0.5101462835 -0.0070314589 0.5104849124 -0.0067853603 -0.2002588916 0.0604466881
50299700.0 -0.2039354282 0.056673613 0.5147168775 -0.0126612521 0.5150780606 -0.0122321161 -0.1956632934 0.0621699687
55299670.0 -0.1998358967 0.0585456919 0.51859508 -0.0190158743 0.5184991508 -0.0181322767 -0.1913714861 0.0642478447
60299640.0 -0.1959757494 0.060009089 0.5219304683 -0.0247492859 0.5222291303 -0.0246464148 -0.1874226954 0.0656291373
65299610.0 -0.1932194169 0.0609811556 0.5245372157 -0.0313862803 0.5245761988 -0.0308383166 -0.1840443072 0.0667570957
70299580.0 -0.1899131847 0.0622010468 0.5272474372 -0.0377645861 0.5267139404 -0.0375758559 -0.1806810465 0.0674794977
75299550.0 -0.1873404887 0.0629131112 0.529174826 -0.0443783298 0.5288232217 -0.0447733719 -0.1779142436 0.0684531797
80299520.0 -0.1847139512 0.0633927789 0.5305645245 -0.0514316993 0.5309298997 -0.0518432313 -0.1754631977 0.0694390422
85299490.0 -0.1826216193 0.0640214103 0.5316074627 -0.0578540996 0.531971175 -0.0579909055 -0.1730354385 0.0697471517
90299460.0 -0.1805285359 0.0647774827 0.5329674653 -0.0652774884 0.5333487973 -0.0652551632 -0.1704591373 0.0703322372
95299430.0 -0.1778677854 0.0656566033 0.534013 -0.0720880478 0.5335667855 -0.072190046 -0.168351896 0.0711504526
100299400.0 -0.1765772669 0.0665103216 0.5339111528 -0.078906033 0.5337949049 -0.0788453178 -0.1660787614 0.0712656764
105299370.0 -0.1748436853 0.0669917107 0.5345039958 -0.0860740233 0.5347263035 -0.0858066641 -0.1641548503 0.0724309078
110299340.0 -0.1733862934 0.0675152716 0.5349746643 -0.0926972194 0.5347431002 -0.0924877174 -0.163102698 0.0726711766
115299310.0 -0.1718866631 0.0681171265 0.5347847013 -0.0997280386 0.5346842143 -0.0994603821 -0.1611832204 0.0734715381
120299280.0 -0.1706531869 0.0685445565 0.5344343257 -0.1063750663 0.5345694074 -0.1063446152 -0.1593748032 0.0745146672
125299250.0 -0.1696830656 0.0691457436 0.5342908873 -0.1130033745 0.5341960695 -0.1126019543 -0.1583355879 0.074822596
130299220.0 -0.1686496111 0.070138818 0.5330859174 -0.1199363765 0.5334360479 -0.1199756172 -0.1573401747 0.075465482
135299190.0 -0.1673498346 0.0712086497 0.5330168318 -0.1262568646 0.5327592044 -0.1261011744 -0.155643821 0.0768018423
140299160.0 -0.1666065359 0.0719154013 0.5319781504 -0.133147797 0.5322052908 -0.1332534615 -0.1545834626 0.0780826941
145299130.0 -0.1656059672 0.0728911798 0.5314688636 -0.1396424445 0.5308024684 -0.1395670907 -0.1532825406 0.0789301168
150299100.0 -0.1645984571 0.0738170738 0.5302105185 -0.1453825276 0.5300755455 -0.1456309515 -0.1519295482 0.0799958059
155299070.0 -0.1637048172 0.0744204097 0.5289103875 -0.1530412919 0.5286692527 -0.1524357324 -0.1510542423 0.0813095247
160299040.0 -0.1627856673 0.0757851614 0.5272157334 -0.1591772407 0.527240431 -0.1592552096 -0.1505518069 0.0820758465
165299010.0 -0.1621917314 0.0768203212 0.5259312994 -0.1659689893 0.5262464189 -0.1656298254 -0.1489919658 0.0836050536
170298980.0 -0.1612868429 0.0779423819 0.5242953676 -0.1719300049 0.5244283321 -0.1717669117 -0.1479889225 0.0845956506
175298950.0 -0.1607491678 0.0787021954 0.5230560121 -0.1779725817 0.5225284684 -0.178002206 -0.1473803564 0.0859713548
180298920.0 -0.1600205682 0.0799946566 0.5211554764 -0.1845368791 0.5208402347 -0.1840823392 -0.1465455691 0.0873958974
185298890.0 -0.1588567267 0.0809466514 0.5191912489 -0.1907085164 0.5190561092 -0.1904851931 -0.1453836493 0.0888735671
190298860.0 -0.1584176095 0.0821591939 0.5173663141 -0.1966640623 0.5174438124 -0.1965863513 -0.1446255301 0.0896081081
195298830.0 -0.1577646713 0.0833265821 0.5150115327 -0.2024441218 0.5152415329 -0.2026691238 -0.1435240761 0.0911715071
200298800.0 -0.1568970977 0.0846132828 0.5131738876 -0.2092142563 0.5130275933 -0.2091017853 -0.142930323 0.0924819623
205298770.0 -0.1562060273 0.0859396861 0.5109392193 -0.2154263398 0.5107957661 -0.2150400674 -0.1420502472 0.0933633558
210298740.0 -0.1554190419 0.0870203563 0.5086690044 -0.2209288248 0.5086639539 -0.2206037515 -0.1408171174 0.0953824443
215298710.0 -0.1551259206 0.0884392833 0.5067357632 -0.2271069373 0.5064933488 -0.2271164214 -0.1401537812 0.0964330561
220298680.0 -0.1540507648 0.0893523266 0.5031464202 -0.2327550151 0.5038722455 -0.2327889926 -0.139561649 0.0976428646
225298650.0 -0.1533857795 0.090685658 0.5015780685 -0.2387156447 0.5014721769 -0.2386010576 -0.1389395168 0.0989982271
230298620.0 -0.1525617612 0.0925589919 0.4986828665 -0.244590711 0.4996171468 -0.2444578193 -0.138037427 0.1001526103
235298590.0 -0.1517956699 0.0936728544 0.4963881375 -0.2500929851 0.4963744305 -0.2496263622 -0.1369105938 0.1017832184
240298560.0 -0.1510394789 0.095068563 0.4938802376 -0.2565280297 0.4934148903 -0.2559151219 -0.1360091529 0.1031842848
245298530.0 -0.1504443593 0.0963774596 0.4912578567 -0.2615099107 0.4908343763 -0.261747619 -0.1347490591 0.103978577
250298500.0 -0.1491454946 0.097806134 0.4875263631 -0.2672594594 0.4875356982 -0.2668589206 -0.1341177661 0.1055134896
255298470.0 -0.1485439287 0.0987339441 0.4844571651 -0.2728583325 0.4848040861 -0.2725409587 -0.1328739485 0.1069300842
260298440.0 -0.1479969263 0.1001496658 0.4820551415 -0.2786054859 0.4821439691 -0.2781162398 -0.1316540827 0.1081939741
265298410.0 -0.1466335284 0.1021188371 0.4789897369 -0.2843436628 0.4791650087 -0.2834537109 -0.13069115 0.1097192182
270298380.0 -0.1461036243 0.1031892142 0.4762871076 -0.2887465869 0.4762081193 -0.2889684547 -0.1296973234 0.1111136773
275298350.0 -0.1446939055 0.1042288372 0.4728532852 -0.294801449 0.4730502872 -0.2949113404 -0.1282039812 0.112255736
280298320.0 -0.1438574956 0.1057032932 0.4699271327 -0.3001147796 0.4698338809 -0.3000271441 -0.1268189091 0.113685411
285298290.0 -0.1428034604 0.1070727439 0.4665587328 -0.3054528891 0.4662809925 -0.305406825 -0.125728964 0.1150121711
290298260.0 -0.1418964193 0.1085330907 0.4630861392 -0.31067426 0.463204479 -0.3107778998 -0.1243864515 0.116596278
295298230.0 -0.1411665385 0.1095938466 0.4600084245 -0.3159106942 0.4596893286 -0.3157534966 -0.1229707729 0.1176125613
300298200.0 -0.1401327847 0.1109771501 0.45643366 -0.3205268681 0.4565213082 -0.3212022243 -0.121609082 0.1189701355
305298170.0 -0.138789388 0.1121586682 0.4523975442 -0.3264473199 0.453029777 -0.3262259522 -0.1198830762 0.1199071789
310298140.0 -0.1379790575 0.1136475594 0.448989033 -0.3316267232 0.4496960383 -0.3312850244 -0.1190148629 0.1211859372
315298110.0 -0.1370115898 0.1146234865 0.4457378504 -0.336589226 0.4460124764 -0.3365735301 -0.1176033928 0.1225346645
320298080.0 -0.1358375542 0.1158901476 0.4414265071 -0.3421695824 0.4419806587 -0.3416569869 -0.1161469025 0.1240265532
325298050.0 -0.1350834338 0.1171107271 0.4380435056 -0.3472283952 0.4380841549 -0.3468923266 -0.1152183297 0.1254932684
330298020.0 -0.134039688 0.1181111028 0.4335501144 -0.3519656465 0.4343031769 -0.3517959047 -0.1142173203 0.126578805
335297990.0 -0.1327461673 0.1193761802 0.4300901147 -0.3563407769 0.4295475055 -0.3569048658 -0.1130110211 0.1282342214
340297960.0 -0.1323676123 0.1211990401 0.4257509478 -0.3613065157 0.4254593313 -0.3617345434 -0.1114885278 0.1296312414
345297930.0 -0.1315043236 0.1229843199 0.4218929203 -0.3662575436 0.4218391544 -0.3662950107 -0.1103883337 0.1308484215
350297900.0 -0.1305464693 0.1236974988 0.4171232486 -0.3707983465 0.4174608861 -0.3706349967 -0.109356616 0.1326194892
355297870.0 -0.1292725002 0.1255622531 0.4131002631 -0.3756782969 0.4137054032 -0.3754221316 -0.1081447796 0.1336181761
360297840.0 -0.128355942 0.1265643414 0.4097812667 -0.3795316923 0.4099971286 -0.3796950806 -0.1066974769 0.135727009
365297810.0 -0.1270631693 0.1283279578 0.4052288066 -0.3843395353 0.4053666994 -0.3845858598 -0.104929342 0.1367691483
370297780.0 -0.1259428349 0.1295338169 0.4006738972 -0.3887837451 0.4012734509 -0.388407583 -0.103901421 0.1383224884
375297750.0 -0.1245149145 0.1308153201 0.3962771362 -0.3932002284 0.3971906758 -0.3930908129 -0.102302231 0.1393113006
380297720.0 -0.1235168262 0.1320907247 0.392264556 -0.3977506406 0.3923016981 -0.3969280985 -0.1010073985 0.140555882
385297690.0 -0.1225991532 0.1335056861 0.3875823333 -0.4020487544 0.3877837514 -0.4016054815 -0.0997524914 0.1419714442
390297660.0 -0.1211263371 0.1348845599 0.3836359347 -0.4059971671 0.3831689977 -0.405885678 -0.0982579378 0.1430668304
395297630.0 -0.1201109202 0.1364542317 0.3789211487 -0.4105447799 0.3788479952 -0.4103267008 -0.0963538425 0.1445852083
400297600.0 -0.1187507044 0.1376182021 0.3739590184 -0.4148335432 0.374490886 -0.4144533337 -0.0951545974 0.1455574546
405297570.0 -0.1176381577 0.1388005307 0.3698211169 -0.4183162019 0.3698999667 -0.4182052788 -0.0940184707 0.1471174036
410297540.0 -0.1161139812 0.1401347695 0.3652172025 -0.4226182422 0.3659909451 -0.4223200686 -0.0922508566 0.1482612494
415297510.0 -0.1143514086 0.1411861037 0.360358482 -0.4265934782 0.3607970304 -0.4266341289 -0.0903865405 0.1494515218
420297480.0 -0.1133714953 0.1426915252 0.3558346406 -0.4303920875 0.3557564973 -0.4307549897 -0.0892501909 0.1502186344
425297450.0 -0.1120523636 0.1432592111 0.3516445808 -0.4341536514 0.35169855 -0.4345368185 -0.0878727622 0.1515168246
430297420.0 -0.1105865699 0.1449510102 0.346354005 -0.4377210754 0.3463612472 -0.4377826341 -0.0859505254 0.1523457153
435297390.0 -0.109500803 0.1461808092 0.3413269315 -0.441726363 0.3413623835 -0.4419256143 -0.0837431994 0.1534362036
440297360.0 -0.1078847053 0.1472580623 0.336633973 -0.4452964423 0.3366393887 -0.4455592155 -0.0823754117 0.1544221483
445297330.0 -0.1068466451 0.1482341118 0.3321858451 -0.4489835761 0.3317529911 -0.4488495729 -0.0807211796 0.1549801076
450297300.0 -0.1048798617 0.1494409913 0.3269980197 -0.4526856136 0.3266198662 -0.4530146323 -0.0791335134 0.1560412408
455297270.0 -0.1037216718 0.1506914898 0.3218156669 -0.4562241004 0.3221258492 -0.4563574495 -0.0772928272 0.1569302289
460297240.0 -0.1021977524 0.1518101396 0.3164742726 -0.4595127251 0.3169657218 -0.4597374639 -0.0755346188 0.1582633883
465297210.0 -0.1005335896 0.1530012805 0.3118841746 -0.463040406 0.3122329608 -0.463762924 -0.0736067597 0.1588917603
470297180.0 -0.0992004689 0.1538243347 0.306588307 -0.4664829107 0.3069534614 -0.4667899717 -0.0717580661 0.1600319554
475297150.0 -0.0977603869 0.1547397201 0.3014716491 -0.4693251177 0.3017628705 -0.469202775 -0.0696176842 0.1608600185
480297120.0 -0.096350158 0.1561481137 0.2965527517 -0.4731878047 0.2963566723 -0.4732987961 -0.0678593605 0.1620527825
485297090.0 -0.0949542109 0.1573073214 0.2915558526 -0.4759867546 0.2916654884 -0.475874781 -0.0659334334 0.162707763
490297060.0 -0.0937828615 0.1582283748 0.2865736317 -0.4794382629 0.2863223275 -0.4790312652 -0.0640223261 0.1636560271
495297030.0 -0.0921808662 0.1595124239 0.280818114 -0.4822503499 0.2813679918 -0.4822610133 -0.0624806271 0.164829844
500297000.0 -0.0903340565 0.1602996764 0.2754540149 -0.48486606 0.2754328465 -0.4846056675 -0.06063144 0.1660122219
505296970.0 -0.0887882702 0.1613844647 0.2702970769 -0.4880917562 0.2704083568 -0.488402794 -0.058838845 0.1667079473
510296940.0 -0.0874038557 0.1624374335 0.2650234077 -0.4915099361 0.2647601562 -0.4913680712 -0.0566745213 0.1676026226
515296910.0 -0.0857032711 0.1635711224 0.2596369848 -0.4940158859 0.2597338862 -0.4940011127 -0.0549329718 0.1684072913
520296880.0 -0.0845263162 0.1642926689 0.2542131059 -0.4970021413 0.2541449235 -0.4963922185 -0.0534172018 0.1688112022
525296850.0 -0.0824000163 0.1651057431 0.2488809799 -0.4993472519 0.249024549 -0.4992492746 -0.0514660142 0.1700089463
530296820.0 -0.0809514512 0.1663145294 0.2435815204 -0.5023343135 0.2434087878 -0.5023858189 -0.0491694202 0.1706753085
535296790.0 -0.0795388042 0.1667663349 0.2382906647 -0.5042760465 0.238277002 -0.5042538765 -0.0477545651 0.1712511699
540296760.0 -0.0778649201 0.1682775102 0.2325914312 -0.5076197029 0.2323362899 -0.5073931646 -0.0461096333 0.1723311978
545296730.0 -0.0765029806 0.1692144958 0.2268036367 -0.509623672 0.2267254381 -0.5098241332 -0.0439764412 0.1726564083
550296700.0 -0.0741665303 0.1699551883 0.2207828691 -0.5120206147 0.2212453191 -0.5122740969 -0.0427296958 0.1736296576
555296670.0 -0.0730325995 0.1706224915 0.2159677693 -0.514583077 0.216163247 -0.514606648 -0.0402875855 0.1745050987
560296640.0 -0.0711857225 0.1718876116 0.2102600613 -0.5171843469 0.2101087655 -0.5169507556 -0.0385426388 0.1748272472
565296610.0 -0.0698143341 0.1724219343 0.2044864296 -0.5188922088 0.2048785633 -0.5188047787 -0.0367843141 0.1751579986
570296580.0 -0.0681283292 0.1731265283 0.1990608753 -0.5213714728 0.1983656319 -0.5214408355 -0.0350003133 0.1764254842
575296550.0 -0.066528919 0.1743045293 0.1930624545 -0.5235913356 0.1932053459 -0.523746993 -0.0327746907 0.1766497173
580296520.0 -0.0645450448 0.1752903939 0.1874924168 -0.5257742409 0.1874137535 -0.5251821426 -0.0311050976 0.1770728542
585296490.0 -0.063207358 0.1754224042 0.181578472 -0.5273431318 0.1820254536 -0.5276075123 -0.0292615039 0.1773679344
590296460.0 -0.0611046545 0.1765385582 0.1762461451 -0.528692045 0.1765949164 -0.5291110486 -0.027628262 0.177828812
595296430.0 -0.0592838203 0.1771901589 0.169952922 -0.5313846223 0.1702677453 -0.530768506 -0.0254240991 0.1777296242
600296400.0 -0.0580065711 0.1776738747 0.1645518951 -0.5327967113 0.1645676978 -0.5326503241 -0.0237843166 0.1786155868
605296370.0 -0.0559853462 0.1785720284 0.1585020777 -0.5346188326 0.1593199596 -0.5346174627 -0.0214783219 0.1789111626
610296340.0 -0.054336615 0.1790861473 0.1525491717 -0.5358347237 0.153178047 -0.5361755963 -0.0193153498 0.1791138384
615296310.0 -0.0521929016 0.1795423512 0.1469039029 -0.5376229427 0.146816251 -0.5382437911 -0.0170311526 0.179349925
620296280.0 -0.0510018242 0.1799773143 0.1412179595 -0.5393456799 0.1415322617 -0.5389288759 -0.0154284462 0.1794714121
625296250.0 -0.0490961444 0.1803069255 0.1361008699 -0.5409193892 0.1356587816 -0.5408821244 -0.0127009291 0.1799342732
630296220.0 -0.0469233971 0.1814316651 0.1292682107 -0.5420070164 0.1291789483 -0.5421387912 -0.0109882945 0.1805231699
635296190.0 -0.0459478531 0.1818016309 0.1236358368 -0.5432832046 0.1236864314 -0.5433198946 -0.0087483497 0.1806757281
640296160.0 -0.0440754319 0.1825568668 0.1179720366 -0.5444444245 0.1181918225 -0.5447400659 -0.0069078645 0.1805861777
645296130.0 -0.0421383452 0.183490339 0.1115605913 -0.5458783234 0.112046557 -0.5457432412 -0.0049322382 0.1811865383
650296100.0 -0.0402089762 0.1837027026 0.1057881328 -0.5469711639 0.1062365838 -0.5470833628 -0.00240637 0.1808217977
655296070.0 -0.0388806042 0.1840452941 0.1001783827 -0.5481353748 0.1004082613 -0.5485778564 -0.0002232892 0.1813077713
660296040.0 -0.0369773188 0.1844818308 0.0943138698 -0.5486917912 0.0944199958 -0.5492111182 0.0014535105 0.1814252354
665296010.0 -0.034747584 0.1850139697 0.087799709 -0.5500745761 0.0884504573 -0.5501328415 0.0037886078 0.1822873225
670295980.0 -0.0340484336 0.1858974761 0.082418179 -0.5511442392 0.0824809476 -0.5509833006 0.0053815605 0.1818767044
675295950.0 -0.0318968504 0.1863561732 0.0768569276 -0.5520546325 0.0767909309 -0.5514341633 0.0070943056 0.1821921973
680295920.0 -0.03004957 0.1865308942 0.0702087959 -0.5520972379 0.0699604717 -0.5528387639 0.0095181205 0.1830101904
685295890.0 -0.0278027637 0.1876143012 0.0646523013 -0.5532113363 0.0641811574 -0.5534443035 0.0116010826 0.1827793943
690295860.0 -0.0261325891 0.1876841005 0.0584691856 -0.5535557921 0.0584461919 -0.5541952861 0.0136147091 0.1832239277
695295830.0 -0.024267922 0.1876396868 0.052844036 -0.5543845758 0.0522738083 -0.554308645 0.0156408553 0.1829555099
700295800.0 -0.022465449 0.1877773802 0.0461869174 -0.5544364628 0.0462752516 -0.5547154641 0.0174103267 0.1833848576
705295770.0 -0.0206823494 0.1890801954 0.0401197539 -0.5551875348 0.0408251702 -0.5557274547 0.0195273585 0.183354384
710295740.0 -0.0186913029 0.1892904317 0.034662657 -0.5559343714 0.0346267463 -0.5565462429 0.021673974 0.1828755471
715295710.0 -0.0174121067 0.1893878172 0.0290752595 -0.5562600861 0.0284128582 -0.5561850783 0.0235025525 0.1831196678
720295680.0 -0.0150554297 0.189796611 0.0225208685 -0.5564535004 0.0228181674 -0.5566169768 0.025690105 0.1834076948
725295650.0 -0.0131121035 0.190149319 0.0164222935 -0.5565512758 0.0167342051 -0.5569108041 0.0272133321 0.1831902289
730295620.0 -0.011216052 0.1906208571 0.0103380905 -0.556227918 0.0106289795 -0.5567470975 0.02894145 0.1821202642
735295590.0 -0.0093129271 0.190795144 0.0044216821 -0.5570617729 0.0046802088 -0.5567816265 0.0307854938 0.182254594
740295560.0 -0.0078810419 0.190864239 -0.001459722 -0.556697347 -0.0014714924 -0.556772658 0.0334977911 0.1823977742
745295530.0 -0.0057215623 0.1911961643 -0.0074943266 -0.5561731924 -0.0076815664 -0.5567130255 0.0353858435 0.1818548503
750295500.0 -0.003909309 0.1913410801 -0.0132273808 -0.5561192644 -0.0133422135 -0.5566558864 0.0373387912 0.1815887327
755295470.0 -0.0020758962 0.1913585302 -0.01899866 -0.5560724726 -0.0196296147 -0.5561763424 0.0396685047 0.1809584016
760295440.0 -0.0003915659 0.1917256125 -0.025319898 -0.5565535211 -0.0254225096 -0.5564267968 0.041347013 0.1807933287
765295410.0 0.0014723881 0.1920704015 -0.0314446518 -0.5557696586 -0.0316463712 -0.5561176464 0.043529145 0.1807380632
770295380.0 0.0030151977 0.1916182451 -0.0375555759 -0.5550584481 -0.0374588741 -0.5548368017 0.0451995486 0.1800347088
775295350.0 0.0047496442 0.1915720139 -0.0436878004 -0.5542686877 -0.0428228964 -0.5545364403 0.0465940431 0.1798368729
780295320.0 0.0070439451 0.191886092 -0.0495563538 -0.5540104214 -0.0488930623 -0.5539558536 0.0489581067 0.1788820542
785295290.0 0.0083879932 0.1914331264 -0.0553072182 -0.5530431844 -0.0550650307 -0.5539518021 0.0516036613 0.1787232384
790295260.0 0.0110871851 0.1921152296 -0.0612943332 -0.5530595844 -0.0601084362 -0.5526874329 0.0534704307 0.1783501073
795295230.0 0.0125371448 0.1920095284 -0.0670665267 -0.5518878047 -0.0665270792 -0.5521583038 0.0555018403 0.1780885009
800295200.0 0.0144642245 0.1921348814 -0.0737899046 -0.5511953943 -0.0726566183 -0.5512828185 0.0574484167 0.1772286582
805295170.0 0.0163156627 0.1918541339 -0.0789103139 -0.5501470952 -0.0787710176 -0.5507790594 0.0592682106 0.1770125772
810295140.0 0.0178618537 0.1916437805 -0.0844160449 -0.5492644867 -0.0848205043 -0.5498772022 0.0617732397 0.1765821795
815295110.0 0.0199874776 0.1914899652 -0.0906466327 -0.5480818594 -0.09055744 -0.5485512105 0.0634272524 0.1759793235
820295080.0 0.0216484165 0.1920115012 -0.0967802394 -0.5474137779 -0.0963974861 -0.5476882989 0.0657452462 0.175462181
825295050.0 0.0240500053 0.1917643232 -0.1025956476 -0.5464124146 -0.1024906285 -0.5465819173 0.0676881173 0.1750575817
830295020.0 0.0256696633 0.1917928619 -0.108463929 -0.5453264828 -0.108216224 -0.5452090003 0.0701575927 0.174367072
