!Created with skrf (http://scikit-rf.org).
# Hz S RI R 50.0 
!freq ReS11 ImS11 ReS21 ImS21 ReS12 ImS12 ReS22 ImS22
300000.0 -0.2348282521 -0.1099958941 0.4660324878 0.0716913251 0.4703828921 0.0746758349 -0.237065344 -0.115480805
5299970.0 -0.2406393759 0.0069525609 0.4751849334 0.0056025158 0.4747532046 0.0057321076 -0.2445015436 0.0053360814
10299940.0 -0.2374176348 0.0201370776 0.4773589412 0.0062810186 0.477038466 0.006489312 -0.2417949091 0.0175339885
15299910.0 -0.2326525701 0.0297481822 0.4804321629 0.0076686667 0.4806921625 0.0078317216 -0.2373644027 0.026182206
20299880.0 -0.2274354384 0.0377886938 0.4853069553 0.0081435219 0.4853142371 0.0080476707 -0.2327570955 0.0339938937
25299850.0 -0.2215459302 0.0444767091 0.4903505238 0.0068870536 0.4902164335 0.0070305215 -0.227379079 0.0397959131
30299820.0 -0.2157446231 0.0494248186 0.4963414274 0.0052574205 0.4957192757 0.0048287687 -0.2222352198 0.0449453079
35299790.0 -0.2097932047 0.0539864578 0.5010349577 0.0013010506 0.5010151689 0.0014470782 -0.217175393 0.0488993865
40299760.0 -0.2047680405 0.0570023718 0.5063024296 -0.0017851134 0.5063560244 -0.0022426993 -0.2125601163 0.0520595054
45299730.0 -0.1995433195 0.0601276793 0.5114378718 -0.0072278672 0.5111009778 -0.0070604374 -0.2079114845 0.0544565818
50299700.0 -0.1947651068 0.0619130929 0.5145641137 -0.0126398342 0.5150491895 -0.0126901224 -0.2037034428 0.0565124431
55299670.0 -0.1905063035 0.0639676027 0.5181928882 -0.0186952076 0.518657717 -0.0184535875 -0.1998613827 0.0580269249
60299640.0 -0.1865295035 0.0650108939 0.521823942 -0.0249991198 0.5221870647 -0.0248071512 -0.1959221257 0.0596158488
65299610.0 -0.1830492854 0.0663476847 0.5249387045 -0.0310186209 0.5249934887 -0.030746379 -0.1930266065 0.0606618209
70299580.0 -0.1798262642 0.0668776225 0.5271840898 -0.0372700739 0.5273951153 -0.0380858673 -0.1898377 0.0617832189
75299550.0 -0.1764809626 0.0679598103 0.5292828636 -0.0444652767 0.5294311964 -0.044673067 -0.187227316 0.0625650541
80299520.0 -0.17418132 0.068967677 0.5315571329 -0.0512923952 0.5311662944 -0.0515705616 -0.1848019143 0.0628381142
85299490.0 -0.1716679952 0.0692614065 0.5327998488 -0.0584359517 0.5324403506 -0.0585149464 -0.1825570889 0.0637696579
90299460.0 -0.169234037 0.0702503416 0.5331706091 -0.0648568877 0.5337264423 -0.0649583221 -0.1801108043 0.0642566711
95299430.0 -0.1673891126 0.0709927083 0.5343891952 -0.0725626257 0.5346663474 -0.072300317 -0.1785004846 0.0652109658
100299400.0 -0.1652798641 0.0716861661 0.5349590335 -0.0793906437 0.5344498608 -0.0790446185 -0.1770370769 0.0656961842
105299370.0 -0.163340982 0.0722305861 0.5346547774 -0.0859566637 0.535160549 -0.0860195712 -0.1749817729 0.066216567
110299340.0 -0.1618807697 0.0728312537 0.5347220156 -0.0924301292 0.5352154866 -0.0930184791 -0.173681368 0.06683495
115299310.0 -0.1600988416 0.0735400145 0.5348367921 -0.0995018844 0.5352803808 -0.0994382363 -0.1721001751 0.0672947872
120299280.0 -0.1591088707 0.0745613464 0.5351341281 -0.1063759691 0.5348620607 -0.1063338021 -0.1713115093 0.0679911739
125299250.0 -0.1578329613 0.075371224 0.5344038942 -0.1130247696 0.5345991216 -0.1131018997 -0.170032947 0.0683765964
130299220.0 -0.1564983851 0.0760109676 0.533846523 -0.119599926 0.5335938694 -0.1197631983 -0.1688987999 0.0695362518
135299190.0 -0.1552480969 0.076634408 0.5330685695 -0.1260508575 0.5326480189 -0.126477837 -0.1679696814 0.0701684517
140299160.0 -0.1543737239 0.0781917297 0.5323343002 -0.1330766195 0.5324024064 -0.1329985833 -0.1667732113 0.0711307523
145299130.0 -0.1530863814 0.0790586417 0.5318360181 -0.1396624741 0.5313495412 -0.1392312883 -0.1662487605 0.0718010504
150299100.0 -0.1519465029 0.0797871955 0.5302416766 -0.1462300764 0.5305338493 -0.1461132488 -0.1654085594 0.0725030192
155299070.0 -0.1513752872 0.0813926751 0.5288762579 -0.1530587303 0.5289827207 -0.153230919 -0.1644878806 0.0734871543
160299040.0 -0.1501883814 0.0819930399 0.5274097479 -0.1587127527 0.527692606 -0.1591687183 -0.1635831942 0.0749055646
165299010.0 -0.1496102798 0.0829967438 0.5267822978 -0.1650834986 0.5266000191 -0.1657302789 -0.1630724015 0.0753030318
170298980.0 -0.1485332537 0.0843737051 0.5241120746 -0.1717057016 0.5245456619 -0.1722661895 -0.1617773807 0.0764755152
175298950.0 -0.1472995238 0.0855748593 0.5235744878 -0.1775847521 0.5235439111 -0.1779586392 -0.1610750988 0.0772556852
180298920.0 -0.146307926 0.0865287832 0.521449827 -0.1846719718 0.5216804772 -0.184150075 -0.1602326323 0.0788902166
185298890.0 -0.145260824 0.0878495091 0.5191668644 -0.1908885795 0.5194018384 -0.1905796851 -0.1599066292 0.079505752
190298860.0 -0.144219938 0.0890258581 0.5173754207 -0.1967949105 0.5180627563 -0.1970582876 -0.1585661455 0.0808432094
195298830.0 -0.1434084547 0.090155343 0.515456086 -0.2025805075 0.5158335768 -0.203002865 -0.1579580591 0.0815636671
200298800.0 -0.1425698787 0.0917685175 0.5137026674 -0.208435102 0.513372461 -0.2091965932 -0.1569295384 0.083324384
205298770.0 -0.141788662 0.093008565 0.5116350051 -0.2151195302 0.51158923 -0.2152776426 -0.1563909453 0.083965456
210298740.0 -0.1407988779 0.094239038 0.5093537899 -0.2213698591 0.5095363037 -0.2214724875 -0.1555218337 0.0853658125
215298710.0 -0.1398528565 0.0955839419 0.5069723722 -0.226962215 0.5071483163 -0.2270381157 -0.1552180758 0.0866694247
220298680.0 -0.1388796527 0.0970536774 0.5040878101 -0.2330373126 0.5047099861 -0.2328692239 -0.1542032709 0.0882042729
225298650.0 -0.1375656967 0.098226671 0.5017350838 -0.2385000657 0.5019712679 -0.2385466624 -0.1536296134 0.0893635377
230298620.0 -0.1369495005 0.0997640684 0.4995280752 -0.2439869737 0.4997065719 -0.2445875734 -0.1524958053 0.0904497081
235298590.0 -0.1358881246 0.100890806 0.4968328362 -0.2500789519 0.4971308669 -0.2503870149 -0.1516296302 0.0916506904
240298560.0 -0.1349934754 0.1023380983 0.4943135245 -0.2555767313 0.4944845524 -0.2555536528 -0.150773556 0.0930911242
245298530.0 -0.1335371628 0.1037777361 0.4905211208 -0.2615244094 0.4912511989 -0.2614219773 -0.1498754844 0.0945751561
250298500.0 -0.1328562505 0.1050541397 0.4886018993 -0.2668031442 0.4889726511 -0.2666136375 -0.1488957212 0.0955868248
255298470.0 -0.1317613656 0.1067200764 0.4852393171 -0.2731350486 0.4858521295 -0.2728161863 -0.1481260394 0.0966177995
260298440.0 -0.1307993655 0.1081033455 0.4826208856 -0.2779378938 0.4823691942 -0.2783956925 -0.1471853199 0.0982474605
265298410.0 -0.1294907557 0.1093835307 0.4796349455 -0.2838799311 0.4793964934 -0.2834445263 -0.1464154273 0.0991382566
270298380.0 -0.128382205 0.1110574828 0.4764365709 -0.2892363775 0.4766518132 -0.2893126835 -0.1455269145 0.1012014067
275298350.0 -0.1275359068 0.1122890155 0.4736000029 -0.2947868261 0.4738118699 -0.2949360801 -0.1442820544 0.1024375373
280298320.0 -0.1264446081 0.1141376477 0.4702045319 -0.2996024597 0.4699456183 -0.3003205727 -0.1433517933 0.1039422406
285298290.0 -0.1248424272 0.11551764 0.4669863653 -0.3052905311 0.4668343633 -0.3057046803 -0.1425340076 0.105040448
290298260.0 -0.1237611577 0.1168645705 0.4635518676 -0.3107935102 0.4634009501 -0.3106604507 -0.1412066155 0.106571585
295298230.0 -0.1225598897 0.1180536333 0.4606156424 -0.3159238572 0.4599868122 -0.3162850314 -0.1402763919 0.107959648
300298200.0 -0.1207913856 0.1194874953 0.4570447963 -0.3212822627 0.4571407072 -0.321446464 -0.1393592789 0.1093172067
305298170.0 -0.1196057115 0.1205354428 0.4533515404 -0.3266181592 0.4534177366 -0.3266758396 -0.1377979999 0.110847514
310298140.0 -0.1182533105 0.1216842712 0.450201716 -0.3319814663 0.4500070458 -0.3320008539 -0.1369469482 0.1122546492
315298110.0 -0.1173937167 0.1233772908 0.4459996794 -0.3370886187 0.4462610209 -0.3368643012 -0.1356912178 0.1132451394
320298080.0 -0.1157138559 0.1244131358 0.4422369738 -0.3422518179 0.4427549755 -0.3419064776 -0.1346300359 0.1143921478
325298050.0 -0.1147555212 0.1254663686 0.4389319192 -0.3471296917 0.4388799509 -0.3474367951 -0.1336468632 0.1157697209
330298020.0 -0.1135809674 0.1269825934 0.4342756897 -0.3520023864 0.4345201526 -0.3521388774 -0.1329993994 0.117046755
335297990.0 -0.1121524661 0.1279354621 0.4306305686 -0.3570802051 0.4303781699 -0.3572310631 -0.1320413066 0.1184891599
340297960.0 -0.1113243158 0.12968946 0.4262183474 -0.3618901692 0.4268810242 -0.3616927541 -0.1309233069 0.1199982659
345297930.0 -0.1101539368 0.1311279683 0.4224137791 -0.3661966445 0.4220688933 -0.3661741582 -0.1295920482 0.121386862
350297900.0 -0.1085004886 0.1325243927 0.4183578291 -0.3707638063 0.4182951809 -0.371096668 -0.1288239667 0.1228891282
355297870.0 -0.1071823411 0.1336957033 0.4141438533 -0.3759531893 0.4140190519 -0.3760487275 -0.1278370463 0.1245029137
360297840.0 -0.1056696551 0.1353095897 0.4102232912 -0.3803235635 0.4100636079 -0.3801087286 -0.1266108772 0.1258253836
365297810.0 -0.1041645991 0.1362252014 0.4055623111 -0.3846661948 0.4056628604 -0.3848405529 -0.1255521612 0.1276056622
370297780.0 -0.1027464475 0.1375311923 0.4015072994 -0.3889946766 0.4015991771 -0.3894065906 -0.1242831127 0.1284904303
375297750.0 -0.1012026984 0.1393607994 0.3974525311 -0.3934717313 0.3972434229 -0.3936789195 -0.1228614859 0.1302581704
380297720.0 -0.0996469926 0.1398733267 0.3928899868 -0.397740695 0.392780003 -0.3976682253 -0.1217239439 0.1316605065
385297690.0 -0.0980406807 0.1415210021 0.3883988615 -0.4016670852 0.3883230078 -0.4020063299 -0.1204168914 0.132893057
390297660.0 -0.0968030908 0.1427356953 0.3839340921 -0.4066299962 0.3839889033 -0.406908806 -0.1191086539 0.1340988827
395297630.0 -0.0948944005 0.1439810458 0.3796863233 -0.4101618496 0.3796275616 -0.4105130978 -0.1182133609 0.1358851359
400297600.0 -0.0935675851 0.145455914 0.3750955938 -0.414771702 0.375018614 -0.4146537879 -0.1169582283 0.136681075
405297570.0 -0.0915995589 0.1466050103 0.3706341113 -0.4186177076 0.3704116387 -0.4190832099 -0.1157894307 0.1387371414
410297540.0 -0.0897881502 0.1477085276 0.3654212568 -0.4228773129 0.3655901399 -0.422754249 -0.1141510663 0.1395341388
415297510.0 -0.0885045544 0.1491091797 0.361156128 -0.4264942597 0.3612923495 -0.426627904 -0.1133559581 0.141385463
420297480.0 -0.0867763416 0.1495790202 0.3562731331 -0.431016409 0.3564278666 -0.4307918856 -0.1118025982 0.1420776006
425297450.0 -0.0846134549 0.1507150966 0.3515630309 -0.4344461494 0.3517398107 -0.4350722041 -0.1102844608 0.1441364908
430297420.0 -0.0835188465 0.1521876684 0.3466935183 -0.4388281009 0.3471093596 -0.4387055699 -0.109423769 0.1446938186
435297390.0 -0.0817495359 0.1531665633 0.3420475398 -0.4418983228 0.3422561942 -0.4423546806 -0.1076054348 0.146360403
440297360.0 -0.0800270666 0.1541257878 0.3371202436 -0.4459543878 0.3367676669 -0.4460470799 -0.1063416736 0.1473955457
445297330.0 -0.0781202666 0.1547801215 0.3317193867 -0.4499120129 0.3320029278 -0.4498074671 -0.1049757194 0.1486692323
450297300.0 -0.0766329227 0.156110377 0.3273720345 -0.4532464568 0.3275632436 -0.4532457827 -0.1035394839 0.1495796109
455297270.0 -0.0750043369 0.1569525826 0.3224539596 -0.4566160585 0.3225626309 -0.4565535143 -0.1018793103 0.1512306204
460297240.0 -0.0731680726 0.1579731811 0.3172520425 -0.4598938624 0.3170356101 -0.4602041411 -0.1005587301 0.1524662181
465297210.0 -0.07108462 0.1587401165 0.3122448566 -0.4635647325 0.3126725644 -0.4636512694 -0.0995538793 0.1535071038
470297180.0 -0.0695146612 0.1596407894 0.3072502698 -0.466504877 0.3073485985 -0.4671126504 -0.0982135587 0.1547326163
475297150.0 -0.0679028322 0.1603018317 0.3019294476 -0.469713918 0.3020985416 -0.4700034785 -0.0968271711 0.1558876549
480297120.0 -0.0657077282 0.1613583307 0.2968331225 -0.4732863849 0.2974724922 -0.4733484539 -0.0954402068 0.1572487988
485297090.0 -0.0640729447 0.1622418697 0.2917687354 -0.4763760701 0.2919797387 -0.4764481164 -0.0938084774 0.1582756727
490297060.0 -0.0622905061 0.1627591549 0.2866206103 -0.4797894713 0.2865972522 -0.4796928126 -0.0920343801 0.158934967
495297030.0 -0.0604877413 0.1640519025 0.2809902023 -0.4826670465 0.2810993312 -0.482627773 -0.0907419051 0.159682239
500297000.0 -0.058731321 0.1646945384 0.275835316 -0.4859697701 0.2762650503 -0.4858465692 -0.0893831 0.1613395631
505296970.0 -0.057075222 0.1653868058 0.2704581666 -0.4882962169 0.2705266511 -0.488531715 -0.0880413214 0.1624911469
510296940.0 -0.0550100005 0.1664122337 0.2650778253 -0.4921178582 0.2653799129 -0.4916866169 -0.0860895031 0.1638932804
515296910.0 -0.053302213 0.1671686803 0.2595281717 -0.4942982968 0.2597550427 -0.4943839251 -0.0847564065 0.1644202914
520296880.0 -0.0510990648 0.1676956197 0.2544418649 -0.4973166743 0.2547190202 -0.496914713 -0.0830385486 0.1654335284
525296850.0 -0.0495565803 0.1681777058 0.2492754189 -0.4997197804 0.2495574746 -0.5002727176 -0.0812548182 0.166222196
530296820.0 -0.0475606364 0.1690134892 0.2435917185 -0.5019662694 0.2437199818 -0.502297044 -0.0802271171 0.1669289972
535296790.0 -0.0456420919 0.1692768097 0.23816038 -0.5046063736 0.2381056842 -0.5052333979 -0.078472089 0.168047724
540296760.0 -0.043734774 0.1699612816 0.2324453519 -0.5076506566 0.2325486882 -0.5075612354 -0.0772883094 0.1691457086
545296730.0 -0.0419348167 0.1709557054 0.227162822 -0.5097585239 0.2273491461 -0.510356118 -0.0754465753 0.1699694802
550296700.0 -0.0402134342 0.1715713303 0.221928639 -0.5124766365 0.2223365239 -0.5127671489 -0.0740327731 0.17114585
555296670.0 -0.0377599493 0.1720817555 0.2163809209 -0.5151206661 0.2162814225 -0.5146497065 -0.0723870896 0.1720582634
560296640.0 -0.0361215794 0.1723433621 0.2104982625 -0.5167280287 0.2108050485 -0.5166449663 -0.0705888723 0.1726805385
565296610.0 -0.0345994602 0.1729796927 0.2047895862 -0.5190167437 0.2047915042 -0.5194884492 -0.0691406533 0.1733946743
570296580.0 -0.0322347638 0.1735281711 0.1995537523 -0.5212816187 0.1995938304 -0.5213154985 -0.0672740357 0.1746078554
575296550.0 -0.0302853211 0.1742639051 0.1933404062 -0.5234006516 0.1938929639 -0.5233131106 -0.0653542215 0.1750120994
580296520.0 -0.0285276486 0.1745456757 0.1882184234 -0.5252832718 0.1878115377 -0.5258920751 -0.0639574094 0.175915628
585296490.0 -0.0264572714 0.1748836746 0.1823577054 -0.5276558579 0.1823701032 -0.5275029131 -0.0624163925 0.1765882097
590296460.0 -0.0248339317 0.1752559764 0.1766122101 -0.5290913554 0.1764219335 -0.5295634344 -0.0604673816 0.1774982642
595296430.0 -0.0226927197 0.1758581345 0.1711477284 -0.5311839948 0.1709398692 -0.5317309842 -0.0587197258 0.1782759994
600296400.0 -0.0207242773 0.1761566044 0.1649051196 -0.5331613328 0.1656022536 -0.5331127973 -0.0573738134 0.1791751601
605296370.0 -0.018733513 0.1767296277 0.1593734456 -0.5349544241 0.1597146425 -0.5346528985 -0.055652692 0.1796962961
610296340.0 -0.0168287654 0.177059116 0.1539046513 -0.5364855761 0.1536697878 -0.5366677555 -0.0536491592 0.1806725015
615296310.0 -0.0148915256 0.1776016588 0.147586091 -0.5380384569 0.1478839487 -0.5381460757 -0.0524257913 0.1811682439
620296280.0 -0.0127788805 0.1776548955 0.1421372394 -0.5396290709 0.1419959838 -0.5399797566 -0.0507067668 0.1816533975
625296250.0 -0.0108403425 0.1781662171 0.135711721 -0.5414223332 0.1359833576 -0.5415804451 -0.0486158519 0.1826970601
630296220.0 -0.0085539876 0.1783420867 0.129428162 -0.5427163746 0.1305457836 -0.5427431458 -0.0469085844 0.1832247967
635296190.0 -0.0069747501 0.1787376302 0.1241239653 -0.5433921156 0.124034909 -0.54340821 -0.0451116919 0.183385774
640296160.0 -0.0050304047 0.1785035089 0.1186056691 -0.5449583554 0.1186404742 -0.5453104009 -0.0433158151 0.1840725312
645296130.0 -0.0029996926 0.1791517161 0.1127599403 -0.5467487747 0.1125710999 -0.5463994371 -0.0422533349 0.1843790466
650296100.0 -0.0010907337 0.1796923438 0.1068976351 -0.5473676247 0.1069094936 -0.5472512343 -0.0403096467 0.1852792236
655296070.0 0.0008884036 0.1791140359 0.1006811271 -0.5483200901 0.1005934396 -0.5484749782 -0.0379652319 0.1856220665
660296040.0 0.0026925884 0.179749302 0.0947225603 -0.5492835491 0.0951508664 -0.5493215084 -0.0365362414 0.186142406
665296010.0 0.0050089125 0.1796007326 0.0891117802 -0.5502615341 0.0897160332 -0.5503404372 -0.0351859711 0.1869755112
670295980.0 0.0073189436 0.1797004398 0.0833535199 -0.5517036389 0.0834093404 -0.5513284479 -0.0334408901 0.1871631676
675295950.0 0.0092639708 0.179673009 0.0769982921 -0.5521745998 0.0773409873 -0.552532338 -0.0313201203 0.1877974192
680295920.0 0.0108925821 0.1802237595 0.0711793586 -0.5529981572 0.0708281853 -0.5532125195 -0.0293544469 0.1882886361
685295890.0 0.0129267864 0.1797824899 0.0654935912 -0.5537937783 0.0647886584 -0.5540160446 -0.0278401279 0.1889777005
690295860.0 0.0154671329 0.1801252575 0.0592951711 -0.5538697063 0.0590952177 -0.5540272732 -0.0260710703 0.1894083504
695295830.0 0.0173689248 0.1797508344 0.0528364175 -0.5548802897 0.0529751654 -0.5548923822 -0.0244556607 0.1895882522
700295800.0 0.0194986071 0.1799180023 0.0464423555 -0.5552934159 0.0470438737 -0.5556196749 -0.0224637055 0.1896189534
705295770.0 0.0213947808 0.1797947362 0.0411215124 -0.5557150306 0.0413457273 -0.5559013206 -0.0208783315 0.1904728502
710295740.0 0.0234169661 0.1797422013 0.0349265525 -0.556034237 0.0348647651 -0.5559898291 -0.0194308378 0.1907523184
715295710.0 0.0252556494 0.1797572052 0.0289115305 -0.556554568 0.0295463128 -0.5568308919 -0.0171719757 0.1908709395
720295680.0 0.0272442201 0.1793751799 0.0230056579 -0.5566091039 0.023125652 -0.5571908864 -0.0148059723 0.1912387959
725295650.0 0.029567755 0.1795985518 0.0168826803 -0.5569855477 0.0170679803 -0.5567001155 -0.0131630799 0.1914457847
730295620.0 0.031389443 0.179018336 0.0108534535 -0.5570587844 0.0110816393 -0.5570188295 -0.0114512491 0.1913542722
735295590.0 0.0336062662 0.1789788605 0.0050224738 -0.5573118254 0.0054349066 -0.5573528644 -0.0095889956 0.191871799
740295560.0 0.0353378166 0.1787224968 -0.0008566541 -0.5563434425 -0.0009126271 -0.5569274607 -0.0074034462 0.1919581817
745295530.0 0.0374855936 0.178360855 -0.0067458143 -0.5570903406 -0.0063505856 -0.5569738684 -0.0059043979 0.1924224166
750295500.0 0.039440421 0.177921642 -0.0125279435 -0.5565578771 -0.0129203375 -0.5568816498 -0.0039533993 0.1924639312
755295470.0 0.0418729482 0.1780593978 -0.0188864718 -0.5566682212 -0.0184686817 -0.5567845191 -0.0023913094 0.1926510732
760295440.0 0.0436816352 0.1777015062 -0.0252696276 -0.5561705329 -0.0244827353 -0.556452047 -0.000949919 0.192823983
765295410.0 0.0452869713 0.1772025365 -0.0305912385 -0.5562406496 -0.0303798638 -0.5561823589 0.0018289164 0.1931235155
770295380.0 0.0477013239 0.1772477583 -0.037009246 -0.5553706493 -0.0368522968 -0.5559073229 0.0038595077 0.1933606928
775295350.0 0.0494878005 0.1766771831 -0.0427110046 -0.5549817609 -0.0427593054 -0.5550553149 0.0048377237 0.1931089336
780295320.0 0.0516201153 0.1761634586 -0.0485001985 -0.5547764982 -0.0485396569 -0.5548084596 0.0071758444 0.1936298947
785295290.0 0.0533594616 0.1762166681 -0.0545525265 -0.5535116513 -0.0547928133 -0.5543451917 0.008470684 0.1935150786
790295260.0 0.0553866917 0.1755935535 -0.0605806412 -0.5539176218 -0.0605106103 -0.5538672198 0.0108676221 0.1934393114
795295230.0 0.0572879123 0.1750871652 -0.0660171174 -0.5525380104 -0.0665309025 -0.552576948 0.0127205978 0.1939215718
800295200.0 0.0596104164 0.1746674712 -0.0726301578 -0.552162144 -0.0729631543 -0.5522492221 0.0147041358 0.193515441
805295170.0 0.0609967019 0.1739916771 -0.0783507595 -0.5510419071 -0.0784541574 -0.5512215706 0.0159694525 0.1933818433
810295140.0 0.0633483132 0.173559962 -0.0841628522 -0.5501948944 -0.0841859906 -0.5506658181 0.0184212782 0.1939387087
815295110.0 0.0650355964 0.1728665054 -0.0905030842 -0.5489474609 -0.0902796005 -0.549205753 0.0200539251 0.1933140194
820295080.0 0.0670883538 0.1718756222 -0.0962482368 -0.5479435884 -0.0960820156 -0.5484585665 0.0216005896 0.1936284619
825295050.0 0.0691186584 0.1713774615 -0.1016490318 -0.5467862677 -0.1019566553 -0.5467586358 0.0239691348 0.1937271179
830295020.0 0.0709470502 0.1711217695 -0.1080611016 -0.5458467434 -0.1084239865 -0.5458693454 0.0257805395 0.1934918933
