!Created with skrf (http://scikit-rf.org).
# Hz S RI R 50.0 
!freq ReS11 ImS11 ReS21 ImS21 ReS12 ImS12 ReS22 ImS22
300000.0 -0.1016853816 -0.0705242546 0.6310286264 0.0649879703 0.6235407634 0.0660819167 -0.0997030753 -0.076976963
5299970.0 -0.1018155454 0.0132028429 0.6304942134 0.0102623512 0.6307264868 0.0102697824 -0.1006133411 0.0128603861
10299940.0 -0.0971045445 0.0293708458 0.6336686445 0.0155298495 0.6337723319 0.0157738061 -0.0957990878 0.0300991836
15299910.0 -0.0898559486 0.0423763841 0.640346888 0.0205337622 0.6405094984 0.020745581 -0.0884375652 0.0436304069
20299880.0 -0.0816318886 0.0531387026 0.6485774573 0.0240296863 0.648366307 0.0242188005 -0.0796078461 0.0543260239
25299850.0 -0.0722703427 0.0623337021 0.6575605028 0.0251142537 0.6577271939 0.0257737601 -0.069886277 0.0633857204
30299820.0 -0.0622131038 0.0686558516 0.6677473775 0.0244579272 0.6669273912 0.0245458317 -0.0597988913 0.0702865438
35299790.0 -0.0524327628 0.0736541874 0.677203283 0.021469628 0.6770351896 0.0216857882 -0.0497938848 0.0748716898
40299760.0 -0.0433500989 0.0774780592 0.6860371923 0.0173427941 0.6865380536 0.0177411795 -0.0402905269 0.0776680115
45299730.0 -0.0340581056 0.0793822923 0.6949141195 0.0121062497 0.6953351121 0.0120817293 -0.0312815746 0.0798996934
50299700.0 -0.0256370888 0.0801359766 0.7033639102 0.0047235311 0.7036985238 0.0055947913 -0.0229017405 0.0805070212
55299670.0 -0.0175537177 0.0804894875 0.7107922496 -0.0032663992 0.7104344577 -0.0025422655 -0.0149360878 0.0809806281
60299640.0 -0.0100139517 0.0798378481 0.7172954393 -0.0117617345 0.7175086533 -0.0110447904 -0.0078542793 0.0795958497
65299610.0 -0.0036237237 0.0787776047 0.7233219916 -0.0200259773 0.7233137186 -0.0199015759 -0.0011989044 0.0785339826
70299580.0 0.0024872949 0.0778326465 0.7288689584 -0.0291868431 0.7285655801 -0.0296291877 0.0048374955 0.0772086349
75299550.0 0.008297097 0.0757874765 0.7326678928 -0.0393128236 0.7327543157 -0.039103063 0.0099501838 0.0751087401
80299520.0 0.0129512528 0.0735235773 0.7369533813 -0.0491368676 0.7372453519 -0.0494491652 0.0147381262 0.0728421226
85299490.0 0.0177283745 0.0715608536 0.7400536875 -0.0585919999 0.7402326495 -0.0583197743 0.0192729595 0.070080241
90299460.0 0.0214710108 0.0689611589 0.7426029696 -0.0689503741 0.7430760311 -0.0690220256 0.0234216058 0.0681438911
95299430.0 0.025765309 0.0664973511 0.7458480118 -0.078807498 0.7455845712 -0.0789524533 0.0275779087 0.065596781
100299400.0 0.0288805588 0.0649243528 0.7467892291 -0.0888546943 0.7469336567 -0.0891622677 0.0310960166 0.0627147634
105299370.0 0.0324134431 0.0619967707 0.7485085657 -0.0998615532 0.7491974845 -0.0993882641 0.0341407633 0.0607093732
110299340.0 0.0349287189 0.0597679053 0.7498161058 -0.109009048 0.7499321136 -0.1088086385 0.035884076 0.0579345357
115299310.0 0.0374810302 0.0575250045 0.7507728288 -0.1188069333 0.7510862879 -0.1189129958 0.0387919025 0.0556759594
120299280.0 0.0397085148 0.0548044526 0.7508895292 -0.1289690789 0.7513345541 -0.1294998163 0.0412963048 0.0531591188
125299250.0 0.0420287795 0.0522572194 0.7515224509 -0.1390095283 0.7513975853 -0.1388133869 0.0428098297 0.0502445428
130299220.0 0.043543413 0.0505097015 0.7512197726 -0.1492756105 0.7513285375 -0.1492659628 0.0449345676 0.0480407119
135299190.0 0.0453659954 0.0482809575 0.7512645866 -0.1585472346 0.7508551519 -0.1586687213 0.0465123602 0.0459534017
140299160.0 0.0466783204 0.0464229199 0.7511385962 -0.169089223 0.7506171256 -0.1689228861 0.0479350773 0.044261808
145299130.0 0.0482839735 0.0438688287 0.7500324952 -0.1785291296 0.7496567556 -0.1783919004 0.049330518 0.0419861505
150299100.0 0.049886089 0.0421830997 0.748761322 -0.1871282004 0.7495429327 -0.1876973415 0.0509360642 0.0401377876
155299070.0 0.0502640418 0.040040209 0.748016391 -0.1983082157 0.7472495759 -0.1980221144 0.051813613 0.0382701544
160299040.0 0.0519854397 0.0380357854 0.7464932427 -0.207097321 0.7457129113 -0.2074583529 0.0522925887 0.0359822513
165299010.0 0.052599682 0.0364073893 0.7445396008 -0.2175635329 0.7446062841 -0.21685769 0.0538038303 0.0351002387
170298980.0 0.0535064201 0.0338071362 0.7426175434 -0.2265500025 0.7431645371 -0.226158607 0.0544134767 0.0329865183
175298950.0 0.05387998 0.0323279783 0.7417627514 -0.2354125904 0.7407113505 -0.2354436889 0.0549729917 0.0315203945
180298920.0 0.0544534949 0.0306094818 0.7387270914 -0.2449853282 0.7388586245 -0.2442626387 0.0554762955 0.0300653632
185298890.0 0.0557764318 0.0286735357 0.7365243858 -0.2537171092 0.7358102588 -0.2537699583 0.0559051002 0.0282508939
190298860.0 0.0554622095 0.0273087662 0.7344032328 -0.2631936804 0.7346990317 -0.2630054897 0.0564277182 0.0265625991
195298830.0 0.0561123784 0.0254351481 0.7318424103 -0.2719521197 0.7318915534 -0.2715692849 0.0570759397 0.0252307745
200298800.0 0.0564619761 0.0240769822 0.7290560511 -0.2807717548 0.7288205663 -0.2813375567 0.0569323773 0.0237441654
205298770.0 0.0566668044 0.0227399721 0.7258146491 -0.2899671145 0.7261255542 -0.2900418205 0.0575062308 0.0215890548
210298740.0 0.0572380534 0.0210234596 0.7231448358 -0.2982790601 0.7231342108 -0.2978404582 0.0578349103 0.0212285556
215298710.0 0.0569266008 0.0196824423 0.7199779069 -0.3072943796 0.7203343745 -0.3074059049 0.0578531487 0.0200374537
220298680.0 0.057457655 0.0175495264 0.7164766748 -0.3158869349 0.7168155802 -0.3158031696 0.0576175455 0.0181698962
225298650.0 0.0576248545 0.01681443 0.7137608607 -0.3245758067 0.7138722999 -0.3244457743 0.0574162988 0.0165588384
230298620.0 0.0579347558 0.0157850171 0.7105399878 -0.3328748346 0.711195466 -0.3327651966 0.0573863703 0.0150906473
235298590.0 0.0577610515 0.0147836257 0.7063532596 -0.3418461002 0.7068582269 -0.3408350304 0.0574630482 0.0139869195
240298560.0 0.0582069238 0.0134839404 0.7038994505 -0.3497187944 0.703212613 -0.3500124955 0.0575257722 0.0133615436
245298530.0 0.0580475762 0.012135346 0.6998970433 -0.3581740389 0.6999777045 -0.3583707707 0.0579274725 0.0109849353
250298500.0 0.0584778766 0.0112541177 0.6946992183 -0.3664128113 0.6950448649 -0.3657783268 0.0579952841 0.0104717076
255298470.0 0.0584564881 0.0094567978 0.6913544903 -0.3741504821 0.6917798745 -0.3740424304 0.0580378509 0.0090116659
260298440.0 0.0579983731 0.0081774404 0.6876860571 -0.382894772 0.6877217317 -0.3818989536 0.0582754254 0.0078248203
265298410.0 0.0588831523 0.0075104019 0.6835996169 -0.3908979089 0.6842142411 -0.3902512824 0.0582631452 0.0069447123
270298380.0 0.0585220862 0.0063392371 0.679640935 -0.3982000078 0.6797616131 -0.3986244091 0.0580381091 0.0059116213
275298350.0 0.0589874095 0.0051127926 0.6756183335 -0.4073083398 0.6752957651 -0.4063824893 0.0585742375 0.0042787854
280298320.0 0.0588470788 0.0042385648 0.6713229059 -0.4143715658 0.6709335271 -0.414015174 0.0586342041 0.0034097203
285298290.0 0.0589429431 0.0029796183 0.6667965246 -0.4222633429 0.6663309056 -0.4224945487 0.0585883853 0.0021733722
290298260.0 0.0592553468 0.0022946127 0.661551871 -0.4294404707 0.662020289 -0.4300581529 0.0586952193 0.0016828622
295298230.0 0.05913246 0.0011120967 0.6575744082 -0.4371750374 0.6573338545 -0.4372566427 0.0591978483 0.0005181489
300298200.0 0.0585406628 -0.0002746137 0.6527722071 -0.4453854993 0.6525712288 -0.4458598672 0.0587093148 -0.0009728947
305298170.0 0.0587307198 -0.0012343976 0.6472295338 -0.4533455914 0.6476918761 -0.4528332596 0.0592211738 -0.0022898539
310298140.0 0.0586990792 -0.0023677072 0.6432651604 -0.4607249476 0.6432395395 -0.4608656062 0.0593972985 -0.0032961275
315298110.0 0.0585441148 -0.0040874339 0.6376750374 -0.4685675384 0.6381696918 -0.4682612234 0.0588689653 -0.0042016588
320298080.0 0.0586146416 -0.0047484668 0.6325696002 -0.4764661402 0.6325137057 -0.4757848736 0.0586008672 -0.0053724165
325298050.0 0.0579050313 -0.0061737604 0.6273939844 -0.4835855399 0.626962236 -0.4830612841 0.0581072509 -0.0063804646
330298020.0 0.0574939437 -0.0073548523 0.6218433228 -0.4908009674 0.6217909043 -0.4906168971 0.0572965266 -0.0076138878
335297990.0 0.05724554 -0.0085680684 0.6157380886 -0.4977251745 0.6157276694 -0.4981135507 0.056933963 -0.0080163967
340297960.0 0.0562950696 -0.0091600932 0.6096276889 -0.5047426158 0.609703501 -0.5048549601 0.0569526403 -0.008703648
345297930.0 0.055909539 -0.0090729798 0.604315589 -0.5117310767 0.6042326513 -0.5121417128 0.0567201397 -0.0098994977
350297900.0 0.0551486509 -0.0110979822 0.5975537808 -0.5188129061 0.5979570861 -0.5185724636 0.0557016866 -0.0097338543
355297870.0 0.05494764 -0.0106629022 0.5919213521 -0.5249644763 0.5925138448 -0.5247030835 0.0551497092 -0.0105355656
360297840.0 0.0546298196 -0.0114044273 0.5876022345 -0.5315475926 0.5874238903 -0.5316088275 0.0552465954 -0.0110633135
365297810.0 0.0541055302 -0.0120385035 0.5807165017 -0.5385158806 0.5811957802 -0.5384071402 0.05498233 -0.0118272008
370297780.0 0.0544555649 -0.013040317 0.5748871204 -0.544414402 0.5751757831 -0.5438764193 0.0543005225 -0.012067141
375297750.0 0.0537834784 -0.0136518714 0.5687584447 -0.5511232493 0.569732645 -0.5511222658 0.0545612813 -0.0127861562
380297720.0 0.0537046898 -0.0142064918 0.5627913684 -0.5579402996 0.5629824012 -0.5566201958 0.0533010465 -0.0137569396
385297690.0 0.0530165504 -0.0149156772 0.5561204633 -0.5636196309 0.5561355667 -0.5630209269 0.0534664734 -0.0139588853
390297660.0 0.052804491 -0.0152675879 0.5501090849 -0.569983164 0.5499362189 -0.5695181817 0.0525246483 -0.0152556675
395297630.0 0.0523547337 -0.015871621 0.5445397551 -0.5761198451 0.5444474833 -0.5760871761 0.053138863 -0.0155679109
400297600.0 0.0517516312 -0.0166920346 0.536842278 -0.5824520724 0.5378399367 -0.5823660135 0.0520592306 -0.0157709692
405297570.0 0.0512547764 -0.0175491354 0.5310573943 -0.5879669516 0.5312884693 -0.587239195 0.0513791922 -0.0167279895
410297540.0 0.051417374 -0.0180273745 0.5246072419 -0.5943495158 0.5251480482 -0.5937486577 0.0511740751 -0.0171383514
415297510.0 0.0512961237 -0.0187000391 0.5173906616 -0.5997962575 0.5185823265 -0.5999504397 0.0509098847 -0.0177515363
420297480.0 0.0509523094 -0.0189325162 0.5108229567 -0.606149254 0.5113948558 -0.6064117628 0.0503539923 -0.019104603
425297450.0 0.0502252846 -0.0204314784 0.5049759039 -0.6117723844 0.5051201493 -0.6111195455 0.0494841425 -0.0189084295
430297420.0 0.0500544001 -0.0210816362 0.4981734187 -0.6163687715 0.4979405758 -0.6163959087 0.049771548 -0.0200025831
435297390.0 0.0496489806 -0.0212898514 0.4908912216 -0.6227413405 0.4911244528 -0.6222628074 0.0500993553 -0.0205626592
440297360.0 0.0492841125 -0.0213775346 0.4844112002 -0.6276862984 0.4842388768 -0.6281492753 0.048776721 -0.0216980531
445297330.0 0.0486074156 -0.0227911903 0.4778809094 -0.6327466174 0.4776405718 -0.6326343585 0.0489324092 -0.0223959201
450297300.0 0.0489585361 -0.0229816507 0.470777634 -0.6380004684 0.4702115149 -0.6386913436 0.0482500663 -0.0229917305
455297270.0 0.0483957353 -0.0237376565 0.4633157549 -0.6437056958 0.4636730382 -0.6436164298 0.0481820852 -0.0233794196
460297240.0 0.047868812 -0.0244878712 0.456491173 -0.6486628785 0.4566025819 -0.6490323624 0.0475599398 -0.0237439171
465297210.0 0.047814129 -0.0250165478 0.4493074057 -0.6540696171 0.4491012739 -0.6543386908 0.0473606225 -0.0246228442
470297180.0 0.0472419029 -0.0258392718 0.4414877543 -0.6589002645 0.442220563 -0.6591342195 0.0472939541 -0.0252698951
475297150.0 0.0468727543 -0.0265150351 0.4344472179 -0.6627755301 0.4349063611 -0.6630311049 0.0471038262 -0.0259094376
480297120.0 0.0461259663 -0.0261592519 0.4268882058 -0.6689488063 0.427517524 -0.6689800304 0.0470496252 -0.0262949874
485297090.0 0.0456262736 -0.0269533126 0.4203063067 -0.6722935375 0.4201935175 -0.6728758299 0.0467925745 -0.0272186259
490297060.0 0.044940625 -0.0277614778 0.4127445529 -0.6780679767 0.4131289487 -0.6771241231 0.0463595587 -0.0265556466
495297030.0 0.0448831649 -0.0281619634 0.404933794 -0.6819516529 0.4053408345 -0.6818469286 0.0451988819 -0.0278095138
500297000.0 0.0440816317 -0.0287859119 0.3976906033 -0.6865684437 0.396915945 -0.6858223868 0.0450972259 -0.0274129193
505296970.0 0.043875809 -0.0293859025 0.3903303894 -0.6904066646 0.3898261125 -0.6905775342 0.0444651582 -0.0281645949
510296940.0 0.0431946872 -0.0296341885 0.3823504496 -0.6954430267 0.382121304 -0.6953201356 0.044688311 -0.0283078803
515296910.0 0.0425600482 -0.0297215617 0.3745022066 -0.6992573565 0.374484491 -0.6991573229 0.0440195928 -0.029081373
520296880.0 0.0421932909 -0.0304461928 0.3669976445 -0.7038565184 0.3673116132 -0.7030743766 0.0434654926 -0.0292948412
525296850.0 0.0420476018 -0.0315954533 0.3592264489 -0.7074664935 0.3597110741 -0.7074633612 0.0427900613 -0.0299978162
530296820.0 0.0414056238 -0.0311608784 0.3512502041 -0.7119484355 0.3517721966 -0.7109880165 0.0425567997 -0.0299983685
535296790.0 0.0406369383 -0.0316223627 0.3441021869 -0.7145895143 0.3440844566 -0.7146248516 0.041996334 -0.0312912154
540296760.0 0.0400399504 -0.0318351535 0.3359907426 -0.7190556942 0.3357612032 -0.7191401749 0.040963406 -0.030372121
545296730.0 0.0396241253 -0.0322734138 0.3275359586 -0.7223644849 0.3281196639 -0.7226929913 0.0404938912 -0.0311553713
550296700.0 0.0397632242 -0.0324308359 0.3196857279 -0.7256738676 0.3202652963 -0.7261814699 0.0398453678 -0.0311355527
555296670.0 0.0386605135 -0.033085082 0.3123605555 -0.7292959234 0.3124574903 -0.7296551217 0.0395157127 -0.0317676593
560296640.0 0.0386501259 -0.0329774879 0.3039523437 -0.7326146034 0.3042842551 -0.7332905908 0.0390743622 -0.0326039929
565296610.0 0.0375819456 -0.0336702325 0.2957849032 -0.7363590393 0.2962926947 -0.7361995911 0.0382391766 -0.0328149505
570296580.0 0.0371934323 -0.0340252839 0.2884207427 -0.7400425494 0.2875130104 -0.7390180357 0.0376358689 -0.0326298868
575296550.0 0.0363723249 -0.0342515773 0.2798468443 -0.7428512303 0.2801348956 -0.7428707463 0.0376346525 -0.0334504492
580296520.0 0.0362511988 -0.0343386823 0.2714788925 -0.7461055442 0.2721117418 -0.745396423 0.0365441529 -0.0341369017
585296490.0 0.035490791 -0.0357310054 0.2638549466 -0.7485562359 0.2637166632 -0.7484847365 0.0363790015 -0.0341044854
590296460.0 0.0355718695 -0.0356558898 0.2557051836 -0.7506868721 0.2556141414 -0.7514619441 0.0349329302 -0.0344419525
595296430.0 0.0348676646 -0.0354097117 0.2467095853 -0.7547216027 0.2466846476 -0.7539132246 0.0349826515 -0.0349070419
600296400.0 0.033878839 -0.0360744537 0.2387356964 -0.7569112859 0.2387050607 -0.7565818865 0.0340774286 -0.0354408969
605296370.0 0.0336031712 -0.0365028532 0.2301780857 -0.7591590957 0.2307543727 -0.7592967817 0.0337211036 -0.0357154797
610296340.0 0.0331006719 -0.0367405731 0.2220632945 -0.7613656209 0.2225643422 -0.7618120463 0.0336589665 -0.0365476196
615296310.0 0.0330178072 -0.0378020182 0.213708003 -0.7642065136 0.2138811998 -0.7647042513 0.0331624628 -0.0364285558
620296280.0 0.0326218461 -0.0381370122 0.2057177914 -0.7659556759 0.2053441499 -0.7660488266 0.0319928953 -0.0368120957
625296250.0 0.0311975372 -0.038730067 0.1979586729 -0.7694230518 0.1976360749 -0.7688418656 0.0325611481 -0.0372031863
630296220.0 0.0319601524 -0.0384373521 0.1884497521 -0.7706132414 0.1881127608 -0.7706108828 0.0317330425 -0.0372034639
635296190.0 0.0299237688 -0.039145587 0.1806164393 -0.7724297155 0.180125112 -0.7725715972 0.0311836885 -0.0375684755
640296160.0 0.0295402216 -0.038850365 0.1718460327 -0.7739434576 0.1719684932 -0.7746855525 0.0303053052 -0.0379273161
645296130.0 0.0291788851 -0.0392165044 0.1627021025 -0.7761601866 0.1641467168 -0.77632563 0.0301272062 -0.0380607256
650296100.0 0.0286014475 -0.0394409093 0.1543315516 -0.7783043099 0.1554451371 -0.7785287432 0.0301257874 -0.0392888105
655296070.0 0.027488487 -0.0401111515 0.1461487548 -0.7798965883 0.1467679568 -0.7800527668 0.0294494313 -0.038695842
660296040.0 0.0266251791 -0.0406522499 0.1376969803 -0.781841364 0.1378215855 -0.7813634124 0.0290552699 -0.0391445965
665296010.0 0.0271215778 -0.040227297 0.1290913916 -0.7827655593 0.1293900065 -0.782558132 0.0283886312 -0.038516724
670295980.0 0.0250731512 -0.0404341706 0.1210101607 -0.7839939135 0.1209838011 -0.7842831901 0.0273359945 -0.0391752701
675295950.0 0.0250529762 -0.0405270384 0.112581913 -0.7856535409 0.1129050606 -0.7839362126 0.0262376797 -0.0392176303
680295920.0 0.023867446 -0.0411082671 0.103520636 -0.7864075911 0.1031443714 -0.7864933053 0.0265365422 -0.0389356155
685295890.0 0.0238832578 -0.0405781422 0.0949473688 -0.7874099819 0.0944998898 -0.7875435504 0.0255658981 -0.0393580306
690295860.0 0.0236328878 -0.0409502393 0.0867688187 -0.787721931 0.0861620247 -0.7891891434 0.0252110478 -0.0387147533
695295830.0 0.0227659276 -0.0411216706 0.0785716833 -0.7893472587 0.0773891471 -0.7893016978 0.024252914 -0.0391718113
700295800.0 0.0223288771 -0.0415989937 0.0696828723 -0.7893736775 0.0692337737 -0.7900643995 0.0237998944 -0.038442488
705295770.0 0.021450842 -0.0405416471 0.0606766986 -0.7905280148 0.0608579544 -0.7908728778 0.0229944423 -0.0390389475
710295740.0 0.0212805191 -0.0411595799 0.052160977 -0.7925155295 0.0530332052 -0.7920284919 0.0225675063 -0.0399753195
715295710.0 0.0200079954 -0.0418953173 0.0443198464 -0.7918970916 0.0436638408 -0.7921503038 0.0222316819 -0.039945396
720295680.0 0.0198696647 -0.0417013235 0.0349375147 -0.7926450734 0.0352205834 -0.7923348479 0.0211237343 -0.0386850398
725295650.0 0.0192596658 -0.0415075373 0.0263750926 -0.7928241694 0.0267819651 -0.7930839512 0.0200319353 -0.0391156285
730295620.0 0.0188514107 -0.0413285948 0.0177034863 -0.7923339557 0.0176002406 -0.7929534893 0.0194237999 -0.0398976927
735295590.0 0.0178751763 -0.0414411747 0.0090945517 -0.7936482284 0.0088759291 -0.7932143161 0.0188523104 -0.0400262127
740295560.0 0.0170713915 -0.0415567914 0.0004653174 -0.7926762084 0.0005883335 -0.7929795676 0.0187717959 -0.039597429
745295530.0 0.0167834701 -0.0413107909 -0.0082464761 -0.7921228433 -0.0085093289 -0.7935366607 0.0180429687 -0.0400193791
750295500.0 0.0164741088 -0.0417258488 -0.0163976516 -0.7926475857 -0.0166815721 -0.7928056492 0.0175180767 -0.0400828546
755295470.0 0.015738536 -0.042143095 -0.0250823526 -0.7927034215 -0.025255422 -0.7929372166 0.0175837842 -0.0406076046
760295440.0 0.0150814874 -0.0417428036 -0.0338784501 -0.7923500836 -0.0342965687 -0.7927018358 0.0163204883 -0.0405601098
765295410.0 0.0143337684 -0.0418223987 -0.0421532952 -0.7919211193 -0.0429605147 -0.7922796189 0.0159150511 -0.0403999378
770295380.0 0.0135344553 -0.0422591082 -0.0518349029 -0.7916608934 -0.051623526 -0.7909075183 0.0148685733 -0.0408481531
775295350.0 0.0128386054 -0.042825492 -0.0605852961 -0.7901959593 -0.0593676261 -0.790729713 0.0137795565 -0.0404057374
780295320.0 0.0124435886 -0.0422853193 -0.0685271892 -0.7898689659 -0.0680229948 -0.7903514929 0.0136348583 -0.0412785875
785295290.0 0.0114871316 -0.0430355484 -0.0773257994 -0.7889929906 -0.076969708 -0.7891720548 0.0138255286 -0.0406955803
790295260.0 0.0114953562 -0.0416284087 -0.0848420468 -0.788183212 -0.0845146681 -0.7882083106 0.0126764324 -0.0408003063
795295230.0 0.0107891205 -0.0425311185 -0.0941631351 -0.7867779869 -0.0932392084 -0.7872280439 0.0122151633 -0.0407878621
800295200.0 0.0095290641 -0.0417762779 -0.1039395191 -0.78560343 -0.1021055804 -0.7863257541 0.0118478687 -0.0410066368
805295170.0 0.0090381773 -0.0425677137 -0.1113621483 -0.7851434907 -0.1114025375 -0.7853923004 0.0110005759 -0.040753294
810295140.0 0.0081107407 -0.0427961945 -0.1195366618 -0.7833653641 -0.1196455596 -0.7841333896 0.0110850132 -0.0406777496
815295110.0 0.0078261941 -0.0429254588 -0.1282119728 -0.782122336 -0.1279722104 -0.7823096163 0.0100150503 -0.0404340787
820295080.0 0.0067324849 -0.041767271 -0.1366352847 -0.7799004805 -0.1363830749 -0.7806597024 0.0097249434 -0.0406107359
825295050.0 0.0068723958 -0.0420558237 -0.1444750536 -0.7785449296 -0.1446424394 -0.7792719469 0.0094766167 -0.0405342655
830295020.0 0.005854164 -0.0418178219 -0.1540240366 -0.7771190206 -0.1536781702 -0.7769122358 0.0092676714 -0.0398168224
