!Created with skrf (http://scikit-rf.org).
# Hz S RI R 50.0 
!freq ReS11 ImS11 ReS21 ImS21 ReS12 ImS12 ReS22 ImS22
300000.0 -0.1011305402 -0.0668585807 0.6314038016 0.0640577043 0.6234019959 0.0640947979 -0.0987849483 -0.074754021
5299970.0 -0.1021398108 0.0132382476 0.6303337472 0.0094028926 0.6307843016 0.0100694306 -0.1006968512 0.013090737
10299940.0 -0.0972058382 0.0293248363 0.6336758122 0.0149342643 0.6341435183 0.0152628932 -0.0957649261 0.0304586414
15299910.0 -0.0898256376 0.0424492058 0.6407371682 0.0206076194 0.6407383234 0.0199267901 -0.0882879707 0.0435612134
20299880.0 -0.0817593538 0.0529995848 0.6482311045 0.0242601733 0.6483686648 0.0238559063 -0.0795936205 0.0545310452
25299850.0 -0.0724209879 0.0623119772 0.6576915224 0.0248766823 0.6577675465 0.0252355055 -0.0697573612 0.0634877378
30299820.0 -0.0621625964 0.068613177 0.6675086828 0.0241979515 0.6671633709 0.0244931808 -0.0596207347 0.069952606
35299790.0 -0.0524855712 0.0736851774 0.6770459448 0.0207443752 0.6772085203 0.0211815119 -0.0495353595 0.074868523
40299760.0 -0.0433205499 0.0774634801 0.6864030312 0.0171407478 0.6865375952 0.0173715524 -0.0402405196 0.0775234277
45299730.0 -0.033786198 0.0792997664 0.6949675934 0.011390322 0.6954744324 0.0115061763 -0.0310153692 0.0797524327
50299700.0 -0.0254828229 0.0801157412 0.7037851536 0.0044226305 0.7034973232 0.0054051593 -0.0227048787 0.0803801136
55299670.0 -0.0176163799 0.0806160061 0.7107747002 -0.003387245 0.710923466 -0.0026365239 -0.0149544887 0.0806303715
60299640.0 -0.0099208346 0.0801598167 0.717400314 -0.0114778398 0.71798991 -0.011486035 -0.0078681173 0.0797637114
65299610.0 -0.0038542705 0.0785260111 0.7229732242 -0.0199653639 0.7235250956 -0.0198735383 -0.0010739636 0.0787480408
70299580.0 0.0025943145 0.0776067831 0.728531686 -0.0295773228 0.7283853382 -0.0292746014 0.0047496214 0.0766945707
75299550.0 0.0081094346 0.0759248249 0.7325052544 -0.0392981217 0.7325941678 -0.0391476248 0.0099752424 0.0750820263
80299520.0 0.0128856444 0.0736003793 0.7367338341 -0.0491925176 0.7373559955 -0.0491822942 0.0149578183 0.0727194779
85299490.0 0.0176269496 0.0712706168 0.7403184067 -0.0582938708 0.7403043237 -0.0584994246 0.019231038 0.0697961435
90299460.0 0.0217335373 0.0689465768 0.7426809501 -0.069145193 0.7431301438 -0.0690102946 0.023513119 0.0679820093
95299430.0 0.0257022684 0.0665753113 0.7453516469 -0.0791835652 0.7458274072 -0.079317603 0.0275193552 0.0655598908
100299400.0 0.0289520931 0.0646586339 0.7466990653 -0.0888554849 0.7469263119 -0.0892136955 0.0312151474 0.062550303
105299370.0 0.0321933751 0.062085548 0.7485642567 -0.0998321723 0.7491414995 -0.0997911093 0.0340406291 0.0606143413
110299340.0 0.0348701379 0.0596731795 0.7499347931 -0.109053137 0.749500684 -0.1095217017 0.0360892918 0.05773231
115299310.0 0.0373183565 0.0575182579 0.7507093319 -0.1193916922 0.7506041435 -0.1196431661 0.0388407021 0.0553748396
120299280.0 0.0398689798 0.0546220959 0.7509445621 -0.129335239 0.7514664596 -0.1296935684 0.0413347493 0.0528856428
125299250.0 0.0419770361 0.0521963457 0.7516764737 -0.1389399396 0.7514736075 -0.1391586795 0.0426788059 0.0501217004
130299220.0 0.0434689812 0.0503062355 0.7510930708 -0.1493932038 0.7513351071 -0.1495739469 0.0448893555 0.0481278732
135299190.0 0.0452745679 0.0483576247 0.7512702276 -0.1592807538 0.7508752218 -0.1588340226 0.0466357604 0.0460843739
140299160.0 0.0466312395 0.0462563259 0.7506190225 -0.1691395317 0.750811655 -0.1690787933 0.0481429636 0.0445435195
145299130.0 0.0480139084 0.0436340421 0.7500345451 -0.1787983566 0.749439615 -0.1785211189 0.0495459555 0.0419993864
150299100.0 0.0498302883 0.0421101619 0.7483790496 -0.1873858013 0.7488163081 -0.1879593957 0.0507045091 0.0401771028
155299070.0 0.0502707939 0.0395253917 0.7478179187 -0.1985390159 0.7474129654 -0.1980416568 0.0518315652 0.0380391391
160299040.0 0.0517511066 0.0380398597 0.7463184439 -0.2076247381 0.7459158642 -0.207633853 0.0522902309 0.0361766155
165299010.0 0.0523204853 0.0361900866 0.7443787049 -0.2174754467 0.7446970962 -0.217241626 0.0536727131 0.0348659667
170298980.0 0.053226287 0.0338356513 0.7426923746 -0.2263116071 0.7433966314 -0.2262884522 0.054116328 0.0330128184
175298950.0 0.0537587525 0.0322295822 0.7412574701 -0.2356455836 0.7405901299 -0.2355246303 0.0548283327 0.0313045
180298920.0 0.0541908532 0.0306303005 0.7388602326 -0.2448362105 0.7388424255 -0.244568928 0.0555582887 0.029630186
185298890.0 0.0555300538 0.0286635533 0.7368522967 -0.2541857997 0.7365690328 -0.2539588675 0.0559118062 0.0283083073
190298860.0 0.055624794 0.0272749153 0.7344306763 -0.2634225655 0.7347126295 -0.263026948 0.0564233419 0.0261466126
195298830.0 0.0559508364 0.0252048298 0.7311103421 -0.2721250336 0.7319442872 -0.2717809607 0.0571518678 0.0252624453
200298800.0 0.0564545881 0.0240914571 0.7282668914 -0.281570377 0.7288342426 -0.281662583 0.0569054134 0.023676429
205298770.0 0.0568091308 0.0227793114 0.7254611155 -0.2903006947 0.7263308404 -0.289801035 0.0572473379 0.021695631
210298740.0 0.0570424232 0.0209523567 0.7231903587 -0.2987609262 0.723170574 -0.2978556715 0.057561513 0.0213437546
215298710.0 0.056784698 0.0194597197 0.7200958948 -0.3080157304 0.7202462386 -0.3072790097 0.0575758956 0.0196044154
220298680.0 0.0576531154 0.0175453842 0.7166792946 -0.3158937379 0.7167356254 -0.3158397837 0.0576469787 0.0178058437
225298650.0 0.0578710124 0.0166382235 0.713134431 -0.3252607782 0.7139313687 -0.324784255 0.0571773884 0.0164627039
230298620.0 0.0578111008 0.0158145789 0.7107486468 -0.3325434316 0.7108501738 -0.3334145592 0.0574336345 0.0151563784
235298590.0 0.057921294 0.0146031464 0.7069008593 -0.3412286874 0.7069982171 -0.341368288 0.0574246713 0.013969171
240298560.0 0.057930248 0.0133427842 0.7034856025 -0.3501871728 0.7029256453 -0.3501651534 0.0574938554 0.0130925731
245298530.0 0.0579836751 0.0120569527 0.6996011602 -0.3583292554 0.6994675994 -0.3586201725 0.0584455387 0.0110390891
250298500.0 0.0584160141 0.0109164296 0.6949288989 -0.3667832169 0.694481009 -0.3663985742 0.0576926654 0.0104595101
255298470.0 0.0582846603 0.0093668192 0.6907929219 -0.3742732082 0.6916627097 -0.3744632431 0.058007186 0.0089851842
260298440.0 0.0579756194 0.008273753 0.6874054624 -0.3835934608 0.6877392544 -0.3827173741 0.0584416866 0.0079924092
265298410.0 0.0590135947 0.007603801 0.6833462233 -0.3907338561 0.6839090192 -0.3909345518 0.0579708032 0.0066053583
270298380.0 0.0585628845 0.0061475135 0.6795800282 -0.3987311351 0.6793417013 -0.3985406632 0.0578643126 0.0058222188
275298350.0 0.0590957354 0.0050928298 0.6750838957 -0.407245746 0.6751116107 -0.4067423932 0.0584256573 0.0042969159
280298320.0 0.0588093625 0.0041708255 0.6708392503 -0.4145208699 0.6705639768 -0.4144281485 0.0586653283 0.003512475
285298290.0 0.0586302815 0.0029989713 0.6664040059 -0.4225332348 0.6659810703 -0.4226420438 0.0582937193 0.0021724405
290298260.0 0.0589151476 0.0022376836 0.6620333782 -0.4298029405 0.6616743737 -0.4304148855 0.0582948323 0.0016360876
295298230.0 0.0589299754 0.001012747 0.6574475505 -0.4380209376 0.6569557991 -0.4373085542 0.0593187715 8.91376e-05
300298200.0 0.0584981336 -0.0004615831 0.6529293184 -0.4449300506 0.6526009685 -0.4455798269 0.058529888 -0.0007991796
305298170.0 0.0587874205 -0.0015819971 0.6474975472 -0.4535392264 0.6476033953 -0.4532328229 0.0592456088 -0.002081581
310298140.0 0.058255527 -0.0023660386 0.6424767528 -0.4609965112 0.6434918708 -0.4606054325 0.0593376409 -0.0031953861
315298110.0 0.0582336718 -0.0043633356 0.6378829227 -0.4688855102 0.6383736603 -0.4690732248 0.0587514661 -0.004219165
320298080.0 0.0584514528 -0.0048650458 0.6318596712 -0.476209413 0.6327520187 -0.4766988182 0.0584044977 -0.0053824791
325298050.0 0.0579223453 -0.0064627638 0.6268366534 -0.4841844033 0.6269009496 -0.4831501883 0.0578486244 -0.0063842069
330298020.0 0.0573392281 -0.0073739318 0.6212449679 -0.4909931152 0.6211915529 -0.4910301093 0.0573145695 -0.0077880999
335297990.0 0.0570717485 -0.0086052023 0.6156171781 -0.4982255538 0.615481041 -0.4986846605 0.0569146895 -0.0079734839
340297960.0 0.0561157088 -0.0091339641 0.6095081086 -0.5052431436 0.6096102117 -0.505319263 0.0569641628 -0.0085939353
345297930.0 0.0556125195 -0.0093748365 0.6042089666 -0.5119750469 0.6039570706 -0.5124219688 0.056351154 -0.0098296263
350297900.0 0.0549644794 -0.0109967154 0.5976690021 -0.5188270111 0.5975816431 -0.5190559072 0.0556484589 -0.0099887445
355297870.0 0.0549365713 -0.0105641065 0.5924532164 -0.5252394313 0.5921227084 -0.5255567971 0.0550493803 -0.0109146705
360297840.0 0.0546297361 -0.0117621347 0.5869203137 -0.5317888459 0.5868578964 -0.531677257 0.0548156008 -0.0110689589
365297810.0 0.0538837195 -0.0121010081 0.5804015631 -0.538834103 0.5810978383 -0.5385034612 0.0546211338 -0.0116991753
370297780.0 0.0542791549 -0.0132388258 0.5744909878 -0.5453190864 0.5751592307 -0.544409362 0.054054988 -0.0125458315
375297750.0 0.0539837154 -0.0139396101 0.5685382843 -0.5515628896 0.5687748666 -0.5513767118 0.0545635585 -0.0129696349
380297720.0 0.0533157574 -0.0144794817 0.5629808169 -0.5579338279 0.5629607933 -0.5571310411 0.0535218523 -0.0139389667
385297690.0 0.052746739 -0.0153685055 0.5561214258 -0.5636728479 0.5560564737 -0.5634764522 0.0533211294 -0.0141193255
390297660.0 0.0527393935 -0.0154966152 0.5501270774 -0.5703792496 0.5500041005 -0.5701872635 0.0529491636 -0.015004842
395297630.0 0.0521710595 -0.0161769975 0.5438977298 -0.5765104307 0.5439496822 -0.576377608 0.053198446 -0.0157248296
400297600.0 0.0516413881 -0.0167512967 0.5368957305 -0.5822955789 0.5377504493 -0.5822589113 0.0522781982 -0.0162640092
405297570.0 0.0510516316 -0.0173711117 0.5307014278 -0.5876594147 0.5308924655 -0.5882167978 0.0515589264 -0.0168426985
410297540.0 0.0512699638 -0.018195431 0.5243840233 -0.5942914821 0.5246420728 -0.5942579808 0.0511518774 -0.0171581983
415297510.0 0.0512622361 -0.0186007959 0.5175393919 -0.6000684973 0.518204937 -0.599849067 0.0508078552 -0.0178876638
420297480.0 0.0508108531 -0.019178956 0.5110853874 -0.6062018155 0.5114582884 -0.6060711859 0.0502757733 -0.019182055
425297450.0 0.0500588557 -0.0205762392 0.5045054192 -0.6113583066 0.5047574677 -0.6114398967 0.0492445342 -0.0187810889
430297420.0 0.0499140139 -0.0208862438 0.4976641695 -0.6162215781 0.4978320492 -0.6169285773 0.0493092988 -0.0197804877
435297390.0 0.0493375464 -0.0214574481 0.4905542008 -0.6221162229 0.4906997294 -0.6227394599 0.0498744923 -0.0204517811
440297360.0 0.0492352311 -0.0216798548 0.4839892706 -0.6275729404 0.4838623832 -0.6279138775 0.0486929064 -0.0215143958
445297330.0 0.0486822451 -0.0228637585 0.4773524685 -0.6332505486 0.477123014 -0.6328672912 0.0488718731 -0.0221214083
450297300.0 0.0485821198 -0.0232662827 0.4702227899 -0.6388384366 0.4704242214 -0.6388172688 0.0482323642 -0.0229639909
455297270.0 0.0483233141 -0.0235500512 0.46281847 -0.6433995829 0.4635268857 -0.6439900894 0.0481102408 -0.0232216455
460297240.0 0.0476328587 -0.0245121245 0.455976289 -0.6492279083 0.4558483587 -0.6491608023 0.0475261151 -0.0236667072
465297210.0 0.0477392445 -0.0249113352 0.4494901626 -0.6539922252 0.4490313455 -0.6541976251 0.0472755392 -0.024627449
470297180.0 0.047015266 -0.0257762627 0.4418576331 -0.6585347158 0.4417767054 -0.6590285671 0.0469492458 -0.0249205534
475297150.0 0.0466508257 -0.0265491772 0.4340917185 -0.6630971948 0.4345217991 -0.6631383949 0.0471296094 -0.0258535488
480297120.0 0.0460051912 -0.026067141 0.4268072442 -0.6685039638 0.4270509607 -0.6691216472 0.0469583136 -0.0259433558
485297090.0 0.0452869719 -0.0271432578 0.4201324301 -0.672740739 0.4198556526 -0.6728224526 0.0461079664 -0.0269681068
490297060.0 0.0446369641 -0.0277626591 0.4126548968 -0.6786308915 0.412570056 -0.6777679943 0.0459622829 -0.0266633173
495297030.0 0.0445625184 -0.0283531991 0.4043997281 -0.6822705809 0.4056132791 -0.681959768 0.0450582575 -0.0274976256
500297000.0 0.0441162635 -0.0290029718 0.3971264401 -0.6865782209 0.3967927842 -0.6860178007 0.0448756692 -0.0276529514
505296970.0 0.0435171296 -0.0295072276 0.3899524504 -0.6913166257 0.3895092707 -0.6909923238 0.0443548969 -0.0280643706
510296940.0 0.0431140021 -0.0297236062 0.3819606998 -0.6952544469 0.3820546001 -0.6953347495 0.0443329417 -0.0284551944
515296910.0 0.0426476949 -0.0297653733 0.3742940359 -0.6997507564 0.3746824324 -0.6989367914 0.0438037937 -0.0287095823
520296880.0 0.0419917456 -0.0307359818 0.3668450564 -0.7037553965 0.3666995018 -0.7035162196 0.0430787933 -0.0296797543
525296850.0 0.0415882709 -0.0315663403 0.3589512121 -0.7077183426 0.3591921334 -0.7075676388 0.0425465647 -0.0298811521
530296820.0 0.0414122136 -0.0315213062 0.35136878 -0.712006784 0.3512006716 -0.7119078944 0.042576336 -0.0303631716
535296790.0 0.0402030934 -0.0319552243 0.3439977815 -0.715194669 0.3437723295 -0.7149615157 0.0418098593 -0.0310571497
540296760.0 0.0397811374 -0.0319499895 0.3355831494 -0.7198928849 0.33545142 -0.71910908 0.040632626 -0.0304989644
545296730.0 0.0396375422 -0.0327975916 0.3276880796 -0.7227075673 0.3276358577 -0.7226299529 0.0403347578 -0.0315372225
550296700.0 0.0395408274 -0.0330385117 0.3193817301 -0.7260938259 0.3196210798 -0.7263621032 0.0395784775 -0.0317740751
555296670.0 0.0384961234 -0.0332267674 0.3116598161 -0.7295033544 0.3119153128 -0.7298327465 0.0394390844 -0.0318551327
560296640.0 0.0385941429 -0.0332875457 0.3037844111 -0.7331181051 0.3036325685 -0.7334616402 0.0387055309 -0.0324380697
565296610.0 0.0373200107 -0.0340488945 0.2953856894 -0.7360787346 0.2959304726 -0.7364810198 0.0378371925 -0.032911764
570296580.0 0.0369521132 -0.0342158586 0.288033344 -0.7401061395 0.2872160965 -0.7396777224 0.0374579938 -0.0323733091
575296550.0 0.0361147624 -0.0343909553 0.2795489553 -0.7429726829 0.2793681119 -0.7429579856 0.037202857 -0.0335573331
580296520.0 0.0359359092 -0.0346141061 0.2709806646 -0.7462563946 0.2714169381 -0.745593098 0.0366042817 -0.0340222114
585296490.0 0.0354673902 -0.0357387788 0.2628886048 -0.7484881144 0.2636794089 -0.7485199557 0.0358805067 -0.0340578986
590296460.0 0.0353689226 -0.0355306787 0.2553118611 -0.7505604667 0.2546425751 -0.7512985532 0.0346397072 -0.0345604971
595296430.0 0.0347882304 -0.0359806769 0.2458843304 -0.7546671561 0.2467532579 -0.7541527058 0.0349998183 -0.0351346731
600296400.0 0.0338594584 -0.0365271144 0.2387073631 -0.7574446059 0.2385125817 -0.7566283144 0.0343117283 -0.035380354
605296370.0 0.0332802978 -0.0367349582 0.2300142747 -0.7593266555 0.2307616931 -0.7593903201 0.033795886 -0.0356476265
610296340.0 0.0330360758 -0.0369457296 0.221677355 -0.7618010952 0.2222310401 -0.7617905253 0.0337178523 -0.0362511524
615296310.0 0.0327049707 -0.0379933203 0.2131348349 -0.7638259573 0.2135106002 -0.7644292928 0.0328817313 -0.0363176424
620296280.0 0.0323234169 -0.037926795 0.2052831367 -0.7661159411 0.2050325708 -0.7662913613 0.0317225718 -0.0369243881
625296250.0 0.0311668202 -0.038958717 0.1976628411 -0.7689059317 0.1973884982 -0.7688566168 0.032523671 -0.0369631487
630296220.0 0.0319704796 -0.0386325911 0.1880963994 -0.7704996929 0.1876270446 -0.7704994384 0.031240707 -0.0370669254
635296190.0 0.0295782099 -0.0393149486 0.1800620267 -0.7726227673 0.1803356216 -0.7724821851 0.0310902324 -0.0376939121
640296160.0 0.0293887784 -0.0392060365 0.1709841074 -0.7744258294 0.171423849 -0.7747858419 0.0302686242 -0.0377440857
645296130.0 0.0289282315 -0.0392708641 0.1628709984 -0.7762542128 0.1635368896 -0.7767258172 0.0298333764 -0.0380947667
650296100.0 0.0285013791 -0.039674446 0.1546011011 -0.7783087254 0.1552072686 -0.778139103 0.0300385382 -0.0389685558
655296070.0 0.0273379574 -0.0400521025 0.1460147615 -0.7800839352 0.1464746882 -0.7798584553 0.0293514383 -0.0384898
660296040.0 0.0263435385 -0.0406111654 0.1379806768 -0.7820769076 0.1378307002 -0.7815451012 0.0287680066 -0.0388449877
665296010.0 0.0268325927 -0.0405954091 0.1284855802 -0.7825851681 0.1292403532 -0.7829868701 0.0282898965 -0.038375789
670295980.0 0.0248509714 -0.0404526211 0.1209615752 -0.7843526848 0.1199950238 -0.7841624452 0.0271477489 -0.0390764823
675295950.0 0.0248462756 -0.0402980313 0.1121255326 -0.7852383257 0.1120143229 -0.7846410408 0.0263118419 -0.0392110989
680295920.0 0.0236921284 -0.0412669589 0.1032762307 -0.7861137013 0.1028937132 -0.7865264689 0.0261841513 -0.0386606095
685295890.0 0.0236469175 -0.0403973046 0.0950052153 -0.7879076174 0.0946034869 -0.7878248068 0.0255113936 -0.0391757504
690295860.0 0.0234009968 -0.0409321113 0.0863827745 -0.7880673914 0.0862625531 -0.7889866117 0.0247852229 -0.0384641738
695295830.0 0.022753722 -0.0414278985 0.0780366136 -0.7894550836 0.0771473977 -0.7896988852 0.0244676223 -0.0388815848
700295800.0 0.0222678341 -0.0418433017 0.0686911427 -0.7903614769 0.0684432347 -0.7895739901 0.023567245 -0.0383185997
705295770.0 0.0210602468 -0.0409001061 0.0596201179 -0.7908464504 0.0606504789 -0.7908750824 0.0230804633 -0.0388168657
710295740.0 0.0210845737 -0.0415057432 0.0517260404 -0.7922750676 0.0520719843 -0.7924154864 0.0228705472 -0.0397274689
715295710.0 0.0197258631 -0.0419517744 0.0436602274 -0.7918609026 0.0430758238 -0.791849351 0.0222035885 -0.0394104259
720295680.0 0.0196263882 -0.0418619636 0.0343276733 -0.79277028 0.0351062211 -0.7924301858 0.0213569873 -0.0386294088
725295650.0 0.018979037 -0.0417237325 0.0257304827 -0.7929333791 0.0259110235 -0.7930968408 0.0199839908 -0.0390804303
730295620.0 0.0188210419 -0.0416331504 0.017228948 -0.7925744402 0.0171734383 -0.7933065668 0.0194571675 -0.0397233278
735295590.0 0.0179985672 -0.0415435895 0.0091017995 -0.792990933 0.0087248276 -0.7932594161 0.0188688909 -0.0400386735
740295560.0 0.0169902387 -0.0414947284 0.0001930113 -0.7928206529 -4.75498e-05 -0.7928244655 0.0189273002 -0.039706448
745295530.0 0.0166644797 -0.041741469 -0.0087454725 -0.7924031514 -0.0088386965 -0.7929544912 0.018098888 -0.04019082
750295500.0 0.0159789911 -0.0418934005 -0.0171542501 -0.7926066374 -0.0172842534 -0.7931632602 0.0174076694 -0.0397706554
755295470.0 0.0157312648 -0.0422837454 -0.0252844058 -0.7926403388 -0.0257690769 -0.7925690512 0.0176169311 -0.0405596487
760295440.0 0.0148350575 -0.0419393183 -0.0342684007 -0.7923804684 -0.0346318019 -0.7927882826 0.0164514201 -0.0404078906
765295410.0 0.0140652539 -0.0421640793 -0.0435785109 -0.791797994 -0.0436605621 -0.7921862729 0.0161767124 -0.0403911296
770295380.0 0.0130621441 -0.0423711385 -0.0522208474 -0.791346029 -0.0516853735 -0.7914069219 0.0149664201 -0.0409937092
775295350.0 0.0127122027 -0.0427586389 -0.0607858502 -0.7904861603 -0.0600526343 -0.7903366149 0.0136176775 -0.0401873932
780295320.0 0.0124692685 -0.0423759139 -0.0691379121 -0.7900797597 -0.0685019744 -0.7899194867 0.0136052399 -0.0409333366
785295290.0 0.0113110044 -0.0430765949 -0.0775243895 -0.788394766 -0.0773117059 -0.789144741 0.0137305619 -0.040680473
790295260.0 0.0114725211 -0.0418685298 -0.0855348373 -0.7876378888 -0.0852704898 -0.7880680995 0.0126412731 -0.040891167
795295230.0 0.0104290379 -0.0424352066 -0.0947396613 -0.7872234723 -0.0939037838 -0.7872138003 0.0123932845 -0.040289516
800295200.0 0.0093212767 -0.041935867 -0.1038848177 -0.7857251534 -0.1030068817 -0.78648681 0.0115934037 -0.0407565847
805295170.0 0.008973251 -0.0424593942 -0.1119017192 -0.7847172804 -0.1121673654 -0.7851836491 0.0110046661 -0.040671289
810295140.0 0.0079676494 -0.042903907 -0.120201617 -0.7830016121 -0.1203361015 -0.7835715073 0.0110653886 -0.0402753511
815295110.0 0.0076717647 -0.0428859942 -0.1287183483 -0.7817689938 -0.1287248125 -0.7823696608 0.0099416651 -0.040329626
820295080.0 0.0064811964 -0.0419293448 -0.1372679086 -0.7801348262 -0.1370329618 -0.7804514789 0.0094147837 -0.0405035483
825295050.0 0.0069175215 -0.0422935256 -0.1453665391 -0.7786989048 -0.1454910242 -0.77930814 0.0093375406 -0.0401802985
830295020.0 0.0057835134 -0.0421312709 -0.1541753191 -0.7769759809 -0.1542958064 -0.7772739637 0.0093573231 -0.039918692
