!Created with skrf (http://scikit-rf.org).
# Hz S RI R 50.0 
!freq ReS11 ImS11 ReS21 ImS21 ReS12 ImS12 ReS22 ImS22
300000.0 -0.238048306 -0.0819764454 0.4725949961 0.0545602111 0.4671547208 0.0539015366 -0.2444267828 -0.0942211739
5299970.0 -0.2444846923 0.0070026467 0.4734752773 0.0048561774 0.4737230732 0.0048394556 -0.2440797274 0.0072182042
10299940.0 -0.240959736 0.0189368178 0.475273354 0.0058090067 0.4756726188 0.0063896024 -0.2408504343 0.0203875401
15299910.0 -0.2366509703 0.0279753399 0.4792844489 0.0075512071 0.479140409 0.0078957249 -0.2362424222 0.0295620193
20299880.0 -0.2317781618 0.0356202367 0.4836633275 0.0087092592 0.4838118495 0.0083859713 -0.2309807434 0.0374296897
25299850.0 -0.2269302874 0.0418762249 0.4892684211 0.0074640308 0.4889430319 0.0076667778 -0.2248472372 0.0437655236
30299820.0 -0.2215211831 0.0472311526 0.4948729596 0.0056229113 0.4945464213 0.0053117154 -0.2192063976 0.0491196422
35299790.0 -0.2163160985 0.051402819 0.4998270865 0.0021649911 0.4999397325 0.0021786824 -0.2137626465 0.0533337136
40299760.0 -0.2115308772 0.0551355914 0.5049136043 -0.0019097314 0.505296782 -0.0018257062 -0.2083097859 0.0560924191
45299730.0 -0.2066464595 0.0577691221 0.5095156503 -0.0066061077 0.5103149968 -0.0061590711 -0.2031154355 0.0589196145
50299700.0 -0.2023130031 0.0598233271 0.5143575374 -0.0121357538 0.5140374323 -0.011520357 -0.1985754561 0.0604320127
55299670.0 -0.1983841521 0.0616680739 0.517734736 -0.0183575135 0.5180827014 -0.0179101332 -0.194233712 0.0623533375
60299640.0 -0.1940819585 0.0636080881 0.5212646591 -0.024516459 0.5215055834 -0.0239161184 -0.1902545833 0.063039495
65299610.0 -0.1910607593 0.0647502698 0.5238986343 -0.0305957095 0.5245872192 -0.0307455029 -0.1871698316 0.0640453161
70299580.0 -0.1880499494 0.0661536663 0.5267715419 -0.0371260085 0.5266756384 -0.0369652807 -0.1837502111 0.0650287321
75299550.0 -0.1851389418 0.0673477364 0.5286307909 -0.0440557469 0.5285222093 -0.0439031797 -0.1808802681 0.0651970355
80299520.0 -0.1824661864 0.0681933983 0.5305817467 -0.0511190604 0.5307126464 -0.0509558597 -0.178342535 0.0659762651
85299490.0 -0.1801691222 0.068717776 0.531605732 -0.0574851019 0.5317688258 -0.057326231 -0.1761309073 0.0659775759
90299460.0 -0.1780229666 0.0698854809 0.5326209645 -0.0652149541 0.5328744247 -0.0645021951 -0.1735141358 0.0666436571
95299430.0 -0.1756369708 0.0704431548 0.5338170898 -0.0718225707 0.5338364085 -0.0718400574 -0.1717317325 0.0675467096
100299400.0 -0.1738824556 0.071611747 0.5337206087 -0.0785484606 0.5340763291 -0.0784789764 -0.1693309446 0.0674715678
105299370.0 -0.172083011 0.0723690847 0.5343584696 -0.0857450423 0.5347879929 -0.0852203795 -0.1677293142 0.0679300778
110299340.0 -0.170073564 0.073273531 0.5346628178 -0.0918876309 0.5342447351 -0.0921266884 -0.1664371474 0.0684405402
115299310.0 -0.1686711595 0.0741728212 0.5344732881 -0.0991728146 0.5343173703 -0.0989274097 -0.1647520087 0.0690271587
120299280.0 -0.1674544695 0.07467627 0.5345463536 -0.1058973945 0.5343280886 -0.1060598883 -0.163293876 0.0694110623
125299250.0 -0.1661944897 0.0754938281 0.5338596455 -0.1122186065 0.5341145983 -0.112347698 -0.1624586869 0.0696484
130299220.0 -0.1649069729 0.0766884131 0.5329330814 -0.1196614388 0.5331700204 -0.1192223707 -0.160751371 0.070240363
135299190.0 -0.1637208481 0.0780236932 0.5330161725 -0.1260586044 0.5329889158 -0.1256419354 -0.1596732655 0.071219473
140299160.0 -0.1628879756 0.0788055575 0.5320722179 -0.133045917 0.5321451703 -0.1325468597 -0.1587023559 0.0724767543
145299130.0 -0.1614068346 0.0798563625 0.5312149461 -0.1390410816 0.5308428106 -0.13913504 -0.1579500948 0.0729501025
150299100.0 -0.1601711073 0.0810685461 0.5299420394 -0.1453537964 0.5296664866 -0.1452563665 -0.156950536 0.0739344137
155299070.0 -0.15970582 0.0823293362 0.5291494782 -0.1528130029 0.5286647871 -0.1524506793 -0.1558600019 0.0746750973
160299040.0 -0.1580776365 0.0835157221 0.5271547092 -0.1589184847 0.5269845133 -0.1586444292 -0.15548021 0.0755244257
165299010.0 -0.1575074391 0.0846339657 0.5260257387 -0.1653021142 0.525917802 -0.1653509925 -0.1543285535 0.0766706354
170298980.0 -0.1563793966 0.0857575643 0.524606901 -0.1719146258 0.5245334797 -0.1716367925 -0.1535211141 0.0775309463
175298950.0 -0.1556566929 0.0869926884 0.5227467915 -0.177940801 0.5221947108 -0.1778195868 -0.1527228008 0.0785877851
180298920.0 -0.1548097719 0.0885943874 0.521036688 -0.1844686621 0.5211877564 -0.183523629 -0.1520734357 0.0799672777
185298890.0 -0.1533146039 0.0894590471 0.5189773201 -0.1902267434 0.5189611717 -0.1901806093 -0.1511629674 0.0811741033
190298860.0 -0.1526826465 0.0911058711 0.5173738342 -0.1965431982 0.5176024189 -0.1964558644 -0.1505745059 0.0820663943
195298830.0 -0.1517137948 0.0923067126 0.5151405714 -0.2025471281 0.5155722366 -0.2026675964 -0.1499094541 0.0831211336
200298800.0 -0.1506323272 0.0938761318 0.5128207152 -0.209080678 0.5134574626 -0.2092326111 -0.1496441563 0.0842426689
205298770.0 -0.1499050195 0.0950339819 0.5108608493 -0.214812251 0.5108680739 -0.2144855161 -0.1486788139 0.0846383845
210298740.0 -0.1489579401 0.096171277 0.5083241729 -0.2204064007 0.5087132979 -0.2201950983 -0.1477518853 0.0865004079
215298710.0 -0.1483801327 0.0976704487 0.5067098057 -0.2269170124 0.5061057408 -0.2272680661 -0.1470904422 0.0876098934
220298680.0 -0.1469070238 0.0989339518 0.5031688467 -0.2324551608 0.5039593509 -0.2324805566 -0.1469464308 0.0886008342
225298650.0 -0.1460551772 0.100332083 0.5010338265 -0.2386502208 0.501472306 -0.2385688873 -0.1463195553 0.0900325885
230298620.0 -0.1451709274 0.1022149852 0.4989781413 -0.2442897288 0.4990769137 -0.24438707 -0.145350396 0.0908293998
235298590.0 -0.1441442875 0.1037376083 0.4963406811 -0.2501140311 0.4963793804 -0.249501452 -0.1446402368 0.0919563269
240298560.0 -0.1432577386 0.1049430799 0.4940390476 -0.256243616 0.4935005039 -0.2559466433 -0.1436080622 0.0938385168
245298530.0 -0.1422996633 0.1064137807 0.4914756005 -0.2615760876 0.4911312941 -0.261713094 -0.142864187 0.0941140483
250298500.0 -0.1407122067 0.1081097848 0.4873196255 -0.2674832337 0.4875971339 -0.2668621594 -0.1425544263 0.0957438121
255298470.0 -0.1400205929 0.1090759151 0.484618103 -0.272679591 0.4850706393 -0.2726280026 -0.1412298592 0.0970516148
260298440.0 -0.1392537105 0.1105205102 0.4818767554 -0.2784659817 0.4821662455 -0.2782187762 -0.1403366525 0.0982520408
265298410.0 -0.1376915183 0.1124841055 0.4789658902 -0.2838374037 0.4791094372 -0.2833839437 -0.1395728527 0.0993896099
270298380.0 -0.1362800489 0.1137718845 0.4758988247 -0.2888596273 0.4760541092 -0.2891501518 -0.1387584035 0.1007137044
275298350.0 -0.1350700418 0.1155086013 0.4729057027 -0.2948983299 0.4735711841 -0.2944938212 -0.1381629425 0.1018643063
280298320.0 -0.1340188103 0.1169763233 0.4698909086 -0.2999666623 0.4698690845 -0.2997797012 -0.1366997426 0.1030696131
285298290.0 -0.1330627821 0.118432259 0.4666939461 -0.3053376266 0.4664646186 -0.3052883476 -0.1358344529 0.1043125292
290298260.0 -0.131544583 0.1194299194 0.4632163276 -0.3100224445 0.463067116 -0.3105067077 -0.1350479907 0.1059249012
295298230.0 -0.1300528634 0.1209075627 0.4599403317 -0.3157328645 0.4598030757 -0.3159466919 -0.1333200351 0.1067828199
300298200.0 -0.1294566379 0.1224230828 0.456689379 -0.3209604526 0.456598323 -0.3211543722 -0.1330174731 0.1080666109
305298170.0 -0.1277899545 0.1234909316 0.4524344678 -0.3266577732 0.4528750904 -0.3262914228 -0.131424336 0.1089227914
310298140.0 -0.1265332671 0.1251941014 0.4492533914 -0.3315184869 0.4497824634 -0.3312846394 -0.1306528183 0.110368562
315298110.0 -0.1252218139 0.1262070982 0.4455320267 -0.3366371972 0.446168154 -0.3365883132 -0.1297067682 0.1114222746
320298080.0 -0.1237682831 0.1275715865 0.44173184 -0.3422216126 0.4417021655 -0.3419371771 -0.1283425562 0.112907725
325298050.0 -0.1224855708 0.1288227495 0.4379330823 -0.3471824236 0.43795339 -0.3469854488 -0.1279332998 0.1140976014
330298020.0 -0.1213591798 0.1300449865 0.4337621086 -0.3519477291 0.4340094681 -0.3519003278 -0.1273265331 0.1149700987
335297990.0 -0.1202553559 0.1312336511 0.4297525346 -0.3566050254 0.4296446011 -0.3567448571 -0.1267286736 0.1169047298
340297960.0 -0.1192833523 0.1332142105 0.4257232687 -0.3613541554 0.4253604582 -0.3617104487 -0.1248539556 0.1182968189
345297930.0 -0.1176048033 0.134898004 0.4214803896 -0.3664739597 0.4217776204 -0.3664228611 -0.1241028635 0.1192988954
350297900.0 -0.1165406454 0.1357545887 0.4170592892 -0.3709313876 0.4172553776 -0.3710749733 -0.1233703339 0.121085649
355297870.0 -0.1147727196 0.1377202526 0.4130475506 -0.3754641906 0.4138074345 -0.3753351255 -0.122743816 0.1224113756
360297840.0 -0.1135731471 0.1390069036 0.4097217628 -0.3795407068 0.4096709435 -0.3796734607 -0.1215343261 0.1238069849
365297810.0 -0.1126429046 0.1404596123 0.4050985682 -0.384599477 0.4052246204 -0.3847322986 -0.1200251686 0.125078978
370297780.0 -0.1108432084 0.141621875 0.4005876514 -0.3889975968 0.4012171536 -0.3887035758 -0.1191191264 0.1262826016
375297750.0 -0.1091785705 0.1429061581 0.3966174438 -0.3932605564 0.3971593045 -0.3931578307 -0.1181246203 0.1272968317
380297720.0 -0.1078028958 0.144128918 0.3918765488 -0.3976186865 0.3924582763 -0.3971660432 -0.1169799905 0.1287128032
385297690.0 -0.1062242931 0.1454012295 0.3874749562 -0.4018006419 0.3876931317 -0.4015278973 -0.1157693704 0.1303031864
390297660.0 -0.1048092123 0.1469932457 0.3834268048 -0.4063843425 0.3830201249 -0.4058192051 -0.114860479 0.1313503147
395297630.0 -0.1031876036 0.1482694461 0.379167249 -0.4101300032 0.3790115586 -0.410392951 -0.1131758114 0.1329190047
400297600.0 -0.1017327825 0.149567712 0.3740708677 -0.4145916457 0.3743255422 -0.4147008338 -0.1123082154 0.1340134163
405297570.0 -0.1003084792 0.1510438479 0.3696174152 -0.418487541 0.3696497883 -0.4180736382 -0.1111716705 0.1348009453
410297540.0 -0.0985181269 0.1520950831 0.3652117162 -0.4226981156 0.3654524069 -0.4227368731 -0.1100508948 0.1362457842
415297510.0 -0.096771317 0.1531995087 0.3602382047 -0.4274841641 0.3606825884 -0.4268251827 -0.1086195153 0.1376614206
420297480.0 -0.095161735 0.1546384878 0.3553679221 -0.4309688008 0.3555010564 -0.430814225 -0.1074513569 0.1386656362
425297450.0 -0.0933832039 0.1551252105 0.351232837 -0.43423752 0.3515284867 -0.4345564258 -0.1065854959 0.1400608573
430297420.0 -0.0919464957 0.1565921849 0.346302985 -0.437843991 0.3462739411 -0.4377693418 -0.1053446077 0.140760716
435297390.0 -0.0901829904 0.1577185388 0.3409904919 -0.4416962003 0.3412240339 -0.4420029834 -0.1033089024 0.141789542
440297360.0 -0.0883225643 0.1589437258 0.3362578452 -0.4451290906 0.3367091242 -0.4455183106 -0.1024337819 0.1428995701
445297330.0 -0.087032968 0.1599561295 0.3318981828 -0.449450528 0.3320255561 -0.4487886213 -0.1008066011 0.1436226087
450297300.0 -0.084629598 0.1608687331 0.327004457 -0.4527983584 0.326737937 -0.4529914762 -0.0993361649 0.1447839149
455297270.0 -0.0831745157 0.1622036592 0.3215162822 -0.4562000759 0.3218347307 -0.4565490804 -0.0979382802 0.145841914
460297240.0 -0.0815751607 0.1632832532 0.316121386 -0.4597868139 0.3168772177 -0.4599889506 -0.0966347469 0.1471302298
465297210.0 -0.0796123305 0.1643867108 0.3121814053 -0.4633017032 0.3117379165 -0.4635172411 -0.0951751897 0.1478052648
470297180.0 -0.0777085327 0.1649867764 0.3064018756 -0.4662102827 0.3068311745 -0.4670832513 -0.09355577 0.1493531738
475297150.0 -0.0761871326 0.1661378062 0.3011886324 -0.4694720383 0.3015306698 -0.469506333 -0.0918216432 0.1501190489
480297120.0 -0.0743171717 0.1673808497 0.2964113993 -0.4731391329 0.2962527346 -0.4734127735 -0.090693273 0.1513357572
485297090.0 -0.0725163995 0.1681128032 0.2909246731 -0.4763548132 0.2912814656 -0.4760592953 -0.0889112127 0.1522415525
490297060.0 -0.0708706886 0.1693787833 0.2861425949 -0.4795380792 0.2861030195 -0.4792090096 -0.0874806579 0.1535506376
495297030.0 -0.0689438087 0.1700549289 0.2805440182 -0.4825938114 0.2816885779 -0.4823862845 -0.0860919856 0.1543990665
500297000.0 -0.0669942646 0.1707755763 0.275566203 -0.4848650066 0.2752322192 -0.4849065407 -0.0846036994 0.1559730222
505296970.0 -0.0648018374 0.1716451981 0.2701066806 -0.4883032764 0.2699449565 -0.4885334813 -0.0832006594 0.1565945932
510296940.0 -0.0632290568 0.1728906497 0.264733255 -0.4916348521 0.2643381704 -0.4913930047 -0.0813034147 0.1578219092
515296910.0 -0.0611821187 0.1734796817 0.2588291774 -0.4941997844 0.2593320458 -0.4940103763 -0.0798502692 0.1586802281
520296880.0 -0.0593382265 0.174351088 0.2540303231 -0.4974131853 0.2538288766 -0.496689734 -0.0787035757 0.1593179615
525296850.0 -0.05750893 0.1747842051 0.2483814942 -0.4998735036 0.2490300216 -0.4995716627 -0.0773320883 0.1605479241
530296820.0 -0.0553351455 0.17585158 0.2428637408 -0.5022830257 0.2433437639 -0.5023136466 -0.0756158559 0.1612731022
535296790.0 -0.0539867602 0.1768387366 0.2378210981 -0.5050282153 0.2375747265 -0.5045039801 -0.074109584 0.1617658024
540296760.0 -0.0519113347 0.1775471027 0.2320779109 -0.5076813897 0.2320426845 -0.507766911 -0.0727437354 0.1634666372
545296730.0 -0.0496744828 0.1782004917 0.2263056913 -0.5098924791 0.2265330537 -0.5101601732 -0.0713479662 0.163947979
550296700.0 -0.0475749421 0.1790081464 0.2208364242 -0.5123936149 0.220898796 -0.512336594 -0.0696494394 0.1645591168
555296670.0 -0.045599366 0.1794191095 0.2152284832 -0.5145237911 0.2154702925 -0.5145023042 -0.0681370378 0.1660789798
560296640.0 -0.0436161973 0.1802828212 0.2095077359 -0.516848138 0.2096366956 -0.5170620319 -0.066455495 0.1667429199
565296610.0 -0.0418683571 0.1809840098 0.2038853255 -0.5192381044 0.2041193061 -0.5191280693 -0.0651870809 0.1671582697
570296580.0 -0.0399612659 0.1815257962 0.1983076266 -0.5220214621 0.198373705 -0.5215849141 -0.0636099949 0.1684061358
575296550.0 -0.0379637488 0.1823092638 0.1930613138 -0.5237640433 0.1927876622 -0.5236515407 -0.0616953141 0.1689010107
580296520.0 -0.0359182385 0.1828552198 0.1869000395 -0.5256942809 0.1871376231 -0.5255073963 -0.0599379812 0.1693297238
585296490.0 -0.0343407416 0.182788045 0.1820815436 -0.5272408429 0.1816369833 -0.5273809208 -0.0584974378 0.1703815485
590296460.0 -0.0318512147 0.183655625 0.1756446774 -0.5291492172 0.1759008633 -0.529275208 -0.0576890932 0.1710725106
595296430.0 -0.0295984295 0.184147362 0.1695409205 -0.5313685709 0.1698615414 -0.5310655658 -0.0551715581 0.1712395051
600296400.0 -0.0279518334 0.1844342473 0.1639775097 -0.5331272047 0.164039474 -0.5326948395 -0.0539379563 0.1718790263
605296370.0 -0.0259474717 0.1847849916 0.1579909151 -0.5343680108 0.1586725909 -0.5346341807 -0.0518307787 0.1729050569
610296340.0 -0.0237587281 0.1852140322 0.1518142406 -0.5360031008 0.1526821354 -0.5363003508 -0.0501501129 0.1734315975
615296310.0 -0.0216862997 0.1855834871 0.146566675 -0.5379235592 0.146900169 -0.5383795628 -0.0483961055 0.1738921319
620296280.0 -0.0196513374 0.1859392232 0.1408281309 -0.5394025792 0.1408434391 -0.5391556835 -0.0471750033 0.1747972706
625296250.0 -0.0176622607 0.1860573276 0.1354890073 -0.5408428344 0.1350651264 -0.5411948881 -0.0448338365 0.1748955658
630296220.0 -0.0149279786 0.1865673418 0.1283862868 -0.5421784837 0.128939508 -0.5424690169 -0.0432403236 0.1759543949
635296190.0 -0.0137740088 0.1866130485 0.1230159093 -0.5432500244 0.123332831 -0.5435774547 -0.0414592579 0.1763413282
640296160.0 -0.0114398294 0.1869797248 0.1173799054 -0.544670528 0.1175320963 -0.5449716916 -0.0397444645 0.1768213563
645296130.0 -0.0094298767 0.1874912772 0.1114127019 -0.5456829187 0.1116868404 -0.54613948 -0.037784629 0.1775437897
650296100.0 -0.007285287 0.1875682076 0.1051721883 -0.5470086082 0.1057144968 -0.5471438535 -0.0359526862 0.1776470909
655296070.0 -0.0057553312 0.1877841849 0.099545971 -0.5478898995 0.1000636035 -0.5482766602 -0.0342542615 0.1783972588
660296040.0 -0.0036766394 0.1876329276 0.0938217535 -0.54931638 0.0939837451 -0.5495777803 -0.0323369414 0.1788911683
665296010.0 -0.0009623575 0.1879936409 0.0875273805 -0.5499448367 0.0879096336 -0.5505371223 -0.0306810091 0.1799855549
670295980.0 1.50493e-05 0.1882892035 0.0816773386 -0.5508493075 0.0818080544 -0.5510285161 -0.0293472743 0.1802031179
675295950.0 0.0025471758 0.1887342244 0.0761668762 -0.5513779326 0.0759523612 -0.5512542638 -0.0277600214 0.1805040511
680295920.0 0.0046921395 0.188744022 0.0699763681 -0.5522012947 0.069322669 -0.5529655008 -0.0253559856 0.1816005023
685295890.0 0.0067904507 0.1893431248 0.0640704603 -0.5532804239 0.0637463224 -0.5532613533 -0.023990897 0.181814318
690295860.0 0.009030394 0.1888861001 0.0579882734 -0.5535007679 0.0577529368 -0.554105637 -0.0220874113 0.1824151859
695295830.0 0.0110588257 0.1889884583 0.0526717702 -0.5544440104 0.0519938203 -0.5542613743 -0.0206388449 0.1828620886
700295800.0 0.0135796764 0.1887824028 0.0458194895 -0.5547793116 0.0460486809 -0.5548921067 -0.018957361 0.1834132902
705295770.0 0.015196397 0.1893924174 0.0397306683 -0.5556137765 0.0403200868 -0.5556394524 -0.017065013 0.1837619098
710295740.0 0.0175171392 0.1889140518 0.0339546075 -0.5562777935 0.0341242905 -0.5561732805 -0.0151618305 0.1834353498
715295710.0 0.0191196169 0.1887667681 0.0284608053 -0.5564340529 0.0278429028 -0.5563316697 -0.0132848994 0.1839405874
720295680.0 0.0214338889 0.1889259315 0.021735682 -0.5563362146 0.0220457491 -0.5564518478 -0.0115148022 0.1849111549
725295650.0 0.0238922643 0.1887700658 0.0157660851 -0.5565280264 0.0162483972 -0.5566863203 -0.0102520918 0.185215898
730295620.0 0.0259013266 0.1889939664 0.0100622973 -0.5562931141 0.0100409504 -0.55660991 -0.0086730571 0.1845980379
735295590.0 0.027560969 0.1886128784 0.0040785491 -0.5564380552 0.0038140861 -0.5567554144 -0.0070729126 0.1847809564
740295560.0 0.0297012843 0.1884914623 -0.0020063617 -0.5566604017 -0.002175656 -0.5566856666 -0.0044346639 0.1853529239
745295530.0 0.0315317857 0.1883250974 -0.0081492257 -0.5563635929 -0.0084604441 -0.5566819917 -0.0029387647 0.1851736195
750295500.0 0.0342953141 0.1881731948 -0.0141399316 -0.5563465656 -0.0138940493 -0.5562141854 -0.001221067 0.1854137793
755295470.0 0.0359908522 0.1877296362 -0.0197039945 -0.5564319109 -0.0198826417 -0.5564167812 0.0010930166 0.1852322048
760295440.0 0.0378328767 0.1876383551 -0.0260580342 -0.5560045243 -0.0260986898 -0.5563140204 0.0025946726 0.1854607496
765295410.0 0.0400923747 0.1873348749 -0.0319748762 -0.5558813096 -0.0322372218 -0.5559883921 0.0044143576 0.1860020266
770295380.0 0.0420868478 0.1867823363 -0.038237602 -0.5552608217 -0.0380570263 -0.5547315469 0.0059617433 0.1857941332
775295350.0 0.0439248006 0.1860839222 -0.0443115482 -0.5540317021 -0.0433591107 -0.5545735248 0.0071795398 0.1860667672
780295320.0 0.0464139844 0.1858430697 -0.0498424601 -0.55381681 -0.0493343254 -0.5537443898 0.0095223833 0.1856668735
785295290.0 0.047948593 0.185267853 -0.0565263108 -0.5531161233 -0.0559306623 -0.5531831939 0.011537405 0.1862062049
790295260.0 0.0506088913 0.1855838639 -0.0613490404 -0.5524251874 -0.060890389 -0.5529359037 0.013565773 0.1858182997
795295230.0 0.052289928 0.1846869378 -0.0680377154 -0.5520220618 -0.0674258439 -0.5519646759 0.0154686564 0.1863235034
800295200.0 0.0540647325 0.1846127187 -0.0741318506 -0.5512550575 -0.0735941599 -0.5510406164 0.0173333035 0.1861894609
805295170.0 0.0565297992 0.1838686334 -0.079851648 -0.5500322308 -0.0794665883 -0.5507806225 0.0190001208 0.1859417229
810295140.0 0.0582443093 0.183125172 -0.0852044004 -0.5491954177 -0.0855747695 -0.549594761 0.0212244971 0.1860509927
815295110.0 0.0604197734 0.1827233045 -0.0913770673 -0.5481938962 -0.0912624974 -0.5483929446 0.022753967 0.1858713644
820295080.0 0.062055188 0.1824166452 -0.0973577758 -0.5468890857 -0.096826447 -0.547331597 0.0247527547 0.1861422509
825295050.0 0.0645493161 0.1817468597 -0.1025410329 -0.5462482351 -0.1028290784 -0.5464039478 0.0268468521 0.1858778306
830295020.0 0.066455527 0.1813111064 -0.1092785926 -0.5446567595 -0.10870498 -0.5449656044 0.0288963938 0.1861603147
