!Created with skrf (http://scikit-rf.org).
# Hz S RI R 50.0 
!freq ReS11 ImS11 ReS21 ImS21 ReS12 ImS12 ReS22 ImS22
300000.0 -0.2127928651 -0.0800406611 -0.0004810057 0.0004961789 0.0005897599 0.0003315424 -0.769364249 -0.1675188731
5299970.0 -0.2141028796 0.0087011543 -1.33278e-05 9.39732e-05 -3.86955e-05 -0.0001064508 -0.7849432529 -0.0088307296
10299940.0 -0.2102994543 0.0214042141 0.0001976264 -0.0002000034 0.0001822264 -0.000163232 -0.7885925798 -0.0054335305
15299910.0 -0.2053808773 0.0310920165 1.02984e-05 -0.0001150213 -2.61537e-05 -4.53119e-05 -0.7938293699 -0.0030520954
20299880.0 -0.1994620595 0.0390224549 0.0001697085 9.46433e-05 0.0001447947 0.0001238232 -0.8003697121 0.0013602765
25299850.0 -0.1927392393 0.0455576693 6.4903e-06 0.0001762488 -6.71674e-05 -6.70063e-05 -0.8072837164 0.0070502261
30299820.0 -0.1863925291 0.0504579866 0.000305024 0.0001072375 0.0001755278 0.0001548251 -0.8127867872 0.0145320203
35299790.0 -0.1800183247 0.054720835 -6.96675e-05 -0.0001181112 -0.0001248352 -5.81939e-05 -0.8181943393 0.0234969299
40299760.0 -0.1741657104 0.0571836185 1.38519e-05 0.0002050518 -2.29024e-05 1.56326e-05 -0.8220623506 0.0329685581
45299730.0 -0.1687444962 0.0594542095 -0.0001758838 -0.0002095028 7.88296e-05 0.0001601895 -0.8258733764 0.0422575324
50299700.0 -0.1628185378 0.0607384012 5.46573e-05 0.0001358609 -0.0001524295 8.69426e-05 -0.8280345733 0.052613156
55299670.0 -0.1585444834 0.061902346 9.59415e-05 -3.74569e-05 4.55212e-05 7.65135e-05 -0.8299187318 0.0632840298
60299640.0 -0.1537096134 0.0621452353 -6.90623e-05 5.40084e-05 -4.60258e-05 6.17392e-05 -0.8310917788 0.0734553889
65299610.0 -0.1500552309 0.0626895535 -0.0001477348 5.39738e-05 -0.0001975069 2.92443e-05 -0.8315786593 0.0825953876
70299580.0 -0.1464516124 0.0627493457 4.69022e-05 -4.77162e-05 8.20165e-05 -1.75698e-05 -0.8324837084 0.0928168659
75299550.0 -0.1431896514 0.0624887102 6.24174e-05 0.0002438074 -4.93328e-05 8.39239e-05 -0.8328524845 0.1024718309
80299520.0 -0.1406780475 0.0627870566 -0.0001520962 1.71248e-05 4.25452e-05 -0.0001077152 -0.8321924642 0.1121163796
85299490.0 -0.1376572966 0.0622080597 -0.000149286 -4.16531e-05 7.68894e-05 2.02839e-05 -0.8316003677 0.1217668729
90299460.0 -0.1356747589 0.0623909429 -2.98114e-05 -7.83365e-05 -4.54239e-05 -0.0001085193 -0.8310892271 0.1312171284
95299430.0 -0.1333418669 0.0618561528 -0.000228823 -9.4443e-06 -8.30273e-05 -0.0001266946 -0.8300744605 0.1407699151
100299400.0 -0.1316922273 0.062036615 -3.58444e-05 -0.0001179884 0.0002997425 0.0002406079 -0.8289230153 0.1497275393
105299370.0 -0.1298093813 0.0618071225 9.1306e-06 -0.0002900669 0.0001571845 -7.07704e-05 -0.8274996808 0.1589935445
110299340.0 -0.1286447297 0.0615044614 5.0252e-06 -0.0001223741 0.0001476619 6.49984e-05 -0.8268741155 0.1679728138
115299310.0 -0.1267883149 0.0608309819 7.69355e-05 7.6205e-05 1.16168e-05 1.26119e-05 -0.8251930341 0.1766448445
120299280.0 -0.1256711868 0.0613908727 -2.61817e-05 -3.82657e-05 2.68376e-05 -0.0001022625 -0.8233094763 0.185964169
125299250.0 -0.1248222883 0.0610564852 -0.0001988925 -5.02952e-05 6.0691e-06 0.0001315392 -0.8218020242 0.1951752679
130299220.0 -0.1235865699 0.0614067368 -0.0001080898 5.34064e-05 -5.61185e-05 0.0001614457 -0.8201140678 0.2035193324
135299190.0 -0.1223751342 0.0611932218 -1.86347e-05 -0.0001397831 -0.0001612376 1.43892e-05 -0.8179822979 0.2124673495
140299160.0 -0.1218166374 0.0614926927 -0.0001337817 -1.77313e-05 3.9021e-05 -5.4247e-06 -0.8158024949 0.2216361631
145299130.0 -0.1206369451 0.061281375 -9.42666e-05 3.9301e-06 -4.50286e-05 -3.17117e-05 -0.8142947076 0.2297645063
150299100.0 -0.1202166002 0.0615373796 0.0001108341 0.0001554002 0.0001133874 -3.29706e-05 -0.8117937972 0.2384636779
155299070.0 -0.1192570009 0.062239043 0.0002398706 0.000120193 -1.06563e-05 5.95149e-05 -0.8099300399 0.247312368
160299040.0 -0.1187322442 0.0622171727 -3.91844e-05 6.50776e-05 8.8168e-06 5.18061e-05 -0.8073791746 0.2567057989
165299010.0 -0.1183601467 0.0627438107 0.0001216297 5.77183e-05 -4.3366e-06 0.000182097 -0.8045301053 0.2646071099
170298980.0 -0.1176566229 0.0630844167 -0.0001830792 5.11831e-05 -0.0001280604 0.0001052796 -0.8019644346 0.2731294197
175298950.0 -0.1167141368 0.0636061691 9.8483e-05 3.20755e-05 -0.0002002866 -0.0001726573 -0.7986828703 0.2818859801
180298920.0 -0.116122568 0.0637370947 -3.155e-07 2.97343e-05 0.0001497939 6.67542e-05 -0.7958551198 0.2904932566
185298890.0 -0.1159792037 0.064285986 -4.13064e-05 1.65285e-05 1.3205e-05 6.99631e-05 -0.7930720191 0.2983893765
190298860.0 -0.1154172299 0.0647264986 6.76025e-05 -0.0001057666 0.0001800489 0.0001344456 -0.7897047297 0.3074218564
195298830.0 -0.1147012381 0.0651997291 0.0001050245 0.0001638475 -2.87633e-05 -3.39049e-05 -0.7872000555 0.3151247583
200298800.0 -0.1143369156 0.0658819359 0.0001282039 0.0003531481 0.0001167243 8.96751e-05 -0.783428572 0.3239394912
205298770.0 -0.1138463799 0.0665304086 0.0001423026 0.0001790395 0.0001579238 -2.29387e-05 -0.7801777402 0.3321131603
210298740.0 -0.1132615471 0.067180191 0.0001083266 0.0001846715 5.64319e-05 4.37624e-05 -0.7768934249 0.3402966773
215298710.0 -0.1130886728 0.0678616984 0.0001022519 -5.3741e-05 -0.0001005638 7.4256e-05 -0.7734911324 0.3484462577
220298680.0 -0.112394013 0.068541534 0.0001561974 1.63826e-05 5.33491e-05 0.0002886408 -0.7697185546 0.3567650063
225298650.0 -0.1118598878 0.0694384799 -0.0001183569 0.0001312734 8.87619e-05 0.0001608811 -0.7663127711 0.3645876419
230298620.0 -0.111418847 0.0700667506 -3.96188e-05 0.0001002421 -9.89586e-05 0.0001960816 -0.761863272 0.3722902658
235298590.0 -0.1112664425 0.0705695647 -0.0001843089 4.9031e-05 0.0002154275 0.0001978398 -0.7581446814 0.3809591576
240298560.0 -0.1108746556 0.0716175077 0.0001413864 -5.41039e-05 5.30462e-05 0.0001669456 -0.7538243527 0.3888265624
245298530.0 -0.1101959446 0.0724202343 0.0001889033 -8.9058e-06 -2.81072e-05 0.0001238276 -0.7502163235 0.3964012264
250298500.0 -0.1098033859 0.0732238662 0.0001760201 0.0002315729 0.0001561783 8.09395e-05 -0.7458434006 0.4047457344
255298470.0 -0.1092690791 0.0739010813 0.0001578516 0.0001687491 -3.88592e-05 0.0001014978 -0.741307332 0.4128167912
260298440.0 -0.1085725786 0.0749135385 0.0001501694 6.38035e-05 0.0001788277 9.9184e-05 -0.7369546098 0.4197675905
265298410.0 -0.1083322282 0.0759184758 8.92743e-05 0.0001971362 -1.5433e-05 0.0002393729 -0.7329603432 0.4273237581
270298380.0 -0.107765077 0.0766509198 0.0002520032 0.0002155886 0.0001132548 8.71282e-05 -0.7280506362 0.4353737448
275298350.0 -0.1070729792 0.0774766757 -0.0001240235 7.36591e-05 0.0001552757 8.79768e-05 -0.7232165895 0.4430634205
280298320.0 -0.1066573956 0.0786929724 -4.56712e-05 -6.4893e-05 -5.74832e-05 -4.5292e-06 -0.7191070108 0.4504157091
285298290.0 -0.1058669583 0.0794428497 0.0002479399 0.0002908543 0.0001653562 0.0001205812 -0.7139144149 0.4576300909
290298260.0 -0.1056156291 0.0804903312 8.02447e-05 0.0003946757 6.73267e-05 0.0001501368 -0.7093089462 0.4660242876
295298230.0 -0.1045924302 0.0814769794 -0.0001760049 0.0001433005 -0.0001657944 0.0001153666 -0.7040586341 0.4727729292
300298200.0 -0.1041199384 0.0820094595 -1.60104e-05 0.0001181254 7.18346e-05 1.10588e-05 -0.6988380136 0.4802796387
305298170.0 -0.1032515206 0.0831033339 0.0001504355 1.90998e-05 -1.6563e-05 0.0001429125 -0.693943064 0.4876815999
310298140.0 -0.1027190763 0.0834529849 0.0002135256 -0.0001174983 0.0001762048 -0.0001104092 -0.6892142251 0.4954694818
315298110.0 -0.1025374535 0.0843864704 0.0001267605 4.76908e-05 0.0003497767 4.35156e-05 -0.6835165123 0.5020475709
320298080.0 -0.1019525643 0.0853785901 -4.9035e-06 0.0001169719 -9.4897e-06 3.95449e-05 -0.6778815574 0.5095373891
325298050.0 -0.1015203 0.0859902786 7.60084e-05 -1.67041e-05 9.09927e-05 0.0003412418 -0.6724599898 0.5160930897
330298020.0 -0.1009630983 0.087212625 -1.28739e-05 0.0001319106 0.0002317532 0.000150451 -0.6669485043 0.5231391558
335297990.0 -0.1004894662 0.0881324332 -1.44483e-05 6.10722e-05 0.00018164 8.00384e-05 -0.6619866459 0.5302710036
340297960.0 -0.0998678877 0.0893363133 2.10093e-05 3.24343e-05 -3.28168e-05 0.0002349415 -0.6558745696 0.5372174611
345297930.0 -0.0994349023 0.0902151073 -5.03222e-05 2.383e-07 8.20529e-05 -0.0001578055 -0.6505323645 0.5437351933
350297900.0 -0.0984428504 0.0909275529 7.23348e-05 0.0001369745 0.0001863152 7.49069e-05 -0.6445278637 0.551194908
355297870.0 -0.0982163071 0.0923033828 1.86264e-05 -3.30615e-05 4.9152e-05 -9.1666e-06 -0.6381155512 0.5575414443
360297840.0 -0.0973370407 0.0932780544 -1.30316e-05 9.66047e-05 -1.94335e-05 9.10717e-05 -0.6324583365 0.5636194263
365297810.0 -0.0965134267 0.0941209115 6.81817e-05 8.67908e-05 9.37304e-05 1.06792e-05 -0.6264649808 0.5705390434
370297780.0 -0.0959263418 0.094987518 0.0002925421 -1.27048e-05 -3.88186e-05 0.0002577597 -0.6209611564 0.5760694028
375297750.0 -0.0950635285 0.0966417831 -4.00597e-05 0.000179926 0.0001805891 -7.37598e-05 -0.6145704858 0.5831801112
380297720.0 -0.0941064548 0.097216175 0.0001715571 -0.0002533139 8.19936e-05 -3.91216e-05 -0.608624461 0.5903107976
385297690.0 -0.0937071367 0.098445269 4.51534e-05 0.0001362276 0.0001355541 -2.63822e-05 -0.6019196298 0.595982786
390297660.0 -0.0926176253 0.0994202545 0.0001272056 0.0001204773 0.0001183778 -9.0139e-06 -0.5961235691 0.6016004191
395297630.0 -0.0918930159 0.1003490378 0.000259703 0.0001000528 2.01393e-05 3.45363e-05 -0.5894271226 0.6084236615
400297600.0 -0.0911894144 0.1014180162 0.0002655275 5.50312e-05 0.0001751606 0.0001350431 -0.5834852761 0.6139301935
405297570.0 -0.090034731 0.1021956869 -5.97948e-05 0.0001667341 8.66075e-05 0.0001875085 -0.5778580946 0.6197647361
410297540.0 -0.0893782214 0.1034141617 0.0002563738 0.0002840336 3.04163e-05 -3.14037e-05 -0.5703709656 0.6251299785
415297510.0 -0.088727696 0.1042557814 0.0002554677 6.04534e-05 8.90808e-05 -7.02025e-05 -0.5636498762 0.6320098902
420297480.0 -0.0877881577 0.1052676048 0.0001778756 5.68212e-05 0.0001479192 9.63837e-05 -0.5576404096 0.6369411328
425297450.0 -0.0868259168 0.1062328927 0.0001717294 2.42219e-05 0.0001240855 -6.0369e-05 -0.5504452509 0.6431152948
430297420.0 -0.0865263871 0.1070700506 0.0001563136 0.0001774531 0.0002448611 3.80667e-05 -0.5445089311 0.648597968
435297390.0 -0.0849881104 0.108085165 8.54138e-05 0.0001268084 0.0001503974 -7.8135e-06 -0.537422134 0.6536690178
440297360.0 -0.0842606668 0.1090548431 0.0002068929 9.535e-06 0.0002451386 -9.49391e-05 -0.5304495409 0.6588216343
445297330.0 -0.0831973106 0.110166599 -7.9581e-06 -1.07187e-05 8.504e-06 2.71451e-05 -0.5240416573 0.6643119598
450297300.0 -0.082530624 0.1108762553 0.0001739582 -8.52025e-05 0.0001314381 0.000100871 -0.5173444148 0.6697880357
455297270.0 -0.0814572801 0.1119312847 4.3368e-06 0.0001042833 0.0002309853 -5.05457e-05 -0.5101471416 0.6749100826
460297240.0 -0.0806421894 0.1129607937 0.000319912 0.0002660646 0.0002535708 -2.08216e-05 -0.502840416 0.6802189188
465297210.0 -0.0794275898 0.1138380035 8.96509e-05 0.0001808451 0.0002384458 0.0001471098 -0.4967640501 0.6848217632
470297180.0 -0.0785265757 0.1145485093 0.0001493949 0.0001869763 8.10197e-05 0.0002242768 -0.4901055939 0.6895110085
475297150.0 -0.0774723611 0.1156399915 0.0002179782 0.0002546364 0.0002508189 -4.62356e-05 -0.4819997592 0.6944473323
480297120.0 -0.0766865211 0.1164019859 0.0001001643 0.0001401448 0.0002043824 -2.59357e-05 -0.4755172507 0.7001815699
485297090.0 -0.0756037661 0.1173361699 0.0001882046 0.0004244557 0.0003336157 6.96242e-05 -0.4684640216 0.7041800002
490297060.0 -0.0742123865 0.1181998925 0.0002542434 -5.2532e-06 0.0003185889 -3.63052e-05 -0.4612373077 0.7083841674
495297030.0 -0.0736444068 0.1192230741 3.4262e-06 0.000256541 0.0001347272 -3.20895e-05 -0.4537178622 0.7127880425
500297000.0 -0.0724305036 0.1198624892 0.0001510296 -3.95011e-05 0.0002245916 -9.06784e-05 -0.447018611 0.7177975898
505296970.0 -0.0713063788 0.1205699761 0.0001915717 -9.9561e-06 -2.22364e-05 -3.86295e-05 -0.4404799977 0.7220308204
510296940.0 -0.0703433869 0.1217383182 0.0002243692 1.80711e-05 0.000251347 0.0001958587 -0.4320116436 0.7262247811
515296910.0 -0.0693900485 0.1227892798 0.0001173968 -0.0001345185 0.0001242317 -1.01634e-05 -0.4252569006 0.7305648471
520296880.0 -0.0680488454 0.1234618859 4.49147e-05 -9.16522e-05 0.0002841244 -2.7309e-06 -0.4178363525 0.7350193189
525296850.0 -0.0671374778 0.1240241055 -9.09573e-05 0.0001363467 0.0001372355 -3.66482e-05 -0.4102900053 0.7394833142
530296820.0 -0.0660901538 0.1249724331 0.000283025 -9.0982e-05 8.43614e-05 6.93505e-05 -0.4034134923 0.7426541062
535296790.0 -0.064587628 0.1256794826 2.78626e-05 3.14913e-05 1.77901e-05 0.0001847421 -0.3958184767 0.7467949339
540296760.0 -0.0638158521 0.126489223 0.0002801033 0.0003081502 -4.00745e-05 0.0001358889 -0.3886695018 0.7512655505
545296730.0 -0.0627157192 0.1274261759 -0.0001355811 -6.18568e-05 0.0001626487 -6.07261e-05 -0.3810060924 0.7542632035
550296700.0 -0.0617391652 0.1282853632 0.0002222396 0.0001768458 4.11992e-05 0.0001505508 -0.373724972 0.7579583691
555296670.0 -0.0602051644 0.128877594 0.0003315952 -0.0001391903 0.0002960304 6.00286e-05 -0.3656882751 0.7617941983
560296640.0 -0.0591234622 0.129588693 0.0002307217 -2.98839e-05 0.0003514345 6.15697e-05 -0.3582389398 0.7651649146
565296610.0 -0.0581540128 0.1303018034 4.9868e-05 0.0001734538 -3.7134e-06 0.0001605049 -0.3507313915 0.769181266
570296580.0 -0.0568548988 0.1310815625 0.0003075836 -5.90971e-05 0.0001099072 -2.07637e-05 -0.3436824699 0.7727410151
575296550.0 -0.0556863691 0.131737572 0.0001595051 5.0798e-05 0.0002579719 -3.55218e-05 -0.3350595638 0.7756552888
580296520.0 -0.0542322009 0.132641594 0.0001600968 0.0001035615 0.0002653951 0.0001459964 -0.3273510221 0.7792171428
585296490.0 -0.0532046833 0.1334238166 0.0001994018 0.0002260178 0.0003666697 4.16771e-05 -0.3195536636 0.7819410988
590296460.0 -0.0521134845 0.1339730287 0.0003045002 0.0001339762 0.0001970216 0.0001349339 -0.3122363301 0.7849951576
595296430.0 -0.0506494352 0.1349715467 0.0003391413 5.5554e-05 0.000169658 0.0002445194 -0.304378453 0.7876540627
600296400.0 -0.0495078203 0.1354809442 4.33975e-05 0.0004025929 0.0003051544 -0.000181638 -0.2964622513 0.790831151
605296370.0 -0.0481478424 0.1360993912 0.0001807538 -2.7897e-05 0.0002911982 0.0001286955 -0.2885528857 0.7946114997
610296340.0 -0.04686025 0.1369357856 9.71e-05 -3.25098e-05 0.0001233203 -2.38916e-05 -0.2806121086 0.7975269755
615296310.0 -0.0457568931 0.1373534827 0.0002448806 0.0001111552 0.0002136868 0.000126013 -0.2729312085 0.7991425544
620296280.0 -0.0444534522 0.137966254 0.0002962491 0.0001136268 -0.0001627029 -0.0002615631 -0.2654925231 0.8023522355
625296250.0 -0.043165149 0.1384964991 0.0003778781 -0.0001140826 0.0002434717 -4.55506e-05 -0.2568780156 0.8047901579
630296220.0 -0.0416200043 0.1393326224 9.15684e-05 -4.62758e-05 0.0002204553 1.03849e-05 -0.2491893562 0.8074092811
635296190.0 -0.0406902311 0.1397729003 0.0001206343 0.0001516 0.0002882128 0.0001190478 -0.2413076451 0.8094912259
640296160.0 -0.0390607079 0.140182887 0.0003235096 0.0001258889 0.0003415409 9.84444e-05 -0.232690175 0.8117753691
645296130.0 -0.038048849 0.1410281354 0.0003060876 0.0001455663 0.0002754599 -2.79084e-05 -0.2254426257 0.8137165763
650296100.0 -0.0365307711 0.1416033411 -0.0001203277 6.6267e-05 0.0002203351 8.72396e-05 -0.2168188555 0.8167661837
655296070.0 -0.0351836838 0.1422154023 0.000250617 -6.3023e-05 1.45217e-05 3.05465e-05 -0.2088676781 0.8181471034
660296040.0 -0.0339145275 0.1429422424 0.0003694216 0.0002258614 0.0002008911 1.04828e-05 -0.2011582864 0.8205325449
665296010.0 -0.0324573551 0.1433174795 8.81602e-05 -7.00687e-05 0.0001255854 0.0001159015 -0.193047085 0.8220644526
670295980.0 -0.0313752286 0.1436918606 0.0001722732 -8.69701e-05 0.0002237985 9.52305e-05 -0.1854412386 0.8240942225
675295950.0 -0.0297851125 0.144171286 0.0003687847 5.41962e-05 0.0002411165 -0.000158562 -0.1764269862 0.8261605451
680295920.0 -0.0287377271 0.1451208995 0.0002601148 0.0001640814 0.0003760773 -6.34814e-05 -0.1681446656 0.8274984537
685295890.0 -0.0270241038 0.1452416815 0.0002222209 -0.0001246162 0.0001774018 -0.0002221012 -0.1604960948 0.8291533358
690295860.0 -0.0255244345 0.1455653826 0.0002562306 0.0001609359 0.0002343858 0.0001138736 -0.1520309541 0.8313579304
695295830.0 -0.0242723049 0.1461539867 0.0002385801 -0.000117529 0.0004286328 -8.5508e-06 -0.1439444557 0.8325911791
700295800.0 -0.0228873701 0.1465500307 0.0003179492 6.09131e-05 9.44312e-05 -0.0001501749 -0.1356583218 0.833479591
705295770.0 -0.021396572 0.1470214924 0.0001782101 -7.36784e-05 0.0002720105 1.2593e-05 -0.1275850747 0.8351610723
710295740.0 -0.0201052973 0.147498834 0.0001501041 7.02915e-05 0.0003144805 -0.000125629 -0.1194574369 0.8368513583
715295710.0 -0.0190435696 0.1479723219 0.0002575639 9.0752e-06 0.0003718074 4.51977e-05 -0.1116161106 0.8374976434
720295680.0 -0.0174151919 0.148087169 0.0003244764 -7.68431e-05 0.0002183169 5.48709e-05 -0.1026854707 0.8387218411
725295650.0 -0.0160718283 0.1486668231 -5.7773e-06 1.16709e-05 0.0001763282 4.72119e-05 -0.0940832836 0.8396609727
730295620.0 -0.0144180799 0.1488613894 -2.10053e-05 -5.54328e-05 0.0005078271 -0.0002050672 -0.0860182784 0.8404201912
735295590.0 -0.0128250709 0.149032637 0.0003802669 0.0001208297 0.0003090421 9.9521e-06 -0.0772874585 0.8413430221
740295560.0 -0.0117777363 0.1496677837 0.0001486121 4.59526e-05 0.0002799151 8.30721e-05 -0.0694083423 0.8412631574
745295530.0 -0.0103046109 0.1497730251 0.0001572966 -0.000271834 0.0001671942 -2.81544e-05 -0.0610633082 0.8426576971
750295500.0 -0.0089084342 0.15029365 0.0003192746 3.87684e-05 0.0003035819 -0.0002202313 -0.0525972405 0.843016917
755295470.0 -0.0070282176 0.1505039082 0.0003325835 -0.0002627558 7.41233e-05 -8.11515e-05 -0.0446596948 0.8440120927
760295440.0 -0.0059308561 0.1508815483 0.0004361774 -0.0002137563 0.0003726405 5.96946e-05 -0.0367538403 0.8441745741
765295410.0 -0.0044131063 0.150887413 0.0003264987 -8.19017e-05 0.0003379601 -7.97412e-05 -0.0279405798 0.8447269418
770295380.0 -0.0029929337 0.1514851622 0.0004220027 -0.0002175378 0.0002303737 -6.5675e-06 -0.0195541979 0.8445887407
775295350.0 -0.0016047696 0.1517884797 0.0001280005 8.64549e-05 0.0001294748 -1.75062e-05 -0.0114435728 0.8444066265
780295320.0 -5.85142e-05 0.1514555801 0.0001780112 -0.0001021877 0.0002142757 -2.84396e-05 -0.0028339845 0.8449934184
785295290.0 0.0014191568 0.1522108264 -0.0001225138 -7.62597e-05 0.0003376922 6.87821e-05 0.0046006315 0.8449899992
790295260.0 0.0026417914 0.1524038659 8.69749e-05 -0.0002345298 0.0003802603 -5.38186e-05 0.013896384 0.8445468051
795295230.0 0.0043034105 0.1526877932 0.0003951991 -7.07739e-05 0.0002584653 -0.0001127297 0.0220308658 0.8448219716
800295200.0 0.0057599433 0.1527210873 0.0004150479 -0.0002245504 0.0004362264 0.0001711727 0.0300185056 0.8443453809
805295170.0 0.007246387 0.152625145 0.0002769954 4.0628e-05 0.0002991703 -0.0002409867 0.0380614301 0.8434936568
810295140.0 0.0089267326 0.1528157036 0.0001273113 -0.0001129362 0.0002484804 0.0001928108 0.0462009602 0.844274273
815295110.0 0.0103730436 0.1532186162 0.0002436701 -4.24009e-05 0.0002862702 -5.63947e-05 0.0545736734 0.8432670866
820295080.0 0.0116810701 0.1527160935 -5.00032e-05 -0.000143703 0.0003069345 1.6839e-05 0.0625193828 0.8424423739
825295050.0 0.0132406791 0.1531442635 0.000517222 -7.10151e-05 0.0001805313 -6.12726e-05 0.0711059935 0.8421365892
830295020.0 0.0148665834 0.1533826855 0.0005509282 -0.000372006 0.0002263806 -0.0001174084 0.0791652573 0.8412443208
835294990.0 0.0162002051 0.1536185814 0.0002669651 -5.15292e-05 0.0003173958 4.50284e-05 0.0875824341 0.8400043753
840294960.0 0.0176128005 0.1535261694 0.0004554163 -4.22299e-05 0.000295246 -0.0003891326 0.095778235 0.8394903881
845294930.0 0.0190458787 0.1537593385 0.00025633 -0.0001048415 0.0002304639 -9.29336e-05 0.1040644265 0.8385220653
850294900.0 0.0206130057 0.1534614351 0.0002635044 -7.94445e-05 0.0001423969 9.923e-07 0.112437483 0.8375738272
