!Created with skrf (http://scikit-rf.org).
# Hz S RI R 50.0 
!freq ReS11 ImS11 ReS21 ImS21 ReS12 ImS12 ReS22 ImS22
300000.0 -0.1016740328 -0.0664875802 0.6330018322 0.0623135261 0.625758006 0.0623844623 -0.1032387323 -0.0746199541
5299970.0 -0.1018889512 0.0134307433 0.6305238861 0.0098941019 0.6301940252 0.0100861071 -0.1008156663 0.0131047664
10299940.0 -0.0972782331 0.0292068387 0.6339784443 0.0154425453 0.63421064 0.015835354 -0.0958456204 0.0303393302
15299910.0 -0.0901221457 0.0426417812 0.6406212671 0.0205432433 0.6404853026 0.0202985402 -0.0887475193 0.0437972004
20299880.0 -0.0815920895 0.0531140516 0.6486341287 0.024120032 0.648412085 0.0240846333 -0.0797464192 0.0547286033
25299850.0 -0.0722679355 0.0622000027 0.6573871433 0.025388181 0.6574217678 0.0252432216 -0.0698988054 0.0632873848
30299820.0 -0.0620947508 0.0686775082 0.6678069668 0.0242851366 0.6672285525 0.0241225513 -0.0597715365 0.0700793199
35299790.0 -0.0526023261 0.0736133334 0.6771065618 0.0214276392 0.6772418064 0.0211248255 -0.0497940662 0.0748621177
40299760.0 -0.0430535419 0.0771112427 0.6859596395 0.0170829197 0.6865041924 0.0175959216 -0.0404708579 0.0773022212
45299730.0 -0.0340295492 0.0793561117 0.6949553583 0.0114855341 0.6954825518 0.0117162411 -0.0310933456 0.0798201516
50299700.0 -0.0256168981 0.080145726 0.7036552082 0.0045286059 0.7035044151 0.0053417552 -0.0228655701 0.0803759165
55299670.0 -0.017653195 0.0804489223 0.7107682689 -0.0035352247 0.7108626746 -0.0022137218 -0.0151297304 0.0807321619
60299640.0 -0.0099982152 0.0797903507 0.7169909048 -0.0117997691 0.7177377554 -0.0108116097 -0.0078921204 0.0795083042
65299610.0 -0.0037648766 0.078743756 0.7230374153 -0.020729225 0.7233637729 -0.0198620616 -0.0014937651 0.0783360405
70299580.0 0.0027803264 0.0775240616 0.728929751 -0.0294116235 0.7286171547 -0.0292330696 0.0045919912 0.0769821726
75299550.0 0.0079863655 0.0758368392 0.7325509443 -0.0388969412 0.7323504662 -0.0387922243 0.0102236047 0.0744538944
80299520.0 0.0128955445 0.0736029153 0.7373146731 -0.0493022011 0.7371748204 -0.0491440392 0.0153184274 0.0728158996
85299490.0 0.0178777098 0.0712702209 0.7400499827 -0.0585646596 0.7404520863 -0.0586835637 0.0192618001 0.069881182
90299460.0 0.0216727538 0.0689150685 0.7423803211 -0.0687972678 0.7434109562 -0.0690701299 0.0235879157 0.0678329549
95299430.0 0.0260064657 0.06650728 0.7456772024 -0.0787931447 0.7459447884 -0.0792355533 0.0274174269 0.0658968208
100299400.0 0.0290507861 0.0647644916 0.7468861756 -0.0891269792 0.747075001 -0.0893812837 0.031046733 0.0625980625
105299370.0 0.0323218684 0.0621203548 0.7486669891 -0.0996105048 0.7492039488 -0.0994338841 0.0341214837 0.0607435564
110299340.0 0.034914468 0.059752459 0.7500824345 -0.1090768271 0.7494998081 -0.1092732484 0.0361409541 0.0577963794
115299310.0 0.0375236926 0.0572484691 0.7507466485 -0.1195987113 0.7509171678 -0.119316191 0.0389554518 0.0554396521
120299280.0 0.0398156109 0.0545964691 0.7510884744 -0.129418262 0.7514122747 -0.1293245651 0.0413377027 0.0529715601
125299250.0 0.0419627201 0.0523251131 0.7513776211 -0.1388879841 0.7514769433 -0.1387948232 0.0429197842 0.0502362968
130299220.0 0.0433794351 0.0502112716 0.7512089545 -0.1495788414 0.7514233503 -0.1492019213 0.0447517111 0.0480798903
135299190.0 0.0452769246 0.0482994925 0.7512930045 -0.1588837316 0.7508647289 -0.1588181526 0.0463749366 0.0461636521
140299160.0 0.0466893036 0.0461167269 0.7509954409 -0.1695874758 0.7508615348 -0.169035047 0.0481806136 0.0444995976
145299130.0 0.0481382223 0.0439651532 0.7500541654 -0.1785043405 0.7495785003 -0.1783858805 0.0494669831 0.0420802483
150299100.0 0.0497089772 0.042038209 0.7485376492 -0.1873063628 0.7490057659 -0.1878088078 0.0509320218 0.040172556
155299070.0 0.0501271299 0.0398030561 0.7476152842 -0.1982874674 0.74790173 -0.1982619356 0.0518407021 0.038270957
160299040.0 0.0518642433 0.0380696549 0.746288447 -0.2073406231 0.7457678369 -0.2077850141 0.0522649104 0.0359478352
165299010.0 0.0524565647 0.0363498663 0.7444872994 -0.2168709431 0.7448073697 -0.2169460496 0.0533680353 0.0350087689
170298980.0 0.0532473869 0.0340377173 0.7429104973 -0.2264758305 0.7430341287 -0.2264175858 0.054328558 0.0330066493
175298950.0 0.0536774359 0.0320790762 0.7411513872 -0.2355774591 0.7406649406 -0.2356274658 0.0549457481 0.0313931689
180298920.0 0.0541905162 0.0304913792 0.7386740751 -0.2444687305 0.7388731459 -0.2447658528 0.0556316502 0.0294366987
185298890.0 0.0554788305 0.0286376327 0.7366837358 -0.2538728702 0.7361851928 -0.253786138 0.0558784042 0.0281647448
190298860.0 0.0553655412 0.0273475199 0.7338425436 -0.2631666912 0.734631464 -0.2631157472 0.0561615654 0.0262359427
195298830.0 0.0560832714 0.0250254092 0.7313665472 -0.2720140294 0.7320825929 -0.2717782141 0.057399151 0.0251085653
200298800.0 0.0563795883 0.0238200935 0.7289964359 -0.2812062068 0.7289533653 -0.2810787615 0.0567219582 0.0236465579
205298770.0 0.0567868149 0.0226733473 0.7257580337 -0.2904135373 0.726038508 -0.289733008 0.0571331031 0.0216072335
210298740.0 0.0570522268 0.020765327 0.7226532141 -0.2984370512 0.7228732544 -0.2981936948 0.057993674 0.0211369391
215298710.0 0.0567437434 0.0196440188 0.7200971669 -0.3078068616 0.7194838097 -0.3074888141 0.0576921506 0.0195551289
220298680.0 0.0576876554 0.0176076568 0.7163778506 -0.3159103701 0.7170453774 -0.3159872425 0.0577250468 0.01794592
225298650.0 0.0576207429 0.0165914876 0.7141105331 -0.325285481 0.7135920171 -0.3245374527 0.0575275496 0.0164561694
230298620.0 0.0579303818 0.0157246095 0.7109484645 -0.3327893027 0.7109102823 -0.3332365036 0.05743384 0.0150802499
235298590.0 0.0579839194 0.0144307378 0.7068954404 -0.3417141323 0.7066341489 -0.3412800114 0.0576958006 0.0136792077
240298560.0 0.0579883897 0.0133001947 0.7035852944 -0.3499119031 0.7029242542 -0.350398656 0.0575927857 0.0130384718
245298530.0 0.057911119 0.011911022 0.6997801011 -0.3588390106 0.6994955349 -0.3586605996 0.0583290203 0.0110065383
250298500.0 0.0585757267 0.0109256132 0.6946596962 -0.3668569063 0.6951098825 -0.3661737918 0.0577533486 0.0103081544
255298470.0 0.0584744277 0.0094982986 0.6907295066 -0.3744742175 0.6917237305 -0.3743068634 0.0581709796 0.0090038465
260298440.0 0.0581149984 0.008148771 0.6877979035 -0.383180142 0.6875234469 -0.382296613 0.0584000031 0.0079571705
265298410.0 0.0587636985 0.0074131676 0.6836012109 -0.391063369 0.6837040973 -0.390367957 0.0582773627 0.0067711812
270298380.0 0.0584008964 0.0061185295 0.6798477785 -0.3985095254 0.6795769229 -0.3988122618 0.0579499735 0.005656295
275298350.0 0.0588480871 0.0050388962 0.6756565964 -0.4068732908 0.6754540347 -0.4072833351 0.0584495584 0.0041934756
280298320.0 0.0586606903 0.0043115442 0.6710834302 -0.4145187948 0.6712286789 -0.4146297757 0.0585873953 0.0032130216
285298290.0 0.0586573644 0.003100265 0.6666082561 -0.4218196285 0.6663583872 -0.4229352045 0.0584488385 0.0022592403
290298260.0 0.0590343389 0.0019395523 0.6614174003 -0.4301625285 0.6616869756 -0.4302469502 0.0586418373 0.0016941181
295298230.0 0.0589378651 0.0009081643 0.6575216059 -0.4380228525 0.6575108405 -0.4380955326 0.0592373172 0.0001706209
300298200.0 0.0582734707 -0.0003499003 0.6530204404 -0.4452929666 0.6531114404 -0.4461161394 0.0586366524 -0.0007039243
305298170.0 0.0589396905 -0.0014445889 0.6475255489 -0.4536294936 0.6480769233 -0.4534180698 0.0593234356 -0.0022067318
310298140.0 0.058476836 -0.0021986545 0.6429795875 -0.4608661838 0.6431815648 -0.4607848851 0.0591545851 -0.0029154391
315298110.0 0.0583424564 -0.0042554183 0.6378400132 -0.4683594502 0.6382416282 -0.4687829468 0.0587245672 -0.0045716573
320298080.0 0.0583711304 -0.0050006007 0.6322645824 -0.4762107515 0.6326573595 -0.4757841847 0.0585870136 -0.0053035848
325298050.0 0.0577470862 -0.0063279703 0.6271956199 -0.4839852997 0.6273394858 -0.4838562301 0.0580180396 -0.0062868564
330298020.0 0.0574942523 -0.0073998145 0.6214743105 -0.4910071349 0.6213948952 -0.4911420008 0.0572762921 -0.0076049037
335297990.0 0.0573684071 -0.0086618791 0.6162374936 -0.4973055495 0.6155800406 -0.4982331032 0.0567052326 -0.0077421127
340297960.0 0.0560388217 -0.0091615985 0.6098727456 -0.5052016971 0.6089923523 -0.5053150964 0.0568299795 -0.0086360936
345297930.0 0.0557540312 -0.0094130346 0.6041445932 -0.5122569547 0.603721129 -0.5122918234 0.0562209709 -0.0095937565
350297900.0 0.0550227761 -0.0109518831 0.5981728036 -0.5188212057 0.5978675324 -0.5185377845 0.0553373354 -0.009741929
355297870.0 0.0548703805 -0.0107278918 0.5926481547 -0.52515835 0.592569774 -0.524804591 0.0553038478 -0.011013597
360297840.0 0.0544773976 -0.0115853413 0.5868458895 -0.5315672245 0.5872841933 -0.5314742936 0.0548473384 -0.0111544377
365297810.0 0.0539996852 -0.0121531008 0.5801715757 -0.5386948555 0.581189385 -0.5386491871 0.0546427009 -0.01174636
370297780.0 0.0541741516 -0.0133043482 0.5747488214 -0.544827972 0.5751720983 -0.5442975795 0.0541813214 -0.0124134863
375297750.0 0.0537584499 -0.0137110817 0.568885889 -0.5510035362 0.5693621231 -0.5516037529 0.0545044487 -0.0127323972
380297720.0 0.0535188354 -0.0144206666 0.5623390764 -0.5579453946 0.562979191 -0.5571378808 0.0532940738 -0.0140499661
385297690.0 0.0526820997 -0.0153360167 0.5560469907 -0.5638058548 0.5559593194 -0.5635242667 0.0532793517 -0.0141198538
390297660.0 0.0524836432 -0.0153374628 0.5503122454 -0.5703966817 0.5498848447 -0.5694888214 0.0526275626 -0.0151750213
395297630.0 0.0520368914 -0.0160401584 0.5440107351 -0.575829241 0.543744128 -0.5763048076 0.053240986 -0.0155640908
400297600.0 0.0515234646 -0.0167901796 0.536500694 -0.5831612193 0.5372383936 -0.58247617 0.0522712632 -0.0160616483
405297570.0 0.051149595 -0.017533031 0.531115212 -0.5883312132 0.5310752574 -0.587730653 0.0517309115 -0.0169404607
410297540.0 0.0512535961 -0.018071996 0.5247197898 -0.5939413447 0.5249274582 -0.5941223758 0.0510208813 -0.0170346001
415297510.0 0.0511179209 -0.0188702431 0.5173286259 -0.6003040229 0.5181920395 -0.5998761595 0.0512180978 -0.0177795541
420297480.0 0.0509187662 -0.0190798816 0.511234705 -0.6060649875 0.5114346141 -0.6057997459 0.0505781166 -0.0189364088
425297450.0 0.0500936175 -0.0207557851 0.5048451254 -0.611071636 0.5053434806 -0.6117568173 0.0493825637 -0.0190059023
430297420.0 0.0495688833 -0.0209643994 0.4974678507 -0.6165996503 0.4977993064 -0.6165819511 0.0493868942 -0.0199950288
435297390.0 0.0493619815 -0.0214003529 0.4905728402 -0.6227426157 0.4907544659 -0.6224326177 0.0500662459 -0.0206282483
440297360.0 0.0492665934 -0.0218474014 0.4842846039 -0.6274052785 0.484431816 -0.6279018232 0.048511438 -0.0215143152
445297330.0 0.0487662614 -0.0230210229 0.4776317203 -0.6331729393 0.477459254 -0.6323686898 0.0488173505 -0.022216072
450297300.0 0.048425803 -0.0233961228 0.4706453568 -0.6383683243 0.4703107769 -0.6387625891 0.0483803729 -0.0228866193
455297270.0 0.0483360004 -0.0237206665 0.463177648 -0.6437728255 0.4635554708 -0.6439928334 0.0482193262 -0.023097918
460297240.0 0.047685552 -0.024446583 0.456334191 -0.6486918029 0.4559695158 -0.6491868048 0.0477412202 -0.0237428464
465297210.0 0.0475479399 -0.0249260284 0.4488617042 -0.6540872952 0.4487276328 -0.6543944724 0.0475702241 -0.024750859
470297180.0 0.0470246429 -0.0257079415 0.4413217651 -0.6585003506 0.4417563778 -0.658699785 0.046981982 -0.0250159221
475297150.0 0.0466711066 -0.0264924075 0.4341918626 -0.6631730459 0.4347284906 -0.663027027 0.047117284 -0.0259679722
480297120.0 0.0460376799 -0.0261632883 0.4271706637 -0.6688892331 0.4271598952 -0.6686164635 0.0469200001 -0.0257494022
485297090.0 0.0456411144 -0.0270875668 0.41994125 -0.6728593273 0.4198356926 -0.6726637625 0.0462637845 -0.0269873878
490297060.0 0.0446564315 -0.0275400686 0.4125234985 -0.6778533637 0.4128449755 -0.677513586 0.0459276805 -0.026406516
495297030.0 0.0444043901 -0.0280070977 0.4048851864 -0.6822198632 0.4057261595 -0.6823014551 0.0452264835 -0.0276068154
500297000.0 0.044054101 -0.0290238606 0.3968452944 -0.6860472116 0.3970097335 -0.6862646163 0.0447408049 -0.0275884174
505296970.0 0.0436746243 -0.0293964863 0.3897010965 -0.691119229 0.3895958212 -0.6909919119 0.0445878185 -0.0280033926
510296940.0 0.0431893088 -0.0296635319 0.3823376602 -0.6951778483 0.3819461781 -0.6952861775 0.0441969463 -0.0283154642
515296910.0 0.0425342428 -0.0299268138 0.3746055501 -0.6993596755 0.3746146992 -0.6989940091 0.0439410343 -0.0288526629
520296880.0 0.0421439932 -0.0306347425 0.3668106574 -0.704318216 0.3671164382 -0.7036310597 0.0432134926 -0.0297296551
525296850.0 0.0419022886 -0.0315775182 0.3588287985 -0.7072067184 0.3595889381 -0.7074404693 0.0425020129 -0.0297696496
530296820.0 0.0412875099 -0.0316193197 0.3508586229 -0.7116270021 0.3512074379 -0.7116520366 0.042602903 -0.0301288544
535296790.0 0.040623985 -0.0317948758 0.3442081089 -0.7155798991 0.3438722169 -0.7147068275 0.0418413029 -0.0312571805
540296760.0 0.0398999419 -0.0320441266 0.3356799289 -0.7192315029 0.3356912605 -0.7192416214 0.0407322656 -0.0304208678
545296730.0 0.0397133477 -0.0325687178 0.3275356555 -0.7224158204 0.3275565786 -0.7224995678 0.0406453003 -0.0315302827
550296700.0 0.0396842017 -0.032753689 0.3197888518 -0.7262630653 0.3198659978 -0.7263910021 0.039740223 -0.0316052935
555296670.0 0.0384391113 -0.0333170394 0.3120906113 -0.7295283527 0.3122222551 -0.7294955517 0.0394307732 -0.032080093
560296640.0 0.0386250511 -0.0331004051 0.3038494987 -0.733034027 0.3040361317 -0.733239405 0.0387767379 -0.0323032113
565296610.0 0.0375123826 -0.0337660608 0.295337193 -0.7358400848 0.2960257761 -0.7365275802 0.0382133418 -0.032860616
570296580.0 0.0369757565 -0.0337842642 0.2880185272 -0.7399397536 0.2871638915 -0.7396901246 0.0374142184 -0.0323941469
575296550.0 0.0361871591 -0.0340881971 0.2797711657 -0.7429251519 0.2792802026 -0.7427774631 0.0375290476 -0.0333591538
580296520.0 0.0360654569 -0.0346440533 0.2714880754 -0.7460623688 0.2714967678 -0.745816611 0.0366726102 -0.0338166363
585296490.0 0.0353188929 -0.0359545581 0.2638390649 -0.7484304436 0.2634966404 -0.748740132 0.0359510265 -0.034083715
590296460.0 0.0353665307 -0.0356850779 0.2550904336 -0.7507425076 0.2548023841 -0.7511086854 0.0346846444 -0.0346300365
595296430.0 0.0349524219 -0.0359423482 0.2465924616 -0.754457474 0.2469752956 -0.7543967872 0.0349489017 -0.0349829984
600296400.0 0.0337009183 -0.0364882419 0.2382832329 -0.756829731 0.2388150128 -0.7566417837 0.0342640948 -0.0354315438
605296370.0 0.0333159985 -0.0367931193 0.2300639976 -0.7594036261 0.2306019779 -0.7597158904 0.0339232613 -0.0357014835
610296340.0 0.0329645944 -0.0369690741 0.2219289513 -0.7617770775 0.2225057202 -0.761627855 0.0337014527 -0.0360872925
615296310.0 0.0326447041 -0.037714631 0.2131421386 -0.7637342409 0.2139879674 -0.76476453 0.0330219883 -0.0365221356
620296280.0 0.0321121966 -0.0379560566 0.2054024945 -0.7660260585 0.2051133853 -0.7661592125 0.031826873 -0.0368445629
625296250.0 0.0311054928 -0.0386637161 0.1980115126 -0.7689544376 0.1968885521 -0.7688603435 0.0325318364 -0.0369561875
630296220.0 0.0317918068 -0.0382299016 0.1879889697 -0.7709387816 0.188161006 -0.7707852068 0.0312374862 -0.0370004207
635296190.0 0.0296166437 -0.0390833334 0.180317464 -0.7731256482 0.1803327723 -0.7728964631 0.0312866668 -0.03749932
640296160.0 0.0293991282 -0.0390030433 0.1716304744 -0.7744166763 0.1720348915 -0.7748364567 0.0304597645 -0.037742999
645296130.0 0.028899275 -0.039244621 0.1631171785 -0.7761077109 0.1633058384 -0.7765793719 0.0299742234 -0.0380571802
650296100.0 0.0282372656 -0.0397487213 0.1542799271 -0.7782301071 0.154889946 -0.7780989428 0.0298260071 -0.0390173951
655296070.0 0.0273768031 -0.0401466967 0.1457708028 -0.7797280977 0.1465696737 -0.7800730813 0.0291578275 -0.0388016283
660296040.0 0.0263759009 -0.0407172403 0.1376431212 -0.7815559768 0.1379766881 -0.7819829835 0.0291823054 -0.0387459055
665296010.0 0.0266273407 -0.0404597333 0.1287543949 -0.7827792998 0.1293619656 -0.7824087636 0.0280211864 -0.038497522
670295980.0 0.024729913 -0.0402988705 0.1208036517 -0.7841182978 0.1203230679 -0.7842066915 0.0273367064 -0.0387967049
675295950.0 0.0249322283 -0.0404439273 0.1123435638 -0.7849219666 0.1121939778 -0.7850089817 0.0265403814 -0.039279788
680295920.0 0.0238041621 -0.0413129663 0.1031574061 -0.7865119345 0.1031307194 -0.7868923446 0.0261004059 -0.0386591981
685295890.0 0.0238627855 -0.0404005401 0.0951423792 -0.7878704855 0.0946469927 -0.7877809832 0.0255815868 -0.0389921116
690295860.0 0.0233230986 -0.0410318842 0.0859453572 -0.7878897948 0.0860795424 -0.7889315345 0.024546616 -0.0387032991
695295830.0 0.0227537832 -0.0412090165 0.0778903926 -0.7890169467 0.0770800976 -0.7894953438 0.0242624936 -0.0386859892
700295800.0 0.0219997656 -0.0418807748 0.069104373 -0.7899220631 0.0685967261 -0.7898856863 0.0235611743 -0.0384033087
705295770.0 0.0211580153 -0.0408005297 0.060323562 -0.790689393 0.0605897959 -0.7909781466 0.02314822 -0.0390567198
710295740.0 0.0211609345 -0.0413498977 0.0522288485 -0.7920513635 0.0523406638 -0.7923177998 0.0226801536 -0.0396332776
715295710.0 0.0195706493 -0.0417309724 0.0440835614 -0.7922225087 0.0430593541 -0.791928364 0.0222241682 -0.0395763437
720295680.0 0.0194571983 -0.0418603054 0.0347183156 -0.7928676953 0.0348534915 -0.7918441012 0.0213421889 -0.0387233022
725295650.0 0.0192708631 -0.041732535 0.0262633991 -0.7929025347 0.0255637122 -0.793117423 0.0202148156 -0.0392094425
730295620.0 0.0186763845 -0.0414715724 0.0175916197 -0.7923558972 0.0172518455 -0.7935115746 0.0194477319 -0.0398408515
735295590.0 0.0178288602 -0.0415552969 0.0093448596 -0.7929487334 0.0086492667 -0.7933614311 0.0189059171 -0.0399729353
740295560.0 0.0170437784 -0.0416971873 7.36047e-05 -0.792714364 3.68135e-05 -0.7929908692 0.0187422649 -0.0396787921
745295530.0 0.0165816703 -0.0416232847 -0.0083970722 -0.7926339375 -0.0087534516 -0.7929037727 0.0182373059 -0.040289914
750295500.0 0.0160932229 -0.041954633 -0.0164889111 -0.7927601955 -0.0168220484 -0.7929336232 0.017320945 -0.0400736357
755295470.0 0.0155164355 -0.0423416588 -0.0248361665 -0.7924281266 -0.0257153063 -0.7928943081 0.0173866624 -0.0404120538
760295440.0 0.0146601906 -0.0418202076 -0.0342811646 -0.7921697432 -0.0349128343 -0.7925568873 0.0165584947 -0.0402588862
765295410.0 0.0142818741 -0.0420264776 -0.0430430802 -0.7918033811 -0.0431336734 -0.7917903404 0.0160379174 -0.0401309687
770295380.0 0.0132161016 -0.0420666893 -0.0520374781 -0.7912879123 -0.0521999064 -0.7911539742 0.0149829716 -0.0409509197
775295350.0 0.0127666389 -0.0428450941 -0.0601833993 -0.7906011197 -0.0598575965 -0.7907299771 0.0136313139 -0.040005662
780295320.0 0.0124270327 -0.0425108131 -0.0690020826 -0.7898892406 -0.0680961972 -0.7897377532 0.0134382372 -0.0412046878
785295290.0 0.0111855788 -0.0431064978 -0.0779919245 -0.7889678378 -0.0776558578 -0.7892818526 0.0137999302 -0.0407110927
790295260.0 0.011471092 -0.0417103141 -0.0853320835 -0.7880718191 -0.0851552462 -0.7881928115 0.012613795 -0.04091497
795295230.0 0.0103455066 -0.0424968242 -0.0942084427 -0.7871636357 -0.0938150746 -0.7876738382 0.012774773 -0.040306433
800295200.0 0.0096479173 -0.0421101922 -0.1038135839 -0.7860573848 -0.1031530962 -0.7857600873 0.0116350585 -0.0410657027
805295170.0 0.0088932451 -0.0425460402 -0.1117745776 -0.7847985631 -0.1118557703 -0.7848912123 0.0108492322 -0.0404887832
810295140.0 0.0078849553 -0.042867272 -0.120258609 -0.7833737765 -0.1198816036 -0.7835425191 0.0110094977 -0.0402995514
815295110.0 0.0078541907 -0.042781112 -0.1282734328 -0.7816435439 -0.128849936 -0.7819709738 0.0099362991 -0.0403223418
820295080.0 0.0066085797 -0.0416849967 -0.1371011589 -0.7804822014 -0.1368542261 -0.7806404437 0.0092348965 -0.0405113708
825295050.0 0.006900403 -0.0419873481 -0.1446381905 -0.7787481979 -0.1453054005 -0.7793135771 0.0090735232 -0.040210269
830295020.0 0.0058683919 -0.0421026448 -0.1543974298 -0.7775467265 -0.1535805548 -0.7771171901 0.0093995508 -0.0398964736
