!Created with skrf (http://scikit-rf.org).
# Hz S RI R 50.0 
!freq ReS11 ImS11 ReS21 ImS21 ReS12 ImS12 ReS22 ImS22
300000.0 -0.2339352891 -0.1360801425 0.466820133 0.0872712202 0.4673544408 0.0872395451 -0.2366526649 -0.1319779171
5299970.0 -0.2417082453 0.0049290013 0.4747486409 0.0061987699 0.475608228 0.0057791899 -0.2445457731 0.0048616176
10299940.0 -0.2386139115 0.0188157097 0.4773950059 0.0069652982 0.4768983272 0.0069508088 -0.2405592487 0.0171150806
15299910.0 -0.2336802612 0.0287275756 0.4805226135 0.0081725298 0.4807082718 0.0081820798 -0.2368966502 0.026244511
20299880.0 -0.228598558 0.036939521 0.4852727708 0.008152595 0.4852837563 0.0083194322 -0.2319916364 0.0340216819
25299850.0 -0.2224766636 0.0435622575 0.4904899275 0.0079603562 0.4909477788 0.0074760009 -0.2269738341 0.0400251857
30299820.0 -0.2169492443 0.048900491 0.4958685523 0.0050084535 0.4963676973 0.004901897 -0.2216788468 0.0449634333
35299790.0 -0.2113678136 0.052875269 0.501105482 0.0019888132 0.5014207714 0.0018365648 -0.2167138054 0.0492683999
40299760.0 -0.2060591637 0.0559453689 0.5065567173 -0.0020181074 0.5064422166 -0.0022090937 -0.211927188 0.0522956485
45299730.0 -0.2010011806 0.0587094293 0.5111002201 -0.0067520338 0.511351482 -0.0070734447 -0.2067641679 0.0549655348
50299700.0 -0.1959573503 0.0609490695 0.5152967275 -0.0125774281 0.5154709003 -0.0125964333 -0.2025677984 0.0569939814
55299670.0 -0.1919037213 0.0624375797 0.5190335935 -0.0178397253 0.5186498797 -0.0183622578 -0.1993271286 0.0585866659
60299640.0 -0.1876689118 0.0641411737 0.5223343703 -0.0246141587 0.5225380257 -0.0245080468 -0.1952453781 0.0597000698
65299610.0 -0.1841884048 0.0653123911 0.5257333775 -0.0312166385 0.5255236129 -0.0310933788 -0.1918703275 0.0610338759
70299580.0 -0.1807706956 0.0656925239 0.5277210329 -0.0373676847 0.5277138624 -0.0375154934 -0.189011735 0.0617139268
75299550.0 -0.1779835667 0.0667393049 0.5293699009 -0.0447352313 0.5298083183 -0.0442700323 -0.1861524947 0.0627862721
80299520.0 -0.1751246794 0.0679155996 0.5311905869 -0.0516365647 0.5316246532 -0.0515868068 -0.183828735 0.0638199802
85299490.0 -0.1725817975 0.0681869226 0.5326446618 -0.0580432347 0.5329835159 -0.0578411555 -0.1814170671 0.0641683148
90299460.0 -0.1703230781 0.0690813998 0.5334125101 -0.0649659114 0.5333805118 -0.0647168095 -0.1791621787 0.0647913578
95299430.0 -0.168107656 0.0694842706 0.5343117957 -0.0718965484 0.5348045453 -0.0720460502 -0.1776155935 0.065613238
100299400.0 -0.1658860623 0.0704186318 0.5348193778 -0.0786228743 0.5349403248 -0.0792726516 -0.1758462301 0.0663710689
105299370.0 -0.1639937167 0.070888544 0.535336194 -0.0857039364 0.5356006968 -0.085859128 -0.1737769276 0.0670278732
110299340.0 -0.1623306474 0.0714466986 0.5352801288 -0.0919777543 0.5357143642 -0.0920178005 -0.1727305623 0.0673241233
115299310.0 -0.160874737 0.0722923023 0.5355381375 -0.0991163749 0.5353584885 -0.0990853736 -0.1713445115 0.0682486774
120299280.0 -0.1595061571 0.073266271 0.5354571607 -0.1065147286 0.5351599817 -0.1064279197 -0.1700780018 0.0688268792
125299250.0 -0.1580195289 0.0739138089 0.5347392883 -0.1129677195 0.5349537213 -0.1127700279 -0.1686700574 0.0699104784
130299220.0 -0.1566135982 0.0745648374 0.5346575095 -0.1199776782 0.5342588801 -0.120235364 -0.1678064968 0.0704518828
135299190.0 -0.155446286 0.0758260509 0.5336173111 -0.1256593337 0.5341268983 -0.126556633 -0.1665521979 0.0711165887
140299160.0 -0.1543075846 0.076948235 0.5331643913 -0.1332515698 0.5329001625 -0.1326315159 -0.1660466736 0.0718830854
145299130.0 -0.1534602104 0.0779022779 0.531588929 -0.1393363233 0.5319239464 -0.139510954 -0.1650273994 0.0729808152
150299100.0 -0.1519371405 0.0789082546 0.5304651101 -0.1462546277 0.5305821564 -0.1465621037 -0.1638447612 0.0742571947
155299070.0 -0.1511040241 0.0800718456 0.5291544842 -0.1524751581 0.5294949433 -0.1526821251 -0.1633096692 0.0747049941
160299040.0 -0.1498704364 0.0813626125 0.5282225559 -0.1588696251 0.5280633941 -0.15919067 -0.1625887229 0.0763162954
165299010.0 -0.1486887553 0.0822011995 0.5266436966 -0.1651588154 0.5265173234 -0.1654841134 -0.1615177049 0.076797355
170298980.0 -0.1478822492 0.0834136855 0.5247416714 -0.1717565318 0.5251258007 -0.1717511927 -0.1610472176 0.0778486042
175298950.0 -0.1468996686 0.0845185596 0.5237812429 -0.1778060977 0.5237399655 -0.1781263576 -0.1604304593 0.0792635015
180298920.0 -0.1460931819 0.0858520112 0.5219996382 -0.1843012993 0.521524244 -0.1847711022 -0.1593022311 0.0802879307
185298890.0 -0.1452103654 0.0872500561 0.520198889 -0.1905935209 0.5199308435 -0.1905581396 -0.1584373314 0.0811199437
190298860.0 -0.1438927711 0.08868398 0.5175050462 -0.1967158937 0.5180619807 -0.1964358257 -0.1578258942 0.0825423073
195298830.0 -0.1429106148 0.0899563268 0.5163856138 -0.20254722 0.5162991464 -0.2028164752 -0.1573634559 0.083765038
200298800.0 -0.141881865 0.0912837728 0.5140131148 -0.2092822943 0.5139574708 -0.2091554144 -0.1562258111 0.0843811816
205298770.0 -0.1414270327 0.0925804462 0.5116921297 -0.2149646679 0.5116034978 -0.214774084 -0.1552615956 0.08587194
210298740.0 -0.1402583918 0.0940455801 0.5095443932 -0.2210325421 0.5094843988 -0.2209109446 -0.1550821818 0.087006367
215298710.0 -0.1390842372 0.0956287208 0.5070472247 -0.2266612976 0.5068744556 -0.2271039861 -0.1540124183 0.0882670722
220298680.0 -0.1382655941 0.0967394124 0.5047607429 -0.2325397527 0.5046890104 -0.2329348404 -0.1532222453 0.0897459544
225298650.0 -0.1373855948 0.0983170374 0.5019680711 -0.2385941339 0.5026155463 -0.2379961451 -0.1528530103 0.0906054034
230298620.0 -0.1361671583 0.0999279184 0.4998120762 -0.2442233238 0.4998857914 -0.2446109669 -0.151973361 0.0920858477
235298590.0 -0.1353615582 0.1013902605 0.4970320298 -0.250625282 0.4973673477 -0.2502930317 -0.1511081522 0.0934750539
240298560.0 -0.1343620305 0.1026689656 0.4942080106 -0.2554650718 0.4944438754 -0.2561450897 -0.1502841604 0.0946021013
245298530.0 -0.1334122944 0.103940835 0.491710638 -0.261546677 0.4918336021 -0.2618600093 -0.1495380728 0.0959397232
250298500.0 -0.1323054265 0.1055871267 0.4890687221 -0.2669262423 0.4888389289 -0.2671882931 -0.1488803293 0.0972416998
255298470.0 -0.1311481286 0.1072229039 0.4860032146 -0.2724222258 0.4864344072 -0.272696812 -0.1480780664 0.0988137621
260298440.0 -0.1301986727 0.1083186886 0.4834329964 -0.2776974336 0.4830401738 -0.2779270519 -0.1474937085 0.0996823282
265298410.0 -0.1292092917 0.1100244057 0.4798396741 -0.2838593262 0.4800772763 -0.284144245 -0.1457638681 0.1009700095
270298380.0 -0.128432309 0.1111217987 0.4768366093 -0.2889303962 0.4771016733 -0.2891277044 -0.145150487 0.1027925908
275298350.0 -0.1268883331 0.113034334 0.4732892095 -0.2943465063 0.4734940688 -0.2944972054 -0.144353816 0.1041799639
280298320.0 -0.1263040832 0.1141570929 0.4708005418 -0.2992762193 0.4709450065 -0.299928272 -0.1433163607 0.1056033871
285298290.0 -0.1249284889 0.1160152885 0.4671850995 -0.3050522411 0.4678672662 -0.3051934206 -0.1426839494 0.1073094035
290298260.0 -0.12374611 0.1173947762 0.4643526473 -0.3104428942 0.4643910367 -0.3104817603 -0.1416118316 0.1080635515
295298230.0 -0.122428347 0.1182656812 0.4609025174 -0.315934098 0.4610294909 -0.3163276408 -0.1404980699 0.1093905316
300298200.0 -0.1213780533 0.1203381166 0.4575170455 -0.3212927935 0.4576818679 -0.3204960378 -0.1396817767 0.1106246187
305298170.0 -0.1202066336 0.1212071241 0.4541273657 -0.3262823876 0.4543511346 -0.3261064816 -0.1387674349 0.1114456527
310298140.0 -0.1185229083 0.1226578876 0.4502735733 -0.3315119459 0.4506672861 -0.3313261533 -0.1374173182 0.1131826892
315298110.0 -0.117737889 0.1236373829 0.4469385067 -0.33681267 0.4470359476 -0.3367969588 -0.1365195872 0.1142911108
320298080.0 -0.1165382516 0.1251345396 0.4426455371 -0.3417929107 0.4437998101 -0.3421338783 -0.1356303716 0.1157534566
325298050.0 -0.1155421232 0.125943091 0.4390380472 -0.3464323394 0.4397474273 -0.3466321854 -0.1347260689 0.1164846003
330298020.0 -0.1149725386 0.1276865608 0.4354672003 -0.3519679724 0.4355307186 -0.3523268455 -0.1338988837 0.1178701855
335297990.0 -0.1135817728 0.1287564874 0.4312024521 -0.3563190049 0.4317865709 -0.3566717734 -0.1329977091 0.1193931537
340297960.0 -0.112462415 0.130325554 0.4268574417 -0.3614931242 0.4272328723 -0.3613879615 -0.1320084481 0.1208222712
345297930.0 -0.1113031247 0.1315433888 0.4232578525 -0.3662867975 0.4234334234 -0.3663928137 -0.1310740751 0.1219327331
350297900.0 -0.1100889181 0.1329317149 0.4193198576 -0.3702950653 0.4195370078 -0.3706041835 -0.1299333607 0.1231393568
355297870.0 -0.1085415095 0.1345094343 0.4150191287 -0.3752343525 0.4151527577 -0.3749514889 -0.1288704328 0.1248643805
360297840.0 -0.1074620391 0.1355584992 0.4106726695 -0.3793657463 0.4112308634 -0.3801869142 -0.1277808953 0.1262161143
365297810.0 -0.1063511883 0.1372017965 0.4067373402 -0.3845005944 0.4068480636 -0.3845094572 -0.1268498558 0.1273202393
370297780.0 -0.1046872496 0.1381657705 0.4014620898 -0.3887343769 0.40270429 -0.3886971975 -0.1255925784 0.1286903197
375297750.0 -0.1033831744 0.1395872379 0.3983563656 -0.3930355137 0.3983033214 -0.3929490211 -0.1246192377 0.129853797
380297720.0 -0.1024846088 0.1411427881 0.3942050429 -0.3978143365 0.394018819 -0.3979296538 -0.123263401 0.1318712926
385297690.0 -0.1008585627 0.1419501322 0.389212325 -0.4015901742 0.3896591953 -0.402208478 -0.121778477 0.1330567975
390297660.0 -0.0988859616 0.1433307736 0.3849550196 -0.4056122879 0.385109347 -0.405965155 -0.1204565858 0.1338861681
395297630.0 -0.0976420288 0.1446579302 0.3808790872 -0.4095454434 0.3804022743 -0.4102015447 -0.119523773 0.135582725
400297600.0 -0.0965209299 0.1459214891 0.3763767513 -0.4146779848 0.3763174459 -0.4142725096 -0.1179837551 0.1370173916
405297570.0 -0.0949094155 0.1466972831 0.3717048659 -0.4184629829 0.3718411205 -0.4184941249 -0.1166274417 0.1383250548
410297540.0 -0.0930578214 0.1484135633 0.3670513422 -0.4226624377 0.3673820387 -0.422491275 -0.1157570638 0.1395477659
415297510.0 -0.091739057 0.149204844 0.3622729413 -0.4261142033 0.3625908601 -0.4267578821 -0.1138885236 0.1411414716
420297480.0 -0.0901635783 0.1500823972 0.3574486166 -0.4306444024 0.3578519158 -0.4306105735 -0.1124776093 0.1424461767
425297450.0 -0.0882490789 0.1512365562 0.3532617214 -0.4340283628 0.3526101727 -0.4341630951 -0.1112853347 0.1426712872
430297420.0 -0.0870851195 0.1523172728 0.3486922601 -0.4382464209 0.3486133898 -0.4377962774 -0.1098361023 0.1443952716
435297390.0 -0.0853423542 0.1532481051 0.3434067392 -0.4422691948 0.3433325229 -0.4420388715 -0.1089364598 0.1461615653
440297360.0 -0.0831691814 0.1542638421 0.338503759 -0.4455565913 0.3382695037 -0.4458589379 -0.1074058461 0.1472579583
445297330.0 -0.0816504891 0.1549624694 0.3337307242 -0.4488903559 0.3339260232 -0.4497509182 -0.1058842207 0.1483818368
450297300.0 -0.0803430493 0.156334973 0.3288664579 -0.4526888736 0.328592228 -0.4527135355 -0.1041582657 0.1495531124
455297270.0 -0.0788994915 0.1573083849 0.3241173152 -0.4567861692 0.3241612672 -0.4566489776 -0.1028312757 0.1506673939
460297240.0 -0.0765510217 0.1583778331 0.3186337239 -0.4607093743 0.3192833219 -0.4604396544 -0.1014119329 0.1517399825
465297210.0 -0.0750370435 0.1591004041 0.3133960216 -0.4632568187 0.313493836 -0.4638527762 -0.0995906147 0.1530658904
470297180.0 -0.0732594542 0.1598837382 0.3085261871 -0.4666993129 0.3089923853 -0.4668380258 -0.0982923652 0.1541006305
475297150.0 -0.0716502042 0.1610988355 0.3033784507 -0.4695562729 0.303615831 -0.4708181994 -0.0969280866 0.1550934931
480297120.0 -0.0692753077 0.1623567829 0.2982220825 -0.4733686828 0.2991536058 -0.4732995791 -0.0957309739 0.156087558
485297090.0 -0.0678223125 0.1625997677 0.293259481 -0.4767704915 0.2931985843 -0.4764559067 -0.0939275242 0.1574567666
490297060.0 -0.0652941336 0.163755531 0.2875187889 -0.4798236866 0.288158715 -0.480129803 -0.092414329 0.158104427
495297030.0 -0.0638785502 0.164333065 0.2831949254 -0.4830079043 0.2828265231 -0.4831370741 -0.0904036272 0.1589595838
500297000.0 -0.0622591656 0.1653097247 0.2775692608 -0.4856536095 0.2771883773 -0.4867342697 -0.0888971579 0.160694475
505296970.0 -0.0598700938 0.166373582 0.2721860123 -0.4889755478 0.2721925 -0.488869201 -0.0875851485 0.1607419687
510296940.0 -0.0582787912 0.1668285149 0.2671111197 -0.492556581 0.2673060295 -0.4922764615 -0.0856160632 0.1622943309
515296910.0 -0.0563906275 0.1678483695 0.2616216806 -0.4947986194 0.2607637634 -0.4946274244 -0.0841995839 0.1627934189
520296880.0 -0.0543727299 0.1686144816 0.2559930333 -0.4977472971 0.2558013121 -0.4971114252 -0.0821841774 0.1641459622
525296850.0 -0.0522469521 0.1691348549 0.2504750227 -0.5003336597 0.2503776807 -0.5003012617 -0.0806621031 0.1650767277
530296820.0 -0.0506726521 0.1698173886 0.2449481961 -0.5027529872 0.2450952405 -0.5031328119 -0.0790247441 0.1655723952
535296790.0 -0.0479935654 0.1704835881 0.239653672 -0.5053341769 0.2397866315 -0.5057548632 -0.0772659441 0.1671963857
540296760.0 -0.0463424572 0.1714742566 0.2338209774 -0.5082412565 0.2338680961 -0.5078550299 -0.0759162854 0.1675027657
545296730.0 -0.0446873063 0.1723218634 0.2285131992 -0.510547835 0.2284059631 -0.5102505463 -0.0741445396 0.1685969634
550296700.0 -0.0421909281 0.1727309909 0.2230508311 -0.5130325294 0.2229006959 -0.5130064878 -0.0725150408 0.1692205274
555296670.0 -0.0403187333 0.173383578 0.2170493277 -0.5157446292 0.2171738938 -0.5153131053 -0.0708544742 0.1697195218
560296640.0 -0.037704537 0.1740326304 0.2111986982 -0.5175690621 0.2119590222 -0.5176326692 -0.0692075994 0.1712388698
565296610.0 -0.0365734281 0.1745794074 0.2064208021 -0.5199879747 0.2063387805 -0.5196048981 -0.0671228291 0.1720191777
570296580.0 -0.0343414104 0.1753803993 0.2000987543 -0.5220226852 0.2003781045 -0.5221854355 -0.0659220906 0.1725532887
575296550.0 -0.0321129627 0.1758258218 0.1949155731 -0.5241460711 0.1948946312 -0.5244116802 -0.064228679 0.1733096318
580296520.0 -0.0302990995 0.1766402691 0.1893559452 -0.5260191903 0.1889185996 -0.526391554 -0.0626411997 0.1738569485
585296490.0 -0.0281210358 0.1770743964 0.1834212738 -0.5278316286 0.1830309361 -0.5283190693 -0.0604850518 0.1748932383
590296460.0 -0.0257149709 0.1775105852 0.1775792326 -0.5300291404 0.1776237149 -0.5304078609 -0.0592088751 0.1754433063
595296430.0 -0.02364004 0.178030931 0.1716073147 -0.5320804845 0.171521792 -0.5323080552 -0.0571453113 0.1762083866
600296400.0 -0.0217049315 0.1787164237 0.1655617372 -0.5337545443 0.1657989435 -0.5337927409 -0.0551738696 0.1768271348
605296370.0 -0.0197607945 0.1788131834 0.160371527 -0.5357094684 0.1598401333 -0.5359364885 -0.053693128 0.177602933
610296340.0 -0.017474748 0.1796132975 0.1542841796 -0.5366297783 0.15443915 -0.5370476185 -0.052104104 0.1783993929
615296310.0 -0.015169414 0.1799473372 0.14821835 -0.5390034238 0.1482165071 -0.538798426 -0.0497606158 0.1787813482
620296280.0 -0.013473755 0.1806728433 0.1423038658 -0.5405445665 0.142385662 -0.5403763155 -0.0485634001 0.1798153639
625296250.0 -0.0114587907 0.1806137513 0.1366929031 -0.5421405444 0.1366164986 -0.5420206401 -0.0467996066 0.1800007729
630296220.0 -0.0092356286 0.1813652021 0.1305160349 -0.5435143308 0.1304768881 -0.5433803339 -0.0448274471 0.1808711293
635296190.0 -0.0073287206 0.1818655689 0.1251527207 -0.5444744297 0.1249603189 -0.5446544438 -0.0431124136 0.1811363168
640296160.0 -0.0051559121 0.1819531991 0.1189545829 -0.5461055326 0.1189027874 -0.5461691336 -0.0417777016 0.1817401644
645296130.0 -0.0029687663 0.1825397083 0.1133841048 -0.5474798799 0.1133141628 -0.5469003881 -0.0398299718 0.1817931282
650296100.0 -0.0011708273 0.1823235014 0.1073849367 -0.5483096385 0.1072605963 -0.548882417 -0.0372891595 0.1827224904
655296070.0 0.0008977531 0.1828544697 0.1010277142 -0.5492950725 0.1012063406 -0.5491399482 -0.0361922271 0.1836771369
660296040.0 0.0028837369 0.1833697765 0.0953467402 -0.550904603 0.0953445021 -0.5503401518 -0.0342501048 0.1835773334
665296010.0 0.0049699745 0.1832426413 0.0890890486 -0.5510229519 0.0893168172 -0.5513609205 -0.0326272724 0.1842306898
670295980.0 0.0068495161 0.1840412263 0.0835886171 -0.5524229745 0.0832006369 -0.5519983467 -0.0310204043 0.1846943612
675295950.0 0.0093493236 0.1836603538 0.0775960659 -0.5528003223 0.0775710877 -0.5531404908 -0.0290950741 0.18527095
680295920.0 0.0108805488 0.1843538075 0.0714660985 -0.5535086937 0.0713595942 -0.5536911323 -0.0268801484 0.1853308224
685295890.0 0.0133935695 0.1841910081 0.0651188575 -0.554849513 0.065396815 -0.5547606448 -0.0254394439 0.1861828639
690295860.0 0.0149370428 0.1846687177 0.0596455355 -0.5556728945 0.0589824965 -0.5552830365 -0.023400504 0.1863859663
695295830.0 0.0172744382 0.1844094932 0.0539266775 -0.5557979166 0.0535516299 -0.5559121305 -0.0219228874 0.1869364756
700295800.0 0.0191348621 0.1846883869 0.0481203822 -0.5564877107 0.0477395515 -0.5563058058 -0.0197898199 0.187289427
705295770.0 0.021054675 0.1847100722 0.0416694958 -0.5569753206 0.0413924364 -0.5567832892 -0.0182104849 0.1876188763
710295740.0 0.023283899 0.1846334984 0.0357993874 -0.5573482532 0.0354541902 -0.5575436211 -0.0162537044 0.1878190585
715295710.0 0.0254508085 0.1848867811 0.0299050564 -0.5575656698 0.0296711727 -0.5572469843 -0.0144884674 0.1880600374
720295680.0 0.0276146907 0.1847443226 0.0236256161 -0.5573216261 0.0232715356 -0.5579581853 -0.0125722079 0.1882791551
725295650.0 0.0288112701 0.1849264253 0.0181609658 -0.5579911088 0.0176105484 -0.5580560898 -0.0110307394 0.1892504988
730295620.0 0.0306051309 0.1844320333 0.01197524 -0.5578752362 0.0116459452 -0.5576852043 -0.0091467414 0.1894383408
735295590.0 0.0328472375 0.1845282645 0.0060279282 -0.5580601339 0.0055582896 -0.558108121 -0.0073602076 0.1888940276
740295560.0 0.0349108949 0.1843053227 -0.0003346543 -0.5583372654 -0.0001828355 -0.5582276538 -0.0055725462 0.1895513008
745295530.0 0.0370172205 0.1843679676 -0.0062148375 -0.5574601115 -0.0058090308 -0.5583345016 -0.0041358824 0.1898126435
750295500.0 0.0388598005 0.1842782803 -0.0118168724 -0.5578938712 -0.0125538521 -0.5580393478 -0.0020425619 0.1901752243
755295470.0 0.0405140943 0.1841467504 -0.0178877281 -0.5581105931 -0.0182346745 -0.557983567 -0.0001229475 0.1906616899
760295440.0 0.042443546 0.1842805692 -0.0246340274 -0.5574499851 -0.0243143059 -0.5570493053 0.0017154973 0.1897644664
765295410.0 0.0447459262 0.1836031846 -0.0304010959 -0.5572133183 -0.0299627833 -0.557003438 0.0035116962 0.190381262
770295380.0 0.0464294666 0.1835907789 -0.0357422624 -0.5567879749 -0.0359587695 -0.5569986406 0.0051430326 0.1904494187
775295350.0 0.0482086389 0.1831675646 -0.0420084525 -0.5566069162 -0.0419586291 -0.5560650192 0.007676253 0.1906290015
780295320.0 0.0504121084 0.1830378114 -0.0477954413 -0.5555988718 -0.0479886247 -0.5556100872 0.0093584009 0.1907361797
785295290.0 0.0520606284 0.1824426684 -0.053777339 -0.5551153798 -0.0539042424 -0.5554002517 0.0106147489 0.191307786
790295260.0 0.0544143744 0.1820217519 -0.0600032583 -0.5549826364 -0.0596192842 -0.5548235213 0.012511761 0.1914499534
795295230.0 0.0561024848 0.1814523156 -0.0658008018 -0.5540177121 -0.0660672864 -0.5542707782 0.0143483407 0.1908695949
800295200.0 0.0575501196 0.181286607 -0.0710697112 -0.5530025654 -0.07171928 -0.5533072847 0.0160642125 0.1909890361
805295170.0 0.0595404753 0.1808013813 -0.077347349 -0.5524447643 -0.0775051739 -0.552776166 0.0188141035 0.1913029116
810295140.0 0.0619578234 0.1807218716 -0.0836242502 -0.5514409208 -0.08357787 -0.5514996941 0.0205153482 0.1910102677
815295110.0 0.0632221716 0.1801865846 -0.0890934368 -0.5505525562 -0.0893557261 -0.5507568322 0.021905179 0.1910987332
820295080.0 0.0651998631 0.1793783303 -0.094752412 -0.5493640042 -0.094808312 -0.5501213437 0.0231967578 0.1916763729
825295050.0 0.0672141977 0.1788048681 -0.1014827089 -0.5482763182 -0.1009960305 -0.5484794073 0.026021629 0.1914495491
830295020.0 0.0689078555 0.1782641619 -0.10724524 -0.5472128911 -0.1069670049 -0.5471946445 0.0276040145 0.1906027345
