!Created with skrf (http://scikit-rf.org).
# Hz S RI R 50.0 
!freq ReS11 ImS11 ReS21 ImS21 ReS12 ImS12 ReS22 ImS22
300000.0 -0.2390520586 -0.0828410424 0.4706384287 0.0557075386 0.4656118977 0.0548558095 -0.2373041276 -0.0956794375
5299970.0 -0.2443739416 0.00727185 0.473672066 0.0048176512 0.4737331011 0.0051851586 -0.2440378837 0.0073784866
10299940.0 -0.2409879473 0.0187732564 0.4754665891 0.0060117299 0.4753549465 0.0063184956 -0.2408201836 0.0201234663
15299910.0 -0.2367691902 0.0278582824 0.4793776088 0.0074544996 0.4794687076 0.007766655 -0.2360724681 0.0293912531
20299880.0 -0.232075687 0.0355549894 0.4843296626 0.0086654103 0.484160475 0.0083690478 -0.2306641496 0.0374055084
25299850.0 -0.2268794648 0.0419454722 0.4890637511 0.0073717923 0.4890310784 0.0076977654 -0.224949338 0.0440305401
30299820.0 -0.2216316694 0.046924175 0.4944110797 0.0054367861 0.4944450559 0.0052272326 -0.2190057907 0.0493006553
35299790.0 -0.2163402904 0.05143833 0.4999750326 0.0019524295 0.4999750987 0.0021889994 -0.213594713 0.0534162507
40299760.0 -0.2113290772 0.0550809245 0.5049534738 -0.0018890496 0.5048558774 -0.0018473974 -0.2082314229 0.0560676115
45299730.0 -0.2066256814 0.0574899992 0.5099982449 -0.0063770078 0.5100903588 -0.0064305886 -0.2033721237 0.0590621626
50299700.0 -0.2024012847 0.0601763004 0.5143283611 -0.0120021839 0.5141887304 -0.0114805111 -0.1985565944 0.0606784561
55299670.0 -0.1983179163 0.0617493161 0.5179384685 -0.0183020556 0.5179536323 -0.0180365392 -0.1943773553 0.0626512075
60299640.0 -0.1942289863 0.0635676799 0.5210079516 -0.0242154773 0.5215738308 -0.023730887 -0.1907766716 0.0632312901
65299610.0 -0.1909216326 0.0647354355 0.5238491246 -0.030787457 0.5240226881 -0.030616827 -0.1871465257 0.0644776491
70299580.0 -0.1879714441 0.0661744306 0.5268541049 -0.0374389118 0.5265303238 -0.0372611656 -0.1841295567 0.0650310152
75299550.0 -0.1849804809 0.0673162983 0.5280765256 -0.0445820616 0.5282450573 -0.0440463135 -0.1810925049 0.0653897816
80299520.0 -0.1823856728 0.0682011722 0.5302087138 -0.0510350215 0.5306245432 -0.0510447248 -0.1784563488 0.0659980184
85299490.0 -0.1801079658 0.0687581773 0.5316752792 -0.0575472498 0.5320931391 -0.0577060877 -0.17638776 0.0663048375
90299460.0 -0.17807259 0.0697637921 0.5327599541 -0.0649777966 0.5329580638 -0.0647794935 -0.1735676986 0.0668602436
95299430.0 -0.1754841524 0.0706773728 0.5340177658 -0.0717825511 0.5337375848 -0.0717535308 -0.1714699071 0.0674746319
100299400.0 -0.1740439804 0.0715045375 0.5337413441 -0.0785112008 0.5338360282 -0.0786018103 -0.1693271628 0.0671459385
105299370.0 -0.1721684524 0.0723780696 0.5342127819 -0.0855266361 0.5344152116 -0.0855977048 -0.1676576294 0.06814515
110299340.0 -0.1703779867 0.0732366753 0.5349835467 -0.0921459478 0.5344249547 -0.0919036999 -0.1663431006 0.0682201253
115299310.0 -0.1688190826 0.0741688356 0.5349548156 -0.0989753682 0.5340118879 -0.099053027 -0.1649125687 0.0690042675
120299280.0 -0.1671539585 0.0748101464 0.533799982 -0.1060119058 0.5343588217 -0.1058479787 -0.163386302 0.0692744891
125299250.0 -0.1661610203 0.0754846005 0.5341216115 -0.1123993951 0.5339495017 -0.1124809339 -0.1622779373 0.069664349
130299220.0 -0.1648164209 0.0767693769 0.5329371161 -0.1194488547 0.5332796397 -0.1194743282 -0.1609043353 0.0701155679
135299190.0 -0.1637522227 0.077939405 0.5329741309 -0.1259396047 0.5327651861 -0.1255863437 -0.1596793253 0.0709242215
140299160.0 -0.1627115674 0.0789588219 0.5318929309 -0.133040205 0.5319405041 -0.1331460065 -0.1589025629 0.0721273473
145299130.0 -0.1613051736 0.0800925148 0.5310731153 -0.1395351458 0.5307645973 -0.1393128472 -0.1578242537 0.0725794567
150299100.0 -0.1601713053 0.0812736974 0.5299272475 -0.1456979706 0.5300020307 -0.1452335231 -0.1570100202 0.0736919757
155299070.0 -0.1595898583 0.0819448773 0.5290565248 -0.152336357 0.5284149243 -0.1522254178 -0.1557811768 0.0748611729
160299040.0 -0.1579984453 0.0837638216 0.5269434128 -0.1589223 0.5268729997 -0.158788381 -0.1552995112 0.0754804721
165299010.0 -0.1571437939 0.08479065 0.5259281595 -0.1656065335 0.5259678065 -0.165617249 -0.1540852623 0.076719511
170298980.0 -0.1566765229 0.0858999267 0.5240521662 -0.1717205603 0.5243804535 -0.1714609813 -0.1534128364 0.0776250233
175298950.0 -0.1556593239 0.0871094434 0.5231507876 -0.1780622435 0.5226025326 -0.177972673 -0.1528150679 0.0788052054
180298920.0 -0.1545806628 0.0880889358 0.520916232 -0.1839750961 0.520928435 -0.1840946239 -0.1519972693 0.079890283
185298890.0 -0.1534306104 0.0896412201 0.5191978122 -0.1901709683 0.518861741 -0.1902481705 -0.1511043516 0.0810473158
190298860.0 -0.152674677 0.0909741158 0.5173392349 -0.1967969023 0.5175567006 -0.1965920276 -0.1503434071 0.0820053683
195298830.0 -0.151813624 0.0921470299 0.5154410476 -0.2028377131 0.5152163226 -0.2024393611 -0.1495726992 0.082928064
200298800.0 -0.150630495 0.0935551281 0.5128541516 -0.2086415864 0.5132547418 -0.2088232773 -0.1492524774 0.0840517497
205298770.0 -0.1497362455 0.0948465452 0.510153627 -0.2151639084 0.5106926036 -0.2149532272 -0.1485615669 0.0850462535
210298740.0 -0.1486821919 0.0961035455 0.5084661825 -0.2205007578 0.5083630638 -0.2203217189 -0.1474912869 0.0867112168
215298710.0 -0.1481602604 0.0977801241 0.5061070418 -0.2268083299 0.5062852036 -0.2270486421 -0.1473033618 0.0877612248
220298680.0 -0.1472424869 0.0987011887 0.503398874 -0.2327181993 0.5034798637 -0.2327276614 -0.1466812095 0.0883996638
225298650.0 -0.1463113174 0.100527793 0.5018371867 -0.2384201631 0.5014189842 -0.2387793894 -0.1460399792 0.0896222593
230298620.0 -0.1452055465 0.1023072649 0.4991187581 -0.2439862273 0.4993396118 -0.2441419345 -0.1454310812 0.0908406961
235298590.0 -0.144099883 0.1038071245 0.4962318303 -0.2500275951 0.4962193379 -0.2494315531 -0.1446547148 0.0922180317
240298560.0 -0.143093047 0.1050751838 0.4935403375 -0.2564160539 0.4935509978 -0.2560241348 -0.1439423419 0.094055377
245298530.0 -0.1422936583 0.1066556767 0.491230025 -0.2616535564 0.4906559471 -0.2615311394 -0.1429926715 0.094134463
250298500.0 -0.1407977193 0.1080116314 0.487576103 -0.267244711 0.4875758404 -0.2668630281 -0.1426163176 0.0957407743
255298470.0 -0.1400741094 0.1091401465 0.4843878526 -0.2721943523 0.4849419626 -0.2726455042 -0.1414647938 0.0969284475
260298440.0 -0.1390624294 0.1107991877 0.4820156885 -0.2785093116 0.481969033 -0.2783046154 -0.1405104024 0.0979522848
265298410.0 -0.1377824956 0.1126726016 0.4789235057 -0.2841007983 0.4791625456 -0.2837463022 -0.1399181274 0.0995310425
270298380.0 -0.1365279949 0.1137635158 0.47604815 -0.2889528009 0.4757701659 -0.289153974 -0.1391211021 0.1007035662
275298350.0 -0.1351015583 0.1152229686 0.4723038266 -0.2948351193 0.4729400047 -0.2947265962 -0.1378518221 0.1017896343
280298320.0 -0.1340096702 0.1167371994 0.4697533632 -0.3002734857 0.4696796875 -0.2998506905 -0.1368929087 0.1028736565
285298290.0 -0.1329361225 0.1184752379 0.4664272489 -0.3055709135 0.4661497781 -0.3054313305 -0.1359012523 0.1042281228
290298260.0 -0.1317553066 0.1197580564 0.4630292167 -0.3103706062 0.4628430957 -0.3107418034 -0.1349087411 0.1058649653
295298230.0 -0.130104726 0.1209128936 0.4598563068 -0.3157719651 0.4594275006 -0.3156426667 -0.1335022317 0.1066195692
300298200.0 -0.1291382995 0.122326093 0.4561602669 -0.3209109094 0.4565253925 -0.3210606707 -0.1329187931 0.1080131252
305298170.0 -0.1275190879 0.1237634228 0.4521884951 -0.32665948 0.4527023571 -0.3263941154 -0.1311538599 0.1090586678
310298140.0 -0.1265853657 0.12535801 0.4494187325 -0.3313271076 0.4492709541 -0.3316551401 -0.1303957268 0.1101552217
315298110.0 -0.125213975 0.1259892042 0.4457394236 -0.3368296974 0.4453702214 -0.3367748358 -0.1295727919 0.1112260529
320298080.0 -0.1238057437 0.1275434107 0.4412009119 -0.3424547167 0.4414239591 -0.3419433553 -0.1282912293 0.1127245456
325298050.0 -0.1226403842 0.1290271547 0.4379425533 -0.3471318714 0.4378539387 -0.3471521772 -0.127971306 0.1136971638
330298020.0 -0.1216420854 0.1302098537 0.4335934633 -0.3519718076 0.4338460303 -0.3520853359 -0.1271634089 0.1151580705
335297990.0 -0.1201207094 0.1313370214 0.4298976479 -0.3566737925 0.4297585311 -0.3569076444 -0.1264966163 0.1170303134
340297960.0 -0.119169545 0.1330401685 0.4256732676 -0.3615465926 0.4254390538 -0.361685683 -0.1246260778 0.1181889979
345297930.0 -0.1178461803 0.1346105286 0.4213900151 -0.3665908088 0.4216052294 -0.3664918913 -0.1242472668 0.1192236796
350297900.0 -0.1165493162 0.1355399676 0.4167628291 -0.370976753 0.4171829715 -0.3708225812 -0.1235195413 0.1210024635
355297870.0 -0.1150489841 0.1375109408 0.4128290912 -0.3756326468 0.4133464282 -0.3750987792 -0.1223298372 0.1222021205
360297840.0 -0.1136492697 0.1388798568 0.4092924711 -0.3798840919 0.4098796067 -0.3801425494 -0.1212391069 0.1236293453
365297810.0 -0.1122918617 0.14047056 0.4046001534 -0.3847109844 0.4052449544 -0.3845504391 -0.1202035906 0.1249463793
370297780.0 -0.1108756164 0.1415390477 0.4003377902 -0.3889793689 0.401210473 -0.3885863029 -0.1191581895 0.1264862784
375297750.0 -0.1090038762 0.1427132968 0.3963526375 -0.393237899 0.396681355 -0.3935912726 -0.1179664234 0.1274344886
380297720.0 -0.1079086929 0.1440897731 0.3919215807 -0.3977103291 0.3921253256 -0.3969929861 -0.1170981985 0.1286248347
385297690.0 -0.1065123804 0.1456434755 0.3874552689 -0.401818492 0.3874737437 -0.4018884737 -0.1156149288 0.1301949089
390297660.0 -0.1048819131 0.1468436498 0.3830453355 -0.4061248776 0.3828639274 -0.4056870134 -0.1149229848 0.1314528865
395297630.0 -0.1031614854 0.1486138381 0.3787493788 -0.4106749823 0.3785061347 -0.4103226521 -0.1132336687 0.1328277697
400297600.0 -0.101430229 0.1498625355 0.3738097705 -0.4153698454 0.374283644 -0.4145138437 -0.1122795932 0.1339356585
405297570.0 -0.1002104849 0.150384135 0.3695894552 -0.4184339891 0.3698260476 -0.4183813828 -0.1112834174 0.1351742946
410297540.0 -0.0984984172 0.15174648 0.3648261996 -0.4228974729 0.3654002463 -0.4229454155 -0.110181483 0.136665285
415297510.0 -0.0966827231 0.153051167 0.3599092458 -0.4267997514 0.3605201493 -0.4264488731 -0.108663548 0.1375193989
420297480.0 -0.0950669437 0.154861698 0.3553474925 -0.4305121407 0.3557563883 -0.4307561612 -0.1074617737 0.1385274411
425297450.0 -0.0934667999 0.1554932492 0.3515313715 -0.4344787838 0.3513447664 -0.4343936018 -0.1066409134 0.1398559438
430297420.0 -0.0919570752 0.1565132045 0.3459496709 -0.4376933264 0.3459388555 -0.4376446709 -0.1051358541 0.1405675578
435297390.0 -0.0902274438 0.157951355 0.3408023549 -0.4416606679 0.3407541558 -0.4419674258 -0.1031863588 0.1418617448
440297360.0 -0.0881193237 0.1591657262 0.3360836351 -0.4455191773 0.3365888979 -0.4457075243 -0.1023359738 0.1431058621
445297330.0 -0.0866561232 0.1598906157 0.3316419068 -0.4492467677 0.3318033482 -0.4489929264 -0.1010665186 0.1440120959
450297300.0 -0.0847819624 0.1608531133 0.3264589201 -0.452926882 0.3265697839 -0.4530260469 -0.099265468 0.1447810386
455297270.0 -0.0831982245 0.1622866369 0.3214241913 -0.4563834356 0.3217155501 -0.4566123934 -0.0981650194 0.1459730367
460297240.0 -0.0815828809 0.1632310051 0.316442299 -0.459682272 0.3164849356 -0.4597971194 -0.0968787286 0.1469513519
465297210.0 -0.0796055318 0.1642972738 0.3115613315 -0.4636138812 0.3115317911 -0.4636723495 -0.0950081884 0.1481151686
470297180.0 -0.0775164523 0.16524133 0.3061663554 -0.4664508343 0.3066993354 -0.4666176353 -0.0934588112 0.149189028
475297150.0 -0.0758286112 0.1659942777 0.3009995279 -0.4691503501 0.3015587048 -0.4693578835 -0.0919552432 0.1498597315
480297120.0 -0.074223095 0.1674368824 0.2960434584 -0.4735904527 0.2963190444 -0.4736054921 -0.0902927683 0.1512216238
485297090.0 -0.0725869333 0.168077406 0.290809628 -0.4759239085 0.2911171761 -0.4760565142 -0.0887603571 0.1521231712
490297060.0 -0.0709560112 0.1689147373 0.2857373625 -0.4794334 0.2861158212 -0.4791330617 -0.0873641059 0.153405401
495297030.0 -0.0687145036 0.1700571388 0.2802277257 -0.4828351759 0.2810212938 -0.4819084229 -0.0862977157 0.1544320722
500297000.0 -0.0670177429 0.1705623545 0.2752818189 -0.48499342 0.2750863689 -0.4850007125 -0.084563639 0.1557369869
505296970.0 -0.064760745 0.171566653 0.2698269123 -0.488242103 0.2699238735 -0.4883483646 -0.0834775512 0.1568691024
510296940.0 -0.0630497576 0.1726210317 0.2643967601 -0.4913843143 0.2642211564 -0.4914409313 -0.0814311419 0.157507229
515296910.0 -0.0612680484 0.1734014025 0.2592344462 -0.4938383617 0.2591021332 -0.4943229009 -0.0796893272 0.1587586602
520296880.0 -0.0594325068 0.1743975687 0.2537254371 -0.4969441456 0.2538694538 -0.4968645168 -0.0788567316 0.1596143066
525296850.0 -0.0572100624 0.1747462302 0.2477801913 -0.4995376528 0.2484431942 -0.4996683992 -0.077151593 0.160376376
530296820.0 -0.0553349977 0.1758400131 0.2427088431 -0.5025796753 0.2429206038 -0.5022988469 -0.0753037827 0.1614724529
535296790.0 -0.0537590879 0.1764714141 0.2376104575 -0.5048246914 0.237934026 -0.5046068557 -0.0742520402 0.1619140802
540296760.0 -0.0521235841 0.1775217578 0.2322685304 -0.5077677099 0.2318780487 -0.5073260077 -0.0726412385 0.1633598123
545296730.0 -0.0496523458 0.1779941599 0.2260292056 -0.5095183973 0.2261883756 -0.5098586376 -0.0711853722 0.1642503729
550296700.0 -0.0476580198 0.1787909042 0.2206329486 -0.5122562042 0.2208915804 -0.5126997399 -0.069861916 0.1650088335
555296670.0 -0.0457068749 0.1793969249 0.2153070479 -0.5145426032 0.2155602472 -0.5145095362 -0.0678626683 0.1660356175
560296640.0 -0.0435705807 0.1803459094 0.2096578373 -0.5172968216 0.2098426113 -0.5171265423 -0.0666669691 0.1664167319
565296610.0 -0.0419803327 0.1809579258 0.2039295158 -0.5195019233 0.204068446 -0.5190621823 -0.0651548286 0.1670907785
570296580.0 -0.0401205778 0.1812815453 0.1984457701 -0.5217042139 0.1979944269 -0.5215075284 -0.0635783657 0.16831909
575296550.0 -0.0382302186 0.182462069 0.1929866959 -0.5237473367 0.1925585465 -0.5235862247 -0.0615367553 0.1688088713
580296520.0 -0.0358586855 0.1828544181 0.1868378063 -0.5257147025 0.1868832773 -0.5256137648 -0.0601647974 0.1694290591
585296490.0 -0.0341884389 0.1827260963 0.1814134618 -0.5273074225 0.1814443173 -0.5275076819 -0.0585580182 0.1705388118
590296460.0 -0.0316345521 0.1835808829 0.1754000704 -0.5287502785 0.1757140159 -0.5288091482 -0.0571929578 0.1710409847
595296430.0 -0.0295836584 0.1840961917 0.1692358575 -0.5314684332 0.1699199961 -0.5311710402 -0.0555478929 0.1714426432
600296400.0 -0.0276881216 0.1844251741 0.1638698535 -0.5330729192 0.1641924152 -0.5326509414 -0.0538822043 0.1721023493
605296370.0 -0.0259588379 0.1848969863 0.1582517539 -0.5348021823 0.1583238702 -0.5347053749 -0.0517939593 0.1728892851
610296340.0 -0.0238396945 0.1851995606 0.1516599873 -0.5362213633 0.1524762802 -0.5360213788 -0.0502752096 0.1731832393
615296310.0 -0.0212579138 0.185594374 0.1461247129 -0.5377317894 0.1463036229 -0.5383168861 -0.0483527734 0.1738450064
620296280.0 -0.0195556038 0.1857899486 0.1405502219 -0.5392438371 0.1406066849 -0.5389217267 -0.0473331426 0.17464127
625296250.0 -0.0177808253 0.1858267557 0.1352112406 -0.54136046 0.1349590412 -0.5409267245 -0.0447424405 0.1749535917
630296220.0 -0.0147036077 0.1865771427 0.1282027083 -0.5425045976 0.1285134577 -0.5421497394 -0.0435761992 0.175706676
635296190.0 -0.0138752261 0.1866175382 0.1233771587 -0.5431833043 0.1232196181 -0.5433236954 -0.0412092777 0.1761195986
640296160.0 -0.0117794629 0.1871467524 0.1171015502 -0.5447291042 0.1175837654 -0.5446831659 -0.0399707403 0.1767110205
645296130.0 -0.0094937061 0.1877688121 0.110977997 -0.5455977736 0.1117970173 -0.5459943456 -0.0380201855 0.1772843206
650296100.0 -0.0070235459 0.1876385183 0.1050120637 -0.5471412357 0.1053164278 -0.5468200397 -0.0361030763 0.1774407835
655296070.0 -0.0053204745 0.1875566481 0.0995656784 -0.5478584021 0.0994934669 -0.5483690354 -0.0340989343 0.1782336262
660296040.0 -0.0035469543 0.1875304097 0.0936115961 -0.5488648418 0.0938838893 -0.5496468956 -0.0324558157 0.1789124132
665296010.0 -0.0010359599 0.1878655966 0.0869320539 -0.5502167852 0.0877031651 -0.5500888586 -0.0305505483 0.1795237449
670295980.0 0.0003132435 0.1883973881 0.0819847763 -0.5507980727 0.0819144527 -0.5511381322 -0.0293594124 0.1800911071
675295950.0 0.0026251272 0.1885955125 0.075675871 -0.5518045863 0.0756973684 -0.5514225501 -0.0276164828 0.1804903242
680295920.0 0.0044878196 0.188493037 0.0699697344 -0.5524129502 0.0695388578 -0.5530248096 -0.025662121 0.1814019093
685295890.0 0.0071320214 0.1891585614 0.0637677979 -0.553320175 0.0631295729 -0.5536511224 -0.0238660593 0.1815919098
690295860.0 0.0091709716 0.1888328051 0.0579418225 -0.553628647 0.0577759297 -0.5540742861 -0.0222845424 0.1826915298
695295830.0 0.011320868 0.1886917965 0.0521078055 -0.5541574725 0.0515769466 -0.5543423333 -0.0203765178 0.1826466998
700295800.0 0.0131554643 0.1883843047 0.0454167346 -0.5546617517 0.0453602225 -0.5546130343 -0.0186613206 0.1834477323
705295770.0 0.0151719004 0.1893568002 0.0394342299 -0.5552072734 0.0402131857 -0.5552167403 -0.0172264074 0.183593542
710295740.0 0.0174763741 0.1889046737 0.034302725 -0.5560308248 0.0340058406 -0.5560411325 -0.0151587209 0.1833059567
715295710.0 0.0190210203 0.1887678079 0.0284208831 -0.5559043861 0.0276396572 -0.5559915325 -0.0132341907 0.1838910514
720295680.0 0.0214206785 0.1888306476 0.021761016 -0.556613137 0.0220178722 -0.5564332321 -0.0115239671 0.184822127
725295650.0 0.0235728668 0.1887238083 0.0158532514 -0.556576959 0.0158694426 -0.5568315307 -0.0101297819 0.1850414895
730295620.0 0.025966747 0.1890658521 0.0098102371 -0.5564978016 0.0097530807 -0.5564589516 -0.008404039 0.184937937
735295590.0 0.0278877942 0.1885628428 0.0040374343 -0.5568768331 0.0036051208 -0.5567845729 -0.0067452538 0.185086573
740295560.0 0.0296717601 0.1885977444 -0.0024355618 -0.5563057607 -0.0021152357 -0.5567658481 -0.0046812421 0.185497672
745295530.0 0.0316593765 0.1882396399 -0.0083715723 -0.5560689817 -0.008425325 -0.5568637674 -0.0030516008 0.1852517001
750295500.0 0.034199787 0.1880199567 -0.0140464146 -0.5560684521 -0.0142224589 -0.5564870645 -0.0015067602 0.1856708433
755295470.0 0.0364208379 0.1875750685 -0.0199373137 -0.5560365524 -0.0201138677 -0.5563774206 0.000761767 0.1855530258
760295440.0 0.0380409799 0.187614968 -0.026177352 -0.5561408584 -0.0261182057 -0.5562013074 0.0021577042 0.185650411
765295410.0 0.0399447606 0.1869928225 -0.0320425661 -0.5554200458 -0.0326652082 -0.5558230238 0.0042462466 0.1857797008
770295380.0 0.0418911144 0.1866436639 -0.0386008603 -0.555304098 -0.0384424458 -0.5550784208 0.0057006457 0.1857604381
775295350.0 0.043943225 0.1860172541 -0.0444874177 -0.5538470529 -0.0435465369 -0.5544540913 0.0072484298 0.1860330066
780295320.0 0.0461742588 0.1859042924 -0.0504576706 -0.5535438472 -0.0495842465 -0.5538197139 0.0095003711 0.1857487441
785295290.0 0.0478972177 0.18501427 -0.0562664432 -0.552965166 -0.055853327 -0.5532998448 0.0114624861 0.1857483236
790295260.0 0.0506776808 0.1852265868 -0.0619902443 -0.5527153328 -0.0612174056 -0.5525941311 0.0130323422 0.1860079228
795295230.0 0.052393347 0.1845819857 -0.0681843976 -0.5518486243 -0.0673252279 -0.552264187 0.0155912419 0.1859290605
800295200.0 0.0542041023 0.1844724857 -0.0745082474 -0.5513606125 -0.0739017743 -0.5511269583 0.0173018894 0.1858590516
805295170.0 0.0562357024 0.1836446474 -0.0797435646 -0.5504021728 -0.0796724789 -0.5506203 0.0190953502 0.1861962802
810295140.0 0.0579249872 0.1829019093 -0.0854626717 -0.5489145856 -0.0856656202 -0.5494873539 0.0209580341 0.1860588261
815295110.0 0.0602420985 0.1823561713 -0.0914002266 -0.5475071748 -0.0908363835 -0.5486259074 0.0227462015 0.1860903439
820295080.0 0.0620398435 0.1822364297 -0.0975451175 -0.5474392585 -0.0968544546 -0.5473036836 0.0247031069 0.1855562464
825295050.0 0.0645269137 0.1816299171 -0.1030255315 -0.546020683 -0.103170853 -0.5458264611 0.0266453621 0.185870032
830295020.0 0.0664784645 0.1811211924 -0.1094362013 -0.5451744213 -0.1091931827 -0.5447972026 0.0289326339 0.1855316023
