!Created with skrf (http://scikit-rf.org).
# Hz S RI R 50.0 
!freq ReS11 ImS11 ReS21 ImS21 ReS12 ImS12 ReS22 ImS22
300000.0 -0.0950148054 -0.0825063515 0.620169153 0.0774031171 0.6238451018 0.0819417228 -0.0949955785 -0.0913467931
5299970.0 -0.1002998201 0.0129950019 0.6307275038 0.0104618916 0.630527236 0.0109564183 -0.1020629282 0.0121482916
10299940.0 -0.0954015066 0.0297840839 0.6342875015 0.0156091178 0.6343923345 0.0159724678 -0.0971579703 0.0289512766
15299910.0 -0.0885786892 0.0432796165 0.6403949269 0.0205665368 0.6401754984 0.0207481888 -0.0901550463 0.0419433642
20299880.0 -0.0797122166 0.0542502451 0.6486889699 0.0237311233 0.6492342516 0.0244640785 -0.0816095348 0.053363968
25299850.0 -0.0697022352 0.0627344179 0.6579957409 0.0248365488 0.6582442294 0.0251193573 -0.0726076818 0.0621271052
30299820.0 -0.0595804795 0.0692491575 0.6681035462 0.0246721972 0.667311603 0.0246052222 -0.0624996343 0.0687495837
35299790.0 -0.0494066642 0.0741208946 0.6770792746 0.0216225615 0.6774323586 0.0218171092 -0.0527941348 0.073513444
40299760.0 -0.039739393 0.0770206904 0.6865804065 0.0179813364 0.6868085406 0.0175129997 -0.0436491705 0.0769031947
45299730.0 -0.0304363175 0.0792935888 0.695675709 0.0113814969 0.6958752706 0.0120987787 -0.0341347592 0.0791116578
50299700.0 -0.0216987394 0.0798909402 0.703307337 0.0045058972 0.7039971054 0.0047882711 -0.0254393341 0.0802882549
55299670.0 -0.0142462218 0.0798284481 0.710527196 -0.0032364715 0.7111515875 -0.0030970187 -0.0178550838 0.0800826621
60299640.0 -0.0065065164 0.0789739035 0.7175707197 -0.011407479 0.7177200046 -0.0114634886 -0.0103099984 0.0797578334
65299610.0 -0.0005791413 0.078081596 0.7236501894 -0.0196749425 0.7238679029 -0.0194731172 -0.0040485066 0.078735757
70299580.0 0.0060802054 0.0759151864 0.7288365869 -0.0288749342 0.7287924586 -0.0295423232 0.0022916426 0.0770040467
75299550.0 0.0116967002 0.0742742265 0.7326900364 -0.0388018574 0.7332611386 -0.0393170172 0.0079796494 0.0756616991
80299520.0 0.0161251339 0.0720515097 0.7378675263 -0.048897507 0.7378141774 -0.0489005192 0.0132172191 0.0728317311
85299490.0 0.0207166595 0.0696104782 0.7403652928 -0.0587989891 0.7408094245 -0.0586837131 0.0176186449 0.0710337526
90299460.0 0.0246338716 0.067496849 0.7435942959 -0.0684933841 0.7437569867 -0.0685591206 0.0220192697 0.068774835
95299430.0 0.0282185718 0.0654520602 0.74628102 -0.0793730565 0.7460026454 -0.0785649237 0.0252548878 0.0664531086
100299400.0 0.0312972687 0.0625280599 0.7471519977 -0.0890902138 0.7474683417 -0.0894342856 0.0284667975 0.0638215822
105299370.0 0.0345719904 0.0601864347 0.7486594753 -0.0992147445 0.7492866528 -0.0990810603 0.0318314303 0.0619968233
110299340.0 0.0369784858 0.0577713707 0.7499208285 -0.108699503 0.7502572275 -0.1097948106 0.0345660206 0.0591252979
115299310.0 0.0398056635 0.0550289736 0.7506743793 -0.1189347291 0.7514648764 -0.1190181111 0.0371756628 0.056110214
120299280.0 0.0414901742 0.0526427552 0.7517192191 -0.1294691442 0.7517585044 -0.1296348095 0.0389733014 0.0542789493
125299250.0 0.0430666757 0.0503123898 0.7519037741 -0.1394538707 0.7513975 -0.1394178853 0.0413781458 0.0511911785
130299220.0 0.044958631 0.0479675617 0.7515717952 -0.1484869699 0.7520487474 -0.1495937142 0.0432003703 0.0495388265
135299190.0 0.0467535023 0.0453769686 0.7516262649 -0.158747547 0.7511537206 -0.158921438 0.0444682572 0.0477431523
140299160.0 0.0478369026 0.0440421996 0.7507348909 -0.168687796 0.7509411677 -0.1686219188 0.0461960508 0.0454709023
145299130.0 0.0492060952 0.0418256664 0.7504229028 -0.1791262812 0.7501296989 -0.1781964302 0.0473151022 0.0425443985
150299100.0 0.0507144595 0.0399116775 0.7490407115 -0.188070528 0.7495281314 -0.188182281 0.0487833395 0.0408523189
155299070.0 0.0511791865 0.0383565904 0.7476151185 -0.1976892728 0.7478578545 -0.198397337 0.049408573 0.0388736375
160299040.0 0.0524086588 0.0359994273 0.7462034575 -0.2067248594 0.7465645871 -0.2073252057 0.0506265806 0.0373292691
165299010.0 0.0529678042 0.0339699593 0.7452654837 -0.2169695995 0.7448350114 -0.2171575559 0.0515116524 0.0348541153
170298980.0 0.053195842 0.0327566374 0.7425211511 -0.2260790447 0.7428624942 -0.2262812256 0.052799132 0.0329686885
175298950.0 0.0545712225 0.0307564341 0.7417879495 -0.235500606 0.7418095144 -0.2348134846 0.0533078312 0.0310753072
180298920.0 0.0552767051 0.0291955098 0.7396208365 -0.2442731915 0.73906218 -0.2443269567 0.0537365859 0.0301033432
185298890.0 0.0557958081 0.0273152523 0.7367224083 -0.2539295242 0.7368140958 -0.2536939284 0.0541335611 0.0277535272
190298860.0 0.0562949965 0.0258846012 0.7344509302 -0.2627759755 0.7347559835 -0.2626532695 0.0557571257 0.0260400066
195298830.0 0.056312451 0.0242401352 0.7315193764 -0.2711714178 0.7321408637 -0.272286023 0.0559742467 0.0243263313
200298800.0 0.0568837803 0.0225076441 0.7294326278 -0.2799859301 0.7290959514 -0.2805406101 0.0560982134 0.0232968955
205298770.0 0.0571522533 0.0215580574 0.7266097505 -0.2893353695 0.7267309259 -0.2900259867 0.0566953667 0.020512217
210298740.0 0.0569502408 0.0197474693 0.723526383 -0.2988538753 0.7236485333 -0.2987561272 0.0567028476 0.0201206473
215298710.0 0.0577057949 0.0186521725 0.7207218338 -0.307059814 0.7208355164 -0.3074785471 0.0570961921 0.0181666339
220298680.0 0.0580072854 0.0172458767 0.7174593008 -0.3161694105 0.7175696685 -0.3161091331 0.057381321 0.0174675667
225298650.0 0.0585836141 0.0162943328 0.7139155424 -0.3234032382 0.7138355278 -0.324409318 0.0574354842 0.0155949111
230298620.0 0.0581202772 0.0148683504 0.7111242835 -0.3325530374 0.7111043084 -0.3331882141 0.057807586 0.0143827439
235298590.0 0.0586521465 0.01329352 0.7073541417 -0.3407317915 0.7073208249 -0.3414180151 0.0581768727 0.0127457551
240298560.0 0.0582133314 0.0121755242 0.7038480881 -0.3490910171 0.7039863747 -0.3490796856 0.0581858507 0.0119607331
245298530.0 0.0589791611 0.0113770733 0.6990579636 -0.3579854185 0.6997234563 -0.3582681824 0.0582674006 0.0108670761
250298500.0 0.0583504715 0.0096952197 0.6963070627 -0.3653624653 0.696212839 -0.3657777689 0.0587477703 0.008842073
255298470.0 0.0580611863 0.0089036576 0.691736886 -0.3744608458 0.6921847143 -0.3741453413 0.0585766607 0.0076549696
260298440.0 0.0583104605 0.0076390341 0.6882612715 -0.3820215023 0.6884501501 -0.3822866591 0.0592363083 0.0069692431
265298410.0 0.0589536855 0.0070698937 0.6844403978 -0.3913594618 0.6838807399 -0.3909885699 0.058823332 0.0055735195
270298380.0 0.0590908782 0.0057760572 0.6794385494 -0.3986324215 0.6799768359 -0.3982538057 0.0589695621 0.0049312175
275298350.0 0.0584761257 0.0048632612 0.6752994046 -0.4067011039 0.675617979 -0.4067234365 0.0589257693 0.0037069226
280298320.0 0.0586180395 0.0039947722 0.6712648949 -0.4136043201 0.6710559092 -0.4142913264 0.0593692179 0.0029868641
285298290.0 0.0587490049 0.0030394315 0.6664003483 -0.421661922 0.6663283157 -0.4219700563 0.0587596319 0.0014853291
290298260.0 0.0588153053 0.0018117542 0.6622822538 -0.4299258346 0.6622771456 -0.4298203478 0.0595001252 0.0005751426
295298230.0 0.0586550522 0.0006153287 0.6577902799 -0.4373593434 0.6573331441 -0.4374123595 0.0595355014 -0.0002526441
300298200.0 0.0591464064 -8.19807e-05 0.6528452491 -0.4448948761 0.6532017396 -0.4456420234 0.0590599119 -0.0013454114
305298170.0 0.0589370617 -0.0010285515 0.6484173568 -0.4529747748 0.648713857 -0.4532855169 0.0598524969 -0.0020964905
310298140.0 0.0592502548 -0.0024313881 0.6440533238 -0.4610124233 0.6437040433 -0.460908973 0.0597953368 -0.0029567139
315298110.0 0.0586590269 -0.003570393 0.638356321 -0.4681681344 0.6389599901 -0.4684479147 0.0599127255 -0.0047198618
320298080.0 0.0588044369 -0.0043731078 0.6329559034 -0.4759139275 0.6338316863 -0.4757097259 0.0593010203 -0.0059060575
325298050.0 0.0582153648 -0.0057966461 0.6284225229 -0.4834891009 0.6285061225 -0.4833048908 0.0590887217 -0.0068561406
330298020.0 0.0579722627 -0.0065842878 0.6215433486 -0.490468342 0.6221893801 -0.4910254199 0.0582814815 -0.0082792837
335297990.0 0.0574377031 -0.0076661548 0.6166203791 -0.4979527435 0.616357475 -0.4978985738 0.0583077814 -0.0090118088
340297960.0 0.0567706874 -0.0078181168 0.6107159642 -0.5049288625 0.6109568018 -0.5047304649 0.0573577538 -0.0093215244
345297930.0 0.0561811321 -0.0084833399 0.6051996198 -0.5107194712 0.6046756719 -0.5112317777 0.0575157168 -0.0108320589
350297900.0 0.0563837303 -0.0091006704 0.5989466459 -0.5176213648 0.5997115941 -0.5177555625 0.0567012438 -0.010512922
355297870.0 0.0558837447 -0.0103283778 0.5934587467 -0.5250242933 0.5933724504 -0.5246973352 0.0560553146 -0.0111765529
360297840.0 0.0562125969 -0.0106765414 0.5875508415 -0.5314119864 0.5875483255 -0.5315812021 0.0562266939 -0.0117296484
365297810.0 0.0558311508 -0.0115751716 0.5813464676 -0.5378703766 0.5818691284 -0.5379417949 0.0554046957 -0.0125215223
370297780.0 0.0556305621 -0.0122602715 0.575476534 -0.5446772574 0.5755747376 -0.545065657 0.0560140134 -0.0131623674
375297750.0 0.0549404835 -0.0124490228 0.5701289193 -0.551205444 0.569934101 -0.5513013919 0.0556664705 -0.0135203181
380297720.0 0.0550926645 -0.0137116667 0.5636549699 -0.5567921081 0.5632347453 -0.5570575504 0.0549484556 -0.014348322
385297690.0 0.0548760448 -0.0141718846 0.5571765014 -0.5629821159 0.5573488937 -0.5635674486 0.0550183316 -0.0149181778
390297660.0 0.0544177509 -0.0147543934 0.551458893 -0.5697140346 0.5512019093 -0.5700813872 0.0548837397 -0.0158801175
395297630.0 0.054602625 -0.0158171522 0.5452055001 -0.5753841028 0.5449617291 -0.5756510333 0.0543825361 -0.0157924477
400297600.0 0.0535982408 -0.0158039136 0.5386358227 -0.5823008544 0.5389803599 -0.5821885711 0.0533031326 -0.0172155346
405297570.0 0.0538161278 -0.0165545524 0.5321079761 -0.5882189671 0.5322767474 -0.5882089612 0.0536852422 -0.0169506454
410297540.0 0.0537250605 -0.0173921621 0.5246115927 -0.5932432462 0.5256937443 -0.5940849445 0.0533419037 -0.0179845963
415297510.0 0.0533114731 -0.0173279897 0.5191500258 -0.5992339241 0.5193813287 -0.5998630774 0.0526577005 -0.0181282665
420297480.0 0.0529453811 -0.0189180886 0.512544495 -0.6055659746 0.5129476303 -0.6056266729 0.0529078067 -0.0192549572
425297450.0 0.0533729138 -0.0197649659 0.5054170542 -0.6111952362 0.5062272538 -0.6109279581 0.0524201055 -0.0188720377
430297420.0 0.0524404204 -0.0196120089 0.4985636581 -0.6170354706 0.499534084 -0.6167677309 0.0515049137 -0.0203534883
435297390.0 0.0525547649 -0.0205124976 0.4923982808 -0.6220505528 0.491797628 -0.6218142934 0.0510728788 -0.0200476102
440297360.0 0.0522791063 -0.0214352685 0.4850414568 -0.6276672358 0.4848929056 -0.6277658395 0.0512236365 -0.0215967809
445297330.0 0.0522408461 -0.0220372786 0.4783929867 -0.6335425922 0.4783071522 -0.6333918212 0.0506434276 -0.0217488646
450297300.0 0.0519710295 -0.0225221495 0.4710124947 -0.6378590168 0.4717169631 -0.6391059495 0.0503063623 -0.0221573478
455297270.0 0.0512313003 -0.0233258633 0.4647422869 -0.6435734233 0.4651331858 -0.6436635607 0.0503500043 -0.0227226092
460297240.0 0.0505303284 -0.0237747296 0.4570091364 -0.6479611448 0.4567742572 -0.6489190912 0.0498355071 -0.0222875873
465297210.0 0.0506715764 -0.0245595126 0.4505881782 -0.653859752 0.4503164115 -0.654076807 0.0488212142 -0.0237252787
470297180.0 0.0496998647 -0.0250895947 0.4429778373 -0.6587787262 0.4433910204 -0.6591075396 0.0479392899 -0.0244260803
475297150.0 0.049325697 -0.026347721 0.4354682512 -0.663181298 0.4357539621 -0.6630527888 0.0484901194 -0.0245299842
480297120.0 0.049993938 -0.0268857074 0.4285121881 -0.6681929001 0.4287076766 -0.6684074015 0.0475732969 -0.0244676923
485297090.0 0.0495098846 -0.0273943224 0.4213616298 -0.6728996055 0.4212379608 -0.6732594002 0.0471052922 -0.0256462549
490297060.0 0.0490112577 -0.0279778942 0.4137099722 -0.6777471431 0.4140439954 -0.6779022028 0.0471014805 -0.0258438713
495297030.0 0.0479853014 -0.0282033982 0.4062752702 -0.6817572612 0.4062504558 -0.6823562338 0.0466833171 -0.0264275663
500297000.0 0.0476520844 -0.0292904565 0.3987845595 -0.6865777336 0.3990879623 -0.6866531973 0.0456743254 -0.0269682652
505296970.0 0.0470877769 -0.0297201894 0.3909024246 -0.6906469758 0.3905065776 -0.6911313699 0.0448761205 -0.0269954342
510296940.0 0.0468800814 -0.0299853278 0.3836005653 -0.6953428019 0.3836735678 -0.6954020466 0.0452756789 -0.0270913385
515296910.0 0.0459328721 -0.030411058 0.3757744625 -0.6995729806 0.3756035791 -0.6995795028 0.0441442594 -0.0278235279
520296880.0 0.0459295198 -0.031459044 0.3681281703 -0.703307811 0.3687006157 -0.7034453757 0.0442674 -0.0283710351
525296850.0 0.0451736717 -0.0322140412 0.360892372 -0.7072953695 0.3608059687 -0.7072913873 0.0438272748 -0.0288120009
530296820.0 0.0451393689 -0.0322278031 0.3529981297 -0.7108984419 0.3526598886 -0.7115026029 0.0427089228 -0.0298063226
535296790.0 0.0443218458 -0.0331251628 0.3449948392 -0.7146689154 0.3450820908 -0.7148840607 0.0424075262 -0.0300841098
540296760.0 0.0438392962 -0.0338720261 0.3375217091 -0.7194261271 0.3366330571 -0.7195623175 0.0413304623 -0.0302023789
545296730.0 0.0433540168 -0.0335665272 0.328702079 -0.7220849238 0.3293633741 -0.7231806221 0.0412697255 -0.0307521055
550296700.0 0.0425647749 -0.034579072 0.3213779975 -0.7260770727 0.3216726011 -0.7265010515 0.0407993838 -0.0305565623
555296670.0 0.0426237367 -0.0350673602 0.3133729606 -0.7297547089 0.3134269686 -0.7303141883 0.0401097571 -0.0313113834
560296640.0 0.0417396872 -0.035512617 0.3050147637 -0.7327981446 0.305730107 -0.7328635927 0.0397088835 -0.0313023613
565296610.0 0.0407162484 -0.0361333296 0.2976313189 -0.7366116505 0.2971761794 -0.7368372222 0.0389712138 -0.0322126688
570296580.0 0.0411467036 -0.0366996508 0.2894384663 -0.739440739 0.2895011205 -0.7397804117 0.0386849976 -0.0316892546
575296550.0 0.0404809238 -0.0362186642 0.2810451706 -0.7424899295 0.2815926192 -0.7426886934 0.0384717776 -0.0325551374
580296520.0 0.0395989673 -0.0369030339 0.2736579855 -0.7456795864 0.272863834 -0.7461192856 0.037559506 -0.0332623053
585296490.0 0.0395808433 -0.0381079757 0.2655246788 -0.7495089217 0.2646640323 -0.7486992287 0.0367796903 -0.0339297708
590296460.0 0.0381354491 -0.0383447669 0.2566845703 -0.7515092477 0.2566725841 -0.7517116677 0.0366863754 -0.0332878978
595296430.0 0.0377722717 -0.0383325492 0.248615949 -0.7549315193 0.2484984868 -0.7548909606 0.0360849807 -0.0341444369
600296400.0 0.0371040277 -0.0385689596 0.2403724501 -0.7571883255 0.2408882418 -0.7573164483 0.0355463714 -0.0340152925
605296370.0 0.0368998408 -0.0384985298 0.2319423249 -0.7598288963 0.2320428928 -0.7597383266 0.0348276494 -0.0348456741
610296340.0 0.0358569632 -0.0392816103 0.224267214 -0.7622413079 0.2237454583 -0.7625568109 0.0342546189 -0.0342778798
615296310.0 0.0356600513 -0.0394862466 0.2151684074 -0.7644416424 0.2149975203 -0.7648452281 0.0340943366 -0.0353971474
620296280.0 0.0348880256 -0.039984509 0.2074473218 -0.7667152498 0.20700431 -0.7668474135 0.033359535 -0.0358776327
625296250.0 0.0344478291 -0.0402647677 0.1978932916 -0.7692290422 0.1984705191 -0.7694189361 0.033031184 -0.0354436993
630296220.0 0.0336799693 -0.0406823344 0.1900930004 -0.7714308433 0.1905751346 -0.7712877982 0.0318310541 -0.0359422708
635296190.0 0.0332350698 -0.0410450469 0.1820918087 -0.772676543 0.181444646 -0.7728495788 0.0312894672 -0.0364787539
640296160.0 0.0324971197 -0.0412086947 0.1735102413 -0.7752022863 0.1731666771 -0.7753541057 0.0314922067 -0.0364454158
645296130.0 0.0320996597 -0.0412335953 0.1645286679 -0.7772152871 0.1650551918 -0.7772981813 0.0295680372 -0.0373061562
650296100.0 0.0309749981 -0.0408758117 0.1568464026 -0.7783713573 0.157041775 -0.7786167609 0.0296565659 -0.0370997114
655296070.0 0.03049637 -0.0420311299 0.1478006696 -0.780324837 0.1481573039 -0.7802640457 0.029754898 -0.0371230943
660296040.0 0.029420614 -0.0415870378 0.1394167607 -0.7814530957 0.1395706852 -0.7815205908 0.0284177324 -0.0379867616
665296010.0 0.0293142088 -0.0424593822 0.1313240853 -0.7833151308 0.1316725598 -0.7830843494 0.0278949192 -0.037520874
670295980.0 0.0292172685 -0.0420948214 0.1229859766 -0.7844837469 0.1228523647 -0.7844408462 0.0267670951 -0.0383318046
675295950.0 0.0284543899 -0.0427850889 0.1137931013 -0.7860619817 0.1143629413 -0.7867309874 0.0269459559 -0.0382005808
680295920.0 0.0276737317 -0.0426169253 0.1051448796 -0.7873337998 0.10502342 -0.7872676088 0.0264564456 -0.0386257914
685295890.0 0.0268048586 -0.0429642695 0.0970872278 -0.7881666959 0.0963174246 -0.7885607311 0.0258595089 -0.0380473791
690295860.0 0.0266282173 -0.0434569627 0.0882317178 -0.7884746832 0.0876396263 -0.7891450718 0.0256251112 -0.0381033687
695295830.0 0.0262998552 -0.0436916286 0.078889739 -0.7899520483 0.0791576585 -0.7904323012 0.0241462093 -0.0386822118
700295800.0 0.0256956869 -0.0434408881 0.0703248028 -0.7910637911 0.0710138593 -0.7914446061 0.0237171852 -0.0393226388
705295770.0 0.0247159839 -0.0434698278 0.0620973759 -0.7913793468 0.0622791692 -0.7916197028 0.0229593778 -0.0395198506
710295740.0 0.024066185 -0.0434862544 0.0533798907 -0.7919078885 0.0531451494 -0.7920058254 0.0217450679 -0.039153573
715295710.0 0.0235707975 -0.0439447326 0.0453769726 -0.7926823034 0.0452833077 -0.7930976468 0.0217901818 -0.0397803598
720295680.0 0.0226889907 -0.044153796 0.0366564462 -0.793184894 0.0362487222 -0.7935989596 0.021592239 -0.0389966917
725295650.0 0.0224855054 -0.0441948061 0.0276576407 -0.7928801951 0.0274589809 -0.793331577 0.0209185403 -0.0391411492
730295620.0 0.0210573028 -0.0445481768 0.0188603226 -0.7935865758 0.0187136501 -0.7941430227 0.020484401 -0.0406019276
735295590.0 0.0212256108 -0.0442431219 0.0110462189 -0.7938453773 0.0107196103 -0.7941434347 0.0196227459 -0.0395227082
740295560.0 0.0201391284 -0.0442234758 0.001648016 -0.7931358192 0.0017805995 -0.7942662795 0.0195865298 -0.0399915956
745295530.0 0.0198041706 -0.0447808997 -0.0069104918 -0.7943928742 -0.0063490056 -0.7943913297 0.0183717759 -0.0398901007
750295500.0 0.0192973278 -0.0447074102 -0.0153648664 -0.7933109997 -0.0156642616 -0.7935811059 0.0182313257 -0.0405505319
755295470.0 0.0188524008 -0.0443420925 -0.0243374558 -0.7936761659 -0.0237768344 -0.7938544401 0.0169252569 -0.0402778779
760295440.0 0.0178869533 -0.0444765366 -0.0328686055 -0.7929796299 -0.0330710494 -0.7932419141 0.0157828782 -0.0404866827
765295410.0 0.0169301195 -0.0450888238 -0.0400424287 -0.7922456622 -0.0405734993 -0.7931888136 0.0166484733 -0.0399568837
770295380.0 0.016914237 -0.0447652626 -0.0499678843 -0.791822799 -0.050116145 -0.7926637174 0.0159701557 -0.0399494997
775295350.0 0.0160344364 -0.0447216587 -0.0583346832 -0.7910295529 -0.0580160799 -0.7916429287 0.0146285447 -0.040905015
780295320.0 0.0154392767 -0.0449721522 -0.066597244 -0.7911887903 -0.0665509656 -0.7913233917 0.0142786985 -0.0400758934
785295290.0 0.0147292595 -0.0443202584 -0.075468491 -0.7894134996 -0.0756700142 -0.7905119705 0.0132810338 -0.0404127319
790295260.0 0.0140270342 -0.0444318334 -0.0838397423 -0.7897410304 -0.0840007853 -0.7896991123 0.0131804439 -0.0403025314
795295230.0 0.013299 -0.0446103201 -0.092313086 -0.7882274372 -0.0924119081 -0.7881329894 0.0125569726 -0.0392437778
800295200.0 0.0127764016 -0.0445358897 -0.1017443099 -0.7875954041 -0.1014522749 -0.7878343466 0.0119462688 -0.0401003506
805295170.0 0.0118988673 -0.0448456334 -0.109745577 -0.7855809458 -0.1099843133 -0.7862353692 0.0108959249 -0.040474541
810295140.0 0.0114252287 -0.044445883 -0.1180294359 -0.7849597837 -0.1181783522 -0.7853270812 0.0106669965 -0.0397446955
815295110.0 0.0107671078 -0.0444496187 -0.1272808538 -0.782966204 -0.1274524657 -0.7837562577 0.0097662269 -0.0405631489
820295080.0 0.010227515 -0.0448884833 -0.1354629377 -0.7822695786 -0.1353871242 -0.7828198812 0.0088750842 -0.0400183786
825295050.0 0.0096192928 -0.0445695501 -0.1440767539 -0.7800540634 -0.1440351222 -0.7803715232 0.0090437008 -0.0397432421
830295020.0 0.008833323 -0.044151973 -0.1526288749 -0.7789469316 -0.1528975036 -0.7795568837 0.0082467044 -0.0400824752
