!Created with skrf (http://scikit-rf.org).
# Hz S RI R 50.0 
!freq ReS11 ImS11 ReS21 ImS21 ReS12 ImS12 ReS22 ImS22
300000.0 -0.7754739126 -0.1397196389 -2.71079e-05 0.0012369668 0.0006576214 0.0009966994 -0.7687172519 -0.1617520284
5299970.0 -0.7852649074 -0.0071456812 6.45622e-05 6.85016e-05 -4.86308e-05 -0.0001281174 -0.7846306507 -0.0085817963
10299940.0 -0.7875336795 -0.0039096658 9.03583e-05 0.0001090682 9.9827e-06 -4.19098e-05 -0.7879036919 -0.0050647835
15299910.0 -0.7930233338 -0.0016178115 2.4324e-05 1.24693e-05 -3.20406e-05 -0.0001216962 -0.7930443576 -0.0032892369
20299880.0 -0.7994353909 0.0022208794 -3.81137e-05 -0.0001181742 -2.37133e-05 3.10917e-05 -0.8003151096 0.0015779941
25299850.0 -0.8065798719 0.007917918 -1.68597e-05 0.0001341526 -7.70012e-05 -3.52654e-05 -0.8061084801 0.0069677367
30299820.0 -0.8121453693 0.0161536412 0.0001456012 -8.69913e-05 1.39726e-05 -2.50554e-05 -0.8124405809 0.0147289205
35299790.0 -0.8171015832 0.0248700289 -8.82979e-05 0.0001291815 0.0001870703 0.0002101379 -0.8174193606 0.0238773083
40299760.0 -0.821726594 0.0346187194 0.0001213041 -1.56006e-05 5.14335e-05 -0.0001537675 -0.8212832714 0.0334209339
45299730.0 -0.8248726047 0.0438332602 -6.667e-06 -4.16013e-05 -6.98954e-05 -8.59547e-05 -0.8250850509 0.0423593323
50299700.0 -0.8266210096 0.0541877817 -0.0001404701 2.1587e-05 -0.0001020624 0.0001314664 -0.827650244 0.0526899188
55299670.0 -0.8286676619 0.0640861615 -0.0003905018 1.63557e-05 0.0001209803 0.0001532875 -0.8297960327 0.0629122276
60299640.0 -0.8301431014 0.0744501627 0.0001431801 -0.0001616705 -0.0002548903 -0.0002510105 -0.8306243664 0.0732989383
65299610.0 -0.8307391451 0.0845267172 0.0001540859 -0.0001266978 4.993e-07 -5.61748e-05 -0.8311851311 0.0827616909
70299580.0 -0.8312224822 0.0946886336 -1.66337e-05 -0.0001201379 0.000167606 2.1332e-06 -0.832436005 0.0930358827
75299550.0 -0.8315806152 0.1048494601 0.0001313794 0.0001781496 0.0001602656 3.8309e-06 -0.8323132771 0.1027405472
80299520.0 -0.831419944 0.1147023159 1.4765e-06 -2.01284e-05 3.6384e-06 -0.0001307795 -0.8320359155 0.1126959094
85299490.0 -0.8305068689 0.1242788788 4.92097e-05 -0.0001119462 -1.32595e-05 3.1737e-05 -0.8313076133 0.1217121794
90299460.0 -0.8298890946 0.1344370936 -9.7719e-06 6.90422e-05 0.0002548973 -0.0001269041 -0.830689628 0.1313448124
95299430.0 -0.8288720948 0.1435433003 2.0759e-05 7.35787e-05 -0.0002598985 -5.12515e-05 -0.8294729525 0.1416321001
100299400.0 -0.8277628704 0.1528483675 1.69828e-05 -1.44523e-05 -0.000101149 -7.9992e-05 -0.828688105 0.1495420644
105299370.0 -0.8264417059 0.1617928575 3.69347e-05 -7.01025e-05 -0.0001093169 -8.47355e-05 -0.8274971069 0.1590413549
110299340.0 -0.8253858695 0.1711809508 0.0001706354 -9.07582e-05 3.04173e-05 -2.14298e-05 -0.8269165831 0.1685131041
115299310.0 -0.8236406579 0.1807778477 0.0001018606 -3.91176e-05 -0.0001238745 -8.663e-07 -0.8246950545 0.1766618202
120299280.0 -0.8216399516 0.1894508853 -0.000137977 9.07114e-05 0.0001251788 -8.4461e-06 -0.8233623236 0.1864059215
125299250.0 -0.8205150481 0.198516132 -0.0001037777 -2.922e-05 2.8453e-05 0.0002374532 -0.8219818844 0.195538547
130299220.0 -0.8183518911 0.2078529957 -1.26345e-05 -8.81142e-05 -2.55933e-05 -0.0001141673 -0.8202174121 0.2040579599
135299190.0 -0.8166211048 0.2166864008 -7.04938e-05 -0.0001849976 0.0001364737 3.59013e-05 -0.8180133388 0.2126776951
140299160.0 -0.8144838466 0.2257309632 0.0001801801 -5.49538e-05 -0.0001039988 0.0001268845 -0.8160701207 0.222085451
145299130.0 -0.8125561199 0.2341530208 3.81688e-05 1.93241e-05 5.86205e-05 -0.0001001564 -0.813517951 0.230163038
150299100.0 -0.8101319749 0.2434180278 -7.70663e-05 -0.0001420586 4.38208e-05 2.81549e-05 -0.8120671466 0.2383405725
155299070.0 -0.8080249989 0.2526605885 -0.0001055723 0.0001636838 -0.0002553319 2.63555e-05 -0.8095858996 0.247950089
160299040.0 -0.8052255 0.2611373303 6.40439e-05 -5.26714e-05 -3.68207e-05 -0.000121139 -0.8074192005 0.2568224304
165299010.0 -0.8027043931 0.2694005709 7.1999e-05 2.50771e-05 7.3917e-06 -8.79125e-05 -0.8040195776 0.2647762138
170298980.0 -0.7993348909 0.2782444151 0.0002815243 -1.38805e-05 0.0001400081 -0.000161959 -0.802065423 0.2735051052
175298950.0 -0.7965783123 0.2871205589 -0.0001048599 -9.69632e-05 7.95008e-05 -0.0001364346 -0.7992486853 0.2819858888
180298920.0 -0.7939835723 0.2952900504 0.0002159826 0.0002072072 0.0001483994 -8.95106e-05 -0.7956909975 0.2902870928
185298890.0 -0.7906819462 0.3045247938 -0.0001379568 6.50615e-05 -0.0001683473 5.45958e-05 -0.7933280856 0.2986038084
190298860.0 -0.7874660949 0.3121616093 -9.325e-06 -0.0002283162 0.0001118989 0.0001916592 -0.7893044639 0.3073128804
195298830.0 -0.7839130683 0.3210160567 -4.34379e-05 5.5698e-05 -0.0002198881 -4.45689e-05 -0.7868911339 0.3157825992
200298800.0 -0.7807831477 0.3294311064 3.7189e-06 5.87106e-05 6.2495e-05 -0.000105657 -0.7831769179 0.3240341547
205298770.0 -0.7776204558 0.3375332498 3.10264e-05 -0.0001068294 -0.0001392633 -1.2258e-05 -0.7802172561 0.3322752958
210298740.0 -0.7739519354 0.345897717 5.48572e-05 0.0002261547 -9.771e-07 7.5761e-06 -0.7767106686 0.3406755704
215298710.0 -0.7706839899 0.3546560149 -1.70494e-05 -6.10708e-05 -0.0001103791 -2.5171e-05 -0.7731138314 0.348083204
220298680.0 -0.767023389 0.3620248692 -5.63393e-05 3.04691e-05 -5.34499e-05 0.0002398656 -0.7695375591 0.3567202765
225298650.0 -0.7632439242 0.3708324152 1.98936e-05 -3.75368e-05 0.0001515133 3.74483e-05 -0.7658570643 0.3647782167
230298620.0 -0.758946742 0.3788167423 7.62201e-05 4.57496e-05 -7.20747e-05 -0.0001057866 -0.7614318668 0.3725802141
235298590.0 -0.7546177226 0.3873871586 -6.94208e-05 -6.54034e-05 0.000152452 7.9814e-06 -0.7575784057 0.3802606469
240298560.0 -0.7513126809 0.3949944946 1.5284e-05 0.0001428773 -0.0001057132 -3.32124e-05 -0.7537673629 0.3889665735
245298530.0 -0.7464174764 0.4030325309 -7.55318e-05 -0.000116724 0.0001162292 -0.0001723675 -0.7503228511 0.3967312448
250298500.0 -0.7419672349 0.4107489378 -0.0001034758 8.91196e-05 -6.48491e-05 4.79079e-05 -0.7459717127 0.4048324338
255298470.0 -0.7377532178 0.4189153384 -9.38359e-05 -1.67151e-05 0.0002009036 -4.75587e-05 -0.7412337054 0.4124686541
260298440.0 -0.7340323145 0.4260913019 -8.27816e-05 -0.0002507499 9.04445e-05 0.000126929 -0.7368709111 0.4198088884
265298410.0 -0.7295637733 0.4341039007 9.60443e-05 0.0001536231 9.02572e-05 -5.55876e-05 -0.73210936 0.427783573
270298380.0 -0.7242412835 0.4418887872 -6.591e-06 9.37541e-05 -0.0001580948 -0.0002030086 -0.7274501284 0.4358537031
275298350.0 -0.7195991164 0.449266049 -9.39506e-05 -9.9025e-06 -0.0001222615 -5.17775e-05 -0.7226873445 0.4429854317
280298320.0 -0.7148247955 0.4566646952 -0.0001465953 -0.0001582507 0.0001015812 0.000141536 -0.7185685858 0.4505575508
285298290.0 -0.7103572317 0.4649037976 0.000155615 0.0001108663 -2.22329e-05 -6.9776e-06 -0.7130571427 0.457598336
290298260.0 -0.704958285 0.4715961894 -2.60286e-05 -2.70618e-05 0.0001111507 -7.22341e-05 -0.7084770594 0.4655286703
295298230.0 -0.700504918 0.4793957174 0.0001160876 -0.0001715519 -2.41605e-05 -8.91406e-05 -0.7039062542 0.4737657135
300298200.0 -0.6949053745 0.4864820703 6.31261e-05 0.0001613119 5.10992e-05 0.0001341003 -0.698926193 0.4800346943
305298170.0 -0.6898785952 0.4942272283 -3.15266e-05 0.0001966948 -5.5334e-05 6.30616e-05 -0.6932034423 0.4874747764
310298140.0 -0.6848737884 0.5006931697 4.08793e-05 2.16966e-05 -9.73935e-05 -5.26868e-05 -0.6885308259 0.4950468959
315298110.0 -0.67967603 0.5079552121 -9.30523e-05 -7.7557e-06 9.91854e-05 -9.003e-06 -0.6830707399 0.5020218509
320298080.0 -0.6740556368 0.5153776664 0.0001521966 -2.48871e-05 2.22042e-05 3.44821e-05 -0.6775999719 0.5093822655
325298050.0 -0.6683371703 0.521771345 0.0001371263 -8.11015e-05 4.08759e-05 -3.40562e-05 -0.6721749408 0.5161921165
330298020.0 -0.6629746461 0.529327407 0.0001544146 -0.0001103325 0.0001471116 -5.48531e-05 -0.6668043499 0.5234235554
335297990.0 -0.6573082698 0.5367141514 -8.26908e-05 5.33651e-05 3.8996e-06 -8.67773e-05 -0.6612049094 0.5304257518
340297960.0 -0.6524470955 0.5427552912 0.0002471998 -0.000132343 -4.29324e-05 -2.11396e-05 -0.6556446802 0.5372615484
345297930.0 -0.6466517302 0.5487835242 -0.0001375489 1.65165e-05 9.53072e-05 -0.0002016658 -0.6496587096 0.544011114
350297900.0 -0.6405242575 0.556211498 -0.0001378338 8.1633e-05 -7.14602e-05 -7.03884e-05 -0.6442041238 0.5508667596
355297870.0 -0.6339984769 0.5625982383 5.48837e-05 -0.0001987784 8.1875e-05 0.0001023852 -0.6380069605 0.5576365717
360297840.0 -0.6285681336 0.5690928336 -0.000159771 -6.7343e-05 0.0001769479 -3.2834e-05 -0.6323052451 0.5630773487
365297810.0 -0.6220863146 0.5757388862 0.0001907078 0.0002253231 -6.0143e-06 8.60874e-05 -0.6259362791 0.5703617617
370297780.0 -0.6162756568 0.5818888189 0.0001130725 8.78213e-05 -2.12926e-05 -0.0001028111 -0.6204095721 0.5764299793
375297750.0 -0.6103377826 0.5884548454 4.61848e-05 -4.0306e-05 7.2375e-05 -0.0001086799 -0.6141488398 0.5833765378
380297720.0 -0.603855371 0.5951829651 1.9857e-06 0.0001302682 -0.0001137478 5.94489e-05 -0.6077710587 0.5903312012
385297690.0 -0.5981087761 0.6009644954 0.0001828959 -1.84429e-05 0.0002122608 -0.0002031649 -0.6018233327 0.5960957504
390297660.0 -0.5914913856 0.6073148025 4.1741e-05 -3.37112e-05 -5.49478e-05 1.74741e-05 -0.5955755422 0.6016509196
395297630.0 -0.5855052002 0.6129537678 3.85659e-05 0.0003452707 -4.9494e-05 -2.81159e-05 -0.5894321642 0.6084232506
400297600.0 -0.5787969251 0.6192038588 -6.88542e-05 0.000117229 6.20549e-05 -0.0001807748 -0.5829758545 0.6142176475
405297570.0 -0.5721318748 0.6252028844 -3.65436e-05 0.0001198508 7.09895e-05 -0.0002212931 -0.5771319729 0.6195773931
410297540.0 -0.5658850975 0.6303913367 0.000197408 -7.40047e-05 -3.8744e-05 0.0001331493 -0.5699531333 0.6256324663
415297510.0 -0.5592732899 0.6364489223 -0.000307872 -9.73582e-05 2.709e-06 2.81567e-05 -0.5634121877 0.63211424
420297480.0 -0.5520096961 0.6422145367 -5.847e-07 0.0001920191 7.23277e-05 -0.0001110982 -0.5570426784 0.636838317
425297450.0 -0.5456972348 0.6479327546 6.39033e-05 -1.1262e-06 8.25701e-05 0.0001544813 -0.5497933857 0.6431596255
430297420.0 -0.5392922308 0.6535690647 7.70163e-05 -9.49269e-05 -6.71251e-05 4.258e-06 -0.5441524305 0.6487321755
435297390.0 -0.5321411781 0.6591309796 -5.53184e-05 9.36924e-05 -0.0001681095 -6.16531e-05 -0.5369291148 0.6534671982
440297360.0 -0.5250870232 0.6644869583 5.15334e-05 0.0002466702 1.49792e-05 -6.51514e-05 -0.5302518882 0.6592214838
445297330.0 -0.5181568716 0.6699733031 -0.0002084987 -7.93819e-05 0.0001675501 -6.30185e-05 -0.5236960722 0.6639389885
450297300.0 -0.5111259728 0.674774934 9.35395e-05 -0.0001814974 -0.0001801903 0.0001714688 -0.5168200597 0.6697872923
455297270.0 -0.5041815172 0.6803502513 1.13943e-05 -0.0002103274 8.97039e-05 4.06718e-05 -0.5103254692 0.6752188115
460297240.0 -0.4972881362 0.6854680071 6.57815e-05 -5.191e-05 0.000129093 -7.0749e-05 -0.5026639133 0.680835982
465297210.0 -0.4899841811 0.6908622061 -0.0001764704 0.0003472616 -0.0001506731 -6.7779e-06 -0.4961927418 0.6848422538
470297180.0 -0.4827271654 0.6950795993 5.2904e-05 0.0001096239 0.000121143 0.000139713 -0.4893894807 0.6898625205
475297150.0 -0.4761898787 0.7005793436 0.0001743435 -5.37713e-05 -2.80833e-05 4.87881e-05 -0.4820676505 0.6943584349
480297120.0 -0.4685917219 0.704727371 6.313e-06 8.62814e-05 5.12985e-05 3.11542e-05 -0.4750919274 0.7000958306
485297090.0 -0.4615570077 0.7097123675 -4.75374e-05 -0.000144456 -7.67176e-05 -5.65562e-05 -0.4677346812 0.703985915
490297060.0 -0.4540260745 0.7144262392 0.0001075142 0.0001054118 -0.0003647981 0.0001074071 -0.4611238814 0.7083491542
495297030.0 -0.447291583 0.7189369897 -0.0001643311 0.0001712564 -1.21125e-05 -0.0001014742 -0.4529878512 0.7126487554
500297000.0 -0.4384370159 0.7232216559 -4.3015e-06 0.0001464101 -0.0002304432 -0.0002177839 -0.4464246944 0.7177045382
505296970.0 -0.4311751477 0.7271897523 -4.99694e-05 -0.0001527657 0.0001409157 -1.87987e-05 -0.4395762696 0.7223898609
510296940.0 -0.4240591601 0.7319911555 5.5585e-05 -6.38736e-05 0.0002103647 1.013e-06 -0.4323609176 0.7265938888
515296910.0 -0.4173028038 0.7363866034 0.0001649256 6.35134e-05 -0.0001301874 -0.0001331732 -0.4244889835 0.7305143618
520296880.0 -0.4093190768 0.740971789 -0.0002443402 7.32798e-05 -2.1179e-06 -0.0002828146 -0.4170863534 0.7343979525
525296850.0 -0.4019666251 0.7448996982 -0.0001017315 3.18271e-05 0.0001772313 6.12949e-05 -0.4096436478 0.7395676636
530296820.0 -0.3937629029 0.7480592841 -0.0001524298 -0.000150764 -0.000122536 -0.0001364734 -0.4027988901 0.7427776589
535296790.0 -0.3863193612 0.7525587412 -9.88765e-05 0.0001470687 0.0001166685 9.42593e-05 -0.3952468933 0.7463131317
540296760.0 -0.3781377475 0.7563131321 1.42939e-05 0.0001939319 -0.0001130719 5.78817e-05 -0.3878177514 0.7507013356
545296730.0 -0.3710903411 0.7597891058 -2.16831e-05 0.0001112441 -0.0001062047 -0.0001469234 -0.3807020834 0.7540640085
550296700.0 -0.3631322766 0.7638840233 2.21238e-05 0.0002822658 -0.0001248638 0.0001574537 -0.3726292583 0.7580647911
555296670.0 -0.3545310535 0.7670542581 -3.18264e-05 0.0005465581 -1.6237e-05 -3.07058e-05 -0.3650118551 0.7616625318
560296640.0 -0.3469371804 0.770872464 -1.12808e-05 -0.0001796115 -9.1628e-06 0.0002460967 -0.3576385893 0.7654509854
565296610.0 -0.340154962 0.7739522292 0.0002527394 -6.7849e-05 6.34937e-05 9.0693e-06 -0.3500251815 0.768890715
570296580.0 -0.3319291649 0.7772393422 4.82305e-05 -0.0001679275 1.79221e-05 -2.02507e-05 -0.3426218287 0.7724375525
575296550.0 -0.3235340271 0.780849193 0.0001155717 8.13487e-05 5.04875e-05 0.0001867261 -0.3343799419 0.7753446193
580296520.0 -0.3155901616 0.7842860902 7.72431e-05 0.0002430936 5.23043e-05 -0.0001497269 -0.326755312 0.779296004
585296490.0 -0.3078526563 0.7863902673 -0.0001238422 -2.74842e-05 -0.0001394344 8.00747e-05 -0.3192881447 0.781740686
590296460.0 -0.2999177622 0.7896158794 -1.47935e-05 0.0001528726 -0.0001245485 -7.62987e-05 -0.3111964898 0.7848738659
595296430.0 -0.2912325043 0.7935570862 -9.7583e-05 5.5019e-05 -0.0001600359 -7.89522e-05 -0.3035056793 0.7876782288
600296400.0 -0.2832891733 0.7961743977 8.31786e-05 -7.22192e-05 6.25575e-05 0.0002101373 -0.2963027378 0.791187624
605296370.0 -0.2754643558 0.7992001508 -2.45226e-05 2.28528e-05 2.75043e-05 0.0001520452 -0.2882232139 0.7944601037
610296340.0 -0.267529602 0.801519259 3.59708e-05 -0.0001339754 5.2232e-05 6.29674e-05 -0.2798560939 0.7971797946
615296310.0 -0.2592489394 0.8046278993 0.0001009006 0.0001925051 -0.0002077231 -7.6599e-06 -0.2725453849 0.7991321554
620296280.0 -0.2508179321 0.8068407785 9.36566e-05 1.09194e-05 -0.0001129258 7.10807e-05 -0.2643818695 0.8017949647
625296250.0 -0.2427226476 0.8097463932 3.13557e-05 -4.74982e-05 0.0001364913 0.0001198838 -0.2565591702 0.804452824
630296220.0 -0.2343227859 0.8117340367 -0.0002008432 -5.25511e-05 -1.9904e-06 0.0002063601 -0.2483471855 0.8074915073
635296190.0 -0.2260179823 0.8146016995 0.0001470624 0.000102001 -5.1918e-06 -7.70216e-05 -0.2407360837 0.80946785
640296160.0 -0.2176821406 0.8152354846 0.0001253605 5.86076e-05 -0.0001006036 0.0001140727 -0.2320497381 0.8119287195
645296130.0 -0.2101805542 0.8177578336 1.69639e-05 -0.0001036929 -2.58481e-05 -0.0001685439 -0.2242756574 0.8142025911
650296100.0 -0.2014667998 0.8205592213 6.45803e-05 -0.0001106979 9.87693e-05 -7.87109e-05 -0.2164168467 0.8168671278
655296070.0 -0.1931503027 0.8218698094 -0.0001296642 0.0001904385 -6.40849e-05 -5.64954e-05 -0.2083937633 0.8181395458
660296040.0 -0.1850372685 0.8237060077 -9.12692e-05 3.59873e-05 -1.20626e-05 3.55402e-05 -0.2000410703 0.8204716149
665296010.0 -0.1768294273 0.8258841833 0.0001074149 0.0001094928 0.0001540659 8.04936e-05 -0.1927021478 0.8225979166
670295980.0 -0.1674915853 0.8277208268 2.3712e-05 8.66089e-05 8.8547e-06 8.71782e-05 -0.1850833087 0.824109281
675295950.0 -0.1601131164 0.8288255381 -4.74684e-05 -0.0001025714 8.0105e-05 -8.2191e-05 -0.1758748869 0.8262088784
680295920.0 -0.1515102569 0.8308481131 -1.19669e-05 -4.20979e-05 -5.84032e-05 -1.45723e-05 -0.1679822363 0.8276203199
685295890.0 -0.1429930777 0.8317795135 -0.0001561142 1.69003e-05 6.74898e-05 -5.90205e-05 -0.1594722036 0.829020128
690295860.0 -0.1344115964 0.8334989919 -5.4017e-06 -8.85535e-05 -0.0001076731 -2.18344e-05 -0.1514283467 0.8307075627
695295830.0 -0.1261623458 0.8343882235 0.0001219371 -5.5028e-05 -0.0001926557 2.11027e-05 -0.1432288094 0.8325201838
700295800.0 -0.1181525083 0.8355257406 -0.000125749 -5.2014e-06 0.000139866 1.27673e-05 -0.1341643362 0.8335414539
705295770.0 -0.1087466997 0.8374379053 -8.69685e-05 -8.16366e-05 -6.02599e-05 2.77165e-05 -0.1269188568 0.8351835148
710295740.0 -0.1012956113 0.8385128192 -7.29252e-05 -1.39481e-05 2.97879e-05 0.0001545882 -0.1194221827 0.8368419067
715295710.0 -0.0924364173 0.8393102442 -9.73391e-05 -0.000236459 8.21725e-05 8.36263e-05 -0.1102585238 0.8368897045
720295680.0 -0.0843062163 0.8395441672 -3.42632e-05 -4.34935e-05 6.67475e-05 1.22854e-05 -0.1016269211 0.8379875468
725295650.0 -0.0748214529 0.8407878251 0.0001614753 -2.64672e-05 -5.144e-07 0.000104399 -0.0935797702 0.8398441244
730295620.0 -0.0669601485 0.8412397394 0.0001626223 5.55614e-05 -0.0001291532 8.76173e-05 -0.0851377268 0.840385054
735295590.0 -0.0580046731 0.8420867111 -0.0001239402 9.1685e-06 -0.0001278523 -0.0001072022 -0.0771119895 0.8407575521
740295560.0 -0.049808183 0.8425476862 5.28667e-05 3.4993e-06 -5.48196e-05 -2.8048e-06 -0.0685851521 0.8409449958
745295530.0 -0.0413897557 0.8427564642 -2.67009e-05 -2.63258e-05 -0.0001174433 6.49566e-05 -0.0602134042 0.8420141618
750295500.0 -0.0327927503 0.8431477209 -1.97976e-05 4.90976e-05 -0.0001095995 -1.46595e-05 -0.0517313761 0.8421462683
755295470.0 -0.0245621548 0.8435532756 -9.5488e-06 -2.54667e-05 0.000129835 3.04126e-05 -0.0442315679 0.8437751299
760295440.0 -0.0163365756 0.8438777947 -0.000165705 -5.03696e-05 0.0003417108 0.0001964512 -0.0363480498 0.8437487458
765295410.0 -0.0075643958 0.843596035 0.000131335 -3.9091e-06 9.42654e-05 -0.0001266528 -0.0265548096 0.8440725495
770295380.0 0.0008244364 0.8440330097 -0.000139098 3.56339e-05 3.35978e-05 -9.86079e-05 -0.0185277622 0.8439546506
775295350.0 0.0091571963 0.8443903343 6.14717e-05 -0.0001441033 -4.60696e-05 0.0001119094 -0.0108576412 0.8436318548
780295320.0 0.0179486461 0.8438038926 0.0001619903 0.0001011689 9.469e-05 0.0002698936 -0.0026534446 0.8444857281
785295290.0 0.026076243 0.8442643689 -1.48875e-05 -4.60758e-05 -0.0001380997 0.0001109329 0.0053721106 0.8439958249
790295260.0 0.0349023692 0.8429771127 0.0002106956 -7.93575e-05 0.0001047358 1.86659e-05 0.0144728855 0.8446280654
795295230.0 0.0430096945 0.8432481088 5.74714e-05 0.0001004294 -8.80965e-05 -7.90672e-05 0.0222560966 0.8441237628
800295200.0 0.0518727605 0.8422967415 9.0016e-06 4.143e-05 0.0001184509 -5.62989e-05 0.0311201369 0.8433833867
805295170.0 0.0598359527 0.842056369 -1.82958e-05 8.63552e-05 -0.0002033352 -3.33599e-05 0.0392121596 0.8430235172
810295140.0 0.0681801012 0.8412955839 3.3572e-06 -1.49063e-05 3.36206e-05 -9.68795e-05 0.0473243935 0.8436382497
815295110.0 0.0770770774 0.8401622816 0.0001796789 6.77274e-05 -3.36051e-05 1.89332e-05 0.055973472 0.8426757887
820295080.0 0.0852279682 0.8390383629 2.585e-06 -6.92959e-05 -6.3454e-06 5.47815e-05 0.0637769734 0.8421367305
825295050.0 0.0939333449 0.8386166424 0.000176027 5.7918e-06 -0.0001464988 0.0001573443 0.0719853896 0.841400351
830295020.0 0.1022211119 0.8379118785 -0.0002831913 -2.3951e-06 -7.0131e-06 2.0253e-05 0.0801450408 0.8403785986
835294990.0 0.1100666582 0.8370194958 0.0001478799 -0.0001412932 7.88176e-05 5.937e-07 0.088424016 0.8395730735
840294960.0 0.1191854144 0.8350482535 -1.99167e-05 -0.0001246846 7.3559e-06 9.9226e-06 0.0963539674 0.8392395491
845294930.0 0.1269547089 0.8344866913 -0.0001365001 9.35373e-05 -0.000198838 8.40535e-05 0.1048133726 0.8376815092
850294900.0 0.1357638302 0.8326639486 2.37953e-05 -0.000116194 -3.18417e-05 -0.0001071151 0.1131668222 0.8365721844
