!Created with skrf (http://scikit-rf.org).
# Hz S RI R 50.0 
!freq ReS11 ImS11 ReS21 ImS21 ReS12 ImS12 ReS22 ImS22
300000.0 -0.2404472499 -0.0923583821 0.4712292749 0.0615176208 0.4701033428 0.0572328468 -0.2403446051 -0.0965880406
5299970.0 -0.2447412868 0.0061674316 0.4747340776 0.0051912066 0.475069 0.0053464919 -0.2410434541 0.0072904561
10299940.0 -0.2418094952 0.0176226456 0.4767401288 0.0064207066 0.4768746807 0.0063290524 -0.2375390394 0.0206068783
15299910.0 -0.2375076327 0.0267358061 0.4802898217 0.0075515866 0.480520377 0.007739362 -0.2330887702 0.0301995115
20299880.0 -0.2329200278 0.0338990098 0.4850499762 0.0086283713 0.4848949626 0.008139788 -0.2278596782 0.0380778959
25299850.0 -0.2277027288 0.0404755943 0.4899783783 0.0069848864 0.4901966014 0.0070956067 -0.2218933192 0.0446228188
30299820.0 -0.2225226852 0.0450838897 0.4957875794 0.005204957 0.4956524347 0.0051797683 -0.2161658161 0.0500837871
35299790.0 -0.2176961784 0.0490932196 0.5011174497 0.0012888591 0.5008338618 0.0016090866 -0.2105273239 0.0545448322
40299760.0 -0.2124422796 0.0524660073 0.5055936616 -0.0022627879 0.5060734786 -0.0022859336 -0.2051371774 0.0573603323
45299730.0 -0.2082082083 0.054899994 0.5107392641 -0.006743147 0.5105345038 -0.0069146251 -0.200485025 0.0603108582
50299700.0 -0.2037464585 0.0567945762 0.5149758391 -0.01253612 0.5149728291 -0.0123603953 -0.1955824584 0.0625602521
55299670.0 -0.1999902146 0.0583083928 0.5187908114 -0.0193047393 0.5184054549 -0.0185244659 -0.1911690945 0.0642966981
60299640.0 -0.1958509266 0.0600799455 0.5219409847 -0.0249354855 0.5223179038 -0.0243324404 -0.1875091745 0.0655027635
65299610.0 -0.192759606 0.0611067976 0.5250186754 -0.0312690257 0.5249026104 -0.0310399522 -0.1840542579 0.0663698314
70299580.0 -0.1899938768 0.0623299819 0.5272830246 -0.0378513642 0.5271199693 -0.0377564711 -0.1808283769 0.067502167
75299550.0 -0.1868007818 0.0632408871 0.5290040073 -0.0449943888 0.5287267132 -0.0446525302 -0.177812701 0.0683177362
80299520.0 -0.1846058619 0.0636469579 0.5306298176 -0.0513810755 0.5309527586 -0.0515328926 -0.1752368264 0.0691356161
85299490.0 -0.1826890627 0.0641907354 0.5322089614 -0.0579714772 0.5320420353 -0.0578288326 -0.172887499 0.0695306369
90299460.0 -0.1805459925 0.0646309136 0.5330050843 -0.0653283908 0.5334077631 -0.0650787661 -0.1703646975 0.0703817068
95299430.0 -0.1781292515 0.0652325571 0.5340463605 -0.0720061206 0.5340324148 -0.0723409569 -0.1683612726 0.0712653143
100299400.0 -0.1766310352 0.066196738 0.5340663511 -0.0789220049 0.5341281374 -0.0790216536 -0.1657603601 0.0714698871
105299370.0 -0.1749881959 0.0668971414 0.5347686427 -0.0862621398 0.5347903726 -0.0858462426 -0.1640520508 0.0723541021
110299340.0 -0.1733333215 0.0674468657 0.5348855901 -0.0924585277 0.5346856447 -0.0922562728 -0.1625682744 0.0727681493
115299310.0 -0.1718419381 0.068092136 0.5350172202 -0.0998065047 0.5348691952 -0.0997007964 -0.1611997698 0.0735594246
120299280.0 -0.1705614243 0.0686940529 0.5344544461 -0.1063624836 0.534731777 -0.1062211642 -0.1593655495 0.0746124742
125299250.0 -0.169461629 0.069102966 0.5343043306 -0.112873644 0.5342919304 -0.1125782043 -0.1586983432 0.0749666792
130299220.0 -0.1684601734 0.0700500702 0.5331264248 -0.1193902933 0.5334408673 -0.11969402 -0.157077953 0.0758262684
135299190.0 -0.1675387579 0.0714445804 0.5329602854 -0.1259961409 0.5326800593 -0.126112219 -0.1555829585 0.0766503065
140299160.0 -0.1666348497 0.0721239244 0.5324248811 -0.1332583428 0.5323337138 -0.133008351 -0.1543819836 0.0781613127
145299130.0 -0.1655384148 0.0728983809 0.5314449849 -0.139767576 0.5309085572 -0.1395150107 -0.1533701659 0.0789541557
150299100.0 -0.1643651679 0.0740226722 0.5299176164 -0.1456594454 0.5302985662 -0.145637753 -0.1524163708 0.0801454905
155299070.0 -0.1637506885 0.074690199 0.5291862388 -0.153197941 0.5288247026 -0.1526133265 -0.1512139982 0.0813744574
160299040.0 -0.1627676602 0.0760450536 0.527282206 -0.1592661743 0.5270799399 -0.1588480171 -0.1508606167 0.0824535465
165299010.0 -0.1621324583 0.0770129408 0.5259972053 -0.1659184065 0.526327639 -0.1652577197 -0.1493903591 0.0836842456
170298980.0 -0.1615428636 0.077629727 0.5241812119 -0.1719556017 0.5244890495 -0.1720701871 -0.1482267974 0.084879813
175298950.0 -0.1607102231 0.0790010002 0.5228812219 -0.1778143526 0.5226969947 -0.1777657486 -0.1475868937 0.0860731357
180298920.0 -0.16023081 0.0799439706 0.5212587671 -0.1846203159 0.5208951263 -0.1841699235 -0.146396748 0.0874564601
185298890.0 -0.1586936344 0.0813132937 0.5190468799 -0.1905828587 0.5188996719 -0.1906526084 -0.1457478845 0.0888693441
190298860.0 -0.1582862451 0.0823346675 0.5174853704 -0.1967989036 0.5172152747 -0.1965752638 -0.1445919446 0.0895388294
195298830.0 -0.1575029242 0.0833701861 0.5151632224 -0.202997564 0.5155674075 -0.2026853572 -0.1439051291 0.0911298816
200298800.0 -0.1569220236 0.0845436994 0.5132094725 -0.2088167862 0.5134730152 -0.208949282 -0.1431721211 0.0924623837
205298770.0 -0.156192125 0.0858968261 0.5106559678 -0.2154443895 0.5108653701 -0.214981492 -0.1420827373 0.0932648886
210298740.0 -0.1553081603 0.0869524152 0.5085654075 -0.2204973466 0.5085641421 -0.2207647571 -0.1405770895 0.0951211981
215298710.0 -0.1549114623 0.0883594544 0.5061070185 -0.2269883132 0.5063797417 -0.2273918704 -0.1404902013 0.0964700811
220298680.0 -0.1539853552 0.0894344119 0.5037159703 -0.2323556386 0.5036596962 -0.232606631 -0.1395535105 0.0974482476
225298650.0 -0.1534792968 0.090687787 0.501594677 -0.2385400696 0.5018050113 -0.2385396776 -0.1388932762 0.0989183498
230298620.0 -0.1526229311 0.0923313843 0.4993013115 -0.2443357082 0.4995737128 -0.2441374178 -0.1381628382 0.1000187537
235298590.0 -0.1517804512 0.0934188016 0.4963484128 -0.2500918794 0.4965062234 -0.2494771507 -0.13702118 0.1018422167
240298560.0 -0.1510142033 0.0949197618 0.4938776267 -0.2559104488 0.493443366 -0.2558304952 -0.1358636758 0.103148494
245298530.0 -0.1503173436 0.0963765865 0.491416567 -0.2617061866 0.4914073936 -0.2613652491 -0.1347115564 0.1040214875
250298500.0 -0.149288267 0.0977948468 0.4874981631 -0.2672976152 0.4873934838 -0.266923503 -0.1339527494 0.1054322633
255298470.0 -0.1485890162 0.0983128088 0.4845471969 -0.2725801858 0.4852712361 -0.27265529 -0.1328722856 0.1068368327
260298440.0 -0.1479366914 0.0996595074 0.4820034972 -0.2784042192 0.4821746349 -0.2781334747 -0.1314658049 0.1085096845
265298410.0 -0.1468314963 0.1019724557 0.479031875 -0.2840594154 0.4792700028 -0.2833467221 -0.1303408254 0.1096483337
270298380.0 -0.1460608848 0.1028755768 0.4763167116 -0.2887445434 0.4763931717 -0.2889732618 -0.129674137 0.1111116285
275298350.0 -0.1447363248 0.1044211847 0.4728463992 -0.2947377232 0.4731033005 -0.2947835077 -0.1281954661 0.1123258163
280298320.0 -0.1438707788 0.1057437576 0.4699275406 -0.3000501013 0.4699409733 -0.2995600973 -0.1270388812 0.1134926785
285298290.0 -0.143019498 0.1070502737 0.4664231203 -0.3052221604 0.4666025083 -0.3050922303 -0.1255924895 0.1149262603
290298260.0 -0.1418304534 0.1083000435 0.4627094245 -0.3105304675 0.4633040868 -0.3107128463 -0.1245370939 0.1167995059
295298230.0 -0.1409192608 0.1097016314 0.4600735644 -0.3157479932 0.4597992047 -0.3156388282 -0.122523255 0.1175429896
300298200.0 -0.14028986 0.1111833164 0.4568728013 -0.3207812508 0.4569218953 -0.3213420729 -0.1217938585 0.119125003
305298170.0 -0.1390642214 0.1121203286 0.4526391639 -0.3264810004 0.4524111407 -0.3262244839 -0.1199573987 0.1201418237
310298140.0 -0.1380830152 0.113605898 0.4496611033 -0.3316214662 0.4496203292 -0.3311492825 -0.1188057883 0.1217400993
315298110.0 -0.1370607703 0.1146512734 0.445749692 -0.336636091 0.4461489439 -0.3366827305 -0.1178810499 0.1228648857
320298080.0 -0.1357665773 0.1159739551 0.4413825613 -0.3420787893 0.4422039736 -0.34166807 -0.1164117319 0.1242565135
325298050.0 -0.1351333459 0.1172101151 0.4382773541 -0.3469634117 0.4384622488 -0.3467059139 -0.1153070418 0.1254337916
330298020.0 -0.1341038543 0.118287548 0.4340650605 -0.352177208 0.4341807779 -0.3518490045 -0.1140003615 0.1266883891
335297990.0 -0.1330763914 0.1195533943 0.4300180624 -0.356796452 0.4298370531 -0.3567486702 -0.1133157492 0.1283328463
340297960.0 -0.1324655429 0.1211653257 0.4256899905 -0.3612159556 0.4256511411 -0.3613720136 -0.1118089228 0.1297604189
345297930.0 -0.1315030297 0.1230478452 0.4217018488 -0.3666597655 0.4217959344 -0.3663967388 -0.1104129852 0.1308807057
350297900.0 -0.1303999595 0.1238253052 0.4174172829 -0.3712336782 0.4176282859 -0.3706852323 -0.1096920379 0.1326380199
355297870.0 -0.129328985 0.1258033011 0.4136907203 -0.3754704983 0.413606004 -0.3749709253 -0.108060693 0.1339069025
360297840.0 -0.1280520293 0.1270209649 0.4098001037 -0.3799110813 0.4099748236 -0.379637862 -0.1069040016 0.1355383073
365297810.0 -0.1272117516 0.12836322 0.4050385546 -0.3845341237 0.4055108277 -0.3844158811 -0.1052075603 0.1367921074
370297780.0 -0.1260062504 0.1293828485 0.4005790692 -0.388449379 0.4013104263 -0.3882741391 -0.1038663269 0.1380823204
375297750.0 -0.1243719063 0.1311671572 0.3961536351 -0.3932292654 0.397254445 -0.3931046091 -0.1026563431 0.1395268604
380297720.0 -0.1235154814 0.1322963534 0.3924153999 -0.3978076819 0.3924804544 -0.3968677435 -0.1010669559 0.1404269189
385297690.0 -0.1223804372 0.1335710444 0.3877708577 -0.4019323757 0.3879482152 -0.4016945719 -0.0998189969 0.1418507254
390297660.0 -0.1210930884 0.1350284074 0.383768475 -0.4061033374 0.383898901 -0.4058853602 -0.0986888335 0.1434996506
395297630.0 -0.119763159 0.1363691735 0.3792196462 -0.4104845123 0.3791808385 -0.4101315665 -0.0964746645 0.1440906816
400297600.0 -0.1187566017 0.1376761355 0.3743735719 -0.414498785 0.3746508078 -0.4145530474 -0.0949141268 0.1454427051
405297570.0 -0.1177635174 0.1386792019 0.3703622188 -0.4181361299 0.370120805 -0.4180387159 -0.0938197421 0.1467970159
410297540.0 -0.1160560853 0.1400734479 0.365342066 -0.4227693957 0.3658116465 -0.4225980321 -0.0921828257 0.1483371247
415297510.0 -0.1146364572 0.141161174 0.3606376739 -0.4266891096 0.3609899607 -0.4266002586 -0.0905445181 0.1492234604
420297480.0 -0.1136958115 0.1427442629 0.3562049523 -0.4300119695 0.3561680649 -0.4305808711 -0.0892435608 0.150260319
425297450.0 -0.1118760758 0.1436653055 0.3515250066 -0.4344346837 0.3517931977 -0.4342081886 -0.0876171092 0.1514962989
430297420.0 -0.1104847403 0.1449437605 0.346153688 -0.4373677457 0.3468122731 -0.4377011365 -0.086071973 0.1522382286
435297390.0 -0.1093701531 0.1461468544 0.3411905679 -0.4414639408 0.3416735935 -0.4417911626 -0.0838840708 0.1534726476
440297360.0 -0.1078284187 0.1474727584 0.3368075635 -0.4453266038 0.337134695 -0.4452679289 -0.0825337341 0.1543688242
445297330.0 -0.1066098739 0.14840885 0.3323196863 -0.448981758 0.3322138789 -0.4488275989 -0.080469749 0.1550952651
450297300.0 -0.1049707064 0.1495202497 0.3270605108 -0.4527986092 0.3272536688 -0.4532967181 -0.0790331154 0.1560482619
455297270.0 -0.103837518 0.1507451074 0.3220298668 -0.4562948943 0.322192957 -0.4563749351 -0.0770714036 0.1572173208
460297240.0 -0.1024110175 0.1515548321 0.3171140253 -0.4595561367 0.3176197242 -0.4596750267 -0.0752051312 0.1584552248
465297210.0 -0.1006398633 0.1528770417 0.312136248 -0.4628507568 0.3124461675 -0.4635056106 -0.0734460708 0.159074966
470297180.0 -0.0994019696 0.1539836655 0.306704725 -0.466309097 0.3071565287 -0.4662576433 -0.071919574 0.1605487517
475297150.0 -0.0979240642 0.1548188168 0.3015812288 -0.4693123629 0.3020093284 -0.4693663701 -0.0696991998 0.1610464173
480297120.0 -0.0965416978 0.1564093005 0.2968171589 -0.4732608606 0.296768979 -0.4733388967 -0.0677795766 0.1621468472
485297090.0 -0.0950322967 0.1572625526 0.2920507677 -0.4760728499 0.2917049425 -0.4758902377 -0.066006941 0.1628887944
490297060.0 -0.0937942324 0.1581415489 0.2867335312 -0.4793302078 0.2867123942 -0.4790797878 -0.0642927275 0.1640323404
495297030.0 -0.0919592566 0.1593379001 0.2809177939 -0.4822582593 0.28157863 -0.482094849 -0.062953394 0.164898476
500297000.0 -0.0905175357 0.1600925027 0.2754674241 -0.4850097967 0.2757050449 -0.4848928799 -0.060492764 0.1661949669
505296970.0 -0.0885092813 0.1613871446 0.2704716264 -0.4881709564 0.2704561861 -0.4882654495 -0.058961114 0.1665095808
510296940.0 -0.0872273659 0.1624591676 0.2649861469 -0.4911351747 0.2649984599 -0.4911226045 -0.0571147372 0.1676039121
515296910.0 -0.0858276223 0.163402452 0.2599282691 -0.4942649129 0.2599410499 -0.4939473926 -0.0551672808 0.168271125
520296880.0 -0.084391726 0.1644421241 0.2545970298 -0.496999238 0.2544201377 -0.4967972266 -0.0530357427 0.1688310506
525296850.0 -0.0822732568 0.1649161542 0.2491937215 -0.4995605887 0.2492953031 -0.4995462596 -0.0514434388 0.1699611185
530296820.0 -0.0806371067 0.1663359838 0.2432612653 -0.5023943509 0.2438924949 -0.50197345 -0.0495812609 0.1706798052
535296790.0 -0.0797890734 0.1671188585 0.2387095181 -0.5045560796 0.2379806877 -0.5042735782 -0.047713986 0.1709738628
540296760.0 -0.0778977802 0.1683486933 0.2325689992 -0.5075934372 0.2331521368 -0.5072398054 -0.0462806171 0.172559211
545296730.0 -0.0763625816 0.1691099554 0.2269694865 -0.5099202249 0.2269659099 -0.5098704332 -0.044283416 0.1727129769
550296700.0 -0.0742687485 0.1699736585 0.2212278619 -0.5120318731 0.2216042272 -0.512493996 -0.042608117 0.1735291626
555296670.0 -0.0730998693 0.1708959681 0.216108805 -0.5146842249 0.2164194187 -0.5146735564 -0.040634693 0.174330186
560296640.0 -0.0710977525 0.1721335407 0.2107463737 -0.5170932354 0.2103958353 -0.5169567464 -0.0384431106 0.1746787987
565296610.0 -0.0695327144 0.1724585865 0.2042514428 -0.5191286681 0.2046446425 -0.5190232453 -0.0367735865 0.1753903472
570296580.0 -0.0681375988 0.1736627712 0.1991218452 -0.5215386506 0.1986733501 -0.5211963264 -0.0349092365 0.1761966333
575296550.0 -0.0666453119 0.1743238337 0.193189935 -0.5238990541 0.1934270477 -0.5235160647 -0.0327289209 0.1763738152
580296520.0 -0.0646556329 0.1750589357 0.1874160766 -0.5255900142 0.1878652144 -0.5251042243 -0.0308776251 0.1766632607
585296490.0 -0.0631824425 0.1753840267 0.1822316873 -0.5274360577 0.1821904841 -0.5274165484 -0.0291325518 0.1776074177
590296460.0 -0.0610302622 0.1763267844 0.1766095725 -0.5288050611 0.1765446088 -0.5292259821 -0.0276541526 0.1780887877
595296430.0 -0.0593748642 0.1773451781 0.1703559571 -0.5312781576 0.1705602394 -0.5308211532 -0.0256353577 0.1776113981
600296400.0 -0.0578805195 0.177895332 0.1650601171 -0.5328514604 0.1649733329 -0.5325395154 -0.0236202107 0.1786491243
605296370.0 -0.0563666798 0.1784957529 0.1591276113 -0.5345021537 0.1590690904 -0.5343581774 -0.021354317 0.178777198
610296340.0 -0.0544212951 0.1790492119 0.1530567788 -0.5361197477 0.153508562 -0.5360113946 -0.0191966325 0.1792350733
615296310.0 -0.0522647986 0.1796721931 0.1470007871 -0.5379876451 0.1472045196 -0.5380558973 -0.0169854757 0.1794906134
620296280.0 -0.0508138654 0.1799988643 0.1417405112 -0.5389859632 0.1417920759 -0.5393633766 -0.0153463267 0.179862213
625296250.0 -0.0491249132 0.1807668677 0.1364614995 -0.5413580745 0.1357808903 -0.5410092789 -0.0127314425 0.1800088385
630296220.0 -0.0467294414 0.1815466348 0.1291153645 -0.5424304304 0.1298318804 -0.5424646938 -0.0110957441 0.1805922542
635296190.0 -0.0458955506 0.1821380923 0.1239903949 -0.5437663166 0.1242572945 -0.5432728573 -0.0089537557 0.1807082531
640296160.0 -0.0441580836 0.1828275011 0.1177309463 -0.5447909386 0.1184406517 -0.5449444849 -0.0067983392 0.1807285811
645296130.0 -0.042098721 0.1834336292 0.1121355794 -0.545832379 0.1125128996 -0.5459824462 -0.0049585311 0.1811666638
650296100.0 -0.0402324428 0.1838184844 0.1061490182 -0.5470728073 0.106561071 -0.5473349351 -0.0024556242 0.1811163499
655296070.0 -0.0386863825 0.1842940801 0.1006645444 -0.5482381421 0.1007943189 -0.5484467584 -0.0005191798 0.1817984354
660296040.0 -0.0371724036 0.1845831496 0.0944653036 -0.5493824469 0.0948932338 -0.5492336059 0.001911098 0.1815977529
665296010.0 -0.0346006408 0.1850111557 0.0882004456 -0.5498808608 0.0887860767 -0.5501292819 0.0039433984 0.1823107458
670295980.0 -0.0338199414 0.1858347941 0.0829511957 -0.5508724212 0.0826700352 -0.5509297418 0.0053456628 0.1822295383
675295950.0 -0.0317366128 0.1862116505 0.0767113958 -0.551256138 0.0766544305 -0.5511484779 0.0072011272 0.1826796598
680295920.0 -0.0297720189 0.1866203107 0.0706684955 -0.5524765568 0.070085724 -0.5533030609 0.0098217367 0.1828000158
685295890.0 -0.0281487226 0.1877113099 0.0649813085 -0.5535703425 0.0649319509 -0.5533524059 0.011239956 0.1828134095
690295860.0 -0.0259963891 0.1877747978 0.0588012866 -0.5532719429 0.0584239566 -0.5539323815 0.0132235235 0.1833642708
695295830.0 -0.0243773832 0.18779588 0.0534018616 -0.5542463906 0.0527797196 -0.5545640287 0.0154772004 0.1830270514
700295800.0 -0.0224736846 0.1879932113 0.046760104 -0.5547660861 0.0464196182 -0.5549390536 0.017469809 0.1833253428
705295770.0 -0.0208411861 0.1889894 0.0406614241 -0.5554882479 0.0412987358 -0.5554574252 0.0192530732 0.1831894715
710295740.0 -0.0186749479 0.1893904428 0.0352049827 -0.5564816911 0.0354175014 -0.5559420845 0.0212984757 0.182751963
715295710.0 -0.0173980356 0.1895221909 0.0293591672 -0.5561364678 0.028686869 -0.5562751035 0.0234964161 0.1831342827
720295680.0 -0.0151906363 0.1895034052 0.0228946368 -0.5563554301 0.0235616217 -0.5565628019 0.0252521559 0.1830540167
725295650.0 -0.0131851058 0.1903041775 0.0166377681 -0.5567547537 0.0167956324 -0.5567758197 0.0270288208 0.1831458325
730295620.0 -0.0111604232 0.1905779074 0.0107387103 -0.5561277879 0.0108258413 -0.5567033685 0.0288208805 0.1826168907
735295590.0 -0.0096326843 0.1909948294 0.004747201 -0.5566966408 0.0047690141 -0.5569422728 0.0307320371 0.1823210761
740295560.0 -0.00809271 0.1910564582 -0.0011417237 -0.5566112692 -0.0007895349 -0.5568945864 0.0333341861 0.1821484844
745295530.0 -0.0062534544 0.1912070992 -0.0073115992 -0.5562929521 -0.0074247673 -0.5565169827 0.0353270766 0.1815962926
750295500.0 -0.0038737006 0.1915053375 -0.0132553735 -0.556433764 -0.012940617 -0.556889535 0.0371494827 0.1817424798
755295470.0 -0.0019860258 0.1913013247 -0.0184899383 -0.5561408084 -0.0190634494 -0.5563205024 0.0397859479 0.1806567982
760295440.0 -0.0005977701 0.1918437285 -0.0250470284 -0.5562948021 -0.0251933432 -0.5567978801 0.0413401299 0.1808044274
765295410.0 0.0015390901 0.1918205937 -0.0314170849 -0.5556820384 -0.0316317256 -0.5559906263 0.0438414522 0.1808071826
770295380.0 0.0027953456 0.1918776948 -0.037092796 -0.5559602379 -0.0368991946 -0.5550636441 0.0452628231 0.1801872805
775295350.0 0.0049085301 0.1916494281 -0.0433285276 -0.5545261131 -0.0423642213 -0.5547751049 0.0466908803 0.1797461424
780295320.0 0.0071287376 0.1918922298 -0.0493402299 -0.5541101984 -0.0484438182 -0.5543376668 0.0489532828 0.1791519095
785295290.0 0.0085207842 0.1917023706 -0.055405647 -0.5529965424 -0.0547852724 -0.5536210483 0.0517093862 0.1790181237
790295260.0 0.0111897836 0.1924979451 -0.0607009661 -0.5529113444 -0.0602398056 -0.5527366786 0.0535676081 0.1784341502
795295230.0 0.0127286949 0.1920130532 -0.0669590331 -0.5521254789 -0.0666407034 -0.5525401977 0.0556857865 0.1781237212
800295200.0 0.0140326499 0.1922620461 -0.0731004622 -0.5513554283 -0.0727820421 -0.5513844403 0.0575849142 0.1774560747
805295170.0 0.0161901921 0.1921887659 -0.0790233868 -0.5505254711 -0.0788209369 -0.5507047268 0.0595628557 0.177059798
810295140.0 0.0177914701 0.1916995892 -0.0842760088 -0.5498102986 -0.0846155392 -0.549565181 0.0617598996 0.176663336
815295110.0 0.0197726875 0.1917431137 -0.0902113713 -0.5480801279 -0.0901243137 -0.5490184463 0.0632724577 0.1762229976
820295080.0 0.0213734035 0.1922646451 -0.0964232522 -0.5475495301 -0.0959229131 -0.547591375 0.0655483638 0.1756159961
825295050.0 0.0240470869 0.1919354826 -0.1020932104 -0.5462537863 -0.1018512203 -0.5465217702 0.0674884272 0.1752270297
830295020.0 0.0254601803 0.1919191575 -0.1084463619 -0.5454035185 -0.1078905022 -0.5453625425 0.0701576301 0.1744265617
