!Created with skrf (http://scikit-rf.org).
# Hz S RI R 50.0 
!freq ReS11 ImS11 ReS21 ImS21 ReS12 ImS12 ReS22 ImS22
300000.0 -0.0470470999 -0.0393184499 0.0005245282 -0.0002448044 0.0001057314 0.001534706 -0.7772075464 -0.1311989316
5299970.0 -0.0486384707 0.0156551605 -1.7183e-05 -0.0001024184 5.60846e-05 0.0001062973 -0.7843017635 -0.0069056485
10299940.0 -0.0429875473 0.031984373 0.00018569 3.67432e-05 8.54542e-05 -0.0001428783 -0.7876291212 -0.003682913
15299910.0 -0.0349152339 0.0461350793 0.0001371043 -4.5491e-05 -6.52017e-05 0.0001873322 -0.7933571331 -0.0015205823
20299880.0 -0.0253854823 0.0574938983 0.0001621139 -5.6674e-06 5.40267e-05 -3.26168e-05 -0.7996861204 0.0023781353
25299850.0 -0.0145300268 0.066717476 -0.0001322833 -2.70023e-05 -6.16089e-05 5.67124e-05 -0.8060391859 0.008490892
30299820.0 -0.0033539986 0.073009421 -0.0002811442 3.99535e-05 0.0001562421 3.9105e-06 -0.8122736188 0.0160482484
35299790.0 0.0079950493 0.0774782998 -1.2381e-05 -7.85767e-05 -1.97989e-05 6.10187e-05 -0.8173636297 0.0255512112
40299760.0 0.0189746633 0.0804672651 8.37324e-05 0.0002155972 -0.0002840709 0.0001001869 -0.8215732163 0.0347197758
45299730.0 0.0296872178 0.081598023 2.29725e-05 -7.3205e-05 -7.34716e-05 0.0001737488 -0.8250758639 0.0438922615
50299700.0 0.0390779164 0.0816285639 -4.39224e-05 1.59907e-05 0.0001028682 8.69508e-05 -0.8273701854 0.0540391983
55299670.0 0.0481765015 0.080371917 -8.43483e-05 0.0001202843 5.1325e-06 1.60027e-05 -0.8294429015 0.0639159475
60299640.0 0.0567265379 0.0787337687 -3.58626e-05 0.0002014648 -9.47908e-05 0.0002482725 -0.8301997671 0.0741482276
65299610.0 0.0640906999 0.0758684573 1.08815e-05 -0.0001002356 0.0001993678 4.50701e-05 -0.8323430717 0.0842683681
70299580.0 0.0708705021 0.0733614625 -2.68481e-05 -1.4361e-06 0.000159314 -2.25549e-05 -0.8319463552 0.0944950329
75299550.0 0.0773722763 0.0700729516 0.0002510044 2.97721e-05 -0.0001346924 0.0002030826 -0.8325046472 0.1042021766
80299520.0 0.082752827 0.0665869593 -0.0001062387 1.26094e-05 0.0003069782 -6.94519e-05 -0.8317879242 0.1138563935
85299490.0 0.0875452256 0.062679341 5.2295e-06 -4.48866e-05 -0.0001488502 8.63235e-05 -0.8320865363 0.1239932351
90299460.0 0.0922340927 0.0588939498 0.0002012087 -9.44858e-05 0.0001016108 1.33301e-05 -0.8305605586 0.1331579802
95299430.0 0.0964682959 0.0549505787 -1.57639e-05 0.0001319917 -0.0002363273 4.98445e-05 -0.8293780431 0.1431447411
100299400.0 0.0995741688 0.0510094978 6.18505e-05 9.70334e-05 -0.000106294 -7.94093e-05 -0.82848422 0.1525056104
105299370.0 0.1029840301 0.047193845 0.0001394007 -5.46702e-05 0.0001945735 0.0002379227 -0.8273413283 0.1613960972
110299340.0 0.1059093597 0.0432615682 0.0001416799 -1.64263e-05 4.6174e-06 0.0001514354 -0.8256957919 0.170744953
115299310.0 0.1088536963 0.0392260519 -0.0001314295 -6.51244e-05 0.0002469191 -6.04602e-05 -0.8242939832 0.1800545413
120299280.0 0.1105802261 0.0351814463 0.0001991954 -0.0001304107 -6.35582e-05 0.0002134605 -0.8224046609 0.1886704604
125299250.0 0.111908538 0.0312286688 9.5207e-05 -2.44689e-05 0.0002936962 8.48246e-05 -0.8212350515 0.1982307557
130299220.0 0.1137465125 0.0276954779 5.06874e-05 9.40891e-05 0.0002005116 -1.58241e-05 -0.8188190348 0.2069952984
135299190.0 0.1149953782 0.0243543423 -7.83925e-05 6.43392e-05 9.42825e-05 1.2051e-05 -0.8166353372 0.216141186
140299160.0 0.1162392333 0.0205882694 1.15536e-05 -5.07114e-05 9.2826e-05 -0.000196648 -0.8146893405 0.2252049956
145299130.0 0.1173958709 0.017107344 0.000270043 0.0001953122 -0.0001019269 8.82887e-05 -0.8123694949 0.2342815177
150299100.0 0.1183391558 0.0133147742 4.97754e-05 -9.71013e-05 -3.53706e-05 0.0001900328 -0.8102641805 0.2430557369
155299070.0 0.1189414582 0.0100636207 -3.2079e-05 -0.0001832768 5.27397e-05 4.51146e-05 -0.8075963113 0.2520464215
160299040.0 0.1189984103 0.0072706058 -0.0001339119 -1.62519e-05 -8.94752e-05 0.0001497959 -0.8052812076 0.2608864803
165299010.0 0.1200198958 0.0037475932 -2.42469e-05 5.13423e-05 -0.0001419901 -0.0001551068 -0.802678435 0.2698961552
170298980.0 0.1198768501 0.0007756511 -1.09125e-05 0.0002171419 6.5055e-05 0.0002266738 -0.7993669237 0.2780981534
175298950.0 0.1200950213 -0.0024744804 0.000136071 -5.1503e-05 -4.64007e-05 -9.23403e-05 -0.7971505354 0.2870324724
180298920.0 0.1205748805 -0.005036478 0.0002490887 0.0001221801 4.384e-06 9.85665e-05 -0.7935376519 0.2950526224
185298890.0 0.1204304604 -0.0082983804 0.000281235 0.000119498 5.85696e-05 0.0002535676 -0.7907803807 0.3041719706
190298860.0 0.1205477824 -0.0109604506 -0.0001255136 0.0001308526 9.54733e-05 9.49971e-05 -0.7882562229 0.3123163891
195298830.0 0.1201674052 -0.013994931 0.0002120934 7.89848e-05 -0.0001341475 -0.0001254893 -0.7842988239 0.3209803155
200298800.0 0.1201864161 -0.0164514678 -5.8925e-06 2.3067e-05 -1.8482e-06 -1.98708e-05 -0.7818256224 0.3288635784
205298770.0 0.1196281073 -0.0191314741 0.0001958124 -9.84167e-05 -8.25401e-05 -5.54283e-05 -0.7776951518 0.337432766
210298740.0 0.119347996 -0.0218011283 -2.55465e-05 -0.0001836475 6.36477e-05 -4.1315e-05 -0.774801127 0.3463659783
215298710.0 0.1187677876 -0.0245032963 6.7051e-06 -6.8484e-06 8.96329e-05 0.0001681514 -0.7712798863 0.3543868322
220298680.0 0.1182012079 -0.0270815135 0.0002004335 7.77143e-05 -3.64168e-05 0.0001231748 -0.7677274775 0.3622765275
225298650.0 0.1175008698 -0.0296085527 0.0001756493 -0.0001088439 7.12233e-05 5.04907e-05 -0.7639053218 0.3702027264
230298620.0 0.1169591453 -0.0317876212 0.0001138522 1.89732e-05 -7.59653e-05 -6.37907e-05 -0.759990524 0.3789317341
235298590.0 0.1164415997 -0.0340390306 0.0002223045 -9.81744e-05 -0.0002032969 -0.0001024345 -0.7560016757 0.3872091254
240298560.0 0.1157637518 -0.0365907575 -0.0001277242 5.36196e-05 0.0001228515 0.0002406187 -0.751506994 0.394987508
245298530.0 0.1150198117 -0.0385202211 0.000280163 3.14047e-05 3.89478e-05 0.0001840743 -0.74767089 0.4027341456
250298500.0 0.1143431699 -0.0410163222 0.0001160055 6.82771e-05 1.76085e-05 -2.63371e-05 -0.7437051769 0.4102785692
255298470.0 0.1129762838 -0.0431792411 0.000261211 0.0001375914 9.12906e-05 -0.0001055123 -0.7389848565 0.4176389869
260298440.0 0.1123483782 -0.0452967011 0.0001912817 3.7857e-05 -1.23645e-05 0.0001332877 -0.7351137417 0.4259443078
265298410.0 0.1114296942 -0.046846626 4.07384e-05 -0.0001185657 0.0001190842 7.66774e-05 -0.7302423859 0.4336904715
270298380.0 0.110673027 -0.0491685611 0.0002023964 4.36131e-05 0.0001672977 -4.32634e-05 -0.7247848414 0.4408875416
275298350.0 0.1097596758 -0.0509946837 6.499e-05 2.27032e-05 0.0002105895 -0.0001695678 -0.7208907286 0.4487758652
280298320.0 0.1088881279 -0.0530470705 0.0001610844 0.0001133499 4.6662e-06 1.16408e-05 -0.7157332938 0.4561411215
285298290.0 0.1079568167 -0.0549140263 0.0001858923 2.79631e-05 -9.24625e-05 0.0001414234 -0.7109938853 0.4639558721
290298260.0 0.106863559 -0.0567493453 0.0001076512 6.72547e-05 -1.94854e-05 0.0001887775 -0.7061471046 0.4709534635
295298230.0 0.1060869677 -0.0589314529 -5.45839e-05 -0.0002090402 0.0001154294 0.0001236147 -0.7010963227 0.478257412
300298200.0 0.104873622 -0.060653613 0.0001742003 2.12088e-05 8.53296e-05 0.0001114248 -0.6964693076 0.4856191322
305298170.0 0.1040734582 -0.0623524537 4.15115e-05 -1.70579e-05 0.0001189969 6.58164e-05 -0.6901944715 0.4931898133
310298140.0 0.1028748681 -0.0641207899 9.50597e-05 -4.1779e-06 6.3934e-06 0.000111323 -0.6858072448 0.4999122267
315298110.0 0.1020263547 -0.0660189971 -0.0001365351 -4.37256e-05 0.0002324495 0.0001101008 -0.6797656176 0.506450728
320298080.0 0.1007010783 -0.0681904069 4.98119e-05 0.0002557536 0.0001027292 0.0001234415 -0.6745521392 0.514616064
325298050.0 0.0995376595 -0.0695525636 9.02236e-05 -0.0001016805 5.23576e-05 -0.0001552939 -0.6693559752 0.5209430948
330298020.0 0.0979310708 -0.0715723327 -7.48258e-05 -5.77511e-05 1.86149e-05 -6.6607e-05 -0.6637680359 0.5283357032
335297990.0 0.0966567868 -0.0733190265 0.0003492221 6.87194e-05 7.07134e-05 -8.35003e-05 -0.6585082571 0.5352154217
340297960.0 0.0947743529 -0.0745947621 7.72147e-05 -4.0956e-06 2.29569e-05 0.0001543392 -0.6523775574 0.5424160444
345297930.0 0.0934007231 -0.0761693522 0.0003626047 1.37471e-05 2.308e-06 0.0001187546 -0.6470717531 0.5483331875
350297900.0 0.092101697 -0.0773935689 2.74095e-05 7.5235e-05 0.0001836545 8.84078e-05 -0.6415689616 0.555952809
355297870.0 0.0906775269 -0.078804274 0.0001899368 0.0001480379 -8.69554e-05 8.88056e-05 -0.6359363451 0.5618382629
360297840.0 0.0893694787 -0.080425701 8.48024e-05 2.11459e-05 -1.49273e-05 0.0001614683 -0.629517343 0.5686794634
365297810.0 0.0876821533 -0.081255698 -3.04172e-05 -0.0001223744 0.0003376062 3.09089e-05 -0.6237630415 0.5753653732
370297780.0 0.0865839376 -0.082517084 -2.04809e-05 0.0001505269 0.0001422573 -4.60757e-05 -0.6170911952 0.5819158124
375297750.0 0.0851885869 -0.0837875057 0.0003372636 1.42206e-05 3.54862e-05 -0.0001312169 -0.611685124 0.5880661962
380297720.0 0.0836886776 -0.0853811656 0.000205253 0.0001300581 0.0001889212 0.0001002561 -0.6056513214 0.5942686874
385297690.0 0.0822644378 -0.0862559272 0.0001163443 0.0002158178 0.0001202048 -8.0523e-05 -0.5992257366 0.6004452684
390297660.0 0.0805888292 -0.0872526356 9.74004e-05 -6.67428e-05 1.2521e-06 0.0001250668 -0.5931042276 0.6074253865
395297630.0 0.0794970329 -0.0885649785 3.69361e-05 -0.0001994199 -5.75555e-05 0.000109865 -0.5865264602 0.6138152408
400297600.0 0.0780854997 -0.0894729154 2.78455e-05 0.0001196233 0.0001632533 5.6632e-05 -0.5807209909 0.6190003073
405297570.0 0.0764572734 -0.0907973124 5.42728e-05 -2.2733e-06 0.0002386142 3.67268e-05 -0.5742572961 0.6249379552
410297540.0 0.0748563922 -0.0917625896 -4.9435e-05 -0.0003283688 3.63893e-05 7.00809e-05 -0.567481044 0.6307996136
415297510.0 0.0735430505 -0.0931497096 -3.42732e-05 0.0001025323 0.0001970681 -2.86884e-05 -0.5608976536 0.6364600456
420297480.0 0.0719613327 -0.0936547266 7.72003e-05 5.81921e-05 0.0001741151 5.45022e-05 -0.5543696811 0.6423074894
425297450.0 0.0706910041 -0.0950053282 0.0001162287 0.0001748588 0.0002624928 2.59665e-05 -0.5476575307 0.6481298333
430297420.0 0.068998788 -0.0960843094 0.0001796465 -3.02735e-05 2.82065e-05 -1.91285e-05 -0.5411763753 0.6530529423
435297390.0 0.0675512817 -0.0965600874 0.0003143997 0.0001121871 0.0001897412 6.40548e-05 -0.5338751921 0.6585429446
440297360.0 0.0656145805 -0.098101729 7.61156e-05 7.27568e-05 -2.4917e-05 -1.03574e-05 -0.5275859071 0.663918511
445297330.0 0.064422032 -0.0987288591 -9.33342e-05 0.0002014415 0.0001641746 0.0001356222 -0.5202308281 0.6690868295
450297300.0 0.0629730074 -0.0995562768 0.0002631735 -7.7989e-05 0.0001234805 0.0001506291 -0.513050309 0.6743759003
455297270.0 0.0611189172 -0.100408654 0.0001547135 8.05496e-05 4.2348e-05 -1.49696e-05 -0.5065455761 0.6785873183
460297240.0 0.0595775911 -0.1012178944 2.21682e-05 5.49561e-05 0.0002108074 1.31521e-05 -0.4996022574 0.6843761099
465297210.0 0.0582828434 -0.1020014745 0.0001752178 -2.98378e-05 0.0001748028 4.4075e-05 -0.4918305022 0.6893262292
470297180.0 0.0568176805 -0.1024819786 -2.48472e-05 1.2357e-05 -7.1121e-06 7.48748e-05 -0.484883668 0.6945416852
475297150.0 0.0550116714 -0.1036187088 0.0002088148 0.0002616671 6.32397e-05 -2.16128e-05 -0.4776304351 0.6989431568
480297120.0 0.0535521127 -0.1041532148 0.0002019048 6.78164e-05 0.000215866 -2.92872e-05 -0.4702916356 0.7036871517
485297090.0 0.0519622278 -0.1046807311 0.0002430426 -0.0002410104 0.0001962831 8.70304e-05 -0.4629502178 0.7087413694
490297060.0 0.0500661474 -0.105101934 0.0001362271 -6.91914e-05 0.0002138629 -2.08168e-05 -0.4555060675 0.7127285757
495297030.0 0.0481984162 -0.1059339345 7.716e-07 0.0001755033 0.0004078151 -1.48322e-05 -0.4484592463 0.7179457317
500297000.0 0.0470385694 -0.1066668017 8.78559e-05 0.0002131238 0.0001225238 0.0003552946 -0.4406957478 0.7225404271
505296970.0 0.0456094752 -0.1073296134 -0.0001365696 -0.0002303071 0.0002002936 -0.0001240695 -0.4339327501 0.7269995404
510296940.0 0.0439857651 -0.1078196477 6.4966e-05 0.0002750445 0.0001178561 5.1692e-06 -0.4259877046 0.731217126
515296910.0 0.0423356122 -0.1084949536 0.0001477918 4.69546e-05 9.72795e-05 0.0001242323 -0.4190713549 0.7353981873
520296880.0 0.0404773304 -0.109141209 7.00956e-05 0.0001037881 0.000108577 0.0001925078 -0.4110426658 0.7389621476
525296850.0 0.0390216345 -0.1095781795 0.0001726848 -0.0001482427 0.0001781856 -0.0001163564 -0.4042879619 0.7436902419
530296820.0 0.0372336192 -0.1095858219 -2.69855e-05 0.0001543082 4.88028e-05 -6.65253e-05 -0.3960504396 0.7479904468
535296790.0 0.0356884982 -0.1103042104 0.0002658489 -4.82876e-05 1.51508e-05 2.69975e-05 -0.3895390459 0.7516240778
540296760.0 0.0336900167 -0.1107594535 6.38914e-05 7.19926e-05 9.31165e-05 5.87942e-05 -0.381089417 0.755534316
545296730.0 0.0322612572 -0.1110749946 4.47154e-05 -4.521e-06 0.000301864 -0.0001516023 -0.3731235042 0.7593697978
550296700.0 0.0308452196 -0.1114417115 5.21317e-05 7.63974e-05 9.50329e-05 -4.96674e-05 -0.3656090772 0.7629891919
555296670.0 0.0289268076 -0.1119557884 7.85336e-05 6.18647e-05 -3.24014e-05 -1.95596e-05 -0.3579598076 0.7672533605
560296640.0 0.0274875799 -0.111879166 -6.6604e-05 2.13237e-05 0.0002479195 -1.4262e-05 -0.3502101736 0.7709883424
565296610.0 0.0255594756 -0.1122304076 0.0002254963 3.40033e-05 0.0001662643 0.0001592137 -0.3422443397 0.7738493804
570296580.0 0.0237281359 -0.1125580091 0.0001140281 0.0001538933 0.0002414603 7.125e-05 -0.3344319887 0.7776429341
575296550.0 0.0220463483 -0.1125565611 8.53856e-05 -0.0002193553 0.0001223194 -1.97922e-05 -0.3263472335 0.7810046518
580296520.0 0.0206079697 -0.1131618932 0.0004455698 1.99123e-05 3.8098e-06 -3.4476e-06 -0.3183506091 0.7841386908
585296490.0 0.0184203016 -0.1130759208 -1.82954e-05 -2.44915e-05 4.11939e-05 5.9735e-06 -0.3100409286 0.7870651116
590296460.0 0.0176070203 -0.1134701049 0.0001277583 -4.68146e-05 9.2059e-06 0.0001003642 -0.3030196261 0.7901128544
595296430.0 0.0154397821 -0.1135308437 0.0002839837 0.0001019465 0.0001396563 7.50005e-05 -0.2943141256 0.7928294077
600296400.0 0.0137166585 -0.1137244438 0.000140097 6.94043e-05 -7.60992e-05 7.34686e-05 -0.286446408 0.7957948458
605296370.0 0.0121900009 -0.1139819535 0.0001711483 -5.80599e-05 2.60677e-05 -9.85359e-05 -0.277987006 0.7988655228
610296340.0 0.0103545046 -0.1140867339 0.0002177315 -0.0002532899 0.0001108893 -5.06716e-05 -0.2699626547 0.801041581
615296310.0 0.0088629691 -0.114006306 0.0001477173 0.0001068063 3.51287e-05 -1.8495e-06 -0.2618801478 0.8033194249
620296280.0 0.0071206519 -0.1140835115 0.0001786485 -2.00753e-05 9.08926e-05 -6.67294e-05 -0.2545059617 0.8064528094
625296250.0 0.0053996662 -0.114118459 -2.44667e-05 -0.0001791188 0.0001840041 0.0001475563 -0.2452383353 0.8083277103
630296220.0 0.0038645287 -0.1142597593 0.0001803792 2.79775e-05 0.0003068619 4.34509e-05 -0.2371666568 0.8106997437
635296190.0 0.0016244956 -0.1141265262 0.0002623174 -0.0001368969 0.0001730311 3.51146e-05 -0.2293984359 0.8133676936
640296160.0 0.0002144559 -0.1140205816 0.0001274877 0.000257797 9.13271e-05 -2.66711e-05 -0.220879825 0.8157763179
645296130.0 -0.0013514342 -0.113866108 0.0003132911 0.0001369675 -2.14301e-05 0.0003079786 -0.2130776766 0.8176674111
650296100.0 -0.0029127127 -0.1139415886 0.0002873641 -8.39196e-05 8.99493e-05 1.53656e-05 -0.2048880416 0.8191346017
655296070.0 -0.0048859657 -0.1136205914 -9.46505e-05 -0.0001624895 -7.48644e-05 1.66898e-05 -0.1960681699 0.8206107265
660296040.0 -0.0065656493 -0.1133394912 3.65462e-05 -1.22992e-05 9.5564e-05 -7.20662e-05 -0.187615811 0.8232016759
665296010.0 -0.0079204043 -0.1134932872 -5.2434e-06 6.64604e-05 0.0001553529 -1.84024e-05 -0.1788861613 0.8254439962
670295980.0 -0.0099183944 -0.113081644 4.63078e-05 -6.00136e-05 5.88865e-05 -0.0001177052 -0.1714630313 0.8270249875
675295950.0 -0.0115791914 -0.1127706671 8.06642e-05 -6.02666e-05 0.0001487321 -0.0001158592 -0.163623469 0.8294055985
680295920.0 -0.0129700687 -0.1125878684 -0.0001678381 -5.82804e-05 7.14089e-05 0.0001648832 -0.1548027092 0.8310652482
685295890.0 -0.0144874744 -0.1123081888 -0.0001006871 3.23745e-05 9.94624e-05 0.0001606888 -0.1461455966 0.8316827034
690295860.0 -0.0161338484 -0.1116687575 0.0001641634 -0.0003297652 8.09396e-05 -1.56351e-05 -0.1378115633 0.8338506641
695295830.0 -0.0180010367 -0.1116625269 0.0002740688 -0.000237434 0.0002311518 -0.0001806125 -0.1292911806 0.8347090899
700295800.0 -0.0196671319 -0.1114526234 8.74402e-05 -0.0001985766 0.0002501271 -0.0002876492 -0.1214452269 0.8361277883
705295770.0 -0.0212675187 -0.1109848409 0.0004531569 -0.0002735913 5.59343e-05 -6.4342e-06 -0.1133164505 0.8380421686
710295740.0 -0.0228693342 -0.1106647058 -5.19778e-05 -8.50028e-05 0.0001132743 6.83398e-05 -0.1048826183 0.838590276
715295710.0 -0.0245188069 -0.1101082801 -7.75809e-05 -4.70697e-05 0.0001142778 -0.0001694048 -0.0957142432 0.8401038295
720295680.0 -0.0261046874 -0.1098043848 0.0001179859 0.000121095 0.0002566016 -1.63574e-05 -0.0876380343 0.8412066048
725295650.0 -0.0275250056 -0.1094187063 0.0001311264 0.0001338832 4.13595e-05 -6.76269e-05 -0.0794188262 0.8419255075
730295620.0 -0.0291128057 -0.1087127229 0.0002107614 -1.24328e-05 0.0001254362 -2.14311e-05 -0.0717185562 0.8425887622
735295590.0 -0.0309346679 -0.1082058953 0.0002565054 -4.775e-05 9.81556e-05 -4.88877e-05 -0.0629287486 0.8426042585
740295560.0 -0.0324462295 -0.107465171 0.0001661887 -0.0001153865 0.000190674 6.19409e-05 -0.0538019544 0.8442331188
745295530.0 -0.0342392133 -0.1070530827 -0.0001134796 -0.0001565189 0.0001196119 1.05032e-05 -0.0455368233 0.8439740908
750295500.0 -0.0354688103 -0.1066976019 0.0003107089 -2.4445e-05 0.0002070362 -9.1039e-06 -0.037717581 0.8446838386
755295470.0 -0.0374057904 -0.1059915825 0.0004626625 0.0001072609 0.0001839747 0.0001468225 -0.0289344382 0.8438904157
760295440.0 -0.0390525646 -0.1052870282 0.000346189 2.2572e-06 0.0001440331 -8.38174e-05 -0.0205612637 0.8447069346
765295410.0 -0.0402895497 -0.1046470532 0.000310301 0.000118504 7.69751e-05 -6.94386e-05 -0.0117809974 0.8452681287
770295380.0 -0.0423157802 -0.1041714347 0.0002933031 -2.63412e-05 -5.095e-06 2.98892e-05 -0.0040876751 0.8450256926
775295350.0 -0.0439345514 -0.1034352092 4.76527e-05 7.7771e-05 0.0001270553 9.34195e-05 0.0038809443 0.8442080935
780295320.0 -0.0453410761 -0.102719658 7.7857e-05 0.0001363788 8.23201e-05 -2.04668e-05 0.012790577 0.8445705636
785295290.0 -0.0471241218 -0.1024892571 0.0003699266 -1.8718e-06 0.0001539725 6.86445e-05 0.0213750934 0.843954058
790295260.0 -0.0482482209 -0.1013370184 0.0002299919 -0.0002294371 1.96683e-05 0.0001720605 0.0302694574 0.8443360402
795295230.0 -0.049728626 -0.1003176144 -2.15267e-05 -0.0001327843 9.77501e-05 -0.0001218596 0.0389378794 0.8431360933
800295200.0 -0.0515719081 -0.0998419402 0.0002507812 -5.1349e-06 -2.80475e-05 -0.0001604783 0.0472173852 0.8427787367
805295170.0 -0.0526321397 -0.0991185671 5.30765e-05 -4.09515e-05 -1.9147e-05 2.65269e-05 0.0555181119 0.8426357604
810295140.0 -0.0539818779 -0.0983998477 0.0001149439 1.91221e-05 0.0002634782 -0.0001241072 0.0634353665 0.8415580544
815295110.0 -0.0556677051 -0.0976043724 0.0001889348 1.14285e-05 8.02187e-05 -8.94876e-05 0.0723121214 0.8407044438
820295080.0 -0.0570841437 -0.096771276 0.0001737531 -0.0001962345 0.0002987962 1.98157e-05 0.0806199706 0.8402523636
825295050.0 -0.0587090132 -0.0958738864 1.19164e-05 0.0002522884 0.0001349673 -0.0001264839 0.0891244353 0.8400731622
830295020.0 -0.0599455903 -0.0948996674 0.0001219386 -0.0001784514 0.0003893043 7.51668e-05 0.0979381946 0.8385636254
835294990.0 -0.0613834266 -0.0935341739 0.0001105269 -7.78248e-05 8.90863e-05 0.0002666755 0.1056634673 0.8376190376
840294960.0 -0.0628436728 -0.0928113092 0.0002168681 -0.0002105224 0.0001125413 -6.03977e-05 0.1146387547 0.836678694
845294930.0 -0.0641082873 -0.0918479711 0.0003530552 -0.0002525444 0.0001356513 -0.0001778243 0.1219358525 0.8352056927
850294900.0 -0.0652129054 -0.0910250065 -4.20638e-05 -5.47269e-05 -4.60629e-05 -6.81888e-05 0.1304166684 0.8339002392
