!Created with skrf (http://scikit-rf.org).
# Hz S RI R 50.0 
!freq ReS11 ImS11 ReS21 ImS21 ReS12 ImS12 ReS22 ImS22
300000.0 -0.0943584084 -0.0786756562 0.6210819511 0.0747783189 0.6234059122 0.0789601531 -0.0959910549 -0.0881255253
5299970.0 -0.1004679739 0.0131070535 0.6305354353 0.0102252093 0.6304501806 0.0109242117 -0.1020947263 0.0121601678
10299940.0 -0.0950139591 0.0298621682 0.6341486365 0.0154392759 0.6342287209 0.0156716732 -0.0970625998 0.0291442319
15299910.0 -0.0887169692 0.0431302339 0.640491231 0.0201195503 0.6405679617 0.0211724252 -0.090214754 0.0422782488
20299880.0 -0.0795465056 0.0542376062 0.6487141902 0.0241605453 0.649240885 0.0243681569 -0.0815919363 0.0532669703
25299850.0 -0.0696726279 0.0629522265 0.658146547 0.0250767338 0.6581519054 0.0252481442 -0.0723471356 0.0618972344
30299820.0 -0.0593624969 0.0690990947 0.6678618179 0.0245003186 0.6674091643 0.0244670848 -0.0626818311 0.0687318872
35299790.0 -0.0494346032 0.0742299555 0.676868484 0.0215706248 0.6772634266 0.021708471 -0.0523716562 0.0733934687
40299760.0 -0.0397152101 0.0769788577 0.6866100005 0.0180860112 0.6867379747 0.0175746093 -0.0436076857 0.0771364386
45299730.0 -0.0304137458 0.0794015529 0.6956874109 0.0116149361 0.6954926661 0.012130358 -0.0340638015 0.0790694688
50299700.0 -0.0217396494 0.0796820131 0.7032824796 0.004533914 0.7036961474 0.0046448313 -0.0254468083 0.0799211774
55299670.0 -0.0141420769 0.0798116306 0.7105313086 -0.00308108 0.710940869 -0.0027076169 -0.0177577335 0.0799493372
60299640.0 -0.0066326374 0.0786356531 0.7169930699 -0.0116659323 0.7173563353 -0.0112521686 -0.0102424264 0.0796900198
65299610.0 -0.000412278 0.0779200339 0.7234381833 -0.019702609 0.7237465792 -0.0201447453 -0.0034276325 0.0783614298
70299580.0 0.0060456291 0.0759304693 0.7283456294 -0.0291907014 0.7287176391 -0.0296024363 0.0024233937 0.0769085762
75299550.0 0.011585134 0.0742579073 0.7328904988 -0.0389696146 0.7330320024 -0.0386988929 0.0080839245 0.0754967686
80299520.0 0.0161106311 0.0721146194 0.7375249513 -0.0494081346 0.7376883338 -0.0484768912 0.0132780431 0.072820206
85299490.0 0.0208354403 0.069584219 0.7405285197 -0.0595516081 0.7402439192 -0.0588262375 0.0173820957 0.0706886082
90299460.0 0.0245888014 0.067204506 0.7434185809 -0.0686931691 0.7436500347 -0.0690425471 0.0221828068 0.0685482577
95299430.0 0.0282904045 0.0653456281 0.7459401618 -0.0795127533 0.7461672331 -0.079338618 0.0253945058 0.0663966659
100299400.0 0.0312062732 0.06264363 0.747326862 -0.0892801255 0.7472688651 -0.0893920536 0.0286022638 0.0638222322
105299370.0 0.0344865738 0.0602257713 0.7484383658 -0.0989809551 0.7490791288 -0.0988975968 0.0320014591 0.0615316231
110299340.0 0.0370498833 0.0577409682 0.7500018608 -0.1090815454 0.7502172399 -0.1099668241 0.0347645546 0.0592720239
115299310.0 0.0396695246 0.0548233399 0.7509337112 -0.1191529074 0.7510806173 -0.1190596014 0.0374099518 0.0561071673
120299280.0 0.0411202136 0.0527794924 0.7516417593 -0.1296308951 0.7515069307 -0.1296070392 0.0387410445 0.0543091818
125299250.0 0.0430851098 0.0501271136 0.751520863 -0.1388426037 0.751798463 -0.139671799 0.0414705125 0.0512668353
130299220.0 0.0451155402 0.0479498373 0.7512991807 -0.1488997536 0.7515805347 -0.1492644257 0.0433661888 0.049280058
135299190.0 0.0466609715 0.0455034418 0.7513271166 -0.158460358 0.7507282303 -0.1588137938 0.0446847355 0.0475718585
140299160.0 0.0476249788 0.0441897056 0.7506936801 -0.1690172886 0.7510933073 -0.1686212091 0.0462704295 0.0452708734
145299130.0 0.0490273926 0.0416570903 0.7504649562 -0.1787869098 0.7500782978 -0.1784726558 0.0473985791 0.0429227618
150299100.0 0.0503899779 0.039876956 0.7490603023 -0.1881889391 0.7490391785 -0.1881224653 0.048752446 0.0409891377
155299070.0 0.0511756638 0.03826098 0.7473358217 -0.1984616353 0.7478819526 -0.1984252433 0.0496448733 0.038607413
160299040.0 0.0522359376 0.0359593653 0.7460592764 -0.206727947 0.7460665107 -0.207113111 0.0508759833 0.0371390585
165299010.0 0.0528401829 0.0340837177 0.7450482547 -0.2168489754 0.7451853403 -0.2170213144 0.0515820388 0.0348284355
170298980.0 0.0532308997 0.0327976267 0.7418367431 -0.2261089488 0.7425668384 -0.2264503359 0.0527324969 0.0326692639
175298950.0 0.0540510432 0.0306213181 0.7416279577 -0.2350994295 0.7416061923 -0.2354057534 0.0533129972 0.0312712539
180298920.0 0.0554321345 0.0290872611 0.7391967282 -0.2448640647 0.7390983836 -0.2442217147 0.0537822416 0.0301334918
185298890.0 0.0560955441 0.0274170293 0.736913294 -0.2538259987 0.7369597018 -0.254011381 0.0543618388 0.0277446644
190298860.0 0.0560155348 0.0258474727 0.7339746106 -0.2628065081 0.7346228497 -0.2630931168 0.0554435236 0.0262990108
195298830.0 0.0563373704 0.0241658636 0.7315427904 -0.2716937618 0.73214347 -0.272255716 0.0560613413 0.0239845783
200298800.0 0.05686049 0.0225890567 0.7294619844 -0.2804401562 0.7295523009 -0.2806349857 0.0563888742 0.0232165145
205298770.0 0.0571891928 0.0213539427 0.7269704273 -0.2895662843 0.7265668486 -0.2899087538 0.0565172444 0.0210302919
210298740.0 0.0570194859 0.019754634 0.7235907029 -0.2990122769 0.723371083 -0.2985839846 0.056660847 0.0199956632
215298710.0 0.0575161999 0.0187142045 0.7204209826 -0.3070724407 0.7205386625 -0.307068382 0.0570969346 0.0184716085
220298680.0 0.0580703202 0.0173723764 0.7174936963 -0.3161691511 0.7169219762 -0.3159633017 0.0574820239 0.0174266578
225298650.0 0.0583735824 0.0162151789 0.7137454512 -0.3239418774 0.7139057671 -0.324514675 0.0576835611 0.0155574769
230298620.0 0.0581372132 0.0148691343 0.7111506149 -0.3328945097 0.7110148895 -0.3332467335 0.0579070749 0.01430733
235298590.0 0.0584511875 0.0131795898 0.7074112609 -0.3407910174 0.7073593285 -0.3419787607 0.0575759748 0.0126512927
240298560.0 0.0579597475 0.0120895799 0.7037979757 -0.3493808429 0.7038247555 -0.3490578454 0.0581487361 0.0118896877
245298530.0 0.0587811769 0.0109606526 0.6986262134 -0.3575053967 0.6999455741 -0.3582110276 0.0582433835 0.0106063925
250298500.0 0.0582583267 0.0096712811 0.6960427583 -0.3659048111 0.6960173566 -0.3656545647 0.0584417456 0.0091981673
255298470.0 0.0581808617 0.0087408054 0.6920383434 -0.374568527 0.6923758514 -0.3740653202 0.0586390614 0.0077461656
260298440.0 0.0581584097 0.0077994879 0.6880469247 -0.3823481562 0.6884348064 -0.3825532908 0.0592055637 0.00684636
265298410.0 0.0588194006 0.0071523768 0.6838372239 -0.3910639774 0.6837004271 -0.3906094861 0.0585351841 0.0054543756
270298380.0 0.0590748312 0.0056245694 0.678936593 -0.3985691139 0.6798506454 -0.3983399727 0.0589185561 0.0052400748
275298350.0 0.0582778875 0.0047788342 0.6755584159 -0.4065622548 0.6758087231 -0.4069147148 0.0589660441 0.0035849204
280298320.0 0.0585849208 0.004093879 0.6707932107 -0.4139623453 0.6714724012 -0.4145109875 0.0593118587 0.0028131545
285298290.0 0.0587214813 0.0031072706 0.6667062754 -0.4215387778 0.666817438 -0.4223808265 0.0587217008 0.0018181712
290298260.0 0.0587522936 0.0017607146 0.6620446501 -0.4301297875 0.6622717255 -0.4297775706 0.0594321404 0.0003150256
295298230.0 0.0587130026 0.0006191765 0.657938139 -0.4374394413 0.6574385565 -0.4375801826 0.0594252635 -0.0003955615
300298200.0 0.0591786519 -3.54576e-05 0.65274974 -0.4449811797 0.6530565312 -0.4453278026 0.0591335405 -0.0012166572
305298170.0 0.0588021264 -0.001426114 0.648108495 -0.4528939538 0.648781466 -0.4534136809 0.0597229367 -0.002320075
310298140.0 0.0593439782 -0.0023411841 0.6435594671 -0.4608680739 0.6433617519 -0.4610229971 0.0596390139 -0.0028220201
315298110.0 0.0588108726 -0.003639363 0.6377303808 -0.4687032922 0.6386657341 -0.4687533568 0.0597889518 -0.0047250335
320298080.0 0.0584976554 -0.0044376537 0.6327772424 -0.476055848 0.6332481867 -0.476047067 0.0591809294 -0.0058420316
325298050.0 0.0581400031 -0.005962259 0.6281730759 -0.4833084817 0.6278170476 -0.4836977601 0.0588780569 -0.0071659033
330298020.0 0.057753441 -0.006547603 0.6216468069 -0.4907893042 0.6217227489 -0.4906325357 0.0580923525 -0.0084114603
335297990.0 0.0574588831 -0.0078451747 0.6165286527 -0.4977803768 0.6168401442 -0.498030716 0.0577102195 -0.008923403
340297960.0 0.0564875217 -0.0081471154 0.609792643 -0.5050179512 0.6108412193 -0.5046915332 0.0572603255 -0.009663442
345297930.0 0.0562647373 -0.0084882887 0.6044717807 -0.5105846355 0.6045217049 -0.5111131544 0.0574654181 -0.0106884036
350297900.0 0.0563556938 -0.0095063789 0.5985714507 -0.5179161931 0.5994841371 -0.5179837779 0.0569201852 -0.010792232
355297870.0 0.0559589857 -0.010179482 0.5929905802 -0.5249216545 0.5930057565 -0.524911551 0.056128028 -0.0116053227
360297840.0 0.0559140243 -0.0106757559 0.587568864 -0.5317300779 0.5870947618 -0.5318224443 0.0562602021 -0.0122486997
365297810.0 0.0556176503 -0.0116110437 0.5815892296 -0.5381757388 0.5815572341 -0.5377557191 0.0557315692 -0.0123847778
370297780.0 0.0554299318 -0.0122286951 0.5755838187 -0.5443427722 0.5757584456 -0.5448529764 0.0560750404 -0.0131658041
375297750.0 0.0547905539 -0.0126383213 0.5702518443 -0.5511392034 0.5694156179 -0.5515419564 0.0554059807 -0.0139351373
380297720.0 0.055038223 -0.0138979492 0.5630491415 -0.5574620412 0.5633249975 -0.5571906405 0.0552236194 -0.014631961
385297690.0 0.0548090961 -0.0140475557 0.5571030525 -0.5629069883 0.5568945457 -0.5635669709 0.0551088583 -0.0148549868
390297660.0 0.0541869026 -0.0150898197 0.5505103806 -0.5703117415 0.5510340612 -0.5702578594 0.0547323708 -0.0159388237
395297630.0 0.0544158435 -0.0159861039 0.5450086885 -0.5759019758 0.5449442802 -0.5758664891 0.0544211402 -0.0158507116
400297600.0 0.0535541651 -0.0160554646 0.5378512514 -0.5820467209 0.5385669816 -0.582488484 0.0531711947 -0.0172060937
405297570.0 0.0537144817 -0.0167360881 0.5319544157 -0.5875758565 0.5319085434 -0.5884897139 0.053500455 -0.0169992574
410297540.0 0.0536256101 -0.017435693 0.5247212851 -0.5939899659 0.5252653792 -0.5941226119 0.0530645577 -0.0180739194
415297510.0 0.0531719156 -0.0175114507 0.5192853407 -0.5990887595 0.5191334098 -0.6000680043 0.0525952487 -0.0183923058
420297480.0 0.0530603433 -0.0188092293 0.5122405963 -0.6063556259 0.5120244373 -0.605811459 0.0528226504 -0.0194202689
425297450.0 0.0532452742 -0.0196032014 0.5056503043 -0.6110820609 0.5062821988 -0.6112252505 0.0521838219 -0.0191744174
430297420.0 0.0522891705 -0.0196342565 0.498785053 -0.6172608136 0.4992350517 -0.6170847294 0.0516982154 -0.0206221105
435297390.0 0.0523657539 -0.0206115155 0.4921020025 -0.6220434709 0.4922096208 -0.6222216724 0.0510605638 -0.0202926643
440297360.0 0.0520346423 -0.0215358496 0.4850108359 -0.6275650854 0.4844785837 -0.6280861785 0.0509831937 -0.0217064397
445297330.0 0.0519375932 -0.0221999724 0.4778294856 -0.6340363363 0.478063586 -0.633115471 0.0507597988 -0.0220312356
450297300.0 0.0519419445 -0.0227856656 0.4712622791 -0.6385247188 0.4714542676 -0.6389601442 0.0502571783 -0.0221671091
455297270.0 0.0510512459 -0.0232970454 0.4645865817 -0.6438499746 0.4645836138 -0.6440586955 0.0505338535 -0.0228661681
460297240.0 0.0506876419 -0.0238547271 0.456961721 -0.6486813141 0.4567365026 -0.6486418446 0.0498665008 -0.0228467197
465297210.0 0.050609894 -0.0247096306 0.4500947406 -0.6542080186 0.4505660369 -0.6544938075 0.048870569 -0.0238315659
470297180.0 0.0499734105 -0.0253156446 0.4428354503 -0.6591272927 0.4430933004 -0.6589988868 0.048265955 -0.0242296556
475297150.0 0.0492756247 -0.0263988784 0.4352214217 -0.663435262 0.4356999126 -0.6633199032 0.0485394556 -0.0246611212
480297120.0 0.0496129929 -0.0268597234 0.4282185868 -0.6682017719 0.4285612779 -0.6684670677 0.0478748197 -0.0246608459
485297090.0 0.0493191134 -0.0274619704 0.4210447529 -0.6731337062 0.4211465084 -0.6736899308 0.0471447946 -0.0258889718
490297060.0 0.048939999 -0.0283731968 0.4137029275 -0.6779593389 0.4136141071 -0.6780268023 0.0468877763 -0.0256299437
495297030.0 0.04800632 -0.0283465494 0.405681431 -0.6821166936 0.4055527801 -0.6822943125 0.0466032168 -0.0266369276
500297000.0 0.0480751634 -0.0293355417 0.3985040992 -0.6864505031 0.3987203358 -0.6868630233 0.0455239498 -0.0270124972
505296970.0 0.0470961188 -0.029673732 0.3905031267 -0.6911985045 0.390335895 -0.6908523169 0.0447924019 -0.0270936759
510296940.0 0.0467813 -0.0300689628 0.3833536486 -0.6952720268 0.3833961438 -0.6954013298 0.0450933724 -0.0270594177
515296910.0 0.046137212 -0.0302600526 0.3755300526 -0.6994834832 0.3755059575 -0.699790235 0.0440164357 -0.0280815579
520296880.0 0.0457953922 -0.0311985262 0.3675670029 -0.7032725535 0.3679337836 -0.703598651 0.0444350186 -0.0285079858
525296850.0 0.045343721 -0.0321411367 0.3601023317 -0.7077378596 0.360307921 -0.7078666637 0.0439557344 -0.0290498252
530296820.0 0.0450827442 -0.0324901725 0.3527528767 -0.7109794072 0.352280495 -0.7117444396 0.0426571743 -0.0297225076
535296790.0 0.0442322563 -0.0328015111 0.3443878471 -0.7148026597 0.3450370622 -0.7153721999 0.0427989653 -0.0301062941
540296760.0 0.0438273406 -0.034060129 0.3368432243 -0.719582822 0.3362836025 -0.7198712761 0.0414708427 -0.0304921489
545296730.0 0.0433803153 -0.0336674717 0.328891694 -0.7226565898 0.3289224053 -0.7231565673 0.0411829247 -0.0309241539
550296700.0 0.0425883652 -0.0345204827 0.3209329918 -0.726515244 0.3216069321 -0.7268401351 0.0406225152 -0.0306599471
555296670.0 0.0425774604 -0.0353431693 0.3133861391 -0.7302459749 0.3129622122 -0.7302107075 0.0399736269 -0.0309514123
560296640.0 0.0416777438 -0.0354513128 0.3052354925 -0.7333386403 0.305454294 -0.7328195906 0.0396009133 -0.0315492556
565296610.0 0.0406250947 -0.0361371025 0.2970402584 -0.7369392079 0.2967423628 -0.7367540832 0.0389590872 -0.0323931606
570296580.0 0.0409956584 -0.0366157863 0.2890049292 -0.739532898 0.2889636375 -0.7399295493 0.0386713498 -0.0320219466
575296550.0 0.0400408674 -0.0361373686 0.2809062883 -0.7424361132 0.2814706788 -0.7428029696 0.0385277884 -0.0325991817
580296520.0 0.0391503993 -0.0371507584 0.2728960343 -0.7459674271 0.2725192702 -0.7461149504 0.0376420031 -0.0331603979
585296490.0 0.0393634407 -0.0381119483 0.265186084 -0.7489758554 0.2644544638 -0.7487599346 0.0371447597 -0.0339754314
590296460.0 0.0379687634 -0.0387046771 0.2564632098 -0.7516286289 0.2559048491 -0.7523009389 0.0366689073 -0.033513874
595296430.0 0.0376463073 -0.0386180391 0.248404385 -0.754530554 0.2480306069 -0.7552790715 0.0362009354 -0.0340341946
600296400.0 0.0370388653 -0.0386941217 0.2397955242 -0.7570936855 0.2401195385 -0.7576192138 0.0354290009 -0.0343171308
605296370.0 0.036683766 -0.0386841603 0.2317510182 -0.7599560489 0.231992028 -0.7597062043 0.0350363898 -0.0347930521
610296340.0 0.0357341374 -0.0394294019 0.2242798846 -0.7621610746 0.2234446607 -0.7624385946 0.0343377431 -0.0343268299
615296310.0 0.0351764368 -0.0394977692 0.2146882453 -0.7644892962 0.2148069754 -0.7647740207 0.0340344197 -0.0351221715
620296280.0 0.0344422668 -0.0402796966 0.2067009868 -0.7669997014 0.206493364 -0.7669446157 0.0333881003 -0.0359987917
625296250.0 0.0344306346 -0.040427308 0.1974839055 -0.7694821652 0.1980065585 -0.7694473009 0.0331944267 -0.0357350291
630296220.0 0.0335038795 -0.0406253942 0.1894777339 -0.7716815472 0.1904664309 -0.7718244196 0.0317343059 -0.0356274088
635296190.0 0.0330833994 -0.0410062219 0.1813151759 -0.7728627311 0.1810402462 -0.7728680769 0.0312792967 -0.0365608347
640296160.0 0.0322679144 -0.0411516932 0.1729292927 -0.7748593286 0.1728192595 -0.7754823583 0.0314469418 -0.0368864719
645296130.0 0.0319292401 -0.0413939379 0.1645512045 -0.7771750191 0.1646317845 -0.7769835199 0.0293988538 -0.0373967187
650296100.0 0.0307477502 -0.0412675798 0.1567013984 -0.7781073194 0.1561709998 -0.7785661005 0.0298833701 -0.0371895075
655296070.0 0.0303609532 -0.0421025072 0.1473373384 -0.7803716766 0.1475842433 -0.7802735751 0.0294711865 -0.0369354057
660296040.0 0.0293142433 -0.0416075246 0.1392213954 -0.7813471254 0.1390622425 -0.7815016074 0.0282126722 -0.0380487491
665296010.0 0.0290455645 -0.042498126 0.1310830404 -0.7832005102 0.131193832 -0.7833496085 0.0272523139 -0.0374855466
670295980.0 0.0291888039 -0.0422587439 0.1221544893 -0.7849687296 0.122287592 -0.7847552799 0.0267589396 -0.0382818638
675295950.0 0.0283061976 -0.042604528 0.1133294887 -0.7857916922 0.1137617855 -0.7861455617 0.0268092649 -0.0380349267
680295920.0 0.0273502502 -0.0426745837 0.1045945383 -0.7867337407 0.1046873859 -0.7873771471 0.0263068693 -0.0386667031
685295890.0 0.0265465011 -0.0428747219 0.0966205955 -0.7883381527 0.0956860237 -0.7887411669 0.0256806692 -0.0378937474
690295860.0 0.0263331908 -0.0430050149 0.0880850395 -0.7884350735 0.0867568104 -0.7891685158 0.025442532 -0.0382129631
695295830.0 0.0262378284 -0.0436255684 0.0784427363 -0.7901664196 0.078451901 -0.7904389556 0.023903677 -0.0385007311
700295800.0 0.0255855458 -0.0432460534 0.070615032 -0.7910011271 0.0707294538 -0.7908425551 0.0235247507 -0.0395986265
705295770.0 0.024978318 -0.0437455241 0.0621734785 -0.7914125533 0.0614612576 -0.791541477 0.0229126703 -0.0393506741
710295740.0 0.0239485491 -0.0435111946 0.0532531957 -0.7923407787 0.0529467208 -0.7919819793 0.0216414618 -0.0391629669
715295710.0 0.0233987704 -0.0439792195 0.0447983967 -0.7925708779 0.0448478261 -0.792970501 0.0216751074 -0.0401075525
720295680.0 0.0227404502 -0.044313339 0.0358937687 -0.7927425206 0.0358251586 -0.7941089114 0.0215534192 -0.0393607633
725295650.0 0.0223503145 -0.0443032125 0.02667855 -0.7933858682 0.0275082846 -0.7935838539 0.0205963087 -0.0395867532
730295620.0 0.0210877308 -0.0444730118 0.0183792369 -0.7936349828 0.0186005842 -0.7938135107 0.0203822876 -0.0405563509
735295590.0 0.0212727554 -0.0442138226 0.0106799848 -0.7936221541 0.0104264765 -0.7940322795 0.0197276802 -0.0395940125
740295560.0 0.0200541142 -0.0442891273 0.0018722046 -0.7933912106 0.0012997754 -0.7939647845 0.0194871986 -0.040138759
745295530.0 0.0197098228 -0.0448701119 -0.0068377523 -0.7942603623 -0.0074035792 -0.7940889863 0.0180751402 -0.0399224142
750295500.0 0.0190961116 -0.0448128332 -0.0154582254 -0.7933234489 -0.0157693131 -0.793597945 0.0184015124 -0.0403382926
755295470.0 0.0189937974 -0.04439933 -0.0243582961 -0.7934455275 -0.0241785237 -0.7938095225 0.0169138935 -0.0404237837
760295440.0 0.0180571328 -0.0445198506 -0.0328390073 -0.7932217034 -0.0334312827 -0.7934699928 0.0156361659 -0.0404181586
765295410.0 0.0168295316 -0.0449574119 -0.0412470726 -0.7925427343 -0.0415263252 -0.7926209043 0.0168694341 -0.040076142
770295380.0 0.016988467 -0.0446359155 -0.0501623702 -0.7922491087 -0.0501215328 -0.7926291354 0.0158280765 -0.0401663627
775295350.0 0.0159793426 -0.0445634193 -0.0585301423 -0.7911808782 -0.0582172422 -0.7917019735 0.0145532358 -0.0412992523
780295320.0 0.0156808929 -0.0446578228 -0.0673788852 -0.7905113133 -0.067016773 -0.7910820686 0.0142174651 -0.0403734167
785295290.0 0.0145536244 -0.0443194003 -0.0761444521 -0.7897933385 -0.0763706551 -0.7902747425 0.0131805293 -0.0406795557
790295260.0 0.0139666958 -0.0443296934 -0.0847478249 -0.789216539 -0.0843869251 -0.7898555304 0.0129784002 -0.040500612
795295230.0 0.0133127697 -0.0444790513 -0.0924320594 -0.7879014935 -0.0930083708 -0.7880071214 0.0124326686 -0.0397035408
800295200.0 0.0128142068 -0.0445770164 -0.1019372827 -0.7873709675 -0.1022779325 -0.7877823033 0.0122121963 -0.0401011855
805295170.0 0.0117234207 -0.0445964264 -0.1107097388 -0.7853243033 -0.109934312 -0.7859853006 0.0109027894 -0.0405292326
810295140.0 0.0113595005 -0.0446602219 -0.1182050966 -0.7843889366 -0.1187858781 -0.785272501 0.0107845539 -0.040037948
815295110.0 0.010580369 -0.0444509906 -0.1274996751 -0.7827975791 -0.1277525729 -0.7834984154 0.0096288491 -0.0406379749
820295080.0 0.0101987725 -0.0447085086 -0.1356906185 -0.7818356748 -0.1359790835 -0.7821522693 0.0093701845 -0.0400232892
825295050.0 0.0094939113 -0.0448100441 -0.1445211622 -0.7796049945 -0.1444811719 -0.7799078892 0.0091032264 -0.0398921152
830295020.0 0.0087631108 -0.0440638938 -0.1529691593 -0.7786039791 -0.1535230908 -0.7791719983 0.0081380254 -0.0401655905
