!Created with skrf (http://scikit-rf.org).
# Hz S RI R 50.0 
!freq ReS11 ImS11 ReS21 ImS21 ReS12 ImS12 ReS22 ImS22
300000.0 -0.7700733753 -0.1435986952 0.0001305086 4.55981e-05 -9.77754e-05 -0.0003133089 -0.0461855857 -0.0679295213
5299970.0 -0.7848984328 -0.006901302 -6.16527e-05 -2.34585e-05 -2.31913e-05 -0.0001752667 -0.0484951193 0.0146175666
10299940.0 -0.7872709369 -0.0041461141 0.0002162139 -0.0001995088 -5.03148e-05 6.77552e-05 -0.0430484694 0.031540347
15299910.0 -0.7932855992 -0.0016519116 -2.51439e-05 0.0001171112 0.0001168706 3.48663e-05 -0.0344126138 0.0455431418
20299880.0 -0.7995462132 0.002076289 3.38774e-05 -0.0001101503 7.69497e-05 1.95931e-05 -0.0250653109 0.0571335064
25299850.0 -0.806407894 0.0082574299 -2.92966e-05 -5.5032e-06 -3.51689e-05 -3.18682e-05 -0.0144133602 0.0663354534
30299820.0 -0.8122618077 0.016139078 0.0001269643 6.64849e-05 6.89974e-05 0.0001001943 -0.0033665949 0.0728549283
35299790.0 -0.8170744257 0.0252987426 5.47467e-05 -0.0001770871 0.0002089928 -1.06213e-05 0.0080711259 0.0771722236
40299760.0 -0.8209574206 0.0342429991 6.81382e-05 8.56422e-05 6.77235e-05 0.0001153434 0.0192084422 0.079859807
45299730.0 -0.8248106994 0.0443392117 -4.85019e-05 1.76071e-05 -5.91201e-05 2.31556e-05 0.0294263452 0.0811793694
50299700.0 -0.8271343273 0.0537013494 5.01814e-05 0.000123709 4.35029e-05 0.0001342168 0.0396814368 0.0812665961
55299670.0 -0.8290612149 0.0640206123 0.0001518995 1.09399e-05 0.0001231429 -7.32003e-05 0.048325255 0.0801857334
60299640.0 -0.8300065982 0.0742944601 3.38715e-05 0.0001260319 8.5486e-05 0.0001805118 0.0568887736 0.0782974962
65299610.0 -0.8309565457 0.0845641102 2.10423e-05 -0.0001474072 0.0001141065 8.30432e-05 0.0643912853 0.075831911
70299580.0 -0.831219266 0.0943020857 -2.8842e-06 -3.55128e-05 0.0001941752 -0.000121102 0.0712987004 0.0727515658
75299550.0 -0.8313372361 0.1046088784 1.19707e-05 0.0001036722 -0.0001331042 9.30578e-05 0.0776925238 0.069896961
80299520.0 -0.830953857 0.1144194995 5.37978e-05 0.0001280062 -0.000127065 -5.05695e-05 0.0827808586 0.0660531625
85299490.0 -0.8304808834 0.1239787385 -2.66704e-05 3.32426e-05 0.0002647862 -5.27229e-05 0.0878676641 0.0623212287
90299460.0 -0.8297838009 0.1341017087 2.84743e-05 0.0001006252 -2.61257e-05 5.04468e-05 0.0924497127 0.0582869379
95299430.0 -0.8290105046 0.143489176 4.33274e-05 -4.43871e-05 6.21297e-05 -2.81692e-05 0.0963704544 0.0546456255
100299400.0 -0.8282063814 0.1527654214 0.0001239466 -8.56621e-05 -0.0002153888 0.0001150474 0.0998091067 0.0508471782
105299370.0 -0.8265215932 0.1623776207 0.0001180119 0.0001704835 6.69768e-05 -4.42174e-05 0.103314405 0.0464885249
110299340.0 -0.8255154426 0.1712018661 1.20134e-05 0.0001270565 0.0001109824 0.0001990646 0.1056796754 0.0430259687
115299310.0 -0.8236912793 0.1808142409 0.0001937294 0.000169638 0.0001185526 0.0002175351 0.1083280846 0.0387953503
120299280.0 -0.8215912165 0.1893397668 9.50586e-05 1.52968e-05 9.00282e-05 4.64165e-05 0.1103862995 0.0351845327
125299250.0 -0.8201729047 0.19839246 0.0001289535 -8.72174e-05 0.0001078492 9.11754e-05 0.1125868369 0.0309321809
130299220.0 -0.8183661141 0.2074476574 0.0001474906 0.0001906842 5.0266e-06 5.71587e-05 0.113792676 0.0274124155
135299190.0 -0.8164830633 0.2164355181 6.94612e-05 -2.28301e-05 0.0001937713 -9.48039e-05 0.1153814278 0.0235279284
140299160.0 -0.8147560759 0.2254420318 -5.73439e-05 2.29283e-05 -0.0002014381 3.05399e-05 0.1167742958 0.0198481533
145299130.0 -0.8124157746 0.2340325454 -9.34666e-05 7.92625e-05 -7.37874e-05 0.0001242911 0.1171640491 0.0166291232
150299100.0 -0.8101030653 0.2430724471 -6.23984e-05 8.51384e-05 -5.25042e-05 -5.3795e-06 0.1185427627 0.0128243901
155299070.0 -0.8073823817 0.2521331052 0.0001389112 -0.0002001944 0.0001543999 2.47731e-05 0.1190987396 0.0095895506
160299040.0 -0.8044485796 0.26087658 4.13544e-05 0.0001522561 -2.8821e-05 2.72305e-05 0.1197060891 0.006380925
165299010.0 -0.8022031359 0.2693855191 0.0001741382 -2.84626e-05 3.5143e-06 7.51994e-05 0.1199616064 0.0029859459
170298980.0 -0.7997286764 0.2778238734 -8.07223e-05 9.80474e-05 3.28156e-05 0.0001358217 0.1203956873 -5.56371e-05
175298950.0 -0.7964752611 0.2870797731 -9.46388e-05 0.0001873362 0.000124932 -0.0001277223 0.1202067256 -0.0032133404
180298920.0 -0.7938294666 0.2953474292 -0.0001066442 3.52025e-05 0.0002598801 -0.000101635 0.1209414844 -0.0064083609
185298890.0 -0.7908528536 0.3040843182 8.4064e-05 -0.0001202713 0.0001524227 -8.46184e-05 0.1205414645 -0.0094269277
190298860.0 -0.7866554227 0.3125697292 -0.0001907149 -8.64998e-05 -5.42009e-05 -0.0001178292 0.1208971367 -0.0120422457
195298830.0 -0.7836804897 0.320650818 -1.34997e-05 7.28541e-05 -3.32486e-05 -0.0001502701 0.1207852577 -0.0149095454
200298800.0 -0.7807638334 0.3293051848 -0.0002202971 -1.0645e-06 0.0001897812 2.73204e-05 0.1208651522 -0.0179648426
205298770.0 -0.7771018069 0.337563609 0.0001105067 -0.0002085977 -3.38465e-05 4.29593e-05 0.120194135 -0.0205114321
210298740.0 -0.7733337122 0.3451745484 8.18544e-05 0.0002218287 -1.33366e-05 0.0001716413 0.12009538 -0.0231190312
215298710.0 -0.7699639236 0.3545587556 -7.01672e-05 -0.0001758607 2.35355e-05 -9.939e-05 0.1190954551 -0.0254810246
220298680.0 -0.7668779591 0.3625737532 0.0001572739 5.17035e-05 0.0002040075 0.0001185367 0.1189261171 -0.0278896625
225298650.0 -0.7626434436 0.3706364761 7.41396e-05 1.0346e-05 0.0001948902 0.0001114258 0.1179399291 -0.0302768828
230298620.0 -0.7587714859 0.379230859 0.0001330381 5.45806e-05 0.0001006125 7.2356e-05 0.1177236517 -0.0329313841
235298590.0 -0.7543968396 0.3871924197 0.0002619488 5.87089e-05 -0.0002063599 3.64663e-05 0.1174227416 -0.0352369109
240298560.0 -0.7512523054 0.3951575548 0.0003591452 9.52002e-05 8.23487e-05 0.00016269 0.1165386749 -0.0373958031
245298530.0 -0.7464765318 0.4031321596 0.0001465945 0.0001684265 0.000145615 -0.0001818909 0.1161008565 -0.0396028928
250298500.0 -0.7419150308 0.410759845 8.25144e-05 6.25397e-05 -4.30916e-05 -0.0001613979 0.1155577342 -0.0418832486
255298470.0 -0.7379256525 0.418745988 8.64718e-05 0.000150123 7.47951e-05 0.0001704226 0.1143492188 -0.0442526518
260298440.0 -0.7336993118 0.4261250893 -6.07985e-05 0.000116707 0.0002477785 1.62055e-05 0.1134110679 -0.0462924439
265298410.0 -0.7292577348 0.4342224911 -1.3419e-06 -1.89888e-05 0.0001288863 0.0001427751 0.1128733613 -0.0482525299
270298380.0 -0.7250998765 0.441880059 0.0001192195 -4.66628e-05 -2.0269e-06 0.0001772689 0.1120861502 -0.0506217242
275298350.0 -0.7197915787 0.4486659892 -1.29481e-05 0.0001250664 4.1747e-06 0.000278025 0.1115238875 -0.0522021987
280298320.0 -0.7151655058 0.4565821206 7.72123e-05 -2.2098e-06 2.89604e-05 0.0001272507 0.1107785471 -0.0543810494
285298290.0 -0.7102107069 0.4640621493 0.0001141199 0.0001179267 -6.1866e-06 4.79279e-05 0.1094649632 -0.0560536506
290298260.0 -0.7055956616 0.4718210391 3.07259e-05 -0.0001839193 0.0003313587 8.95198e-05 0.1088076292 -0.0581728034
295298230.0 -0.700443625 0.4789318618 5.08806e-05 -6.63286e-05 0.0001072332 4.4297e-05 0.1073637734 -0.059875647
300298200.0 -0.6949013526 0.4865989879 -5.05916e-05 -5.06907e-05 -6.61689e-05 3.44336e-05 0.1067275769 -0.0615963615
305298170.0 -0.6896877675 0.4941475692 0.0002135007 4.69389e-05 0.0001447162 1.50071e-05 0.1061322667 -0.0635171885
310298140.0 -0.6845965879 0.5009713721 -9.5561e-06 -9.16265e-05 2.74924e-05 2.0524e-05 0.104816833 -0.0649926408
315298110.0 -0.679468365 0.5076508792 0.0002078323 0.0001586867 0.0001178092 2.8541e-06 0.1039740368 -0.0669319413
320298080.0 -0.6742786491 0.5154696428 0.0001001179 7.95024e-05 8.53179e-05 0.0001742006 0.1027207671 -0.0690917911
325298050.0 -0.6682834739 0.5218268886 5.36125e-05 9.28873e-05 1.48913e-05 0.0001285998 0.1013990708 -0.0706270146
330298020.0 -0.6628536799 0.5293993907 7.87982e-05 0.0001715047 0.0002003737 -3.61565e-05 0.1002812678 -0.0722648485
335297990.0 -0.6569555976 0.5360103432 0.0001652133 0.00024774 3.54847e-05 -7.02457e-05 0.0991767469 -0.0739658194
340297960.0 -0.6523944938 0.5424986102 0.0001615225 -4.26268e-05 7.87664e-05 -0.0001834054 0.0977650943 -0.0758766356
345297930.0 -0.6462370965 0.5487876816 1.27266e-05 0.0001231058 3.17268e-05 -1.12193e-05 0.0959930333 -0.0770303894
350297900.0 -0.6404409701 0.5561977959 -5.79516e-05 0.0001407392 4.20736e-05 0.0001971852 0.0948913955 -0.0780413946
355297870.0 -0.6345907864 0.5624624729 0.000201369 -0.0001455688 -2.13082e-05 4.35317e-05 0.093309944 -0.0795081169
360297840.0 -0.6283859441 0.568794013 -0.0001088453 5.92918e-05 2.82436e-05 4.47963e-05 0.0921237061 -0.0807057894
365297810.0 -0.6226895663 0.5758351927 0.0002443957 -8.56408e-05 2.81832e-05 -9.15699e-05 0.0907431254 -0.0818334114
370297780.0 -0.6166780115 0.5817830656 0.0001125194 2.54777e-05 5.03776e-05 0.0001998454 0.0893066712 -0.0831762812
375297750.0 -0.6102224843 0.5884463166 0.0002475354 0.0001185085 0.0002056597 0.0001462508 0.0880018202 -0.0842980104
380297720.0 -0.6042419351 0.5950607327 0.000202943 0.0002664203 6.82154e-05 -1.92035e-05 0.0869578761 -0.0852308913
385297690.0 -0.5980115559 0.6002724973 -1.51993e-05 -2.83713e-05 6.4011e-05 2.97616e-05 0.0851249192 -0.0862922332
390297660.0 -0.5910336988 0.6067278293 1.1502e-05 -6.51895e-05 2.11115e-05 0.0001377611 0.0838265586 -0.0875907483
395297630.0 -0.5854049856 0.6129188525 0.0002168881 0.0002611891 -8.49508e-05 1.53129e-05 0.0821870094 -0.0888104195
400297600.0 -0.5788252445 0.6194963478 0.0001421514 -0.0001277734 0.0001281201 6.9263e-06 0.0809940611 -0.0897212401
405297570.0 -0.5727295564 0.6247321145 9.16345e-05 0.0003117817 0.0002239753 -2.4946e-05 0.0798863769 -0.090949359
410297540.0 -0.5660647991 0.6306157867 0.000101294 4.54985e-05 0.0001072642 -5.55372e-05 0.0781037432 -0.0917632346
415297510.0 -0.5591296522 0.6362180649 0.0001466795 1.5498e-06 0.0002750524 1.35026e-05 0.0765875934 -0.0926570536
420297480.0 -0.551801688 0.641473092 0.0001037483 -1.11032e-05 -6.18141e-05 9.05026e-05 0.075107172 -0.0935344807
425297450.0 -0.5457471122 0.647756111 0.0002300837 -9.736e-05 -4.81644e-05 7.78287e-05 0.0739556499 -0.0946108414
430297420.0 -0.5395244753 0.6534854089 0.0001354281 7.90182e-05 -0.0001021935 0.0001719878 0.072232671 -0.0953544844
435297390.0 -0.5319456165 0.6593789217 0.0002108811 7.58408e-05 -0.0001169157 0.0001162912 0.0707763101 -0.0961963557
440297360.0 -0.5249390824 0.6644432335 0.0002120715 -9.77542e-05 5.79625e-05 0.0001121022 0.0690705491 -0.0970553915
445297330.0 -0.5182156923 0.6699961909 7.89228e-05 6.5244e-05 7.11237e-05 4.8255e-05 0.0673429193 -0.098226859
450297300.0 -0.5115726453 0.6744867439 0.0002164665 7.80353e-05 3.85079e-05 -0.0001015569 0.0658947625 -0.0986736201
455297270.0 -0.503992774 0.6799111018 -7.38e-07 0.0002432107 -0.0001443426 0.0001470459 0.0646675898 -0.0995840243
460297240.0 -0.4977728961 0.68540766 0.0001910172 4.09715e-05 0.0001593351 1.76368e-05 0.0632123604 -0.1001497834
465297210.0 -0.4898883133 0.6904582182 0.0001807975 1.81738e-05 0.0001144535 -0.0001436994 0.061249526 -0.1011475783
470297180.0 -0.4827272042 0.6942858131 -9.13978e-05 -0.0002263476 0.0001255037 -8.20928e-05 0.0593938015 -0.1016560003
475297150.0 -0.4756550585 0.7001661347 0.0001388375 0.0002572152 5.36961e-05 -9.9545e-05 0.0581788269 -0.1022451218
480297120.0 -0.469395353 0.7042657286 8.64122e-05 0.0001508585 0.0002026918 -8.16099e-05 0.0565067712 -0.1031300201
485297090.0 -0.4613538033 0.709379128 0.0001081568 7.66495e-05 0.0001017919 -0.0001450698 0.0547595435 -0.1036799183
490297060.0 -0.4546248257 0.7140481629 3.61354e-05 3.40593e-05 0.0001498207 -0.000167191 0.0532552789 -0.1041982409
495297030.0 -0.4474697301 0.7185241615 -3.9196e-05 -9.3213e-06 0.0002827545 0.0001051163 0.0516030661 -0.1049479825
500297000.0 -0.4384605575 0.7232470449 0.0001990431 1.84245e-05 3.40547e-05 -5.36932e-05 0.050003958 -0.1056574183
505296970.0 -0.4314072227 0.7272181048 0.000102153 0.0001996893 0.0001315769 5.84567e-05 0.0482451587 -0.1060171586
510296940.0 -0.4240185551 0.7321426392 -9.67547e-05 -0.0001845439 0.0003435419 1.6398e-05 0.0466139589 -0.1063451236
515296910.0 -0.4169957162 0.736107907 0.0001176347 2.27262e-05 -8.57953e-05 -0.0001049997 0.0449472308 -0.1070289429
520296880.0 -0.409410378 0.7404508628 0.000127916 0.0001693795 -0.0001530622 -5.68065e-05 0.0436473992 -0.1075346489
525296850.0 -0.4015220022 0.74468067 8.5491e-06 -5.1523e-05 0.0001901311 0.0001651026 0.0415731085 -0.1079863007
530296820.0 -0.3943586384 0.7481459133 0.0001155009 0.0001805051 9.66287e-05 0.0001569841 0.039702892 -0.1085405469
535296790.0 -0.3862372007 0.7518026679 0.0002960247 8.55885e-05 3.5433e-06 -8.04721e-05 0.0379893153 -0.1094104747
540296760.0 -0.3785891409 0.7557352389 0.0001594131 -9.8782e-06 0.0002525765 3.15693e-05 0.0364924947 -0.1091258378
545296730.0 -0.3711779363 0.7597158775 9.55417e-05 0.0001748997 -3.79932e-05 -0.0001334479 0.03475044 -0.1100139835
550296700.0 -0.3633981909 0.7636407169 8.80414e-05 8.40292e-05 0.0001189945 8.99331e-05 0.0333700403 -0.1103942098
555296670.0 -0.354711683 0.7671445738 0.0001720275 1.76552e-05 6.65192e-05 3.3294e-05 0.0313734504 -0.110277784
560296640.0 -0.3470810406 0.7704881099 0.0002209547 0.000206314 0.0001575493 -0.0001154161 0.0297532008 -0.1106464032
565296610.0 -0.3396181292 0.7737971237 -5.4679e-06 5.28064e-05 6.45009e-05 1.4167e-05 0.0277713626 -0.111165344
570296580.0 -0.3324745381 0.7771234014 0.0002709964 0.0001531669 0.0002456579 -2.1147e-06 0.0262165283 -0.1115633127
575296550.0 -0.3235639354 0.7809646128 1.08925e-05 7.68402e-05 7.74082e-05 1.7943e-06 0.0246864722 -0.1114592993
580296520.0 -0.3153665152 0.7842543819 0.0001176409 -7.22753e-05 0.000310784 -6.5136e-05 0.0228856143 -0.1118077743
585296490.0 -0.3081048067 0.7867122101 1.04545e-05 -4.95771e-05 0.0001844229 1.111e-05 0.0214211786 -0.1124227553
590296460.0 -0.2996120092 0.789446053 0.0002095735 0.0002416122 0.0003785919 8.11029e-05 0.0194204335 -0.112304719
595296430.0 -0.2915214192 0.793047634 0.0002829471 -0.0002994584 5.03573e-05 0.00014101 0.0175318667 -0.1124209326
600296400.0 -0.2838451512 0.79593571 0.0001490779 2.32084e-05 0.0003172649 8.75638e-05 0.0159859561 -0.1126020741
605296370.0 -0.2755893783 0.7985504931 -5.84716e-05 -7.28114e-05 0.0001827885 0.0001026733 0.0144509167 -0.1129082214
610296340.0 -0.2677822786 0.801153942 0.0002302524 4.10903e-05 0.0002242261 -1.66574e-05 0.0127434411 -0.1127982887
615296310.0 -0.2592361683 0.8043337306 0.0002370675 0.0001118095 0.0002746021 -4.25663e-05 0.0107808001 -0.1131721493
620296280.0 -0.2509441595 0.8062598634 0.0001766421 3.91464e-05 0.0003278244 -0.0001297791 0.0092170801 -0.113508676
625296250.0 -0.242996833 0.809164061 0.0001635968 -0.000161898 0.000163206 2.43326e-05 0.0074514581 -0.1130725751
630296220.0 -0.2341736429 0.8118783183 0.0001735169 4.45991e-05 1.36273e-05 -0.0001215715 0.0056032425 -0.1127780666
635296190.0 -0.2265186067 0.8139263781 0.0001321451 7.80101e-05 0.0001303035 -2.61851e-05 0.0041114648 -0.1128833338
640296160.0 -0.2178463557 0.8153264384 0.0002365458 3.11854e-05 0.0002489084 2.4163e-06 0.002559224 -0.1130902995
645296130.0 -0.2100842953 0.8179146314 5.22833e-05 7.79381e-05 0.0001318071 -9.49594e-05 0.0004383888 -0.1129916295
650296100.0 -0.2019017963 0.8202489412 9.7749e-05 6.3521e-05 0.0001523525 0.0001490556 -0.0011806026 -0.1128547012
655296070.0 -0.1930067877 0.8215946722 0.000309872 -1.92735e-05 0.0001577385 0.0001101326 -0.002733565 -0.1124421314
660296040.0 -0.1848241013 0.8241028007 0.000132237 3.72549e-05 0.0002449818 0.0002330004 -0.0044907924 -0.1125282002
665296010.0 -0.1764389953 0.8256341963 2.9864e-06 3.20549e-05 9.16656e-05 -1.2601e-05 -0.0059026914 -0.112252797
670295980.0 -0.168227249 0.8277264801 2.42651e-05 -6.26068e-05 0.0001598756 -7.93864e-05 -0.0078786074 -0.1122208662
675295950.0 -0.1601113524 0.8284644207 0.0002383472 -5.55563e-05 -3.72109e-05 -0.0001017976 -0.0090825138 -0.1120373919
680295920.0 -0.1515781338 0.8308760681 0.0003093639 -7.95848e-05 0.0002003915 -0.0001035143 -0.0109243304 -0.1118264076
685295890.0 -0.1426072017 0.8325385635 -1.59941e-05 0.0003022829 0.0002967008 -7.88846e-05 -0.0124353422 -0.1115276472
690295860.0 -0.1343818674 0.8333223237 0.0002944784 0.0001269211 0.0002101863 2.10776e-05 -0.0141418316 -0.1110163532
695295830.0 -0.1259461978 0.8340268518 5.1463e-06 -9.98648e-05 4.1177e-05 0.0001219889 -0.0160590285 -0.1109222071
700295800.0 -0.1182464278 0.8353182175 0.0001607476 -0.0001022375 0.0001423645 0.0001362256 -0.0174619296 -0.1104650839
705295770.0 -0.1090606017 0.8370292169 0.0003472028 0.0001664091 -0.0001164626 -0.0001323313 -0.01911257 -0.1101629982
710295740.0 -0.1011734831 0.8383230789 0.0001510446 -0.0001302414 4.12165e-05 -0.0001426104 -0.0213676244 -0.1095527629
715295710.0 -0.0931168547 0.8387780476 0.0001642273 5.4048e-06 0.0002652575 -0.0001708876 -0.0227054706 -0.1096090817
720295680.0 -0.0843582275 0.8394833301 0.0001961911 7.26066e-05 -6.37809e-05 6.19103e-05 -0.0239306331 -0.1092190686
725295650.0 -0.0752128019 0.840843581 0.0002216184 -0.0001852451 0.0002423433 0.0001509389 -0.0255746553 -0.1086941514
730295620.0 -0.0673821189 0.840969272 -6.54882e-05 0.0001000218 -7.05094e-05 -9.88551e-05 -0.0273986256 -0.108319124
735295590.0 -0.0585508393 0.8416055052 0.0003255574 -0.0001658373 8.71359e-05 2.96179e-05 -0.0288769988 -0.1074211781
740295560.0 -0.0500622386 0.8426603131 4.02378e-05 -0.0001079285 0.0002329114 1.60729e-05 -0.030660914 -0.1073407
745295530.0 -0.0415889676 0.8424502794 0.0003355035 1.3443e-05 0.0001048412 -9.85808e-05 -0.0325681867 -0.1065972753
750295500.0 -0.0338537929 0.8428203631 9.74759e-05 -3.54773e-05 0.0002062868 -7.77475e-05 -0.0338382706 -0.106311471
755295470.0 -0.024246093 0.8438298104 6.16862e-05 -0.0001136471 0.0004535615 1.95061e-05 -0.0356620932 -0.1052668815
760295440.0 -0.0159256795 0.8432250347 0.0001635572 -0.0001769736 0.0001310648 -0.0001942856 -0.0371716052 -0.1049651077
765295410.0 -0.007957491 0.8435656876 -0.0001027844 -0.0001015511 0.0001909587 1.84201e-05 -0.0382429589 -0.1040100324
770295380.0 0.0003754741 0.8438151484 0.0001135451 -0.0001975277 0.0001351985 6.64218e-05 -0.0396285375 -0.1036591575
775295350.0 0.0089967979 0.8439180545 0.0002479265 -9.55892e-05 0.0002382724 -0.0001567962 -0.0417499005 -0.1033572455
780295320.0 0.0177952016 0.843281899 0.0001782389 4.50208e-05 1.30004e-05 -0.0001431261 -0.043434812 -0.1019519648
785295290.0 0.0259410097 0.843979622 0.0004074767 0.0001530772 0.0001880014 -2.07759e-05 -0.0447434241 -0.1016158048
790295260.0 0.0341140096 0.8431488292 0.0001716434 3.5831e-06 -9.5721e-06 1.55021e-05 -0.0463404517 -0.1006465272
795295230.0 0.0422895929 0.8433338606 6.8258e-05 8.27732e-05 0.0001580025 0.0001307428 -0.0480093835 -0.0999596284
800295200.0 0.0511923777 0.8425037129 0.0001547836 -1.3422e-05 -7.91133e-05 -0.0001294365 -0.0490626327 -0.099073059
805295170.0 0.0595493931 0.8421340532 0.0001747121 -9.20534e-05 6.09616e-05 5.78795e-05 -0.0513107797 -0.0982581356
810295140.0 0.0679588518 0.8414814216 0.0001959101 2.91562e-05 0.000303283 6.6054e-05 -0.0519706342 -0.0972329752
815295110.0 0.0768706357 0.8402531493 0.0001866391 0.000162874 3.42814e-05 -2.76488e-05 -0.0539432335 -0.0968012166
820295080.0 0.0848376421 0.8389296746 -1.25921e-05 -0.0001258711 0.0001701946 8.99127e-05 -0.0554261947 -0.0959389206
825295050.0 0.0938789001 0.8382730083 -1.4318e-05 0.0002227372 0.0001104484 0.0002283613 -0.0566089121 -0.0952081241
830295020.0 0.1019029496 0.8376656864 0.0003891075 0.0001196634 0.0001176588 -0.000195145 -0.0583190242 -0.0943649472
835294990.0 0.1098786775 0.8367675544 0.0002317787 -0.0001084472 0.0004017682 -0.0001368046 -0.0596996733 -0.0933950725
840294960.0 0.1185327014 0.8350989775 -2.8864e-06 -7.80594e-05 -1.62872e-05 -8.85028e-05 -0.0610662237 -0.0921311245
845294930.0 0.126955716 0.8346877994 0.000118097 -0.0003765015 0.0001718704 -7.12283e-05 -0.0626251605 -0.0912286869
850294900.0 0.134747505 0.8326632672 5.62228e-05 -2.67081e-05 5.3103e-05 -0.0001228973 -0.0640679237 -0.0904316591
