!Created with skrf (http://scikit-rf.org).
# Hz S RI R 50.0 
!freq ReS11 ImS11 ReS21 ImS21 ReS12 ImS12 ReS22 ImS22
300000.0 -0.0503719898 -0.0486251456 0.0008551626 0.0034358378 7.02158e-05 -0.0001541973 -0.7724051234 -0.1350159834
5299970.0 -0.0498727269 0.0156134717 -0.0001052268 -0.0002239856 4.41253e-05 -0.0001302013 -0.7842025112 -0.0073585915
10299940.0 -0.0440625123 0.0326021206 -6.44023e-05 -0.0001388547 -9.13515e-05 0.0001118519 -0.7877002713 -0.0036947058
15299910.0 -0.035783935 0.0468656584 -2.28019e-05 0.0002464889 -4.78745e-05 1.21297e-05 -0.7930964462 -0.0013702362
20299880.0 -0.0260373587 0.0585045185 -3.47246e-05 -2.35348e-05 4.70394e-05 2.73221e-05 -0.7998072258 0.0023202367
25299850.0 -0.0152145918 0.0682276098 0.0002024892 -7.1538e-05 4.91621e-05 3.7016e-06 -0.8056074312 0.0083570109
30299820.0 -0.0040348657 0.074966821 9.2019e-05 0.0002467036 0.0002307565 5.24272e-05 -0.8120580804 0.0163722082
35299790.0 0.0074290273 0.0798288271 -6.15918e-05 0.0002540629 -9.4158e-05 0.0001838755 -0.8168959218 0.0250526781
40299760.0 0.0186147143 0.0829734243 0.0001721555 -1.44371e-05 0.000112568 -7.03425e-05 -0.8207662467 0.0342394211
45299730.0 0.0293917585 0.084283905 9.52415e-05 7.14476e-05 -0.0001021518 4.16373e-05 -0.8252427341 0.0445481542
50299700.0 0.0392518821 0.0846729312 8.90671e-05 -5.03999e-05 9.1783e-06 -6.26261e-05 -0.8271657632 0.0538100421
55299670.0 0.0483633429 0.0836637196 0.0003162954 5.19531e-05 -3.65825e-05 -0.0001623151 -0.8290571942 0.0645258831
60299640.0 0.0571046372 0.0820955982 -9.35703e-05 4.15469e-05 0.0001071936 0.0002420591 -0.8303675066 0.0737717844
65299610.0 0.0646994697 0.0796741999 2.80037e-05 6.48724e-05 3.84467e-05 9.67015e-05 -0.8318050482 0.0838811582
70299580.0 0.0718688505 0.0771697538 0.0001567226 -0.0001205926 4.5476e-05 0.0001529266 -0.8315556089 0.0939458496
75299550.0 0.0779762226 0.0742414074 8.08047e-05 1.8552e-06 -6.16873e-05 0.0001530633 -0.8323921134 0.1039832027
80299520.0 0.0836387383 0.0704534973 -9.53955e-05 0.0001322454 -5.64014e-05 -0.0001029889 -0.8320994789 0.1136036923
85299490.0 0.0886221784 0.0668643761 1.88901e-05 0.0001396099 0.00018027 2.6761e-06 -0.8320461502 0.124128336
90299460.0 0.0934215137 0.0632943928 0.0002615963 0.000127478 9.26736e-05 3.17295e-05 -0.8305577608 0.1331909255
95299430.0 0.0976200323 0.0591032536 -9.92891e-05 6.63763e-05 1.88499e-05 4.97374e-05 -0.8286407405 0.1426768959
100299400.0 0.1010090873 0.0557401862 -0.0001016556 -9.87875e-05 -1.87072e-05 9.93e-06 -0.8284924925 0.15239838
105299370.0 0.1045961043 0.0519669046 0.000104505 2.74254e-05 7.30911e-05 -7.0259e-06 -0.8266456045 0.1609262902
110299340.0 0.1076582299 0.0479565229 5.46925e-05 -1.75601e-05 0.0001820368 0.0001052516 -0.8255999416 0.1705309823
115299310.0 0.1102209578 0.0440807852 0.0001250756 0.0002533449 9.0769e-06 0.0001569387 -0.8240546916 0.1799521018
120299280.0 0.1119685618 0.0403284653 -1.92062e-05 9.33529e-05 0.0001662389 8.02677e-05 -0.8219605172 0.1889331601
125299250.0 0.1142036831 0.0363535672 0.0001155048 0.0001490885 -8.76765e-05 9.5484e-06 -0.8205604208 0.1979684693
130299220.0 0.115867901 0.0329758635 0.00012845 -2.09288e-05 -7.0506e-06 0.000235164 -0.8186917025 0.2063908993
135299190.0 0.1174244132 0.0296929029 7.5181e-05 -3.8598e-05 0.0002383044 6.79698e-05 -0.8163177158 0.2158115634
140299160.0 0.1186793542 0.0260417342 7.6571e-06 0.000168621 0.0001074237 4.3416e-05 -0.8141734478 0.2246451829
145299130.0 0.1198392306 0.022646623 -0.0001824482 0.0003155522 4.16619e-05 -3.72646e-05 -0.8122280343 0.233863981
150299100.0 0.1209832562 0.0193930463 0.0001796232 0.0001637548 0.0001371195 -0.0001205054 -0.8099695845 0.2429450476
155299070.0 0.1216560231 0.0160812226 0.0001971519 0.0002115579 8.06448e-05 0.0002598453 -0.8069852179 0.2518914962
160299040.0 0.1222538077 0.0130738132 7.6086e-05 0.0002911649 5.25617e-05 8.42338e-05 -0.8048279437 0.2604917784
165299010.0 0.1230759567 0.009780727 0.0001524035 -1.55487e-05 -9.38221e-05 0.0002112193 -0.8021632813 0.2692348469
170298980.0 0.1233290149 0.007250724 0.0001386262 0.0001509811 -2.92789e-05 -2.34369e-05 -0.7991963107 0.2777009308
175298950.0 0.1236412832 0.0039495696 7.79111e-05 9.29097e-05 0.000146004 0.0003021452 -0.7964556531 0.2866337606
180298920.0 0.1239169258 0.0011792216 -8.27944e-05 9.71164e-05 0.0001705255 -1.72916e-05 -0.7934434272 0.2953556615
185298890.0 0.1242519707 -0.0017946719 3.7437e-06 0.0001783194 0.0001818342 1.822e-05 -0.7903010672 0.303651601
190298860.0 0.1241330109 -0.0042808818 6.63666e-05 -0.0001095589 -0.0001899839 -8.38265e-05 -0.7877056624 0.3125326329
195298830.0 0.1241722535 -0.0070659166 -6.83249e-05 2.92603e-05 0.0001750535 0.0002539271 -0.7845585527 0.3203020163
200298800.0 0.1241478816 -0.0096838086 0.0002445192 0.0001108243 3.6904e-06 2.47245e-05 -0.7815678419 0.3292549221
205298770.0 0.1238618779 -0.0122175122 -3.97762e-05 8.68237e-05 0.0002233725 5.48493e-05 -0.7773080782 0.3373501574
210298740.0 0.1235065734 -0.0147948497 0.0001896476 9.98247e-05 0.0001131437 5.44964e-05 -0.774313009 0.3459777635
215298710.0 0.1231134355 -0.0170962098 0.0001468352 0.0003236937 0.0001511757 1.78344e-05 -0.7710415017 0.3535719651
220298680.0 0.122775954 -0.0197383866 -4.98933e-05 0.0001228964 0.0002578323 6.16737e-05 -0.7671181058 0.3618425493
225298650.0 0.1221329564 -0.022267173 0.0003091261 -5.27117e-05 -8.73727e-05 0.0001736741 -0.7637020234 0.3703033179
230298620.0 0.1215999545 -0.0242111034 8.94538e-05 2.9105e-05 6.81643e-05 -0.0001143852 -0.7595798255 0.3789222825
235298590.0 0.1214499233 -0.0264459251 0.0001329008 0.00018283 -3.60624e-05 0.0002092018 -0.7557923511 0.3867547291
240298560.0 0.1210600295 -0.0286840343 2.11551e-05 0.0002896591 0.0004254262 -7.15678e-05 -0.7513048166 0.3953899273
245298530.0 0.1202738219 -0.0311699681 -8.24935e-05 -1.2422e-05 -1.29399e-05 -7.15117e-05 -0.74736512 0.4020503027
250298500.0 0.1197841742 -0.0332601037 0.0001868605 0.000206595 9.61758e-05 0.0001256673 -0.743663207 0.41027553
255298470.0 0.1186762188 -0.0354659758 0.0003235688 0.0001088791 4.88344e-05 0.0002309392 -0.7389079674 0.4177570291
260298440.0 0.1180518184 -0.0373024915 0.0001824126 5.1331e-05 0.0001294736 -2.4934e-06 -0.7347198346 0.4261233583
265298410.0 0.1175182989 -0.0389479986 6.26581e-05 0.0001270173 0.0002742419 0.0002255062 -0.7302429122 0.4333125777
270298380.0 0.1167924117 -0.0409951396 8.35562e-05 0.0002755945 1.4311e-06 -0.0001697736 -0.7254965708 0.4410200378
275298350.0 0.116084479 -0.0429642329 -4.5955e-05 -1.80223e-05 0.0001566393 0.0002165018 -0.720769588 0.4484153546
280298320.0 0.1153236373 -0.0448881484 5.33965e-05 0.0002241308 7.66346e-05 0.0001923297 -0.7156029191 0.4560755705
285298290.0 0.1146751004 -0.046475067 0.0002053871 8.20364e-05 5.62224e-05 0.00033775 -0.7105334845 0.4636389945
290298260.0 0.114091287 -0.0484260008 -4.95841e-05 8.15771e-05 9.48014e-05 0.0001243088 -0.7060740763 0.4709486737
295298230.0 0.1128175572 -0.050468328 0.0001504875 0.0001195806 -2.45867e-05 0.0003007079 -0.7008920529 0.4778740808
300298200.0 0.1122546977 -0.0521338923 0.0001394289 -1.722e-07 0.0001986059 0.0003431425 -0.6960051038 0.48504476
305298170.0 0.1113836385 -0.05391048 0.0001487758 9.84739e-05 0.000287452 -0.0001365896 -0.6901680335 0.4926767936
310298140.0 0.110474788 -0.0555750325 0.0001428843 0.000134194 0.0001611071 0.0002783518 -0.6852365674 0.4993317197
315298110.0 0.1100690681 -0.0574218871 4.56836e-05 0.0001064465 0.000122169 0.0001553828 -0.6795614561 0.5066205621
320298080.0 0.1088451009 -0.0593378123 6.26138e-05 -1.68128e-05 0.0002894286 -7.17184e-05 -0.6743442591 0.514129522
325298050.0 0.1075579464 -0.0610942269 0.0002150414 0.0001239713 0.000120092 0.0002028974 -0.6684230899 0.5210343426
330298020.0 0.106402615 -0.0629469696 0.0001406615 -6.5759e-06 0.0002674834 -5.65755e-05 -0.663406739 0.5285133502
335297990.0 0.1050251688 -0.0644736193 8.15044e-05 0.0001280249 0.0002556927 0.0002617551 -0.6582896682 0.5351277913
340297960.0 0.1036319959 -0.0654993642 0.0002645454 5.76283e-05 4.18448e-05 1.27436e-05 -0.6521104197 0.5417482636
345297930.0 0.10237739 -0.0671001287 -4.51607e-05 0.0002132157 4.0575e-05 0.0002140832 -0.646747092 0.5482731095
350297900.0 0.1013473086 -0.0684685741 0.0004755311 0.0002748032 0.0003741856 3.21416e-05 -0.6412292918 0.5556321817
355297870.0 0.1001963194 -0.0697639093 0.0003651147 -0.0001152247 -2.54095e-05 0.0001188232 -0.6350357782 0.5618678225
360297840.0 0.098961776 -0.0712135972 -2.7131e-05 0.0001860743 0.0001225079 -6.7419e-05 -0.6298771648 0.568613883
365297810.0 0.0975130432 -0.072013637 0.0002269606 4.65287e-05 0.0001400719 0.0001174228 -0.6230684946 0.5753209032
370297780.0 0.0965542914 -0.0734958055 0.000156588 0.0001731105 0.0002488296 0.000290834 -0.6174150925 0.5821438938
375297750.0 0.0952543449 -0.0748460899 0.0002176113 0.0001022495 0.0002546671 -6.2145e-06 -0.6114318038 0.5877126235
380297720.0 0.0940139646 -0.0760925895 0.0001599534 0.0001222298 0.0003166586 0.0001894568 -0.605345078 0.5942111575
385297690.0 0.0928396618 -0.07697257 -2.40414e-05 3.30709e-05 0.0001224428 7.38733e-05 -0.5991465844 0.6010595976
390297660.0 0.0914299919 -0.0783219722 0.0001866066 0.0001410431 0.0003105276 0.0001526207 -0.5934562712 0.6064632082
395297630.0 0.09069642 -0.0794406742 0.0002049553 0.0002800122 0.0003574377 7.86926e-05 -0.5866597342 0.6128451869
400297600.0 0.0892968618 -0.0804614271 0.0002731266 0.0003817713 0.0002803052 0.000125621 -0.5804262233 0.6189539115
405297570.0 0.0877396239 -0.081499831 0.0004049357 0.0001217592 0.0001098401 0.0002618512 -0.5739811698 0.6247920101
410297540.0 0.0864871065 -0.0826449233 0.0002172388 7.275e-05 0.000197652 0.0001959082 -0.566911923 0.6305092582
415297510.0 0.0853842227 -0.083785025 0.0001846824 7.07102e-05 0.0002841278 0.000220125 -0.5610624209 0.6360731158
420297480.0 0.0842746339 -0.0846682024 0.0003878318 6.36684e-05 0.0001339163 8.52481e-05 -0.5543873098 0.6426916442
425297450.0 0.0829787953 -0.0854456632 0.0002690485 7.24557e-05 0.0001636096 0.0001977072 -0.5477332277 0.6480423815
430297420.0 0.0817264976 -0.0866581386 1.83499e-05 9.49869e-05 0.0003843528 0.0002679184 -0.5413470351 0.6526783646
435297390.0 0.0803673618 -0.0875932913 0.0002515178 0.0001934867 0.0002335028 1.716e-07 -0.5338318134 0.6581801016
440297360.0 0.0787828538 -0.0885878177 0.0001479431 0.0003116819 0.0002196007 0.0002137362 -0.5272277847 0.6634584055
445297330.0 0.0774667515 -0.0897951484 0.000104737 0.000166758 0.0002009185 7.29391e-05 -0.5198926258 0.6686350262
450297300.0 0.0762981744 -0.0904202768 0.0002492169 0.0001178436 0.0003216923 -8.93919e-05 -0.5134460275 0.6738477066
455297270.0 0.0749842821 -0.0911381768 0.0001690309 0.0003139574 0.0002346963 0.0001447983 -0.5064309008 0.6786770604
460297240.0 0.0736692197 -0.0922244595 0.000156386 -4.059e-07 9.74246e-05 -3.91423e-05 -0.4996620034 0.6842861276
465297210.0 0.0723022458 -0.0928702067 0.0001796859 0.0001157604 0.000347921 3.10781e-05 -0.4918030689 0.6888776365
470297180.0 0.0711138631 -0.0936206621 0.0003598044 0.000225051 0.0002272155 0.0003574516 -0.4845617969 0.6942093716
475297150.0 0.0694530835 -0.0947628528 0.0004823305 0.0001952164 0.0002908942 1.93158e-05 -0.4771899491 0.6988022621
480297120.0 0.0681551904 -0.0952056897 0.0002169327 1.22276e-05 0.0002803302 -1.92592e-05 -0.4703260261 0.703315348
485297090.0 0.0666983279 -0.0960720394 0.0001088775 -1.98888e-05 0.0002294406 8.84978e-05 -0.4631165734 0.7077057882
490297060.0 0.0653182024 -0.0965423891 0.0002395986 0.0001722205 0.0002315145 0.000124822 -0.455764596 0.7127015339
495297030.0 0.0638507052 -0.097226975 7.59693e-05 -8.4143e-06 0.0001919039 0.0001308734 -0.4482147916 0.7175711488
500297000.0 0.0627613991 -0.0980804742 0.0004056393 0.0001248523 5.05965e-05 0.0001249525 -0.44084599 0.7220886303
505296970.0 0.0616342584 -0.0988309943 0.0003246573 0.0002793608 0.0003120072 -9.53723e-05 -0.4335167961 0.7262672333
510296940.0 0.0600062261 -0.0995046405 0.0002923195 7.65654e-05 0.0003537815 0.0002782999 -0.4264305762 0.7306101205
515296910.0 0.0588805946 -0.1000926409 0.0003566751 1.64162e-05 0.0002888893 0.0001547214 -0.4184714467 0.7351050756
520296880.0 0.0569844885 -0.1008510111 0.0004651689 8.17381e-05 0.0003965962 0.0001141994 -0.4109893727 0.7391114157
525296850.0 0.0558729561 -0.1014921832 0.0004034911 0.0001855753 0.0003691548 4.7937e-05 -0.4041443471 0.7437740816
530296820.0 0.0543755622 -0.1015271519 0.0002668644 0.000199853 0.0004038603 -0.0001885023 -0.3963233495 0.7473699686
535296790.0 0.0530332067 -0.1019121631 0.0005275682 0.0002595467 0.0002636037 0.0001178594 -0.3891315259 0.7511783733
540296760.0 0.0514194324 -0.1026291214 0.0005197099 0.0002306764 0.00032162 9.5208e-06 -0.3811387232 0.7556523977
545296730.0 0.0499863362 -0.1031380773 0.0004323049 0.0001000013 3.28044e-05 9.26328e-05 -0.3734011836 0.7591754893
550296700.0 0.0490207252 -0.1035351348 0.000421753 0.0001674347 0.0003766889 0.0001003733 -0.3657645187 0.7628818
555296670.0 0.0470887305 -0.1038380708 0.0002258578 8.76856e-05 0.000375399 0.0001593009 -0.3577335424 0.7669725313
560296640.0 0.0459997413 -0.1043019941 0.0003200122 -1.63097e-05 0.0001925161 -7.08734e-05 -0.3503302233 0.7705576441
565296610.0 0.0444743487 -0.1045819703 0.0002791864 6.82908e-05 0.0003605833 -4.9711e-05 -0.3424170936 0.7737117959
570296580.0 0.0428082319 -0.1050165161 0.0002133931 0.0001838261 0.0004055443 4.27023e-05 -0.335325191 0.7776697957
575296550.0 0.041498501 -0.1055349723 0.0002930865 8.93163e-05 0.0002142396 0.0001289528 -0.3269108217 0.7807043533
580296520.0 0.0403481582 -0.1059004739 5.75118e-05 3.86102e-05 0.000259825 2.2129e-05 -0.3182834978 0.7835626622
585296490.0 0.0382929332 -0.1064917026 0.0004138125 0.0003133605 0.000380474 9.86659e-05 -0.31046828 0.7872417373
590296460.0 0.0373380167 -0.1063519113 0.000346219 -3.59167e-05 0.0002882544 9.94525e-05 -0.3031506448 0.7898662188
595296430.0 0.0354415807 -0.1068034066 0.0005149352 3.265e-05 0.0005471583 0.0001869008 -0.2946690816 0.7921983548
600296400.0 0.0340274688 -0.1070953607 0.0003439936 1.53598e-05 0.0002857269 8.28091e-05 -0.2868555897 0.7953623537
605296370.0 0.0324584634 -0.1070815836 0.0003157053 0.0001417995 0.0002966649 -7.43013e-05 -0.2780846292 0.7982872316
610296340.0 0.031218117 -0.1073603278 0.0004956269 -5.09849e-05 0.0004904347 0.0001849369 -0.2705205129 0.8004860283
615296310.0 0.0298976157 -0.1078989467 0.0001627186 5.49572e-05 0.000367597 -0.0001127024 -0.2619371698 0.803155095
620296280.0 0.0282334873 -0.1080143294 0.0003641094 -8.42587e-05 0.0001616444 -5.35386e-05 -0.2546033938 0.8061061376
625296250.0 0.0266604972 -0.1084249701 0.0004263663 0.0001840656 0.0002961611 6.55381e-05 -0.2454390917 0.8077434164
630296220.0 0.0259386832 -0.1085457973 0.000316062 2.64816e-05 0.000512504 4.99155e-05 -0.237614884 0.8109518936
635296190.0 0.0238337761 -0.1084406027 0.000426316 8.5538e-06 0.0005223315 5.56914e-05 -0.2292088913 0.8127066179
640296160.0 0.022474604 -0.1086176515 0.0001145785 7.01678e-05 0.0003822074 -5.02729e-05 -0.2208293622 0.8154533719
645296130.0 0.0212353451 -0.1085171726 0.0003538429 -3.42112e-05 0.0001963931 0.0002515405 -0.213162255 0.8173231491
650296100.0 0.0194823477 -0.1086647528 0.0004461238 9.60441e-05 0.0003589816 0.0002419163 -0.2048888679 0.81851978
655296070.0 0.0180109544 -0.1085339441 0.0003365008 -5.11886e-05 0.0003465677 -9.427e-05 -0.196260291 0.8208760926
660296040.0 0.0166482762 -0.108940395 0.0001856974 0.0001205503 0.0004784963 5.27947e-05 -0.1873043389 0.8231633275
665296010.0 0.0155522226 -0.1090458531 0.0002577041 0.0001987442 0.000651523 -7.8576e-05 -0.179273916 0.8250732963
670295980.0 0.0135532149 -0.1085219843 0.0006896173 0.0001595554 0.0004240014 7.7171e-06 -0.1717353589 0.8266087298
675295950.0 0.0121572327 -0.1085315667 0.0003406667 -4.34109e-05 0.0004415143 9.275e-07 -0.1639097433 0.8287007818
680295920.0 0.0108645607 -0.1084017933 0.0004120778 0.0001612667 0.0002941151 -0.0002172307 -0.1550444935 0.8311126191
685295890.0 0.0094884561 -0.1084226207 0.0005113562 0.0001324547 0.0003903869 -5.24096e-05 -0.1456564223 0.8315632756
690295860.0 0.0082190722 -0.1084441044 0.0003477319 5.63174e-05 0.0003506808 0.0001251443 -0.1385598013 0.83338444
695295830.0 0.0065200956 -0.1081762481 0.0003429038 -6.5581e-05 0.0004527727 0.0001249729 -0.1290816918 0.8348228434
700295800.0 0.0052317095 -0.1081211439 0.0005029149 -1.98862e-05 0.0003955752 1.03349e-05 -0.1217158226 0.8359005322
705295770.0 0.0037101702 -0.1078379513 0.0002986554 -6e-10 0.0003264162 1.39625e-05 -0.1134938301 0.8378188386
710295740.0 0.002310855 -0.1076744303 0.0003626028 -7.74339e-05 0.0004323979 -0.0001578635 -0.1049633486 0.8382588604
715295710.0 0.000726058 -0.1077449502 0.0003613198 -9.72571e-05 0.0003456112 0.0001127925 -0.096227293 0.8395086636
720295680.0 -0.0005635605 -0.1074200427 0.0002094759 4.55965e-05 0.000242047 -0.0001491802 -0.0874162867 0.8405544512
725295650.0 -0.0020400635 -0.1070024158 0.0005981266 -0.000189493 0.0005205289 -6.75999e-05 -0.0800459337 0.8418451466
730295620.0 -0.0034662556 -0.1068852606 0.0004468211 0.0001280252 0.0003089254 3.54648e-05 -0.0721019374 0.8420280617
735295590.0 -0.0046832829 -0.1063264659 0.0006343314 5.2396e-05 0.0005181199 -6.88266e-05 -0.0631001476 0.8422453674
740295560.0 -0.0063668619 -0.106404317 0.000506833 -4.7948e-06 0.0003247958 -1.02545e-05 -0.0540918471 0.843861304
745295530.0 -0.0077026515 -0.1059327103 0.0004233862 -0.000140341 0.000230759 -3.43881e-05 -0.0459612285 0.8439067751
750295500.0 -0.0087654609 -0.1056126376 0.0005168111 -0.0001482746 0.0003539111 -9.4694e-05 -0.0376845144 0.8442031366
755295470.0 -0.0103489441 -0.1053192411 0.0006974456 -1.80508e-05 0.0003946322 4.70735e-05 -0.0292407936 0.8435582232
760295440.0 -0.0119802772 -0.1049645187 0.000274658 -9.26522e-05 0.000366144 -1.80866e-05 -0.0206469976 0.8441205018
765295410.0 -0.0131582267 -0.1045016919 0.0003934554 3.58874e-05 0.0002399241 -0.0001435743 -0.0125036461 0.8454474987
770295380.0 -0.0148246781 -0.1044107589 0.0004714854 7.9287e-06 0.0004350942 0.0001090287 -0.0048706674 0.8442938956
775295350.0 -0.0162687512 -0.1039340431 0.0003178902 6.60636e-05 0.0002933332 0.0001280877 0.0038480719 0.8439441868
780295320.0 -0.0173660786 -0.1036124403 0.0003550522 -0.0001940962 0.0006283296 0.0001291938 0.011989893 0.8441137548
785295290.0 -0.0190392973 -0.1034075377 0.0002367002 -0.0003248126 0.0004050131 -0.0001531141 0.0208463293 0.8436340133
790295260.0 -0.0199003968 -0.1027348124 0.0003450348 8.7433e-05 0.0003822075 -0.0001556107 0.0299854535 0.8439029792
795295230.0 -0.0215354967 -0.1019643591 0.0002800358 -6.5255e-05 0.0004713801 -0.0001490293 0.0387002531 0.8427986284
800295200.0 -0.0228282258 -0.101633075 0.0004847858 -1.1327e-05 0.0003237373 5.35887e-05 0.046815066 0.8426856253
805295170.0 -0.0240569116 -0.1014104655 0.0002618763 -0.0002479792 0.000489918 -6.56994e-05 0.0546465279 0.8419427865
810295140.0 -0.0253107349 -0.1008988809 0.0007892608 -6.89713e-05 0.0007186351 1.26681e-05 0.0639498493 0.8416014425
815295110.0 -0.0268708578 -0.1004328208 0.0005702573 -0.0001384001 0.0004238426 -0.0002377028 0.0719324452 0.8406624408
820295080.0 -0.0280379107 -0.0996032411 0.0003837718 -0.0004221625 0.0004281461 -0.0003716573 0.079829215 0.8394910303
825295050.0 -0.0292228295 -0.0992379251 0.0005513563 -0.0001328429 0.0003651323 2.48493e-05 0.0882410964 0.8392318645
830295020.0 -0.0307119255 -0.0987688578 0.0002353864 -0.0001684125 0.0006623686 -0.0002691791 0.0977345069 0.8380097213
835294990.0 -0.0318418783 -0.0977196751 0.0004338227 -0.0002321464 0.0002748557 -6.5887e-05 0.1049678216 0.8374550814
840294960.0 -0.0329921988 -0.0973359324 0.0003290065 -0.0001254409 0.0003926335 -0.0003021183 0.1141056002 0.8362366664
845294930.0 -0.0342736507 -0.0965853213 0.0004092695 -7.43882e-05 0.0003220204 -1.81777e-05 0.1215268075 0.8346823011
850294900.0 -0.0354458719 -0.0957064988 0.0003782524 -8.08014e-05 0.0002349404 -0.0001228334 0.1298754987 0.8338278756
