!Created with skrf (http://scikit-rf.org).
# Hz S RI R 50.0 
!freq ReS11 ImS11 ReS21 ImS21 ReS12 ImS12 ReS22 ImS22
300000.0 -0.2417012419 -0.0911100172 0.4709169308 0.0615623738 0.4698275688 0.058890253 -0.2368181771 -0.1009980253
5299970.0 -0.244927779 0.006421404 0.475016476 0.0052781096 0.4750203293 0.0052106856 -0.2410498401 0.0071233741
10299940.0 -0.2416692964 0.0178124453 0.4766195433 0.0060851944 0.4767494301 0.0062747613 -0.2375971023 0.0206144203
15299910.0 -0.2375535561 0.0269253783 0.4802885362 0.0070555369 0.4806625149 0.0075641264 -0.2329756891 0.0301447701
20299880.0 -0.2327910317 0.0338415344 0.4853200988 0.0081762268 0.4851187142 0.0079183676 -0.2277075187 0.0381471756
25299850.0 -0.2277405172 0.0401620377 0.4902087566 0.0070608219 0.4901570894 0.0072207358 -0.2216806928 0.0448888472
30299820.0 -0.2224938689 0.0452959914 0.4956898258 0.0044523039 0.4954597652 0.0050669371 -0.2158524642 0.0502243264
35299790.0 -0.2173219214 0.049175339 0.5010344342 0.0016799532 0.5009531609 0.0013574223 -0.2103324743 0.0547669166
40299760.0 -0.2128638912 0.0522875176 0.5059107377 -0.0022517364 0.5059223977 -0.0022030367 -0.2051319809 0.057661667
45299730.0 -0.2080028746 0.0549251062 0.5104888289 -0.0070616167 0.5109590526 -0.0070265438 -0.2003460489 0.0606581365
50299700.0 -0.2036475814 0.056892223 0.5150287257 -0.012784257 0.5151827968 -0.0122898701 -0.1954937818 0.0626701489
55299670.0 -0.1999907109 0.0583381379 0.5187951985 -0.0191266258 0.5184779233 -0.0184600207 -0.1915458108 0.0643801557
60299640.0 -0.1958191797 0.059645816 0.5219415715 -0.0249732099 0.5221686333 -0.0246864694 -0.1872847218 0.0654405422
65299610.0 -0.1930356623 0.0608233891 0.5243976815 -0.0312448827 0.5249190967 -0.0311411837 -0.1841861827 0.0666627935
70299580.0 -0.1900424905 0.0620347985 0.5270768567 -0.038000647 0.5274153221 -0.0376735348 -0.1810304348 0.0675331196
75299550.0 -0.1872638364 0.0631566854 0.5288359253 -0.0449072435 0.5289759875 -0.0445673419 -0.1780212668 0.0684548232
80299520.0 -0.1847296535 0.0639368492 0.5311327636 -0.0513086443 0.5309558033 -0.0515503288 -0.175337876 0.0690931762
85299490.0 -0.1825146829 0.0643174844 0.5320723554 -0.058145935 0.532251665 -0.0579366153 -0.1728477528 0.0695738519
90299460.0 -0.1804027889 0.0650489354 0.5325721847 -0.0656170853 0.53320154 -0.0652472444 -0.1703599595 0.0704647985
95299430.0 -0.1782292846 0.0653608279 0.5342253076 -0.0722365667 0.5340846547 -0.0722985569 -0.167999054 0.0713097156
100299400.0 -0.1768118456 0.0662718014 0.5340894187 -0.0794093704 0.5339882377 -0.0790646465 -0.165932223 0.0715416881
105299370.0 -0.1750905009 0.0668620716 0.5345699431 -0.0862871655 0.5346727446 -0.0860578149 -0.1640722582 0.0725254201
110299340.0 -0.1735766194 0.0674554356 0.5350054484 -0.0927355983 0.5347304309 -0.0925019402 -0.1628802814 0.0731731866
115299310.0 -0.1720074209 0.0682802696 0.5347901609 -0.09979189 0.5346070053 -0.0996284518 -0.1607996554 0.073870239
120299280.0 -0.1708718159 0.0685525052 0.5345448129 -0.1062205743 0.5347417827 -0.1065159595 -0.1596213472 0.0744873221
125299250.0 -0.1694627341 0.0693412183 0.5337952044 -0.1130406001 0.5341583457 -0.1126698441 -0.1584280726 0.07474813
130299220.0 -0.1689149967 0.0702372712 0.5334539323 -0.1199905829 0.533550591 -0.1197421083 -0.1571186039 0.0757763518
135299190.0 -0.1673674522 0.0713986634 0.5327763169 -0.1266589253 0.5326627831 -0.1263764149 -0.1554962899 0.0767693689
140299160.0 -0.1667390246 0.0722155036 0.5316569236 -0.133031231 0.5317717624 -0.1332300905 -0.1545511294 0.078089335
145299130.0 -0.1653915648 0.0728376058 0.5312719829 -0.1395945837 0.5307377784 -0.1392234713 -0.1532958414 0.0788492251
150299100.0 -0.1643158776 0.0737507966 0.529952408 -0.1455597196 0.5299232511 -0.1452938025 -0.1525311938 0.0802154719
155299070.0 -0.1637775813 0.0748384689 0.5287910878 -0.1533356221 0.5286376865 -0.1525269173 -0.1509186087 0.0811813717
160299040.0 -0.1627243999 0.0757391713 0.5274208507 -0.15902338 0.5270782459 -0.1589722383 -0.1506482911 0.0822681949
165299010.0 -0.1619032903 0.0770266161 0.5254994678 -0.1659996228 0.5259905394 -0.1656043866 -0.1489454775 0.0837331674
170298980.0 -0.1612597118 0.0777943381 0.5238994883 -0.1717447504 0.5245066338 -0.1719997343 -0.1480526636 0.0847740975
175298950.0 -0.1606704111 0.0791078421 0.523012816 -0.1782564685 0.5224248377 -0.1779795747 -0.1473285761 0.0860907253
180298920.0 -0.1598730764 0.080009824 0.5211544982 -0.1842871799 0.5203915942 -0.18408886 -0.146383327 0.0874299149
185298890.0 -0.1586422562 0.0810579649 0.5193916556 -0.1904453079 0.5188423191 -0.1905899739 -0.1454215627 0.0886743261
190298860.0 -0.1583418137 0.0823685073 0.5170801376 -0.1969628251 0.5176184464 -0.1969659355 -0.1444774421 0.0896914874
195298830.0 -0.1575470476 0.0832710243 0.5151688833 -0.2030199133 0.5153186253 -0.2028627568 -0.143286637 0.0912371045
200298800.0 -0.1568831373 0.0846483751 0.5129875302 -0.2092239986 0.5131939893 -0.2091532017 -0.1430880949 0.092781245
205298770.0 -0.1559346003 0.0858625079 0.5107414052 -0.2153030273 0.5105769247 -0.2149076727 -0.1420631335 0.0933029639
210298740.0 -0.1553133989 0.0869592576 0.508504453 -0.2207305285 0.508607192 -0.2206182124 -0.1409355691 0.095451796
215298710.0 -0.1548938662 0.0884330775 0.5064488492 -0.2272578249 0.506132061 -0.2269424562 -0.1402525849 0.0964829917
220298680.0 -0.154064424 0.0894342142 0.5034526914 -0.2328584906 0.5040228572 -0.233024435 -0.1396302737 0.0978782841
225298650.0 -0.1536626092 0.0909206903 0.5016552934 -0.2390720084 0.5014967854 -0.2385595483 -0.1386863344 0.0988256507
230298620.0 -0.152734341 0.0923253377 0.4991808034 -0.2442088189 0.4991775568 -0.244436434 -0.1377727841 0.1001224547
235298590.0 -0.151752464 0.0939499245 0.4961881264 -0.2504488862 0.4963232118 -0.2496811788 -0.1371809572 0.101604675
240298560.0 -0.1510687657 0.0950584551 0.4942969473 -0.2561628336 0.4935548266 -0.2559143746 -0.1357121965 0.1032635996
245298530.0 -0.1505495761 0.0963627632 0.4913351988 -0.261531997 0.4907231009 -0.2617164766 -0.1345697273 0.1040962915
250298500.0 -0.149127847 0.0979166495 0.4874483617 -0.2672935056 0.4874457748 -0.2665935427 -0.1341307722 0.105668565
255298470.0 -0.1485781269 0.0985655857 0.4843711272 -0.2727149542 0.4851802955 -0.2725294284 -0.1328543198 0.106664416
260298440.0 -0.148181885 0.1001773467 0.4819498698 -0.2788267633 0.482029486 -0.2782672411 -0.1314321859 0.1084358981
265298410.0 -0.14678691 0.1019455261 0.4791787937 -0.2840273239 0.479291352 -0.2837329912 -0.1304375568 0.1097510357
270298380.0 -0.1460767888 0.102909934 0.4761423191 -0.2892323132 0.4761141425 -0.2892666274 -0.129537259 0.111113479
275298350.0 -0.1450645197 0.104177354 0.4730280943 -0.2951247068 0.4732303256 -0.2946238748 -0.1282215696 0.1122619773
280298320.0 -0.1439101001 0.1059184083 0.4695524611 -0.3004210319 0.4696163468 -0.2998128465 -0.1268404038 0.1135369674
285298290.0 -0.1431095224 0.1072494721 0.4667906508 -0.30505481 0.4662883342 -0.3056499344 -0.125397548 0.1150353166
290298260.0 -0.1419798019 0.1086302387 0.4629557219 -0.3105895093 0.4629628242 -0.3106097697 -0.1246660677 0.116620299
295298230.0 -0.1408494323 0.1095330102 0.4597153041 -0.3155927716 0.4598273492 -0.3156951183 -0.122729681 0.1175426835
300298200.0 -0.140314019 0.1111512401 0.4568844465 -0.3211441486 0.4566231969 -0.3212140647 -0.1220109068 0.1188503628
305298170.0 -0.1389551699 0.1120117606 0.452554292 -0.3264932911 0.4527038124 -0.326072794 -0.1200806844 0.1199385605
310298140.0 -0.1381134814 0.1137625719 0.4492506696 -0.3317694879 0.4496691596 -0.3313943843 -0.1189376922 0.1215878488
315298110.0 -0.1370788584 0.1146159387 0.4458674975 -0.336765709 0.4458218875 -0.3366941898 -0.1177163322 0.1225950381
320298080.0 -0.1360397171 0.1158639459 0.4412478385 -0.3424274151 0.4418161873 -0.3418403544 -0.1163207547 0.1240912793
325298050.0 -0.1349099724 0.1171484991 0.4382383616 -0.3470096297 0.4381091508 -0.3464904682 -0.1153780228 0.1251878485
330298020.0 -0.1340241328 0.1180686236 0.4340254823 -0.3519301568 0.4342176583 -0.3516952337 -0.1142393082 0.1265043066
335297990.0 -0.1329326806 0.1194192036 0.4298428006 -0.3564324009 0.4301900939 -0.3566149179 -0.1133935268 0.1286102823
340297960.0 -0.132536338 0.1210844041 0.4260127369 -0.3613000105 0.4256374057 -0.3616496978 -0.111519281 0.1296129857
345297930.0 -0.1312930352 0.1227710503 0.4214672993 -0.3664874661 0.4218444017 -0.366111825 -0.110503773 0.1307895966
350297900.0 -0.1305498735 0.1235015291 0.4174490543 -0.3711652819 0.4173608207 -0.3705179351 -0.1092211035 0.1324397448
355297870.0 -0.1292278836 0.1256677493 0.413458513 -0.3756053036 0.4137838845 -0.3752491501 -0.1080408922 0.1338002887
360297840.0 -0.1282914088 0.1269323144 0.4097988598 -0.3794002836 0.4097994068 -0.379669196 -0.1065691638 0.1353477916
365297810.0 -0.127323747 0.128434705 0.4050854397 -0.3842370513 0.4051458413 -0.3843177198 -0.1050715737 0.1365219827
370297780.0 -0.1257812961 0.1293288292 0.4007193195 -0.3882708988 0.4013825932 -0.3882236118 -0.1035746883 0.1381720814
375297750.0 -0.124469828 0.1308428062 0.3963025625 -0.393166107 0.397265455 -0.3934194426 -0.1021245777 0.1395515627
380297720.0 -0.1234205066 0.1320843167 0.3922782782 -0.3975953997 0.3921888847 -0.3967380994 -0.1012554595 0.1406472286
385297690.0 -0.1225322756 0.1332748278 0.3879417453 -0.4015958292 0.3875718623 -0.4015955309 -0.099324563 0.1421871586
390297660.0 -0.1212030171 0.1351036435 0.3834461692 -0.4061236195 0.3830631456 -0.4058948452 -0.0983947028 0.1432989784
395297630.0 -0.1196910167 0.1364488727 0.3791943797 -0.4101092312 0.3793252927 -0.4103460906 -0.0963791136 0.144780784
400297600.0 -0.1188465214 0.1378305554 0.3742741325 -0.4150702611 0.3744262479 -0.4142618959 -0.0947370287 0.1455760952
405297570.0 -0.1175217769 0.1389964354 0.3697799259 -0.4187501353 0.370111774 -0.4181919084 -0.0938470521 0.1470331207
410297540.0 -0.1162090874 0.1399721594 0.3656236402 -0.4224086263 0.3657845039 -0.4225359616 -0.0924291763 0.1483352633
415297510.0 -0.1147154503 0.141054647 0.3600944988 -0.4270252121 0.3608351049 -0.4266006308 -0.0909001665 0.1491659584
420297480.0 -0.1134992832 0.1427503696 0.3557071886 -0.4304800413 0.3561154987 -0.4304844993 -0.0894806667 0.1501472676
425297450.0 -0.1117712457 0.1435371584 0.3510247922 -0.4342261843 0.3517081921 -0.4344402192 -0.0877752936 0.1517094406
430297420.0 -0.1106764117 0.1448056115 0.3462437274 -0.4380048035 0.3463481696 -0.4375996566 -0.0862379065 0.1525537233
435297390.0 -0.1093140794 0.1462139625 0.3412283951 -0.4416164801 0.3410729845 -0.4418199386 -0.0838414329 0.1534130633
440297360.0 -0.1079876246 0.1474364543 0.3367019569 -0.4451448117 0.3368724451 -0.4453917596 -0.0825872735 0.1542971287
445297330.0 -0.1066536606 0.1482231124 0.3325067498 -0.4493334406 0.3320317008 -0.4486270988 -0.080841409 0.1550501343
450297300.0 -0.1051120592 0.1495014434 0.327066586 -0.4527601129 0.3268166477 -0.4530128917 -0.0790322486 0.1562784133
455297270.0 -0.103750352 0.150658075 0.3219014312 -0.4561218393 0.3220729208 -0.4566267929 -0.077298074 0.157237155
460297240.0 -0.1024128387 0.1519237172 0.3167069092 -0.4595371149 0.3172449858 -0.4598404946 -0.0754745891 0.1584557471
465297210.0 -0.1007478569 0.1531551457 0.31213336 -0.4628832126 0.3119931742 -0.4632860805 -0.073546798 0.1590490264
470297180.0 -0.0991133413 0.1540419195 0.3066047209 -0.4665987255 0.3069301844 -0.4664640668 -0.0718833076 0.1603055752
475297150.0 -0.0978375591 0.1547503916 0.3013830882 -0.4692606156 0.3018238883 -0.4693749958 -0.0698194581 0.1607570856
480297120.0 -0.0962626346 0.1564493256 0.2962850739 -0.4731119262 0.2965099576 -0.4733094843 -0.0676644651 0.1618194028
485297090.0 -0.0951023643 0.1574274073 0.2914711274 -0.4760690353 0.2917011249 -0.4760987774 -0.066121969 0.1627680956
490297060.0 -0.0938017209 0.1581807009 0.2867396929 -0.4796439709 0.2865435997 -0.4791486458 -0.0644198635 0.1639877649
495297030.0 -0.091800609 0.1594029444 0.2807981036 -0.4823140801 0.2814890357 -0.4821675198 -0.0626175878 0.1646745
500297000.0 -0.0905575407 0.1604099138 0.2757141719 -0.4848362978 0.2754497251 -0.4851811986 -0.060679965 0.1660444291
505296970.0 -0.088641071 0.1613120471 0.270504816 -0.4881979398 0.2703841537 -0.488055788 -0.0588947053 0.1663622725
510296940.0 -0.0871287929 0.1625084917 0.2652501262 -0.4915752492 0.2651573987 -0.4912429755 -0.0566977175 0.1676768895
515296910.0 -0.0857331507 0.1633349383 0.2594706569 -0.4941223274 0.2598599602 -0.494001173 -0.0551740614 0.168305856
520296880.0 -0.0844507033 0.1644478511 0.2542649669 -0.4967439648 0.2543918388 -0.4965471155 -0.0533964847 0.1690112268
525296850.0 -0.0824616997 0.1648434626 0.2486046299 -0.4995109169 0.2490317716 -0.4997046907 -0.0515135352 0.1700488884
530296820.0 -0.0809106983 0.1663132536 0.2432140526 -0.5022981944 0.243312466 -0.5019603432 -0.049483592 0.1704185918
535296790.0 -0.0795315338 0.1671943914 0.2384301973 -0.5047838065 0.2380075184 -0.5043180532 -0.0477535025 0.1712774597
540296760.0 -0.0777593891 0.1683368231 0.2322363097 -0.5075762117 0.2323887797 -0.507772988 -0.0459930049 0.1727590154
545296730.0 -0.0764406155 0.1690366242 0.2269392563 -0.5096326606 0.227032578 -0.5098884575 -0.0445001843 0.1727644761
550296700.0 -0.0744477843 0.16977692 0.2214250549 -0.5121003567 0.221486119 -0.5122746691 -0.0424351835 0.173462111
555296670.0 -0.0731019896 0.1706712974 0.2160595752 -0.5147771545 0.2162283208 -0.5141831446 -0.0404697894 0.1747932584
560296640.0 -0.0712047812 0.1718074771 0.2103016696 -0.516979591 0.2101920689 -0.516925288 -0.038659743 0.1750568959
565296610.0 -0.0696271039 0.1725795642 0.204437537 -0.5193475333 0.2048399713 -0.5187078855 -0.0368002972 0.1750167175
570296580.0 -0.0683339136 0.1734408036 0.1992643591 -0.5216455231 0.1985574144 -0.5212475566 -0.0351368045 0.176175001
575296550.0 -0.0665563009 0.174402956 0.1933688843 -0.5237712656 0.1931986366 -0.5234981937 -0.0330408628 0.1765562345
580296520.0 -0.0644624506 0.1749329803 0.1874640166 -0.5259046294 0.187726372 -0.5257633221 -0.0307456644 0.1770792042
585296490.0 -0.0631551501 0.175550609 0.1819941333 -0.5272786155 0.1820839147 -0.5274319225 -0.0291292165 0.1775537013
590296460.0 -0.0611557491 0.1762504868 0.1763131053 -0.5285913728 0.1763766641 -0.5289227801 -0.0277756847 0.1780094793
595296430.0 -0.0592767507 0.1771802341 0.1699670323 -0.5313189701 0.1702016151 -0.5312498975 -0.0255131917 0.177983244
600296400.0 -0.0580564279 0.1779018992 0.1647535329 -0.5328681783 0.1645698243 -0.5323551239 -0.0234594281 0.178393372
605296370.0 -0.056423627 0.1785846649 0.1589571709 -0.5344133741 0.1590583985 -0.5343993341 -0.0213787791 0.1788732984
610296340.0 -0.0544716095 0.179067575 0.1528775897 -0.5359783832 0.1532689203 -0.5361391191 -0.0191891682 0.1794200766
615296310.0 -0.0523196736 0.1797285455 0.1471205293 -0.5379012874 0.1469802108 -0.5378504149 -0.0171437534 0.1793271994
620296280.0 -0.0510136305 0.1799266459 0.141409641 -0.5392799854 0.1413839409 -0.5392003422 -0.0155050341 0.1798196247
625296250.0 -0.0493142451 0.180763432 0.1356278204 -0.5407543359 0.1353238925 -0.5409069854 -0.0126879671 0.1798391919
630296220.0 -0.0467450204 0.1815151018 0.1292210225 -0.542433161 0.1291846862 -0.5419728198 -0.0110654137 0.1803275081
635296190.0 -0.0459848823 0.1817607815 0.123888406 -0.5433682276 0.1237441457 -0.5435594022 -0.0087521835 0.1803101654
640296160.0 -0.0440567865 0.1829269774 0.1180636774 -0.5443434403 0.1181928888 -0.5446122692 -0.007049296 0.1804709829
645296130.0 -0.0423435018 0.1835856912 0.1119478007 -0.5462687063 0.1120500545 -0.5459608435 -0.0048699565 0.1809728116
650296100.0 -0.040439329 0.183682427 0.1059597066 -0.5469736312 0.1064773341 -0.5471544289 -0.0024770222 0.1807363574
655296070.0 -0.0386184906 0.1843063649 0.0999511642 -0.5483609653 0.100280263 -0.5483055372 -0.000759587 0.1813356155
660296040.0 -0.0372700505 0.1842485366 0.0942713513 -0.5492229689 0.0949863956 -0.5494837204 0.0020950942 0.1817598373
665296010.0 -0.0346899567 0.1849582639 0.0878965037 -0.550061006 0.0887460524 -0.5500257803 0.0037649795 0.1823219605
670295980.0 -0.0338057872 0.1860446216 0.0824647471 -0.5508288658 0.0820403055 -0.5510983999 0.0053664469 0.1819304369
675295950.0 -0.0318007325 0.1863699572 0.0764733247 -0.5516131436 0.0768220383 -0.5513549353 0.0076626703 0.1822812898
680295920.0 -0.0300095998 0.1864626048 0.0705733289 -0.5525007392 0.0702008993 -0.5526792702 0.009554629 0.1828576056
685295890.0 -0.0277430927 0.1874718649 0.0643599954 -0.5534988638 0.0642388271 -0.5533562336 0.0117681389 0.1821943916
690295860.0 -0.0260766053 0.1874503315 0.0585722992 -0.553595099 0.0586277028 -0.5543270639 0.0136445808 0.1831546887
695295830.0 -0.024567797 0.1877098188 0.0530223401 -0.554305092 0.0522085723 -0.5545847447 0.0156895984 0.1830767549
700295800.0 -0.022598568 0.1880618591 0.046433149 -0.5548457573 0.0463777039 -0.5547053912 0.0175461352 0.1835863666
705295770.0 -0.0208952424 0.1889249561 0.0406101783 -0.5554539499 0.0407871011 -0.5555457252 0.019291526 0.1831724113
710295740.0 -0.0184815361 0.1892804541 0.0346178974 -0.5564191181 0.034750088 -0.5563329343 0.0217761046 0.1829219698
715295710.0 -0.0174952873 0.1894581727 0.0291890971 -0.5565766209 0.0284236975 -0.5560543167 0.0238400079 0.1827602421
720295680.0 -0.0156178366 0.1898576598 0.0229919507 -0.556608109 0.0227996727 -0.5567476673 0.025763924 0.1832560021
725295650.0 -0.0129311863 0.190114528 0.0166890843 -0.5567430126 0.0169905658 -0.5568229575 0.0271144133 0.1831419998
730295620.0 -0.0111607121 0.1905504244 0.0104506943 -0.5562956965 0.0107678019 -0.5564486543 0.0289678495 0.1822532107
735295590.0 -0.0095911442 0.1908085365 0.0046070811 -0.5571233656 0.0044520904 -0.5568682858 0.0310387446 0.182168059
740295560.0 -0.0080321977 0.1912537949 -0.001573326 -0.5565084014 -0.0015576242 -0.5566863348 0.0337001242 0.1821851438
745295530.0 -0.0060363025 0.1913346115 -0.0077943206 -0.5564294289 -0.0072455654 -0.5568155553 0.035223728 0.181809029
750295500.0 -0.0039155053 0.1911408145 -0.0130945954 -0.5562857956 -0.0132813239 -0.5567777027 0.0372765208 0.1817520919
755295470.0 -0.0020254393 0.1917710518 -0.019363504 -0.5565599195 -0.0192743499 -0.556688726 0.0396414025 0.1811719415
760295440.0 -0.0004934498 0.1916862518 -0.0252885083 -0.5562637871 -0.0253326845 -0.5562661424 0.0412532136 0.1809400687
765295410.0 0.0014037907 0.1918208994 -0.0314252352 -0.555995858 -0.0317190836 -0.5557886262 0.043412855 0.1807452698
770295380.0 0.0031189184 0.1918974269 -0.0374862354 -0.5552801528 -0.0376679336 -0.5550217874 0.0451434564 0.1799826711
775295350.0 0.0048737877 0.1916673369 -0.0434662864 -0.5545973393 -0.0427606548 -0.554714979 0.0466026593 0.1798256758
780295320.0 0.006961969 0.1918021584 -0.0491849633 -0.5542257941 -0.048830005 -0.5540695155 0.0490032481 0.1790857704
785295290.0 0.0085446843 0.1917550866 -0.0556473753 -0.5529690344 -0.0551685934 -0.553777123 0.0515349883 0.1787680615
790295260.0 0.0112273734 0.1921714304 -0.0610946248 -0.5528261558 -0.0603494051 -0.5528066189 0.0531537498 0.1784841736
795295230.0 0.0126048647 0.1916859016 -0.0674379453 -0.552289246 -0.0664954389 -0.5523489646 0.0555343709 0.1781029906
800295200.0 0.0140055209 0.192142015 -0.0734458514 -0.5510961663 -0.0730129152 -0.5510558322 0.057451996 0.1774667916
805295170.0 0.0162329691 0.1921269903 -0.0787149526 -0.5504779668 -0.0790765035 -0.5505812969 0.0592315917 0.1768848635
810295140.0 0.0177673857 0.1916524851 -0.084611295 -0.5493635293 -0.0848695066 -0.5498969838 0.0617720744 0.1766196395
815295110.0 0.0200426821 0.1917112835 -0.0909805198 -0.5487729401 -0.0901934198 -0.548321327 0.0633045812 0.1757879611
820295080.0 0.0211815744 0.1921524227 -0.0965346423 -0.5473984735 -0.095910948 -0.5476755639 0.0655263055 0.1754472282
825295050.0 0.0239847407 0.1916768609 -0.1023251924 -0.5459600568 -0.1022970925 -0.5466713149 0.0677030028 0.1746392101
830295020.0 0.0255940007 0.1917366359 -0.1084533494 -0.5449599081 -0.1079965223 -0.5451812122 0.0701449746 0.1743615217
