!Created with skrf (http://scikit-rf.org).
# Hz S RI R 50.0 
!freq ReS11 ImS11 ReS21 ImS21 ReS12 ImS12 ReS22 ImS22
300000.0 -0.7762678814 -0.0993792802 -0.0004304279 0.0001953272 -0.0001759816 0.0004364069 -0.2110300864 -0.0805951185
5299970.0 -0.7851168792 -0.0059170573 -8.71746e-05 2.97548e-05 2.94758e-05 -5.03707e-05 -0.214872538 0.0083293219
10299940.0 -0.787673571 -0.0039665918 9.6994e-05 -2.68236e-05 -0.0002771776 -0.0001002419 -0.211080402 0.0214293386
15299910.0 -0.7932913814 -0.001995216 3.8763e-06 7.89599e-05 -5.24257e-05 7.21517e-05 -0.2061910603 0.0311320339
20299880.0 -0.8000222518 0.0021073177 1.35001e-05 5.25014e-05 -2.09171e-05 -0.0001207502 -0.1998643697 0.0388712164
25299850.0 -0.806034153 0.0077913161 -0.0001449573 -0.0001078259 -7.7528e-06 -0.0001231457 -0.1936222284 0.0458299389
30299820.0 -0.8121064023 0.0152744373 4.56112e-05 -2.45305e-05 0.0002079721 -2.17731e-05 -0.1873756101 0.0505776901
35299790.0 -0.8171817355 0.0244027902 -0.0001298196 -0.0001739899 -0.0001603413 -5.751e-06 -0.1810330263 0.0548210453
40299760.0 -0.821610616 0.0338538404 -0.000103189 1.35784e-05 6.53211e-05 -8.93813e-05 -0.1746733899 0.0575908257
45299730.0 -0.8244920348 0.0430551266 -9.60774e-05 -8.71338e-05 -5.72447e-05 9.83626e-05 -0.1694401702 0.0599509947
50299700.0 -0.8266648443 0.0531713911 9.49466e-05 1.64408e-05 -1.3429e-05 9.02196e-05 -0.1641779295 0.0612219341
55299670.0 -0.8289994938 0.0630575927 -2.18714e-05 -8.405e-05 -1.97193e-05 -0.0001118596 -0.1594821034 0.0619096499
60299640.0 -0.8304758258 0.073559299 3.12967e-05 0.0002069719 8.13518e-05 0.0002159812 -0.155044825 0.0621886903
65299610.0 -0.8309930851 0.0834999765 6.22358e-05 -0.0001608263 -4.55051e-05 -1.54268e-05 -0.1515568813 0.0627018765
70299580.0 -0.8324244195 0.0939006564 7.99937e-05 0.0001713772 0.0002076001 9.8199e-05 -0.1479449911 0.062789307
75299550.0 -0.8319600209 0.1041163576 -4.29272e-05 -1.78041e-05 3.93539e-05 9.22299e-05 -0.1444425294 0.0626551702
80299520.0 -0.8321331097 0.1135219778 3.46687e-05 -8.2547e-06 0.0001226656 8.17592e-05 -0.1419460268 0.0627901002
85299490.0 -0.8310260688 0.1221979933 -4.26913e-05 -7.6596e-05 8.1233e-06 -8.42216e-05 -0.1395971183 0.062506624
90299460.0 -0.8304430962 0.1324152441 0.000234919 2.06398e-05 -9.00785e-05 9.97631e-05 -0.1369258452 0.0620465687
95299430.0 -0.8291881524 0.1419290478 0.00014399 0.0001299247 0.0002113923 -1.31149e-05 -0.1346948172 0.0622216528
100299400.0 -0.8281589895 0.1507936874 9.10494e-05 -4.35206e-05 -2.79955e-05 0.0001944483 -0.1329884304 0.061968832
105299370.0 -0.8272057053 0.1600187558 -0.0001351416 -3.6244e-06 6.05813e-05 6.58862e-05 -0.1309462251 0.0615188308
110299340.0 -0.8249544664 0.1696632331 0.0002037242 9.12902e-05 0.0002966387 9.75485e-05 -0.1293699898 0.061251462
115299310.0 -0.8238194832 0.1788139272 -5.43854e-05 0.0001164416 6.86114e-05 0.0002343215 -0.1279254901 0.0611147325
120299280.0 -0.821924224 0.1867314076 -2.40981e-05 0.0001487803 -0.0001298788 -8.29571e-05 -0.1266834347 0.0611082085
125299250.0 -0.8205225837 0.1957229886 -3.38457e-05 -1.4287e-06 -0.0001363698 0.0001392654 -0.1257117623 0.0607345695
130299220.0 -0.8192763987 0.205413952 0.0001326132 7.52424e-05 -9.16371e-05 5.43233e-05 -0.1243546948 0.0610134144
135299190.0 -0.8166481071 0.2141415721 0.0001477776 2.13565e-05 -4.76673e-05 8.6202e-06 -0.1232612558 0.0607031264
140299160.0 -0.8143157384 0.2230979223 -9.20545e-05 -9.47538e-05 0.0001265159 -9.5538e-06 -0.1221705234 0.0610222437
145299130.0 -0.8125975518 0.2321517397 -9.99695e-05 -6.78378e-05 0.0001671513 -6.55439e-05 -0.1217965885 0.0613840447
150299100.0 -0.8100526687 0.2402388403 0.0001681619 0.0001978286 7.89603e-05 4.9335e-06 -0.1207450664 0.0621668389
155299070.0 -0.8077645447 0.2494866542 6.57608e-05 3.9595e-05 0.000121716 0.0001767139 -0.1200726117 0.0623490751
160299040.0 -0.8052180564 0.2580988791 6.10124e-05 -2.13584e-05 5.2311e-06 -4.38904e-05 -0.1196627315 0.0624200375
165299010.0 -0.802939322 0.2671655909 -3.57114e-05 -0.0001259618 -1.5216e-06 3.67317e-05 -0.1189832956 0.0628298516
170298980.0 -0.8002912404 0.2751779722 0.000285736 0.0001310201 -4.73724e-05 3.15202e-05 -0.1180833009 0.0634940992
175298950.0 -0.7974126834 0.2844611044 0.0001407949 5.9907e-05 -7.26578e-05 5.98146e-05 -0.1177339575 0.0639650787
180298920.0 -0.7946153205 0.292455669 1.5182e-05 0.000178096 0.0001096508 3.25969e-05 -0.1171569343 0.0645800918
185298890.0 -0.7909045207 0.3010744934 0.0001335436 4.6206e-05 -6.59826e-05 2.24916e-05 -0.1166581786 0.0649128928
190298860.0 -0.7882966184 0.3096717934 3.8786e-05 3.49377e-05 0.0001269473 5.70775e-05 -0.1162076887 0.0658112082
195298830.0 -0.7850670284 0.3178690041 0.0001376931 0.0001239229 -4.72788e-05 2.48482e-05 -0.1155363618 0.0664796415
200298800.0 -0.7813123192 0.3260929763 3.21807e-05 -5.1462e-06 -0.0002397447 8.70371e-05 -0.1153627979 0.066667943
205298770.0 -0.7782521157 0.3339294285 -4.54275e-05 2.46064e-05 0.0001791397 0.0001598927 -0.1146893186 0.067388598
210298740.0 -0.7753015687 0.3421119601 8.80622e-05 0.0001045657 -3.41933e-05 5.44191e-05 -0.1142567443 0.0681529975
215298710.0 -0.7716928573 0.3506938349 -8.2002e-05 0.0002443086 0.0001674336 0.0001893052 -0.1141799915 0.0689722208
220298680.0 -0.7675899473 0.3586188706 -5.15574e-05 0.0001226759 4.48981e-05 0.0001149639 -0.1136430892 0.0692141651
225298650.0 -0.7641058645 0.3667639397 -0.00012892 0.0002588063 7.40854e-05 6.60766e-05 -0.1133401902 0.0701670009
230298620.0 -0.7598966556 0.3748403592 2.50312e-05 -5.49002e-05 4.55532e-05 0.0001328273 -0.11269103 0.0708374495
235298590.0 -0.7565021439 0.3830642842 9.39616e-05 -7.6348e-06 0.0001082929 0.0001364747 -0.1125039767 0.0720039423
240298560.0 -0.7527983646 0.3907712644 9.6813e-06 -4.29329e-05 -4.96908e-05 5.65109e-05 -0.1119510354 0.072519481
245298530.0 -0.7487968885 0.3994897999 -4.41472e-05 2.30392e-05 -6.7547e-05 0.0001742636 -0.1116425025 0.0731998386
250298500.0 -0.7441048755 0.407070287 8.10346e-05 -3.01608e-05 -0.0001392772 0.0001337484 -0.1111790834 0.0738391501
255298470.0 -0.7394479187 0.4143293679 -4.28448e-05 0.0001861474 7.89177e-05 0.0001081399 -0.1106873526 0.0741387743
260298440.0 -0.7354365661 0.4215845381 -5.2267e-06 0.0002551919 0.00026913 -1.60891e-05 -0.1099870044 0.0753003782
265298410.0 -0.7312081422 0.4297333735 0.0001398019 0.0001995036 9.13176e-05 0.0002891321 -0.1097087703 0.0764018282
270298380.0 -0.7269459162 0.4375828546 0.0001152681 -1.31664e-05 0.0002408697 1.40067e-05 -0.1089270623 0.0771532242
275298350.0 -0.722522495 0.4446059779 -0.0001068376 -0.0001341511 4.23435e-05 0.000113882 -0.1084983145 0.0781173012
280298320.0 -0.7170367162 0.4528155882 0.0001936275 -3.7837e-05 0.0002003811 -0.0001260187 -0.1076584758 0.0786733662
285298290.0 -0.7129974373 0.4598072864 0.0001495271 0.0002394584 6.61106e-05 0.0002237938 -0.1070210494 0.0797161898
290298260.0 -0.7080440848 0.4674686307 0.0001168641 -2.27661e-05 0.000105518 6.81046e-05 -0.1066799169 0.0808037134
295298230.0 -0.702352115 0.4746441524 2.53656e-05 -3.3397e-06 0.0002247188 1.76515e-05 -0.1058679315 0.0813782456
300298200.0 -0.697380844 0.4812360166 -1.24559e-05 -9.1469e-06 -2.69091e-05 0.0001475912 -0.1050888159 0.082383565
305298170.0 -0.692426049 0.4885268197 0.0001323216 6.42061e-05 7.15866e-05 0.0001873355 -0.1044061538 0.0829076427
310298140.0 -0.6872221612 0.495992733 -7.11609e-05 4.37535e-05 0.0001846686 -5.54708e-05 -0.104251948 0.0840828688
315298110.0 -0.682542265 0.5032601139 -5.05215e-05 0.0002612799 5.12763e-05 -5.93831e-05 -0.1034645373 0.0849471905
320298080.0 -0.6774239737 0.5107096923 8.08597e-05 0.0001347852 -9.0204e-06 3.97274e-05 -0.102646341 0.0860443903
325298050.0 -0.6718301473 0.5176678742 0.0001504853 0.0001001079 0.000182294 0.0001649411 -0.1022343349 0.0867361129
330298020.0 -0.6659767969 0.5240081099 0.0003323416 0.0001065496 -3.91335e-05 1.69141e-05 -0.1019322794 0.0878682145
335297990.0 -0.6606689044 0.5302209065 0.0002558578 6.46279e-05 3.69737e-05 0.0001266949 -0.1016590603 0.0891803484
340297960.0 -0.6559505248 0.5379532811 7.19535e-05 6.25404e-05 4.57911e-05 9.3512e-06 -0.1002120034 0.0901783169
345297930.0 -0.6505338415 0.5438117356 8.85693e-05 4.8133e-05 5.76271e-05 -0.0001176398 -0.1002897586 0.0909124452
350297900.0 -0.64473535 0.5508641744 2.15466e-05 0.0001105854 0.0003332209 0.0001671204 -0.0995367019 0.0926840772
355297870.0 -0.6376700373 0.5579210482 0.0001584327 -1.82018e-05 -6.10058e-05 0.0002030069 -0.0989637347 0.0932043784
360297840.0 -0.633129279 0.5637525809 -0.000125144 -2.66447e-05 -3.40314e-05 8.68775e-05 -0.0979356861 0.094442162
365297810.0 -0.6270528621 0.5703656734 9.25125e-05 0.0004582502 6.10614e-05 2.22854e-05 -0.0973039298 0.0955367774
370297780.0 -0.6213191048 0.5773382095 0.0002953017 6.75607e-05 -3.44904e-05 5.03277e-05 -0.0966703113 0.096538728
375297750.0 -0.6147442797 0.5837831729 7.85477e-05 -0.0001253234 -3.32008e-05 -0.0001076484 -0.0963089931 0.097486274
380297720.0 -0.6088424956 0.5890779539 0.0001022734 -0.0001942264 8.40991e-05 0.0002017852 -0.0957428688 0.0985226452
385297690.0 -0.6034501929 0.5951356643 -4.20532e-05 4.66846e-05 5.24799e-05 5.50626e-05 -0.0947992538 0.0996021533
390297660.0 -0.5969480506 0.6012348799 2.63506e-05 -8.5361e-05 9.35844e-05 0.000187334 -0.0942220731 0.100572449
395297630.0 -0.5898778896 0.6076830276 -0.0001925966 2.04425e-05 0.0001152817 0.0001895937 -0.0932534038 0.1016090019
400297600.0 -0.5840230791 0.6143386941 0.0001037904 -0.0001249808 -6.97179e-05 6.06441e-05 -0.0923940532 0.1025132519
405297570.0 -0.5777948708 0.619552391 2.49791e-05 0.0001942073 -5.20039e-05 -0.0001061491 -0.0920256291 0.1034843452
410297540.0 -0.5709537377 0.6254121521 5.37081e-05 3.29697e-05 0.0002618071 -6.62242e-05 -0.0910404985 0.1047949292
415297510.0 -0.5645288425 0.6308842337 -2.55268e-05 -9.32252e-05 0.000247815 -0.0001144079 -0.0900755201 0.1052570883
420297480.0 -0.5588559839 0.6371726815 0.0002631615 -0.0001083648 7.94457e-05 -9.6749e-06 -0.0896388875 0.1065709669
425297450.0 -0.5519523965 0.6425033037 -2.35577e-05 2.51991e-05 0.0003808308 0.0001485642 -0.0884700686 0.1075022368
430297420.0 -0.5456512688 0.6482735597 -1.76449e-05 4.7023e-05 6.34201e-05 7.99648e-05 -0.0879123934 0.1084120032
435297390.0 -0.5384214425 0.6532495776 0.0001584662 4.00867e-05 0.0001551096 3.9672e-06 -0.0865291161 0.1093921285
440297360.0 -0.5318849729 0.6586738574 0.000302082 0.0002591782 7.98703e-05 8.1698e-05 -0.0859148711 0.1101063138
445297330.0 -0.5247233069 0.6640656057 0.0003184002 0.0001943208 0.0002561347 2.98946e-05 -0.0850039479 0.1105337575
450297300.0 -0.5180496232 0.6691514414 0.0001558047 2.71232e-05 0.000166815 8.78638e-05 -0.0838457547 0.1117310675
455297270.0 -0.5117143243 0.6747672036 0.0001191664 -8.99272e-05 0.0002846813 0.0001074346 -0.083154725 0.1125549279
460297240.0 -0.504701112 0.6797041676 0.0003379154 1.10655e-05 0.0002142278 -1.6412e-06 -0.0819169212 0.1136192898
465297210.0 -0.4977367398 0.6850934144 0.0001023161 0.0001373389 9.03417e-05 0.0002925416 -0.0810811486 0.1144346654
470297180.0 -0.4900935988 0.689740624 -1.82322e-05 0.0002101549 0.0001898885 0.0002830868 -0.0799077083 0.1156599904
475297150.0 -0.4833577154 0.6943631918 9.60802e-05 0.000128957 0.0001806233 0.0001077088 -0.0786566834 0.1161959472
480297120.0 -0.4762400914 0.6996274508 0.0002884815 -0.0001424501 -5.08723e-05 0.0001708509 -0.0775322551 0.1172311298
485297090.0 -0.4693982054 0.7042286044 7.07369e-05 0.0001477564 0.0001379797 0.0001430212 -0.0766510149 0.1182721621
490297060.0 -0.461995869 0.7086841973 7.2022e-05 8.0166e-05 0.0001077148 0.0001176285 -0.0756833288 0.1191145122
495297030.0 -0.4547143924 0.7133029639 0.0002188332 -0.0001953461 0.0001557601 0.0002035608 -0.0749288853 0.120263177
500297000.0 -0.4477994965 0.7179854491 0.000229882 0.0002397057 0.0002356773 0.0002208205 -0.0735820272 0.1213001928
505296970.0 -0.4401745812 0.7220644129 0.0002978153 9.65062e-05 0.0004475507 0.0002296218 -0.0725287526 0.1218258303
510296940.0 -0.4328504741 0.7266929263 0.0003795909 1.39481e-05 0.0003288484 -6.34107e-05 -0.0710000705 0.1228804824
515296910.0 -0.4242886803 0.730660051 3.33566e-05 0.0001066445 7.55417e-05 1.89267e-05 -0.0699873392 0.1237638766
520296880.0 -0.4180238448 0.7350281973 0.0002245347 -6.29183e-05 0.0002166028 -0.0001924283 -0.0691711726 0.1245192576
525296850.0 -0.4101703097 0.738748395 0.0001796905 9.0881e-06 -1.44571e-05 -1.6855e-06 -0.0678381154 0.1259880219
530296820.0 -0.4026117935 0.7435668708 0.0001856399 -1.3048e-05 0.0001446135 5.4303e-05 -0.067264232 0.1265166402
535296790.0 -0.3959720902 0.7474616323 0.0001036506 0.0001951396 0.0002528744 0.0001278738 -0.0661229697 0.1271102833
540296760.0 -0.3878992852 0.7507963841 0.0002721967 -1.53712e-05 0.0001112158 9.88957e-05 -0.0650521595 0.128311971
545296730.0 -0.3807731025 0.7554570502 0.0001299452 4.64433e-05 0.0003730453 -9.31994e-05 -0.0638688806 0.1287696543
550296700.0 -0.3729765163 0.7590716686 1.38563e-05 -0.0001071275 7.12942e-05 0.0001103847 -0.0628684972 0.1299453664
555296670.0 -0.3649145457 0.7616836417 0.0001353387 -4.26348e-05 0.0002138376 6.55777e-05 -0.0617666254 0.1308188016
560296640.0 -0.3579915638 0.7657082671 -4.03671e-05 0.000167583 0.0005033023 8.42588e-05 -0.0603389915 0.1314366961
565296610.0 -0.3497871816 0.7696929544 -0.0001169652 1.99034e-05 0.0002358631 9.17515e-05 -0.0592383549 0.1320539427
570296580.0 -0.342028502 0.7722617129 0.0001993614 0.0001626717 0.0001847006 1.1608e-06 -0.0583433398 0.133076131
575296550.0 -0.3346328839 0.7768430564 0.0001734285 0.0001044245 -0.0001605657 8.69822e-05 -0.0568441986 0.1336109274
580296520.0 -0.3261492993 0.7797558279 4.47922e-05 0.0002161326 0.0002038017 -8.25197e-05 -0.0562820276 0.1342725165
585296490.0 -0.3185316189 0.7824657891 1.14549e-05 2.33065e-05 0.0001693271 2.02783e-05 -0.0545096831 0.1348244239
590296460.0 -0.3107084753 0.7857857144 0.0003061242 0.0001722594 0.0001893289 0.0001200035 -0.053686549 0.1356646055
595296430.0 -0.3028341991 0.788021128 8.789e-05 -6.52423e-05 0.0003469891 0.0001373347 -0.0524054509 0.1360550373
600296400.0 -0.2951128988 0.7921342233 0.0002042178 -8.29043e-05 0.0001043077 0.0001455325 -0.0512163335 0.1366854492
605296370.0 -0.2874543041 0.794440958 0.0002973305 0.0001539004 0.0002366784 -6.0722e-06 -0.0497349565 0.1374386731
610296340.0 -0.2789735987 0.797241379 3.5601e-05 0.0001655197 0.0001105109 -5.88689e-05 -0.0484210383 0.1382010005
615296310.0 -0.2704193784 0.8003282049 0.0001719408 0.0001675012 0.0002963347 0.0001399859 -0.0471127919 0.1384777959
620296280.0 -0.2626861482 0.802176584 0.0001593896 -7.17607e-05 0.0003588781 5.60394e-05 -0.0460268205 0.1391704297
625296250.0 -0.2549461043 0.8052265573 0.0004548912 0.0001663052 0.0002630202 -1.12428e-05 -0.044417781 0.1397020787
630296220.0 -0.2457676759 0.8076574754 0.0004017399 -0.0002614646 0.0002759377 6.77174e-05 -0.0432152494 0.1406534194
635296190.0 -0.238402057 0.8102161918 0.0003424971 6.7615e-05 0.0001194024 0.0001338197 -0.0419674922 0.141150064
640296160.0 -0.2307049267 0.8124109362 4.01847e-05 -7.9112e-06 0.0003505615 -0.0001336079 -0.0405825581 0.1415535745
645296130.0 -0.2221852794 0.8151860273 0.0001462221 -2.0537e-05 8.2335e-05 0.0001337215 -0.0391951151 0.1423025532
650296100.0 -0.2143025746 0.8168007054 0.0001079003 -3.02984e-05 0.0001893841 4.03444e-05 -0.0379452162 0.142680944
655296070.0 -0.2062286339 0.8192921689 0.0002118131 0.0002270027 0.0001863931 -7.8872e-05 -0.0360772977 0.1435809439
660296040.0 -0.1976128274 0.8201057889 0.0001511193 3.58381e-05 -4.23965e-05 4.94004e-05 -0.0349794714 0.1439536725
665296010.0 -0.1896075042 0.8223777815 0.0002956111 -3.496e-06 0.0003901072 -7.05992e-05 -0.0335221499 0.1444377643
670295980.0 -0.1819717067 0.8245615352 9.2381e-05 5.13399e-05 0.0001770778 -0.0001003626 -0.0325950783 0.1452847672
675295950.0 -0.1728593662 0.8260966191 -3.826e-05 -5.72835e-05 0.0002609457 0.0001910831 -0.0314209739 0.1456416352
680295920.0 -0.1649549642 0.8279628098 0.0002252615 -9.71373e-05 0.0002169479 8.34433e-05 -0.0295517877 0.1465227969
685295890.0 -0.1564366506 0.8301986229 0.000136515 0.0001471815 0.0003818562 4.47102e-05 -0.0281164759 0.1470779905
690295860.0 -0.1485178207 0.8313805644 2.14061e-05 1.31084e-05 0.0001829524 8.6689e-05 -0.0270679407 0.1476946611
695295830.0 -0.1405329661 0.8323656461 -5.47146e-05 0.0001155279 0.000228626 5.56878e-05 -0.0254793879 0.147984324
700295800.0 -0.1316771724 0.8337710025 0.000135207 6.73355e-05 5.97841e-05 -8.17169e-05 -0.0244964119 0.1484138468
705295770.0 -0.1237207456 0.8352888768 6.21457e-05 7.62899e-05 0.0001379831 3.99337e-05 -0.0229962267 0.1494484911
710295740.0 -0.1151236429 0.8361394706 0.0001651509 0.0001721014 0.0002275306 5.95216e-05 -0.0217596473 0.1492632153
715295710.0 -0.1067512324 0.8379028842 0.0002913218 8.70567e-05 0.0003422808 -2.34953e-05 -0.0198591707 0.1499673452
720295680.0 -0.0985822528 0.83857028 0.0003408492 0.0001564924 0.0001678947 -9.60231e-05 -0.0188042699 0.1504415252
725295650.0 -0.0904560522 0.8391579725 0.0002317906 -4.51101e-05 0.0002522873 0.0001601673 -0.0175633189 0.1509580161
730295620.0 -0.0816075655 0.8406934766 0.0001425729 -0.0001187733 0.000164995 7.33771e-05 -0.0165346681 0.1512491755
735295590.0 -0.0742023527 0.841193349 0.0001446159 0.0001682537 0.0004112836 0.0001356672 -0.0150897002 0.1512232726
740295560.0 -0.0655648635 0.8422467385 0.0001724633 -8.67047e-05 0.0004168341 2.76313e-05 -0.0130434692 0.1518917376
745295530.0 -0.0568503625 0.8428024258 0.0003350485 1.79146e-05 0.0001904354 4.20841e-05 -0.0119227968 0.1518348912
750295500.0 -0.0485664879 0.8426307277 0.0003447636 -0.0001785755 0.0002308614 -0.0002366133 -0.010636866 0.1525274827
755295470.0 -0.0402385068 0.8430879946 0.0001828097 -0.0001037023 9.38129e-05 5.45123e-05 -0.008979438 0.1527059275
760295440.0 -0.0321932713 0.8428039839 0.0003018639 -0.0001143188 6.92733e-05 -3.97508e-05 -0.0079356608 0.1526557574
765295410.0 -0.0236189153 0.843630714 0.0003748016 -9.9812e-06 0.0002955781 3.17376e-05 -0.0062198778 0.1531087
770295380.0 -0.0158151985 0.8438613662 0.0001325785 -3.13017e-05 0.000403339 -0.000216622 -0.005072229 0.1531938674
775295350.0 -0.0074945654 0.8433802037 0.0003598439 0.0001279305 9.85671e-05 3.4354e-05 -0.0037064212 0.1537941255
780295320.0 0.0015505355 0.8438193182 0.0002527907 -5.68886e-05 0.0001943433 -0.0001300612 -0.0023390162 0.1536434008
785295290.0 0.0094943992 0.8431789968 0.0002120649 0.0001184914 0.0001048434 0.0001272684 -0.0003707575 0.1537987056
790295260.0 0.0182810787 0.8436663371 0.0001554831 -0.0002320097 0.000211004 1.85324e-05 0.0012896519 0.1542142161
795295230.0 0.0257406236 0.8431519935 2.21279e-05 0.0001832413 0.0004232698 1.95637e-05 0.0025020586 0.1542221333
800295200.0 0.0345375374 0.8431262502 0.0001207784 -2.26712e-05 0.0002178831 -0.0002006905 0.004318966 0.1545571069
805295170.0 0.0431331901 0.8424173904 0.0002076751 -0.0002032197 0.0002703176 -6.65043e-05 0.0053662924 0.1546429394
810295140.0 0.0512747884 0.8421298101 0.0003583714 -0.0001952826 0.0002399211 -0.0001739026 0.0071662452 0.1545220173
815295110.0 0.0591836641 0.8415464057 0.0002761595 -8.22811e-05 0.0003540802 3.85932e-05 0.0088733547 0.1546754638
820295080.0 0.0679181204 0.8408763928 0.0002254249 -0.0002341924 0.000284237 -5.74513e-05 0.0101230266 0.1551029483
825295050.0 0.0766865636 0.8401719327 0.0004175561 -5.36118e-05 0.0002561122 -0.0002072248 0.0118940638 0.1551303317
830295020.0 0.0842233251 0.8394287537 0.0003927062 -7.46232e-05 0.0003488588 -8.25272e-05 0.0136494701 0.1553017377
835294990.0 0.0926365131 0.8387324838 0.0001143337 -0.0002690663 0.0004707343 -3.67467e-05 0.0148475631 0.1556813888
840294960.0 0.1003790583 0.8386414632 0.0001739963 -0.0001757049 0.0002738461 -6.44219e-05 0.0162583683 0.1554351096
845294930.0 0.1087669915 0.8368196368 0.0001880929 8.328e-06 0.0002104002 5.8268e-05 0.0176521156 0.1554328562
850294900.0 0.1174980023 0.8359559699 0.0001752321 -0.0002304413 0.0003387614 -0.0001802607 0.0189575191 0.1558132474
