!Created with skrf (http://scikit-rf.org).
# Hz S RI R 50.0 
!freq ReS11 ImS11 ReS21 ImS21 ReS12 ImS12 ReS22 ImS22
300000.0 0.8591911597 -0.0027379382 -0.0006520743 -0.0006653277 0.0001155274 0.0003469356 -0.7798196729 -0.1198152847
5299970.0 0.8589732975 -0.0094843241 0.0001043757 9.485e-07 8.9286e-05 8.76106e-05 -0.7853066462 -0.00692015
10299940.0 0.8575020533 -0.0178264209 -9.26887e-05 -0.0003646089 7.66397e-05 -0.0001387947 -0.7883715548 -0.003727338
15299910.0 0.85696843 -0.0268821212 -1.18496e-05 6.67785e-05 0.0001145935 -6.3011e-06 -0.793861627 -0.0012411004
20299880.0 0.8565324952 -0.035234452 2.84907e-05 -6.20393e-05 8.20928e-05 -4.1779e-05 -0.8008118056 0.0022470128
25299850.0 0.8551828429 -0.0437400161 0.0001669306 0.0002159332 9.60461e-05 -3.38837e-05 -0.8065946677 0.0079518898
30299820.0 0.8548490844 -0.0522313369 -5.76258e-05 0.0003054814 -0.000173585 -0.0001906592 -0.8121689675 0.0159880544
35299790.0 0.8538211447 -0.0599057096 4.1778e-05 6.73197e-05 5.33878e-05 7.78367e-05 -0.8178068978 0.0246578244
40299760.0 0.8528704097 -0.0687823159 -8.05978e-05 3.74864e-05 -3.71154e-05 -0.0001142788 -0.8218323367 0.034542788
45299730.0 0.8528552735 -0.0771077576 -1.65695e-05 0.0001126063 -1.53344e-05 1.91946e-05 -0.8254191188 0.0438100177
50299700.0 0.8518975896 -0.0850965636 0.0002702707 -0.0001640401 0.0001340265 -0.0001217614 -0.8277858328 0.0534140311
55299670.0 0.8506949614 -0.0932655076 -0.0001238949 -4.40572e-05 -0.0001322806 0.0001583684 -0.8297841829 0.0638875388
60299640.0 0.8494089981 -0.1011719621 0.0001744407 0.0001597655 0.0001483649 0.0002559524 -0.830317341 0.0736474574
65299610.0 0.8483630101 -0.1098412618 0.0001035902 -8.09488e-05 -0.0002819368 -4.03926e-05 -0.8317501506 0.083751026
70299580.0 0.8472596756 -0.1181238651 4.42127e-05 -0.0002217901 3.43847e-05 8.24229e-05 -0.8318584171 0.094212156
75299550.0 0.846310986 -0.1266710532 -3.6941e-06 -8.345e-05 -7.81882e-05 -5.76646e-05 -0.8321084131 0.1039478386
80299520.0 0.8446145375 -0.1346305296 -0.0001721044 0.0001106894 3.656e-07 2.41216e-05 -0.8319767095 0.113315165
85299490.0 0.8433490491 -0.1426076414 -0.0001019944 7.36172e-05 -5.17301e-05 -2.85389e-05 -0.8320213225 0.1233639488
90299460.0 0.841962503 -0.1511560396 0.0001029099 1.04925e-05 -5.00518e-05 -7.74629e-05 -0.8306084014 0.1330165907
95299430.0 0.8400055453 -0.1588866958 0.0001758524 -7.58826e-05 4.9319e-05 0.00026304 -0.8292639797 0.1430367273
100299400.0 0.8384985184 -0.1676035136 0.000119743 2.18759e-05 -4.60893e-05 0.00010745 -0.8282033364 0.1519640134
105299370.0 0.8374506877 -0.1751835606 8.69814e-05 0.0001065909 6.09602e-05 3.54556e-05 -0.8270918706 0.160941547
110299340.0 0.8353118831 -0.1836395891 -0.000255 -0.0001137594 2.36931e-05 -2.68872e-05 -0.825680847 0.1702185951
115299310.0 0.8333253847 -0.1917875251 -2.34959e-05 9.35553e-05 -0.0001279524 8.5864e-06 -0.8244397528 0.1799996158
120299280.0 0.8313709248 -0.1995665822 2.63046e-05 -1.37548e-05 -0.000209545 -4.73836e-05 -0.822518235 0.1886211297
125299250.0 0.8297632997 -0.2081915425 5.1061e-05 -1.17469e-05 -2.79966e-05 -0.0001236105 -0.8209674795 0.1981200476
130299220.0 0.8275079446 -0.2159476881 0.0001885697 7.75249e-05 9.7826e-05 0.0001288814 -0.8194209513 0.2068110046
135299190.0 0.8254545127 -0.2237879765 0.0003858522 2.66064e-05 -6.0833e-05 3.26509e-05 -0.8174403687 0.215983328
140299160.0 0.8229560913 -0.2321920664 -5.39375e-05 -0.0002173301 0.000116128 4.31739e-05 -0.814854337 0.2252343197
145299130.0 0.8205453174 -0.2403439576 -0.0002142947 0.0001792992 3.30566e-05 -5.54344e-05 -0.8134790702 0.2342073127
150299100.0 0.8184152031 -0.2484480355 0.000160377 4.59339e-05 0.0002066396 3.2695e-06 -0.8108663718 0.2431664121
155299070.0 0.8154434928 -0.2558020718 -1.62994e-05 4.92315e-05 -9.53678e-05 5.67221e-05 -0.8084327913 0.2521050645
160299040.0 0.8129905722 -0.2640429551 7.29797e-05 -3.79208e-05 -9.22832e-05 -0.0001793991 -0.8062529093 0.2605661992
165299010.0 0.81067389 -0.2716491877 3.15127e-05 -0.0001816034 6.03242e-05 0.0001762729 -0.80311449 0.2692513196
170298980.0 0.8077666402 -0.2796956502 7.08342e-05 0.0002825767 -4.70631e-05 3.61062e-05 -0.8005244075 0.277941745
175298950.0 0.8050841951 -0.2884150009 2.49366e-05 -0.0001043117 2.00107e-05 2.01944e-05 -0.7974494797 0.2869784954
180298920.0 0.8021922896 -0.2953343832 0.0002459045 -6.40644e-05 9.76412e-05 0.0001959129 -0.7944653089 0.2947451797
185298890.0 0.7989311165 -0.3033811366 -0.0002209982 -7.78129e-05 -6.36942e-05 0.0001827818 -0.7910300763 0.3037835384
190298860.0 0.79595758 -0.3109484973 0.0001558847 0.0002130861 0.0001656078 -5.64115e-05 -0.7892464099 0.3117854871
195298830.0 0.7933182926 -0.3185449545 -6.87752e-05 3.60497e-05 1.88804e-05 4.57604e-05 -0.7851630264 0.3209176689
200298800.0 0.7890999137 -0.3264525063 -5.2202e-06 0.0001354496 -7.05774e-05 -8.13399e-05 -0.7821249571 0.3290297422
205298770.0 0.78663846 -0.3338329467 8.74431e-05 -8.86533e-05 -7.22106e-05 -0.0001628934 -0.7786772674 0.3375149055
210298740.0 0.7830645332 -0.3414864269 0.0001490343 3.6112e-05 8.97785e-05 3.20907e-05 -0.7748401294 0.3455177986
215298710.0 0.7795792003 -0.3497205843 0.0001508747 5.25556e-05 -5.76901e-05 -0.0001417763 -0.7712217356 0.353458498
220298680.0 0.7759322062 -0.3572266184 -0.000100837 -8.2816e-06 -4.39981e-05 -3.53887e-05 -0.7681246696 0.361521859
225298650.0 0.772314681 -0.3652885662 -0.0001615526 5.73267e-05 -6.92342e-05 -5.70249e-05 -0.7640707146 0.3700550631
230298620.0 0.7688354533 -0.3726057848 5.68136e-05 6.10273e-05 -0.0002243467 0.0001202081 -0.7599296203 0.3781142715
235298590.0 0.7650912726 -0.379295569 2.63119e-05 7.73775e-05 -2.6134e-06 -0.0002775672 -0.7559494751 0.3859339316
240298560.0 0.761710177 -0.3874542697 -2.10823e-05 -8.61899e-05 0.000129438 0.0001048808 -0.7516330664 0.3948551144
245298530.0 0.7576564354 -0.3948589227 -1.87729e-05 -0.0001645506 -0.000151345 -0.0001319673 -0.7481243355 0.4021066571
250298500.0 0.75324865 -0.401802219 -4.06955e-05 1.49196e-05 0.0001204848 5.94441e-05 -0.7437398562 0.4098795109
255298470.0 0.7495248224 -0.4092859149 7.47035e-05 -0.0001724152 -5.03003e-05 -2.54053e-05 -0.7388589135 0.4176006518
260298440.0 0.7448962185 -0.4167313204 5.23217e-05 -7.23319e-05 -2.57661e-05 -1.8453e-06 -0.7346694277 0.4263489382
265298410.0 0.7417749354 -0.4237709353 -3.32963e-05 8.69127e-05 7.38983e-05 0.000114813 -0.7304192387 0.433605717
270298380.0 0.7370299272 -0.4304256456 -0.0001394956 3.36227e-05 -5.72001e-05 -9.5749e-05 -0.7258675465 0.4408979643
275298350.0 0.733113952 -0.4381743146 -2.25023e-05 -5.88357e-05 -2.11746e-05 -2.1382e-06 -0.7210944773 0.4484833618
280298320.0 0.7284302256 -0.4459148051 -2.45925e-05 8.6098e-05 0.0001362963 1.64886e-05 -0.7162392727 0.4561071126
285298290.0 0.7247548354 -0.4526462166 2.14638e-05 3.35163e-05 -0.0001770818 -0.0001086303 -0.7114944327 0.463619604
290298260.0 0.7209093382 -0.4589611618 0.0001319164 0.0001041857 -1.3329e-06 -7.21002e-05 -0.7064746651 0.4711037142
295298230.0 0.7160849535 -0.4664912956 0.0002665272 -7.67277e-05 -1.11017e-05 0.0001862301 -0.7021299492 0.4783733785
300298200.0 0.7121064199 -0.4738704585 -1.94864e-05 6.07065e-05 -0.0001680892 8.20188e-05 -0.6964199437 0.4854464457
305298170.0 0.7074476431 -0.4811848739 0.0003134231 -0.0001444052 0.0002210293 9.3794e-06 -0.6907443848 0.4934400803
310298140.0 0.7035120407 -0.4878653187 0.0001329784 8.76171e-05 -0.0001141775 8.07e-07 -0.6864925579 0.5000592049
315298110.0 0.6982933807 -0.4959397396 -8.37191e-05 -0.0002434665 0.0001304424 3.26982e-05 -0.6810231489 0.5070240162
320298080.0 0.6933898211 -0.5028970778 0.0001501155 9.44173e-05 -1.03459e-05 -6.5292e-06 -0.6757533172 0.5148142002
325298050.0 0.6878029078 -0.5096147653 -0.0001964466 -8.44624e-05 -0.0002837517 0.0001406439 -0.6700315108 0.5212487574
330298020.0 0.6825497661 -0.5177275352 6.55256e-05 -0.0002412149 0.0001196294 6.44276e-05 -0.6645154675 0.5286989342
335297990.0 0.6760749714 -0.524046899 -0.0001860459 4.0079e-05 1.89831e-05 -0.0001883391 -0.6591340126 0.5356863015
340297960.0 0.6702851996 -0.5316107502 -1.6196e-05 -0.0002110909 6.46887e-05 6.87472e-05 -0.653626446 0.5424182663
345297930.0 0.6642752194 -0.5372122289 0.0001103246 6.64278e-05 -6.21678e-05 0.00015222 -0.6479710759 0.5488960879
350297900.0 0.6589709091 -0.5429556743 7.75509e-05 -0.0002881073 -2.29413e-05 -7.3713e-06 -0.6424793862 0.5553750333
355297870.0 0.6532121779 -0.54921262 6.31565e-05 -8.7226e-06 -0.000143822 -0.0002145376 -0.636351023 0.5618146528
360297840.0 0.647488153 -0.5555265027 -0.0001850531 -3.02842e-05 -6.0924e-06 9.24838e-05 -0.6304094941 0.5688847689
365297810.0 0.6414197051 -0.5617088478 -0.0002847801 0.0001831384 1.86715e-05 -1.40493e-05 -0.6241607412 0.5748323257
370297780.0 0.6366952654 -0.5683229807 -8.19691e-05 -6.27426e-05 -0.0001960987 -6.3613e-05 -0.6183415635 0.5818009397
375297750.0 0.6302096234 -0.5741803979 4.48688e-05 -0.0002366459 -1.91354e-05 7.20949e-05 -0.6120369627 0.5878748432
380297720.0 0.6248280434 -0.5800983028 -0.0002138175 -7.94948e-05 9.71788e-05 -3.24821e-05 -0.6066001346 0.5936995776
385297690.0 0.618852841 -0.5862101654 -6.45591e-05 -4.6844e-05 0.0001008738 0.0001114737 -0.5996246811 0.6002452901
390297660.0 0.6128733914 -0.5918594845 1.17495e-05 -0.0001089267 -4.57862e-05 3.24557e-05 -0.5936130016 0.6061708729
395297630.0 0.6068258236 -0.5976068678 6.20098e-05 -6.91376e-05 -3.29031e-05 5.41586e-05 -0.5868313386 0.6128406946
400297600.0 0.6012982905 -0.6035927015 0.0001066256 3.05029e-05 -7.78325e-05 5.51281e-05 -0.5810570827 0.6186657709
405297570.0 0.5944888657 -0.6090180269 -3.93809e-05 -8.00213e-05 1.972e-06 1.08792e-05 -0.5743867864 0.6239335846
410297540.0 0.588352293 -0.6152819757 0.0001227894 5.82335e-05 -7.52943e-05 5.59063e-05 -0.5678949932 0.6304851035
415297510.0 0.5830442946 -0.621125556 -8.40189e-05 8.83871e-05 3.07136e-05 -8.43195e-05 -0.5617477665 0.6358126639
420297480.0 0.5763925034 -0.6259675032 -5.52409e-05 6.50565e-05 -0.0001311032 -5.8218e-05 -0.5545980037 0.6421091724
425297450.0 0.5700820789 -0.6319469292 -4.76082e-05 -9.71221e-05 0.0003113432 -1.79265e-05 -0.548420938 0.6475342685
430297420.0 0.5642540885 -0.6373127137 -7.05963e-05 5.22151e-05 -2.61611e-05 0.0001542162 -0.5414773963 0.6527296505
435297390.0 0.5580164085 -0.6427182128 0.0001256355 -0.000152503 -3.03136e-05 -0.0003220816 -0.5346800188 0.6581785038
440297360.0 0.5513131082 -0.648303417 0.0001865411 -7.39461e-05 -1.54254e-05 6.69804e-05 -0.5279881105 0.6638816954
445297330.0 0.5448065644 -0.6539839501 -0.0001568591 -0.0002176222 6.02728e-05 -0.0001933736 -0.5208290589 0.6686256541
450297300.0 0.5387420515 -0.6588221541 -0.0001775416 -2.1451e-05 5.3693e-06 -8.51992e-05 -0.5134055698 0.6741271737
455297270.0 0.532142389 -0.663764945 -0.0001474648 7.48061e-05 -0.0001076039 -0.0001429498 -0.5066102139 0.6786695979
460297240.0 0.5252767478 -0.6692423005 0.0002347838 0.0001391792 -0.0002335169 0.0001508676 -0.4999450463 0.6843858439
465297210.0 0.5186720852 -0.6743648017 3.13066e-05 -0.0001036198 -0.000125482 -4.8103e-05 -0.4927083819 0.6894185538
470297180.0 0.5115673024 -0.6790898212 -0.0001849464 0.0002226824 -0.000163802 0.0002178631 -0.485797162 0.6946363064
475297150.0 0.5053428562 -0.6840151543 5.3833e-05 1.57552e-05 2.97329e-05 -0.0001203816 -0.4783132535 0.6990667064
480297120.0 0.497829583 -0.6888722527 6.31669e-05 -0.0001719655 -0.0001341054 0.0002021129 -0.470953696 0.7039570187
485297090.0 0.4912851415 -0.6934969571 0.0002374498 -8.3836e-05 -6.57456e-05 0.0001223315 -0.46409597 0.7090923384
490297060.0 0.4840802331 -0.6983243271 -3.17551e-05 4.24998e-05 -0.0002749909 6.45596e-05 -0.456838501 0.7129283066
495297030.0 0.4777142136 -0.7030026831 -1.00352e-05 9.85982e-05 -0.0001590938 0.0002282135 -0.4490648826 0.7185684927
500297000.0 0.4703171162 -0.7071509945 -2.47446e-05 -0.0002128029 -5.63951e-05 0.0001018881 -0.4415616875 0.7231152371
505296970.0 0.463663253 -0.7127757035 1.69792e-05 1.26522e-05 -0.0001189064 0.0001206859 -0.4344367097 0.7273129433
510296940.0 0.4560755622 -0.7170286696 -2.70966e-05 0.0002237406 6.04659e-05 0.0001335115 -0.4271768991 0.731509954
515296910.0 0.4499709331 -0.7212323796 0.0001770315 -0.0001203828 -0.0001124328 0.0001595998 -0.4192583075 0.7354549254
520296880.0 0.4416793175 -0.725250397 -0.0003008752 -0.0001464975 -1.56934e-05 0.0001045409 -0.4116704508 0.7398729442
525296850.0 0.4350493337 -0.729817395 -0.0001340688 -0.0002025439 -6.55246e-05 6.27785e-05 -0.4048687619 0.743821435
530296820.0 0.4273253726 -0.7335209309 -5.50041e-05 -4.76655e-05 4.5884e-06 -5.77753e-05 -0.3970516728 0.7475443808
535296790.0 0.4203339799 -0.7376456064 2.61002e-05 6.74295e-05 -0.0001016966 -3.323e-07 -0.3898064437 0.7515786717
540296760.0 0.4129004595 -0.7417338169 2.19625e-05 2.07509e-05 -3.21203e-05 8.67866e-05 -0.3815677684 0.7556493583
545296730.0 0.4053707377 -0.7458779575 -9.87688e-05 0.000165796 -2.86264e-05 -7.06512e-05 -0.3745280845 0.7592986461
550296700.0 0.3982048701 -0.7487985301 0.0001128446 -6.12757e-05 -3.75712e-05 -1.70628e-05 -0.3658311726 0.7627616958
555296670.0 0.3903988978 -0.7533697945 -3.47355e-05 -9.83581e-05 8.81428e-05 6.28626e-05 -0.3586598456 0.7670901
560296640.0 0.3827667169 -0.7567225685 0.0001534859 -0.0001906788 2.99141e-05 9.53345e-05 -0.3503395887 0.7704210862
565296610.0 0.3753376324 -0.7602347165 4.79122e-05 -0.0001384236 8.5444e-06 -0.0002243164 -0.3423194666 0.7736375107
570296580.0 0.3673453115 -0.7642101045 4.90361e-05 -0.0001398702 5.11562e-05 0.0001308586 -0.3355203173 0.7773703136
575296550.0 0.3599616357 -0.7673865373 -7.23286e-05 0.0001626734 5.2346e-06 0.0002024609 -0.3273349013 0.78075255
580296520.0 0.352519925 -0.7714720013 -0.0001834318 -6.14768e-05 1.9611e-06 8.94214e-05 -0.3181725716 0.7837715087
585296490.0 0.3444580936 -0.7751161932 -4.95763e-05 4.4523e-06 -6.42693e-05 9.73114e-05 -0.3106088432 0.7871904925
590296460.0 0.3374103022 -0.7776975471 -6.39419e-05 6.22824e-05 -7.69815e-05 0.0001046857 -0.3032596127 0.789956708
595296430.0 0.329211448 -0.7808669547 -3.78626e-05 -9.62365e-05 -7.60852e-05 7.6845e-06 -0.2950964838 0.7920940924
600296400.0 0.3207471181 -0.7841328525 8.03336e-05 -3.16565e-05 0.0001082766 6.72394e-05 -0.2870268471 0.7955663838
605296370.0 0.3133730743 -0.7870567313 2.99935e-05 0.0001558454 6.69034e-05 0.0001119943 -0.2781829061 0.7988807484
610296340.0 0.3050583249 -0.7905653816 9.303e-07 -0.0001502838 -0.0002400446 3.77857e-05 -0.2703345387 0.8011756665
615296310.0 0.2989092672 -0.7932578472 -0.0001603728 -3.09412e-05 7.65982e-05 -8.49134e-05 -0.2625365191 0.803795817
620296280.0 0.2902288846 -0.795728803 0.0001331968 3.03664e-05 -4.7814e-06 0.000102264 -0.2550912117 0.8063089044
625296250.0 0.2821507241 -0.798544898 -2.02797e-05 0.0002263647 7.06479e-05 3.0137e-05 -0.2458983433 0.8087166216
630296220.0 0.2745575465 -0.801209423 -0.0004461988 -7.5046e-06 -6.87609e-05 5.41984e-05 -0.238054934 0.8113928229
635296190.0 0.2665670796 -0.8030393965 7.36433e-05 -0.0002736571 4.1505e-06 2.49011e-05 -0.2302479347 0.8136272286
640296160.0 0.2579742814 -0.8061174799 -5.64257e-05 -4.96563e-05 0.0002548416 -1.4288e-05 -0.2217590378 0.8162649085
645296130.0 0.2497881495 -0.8083364991 0.0002031207 8.185e-06 5.8923e-06 -1.70447e-05 -0.213664965 0.8183665429
650296100.0 0.2416415193 -0.8106996789 -3.8032e-06 2.83147e-05 0.0001738874 -3.46112e-05 -0.2055011325 0.8195907223
655296070.0 0.2335070537 -0.8133567723 -3.53481e-05 -1.00922e-05 -4.75787e-05 -0.0002430197 -0.1965024433 0.8216699543
660296040.0 0.2257884853 -0.8154856098 9.0651e-06 0.0002512322 -6.96215e-05 0.0001201434 -0.1883598807 0.8242542594
665296010.0 0.217602061 -0.8178194815 -5.64297e-05 2.48561e-05 9.31729e-05 8.83005e-05 -0.1797077671 0.8261751096
670295980.0 0.2092243768 -0.8198142975 9.179e-06 -0.0001133392 -0.0001436793 0.0001476519 -0.1727732603 0.8273809828
675295950.0 0.2013291741 -0.8210016249 -9.4474e-06 9.96181e-05 -4.41323e-05 -0.0001961345 -0.1642609518 0.8290630601
680295920.0 0.1927752114 -0.8224888866 0.0001850821 -6.70752e-05 -2.74583e-05 0.0001003203 -0.1558250816 0.8318994279
685295890.0 0.1851320041 -0.8241090351 2.2223e-05 -3.5168e-06 2.3084e-06 0.000111689 -0.1469982247 0.8319371895
690295860.0 0.1767434533 -0.8261591245 -0.0001312196 -7.31138e-05 1.11647e-05 0.0001054389 -0.1395617836 0.8342373563
695295830.0 0.1683046026 -0.8282049811 -0.0001144071 -6.12246e-05 0.0001122845 3.49745e-05 -0.1299164177 0.8348955856
700295800.0 0.160239539 -0.8291634018 5.27885e-05 -3.23997e-05 -6.72256e-05 -4.0346e-06 -0.1227334352 0.8363034377
705295770.0 0.1514494745 -0.830461584 -0.0001750767 -4.27785e-05 -8.54307e-05 -3.86462e-05 -0.1141078985 0.8382896774
710295740.0 0.1436935481 -0.8323945664 0.0002054396 -7.62821e-05 -5.12256e-05 0.0002089982 -0.1055943191 0.8382993766
715295710.0 0.1345144443 -0.8336817287 2.64294e-05 -0.0001218319 0.0001988675 -2.0415e-05 -0.0967968509 0.8397501356
720295680.0 0.12703686 -0.8348640045 -0.0001596004 5.33324e-05 -3.5526e-06 2.88714e-05 -0.0887781702 0.8408236216
725295650.0 0.1182887576 -0.8351353712 5.31885e-05 2.81417e-05 -1.93215e-05 0.0001379809 -0.080687681 0.8420515501
730295620.0 0.1096870316 -0.8362953815 0.0002024272 -0.0001001892 -6.89837e-05 -0.000110155 -0.0726976176 0.8423205821
735295590.0 0.1013409453 -0.8368735287 5.03036e-05 -5.13657e-05 0.000176088 0.000110566 -0.0637477346 0.8428082652
740295560.0 0.0931125045 -0.8374760022 -2.38146e-05 1.30645e-05 0.0001606906 -0.0001674847 -0.0542416653 0.8437773604
745295530.0 0.0850009515 -0.8390210805 -1.37089e-05 0.0001609303 8.55457e-05 -0.0001043817 -0.0460307283 0.8437034754
750295500.0 0.0759771227 -0.8392827217 8.06232e-05 6.36652e-05 5.32297e-05 -0.0001101191 -0.0386341985 0.8443821104
755295470.0 0.0679244207 -0.8401035864 -0.0003559065 -0.0001414409 -0.0001291826 0.0002291695 -0.0290459626 0.8441958999
760295440.0 0.0588898268 -0.8404760257 0.00016892 -9.9502e-06 6.6893e-05 -2.18568e-05 -0.0212445691 0.84432349
765295410.0 0.0515381378 -0.8407482045 -0.0001345917 -9.81438e-05 7.3311e-05 0.0001025376 -0.0127926971 0.8450627308
770295380.0 0.0426787282 -0.8415156696 -4.29504e-05 -7.73413e-05 -0.0001833443 0.0001233941 -0.0048535813 0.8448725525
775295350.0 0.0342236497 -0.8414919557 0.0003852064 -0.0001771146 -8.61405e-05 0.0001847309 0.0034488896 0.8449181822
780295320.0 0.0259426808 -0.8419603825 8.47514e-05 -0.0001081182 -6.4837e-06 0.0001174922 0.0122206798 0.8444403588
785295290.0 0.0174038113 -0.8421545326 -0.000219182 2.5905e-05 0.0001275396 -2.62063e-05 0.0209576362 0.8443013688
790295260.0 0.0090188445 -0.8415405081 -0.0002303155 -5.47917e-05 3.68597e-05 -0.0002513093 0.0299934283 0.8451191013
795295230.0 0.0009593128 -0.8417079553 0.0002020444 -4.03328e-05 4.08524e-05 4.3612e-06 0.0382509268 0.8437315721
800295200.0 -0.007592437 -0.8413468555 0.0002320044 -3.02082e-05 0.0001677989 -2.53536e-05 0.0468335829 0.8437332362
805295170.0 -0.0162878396 -0.8416943226 8.26112e-05 -0.0001354896 -3.6006e-06 -0.0003083731 0.0546326881 0.8433135793
810295140.0 -0.0243803741 -0.8406964891 8.26764e-05 -0.0001650481 0.0001125394 0.0001245385 0.0629725065 0.8423003835
815295110.0 -0.0328658762 -0.8410070604 0.000217765 -1.82309e-05 -0.000118992 -2.08692e-05 0.0715373065 0.842130717
820295080.0 -0.0411079796 -0.839868493 0.000146794 0.0001863007 -7.19632e-05 7.66044e-05 0.07997486 0.8415575305
825295050.0 -0.0492184499 -0.8394325501 0.0001950222 -0.0001298824 1.15663e-05 -9.03673e-05 0.0884988202 0.8406343532
830295020.0 -0.0580323494 -0.8386873018 -1.946e-06 -2.6078e-06 3.48011e-05 -6.45246e-05 0.0971428023 0.839185478
835294990.0 -0.0660771629 -0.8378349287 0.0001245192 0.0002400551 -0.000104727 -3.9681e-05 0.1050906615 0.8389656436
840294960.0 -0.0742201454 -0.8368269472 -0.0001274246 -7.12959e-05 -0.0001233388 0.0001411306 0.1131440241 0.8372996507
845294930.0 -0.0829528763 -0.8360735072 8.6775e-06 0.0001382717 0.0001171119 0.0001040789 0.1210916875 0.8355710368
850294900.0 -0.0904790041 -0.8345456938 -0.0001192667 -0.0001394184 -4.36227e-05 -5.39046e-05 0.1293161192 0.8346284529
