!Created with skrf (http://scikit-rf.org).
# Hz S RI R 50.0 
!freq ReS11 ImS11 ReS21 ImS21 ReS12 ImS12 ReS22 ImS22
300000.0 -0.2358996881 -0.1101453007 0.4676991138 0.0710317912 0.4702977186 0.0734937787 -0.240064836 -0.1124618422
5299970.0 -0.2406686805 0.006963558 0.4749114358 0.0056013428 0.4752609689 0.0059299553 -0.2448994301 0.0054986742
10299940.0 -0.2371847984 0.0201000906 0.4771883412 0.0063432004 0.4768619154 0.0062420992 -0.24179794 0.0174628289
15299910.0 -0.2329658318 0.029974751 0.4803923119 0.0073022023 0.4805789289 0.0078002042 -0.2376702558 0.0263523896
20299880.0 -0.2276897157 0.0379139978 0.4851066077 0.0080102326 0.4854817992 0.0080407267 -0.2330449258 0.0339809939
25299850.0 -0.2217013715 0.044349559 0.4906685316 0.0066221032 0.4909962663 0.0069073878 -0.2278377881 0.0398523361
30299820.0 -0.2157789767 0.0495051652 0.4962290606 0.0048431914 0.496013312 0.0051720196 -0.2227943897 0.0447704037
35299790.0 -0.2101609124 0.0539364842 0.5014810298 0.0018116363 0.5013753385 0.0018514384 -0.2176889446 0.0485864444
40299760.0 -0.2048142812 0.0572139951 0.5064938972 -0.0020649344 0.5064504378 -0.0021856934 -0.2128013289 0.0521257066
45299730.0 -0.1994512277 0.0599723602 0.5111698999 -0.0074747464 0.5111242342 -0.0071000381 -0.20802409 0.0544327974
50299700.0 -0.194482023 0.0620279698 0.5149793949 -0.0129892913 0.5152990611 -0.0127631554 -0.2036540536 0.0564206288
55299670.0 -0.1904562752 0.0640364067 0.5185277391 -0.0186346327 0.5190382563 -0.0183186748 -0.2001711087 0.057923263
60299640.0 -0.1866493786 0.0650563827 0.5218773468 -0.0250088105 0.5220549926 -0.0248192986 -0.1963387798 0.0596281304
65299610.0 -0.1831327843 0.0663228925 0.5249421708 -0.0307383834 0.525346628 -0.0309595058 -0.192938908 0.0606591086
70299580.0 -0.179608265 0.0671305713 0.5269887415 -0.0374281888 0.5275722855 -0.0377805754 -0.1899948476 0.0618857758
75299550.0 -0.1764607745 0.0682009678 0.5291838188 -0.0441499853 0.529182418 -0.0447222435 -0.1872283586 0.0625195077
80299520.0 -0.1741855416 0.0688161185 0.5314789385 -0.0515157702 0.5315469371 -0.0514301018 -0.1849860159 0.0628084563
85299490.0 -0.1715839014 0.0693437518 0.532318366 -0.0585429418 0.5324719016 -0.058160409 -0.1826868078 0.0637712967
90299460.0 -0.1694414877 0.0703435373 0.5335937218 -0.0650247896 0.533969283 -0.0652013232 -0.1803835252 0.0641728578
95299430.0 -0.1670619794 0.0710955681 0.5345689646 -0.0725515679 0.5346138215 -0.0720089964 -0.1786915182 0.0648828197
100299400.0 -0.1653113461 0.0718229549 0.5347062635 -0.0790630491 0.5347904836 -0.0792143114 -0.1769543736 0.0655429671
105299370.0 -0.1632845553 0.0724118368 0.5347817599 -0.0858459256 0.5349423255 -0.0860964889 -0.1747786478 0.0663561947
110299340.0 -0.1617355781 0.0729933702 0.5347981236 -0.0927865575 0.5350205206 -0.0927446944 -0.1737699278 0.067081385
115299310.0 -0.160218377 0.0735695731 0.5348331259 -0.0992289163 0.5354121264 -0.0994734456 -0.1719904636 0.067082175
120299280.0 -0.1590844453 0.074542351 0.5351052315 -0.1065635769 0.5352017547 -0.1064210056 -0.1712579402 0.0681848354
125299250.0 -0.1581088033 0.0754084877 0.5348181182 -0.1130069182 0.5350425289 -0.1134200991 -0.1697698781 0.0684770454
130299220.0 -0.1566987204 0.0759807583 0.5338058898 -0.1191932715 0.534306787 -0.1196535291 -0.1689072391 0.069516503
135299190.0 -0.1551827055 0.0765221197 0.5331558687 -0.1262321208 0.5330512013 -0.126545557 -0.1681410701 0.0704333875
140299160.0 -0.1545118535 0.0779915191 0.532323387 -0.1332579803 0.5328620133 -0.1332287533 -0.1669576063 0.0712047446
145299130.0 -0.1530616483 0.0787190961 0.5317942744 -0.1395236629 0.5316971746 -0.1394452443 -0.1662276088 0.0717054332
150299100.0 -0.1519474079 0.0798413426 0.5306989081 -0.1461776824 0.5303465409 -0.1461758997 -0.1651138647 0.0727786906
155299070.0 -0.1511458694 0.0812157933 0.5291111696 -0.1525633277 0.5291847906 -0.1526995529 -0.1647594363 0.0734864472
160299040.0 -0.1503017739 0.0822883535 0.5276145532 -0.1589653381 0.5278382291 -0.1591276416 -0.1632828623 0.0750381661
165299010.0 -0.149304475 0.0831062596 0.5263715604 -0.1654225912 0.5265887725 -0.165682921 -0.1627605942 0.0754770151
170298980.0 -0.1486204208 0.0846799845 0.5245168398 -0.1718654315 0.5247802093 -0.1718981289 -0.161928279 0.0768496482
175298950.0 -0.1474016533 0.0856877695 0.5235694126 -0.1779703564 0.5235320876 -0.1778862392 -0.1611680983 0.077644396
180298920.0 -0.1462178643 0.0865979487 0.5215509988 -0.1845630844 0.5214672819 -0.1841782217 -0.1602144305 0.0788981787
185298890.0 -0.1449983423 0.0877019655 0.5194583824 -0.1906734337 0.5197922039 -0.190594113 -0.1597366393 0.0797643394
190298860.0 -0.1445735477 0.0890180509 0.517641387 -0.1967072797 0.5179452068 -0.1971778795 -0.1583719867 0.0809209603
195298830.0 -0.1434694176 0.0901211059 0.515881588 -0.2026576115 0.5157678423 -0.2031493493 -0.1579608143 0.0817445117
200298800.0 -0.1425418972 0.0915700272 0.5139566134 -0.2083537789 0.5138649229 -0.208955734 -0.157023665 0.0833157915
205298770.0 -0.1415427304 0.0930038904 0.5115097544 -0.2145932344 0.5117384623 -0.2147511634 -0.1565071267 0.0841752589
210298740.0 -0.1409442575 0.094226691 0.5095089458 -0.2211047722 0.5094440439 -0.221090538 -0.1555321363 0.0857959616
215298710.0 -0.139800683 0.095771291 0.5073056343 -0.2264621836 0.5069960047 -0.2267451832 -0.1550064593 0.0868861505
220298680.0 -0.1388662203 0.0968480758 0.5044601772 -0.2327538046 0.504624706 -0.2329902274 -0.1541788829 0.0882191934
225298650.0 -0.13773361 0.0985542141 0.5020413962 -0.2384820251 0.5018900892 -0.2384270022 -0.1535892261 0.0895512536
230298620.0 -0.1370032961 0.0997208444 0.500276151 -0.2440590202 0.4998883615 -0.2444594887 -0.1527343624 0.0904965785
235298590.0 -0.1359922235 0.1010254865 0.4969234167 -0.2499620123 0.4975070906 -0.2504946685 -0.1518044379 0.0915852127
240298560.0 -0.1350468615 0.1023694097 0.4942143636 -0.2553018546 0.4947739214 -0.2553369001 -0.1510090038 0.0932209936
245298530.0 -0.1338616577 0.1038871169 0.4910804026 -0.2610404177 0.491610591 -0.2615279056 -0.1499387404 0.0946771453
250298500.0 -0.1328524197 0.1051993537 0.4885360831 -0.2665993768 0.488879014 -0.2669341551 -0.1490681258 0.0958910158
255298470.0 -0.1319391784 0.1065504112 0.4856594196 -0.2726916902 0.4858123436 -0.2726627219 -0.1481530419 0.0967556525
260298440.0 -0.13099997 0.1080230263 0.4828744271 -0.2777207561 0.4828688566 -0.2783374484 -0.1471426378 0.098409362
265298410.0 -0.1295113347 0.1098814395 0.4797675048 -0.2842204648 0.4799031026 -0.283907283 -0.1467588755 0.0995496367
270298380.0 -0.1283018479 0.1110143286 0.4763645735 -0.2889643843 0.4769102963 -0.2893568431 -0.145561549 0.101297696
275298350.0 -0.127495744 0.1124028126 0.4734519978 -0.2947317302 0.4741653612 -0.2948210264 -0.1446516384 0.102537988
280298320.0 -0.1262017464 0.1138912146 0.4702153315 -0.2998868382 0.4701901101 -0.3002336343 -0.1433369296 0.1037829494
285298290.0 -0.1248814644 0.1155333272 0.4669038115 -0.3050272455 0.4671239601 -0.305708303 -0.142651254 0.1051986073
290298260.0 -0.1237367786 0.1167508391 0.4638934341 -0.310773724 0.4636636428 -0.3108082218 -0.1413066343 0.1068998274
295298230.0 -0.1223800138 0.1182750173 0.4605740824 -0.3157046489 0.4603057832 -0.3155536509 -0.1406610965 0.1080846397
300298200.0 -0.121119412 0.1193651497 0.4568353302 -0.3209730718 0.4574925263 -0.3211893494 -0.1394056831 0.1095859026
305298170.0 -0.1195979502 0.1208119666 0.4538273042 -0.3264111263 0.4539695706 -0.3265486466 -0.1379870082 0.1108306398
310298140.0 -0.1180969503 0.1217242144 0.4502027753 -0.3316917013 0.4500818765 -0.3321425771 -0.1372324833 0.1126499196
315298110.0 -0.1175241865 0.123187508 0.4464893072 -0.3369324527 0.4467242878 -0.3364917328 -0.1357286382 0.1132339048
320298080.0 -0.115825187 0.1245646546 0.4424348546 -0.3421931568 0.4430943964 -0.3418034724 -0.1352239569 0.1146162328
325298050.0 -0.1146821081 0.1254706911 0.4390426808 -0.3469305227 0.4391611148 -0.3472322885 -0.1340566842 0.1159895039
330298020.0 -0.1135150201 0.127091038 0.4345199092 -0.3520291983 0.4345612921 -0.3521320583 -0.1332618583 0.1169830312
335297990.0 -0.1121410257 0.1283450592 0.4306763185 -0.3569902125 0.4308100149 -0.356808922 -0.1323628689 0.1185346541
340297960.0 -0.1114854495 0.1300370624 0.4265672138 -0.36219437 0.4269962156 -0.3615266502 -0.1313091249 0.1199205759
345297930.0 -0.1101046232 0.1311140461 0.4226445507 -0.3659418048 0.4222123906 -0.3661538911 -0.1299252532 0.1212306827
350297900.0 -0.1083490939 0.132457045 0.4181377025 -0.3705887866 0.4185836002 -0.370965268 -0.1290434114 0.1232415421
355297870.0 -0.1073184082 0.1335639054 0.4143317515 -0.3750488772 0.4145484567 -0.3753880991 -0.1280763206 0.1243998066
360297840.0 -0.1053763461 0.1354181748 0.4100528011 -0.3800664262 0.4102347314 -0.3800433844 -0.1267127847 0.1257501924
365297810.0 -0.1042542282 0.1364181359 0.4060218706 -0.3844057382 0.4058686322 -0.3843632007 -0.1256505728 0.1271957943
370297780.0 -0.1023866615 0.1375703555 0.4012711146 -0.3888828519 0.4018355752 -0.3892349053 -0.1244030339 0.1286022686
375297750.0 -0.101031381 0.139433611 0.3974818176 -0.3932945253 0.3975119241 -0.3935967262 -0.1232233856 0.1301446662
380297720.0 -0.0996503051 0.1399675736 0.3933701216 -0.3972783516 0.3928882287 -0.3976165775 -0.1217822463 0.1316479421
385297690.0 -0.0981458065 0.1418059344 0.3884717828 -0.401358968 0.3886040772 -0.401876517 -0.1204789358 0.1330434312
390297660.0 -0.0967243164 0.1429044559 0.3837984113 -0.4064575036 0.3840902543 -0.4065012338 -0.1193695614 0.1341213599
395297630.0 -0.0947526334 0.1439185717 0.3796587163 -0.4101755611 0.3797323238 -0.4103501867 -0.1181968552 0.1360508433
400297600.0 -0.0935119265 0.1452550781 0.3751019568 -0.4144193283 0.3753614654 -0.4150467345 -0.1173096224 0.1370648207
405297570.0 -0.0913993502 0.1462722136 0.3705267085 -0.4188089267 0.3704032804 -0.4191918723 -0.1156582813 0.1388636304
410297540.0 -0.0901042012 0.1475812672 0.3656975885 -0.4221684177 0.3658603445 -0.4224548485 -0.1144980982 0.1395933583
415297510.0 -0.0883402687 0.149259174 0.361737178 -0.4266421671 0.3614348396 -0.4268543754 -0.1132669218 0.1416339553
420297480.0 -0.0869311377 0.1498835314 0.3564916849 -0.4311353544 0.3566955173 -0.4308540864 -0.1113802749 0.142222892
425297450.0 -0.0846168118 0.1505393978 0.3513200229 -0.4343684225 0.3523996596 -0.4344010924 -0.1104148383 0.1438012285
430297420.0 -0.0837242322 0.1520144872 0.3470470959 -0.4385046693 0.3472661845 -0.4383159911 -0.1089816571 0.1447654476
435297390.0 -0.0815228582 0.152893375 0.3421392837 -0.4416061497 0.3425821459 -0.4418654099 -0.1075285429 0.1465442666
440297360.0 -0.0797018355 0.1542415986 0.3370294145 -0.4455766771 0.3370127558 -0.4455233863 -0.1062202605 0.1470865228
445297330.0 -0.078020409 0.1550600399 0.3325669963 -0.4497363696 0.3325113648 -0.4494135302 -0.1051324162 0.1486118545
450297300.0 -0.0763599042 0.1561103648 0.3274168191 -0.4531013884 0.3278468017 -0.453421748 -0.1034296492 0.1502303491
455297270.0 -0.0749491614 0.1570385738 0.3228059011 -0.4565586669 0.3230862746 -0.4563603922 -0.101913807 0.1510292325
460297240.0 -0.0732637928 0.1579994632 0.3180115364 -0.459703795 0.3171209891 -0.4597317681 -0.1003565082 0.1527737626
465297210.0 -0.0711450327 0.1586592423 0.3129540446 -0.463352904 0.312874044 -0.4634431137 -0.0993648974 0.1535921567
470297180.0 -0.0695167698 0.1598686059 0.3076732498 -0.4665787865 0.3078240522 -0.4671130073 -0.0984993228 0.1548137214
475297150.0 -0.0678696648 0.1605837601 0.3020753863 -0.4700300224 0.3026375218 -0.4695312891 -0.0963908402 0.1558077262
480297120.0 -0.0657821289 0.161324723 0.2972183275 -0.4729816444 0.2976573409 -0.4730551812 -0.0951080174 0.1573063768
485297090.0 -0.0638052809 0.1624247973 0.2921702516 -0.4766615498 0.2923974546 -0.4762560604 -0.09359742 0.1580261835
490297060.0 -0.0621235629 0.1630986025 0.2868737435 -0.4795009054 0.2871470778 -0.479612989 -0.0921254023 0.1592893514
495297030.0 -0.0607647195 0.1641482294 0.2817207565 -0.4828669771 0.2814099845 -0.4826921326 -0.0906621436 0.1599369377
500297000.0 -0.0584127672 0.1648469828 0.2759958572 -0.4859525882 0.2765471555 -0.4855921671 -0.0894731457 0.1614399172
505296970.0 -0.0567787402 0.1654309097 0.2706609522 -0.4883360539 0.2710859854 -0.4888443185 -0.0881537177 0.162693256
510296940.0 -0.0549630841 0.1663176952 0.2652613229 -0.491538434 0.2657940357 -0.4916042413 -0.0861939349 0.1639343938
515296910.0 -0.0531535565 0.1672466346 0.2599863336 -0.494181157 0.2604385318 -0.4943680637 -0.0849528736 0.1648397824
520296880.0 -0.0511368787 0.1676400195 0.2544910482 -0.4971398277 0.2551898145 -0.4969388689 -0.0830679859 0.1656479668
525296850.0 -0.049437891 0.1682557078 0.2494190053 -0.4999160997 0.2495371557 -0.5003175352 -0.0813880521 0.1666601295
530296820.0 -0.047351897 0.1691615997 0.2439813176 -0.5021124034 0.2442846147 -0.5019439893 -0.0803014247 0.1673600429
535296790.0 -0.0456903821 0.169767108 0.2385318263 -0.504619249 0.239131768 -0.5046429396 -0.0785627485 0.1680927205
540296760.0 -0.0438225258 0.1700666933 0.2330589519 -0.508008373 0.2329634184 -0.5079165779 -0.0771669707 0.1695536133
545296730.0 -0.0420382608 0.1712250943 0.2275463901 -0.5097374021 0.2277547628 -0.5102364574 -0.0753636548 0.1701167824
550296700.0 -0.0402884111 0.1715321954 0.2223517823 -0.5123068516 0.2222894984 -0.5128047501 -0.0741877777 0.1713652992
555296670.0 -0.0379577171 0.171882101 0.2163079841 -0.5148144673 0.2166854216 -0.5147662791 -0.0724518126 0.1722442599
560296640.0 -0.0362300789 0.1723909422 0.2110731074 -0.5168012708 0.2110444235 -0.5169778482 -0.0706964275 0.1732086231
565296610.0 -0.0347687489 0.1730715743 0.2052311684 -0.5188545242 0.2052279565 -0.5192864379 -0.0693610264 0.1736820414
570296580.0 -0.0322481286 0.1735613487 0.1993864311 -0.5211387918 0.1998632373 -0.521778978 -0.0677101461 0.1750673098
575296550.0 -0.0305009378 0.1744721364 0.1940610493 -0.5230319047 0.1943589548 -0.5235186771 -0.065470091 0.17571448
580296520.0 -0.0286455708 0.1746064183 0.1886250386 -0.5253567335 0.1882812478 -0.525815812 -0.0641401244 0.1762296733
585296490.0 -0.0262936435 0.1745619593 0.1826896342 -0.5273035498 0.1825296336 -0.5276047568 -0.0628344996 0.1767649023
590296460.0 -0.024851695 0.1754661669 0.1768099594 -0.5292784975 0.1768144506 -0.529640761 -0.0609737894 0.1779159411
595296430.0 -0.0227384807 0.1760050208 0.1714125197 -0.5314008728 0.1712084534 -0.5314272 -0.0591358626 0.1783643282
600296400.0 -0.0207658053 0.1764948748 0.1653155069 -0.532968681 0.165678867 -0.5333193489 -0.0573939269 0.1795218083
605296370.0 -0.0183771125 0.176936793 0.1595893945 -0.5347458645 0.1600377916 -0.5344862909 -0.0557472761 0.179932638
610296340.0 -0.0168736162 0.1770549483 0.1546219198 -0.5364038493 0.1542672682 -0.5367298169 -0.0543903293 0.1810636437
615296310.0 -0.0146833457 0.1776781987 0.1480463639 -0.5380188505 0.1483498389 -0.5381937878 -0.052336662 0.1814472888
620296280.0 -0.0125767409 0.1777469378 0.1424562846 -0.5394959766 0.1423236843 -0.5395748812 -0.0507386135 0.1816430212
625296250.0 -0.0103825344 0.1780036648 0.1360562003 -0.5410220459 0.1365395174 -0.5414313599 -0.0489548846 0.1826186681
630296220.0 -0.0088134631 0.1782518433 0.1302338904 -0.5425545396 0.130869378 -0.5424177974 -0.0475067373 0.1832578332
635296190.0 -0.0065652775 0.1785215965 0.1242269085 -0.5433284181 0.1249284483 -0.5433161735 -0.0458103897 0.1835860593
640296160.0 -0.0050012067 0.1785803198 0.1189529539 -0.5447192796 0.1186842398 -0.5452127669 -0.0430827617 0.1841490982
645296130.0 -0.0029384751 0.1789929243 0.1129682519 -0.5462991257 0.1125137712 -0.5460527617 -0.0421282697 0.1846667553
650296100.0 -0.0010028973 0.1795870533 0.1076445872 -0.5473906301 0.107605714 -0.5473250526 -0.0403296019 0.1853348933
655296070.0 0.0008994895 0.1792304619 0.1014507952 -0.5482732485 0.1009849993 -0.5484440357 -0.0380091196 0.1859246357
660296040.0 0.0026675324 0.1795747512 0.0953965586 -0.5487685815 0.0951638624 -0.5496278123 -0.0366854407 0.1862347001
665296010.0 0.0049290036 0.1794170064 0.0895708761 -0.5506000066 0.0898421194 -0.5504269822 -0.0351264275 0.1871702812
670295980.0 0.0074453831 0.1799358707 0.0834568114 -0.5512950706 0.0840130005 -0.5514603841 -0.0336983279 0.1873801401
675295950.0 0.0090182593 0.1797197877 0.0774339431 -0.551996713 0.0779172534 -0.5527127219 -0.0314920519 0.1881751609
680295920.0 0.0112577576 0.1801530202 0.0714047661 -0.5528682234 0.0714100082 -0.5530959503 -0.0293963479 0.1883153056
685295890.0 0.0131139106 0.1798719228 0.06563582 -0.553569521 0.0652655132 -0.5539410547 -0.0276795855 0.1889422837
690295860.0 0.0152542328 0.1799881938 0.0594827135 -0.5540565087 0.0591935534 -0.5539573713 -0.0256828672 0.189559345
695295830.0 0.0174047178 0.1797203504 0.0526223431 -0.554835273 0.0532553856 -0.5551433614 -0.0242906657 0.1897830184
700295800.0 0.0195965707 0.1796905045 0.0468849197 -0.5553326471 0.0475140129 -0.555523984 -0.0224499076 0.1895291026
705295770.0 0.0215947497 0.1797507746 0.0414366939 -0.5556315716 0.0422047373 -0.5556020475 -0.0209583525 0.1901781982
710295740.0 0.0234064928 0.179704837 0.0353176704 -0.5559365758 0.0356528374 -0.5560505635 -0.0192234453 0.1909129211
715295710.0 0.0252266249 0.1797541061 0.0292534927 -0.5567045118 0.030155529 -0.5565696238 -0.0171140941 0.1908211337
720295680.0 0.027236383 0.1791741777 0.0233479741 -0.5565591919 0.0237954548 -0.5573631457 -0.014877659 0.191389093
725295650.0 0.0295347011 0.1793886008 0.0174496949 -0.5566176974 0.0175342536 -0.5571375154 -0.013291925 0.1919487622
730295620.0 0.0309630018 0.1788540371 0.0115384788 -0.5571818438 0.0115724022 -0.5570227112 -0.0109232236 0.1914245056
735295590.0 0.0338299474 0.1787309501 0.0055479201 -0.5570304764 0.0058299798 -0.5571600884 -0.009754962 0.1923944219
740295560.0 0.0355196716 0.1786770631 -0.0002511737 -0.5568765249 -0.0003187791 -0.5573247496 -0.0076287437 0.1922091319
745295530.0 0.0373916476 0.178513085 -0.0063469138 -0.5569841586 -0.0061309759 -0.5571553815 -0.005736838 0.192829068
750295500.0 0.0393231698 0.1781402237 -0.0124517682 -0.5564964687 -0.0123747983 -0.5568856718 -0.0041031987 0.1925270886
755295470.0 0.0418149203 0.1780046635 -0.01831625 -0.5566617912 -0.018127773 -0.5570364434 -0.0023156503 0.1932255776
760295440.0 0.0433919183 0.1778292014 -0.024546676 -0.5561033202 -0.0242702558 -0.5566896608 -0.0009211832 0.1930393736
765295410.0 0.0452070957 0.1771425261 -0.0299136442 -0.5558489634 -0.0303182828 -0.5563315245 0.001830331 0.1937892766
770295380.0 0.0475835899 0.177135447 -0.0365733541 -0.5554937579 -0.0363446568 -0.5561257964 0.0038437613 0.1935446257
775295350.0 0.0494877988 0.1767914306 -0.0424879549 -0.5549965875 -0.0423162693 -0.5555919822 0.004935218 0.1932863021
780295320.0 0.0514158941 0.1760677088 -0.047920669 -0.5544652918 -0.0478000948 -0.5551283387 0.0071448819 0.1938987163
785295290.0 0.0533754556 0.1762570362 -0.053936443 -0.5535201005 -0.0540501739 -0.5544424888 0.0085175006 0.1937302994
790295260.0 0.0550299666 0.1756039789 -0.0597860041 -0.553877563 -0.0598674977 -0.5538199245 0.0109970523 0.1941439449
795295230.0 0.0571915848 0.1750015141 -0.0655102322 -0.5524256005 -0.0655609621 -0.5530411599 0.0126582718 0.1947351643
800295200.0 0.0592185893 0.1745899541 -0.0724460429 -0.5520090316 -0.0725556748 -0.5523243096 0.0146823164 0.1941259841
805295170.0 0.0609894788 0.1740111426 -0.0778439232 -0.5506437233 -0.0779192216 -0.5512009641 0.0160625706 0.1937016538
810295140.0 0.0629022417 0.1734388624 -0.0837117346 -0.5503199368 -0.0834983704 -0.5506783038 0.0184593627 0.194162358
815295110.0 0.065282818 0.172861184 -0.0898108666 -0.5487898209 -0.0900524056 -0.549645427 0.0199459825 0.1939475765
820295080.0 0.0671326819 0.1723061224 -0.0957540096 -0.5482183223 -0.0955627029 -0.5484863702 0.0216133951 0.1941898936
825295050.0 0.0692033882 0.1716993525 -0.101412887 -0.546552723 -0.1014538333 -0.5473300668 0.0240387011 0.194108115
830295020.0 0.0707349983 0.171351376 -0.1073424972 -0.5458444763 -0.1078388765 -0.5463321027 0.0255579682 0.1936635184
