!Created with skrf (http://scikit-rf.org).
# Hz S RI R 50.0 
!freq ReS11 ImS11 ReS21 ImS21 ReS12 ImS12 ReS22 ImS22
300000.0 -0.0484288342 -0.0692377621 -0.0013166123 0.0002133397 -0.0004760614 0.0010779818 -0.7688465451 -0.1924120273
5299970.0 -0.0501813127 0.0143461448 6.71848e-05 -8.7214e-05 -6.32963e-05 8.16062e-05 -0.785109998 -0.0095388041
10299940.0 -0.0445884244 0.0329497407 -5.93264e-05 0.0001017894 -9.68835e-05 7.53584e-05 -0.7879503137 -0.0054118972
15299910.0 -0.0359028947 0.047440488 0.0001391415 -5.35532e-05 -0.0001374509 -3.58104e-05 -0.7935495971 -0.0029161902
20299880.0 -0.0256252136 0.0591479817 7.34565e-05 -3.86912e-05 -2.0074e-05 6.02449e-05 -0.7996338347 0.0016891321
25299850.0 -0.0143877402 0.0684551511 8.66964e-05 7.04594e-05 -7.11815e-05 0.0001922581 -0.8066809594 0.0079629598
30299820.0 -0.0027785293 0.0752049157 0.0001419481 -0.0001758655 -0.000126139 0.000186779 -0.812379198 0.0163161022
35299790.0 0.0089726521 0.07986701 -3.71502e-05 0.0001980264 0.0001837891 5.65159e-05 -0.8172623708 0.0248048233
40299760.0 0.0206699404 0.0827000884 1.34943e-05 0.0001247768 -0.0002579095 4.22473e-05 -0.8215444272 0.034028719
45299730.0 0.0311488201 0.0839188905 9.30728e-05 -5.42138e-05 -0.0001241622 -7.9574e-06 -0.8245570116 0.0439280445
50299700.0 0.0416731968 0.0836108153 -6.90942e-05 -0.0001650684 3.29721e-05 2.68799e-05 -0.8266173069 0.0540835287
55299670.0 0.0510482739 0.0827465601 -5.66578e-05 -0.0001387336 2.0398e-05 -6.38386e-05 -0.8289104427 0.0637338357
60299640.0 0.0596606615 0.0806534936 -0.0001819676 0.0001895814 -0.0001779355 -0.0001538613 -0.8302937748 0.0740786064
65299610.0 0.0677836085 0.0780127415 0.0002977822 -9.04986e-05 0.0001536914 7.259e-05 -0.8307653411 0.0841812828
70299580.0 0.074510787 0.0749252189 -0.0001197371 7.84978e-05 -6.97403e-05 -7.31311e-05 -0.8315022438 0.094078267
75299550.0 0.0809355631 0.0714591156 -0.0002353518 -0.0001531349 2.2877e-05 -6.72129e-05 -0.831287725 0.104116673
80299520.0 0.0867898486 0.0680570135 -0.0002082764 2.19095e-05 -9.71272e-05 7.16485e-05 -0.8309010306 0.1139263202
85299490.0 0.0918347771 0.0638832366 -7.61526e-05 4.20968e-05 0.0001007353 4.83431e-05 -0.8304717448 0.1232661431
90299460.0 0.0967529561 0.0601479111 -9.84321e-05 -5.74923e-05 1.32147e-05 0.0001757753 -0.8292868002 0.1329387677
95299430.0 0.1009830739 0.0558917615 0.0001642866 -5.50382e-05 1.73043e-05 -5.7403e-06 -0.8284187131 0.1426842598
100299400.0 0.1045432969 0.0519547219 -7.1217e-06 -0.0001443957 -7.0125e-06 9.13162e-05 -0.8277503201 0.1518995102
105299370.0 0.107810107 0.0478205683 3.90411e-05 -3.97367e-05 -9.01011e-05 0.0001155768 -0.8260152467 0.1606011754
110299340.0 0.1109372203 0.0438541662 -1.87178e-05 0.0001011385 -0.0002979731 -6.39859e-05 -0.8249239739 0.1695777375
115299310.0 0.1133103154 0.0402157272 -7.40212e-05 0.0001261107 -7.53008e-05 -0.000172292 -0.8235699048 0.179708823
120299280.0 0.1158433877 0.0358578996 0.0001504788 0.0002202253 -2.22003e-05 -7.52723e-05 -0.8217356232 0.1878231872
125299250.0 0.1174719607 0.032035082 -9.92311e-05 0.0001362518 -5.3497e-05 -1.55555e-05 -0.8199726753 0.1971184088
130299220.0 0.1193420783 0.0281176232 3.16815e-05 -0.000232118 -0.0001326065 5.27953e-05 -0.8179647103 0.2060272337
135299190.0 0.1209926796 0.0241987825 5.5744e-05 2.94418e-05 0.0001378263 9.17859e-05 -0.8161133812 0.2148169092
140299160.0 0.1222110258 0.0208597768 7.61691e-05 0.0001456466 -3.28429e-05 -0.0001107239 -0.8142986058 0.2233444428
145299130.0 0.1233849117 0.0175182445 2.67205e-05 0.0001942602 0.0002430006 8.68442e-05 -0.8119436447 0.2321391262
150299100.0 0.1243820571 0.0137090791 -2.76851e-05 0.0002284842 7.95848e-05 0.0001127438 -0.8097726008 0.2415338656
155299070.0 0.125058086 0.0107738823 -3.23737e-05 -5.94731e-05 3.3346e-06 8.34356e-05 -0.8071258404 0.250690915
160299040.0 0.1257090478 0.0071676937 6.24807e-05 -5.83462e-05 0.0001785608 7.42541e-05 -0.8045168013 0.2587694124
165299010.0 0.1263984741 0.0040993018 5.35198e-05 0.0001849532 0.0001602079 0.0001372171 -0.8020626596 0.2672083644
170298980.0 0.1264832095 0.0007457133 -4.09978e-05 -0.0002124524 -8.24994e-05 5.1755e-06 -0.7997290569 0.2756418361
175298950.0 0.1269835899 -0.002336214 -5.16655e-05 0.0001549449 5.18719e-05 9.9428e-05 -0.7969042744 0.2846555666
180298920.0 0.1269353234 -0.0052816753 0.0001770263 0.0001495381 0.0002668217 -5.455e-07 -0.7936333605 0.2934829918
185298890.0 0.1268726647 -0.0081779251 8.46016e-05 3.56494e-05 -0.0001534915 7.2075e-06 -0.7907841771 0.301720174
190298860.0 0.1268291724 -0.0111093143 0.0001647859 0.0001271263 1.90058e-05 0.0001228464 -0.7874497783 0.3099672829
195298830.0 0.127101045 -0.0134251623 0.0001068357 9.2946e-05 -9.46092e-05 0.0001235976 -0.7839153463 0.3181614114
200298800.0 0.1268396431 -0.0167787095 -0.0001545953 0.0001028216 6.472e-07 1.50518e-05 -0.7809765717 0.3265233479
205298770.0 0.1259904629 -0.0193479664 -3.3883e-06 -2.86074e-05 -0.0001284449 6.79006e-05 -0.7778255685 0.3353406225
210298740.0 0.1264335301 -0.0217392471 5.60995e-05 0.0002996805 6.4763e-05 -9.49904e-05 -0.7744318712 0.3432689719
215298710.0 0.125787361 -0.0243365876 7.80168e-05 -3.53288e-05 0.0001258366 0.000169102 -0.7709458919 0.3513905525
220298680.0 0.1253438492 -0.026892965 0.0001224626 5.21112e-05 -4.22706e-05 0.0001182073 -0.7672321395 0.3601337195
225298650.0 0.1249906369 -0.0295230596 4.13397e-05 -4.23469e-05 7.94893e-05 -2.96816e-05 -0.7630396935 0.3676375614
230298620.0 0.1242158883 -0.0313020084 -2.802e-07 -0.0001755511 0.0001346903 5.80389e-05 -0.7592588506 0.3755956137
235298590.0 0.123360032 -0.033641045 0.0001496729 -0.0001124205 9.91984e-05 -4.13421e-05 -0.7550251917 0.3830008912
240298560.0 0.1228644181 -0.0363579053 1.4047e-06 0.0001421542 4.2968e-05 0.0002507283 -0.7516625247 0.3909194723
245298530.0 0.1220386959 -0.0383900367 0.00013545 0.0001926136 -2.86618e-05 -5.64823e-05 -0.747221384 0.3994947455
250298500.0 0.1213210575 -0.0405531514 -0.0001875322 0.0002094823 2.71412e-05 -1.53983e-05 -0.7432432379 0.4066731062
255298470.0 0.1203619272 -0.0426314633 0.0001263013 0.00026418 -1.65333e-05 0.0001259139 -0.7388445515 0.4142334012
260298440.0 0.1196560749 -0.0449192726 0.0001048902 4.0914e-06 0.0001318537 0.0002278381 -0.7342588706 0.4216826311
265298410.0 0.1185892459 -0.0467643854 0.0002005208 0.0001073023 -0.0001370154 2.14455e-05 -0.7300763466 0.4302398217
270298380.0 0.1178035557 -0.0489484141 -1.99835e-05 -4.2198e-05 8.19133e-05 3.53502e-05 -0.7253143273 0.4381369888
275298350.0 0.1171983902 -0.0507553988 0.0002241748 0.0001109545 0.0001728421 -0.0001666066 -0.7202679449 0.4450353724
280298320.0 0.1160780577 -0.0526282571 0.0001214888 -4.96537e-05 -2.91181e-05 5.17365e-05 -0.7164597608 0.4532497455
285298290.0 0.1152528339 -0.0546340715 0.0002407104 -2.04663e-05 9.07645e-05 -3.46172e-05 -0.7118415145 0.4610090372
290298260.0 0.1138535268 -0.0565403536 0.0001404434 8.44107e-05 4.37009e-05 -0.0001319069 -0.7062766072 0.4673199372
295298230.0 0.1128819143 -0.058581672 8.41075e-05 2.19619e-05 0.0001236775 -0.0001126304 -0.7017635284 0.4747763665
300298200.0 0.1118278276 -0.0601724936 3.90606e-05 2.62204e-05 0.0001458038 8.60547e-05 -0.6966708607 0.4826432376
305298170.0 0.1109174111 -0.0623925049 5.3188e-06 -0.0001551255 -2.05696e-05 3.72049e-05 -0.6915029544 0.4895027057
310298140.0 0.1098495168 -0.0643463622 5.73475e-05 9.4081e-06 5.49825e-05 -3.91128e-05 -0.686637096 0.4968656875
315298110.0 0.1085296919 -0.0664490632 0.0001698328 7.74094e-05 -1.63712e-05 -3.2625e-06 -0.6816809808 0.5034425475
320298080.0 0.1071624418 -0.0681555632 -7.09236e-05 0.0001600134 0.0002041236 0.0001034916 -0.6762124367 0.5107822002
325298050.0 0.1050859251 -0.0703158992 8.22182e-05 -0.0001147211 0.0001910322 0.000236925 -0.6704117907 0.5180198022
330298020.0 0.1038739468 -0.071401921 0.0002511004 -0.0001915567 0.0001608161 3.98277e-05 -0.6651756855 0.5244250465
335297990.0 0.102201839 -0.0726861964 0.0001245227 -0.00022568 5.45146e-05 0.0002065998 -0.6599527011 0.5314417434
340297960.0 0.1009172504 -0.0742664171 0.0001675142 0.0001608048 0.0002502047 -2.65723e-05 -0.6546677519 0.5382931767
345297930.0 0.0995691658 -0.0757883484 -0.0001016084 0.0001738056 0.0002894579 0.0001503754 -0.6489159121 0.5446951304
350297900.0 0.0983050406 -0.0776400107 3.5739e-05 0.0002002819 -0.0001355811 0.0001712541 -0.6434743771 0.5516308946
355297870.0 0.0968590567 -0.0791295013 9.66922e-05 4.65123e-05 4.3452e-05 1.00102e-05 -0.6373090028 0.558418257
360297840.0 0.0953947963 -0.0803715308 -3.50925e-05 8.0683e-06 0.0002371318 9.61409e-05 -0.6309833002 0.5649792111
365297810.0 0.0939418738 -0.0815143587 0.0002647154 -6.89472e-05 0.0001251037 0.0001971716 -0.626401407 0.5707106315
370297780.0 0.0925482579 -0.0827728099 -9.3713e-05 2.16601e-05 0.0002762303 1.19053e-05 -0.6195950044 0.5773578696
375297750.0 0.091130647 -0.0842095421 9.26985e-05 3.15164e-05 -0.000102941 4.3956e-05 -0.6136009319 0.5841842802
380297720.0 0.0895183953 -0.0852323801 5.01436e-05 -2.1661e-06 0.0002695566 0.0002223386 -0.6072118257 0.5898930537
385297690.0 0.0881429121 -0.0865936087 8.25952e-05 0.0002719943 2.75695e-05 0.000194845 -0.6012407417 0.5966392927
390297660.0 0.086844414 -0.0881480998 0.0001534638 -5.85378e-05 0.0001124731 -2.03418e-05 -0.594423146 0.6025995914
395297630.0 0.0856427664 -0.0891505721 3.44624e-05 -0.0001049639 0.0001573324 2.15742e-05 -0.5880488309 0.6078262441
400297600.0 0.0835519595 -0.0904847803 -2.58503e-05 0.0001362821 4.04585e-05 3.07138e-05 -0.5829400325 0.614316894
405297570.0 0.0821667911 -0.0918674806 -3.03128e-05 0.000250285 -3.40123e-05 0.0002876572 -0.575664831 0.619494311
410297540.0 0.0811448405 -0.0928569359 4.81528e-05 -5.47882e-05 1.52386e-05 8.8853e-06 -0.5696293448 0.6258074489
415297510.0 0.0795722219 -0.0940303566 0.0001467312 -7.93306e-05 0.0003038288 7.17595e-05 -0.5636416421 0.6319480299
420297480.0 0.0777751359 -0.0956388648 0.0001612501 -0.0001090526 0.0001295811 -9.66166e-05 -0.5561161843 0.6383058087
425297450.0 0.0766317143 -0.0964822227 0.0001319889 -0.0001086191 4.98599e-05 2.01919e-05 -0.549540725 0.6428428904
430297420.0 0.0747747938 -0.0973785369 9.78088e-05 0.0001098877 0.0001410394 0.0001076113 -0.5428512133 0.6484794371
435297390.0 0.0733617755 -0.0982742919 4.91524e-05 3.06556e-05 0.0001280295 0.0003661265 -0.5367253325 0.6541405255
440297360.0 0.0716657458 -0.099603613 7.61457e-05 0.000186957 9.468e-06 0.0001465504 -0.5303313805 0.6596431956
445297330.0 0.07033342 -0.1009229581 -0.0001749734 1.35336e-05 1.43968e-05 3.6121e-06 -0.5232266739 0.664887199
450297300.0 0.0689612668 -0.1015485572 2.533e-06 1.84314e-05 -0.0001286276 -0.0001192038 -0.5155650283 0.6702880918
455297270.0 0.0672641083 -0.102544782 -0.0001081672 4.48255e-05 0.0002644737 -7.8466e-06 -0.5089205501 0.6752270095
460297240.0 0.0657732667 -0.1034435026 1.07141e-05 0.0002631455 0.0002080059 -2.0668e-06 -0.5022351643 0.6798895422
465297210.0 0.0643890482 -0.1043386083 2.96025e-05 -7.04159e-05 0.0001128319 6.63409e-05 -0.4953792594 0.6857341466
470297180.0 0.0628776491 -0.1053115655 8.62467e-05 -5.02986e-05 -1.4574e-05 -1.2511e-05 -0.4883081094 0.6905360127
475297150.0 0.0608377793 -0.1059798839 0.0003345813 8.8621e-05 0.000156121 7.5559e-06 -0.4812146523 0.6953888932
480297120.0 0.0597297515 -0.1068369016 0.0001281316 0.0001377633 0.0001191823 -3.78614e-05 -0.4744131525 0.7002750308
485297090.0 0.0581780413 -0.1075979629 6.75363e-05 9.58491e-05 0.0002105996 7.43197e-05 -0.467064271 0.7052362665
490297060.0 0.0567135908 -0.1083966978 0.0001649394 0.0001565721 0.0001548194 8.69706e-05 -0.46000997 0.7092564281
495297030.0 0.0550332977 -0.109279929 0.0002725673 6.04169e-05 5.5764e-05 3.70875e-05 -0.4524087075 0.713840959
500297000.0 0.0534424094 -0.1098098352 0.0003409272 7.09958e-05 0.0003907312 6.83884e-05 -0.4451697011 0.7183085405
505296970.0 0.0521450091 -0.1105359254 0.0002489816 9.74e-07 0.0003692576 0.0001553171 -0.4377069649 0.722881176
510296940.0 0.0504223254 -0.1109455916 8.39424e-05 4.19806e-05 -9.61184e-05 5.74813e-05 -0.4299822142 0.7275250543
515296910.0 0.0485624658 -0.1118139393 0.0001582195 1.26211e-05 0.0002719356 0.0001742567 -0.4229654703 0.7310733951
520296880.0 0.0474789151 -0.1122804231 7.14184e-05 8.52729e-05 0.0002281319 -4.37912e-05 -0.41519901 0.7358454137
525296850.0 0.0457561811 -0.1131137694 5.85937e-05 -7.20404e-05 0.0001826772 -1.0058e-06 -0.4080267251 0.7396107174
530296820.0 0.0441091026 -0.1133049776 0.0001556187 0.0001001025 -6.1242e-06 2.4192e-05 -0.4008019713 0.7436026079
535296790.0 0.0428008197 -0.1140139229 0.000328633 0.0001397007 0.0001434462 7.74166e-05 -0.393267342 0.7479520657
540296760.0 0.0413104725 -0.1144802836 -1.50363e-05 -6.7086e-06 4.01525e-05 7.94575e-05 -0.3856194307 0.7512347334
545296730.0 0.0393656935 -0.1145506295 9.27557e-05 -0.0001152011 2.54431e-05 -2.08016e-05 -0.3780364179 0.7558949878
550296700.0 0.0377213339 -0.115354779 0.0001096485 -5.32825e-05 0.0001659454 -2.28518e-05 -0.3698890892 0.759133378
555296670.0 0.0364915153 -0.1156372274 0.0001795744 5.54897e-05 0.0001879113 1.49395e-05 -0.3626031438 0.7627356633
560296640.0 0.0348935529 -0.1161181003 -0.0001785564 -1.91538e-05 1.90063e-05 -2.77e-06 -0.3547391983 0.7667624186
565296610.0 0.0330044911 -0.1161788341 -4.36176e-05 0.0001433953 -2.3974e-05 1.27204e-05 -0.3466007253 0.7698047901
570296580.0 0.0311905292 -0.1163573415 0.0001853118 -0.0001245066 0.0002184145 6.61436e-05 -0.3391950794 0.7730308645
575296550.0 0.0297603284 -0.1171194115 0.0001411614 1.41441e-05 8.87993e-05 0.000225199 -0.3309833526 0.7765577249
580296520.0 0.0284655565 -0.1167616917 0.000240736 3.4638e-05 9.22292e-05 -0.0001233739 -0.3237603254 0.7793963829
585296490.0 0.0266653528 -0.1168474613 0.0001190001 -0.0001831106 0.0001064424 0.0001290918 -0.3158383682 0.7828410666
590296460.0 0.0251561461 -0.1169438461 -5.1679e-06 7.22113e-05 0.0002029762 -9.42479e-05 -0.3077021787 0.7859991317
595296430.0 0.0234953593 -0.1178495955 0.0001366547 -0.0001606776 0.0003294435 -7.46092e-05 -0.2997813689 0.7895698516
600296400.0 0.0219265461 -0.1175620936 0.0002752193 -0.0001816548 0.0001477005 -2.43045e-05 -0.2919363873 0.7918724291
605296370.0 0.0200090022 -0.1174651977 -1.00967e-05 -9.7205e-06 0.0002721727 -5.96861e-05 -0.2839696767 0.7952522821
610296340.0 0.0187076184 -0.1176048172 -2.805e-05 -3.85936e-05 0.000108855 -0.0001597871 -0.2762678506 0.7980200062
615296310.0 0.0167625788 -0.1176821952 0.0002489385 0.0001054922 0.0003397657 0.0001184235 -0.2673595293 0.8003559959
620296280.0 0.0154764904 -0.1173819789 -1.3577e-05 4.06152e-05 8.41163e-05 1.194e-05 -0.2604234738 0.8031859337
625296250.0 0.0133910615 -0.1175248079 0.0001950914 5.29436e-05 0.000200166 0.0001647047 -0.2517759128 0.8055193115
630296220.0 0.0120240731 -0.1171989569 0.0001770586 2.80566e-05 9.60414e-05 -1.31226e-05 -0.2434914385 0.8079167761
635296190.0 0.0099252053 -0.1172776378 0.0002805806 0.0001181082 0.0002591921 7.57101e-05 -0.2358154456 0.8102751578
640296160.0 0.008781811 -0.1171337399 0.0001171764 -1.15591e-05 0.0001041574 -5.69219e-05 -0.2274997993 0.8129211159
645296130.0 0.0072530546 -0.1171110658 4.74451e-05 0.0001966284 0.0001449529 -1.02433e-05 -0.2196534202 0.8138582335
650296100.0 0.0055510676 -0.1168719598 0.0002265312 0.0001648686 0.0001394209 4.38214e-05 -0.2110471071 0.816761724
655296070.0 0.0038296634 -0.1168061366 0.0001522139 5.17592e-05 0.0002785994 2.49414e-05 -0.2029851272 0.8191051063
660296040.0 0.0019482758 -0.1163434375 0.0002853064 -6.23767e-05 0.0001434636 5.28378e-05 -0.1942954312 0.8212687242
665296010.0 0.0004805518 -0.1161233373 0.0001055788 -5.41792e-05 0.0001591537 7.42598e-05 -0.1866038112 0.8224785023
670295980.0 -0.0012603413 -0.1160157144 0.0003110333 -0.0001555475 6.30233e-05 9.18243e-05 -0.1781622649 0.824326746
675295950.0 -0.0031450025 -0.1158016736 -2.99497e-05 3.82301e-05 0.0001896481 -7.70322e-05 -0.1700631993 0.8268292053
680295920.0 -0.004975659 -0.1151538732 0.0002283107 8.63511e-05 0.00026209 0.0001423049 -0.1614800514 0.82782284
685295890.0 -0.0064448694 -0.1150823459 0.0001147879 -9.50541e-05 0.0001698674 -3.03513e-05 -0.1534931747 0.8294331435
690295860.0 -0.0080506158 -0.1144378692 0.0001968304 0.0001900775 3.46397e-05 -0.0001049317 -0.1456422384 0.8316622742
695295830.0 -0.0097994539 -0.1143158478 0.0001403029 -0.0001447971 0.0001440587 -6.45187e-05 -0.1370622075 0.8330670872
700295800.0 -0.0115240748 -0.1137919865 7.40961e-05 -0.0001412673 4.96412e-05 7.78289e-05 -0.1282615822 0.8337688239
705295770.0 -0.013019334 -0.1134961005 -4.83509e-05 9.9189e-06 3.9999e-05 -0.0001455077 -0.1206828692 0.8355423819
710295740.0 -0.0146972448 -0.1130134823 2.82666e-05 -4.155e-06 0.0002124663 -0.0001717499 -0.1117953376 0.8360208592
715295710.0 -0.016249083 -0.1124507596 0.000156093 -8.21439e-05 8.07354e-05 -0.0001089488 -0.1036609706 0.8366285167
720295680.0 -0.0180855363 -0.112071128 0.0002670843 -0.0001481784 0.0002297378 -4.90113e-05 -0.0950239543 0.838286328
725295650.0 -0.0197835987 -0.1115105671 9.91817e-05 -0.000167961 3.62255e-05 -0.0001896871 -0.0868968526 0.8396708429
730295620.0 -0.0218810129 -0.1111785548 9.67387e-05 -4.5466e-05 0.0002175995 -7.36911e-05 -0.0789636513 0.8404841603
735295590.0 -0.0231601211 -0.1105918893 -6.5459e-06 0.0001063034 7.65084e-05 -8.02587e-05 -0.0695856235 0.8407040705
740295560.0 -0.0249922594 -0.1099278927 0.0002746382 -0.0002534107 0.0001292632 -8.90152e-05 -0.0618718141 0.8416477276
745295530.0 -0.0266861259 -0.1093397473 0.0001385451 0.0001590134 0.0001333129 -2.06295e-05 -0.0537871078 0.8419032708
750295500.0 -0.028332602 -0.1083321164 0.0001030888 -7.08616e-05 0.0002608633 -4.08298e-05 -0.0450817371 0.8422327107
755295470.0 -0.0298776599 -0.1081547144 -2.4914e-05 -5.0246e-05 0.0002595442 0.0001082975 -0.0371138838 0.8430319138
760295440.0 -0.0315803575 -0.1073364546 0.000266805 -1.56303e-05 2.09184e-05 4.5751e-06 -0.0281673282 0.842914804
765295410.0 -0.0331174693 -0.1070741459 0.0002190457 -1.72899e-05 0.0001485636 0.0001857696 -0.0197830498 0.8436181248
770295380.0 -0.0349236593 -0.1059030989 9.28458e-05 -9.90484e-05 0.0001936017 -1.18278e-05 -0.0113631103 0.8435493259
775295350.0 -0.0364239942 -0.1055015268 0.0003497435 -0.0001687302 0.0002802189 5.91052e-05 -0.0035116469 0.8433544516
780295320.0 -0.0381161231 -0.1046448257 0.000209309 -6.47155e-05 0.0003034479 8.76387e-05 0.0050787053 0.8433382322
785295290.0 -0.0394763562 -0.1041121647 0.0001088617 -8.6382e-06 -0.0001200716 8.27117e-05 0.0135279037 0.8437254455
790295260.0 -0.0412524735 -0.1035020271 -0.0001241436 -1.43444e-05 6.88267e-05 -3.81335e-05 0.0219318167 0.843563079
795295230.0 -0.0428936379 -0.1028478796 9.52796e-05 8.33567e-05 5.85813e-05 -3.04928e-05 0.0297798413 0.8430213435
800295200.0 -0.0445254435 -0.1018906819 0.0001760244 -8.39782e-05 0.0001982621 -5.73254e-05 0.0381919256 0.8425620342
805295170.0 -0.0463079089 -0.1013888397 0.0003043288 -2.62853e-05 0.0001078094 6.12406e-05 0.0474256444 0.8420866239
810295140.0 -0.0474877026 -0.1003332853 0.0003163172 0.0001601585 0.0002446451 -7.9937e-06 0.0555024563 0.8412263536
815295110.0 -0.049371001 -0.0997037493 0.0001583215 -0.0001056722 0.0001310039 0.0001578905 0.0630983508 0.8413057796
820295080.0 -0.0507327727 -0.0987454764 0.0002788239 -0.0001627976 0.0002676595 -0.0001523532 0.071053631 0.8406652942
825295050.0 -0.052440895 -0.097905032 0.0002533229 -9.01076e-05 0.0001381131 -0.0001491966 0.079969458 0.8396618427
830295020.0 -0.0539975841 -0.0969648293 0.0003052799 5.73635e-05 0.0003240804 -0.000160619 0.0878965035 0.8384439285
835294990.0 -0.0554928892 -0.0966751 0.0001388766 0.000107177 7.86614e-05 -1.77328e-05 0.0965643669 0.8376210418
840294960.0 -0.0569533751 -0.0956745418 0.000355656 -8.68813e-05 0.0002327763 0.0001251158 0.1054698174 0.8369295767
845294930.0 -0.0585107305 -0.0947368088 -0.0002408423 -0.000103305 0.0001753649 -0.0001655032 0.1135466773 0.8356778128
850294900.0 -0.0595870396 -0.0939864632 8.91143e-05 -0.0002964751 -6.88479e-05 -0.0001118684 0.1213043065 0.8348973453
