!Created with skrf (http://scikit-rf.org).
# Hz S RI R 50.0 
!freq ReS11 ImS11 ReS21 ImS21 ReS12 ImS12 ReS22 ImS22
300000.0 -0.0930801507 -0.1010355811 0.621468686 0.093401633 0.6188787365 0.0952429135 -0.0922191413 -0.1065049377
5299970.0 -0.1014796524 0.0113068436 0.630446764 0.0113339227 0.6310477604 0.0108945933 -0.1013961528 0.011209069
10299940.0 -0.096849871 0.0286143972 0.6346385762 0.015980409 0.6343914791 0.0164592376 -0.0963000035 0.0283858011
15299910.0 -0.0890866282 0.0424116193 0.6400345765 0.0209682727 0.6406463991 0.0213533283 -0.0898312479 0.0417554554
20299880.0 -0.080521905 0.0533676135 0.6489621828 0.0245150577 0.6489249072 0.0244925037 -0.0809916609 0.0529553561
25299850.0 -0.0704588696 0.0624125588 0.6580405186 0.026254502 0.6583087681 0.0257780169 -0.0714578507 0.062010466
30299820.0 -0.0608398984 0.0687797325 0.6680012816 0.0244836221 0.667758439 0.0243463983 -0.0616248647 0.0683713928
35299790.0 -0.0505481122 0.0735730209 0.6771404038 0.0216903769 0.6772878433 0.0218232769 -0.0523561901 0.0734237236
40299760.0 -0.0412629049 0.0763797406 0.6870210381 0.0178292611 0.6868222703 0.0173908846 -0.042590586 0.0771434353
45299730.0 -0.0320688592 0.0782936626 0.6957232188 0.0125272537 0.6961921404 0.0121753186 -0.032964693 0.0789327682
50299700.0 -0.022947013 0.0789892145 0.7041283763 0.0054942885 0.7039018284 0.004962137 -0.0243412737 0.0803960254
55299670.0 -0.0151975232 0.0788051271 0.7109995697 -0.0022971697 0.7107943848 -0.0027342943 -0.0172563097 0.0803887984
60299640.0 -0.007684953 0.0788856505 0.7184148385 -0.0108607396 0.7174760365 -0.0112817364 -0.0096334254 0.0797298785
65299610.0 -0.0012204481 0.0770179969 0.7243001633 -0.0198140003 0.7242160011 -0.0200106717 -0.0025475787 0.0784562949
70299580.0 0.0051815463 0.0751217778 0.729489558 -0.0285567926 0.7292267876 -0.0287158823 0.0031886782 0.0771562761
75299550.0 0.0104759068 0.0732938207 0.7333397037 -0.0391884898 0.7336056139 -0.0389558749 0.0089156171 0.0753321301
80299520.0 0.0155639097 0.0711599226 0.7376683462 -0.0485290483 0.7378060041 -0.0489646414 0.0136972272 0.0734430605
85299490.0 0.0199978933 0.0691208642 0.7411749019 -0.0586443462 0.7411469241 -0.0581867741 0.0180997904 0.0709782615
90299460.0 0.0238638952 0.0667018354 0.7432464259 -0.0687283307 0.743652176 -0.068126283 0.0224149241 0.0693550709
95299430.0 0.0279219272 0.0643875466 0.7462765133 -0.0790757367 0.7464036314 -0.0786443947 0.0259481892 0.0666385405
100299400.0 0.0312386657 0.0616938721 0.7476149331 -0.0887604716 0.7474727645 -0.0886845694 0.0291661831 0.0645298603
105299370.0 0.0343309051 0.0590095346 0.7495284135 -0.0989175664 0.7493453399 -0.099097177 0.0328355368 0.0616259934
110299340.0 0.0374530375 0.0562949795 0.7501432618 -0.1084689398 0.7508990383 -0.1089652255 0.0350036702 0.0594931092
115299310.0 0.0398294051 0.054415009 0.7517229363 -0.1188082436 0.7510912205 -0.1186135154 0.0372259552 0.0576266201
120299280.0 0.041666771 0.0520629728 0.7519577727 -0.1298763262 0.7517597023 -0.1294920021 0.0400126276 0.0544466983
125299250.0 0.043776705 0.049786717 0.7522886453 -0.1390678669 0.7521241116 -0.138358281 0.0418443924 0.0527508713
130299220.0 0.0458294877 0.0469849348 0.7523010138 -0.1494402908 0.7518548627 -0.1489864486 0.0438174292 0.0508402448
135299190.0 0.047065882 0.045545562 0.7521766996 -0.1583092675 0.7523274632 -0.1589629927 0.0456261213 0.0477687246
140299160.0 0.0488208107 0.0429748083 0.7517469113 -0.1686344943 0.7511089305 -0.1682105261 0.0460801587 0.0455928945
145299130.0 0.0494321811 0.0410399945 0.7504712665 -0.1782656397 0.7506942052 -0.1776801117 0.0479073237 0.043857163
150299100.0 0.0507769252 0.0392547418 0.7494466171 -0.1878362684 0.749095687 -0.1878727229 0.0490901519 0.0420138462
155299070.0 0.0525167396 0.0371299587 0.7474260827 -0.1978090737 0.7482637405 -0.1976769922 0.0504683898 0.0395460923
160299040.0 0.0534542754 0.0358151789 0.7466699828 -0.2069985125 0.7467401934 -0.2071355796 0.0511612204 0.0381305574
165299010.0 0.0546103606 0.0331826919 0.7451544662 -0.2162942884 0.7450252813 -0.2166397473 0.0522852297 0.0359219069
170298980.0 0.0551439281 0.0319758359 0.7430931485 -0.2259040305 0.7434206626 -0.2263128017 0.052832399 0.0339695727
175298950.0 0.0556521496 0.0303555681 0.7416554042 -0.2344996878 0.7418866892 -0.2353445674 0.0533241967 0.0325909958
180298920.0 0.0565194844 0.0288544638 0.7397993496 -0.2447831149 0.7392662348 -0.2446836779 0.0541871047 0.0310124813
185298890.0 0.0567977755 0.027085285 0.7377192271 -0.2538322623 0.7372388902 -0.2531671025 0.0553718958 0.0293509398
190298860.0 0.0577538495 0.025909857 0.7346875212 -0.2628060435 0.7346971786 -0.2627081629 0.0551683342 0.0272481128
195298830.0 0.0578329582 0.0241319714 0.732366814 -0.2714957856 0.7324225138 -0.2715592952 0.055430059 0.0258759114
200298800.0 0.0583608978 0.0223880537 0.7300507196 -0.2812697275 0.7294781325 -0.2806143574 0.0561264753 0.0239067965
205298770.0 0.0582170859 0.0208086437 0.7268059903 -0.2901187696 0.7272927251 -0.2890070894 0.0569775254 0.0227520603
210298740.0 0.058822513 0.0201273882 0.7243041936 -0.2982541633 0.7235865403 -0.2983843335 0.0565908239 0.0210964079
215298710.0 0.0594022615 0.0185276796 0.7206120765 -0.3066935002 0.7203797972 -0.3069438525 0.0570790051 0.0199729842
220298680.0 0.0597716301 0.0176313447 0.7176274074 -0.3153696587 0.7172183813 -0.3159330108 0.0574707425 0.0179278871
225298650.0 0.0597779979 0.0161451951 0.7141269966 -0.3237913469 0.7143022491 -0.3240476573 0.0575110996 0.0163447021
230298620.0 0.0602539403 0.0151719675 0.7111759586 -0.3327666402 0.7113871415 -0.3329171913 0.0575364237 0.0152609614
235298590.0 0.0596085253 0.0139392256 0.7079601319 -0.3420362858 0.7080958696 -0.3410417904 0.0577715733 0.0143462729
240298560.0 0.0603704317 0.0127716497 0.7042641356 -0.349197258 0.7044162604 -0.3492071593 0.0573361384 0.0128794314
245298530.0 0.0600965666 0.0110320722 0.7004387346 -0.358503544 0.6998961295 -0.3578700167 0.0579825875 0.0118107852
250298500.0 0.0603523453 0.010090979 0.6971006038 -0.3665258158 0.6965113443 -0.3661342995 0.0577547654 0.0107150918
255298470.0 0.060563357 0.0097092733 0.6928562559 -0.3739581919 0.6933442399 -0.3741231254 0.0580776112 0.0099639541
260298440.0 0.0607391491 0.0083108833 0.6897007966 -0.3820110656 0.688910162 -0.3824014945 0.0575770201 0.0080151517
265298410.0 0.0600278604 0.0074770843 0.6843525429 -0.3902619497 0.6842462888 -0.3910338936 0.0588198429 0.0066156781
270298380.0 0.0600918073 0.0061630165 0.6803806925 -0.398686338 0.6805080316 -0.3979558258 0.0579547387 0.0061276612
275298350.0 0.0605324527 0.0056953234 0.6756357697 -0.405724594 0.6755073511 -0.4062905724 0.05786413 0.0051275209
280298320.0 0.0595803239 0.0044075935 0.6717621363 -0.4134461142 0.6723165337 -0.4141269688 0.0585475434 0.0041342616
285298290.0 0.0600480897 0.0035142023 0.6670078073 -0.4218172027 0.6677952153 -0.4214903491 0.0581181029 0.0027540109
290298260.0 0.0599177809 0.0026898738 0.6633756058 -0.4298305421 0.6630736379 -0.4297528887 0.0582306926 0.0017506924
295298230.0 0.0598812551 0.0012213946 0.6586802799 -0.4381028825 0.6586689418 -0.437692844 0.057776271 0.0001873466
300298200.0 0.0602493328 0.000930556 0.6540693392 -0.4452397237 0.6537630216 -0.4451913514 0.0578008434 -0.0006092768
305298170.0 0.0601129186 -0.0009277451 0.6491339669 -0.4534179378 0.6490178325 -0.4532856206 0.0576945594 -0.0022568486
310298140.0 0.0603459994 -0.0017903617 0.6441272538 -0.4604853162 0.6440628726 -0.4601110182 0.0581196842 -0.0034612874
315298110.0 0.059854753 -0.0030394106 0.6392510279 -0.4687963705 0.638868207 -0.4683791827 0.0578161404 -0.0045101925
320298080.0 0.0594702397 -0.0039208517 0.63341334 -0.4757662215 0.6343270868 -0.4760053488 0.0572264485 -0.0057552077
325298050.0 0.0586033473 -0.0055083199 0.6285509184 -0.4829600402 0.6286248377 -0.4830870643 0.0572268046 -0.006638776
330298020.0 0.0577001362 -0.0057913956 0.6228527697 -0.4906537991 0.6231140203 -0.490801307 0.0560525146 -0.0079799905
335297990.0 0.0577158694 -0.0067486606 0.6171806953 -0.4975121935 0.6172199658 -0.4974136984 0.0554848294 -0.0088582693
340297960.0 0.0570551325 -0.0077863998 0.6114108822 -0.5052392238 0.610769557 -0.5041511596 0.0551974718 -0.0093465284
345297930.0 0.0561434972 -0.0083451332 0.6056027484 -0.5118467453 0.6055733303 -0.5115466775 0.055039346 -0.0103712383
350297900.0 0.0558282928 -0.0091797544 0.6004575529 -0.5177070061 0.6001795323 -0.5183457284 0.0548271513 -0.0113126689
355297870.0 0.0555413956 -0.00984638 0.5944317966 -0.5240360902 0.5941115701 -0.5245321349 0.0546008232 -0.0118604597
360297840.0 0.0553047168 -0.0103224715 0.5882284413 -0.531738283 0.5884465898 -0.5320094798 0.0536315354 -0.0121578705
365297810.0 0.0548048711 -0.010935681 0.5825608518 -0.5378710754 0.5823629945 -0.538213888 0.0530785196 -0.0132863139
370297780.0 0.0547579135 -0.0115862453 0.5755926557 -0.5448597445 0.5767075975 -0.5446187821 0.0530417177 -0.01418436
375297750.0 0.0542744389 -0.0123647028 0.5707449954 -0.5509873986 0.5706464478 -0.5510624459 0.0530075358 -0.0145674324
380297720.0 0.0534379679 -0.0127093816 0.565285546 -0.557960192 0.5642524933 -0.5574965985 0.0523789019 -0.0150583481
385297690.0 0.0532633378 -0.0137213306 0.5580229132 -0.5640031292 0.5582586528 -0.5641827778 0.0519615626 -0.0154162995
390297660.0 0.0530174313 -0.0144573139 0.5517608712 -0.5691217253 0.5522204927 -0.5697208107 0.0520099891 -0.0166949439
395297630.0 0.053025163 -0.0149032883 0.5459785085 -0.5752907304 0.5456623932 -0.5753853885 0.051410456 -0.0170812581
400297600.0 0.0519238154 -0.0158878231 0.5395955597 -0.5820767232 0.5396454662 -0.5817687432 0.0511987451 -0.0174926823
405297570.0 0.0519650241 -0.016742204 0.5332378772 -0.5876626399 0.5329162859 -0.5874634514 0.0507929911 -0.0179186607
410297540.0 0.051543524 -0.0165541386 0.526568929 -0.5938124797 0.5270095459 -0.5941424518 0.0505713533 -0.0189032816
415297510.0 0.0508555928 -0.0172415142 0.5196705533 -0.5994619733 0.5204587516 -0.5996803802 0.0507362322 -0.0193825329
420297480.0 0.0504287234 -0.0187087619 0.5134394491 -0.6056708489 0.5137876838 -0.605606708 0.0504474433 -0.0195419611
425297450.0 0.0506710029 -0.0188479132 0.5071337038 -0.6112404714 0.5068393364 -0.6110427438 0.0500183304 -0.0210403233
430297420.0 0.0498544427 -0.0194774614 0.5005229272 -0.6169231586 0.5009731297 -0.6159747574 0.0496942392 -0.0209052763
435297390.0 0.0496853879 -0.0203560158 0.4934296006 -0.6231312898 0.4932230586 -0.6220055583 0.0486109635 -0.021525014
440297360.0 0.049723798 -0.021065813 0.4862452501 -0.6276262853 0.4863159029 -0.6276974391 0.0482743147 -0.0217954007
445297330.0 0.04946449 -0.0221735218 0.4799938784 -0.6325229281 0.4797194659 -0.6333127714 0.0481850011 -0.0219533368
450297300.0 0.0491506242 -0.0220491295 0.472889892 -0.6380657543 0.4729309877 -0.6381340176 0.0480173787 -0.0227272282
455297270.0 0.0479281667 -0.0229979248 0.4657535998 -0.6433787091 0.4655218823 -0.6438697416 0.0477255187 -0.0234496696
460297240.0 0.0479949147 -0.0233171322 0.4584784736 -0.6491931416 0.458618626 -0.6491025146 0.0473828606 -0.024003354
465297210.0 0.0476509125 -0.0240217395 0.4507466595 -0.6542162336 0.4508306393 -0.6539316685 0.0474811175 -0.0241061423
470297180.0 0.0471565121 -0.0252185226 0.444050008 -0.6591511174 0.4450718573 -0.6586134524 0.0468356822 -0.0254857924
475297150.0 0.0463496308 -0.0251013385 0.4366724259 -0.663779709 0.4369729427 -0.6636445016 0.0466395624 -0.0258201796
480297120.0 0.0465313971 -0.0251133039 0.4298243078 -0.6683708969 0.429640126 -0.6682527238 0.0461243601 -0.0264230182
485297090.0 0.0460780111 -0.0265941751 0.4222244397 -0.673380718 0.422063926 -0.6729682049 0.0454938354 -0.0263173231
490297060.0 0.0461826074 -0.0263988041 0.4143100049 -0.6777023757 0.4149661518 -0.6784374459 0.0449658019 -0.0271047381
495297030.0 0.0450016405 -0.0278630331 0.4077254913 -0.6825044999 0.4077032708 -0.6825029543 0.0456470487 -0.0277448413
500297000.0 0.0448025122 -0.0277421094 0.4002056936 -0.6869586862 0.4001865696 -0.6870966876 0.0447841849 -0.0279911299
505296970.0 0.0451111984 -0.0282725158 0.3928953241 -0.6913042918 0.3926766155 -0.6911258121 0.0444070964 -0.0292434108
510296940.0 0.044242005 -0.0289561474 0.3850349314 -0.6963606385 0.3852320182 -0.6959480385 0.0440970934 -0.0289503976
515296910.0 0.0437681287 -0.0287761537 0.376586089 -0.6993960145 0.3766230541 -0.7002367569 0.0437004005 -0.0302291766
520296880.0 0.0434905155 -0.0292894717 0.3697546551 -0.7035548024 0.3690663619 -0.7033012485 0.0441522156 -0.0295858949
525296850.0 0.0431983672 -0.0302789269 0.3618562113 -0.707701912 0.3614053095 -0.7078008226 0.0435256007 -0.0305718914
530296820.0 0.0425208506 -0.0311429828 0.3537064628 -0.7120815128 0.3541982815 -0.7117472067 0.0429165921 -0.0315432727
535296790.0 0.0428451814 -0.0312077058 0.3462497981 -0.7154065197 0.3461517622 -0.7155507447 0.043144027 -0.0313729028
540296760.0 0.0420842444 -0.0314530772 0.3383238724 -0.7197494902 0.3380845817 -0.7197180934 0.0422889578 -0.0325107529
545296730.0 0.0408038667 -0.0319366352 0.3301738354 -0.7234333653 0.3301540913 -0.7224779932 0.0419598039 -0.0325225684
550296700.0 0.0414299429 -0.0320005475 0.3224508041 -0.7268690719 0.3220873163 -0.7269778492 0.0416706735 -0.0331225843
555296670.0 0.040674356 -0.0326627313 0.3144204891 -0.7308448582 0.3145568516 -0.7305665656 0.0409633196 -0.0340626635
560296640.0 0.0409513858 -0.0330550375 0.3056221715 -0.7334440798 0.3069552534 -0.7337465562 0.0404357625 -0.0338804351
565296610.0 0.0397979531 -0.0333672694 0.2991645995 -0.7370039388 0.2986306943 -0.7363064225 0.040301137 -0.0342495763
570296580.0 0.0391017078 -0.0336866652 0.2900439095 -0.7398940832 0.290483691 -0.740309347 0.0397713728 -0.0350755804
575296550.0 0.0388789767 -0.0343823263 0.282424112 -0.7431915745 0.2825587154 -0.7440260243 0.0390766719 -0.0352563608
580296520.0 0.0386845226 -0.034506921 0.2746038662 -0.7464215996 0.2739281854 -0.746815043 0.0383488643 -0.0356612405
585296490.0 0.0383080598 -0.0343365615 0.2663741585 -0.7492895652 0.265616565 -0.7491070182 0.0386131291 -0.0356856604
590296460.0 0.0384462484 -0.0350461456 0.2576700226 -0.7523735528 0.2580311991 -0.7527607229 0.0374772153 -0.0360811312
595296430.0 0.0376448007 -0.0351904335 0.2492493105 -0.7549680031 0.2489501751 -0.7551047097 0.0376827544 -0.0370024103
600296400.0 0.0377004036 -0.0353574052 0.2413825779 -0.7579173212 0.2409587636 -0.757539954 0.0370948529 -0.037272064
605296370.0 0.036422223 -0.035951142 0.2331066217 -0.7597395287 0.232666816 -0.7603107751 0.0361177755 -0.037496799
610296340.0 0.036447876 -0.0359140837 0.2247664291 -0.7621509499 0.224477879 -0.7624978962 0.0357023552 -0.0377971061
615296310.0 0.0361132631 -0.0362409848 0.2162686137 -0.7657260519 0.2160122445 -0.7654752892 0.0355354322 -0.0381667984
620296280.0 0.0347682932 -0.0361619865 0.2072274333 -0.7670254273 0.2072381179 -0.7675320879 0.0345408762 -0.0382694602
625296250.0 0.034736308 -0.0366093852 0.1994105264 -0.7699612927 0.1991879461 -0.7698874738 0.0336729407 -0.0387839415
630296220.0 0.0342224597 -0.0366370969 0.1904920045 -0.7721796843 0.1913155794 -0.7716544478 0.0334362252 -0.0390602634
635296190.0 0.0331470885 -0.0366902662 0.1823759634 -0.7738719701 0.1822916388 -0.7737284717 0.0328210299 -0.0393389308
640296160.0 0.0329261779 -0.0371031838 0.1735980159 -0.7763097114 0.173894788 -0.7762242797 0.0318911413 -0.0398284206
645296130.0 0.0328530572 -0.0368329992 0.1655296829 -0.7776770107 0.1654337197 -0.7774811918 0.031394881 -0.0403245203
650296100.0 0.0321034034 -0.0372369924 0.157099644 -0.7800646016 0.1569403623 -0.7797268973 0.0321099454 -0.0407260763
655296070.0 0.031679528 -0.037302865 0.1480602026 -0.7814555858 0.1481794811 -0.7806925093 0.0302862239 -0.0403640563
660296040.0 0.0312004552 -0.0375445838 0.1399155489 -0.7830892272 0.1401774582 -0.7831998345 0.0298310529 -0.0412788727
665296010.0 0.0308283978 -0.0375658522 0.1304456814 -0.7839566526 0.1311210594 -0.7837518035 0.0294133437 -0.0408274014
670295980.0 0.0301615864 -0.0375508264 0.1221430622 -0.7854987996 0.1224343781 -0.7852453903 0.0282184705 -0.0417792257
675295950.0 0.0292323348 -0.0379437327 0.1140823664 -0.7869246922 0.1143890736 -0.7868504251 0.027439866 -0.0414781197
680295920.0 0.0287671021 -0.0379359829 0.1057363478 -0.7874402545 0.1059338934 -0.7879321273 0.0276745485 -0.042246858
685295890.0 0.0285601926 -0.037910593 0.096387145 -0.7899829476 0.0972491736 -0.7891930865 0.0271031732 -0.041608136
690295860.0 0.0273788035 -0.0380533335 0.0885111246 -0.7900217299 0.0880141275 -0.7901513002 0.026285106 -0.0421599984
695295830.0 0.0273105432 -0.0383674496 0.0800616107 -0.7910301425 0.0800809023 -0.7910466014 0.0256480935 -0.0424074209
700295800.0 0.0265475432 -0.0381129602 0.0716262874 -0.7919248101 0.0710880284 -0.7916395399 0.0250523363 -0.0422464429
705295770.0 0.0258322845 -0.0384323629 0.0623728831 -0.7927161097 0.0628227283 -0.7922352284 0.0244159578 -0.0424304122
710295740.0 0.025575874 -0.038612619 0.0544614536 -0.7932019777 0.0540234536 -0.7935421686 0.0240759478 -0.0423966249
715295710.0 0.0246039073 -0.0379576348 0.0453378622 -0.7938168158 0.0454038724 -0.7936705816 0.0230559616 -0.0428930787
720295680.0 0.0246907235 -0.0382529105 0.0368145548 -0.7941770698 0.0369312742 -0.794448953 0.0224506271 -0.043199838
725295650.0 0.0231546541 -0.0382394282 0.0282519915 -0.7944592668 0.0283745469 -0.7945246408 0.0215580314 -0.0423347739
730295620.0 0.0223683524 -0.0387650262 0.0196490736 -0.7945417887 0.0195741319 -0.7939539981 0.0210037746 -0.0421422457
735295590.0 0.0226410845 -0.0385185878 0.0112243167 -0.7952494708 0.0111650749 -0.794965501 0.0201102244 -0.043244583
740295560.0 0.0217340365 -0.0390827094 0.003028661 -0.7948374538 0.0027571762 -0.7951318759 0.0192934845 -0.0425494735
745295530.0 0.0209295126 -0.0384899142 -0.0063469624 -0.7936265883 -0.0057189565 -0.7943739194 0.0180404362 -0.0431139317
750295500.0 0.0200309397 -0.0381754209 -0.0147290407 -0.7949112261 -0.0150128486 -0.7944771806 0.01786077 -0.042706279
755295470.0 0.0193173894 -0.0384487574 -0.0233109878 -0.7951447994 -0.0230629051 -0.7945618955 0.0177288516 -0.0422653591
760295440.0 0.0188444597 -0.0376729621 -0.0328189467 -0.7942341417 -0.0323379438 -0.7937197561 0.0167238406 -0.0437878423
765295410.0 0.0186400346 -0.0385282504 -0.0407916851 -0.7938121399 -0.0405447477 -0.7934555035 0.0161139399 -0.0430083312
770295380.0 0.0177265481 -0.0378292321 -0.0490585835 -0.7925859603 -0.0491937597 -0.7935445443 0.015163369 -0.0428443373
775295350.0 0.0173301057 -0.0383795099 -0.0578440869 -0.7927181785 -0.0576292829 -0.7922583344 0.0149715119 -0.0427151404
780295320.0 0.0163879233 -0.0379274603 -0.066701574 -0.7915754628 -0.0658529958 -0.7912779426 0.0145557616 -0.0429907503
785295290.0 0.0157293024 -0.0384116779 -0.0753888821 -0.7908832299 -0.0747394111 -0.7911782047 0.013033727 -0.0425225333
790295260.0 0.0155007395 -0.0385000387 -0.0833814059 -0.790388191 -0.0833230686 -0.7902294088 0.0126820645 -0.0418693403
795295230.0 0.0147512378 -0.038275281 -0.0922318932 -0.7897397117 -0.0920216032 -0.7890041074 0.0122997842 -0.0431225676
800295200.0 0.013305434 -0.0379739519 -0.1003754037 -0.7880341994 -0.1007093654 -0.7879941638 0.011303457 -0.04226172
805295170.0 0.0126847093 -0.038312712 -0.1089990348 -0.787677318 -0.1090013664 -0.7872592316 0.0113899671 -0.0421883155
810295140.0 0.01278399 -0.0377841649 -0.1178303217 -0.785763459 -0.1177101704 -0.7853613592 0.0105480176 -0.0422219519
815295110.0 0.0119514232 -0.0375124601 -0.1260369345 -0.7841773948 -0.1258178726 -0.7848273859 0.0095255762 -0.0422173117
820295080.0 0.0113389101 -0.0376501393 -0.1338017117 -0.7831517637 -0.1345263706 -0.7828146516 0.0077221694 -0.0411966911
825295050.0 0.0103861822 -0.0378464255 -0.142846658 -0.7816800957 -0.1427819806 -0.7812482651 0.0088328222 -0.0411278538
830295020.0 0.0097302227 -0.0378702067 -0.151300864 -0.7801360332 -0.151466419 -0.7797183008 0.0076516076 -0.0419688275
