!Created with skrf (http://scikit-rf.org).
# Hz S RI R 50.0 
!freq ReS11 ImS11 ReS21 ImS21 ReS12 ImS12 ReS22 ImS22
300000.0 -0.3209688739 -0.0796192134 0.3763613887 0.0424548189 0.3730393307 0.0416019636 -0.3193558768 -0.0999761411
5299970.0 -0.3265441796 0.0044396121 0.3785421198 0.0022618457 0.3782751236 0.0025140701 -0.3240056067 0.004926281
10299940.0 -0.3241447866 0.0133622793 0.3792221721 0.00191466 0.3795467375 0.0021979809 -0.3213835854 0.0157456659
15299910.0 -0.3214638555 0.0202528704 0.3820599823 0.0020477938 0.3818721976 0.0021317987 -0.3181500438 0.0238286551
20299880.0 -0.3188074744 0.0261288915 0.3848736375 0.0017796096 0.3845972222 0.0017378989 -0.3146435665 0.0303276257
25299850.0 -0.3155425653 0.0318253025 0.387753744 -0.0001757364 0.3879460709 3.12293e-05 -0.3109254377 0.0360513755
30299820.0 -0.3127180625 0.0358289602 0.3913072259 -0.0022186518 0.3913676712 -0.0025954787 -0.3069913229 0.0411468812
35299790.0 -0.3098672074 0.0399948037 0.3946815381 -0.005563133 0.394721633 -0.0055049255 -0.3034566304 0.0452959841
40299760.0 -0.3070967195 0.043830177 0.3977800476 -0.0091244568 0.3979975859 -0.0089760228 -0.2999916681 0.048785305
45299730.0 -0.3047185433 0.0466062779 0.4007463373 -0.0127241387 0.40109459 -0.0128718932 -0.2972921301 0.0520254227
50299700.0 -0.3023168155 0.0492847059 0.4035097697 -0.0173377066 0.4033535303 -0.0173565167 -0.2941612993 0.0545352953
55299670.0 -0.3002973763 0.0521487971 0.4057672792 -0.0227182797 0.4056018763 -0.0223359817 -0.2915783385 0.0575184441
60299640.0 -0.2978560305 0.0548103102 0.4071732459 -0.0271002102 0.407637695 -0.0270691907 -0.2889338058 0.0597628563
65299610.0 -0.2962295098 0.057600212 0.4090805336 -0.0321314332 0.4091981566 -0.0320138391 -0.2871073706 0.0619136838
70299580.0 -0.2946490124 0.0599756086 0.4103076036 -0.0369501184 0.4102513206 -0.0371315817 -0.2848244059 0.0639314905
75299550.0 -0.2930871763 0.0625252251 0.4111471716 -0.0421954716 0.4112128621 -0.0423756243 -0.2833439599 0.0659469064
80299520.0 -0.2914565463 0.0648961897 0.4124376342 -0.0478428811 0.4123263642 -0.0475157377 -0.2813502433 0.0681450471
85299490.0 -0.2903308657 0.0667429983 0.4127799944 -0.052374692 0.4128936958 -0.0524696209 -0.2801438425 0.0699180208
90299460.0 -0.2889170574 0.0694942273 0.4131780119 -0.0581460119 0.4135270458 -0.0580835182 -0.278500758 0.0720824915
95299430.0 -0.2873341675 0.0716801701 0.4137389728 -0.063336859 0.413597405 -0.0634388712 -0.2767696695 0.0743856374
100299400.0 -0.2862431209 0.074406561 0.4131872047 -0.0683025069 0.4132107244 -0.0681504362 -0.2752561034 0.0761602826
105299370.0 -0.2852556309 0.0765396451 0.4135177415 -0.0736563975 0.413664563 -0.0738691453 -0.2739585305 0.0781993063
110299340.0 -0.284073152 0.0788711566 0.4134233445 -0.0785763798 0.413013299 -0.0787867102 -0.2730447935 0.0804922143
115299310.0 -0.2826774258 0.0813338077 0.412708621 -0.0838484063 0.4127291498 -0.0839151788 -0.2715196875 0.0823472243
120299280.0 -0.2820850091 0.0832249051 0.4123521027 -0.0890850756 0.4121423725 -0.0890856313 -0.2704889585 0.0845781579
125299250.0 -0.2809983503 0.0854341542 0.4116593447 -0.0941261823 0.4118000401 -0.0940223699 -0.2696152478 0.0863942977
130299220.0 -0.2804467983 0.0882480526 0.4111555345 -0.0993120649 0.4108624037 -0.0992210239 -0.2683361724 0.0884755861
135299190.0 -0.2792141343 0.0907056171 0.4105468858 -0.1041204275 0.4103361499 -0.1041301463 -0.2670471786 0.0909495545
140299160.0 -0.2782721082 0.0933572598 0.4094922217 -0.1094341033 0.4094931968 -0.1094275264 -0.2660786196 0.0934824984
145299130.0 -0.2774556311 0.0958513228 0.4088718222 -0.1141870418 0.4085249147 -0.1141865413 -0.2653252722 0.0957358711
150299100.0 -0.2763889255 0.0983057503 0.4077735614 -0.118772601 0.4073435539 -0.1188681795 -0.2641589518 0.0982662758
155299070.0 -0.2758588177 0.1005973326 0.4070632145 -0.124429761 0.4063370028 -0.1240895516 -0.2629715637 0.1008242824
160299040.0 -0.2744197258 0.1036132561 0.4054784841 -0.1286619168 0.4051993526 -0.1289406084 -0.2628438381 0.1032361312
165299010.0 -0.2736631435 0.1062133697 0.4041219541 -0.1336980599 0.4042268199 -0.1337825561 -0.2612722875 0.1054304659
170298980.0 -0.272733544 0.1085677053 0.4025170246 -0.1387525404 0.4025412561 -0.1386379767 -0.2601786175 0.1082816513
175298950.0 -0.2719792269 0.1113860624 0.4018856128 -0.1430870254 0.401023808 -0.143383647 -0.2595153321 0.1107210548
180298920.0 -0.2710798453 0.1139429883 0.3998859887 -0.147931264 0.3998095676 -0.1475068329 -0.2580999373 0.1134087835
185298890.0 -0.2694556168 0.116275101 0.39821697 -0.152498332 0.3981424157 -0.1526913383 -0.2570038438 0.11595436
190298860.0 -0.2688284617 0.1195899085 0.3970279242 -0.1574770178 0.3971478991 -0.1572232928 -0.2563846328 0.1184645505
195298830.0 -0.2675942055 0.121663961 0.3951611563 -0.1619146615 0.3952420525 -0.162116611 -0.2549597831 0.1209892572
200298800.0 -0.266525917 0.1245307441 0.3934165876 -0.1667187206 0.3932534067 -0.1668935606 -0.2541818574 0.1235638494
205298770.0 -0.2652290938 0.1272988279 0.3912882554 -0.171720608 0.3912443738 -0.1711636997 -0.252986932 0.1258192113
210298740.0 -0.2644011506 0.1301048025 0.3896534179 -0.1755809653 0.3896052405 -0.1758745112 -0.251675652 0.1288045
215298710.0 -0.2634689357 0.1328880672 0.3881072971 -0.1802974047 0.3877136345 -0.1807312203 -0.2510827665 0.1311377508
220298680.0 -0.262016514 0.1352184753 0.38555188 -0.1845421354 0.3857051551 -0.1846369952 -0.2500435258 0.1334556666
225298650.0 -0.2607187435 0.137648254 0.383768503 -0.1889709781 0.3840963105 -0.1890565583 -0.2492854335 0.1357097252
230298620.0 -0.2596945421 0.1411463375 0.3819978897 -0.1935104333 0.3821265175 -0.1936764513 -0.2478759383 0.1385339594
235298590.0 -0.2584616775 0.1438303828 0.3797500024 -0.1983318054 0.3799600167 -0.1978208348 -0.2466247932 0.1410953319
240298560.0 -0.2572110566 0.146438337 0.3776027467 -0.2025556202 0.3773536893 -0.2024501836 -0.2451448763 0.1441309131
245298530.0 -0.2558677055 0.1489419954 0.3757091211 -0.206752658 0.3752509379 -0.2069950575 -0.2441105985 0.1458557796
250298500.0 -0.2541429736 0.1516735996 0.3726329016 -0.21104141 0.3725469136 -0.2106320209 -0.2427290436 0.1487315523
255298470.0 -0.2529745874 0.1540328282 0.3705000476 -0.2147898065 0.3704839629 -0.2148341763 -0.2412867579 0.1508647213
260298440.0 -0.2518154597 0.1567027249 0.3684796348 -0.2194696725 0.3682240308 -0.2191545401 -0.2395345505 0.1536960275
265298410.0 -0.2498367844 0.1601335323 0.3655713366 -0.2235927616 0.3660932277 -0.2233465751 -0.2382804868 0.1561361796
270298380.0 -0.24843129 0.162573861 0.3635898626 -0.2273027564 0.3636567422 -0.2276679986 -0.237086525 0.1586384103
275298350.0 -0.2468681649 0.1652814141 0.3607638698 -0.2321215486 0.3610186715 -0.2317580546 -0.2351863851 0.1608476812
280298320.0 -0.2450114264 0.1679025958 0.3586652532 -0.2359122529 0.3584217861 -0.2360178088 -0.2337160914 0.1635208684
285298290.0 -0.2437086775 0.1707283585 0.3561559102 -0.239987456 0.3557371313 -0.240176464 -0.2319143307 0.1660144177
290298260.0 -0.2418928352 0.1732228963 0.3532129689 -0.2439397706 0.3534856469 -0.2441420379 -0.2303085796 0.1685730613
295298230.0 -0.2399629331 0.1755383875 0.3505826372 -0.2478296101 0.3503450149 -0.2478760067 -0.22787534 0.1706023472
300298200.0 -0.2384999266 0.1784941558 0.3478996155 -0.2519605068 0.3480173153 -0.2519349485 -0.2269181127 0.1733289294
305298170.0 -0.2363606575 0.1807802798 0.344728281 -0.2558975009 0.344872198 -0.2558213537 -0.2246292497 0.1755296227
310298140.0 -0.234998786 0.1833449914 0.3421595998 -0.2597799821 0.3421903399 -0.2599653269 -0.2231655192 0.1780433169
315298110.0 -0.2331877502 0.185747295 0.3394481338 -0.2635221516 0.339208964 -0.2637778848 -0.2212114114 0.180407603
320298080.0 -0.2311294292 0.1882008 0.3361873255 -0.2679107552 0.3362793648 -0.2673288063 -0.2193174358 0.1828447087
325298050.0 -0.2292863912 0.1908141537 0.3331075008 -0.2714848577 0.3332167168 -0.2714828829 -0.2178165466 0.1853194503
330298020.0 -0.2274881229 0.1929949289 0.3298881546 -0.2753477648 0.3300751907 -0.2753569918 -0.2157104869 0.1878424201
335297990.0 -0.2255547203 0.1954341051 0.3268603742 -0.2785014585 0.3270324255 -0.2789223837 -0.2144839404 0.190755087
340297960.0 -0.224169779 0.1978608905 0.3236605554 -0.2822805478 0.3235893755 -0.2826082086 -0.2119813828 0.192804494
345297930.0 -0.2219490076 0.2008616349 0.3205583105 -0.2861737412 0.3201899954 -0.2857935976 -0.210367532 0.1952289581
350297900.0 -0.2199895025 0.202962057 0.3169489184 -0.2895465491 0.3170094839 -0.2895802746 -0.2087214781 0.1980762508
355297870.0 -0.2178203759 0.2056610581 0.3140770892 -0.2926878112 0.3141639357 -0.2927619326 -0.2069597154 0.2003000792
360297840.0 -0.2161379723 0.2084402521 0.3113207771 -0.2964103218 0.3111096137 -0.2962387347 -0.2047197303 0.2025879203
365297810.0 -0.2142701937 0.2108757874 0.3076673887 -0.3001243501 0.3077067864 -0.2998920321 -0.2028485129 0.2050551524
370297780.0 -0.2117968344 0.2129791338 0.3040570613 -0.3030037399 0.3044430026 -0.3032492411 -0.2005723154 0.2073748019
375297750.0 -0.2096681844 0.2156483622 0.3007779758 -0.3063454059 0.301023741 -0.3067129105 -0.1987237296 0.209707958
380297720.0 -0.2073516005 0.2177486539 0.2973299899 -0.3096964544 0.2973970812 -0.3094085934 -0.1968469513 0.2119344527
385297690.0 -0.2055867665 0.220227169 0.2939420364 -0.3131829165 0.2938114736 -0.3130614129 -0.1946121689 0.2145801025
390297660.0 -0.2030429727 0.2228451081 0.2902495804 -0.3160884208 0.2903329345 -0.3161077038 -0.1926800177 0.2162767865
395297630.0 -0.2005011236 0.2251775754 0.2872169647 -0.3191313666 0.2869922689 -0.3195350014 -0.1899426113 0.2188208661
400297600.0 -0.1984213551 0.2275261198 0.2830752506 -0.3228487622 0.2832748463 -0.3227153907 -0.1882527777 0.2209223447
405297570.0 -0.1962555374 0.2296675101 0.2796114691 -0.3254443711 0.2796000755 -0.3256852357 -0.1856620148 0.2230626755
410297540.0 -0.193837338 0.2320159065 0.2764143432 -0.3287360791 0.2766453216 -0.3289564631 -0.183798859 0.2253393951
415297510.0 -0.1912865744 0.2335706228 0.2722477862 -0.332096523 0.2727449361 -0.3316970497 -0.1814674599 0.2273020398
420297480.0 -0.1890945319 0.236109774 0.2688243424 -0.3344797713 0.2688944064 -0.3349678765 -0.179296302 0.2291453115
425297450.0 -0.1865284822 0.2379528895 0.2654130529 -0.3376538915 0.265284273 -0.3378272491 -0.1769857211 0.2316143007
430297420.0 -0.1841610207 0.2403512165 0.2613395973 -0.3400904686 0.2614379062 -0.3400653452 -0.1747153132 0.2330100873
435297390.0 -0.1817779415 0.2425965103 0.2572598371 -0.3429848073 0.2572660678 -0.3433124835 -0.1718727677 0.2349924558
440297360.0 -0.1789933917 0.2447546041 0.2534428664 -0.3462060825 0.2539377329 -0.3460883062 -0.1699096614 0.2367479858
445297330.0 -0.1765693028 0.2465032062 0.250008531 -0.3488148497 0.2499423041 -0.3487214604 -0.1671565512 0.2385821206
450297300.0 -0.1739755339 0.2484400368 0.2461550618 -0.3515327347 0.2462086525 -0.3518990832 -0.1650050041 0.2403652233
455297270.0 -0.1715356255 0.250569168 0.2420108641 -0.3538566334 0.2421486886 -0.3544964943 -0.162278122 0.2423935408
460297240.0 -0.1692167046 0.2524145901 0.2381709885 -0.3563911872 0.2383186936 -0.3566494548 -0.1597919222 0.244346915
465297210.0 -0.1660315414 0.2546125592 0.2345189628 -0.3592648921 0.2343642674 -0.3594456655 -0.1569572006 0.2459400926
470297180.0 -0.1635610067 0.2561851565 0.2301435532 -0.3619456486 0.2305624455 -0.3618752286 -0.1540322444 0.2480827079
475297150.0 -0.1610588922 0.2576770125 0.2263061411 -0.3637719226 0.2264458031 -0.3641074772 -0.1512390327 0.2491310381
480297120.0 -0.158078141 0.2598125428 0.2222268582 -0.3664803679 0.2224070013 -0.3670592376 -0.1488599658 0.2512658012
485297090.0 -0.1556537633 0.261728913 0.2182146717 -0.368854964 0.218480455 -0.3688349311 -0.1459221398 0.2529085852
490297060.0 -0.153028042 0.2635767503 0.2145977294 -0.371500948 0.2142833266 -0.3711267158 -0.143276512 0.2549395541
495297030.0 -0.1504336163 0.265147476 0.2101849986 -0.3735163878 0.2106270523 -0.3737970206 -0.1409513563 0.2565483307
500297000.0 -0.1472344676 0.2669168676 0.2057003085 -0.3757080237 0.2057145412 -0.3754712788 -0.1379627405 0.2586758126
505296970.0 -0.1444311977 0.2687140425 0.2022824365 -0.3777311323 0.2016677885 -0.3781170181 -0.1352939754 0.2598163972
510296940.0 -0.1416255534 0.2704856802 0.1979039998 -0.3803456079 0.1975058213 -0.3801838458 -0.1324483251 0.2615531437
515296910.0 -0.1385961295 0.271717455 0.1935426051 -0.3823537506 0.1934910873 -0.382405186 -0.1297682012 0.2634344079
520296880.0 -0.1360934549 0.2735261079 0.1894660758 -0.3844032349 0.1897719777 -0.3843754337 -0.1271154614 0.2647189608
525296850.0 -0.1328780852 0.2748237595 0.1850468937 -0.3862872893 0.185347011 -0.3863405199 -0.1245086399 0.2664769696
530296820.0 -0.1302030404 0.2766865185 0.181251045 -0.3884422744 0.1809356883 -0.3884806864 -0.1216356417 0.2680812884
535296790.0 -0.1274610036 0.2781245904 0.1769797011 -0.3901789663 0.1770239202 -0.3900614487 -0.1189973046 0.2692287194
540296760.0 -0.1248052527 0.279721893 0.1725602856 -0.3921012511 0.1726131399 -0.3925767463 -0.1164809091 0.2711492774
545296730.0 -0.1216171862 0.2809501876 0.1680344805 -0.3936764416 0.1680690961 -0.3938937404 -0.1137683508 0.2724216773
550296700.0 -0.1182128004 0.2827478945 0.163599654 -0.3957443958 0.1639043676 -0.3960323239 -0.1105897748 0.2734915787
555296670.0 -0.1155873623 0.2836894673 0.1595404629 -0.3974536019 0.1590999456 -0.3975525287 -0.1073476785 0.2753872268
560296640.0 -0.1125147132 0.285493311 0.1549630915 -0.3995205138 0.1551087598 -0.3993518542 -0.1049972434 0.276298146
565296610.0 -0.1096378181 0.2869678583 0.150531565 -0.4010773518 0.1510051968 -0.4008799769 -0.1024278339 0.2776535875
570296580.0 -0.1069197276 0.2878936049 0.1463221594 -0.4029155379 0.1459563714 -0.4025607678 -0.099335434 0.2794194089
575296550.0 -0.1041229285 0.2894622671 0.1419068622 -0.4041534423 0.1418742159 -0.4041744974 -0.0968055257 0.2799527086
580296520.0 -0.1005810423 0.2906656526 0.1376522029 -0.4058713058 0.1374537538 -0.4056581469 -0.093360209 0.2812743721
585296490.0 -0.0977215497 0.2914468726 0.1331262535 -0.4065835169 0.1331642838 -0.407072931 -0.0906165439 0.2824155262
590296460.0 -0.0942920696 0.2928732417 0.1285957611 -0.4081840495 0.1288009337 -0.4081412557 -0.0882464229 0.2836338269
595296430.0 -0.091226344 0.2938061465 0.1240884537 -0.4100448743 0.1237612693 -0.4097362471 -0.0848968581 0.2839117549
600296400.0 -0.0888489901 0.2951247023 0.120004354 -0.4113042462 0.1196571035 -0.410490282 -0.0818457545 0.2850521317
605296370.0 -0.0857857859 0.2959140708 0.11540286 -0.4121625352 0.1153436229 -0.4120801446 -0.0785464387 0.2862185535
610296340.0 -0.0820675799 0.297072954 0.1104896841 -0.4133244271 0.1106876161 -0.4132576068 -0.0754333258 0.287101374
615296310.0 -0.0789383049 0.2982080026 0.1059397277 -0.4144894014 0.1057400958 -0.4146458916 -0.0723157505 0.287914529
620296280.0 -0.0759965958 0.2986095018 0.101571395 -0.4154914391 0.1012758031 -0.4153813439 -0.069629193 0.2889964483
625296250.0 -0.0730185542 0.2996046694 0.0974540045 -0.4168284484 0.0970426729 -0.4170522385 -0.066208506 0.2896391583
630296220.0 -0.0694094781 0.300766655 0.0921394699 -0.4175613121 0.0922424989 -0.4174667847 -0.0635038196 0.2906329341
635296190.0 -0.0666962695 0.3014874333 0.0876318125 -0.4182635753 0.0879427274 -0.4187422403 -0.0602300491 0.2911478102
640296160.0 -0.0634581139 0.3022818168 0.0836435793 -0.4191435926 0.0836416045 -0.419512943 -0.0572769 0.2919894512
645296130.0 -0.060438953 0.3034190473 0.0788652412 -0.4201099277 0.078874407 -0.4203488723 -0.0539846601 0.2931549105
650296100.0 -0.0567842728 0.3038301844 0.0740934902 -0.420727815 0.0741434927 -0.4209361778 -0.0505255477 0.2930047528
655296070.0 -0.0540517256 0.3046129235 0.0696899448 -0.4214043158 0.0697180247 -0.4219140986 -0.0474803778 0.2940160963
660296040.0 -0.0508163093 0.3054287273 0.0651722103 -0.4226618741 0.065167841 -0.4224494851 -0.0442546032 0.2949082804
665296010.0 -0.047451916 0.3057426235 0.0603883143 -0.4229090547 0.0604793665 -0.423056317 -0.0410586492 0.2956877547
670295980.0 -0.0448854974 0.3068332007 0.0563056798 -0.4236406845 0.0558983766 -0.4237188853 -0.0382198528 0.2959864584
675295950.0 -0.041300992 0.3072649832 0.0513927726 -0.4239680631 0.0515145685 -0.4236013007 -0.0354077224 0.2968639414
680295920.0 -0.0382376045 0.3077640868 0.0468969733 -0.4243822085 0.0464385929 -0.4250522521 -0.0318907729 0.2977878547
685295890.0 -0.0346433259 0.3086072076 0.0421977444 -0.4250875892 0.0419363017 -0.4253080929 -0.0286410401 0.29830181
690295860.0 -0.0317336574 0.3086874301 0.0379082015 -0.4250778047 0.0374493662 -0.4255643066 -0.0257212655 0.298832266
695295830.0 -0.0287522249 0.3092948389 0.0336949393 -0.4256438367 0.0328230676 -0.4258563718 -0.022089794 0.2992096168
700295800.0 -0.0250025669 0.3095234974 0.0281853244 -0.4258513941 0.0281348947 -0.4260188993 -0.0195486202 0.2999839367
705295770.0 -0.0220301351 0.3104003959 0.0235105753 -0.4263342389 0.0239152878 -0.4264792633 -0.0165843423 0.3005352831
710295740.0 -0.0184715533 0.3105024582 0.0194789503 -0.4269974596 0.01925585 -0.4268155978 -0.0134520782 0.3002530722
715295710.0 -0.015624816 0.3106892632 0.0150133112 -0.426901296 0.0143557962 -0.426807532 -0.0102324524 0.300844662
720295680.0 -0.0121726453 0.3110520657 0.0100125752 -0.4271249392 0.010096547 -0.4271215662 -0.0070677518 0.3014791924
725295650.0 -0.0086722009 0.311563092 0.0052420652 -0.4267792719 0.0051879562 -0.4270145366 -0.0039944518 0.3017922797
730295620.0 -0.0054165583 0.311927488 0.0007568264 -0.4265454858 0.000850918 -0.4268137228 -0.0011005367 0.3016927452
735295590.0 -0.0022181393 0.3119058669 -0.0037659154 -0.4270260599 -0.0041964027 -0.4268097834 0.0022906506 0.301691581
740295560.0 0.0008298723 0.3120431602 -0.0084338399 -0.4264859124 -0.0085964619 -0.4268535692 0.0058248568 0.3020155822
745295530.0 0.0042962814 0.3123033182 -0.0136107922 -0.4262771813 -0.0135124623 -0.4265052752 0.0086615027 0.3017902896
750295500.0 0.0076493143 0.3124070528 -0.0176065416 -0.4263267268 -0.0175879109 -0.4266768832 0.0114959581 0.3018864138
755295470.0 0.0110152866 0.3122964471 -0.0225536724 -0.4260100541 -0.0224126779 -0.4260525426 0.015367565 0.3012475128
760295440.0 0.0139757879 0.3121997041 -0.0269746189 -0.4257725875 -0.0270617057 -0.4261384548 0.0178800674 0.3016793146
765295410.0 0.017239578 0.3123119599 -0.0317809164 -0.425446205 -0.0318525293 -0.4257092104 0.0210892345 0.3018136269
770295380.0 0.0205293785 0.3122234964 -0.036008008 -0.4250727529 -0.0366105067 -0.4250531224 0.0241605335 0.3012948098
775295350.0 0.0235422294 0.3118837479 -0.0406747748 -0.4243581331 -0.0407855725 -0.4241843235 0.0269491429 0.3012539643
780295320.0 0.0269462957 0.3118423474 -0.0456539835 -0.4239694329 -0.0452485999 -0.4237517831 0.0301482758 0.300395548
785295290.0 0.0297130919 0.3111513122 -0.0499466866 -0.4231898586 -0.0498151687 -0.4233393052 0.0337969114 0.3006753227
790295260.0 0.0336900043 0.3113599962 -0.0544413997 -0.422597066 -0.0540430675 -0.4226469721 0.0370311098 0.3003157394
795295230.0 0.0367774078 0.3112344554 -0.0593776633 -0.421982656 -0.0589597391 -0.4221473537 0.0405548065 0.3001398123
800295200.0 0.0399503014 0.3108721307 -0.0639291394 -0.4212017232 -0.0636795389 -0.4211034234 0.043466102 0.2997201856
805295170.0 0.043123738 0.3106417863 -0.0683787425 -0.4205299818 -0.0682844086 -0.4210643007 0.0465784875 0.2998729996
810295140.0 0.0463865226 0.3098114528 -0.0726449896 -0.4196167187 -0.0729930972 -0.4198748377 0.0499637696 0.299243036
815295110.0 0.0494530918 0.3095926212 -0.0772169271 -0.4186642164 -0.077106629 -0.4190635369 0.0529915934 0.2987977142
820295080.0 0.0524233021 0.3098561053 -0.0815575296 -0.418017932 -0.0813747444 -0.4181104247 0.0563238648 0.2983543873
825295050.0 0.0564456845 0.3088398705 -0.0860032053 -0.4168732562 -0.0861706777 -0.4172687687 0.0597387762 0.2979487172
830295020.0 0.0592349098 0.3086480474 -0.0905755036 -0.4159785354 -0.0906371781 -0.4161138693 0.0630471946 0.2974323547
