!Created with skrf (http://scikit-rf.org).
# Hz S RI R 50.0 
!freq ReS11 ImS11 ReS21 ImS21 ReS12 ImS12 ReS22 ImS22
300000.0 -0.3258448733 -0.0713697975 0.3789668312 0.0362304612 0.3766166182 0.0349903106 -0.3249395148 -0.0866166878
5299970.0 -0.3267092987 0.0044443243 0.3782909421 0.0023821173 0.3784414451 0.002461296 -0.3245955492 0.005151284
10299940.0 -0.3243748113 0.0134333692 0.3799100703 0.0020025248 0.37977035 0.0021796191 -0.322241621 0.0159324349
15299910.0 -0.3218912838 0.0205072199 0.3821187381 0.0019640093 0.3819359088 0.0020245493 -0.3191608658 0.0235406244
20299880.0 -0.318726152 0.0259730736 0.3845760543 0.0018271837 0.384830232 0.0015819014 -0.3153940897 0.0302064513
25299850.0 -0.3160932353 0.0315766963 0.3882262226 0.0002663355 0.3880992699 0.0001267601 -0.3114342104 0.0355787027
30299820.0 -0.3127827303 0.0354782679 0.3916159342 -0.0021699836 0.3915594168 -0.0020621294 -0.307619129 0.0406358651
35299790.0 -0.3100284576 0.0397718418 0.3947307812 -0.0053485094 0.3951551101 -0.005037545 -0.3044118084 0.044644277
40299760.0 -0.307232474 0.0433066565 0.3978904616 -0.0084403262 0.3979530289 -0.0084263106 -0.3006229129 0.0477592525
45299730.0 -0.3046263384 0.0464438455 0.4006398448 -0.0124440544 0.40123239 -0.0124906848 -0.2976784461 0.0516300914
50299700.0 -0.3024929606 0.0494945049 0.4036644552 -0.0174010733 0.403612706 -0.0169680609 -0.2944355086 0.0540481395
55299670.0 -0.3003595292 0.0518836657 0.4058186945 -0.0220682162 0.4055785825 -0.0217404122 -0.2919117538 0.0566830968
60299640.0 -0.2977923598 0.0548928002 0.4075433669 -0.0267699642 0.4078909124 -0.0266606623 -0.2890942135 0.059226611
65299610.0 -0.2964313345 0.0571759807 0.4093251783 -0.0316258136 0.4090734141 -0.0317228867 -0.2870169609 0.06143406
70299580.0 -0.294764476 0.0598147325 0.4105975649 -0.0367860978 0.4105013996 -0.0368595165 -0.2849005174 0.0634783335
75299550.0 -0.293087313 0.0624094648 0.4114886692 -0.0421564713 0.4113752155 -0.0422492534 -0.2832162045 0.0657233132
80299520.0 -0.2916527668 0.0647578077 0.4126189024 -0.0474784507 0.4127048191 -0.0473117111 -0.2813788031 0.0680921561
85299490.0 -0.2900619541 0.0665964063 0.412763222 -0.0524086344 0.4125434332 -0.0522264877 -0.2797070746 0.0697829413
90299460.0 -0.2887167857 0.0694820789 0.4132186388 -0.0578526192 0.413502175 -0.0577805907 -0.2780824606 0.0724687089
95299430.0 -0.2874570212 0.0714834397 0.4138323807 -0.0631681611 0.413743881 -0.063121305 -0.2766595287 0.0743372565
100299400.0 -0.2863194626 0.0739538364 0.4133520723 -0.0680601014 0.4135708721 -0.0682861179 -0.2750931794 0.0762647198
105299370.0 -0.2850328329 0.0763948794 0.4131824386 -0.0735289643 0.4138524239 -0.0734685406 -0.2737443976 0.0783475143
110299340.0 -0.2839252939 0.0786207548 0.4133110925 -0.0784617024 0.4131867396 -0.0783734497 -0.2726924171 0.0806928419
115299310.0 -0.2831516826 0.0810157214 0.4132273047 -0.0838343844 0.4130403304 -0.083761341 -0.2716758714 0.0827143792
120299280.0 -0.2820486708 0.0828564421 0.4125471308 -0.088545893 0.4125110036 -0.0886887938 -0.2703769649 0.0848875815
125299250.0 -0.2811334877 0.0853475829 0.4116803388 -0.0938867458 0.4123307057 -0.0936751884 -0.2698882773 0.0868755408
130299220.0 -0.2802596175 0.0880950271 0.4111331456 -0.0990112732 0.4113169534 -0.0988799482 -0.2686994695 0.0888707671
135299190.0 -0.2794447359 0.0906959134 0.4108994365 -0.1039453738 0.410635648 -0.1040143639 -0.2676336194 0.0913029077
140299160.0 -0.278645715 0.0933001816 0.4100006711 -0.1094236803 0.4097842801 -0.1089490993 -0.2665316431 0.094071307
145299130.0 -0.2776850978 0.0958949096 0.4092337286 -0.1141310333 0.4086755404 -0.1138393449 -0.2658257766 0.0959870501
150299100.0 -0.2762254823 0.0984539555 0.407781879 -0.1185523569 0.4081485037 -0.1184187874 -0.2650461998 0.0988933258
155299070.0 -0.2760303573 0.100761945 0.4072254731 -0.1238297157 0.4068849084 -0.1237943868 -0.2635871752 0.1010452397
160299040.0 -0.2747142105 0.1034652085 0.4055788692 -0.1288315656 0.4057005297 -0.1286168393 -0.2632847051 0.1032820845
165299010.0 -0.2737488517 0.1060459269 0.4043264984 -0.1335446572 0.4046035247 -0.1337736043 -0.2619345531 0.1059853331
170298980.0 -0.2729138709 0.108753591 0.402864576 -0.1383753267 0.4034433039 -0.1384078159 -0.2607696236 0.1083254248
175298950.0 -0.2720267253 0.1114580809 0.4020489532 -0.1430189585 0.4016863204 -0.1429535551 -0.2602134277 0.1110365838
180298920.0 -0.27127222 0.1140490193 0.4004588436 -0.1478415297 0.399993495 -0.1475343602 -0.2590057834 0.1134615708
185298890.0 -0.2694995349 0.1162230715 0.3983953272 -0.1523428155 0.3985347679 -0.1523035813 -0.2579998452 0.115939165
190298860.0 -0.2692547501 0.1194468626 0.3973701994 -0.1572962581 0.3973401911 -0.157323497 -0.2568296223 0.1180055968
195298830.0 -0.2680140166 0.1218545287 0.3952705156 -0.1618655889 0.3956106659 -0.1616660077 -0.2558700371 0.120516937
200298800.0 -0.2666401225 0.1244682946 0.3935114679 -0.1664860862 0.3939470189 -0.1666778188 -0.2549051527 0.1232807116
205298770.0 -0.2657111455 0.1272075835 0.3916902735 -0.171366914 0.3918963031 -0.1709242614 -0.2537793368 0.1252354443
210298740.0 -0.2644050728 0.1298771564 0.390014748 -0.1754726527 0.3900434983 -0.1753870876 -0.2522659866 0.1281965889
215298710.0 -0.2637955407 0.1328619223 0.388508871 -0.1801764482 0.3881130861 -0.1802829635 -0.2514710148 0.1307449391
220298680.0 -0.2621994387 0.1350009107 0.3857623041 -0.184471736 0.3861343694 -0.1845577123 -0.2503057044 0.1327690091
225298650.0 -0.2610315503 0.1376679319 0.3839072253 -0.1890754789 0.3842568195 -0.1889709647 -0.2491126175 0.1355708648
230298620.0 -0.2597395283 0.140805945 0.3820495631 -0.1931246798 0.38257857 -0.1935284406 -0.2478662765 0.1383005926
235298590.0 -0.2584001677 0.1434503317 0.3799426481 -0.1977493604 0.3799710466 -0.197571771 -0.2464864734 0.141090251
240298560.0 -0.2570465764 0.1461047257 0.3778271576 -0.2021107069 0.37805846 -0.202251506 -0.2454975913 0.1436691733
245298530.0 -0.2562993076 0.1487247 0.3761119799 -0.2062921773 0.3758108449 -0.2064186015 -0.2437632856 0.1455888039
250298500.0 -0.2539991788 0.1517271789 0.3729712867 -0.2108570866 0.3728743975 -0.2103807761 -0.2424114993 0.148119982
255298470.0 -0.2530821082 0.1540520293 0.3706799751 -0.2145156766 0.3711816061 -0.2146066912 -0.2411479206 0.1507967785
260298440.0 -0.2518738977 0.1566460741 0.3686276546 -0.2194168683 0.3686888237 -0.2190761615 -0.239539093 0.1536910476
265298410.0 -0.2499587472 0.1599618979 0.3661307459 -0.2236561703 0.3665179874 -0.2232588236 -0.2381500462 0.1564574595
270298380.0 -0.2488263891 0.1625253898 0.3638031345 -0.2272646149 0.3638866105 -0.2272521096 -0.2368077126 0.159002238
275298350.0 -0.2470942344 0.1650679494 0.3612191544 -0.2318455938 0.3613345519 -0.2310762204 -0.2349884868 0.1612141927
280298320.0 -0.2450356463 0.1677639995 0.3588047085 -0.2358761311 0.3590338247 -0.2352593006 -0.2333561204 0.1639076487
285298290.0 -0.2436593897 0.1706705598 0.3563472088 -0.2393346933 0.356296601 -0.2395646039 -0.2318906221 0.1661893478
290298260.0 -0.2417768534 0.1732754514 0.3533939056 -0.2436762623 0.3537457162 -0.2437815304 -0.2303306881 0.1689427453
295298230.0 -0.2399951527 0.1758090229 0.3513010134 -0.247608217 0.3510740436 -0.2475600934 -0.2286730816 0.1712080934
300298200.0 -0.2388236444 0.1781615654 0.3483351978 -0.2514398029 0.3487545009 -0.2515828256 -0.2270902397 0.1740214579
305298170.0 -0.2365162137 0.1803605588 0.3451608009 -0.2557857956 0.3454555273 -0.2554341283 -0.2247932583 0.1761869892
310298140.0 -0.2349494302 0.1836554102 0.3423330119 -0.2597429523 0.3427454649 -0.2593587061 -0.223663217 0.1786205036
315298110.0 -0.2333695496 0.185726083 0.3396558056 -0.2635766728 0.3398716118 -0.2631000834 -0.2216664208 0.181183414
320298080.0 -0.2310341425 0.1883900251 0.33628875 -0.2673951872 0.3370598027 -0.267291373 -0.2200066975 0.1838327137
325298050.0 -0.2295847546 0.190755701 0.3338824742 -0.2714324832 0.3338590267 -0.2711388711 -0.2183053802 0.1857293928
330298020.0 -0.2276937417 0.1931233962 0.3301885352 -0.2749676278 0.3306983487 -0.274699282 -0.2167432621 0.1881934258
335297990.0 -0.2258783713 0.1958613754 0.3274554913 -0.2784095093 0.3275810934 -0.2785151548 -0.2154501439 0.1908879723
340297960.0 -0.2242551715 0.1982043127 0.3239579916 -0.2821264268 0.3239203392 -0.2823942979 -0.2128430991 0.1931800726
345297930.0 -0.2221648755 0.2008791246 0.3208413128 -0.2862016363 0.3207825307 -0.286120243 -0.2112453381 0.195516977
350297900.0 -0.2202071025 0.2031992481 0.3174106238 -0.2895152042 0.3174768992 -0.2893600571 -0.2097393987 0.1978164259
355297870.0 -0.2180367229 0.2061827794 0.3142586389 -0.2928176423 0.3144732145 -0.2924465373 -0.207663611 0.2000462174
360297840.0 -0.2161757114 0.2081986731 0.311375634 -0.2959153257 0.3114820389 -0.2959393703 -0.2053230687 0.2028496602
365297810.0 -0.21432708 0.2109769391 0.3078900833 -0.2995982794 0.3082071994 -0.2999421585 -0.2036114214 0.2049296942
370297780.0 -0.2118681389 0.2131728529 0.3043254162 -0.3026678333 0.3048249048 -0.3028459892 -0.2012582064 0.2073681156
375297750.0 -0.2098334716 0.21575125 0.3013115015 -0.3062579679 0.301781043 -0.3064870918 -0.1992817729 0.2093285275
380297720.0 -0.2075946752 0.2178546451 0.2978434651 -0.3095443145 0.2979447526 -0.3092005723 -0.1973496436 0.2115940971
385297690.0 -0.2055941699 0.2203121655 0.2945339785 -0.313007566 0.2941263054 -0.3127526896 -0.1949654497 0.2139744464
390297660.0 -0.2034040707 0.2224234235 0.2909981153 -0.3161280143 0.2910378819 -0.3158307151 -0.1929957185 0.2159905397
395297630.0 -0.2009240828 0.2250775192 0.287214409 -0.3194086945 0.2874818355 -0.3192892901 -0.1904979819 0.2184378094
400297600.0 -0.1986761507 0.2275584981 0.2838353078 -0.3226013836 0.2841563093 -0.3223212671 -0.188021934 0.2203211231
405297570.0 -0.1966355536 0.2296773789 0.280282671 -0.3253750746 0.2804685928 -0.3254654971 -0.1860062804 0.2226976443
410297540.0 -0.1939115287 0.2316946985 0.2767801752 -0.3283407227 0.277149502 -0.3286623046 -0.1838250443 0.2253036863
415297510.0 -0.1914450273 0.2338877847 0.2727848822 -0.331664183 0.2733732836 -0.3318808741 -0.1815292684 0.2269648651
420297480.0 -0.1894119756 0.2362740391 0.2691404785 -0.3344237494 0.2695148544 -0.3346614589 -0.1790386387 0.2288331536
425297450.0 -0.1866126921 0.2381582696 0.2657997434 -0.337363079 0.266076367 -0.337487607 -0.1770282563 0.2310829012
430297420.0 -0.1843882065 0.2400333872 0.2619615184 -0.3399384534 0.2622253354 -0.339941701 -0.1747758577 0.2332351034
435297390.0 -0.1820444531 0.2426060861 0.2579940351 -0.3430827186 0.2580041464 -0.3430206272 -0.1717321309 0.2351723815
440297360.0 -0.1794767297 0.2444278332 0.2543841565 -0.3457245757 0.2545082911 -0.3458782195 -0.169495792 0.2370454386
445297330.0 -0.1769498429 0.2465588436 0.2508302258 -0.348444968 0.2505381722 -0.3485578046 -0.1670809033 0.2389244137
450297300.0 -0.1741957796 0.2482716721 0.2465649814 -0.3511507659 0.2467238714 -0.3516017206 -0.164679822 0.2407492461
455297270.0 -0.171847095 0.250502717 0.2427291923 -0.3539632228 0.2430624459 -0.3537588595 -0.1619751578 0.2428132814
460297240.0 -0.1692756496 0.2525861899 0.238912851 -0.3567101332 0.2389107121 -0.3565825189 -0.1597386296 0.245232024
465297210.0 -0.16629754 0.2547845598 0.2348498177 -0.3593207456 0.2349576445 -0.3592487035 -0.1570645706 0.246273256
470297180.0 -0.1635306716 0.2562521262 0.2305800132 -0.3618769948 0.2310212532 -0.3618588593 -0.1544989461 0.248792634
475297150.0 -0.1610270577 0.2580257587 0.226736075 -0.3640086009 0.2271830245 -0.363977558 -0.1517324381 0.2501310845
480297120.0 -0.1583648987 0.2600399648 0.2227437332 -0.3666839131 0.2231076881 -0.3669774813 -0.1489637469 0.2520565522
485297090.0 -0.1556221399 0.2618756815 0.2188872402 -0.368839734 0.2189827321 -0.3688113577 -0.1464965628 0.2534606762
490297060.0 -0.1532293366 0.2639114636 0.2150684141 -0.3715263934 0.2151097297 -0.3707160127 -0.1443045664 0.2553698078
495297030.0 -0.150319008 0.2656794192 0.2106149259 -0.3735649607 0.2113167682 -0.3734707772 -0.1415845556 0.2572681129
500297000.0 -0.1473941915 0.2672967667 0.2068637871 -0.3760041773 0.2064166242 -0.3757256146 -0.1383436164 0.2592454543
505296970.0 -0.1445169597 0.2689748582 0.202622654 -0.3778685806 0.2024487151 -0.378149111 -0.1360285367 0.2605736592
510296940.0 -0.1416496465 0.2707518768 0.1979874614 -0.3802491519 0.1981165657 -0.3803788849 -0.1332480271 0.2620259644
515296910.0 -0.1386479036 0.2723681552 0.1939238761 -0.382278423 0.1942247779 -0.3821796778 -0.1306132202 0.2638342945
520296880.0 -0.1365417989 0.2737556487 0.1899352621 -0.3847837155 0.1898907708 -0.3843624784 -0.1278295211 0.2650334375
525296850.0 -0.1333297366 0.275149771 0.1857297075 -0.3862079707 0.1859276625 -0.3865094603 -0.1252858046 0.2663682426
530296820.0 -0.1301353402 0.2768017378 0.1815262838 -0.3885927877 0.1816390701 -0.3885004795 -0.1221651374 0.2683827738
535296790.0 -0.12775888 0.2782892049 0.177552901 -0.3901171389 0.1773637576 -0.390199358 -0.1198169007 0.2691885334
540296760.0 -0.1249770902 0.2798068647 0.1735332059 -0.3921275938 0.1727235457 -0.3923893585 -0.1167950352 0.270866058
545296730.0 -0.1219159347 0.2815417249 0.1684172239 -0.3938791694 0.1687214524 -0.3939472946 -0.114067879 0.272187575
550296700.0 -0.1185627766 0.2830146721 0.1643644956 -0.3959071953 0.1646893402 -0.3957129769 -0.1113678066 0.2734411612
555296670.0 -0.1161079071 0.2838074927 0.1602323684 -0.3973374648 0.1603333746 -0.39726464 -0.1082158563 0.275025869
560296640.0 -0.112531835 0.2858360228 0.1556414511 -0.3995460534 0.1557865295 -0.3993317539 -0.1051025943 0.2763180684
565296610.0 -0.110177438 0.2866660966 0.151210596 -0.4005213136 0.151094144 -0.4007255835 -0.1023994728 0.2773293121
570296580.0 -0.1074240445 0.2880866848 0.1471665453 -0.4027369097 0.1468094691 -0.4025690461 -0.0998171678 0.2788416653
575296550.0 -0.1041433875 0.2896662901 0.142717794 -0.4042417802 0.1425275569 -0.4040591059 -0.0965856101 0.2800869719
580296520.0 -0.100906644 0.290991212 0.1381622181 -0.4056791194 0.138112726 -0.4054302442 -0.0933511597 0.2808081182
585296490.0 -0.0983763333 0.2917687939 0.1340411651 -0.4067998224 0.1338114452 -0.407018593 -0.0902893533 0.2825982311
590296460.0 -0.0946715874 0.2929565894 0.1291542058 -0.4079685549 0.1293893673 -0.4082099524 -0.087808763 0.2835502483
595296430.0 -0.0918384662 0.2940763558 0.1244609354 -0.4095214661 0.1246823532 -0.4095476798 -0.0847304395 0.2839998492
600296400.0 -0.0888980835 0.2953924244 0.1203924245 -0.4109938096 0.1204829653 -0.410909271 -0.0818761207 0.2853436878
605296370.0 -0.0858703972 0.2959879072 0.116018137 -0.4120854012 0.1159540818 -0.4120756387 -0.0785191549 0.2865474561
610296340.0 -0.0827100518 0.2974736202 0.111023548 -0.4132496812 0.1113730973 -0.4133288705 -0.0756196072 0.287314562
615296310.0 -0.0791109692 0.2983804233 0.1066497882 -0.4143233863 0.1067519872 -0.4147186945 -0.0722357795 0.2880362897
620296280.0 -0.0764087676 0.2988700011 0.1021383368 -0.4153414487 0.1024760709 -0.4153330618 -0.0697121457 0.2894895785
625296250.0 -0.0732700438 0.3000527 0.0981458736 -0.4163807857 0.0977543656 -0.4168711948 -0.0659331279 0.2902335246
630296220.0 -0.0695480662 0.3011437576 0.0928762537 -0.4177143243 0.092787492 -0.4175316709 -0.0631747584 0.2912582056
635296190.0 -0.0670361207 0.3019344003 0.0887473064 -0.4183612981 0.0887905339 -0.4186549375 -0.0604218893 0.2920204375
640296160.0 -0.0641236727 0.3024726554 0.0844801104 -0.4194333616 0.0844920017 -0.4197036022 -0.0573638172 0.2928322916
645296130.0 -0.0605450383 0.3037255775 0.0794161811 -0.4200595327 0.0798891475 -0.4202232041 -0.0540731588 0.2938863052
650296100.0 -0.0573490273 0.3043415745 0.0749286834 -0.4206694626 0.0753177582 -0.420953664 -0.0509191843 0.2939830651
655296070.0 -0.0542825706 0.3052286471 0.070657521 -0.4218740708 0.0707236305 -0.4218238714 -0.0477032592 0.2947568847
660296040.0 -0.0512628491 0.305629959 0.065933508 -0.4226013436 0.0661282695 -0.4225596682 -0.0447341155 0.2955847321
665296010.0 -0.04741208 0.3062372009 0.0613742185 -0.4229087738 0.061181262 -0.4231108981 -0.0416747957 0.2964868986
670295980.0 -0.0450318463 0.3070344866 0.0568082943 -0.4236149991 0.0566996268 -0.4237899699 -0.0388781326 0.2969671887
675295950.0 -0.0415848745 0.3079225666 0.0522785198 -0.4241650662 0.052705994 -0.4237368256 -0.0360603372 0.297693752
680295920.0 -0.0381817456 0.3082314113 0.0473325253 -0.4243250063 0.0472857649 -0.4250466712 -0.0326864594 0.2984131453
685295890.0 -0.035227089 0.309155966 0.0428010802 -0.4254117182 0.0428137551 -0.4252329524 -0.0295568394 0.2984725011
690295860.0 -0.0316766822 0.3093012818 0.038178222 -0.4250647361 0.0383520106 -0.425622625 -0.0266995102 0.2994999175
695295830.0 -0.0288820223 0.3098117458 0.0339599461 -0.4259363632 0.0335633647 -0.4261041081 -0.0231657327 0.299663639
700295800.0 -0.0251869505 0.310174316 0.0286753279 -0.4264306148 0.0289833996 -0.42608862 -0.0204155705 0.3001272741
705295770.0 -0.022171975 0.3108631437 0.0242392318 -0.4268172055 0.0248408558 -0.4268182411 -0.0171634791 0.3005336856
710295740.0 -0.0186098639 0.3110354735 0.0199372642 -0.427069767 0.0201096962 -0.4271550705 -0.0139414649 0.3004772277
715295710.0 -0.0159505514 0.3114259965 0.0157783349 -0.4268309464 0.0152922419 -0.4268725567 -0.0106236069 0.3003377283
720295680.0 -0.012576364 0.3114948291 0.0105046825 -0.4271992453 0.010939609 -0.4270385991 -0.0074325992 0.3015266043
725295650.0 -0.0091791355 0.3121388533 0.0059557174 -0.4271693886 0.0061526901 -0.4274052068 -0.0046123322 0.3016271657
730295620.0 -0.0057993669 0.3120022667 0.0011943831 -0.4268056935 0.0014968735 -0.4272428007 -0.001546218 0.3012234647
735295590.0 -0.0027726306 0.3126178644 -0.0030924008 -0.4272042908 -0.0033043209 -0.4267380269 0.0015243346 0.3011288413
740295560.0 0.0004204319 0.3125668139 -0.0078585081 -0.4267962917 -0.0079352307 -0.4267978186 0.0053669801 0.3019269279
745295530.0 0.0039455631 0.3129189018 -0.0124357919 -0.426460746 -0.0125799169 -0.4267280129 0.0082669087 0.3014176561
750295500.0 0.007300567 0.3127914137 -0.0171107461 -0.4265903797 -0.0168615614 -0.4267377825 0.0114114598 0.3018815154
755295470.0 0.0103252072 0.3126277686 -0.0213436958 -0.4260901479 -0.0216463709 -0.4266411131 0.0149759038 0.3015302874
760295440.0 0.013405932 0.3127189037 -0.0259448169 -0.4263967629 -0.0260392523 -0.4262604415 0.0179794441 0.3014891023
765295410.0 0.0168553197 0.3127347129 -0.0310296509 -0.425786946 -0.0311745559 -0.4258303239 0.021398047 0.3017661673
770295380.0 0.0200949171 0.31274442 -0.0356577052 -0.4250971261 -0.0356723545 -0.4253835194 0.0242219545 0.301396532
775295350.0 0.0230330476 0.3122870266 -0.0403767854 -0.4245376166 -0.0396834181 -0.4246148891 0.0270516672 0.3016044577
780295320.0 0.0263969055 0.3123422148 -0.0447871629 -0.4236113972 -0.0443092487 -0.42425163 0.0305654045 0.3012241898
785295290.0 0.029587957 0.3118350412 -0.0495946016 -0.4231929913 -0.0489179506 -0.4235155928 0.0343025356 0.3009921543
790295260.0 0.0334357039 0.3121957941 -0.0534657976 -0.4233461336 -0.0533525674 -0.4229375053 0.0372324331 0.3012443611
795295230.0 0.0364060922 0.3119453471 -0.0584368519 -0.4225692563 -0.0579987641 -0.4226560828 0.0404281304 0.3009903355
800295200.0 0.039537469 0.3116147071 -0.0635006661 -0.4215561378 -0.0631039091 -0.4218133046 0.0437071591 0.3005886866
805295170.0 0.0431416223 0.3110953977 -0.067570267 -0.4207610738 -0.0674570787 -0.4211548113 0.0464698771 0.3004851493
810295140.0 0.0460997735 0.3106057496 -0.0719938102 -0.4200726245 -0.0717601203 -0.420351238 0.0499936822 0.3002409942
815295110.0 0.0495955874 0.3103163279 -0.0766639559 -0.4187018575 -0.076072666 -0.4193767941 0.0528149989 0.2997175035
820295080.0 0.0523970858 0.3104165869 -0.0810455829 -0.4186060706 -0.0804309907 -0.4186102708 0.0560533031 0.2995143747
825295050.0 0.0563953153 0.3097573537 -0.0856219746 -0.4172731575 -0.0853222715 -0.4177756742 0.0592166346 0.2989702267
830295020.0 0.0590174941 0.3092645964 -0.0902012535 -0.4164534256 -0.0898504532 -0.4166748655 0.0628892768 0.2983754885
