!Created with skrf (http://scikit-rf.org).
# Hz S RI R 50.0 
!freq ReS11 ImS11 ReS21 ImS21 ReS12 ImS12 ReS22 ImS22
300000.0 -0.7826252143 -0.1496770511 0.0002574232 0.0023218777 -0.0002232106 0.0003251042 -0.2107689587 -0.0910154249
5299970.0 -0.7851707023 -0.0074644297 -0.0001976714 -0.000104618 -0.0001187013 7.9361e-06 -0.2163718369 0.0065224903
10299940.0 -0.7878159121 -0.0041046863 -1.7727e-05 -0.0002079402 -7.24869e-05 0.000161509 -0.2132154792 0.0186552664
15299910.0 -0.7933999235 -0.0018953266 0.0001305585 3.63509e-05 -6.95602e-05 -6.94349e-05 -0.2084572133 0.027741705
20299880.0 -0.7996077204 0.0021621741 0.0001636255 -4.63056e-05 -4.25125e-05 -6.65592e-05 -0.2031045504 0.0359119274
25299850.0 -0.8063784258 0.0082399803 0.0001000291 6.76593e-05 4.85814e-05 0.0001441721 -0.1974446445 0.0416048203
30299820.0 -0.8120664367 0.0166743877 1.85196e-05 0.0001335697 -9.20791e-05 0.000143536 -0.1917913871 0.0462456299
35299790.0 -0.8162781311 0.0253205097 -9.35254e-05 0.0002730473 -0.0001007261 9.62821e-05 -0.1858426464 0.0499431083
40299760.0 -0.821436438 0.0340646431 -7.6992e-06 -6.68427e-05 -1.59326e-05 -3.71747e-05 -0.1804569725 0.0530189312
45299730.0 -0.8247348488 0.044150936 -4.55948e-05 -3.94221e-05 -2.83888e-05 -1.4534e-05 -0.1756323791 0.0551653492
50299700.0 -0.8267256589 0.0543729978 8.39967e-05 -2.06359e-05 2.95161e-05 6.31876e-05 -0.170114077 0.0567302523
55299670.0 -0.828991566 0.064236645 -8.66185e-05 -3.64881e-05 -0.0001100514 5.04581e-05 -0.1664729323 0.058149461
60299640.0 -0.8300903731 0.0747109032 4.93224e-05 -5.85433e-05 0.0001578744 2.91519e-05 -0.162279896 0.0582920089
65299610.0 -0.8309246579 0.0847751391 7.98137e-05 3.42485e-05 2.15004e-05 1.84785e-05 -0.1585442016 0.0590388642
70299580.0 -0.8310282032 0.0946779523 -0.0001557662 7.4399e-05 0.0001294771 -5.91979e-05 -0.1552946967 0.0593474633
75299550.0 -0.8315763717 0.1046717633 -3.4697e-05 -7.98192e-05 -1.69731e-05 0.0001292466 -0.1526093861 0.059623171
80299520.0 -0.8314096002 0.1144447177 -0.000173645 0.0001195837 -3.51297e-05 4.19937e-05 -0.1499433154 0.0595468365
85299490.0 -0.8307892717 0.1243488329 -8.03451e-05 5.31456e-05 0.0001913043 0.0001454717 -0.1478356258 0.0591831813
90299460.0 -0.8295696574 0.1341084109 0.0001413675 0.000162552 -0.0001284714 -8.56169e-05 -0.1453186289 0.0594509796
95299430.0 -0.8285426673 0.1432046308 7.2114e-05 7.85997e-05 -8.66478e-05 -5.30205e-05 -0.1434676779 0.0595781902
100299400.0 -0.8278395662 0.1530266604 0.0001289774 -3.45944e-05 3.70787e-05 0.0002554924 -0.14205198 0.0594977132
105299370.0 -0.8270545093 0.1622727156 -6.27082e-05 1.60706e-05 4.10307e-05 0.0003253477 -0.1396919301 0.0592826132
110299340.0 -0.825571646 0.1712520889 0.0001283597 5.98855e-05 9.02532e-05 -6.61196e-05 -0.1385330159 0.0597451414
115299310.0 -0.8234824276 0.1807828061 -2.27823e-05 0.0001416131 0.0001973312 9.91423e-05 -0.137307023 0.0592887245
120299280.0 -0.8220506396 0.1893622859 -7.94492e-05 0.0001932846 -0.0001345713 -3.16581e-05 -0.1360498401 0.0593982951
125299250.0 -0.8207730602 0.1985925982 -3.5087e-06 8.87996e-05 -0.0001031782 0.000104477 -0.13477355 0.0592158734
130299220.0 -0.8181467388 0.2076350955 0.0001413084 0.0002988261 -3.5808e-05 9.90661e-05 -0.1343186607 0.0595534892
135299190.0 -0.8164467678 0.2164042659 0.0001737583 2.39659e-05 1.2901e-06 -7.38625e-05 -0.1331487182 0.0596581996
140299160.0 -0.814917697 0.225478914 5.16739e-05 0.0001049124 -2.60015e-05 8.27802e-05 -0.1319766889 0.0594985265
145299130.0 -0.8124352921 0.2345391039 2.82586e-05 0.000275354 -0.0001780246 9.7618e-05 -0.1317714496 0.0604446149
150299100.0 -0.8099835155 0.2431333667 9.92767e-05 4.52002e-05 6.59997e-05 0.0001821506 -0.13102792 0.0604400555
155299070.0 -0.8076909355 0.2524254663 0.0001345536 2.71058e-05 6.75355e-05 -2.6397e-05 -0.130225434 0.0608544228
160299040.0 -0.8046014919 0.2616946472 -4.31452e-05 -0.0001672289 -6.29264e-05 0.0001301091 -0.1297032965 0.0615220006
165299010.0 -0.8022680374 0.2697052076 7.94638e-05 0.0002309965 -0.0001307036 2.60717e-05 -0.1287784715 0.0616996925
170298980.0 -0.7995045244 0.278130721 -7.46229e-05 2.94604e-05 0.0001544228 0.0001992834 -0.1282343808 0.0622579851
175298950.0 -0.79676029 0.2873167397 0.0001390354 -2.55886e-05 8.2866e-06 1.26151e-05 -0.1278819243 0.0626555349
180298920.0 -0.7933122348 0.2949983994 7.84251e-05 -0.0001616439 -0.0001006761 0.0001452898 -0.1269779394 0.0632089717
185298890.0 -0.7910987272 0.30430661 9.43075e-05 3.87398e-05 9.50044e-05 1.80272e-05 -0.1272635697 0.0635711869
190298860.0 -0.7874567929 0.3123286865 3.10536e-05 0.0002660937 2.44045e-05 0.0002276988 -0.1260247215 0.0642520694
195298830.0 -0.7843118449 0.3205746081 0.0002231083 7.73106e-05 0.0001399046 -8.95831e-05 -0.1257607497 0.0648515671
200298800.0 -0.7809317668 0.3294927887 1.15587e-05 1.64037e-05 0.0001410218 0.0001403132 -0.1245746451 0.06547881
205298770.0 -0.7774729942 0.3372006246 0.0002649271 -9.23511e-05 0.0001337597 8.56432e-05 -0.1246388641 0.0665027412
210298740.0 -0.7736823162 0.3458935683 0.0002206903 0.0001567461 0.0002153193 2.2286e-05 -0.124033023 0.0670201756
215298710.0 -0.7701298048 0.3538219013 0.0001496635 0.0001080813 0.0001072364 -0.0003136692 -0.1238159298 0.0679884158
220298680.0 -0.7667717603 0.362249973 0.000261658 6.23831e-05 0.0001445514 3.57475e-05 -0.1231832863 0.0687455422
225298650.0 -0.7630305347 0.3710332877 0.0001152536 -2.87377e-05 -2.97325e-05 5.24195e-05 -0.1229038177 0.0699265079
230298620.0 -0.7586346417 0.3784705535 0.0002315544 3.92571e-05 0.0001407895 0.0001496737 -0.1221173752 0.0706046923
235298590.0 -0.7545679528 0.3869783151 -4.89709e-05 -0.0001540793 0.000232968 0.0001061023 -0.1219590085 0.0711603248
240298560.0 -0.7507821309 0.3950532634 0.0001273754 3.51012e-05 -0.0002398988 -3.33717e-05 -0.121467203 0.0721687774
245298530.0 -0.7462901389 0.4030704226 -1.96913e-05 0.0001008464 0.0001697457 8.02549e-05 -0.1209126403 0.0732251935
250298500.0 -0.742280901 0.4111401244 -7.95344e-05 0.0002034473 0.0001168326 -2.4539e-06 -0.1200093541 0.0741494635
255298470.0 -0.7384944759 0.4187106704 1.5388e-05 -0.0001579891 0.0002649874 -3.79378e-05 -0.11964932 0.075011297
260298440.0 -0.7337811102 0.4258909884 0.0002617999 7.45936e-05 0.0001001588 -0.0001202639 -0.1190114907 0.0759329775
265298410.0 -0.7289199583 0.4340065442 4.0278e-06 0.0001764193 3.01283e-05 -3.23573e-05 -0.1185807043 0.0767056893
270298380.0 -0.7241382913 0.4414983355 0.0001619181 -2.28212e-05 0.0001523591 5.25901e-05 -0.1177326533 0.0779558943
275298350.0 -0.7194751811 0.4488778909 7.13631e-05 0.0003449148 0.0001286596 4.81564e-05 -0.1170909299 0.0788224733
280298320.0 -0.7149542571 0.4567203574 0.0002209107 -4.60981e-05 3.86484e-05 0.0001564139 -0.1164722343 0.0796474011
285298290.0 -0.7096130102 0.4645382918 0.0002503579 0.0002328051 0.0002451872 0.0003294321 -0.1161650763 0.0805029103
290298260.0 -0.7054730371 0.4715662696 7.35049e-05 0.0002052666 5.984e-05 7.19998e-05 -0.1153179459 0.081854586
295298230.0 -0.7008728779 0.4796796096 -2.10587e-05 0.0002006509 0.0002389309 0.0001109396 -0.1148132942 0.0830236346
300298200.0 -0.6951219311 0.486360094 0.0002229463 0.0001661022 8.50958e-05 9.34881e-05 -0.1140608696 0.0840827102
305298170.0 -0.689905004 0.4946529446 -4.32239e-05 9.49594e-05 3.21912e-05 0.0002184703 -0.1130004313 0.0852972737
310298140.0 -0.684626873 0.5011312383 -5.15932e-05 5.66887e-05 0.0002566008 -8.35286e-05 -0.1122266767 0.0865131187
315298110.0 -0.6796050005 0.5083854632 -0.0001580607 0.0001203577 0.0002913016 0.0001330948 -0.1118027147 0.08725545
320298080.0 -0.6739304771 0.5157971817 1.71084e-05 0.0002793901 4.58548e-05 0.0001130901 -0.1110168109 0.0880023559
325298050.0 -0.6687505227 0.5224734477 5.84166e-05 -1.0688e-06 1.88077e-05 0.0003003365 -0.1104539465 0.0893532738
330298020.0 -0.6627322557 0.5290806435 9.18846e-05 0.0001386254 3.02942e-05 -5.73386e-05 -0.1098338412 0.0902450534
335297990.0 -0.6569046766 0.5368835036 -0.0001477285 2.03529e-05 -6.43077e-05 -5.17555e-05 -0.1089623743 0.0912511682
340297960.0 -0.6521017991 0.5427454833 0.0001300339 0.0001353296 0.0002902464 0.000202632 -0.1082880424 0.0920587126
345297930.0 -0.6458168758 0.5490148935 1.55853e-05 -5.61105e-05 0.0001572707 0.0001268654 -0.1081755925 0.0935912142
350297900.0 -0.6402444563 0.5557532541 -1.41939e-05 2.33284e-05 6.81124e-05 0.0002604474 -0.1072440092 0.0945466095
355297870.0 -0.6340643954 0.5630215722 8.45849e-05 -1.02295e-05 0.0003586317 0.000182462 -0.1063031086 0.0959156871
360297840.0 -0.6286165121 0.5688186671 0.0003272846 0.0003212149 0.0003886169 0.0001033594 -0.1057010989 0.0973313157
365297810.0 -0.6219113363 0.5760023614 6.31071e-05 2.23061e-05 0.0001161565 0.0001101653 -0.1049686993 0.0983237473
370297780.0 -0.6160744115 0.5818303863 0.0002317615 5.47249e-05 0.0001532464 0.0001433342 -0.1044348829 0.0994586246
375297750.0 -0.6103025778 0.5882376565 0.0002112043 4.2946e-05 4.98119e-05 0.0001691965 -0.1034492891 0.1004243504
380297720.0 -0.6039333214 0.5945171755 0.0001098474 0.0003100406 0.0001459988 0.0001617286 -0.102455219 0.1021747693
385297690.0 -0.5974605682 0.600833989 0.0001879982 -0.0001600531 5.31064e-05 0.0001075441 -0.1017072888 0.1034932405
390297660.0 -0.5913048958 0.6069067699 9.67984e-05 7.17661e-05 5.92183e-05 0.0001240412 -0.100973771 0.1038900788
395297630.0 -0.5853598043 0.6134739948 0.0001277288 0.0001394821 0.000107417 5.7498e-05 -0.1002297986 0.1051446548
400297600.0 -0.5789784096 0.6188690097 0.0002346394 0.000151579 0.0001313365 -2.63642e-05 -0.0998152106 0.1062337053
405297570.0 -0.5726114231 0.6254371765 0.0001941958 9.28326e-05 0.0002233358 -0.0001279359 -0.0986849511 0.1073888414
410297540.0 -0.5656755269 0.6312041003 6.0603e-05 -4.32819e-05 4.81365e-05 0.0001070522 -0.09767435 0.1090920974
415297510.0 -0.5594033767 0.6364494849 0.0003571031 0.0002630169 0.0002545852 6.0385e-05 -0.0968652288 0.1101473817
420297480.0 -0.5516968251 0.6423559293 0.0001926674 -0.0001789395 0.0001709663 4.51123e-05 -0.0962647108 0.11117208
425297450.0 -0.5452364559 0.6479300677 0.0002629901 2.38377e-05 0.0001969154 6.40311e-05 -0.0950209897 0.1120133218
430297420.0 -0.5391836886 0.6538633914 0.0003830939 0.0001262543 0.0001732908 0.0001784004 -0.0942791662 0.1132847702
435297390.0 -0.5317949923 0.6588749336 0.0001664598 0.0001419003 0.0002123606 -3.12076e-05 -0.0930135478 0.1146106259
440297360.0 -0.5249765606 0.6646296599 0.000207757 -4.06509e-05 0.0002381584 0.000193086 -0.0924809115 0.1156126729
445297330.0 -0.5184887417 0.6693261899 0.0003783247 -1.44345e-05 0.0001001529 0.0001025042 -0.0913934979 0.1164311973
450297300.0 -0.5110913997 0.6745437237 0.0001300672 0.0002851756 0.0002951996 0.000100158 -0.0903977657 0.1178414956
455297270.0 -0.5041021582 0.6803498377 0.000252431 -4.53873e-05 0.0002365514 2.92738e-05 -0.0893739501 0.1187705006
460297240.0 -0.497675014 0.6851409623 0.0001087305 -2.87677e-05 0.0003022444 2.09251e-05 -0.0881325048 0.1199298012
465297210.0 -0.4899186828 0.6901576362 0.0002417274 -9.82806e-05 6.53535e-05 0.0003629373 -0.0875877615 0.120843711
470297180.0 -0.4825429243 0.6950906688 2.04987e-05 6.9376e-05 0.0002463903 0.0001522177 -0.0871344483 0.1219163956
475297150.0 -0.4756871491 0.7005725544 0.0002068375 0.0001678059 0.0003082723 4.14192e-05 -0.0853422907 0.1230855387
480297120.0 -0.4686827734 0.7046004664 0.0001112213 0.0001603441 9.1415e-05 6.83134e-05 -0.0843532012 0.1242359496
485297090.0 -0.4619052998 0.7094923846 0.0002229394 0.0002441315 0.0002267 -1.47435e-05 -0.0836793667 0.1250505331
490297060.0 -0.4537985832 0.714392845 0.0003885511 0.0003119862 0.000301218 -6.43387e-05 -0.0824859821 0.1258040513
495297030.0 -0.4471994536 0.7184306607 0.0002942206 -0.0001163232 0.0001635418 6.41256e-05 -0.0813956099 0.1268243188
500297000.0 -0.438344741 0.7233205998 8.96295e-05 -3.48573e-05 0.0001775205 0.0001504406 -0.0803611498 0.1278000118
505296970.0 -0.4313850486 0.7270639411 0.0001202871 0.0001510573 0.000272017 -0.0001664312 -0.0795381228 0.1289721556
510296940.0 -0.4244302397 0.7321643545 7.88394e-05 0.0003854565 0.000249626 2.73299e-05 -0.078198619 0.1300344433
515296910.0 -0.4171600962 0.7355577443 0.0002641561 0.0001735699 0.0003366638 0.0001258242 -0.0773677831 0.1310654035
520296880.0 -0.4089776993 0.7404073092 0.0003292979 0.0002043771 0.0001933914 -5.50634e-05 -0.0763171788 0.1317987814
525296850.0 -0.4016601657 0.7444403749 0.0001859164 3.07256e-05 0.000186005 -1.37976e-05 -0.0749428563 0.1329381521
530296820.0 -0.3946282882 0.7481476013 0.0002972556 0.0003116034 0.0003306486 -6.3692e-06 -0.0740751092 0.133637044
535296790.0 -0.3859302153 0.7523678076 0.0001335393 -0.0001144557 0.0002783277 -0.0001267549 -0.0728422208 0.1343528404
540296760.0 -0.3778766866 0.7556953965 0.0002761013 -3.33029e-05 0.0003180342 -3.8306e-05 -0.071859116 0.1356504679
545296730.0 -0.3710738317 0.7592328997 0.0001054676 0.0001092489 0.0002264816 -5.774e-07 -0.0708450384 0.1360761368
550296700.0 -0.3634659556 0.7637795425 0.0002033076 0.0001182826 0.0004358328 -8.82157e-05 -0.069261385 0.137196457
555296670.0 -0.3545420232 0.7672517782 0.0004565978 0.0002859126 0.0002603874 0.0002830715 -0.0684220225 0.1381215102
560296640.0 -0.3468430761 0.7705005782 0.0001925527 -1.71526e-05 0.0001986285 -3.06185e-05 -0.0669780819 0.1387295043
565296610.0 -0.3390520497 0.7737466589 0.0002538395 2.03679e-05 0.0001672017 -3.89308e-05 -0.0658350612 0.1398901479
570296580.0 -0.3315396609 0.7776046715 0.0002309746 -7.223e-05 0.0003296178 -3.06002e-05 -0.0645632109 0.1408106518
575296550.0 -0.3234602369 0.7805690304 0.0003351445 -6.96817e-05 0.0001204512 8.08617e-05 -0.0633914896 0.1413450167
580296520.0 -0.3151871157 0.7840484847 8.44276e-05 -7.86107e-05 0.0003223565 -0.0001707631 -0.0620592698 0.1427081635
585296490.0 -0.3079897644 0.7866121504 0.0003801457 -5.94729e-05 0.0002729303 -3.34894e-05 -0.0611246712 0.1424963915
590296460.0 -0.2992139313 0.7898930583 0.0004124273 0.0002573025 0.0001487927 -3.24255e-05 -0.0596494627 0.1437215661
595296430.0 -0.2912068812 0.7933368145 0.000162805 4.5964e-06 0.0001517133 0.0001471244 -0.0585606493 0.1441842439
600296400.0 -0.2836541714 0.7953257883 0.000271646 7.6711e-06 0.0002246737 -1.66512e-05 -0.0572093504 0.1452825888
605296370.0 -0.2753765505 0.7989261581 0.0001578805 2.44055e-05 0.0002667512 -9.36749e-05 -0.0558581024 0.1460639023
610296340.0 -0.2679861382 0.8011865739 0.000119194 0.000162398 0.0004273529 -3.18689e-05 -0.054657889 0.1467331017
615296310.0 -0.2591416453 0.8041809404 0.0001150666 0.0001919304 0.0002662696 3.68966e-05 -0.0536889247 0.1476930501
620296280.0 -0.2508150088 0.8060165014 0.0001583566 0.0001160216 0.0004167568 -0.0002254749 -0.0520620215 0.1479043872
625296250.0 -0.2423102526 0.8086797665 0.0003600178 -1.87059e-05 0.0003524712 -5.74679e-05 -0.0507638848 0.1490611753
630296220.0 -0.2340482118 0.8116786784 0.0002956299 6.85601e-05 0.0001446462 0.0001456095 -0.0495451362 0.149724558
635296190.0 -0.226447074 0.8137301037 0.0003732537 -6.0776e-06 0.0002914423 -0.0001925381 -0.0483176255 0.1502826017
640296160.0 -0.217872183 0.8152690418 0.0003348782 -0.0001120309 0.0004366537 -3.71315e-05 -0.0466424751 0.1509293633
645296130.0 -0.2101975787 0.8182891421 0.0001317286 0.0001406776 0.0002474766 -0.0001309232 -0.0457488654 0.151205137
650296100.0 -0.2016152963 0.8202013693 0.0001463001 6.7855e-05 0.0001474449 4.37978e-05 -0.0446148936 0.1522713182
655296070.0 -0.1924842006 0.821959879 0.0001870009 7.13277e-05 0.0003392522 8.87957e-05 -0.0429656731 0.1526519828
660296040.0 -0.1851635 0.8244522093 0.000367727 0.0001595674 0.0003695834 0.0001262067 -0.0418126365 0.1532042256
665296010.0 -0.1765575196 0.8260291994 0.0001553589 7.04883e-05 0.0004244924 -0.0003625514 -0.0402798077 0.1537159324
670295980.0 -0.1679458556 0.827748994 0.0001228788 -3.4061e-05 0.0002964662 0.0001146142 -0.0389152268 0.1544462173
675295950.0 -0.1601121414 0.8285968651 -5.38171e-05 1.36061e-05 8.37379e-05 -0.0001651113 -0.0375758542 0.1552046143
680295920.0 -0.1515115196 0.8311669472 -4.34297e-05 -7.78024e-05 0.0002276007 -7.78338e-05 -0.0361685745 0.155520787
685295890.0 -0.1429811112 0.8320294869 0.0001470464 0.0001181047 0.0002945625 -0.0001082336 -0.0345966644 0.1564064413
690295860.0 -0.1343924379 0.8339173796 -4.13373e-05 5.1761e-05 0.0003347126 9.63344e-05 -0.0332610318 0.1565373088
695295830.0 -0.1262275161 0.8346471552 0.0002456762 -0.0001051876 8.53876e-05 6.57335e-05 -0.0318896366 0.15748788
700295800.0 -0.1177900917 0.8354912859 0.0003186677 0.0002455585 0.0001249239 -7.20578e-05 -0.030309538 0.1578203365
705295770.0 -0.1087351009 0.8372808111 0.000375845 -0.000278348 0.0002346947 6.76027e-05 -0.0291425665 0.1584369929
710295740.0 -0.1013683111 0.8382181353 5.79957e-05 3.65071e-05 0.0002592775 0.0001449658 -0.0279964056 0.159011986
715295710.0 -0.0935287604 0.839131603 0.0004591956 0.0001286497 0.0003401131 0.0001253774 -0.0261753131 0.1591498785
720295680.0 -0.0845173645 0.8392433616 0.0002623095 -2.16607e-05 0.0004077891 -3.53525e-05 -0.0246410943 0.1598238155
725295650.0 -0.0745564409 0.8409427672 0.0003811475 -3.9715e-05 0.0002012973 7.79462e-05 -0.0231457553 0.1599964611
730295620.0 -0.0672616951 0.8417034179 9.13477e-05 -0.0002412907 0.0001269294 -0.0001327437 -0.0217730874 0.1603770788
735295590.0 -0.0583071731 0.8414978467 0.0001775483 1.12184e-05 0.0002135352 0.0001414788 -0.0202718748 0.1607470886
740295560.0 -0.0502198975 0.8426891974 0.0004238007 -8.90618e-05 0.0003680757 -2.43194e-05 -0.0188821833 0.1609988102
745295530.0 -0.0416807383 0.8428156603 0.0002635253 0.0001308258 0.00024459 -1.18267e-05 -0.0173360012 0.1618646744
750295500.0 -0.033313713 0.8433272347 0.0003183857 -0.0001758173 0.0003015169 -2.70909e-05 -0.016202751 0.1617106621
755295470.0 -0.0242779211 0.8434734186 7.78055e-05 9.9635e-06 0.0002581416 0.0001080904 -0.014517392 0.16246127
760295440.0 -0.0158866984 0.8438694594 0.0001988876 -8.98945e-05 0.0003368657 -8.8382e-05 -0.0129900931 0.1625049502
765295410.0 -0.0075697129 0.8435788253 0.0001912389 -4.10698e-05 0.0004395003 9.64122e-05 -0.011383989 0.1632314403
770295380.0 0.0009865196 0.8438738016 0.0004322517 -0.0001268451 0.0002124195 0.0002943169 -0.0100201465 0.1632550318
775295350.0 0.0088146613 0.844139203 5.34578e-05 -0.0003103803 0.0003710999 -8.34232e-05 -0.008881272 0.1634151977
780295320.0 0.0178879816 0.8430681508 0.0001322684 -0.0002202796 0.0002089604 5.53964e-05 -0.0073172136 0.1639965963
785295290.0 0.0257750725 0.8439292314 0.0001376111 -1.41197e-05 0.0004777223 -0.0001033865 -0.0057930299 0.1644514914
790295260.0 0.0345164994 0.8430460896 0.0003785785 -0.0001959928 0.0004594389 -3.89956e-05 -0.003964576 0.1642023747
795295230.0 0.0426999547 0.8433078076 0.0001411966 4.82605e-05 0.0003113956 6.70359e-05 -0.0023702127 0.164902114
800295200.0 0.0512547627 0.842661786 0.0002282888 -8.7859e-06 0.0002274722 -0.0001861844 -0.0008942316 0.1645370419
805295170.0 0.0603406781 0.841794318 0.0002460138 6.7694e-05 0.0002992207 8.9314e-05 0.0004282683 0.1653481008
810295140.0 0.0684366148 0.8408506342 0.0001552211 -0.000138566 0.0003048177 -0.0001779453 0.0021993458 0.1657834801
815295110.0 0.0770143671 0.8399199984 0.0003444434 -7.273e-05 0.0001786935 -0.000130467 0.0037972584 0.165572579
820295080.0 0.0852586032 0.8387003196 0.0003302538 -5.76356e-05 0.0003506531 -9.4994e-05 0.0050953467 0.1658367003
825295050.0 0.0939838706 0.8387524433 3.51585e-05 -4.5858e-06 0.0004235852 -6.45916e-05 0.0070282299 0.1659788927
830295020.0 0.1021116562 0.8377796409 0.0004868787 1.38691e-05 0.0003111749 -0.0001917633 0.0081594776 0.1662993383
835294990.0 0.1098108938 0.8367135728 0.0001234058 -9.83455e-05 0.0003033086 -0.0001009208 0.0101352341 0.166232851
840294960.0 0.1181794674 0.8351014946 0.0002536284 -2.89878e-05 0.0002395173 -0.000141359 0.011183494 0.1665641001
845294930.0 0.1273145282 0.8341573113 0.0004400231 -6.90131e-05 0.0002669117 -0.0002466282 0.0127058164 0.166529496
850294900.0 0.1356434716 0.8328697818 0.0004647684 4.86276e-05 5.65467e-05 -0.0001088697 0.014442154 0.1667156599
