!Created with skrf (http://scikit-rf.org).
# Hz S RI R 50.0 
!freq ReS11 ImS11 ReS21 ImS21 ReS12 ImS12 ReS22 ImS22
300000.0 -0.2415684245 -0.077888161 0.4725170647 0.0532992531 0.469370398 0.0527488783 -0.2426459853 -0.0960976151
5299970.0 -0.2440976433 0.0074069162 0.4734492309 0.0050255084 0.47381261 0.0053344121 -0.2440105732 0.0071068219
10299940.0 -0.2408513849 0.0186622534 0.4751898093 0.0060461992 0.4757618639 0.0068531326 -0.2411345653 0.0203597351
15299910.0 -0.2367634069 0.0280170185 0.4792249159 0.0074550391 0.4795851267 0.0077336024 -0.2365612686 0.0296458662
20299880.0 -0.2320673854 0.0354316532 0.4841308865 0.0087802046 0.4840416498 0.008341108 -0.2309073944 0.0374975921
25299850.0 -0.2270573334 0.041867986 0.4890874045 0.007618667 0.4891508326 0.0075377465 -0.2249644052 0.0439414036
30299820.0 -0.2215132959 0.0470915398 0.4947206984 0.0054482577 0.494633454 0.0054998998 -0.2192898291 0.0491735166
35299790.0 -0.2165034329 0.0513588466 0.500010843 0.0017566836 0.4999354709 0.0023038246 -0.2136464377 0.0532039283
40299760.0 -0.2112116542 0.0549433704 0.5050319276 -0.0019513392 0.5051064588 -0.0017207359 -0.2083603406 0.056199113
45299730.0 -0.2065750364 0.0576964361 0.5095487262 -0.0064128628 0.5100178464 -0.0063565475 -0.203521409 0.0587647144
50299700.0 -0.2023673078 0.0599199975 0.5144332161 -0.0116771706 0.5143025137 -0.0117084633 -0.1986425307 0.0607120171
55299670.0 -0.1983492387 0.0617774417 0.5181157115 -0.0180772302 0.5179167147 -0.0179255607 -0.1944604606 0.0621730254
60299640.0 -0.1944115346 0.0636968354 0.521699197 -0.0241421868 0.5214825664 -0.0241019194 -0.1903053169 0.0631227385
65299610.0 -0.1908588054 0.0645500634 0.5239027864 -0.0307490285 0.5241836685 -0.0305724986 -0.1871283873 0.0638790561
70299580.0 -0.1879938029 0.0661082253 0.5265104827 -0.0370777586 0.5266351197 -0.0369840402 -0.1838759483 0.0649194234
75299550.0 -0.1851152555 0.0671722976 0.5284598391 -0.0440691827 0.5284865144 -0.0442903383 -0.1808520461 0.0652676719
80299520.0 -0.1825746861 0.0681223771 0.5305170611 -0.0510033768 0.5309682348 -0.0509667953 -0.1785352161 0.0658595768
85299490.0 -0.1802044858 0.0687453622 0.5316419757 -0.0574566876 0.5315109415 -0.0574207913 -0.1760036103 0.0660997275
90299460.0 -0.1777129868 0.0697760419 0.5327170184 -0.0650764122 0.5331485524 -0.0642059871 -0.1734507766 0.0665247481
95299430.0 -0.175639109 0.07043237 0.5338281393 -0.0715128821 0.5337826763 -0.0716636287 -0.1713676903 0.0673909283
100299400.0 -0.1737384436 0.0718354737 0.5336673809 -0.0783222621 0.5337283703 -0.0782704995 -0.169048662 0.0674235613
105299370.0 -0.171998203 0.0724174598 0.5343227507 -0.0858407633 0.5345431757 -0.0853035246 -0.1676229647 0.0681410873
110299340.0 -0.1703614564 0.0731074828 0.5348484336 -0.0921446297 0.5342966939 -0.0920066322 -0.1665233933 0.0683085646
115299310.0 -0.1688931014 0.0741623273 0.5345773227 -0.0991437916 0.5345681755 -0.0987704416 -0.164784083 0.0690085116
120299280.0 -0.1674180664 0.0746932138 0.5342451035 -0.1059613468 0.5344518128 -0.106103834 -0.1633810557 0.0695012869
125299250.0 -0.1659430126 0.0755380788 0.533682332 -0.1124290836 0.5339956886 -0.1123911808 -0.1625836111 0.0698439889
130299220.0 -0.1648348883 0.0767059146 0.533227272 -0.1194616202 0.5332428911 -0.1193489228 -0.1609948136 0.0704659815
135299190.0 -0.1636944768 0.0779944311 0.532853251 -0.1259971949 0.5326265343 -0.1258659496 -0.1598402479 0.0711095574
140299160.0 -0.1625105509 0.0789288045 0.5321179472 -0.1326684395 0.531935164 -0.13262413 -0.1587654497 0.0722711581
145299130.0 -0.1614706087 0.0799857514 0.5309534322 -0.1392493518 0.5306774211 -0.1392859058 -0.1579205728 0.0730043157
150299100.0 -0.1602081822 0.0813868524 0.5296791004 -0.145720064 0.5296381458 -0.145510229 -0.1566237453 0.0740970354
155299070.0 -0.159326349 0.0822876027 0.5286249555 -0.152742481 0.5284809775 -0.1522966982 -0.155844694 0.0745823368
160299040.0 -0.158310349 0.0835071421 0.5273659246 -0.1586033879 0.5270226899 -0.1586688913 -0.1555400255 0.0754457059
165299010.0 -0.1573290435 0.0848347314 0.5255426962 -0.1655833251 0.5258040619 -0.1651212449 -0.1542518932 0.0766862371
170298980.0 -0.1565438445 0.0853825666 0.524473204 -0.1715067031 0.5245039708 -0.1715577522 -0.1536237526 0.0775602099
175298950.0 -0.1557585856 0.0870114562 0.523272965 -0.1778700476 0.5228530374 -0.1773759912 -0.1530486913 0.0788526348
180298920.0 -0.1544049218 0.088432631 0.5207920428 -0.1843669925 0.5209501823 -0.1839953986 -0.1517910767 0.0798154738
185298890.0 -0.1532106031 0.0895203338 0.519243569 -0.1902376149 0.5186608914 -0.1901690653 -0.1512295699 0.0810665991
190298860.0 -0.1525717566 0.0910649144 0.5172754599 -0.1965398297 0.5172397297 -0.1964354449 -0.1505291078 0.0817861957
195298830.0 -0.1519565119 0.0922139099 0.5154116274 -0.2025382742 0.5154641201 -0.2025845889 -0.1497630072 0.0831575188
200298800.0 -0.1505974273 0.0935223338 0.5130518433 -0.2090253258 0.5131648366 -0.2087044835 -0.1494778287 0.0841793616
205298770.0 -0.1497316139 0.0951513962 0.5110112717 -0.2151928102 0.5108390729 -0.2147463455 -0.1487521857 0.0847277758
210298740.0 -0.1487321294 0.0961416361 0.5083777673 -0.2205725236 0.5083567586 -0.2205046477 -0.1474856739 0.0867554115
215298710.0 -0.1483854373 0.097810895 0.5066150584 -0.2267926801 0.5063865659 -0.22683342 -0.1472509788 0.0875271246
220298680.0 -0.14712372 0.0991279491 0.5037844346 -0.2323870865 0.5037118916 -0.2326215992 -0.1465703451 0.0885037154
225298650.0 -0.1463631879 0.1004294179 0.501554655 -0.2383116346 0.5016004238 -0.2384418504 -0.1462229317 0.0894204899
230298620.0 -0.1451106639 0.1020153122 0.4991234711 -0.2442937237 0.4994046452 -0.2443854138 -0.145340857 0.0909338744
235298590.0 -0.1441765321 0.1039215002 0.4964089792 -0.2498598288 0.4964479127 -0.2496287773 -0.1444900958 0.0920324231
240298560.0 -0.1431031163 0.1054001075 0.4937995829 -0.2564280354 0.4939637952 -0.2559218067 -0.1439934337 0.0937398478
245298530.0 -0.1423408497 0.1067741505 0.4912547886 -0.2617494588 0.4908833369 -0.2614032505 -0.1430629052 0.0941118992
250298500.0 -0.1408482457 0.1082519523 0.4875227688 -0.267404254 0.4874080825 -0.2668616048 -0.1422849198 0.0956569695
255298470.0 -0.1401001757 0.1090796752 0.4842164079 -0.2725616968 0.4851184904 -0.2723297578 -0.1416284733 0.0966098187
260298440.0 -0.1393486253 0.1106666199 0.4820753317 -0.278730063 0.482375314 -0.2781867201 -0.1405792095 0.098107179
265298410.0 -0.1376525415 0.1125427083 0.4789729326 -0.2839381228 0.4792936964 -0.2836203399 -0.1397014693 0.0995720213
270298380.0 -0.136639182 0.1139172192 0.4760979963 -0.2884853162 0.4760478407 -0.2891878779 -0.139090087 0.1008138043
275298350.0 -0.1350083438 0.1151134436 0.4725731343 -0.2949933064 0.4730717183 -0.2944829813 -0.137727091 0.1018224958
280298320.0 -0.1339411521 0.116827959 0.4698458463 -0.3002571396 0.4694812612 -0.3001202728 -0.1366521031 0.1030856732
285298290.0 -0.1327216124 0.1183297611 0.4664989599 -0.3054982566 0.4665781593 -0.3053330296 -0.1357210099 0.1044104711
290298260.0 -0.1315024163 0.1197359713 0.4633243275 -0.3106391073 0.4630663976 -0.3107955428 -0.134824505 0.1057962252
295298230.0 -0.1303510155 0.1209310274 0.460039452 -0.3157145654 0.4598615779 -0.3155028324 -0.1333348345 0.1065823239
300298200.0 -0.1292008321 0.1222834734 0.456645374 -0.3209337916 0.4566839903 -0.3213933524 -0.1330465319 0.1081484168
305298170.0 -0.1275700309 0.1234312431 0.4523634898 -0.326587546 0.4527808769 -0.3261092062 -0.1312594244 0.1092062938
310298140.0 -0.1263975593 0.1251556142 0.4491863561 -0.3316967264 0.4493668124 -0.3313001893 -0.130230145 0.1103437017
315298110.0 -0.1252391115 0.1262370431 0.4456903216 -0.3364812313 0.4461854142 -0.3366198178 -0.1297872763 0.111425519
320298080.0 -0.1237883564 0.1277968607 0.4414868052 -0.3421706948 0.4419207496 -0.341897297 -0.1285838388 0.1129588279
325298050.0 -0.1226893487 0.1287898832 0.4376958433 -0.34704237 0.4380356787 -0.3471620439 -0.1278495221 0.1139231869
330298020.0 -0.1214501907 0.1299738125 0.4335788028 -0.35214398 0.4339930536 -0.3518522335 -0.1272313267 0.114974949
335297990.0 -0.1199104183 0.1312995444 0.4301426604 -0.3563925456 0.4297196604 -0.3570036404 -0.1266101374 0.1168342001
340297960.0 -0.1190906616 0.1328940541 0.4256385339 -0.3611714568 0.4251939165 -0.36174082 -0.1249320787 0.117958292
345297930.0 -0.1179465471 0.1344866968 0.4215470386 -0.3663359938 0.4216680339 -0.3661566654 -0.124243972 0.1189424821
350297900.0 -0.1164092975 0.1356578076 0.4168547371 -0.3711439555 0.4172792117 -0.3711390692 -0.123345052 0.1209926394
355297870.0 -0.1150910012 0.1375604431 0.4133205417 -0.3755874485 0.4137194249 -0.3751486375 -0.1226294369 0.1220665134
360297840.0 -0.1137437506 0.1390867462 0.4095836196 -0.379900311 0.4100354967 -0.3796890545 -0.1215540924 0.124003471
365297810.0 -0.1125352018 0.1404248876 0.4047423116 -0.3847695717 0.4053249614 -0.3846329385 -0.1200271703 0.1248583623
370297780.0 -0.1107766798 0.1416208618 0.4007643414 -0.3888341271 0.400923529 -0.3882887152 -0.119041251 0.1263448892
375297750.0 -0.1091134075 0.1427039277 0.3961916653 -0.393210736 0.3968076145 -0.3934772661 -0.1178832419 0.1275400694
380297720.0 -0.1076143742 0.1441905023 0.3920941743 -0.3977832331 0.3923069658 -0.3973758884 -0.1171845099 0.1285921853
385297690.0 -0.1063777917 0.1457562458 0.3874361108 -0.4020052681 0.3874142127 -0.4018411329 -0.1157796489 0.1302609758
390297660.0 -0.105093903 0.1467941879 0.3834981712 -0.4059357803 0.3832392389 -0.405772205 -0.1149604278 0.1311523165
395297630.0 -0.1032076558 0.1484560122 0.3785793751 -0.4103646386 0.3790046374 -0.4102113994 -0.1131937787 0.1325996798
400297600.0 -0.1016280357 0.1496224921 0.3738544802 -0.41463512 0.3745022405 -0.4147914102 -0.1123516003 0.134112173
405297570.0 -0.1002556467 0.1508172016 0.3696135642 -0.4185652366 0.3697437992 -0.4179240528 -0.1110328452 0.1350607113
410297540.0 -0.0982658432 0.1521809091 0.3650265472 -0.4228255902 0.3657714569 -0.4227618734 -0.1100211296 0.1365265223
415297510.0 -0.0967565049 0.1529841777 0.3602593785 -0.4266984115 0.3606994729 -0.4266778629 -0.1087594702 0.1373525191
420297480.0 -0.0949862203 0.1549933379 0.3556125606 -0.4306212345 0.3557432926 -0.4306413134 -0.1075489023 0.1386098714
425297450.0 -0.0935679116 0.1553856819 0.3512158552 -0.4342570759 0.3514670364 -0.4345831637 -0.106743201 0.1401045714
430297420.0 -0.0918611269 0.1565344009 0.3461062997 -0.4376083889 0.346311734 -0.4378111819 -0.1054510221 0.1405089225
435297390.0 -0.090368282 0.1578433764 0.3412017919 -0.441476493 0.3410765981 -0.4421356525 -0.1032303219 0.1416993309
440297360.0 -0.0884797389 0.1592668726 0.3362841171 -0.4452913613 0.3367329663 -0.4456557717 -0.1024509077 0.1428730201
445297330.0 -0.0868126761 0.1598930417 0.3318788155 -0.4492259099 0.3315677668 -0.4491523297 -0.1008804822 0.1437414173
450297300.0 -0.0849463685 0.160956786 0.3270338468 -0.4530942068 0.3269619434 -0.4530528547 -0.0994521838 0.1446867372
455297270.0 -0.0831375628 0.1619691876 0.3213842639 -0.4561898494 0.3219462972 -0.4568047293 -0.0983090277 0.1459198932
460297240.0 -0.0814925536 0.1631145842 0.3163934236 -0.4596910253 0.3168224348 -0.4597094434 -0.09650908 0.1470727953
465297210.0 -0.0795931755 0.1642919778 0.3118890207 -0.463429649 0.3115140447 -0.4635271706 -0.0950912094 0.1478351124
470297180.0 -0.0775875709 0.1651464105 0.3062545785 -0.4665914366 0.3065555392 -0.466852721 -0.0933279874 0.1497118047
475297150.0 -0.0759826233 0.1659366071 0.3013515839 -0.4696383344 0.3012486122 -0.4692339831 -0.0920464332 0.1499779172
480297120.0 -0.0741773128 0.1673901336 0.2961018478 -0.4734170834 0.2958605103 -0.473387472 -0.0905074743 0.1513449971
485297090.0 -0.0723629306 0.1681472895 0.2911508611 -0.4762278443 0.2910314591 -0.4759104311 -0.0890350541 0.1521909185
490297060.0 -0.0709557736 0.1692372096 0.2862631855 -0.4799575823 0.2861674214 -0.4793921181 -0.0875015836 0.1534159161
495297030.0 -0.0688695941 0.1699380426 0.2805339628 -0.4824280104 0.2810617303 -0.4822591549 -0.086474755 0.1544522459
500297000.0 -0.0667414103 0.1709827983 0.2753285114 -0.4851379828 0.2750620007 -0.4850503477 -0.0844835226 0.1558684369
505296970.0 -0.0648516152 0.1718314533 0.2699669515 -0.4882879303 0.2701700932 -0.4885904081 -0.0831740453 0.1566415423
510296940.0 -0.0631077794 0.1725846092 0.2644327933 -0.4914064706 0.2644842665 -0.4916369577 -0.0814724345 0.1577008944
515296910.0 -0.0612045937 0.1735568969 0.2591681349 -0.4942279691 0.2593948919 -0.4942998559 -0.0801234015 0.1586067941
520296880.0 -0.0594494565 0.1746508383 0.2541431526 -0.4974202524 0.2540837148 -0.4966846726 -0.0786916371 0.1592561456
525296850.0 -0.0571119077 0.1747472629 0.2479528916 -0.4994273604 0.2487351894 -0.4996032046 -0.0772159801 0.1607635144
530296820.0 -0.0553801313 0.1758976068 0.2432117605 -0.5026249155 0.2431466848 -0.5022686663 -0.0756363028 0.1614552597
535296790.0 -0.0539498991 0.1764900252 0.2378409056 -0.5045465978 0.2379384402 -0.5043972586 -0.0741720951 0.1617672368
540296760.0 -0.0516861673 0.1773990776 0.2320557281 -0.507743315 0.2322362541 -0.5071774941 -0.072760472 0.1632494388
545296730.0 -0.0498477378 0.1781499131 0.2260844291 -0.509736366 0.2262417644 -0.5099956761 -0.0713340356 0.1637732806
550296700.0 -0.0475064469 0.1784791434 0.2207352547 -0.5120550481 0.2209601966 -0.5124251192 -0.069974215 0.1648888856
555296670.0 -0.0457427495 0.1793258059 0.2153846901 -0.5146862872 0.2156963422 -0.5142391838 -0.068361739 0.1661582889
560296640.0 -0.0435678467 0.1803317539 0.209610447 -0.5173010673 0.2100248243 -0.5171109662 -0.0664976729 0.1665994305
565296610.0 -0.0419713542 0.1806415969 0.2038557719 -0.51896897 0.2040540261 -0.5193513608 -0.0651790368 0.1670033209
570296580.0 -0.0400622563 0.1815877386 0.1985757628 -0.5218942404 0.1981871506 -0.5215867153 -0.0635733608 0.1684446727
575296550.0 -0.0380997758 0.1822683471 0.1926867421 -0.5240051331 0.1927985912 -0.5238425918 -0.0618611893 0.1688592237
580296520.0 -0.0356870977 0.182625614 0.18675343 -0.5257984506 0.1870899444 -0.5254227151 -0.0602583032 0.1697800391
585296490.0 -0.0342640141 0.1828156803 0.1815842056 -0.5273217796 0.1817253567 -0.5275362418 -0.0585353803 0.1701879229
590296460.0 -0.0314879241 0.1839466594 0.1754972441 -0.529127745 0.1755616231 -0.5293624231 -0.057599454 0.1711542762
595296430.0 -0.0296572459 0.184026068 0.1696517278 -0.5310523903 0.1698444139 -0.5308415298 -0.0552964059 0.1714239147
600296400.0 -0.0279602455 0.1843873673 0.1640332232 -0.5331081098 0.1642330149 -0.5328597535 -0.0538725118 0.1720934221
605296370.0 -0.025866134 0.1850834527 0.1583597463 -0.5345547737 0.1584711635 -0.5344618319 -0.0520360494 0.1729021094
610296340.0 -0.0237108126 0.1852334573 0.1521774684 -0.5360351878 0.1527365063 -0.5361695595 -0.0503357482 0.173470013
615296310.0 -0.0213111815 0.1854631219 0.1461876593 -0.5375496449 0.1464661046 -0.5383203949 -0.0484286347 0.1740156192
620296280.0 -0.0195516893 0.1858026201 0.1405999843 -0.5392352114 0.1408968602 -0.539176043 -0.0469097652 0.1746592477
625296250.0 -0.017820152 0.1858088136 0.1353162256 -0.5410938894 0.1353487438 -0.5412084466 -0.0448135136 0.1750089992
630296220.0 -0.0149247414 0.1865102613 0.1285187224 -0.5423366122 0.128794264 -0.5422707524 -0.0433337127 0.1758815193
635296190.0 -0.0135397532 0.1866682714 0.1231009809 -0.5434355228 0.1232624684 -0.5437789346 -0.0415615637 0.1762114829
640296160.0 -0.01169236 0.1870378414 0.1174404397 -0.5445327942 0.1172939217 -0.5448732338 -0.0397067603 0.1767386208
645296130.0 -0.0093207282 0.1877590224 0.1111672427 -0.5460145779 0.1117205233 -0.5458516114 -0.0379870126 0.1776519144
650296100.0 -0.0071379275 0.1875669145 0.1049365916 -0.5468868896 0.1054680829 -0.546983305 -0.036166072 0.1773275288
655296070.0 -0.0054567747 0.1878242709 0.0991589547 -0.5483499817 0.1002026073 -0.5487717643 -0.0342233341 0.1784436394
660296040.0 -0.0035808635 0.1880482826 0.0935863638 -0.5492729915 0.093789589 -0.5494520114 -0.0324616287 0.1790518997
665296010.0 -0.0007726493 0.1879250339 0.0872395203 -0.5500862604 0.0878705106 -0.5498618203 -0.0307731117 0.1796287869
670295980.0 0.0002168534 0.1884434195 0.0821236444 -0.5511287988 0.0817297588 -0.5513149917 -0.0293131528 0.180032789
675295950.0 0.00255474 0.1885415542 0.0762492648 -0.5515015535 0.0761024807 -0.5517857641 -0.0275513049 0.1804145891
680295920.0 0.0046429123 0.1883680427 0.0697470249 -0.5522372091 0.0696093398 -0.5526338837 -0.0256045321 0.1813579048
685295890.0 0.0069809171 0.1892263981 0.0636975543 -0.5531966576 0.0635724829 -0.553369831 -0.0238614332 0.1816199813
690295860.0 0.0093608547 0.1888423291 0.0576258264 -0.5536846393 0.0578595266 -0.5541102697 -0.0221477806 0.1826146207
695295830.0 0.0111238021 0.1890520607 0.0523554474 -0.554483253 0.0514862905 -0.5544375155 -0.0203322015 0.1823689756
700295800.0 0.013459946 0.1886407696 0.0457264032 -0.5547042954 0.0459119248 -0.5548102572 -0.0189954245 0.1836110705
705295770.0 0.0150954141 0.1891556235 0.0395838512 -0.5553779533 0.0401967566 -0.5554508797 -0.0172088931 0.1836377897
710295740.0 0.0174554996 0.188891444 0.034113257 -0.5558643857 0.0341275722 -0.5562466385 -0.0153393569 0.1835716997
715295710.0 0.0189104818 0.1887721629 0.0285639269 -0.55601904 0.0277894175 -0.5560438635 -0.0132549158 0.183956492
720295680.0 0.0214271957 0.1887689919 0.0223188001 -0.5569067821 0.0222068241 -0.5563372062 -0.0117188944 0.1845988806
725295650.0 0.0237821949 0.1888347076 0.0159630081 -0.5567003059 0.0160192637 -0.5569523833 -0.0102742114 0.1849505281
730295620.0 0.0259553531 0.1890600584 0.0097243219 -0.5565963214 0.0101031544 -0.556731853 -0.0084953463 0.1849137574
735295590.0 0.0276720978 0.188395616 0.0041999478 -0.5568175571 0.003994623 -0.5567185462 -0.0070014583 0.1846783109
740295560.0 0.0296292734 0.1885156009 -0.0022222828 -0.5563877333 -0.0020444317 -0.5564565496 -0.004482269 0.1855062277
745295530.0 0.0318033105 0.1883920559 -0.0081731604 -0.5557755744 -0.0081829986 -0.5566105132 -0.0032090268 0.1851862018
750295500.0 0.0341372574 0.1880506969 -0.0137984225 -0.5560521708 -0.0137345617 -0.5563686577 -0.0011927828 0.1854956436
755295470.0 0.0361610906 0.1877740494 -0.0201720861 -0.5563240546 -0.0200726848 -0.5564289391 0.0008960156 0.1854242776
760295440.0 0.0381168286 0.1875178003 -0.0262440067 -0.5562709348 -0.0260815106 -0.5564678537 0.0024082268 0.1855761834
765295410.0 0.0396190186 0.1869206402 -0.0319922029 -0.5551782319 -0.032177694 -0.5556276562 0.0040535776 0.1858655087
770295380.0 0.0418094595 0.1868856933 -0.0379366137 -0.555331218 -0.0379172114 -0.5548354553 0.0059518827 0.1855268132
775295350.0 0.0437023379 0.1861245786 -0.0441635171 -0.5544785601 -0.0437120731 -0.5547874931 0.0071405854 0.1860727028
780295320.0 0.0462716055 0.1860091755 -0.0500198437 -0.5538778912 -0.0494480527 -0.5538635434 0.0094504243 0.1855891222
785295290.0 0.0478953363 0.1850808085 -0.0564678874 -0.5526720299 -0.0555718528 -0.5535138132 0.0119474332 0.1860794373
790295260.0 0.0506184665 0.1854404174 -0.0616644205 -0.5526596471 -0.0610335047 -0.5527423506 0.0134096139 0.1860865356
795295230.0 0.0522727525 0.1846150749 -0.0677021475 -0.5518359259 -0.067232398 -0.5520599044 0.0155999446 0.1863901886
800295200.0 0.0540766666 0.1845740595 -0.0739952499 -0.5510003624 -0.0736690864 -0.5510806444 0.017237776 0.1862083446
805295170.0 0.0564016813 0.1837552862 -0.0797531578 -0.5505103504 -0.0793841965 -0.5507991337 0.0188376657 0.1860484127
810295140.0 0.058079932 0.1829918074 -0.0853147372 -0.5490391685 -0.085533664 -0.5494183478 0.0207511245 0.1862509482
815295110.0 0.0604353347 0.1822837268 -0.0914503611 -0.5477994125 -0.0913748642 -0.5484357406 0.0228780071 0.1860667282
820295080.0 0.0619881244 0.1824669204 -0.0970204149 -0.5468367039 -0.0968841449 -0.5472969978 0.024644222 0.1860641359
825295050.0 0.0646647088 0.1817286962 -0.1030655395 -0.5457843337 -0.1028294855 -0.5461994955 0.0265600378 0.1861222431
830295020.0 0.0663043475 0.1812330081 -0.109340474 -0.5448788155 -0.1089068491 -0.5445931931 0.0289840772 0.1860124351
