!Created with skrf (http://scikit-rf.org).
# Hz S RI R 50.0 
!freq ReS11 ImS11 ReS21 ImS21 ReS12 ImS12 ReS22 ImS22
300000.0 -0.2370445774 -0.1154617868 0.4666830826 0.0744555044 0.4705738559 0.0779592291 -0.236560834 -0.1183515509
5299970.0 -0.2407571044 0.0070075804 0.4750769073 0.0054127054 0.4755113308 0.0060873912 -0.2447766646 0.0051798104
10299940.0 -0.2370437649 0.0199550344 0.4769842975 0.0064296683 0.476779668 0.0067437062 -0.2414518474 0.017373137
15299910.0 -0.2329301973 0.0297322192 0.480466905 0.0079139035 0.480422207 0.0076681751 -0.2373285869 0.0264234462
20299880.0 -0.2273193657 0.0376469144 0.4853379818 0.0084054616 0.4852236173 0.0082810741 -0.2327723905 0.0339700877
25299850.0 -0.2217348103 0.0443309925 0.4905780553 0.0069930875 0.490685342 0.0069689615 -0.2278864797 0.0399038054
30299820.0 -0.2157045481 0.0494654035 0.4959562789 0.0051686394 0.4954717739 0.0050920893 -0.222501923 0.0448458014
35299790.0 -0.2098915619 0.0540383447 0.501055667 0.0015399082 0.5013978409 0.0015342844 -0.2171908693 0.0488890434
40299760.0 -0.2045588826 0.0569963227 0.506194106 -0.0018287641 0.5060882554 -0.002409681 -0.2125424174 0.0522054508
45299730.0 -0.199538454 0.0599144921 0.5110216441 -0.0072951136 0.5109393659 -0.0071348379 -0.2080480836 0.054756475
50299700.0 -0.1943983308 0.0619503788 0.5148006413 -0.012715747 0.5152281066 -0.0127361185 -0.2035403786 0.0567628455
55299670.0 -0.1906841475 0.0635274336 0.5182658507 -0.0183529522 0.5187425065 -0.0184013871 -0.1998455114 0.0580416336
60299640.0 -0.1864584118 0.0648868116 0.5218517182 -0.0250745599 0.5222163091 -0.0247201562 -0.1960946105 0.0596330426
65299610.0 -0.1832034343 0.0663525245 0.5252489189 -0.0306377141 0.5250802281 -0.031113912 -0.1928923763 0.0606976329
70299580.0 -0.1794718607 0.0669712105 0.5270660293 -0.0377103962 0.5271630679 -0.0376507214 -0.1898685042 0.0615507661
75299550.0 -0.1765563144 0.0681003881 0.5294631982 -0.0443922368 0.5290029546 -0.0446587295 -0.1870543887 0.062668461
80299520.0 -0.1740516417 0.0689123121 0.5311705094 -0.0516751682 0.531226368 -0.0513612915 -0.1848866072 0.062955425
85299490.0 -0.1713075926 0.0690759237 0.5322500049 -0.0581318835 0.5322874274 -0.0584784015 -0.1826635986 0.0638116647
90299460.0 -0.1690612082 0.0703930198 0.5334137657 -0.0654659001 0.5338512342 -0.0652247181 -0.1802886436 0.0646488625
95299430.0 -0.1672263189 0.0712264272 0.5346933864 -0.0727837472 0.5343650657 -0.0722765358 -0.1784385072 0.065361431
100299400.0 -0.1654332437 0.0719591075 0.5345085225 -0.079094964 0.5344749279 -0.0795782271 -0.1768064771 0.0654479569
105299370.0 -0.1634293985 0.0724024505 0.5348574769 -0.085583492 0.5350723348 -0.086336392 -0.1748737172 0.0664685844
110299340.0 -0.161994441 0.0728529571 0.5352049907 -0.0924667469 0.5351692769 -0.0929884302 -0.1737633233 0.0670517218
115299310.0 -0.1600934623 0.0734760321 0.5345600032 -0.0993202751 0.5352412481 -0.0993208662 -0.172623155 0.0673002916
120299280.0 -0.1589719787 0.0746456617 0.5352785538 -0.1065166376 0.5352757099 -0.1063658805 -0.1711828763 0.0682768821
125299250.0 -0.1578991681 0.0749240515 0.5342660386 -0.1130056464 0.5346629998 -0.113141631 -0.1695956846 0.0684446595
130299220.0 -0.1564997906 0.0762731814 0.5338907682 -0.1195436024 0.5338958765 -0.1199708598 -0.169062395 0.0696186105
135299190.0 -0.1551403797 0.0768486394 0.5330044233 -0.1263833998 0.5327735372 -0.1265032427 -0.167839805 0.0705228026
140299160.0 -0.1543867914 0.0782099415 0.5323212796 -0.1328930357 0.5327957687 -0.1331041365 -0.1670269333 0.0709852601
145299130.0 -0.153225311 0.0789606266 0.5317684043 -0.1397491143 0.5316493855 -0.1395675857 -0.1665566249 0.0718807672
150299100.0 -0.1522091132 0.0797240051 0.5303775998 -0.1460394158 0.5304680704 -0.1460120726 -0.1654719122 0.0726961644
155299070.0 -0.151182179 0.0815081429 0.5292387712 -0.1529133651 0.529181815 -0.1527917614 -0.1646727591 0.0737841692
160299040.0 -0.1499806658 0.082177774 0.5273272254 -0.1586338934 0.5279640389 -0.1592892542 -0.1638360541 0.0748521501
165299010.0 -0.1491566414 0.0833616956 0.5264343433 -0.1656228422 0.526254322 -0.1658183435 -0.162891457 0.0753587863
170298980.0 -0.1484167745 0.0843459121 0.524358493 -0.1715573977 0.5247450463 -0.1717820712 -0.1619110147 0.0764116176
175298950.0 -0.1472041437 0.0855268775 0.5234058887 -0.1778592323 0.5235265852 -0.1782547823 -0.1611756046 0.0776033673
180298920.0 -0.1462555697 0.0868182767 0.5213937046 -0.1846317763 0.5215629894 -0.1842855733 -0.1602547776 0.078869829
185298890.0 -0.1450049314 0.0878414357 0.5192665828 -0.1905258985 0.5197774465 -0.1907201127 -0.1599669392 0.0794130382
190298860.0 -0.1443077423 0.0892211015 0.5175541755 -0.1968642134 0.5178437915 -0.1969573232 -0.1583644639 0.0807128196
195298830.0 -0.1432704573 0.0900817798 0.5156281857 -0.2029606671 0.5156962346 -0.2030690309 -0.1579087132 0.0815924843
200298800.0 -0.1426166421 0.0918046211 0.5140767242 -0.2085485721 0.5136024943 -0.2088644171 -0.156851981 0.083186829
205298770.0 -0.1415706233 0.0929283264 0.5120251121 -0.2149955891 0.5112538173 -0.2152246614 -0.1562866057 0.0840973062
210298740.0 -0.1408584922 0.0940779947 0.5090909106 -0.221026408 0.509345137 -0.220950701 -0.1557991638 0.0855171633
215298710.0 -0.1395023799 0.095774676 0.507097166 -0.2268562384 0.5070668412 -0.2266692165 -0.1553377656 0.0865361554
220298680.0 -0.1389649042 0.0968966275 0.5045995209 -0.232985054 0.5043135997 -0.2330435041 -0.1541537872 0.0883909226
225298650.0 -0.1375899328 0.0985550988 0.5017917039 -0.2386217533 0.5015790966 -0.2385008251 -0.1534173588 0.0892580141
230298620.0 -0.136938042 0.1000199307 0.499912374 -0.2446226244 0.4997894006 -0.2443204267 -0.1524167663 0.0904229462
235298590.0 -0.1358908074 0.1010385142 0.496926616 -0.2499490059 0.4970246415 -0.2504551672 -0.1518011148 0.0914649753
240298560.0 -0.1349664608 0.1025790999 0.4942643133 -0.2555213266 0.4942062084 -0.2553430745 -0.1511795363 0.0929570439
245298530.0 -0.1335375699 0.1038482689 0.490611706 -0.2615413351 0.491328568 -0.2617199993 -0.1498323914 0.0945163921
250298500.0 -0.1328641097 0.1053318451 0.4885572603 -0.2668166652 0.488551459 -0.2666776441 -0.1490059924 0.0954754037
255298470.0 -0.1319520031 0.1068138556 0.4853201524 -0.2729071695 0.4854154888 -0.2728479126 -0.1483887503 0.0965679898
260298440.0 -0.1308573146 0.1083044435 0.4826927023 -0.2780838964 0.4828730049 -0.2784152324 -0.1470985867 0.0983940091
265298410.0 -0.1292832901 0.1099742184 0.4797339314 -0.2839977025 0.4793273975 -0.2839699532 -0.1464712812 0.0996066117
270298380.0 -0.1283504201 0.1108413912 0.4763650004 -0.2891496385 0.4765179217 -0.2893998266 -0.1452990344 0.1009945043
275298350.0 -0.1273932274 0.1123219459 0.4734810226 -0.2943573047 0.4736731007 -0.2948958984 -0.1444048549 0.1022915052
280298320.0 -0.1259653 0.1138264257 0.4698600786 -0.2993753872 0.4699605299 -0.3001812918 -0.1432723053 0.1038219846
285298290.0 -0.124802839 0.115616586 0.4669217413 -0.3054134666 0.4668498094 -0.3053584201 -0.1427786444 0.1051268349
290298260.0 -0.1238976679 0.1168160701 0.463806491 -0.3108190512 0.4637334369 -0.3107241999 -0.1412406588 0.1066352012
295298230.0 -0.1223997177 0.1181134097 0.4606852503 -0.31573546 0.4602715413 -0.3161629538 -0.140080302 0.1078496172
300298200.0 -0.1208199669 0.1192779915 0.4566618001 -0.3211073049 0.4569646578 -0.3210768305 -0.1393160848 0.1094497411
305298170.0 -0.1195456698 0.1203745121 0.4534118387 -0.3266323686 0.4539478593 -0.3265158298 -0.1376637325 0.1108529123
310298140.0 -0.1178320522 0.1220499327 0.4500353499 -0.3322194052 0.4501942408 -0.3323883677 -0.1366453271 0.1126480711
315298110.0 -0.1173421062 0.1232305802 0.4463434188 -0.3367354459 0.4465455777 -0.3369500509 -0.1354559968 0.1131715343
320298080.0 -0.1156535096 0.1243077575 0.4424689283 -0.3419732616 0.4426189985 -0.3418766036 -0.1346222521 0.114818103
325298050.0 -0.1148884575 0.1254921733 0.4390036575 -0.346982152 0.4389653421 -0.3472097618 -0.1338623507 0.1157574139
330298020.0 -0.1134052652 0.126799935 0.4343293347 -0.3520150645 0.4345685607 -0.3521288039 -0.1326721754 0.1170579785
335297990.0 -0.1119405621 0.1280997413 0.4305074546 -0.3570849697 0.4305721233 -0.3573939533 -0.1321509993 0.1183883701
340297960.0 -0.1113956702 0.1296394287 0.4261453372 -0.3617515858 0.4266391935 -0.3618679788 -0.130969652 0.1200355604
345297930.0 -0.1100248376 0.1311782176 0.4222686372 -0.3661473116 0.422230079 -0.3658988776 -0.1296770302 0.1211734835
350297900.0 -0.1083709933 0.1324362703 0.4182208591 -0.3704226424 0.4189629887 -0.3710006391 -0.1288831018 0.1231259167
355297870.0 -0.1068860379 0.1336517712 0.4137202107 -0.3753419564 0.4140534851 -0.3759154228 -0.1277106867 0.1245114329
360297840.0 -0.1054978074 0.135068171 0.4098714093 -0.3800112597 0.4101135374 -0.3805054309 -0.1265500414 0.1261766783
365297810.0 -0.1042667529 0.1364618686 0.4059092017 -0.3846822681 0.4059725097 -0.3846174181 -0.1256156975 0.127527501
370297780.0 -0.1025223796 0.1375507056 0.4009134541 -0.3891743398 0.4014800626 -0.3895363448 -0.1242329155 0.128914408
375297750.0 -0.1012567256 0.1392848712 0.3976139603 -0.3935159938 0.3973441477 -0.3937972319 -0.1230050681 0.130572354
380297720.0 -0.0996295714 0.140180178 0.3930660487 -0.3975853193 0.3927388024 -0.3975781664 -0.1216913913 0.1318901713
385297690.0 -0.0980291413 0.1417497085 0.3883998862 -0.4014371626 0.3885102717 -0.4021019588 -0.1204827515 0.133239709
390297660.0 -0.0966894438 0.142925857 0.3839846672 -0.4064175878 0.3840386282 -0.4068690935 -0.119066086 0.1341427506
395297630.0 -0.0948473271 0.1438301091 0.3795526158 -0.4104541012 0.3793926528 -0.4106501102 -0.1179574766 0.1361881663
400297600.0 -0.093735988 0.1453660889 0.375094421 -0.4148856878 0.3753582223 -0.4148754002 -0.1175382224 0.1369192763
405297570.0 -0.091751775 0.1467297249 0.3703266257 -0.4189740958 0.3702759997 -0.4190926016 -0.1157720392 0.1388309656
410297540.0 -0.0902745676 0.1476911359 0.3656871857 -0.4227108705 0.3657235249 -0.4228211608 -0.1144333381 0.1398674299
415297510.0 -0.088540734 0.1489750826 0.3612427805 -0.4267576691 0.3609291055 -0.4267544721 -0.1131336136 0.1415805357
420297480.0 -0.0868515558 0.149914661 0.3558654624 -0.4310866284 0.3566048217 -0.4305008085 -0.1117416717 0.1424134222
425297450.0 -0.0850431473 0.1508487487 0.3518332048 -0.4349147679 0.3519063744 -0.4346229623 -0.1103507314 0.1441996505
430297420.0 -0.0835424131 0.1523169342 0.3471069175 -0.4388279759 0.3467942395 -0.4387298714 -0.1092230418 0.1450075902
435297390.0 -0.0816554844 0.1527636976 0.3421764847 -0.4419394768 0.3424362515 -0.4421825525 -0.1078369552 0.1465655342
440297360.0 -0.0797920091 0.154070671 0.3370752404 -0.4459317621 0.3368714355 -0.4458096091 -0.1065082356 0.1472614138
445297330.0 -0.0779469524 0.1550939966 0.3318677796 -0.4502122582 0.3321648076 -0.4497016575 -0.1048557767 0.1486906461
450297300.0 -0.0763916124 0.1560418025 0.3272427044 -0.4532906315 0.3274815118 -0.4536787976 -0.1035505192 0.1501270021
455297270.0 -0.074942872 0.1570920909 0.3226704876 -0.4567531085 0.3229202989 -0.4564509452 -0.1020576861 0.1512897014
460297240.0 -0.0732533004 0.1582227341 0.3177112443 -0.4597346087 0.3168966866 -0.4597171203 -0.1003641843 0.1526945099
465297210.0 -0.0710251515 0.1589406294 0.3128706795 -0.4631854427 0.3127229936 -0.4633620465 -0.0997557348 0.1533201618
470297180.0 -0.0695830042 0.1598490784 0.3073567475 -0.4666887846 0.307591647 -0.4670388891 -0.0984145225 0.1547111965
475297150.0 -0.0675243435 0.1603966033 0.3019378835 -0.4696913589 0.3023230347 -0.4698375941 -0.0966837085 0.1557725501
480297120.0 -0.0657467466 0.1610664089 0.2968964163 -0.4731079021 0.2972579115 -0.4732144055 -0.0950909947 0.1569952482
485297090.0 -0.0637694496 0.1623164478 0.2919990813 -0.4768289231 0.291926669 -0.4765230786 -0.0937945941 0.1577729252
490297060.0 -0.0622408993 0.1631814526 0.2866806768 -0.4793302113 0.2867156532 -0.4796990785 -0.0922329449 0.1592666662
495297030.0 -0.0605450319 0.1643459299 0.2808597493 -0.4828745289 0.2812403803 -0.4825802394 -0.0907064825 0.1600680665
500297000.0 -0.0583775865 0.1647507314 0.2760367367 -0.4856820449 0.2762116959 -0.4855989748 -0.0898191661 0.1611766272
505296970.0 -0.0569235853 0.1656839725 0.2706355183 -0.4884213176 0.2706923321 -0.4884535805 -0.0883212413 0.1623091675
510296940.0 -0.0549606353 0.1665458306 0.2653735195 -0.4919466294 0.2654382494 -0.491498519 -0.0860209295 0.1634505113
515296910.0 -0.05336053 0.1673285596 0.2600501853 -0.494200397 0.260209767 -0.4944426641 -0.0848358772 0.1644867277
520296880.0 -0.0512894602 0.1676621087 0.2545738982 -0.4969863415 0.2551424615 -0.4969607101 -0.0828994934 0.165124176
525296850.0 -0.0495660522 0.1684127478 0.2492446595 -0.5000005081 0.2494166014 -0.5000544319 -0.0814375719 0.1663824837
530296820.0 -0.0473452784 0.1691324328 0.2441482019 -0.5018186693 0.2438498422 -0.5020260963 -0.080496341 0.1668238751
535296790.0 -0.0456135558 0.1696345841 0.2380405483 -0.5047434222 0.2387945681 -0.5047262995 -0.0786606363 0.1676981336
540296760.0 -0.0437550706 0.1699856988 0.2326283973 -0.5076751339 0.2327554039 -0.5079329804 -0.0772245068 0.1692624223
545296730.0 -0.0418730636 0.1710273658 0.2275053142 -0.5096367795 0.2272737177 -0.5103126496 -0.0755596736 0.1695296433
550296700.0 -0.0403669844 0.1718980603 0.2217728471 -0.5126582241 0.2221224133 -0.512335863 -0.0737505822 0.1712639663
555296670.0 -0.0378151252 0.1721870232 0.2161558014 -0.5152698197 0.2164013006 -0.5147218242 -0.0722655319 0.1719382584
560296640.0 -0.0360005644 0.1723765118 0.2105831863 -0.5166401109 0.2109439247 -0.5171049203 -0.0706414113 0.1727749717
565296610.0 -0.0345964558 0.1729738505 0.2050957615 -0.5192789606 0.2048654836 -0.5191876951 -0.0694120665 0.1731370954
570296580.0 -0.0321823642 0.1736766275 0.1993389827 -0.5215549989 0.1998264867 -0.5215749491 -0.0672855818 0.174980708
575296550.0 -0.0305416024 0.1745380196 0.1940971866 -0.523559695 0.1938149088 -0.5232831851 -0.0657290672 0.1753228356
580296520.0 -0.0286841247 0.1746765762 0.188316308 -0.5254315471 0.1882053665 -0.525937385 -0.0639914549 0.1761521066
585296490.0 -0.0264811113 0.1749985658 0.1826963259 -0.5276000754 0.1822766091 -0.5274887674 -0.0625301767 0.1766426995
590296460.0 -0.0246798604 0.1752503108 0.1766400237 -0.5296969091 0.1764218838 -0.5297056746 -0.060423504 0.1775834048
595296430.0 -0.0225253221 0.1760233702 0.1710917196 -0.5313133476 0.1708016141 -0.5314121121 -0.0590182055 0.178039129
600296400.0 -0.0207897307 0.1764543568 0.165152206 -0.5334261197 0.1659573614 -0.5328198907 -0.0570217385 0.1789094091
605296370.0 -0.018740409 0.1771466684 0.1597154629 -0.5349229926 0.1596507965 -0.5347507903 -0.0553612503 0.1795317012
610296340.0 -0.0168670683 0.1771043299 0.1537652101 -0.5366094136 0.1539979796 -0.5366477856 -0.0537979737 0.1809450615
615296310.0 -0.0149297365 0.1775397878 0.1477876661 -0.5377801687 0.1480172288 -0.5379099418 -0.0517719095 0.181110458
620296280.0 -0.0129136756 0.1776767871 0.142389417 -0.5392050154 0.1421952075 -0.5396258306 -0.0505338529 0.1814984998
625296250.0 -0.0106785125 0.1778625969 0.135877245 -0.5412371876 0.1359218478 -0.5413233042 -0.0484949266 0.1826279191
630296220.0 -0.0087094563 0.1783770483 0.1301748315 -0.542940643 0.1310008675 -0.542979395 -0.0470088446 0.1833025475
635296190.0 -0.0068443549 0.178504216 0.1241718375 -0.5434256646 0.1242676264 -0.5435003814 -0.0452354477 0.1835332229
640296160.0 -0.0049659742 0.1786190196 0.1187422689 -0.5447802419 0.1184568601 -0.545208458 -0.0430266775 0.1841294716
645296130.0 -0.0028339049 0.1791080783 0.1126221246 -0.546514278 0.1127923669 -0.5465335513 -0.0422267718 0.1845288986
650296100.0 -0.0010827388 0.1796054897 0.1069908924 -0.547183495 0.1067872841 -0.5474687513 -0.0400132949 0.1853678368
655296070.0 0.0009420162 0.179116933 0.100892216 -0.5481780611 0.1008533659 -0.5484019945 -0.0381280395 0.1860845989
660296040.0 0.0024915824 0.1797845847 0.0950710763 -0.5492519159 0.0951643255 -0.5493316758 -0.0365295001 0.1862043043
665296010.0 0.0049733299 0.1796186506 0.0895129635 -0.550487666 0.0897369305 -0.5503059918 -0.0351347301 0.1870404579
670295980.0 0.0074980436 0.1799011117 0.0831224476 -0.5514105728 0.083537786 -0.5513499983 -0.033246088 0.1874125227
675295950.0 0.0092749315 0.179861704 0.0769433867 -0.5522357114 0.0776766567 -0.5527468534 -0.0312808268 0.1879018293
680295920.0 0.0110504402 0.1800925223 0.0713570058 -0.5527304273 0.0711849523 -0.5532413808 -0.0290956809 0.1881451196
685295890.0 0.0131454642 0.1801019255 0.0652114359 -0.553423085 0.0647492675 -0.554035502 -0.0273833531 0.1889582127
690295860.0 0.0154306497 0.1801165106 0.0595814466 -0.5539573399 0.0588867476 -0.5540188118 -0.0255408422 0.189161364
695295830.0 0.0174768245 0.1798680255 0.0524986853 -0.5548622077 0.0528226413 -0.5550254995 -0.024039495 0.1896449945
700295800.0 0.0194555519 0.1798011308 0.0472662478 -0.5551510701 0.0470676343 -0.5554981962 -0.0221421235 0.1897748597
705295770.0 0.0214943114 0.1799567791 0.0416406836 -0.5558005941 0.0413866793 -0.5556448525 -0.0206053288 0.1901680509
710295740.0 0.023370738 0.1799538089 0.0354694148 -0.55595245 0.0352313899 -0.5561556177 -0.0193423064 0.1910839022
715295710.0 0.025212767 0.179812815 0.028988817 -0.5568679951 0.0295096717 -0.5565794411 -0.0172118441 0.1910070468
720295680.0 0.0272722713 0.1793316723 0.0232306339 -0.5566725755 0.023219129 -0.5570970261 -0.0149001873 0.1914605905
725295650.0 0.0295808166 0.1794511869 0.0169791737 -0.5567514131 0.0169680552 -0.5568752037 -0.0130917054 0.1917561369
730295620.0 0.0310493189 0.1790116551 0.0111077079 -0.5568015911 0.0109055097 -0.5570565652 -0.0113975649 0.1915917251
735295590.0 0.0337948233 0.1787753409 0.005285111 -0.5567930382 0.0055721512 -0.5573885591 -0.0094781468 0.1922700116
740295560.0 0.0353708288 0.1788898229 -0.0007687988 -0.5568813968 -0.0010443167 -0.5570880585 -0.0077087494 0.1924685531
745295530.0 0.0375423804 0.1782515164 -0.0067103606 -0.5565902055 -0.006583283 -0.5572490799 -0.0060161955 0.1927235696
750295500.0 0.0393656798 0.1784464498 -0.0125095579 -0.5567594748 -0.0127418977 -0.5565612365 -0.0039071223 0.1924256657
755295470.0 0.041880451 0.1779847774 -0.0184719278 -0.5563109349 -0.0184282033 -0.5569657051 -0.0025316908 0.1929040883
760295440.0 0.043460292 0.1776659004 -0.0248281366 -0.5561835739 -0.0245952287 -0.5565369757 -0.0008688895 0.1929601635
765295410.0 0.0453441452 0.177051908 -0.0302910507 -0.5560173304 -0.0305901406 -0.5563242803 0.0018764933 0.1931668021
770295380.0 0.0477741049 0.1769609093 -0.0367278846 -0.5553943406 -0.0368351072 -0.5561025286 0.0037456085 0.1934817709
775295350.0 0.0495516403 0.1766410817 -0.0427944738 -0.5546432737 -0.0423868205 -0.5550092473 0.0046433294 0.1929733962
780295320.0 0.0516225377 0.1759157863 -0.0486386715 -0.5546845891 -0.0483382542 -0.5548143583 0.0069372458 0.1937656916
785295290.0 0.0533081754 0.1760770614 -0.0544550573 -0.5534957 -0.0545655374 -0.5544711615 0.0085715488 0.1935968485
790295260.0 0.0551506952 0.1755132407 -0.0601910318 -0.5534387433 -0.0603868406 -0.55370238 0.0110275935 0.1932665506
795295230.0 0.0571753399 0.1749045949 -0.0662580374 -0.5521323439 -0.0660916326 -0.552929247 0.0124415003 0.1943871686
800295200.0 0.0592928028 0.1747253753 -0.0726314353 -0.5524168515 -0.0723464989 -0.5521273176 0.0144660111 0.1938087244
805295170.0 0.0612379607 0.1738343479 -0.078168014 -0.5507154398 -0.0781485257 -0.5508812482 0.0162091017 0.1936401639
810295140.0 0.0631334404 0.173453571 -0.0837739074 -0.5501645336 -0.0839900201 -0.5507869307 0.0183562423 0.1940839548
815295110.0 0.0651085978 0.1730084855 -0.0903393822 -0.5492281552 -0.0902882896 -0.5492034945 0.0198237885 0.1933123197
820295080.0 0.066905021 0.1719044475 -0.0958617483 -0.5482551288 -0.0957378421 -0.5486555143 0.021495444 0.1936862734
825295050.0 0.0689812532 0.1715522754 -0.1018260973 -0.5464296255 -0.102040063 -0.5475390477 0.0240188503 0.1937375582
830295020.0 0.0708445544 0.1711174411 -0.1075971964 -0.5456385119 -0.1082705799 -0.5459461982 0.0255410501 0.1934874079
