!Created with skrf (http://scikit-rf.org).
# Hz S RI R 50.0 
!freq ReS11 ImS11 ReS21 ImS21 ReS12 ImS12 ReS22 ImS22
300000.0 -0.2425782906 -0.0771543326 0.474593482 0.0513467862 0.4687822803 0.0508412792 -0.2422646855 -0.0931793795
5299970.0 -0.2443798296 0.0074998117 0.4737031316 0.0050613322 0.4738343768 0.004763594 -0.244249355 0.0072077299
10299940.0 -0.2410096117 0.0186753507 0.4754877746 0.0064353577 0.4754888026 0.006244252 -0.2408441184 0.0203583614
15299910.0 -0.2367823541 0.027988124 0.479413917 0.0076084983 0.4793695182 0.0076742373 -0.2361685085 0.0296201906
20299880.0 -0.2319012091 0.0355714883 0.4837580703 0.0079967417 0.4838181711 0.0081540675 -0.2306258523 0.0373794883
25299850.0 -0.2267538077 0.042153561 0.4890040173 0.0070545472 0.4890092301 0.0076573437 -0.2249403554 0.0437100018
30299820.0 -0.2215621089 0.0470555813 0.4944211362 0.0053478632 0.4944252077 0.005201083 -0.2192872254 0.0491738445
35299790.0 -0.2162548421 0.051467803 0.4998243103 0.0020625473 0.4997292897 0.0015729176 -0.2134446427 0.0533456764
40299760.0 -0.2113513594 0.0551204862 0.5053431862 -0.0017788067 0.5051591866 -0.001965493 -0.2083069177 0.0562673357
45299730.0 -0.206554653 0.0577703606 0.5095141761 -0.0065245469 0.5101156418 -0.0064043549 -0.2033139368 0.0589032373
50299700.0 -0.2023994517 0.0596389677 0.5143434841 -0.0120318488 0.51397149 -0.0120748276 -0.1983762658 0.0605918795
55299670.0 -0.1983694511 0.0617906081 0.5178638775 -0.0182457387 0.5179386569 -0.0179959454 -0.1943377317 0.0623697509
60299640.0 -0.1941971555 0.0635353483 0.5209428453 -0.0242986172 0.5213154296 -0.0240390007 -0.1905558019 0.0630775003
65299610.0 -0.1911337052 0.0648118036 0.5242105869 -0.0310661762 0.5241740808 -0.0306989724 -0.1870099049 0.0642330913
70299580.0 -0.188150202 0.0663747456 0.5265929894 -0.0374347828 0.5267675392 -0.037284207 -0.1839492332 0.0647975178
75299550.0 -0.1851409431 0.0672630596 0.5282645576 -0.0442171359 0.5282219576 -0.0442812815 -0.1807629671 0.0650713465
80299520.0 -0.182695931 0.0680835765 0.5304116606 -0.0511631521 0.5304934058 -0.0509563847 -0.1780218509 0.0658826255
85299490.0 -0.1799935465 0.0688243026 0.5316399048 -0.0577966766 0.5316519855 -0.0574757875 -0.1761539378 0.0661613977
90299460.0 -0.1779405729 0.0697667466 0.5325144229 -0.0649718735 0.5331091871 -0.0646757938 -0.1736971465 0.0668497693
95299430.0 -0.1756214379 0.0704073778 0.5340567954 -0.0716260912 0.5339037127 -0.071879883 -0.1714661674 0.0676327315
100299400.0 -0.173856101 0.0715124179 0.5336106657 -0.0785814898 0.5337017277 -0.0786637889 -0.1694639891 0.0671461014
105299370.0 -0.1719560034 0.0723442478 0.5340709623 -0.0856690364 0.534594446 -0.0857057865 -0.1675949864 0.0681539319
110299340.0 -0.1701781617 0.0733684374 0.5342896892 -0.0920109147 0.5344495003 -0.0920090155 -0.1664726369 0.0683312169
115299310.0 -0.1688289279 0.0738515325 0.5343999644 -0.0989285048 0.534479102 -0.0993667561 -0.1648193613 0.068992929
120299280.0 -0.1674283768 0.0747953041 0.5344019624 -0.1063222124 0.5343999883 -0.1061198609 -0.1632966656 0.0695536743
125299250.0 -0.1660743649 0.0755007604 0.5338800183 -0.1122389252 0.5338403405 -0.1125577525 -0.1623334706 0.069844456
130299220.0 -0.1650574414 0.0766583235 0.5328206568 -0.1197345291 0.5333437066 -0.1195120552 -0.1609271272 0.0702919768
135299190.0 -0.1635603244 0.0777449126 0.5329636141 -0.1258937304 0.5325850599 -0.1258960753 -0.1599399322 0.0710593821
140299160.0 -0.1625707681 0.0787385892 0.5316687964 -0.1329272847 0.5322153658 -0.1331202875 -0.1588638326 0.0720574315
145299130.0 -0.1613072892 0.0799063776 0.5309948098 -0.1395812911 0.5307706524 -0.1391028535 -0.1579381784 0.0725728319
150299100.0 -0.1601372346 0.0811676188 0.5297512242 -0.145536605 0.5298588228 -0.145488409 -0.1568999714 0.074089455
155299070.0 -0.1593925052 0.0822135958 0.5288769265 -0.1529503464 0.5285389578 -0.1523730123 -0.1558861175 0.074752607
160299040.0 -0.1582149864 0.0834688273 0.5271575064 -0.1588914564 0.5266919841 -0.1586170017 -0.1558017153 0.0754481998
165299010.0 -0.1571790371 0.0847209012 0.5255924631 -0.1655655983 0.5259285531 -0.1654601482 -0.1541213106 0.0765656373
170298980.0 -0.1565316491 0.0857816165 0.5239546047 -0.1716503207 0.5246574767 -0.1717472976 -0.1535465318 0.077382259
175298950.0 -0.155741603 0.0869416806 0.5228899079 -0.1777570151 0.5223925783 -0.1779669156 -0.1526347019 0.0785437745
180298920.0 -0.1548331013 0.0883549161 0.5207270515 -0.1843277451 0.5208159466 -0.1841170828 -0.1520668684 0.0799062901
185298890.0 -0.1531902213 0.0892942609 0.5191773637 -0.1903687776 0.5186911292 -0.1905412482 -0.1512447391 0.0808912309
190298860.0 -0.152591139 0.0910948637 0.5173006456 -0.1967973448 0.5173685111 -0.1967786384 -0.1505161996 0.0816530064
195298830.0 -0.1518993845 0.0922149011 0.5154663309 -0.2025485333 0.5150652142 -0.2027432938 -0.149767585 0.0827412318
200298800.0 -0.1508608569 0.0935338917 0.5129849427 -0.2092019661 0.5133496228 -0.2092302168 -0.1492937126 0.0841261643
205298770.0 -0.1499959828 0.0950191029 0.5107230981 -0.215241967 0.5105167393 -0.2151349683 -0.1483423514 0.0846362799
210298740.0 -0.1488574742 0.0960895338 0.508657388 -0.2207297593 0.5086983274 -0.2204424405 -0.1478128553 0.0863862547
215298710.0 -0.1483928009 0.097676578 0.5061443329 -0.2270072372 0.5061849893 -0.2272505336 -0.1472417659 0.0877109642
220298680.0 -0.1469938031 0.0988035175 0.5033419705 -0.2326330164 0.5035681509 -0.2326420411 -0.1467756787 0.0885822685
225298650.0 -0.1462458539 0.1002377159 0.5013807919 -0.2387406941 0.5010866579 -0.2388236915 -0.1461811593 0.0896989169
230298620.0 -0.1451403222 0.1019954003 0.4986109459 -0.2443389615 0.4992951627 -0.2443066912 -0.1455047947 0.0908558502
235298590.0 -0.1442596803 0.103352546 0.4962172906 -0.2504298994 0.4963757334 -0.2499480209 -0.1448687154 0.0921073091
240298560.0 -0.1430698119 0.1049661284 0.4936961484 -0.2562416004 0.4940103025 -0.2560527215 -0.1440784838 0.0937039634
245298530.0 -0.1424861359 0.1065336869 0.4912467881 -0.2617037899 0.4906783524 -0.2616655766 -0.1431331537 0.0943301871
250298500.0 -0.1409933143 0.1077485014 0.4874761687 -0.2668663775 0.4872809079 -0.2666191674 -0.1423159429 0.0956972945
255298470.0 -0.1400765103 0.1091697905 0.4845215779 -0.2726857927 0.4850433938 -0.2729385699 -0.1414923694 0.0967814646
260298440.0 -0.1391149427 0.1102824615 0.4817022207 -0.2783246412 0.4819988495 -0.2783550051 -0.1406105608 0.0983362674
265298410.0 -0.1376126371 0.1124479135 0.4788426766 -0.2840333868 0.4789905645 -0.2839249353 -0.1396285756 0.0993914529
270298380.0 -0.1366659086 0.1137747701 0.4758727463 -0.2892150069 0.4756872876 -0.2893981006 -0.1391300783 0.1008337526
275298350.0 -0.1351091114 0.1151976414 0.4726831118 -0.2948520842 0.4729595242 -0.2947274034 -0.137924729 0.1017680684
280298320.0 -0.1339776517 0.116899243 0.4697990076 -0.3000017235 0.4696388514 -0.3006682452 -0.1369218593 0.1031147041
285298290.0 -0.1328989848 0.1183021698 0.4667536932 -0.3052226102 0.466260454 -0.3058827276 -0.1360244845 0.1042931482
290298260.0 -0.1314225469 0.1196408132 0.4627254132 -0.3106669401 0.4627736943 -0.3109401627 -0.1348988641 0.1056800418
295298230.0 -0.1302385169 0.1208858433 0.459631339 -0.315810967 0.4593762591 -0.3162749526 -0.1334754849 0.1065042573
300298200.0 -0.1291919049 0.1222790144 0.4562780182 -0.3209275915 0.4564145753 -0.3214440992 -0.133025043 0.1082448558
305298170.0 -0.1277905552 0.1235220705 0.4523272256 -0.3265768386 0.4526976418 -0.3265587954 -0.1313561034 0.1092075407
310298140.0 -0.1266105307 0.1251087596 0.4490815137 -0.3315644383 0.4493508332 -0.3315213267 -0.1306946385 0.1104461248
315298110.0 -0.1251866267 0.1261308853 0.4453427247 -0.3366731827 0.4455832899 -0.3369256802 -0.1295983583 0.1115564634
320298080.0 -0.123648989 0.1275825465 0.4411676602 -0.3424010293 0.4413942312 -0.3419446346 -0.128463413 0.112836056
325298050.0 -0.1225383271 0.1284952353 0.4376577253 -0.3473003019 0.4376968826 -0.347024202 -0.127910648 0.1137083604
330298020.0 -0.1213251794 0.1300290644 0.433640691 -0.3522133137 0.4339944434 -0.3520908203 -0.1271778867 0.115045505
335297990.0 -0.1198286636 0.1312232867 0.4294509984 -0.3568747216 0.4293421345 -0.3568887537 -0.1265507555 0.1170715782
340297960.0 -0.1192553636 0.1328489964 0.4256383593 -0.3612722692 0.4249652903 -0.3617509407 -0.1251517424 0.1181470523
345297930.0 -0.1178277327 0.1345436057 0.4212954617 -0.3666015384 0.4210284162 -0.3664998713 -0.1239234233 0.1191225285
350297900.0 -0.1163812467 0.1355641978 0.4167380627 -0.3713891374 0.4170637652 -0.3709953221 -0.1232622487 0.1211463624
355297870.0 -0.1151671952 0.1376496192 0.4134986139 -0.3755584882 0.4131812251 -0.3754099868 -0.1226877697 0.1217374994
360297840.0 -0.1136622644 0.1387550789 0.4091663484 -0.3801682245 0.409702087 -0.3799149822 -0.1214146884 0.1236122096
365297810.0 -0.112551026 0.1401949325 0.4046384159 -0.3845651874 0.4049326922 -0.3847357151 -0.1198177008 0.1245647694
370297780.0 -0.1105676602 0.1413765302 0.4001233161 -0.389016657 0.4006917927 -0.388858967 -0.1193541957 0.1261332989
375297750.0 -0.1091703452 0.1431164152 0.3965578814 -0.3938811445 0.3969174767 -0.3933140551 -0.1179461384 0.1276473359
380297720.0 -0.107495189 0.1441557155 0.3915943441 -0.3979133482 0.3920554374 -0.3972135511 -0.1173577345 0.1285643713
385297690.0 -0.1064923024 0.1453133145 0.3875605583 -0.4020785785 0.3872843349 -0.4017578794 -0.1157620001 0.1302722663
390297660.0 -0.1049079597 0.146997725 0.3834341706 -0.4064918035 0.3830157061 -0.4059464014 -0.1148091962 0.1309686529
395297630.0 -0.1032002048 0.1484419679 0.3786893331 -0.410573812 0.3781523594 -0.4105621564 -0.1132210403 0.1325840932
400297600.0 -0.1016812171 0.1493470296 0.3736435589 -0.4147766127 0.3743044654 -0.4148031465 -0.1125567408 0.1338121133
405297570.0 -0.100318413 0.1506261441 0.3694857861 -0.4187270039 0.369395029 -0.418676396 -0.1112025351 0.1351511048
410297540.0 -0.0984181789 0.1518186404 0.365206624 -0.4229128685 0.3651209569 -0.4231114605 -0.1101083574 0.1366898866
415297510.0 -0.0964897003 0.1530543855 0.3597501597 -0.4268449372 0.3601812087 -0.4270444917 -0.1088969054 0.1376498496
420297480.0 -0.0949496157 0.1546842357 0.355625691 -0.4308094564 0.3555438318 -0.4311389703 -0.107712588 0.1386527455
425297450.0 -0.0933743563 0.1554121999 0.3507675348 -0.4346997381 0.3508513571 -0.434680369 -0.1065328524 0.1397983406
430297420.0 -0.0918124831 0.156457222 0.3458164741 -0.4378935476 0.3459737125 -0.4381094713 -0.1051474547 0.1405269057
435297390.0 -0.0902578221 0.1576631914 0.3411864387 -0.4420073013 0.3407332113 -0.4422186803 -0.1031050168 0.1417128786
440297360.0 -0.0885758717 0.1589879993 0.3363976935 -0.4457567076 0.3362238763 -0.4457909885 -0.1022945234 0.1428325272
445297330.0 -0.0869653665 0.1598865733 0.3315569848 -0.4493419521 0.3311619118 -0.4489192644 -0.1009241865 0.1439617787
450297300.0 -0.0848793391 0.1609035447 0.3262591042 -0.4530833806 0.3262601112 -0.4532941018 -0.0995903393 0.144698106
455297270.0 -0.0829747057 0.1621966178 0.3209681822 -0.4567578704 0.3213971995 -0.4564634977 -0.0981124625 0.1458166209
460297240.0 -0.0816480097 0.1630254911 0.3162484716 -0.4597089542 0.3164981827 -0.4600751274 -0.0967469725 0.147220159
465297210.0 -0.0796143592 0.164064294 0.3116603113 -0.4631934323 0.3112932205 -0.4638120577 -0.0950809518 0.1480733524
470297180.0 -0.0775356095 0.1649106945 0.3059899965 -0.4666085363 0.3063194512 -0.467186044 -0.0937410772 0.1494486118
475297150.0 -0.0758042737 0.1658139564 0.3002913309 -0.4694053688 0.3008680597 -0.4694747454 -0.0921389583 0.1500948983
480297120.0 -0.074474891 0.1674789271 0.2960911371 -0.4735193326 0.2952897671 -0.4737997842 -0.0904091999 0.1515850556
485297090.0 -0.0724307457 0.1680929527 0.2907933561 -0.4761833144 0.2909459708 -0.4760830946 -0.0890469299 0.15202542
490297060.0 -0.070706019 0.1690810064 0.2857014123 -0.4796156547 0.2855585352 -0.4795979734 -0.0873873261 0.1533879854
495297030.0 -0.0688902405 0.1699098549 0.2801651478 -0.482395358 0.2804883883 -0.4824452715 -0.0862934134 0.154461292
500297000.0 -0.0669173179 0.170562468 0.2749188155 -0.4851757803 0.2745371254 -0.4852531979 -0.084472452 0.1558446998
505296970.0 -0.0650819038 0.1716793708 0.2698197316 -0.4887005247 0.2693823429 -0.4888965637 -0.0831699592 0.1564701738
510296940.0 -0.062944546 0.1725205357 0.2641926642 -0.4915207299 0.2643110867 -0.4916519421 -0.0815408653 0.1576782271
515296910.0 -0.0613513249 0.1735445141 0.2590153161 -0.4942095819 0.2588731296 -0.4943617632 -0.0797709214 0.1587392355
520296880.0 -0.0595181227 0.1740929247 0.2535771694 -0.4975232535 0.2537229328 -0.4970365634 -0.078795347 0.1591650596
525296850.0 -0.0571625821 0.1745048284 0.2474222533 -0.4996291317 0.2483720533 -0.5000938606 -0.0771547616 0.1607157427
530296820.0 -0.055492984 0.1756785434 0.2427750813 -0.5028574428 0.2429068425 -0.5026539139 -0.0754035791 0.1612242771
535296790.0 -0.0539153983 0.1766616272 0.2376564496 -0.5050349462 0.2373952793 -0.504664745 -0.0740741386 0.1620286227
540296760.0 -0.051797164 0.1772543693 0.2314879307 -0.5076600734 0.2317026042 -0.5077518757 -0.0729588639 0.1634640894
545296730.0 -0.0497791631 0.1781177787 0.2260749277 -0.5101268379 0.226263985 -0.5099541158 -0.0715851642 0.1638059846
550296700.0 -0.047734351 0.17874632 0.2203366023 -0.5122652888 0.220480568 -0.5125467274 -0.0699278713 0.1650631246
555296670.0 -0.0457540544 0.1791929628 0.2148710334 -0.5142688715 0.2153664256 -0.5147354114 -0.0683771287 0.1659864771
560296640.0 -0.0433628776 0.1800382692 0.2091055242 -0.5172135227 0.2092978119 -0.5170225219 -0.0665292212 0.1664997087
565296610.0 -0.0420883458 0.1803583034 0.2036086514 -0.5191886956 0.2036500887 -0.5193315785 -0.0650515816 0.167131356
570296580.0 -0.0400831261 0.1813189145 0.1982909533 -0.5219762916 0.1974924201 -0.521489707 -0.0636222234 0.1685477292
575296550.0 -0.0382924239 0.1820469853 0.1926549935 -0.5236408777 0.192478853 -0.5238425368 -0.061824563 0.169019428
580296520.0 -0.035903213 0.1825815176 0.1867402751 -0.526042038 0.1865687278 -0.525856639 -0.0601151571 0.1696104084
585296490.0 -0.0341222942 0.1825708003 0.1812482955 -0.5271366668 0.1811051516 -0.5277252787 -0.0584985885 0.1704485187
590296460.0 -0.0316423878 0.1835375623 0.1752972586 -0.528597482 0.1753997889 -0.5294023635 -0.0577266075 0.1710625657
595296430.0 -0.029712102 0.1837706598 0.1692783792 -0.5312547409 0.1693149594 -0.5313062713 -0.0554165775 0.1715325211
600296400.0 -0.0278771236 0.1843482983 0.1639921083 -0.5330131292 0.1635227548 -0.5325907931 -0.0540534371 0.1723616473
605296370.0 -0.0260598637 0.1846145556 0.1579186348 -0.5346535983 0.1577845134 -0.534754251 -0.0518833501 0.1728830017
610296340.0 -0.0238152462 0.1850562404 0.1516262554 -0.5364575028 0.152259942 -0.536490796 -0.0502908169 0.1732971374
615296310.0 -0.0214888075 0.185158994 0.1459209374 -0.5375211038 0.1459106952 -0.5383013618 -0.0483358388 0.1740826093
620296280.0 -0.0195994504 0.1855793893 0.1404769625 -0.5393959564 0.1401857377 -0.5392147086 -0.0471582827 0.1745361085
625296250.0 -0.0178408542 0.1857743084 0.1349804169 -0.5412016878 0.1345444231 -0.5411179725 -0.0448969834 0.1750803465
630296220.0 -0.0147572551 0.1864646518 0.1278202148 -0.542416157 0.1279749827 -0.5424026364 -0.0433383959 0.1757795349
635296190.0 -0.0137990293 0.1866515741 0.1226159607 -0.5435658108 0.1226288936 -0.5436215773 -0.0417743579 0.1761844931
640296160.0 -0.0118449895 0.1868587593 0.1166390649 -0.5445425353 0.1170734674 -0.5448680667 -0.0397016308 0.1767570627
645296130.0 -0.009632296 0.187506729 0.1108348875 -0.5464108768 0.1111005021 -0.5458639075 -0.0380852618 0.1774435339
650296100.0 -0.0072514965 0.1874298763 0.1049310939 -0.5469351776 0.1052217203 -0.5471651352 -0.0361787442 0.1775030565
655296070.0 -0.0054449962 0.1874525406 0.0990137421 -0.5478383182 0.0992508795 -0.5486637114 -0.0343606613 0.1783643314
660296040.0 -0.0033797481 0.187546275 0.0932107355 -0.5492482397 0.0932859342 -0.5496328455 -0.0322272795 0.179022408
665296010.0 -0.0010029874 0.1875521048 0.0869415823 -0.5500710063 0.0873883742 -0.5500555804 -0.0309861014 0.1795463209
670295980.0 0.0002747524 0.1882900411 0.0816395623 -0.5511278091 0.0815475758 -0.5510648949 -0.0294144485 0.1798606038
675295950.0 0.0028194444 0.1883269495 0.0754814197 -0.5516768271 0.0754238389 -0.5511196945 -0.027788656 0.1805539392
680295920.0 0.0048859654 0.1882420978 0.0691393192 -0.551918791 0.0687600099 -0.5532246088 -0.0255740306 0.1813122529
685295890.0 0.006983778 0.1889197997 0.0633340998 -0.5533324561 0.0632055485 -0.5534751077 -0.0237419889 0.1813918269
690295860.0 0.0092709874 0.1887029846 0.0577464409 -0.5533958666 0.0573416499 -0.5542175131 -0.0222005646 0.1823715533
695295830.0 0.0111424919 0.1884857527 0.0517135925 -0.5542422473 0.0513305722 -0.554412669 -0.0204714679 0.1827028523
700295800.0 0.0132055148 0.1883545041 0.0455959207 -0.5546754237 0.0450788714 -0.5549712625 -0.0188637127 0.1834172815
705295770.0 0.0150488547 0.1888932496 0.0393750024 -0.5552760601 0.0395246192 -0.5553222977 -0.0171037905 0.1835477214
710295740.0 0.017571761 0.1887247225 0.0337246036 -0.556088886 0.0333408991 -0.5563756424 -0.0151156979 0.1834740053
715295710.0 0.0191621934 0.1883142423 0.0277618204 -0.5558504149 0.0272799131 -0.5559020963 -0.0135049086 0.1839043522
720295680.0 0.0216775321 0.1883879628 0.0212409552 -0.5564942949 0.0217621334 -0.5562610419 -0.0118649625 0.1848310942
725295650.0 0.0236211879 0.1886181872 0.0154199019 -0.5562755738 0.0155841838 -0.5564337477 -0.0103350841 0.1847091748
730295620.0 0.0259982117 0.188506324 0.0094695996 -0.5565184006 0.0095129636 -0.5566552378 -0.008399002 0.1847323965
735295590.0 0.0277491701 0.1882358405 0.0037468451 -0.5565960443 0.0034173545 -0.5566980135 -0.0068089186 0.1849658892
740295560.0 0.0297876258 0.1881486337 -0.002574158 -0.5565303196 -0.0028728744 -0.5566949098 -0.004444074 0.1856665035
745295530.0 0.0318045009 0.1881642169 -0.0086454024 -0.5562563146 -0.0090787143 -0.5565102382 -0.0027993763 0.185372869
750295500.0 0.0340357969 0.1877663548 -0.0142630047 -0.5561216921 -0.014528464 -0.5561117823 -0.0015975972 0.1857607011
755295470.0 0.0359528305 0.1871645179 -0.0203143888 -0.5560864087 -0.0206274357 -0.5561806022 0.0008262595 0.1856580953
760295440.0 0.0379992997 0.1870142123 -0.0262158154 -0.5563435919 -0.0263998946 -0.5561331039 0.0025253706 0.1854740315
765295410.0 0.0400847997 0.1870151564 -0.0323825031 -0.5554865856 -0.0328958752 -0.5556851033 0.004424536 0.1859792198
770295380.0 0.0419582864 0.1862847184 -0.0389516913 -0.5553522597 -0.0387338684 -0.5549196485 0.005801219 0.185454222
775295350.0 0.0437087752 0.1859510942 -0.0445473917 -0.5544435762 -0.0443405742 -0.5544973387 0.0071047663 0.1858961094
780295320.0 0.0463512854 0.1856882842 -0.0507418901 -0.5535363882 -0.0501888951 -0.5538748825 0.0091696644 0.1855669597
785295290.0 0.0476893005 0.1847339841 -0.0564388837 -0.5528063625 -0.0568433331 -0.5534251548 0.0114926719 0.1861792384
790295260.0 0.0505417475 0.1850964258 -0.0619051795 -0.5524869955 -0.0618563523 -0.5524565729 0.0133817786 0.1859545347
795295230.0 0.0523508924 0.1842875388 -0.0679017381 -0.5514109652 -0.067752181 -0.5521139152 0.0152577139 0.1862465263
800295200.0 0.0542856901 0.1841147664 -0.0746977326 -0.5506121619 -0.0740294002 -0.5509731442 0.0171761512 0.185844959
805295170.0 0.0563856366 0.1834086082 -0.0800875427 -0.5498483525 -0.0803216248 -0.5505295664 0.0189068976 0.1860922795
810295140.0 0.0582271254 0.1828201899 -0.0857273019 -0.5491962564 -0.0862039359 -0.5493128099 0.0212574886 0.1858921377
815295110.0 0.0601142593 0.1824622776 -0.0921507044 -0.5475459191 -0.0918032467 -0.5484389472 0.0228636322 0.1861038919
820295080.0 0.0619667737 0.18234468 -0.0977746455 -0.5472105128 -0.0974877954 -0.5473619689 0.0245094482 0.185921656
825295050.0 0.0646432864 0.1811102977 -0.1034597909 -0.5455044419 -0.103344522 -0.5461113803 0.0266440312 0.185836537
830295020.0 0.0663765093 0.1809957525 -0.1095628472 -0.5447121771 -0.1098209402 -0.544633378 0.029023543 0.1856427118
