!Created with skrf (http://scikit-rf.org).
# Hz S RI R 50.0 
!freq ReS11 ImS11 ReS21 ImS21 ReS12 ImS12 ReS22 ImS22
300000.0 -0.3201102457 -0.1015098529 0.3723949329 0.0513357436 0.37527607 0.0556140191 -0.3172107808 -0.1140025441
5299970.0 -0.3236960557 0.0047552543 0.3787219338 0.0027771435 0.3787661927 0.0029253523 -0.3264641446 0.0029984303
10299940.0 -0.3210745934 0.0155074042 0.3799717172 0.0024491501 0.3797701944 0.0025394339 -0.3243455264 0.0127972007
15299910.0 -0.3179348363 0.0234690388 0.3816909737 0.002152811 0.3820278823 0.002545887 -0.3214792539 0.0198842093
20299880.0 -0.3143173266 0.0302473865 0.3853677031 0.0015888893 0.385398493 0.0015551533 -0.3188217797 0.0260191718
25299850.0 -0.3107791679 0.0356085617 0.3885161867 -0.0001393288 0.3885658275 6.54517e-05 -0.315872842 0.0309779865
30299820.0 -0.3067935681 0.0404020253 0.3923146736 -0.0023304797 0.3914571087 -0.0022731417 -0.3129200167 0.0352775374
35299790.0 -0.3028160641 0.0447793856 0.3948890801 -0.0053301433 0.3948477084 -0.0051143708 -0.3098376845 0.0392455847
40299760.0 -0.2995578399 0.0481349872 0.3984786687 -0.0083965348 0.3984848493 -0.0088786578 -0.3072192699 0.0430328022
45299730.0 -0.2965928012 0.0514147658 0.4012765176 -0.0129738123 0.401406502 -0.0127211959 -0.3048619189 0.0460389994
50299700.0 -0.2931948544 0.0541071382 0.4033749027 -0.0172372839 0.4037476055 -0.0173727073 -0.3025467382 0.0492441692
55299670.0 -0.2908165158 0.0568981347 0.4053783587 -0.0220295647 0.4061462018 -0.021787394 -0.3005376527 0.0518634787
60299640.0 -0.2882888406 0.0589179816 0.4075835377 -0.0268493654 0.4079511463 -0.0269411141 -0.2984013285 0.0544274423
65299610.0 -0.2861408742 0.0615659822 0.4095886181 -0.0315402656 0.409638393 -0.031523064 -0.2964046073 0.0572525561
70299580.0 -0.2837991389 0.0634578609 0.4105158664 -0.0366328249 0.4107427778 -0.0372248799 -0.2945819437 0.0597126828
75299550.0 -0.2819881241 0.065810619 0.4114226923 -0.0422686596 0.4115037918 -0.0422095599 -0.2932089921 0.0617807408
80299520.0 -0.2806070959 0.0679502254 0.4128970296 -0.0475568138 0.4125177457 -0.0473320517 -0.2916353321 0.0641627496
85299490.0 -0.2784515587 0.0697849411 0.4133101018 -0.0526717975 0.4130798917 -0.0524838583 -0.2904291258 0.0660940505
90299460.0 -0.2772910503 0.0721796432 0.413713738 -0.0574873392 0.4136626028 -0.0579320263 -0.2885539736 0.0686713243
95299430.0 -0.2755930246 0.0743261806 0.4138767495 -0.0633769537 0.4139364126 -0.0628681294 -0.2878387041 0.0710763366
100299400.0 -0.2742996041 0.0765081154 0.4133324982 -0.0684928606 0.4137203775 -0.0686488438 -0.2866627476 0.0732350027
105299370.0 -0.2730737786 0.0783121468 0.4133689686 -0.0730881463 0.4139479164 -0.073424785 -0.2854706113 0.0758056507
110299340.0 -0.2719495752 0.0803200799 0.413423585 -0.0781388641 0.4135471649 -0.0785618953 -0.284684705 0.0780266903
115299310.0 -0.2706982427 0.0824688246 0.4129350469 -0.0837062403 0.4131662436 -0.0835824936 -0.2832563144 0.0798876588
120299280.0 -0.2698730342 0.0846590386 0.4130835641 -0.0889002855 0.4129976466 -0.0889839982 -0.2825483946 0.0824651853
125299250.0 -0.2688330083 0.0864538373 0.4121965916 -0.0939854424 0.4126086508 -0.0940290066 -0.2811647916 0.0846180244
130299220.0 -0.2678524175 0.0890044579 0.4115589066 -0.0986851756 0.4116643286 -0.0992650172 -0.2805352063 0.0874531361
135299190.0 -0.266697338 0.0911526337 0.4109200012 -0.1039238625 0.4105258555 -0.1040831126 -0.2796558335 0.0896899238
140299160.0 -0.2658586752 0.0938175074 0.4101038956 -0.1091211819 0.4103313645 -0.1090720348 -0.2784936834 0.091937991
145299130.0 -0.2649649716 0.0958007472 0.4097864417 -0.1140532518 0.4090963437 -0.1134634302 -0.2780450578 0.094486208
150299100.0 -0.263920863 0.0980592275 0.4081164277 -0.1191100088 0.4082959862 -0.1187507925 -0.2770771154 0.096917775
155299070.0 -0.2630450701 0.1009868361 0.4070524387 -0.124179327 0.407149592 -0.1242508848 -0.2763754783 0.0996223258
160299040.0 -0.2619680216 0.1030918435 0.4058040639 -0.1286844192 0.4059522256 -0.1287066865 -0.2748746641 0.1022672431
165299010.0 -0.2611490083 0.1055862978 0.4048183604 -0.1336529726 0.404879406 -0.1336230289 -0.2742835917 0.1047520087
170298980.0 -0.2601485834 0.1077547112 0.4028770992 -0.1381160152 0.4030953686 -0.1385063738 -0.2731939523 0.1071187919
175298950.0 -0.258865838 0.1105376033 0.402001991 -0.1431153858 0.402173654 -0.143270652 -0.2724155036 0.1098895908
180298920.0 -0.2578593075 0.1126239937 0.4003097464 -0.1481887014 0.4008094746 -0.1478240131 -0.2710739907 0.1125455348
185298890.0 -0.2570991737 0.1152859615 0.3987628618 -0.1526644739 0.3989544947 -0.1526558834 -0.2704873001 0.1146317204
190298860.0 -0.255887953 0.1177245945 0.3972781979 -0.1571984308 0.3976111761 -0.1573729573 -0.2687195386 0.1176463035
195298830.0 -0.2549802628 0.120056359 0.3960253743 -0.1616277414 0.3958365783 -0.1622332768 -0.2679471554 0.1203649064
200298800.0 -0.2538667521 0.1229154525 0.3943409131 -0.1662175289 0.3940960619 -0.1664767653 -0.2665913989 0.1229827797
205298770.0 -0.252814316 0.1251459838 0.3923504795 -0.1708063691 0.3924012726 -0.1710051966 -0.2654706351 0.1252358826
210298740.0 -0.2516216969 0.1275888744 0.390658171 -0.175751067 0.3905747039 -0.1759698752 -0.2645816377 0.1280443678
215298710.0 -0.2505537974 0.1303454503 0.3882598496 -0.1805690885 0.3884873783 -0.180023222 -0.2634893546 0.1308464332
220298680.0 -0.2491034276 0.132810463 0.3863507348 -0.184634607 0.386672016 -0.1845576873 -0.2619271881 0.1337785157
225298650.0 -0.2479906339 0.135710522 0.3845335971 -0.1885755491 0.3843415183 -0.1886955572 -0.2610680435 0.1364666162
230298620.0 -0.24663752 0.1382129555 0.3825979207 -0.1935804398 0.3828596904 -0.1932868375 -0.259468264 0.1388478085
235298590.0 -0.2455311829 0.1404398128 0.3805763661 -0.1976649702 0.3805386493 -0.1982216063 -0.2584136965 0.1416774198
240298560.0 -0.2443251588 0.143350699 0.3784205876 -0.2020405424 0.3784765136 -0.2016920872 -0.2571484825 0.1442982283
245298530.0 -0.2425840288 0.1456451456 0.3756065661 -0.2065965638 0.3760060358 -0.2064320186 -0.255761631 0.1471657236
250298500.0 -0.2417114346 0.1482135973 0.3736859263 -0.2103577903 0.3740931521 -0.2102001434 -0.2543077913 0.149932449
255298470.0 -0.2403255138 0.1512488105 0.3715392197 -0.2152648492 0.37155484 -0.2153011887 -0.2526140504 0.1523418352
260298440.0 -0.2388360036 0.1535788392 0.3691424329 -0.2191635765 0.3690465003 -0.2190408052 -0.2511727045 0.1551690625
265298410.0 -0.2370973884 0.1561790571 0.3665764494 -0.2238507495 0.3665982675 -0.2233609917 -0.2497479106 0.1576547456
270298380.0 -0.2354121115 0.1585815206 0.3638266488 -0.2275171963 0.3646391413 -0.2274645137 -0.2481544958 0.1604441736
275298350.0 -0.2341628339 0.1609872279 0.3612856042 -0.2315833494 0.3618365741 -0.2318307982 -0.2464228961 0.1634522069
280298320.0 -0.2326698081 0.1638723595 0.3591581154 -0.2353798081 0.3589851869 -0.2361219634 -0.2450366374 0.1658877589
285298290.0 -0.23128576 0.1663553997 0.3566272924 -0.2396331696 0.3564476784 -0.2401368025 -0.2432983666 0.1687014058
290298260.0 -0.2294895167 0.1689320624 0.3540028131 -0.2442331344 0.3540127943 -0.24383761 -0.2412178893 0.1713794836
295298230.0 -0.2278205043 0.1714333811 0.3514854729 -0.2478625278 0.3510628161 -0.2480333834 -0.239719757 0.1738023924
300298200.0 -0.2257184474 0.173571026 0.3481468624 -0.2517547459 0.3484762314 -0.2519497648 -0.2381125442 0.1768784132
305298170.0 -0.2240628387 0.1760900613 0.3461113001 -0.2558252198 0.345799648 -0.2560853057 -0.236008281 0.1791345636
310298140.0 -0.2223000902 0.1782054977 0.3432306409 -0.259766222 0.3429567335 -0.2600837264 -0.2341953407 0.1819953056
315298110.0 -0.2207798214 0.1808777826 0.3400830941 -0.2635397869 0.3403255735 -0.263876889 -0.2322397098 0.1840393955
320298080.0 -0.2187059012 0.1833420709 0.3372296207 -0.2675278264 0.3372574088 -0.267735892 -0.2305517545 0.1870352999
325298050.0 -0.217282848 0.1855228257 0.3345189195 -0.2714332868 0.3342183732 -0.2714393441 -0.2283660466 0.1893621924
330298020.0 -0.2153279703 0.1884273466 0.3304048047 -0.2758558268 0.3310023438 -0.2752313717 -0.226775934 0.1916573953
335297990.0 -0.2135164276 0.1902153761 0.3278323382 -0.2791119359 0.3277380068 -0.2787143963 -0.2249894584 0.1942780167
340297960.0 -0.2119816979 0.1929696836 0.3244872896 -0.2824995315 0.3250314724 -0.2826594778 -0.2227717646 0.1966365232
345297930.0 -0.2101312944 0.1950708032 0.3214082644 -0.2857633903 0.3209124111 -0.286041675 -0.2207464363 0.199393118
350297900.0 -0.2074945229 0.1975707707 0.3179278412 -0.2893792377 0.3184415665 -0.2898868926 -0.2188365251 0.2021435839
355297870.0 -0.2060330268 0.1997645971 0.3145213886 -0.2931273117 0.3146706545 -0.2935752204 -0.2169943453 0.2044729801
360297840.0 -0.2038637751 0.2022401071 0.3115701079 -0.2967209174 0.3113710388 -0.2967238606 -0.214573039 0.2072793792
365297810.0 -0.2017649635 0.2045553886 0.3079210332 -0.3000427255 0.3081847094 -0.3001499958 -0.212611224 0.2099176548
370297780.0 -0.1993445653 0.2067077988 0.3041926999 -0.3034592164 0.3046199545 -0.303499205 -0.2103554734 0.2121272258
375297750.0 -0.1976690282 0.2093598946 0.3020565984 -0.306926759 0.3010914066 -0.3071730478 -0.2082080834 0.2147272221
380297720.0 -0.1953985566 0.211285774 0.2982142959 -0.3096708949 0.2979916404 -0.3100793002 -0.2058281897 0.2173567115
385297690.0 -0.1932416659 0.2139106705 0.2944433667 -0.3132021178 0.2944198601 -0.3133504498 -0.2037879768 0.2198316943
390297660.0 -0.1912826697 0.2157155547 0.2908741765 -0.3165484681 0.2910258205 -0.3167884084 -0.2013052631 0.2216001655
395297630.0 -0.188621843 0.2180842373 0.2875416627 -0.3194886424 0.2876644184 -0.3196034624 -0.1992901121 0.2247403348
400297600.0 -0.1865496577 0.2202570953 0.2838433762 -0.3227834211 0.2840078529 -0.3231726433 -0.1969585541 0.226674659
405297570.0 -0.1843180545 0.2227550087 0.2807359211 -0.3260286433 0.2804739077 -0.3260625 -0.1947664662 0.2290552749
410297540.0 -0.1818190756 0.2245670885 0.2766427675 -0.3287972298 0.2764536168 -0.3288334042 -0.1920282142 0.2312876509
415297510.0 -0.1797213723 0.2268724323 0.2729912929 -0.3320412819 0.2732422875 -0.3318685949 -0.1902172096 0.233890244
420297480.0 -0.1771330388 0.2283680304 0.2691288898 -0.3351378053 0.2693927928 -0.3348924211 -0.1872599614 0.2356785895
425297450.0 -0.1747841571 0.2304884826 0.2659742376 -0.3377700038 0.266149782 -0.3382236976 -0.185035216 0.2384861506
430297420.0 -0.1725572402 0.2326243948 0.2618648292 -0.3409104983 0.2622005405 -0.3406117482 -0.1828731165 0.2401364757
435297390.0 -0.1697838219 0.2343369252 0.2581140648 -0.343160235 0.2585228646 -0.3432800347 -0.1801499289 0.2427346476
440297360.0 -0.1673850307 0.236590338 0.2543883203 -0.3460678968 0.25401214 -0.3460714973 -0.1774567753 0.2440874072
445297330.0 -0.1647518519 0.2384174376 0.250188822 -0.3493233214 0.2504098518 -0.3490171493 -0.175171642 0.246633133
450297300.0 -0.1626559948 0.2401942419 0.2466676992 -0.3517493777 0.2469143315 -0.3517795166 -0.1728080037 0.2487597163
455297270.0 -0.1600009138 0.2422809044 0.2427811071 -0.3545554008 0.2430734424 -0.3543489761 -0.1699712442 0.2508147426
460297240.0 -0.1575840793 0.2442644185 0.2388016604 -0.3567484148 0.2387995224 -0.357212074 -0.1674668562 0.2530995254
465297210.0 -0.1547543936 0.2457840311 0.2351686903 -0.359501934 0.235137579 -0.359886309 -0.1652464587 0.2548954277
470297180.0 -0.1522196112 0.2478686652 0.231054376 -0.3618767795 0.231393365 -0.3622037017 -0.162788169 0.2566769731
475297150.0 -0.1499221669 0.2491534464 0.2271273261 -0.3643288755 0.2271359268 -0.3641335533 -0.1595698178 0.2585941492
480297120.0 -0.1469932064 0.2507792356 0.2226357818 -0.366646022 0.2231925081 -0.3666942186 -0.1574225919 0.2611063492
485297090.0 -0.1442957055 0.2524509624 0.2189537215 -0.3691487101 0.2191654804 -0.3690937908 -0.1544691335 0.2623061936
490297060.0 -0.1414722433 0.2541316457 0.214803714 -0.3717791098 0.2151587295 -0.3714692039 -0.1518928497 0.2643181475
495297030.0 -0.1392368983 0.2562839795 0.2105357132 -0.3736926534 0.2104482106 -0.3741655241 -0.1490315862 0.2660372296
500297000.0 -0.1362957234 0.2577993644 0.2064695899 -0.3763268944 0.2066126679 -0.3761850258 -0.146450256 0.2679568192
505296970.0 -0.1338052296 0.2592750742 0.2021850005 -0.3780718149 0.2022296504 -0.3780281994 -0.1439467863 0.2694682587
510296940.0 -0.1308952535 0.2606805747 0.1983400978 -0.3804124764 0.1982761388 -0.3805785823 -0.1406861203 0.2717786017
515296910.0 -0.1282886923 0.2625726995 0.19390658 -0.3822687106 0.194370195 -0.3824194244 -0.1380536995 0.2729654089
520296880.0 -0.1253548551 0.2638945476 0.1895280818 -0.3846847647 0.1900051583 -0.3843893506 -0.1352956486 0.274572461
525296850.0 -0.1229443888 0.2651772638 0.1857730259 -0.3862900252 0.1859640256 -0.38711577 -0.1321492826 0.2763219261
530296820.0 -0.1198460596 0.2666327734 0.1818022183 -0.3880440703 0.1815309788 -0.3885089174 -0.1297978577 0.2775859628
535296790.0 -0.1172477465 0.267994538 0.1776813681 -0.3902042992 0.1774248845 -0.3902304189 -0.1271488389 0.278924416
540296760.0 -0.1141265727 0.2693744243 0.1728909266 -0.3924968725 0.1729483654 -0.3925521269 -0.1243633551 0.281034817
545296730.0 -0.1115453914 0.270721464 0.1684976698 -0.393820087 0.1688200591 -0.3940163237 -0.1214439782 0.2822168118
550296700.0 -0.108881317 0.2722679529 0.1642649292 -0.3960031241 0.1650556904 -0.3960992162 -0.1183645536 0.2836997144
555296670.0 -0.1054237678 0.2733905018 0.1600888706 -0.3973913028 0.1604239164 -0.397412612 -0.1156151785 0.2851572555
560296640.0 -0.1030838825 0.2744378786 0.15595539 -0.3990847089 0.1558841964 -0.3991622906 -0.1124953185 0.2862867612
565296610.0 -0.1002051559 0.2758905437 0.151422722 -0.400832575 0.1512381161 -0.4007085884 -0.1097374678 0.2876620454
570296580.0 -0.0971925863 0.2768992076 0.1467552477 -0.402378282 0.1470477234 -0.4025535485 -0.1068001512 0.2893515247
575296550.0 -0.0940844343 0.2783154254 0.1424479709 -0.4039917254 0.1428022757 -0.4039759396 -0.1034763668 0.2903469148
580296520.0 -0.0911829207 0.2794423517 0.1384014134 -0.405498615 0.1381845629 -0.4055137063 -0.1006856267 0.2916454819
585296490.0 -0.0881253915 0.2804832212 0.1338859814 -0.4069051629 0.1338576076 -0.4068738607 -0.0978471203 0.2927915641
590296460.0 -0.0855147791 0.2812423215 0.1295136094 -0.407890889 0.129323072 -0.4084400767 -0.0946561352 0.2939875779
595296430.0 -0.0823696561 0.282826881 0.1251234066 -0.4097715017 0.1246166526 -0.4099495762 -0.0916492267 0.2948815279
600296400.0 -0.0794259182 0.2835042428 0.1205634375 -0.4107073037 0.1207241045 -0.4112856719 -0.0887525612 0.2965281748
605296370.0 -0.0763174313 0.2846272396 0.1159206259 -0.412444481 0.1161597244 -0.4119972545 -0.0857227141 0.2973260095
610296340.0 -0.0735028797 0.2856451495 0.1116401893 -0.413152572 0.1117894944 -0.4133551745 -0.0822993062 0.2985149615
615296310.0 -0.0701250814 0.2864787062 0.1066694674 -0.414370771 0.1068062889 -0.4148215162 -0.0794228708 0.2996529372
620296280.0 -0.0674354045 0.2872587232 0.102480924 -0.4150745189 0.1024274587 -0.4153323917 -0.0763054195 0.3000287472
625296250.0 -0.064032955 0.2882358965 0.0975060104 -0.4168304141 0.0979960094 -0.4167918929 -0.0735163882 0.3012480128
630296220.0 -0.0610303986 0.2890572277 0.0931957784 -0.4178511147 0.0937264694 -0.4180282727 -0.0700895565 0.3024848992
635296190.0 -0.0580004453 0.2899873077 0.0886782908 -0.4186477265 0.0889218283 -0.4181435418 -0.0674187888 0.3027347917
640296160.0 -0.0551620554 0.2902939911 0.0845175618 -0.4191277396 0.0843300363 -0.419465132 -0.0637107347 0.3038244713
645296130.0 -0.0522476299 0.2913931829 0.0796250155 -0.420552066 0.0799977481 -0.4205378798 -0.0613097354 0.3045246841
650296100.0 -0.0488746244 0.2925011317 0.0754584817 -0.4211496441 0.0752625196 -0.420823139 -0.0577541863 0.305411561
655296070.0 -0.0461893692 0.2926282593 0.0710802719 -0.421781028 0.0708238105 -0.4220662909 -0.0543443397 0.3062071694
660296040.0 -0.0429538103 0.2935893235 0.0664842132 -0.4223349319 0.0661662341 -0.422254953 -0.0514351898 0.3065952963
665296010.0 -0.0396406276 0.2937770875 0.0617894593 -0.4230001279 0.0618631343 -0.4233662175 -0.0482925545 0.3076528871
670295980.0 -0.036450711 0.2948143653 0.0571905967 -0.4238261213 0.0574667668 -0.4238817592 -0.0456511687 0.3078260801
675295950.0 -0.033382929 0.2951569516 0.0523795307 -0.4242802699 0.0527270242 -0.4248230744 -0.0417212493 0.3090371893
680295920.0 -0.0303214041 0.2959374172 0.0475560613 -0.4248758854 0.0477486793 -0.4249886014 -0.0387009214 0.3091710055
685295890.0 -0.0272756074 0.296109193 0.0434927093 -0.4251990841 0.0433347397 -0.4256321832 -0.0354924541 0.3097954385
690295860.0 -0.0235819373 0.2964383221 0.0388464304 -0.4255801354 0.0384208738 -0.425652461 -0.0319706863 0.3101799977
695295830.0 -0.0204785211 0.2966489361 0.0333547158 -0.4259357561 0.0337071377 -0.42611169 -0.0294761293 0.3110304349
700295800.0 -0.0171747605 0.2974790879 0.0288731342 -0.4266322359 0.0294456849 -0.426439078 -0.0255628049 0.3108955758
705295770.0 -0.01431771 0.2975834346 0.024689462 -0.426671995 0.0247445724 -0.4266549915 -0.0227985257 0.311795268
710295740.0 -0.0111222072 0.2981111523 0.0198093122 -0.4269103391 0.0202230129 -0.4268976143 -0.0197169515 0.3123732823
715295710.0 -0.0081891249 0.2983114607 0.0152437754 -0.4269386861 0.01581072 -0.426762559 -0.0160693045 0.3121988196
720295680.0 -0.0051520902 0.2979644712 0.0106357336 -0.4269362335 0.0109994627 -0.427524569 -0.0126218088 0.31270466
725295650.0 -0.0017042538 0.2984967157 0.0059098175 -0.4267309884 0.0060639646 -0.427116539 -0.0095462795 0.3131445864
730295620.0 0.0010598321 0.2984940893 0.001574682 -0.4268917664 0.0014521197 -0.4270330808 -0.006116802 0.312997463
735295590.0 0.0046630816 0.2986698587 -0.002906658 -0.4270722602 -0.0027629916 -0.4272461692 -0.0029217776 0.313265648
740295560.0 0.0073701395 0.2990510412 -0.0077922467 -0.426700415 -0.0077315481 -0.4267481375 0.0006096847 0.313157993
745295530.0 0.0111778134 0.298959897 -0.0126205369 -0.4269978026 -0.0121584931 -0.4268137815 0.0033671614 0.3137104517
750295500.0 0.0138958237 0.2988509011 -0.0166265425 -0.4264145778 -0.0168675203 -0.4265599235 0.0069591456 0.3135167856
755295470.0 0.0174890837 0.2993256586 -0.0213251301 -0.4262813274 -0.0211148589 -0.4265624316 0.0096177464 0.3139727242
760295440.0 0.0202541239 0.2989867435 -0.0262911659 -0.4260735372 -0.0261174636 -0.42623721 0.0127600372 0.3139481755
765295410.0 0.0234543094 0.2987969754 -0.0302983098 -0.4254011563 -0.0308631163 -0.4256481215 0.01694659 0.3141539799
770295380.0 0.0268375328 0.2990603749 -0.0356038611 -0.4251909251 -0.0352188925 -0.4257186032 0.0200048642 0.3141231877
775295350.0 0.0296794688 0.2989944682 -0.0396674835 -0.4246629102 -0.0398129462 -0.4246797265 0.0226695961 0.3134079399
780295320.0 0.0330063862 0.298380625 -0.0444505666 -0.4245446995 -0.0444661011 -0.4243930963 0.0260246603 0.3139033663
785295290.0 0.0360202797 0.2985680348 -0.0489442289 -0.423415411 -0.0489347137 -0.4238744909 0.0291338385 0.3135583895
790295260.0 0.0390859763 0.2982149226 -0.0534417188 -0.4232231695 -0.0534650386 -0.4235303332 0.0325990187 0.3133793977
795295230.0 0.0425438318 0.2982401844 -0.0577896664 -0.4222103658 -0.0578611633 -0.4225562196 0.0359158849 0.3136943658
800295200.0 0.0455085246 0.2977588082 -0.0629816975 -0.4219071979 -0.0631491451 -0.4219408113 0.0393060203 0.3131898645
805295170.0 0.0486854636 0.297144763 -0.0673591137 -0.4207708583 -0.0670362018 -0.4212044312 0.0419394981 0.3126501629
810295140.0 0.0522488112 0.2967400898 -0.0716769888 -0.4204887895 -0.0715726867 -0.4208402804 0.0456451934 0.3129985154
815295110.0 0.0550513985 0.2965638009 -0.0763303614 -0.4193076758 -0.0766109945 -0.4195898293 0.0486502146 0.3121304758
820295080.0 0.0582861797 0.2956465698 -0.0804441322 -0.4186776963 -0.0805642686 -0.4190042555 0.0518323976 0.3119132431
825295050.0 0.06174213 0.2953361794 -0.0853745414 -0.4173195614 -0.0855923057 -0.4179757189 0.0552789788 0.3115125166
830295020.0 0.0646683638 0.2948797892 -0.0898265358 -0.4164374647 -0.0901869714 -0.4168438588 0.0582810884 0.3110945394
