!Created with skrf (http://scikit-rf.org).
# Hz S RI R 50.0 
!freq ReS11 ImS11 ReS21 ImS21 ReS12 ImS12 ReS22 ImS22
300000.0 -0.7755895914 -0.0966644146 -0.0015460531 0.0029217762 -0.0014503965 0.0001910412 -0.7750278812 -0.1349293063
5299970.0 -0.7846086303 -0.0057291569 -1.06493e-05 3.72101e-05 0.0001319073 -0.0002025083 -0.7849062641 -0.0077357738
10299940.0 -0.7879168071 -0.0039862892 0.000148472 7.99453e-05 -0.0001215965 2.55597e-05 -0.7877052392 -0.0034853689
15299910.0 -0.7936147223 -0.0022989801 5.63518e-05 -2.86726e-05 9.17385e-05 -6.03477e-05 -0.7934767427 -0.001718761
20299880.0 -0.8001310698 0.0017191695 3.79884e-05 -0.0001974866 0.0001118185 0.0001676703 -0.7997690142 0.0020064945
25299850.0 -0.806474232 0.007726843 4.92782e-05 -9.15154e-05 -3.03522e-05 -8.1305e-06 -0.8060226944 0.0084121371
30299820.0 -0.8122597123 0.0153516008 -0.0001443569 0.0001229478 -0.0002628466 -0.000135026 -0.8120612496 0.0161353638
35299790.0 -0.8173897624 0.0244026505 -0.0001205313 5.92771e-05 -0.0001049686 -7.372e-06 -0.8168773645 0.0249646966
40299760.0 -0.8212398901 0.0338732455 0.0002508822 4.75768e-05 -6.24598e-05 7.15694e-05 -0.8213803949 0.0348545676
45299730.0 -0.8250168243 0.042812619 -8.80449e-05 5.98222e-05 -3.8376e-05 -0.0001401758 -0.8247782957 0.0442314297
50299700.0 -0.8271129908 0.0524222503 1.21418e-05 0.000125382 3.9328e-06 8.98746e-05 -0.8271918598 0.0540664573
55299670.0 -0.829752026 0.0627885399 -0.000103956 -7.41985e-05 6.79e-07 -3.6308e-05 -0.8294101743 0.0642349106
60299640.0 -0.8303287669 0.0738512992 -2.71726e-05 0.0001389148 0.0001639455 8.2863e-06 -0.8300781628 0.0742890354
65299610.0 -0.8308755763 0.0835254734 -0.0001605262 -1.62802e-05 3.05548e-05 5.48026e-05 -0.8319495768 0.0840095764
70299580.0 -0.8323222156 0.093387756 0.0001802393 0.0002102312 -0.0001425772 2.27031e-05 -0.8319022426 0.094263095
75299550.0 -0.8320811432 0.1034312905 -0.0001100097 -0.0002171637 -8.68893e-05 0.0001126957 -0.8322789978 0.1036967818
80299520.0 -0.8316256134 0.113111412 -8.08123e-05 -6.25509e-05 5.79778e-05 -0.0001053481 -0.8321529188 0.1140414712
85299490.0 -0.8309061345 0.1227155265 -0.000146437 -0.0001853412 0.000129525 -9.42808e-05 -0.8315706606 0.1235748365
90299460.0 -0.8302711226 0.1320004685 -5.3704e-06 -7.46667e-05 7.4903e-06 4.5927e-06 -0.8304925735 0.1333610604
95299430.0 -0.8292568395 0.1414917792 0.0001325412 -0.0001102671 -3.16386e-05 9.5983e-05 -0.8287835179 0.1428656874
100299400.0 -0.8279030121 0.1510953281 7.44499e-05 -9.42414e-05 -5.21854e-05 0.0001332978 -0.8283778692 0.1523449966
105299370.0 -0.8269599432 0.1600514931 -4.33916e-05 -0.0001071634 -7.28218e-05 0.0002371906 -0.8265367068 0.1612878572
110299340.0 -0.8251802448 0.1693707671 9.03639e-05 -0.0001171696 -4.20835e-05 4.92444e-05 -0.8257570547 0.1705674556
115299310.0 -0.8235305256 0.1780776343 -7.64022e-05 -4.35406e-05 0.0001290816 -7.52042e-05 -0.8239560686 0.1798920226
120299280.0 -0.8219873473 0.1870576455 -6.84442e-05 6.95186e-05 0.0001252503 -1.65381e-05 -0.8219344141 0.18847484
125299250.0 -0.8201554504 0.1956555956 9.95191e-05 -8.69316e-05 0.0002114704 0.0001518224 -0.8209461454 0.1979229814
130299220.0 -0.8186304491 0.2049538992 -8.00316e-05 -5.06853e-05 -0.0002751617 -2.60699e-05 -0.8186257266 0.2068179824
135299190.0 -0.8171512631 0.2142385627 -0.0001615417 -6.26213e-05 -7.28839e-05 -0.0001528979 -0.8162664545 0.2158341344
140299160.0 -0.8149061843 0.2230209526 -0.0001453098 -8.6916e-06 -0.000152929 0.000121779 -0.8142520142 0.2248015333
145299130.0 -0.81248693 0.2323644137 -1.79343e-05 -1.12917e-05 -0.0001482704 -8.05338e-05 -0.8121732047 0.2339487076
150299100.0 -0.8101652101 0.2403226788 0.0002577757 0.0001967567 -2.82734e-05 -0.0001022734 -0.810236062 0.2426938978
155299070.0 -0.8078445317 0.2493339799 -0.000156461 -0.0001616385 -3.3986e-06 -0.0001045033 -0.8074158715 0.2516264478
160299040.0 -0.8049213807 0.2579113169 3.87803e-05 -7.22673e-05 -0.0001074412 -1.98274e-05 -0.8053033757 0.2604436007
165299010.0 -0.8031605909 0.2665254139 0.0001566236 -0.0001305265 -7.91525e-05 5.915e-05 -0.8021172723 0.2692916839
170298980.0 -0.7999666478 0.2753141114 -4.94197e-05 -0.0001782593 9.71812e-05 -4.49051e-05 -0.7992803069 0.2780735073
175298950.0 -0.7971074786 0.283780941 0.0001806094 0.000161059 6.1848e-05 5.4064e-05 -0.7967127325 0.286545001
180298920.0 -0.7944995565 0.2924275938 -0.0001837154 -5.40135e-05 0.0001410036 -0.0001532211 -0.7938929782 0.2949915135
185298890.0 -0.7911580334 0.30127144 1.18003e-05 0.0002537668 -0.0002407627 5.9166e-06 -0.7900969995 0.3036505097
190298860.0 -0.7886678553 0.3092892949 -0.0001603289 -2.25642e-05 8.35853e-05 -0.0001862931 -0.7881471741 0.3128188327
195298830.0 -0.7854098282 0.3178659175 -3.30249e-05 -0.0001167529 -0.0002372297 -8.81084e-05 -0.7846565 0.3209318623
200298800.0 -0.7812930392 0.326090332 -0.0001885919 4.81793e-05 -9.6997e-06 5.41204e-05 -0.7817068673 0.3293433701
205298770.0 -0.7782869911 0.3339794378 0.000106821 -5.05744e-05 0.0001013146 -0.0001143329 -0.7772476529 0.3371969078
210298740.0 -0.7748347722 0.3421766766 8.12747e-05 -0.0001121372 -8.99884e-05 0.0001041933 -0.7740423057 0.3457473469
215298710.0 -0.7714793561 0.3504317027 -0.0001211202 -0.000199614 -0.0001285122 0.0001155615 -0.7711026562 0.3538601092
220298680.0 -0.7672367102 0.3581729076 -0.0002199847 5.53051e-05 -4.56865e-05 -0.0001947569 -0.7677087227 0.36180839
225298650.0 -0.7646569447 0.3663526651 0.0001194109 0.0001684 -5.76429e-05 4.37299e-05 -0.7638417 0.3697873937
230298620.0 -0.7606439944 0.3746650169 -7.55105e-05 0.000261676 -3.8927e-06 3.69418e-05 -0.7601329851 0.3785744848
235298590.0 -0.7563667308 0.3828344721 -0.0002026489 1.07871e-05 -2.05193e-05 -6.03512e-05 -0.7559447013 0.3865923058
240298560.0 -0.7520786719 0.3911682526 1.26351e-05 0.0002975619 1.93786e-05 1.51497e-05 -0.7518054963 0.3950213383
245298530.0 -0.7484702508 0.3981612008 -0.0001610898 4.00187e-05 0.0002390903 7.25981e-05 -0.7479180862 0.4021369768
250298500.0 -0.7440546009 0.4072963573 -2.87144e-05 6.43858e-05 -0.0002483059 0.0001059511 -0.7433652447 0.4099136197
255298470.0 -0.739948188 0.4136914462 -2.64765e-05 6.0523e-06 4.11853e-05 -5.82286e-05 -0.7388333802 0.4178259182
260298440.0 -0.7356685054 0.4214371653 -0.0002929654 5.0953e-06 -7.82354e-05 -0.0002478216 -0.734715362 0.4262907113
265298410.0 -0.7313701293 0.4298144366 4.82529e-05 0.0001252046 -4.74253e-05 0.0001724397 -0.7302932882 0.4335671136
270298380.0 -0.7268977727 0.4374401591 -0.0001193636 7.12992e-05 5.9094e-06 -5.45825e-05 -0.7256341387 0.441025114
275298350.0 -0.7222783789 0.4442972612 7.7244e-06 -6.05777e-05 7.27364e-05 0.0001549703 -0.7210011134 0.4485311657
280298320.0 -0.7170948973 0.4521839859 -0.0001287698 -4.43365e-05 -1.38739e-05 -9.94889e-05 -0.7158991627 0.4559821648
285298290.0 -0.7134107882 0.4599830487 -4.86152e-05 2.52811e-05 -9.58325e-05 3.2013e-06 -0.7109224603 0.4634724936
290298260.0 -0.70743774 0.4676178495 -6.07677e-05 4.085e-05 -0.0001108209 -5.53698e-05 -0.7060306122 0.4705075223
295298230.0 -0.7024405448 0.4743114226 3.18459e-05 -0.0001585699 -8.94485e-05 0.0001992367 -0.701264737 0.4775824617
300298200.0 -0.6981002265 0.4817894004 -6.65788e-05 -0.0001087483 4.84721e-05 -5.90645e-05 -0.6960875747 0.4858806322
305298170.0 -0.6927921505 0.487922704 -9.64476e-05 3.1624e-06 -8.76966e-05 -8.87445e-05 -0.6904307233 0.4929816623
310298140.0 -0.6878536456 0.495765025 3.20619e-05 -0.0001918929 4.99522e-05 -0.0002550061 -0.6857100895 0.4995468245
315298110.0 -0.6829795121 0.5028792965 6.64532e-05 0.0002015859 -1.39181e-05 5.42884e-05 -0.6798919597 0.5068098842
320298080.0 -0.6776358988 0.510325312 0.0001964676 0.0001519188 6.55977e-05 -9.4073e-06 -0.6751353087 0.5142693551
325298050.0 -0.6722037005 0.5170917834 3.04023e-05 -0.0001303106 2.43735e-05 9.94716e-05 -0.6689411229 0.5210086342
330298020.0 -0.6662499275 0.5238886419 -0.0003335724 0.0002593365 -0.0001219643 -0.0001797069 -0.663962649 0.5280889727
335297990.0 -0.6606935187 0.5303307693 -0.0001753401 -2.09677e-05 -0.0002195789 -9.22806e-05 -0.6585543594 0.5354965004
340297960.0 -0.6560258872 0.5377924938 5.49663e-05 0.0001772408 -0.000223553 0.0001343582 -0.6527141691 0.5416796613
345297930.0 -0.6499703591 0.544286253 -5.40888e-05 0.0002000897 1.30694e-05 -0.0001573374 -0.6471291084 0.5486007621
350297900.0 -0.6444542118 0.550792225 -6.27275e-05 2.22737e-05 4.85005e-05 0.0002314892 -0.6414510312 0.5556785865
355297870.0 -0.6385795899 0.55767837 -7.78768e-05 9.54492e-05 -0.000128583 -0.0002128985 -0.6356042075 0.5617362908
360297840.0 -0.6327402978 0.5640036198 -0.0001737512 3.38239e-05 -9.88618e-05 -0.0001810536 -0.6300165998 0.5687182504
365297810.0 -0.6272961788 0.5699601097 -5.77308e-05 -0.0003444788 2.48281e-05 -0.0001339739 -0.6234357098 0.5752953747
370297780.0 -0.6212665642 0.5763029579 -0.0002752109 9.2847e-06 -0.0001592961 0.0001570761 -0.6178495128 0.5821659237
375297750.0 -0.6149178618 0.5835061153 6.99175e-05 0.0001178052 6.72796e-05 -0.0002326066 -0.6116460261 0.5876403062
380297720.0 -0.6089206332 0.5888192681 4.70448e-05 -0.0001522435 0.0001012389 -0.0002119328 -0.6056549104 0.5941825613
385297690.0 -0.6031394177 0.5956277852 -0.0001024449 -1.79037e-05 7.11534e-05 -7.90379e-05 -0.5994220651 0.6007181841
390297660.0 -0.5969871798 0.6011768505 0.0002024082 0.0001640299 -0.0001041371 9.1507e-06 -0.5934493249 0.6068065022
395297630.0 -0.5902808356 0.6084485814 0.0001117652 0.0001082672 0.0001584122 0.0002695259 -0.5863282706 0.6134729004
400297600.0 -0.5842131368 0.6137959043 -0.0001310601 2.6735e-05 2.87844e-05 0.0001208832 -0.5806195064 0.6188255234
405297570.0 -0.5777656571 0.6197547687 -3.06488e-05 -8.85088e-05 0.0001866884 3.89145e-05 -0.5747107981 0.6243578938
410297540.0 -0.5714536339 0.6248879476 -3.07285e-05 8.11645e-05 -8.989e-05 -0.0001453918 -0.5675999054 0.6306797809
415297510.0 -0.5646728534 0.6305656973 -1.16374e-05 0.0001226672 -2.77268e-05 8.83323e-05 -0.5614689758 0.6363814402
420297480.0 -0.5595853046 0.6371860846 -1.82533e-05 0.0001450877 1.49073e-05 9.60575e-05 -0.554412144 0.6423696186
425297450.0 -0.5518303541 0.6422420672 -0.000140952 -6.09599e-05 9.19419e-05 0.0002474648 -0.5483299427 0.6474742001
430297420.0 -0.5456949716 0.6481855263 -0.0001925765 0.0002838498 2.35053e-05 -4.77896e-05 -0.5410985122 0.652277921
435297390.0 -0.5388241533 0.6530892706 4.24914e-05 -7.75995e-05 3.92618e-05 0.0001163941 -0.5340726139 0.6583327199
440297360.0 -0.5322658181 0.6588390586 0.0001350465 0.0001821908 0.0001632064 0.0001606992 -0.5271837984 0.6638051899
445297330.0 -0.5247708441 0.6641183679 0.000112051 0.0001709014 9.86361e-05 2.8846e-05 -0.5203346687 0.6688789944
450297300.0 -0.5180360973 0.6692316794 -0.0002460955 0.0001498257 -7.92634e-05 0.0001776859 -0.5135565259 0.6739727448
455297270.0 -0.5115393262 0.6746238625 -0.0001201846 6.23499e-05 9.61034e-05 3.46199e-05 -0.5065932764 0.6782296247
460297240.0 -0.5053610096 0.6794098392 4.07932e-05 -6.98023e-05 0.0003704036 -7.47992e-05 -0.4996747676 0.6836779632
465297210.0 -0.4981866882 0.6846288308 -5.59913e-05 -0.0001029222 -0.0001184536 7.66831e-05 -0.4918896964 0.6891105106
470297180.0 -0.4901406469 0.6897106592 -0.0001019937 6.10865e-05 -0.0001760888 7.82627e-05 -0.4849959313 0.694448193
475297150.0 -0.4836827998 0.6942427107 -0.0001127944 -0.0001458953 -6.79188e-05 2.34564e-05 -0.47779339 0.6982844552
480297120.0 -0.4764779433 0.6993581146 8.72684e-05 0.0001152465 -0.0001634459 7.99398e-05 -0.4703354196 0.7035133008
485297090.0 -0.4694763282 0.7040360102 0.000128634 0.000129251 -5.26788e-05 1.42373e-05 -0.4635457477 0.7083272714
490297060.0 -0.4622948985 0.7084413487 0.0001213638 -2.59064e-05 3.0833e-06 -8.70515e-05 -0.4561675446 0.7123406637
495297030.0 -0.4550112629 0.7130274496 1.19622e-05 -9.16581e-05 0.0001212722 -0.0001369006 -0.4487317898 0.7179271209
500297000.0 -0.44811096 0.7178616916 0.0002302584 -0.0001284477 0.0001135964 -0.0001438404 -0.4409248618 0.7225493585
505296970.0 -0.4401235218 0.7228235625 3.48078e-05 -6.65454e-05 -5.41836e-05 9.85341e-05 -0.433917763 0.7267405741
510296940.0 -0.432584945 0.7265421271 -3.03369e-05 0.0001314407 3.95896e-05 1.9691e-06 -0.4261222994 0.7309543696
515296910.0 -0.4247295944 0.7301892639 0.000104529 2.07671e-05 -8.11659e-05 -0.0001281542 -0.4189433227 0.7352335951
520296880.0 -0.4185360047 0.7352459445 0.0001418605 -3.67036e-05 -0.000166876 -6.02954e-05 -0.4111767107 0.7394248194
525296850.0 -0.4104777508 0.7390061273 -7.15735e-05 -3.96961e-05 -4.51153e-05 -3.35924e-05 -0.4040192244 0.7437176328
530296820.0 -0.4029539483 0.7432918738 9.84861e-05 -9.58587e-05 -0.000203125 5.29397e-05 -0.3962688865 0.7476681015
535296790.0 -0.3960696263 0.7470983053 0.0001058513 1.82178e-05 -8.19481e-05 9.88452e-05 -0.389424889 0.7512321884
540296760.0 -0.388421321 0.7510124179 3.02756e-05 -0.0001725368 -3.26837e-05 -4.934e-06 -0.3817186368 0.7556285032
545296730.0 -0.3810613525 0.755047657 7.60856e-05 -6.37939e-05 0.00014415 -8.12503e-05 -0.3738017982 0.7592627386
550296700.0 -0.3730512831 0.7591252973 -0.0001351771 -8.58e-06 8.83149e-05 3.18957e-05 -0.3661037699 0.7630334188
555296670.0 -0.3652807991 0.7616852384 -0.0003194853 -3.0612e-06 0.0002253606 8.70008e-05 -0.3582507962 0.7672522179
560296640.0 -0.3576142015 0.7663340922 -0.0001155454 5.94743e-05 0.0001775113 2.5617e-06 -0.3503528219 0.7701091469
565296610.0 -0.3496157181 0.769687289 0.0001168533 2.56811e-05 1.8775e-05 -7.71785e-05 -0.3425534347 0.7737575974
570296580.0 -0.3427873913 0.7722139713 -8.52528e-05 -9.50375e-05 7.54702e-05 -3.14074e-05 -0.3351533131 0.7777464699
575296550.0 -0.3346526882 0.7764007337 -8.36042e-05 -3.003e-07 -9.70348e-05 -0.0001822592 -0.327162271 0.7810269691
580296520.0 -0.3264722312 0.7796848146 -0.0001385921 7.5931e-05 -0.0001100427 -0.0001285675 -0.3185525401 0.7838611591
585296490.0 -0.3190846327 0.7823331623 -4.61132e-05 -8.64834e-05 0.0001928598 2.98938e-05 -0.3105775514 0.7877786598
590296460.0 -0.3104302386 0.7860039159 8.23725e-05 -0.0001481409 -0.0001816058 3.25011e-05 -0.3032974733 0.7899781642
595296430.0 -0.3034964863 0.7886255939 0.0001840171 0.0001049961 -0.0001043422 -8.07354e-05 -0.2950493776 0.7922679668
600296400.0 -0.2950709099 0.791809485 5.26544e-05 -9.32019e-05 3.58911e-05 0.0001103222 -0.2871130622 0.7955883228
605296370.0 -0.2878720166 0.7947634561 1.10896e-05 0.0002837483 3.35278e-05 -0.0001303478 -0.2780859962 0.7981574519
610296340.0 -0.2790862635 0.7973615603 -2.61004e-05 -2.59906e-05 -0.0002663596 -1.46428e-05 -0.270498282 0.8009329596
615296310.0 -0.2705476633 0.7998927958 0.0001513785 -5.82155e-05 0.0001573382 -8.16155e-05 -0.2617175809 0.8031042705
620296280.0 -0.2631732908 0.8019232564 6.27862e-05 -4.58409e-05 -0.0002240582 -1.29043e-05 -0.2545454128 0.8057855719
625296250.0 -0.2549411645 0.804904247 -3.6179e-06 3.2265e-06 -2.55908e-05 2.11455e-05 -0.2456544088 0.8075834753
630296220.0 -0.2457671559 0.8073199162 0.0001719437 -0.0001556875 -5.6952e-06 6.9837e-06 -0.2377274243 0.8105665815
635296190.0 -0.2392295892 0.8102056866 -8.00778e-05 -0.0001350756 0.0001140142 -7.45046e-05 -0.2300408278 0.8125467111
640296160.0 -0.2314239481 0.8121660718 -0.0001740463 -0.0001262145 1.4969e-05 0.0001516649 -0.2210122922 0.8156844898
645296130.0 -0.2229266434 0.8152714334 -3.54553e-05 -4.31325e-05 7.83718e-05 -0.000230013 -0.2132052732 0.8174786259
650296100.0 -0.2149591055 0.8167148416 3.12356e-05 -5.0575e-05 -1.37709e-05 5.70474e-05 -0.2049299074 0.8189404915
655296070.0 -0.206813067 0.8192886676 -0.0001484833 -0.0001037112 -0.0001353279 -5.60569e-05 -0.1964123724 0.8210358932
660296040.0 -0.19774153 0.8205884562 6.21355e-05 -0.000156461 2.30268e-05 -1.89622e-05 -0.1877483592 0.8236225375
665296010.0 -0.1898264367 0.8219290962 -0.0001867238 0.0001464108 -0.0003364145 -6.91709e-05 -0.1790330261 0.8254173241
670295980.0 -0.1820429766 0.8247056409 0.0001799221 -1.824e-05 -6.64745e-05 5.71455e-05 -0.1716941638 0.8266812722
675295950.0 -0.1738394166 0.8261349561 0.0001168934 -6.38702e-05 -0.000120723 5.68553e-05 -0.1635635952 0.8286286985
680295920.0 -0.1650348369 0.8282332746 1.21104e-05 8.73787e-05 4.20488e-05 0.0001166294 -0.1550267221 0.8311898979
685295890.0 -0.1567913013 0.830550184 0.0001830464 4.00832e-05 -1.3974e-06 -3.8037e-05 -0.1465220047 0.8313356985
690295860.0 -0.14943894 0.8308192027 7.92063e-05 -3.9233e-05 0.0002275815 -2.476e-07 -0.138311798 0.833540349
695295830.0 -0.1407740358 0.8321114054 -0.0001793753 -0.0001547198 7.73372e-05 -5.65028e-05 -0.1294829914 0.8349672416
700295800.0 -0.1318483869 0.8337119785 0.0002200841 -0.0001090147 1.78591e-05 -2.995e-06 -0.122589213 0.8363975731
705295770.0 -0.1240939005 0.8355482043 -0.0003429618 -0.0002484057 3.30072e-05 0.0001570705 -0.113748628 0.837768153
710295740.0 -0.1160658685 0.836340614 -0.0001060656 0.0001534394 0.0001553049 0.0001226788 -0.1046903129 0.8387236806
715295710.0 -0.1075041731 0.8370963036 -4.23183e-05 5.52843e-05 0.0001277718 -0.000125298 -0.0967248119 0.8394827362
720295680.0 -0.0995286343 0.8382122307 2.94164e-05 -1.60141e-05 0.0001676303 6.02067e-05 -0.0887313628 0.8404915621
725295650.0 -0.0912919773 0.8395608886 -8.82602e-05 -0.0001265485 -2.93873e-05 8.82797e-05 -0.0807348764 0.841666776
730295620.0 -0.0821228088 0.839991789 0.0001405105 2.45302e-05 -8.3162e-06 9.71221e-05 -0.0718935579 0.8418155468
735295590.0 -0.0743504466 0.8414186236 -0.0003404246 5.92471e-05 7.65691e-05 0.0001006891 -0.0636758218 0.8425785912
740295560.0 -0.0664388555 0.8422478893 -6.22219e-05 -1.17091e-05 -0.0001987121 0.0001430591 -0.0545352745 0.844002522
745295530.0 -0.0575241322 0.8424166946 -5.29632e-05 -0.0001840386 0.0001696996 0.0001357292 -0.0462848594 0.8436102498
750295500.0 -0.0488896101 0.8426961407 8.04092e-05 0.0001049328 -1.90804e-05 5.07607e-05 -0.0381342527 0.8442757569
755295470.0 -0.040812856 0.8433917288 -0.0002662914 0.0001434741 -4.8478e-05 9.69283e-05 -0.0295425395 0.8439389682
760295440.0 -0.032726717 0.8433622524 6.55812e-05 9.16498e-05 3.85428e-05 -2.67097e-05 -0.0216563817 0.8444636218
765295410.0 -0.0244187563 0.8437097685 -0.0002302015 -9.8706e-05 -6.8342e-05 0.0001700188 -0.0125953021 0.8449112234
770295380.0 -0.0160822853 0.8439604266 7.6275e-06 4.31506e-05 6.7886e-05 -0.0001604122 -0.0040919587 0.8448065702
775295350.0 -0.0082297868 0.8443210973 -0.0001844978 3.946e-05 -3.12844e-05 6.40608e-05 0.0034052468 0.8446234848
780295320.0 0.0006293568 0.8441129089 -0.0001631888 2.42301e-05 -0.0001929327 -0.0002451354 0.0124962532 0.8439025937
785295290.0 0.0086112233 0.8437000725 4.13043e-05 0.0001499582 -0.0001569955 -0.0001511878 0.020762721 0.8440811004
790295260.0 0.017563316 0.8438575371 3.0728e-06 -7.62381e-05 5.48714e-05 0.0002256602 0.0298720928 0.8437049913
795295230.0 0.0254125112 0.843719919 7.26553e-05 0.0004015673 0.0001466409 4.06396e-05 0.0382309428 0.8431923329
800295200.0 0.0336480927 0.8432872952 -0.0001095414 -4.1658e-05 -0.0002210532 -7.64209e-05 0.0464080149 0.842921329
805295170.0 0.0425266836 0.8430807575 -0.0002261078 0.00012908 7.56174e-05 0.0001200439 0.0544762243 0.8425060491
810295140.0 0.0507406803 0.8426718243 -0.0001088965 -0.0003762599 0.000135992 2.91977e-05 0.0635383601 0.8414136757
815295110.0 0.0588825478 0.8418128663 2.60631e-05 0.0001353751 2.04437e-05 2.27085e-05 0.0720990903 0.840959361
820295080.0 0.0668404625 0.8413065929 -0.0001463984 3.6655e-06 2.77103e-05 -4.2235e-05 0.0800639492 0.8403733634
825295050.0 0.0762168539 0.8401871392 -0.0001408555 -0.0001036414 -0.0001830349 -5.0252e-05 0.087873798 0.8395408217
830295020.0 0.0837287328 0.8399143611 8.30058e-05 -0.000112623 2.1544e-05 -0.0001691828 0.0974352683 0.8389322012
835294990.0 0.0917318785 0.839120888 -0.0001989719 5.16211e-05 -9.76029e-05 5.91721e-05 0.1047383246 0.8379839303
840294960.0 0.0999242693 0.83797996 -0.0002519615 -0.0002327389 0.0002023813 8.32492e-05 0.1133638004 0.8367271915
845294930.0 0.1083181287 0.8370846409 0.0001439617 0.0001381861 3.2293e-05 -4.94548e-05 0.1214987824 0.8348939151
