!Created with skrf (http://scikit-rf.org).
# Hz S RI R 50.0 
!freq ReS11 ImS11 ReS21 ImS21 ReS12 ImS12 ReS22 ImS22
300000.0 -0.3146929169 -0.131716388 0.3722178208 0.0660780995 0.3706807428 0.0653135696 -0.3152018302 -0.1313524523
5299970.0 -0.3249188522 0.0026562609 0.3782894508 0.0031784136 0.3789982718 0.0035997856 -0.3256751668 0.0016526432
10299940.0 -0.3226606729 0.014102839 0.3801597337 0.0028068056 0.3799102965 0.0028107951 -0.3233291825 0.012421108
15299910.0 -0.3189934223 0.0223710419 0.3819990057 0.002636697 0.3823379741 0.0027949071 -0.3206941721 0.0197218732
20299880.0 -0.3154638691 0.0290824916 0.385228505 0.0016708634 0.385420502 0.0018893947 -0.3177663007 0.0260229719
25299850.0 -0.3115134787 0.0346667369 0.3886304784 0.0005063297 0.3886799852 0.0002348616 -0.3148944229 0.0315265751
30299820.0 -0.308249604 0.0394103057 0.392018392 -0.0019361501 0.392171718 -0.002065745 -0.3118637573 0.0357780682
35299790.0 -0.3046455464 0.0434074612 0.3948554611 -0.0050539812 0.3955454353 -0.0051850311 -0.3090476692 0.0402131097
40299760.0 -0.3014192316 0.0470558039 0.3984145959 -0.0085997501 0.3983856589 -0.0088149221 -0.3064107563 0.0432547026
45299730.0 -0.2980035051 0.050218689 0.4011478776 -0.0124312724 0.401601798 -0.0125464106 -0.303501201 0.0465876692
50299700.0 -0.294647468 0.0527743497 0.4034711227 -0.0171926836 0.4037170422 -0.0173818591 -0.3010540579 0.0496656063
55299670.0 -0.2922831161 0.0553168044 0.4058794216 -0.0218067932 0.4058389967 -0.0217579743 -0.2993218274 0.0526346204
60299640.0 -0.2896776753 0.0578647429 0.4081355102 -0.0267346504 0.4082077798 -0.0266459665 -0.2968936978 0.0549657691
65299610.0 -0.2874033958 0.0600303853 0.4097408041 -0.0314036393 0.409826792 -0.0315812984 -0.2948017417 0.057310239
70299580.0 -0.2852661241 0.0620226402 0.4107659867 -0.036247103 0.4111360708 -0.0366403374 -0.2937265798 0.0596765871
75299550.0 -0.2836256401 0.0641103102 0.411755596 -0.0420602095 0.4117664144 -0.0417612362 -0.2916856423 0.0623096887
80299520.0 -0.2816012756 0.0666119038 0.4129261403 -0.0475130044 0.413115981 -0.0474561675 -0.2903507279 0.0647554582
85299490.0 -0.2796526903 0.0683459765 0.4131501719 -0.0526701768 0.4133193144 -0.052492346 -0.2890823919 0.0669778049
90299460.0 -0.2783027819 0.0705938868 0.4135823258 -0.0576785195 0.4135444337 -0.0577910417 -0.2875588498 0.0693514476
95299430.0 -0.2768969053 0.0728127382 0.41413825 -0.0628182752 0.4142388359 -0.0632154652 -0.2863260111 0.0717752997
100299400.0 -0.2754547785 0.0748111706 0.4140705365 -0.0679867373 0.4138446482 -0.0682971568 -0.285392333 0.0743090333
105299370.0 -0.2739338966 0.0765926374 0.4139421794 -0.073302511 0.4143771305 -0.0734665015 -0.2839300727 0.0762251339
110299340.0 -0.2725616022 0.0785712754 0.4137564915 -0.0782546488 0.4139773109 -0.0783395534 -0.2832439657 0.0784742451
115299310.0 -0.2717025007 0.0811975234 0.4134840887 -0.0835965225 0.4137186993 -0.0838062616 -0.2820677411 0.0815544599
120299280.0 -0.2704065526 0.0834855491 0.4129356313 -0.0891784157 0.4131226029 -0.0894070954 -0.2809520083 0.0833218647
125299250.0 -0.2692018493 0.0852310803 0.4124995596 -0.0940667195 0.4123805333 -0.0936805871 -0.2798984791 0.0861240662
130299220.0 -0.2681975564 0.0876819262 0.411821699 -0.0992082855 0.4120741743 -0.0993258654 -0.2790834501 0.0884293356
135299190.0 -0.2671677149 0.0900413523 0.4112801162 -0.1038004614 0.4116507514 -0.1042667567 -0.2781016282 0.0905909082
140299160.0 -0.266202966 0.0925134663 0.4104269043 -0.1094704664 0.410407577 -0.108983094 -0.2773660207 0.0930559131
145299130.0 -0.2652552597 0.0948774786 0.4095088078 -0.1140131767 0.4095164934 -0.1139396927 -0.2764818187 0.0958630037
150299100.0 -0.2640780107 0.0967067163 0.4084828139 -0.1189513114 0.4084558534 -0.1191798326 -0.2755471305 0.09833668
155299070.0 -0.2627161054 0.0995702604 0.406982774 -0.1236467156 0.4073186531 -0.1239506272 -0.2748346176 0.1008569027
160299040.0 -0.2621207921 0.1021578231 0.4058264966 -0.1288613831 0.4061393743 -0.1288379139 -0.2741645201 0.103535044
165299010.0 -0.2610823599 0.1042376461 0.4048148049 -0.1331602926 0.4047997346 -0.1336103118 -0.2727346309 0.1058484033
170298980.0 -0.2601481253 0.10679732 0.4032679614 -0.137942507 0.403597831 -0.1384373485 -0.2721822488 0.1085573388
175298950.0 -0.2591768284 0.1092369206 0.4020761597 -0.1431537213 0.4026816583 -0.1433807435 -0.2708477288 0.1117252159
180298920.0 -0.2581908987 0.1117490597 0.4005140459 -0.1479683654 0.4006972711 -0.1479744842 -0.2696637496 0.1139278952
185298890.0 -0.2569594496 0.1141927725 0.3993111416 -0.1524352332 0.3990801495 -0.1527931327 -0.2686643838 0.1166076633
190298860.0 -0.2560650714 0.1172477454 0.3972335108 -0.1570900121 0.3978614326 -0.1570588407 -0.2679062437 0.1193282454
195298830.0 -0.2547041752 0.11984473 0.3958748803 -0.1619202433 0.3961346429 -0.1620582531 -0.2667146548 0.1218969763
200298800.0 -0.2533212075 0.1222669551 0.3942412087 -0.1670326005 0.394374274 -0.1667241727 -0.2654090823 0.124612632
205298770.0 -0.2526514675 0.1247807952 0.3922231649 -0.171150075 0.3925571707 -0.1710012764 -0.2643669106 0.1272233514
210298740.0 -0.2514518558 0.127144306 0.3907751392 -0.1756062945 0.3905942834 -0.1758664229 -0.2635028864 0.1300561728
215298710.0 -0.2502929659 0.1302585307 0.3882246717 -0.1800141074 0.3886977044 -0.1804379121 -0.2623425943 0.1327234823
220298680.0 -0.248811962 0.1326511896 0.3862005444 -0.1847207382 0.3869513476 -0.1849278678 -0.2610848523 0.1355091794
225298650.0 -0.2477528803 0.1351837932 0.3843323356 -0.1889904623 0.3849822387 -0.1887204265 -0.2597574999 0.1380573953
230298620.0 -0.2464521288 0.1378557925 0.3826021766 -0.1935267711 0.3829558062 -0.1933281235 -0.2588138499 0.1406398387
235298590.0 -0.2452588649 0.1406755891 0.3808622474 -0.1978554732 0.3808370891 -0.1981725651 -0.2574652479 0.143457042
240298560.0 -0.2438698252 0.1431953745 0.3782510809 -0.202034378 0.3783674293 -0.2023028324 -0.2562117013 0.1458991283
245298530.0 -0.2427032801 0.1454852927 0.3758891329 -0.206592927 0.3761405085 -0.2064734742 -0.2546918883 0.1484536449
250298500.0 -0.2416387424 0.1482681107 0.3740921759 -0.2106631908 0.374296568 -0.210615175 -0.253533454 0.1516698961
255298470.0 -0.2401735276 0.1510780742 0.3720192057 -0.2145970331 0.3720756022 -0.21513863 -0.2520461073 0.1541721612
260298440.0 -0.2384224596 0.1536615983 0.3694272606 -0.2189297587 0.3695470782 -0.2189310936 -0.2504314467 0.1564956078
265298410.0 -0.2373778492 0.1562373429 0.3668173059 -0.2236852606 0.3665378037 -0.2236440187 -0.2486925137 0.1593590061
270298380.0 -0.2359233853 0.1586282996 0.3642992061 -0.2273697078 0.3642049921 -0.2274258218 -0.247313859 0.1622236808
275298350.0 -0.23440215 0.1614053474 0.3614247252 -0.2314294143 0.3617090718 -0.2316751665 -0.2456896372 0.1649965282
280298320.0 -0.2332084418 0.163911783 0.3598264695 -0.2352771483 0.3596785861 -0.2359721441 -0.2442403465 0.1678142843
285298290.0 -0.231425237 0.1665776535 0.3566441182 -0.2398196207 0.3571035704 -0.2393696559 -0.2426338821 0.1701870721
290298260.0 -0.2297218144 0.1692726116 0.3545457696 -0.2436290046 0.3543764513 -0.2437250186 -0.2408886678 0.1729784696
295298230.0 -0.2284577403 0.1716453756 0.3512867447 -0.2477499837 0.3517001836 -0.2481596552 -0.2389903605 0.175370157
300298200.0 -0.2268735585 0.1742693264 0.3491357073 -0.2518587822 0.3487112572 -0.2516285506 -0.2375389925 0.1781717586
305298170.0 -0.2251763847 0.1764321729 0.3463228802 -0.2557040649 0.3463414639 -0.2560324366 -0.235556332 0.1803326298
310298140.0 -0.2231104705 0.1788344435 0.3433226506 -0.2595759503 0.3436455756 -0.2592808927 -0.233900285 0.1827458025
315298110.0 -0.2217497451 0.1811740117 0.34060564 -0.2635858892 0.340152442 -0.263799662 -0.2320818699 0.1856160552
320298080.0 -0.2201168578 0.1839009255 0.3372696239 -0.2676333458 0.3380452074 -0.2673011491 -0.2306818299 0.1878089418
325298050.0 -0.2186676542 0.1858022893 0.3343651155 -0.271043638 0.3349650722 -0.2713164798 -0.2284033734 0.1903019123
330298020.0 -0.2169453964 0.1885072561 0.3314116962 -0.2750449591 0.3317523772 -0.2751050767 -0.2268328943 0.1927203672
335297990.0 -0.2152473475 0.1909487014 0.328200045 -0.2787644325 0.3283831825 -0.2788058953 -0.2248268573 0.1955194034
340297960.0 -0.2137956582 0.1932527247 0.3252669097 -0.2824049326 0.324894798 -0.2821210686 -0.2229661139 0.1980795041
345297930.0 -0.211883566 0.1956542167 0.3220037328 -0.2861899642 0.3218842518 -0.2860268689 -0.221101978 0.2004521118
350297900.0 -0.2100766837 0.1980881033 0.3189112383 -0.2892221933 0.3190984328 -0.2893092161 -0.2194129127 0.2028646544
355297870.0 -0.2085118658 0.2003559004 0.3155997577 -0.2924352316 0.3158050483 -0.2926348217 -0.2171118647 0.2056736137
360297840.0 -0.2060421564 0.2028087065 0.3118529446 -0.2963001608 0.3125553307 -0.2967048391 -0.2150209995 0.2077838179
365297810.0 -0.2046422819 0.2051732968 0.3091572147 -0.2994964828 0.3091660288 -0.2997064462 -0.2135285307 0.210369381
370297780.0 -0.2026003062 0.207298004 0.3055007709 -0.3028309459 0.3059030501 -0.3031169326 -0.2113984033 0.2127151906
375297750.0 -0.2005513274 0.2098992834 0.3026321934 -0.3064128988 0.3022923312 -0.3069166437 -0.2086845024 0.2151070997
380297720.0 -0.1987144074 0.2119728543 0.299192583 -0.3098055513 0.2986429161 -0.3099207709 -0.2065665044 0.2174761429
385297690.0 -0.196618668 0.2138989181 0.2952290679 -0.3126346099 0.2955521589 -0.3130982102 -0.2043881228 0.2198482486
390297660.0 -0.1943408324 0.215942317 0.2919542455 -0.3159148533 0.2917824861 -0.3162297424 -0.2016445929 0.2219216129
395297630.0 -0.192037932 0.218253804 0.2887672649 -0.3189341529 0.2885451805 -0.3191275129 -0.2000838512 0.2241755639
400297600.0 -0.1900206721 0.2208315524 0.2847796592 -0.3229012517 0.2852447746 -0.3224940176 -0.1972407914 0.226806111
405297570.0 -0.1878993496 0.2222250398 0.2812757998 -0.3252704731 0.2818276071 -0.3255697879 -0.1950877032 0.2291878454
410297540.0 -0.1853381614 0.2246119622 0.2779034552 -0.3287190237 0.2779581711 -0.3289448039 -0.1927544797 0.2315429594
415297510.0 -0.1835666149 0.2269239844 0.2739695878 -0.3321510032 0.2745852245 -0.3320106301 -0.1904310739 0.2336934205
420297480.0 -0.1813613557 0.2287765563 0.2704891892 -0.3348729659 0.270644092 -0.3347905036 -0.1877607924 0.2361768019
425297450.0 -0.1784076325 0.230700026 0.2669138257 -0.3373715331 0.2667396996 -0.3374514874 -0.1855263313 0.2371915025
430297420.0 -0.1763151948 0.2327443628 0.2634148237 -0.3404929295 0.2633036162 -0.3402415509 -0.182682338 0.2399907522
435297390.0 -0.1741096982 0.2344719709 0.2591388641 -0.3436496164 0.2594095123 -0.343593142 -0.1807772738 0.2424084646
440297360.0 -0.1714958833 0.2367434346 0.2555366818 -0.346328272 0.2554876305 -0.3462893333 -0.1779409879 0.2440457445
445297330.0 -0.1689561316 0.2381863182 0.251406422 -0.3486994386 0.2517210281 -0.3492152499 -0.1750273981 0.2462667654
450297300.0 -0.1668132437 0.2403218462 0.2479621933 -0.3515747041 0.2478532576 -0.3516316349 -0.1726692293 0.2483956261
455297270.0 -0.1643906234 0.2423379381 0.2440166811 -0.3546169861 0.2442721525 -0.3547644639 -0.1700992548 0.2503798469
460297240.0 -0.1615822496 0.2440345722 0.2402306974 -0.3574544016 0.2401442281 -0.357152147 -0.1676972776 0.252249653
465297210.0 -0.1592690512 0.245778066 0.2359164991 -0.3599015438 0.2359074015 -0.3597798326 -0.1648674211 0.2544281619
470297180.0 -0.1564565887 0.2477977214 0.2317615387 -0.3621311397 0.2323502432 -0.3619728034 -0.1620918064 0.2560801884
475297150.0 -0.1543737858 0.249742329 0.2280891893 -0.364667319 0.2282714751 -0.364888425 -0.1594501697 0.2580166678
480297120.0 -0.1507691543 0.2514275031 0.2239714458 -0.3670237791 0.2243170913 -0.3667206426 -0.1572262636 0.2596218718
485297090.0 -0.1483415623 0.2526874602 0.2198817668 -0.3694788816 0.2202612834 -0.3694521789 -0.1543493566 0.2616927304
490297060.0 -0.1454090798 0.2545775305 0.2155763442 -0.3719392752 0.2159542149 -0.3720740785 -0.1510683538 0.2630046572
495297030.0 -0.1431006901 0.2562608818 0.2116643594 -0.3744961572 0.2119164808 -0.3741181657 -0.1483380087 0.2648016965
500297000.0 -0.140234455 0.2579254037 0.2077925686 -0.3767278453 0.2076808147 -0.3767695428 -0.1454887004 0.2667631829
505296970.0 -0.1369648856 0.2594838755 0.2034372669 -0.3789758107 0.2038523207 -0.3785950604 -0.1429941229 0.268264909
510296940.0 -0.1345862033 0.2610157277 0.1996698042 -0.3813246173 0.1995790003 -0.3811772813 -0.1396389602 0.2700972697
515296910.0 -0.1317406363 0.2629653514 0.1952081048 -0.3830922439 0.1949479176 -0.383021854 -0.1373945402 0.2714454726
520296880.0 -0.1288788029 0.2640187231 0.1909175993 -0.3850834755 0.1907798469 -0.3850976938 -0.1339618664 0.2735458154
525296850.0 -0.1259259513 0.2657046904 0.1867478413 -0.3869465456 0.1862744983 -0.3870084685 -0.1311026949 0.2746036498
530296820.0 -0.1236116609 0.2670238785 0.1825550331 -0.3890845352 0.1820517279 -0.3890581009 -0.1283671164 0.2760605045
535296790.0 -0.1199088836 0.2686312181 0.1781811964 -0.3910618389 0.1781045424 -0.3911730684 -0.1254714529 0.2777908609
540296760.0 -0.1168995568 0.2701972098 0.173740701 -0.3931788708 0.1736150083 -0.3926399803 -0.1224300103 0.2788725764
545296730.0 -0.1145767949 0.2714405329 0.1698354579 -0.3943336695 0.1694300074 -0.3946652747 -0.119660936 0.2810606562
550296700.0 -0.111197938 0.2727996374 0.1650357677 -0.3966709911 0.164830572 -0.3966851635 -0.1163785837 0.2817477268
555296670.0 -0.1084300788 0.2742420993 0.1608381168 -0.3984558663 0.1607485384 -0.3980883352 -0.1136837163 0.2829409412
560296640.0 -0.1050697246 0.2755552731 0.1562155197 -0.4002875253 0.1564356398 -0.3998999725 -0.1106629204 0.2849506202
565296610.0 -0.1026442759 0.2767405268 0.1524348082 -0.4015836999 0.1523258434 -0.4012871703 -0.1075073169 0.285969511
570296580.0 -0.0993780434 0.2781996269 0.1476358007 -0.403203299 0.1476841623 -0.4033080984 -0.1045421262 0.28706103
575296550.0 -0.0963546463 0.2792259921 0.1433755498 -0.404953494 0.1430628896 -0.4046886205 -0.1011468093 0.2883242936
580296520.0 -0.0934984602 0.2809282319 0.1389029534 -0.4063505898 0.138843764 -0.4065468032 -0.0988782431 0.2895429688
585296490.0 -0.0900535331 0.2818985486 0.1342756697 -0.407677764 0.1338168729 -0.4076858903 -0.0950459136 0.2908042764
590296460.0 -0.0866909198 0.2830605211 0.1300564341 -0.409108005 0.1298851671 -0.4092665067 -0.0925062229 0.2916590682
595296430.0 -0.0839108203 0.2840697735 0.1247947289 -0.4103771501 0.1248081388 -0.4104331457 -0.0890206669 0.2929639463
600296400.0 -0.0806375578 0.2850947447 0.1206597885 -0.4115438699 0.1205457387 -0.4115314383 -0.0860587446 0.2939328066
605296370.0 -0.0777781874 0.2862625017 0.1165410784 -0.4127179471 0.1161801716 -0.4131676312 -0.0829458741 0.2954615088
610296340.0 -0.0743991715 0.2878475487 0.1116745474 -0.413902513 0.1120500659 -0.4140496109 -0.0801458717 0.2963091223
615296310.0 -0.0712195005 0.2885219434 0.1073291154 -0.4154703783 0.1068562912 -0.4154570603 -0.0763135576 0.2974530062
620296280.0 -0.0684871695 0.2898785276 0.1028417757 -0.4164028752 0.1028287046 -0.4163442751 -0.0738613538 0.2984158751
625296250.0 -0.0654533834 0.2904709284 0.0981424834 -0.4178720647 0.0984899492 -0.4174240902 -0.0709823158 0.2989703123
630296220.0 -0.0622205667 0.2914127422 0.0933685378 -0.4188206131 0.0933094143 -0.4184075084 -0.0671430073 0.2999248171
635296190.0 -0.0592816607 0.2922562064 0.0893781839 -0.4189337541 0.0890932605 -0.4194182271 -0.0643756378 0.3007422598
640296160.0 -0.0561808682 0.2931884089 0.08486399 -0.420540249 0.0843622051 -0.4201562735 -0.0612488551 0.3012975216
645296130.0 -0.0526591742 0.2946269779 0.0799600346 -0.4212316336 0.079996266 -0.4209087474 -0.0580871089 0.3018559558
650296100.0 -0.0495236647 0.295013196 0.0754715903 -0.4223480265 0.0750778688 -0.4220130944 -0.0542662982 0.3027893447
655296070.0 -0.0468077714 0.295595928 0.0707818918 -0.4226764514 0.0705479426 -0.4224687616 -0.051733396 0.3036919388
660296040.0 -0.0434445524 0.296477626 0.0664277111 -0.4235589031 0.0662007756 -0.423512685 -0.0482193619 0.3045163376
665296010.0 -0.0404845075 0.2973808323 0.0616770818 -0.4237986167 0.0612284406 -0.4240388174 -0.045174579 0.3048124544
670295980.0 -0.037029987 0.2979753229 0.0567371564 -0.4244994657 0.0569489303 -0.4242681848 -0.0423280284 0.3057460858
675295950.0 -0.0342093546 0.2984162793 0.0522690946 -0.4249925721 0.052382235 -0.4250588791 -0.0389738518 0.3062663299
680295920.0 -0.031247501 0.2994757677 0.0475795444 -0.4255685863 0.0476326449 -0.4253085249 -0.0353535478 0.3063635075
685295890.0 -0.0276678496 0.3002193208 0.0431263294 -0.4266778628 0.0431244454 -0.4261628637 -0.03237093 0.3076000082
690295860.0 -0.024857292 0.3003203595 0.0385792916 -0.4262955279 0.0381272343 -0.4265623294 -0.0290748994 0.307939488
695295830.0 -0.0214471764 0.3010659052 0.0341669186 -0.4270182158 0.0338330491 -0.4268734489 -0.0259499635 0.3085461001
700295800.0 -0.0183652989 0.3015487377 0.0295624464 -0.4270025194 0.0292298249 -0.4271790589 -0.0224274114 0.3086712627
705295770.0 -0.0155613697 0.3020666804 0.025015213 -0.4277454118 0.0245434554 -0.4274522253 -0.0193312624 0.3093532589
710295740.0 -0.0127046895 0.3021772594 0.0205933119 -0.4274940795 0.0196273823 -0.4278751237 -0.0158269343 0.3092359855
715295710.0 -0.0089014358 0.3029195844 0.0155289971 -0.4277783788 0.015101569 -0.4277744887 -0.0126960144 0.3094177168
720295680.0 -0.0055424276 0.30350333 0.0107279261 -0.4282098547 0.0107147923 -0.4281769451 -0.0095118239 0.3097524675
725295650.0 -0.0029418147 0.3039108408 0.0062394986 -0.4281731641 0.0063279919 -0.4280444524 -0.0066283141 0.3103369252
730295620.0 -0.000345521 0.3037578957 0.0016796369 -0.4274973372 0.0017010779 -0.4277120733 -0.0036565856 0.3109070889
735295590.0 0.003217365 0.3044736773 -0.0028901564 -0.4280390587 -0.0030552632 -0.4278000405 0.000234386 0.3104394487
740295560.0 0.0057455873 0.3040418226 -0.0072358987 -0.4277657608 -0.0075487089 -0.4283698325 0.0032393652 0.3109885183
745295530.0 0.0089887391 0.304358157 -0.0118583154 -0.4274522462 -0.0116460288 -0.427924899 0.0061162105 0.3108768965
750295500.0 0.0122713989 0.3046910426 -0.0165148974 -0.4274067469 -0.0170047681 -0.4274930656 0.009827594 0.3109462688
755295470.0 0.015432911 0.3049612472 -0.021205908 -0.4275949215 -0.0213152573 -0.4277885823 0.0128806869 0.3111422233
760295440.0 0.0181527059 0.3054068016 -0.0260292656 -0.4273041959 -0.0259023095 -0.4266013015 0.0164210368 0.3103556866
765295410.0 0.0214420924 0.3048925216 -0.0304252813 -0.4268108643 -0.0304647126 -0.4266888827 0.0199211802 0.3109517166
770295380.0 0.0242831786 0.3051328343 -0.0350310515 -0.4260729794 -0.03514209 -0.4266999453 0.0225595449 0.310802912
775295350.0 0.027467946 0.3049750475 -0.0394788523 -0.4259089913 -0.0395796229 -0.4256411812 0.0262176782 0.3106417505
780295320.0 0.0306018692 0.3050467979 -0.0438226372 -0.4246828666 -0.0444413665 -0.42545364 0.0293946177 0.310821359
785295290.0 0.0336551072 0.3047689051 -0.0484002665 -0.4250040531 -0.0488539324 -0.4250214694 0.0323410448 0.3108279224
790295260.0 0.0365080658 0.3045193558 -0.053101015 -0.4243593235 -0.0530813701 -0.4246207348 0.0355400948 0.310648194
795295230.0 0.0395097394 0.304553498 -0.0579888965 -0.4236161474 -0.0580773384 -0.4237904087 0.0387197442 0.3098566813
800295200.0 0.0426805145 0.3042311283 -0.0620242208 -0.4225162363 -0.0628150415 -0.4232398063 0.0420863353 0.3099102236
805295170.0 0.045670188 0.3043708497 -0.0668857302 -0.4223047576 -0.0670596658 -0.4225862441 0.0458194955 0.3092885322
810295140.0 0.0491833844 0.3040207082 -0.0716040443 -0.4213947009 -0.07143097 -0.4216449655 0.0488393169 0.3090304648
815295110.0 0.0515628175 0.3035765533 -0.0760548393 -0.4207304912 -0.0758229002 -0.4209092546 0.0516412307 0.3089065521
820295080.0 0.0544179658 0.3031370711 -0.0799527445 -0.4199711277 -0.0803282877 -0.4199514567 0.0543177334 0.3087459566
825295050.0 0.0577565848 0.302932362 -0.0850128131 -0.4192033736 -0.0852787978 -0.4190971614 0.058377794 0.3081184752
830295020.0 0.060985848 0.3022409857 -0.0894559889 -0.4178582302 -0.0898787245 -0.4182243935 0.0611927146 0.3072430877
