!Created with skrf (http://scikit-rf.org).
# Hz S RI R 50.0 
!freq ReS11 ImS11 ReS21 ImS21 ReS12 ImS12 ReS22 ImS22
300000.0 -0.2108628188 -0.1022897934 -0.0020229337 -0.0002938779 0.0005646159 0.0031511557 -0.7706435603 -0.1950278575
5299970.0 -0.2152355881 0.0066914021 -3.25246e-05 -5.45811e-05 5.01393e-05 -0.0001400508 -0.7847168808 -0.0097365911
10299940.0 -0.2117397058 0.0201161478 -0.000127923 3.42171e-05 2.3537e-06 6.1596e-06 -0.7872375941 -0.0055548557
15299910.0 -0.206144618 0.0299752819 -0.0001595654 0.0001347348 -4.69918e-05 3.52017e-05 -0.7928734445 -0.0026930551
20299880.0 -0.2007964719 0.0382136234 -0.000338696 0.0002530643 -0.000204005 -6.0338e-06 -0.7995306676 0.0015104486
25299850.0 -0.1939988814 0.0447605623 -5.3881e-06 1.7287e-06 -8.09541e-05 3.49858e-05 -0.8057874033 0.0080688303
30299820.0 -0.187772329 0.0498572748 -0.0001159708 -5.24305e-05 -3.8701e-05 4.9553e-05 -0.8114568122 0.0156775529
35299790.0 -0.1813795117 0.0533685267 0.0001335441 -1.65259e-05 0.0001254627 0.0001093266 -0.8165305451 0.024468274
40299760.0 -0.1753165212 0.0564987882 -4.37266e-05 4.70489e-05 7.15584e-05 -4.36356e-05 -0.8207115736 0.033876077
45299730.0 -0.1697820484 0.0582188121 -5.898e-06 -4.74592e-05 4.4934e-05 -3.1646e-06 -0.8236679183 0.0437592324
50299700.0 -0.1643146477 0.0595606093 -5.85439e-05 0.0001265258 2.08379e-05 3.40432e-05 -0.8262436954 0.0539799417
55299670.0 -0.1595195377 0.0606906228 3.64693e-05 0.000353658 -0.000120781 6.99444e-05 -0.8284006729 0.0634387404
60299640.0 -0.1550465662 0.0610723364 0.000237085 0.0001186496 0.0001533007 -8.3378e-05 -0.8293962671 0.0738855516
65299610.0 -0.1509985604 0.0615019568 0.0001630988 0.0001100267 5.81749e-05 -9.01099e-05 -0.8302531379 0.0839394968
70299580.0 -0.1478199982 0.0612208473 7.92494e-05 2.36771e-05 -7.0077e-05 0.0001515488 -0.8308178286 0.0936618235
75299550.0 -0.1445080814 0.0615512024 6.7397e-06 0.0001914924 -0.000175357 -0.0001246457 -0.8301495744 0.1037034732
80299520.0 -0.1417675556 0.0612947668 4.5603e-06 -7.17409e-05 -2.50058e-05 -0.0001292161 -0.8308316243 0.113850168
85299490.0 -0.1389772579 0.0608849799 -0.0002094893 -0.0001446817 5.09327e-05 3.52306e-05 -0.8295827929 0.1235210381
90299460.0 -0.13609948 0.0607772363 6.9799e-06 -0.0002154339 -4.7206e-06 2.2196e-06 -0.8286625797 0.1328685468
95299430.0 -0.134245292 0.0605899257 -4.11579e-05 0.0002193361 0.0001687969 0.0002016157 -0.8282699047 0.1430204783
100299400.0 -0.132309896 0.0604271609 1.92375e-05 -0.0001945554 3.89468e-05 5.01895e-05 -0.8267812471 0.1518323352
105299370.0 -0.1304541018 0.0601555828 0.0002298903 7.91172e-05 0.000146538 -4.57936e-05 -0.8258060518 0.1610832956
110299340.0 -0.1289106881 0.0601204086 -0.0001165267 -1.85172e-05 -0.0001289568 0.0002233378 -0.8246770264 0.1694820417
115299310.0 -0.1273773219 0.0600402873 -3.60702e-05 -1.52878e-05 2.20337e-05 -1.73864e-05 -0.8227234799 0.1794547908
120299280.0 -0.1256663133 0.0599971903 -7.15535e-05 1.09725e-05 8.70176e-05 3.98151e-05 -0.8205340009 0.1877036367
125299250.0 -0.1247664603 0.0598608944 0.0001141838 -0.0003243365 -1.259e-05 -2.12991e-05 -0.8195700097 0.1972516062
130299220.0 -0.1238896329 0.0596945053 -0.0001754307 -7.58812e-05 -0.0001451976 8.10302e-05 -0.8172906979 0.2057382993
135299190.0 -0.1226511284 0.0601738374 4.35333e-05 -0.0002510108 -4.51388e-05 -0.0001648666 -0.8158259575 0.2154076641
140299160.0 -0.1219492666 0.0600919579 7.957e-07 0.0001383099 5.18191e-05 8.58672e-05 -0.8138664629 0.2232510464
145299130.0 -0.1209428518 0.0602613903 4.289e-05 4.21503e-05 5.33127e-05 -0.0001581551 -0.8119339743 0.2323543456
150299100.0 -0.1200703449 0.0604939958 -0.0001052259 -2.89877e-05 6.98286e-05 0.0001351143 -0.8094872618 0.2411750026
155299070.0 -0.1194528001 0.0610953244 -9.48875e-05 -8.64832e-05 7.41153e-05 -1.22387e-05 -0.8066611012 0.250455962
160299040.0 -0.1185787846 0.0614472624 -0.0001306356 -0.0002278545 1.10058e-05 5.47171e-05 -0.8044311414 0.259099455
165299010.0 -0.1181517801 0.061893576 0.0001228669 0.0003089943 2.37593e-05 -4.87518e-05 -0.8015986177 0.2671791117
170298980.0 -0.1174763652 0.06222695 0.0001671499 0.0002862253 -0.0001108419 -8.26361e-05 -0.7990855284 0.2758197442
175298950.0 -0.1167899133 0.0625910683 -4.53701e-05 -0.0001318843 0.0003611491 0.000263034 -0.7962157071 0.2847086945
180298920.0 -0.116444008 0.0632287455 0.0003679844 -1.1464e-06 -0.0001244643 -0.0001121125 -0.7927254759 0.2934076628
185298890.0 -0.1158450399 0.0635342138 -8.56319e-05 7.34484e-05 0.0002576157 -0.0001015476 -0.7900963401 0.3016907245
190298860.0 -0.1151968113 0.0644018196 6.65713e-05 0.0002374154 -0.0001065333 3.26459e-05 -0.7870736991 0.3101630243
195298830.0 -0.114675729 0.065324357 0.000101668 4.16072e-05 -3.09128e-05 -2.4374e-06 -0.7837812753 0.3184155599
200298800.0 -0.11368315 0.0655714548 6.12744e-05 0.0001178752 0.0001088482 0.0002344957 -0.7809484462 0.326718937
205298770.0 -0.1135487692 0.066492794 -9.16464e-05 3.82689e-05 1.91436e-05 0.0002317505 -0.7777577249 0.3353425431
210298740.0 -0.1127882969 0.0669989064 0.0001446135 -3.48301e-05 0.0001579111 0.0001817657 -0.7740335325 0.3435773888
215298710.0 -0.1127483951 0.0679294977 3.6416e-06 1.43005e-05 0.0001060528 0.0001027481 -0.7700912216 0.35137712
220298680.0 -0.1120487671 0.0684862658 0.0001571259 0.0001074509 7.7036e-06 0.0002213554 -0.766265708 0.3594867519
225298650.0 -0.1114997705 0.0694670429 0.000278166 5.5306e-06 8.08504e-05 -4.25964e-05 -0.762360129 0.3676278518
230298620.0 -0.1111526949 0.0701867843 -3.02374e-05 0.0001039489 -8.38251e-05 6.75874e-05 -0.7583857257 0.375256198
235298590.0 -0.1108957046 0.071159424 0.0002673152 0.0003172202 5.16581e-05 4.45426e-05 -0.7551321331 0.3835029817
240298560.0 -0.1105190853 0.0720277738 0.000190957 0.0001626722 3.25039e-05 -0.0001917658 -0.7510854706 0.3909976063
245298530.0 -0.1097828121 0.0725836115 -4.25671e-05 2.49878e-05 0.0001525433 -5.79861e-05 -0.7474803526 0.398813926
250298500.0 -0.1094537618 0.0735849243 6.43172e-05 4.59628e-05 0.0001701892 1.07967e-05 -0.742741405 0.4067391031
255298470.0 -0.1089126952 0.0749286287 0.0001508159 0.0001673968 0.0003111469 -0.0001834298 -0.7384910962 0.4143417093
260298440.0 -0.108423867 0.0753279702 -4.43465e-05 2.40531e-05 4.63927e-05 7.51391e-05 -0.7338294425 0.4221838418
265298410.0 -0.1081014195 0.076330448 -5.67576e-05 -2.6632e-06 -0.0001028388 0.0001349202 -0.7299674105 0.4297076347
270298380.0 -0.1076117044 0.0773325382 3.62335e-05 0.000181098 -1.99564e-05 0.0002337131 -0.7249236345 0.4380100941
275298350.0 -0.1072161806 0.0785094294 -5.70753e-05 0.0001113089 0.000236445 0.0002290649 -0.7203961854 0.4452769109
280298320.0 -0.1066053759 0.079343812 5.4769e-06 -0.0003299152 0.0001575571 -4.03825e-05 -0.7160222153 0.4528265622
285298290.0 -0.1060747216 0.0801545155 6.5592e-06 0.0001700284 5.16267e-05 -0.0002050989 -0.7120345326 0.4611068756
290298260.0 -0.1055948929 0.0814431628 0.0001309828 8.26939e-05 -2.7542e-06 2.65267e-05 -0.7064202587 0.4677025599
295298230.0 -0.1051125052 0.0821679324 -0.0003174021 5.70918e-05 -3.40137e-05 0.0001873005 -0.7012609253 0.474561139
300298200.0 -0.1046526532 0.0833307037 0.0001191195 0.0002613762 -2.81805e-05 0.000157765 -0.6964357826 0.4820131132
305298170.0 -0.1042171231 0.0838875224 5.28432e-05 8.54735e-05 8.76258e-05 0.0002184521 -0.6912724259 0.4896712592
310298140.0 -0.1034944364 0.0845604484 0.000157288 5.32602e-05 7.61019e-05 4.94529e-05 -0.6860708634 0.4970666107
315298110.0 -0.1032174802 0.0856553506 0.0001691627 0.0001619901 7.50871e-05 -5.43267e-05 -0.6811436384 0.5040306614
320298080.0 -0.10250392 0.0865859984 -0.0001445407 -6.6226e-06 6.53268e-05 0.0001659881 -0.6759266372 0.51093331
325298050.0 -0.1023879169 0.0870452722 2.7183e-06 0.0001232668 0.0001069418 1.07803e-05 -0.6701285536 0.5174925747
330298020.0 -0.1017720836 0.0884397965 9.75221e-05 3.16606e-05 9.66903e-05 8.40542e-05 -0.6646721352 0.5242432593
335297990.0 -0.1015418362 0.0892653534 0.0001747649 9.28202e-05 0.0002044956 3.8811e-05 -0.659222309 0.5318449139
340297960.0 -0.1010823128 0.0905633314 5.62594e-05 9.45076e-05 4.22397e-05 2.92224e-05 -0.6539406896 0.5384100915
345297930.0 -0.100469887 0.0915150565 1.8267e-05 0.0001470142 0.000269704 8.81717e-05 -0.6483148137 0.544623706
350297900.0 -0.0998767453 0.0922613422 -6.15344e-05 0.0002320171 0.0003555942 2.97934e-05 -0.6432260383 0.5513800216
355297870.0 -0.099424751 0.0934357483 0.0002854091 0.0001198432 2.27413e-05 0.0001540147 -0.6364781474 0.5590993985
360297840.0 -0.0984695581 0.0944769827 0.0001313347 3.24382e-05 0.0001104654 -0.0001927813 -0.6307517933 0.5648633666
365297810.0 -0.0979691124 0.0953245967 6.57999e-05 -0.0001225627 4.29367e-05 6.80838e-05 -0.6255450217 0.5713004936
370297780.0 -0.0973176428 0.0964073241 0.0002854212 6.17028e-05 0.0002994822 0.0001721559 -0.6191877221 0.5780415323
375297750.0 -0.0966242777 0.0974566747 -9.0298e-05 0.0001613795 5.1222e-05 3.24168e-05 -0.6134635818 0.5838036023
380297720.0 -0.0961053403 0.0985910142 0.000198751 0.0002058261 0.0003052523 5.26391e-05 -0.6070048759 0.5903835966
385297690.0 -0.0952992805 0.0995097518 0.0002578358 5.99369e-05 0.0001357334 9.51543e-05 -0.6013707842 0.5963821841
390297660.0 -0.0945783987 0.1001465251 0.000130629 0.0003038337 7.512e-05 0.0001167676 -0.5947501683 0.6023268273
395297630.0 -0.0936354567 0.1013146681 0.0001295306 3.3637e-05 9.21777e-05 3.603e-05 -0.588230996 0.6075780687
400297600.0 -0.0932437883 0.102490186 0.0001167275 -8.77236e-05 -2.45433e-05 2.20699e-05 -0.5826689254 0.6145335815
405297570.0 -0.0925950563 0.1031702999 0.0001664963 -8.736e-07 -7.164e-07 0.0001083767 -0.5752286306 0.620614136
410297540.0 -0.0911871129 0.1041392691 0.0001748547 -0.0001833261 0.0001638127 0.0001967252 -0.5691003612 0.6261852201
415297510.0 -0.0906867592 0.1053569789 8.44152e-05 7.11184e-05 0.0001718093 9.93736e-05 -0.5631285723 0.6315850472
420297480.0 -0.0899116273 0.1058016107 9.67038e-05 0.0002027107 -5.57535e-05 8.42237e-05 -0.5561207067 0.6381554767
425297450.0 -0.0890411776 0.1065602874 0.0001456624 0.000128969 0.0002313062 0.0002110822 -0.5493639994 0.6427665725
430297420.0 -0.0882354011 0.1075110227 0.0002770182 1.93986e-05 0.0001618053 1.90455e-05 -0.542918906 0.6484796128
435297390.0 -0.0875266384 0.1084987248 0.0001085633 7.92481e-05 0.0001921619 3.59338e-05 -0.5364830409 0.6542253622
440297360.0 -0.0864698885 0.1093262459 0.0004036031 4.10377e-05 2.44416e-05 0.0001943122 -0.5300614091 0.6592385211
445297330.0 -0.0856251448 0.1102686896 3.07943e-05 0.0001925974 6.47046e-05 -0.0002235517 -0.5232044995 0.6650779029
450297300.0 -0.0846734495 0.1111433349 0.0001461787 8.21547e-05 0.0003449084 0.0001043612 -0.5155000592 0.6695608622
455297270.0 -0.0839047726 0.1121876254 0.0001870063 -5.83882e-05 0.0003531618 -3.90738e-05 -0.5089740511 0.6752825621
460297240.0 -0.0828644761 0.1131926519 8.78944e-05 -5.24062e-05 -5.33706e-05 1.42474e-05 -0.5023943694 0.6800013642
465297210.0 -0.0817626913 0.113979485 0.0002529879 -0.0002650993 0.0002248397 5.61859e-05 -0.4952567742 0.6855814787
470297180.0 -0.0807215883 0.1150469068 0.0001307363 0.0002361347 0.0001554935 -4.18658e-05 -0.48772296 0.6905561935
475297150.0 -0.0801095511 0.115635702 0.0001921966 -4.34327e-05 0.0001732288 -2.45341e-05 -0.4809097053 0.6955524903
480297120.0 -0.0785505007 0.1164861564 2.58108e-05 0.0001029114 0.0002558371 0.0001449263 -0.4746750707 0.7003561738
485297090.0 -0.0775896814 0.1174571221 0.0001419235 0.0002724459 0.000336495 0.0002649131 -0.4674157172 0.7047455236
490297060.0 -0.0761851873 0.1183748822 0.0001886994 -7.83394e-05 0.0001215198 0.000233971 -0.4591030395 0.7090801403
495297030.0 -0.0752918221 0.1189957055 0.0001965393 8.90877e-05 0.0001200011 0.0001015132 -0.4521947404 0.713901958
500297000.0 -0.0743582193 0.1198711313 8.32215e-05 0.0001177978 0.0002242788 -0.0001409833 -0.4448739654 0.7186431949
505296970.0 -0.072867756 0.1208121713 0.0001734889 0.0001001166 0.000203254 -0.0001768967 -0.4374524283 0.7230975849
510296940.0 -0.0717905455 0.1216465275 0.0002097373 0.0002408927 -0.0001250129 0.0002256026 -0.4300620801 0.7273272307
515296910.0 -0.0707480122 0.1225475061 9.332e-07 0.0001774258 2.48253e-05 7.13074e-05 -0.4232512828 0.7310245789
520296880.0 -0.0695967328 0.1230376226 7.9093e-05 0.0001356101 0.0001203779 0.0001772791 -0.4148448881 0.7362986308
525296850.0 -0.0683661032 0.1240219103 0.0001883919 1.11407e-05 0.0001282015 7.14754e-05 -0.4079190089 0.7397981848
530296820.0 -0.0675153486 0.1246885083 -2.3994e-05 8.14742e-05 0.0001830869 1.54319e-05 -0.4000519213 0.7439631982
535296790.0 -0.0656333564 0.1255746104 -7.2076e-06 7.78407e-05 1.78253e-05 -5.82009e-05 -0.393299073 0.7483938422
540296760.0 -0.064500749 0.1265769444 0.0001777443 0.0003161172 0.000308256 8.25973e-05 -0.3852253395 0.7513849514
545296730.0 -0.0634776269 0.1276416512 0.000101531 8.94852e-05 9.7936e-05 -2.97953e-05 -0.3778839396 0.7556529691
550296700.0 -0.0621173327 0.1282332269 0.0002429665 7.5501e-05 0.0001306578 1.62777e-05 -0.3698375804 0.7589446639
555296670.0 -0.0609658321 0.1291864854 0.0001144548 -6.78117e-05 4.54964e-05 0.0001399875 -0.362495534 0.7624404733
560296640.0 -0.0597329316 0.1296212335 0.000256476 0.0003194114 0.0001601803 -1.548e-06 -0.3543848705 0.7668350852
565296610.0 -0.0584973676 0.1306463772 2.21857e-05 0.0003110256 -3.90931e-05 8.42177e-05 -0.3467999541 0.7698390496
570296580.0 -0.057222572 0.1313060004 -0.0001905576 4.61344e-05 0.0003225484 0.0001191229 -0.3388943125 0.7730975532
575296550.0 -0.055934342 0.131949749 5.59625e-05 -9.5992e-05 0.0002558556 0.0002096514 -0.3307986309 0.776337804
580296520.0 -0.0546367992 0.1332621802 0.0002770309 -7.29361e-05 5.66605e-05 -5.1947e-06 -0.3237592109 0.7796600438
585296490.0 -0.0531029086 0.1339452907 0.0002594316 -0.0001599721 0.0002511338 2.73776e-05 -0.3149035543 0.7834553119
590296460.0 -0.0519082467 0.1346423702 0.0001267813 2.80196e-05 0.0001427005 9.76115e-05 -0.3076957596 0.7856517031
595296430.0 -0.050531014 0.1352332695 0.0001737742 -4.85114e-05 0.000112163 1.69786e-05 -0.2996504328 0.7891700935
600296400.0 -0.0492899809 0.1360788498 0.0002294142 0.0001130917 0.0002016949 9.83984e-05 -0.291847135 0.7914008463
605296370.0 -0.0481851634 0.1367527776 0.0002685474 1.4821e-05 0.0002373761 0.0001917169 -0.2832571934 0.7954242777
610296340.0 -0.0464619857 0.1376643525 8.37779e-05 -4.96909e-05 0.0004266025 2.25773e-05 -0.2760340152 0.7976333471
615296310.0 -0.0451583981 0.1381252886 0.0001285414 -9.65225e-05 0.0001339329 4.55254e-05 -0.2672426111 0.8005921346
620296280.0 -0.0438591826 0.1395057648 8.30692e-05 -0.0001126744 0.00016994 -9.16718e-05 -0.2597812951 0.8034747573
625296250.0 -0.042832728 0.1397067549 1.11595e-05 5.8149e-06 1.31578e-05 2.61553e-05 -0.2514238874 0.805361175
630296220.0 -0.0412626393 0.1407896349 0.0002422071 -6.87186e-05 0.0002552508 -2.52814e-05 -0.24336754 0.8081173852
635296190.0 -0.0399075712 0.1416065024 0.0002608555 -0.0001946044 0.0002854469 -0.0001356406 -0.2356364142 0.8098081674
640296160.0 -0.0384809441 0.1414999226 0.0001020943 1.70302e-05 0.0001385444 5.01001e-05 -0.227099912 0.8121554844
645296130.0 -0.037116689 0.1428376414 0.000100078 -5.21776e-05 0.0002739944 0.0001205664 -0.21872834 0.8144899632
650296100.0 -0.0358249607 0.1433980215 -1.24592e-05 1.04859e-05 0.0003090492 7.39283e-05 -0.2108610341 0.8167367271
655296070.0 -0.034512604 0.1440432688 0.0003192564 5.89591e-05 0.0002347609 6.70357e-05 -0.202971672 0.819153749
660296040.0 -0.0333060832 0.1448954963 0.0003781465 -0.0001602931 6.64462e-05 0.0001796177 -0.1940271787 0.8210471254
665296010.0 -0.0320690712 0.1455372826 0.0003126349 7.4634e-06 0.0001924895 -8.1734e-05 -0.1858312697 0.8224993608
670295980.0 -0.0306050136 0.1460685706 0.0002991036 7.30962e-05 0.0002719165 2.15714e-05 -0.1781713039 0.8242534498
675295950.0 -0.0293910112 0.1465820225 0.000200158 0.0001439012 0.0002830835 -0.0001135291 -0.1696078381 0.8260523246
680295920.0 -0.0279938328 0.1474187462 0.0002653823 7.12639e-05 0.0002494404 -0.0001691462 -0.1617286983 0.8273693044
685295890.0 -0.0263043986 0.1480019893 0.0001622299 0.0002154508 0.0003164423 -5.06334e-05 -0.1532514836 0.8295663162
690295860.0 -0.0250447459 0.148514007 0.0001223504 0.0001992583 0.0001843832 -2.82253e-05 -0.145000072 0.8307519576
695295830.0 -0.0239170954 0.1490462438 8.00162e-05 -3.77105e-05 5.23761e-05 -2.28398e-05 -0.1374125089 0.8326771707
700295800.0 -0.0224787481 0.1496696637 0.0002337855 3.35249e-05 0.0002355304 0.0001558494 -0.1285727264 0.8332033227
705295770.0 -0.0210569528 0.1502200292 0.0004272176 0.000151142 1.9368e-05 0.0001979761 -0.1200078523 0.8353807212
710295740.0 -0.019789112 0.1505163933 0.0002966056 2.9721e-06 0.000326357 3.5424e-05 -0.1117020923 0.8363055434
715295710.0 -0.0183391962 0.1512870691 0.0003242921 -5.49009e-05 0.0002219672 5.5386e-05 -0.1028276381 0.8363099802
720295680.0 -0.017023773 0.1517692644 0.0002571865 0.0002138858 0.000421077 1.44248e-05 -0.0942018865 0.8375851874
725295650.0 -0.015631973 0.1523571408 0.0004350551 -3.1e-05 0.0002344293 4.4364e-06 -0.0870420121 0.8395713984
730295620.0 -0.0146422184 0.1527637876 5.9016e-06 0.0001337324 0.0001322537 -0.00028665 -0.0786262523 0.8403432359
735295590.0 -0.0132443848 0.1532929283 0.0005151489 3.20482e-05 0.0002381791 -1.83862e-05 -0.0696416981 0.8402546488
740295560.0 -0.0118723061 0.1535707385 0.0003293956 1.2758e-05 0.0003886138 -8.77023e-05 -0.0613419557 0.841250398
745295530.0 -0.0104170184 0.1542178516 7.56737e-05 0.0001066289 0.0001183553 -8.57521e-05 -0.0536117405 0.8414996089
750295500.0 -0.0094261666 0.1544303241 0.0001058591 0.0002588257 0.0002750422 -2.40277e-05 -0.0447577145 0.8421576029
755295470.0 -0.0078603727 0.1547137042 0.0002448858 0.0001220978 0.0003506952 3.54762e-05 -0.0365689704 0.8430625247
760295440.0 -0.006649069 0.1555132718 0.0001712428 -1.18696e-05 0.0002026665 6.21369e-05 -0.0277207424 0.842919002
765295410.0 -0.0052267116 0.1553690115 0.0001055793 -8.39853e-05 0.0002601049 -3.22219e-05 -0.0196771581 0.8430651742
770295380.0 -0.003771892 0.156123436 0.0002894078 0.0001029716 5.0617e-06 -0.0001936425 -0.0111023001 0.8427854494
775295350.0 -0.0023033666 0.1564342613 0.0002021833 4.515e-06 0.0003696505 -8.18109e-05 -0.0030546277 0.843373708
780295320.0 -0.0009278042 0.1566840373 0.0002402895 -3.9248e-06 0.0003091187 2.43566e-05 0.0054150474 0.8435280869
785295290.0 4.35338e-05 0.1568626126 8.97846e-05 -2.19385e-05 0.0002946396 1.47974e-05 0.0131267258 0.8434325979
790295260.0 0.001476022 0.1569690122 0.0004080177 -1.19797e-05 0.0002454472 -0.0001498692 0.0219444894 0.8432050611
795295230.0 0.0027118347 0.1570697353 0.0002335717 3.5468e-06 0.0003812778 -0.0001468099 0.0301008414 0.8420729541
800295200.0 0.0041610428 0.1577355267 0.0001825951 -0.000258725 0.0003214801 -0.000236964 0.0381714164 0.8420327923
805295170.0 0.0056077926 0.1579402482 0.0003290967 -7.1353e-06 0.0001515511 0.0001713542 0.0474772363 0.8416987596
810295140.0 0.0070756467 0.1582817834 0.0003946497 -8.77596e-05 0.0001797715 -0.0002185669 0.0556973153 0.8413448611
815295110.0 0.0082061574 0.1583036313 0.0002418679 -0.0001411981 0.0001289795 -2.17763e-05 0.0636412291 0.8410192685
820295080.0 0.0095187169 0.1583341273 0.0003002266 -8.25788e-05 0.0002637354 -0.0001388799 0.0713444493 0.8402413768
825295050.0 0.010836239 0.1582765579 0.0001148129 -0.0002903488 0.0002340476 1.5694e-06 0.0802016105 0.8396734113
830295020.0 0.0122256888 0.1585423678 0.0002752697 -7.73215e-05 0.0002973135 -1.08091e-05 0.0883317858 0.8383846743
835294990.0 0.0136072657 0.1585439756 4.96653e-05 -0.0001580449 0.0002657538 -8.52981e-05 0.0968888671 0.8374378166
840294960.0 0.0150499626 0.1583688063 0.0002636149 -2.63752e-05 0.0003786609 -0.0001241219 0.1052686369 0.8366166046
845294930.0 0.0164690918 0.1587903962 0.0001017631 -0.0001542337 8.89748e-05 -0.0001089497 0.1135898263 0.8355559636
850294900.0 0.0183239134 0.1584752207 0.0003378191 -2.41096e-05 0.0003492 -0.0001642398 0.1212240766 0.8347576404
