!Created with skrf (http://scikit-rf.org).
# Hz S RI R 50.0 
!freq ReS11 ImS11 ReS21 ImS21 ReS12 ImS12 ReS22 ImS22
300000.0 -0.3155954469 -0.1291083134 0.374252425 0.0647644363 0.3716496927 0.0645727502 -0.3174566311 -0.1278610544
5299970.0 -0.3246363619 0.0031671615 0.3782380955 0.0029905999 0.3788279886 0.0033002694 -0.3259640501 0.0022868306
10299940.0 -0.3226915426 0.0143473024 0.3799243456 0.0026176104 0.3799670517 0.0029643851 -0.3232262105 0.0127065934
15299910.0 -0.3189573934 0.0225296379 0.3820535769 0.0025642623 0.3825365556 0.0028978382 -0.3210814457 0.0199580845
20299880.0 -0.3155040748 0.0291932412 0.3850917176 0.0016394275 0.3853484005 0.0018316665 -0.3179635454 0.0259224049
25299850.0 -0.3115497344 0.0348495914 0.3883872475 0.0004721939 0.3885990764 0.0001387176 -0.3150852433 0.0311003422
30299820.0 -0.308361339 0.0394997731 0.3919578784 -0.0020534867 0.3921379394 -0.0022166235 -0.3118948389 0.0359914223
35299790.0 -0.3043583752 0.0435875148 0.3951070661 -0.0051285772 0.3953712325 -0.0049627084 -0.3094105423 0.0401310482
40299760.0 -0.3013460735 0.0471072617 0.398324764 -0.0089156224 0.3984582409 -0.0087401225 -0.3066626897 0.0435267241
45299730.0 -0.2980011236 0.0498599293 0.4012103702 -0.0122652686 0.4015601695 -0.0129595098 -0.3038971409 0.0465142199
50299700.0 -0.2947711726 0.0529223752 0.4037132275 -0.0174624237 0.4035936402 -0.0171977199 -0.3014785825 0.0495823899
55299670.0 -0.2924706986 0.0552405806 0.4059184458 -0.0217059301 0.4058932185 -0.0219833657 -0.2993848572 0.0524318452
60299640.0 -0.2897395775 0.0579670665 0.4077582049 -0.0268914148 0.4077996778 -0.0269223898 -0.2971162445 0.0550441729
65299610.0 -0.2873115833 0.0601770954 0.4098939172 -0.0314558651 0.4097130121 -0.0315962405 -0.295278387 0.0572653496
70299580.0 -0.2851360055 0.0618027076 0.4104049501 -0.0364534057 0.4108480246 -0.0365719049 -0.2938763276 0.0596221738
75299550.0 -0.2834559797 0.0640272275 0.4115709565 -0.0420565568 0.4120019378 -0.0422983313 -0.2921000302 0.0623875048
80299520.0 -0.2818000318 0.0665373153 0.4127739295 -0.0470810135 0.4130352355 -0.0472227035 -0.2905766478 0.0646041452
85299490.0 -0.2800631042 0.0684453871 0.4133498083 -0.0524037994 0.4134298266 -0.0526017803 -0.2890514295 0.0668844337
90299460.0 -0.2783587366 0.070725653 0.4136928874 -0.0576619991 0.4137649151 -0.0578363316 -0.2876708658 0.069446224
95299430.0 -0.2767627051 0.0726509002 0.4140006226 -0.0628576629 0.414148512 -0.0633395408 -0.2865927464 0.0717834279
100299400.0 -0.2750875724 0.0743047648 0.413948385 -0.0677909611 0.4139772955 -0.0684124663 -0.2852557902 0.0744538972
105299370.0 -0.27396966 0.0766904186 0.4138182045 -0.0733574146 0.4141985353 -0.0734161499 -0.2840426878 0.0763254093
110299340.0 -0.2725702194 0.0788641611 0.4133397295 -0.0783164225 0.4139977238 -0.0782643948 -0.2831572802 0.0784154802
115299310.0 -0.2716169934 0.0811760124 0.4135201503 -0.0833532105 0.4134696324 -0.0835937601 -0.2825510823 0.0812061639
120299280.0 -0.2704606358 0.0832908681 0.4134331387 -0.0891187629 0.4130782788 -0.0890012521 -0.2810010234 0.0831665638
125299250.0 -0.269322198 0.0852361341 0.4124613244 -0.0938788526 0.4124746637 -0.0940199852 -0.2801150224 0.0858407071
130299220.0 -0.2683809093 0.0873979264 0.4119130128 -0.0990552658 0.4120699947 -0.0994687914 -0.2792044151 0.0884346846
135299190.0 -0.2672779196 0.0902796797 0.411567799 -0.1039871125 0.4114177339 -0.1044044271 -0.2783166231 0.0906169922
140299160.0 -0.266131942 0.0920580301 0.4106287922 -0.1088550052 0.4105314732 -0.1087007541 -0.2777604447 0.0928694398
145299130.0 -0.2653068458 0.0946598484 0.4097272272 -0.113671332 0.4094463689 -0.1139888031 -0.2767801885 0.0955715184
150299100.0 -0.2642403768 0.0968059532 0.4084535731 -0.1188092076 0.4083799952 -0.1191365485 -0.2758298018 0.0983745685
155299070.0 -0.2632757775 0.0994248577 0.4070253896 -0.1233122605 0.4075499534 -0.124181049 -0.2747499786 0.101014095
160299040.0 -0.2624495897 0.1020267636 0.4065062227 -0.1285544026 0.4060975764 -0.1290699677 -0.2741420118 0.1036349322
165299010.0 -0.2611288572 0.1042123144 0.4046310851 -0.1333340819 0.4048122924 -0.1336724809 -0.2726506391 0.1060767776
170298980.0 -0.260003569 0.1065588345 0.4031017 -0.138257686 0.4034764155 -0.1383696898 -0.2722118077 0.1084792655
175298950.0 -0.2590968616 0.1095541395 0.4021414841 -0.14302162 0.4023052919 -0.1433169858 -0.2708729374 0.1115674757
180298920.0 -0.2582737378 0.1118066786 0.400709269 -0.1480777345 0.4008468524 -0.1482804269 -0.2697616879 0.1141240957
185298890.0 -0.257230273 0.114307572 0.3997372653 -0.1523272071 0.399102534 -0.1527233304 -0.2686712536 0.1163261396
190298860.0 -0.2556455208 0.1173151655 0.3969356324 -0.1574429471 0.398083971 -0.1573311847 -0.267885055 0.119430143
195298830.0 -0.2548049426 0.1196681434 0.396101294 -0.1617644353 0.3960441771 -0.1619906063 -0.2669500947 0.1219734941
200298800.0 -0.2533954716 0.1220883621 0.3942041623 -0.1669125539 0.3943223506 -0.1667802299 -0.2658079249 0.1246473532
205298770.0 -0.2525155975 0.1248245179 0.3922002652 -0.1711272992 0.3926380396 -0.1709946737 -0.2644896188 0.1274193321
210298740.0 -0.2516314895 0.127337322 0.3906928792 -0.1756526854 0.3903039061 -0.1756598056 -0.2635991896 0.1298312727
215298710.0 -0.2504811187 0.1302914594 0.3884745052 -0.1801164226 0.3889012715 -0.1802886572 -0.2625582555 0.1326061458
220298680.0 -0.2489535733 0.1326455561 0.3864526508 -0.1847926777 0.3866826566 -0.1848290223 -0.2612865699 0.135242315
225298650.0 -0.2478127153 0.1352792644 0.3844335449 -0.1891979652 0.3848714051 -0.1887757754 -0.2599710173 0.1379512693
230298620.0 -0.2464263786 0.1380648494 0.3825439295 -0.1937417457 0.3829592907 -0.1937878259 -0.2586252324 0.1406341872
235298590.0 -0.2455186283 0.1407806499 0.3806406232 -0.1980097311 0.3806186161 -0.1980240282 -0.2573057025 0.1434246439
240298560.0 -0.2436587357 0.1431143478 0.3780324294 -0.2021331688 0.3783941047 -0.2020249314 -0.2563596237 0.1458102552
245298530.0 -0.2427275395 0.1458694529 0.3758888474 -0.206296863 0.3762442201 -0.206838571 -0.2548224052 0.148841224
250298500.0 -0.241649617 0.1483373942 0.3738637307 -0.2106045604 0.3739446275 -0.2105431212 -0.253626595 0.1512265231
255298470.0 -0.2401929241 0.1511483796 0.371949204 -0.2147476675 0.3721726784 -0.2151863059 -0.2519986504 0.1539498044
260298440.0 -0.2388580286 0.1534533831 0.3694203493 -0.2186973101 0.3693864189 -0.2189587464 -0.2508385487 0.1564713415
265298410.0 -0.2374536631 0.156243137 0.3667105776 -0.2233172033 0.366745251 -0.2236553215 -0.2490369378 0.1592199868
270298380.0 -0.2361520776 0.1585079562 0.3643028962 -0.2274860475 0.364502717 -0.2273407551 -0.2472870666 0.1617541334
275298350.0 -0.2344309608 0.1616381025 0.3615332887 -0.2313435599 0.3620651989 -0.2316791682 -0.2460670074 0.1647437001
280298320.0 -0.233002533 0.1639084858 0.359213921 -0.2351886461 0.3597641278 -0.2356013192 -0.2443631672 0.1672121013
285298290.0 -0.2313071938 0.1665669017 0.3564126638 -0.2394529277 0.3568928993 -0.2397212056 -0.242807062 0.1705987192
290298260.0 -0.2300507635 0.1693385261 0.3548180505 -0.2436289397 0.3542782767 -0.2436371199 -0.2410397331 0.1726852902
295298230.0 -0.2281756535 0.1716187499 0.3512468865 -0.2479123593 0.351889936 -0.2479500545 -0.239381814 0.1752809958
300298200.0 -0.2267533249 0.1744634974 0.3488476997 -0.2518217196 0.3492736742 -0.2515789402 -0.2376437638 0.1780916311
305298170.0 -0.2250888422 0.1765977498 0.3459207411 -0.2558869229 0.3462723063 -0.2560375021 -0.235790151 0.1804411623
310298140.0 -0.2233764519 0.1786744076 0.3432267425 -0.2593222175 0.3436020306 -0.2593300831 -0.2337900312 0.1831444195
315298110.0 -0.221918072 0.1812321479 0.3405347151 -0.2637143246 0.3408171271 -0.2635584907 -0.2322978355 0.1853485653
320298080.0 -0.220008884 0.1839258545 0.3369162139 -0.2677829165 0.3379845247 -0.2677094033 -0.2306050997 0.1880203215
325298050.0 -0.2188215786 0.1857239477 0.3341692227 -0.2710562847 0.3346746004 -0.271206546 -0.2284003378 0.190225497
330298020.0 -0.217214207 0.188478471 0.3312396988 -0.2747903813 0.331660247 -0.2749685585 -0.2270654605 0.1923828442
335297990.0 -0.215256501 0.1908836764 0.3281901028 -0.2786143503 0.328366619 -0.278501032 -0.2248529183 0.1954178415
340297960.0 -0.2137419779 0.192921161 0.3247544985 -0.2823612001 0.3248745491 -0.2822618672 -0.2230711736 0.1979868663
345297930.0 -0.2118666712 0.1956442095 0.3216450963 -0.2861907922 0.3219587526 -0.2860881624 -0.2211495662 0.2004145617
350297900.0 -0.210388012 0.1978476488 0.3189160244 -0.2891734739 0.3188419779 -0.2892713685 -0.2193940781 0.2025779592
355297870.0 -0.2081321902 0.2004525976 0.3155901714 -0.2924765269 0.3157887 -0.2925410981 -0.2171326017 0.2051814026
360297840.0 -0.20647145 0.2026972801 0.3121197937 -0.2961281471 0.3123144551 -0.2964704762 -0.215167265 0.2077677292
365297810.0 -0.204523761 0.2050241927 0.3088681101 -0.2997467143 0.3092433705 -0.2998286358 -0.2136007263 0.2102361101
370297780.0 -0.2023289375 0.2070009694 0.305149271 -0.3029753752 0.3059856695 -0.3030539569 -0.2112136941 0.2122940121
375297750.0 -0.2002582669 0.2096341877 0.3020807714 -0.30648497 0.3021976504 -0.3064316629 -0.2085454613 0.2145426203
380297720.0 -0.19863331 0.2119624234 0.2994158543 -0.3100175398 0.2987941421 -0.3099537168 -0.2066998346 0.2174808308
385297690.0 -0.1965826555 0.2140361123 0.2954171364 -0.3128472545 0.2956277726 -0.3135076518 -0.2042623648 0.219788781
390297660.0 -0.1944223264 0.216011978 0.2920468578 -0.3159207347 0.2919839889 -0.3162777965 -0.2021628069 0.2216753149
395297630.0 -0.1920128942 0.2185627601 0.2887810104 -0.3191668299 0.2882962496 -0.3192483284 -0.1996029185 0.2240644719
400297600.0 -0.1899673837 0.2208434839 0.2850535897 -0.3225232522 0.2851595136 -0.3226692218 -0.1974802168 0.2265574606
405297570.0 -0.187911066 0.2223114985 0.2814550372 -0.3254042136 0.2814965944 -0.3256748231 -0.1950566677 0.2291728377
410297540.0 -0.1855654497 0.2248950695 0.2778496748 -0.3289764072 0.2782203503 -0.3289194638 -0.1930548015 0.2314501008
415297510.0 -0.1838111312 0.2268998831 0.2742702515 -0.331789518 0.2740327906 -0.3319220033 -0.1901731206 0.233255526
420297480.0 -0.1810352983 0.2282296696 0.2704811456 -0.3346800984 0.2707057079 -0.3346895631 -0.1875145186 0.2356537384
425297450.0 -0.178410294 0.2308154368 0.2668453053 -0.3375512243 0.2668180249 -0.3374198207 -0.1852884095 0.2372699741
430297420.0 -0.1764505359 0.2327868886 0.2631418326 -0.3406176173 0.2633592531 -0.3401391563 -0.1830497353 0.2395431524
435297390.0 -0.1740301996 0.2346353596 0.2594280572 -0.343899585 0.2594506002 -0.3434893362 -0.1808405785 0.242349197
440297360.0 -0.1715525705 0.2365039277 0.2552884133 -0.3460703329 0.255640701 -0.3465255663 -0.1779145976 0.2444390258
445297330.0 -0.1690629052 0.2381698924 0.2515392386 -0.3488534245 0.2518187481 -0.3491839835 -0.1754538168 0.245992072
450297300.0 -0.1665743862 0.2402621831 0.2478053871 -0.3513827367 0.2481948681 -0.3517516473 -0.1724815243 0.2479679553
455297270.0 -0.1641221315 0.242325916 0.2439249231 -0.3545007693 0.2443471205 -0.3546049783 -0.1701668968 0.2499178751
460297240.0 -0.1612285904 0.2439510581 0.2402641343 -0.357355542 0.2401999072 -0.3572424155 -0.1677963242 0.251913735
465297210.0 -0.1590163455 0.245932753 0.2359459987 -0.3599930238 0.2357864262 -0.3599229458 -0.1646269843 0.2544406748
470297180.0 -0.1567053538 0.2476923946 0.2321040109 -0.362260782 0.2322369987 -0.3622553645 -0.1620471415 0.2558095919
475297150.0 -0.1539998443 0.2494438919 0.2278824956 -0.3647699476 0.2281495683 -0.3647746674 -0.1594352518 0.2575526945
480297120.0 -0.1510598099 0.2515691428 0.2239875798 -0.3674057801 0.2244846206 -0.3672158377 -0.1573895358 0.2596412086
485297090.0 -0.1483871498 0.252748104 0.2197893441 -0.3695855207 0.2199478658 -0.3694389112 -0.1544065224 0.2613116069
490297060.0 -0.1452049181 0.2545768446 0.2155974948 -0.3720228465 0.2161491715 -0.3719093899 -0.1515574113 0.2629943827
495297030.0 -0.1428635256 0.256297775 0.2120279623 -0.3742714622 0.2118704978 -0.3743028541 -0.1479785641 0.2648192988
500297000.0 -0.1403667408 0.2577932053 0.2079974807 -0.3760304691 0.2079761614 -0.3767899735 -0.1460119609 0.2666130653
505296970.0 -0.1370784467 0.2595016062 0.203245304 -0.379160145 0.2036887595 -0.3782940761 -0.1425380329 0.2679594877
510296940.0 -0.1346970181 0.2610091079 0.1999049196 -0.3813977083 0.1994509193 -0.3813279404 -0.1397792016 0.2700971593
515296910.0 -0.1318777191 0.262666395 0.1951748563 -0.3829688084 0.1949680795 -0.3831440168 -0.1374461721 0.2715081548
520296880.0 -0.1287612338 0.2641393824 0.1910442973 -0.3850381248 0.1905482728 -0.3852299824 -0.1336737488 0.2734714123
525296850.0 -0.1259728697 0.2653754041 0.1865776144 -0.3871199757 0.1864422537 -0.3870345971 -0.1311598818 0.2744346544
530296820.0 -0.1232908571 0.2669408219 0.1821281782 -0.3892539672 0.1824033211 -0.3891189469 -0.128344019 0.2759374164
535296790.0 -0.1197914584 0.2684066527 0.1779929678 -0.3908159303 0.1782821327 -0.3911254004 -0.1254426646 0.277647491
540296760.0 -0.1169587384 0.269889977 0.1736372645 -0.3927757555 0.1735546321 -0.3929585318 -0.122612799 0.2787908807
545296730.0 -0.1142644354 0.2720190118 0.1697538952 -0.3947844623 0.1694930334 -0.3943944685 -0.1191977826 0.2804083226
550296700.0 -0.1112334424 0.2729923483 0.1651586595 -0.3964286353 0.1647584196 -0.3969710297 -0.1162760031 0.2818942873
555296670.0 -0.108398249 0.2744831661 0.1608770936 -0.3988200804 0.1605736958 -0.3982455326 -0.1138064542 0.2830028531
560296640.0 -0.1050875225 0.2755267981 0.1561718969 -0.4000852507 0.1563193157 -0.3999778341 -0.1105456054 0.2848311959
565296610.0 -0.1026385007 0.276969826 0.1520945411 -0.4018331201 0.1523422107 -0.4014017375 -0.1073988828 0.2860661989
570296580.0 -0.0995326353 0.2782281573 0.1475776103 -0.4032923697 0.1476115122 -0.4030125906 -0.1046196092 0.2867319215
575296550.0 -0.0961437837 0.2792579015 0.1434483381 -0.4050614998 0.1431713162 -0.4045957273 -0.1013963742 0.2881704569
580296520.0 -0.0933222894 0.280698719 0.1387800461 -0.4065680099 0.1386424554 -0.4061869095 -0.0982663033 0.289584646
585296490.0 -0.0901415423 0.2820313657 0.1346899379 -0.4078348245 0.1340705165 -0.4078085783 -0.0950748155 0.2910084497
590296460.0 -0.0866217578 0.2832019724 0.1297682564 -0.4093007789 0.1298343161 -0.4093708294 -0.0924940415 0.2920273315
595296430.0 -0.0839830817 0.284170301 0.125178399 -0.4106021504 0.1253276985 -0.4104679215 -0.0892758607 0.2929022008
600296400.0 -0.0810771027 0.285154191 0.1204678004 -0.4117237038 0.1206137271 -0.4116135416 -0.0863539331 0.2937064157
605296370.0 -0.0780133824 0.286529438 0.116725416 -0.4126432063 0.1159479028 -0.4133206967 -0.0827621728 0.2954078577
610296340.0 -0.0745797146 0.2878764387 0.1118293492 -0.413923161 0.1118573718 -0.414153111 -0.0803236126 0.2963091952
615296310.0 -0.0713246731 0.2883781107 0.1073264073 -0.415495874 0.1069588949 -0.4153914317 -0.0765986393 0.297221427
620296280.0 -0.0683708625 0.2897147429 0.1026713584 -0.4165444467 0.1027042258 -0.4164836782 -0.0736997196 0.298329704
625296250.0 -0.0657218499 0.2903128123 0.0982385897 -0.4174320616 0.0982438575 -0.4176092349 -0.0705425818 0.2988684568
630296220.0 -0.0621270149 0.2914347541 0.09342593 -0.4183770741 0.0935685792 -0.4184790935 -0.0674241741 0.2996417106
635296190.0 -0.0593726125 0.2925523169 0.0892184876 -0.419648709 0.0890102862 -0.4193016751 -0.0642289685 0.300683472
640296160.0 -0.0559851433 0.2932621348 0.0845625367 -0.4205299201 0.0844288305 -0.4203458154 -0.0609808989 0.3013928302
645296130.0 -0.0528026153 0.294279525 0.0803326259 -0.4210914159 0.0798579664 -0.4209610929 -0.0580733335 0.301844379
650296100.0 -0.0498417262 0.294837791 0.075705935 -0.4219834092 0.0750385213 -0.4219438722 -0.0545692679 0.302911057
655296070.0 -0.0467576408 0.2954911853 0.0708645131 -0.4225671078 0.0707170234 -0.4227717951 -0.051867744 0.3040390381
660296040.0 -0.0432726817 0.2962957127 0.0661956425 -0.4232911302 0.0661969124 -0.4233696487 -0.0482517065 0.3042226852
665296010.0 -0.0403077 0.2971655037 0.061252793 -0.4233557474 0.0612802275 -0.4237137154 -0.0448226004 0.3044432403
670295980.0 -0.0371280401 0.2978481861 0.0566860019 -0.4247127955 0.0567365248 -0.424464054 -0.042295393 0.3055660078
675295950.0 -0.0342442496 0.2986500586 0.0519798288 -0.4248170439 0.0524416292 -0.4254885197 -0.0386697831 0.3061808572
680295920.0 -0.0314691454 0.2994740079 0.0477977986 -0.4252923002 0.0475407255 -0.4253852906 -0.0351919924 0.3065634769
685295890.0 -0.0276237992 0.3002068803 0.0428023603 -0.4262756071 0.0431507459 -0.4264744338 -0.0322788088 0.3073662158
690295860.0 -0.0248681313 0.3006524004 0.0386151282 -0.4270506256 0.0381549454 -0.426337099 -0.0289807941 0.3076211531
695295830.0 -0.0215769712 0.301068129 0.0340789107 -0.4270375463 0.0337875728 -0.4268632445 -0.0258244092 0.3083074564
700295800.0 -0.0185311297 0.3017672805 0.0296333162 -0.4274302939 0.0294394527 -0.4271762184 -0.0224121674 0.3083293615
705295770.0 -0.0154800363 0.3021784485 0.0248358518 -0.4275450184 0.0245402784 -0.4275992953 -0.0195693051 0.3092779066
710295740.0 -0.0125082189 0.3022796084 0.020195616 -0.4278747225 0.0199540454 -0.4278724542 -0.0161821077 0.3092624614
715295710.0 -0.0092156973 0.3032072779 0.0154824044 -0.4280710719 0.0153367255 -0.4279250869 -0.0126587491 0.3096629263
720295680.0 -0.0057654298 0.3033686197 0.0106828872 -0.427894378 0.0107456984 -0.4286533483 -0.0099207594 0.3096119481
725295650.0 -0.00299593 0.303743563 0.0061270393 -0.42816072 0.0059218047 -0.4280079988 -0.0064454051 0.3101449919
730295620.0 -0.0004003778 0.3040222189 0.0018931101 -0.4277573018 0.0014086874 -0.4278228819 -0.0035443864 0.3106611063
735295590.0 0.0029550605 0.3041157949 -0.002867111 -0.4279520544 -0.0032985382 -0.4281308662 -0.0001863357 0.3104813038
740295560.0 0.0059504335 0.3040798046 -0.0078005639 -0.4277800954 -0.0074679167 -0.4282557892 0.0036031449 0.3108295941
745295530.0 0.0090864586 0.3046572983 -0.0118322745 -0.4273642107 -0.0114016715 -0.4277180844 0.0062852915 0.3108359261
750295500.0 0.0119807865 0.3047101141 -0.0165212769 -0.4276203681 -0.0168105558 -0.427767449 0.0096205937 0.3110749799
755295470.0 0.0152141241 0.3047002823 -0.0210421855 -0.4273549088 -0.0212214245 -0.4275702581 0.0129970249 0.3113105604
760295440.0 0.0182723626 0.3050358608 -0.0262557786 -0.4270167028 -0.0263073508 -0.4268623765 0.0164037126 0.3107141616
765295410.0 0.0215620243 0.3047564145 -0.0303678172 -0.4266598911 -0.0306043241 -0.4264516238 0.0197759994 0.3106612091
770295380.0 0.0243745135 0.3051412037 -0.0347768572 -0.4261003331 -0.0352903105 -0.4264111174 0.0228570996 0.3110472964
775295350.0 0.0273202075 0.3047689274 -0.0392179799 -0.4255473978 -0.0396239569 -0.4255866389 0.0260871189 0.3109190152
780295320.0 0.0305786862 0.3050999255 -0.0440062205 -0.4251428055 -0.0443887709 -0.4254373534 0.0294945086 0.3108120284
785295290.0 0.0335017793 0.3047734193 -0.0485010842 -0.4249548525 -0.0487026446 -0.4247291535 0.0324221108 0.3106100004
790295260.0 0.0367910673 0.3044549906 -0.0535443223 -0.4243260078 -0.0532656726 -0.4246665725 0.035774849 0.3106151005
795295230.0 0.0396741593 0.3042369756 -0.0578667457 -0.4236015193 -0.0584923051 -0.4237476503 0.0390581944 0.3096334926
800295200.0 0.042827957 0.3044843388 -0.0620806191 -0.4225213965 -0.0626164917 -0.4231581622 0.0421080103 0.3095867897
805295170.0 0.0456274611 0.3043847469 -0.0667737116 -0.422400655 -0.0670407072 -0.4221448926 0.0459060392 0.3092019083
810295140.0 0.0490436878 0.3038648821 -0.071410583 -0.4214248448 -0.0715477071 -0.421397699 0.0489845702 0.3091610286
815295110.0 0.0518163091 0.3034260229 -0.0760625776 -0.4206076972 -0.0759749746 -0.4205946098 0.0517880164 0.3085427748
820295080.0 0.054804975 0.3032110201 -0.0800801224 -0.4197002773 -0.0800330258 -0.4201935745 0.0547108517 0.3087470704
825295050.0 0.0576859393 0.3025619583 -0.0852142124 -0.4192768818 -0.0850776561 -0.4191742204 0.0588073699 0.3080341472
830295020.0 0.0606602406 0.3020363798 -0.0892208444 -0.4178272265 -0.0895064003 -0.4180314248 0.0614314271 0.3073510011
