!Created with skrf (http://scikit-rf.org).
# Hz S RI R 50.0 
!freq ReS11 ImS11 ReS21 ImS21 ReS12 ImS12 ReS22 ImS22
300000.0 -0.0468242768 -0.0686880585 -0.0018764244 -0.0003109981 0.001721973 0.0012233988 -0.7658971381 -0.1800303551
5299970.0 -0.050194404 0.0145000802 -0.0002027788 2.0679e-06 0.0002376853 -0.0001864789 -0.78528558 -0.0093016841
10299940.0 -0.0446836453 0.0329205164 9.45863e-05 4.0418e-06 -4.9349e-06 8.26897e-05 -0.7879346623 -0.0051350583
15299910.0 -0.035930586 0.0473793429 0.0002255868 -9.92567e-05 -0.0001183834 -1.19841e-05 -0.7931009923 -0.0026495461
20299880.0 -0.0259412732 0.0593829711 5.05989e-05 -0.000198349 -4.46222e-05 7.10798e-05 -0.7999615523 0.0018873099
25299850.0 -0.0142021026 0.0684924123 5.30429e-05 9.36372e-05 -6.983e-07 0.0001347708 -0.8062272082 0.0079423754
30299820.0 -0.0026729857 0.0755793664 -1.95513e-05 -6.09509e-05 0.0001384154 8.12392e-05 -0.8122592318 0.0158653686
35299790.0 0.0090269331 0.079849334 -0.0003517308 -2.48222e-05 5.45306e-05 0.0001539025 -0.8174021376 0.0245530586
40299760.0 0.020441217 0.0825741153 -2.50985e-05 0.0002359972 1.65281e-05 -0.0001513026 -0.8215797088 0.0338814918
45299730.0 0.0311823564 0.0838235249 -9.24228e-05 0.0002270343 -5.42583e-05 4.33108e-05 -0.8246006914 0.0437418783
50299700.0 0.0417149683 0.0836912047 -4.93995e-05 -7.88537e-05 6.03284e-05 -4.28981e-05 -0.8265596441 0.0541976123
55299670.0 0.0507567227 0.082541213 -4.70613e-05 0.000112046 4.54307e-05 -2.32862e-05 -0.8289665208 0.0635965937
60299640.0 0.0597158496 0.0806453306 7.05756e-05 -2.84667e-05 -3.76122e-05 0.0001393843 -0.8300281763 0.0739825124
65299610.0 0.0677340383 0.0781419796 -9.65805e-05 -2.015e-05 -5.03704e-05 8.23036e-05 -0.8305854775 0.084034099
70299580.0 0.0742242093 0.074983772 -1.17034e-05 0.000105331 -0.000184651 2.49554e-05 -0.8312512712 0.0935562448
75299550.0 0.0807776551 0.0716977452 7.32166e-05 0.0001615061 -1.3835e-05 6.33091e-05 -0.8310294859 0.1041338194
80299520.0 0.0866860831 0.0678156497 -2.05277e-05 6.94006e-05 4.588e-05 0.0001692918 -0.8309237706 0.1138746775
85299490.0 0.0917794572 0.0641644225 -0.0001529549 3.35583e-05 -7.10104e-05 7.45021e-05 -0.8303326594 0.1230576411
90299460.0 0.0969256028 0.0598847693 -4.3128e-06 -1.04572e-05 0.000154422 -0.0001141143 -0.8291992931 0.1326459599
95299430.0 0.1005499349 0.0560853237 9.59982e-05 8.38633e-05 -1.01691e-05 -1.99096e-05 -0.8286496163 0.1428129813
100299400.0 0.1046475366 0.0519087778 2.32113e-05 -0.0001296842 -0.0001198245 -6.1659e-05 -0.8272200399 0.1518434162
105299370.0 0.1077795053 0.0478589455 -3.71465e-05 -0.0001492037 5.66259e-05 7.63581e-05 -0.8262186486 0.1607266586
110299340.0 0.1109864119 0.0437533251 -3.09494e-05 -0.0001890794 7.06118e-05 -0.0002072519 -0.8249403198 0.1699068406
115299310.0 0.1133687022 0.0400554498 0.0001393974 -6.20499e-05 3.35155e-05 -0.0001953409 -0.8234517296 0.1790682036
120299280.0 0.1156219023 0.036174581 -0.0001541853 9.40157e-05 3.89044e-05 -0.0001120411 -0.821270852 0.1877725808
125299250.0 0.1174287244 0.0321975872 -1.54644e-05 -2.57902e-05 0.0001332256 9.78645e-05 -0.8198024801 0.1969561562
130299220.0 0.1190977817 0.027978972 2.93191e-05 0.0002405298 7.05144e-05 0.0001693662 -0.8179506304 0.2059059719
135299190.0 0.120881183 0.024344488 -6.77954e-05 -0.0002291559 3.1594e-05 -7.91317e-05 -0.8159976399 0.2148817633
140299160.0 0.1221427724 0.0208691355 9.0519e-06 1.3528e-06 0.0001045835 -0.0001084348 -0.8143251884 0.2234778647
145299130.0 0.1231933991 0.0174200989 0.0001268622 0.0001316592 9.03339e-05 -9.84535e-05 -0.8119839925 0.2325817559
150299100.0 0.1243429161 0.0136716971 -0.0003027964 0.0002109948 0.0001439876 -0.0001007439 -0.8097006624 0.2412691733
155299070.0 0.1249374952 0.0106752648 0.0002128986 7.56719e-05 5.91516e-05 6.1262e-06 -0.8072224656 0.250168
160299040.0 0.1255145116 0.0071125026 3.36145e-05 -3.57881e-05 -0.0001589132 -2.315e-05 -0.8048122769 0.2593573125
165299010.0 0.1262921953 0.0039263754 -1.45377e-05 -5.7311e-06 -6.45552e-05 5.21002e-05 -0.8019297035 0.267283437
170298980.0 0.1264458978 0.0005641325 7.22884e-05 -6.61261e-05 -5.03881e-05 -8.2962e-05 -0.8000144511 0.2752586495
175298950.0 0.126619959 -0.0021470561 8.9796e-06 -0.0001487638 0.0001224185 3.0516e-05 -0.7965933253 0.2846436487
180298920.0 0.1269159404 -0.0052467092 -0.0001067972 8.7218e-05 4.56796e-05 0.0001955484 -0.79346437 0.293304299
185298890.0 0.1269032573 -0.0081471687 -4.75847e-05 6.42009e-05 0.0001615004 1.72975e-05 -0.7907620434 0.3014696092
190298860.0 0.1266679626 -0.0110109976 0.0001607142 8.28558e-05 8.71008e-05 1.03423e-05 -0.787263857 0.3100519863
195298830.0 0.1270125907 -0.0134943512 -1.00509e-05 0.0002513318 -7.461e-05 -1.33766e-05 -0.7840721276 0.3178811498
200298800.0 0.1270647223 -0.0168925121 -6.40466e-05 -3.2233e-06 0.0001648759 6.37486e-05 -0.7812246104 0.326479548
205298770.0 0.1260026725 -0.019291696 5.20246e-05 -5.09845e-05 -3.63644e-05 -5.62782e-05 -0.7778123183 0.335247019
210298740.0 0.1262151463 -0.0218444894 5.76985e-05 -2.0911e-05 -5.60735e-05 -0.0001699059 -0.7746595988 0.3432808904
215298710.0 0.1255341948 -0.0242842022 -0.0001767709 2.54669e-05 0.0001406587 0.0001217296 -0.7703907991 0.3511174923
220298680.0 0.1252378423 -0.0269608456 -4.92533e-05 2.56501e-05 5.92911e-05 8.3507e-06 -0.7671114947 0.3590984386
225298650.0 0.1250947462 -0.0292807282 6.1299e-05 9.64611e-05 -5.27191e-05 0.0001502947 -0.7633658368 0.3677529606
230298620.0 0.1240338959 -0.0314202996 -4.47e-07 -0.000176119 0.0001418535 -4.5582e-06 -0.7592261885 0.375398147
235298590.0 0.1234028052 -0.0337302403 -2.92723e-05 6.21055e-05 -7.43376e-05 -5.17795e-05 -0.7553788987 0.3835171307
240298560.0 0.1227335184 -0.0359924375 0.0001013837 0.0001477078 1.8251e-06 -0.0001934136 -0.7511331517 0.3908074672
245298530.0 0.1218978343 -0.0384049645 -0.0002032657 0.0001695615 -4.25543e-05 0.0003843204 -0.7476935857 0.3987531845
250298500.0 0.1213167069 -0.0404851256 3.72589e-05 -7.68427e-05 -0.0001824517 5.02005e-05 -0.7431872233 0.4070987686
255298470.0 0.1204457407 -0.0425843407 -0.000127256 9.60906e-05 0.0001255232 -0.000159344 -0.7387005985 0.4145250708
260298440.0 0.1199018013 -0.0447656599 0.0001074976 -6.1863e-05 6.18078e-05 -5.98338e-05 -0.7345414497 0.4219792216
265298410.0 0.118588275 -0.0469660415 -6.49417e-05 -1.84018e-05 5.64001e-05 -0.0001707511 -0.7300415015 0.4299751639
270298380.0 0.1179458141 -0.048828979 -7.11648e-05 -7.34998e-05 9.43169e-05 -2.04539e-05 -0.7250717336 0.4381505153
275298350.0 0.117036137 -0.0507813026 0.0002551009 -2.34114e-05 4.32155e-05 -1.87977e-05 -0.720496985 0.445535424
280298320.0 0.1156415524 -0.0525602152 -4.8478e-06 0.0001479456 0.0001649214 9.15897e-05 -0.7165298954 0.4529183232
285298290.0 0.1150409774 -0.0548153107 0.0002533165 -0.0001818031 7.88722e-05 0.0001095438 -0.7119999571 0.4608098262
290298260.0 0.1139067813 -0.0562713662 0.0001014797 8.31757e-05 -9.72728e-05 -0.00012197 -0.7069378497 0.4672301754
295298230.0 0.1130086802 -0.0584393589 0.0002907448 0.0001225849 7.00339e-05 1.5654e-05 -0.7016812042 0.4748723669
300298200.0 0.1120007739 -0.0600798527 9.18142e-05 6.06637e-05 0.0002255337 8.9682e-06 -0.6967537548 0.4824165232
305298170.0 0.1110347941 -0.0623046788 0.0002311166 0.0001070434 6.365e-05 1.00499e-05 -0.6912523586 0.4889004525
310298140.0 0.1098419827 -0.0646212747 7.05196e-05 -3.2347e-05 -0.0001197217 -0.0001826861 -0.6860300584 0.4967707594
315298110.0 0.1084701411 -0.0663076998 -0.0002220112 0.0001564773 6.90371e-05 -0.000326791 -0.6813628005 0.503421729
320298080.0 0.1070219974 -0.0682257353 0.0001238016 7.76124e-05 6.99526e-05 0.0001352756 -0.676044873 0.5105351646
325298050.0 0.105167751 -0.0703380489 -3.15197e-05 -7.94078e-05 0.0001714204 7.37506e-05 -0.6702537983 0.5180027886
330298020.0 0.1038625069 -0.0713470231 0.0002227197 -1.34334e-05 6.4166e-06 0.0001761396 -0.6647185942 0.5243324593
335297990.0 0.102305917 -0.0729251289 0.0001644983 6.97585e-05 0.0001370818 2.26487e-05 -0.6595200788 0.5318331405
340297960.0 0.1009286811 -0.0743945779 0.0001564841 0.0001530773 0.0001107458 0.0001898377 -0.6537798671 0.5385630783
345297930.0 0.0995195874 -0.0759794621 0.0001732535 0.0002850575 8.66777e-05 5.98079e-05 -0.6483942693 0.5444377828
350297900.0 0.0981989571 -0.077660762 -1.44383e-05 2.5107e-06 4.03871e-05 -1.08108e-05 -0.6432712183 0.5511782648
355297870.0 0.0970145627 -0.0787557499 -8.25336e-05 0.0001485414 -6.9883e-06 0.0001076402 -0.637208504 0.5586736453
360297840.0 0.0953425112 -0.0801172672 0.0001605983 -5.45773e-05 -0.0001141443 -2.01617e-05 -0.6311346307 0.5650518822
365297810.0 0.0940044942 -0.0815753284 7.33177e-05 4.63205e-05 -6.07489e-05 -4.487e-07 -0.6257921462 0.5711346143
370297780.0 0.0925488492 -0.0832430348 -7.669e-05 -0.00021061 0.0001147025 0.0001062708 -0.6194385774 0.5776440437
375297750.0 0.0914358996 -0.0842241792 0.0001408049 0.0001666145 0.0001765673 8.22973e-05 -0.6127297873 0.5838925722
380297720.0 0.0896600671 -0.0852401197 0.0001250592 -0.0001753541 0.0001077469 0.000255699 -0.6071148438 0.590308536
385297690.0 0.0882814973 -0.0867622715 6.43001e-05 0.0001888492 3.3272e-05 2.81694e-05 -0.6017358283 0.5966934255
390297660.0 0.0868081094 -0.0883293788 -6.47499e-05 0.0001785162 -1.39619e-05 0.0002548282 -0.5945712898 0.6015638704
395297630.0 0.0855944199 -0.0893403098 -1.01137e-05 4.84698e-05 -4.5587e-05 0.0002323523 -0.587750664 0.6078328312
400297600.0 0.0836094983 -0.0904336188 8.05595e-05 0.0001022897 0.0002492853 -9.37717e-05 -0.5825603142 0.6138526875
405297570.0 0.0822695369 -0.0919761049 0.0001145978 0.0001181589 1.04848e-05 -2.05786e-05 -0.5754984273 0.6199245137
410297540.0 0.0811428918 -0.092931177 -2.0577e-05 0.0002219282 0.000102506 -2.91639e-05 -0.569334544 0.6258164483
415297510.0 0.0794858449 -0.0940504991 2.13852e-05 -7.10966e-05 6.39501e-05 -0.0001410973 -0.5628938226 0.6313515893
420297480.0 0.0777586442 -0.0955077612 8.79e-08 6.96813e-05 0.0001414184 -0.0002130233 -0.556077627 0.6376719004
425297450.0 0.07667279 -0.0963269026 -6.32773e-05 5.8744e-05 0.0001350851 -2.59678e-05 -0.5491516706 0.6426026009
430297420.0 0.0748248378 -0.0976097466 0.0003236477 0.000175604 3.0624e-05 5.37816e-05 -0.5432303163 0.6483391406
435297390.0 0.0731800442 -0.0987923734 -3.45705e-05 0.0002007415 0.0001019209 0.0001469342 -0.536379768 0.653985471
440297360.0 0.071799379 -0.0996506994 0.0002669712 0.0001915759 -1.39644e-05 0.0001997989 -0.5303898119 0.6593706647
445297330.0 0.0704406467 -0.1005737017 0.0001460235 -0.0001187856 1.77795e-05 8.38e-05 -0.522906928 0.6648035535
450297300.0 0.0688892105 -0.1017900031 0.000169045 -0.000112345 -2.1638e-06 0.0001309686 -0.5157963017 0.669591673
455297270.0 0.0672261735 -0.1026425244 5.62587e-05 -9.1448e-06 0.0002260476 9.58192e-05 -0.5090741395 0.675004177
460297240.0 0.0656109872 -0.1036179286 -7.4012e-06 -9.74994e-05 0.00020226 2.29832e-05 -0.5024540967 0.6798845952
465297210.0 0.0642274685 -0.1041046658 0.0001359531 -2.36329e-05 -1.07323e-05 0.000191616 -0.4950833985 0.6855340521
470297180.0 0.0626242529 -0.104971829 0.0001105385 2.11026e-05 0.0001045749 6.23916e-05 -0.4878555052 0.690172373
475297150.0 0.0606082442 -0.105835468 0.0001019352 1.27573e-05 0.0001413831 -2.919e-07 -0.4814059058 0.6955579502
480297120.0 0.0597452415 -0.1070147398 8.18436e-05 -4.46898e-05 6.9995e-06 0.0002502197 -0.4742971894 0.6996552063
485297090.0 0.058051268 -0.1077709894 0.0001792918 7.64881e-05 3.23746e-05 6.58876e-05 -0.4673970427 0.7044530392
490297060.0 0.0569089791 -0.108315414 3.71136e-05 0.0003190062 -0.0001320178 -0.0001735344 -0.459575346 0.7088012457
495297030.0 0.0552236628 -0.109264156 -9.11406e-05 0.0001002476 -4.17829e-05 0.0002256443 -0.452384836 0.7136137509
500297000.0 0.0533503212 -0.109572306 3.21064e-05 0.0002525169 -9.4455e-06 -6.44355e-05 -0.4453242505 0.717976963
505296970.0 0.051874373 -0.1106757577 0.0001837339 0.0002177011 0.0002855248 0.0001012144 -0.4375914321 0.722579102
510296940.0 0.0503823655 -0.1108987495 0.0002498209 0.0001504353 8.69074e-05 0.0001011357 -0.4303675804 0.727081756
515296910.0 0.0487461801 -0.1114691262 -3.91499e-05 -4.5967e-06 0.0001258512 -9.09587e-05 -0.4230381022 0.7310977951
520296880.0 0.0474019203 -0.1125536485 0.0002154329 5.61716e-05 0.000141855 -5.04471e-05 -0.4150274505 0.7361589407
525296850.0 0.0456517622 -0.1130238486 0.0001909745 -0.000105156 0.0002103479 -0.0001635434 -0.4084109441 0.7396120684
530296820.0 0.0439860713 -0.1132525969 0.0002102687 6.3872e-06 0.0001490307 9.93562e-05 -0.4003418176 0.7430293441
535296790.0 0.0427238338 -0.1137508996 0.0001409697 -5.21346e-05 0.0002503923 6.47882e-05 -0.3938518982 0.7478920114
540296760.0 0.0412940702 -0.1143807639 5.95336e-05 -3.70259e-05 0.000206022 2.94264e-05 -0.3848798576 0.7515899477
545296730.0 0.0390499825 -0.1144823482 0.0001190548 3.75035e-05 0.0001118583 9.02765e-05 -0.3773538636 0.7555317561
550296700.0 0.0380022458 -0.1150661484 9.19793e-05 4.59957e-05 0.0001057134 9.8285e-06 -0.3700510534 0.758804983
555296670.0 0.0362668511 -0.115523277 0.000175082 -0.0001750846 2.73227e-05 -4.2707e-06 -0.362815385 0.7622504671
560296640.0 0.034864836 -0.1159481361 7.268e-07 -4.94692e-05 3.45599e-05 -5.16717e-05 -0.3543750143 0.7664968512
565296610.0 0.0329716552 -0.1162071213 1.43956e-05 -6.47762e-05 -4.54768e-05 -5.22395e-05 -0.3467718005 0.769652894
570296580.0 0.0313778368 -0.1164474089 0.0002704987 9.7116e-05 4.60403e-05 9.816e-06 -0.3393919366 0.7728421167
575296550.0 0.0298580829 -0.1168224547 5.70558e-05 -7.10876e-05 0.0002135418 -7.70512e-05 -0.3305889997 0.776328678
580296520.0 0.0281337369 -0.1166183161 -5.66724e-05 0.0001449432 1.22125e-05 7.06591e-05 -0.323709459 0.7794282217
585296490.0 0.0265467735 -0.1171566991 0.0001533316 4.2785e-06 0.0002562912 0.0001095503 -0.3151646591 0.7830760983
590296460.0 0.0253505591 -0.1171641195 5.53795e-05 0.0001420501 0.0002029444 8.56942e-05 -0.3076292927 0.7859053774
595296430.0 0.0233706103 -0.1175570494 6.31735e-05 4.53558e-05 6.92838e-05 -8.5284e-05 -0.299835831 0.7892099067
600296400.0 0.0218674601 -0.1176893607 2.55588e-05 6.50619e-05 1.66172e-05 -2.70304e-05 -0.2917481671 0.7917046629
605296370.0 0.0198628616 -0.1174150052 9.17169e-05 -5.62914e-05 0.000157112 1.91231e-05 -0.2833608955 0.7951330557
610296340.0 0.0185879511 -0.1176515868 0.0003076538 2.9761e-05 1.63897e-05 -2.95652e-05 -0.2765034943 0.7983009767
615296310.0 0.0169755464 -0.1174145129 0.0001398842 -3.96694e-05 0.0001452889 -6.37658e-05 -0.2676101658 0.8003044206
620296280.0 0.015255648 -0.1175369609 0.0002565853 0.0002133105 0.0002473867 6.63686e-05 -0.2599189336 0.8030828952
625296250.0 0.0135183813 -0.1173711218 0.0002071987 4.35366e-05 0.0002930534 -5.9603e-06 -0.2515267751 0.8054730595
630296220.0 0.0118975849 -0.1171944787 0.0001372431 9.48463e-05 0.0001419717 -1.9248e-05 -0.2436478769 0.808025653
635296190.0 0.0101473327 -0.1170809143 0.0001255249 -0.0001137872 0.0002463202 -0.000121544 -0.235494825 0.809906169
640296160.0 0.0086333642 -0.1171619367 0.0002564218 -9.48577e-05 0.0001913304 7.84391e-05 -0.2271051678 0.812563565
645296130.0 0.007275999 -0.1170312355 0.0001734351 0.0002399831 0.0001154016 3.45793e-05 -0.2195625182 0.8140476229
650296100.0 0.0052837285 -0.1168912729 0.0001059652 -9.44e-06 -4.51515e-05 0.0001211934 -0.2108736559 0.8166154666
655296070.0 0.0036630671 -0.1167179182 0.0001752855 8.85543e-05 0.0001288648 5.9934e-05 -0.2033373154 0.8189887239
660296040.0 0.0016798556 -0.116520943 9.52474e-05 1.28264e-05 1.89559e-05 3.52088e-05 -0.1942215987 0.8210019361
665296010.0 0.0004707312 -0.116079486 0.0001048269 0.0003074224 0.0002684022 0.0001865441 -0.1860198251 0.8223331178
670295980.0 -0.0015580727 -0.1159700148 0.0003048097 9.2873e-05 0.0003293531 9.7704e-06 -0.1781863248 0.8244457631
675295950.0 -0.0029784799 -0.1157607044 -4.73686e-05 0.0001493995 0.0001744907 -1.78156e-05 -0.1698536814 0.8261772586
680295920.0 -0.0050543681 -0.1154805561 4.59773e-05 -2.07942e-05 0.000198544 0.000105411 -0.1609417463 0.8279662758
685295890.0 -0.0062951991 -0.1146927947 4.9183e-06 -0.0001408531 0.0001182041 -1.86956e-05 -0.1533131186 0.8294967193
690295860.0 -0.0081839574 -0.1145044513 0.0002716458 0.0001045246 0.0001055578 -0.000121429 -0.1450626163 0.8310560872
695295830.0 -0.0098393418 -0.1146262858 0.0001624413 -0.0001500785 -5.80049e-05 0.0002449803 -0.1368965699 0.8328027641
700295800.0 -0.0115741761 -0.1136767789 -6.42625e-05 7.02509e-05 7.7052e-05 6.10582e-05 -0.1282644015 0.8335717014
705295770.0 -0.013391513 -0.1133312058 3.97982e-05 -0.0001536387 -4.6693e-06 0.0001458976 -0.120397308 0.8353460901
710295740.0 -0.0146847246 -0.1129120565 1.82143e-05 3.58753e-05 0.0003070253 4.97612e-05 -0.1114359925 0.8362032144
715295710.0 -0.016435786 -0.1123586643 8.44878e-05 9.6033e-06 1.9363e-06 -3.9911e-06 -0.1031142878 0.8366700747
720295680.0 -0.0180177607 -0.1122649722 0.0001907526 1.80658e-05 0.0001225035 -0.0001763636 -0.094659492 0.8378307932
725295650.0 -0.0199365315 -0.1114039727 0.0002045345 -0.0002949845 0.0001087407 1.6254e-05 -0.0868904266 0.8391816545
730295620.0 -0.021761071 -0.1112286313 0.0002072966 -0.0001232578 -3.93214e-05 -9.12043e-05 -0.0785059438 0.8403980065
735295590.0 -0.0232711982 -0.1102525283 0.0001261489 4.64631e-05 7.53877e-05 -0.0001386181 -0.0694531988 0.840655246
740295560.0 -0.0251129318 -0.1101085824 0.0001503692 -0.0001100226 0.0002460429 -9.8423e-05 -0.06161064 0.841629412
745295530.0 -0.0264610984 -0.1092643691 0.0001869743 6.96013e-05 -0.0001667262 0.0001621853 -0.0537748979 0.8416984415
750295500.0 -0.0283923388 -0.1087626083 0.0002924905 6.4147e-06 -3.51279e-05 4.1127e-05 -0.0448923134 0.8417434607
755295470.0 -0.0301150099 -0.1080460819 -7.57784e-05 5.8124e-06 0.0001555161 -0.0001248984 -0.0367559847 0.8431018463
760295440.0 -0.0314910591 -0.1073350658 3.07661e-05 -8.15408e-05 0.000421463 -0.0001580672 -0.0276448455 0.8426861508
765295410.0 -0.0330945428 -0.1069029558 4.6313e-05 0.0001253751 5.70732e-05 1.77801e-05 -0.0197355934 0.8432418517
770295380.0 -0.0344973735 -0.1059654912 8.0421e-05 -0.0001035429 0.000221323 4.28599e-05 -0.0113669018 0.8433453039
775295350.0 -0.0362171883 -0.1052990632 0.0002208976 -8.91834e-05 7.54998e-05 0.0001343661 -0.0029218263 0.8433408484
780295320.0 -0.0380896685 -0.1046704652 0.0001686375 1.13461e-05 8.2586e-06 -0.0001240351 0.005838464 0.8434817436
785295290.0 -0.0397626176 -0.1041656318 0.0001669299 1.25013e-05 0.0001530882 -6.8138e-06 0.0133302222 0.8434404089
790295260.0 -0.0414640988 -0.1034676405 5.94486e-05 -0.0001010003 0.0001969528 -6.16084e-05 0.0220548614 0.8433484693
795295230.0 -0.0428202481 -0.1029980769 3.82922e-05 -7.60495e-05 1.79613e-05 -0.0001855737 0.0302654881 0.8424563016
800295200.0 -0.0443995552 -0.1020776175 0.0002339085 -2.50945e-05 0.0001670628 -2.62394e-05 0.0383856615 0.8419504963
805295170.0 -0.0461834398 -0.1011462604 4.32583e-05 -0.0002108967 0.0002728563 -0.0002500633 0.0475142261 0.8418293352
810295140.0 -0.0475944925 -0.100127603 0.0001746341 -0.000280629 0.0003034684 -0.0001508946 0.0559075346 0.841036537
815295110.0 -0.0492621751 -0.0994708323 0.0002291681 0.0002204452 -4.7035e-06 9.866e-05 0.063610843 0.841083114
820295080.0 -0.0511045205 -0.0989534417 0.0002050298 -0.0002178241 0.0001686944 -8.84105e-05 0.0718093701 0.8404679974
825295050.0 -0.0525736331 -0.0980590632 9.83037e-05 -0.0001115408 0.0001677278 -3.61365e-05 0.0804440327 0.839820485
830295020.0 -0.0537624832 -0.0972010444 0.0004438103 -6.51514e-05 0.0002262395 -0.0001538709 0.0879175104 0.8382145752
835294990.0 -0.0555768789 -0.0966666297 0.0002238886 -0.0001615808 0.0002678526 -0.0001346327 0.0971051527 0.8381423245
840294960.0 -0.0570166575 -0.0956034325 0.0002831779 -0.0001897246 6.50823e-05 -9.51171e-05 0.1059820688 0.8369806738
845294930.0 -0.058671543 -0.0944361416 -3.67028e-05 -0.000203929 0.000123834 0.0001440376 0.1138238205 0.8352478454
850294900.0 -0.0597137163 -0.093865311 3.55001e-05 -8.76091e-05 0.0001948971 -0.0001812834 0.1215923021 0.8346313337
