!Created with skrf (http://scikit-rf.org).
# Hz S RI R 50.0 
!freq ReS11 ImS11 ReS21 ImS21 ReS12 ImS12 ReS22 ImS22
300000.0 -0.2341095058 -0.1129867636 0.4645591063 0.074763526 0.470202306 0.0760382523 -0.2359636976 -0.1167399557
5299970.0 -0.24117514 0.0069289143 0.4753392361 0.0053767308 0.4752430524 0.0057728663 -0.2448996576 0.0054595627
10299940.0 -0.2373265591 0.0199042659 0.4772228138 0.0064416132 0.4772571459 0.0063694082 -0.2420053368 0.0175573498
15299910.0 -0.2327184812 0.0298337884 0.4803786526 0.0073478018 0.4804193552 0.0075749318 -0.2375143423 0.0262420521
20299880.0 -0.2274312705 0.0379422176 0.4855232252 0.0081324909 0.4852520833 0.0078880968 -0.232967897 0.0338474972
25299850.0 -0.2217743827 0.0442255404 0.4903564641 0.0066505986 0.4907349129 0.0069800257 -0.2278873243 0.0398111887
30299820.0 -0.2158805617 0.0496109607 0.4960357396 0.004895685 0.4956085853 0.0049164568 -0.2225939137 0.0448334014
35299790.0 -0.209938686 0.0539363266 0.5014324092 0.0015154651 0.5010985113 0.0019504219 -0.2175280541 0.0487068028
40299760.0 -0.2044968948 0.0571185872 0.5065814135 -0.0020547253 0.5063519924 -0.0021442628 -0.2126413416 0.0520042649
45299730.0 -0.1994524301 0.0601891865 0.5109802905 -0.0071888923 0.5112030839 -0.0072856225 -0.2081889827 0.0546416589
50299700.0 -0.1942183651 0.0621345522 0.5146228992 -0.0127400174 0.5155843296 -0.0128871531 -0.2036652543 0.0566489775
55299670.0 -0.1905187879 0.063723668 0.5180716083 -0.0187021285 0.5189492169 -0.0185219207 -0.1997596869 0.0580098654
60299640.0 -0.1865529303 0.0646907497 0.5217779313 -0.0247502577 0.5218867977 -0.0249353457 -0.1960264623 0.0594359298
65299610.0 -0.1830978842 0.0662826257 0.5248176677 -0.0307833761 0.5253432778 -0.0309279657 -0.1929882951 0.0604288322
70299580.0 -0.1796428222 0.0670020733 0.5270444384 -0.0374646234 0.5272104947 -0.0376304507 -0.1899914062 0.0615272876
75299550.0 -0.1764603661 0.0681168591 0.5289771364 -0.044659741 0.5291240393 -0.0446591218 -0.1871337726 0.0623044688
80299520.0 -0.1741765206 0.0690017751 0.531612542 -0.0512480591 0.5313890746 -0.0514403576 -0.184708771 0.0629399658
85299490.0 -0.1713413752 0.0691859092 0.5325686086 -0.0584629966 0.5323146066 -0.0583248124 -0.1827333398 0.063508024
90299460.0 -0.1692550723 0.0702238818 0.533333964 -0.0649359568 0.5336431418 -0.0650215715 -0.1801424712 0.0642722147
95299430.0 -0.1671584117 0.0710053587 0.5346241556 -0.0726261909 0.5344325819 -0.0719261543 -0.1787116006 0.0649448879
100299400.0 -0.165488265 0.0717514302 0.5345394524 -0.079006151 0.5346129625 -0.0791688118 -0.1766701438 0.0654966127
105299370.0 -0.1635645567 0.0724628741 0.5348640494 -0.0857762417 0.5353463286 -0.0860335221 -0.1750181456 0.066234493
110299340.0 -0.1618344627 0.0730397724 0.5349526981 -0.0925471264 0.5352538844 -0.0931167858 -0.1738862755 0.0669221322
115299310.0 -0.1603143724 0.0735470608 0.5350765867 -0.0989591864 0.5350894261 -0.0992312494 -0.1720207259 0.0669606439
120299280.0 -0.1589862019 0.0747677925 0.5350373569 -0.1064825929 0.5351616534 -0.1061457785 -0.1712964724 0.067946817
125299250.0 -0.1578698782 0.0752439435 0.5346001772 -0.1127051825 0.5347367879 -0.1129896771 -0.1701347707 0.0684972483
130299220.0 -0.1563609089 0.0761591133 0.5337306545 -0.1196414555 0.5341608294 -0.1198107166 -0.1690273731 0.0694009799
135299190.0 -0.1552829475 0.0769331609 0.5332229245 -0.1259521455 0.5328429606 -0.1262994551 -0.1678580633 0.0699129831
140299160.0 -0.1543627005 0.0781657333 0.532389855 -0.1331096229 0.5327793188 -0.1331653961 -0.1667463603 0.0709563914
145299130.0 -0.1530974824 0.078886827 0.5318926452 -0.1400818553 0.5316691456 -0.1389845855 -0.1663880403 0.071554644
150299100.0 -0.1519680157 0.0799904548 0.5302865023 -0.1464777637 0.5303418558 -0.1460881497 -0.1651965819 0.0726251979
155299070.0 -0.1510397242 0.0813399925 0.5292531903 -0.1531368507 0.5293499812 -0.1530506082 -0.1647451688 0.0736982012
160299040.0 -0.1500929964 0.0821120231 0.5276691746 -0.1588184829 0.5278499119 -0.1588884621 -0.1635025203 0.0749389771
165299010.0 -0.1492129893 0.0829931004 0.5265068546 -0.165613426 0.5266200121 -0.1654104745 -0.1627929842 0.0755070201
170298980.0 -0.1485949038 0.0844146822 0.5240770388 -0.1720418748 0.5247397301 -0.1716471589 -0.1618585 0.0763539957
175298950.0 -0.1473352471 0.0853679969 0.5234080799 -0.1778845615 0.5234874694 -0.1780109603 -0.160884953 0.0775201747
180298920.0 -0.1463015822 0.0866963871 0.5214764049 -0.1843150677 0.5214173541 -0.1841187905 -0.1600943725 0.0788947076
185298890.0 -0.1453063494 0.0880791584 0.51920551 -0.1909081117 0.5195410683 -0.1904779882 -0.1596964628 0.0795657073
190298860.0 -0.1442550447 0.0891014442 0.5174867678 -0.1965883739 0.5177856966 -0.1965748846 -0.1583370359 0.0805064748
195298830.0 -0.1432391064 0.0900715349 0.5155526679 -0.2026692681 0.5158062443 -0.2028352812 -0.1579635178 0.0818038813
200298800.0 -0.1422784514 0.0915812994 0.5138498762 -0.2084143546 0.5135239606 -0.2085156676 -0.1569055576 0.0830724984
205298770.0 -0.1414117375 0.0931721921 0.511666077 -0.2148255724 0.5116753613 -0.2149129758 -0.1564807876 0.084074637
210298740.0 -0.14066043 0.0942331205 0.5095874783 -0.2212198984 0.5091938802 -0.2210119984 -0.1554081481 0.0854167548
215298710.0 -0.1397757301 0.0958009317 0.5071137562 -0.2269261495 0.5070970249 -0.2266719691 -0.1551030462 0.0866471198
220298680.0 -0.1387249189 0.0970277433 0.5041948129 -0.2326926081 0.504648402 -0.2328176012 -0.1541806023 0.08822263
225298650.0 -0.1375306328 0.0984609661 0.5018331304 -0.2382586734 0.5018490794 -0.2383587703 -0.1534650782 0.0892412996
230298620.0 -0.1369075486 0.0997243097 0.4997070919 -0.2442113268 0.4997271002 -0.2444445541 -0.1526946204 0.0905744612
235298590.0 -0.1358228268 0.1010483833 0.4974646723 -0.2501847467 0.4970812624 -0.2505979328 -0.1517539554 0.0916342189
240298560.0 -0.1350246573 0.1024901437 0.4944086975 -0.2559414395 0.4944856614 -0.2553714412 -0.1510604823 0.0929377343
245298530.0 -0.1337120245 0.1039581284 0.4907975521 -0.261401183 0.4913997668 -0.2618060795 -0.150199927 0.0946156656
250298500.0 -0.1328497721 0.1052006318 0.4887486294 -0.2667175992 0.4891433693 -0.2666507888 -0.149008513 0.0956349336
255298470.0 -0.1317943422 0.1065939121 0.4851745981 -0.2726188971 0.4858626235 -0.272945699 -0.1482474238 0.0968001243
260298440.0 -0.1306798968 0.1080156862 0.483203158 -0.2778022947 0.4830612824 -0.2781498926 -0.1467968732 0.098095534
265298410.0 -0.1292662032 0.1095749663 0.4794506395 -0.2839442463 0.4799289594 -0.2837882649 -0.146397236 0.0994837515
270298380.0 -0.1280999056 0.1112947788 0.4765249138 -0.2894951345 0.4769055431 -0.2892134662 -0.1455506358 0.1013635956
275298350.0 -0.1274543308 0.1124915772 0.4736940776 -0.2948630295 0.473863078 -0.2946729687 -0.144170867 0.1024019376
280298320.0 -0.1261799585 0.1138026145 0.4701837548 -0.2997446165 0.4705360379 -0.3000010796 -0.1432958069 0.1038580497
285298290.0 -0.1248718216 0.1156529868 0.4670002728 -0.3054383129 0.4671238803 -0.3053564079 -0.1424101458 0.1053840739
290298260.0 -0.1236826709 0.1168285064 0.4639075843 -0.3104130809 0.464091212 -0.3103070719 -0.1413462916 0.1067618799
295298230.0 -0.1226191142 0.1181747442 0.4607705653 -0.3157560433 0.4603221015 -0.3159501781 -0.140292605 0.1079183293
300298200.0 -0.1209467765 0.119365477 0.4567030718 -0.3211670012 0.4572724736 -0.3212784759 -0.1394795492 0.1093763261
305298170.0 -0.1197731364 0.1204948006 0.4536339014 -0.3264869479 0.4537397242 -0.3266243547 -0.1377583911 0.111069756
310298140.0 -0.1179990259 0.1217381394 0.4499264815 -0.3316825148 0.4501131741 -0.3319164077 -0.1370588246 0.1123539981
315298110.0 -0.1172571052 0.1232815818 0.4462951584 -0.3367302696 0.446608779 -0.3369815556 -0.135632849 0.1136012588
320298080.0 -0.1158203212 0.1245574084 0.4425845179 -0.3421629243 0.4429154934 -0.3419921276 -0.1350117349 0.1146818056
325298050.0 -0.1145373379 0.1258177568 0.4396069913 -0.3473051636 0.4386759894 -0.3472413226 -0.1337861253 0.1159152835
330298020.0 -0.113304425 0.126923866 0.4345855374 -0.3521139702 0.4345928095 -0.3524314497 -0.1330953387 0.1170098917
335297990.0 -0.1121081082 0.1281382173 0.4307611165 -0.3572219553 0.4308294646 -0.3571164418 -0.1321710937 0.118404844
340297960.0 -0.1113022868 0.1296859766 0.4260682181 -0.3618320069 0.4270302401 -0.3613997091 -0.1309895115 0.1199208379
345297930.0 -0.1099025245 0.1311344904 0.4225178091 -0.3660572251 0.4221280464 -0.3658305928 -0.1298761071 0.1211616107
350297900.0 -0.1083832758 0.1323726155 0.4180124178 -0.3703994535 0.4185614192 -0.3708566131 -0.1292376005 0.1228242772
355297870.0 -0.107012428 0.1335377411 0.4139207734 -0.3750790801 0.4144848308 -0.3756583985 -0.1281321297 0.1246308313
360297840.0 -0.1054215553 0.1351449186 0.4095664754 -0.3800061907 0.4101954842 -0.3801680057 -0.1268159291 0.1259414282
365297810.0 -0.1040325833 0.1363978677 0.405451887 -0.3846032042 0.405866485 -0.3847317441 -0.1254613562 0.1275940484
370297780.0 -0.1025050828 0.1374905674 0.4015412372 -0.3888070994 0.4017610663 -0.3893675453 -0.1244873034 0.1288346718
375297750.0 -0.1013318142 0.1393269701 0.3980307188 -0.3932968503 0.3972731647 -0.3936859621 -0.1229329417 0.1301968048
380297720.0 -0.099400533 0.1402396279 0.392971204 -0.3976189044 0.3926598896 -0.3975798425 -0.1218390487 0.1318874735
385297690.0 -0.0980860834 0.1415118627 0.3885661949 -0.4014328287 0.3882316507 -0.4018307238 -0.1202511665 0.1330687686
390297660.0 -0.096473699 0.1427922005 0.3840056011 -0.4065742746 0.3839935023 -0.4064258902 -0.1192134472 0.1340886518
395297630.0 -0.0947566121 0.143738354 0.37961626 -0.4099870379 0.3796022079 -0.410449636 -0.1182943422 0.1359026564
400297600.0 -0.0934474851 0.1453976159 0.374788953 -0.4147737921 0.3754672896 -0.4148625639 -0.1173572702 0.1370914824
405297570.0 -0.0916504946 0.1466704435 0.3704899484 -0.418939874 0.3708083225 -0.4187226944 -0.1157688913 0.138399283
410297540.0 -0.0898720945 0.1475824845 0.3654312195 -0.4230733712 0.3659573715 -0.4227399966 -0.1143990304 0.1397120342
415297510.0 -0.0884938386 0.1486957056 0.3616283322 -0.4260497238 0.3615969822 -0.4263901823 -0.1132026198 0.1413305929
420297480.0 -0.0868064067 0.1496351217 0.3562545951 -0.4307834156 0.3567688523 -0.4306600686 -0.111739684 0.1423014011
425297450.0 -0.0847889828 0.1507064505 0.3519067946 -0.4343090594 0.3523450684 -0.4343384561 -0.1103574688 0.1438526412
430297420.0 -0.0834744112 0.152204738 0.3470992088 -0.4388629084 0.3471752865 -0.4385519329 -0.1091957289 0.1449803872
435297390.0 -0.0814200946 0.1529800308 0.342091555 -0.4421698982 0.3425530893 -0.4418986552 -0.1076641313 0.14656279
440297360.0 -0.0798272087 0.1540407908 0.3373527625 -0.4454705024 0.3371655242 -0.4456481359 -0.1064877239 0.1471963423
445297330.0 -0.0780452616 0.1549842747 0.3318227127 -0.4497369168 0.3323443033 -0.449373831 -0.1051540524 0.1485684644
450297300.0 -0.0762400066 0.1561973092 0.3273514349 -0.4528685918 0.327823095 -0.4530355719 -0.1038015911 0.1499615228
455297270.0 -0.0745661386 0.156946457 0.322579636 -0.4565753307 0.3229784894 -0.4565735383 -0.1020380623 0.1512159287
460297240.0 -0.0733073093 0.1580526921 0.3173077012 -0.4597984689 0.317110462 -0.459950545 -0.1006009977 0.1526918141
465297210.0 -0.0711849796 0.1588937415 0.3123830155 -0.4633761932 0.3129309907 -0.4634587511 -0.0997826847 0.1533400244
470297180.0 -0.0696495187 0.1595514739 0.3074707643 -0.4664227046 0.3078070089 -0.4669178255 -0.0982399399 0.1545812843
475297150.0 -0.0678061341 0.1605566453 0.3019958663 -0.4698411755 0.3025089506 -0.4697530366 -0.0966693828 0.1556877655
480297120.0 -0.0659161392 0.1612819544 0.2972066143 -0.4732367093 0.2976796909 -0.4734962503 -0.0953752208 0.1572660257
485297090.0 -0.0639086755 0.1624031301 0.2921033557 -0.4767049473 0.2923103133 -0.4765168557 -0.0937836685 0.158156884
490297060.0 -0.0620834662 0.1628400161 0.2871265205 -0.4792561762 0.2868194744 -0.4796102718 -0.0920660667 0.1592887109
495297030.0 -0.0607542858 0.1641401798 0.2815962946 -0.4827246809 0.2812175608 -0.4828049622 -0.0906947537 0.1601886278
500297000.0 -0.0585139824 0.1645024668 0.2761740485 -0.4857254336 0.2761594022 -0.4855968166 -0.0894756776 0.1611019735
505296970.0 -0.0569714834 0.1654233364 0.2707732549 -0.4880952409 0.2708206407 -0.4884972163 -0.0883218938 0.162312128
510296940.0 -0.0550184984 0.1663696003 0.2655788641 -0.4916019913 0.2657872688 -0.4917292945 -0.0862556678 0.1639521135
515296910.0 -0.0533891418 0.1672704378 0.2599336759 -0.4943121338 0.2604045436 -0.4944491174 -0.084863823 0.1646204023
520296880.0 -0.0509465341 0.1675350233 0.2546376367 -0.4968717216 0.255053365 -0.4968426309 -0.0830200505 0.1656163968
525296850.0 -0.0495169699 0.1683938652 0.2494267039 -0.499965915 0.2494806905 -0.4999356612 -0.0814789815 0.166465478
530296820.0 -0.0474020211 0.1689644061 0.2442965719 -0.5019354367 0.2442284163 -0.5022388965 -0.0804786141 0.167291472
535296790.0 -0.0458128406 0.1695613355 0.2384730366 -0.5047279979 0.2390584713 -0.504665878 -0.0786539616 0.1682652234
540296760.0 -0.0437317965 0.1699743482 0.2331828891 -0.5079255534 0.2327621757 -0.5077192336 -0.0775487712 0.1693225714
545296730.0 -0.0418428976 0.1710232886 0.2274015373 -0.5096005059 0.2276902547 -0.510310101 -0.0756360892 0.1700424638
550296700.0 -0.0403317608 0.171505994 0.222132925 -0.5124289516 0.2227092902 -0.5123563703 -0.0739881845 0.1714464289
555296670.0 -0.0377386422 0.1721427983 0.2162729157 -0.5149784339 0.2165257792 -0.514928445 -0.07237306 0.1720764964
560296640.0 -0.0361201249 0.172752111 0.2108053557 -0.5171530196 0.2110322265 -0.5166980485 -0.070659559 0.1727833629
565296610.0 -0.0346870467 0.1730406459 0.2053010014 -0.5189249854 0.2050387731 -0.5192857202 -0.0692311831 0.1733817067
570296580.0 -0.0320391653 0.173614147 0.1988744033 -0.5211762895 0.1997340513 -0.5216782061 -0.0673128587 0.1750860534
575296550.0 -0.030493556 0.1743612811 0.1941651904 -0.5230283722 0.1945231817 -0.5234123118 -0.0652530711 0.175353781
580296520.0 -0.0284675548 0.1747355761 0.1885103572 -0.5256043969 0.1882946554 -0.525480287 -0.0643875192 0.1761283736
585296490.0 -0.0264628887 0.1750668405 0.1826097962 -0.5275973789 0.1829418128 -0.5274734501 -0.0627396749 0.1765818789
590296460.0 -0.0248880549 0.1749607499 0.1770170355 -0.5292672336 0.1766014278 -0.5297362443 -0.0607848155 0.1777046784
595296430.0 -0.0227721335 0.1756713792 0.1714461963 -0.5309754264 0.1709601648 -0.5317059738 -0.0589249587 0.1781462159
600296400.0 -0.0208660268 0.1763771139 0.1655852463 -0.5330585198 0.1656937625 -0.5332333111 -0.057263062 0.1791483336
605296370.0 -0.0187025954 0.1768908589 0.1596700623 -0.5350370044 0.1597442804 -0.5345099981 -0.0559421957 0.1797256417
610296340.0 -0.0168909852 0.1769472279 0.1538146233 -0.5363034134 0.1540713159 -0.5368721202 -0.0537181944 0.1808915246
615296310.0 -0.0149415356 0.1775675437 0.1481288366 -0.5380686454 0.1478787917 -0.5378800638 -0.0519410752 0.1814412684
620296280.0 -0.0130260932 0.177514935 0.1423206218 -0.5394428453 0.1421349426 -0.539503139 -0.0505973349 0.181582479
625296250.0 -0.0107828493 0.1777480238 0.1359423383 -0.5408973784 0.1362526797 -0.5414395884 -0.0485433641 0.1826625259
630296220.0 -0.008763703 0.1782777769 0.1301400786 -0.5425465691 0.1308106931 -0.5426023486 -0.0471513664 0.1832212342
635296190.0 -0.0068976701 0.1785875422 0.1242919511 -0.5430675937 0.1243664501 -0.5433065197 -0.0454032136 0.1835984044
640296160.0 -0.0049009062 0.1785262857 0.1192187234 -0.5449645068 0.1189281579 -0.5452311707 -0.0435596571 0.1841736277
645296130.0 -0.0029565777 0.1790709537 0.1127870363 -0.5464373327 0.1133214925 -0.546306514 -0.0424253038 0.184377413
650296100.0 -0.0009579943 0.1794917977 0.1073380621 -0.5472099458 0.1071100688 -0.5470696488 -0.0402687582 0.185232014
655296070.0 0.0010055157 0.179266761 0.1011684565 -0.548001262 0.1013150183 -0.548419124 -0.0381872629 0.1859830591
660296040.0 0.002827733 0.1797740368 0.0951499817 -0.5494321122 0.0954699038 -0.5493551147 -0.0367544111 0.1862827976
665296010.0 0.0050822533 0.1794399549 0.0892767435 -0.5502857479 0.0897242408 -0.5507345351 -0.0352621 0.1870349496
670295980.0 0.0072867408 0.1799020141 0.0832363003 -0.5511692394 0.0838017874 -0.5512909587 -0.0334943727 0.1872624038
675295950.0 0.0092706585 0.1799086521 0.0771544261 -0.5516752671 0.0778999909 -0.5525508859 -0.0315320999 0.1882751867
680295920.0 0.010972728 0.1802490305 0.0713707663 -0.5528932305 0.0712613188 -0.5533974939 -0.0293137438 0.1881632549
685295890.0 0.0131769013 0.1799800208 0.0657843102 -0.5537164145 0.065253332 -0.5543298146 -0.0276797987 0.1890764706
690295860.0 0.0156051843 0.1799958334 0.0596319155 -0.553832883 0.0592756835 -0.5542867235 -0.0256450667 0.189285008
695295830.0 0.0175122803 0.179587556 0.0528741834 -0.5548153827 0.0528563071 -0.5551660964 -0.0242442217 0.1898663594
700295800.0 0.0196075427 0.1799175672 0.046730318 -0.5551511868 0.0475349583 -0.5555494499 -0.0220562282 0.1895598594
705295770.0 0.021421278 0.1798770216 0.0412468524 -0.5557234584 0.0416516459 -0.5561683551 -0.0208547088 0.1903763083
710295740.0 0.0232559282 0.1798747602 0.0354107261 -0.5563741766 0.0353083976 -0.5562082383 -0.0192955533 0.1910222954
715295710.0 0.0253146413 0.1798038429 0.0292332339 -0.5563311121 0.0297224014 -0.5564727986 -0.0170282766 0.1906088074
720295680.0 0.0271243963 0.1795391161 0.0233720877 -0.556723221 0.0235231548 -0.5572813498 -0.0147675707 0.1915406758
725295650.0 0.0295204696 0.1791382691 0.0169180399 -0.5566300935 0.0174545241 -0.55688019 -0.0133223202 0.1914949717
730295620.0 0.0312109893 0.1788913566 0.0111810077 -0.5568348863 0.0112580007 -0.5569337535 -0.0110632164 0.1914641681
735295590.0 0.0336535289 0.1789566932 0.0055796922 -0.5571535078 0.005953714 -0.5573182643 -0.0094203351 0.1923230557
740295560.0 0.0352810554 0.1789867005 -0.0007724239 -0.5568078352 -0.0007942766 -0.557199574 -0.007073761 0.192404408
745295530.0 0.0372801188 0.1783949913 -0.0065451173 -0.5570657619 -0.0061515005 -0.5576015324 -0.0060500503 0.1924859404
750295500.0 0.0392238025 0.1778914966 -0.0125978987 -0.5565783182 -0.0122580179 -0.5568552649 -0.0037091041 0.1925070671
755295470.0 0.0419228081 0.1779431367 -0.018829903 -0.5567628375 -0.0182264935 -0.5571016079 -0.0022106824 0.1931378547
760295440.0 0.043544116 0.1777752999 -0.0250833831 -0.556006857 -0.0242274487 -0.5566619876 -0.0009117755 0.1928196337
765295410.0 0.0451175282 0.1772161233 -0.0298510077 -0.5560463311 -0.0298564291 -0.5563749067 0.0017815544 0.1937601258
770295380.0 0.0476927681 0.1771272393 -0.0364697429 -0.5558363599 -0.0362987056 -0.5556989659 0.0036895547 0.1935355714
775295350.0 0.0493213696 0.1766888763 -0.0421205672 -0.5550232209 -0.0422021454 -0.5552765681 0.0048855384 0.1933102096
780295320.0 0.0516535464 0.1760496153 -0.0481035553 -0.5548787285 -0.0478547604 -0.554859587 0.0070961089 0.1937194574
785295290.0 0.0533047018 0.1760790442 -0.0540790955 -0.5535914332 -0.0539228722 -0.5544846713 0.0084999053 0.193991598
790295260.0 0.0553262547 0.1754636262 -0.0601458529 -0.5535586778 -0.0600104746 -0.5539827896 0.0108277835 0.1938254651
795295230.0 0.0572539098 0.1751033061 -0.0658140037 -0.5524552962 -0.065893245 -0.55303067 0.0125718204 0.1942886394
800295200.0 0.0591476403 0.1745822726 -0.072147029 -0.552046944 -0.0721910275 -0.5523877754 0.0146571094 0.1938177881
805295170.0 0.0609659111 0.174102765 -0.0779573925 -0.5507131181 -0.077840144 -0.5510094624 0.0162069941 0.1939184406
810295140.0 0.0628978987 0.1734897001 -0.0835544402 -0.5502250545 -0.0838087383 -0.5510844403 0.0181890202 0.1943226425
815295110.0 0.0652233672 0.1729558198 -0.0900175062 -0.5489077031 -0.0903639279 -0.549144964 0.0199897901 0.1937549669
820295080.0 0.0670463649 0.1718864886 -0.0955430015 -0.5481864525 -0.0956921574 -0.5485033875 0.0217992501 0.1939077819
825295050.0 0.0693122074 0.1716579236 -0.1014615654 -0.5465926419 -0.1017799919 -0.5472698757 0.0238424466 0.1940957782
830295020.0 0.0708136818 0.171225839 -0.1079120621 -0.5458327373 -0.1079815211 -0.5463581958 0.0254835924 0.1936124818
