!Created with skrf (http://scikit-rf.org).
# Hz S RI R 50.0 
!freq ReS11 ImS11 ReS21 ImS21 ReS12 ImS12 ReS22 ImS22
300000.0 -0.2412337645 -0.0876714507 0.4730290032 0.0589939735 0.4704015413 0.056872444 -0.238676136 -0.0952637615
5299970.0 -0.2448954081 0.0066523674 0.474533739 0.0048629147 0.4751135243 0.0050979692 -0.2407184228 0.0073732681
10299940.0 -0.2417660236 0.0178857909 0.4766148145 0.0059198462 0.4769345636 0.0064622059 -0.2376328298 0.0205774703
15299910.0 -0.2374768995 0.0268831962 0.4804213815 0.0073621908 0.4805698572 0.0073838304 -0.2330796221 0.0301944003
20299880.0 -0.2326485524 0.0341687054 0.4850063618 0.007856476 0.4849178704 0.0080190355 -0.2277909882 0.0379991169
25299850.0 -0.2277900449 0.0403139759 0.4901109839 0.006931846 0.4902145794 0.0070510919 -0.2219819224 0.0449082022
30299820.0 -0.2225521913 0.0449385043 0.4953492829 0.0050974235 0.4955093374 0.0044479476 -0.2161220999 0.0503356629
35299790.0 -0.2174030342 0.0493644776 0.5010545232 0.0013236133 0.5011354691 0.001624083 -0.2106978342 0.0543253981
40299760.0 -0.2127179095 0.0526169597 0.506027113 -0.0024564853 0.5060208579 -0.0022642835 -0.2053505088 0.0576159346
45299730.0 -0.2077980657 0.0550032888 0.5105055847 -0.0070241968 0.5107519225 -0.007041944 -0.2002612095 0.0603014242
50299700.0 -0.2038808686 0.0566686647 0.5146921834 -0.0125341855 0.515047083 -0.0123781017 -0.1956051977 0.0625162767
55299670.0 -0.2000662788 0.058486745 0.5184503669 -0.019320065 0.5186714508 -0.0184971421 -0.1914381601 0.0644028657
60299640.0 -0.1960351399 0.0597825959 0.5219357965 -0.0247142625 0.5219637586 -0.0246498323 -0.1874305618 0.0653141264
65299610.0 -0.1931288244 0.0608384769 0.5248083533 -0.0313435299 0.5251492157 -0.0311995298 -0.1843059057 0.06654042
70299580.0 -0.1898282521 0.0621348942 0.526920558 -0.0380381818 0.5271278565 -0.0379543872 -0.1808541923 0.0675356109
75299550.0 -0.1870566488 0.0627013945 0.5288641519 -0.0446402175 0.5290942621 -0.0447661965 -0.1778345971 0.0683880026
80299520.0 -0.1846730712 0.0638148151 0.5308498271 -0.0519375227 0.5307695743 -0.0515990303 -0.1752984331 0.0692480119
85299490.0 -0.1827649981 0.0639941525 0.5320936184 -0.0578142768 0.5324421935 -0.0581672052 -0.1728888465 0.0696263028
90299460.0 -0.1805345793 0.064840435 0.5328495621 -0.065404592 0.5331239506 -0.0652491966 -0.1703255063 0.0705041767
95299430.0 -0.1780983162 0.0653094232 0.5340788485 -0.0721478588 0.5342939043 -0.0722859097 -0.1682525514 0.0712291995
100299400.0 -0.1764960988 0.0665089288 0.5339325278 -0.0790451922 0.5344426879 -0.0795662253 -0.1661576142 0.0713632781
105299370.0 -0.1747077743 0.0667385627 0.5344632207 -0.0861332268 0.534716492 -0.085955059 -0.1640033287 0.0724790275
110299340.0 -0.1732865203 0.0677287203 0.534862268 -0.0932014696 0.5347638866 -0.0928219901 -0.1628448366 0.0729513501
115299310.0 -0.171862453 0.0680159702 0.5345552077 -0.0995469941 0.5347506949 -0.0995189243 -0.1610251118 0.0737734169
120299280.0 -0.1706884215 0.0683914372 0.5342022298 -0.1064224552 0.5347031882 -0.1063104148 -0.1596336207 0.0744994951
125299250.0 -0.1695028991 0.0692960958 0.5340314691 -0.1131199667 0.5342817671 -0.1130150291 -0.1585409113 0.0751500803
130299220.0 -0.1685627344 0.0704626693 0.5334187708 -0.1200046088 0.5333910292 -0.1198610973 -0.1570741815 0.0758560001
135299190.0 -0.16775716 0.0711236156 0.5333978309 -0.1266565544 0.5332664962 -0.126252012 -0.1558440957 0.0768804474
140299160.0 -0.1667294333 0.0720589431 0.5325076947 -0.1333996337 0.5321031495 -0.1331845001 -0.1545425152 0.0783110726
145299130.0 -0.1655150169 0.0729983253 0.531331106 -0.1399381363 0.5309340563 -0.1397411946 -0.1535435915 0.0791912616
150299100.0 -0.1644537975 0.0739528205 0.52989448 -0.1459164779 0.5298240988 -0.1459441559 -0.1523340936 0.080102482
155299070.0 -0.1640907263 0.0745391852 0.5290981567 -0.1532269792 0.5286018689 -0.1529341913 -0.1511658812 0.0812195379
160299040.0 -0.1629029337 0.0759107929 0.5272220828 -0.1592485421 0.5270835165 -0.1594421185 -0.1507379141 0.0822978343
165299010.0 -0.1623435467 0.0766757376 0.5261950015 -0.1659558352 0.5262181806 -0.1659081324 -0.1492967502 0.0835638875
170298980.0 -0.1615278194 0.0776613774 0.5243894392 -0.1720064233 0.5245539199 -0.1720788299 -0.148375167 0.0850191765
175298950.0 -0.160663288 0.0788208011 0.5229802014 -0.1780158179 0.522444818 -0.1779378424 -0.1475155811 0.0859785905
180298920.0 -0.1601704083 0.0802476222 0.5213454426 -0.1845150906 0.5207829164 -0.1845950928 -0.1465065395 0.0873284846
185298890.0 -0.1590557706 0.0808759026 0.5192847878 -0.1906444834 0.5191854523 -0.1903744263 -0.1457906978 0.0887483886
190298860.0 -0.1584772855 0.0821808915 0.5177106632 -0.1969708563 0.5175319762 -0.1970062991 -0.1446592539 0.0897838504
195298830.0 -0.1576731065 0.0833216036 0.5152361122 -0.2027071341 0.5153229649 -0.2029929346 -0.1434878174 0.0911223159
200298800.0 -0.1568631748 0.0846628023 0.5133845326 -0.2093024055 0.5131415872 -0.2093492848 -0.1428742278 0.0924262419
205298770.0 -0.1563468035 0.0860185656 0.5105863474 -0.2156438954 0.5108047745 -0.2151313415 -0.1418648466 0.0931108901
210298740.0 -0.1553704043 0.0869915536 0.5083582498 -0.2205062388 0.508648774 -0.2207478424 -0.1409485494 0.095325409
215298710.0 -0.1552490339 0.0881230428 0.5067469098 -0.2269178436 0.506136171 -0.2272908401 -0.1402019324 0.0965904155
220298680.0 -0.1541270098 0.0892345942 0.50362695 -0.2325790389 0.5037092356 -0.2327984445 -0.1397593303 0.097356899
225298650.0 -0.1533809946 0.0906188664 0.5011333208 -0.2385480116 0.50163678 -0.2387309106 -0.1390286787 0.0989826989
230298620.0 -0.1526234343 0.0923307722 0.499015103 -0.244313414 0.4993212721 -0.244542835 -0.1380540853 0.0999925012
235298590.0 -0.1515850728 0.093717676 0.4964730059 -0.2501368267 0.4962279125 -0.24998386 -0.136789103 0.1014328286
240298560.0 -0.1510057445 0.0949635643 0.4938324319 -0.2562909268 0.4936391089 -0.2562794432 -0.135836828 0.1031236623
245298530.0 -0.1502593196 0.0960799363 0.4909579433 -0.2620452445 0.4910439975 -0.2618966219 -0.1347866888 0.1043069155
250298500.0 -0.1490868152 0.0977153849 0.487793254 -0.2676216936 0.4875413931 -0.2668118257 -0.1340330606 0.1054851058
255298470.0 -0.1484469282 0.098780017 0.4847807879 -0.2726922974 0.4849503454 -0.2727190127 -0.1328999842 0.1067051515
260298440.0 -0.147957794 0.099794 0.4819583022 -0.2784753486 0.4821105562 -0.2783323984 -0.1313824865 0.1082614821
265298410.0 -0.1466258693 0.1016825329 0.4793974428 -0.2843666629 0.4791966614 -0.2835760701 -0.1306240172 0.1097529915
270298380.0 -0.1463163857 0.1028544174 0.4762332223 -0.2889068941 0.4761856517 -0.2894035403 -0.1295956982 0.1112171174
275298350.0 -0.144833323 0.1044234319 0.4728630524 -0.2949729023 0.4732990977 -0.294921897 -0.1284775858 0.1123608683
280298320.0 -0.1438603528 0.1058914885 0.469722978 -0.300133809 0.4697277063 -0.3002014687 -0.1267541353 0.1136226977
285298290.0 -0.1429704703 0.1069708784 0.4667939521 -0.3056239228 0.4665511206 -0.3055829338 -0.1257365941 0.1151098604
290298260.0 -0.1420192327 0.108605503 0.4633210798 -0.3106671263 0.4630498766 -0.3106752041 -0.1243021378 0.1166189337
295298230.0 -0.1407773878 0.1093946873 0.45983667 -0.315914679 0.4602357351 -0.3159379339 -0.1228621791 0.1178118662
300298200.0 -0.1403339809 0.1109699403 0.4566298851 -0.3208236936 0.4567010207 -0.3212383746 -0.1219333208 0.1189879946
305298170.0 -0.1388429597 0.1121006297 0.4524414698 -0.3267240372 0.4526114164 -0.326312856 -0.1199718229 0.1201199612
310298140.0 -0.1380495916 0.1136476269 0.4496898742 -0.331473574 0.4492858742 -0.331488134 -0.1189315128 0.1216008817
315298110.0 -0.1371708556 0.1147568922 0.4460488439 -0.3365091858 0.4458052677 -0.3368856286 -0.1178011757 0.1227472019
320298080.0 -0.1355836884 0.1159951964 0.4416072341 -0.3419720618 0.4419546123 -0.3419459175 -0.1164708729 0.1241689611
325298050.0 -0.135096029 0.1169601833 0.4379479276 -0.3469256891 0.4380650226 -0.3468868805 -0.1154991552 0.1252010324
330298020.0 -0.1342176022 0.1180417353 0.4338799991 -0.3517811043 0.4344386984 -0.3522761676 -0.114286941 0.1265862275
335297990.0 -0.133060449 0.1194804514 0.4299142524 -0.3563099801 0.4298932902 -0.3566999877 -0.1134512498 0.1283997181
340297960.0 -0.1327432441 0.1209953171 0.4258511348 -0.3615085506 0.4252428397 -0.3618377678 -0.1116044903 0.1298066161
345297930.0 -0.1314012967 0.1228485149 0.4215306725 -0.366464201 0.421751743 -0.3662887897 -0.1105537574 0.1306783034
350297900.0 -0.1305449831 0.1233627002 0.4172967479 -0.3709030799 0.4171811983 -0.3704484938 -0.1097155888 0.1325526482
355297870.0 -0.1292199443 0.1254147561 0.4134377391 -0.3756773909 0.4137195823 -0.3753711361 -0.108350002 0.1338556599
360297840.0 -0.1281945265 0.1270216028 0.4094587852 -0.379968044 0.4098112925 -0.3798766982 -0.1065201809 0.1355152894
365297810.0 -0.1273421112 0.1284000623 0.4050809527 -0.3849096207 0.4054143476 -0.3847842813 -0.1052645458 0.1365278625
370297780.0 -0.1257008242 0.1294357589 0.4003397318 -0.388781742 0.4011537432 -0.3885324243 -0.1036687656 0.1380179302
375297750.0 -0.1247342795 0.1307802494 0.3966823192 -0.3933630467 0.3969298259 -0.393356959 -0.1022561826 0.1393764773
380297720.0 -0.1234201705 0.1320822031 0.3919711136 -0.3980535759 0.3921070839 -0.3972376089 -0.1013389152 0.1405277145
385297690.0 -0.1225954612 0.1334141071 0.3880652262 -0.4016793265 0.3875813484 -0.4017792849 -0.0994939494 0.141772967
390297660.0 -0.1212999013 0.135121607 0.3833982898 -0.4062651799 0.3833717068 -0.406104605 -0.0983397438 0.143268051
395297630.0 -0.1197651661 0.1360526383 0.3788738222 -0.4100557507 0.378655664 -0.4104175687 -0.0961430749 0.1443041031
400297600.0 -0.1186026121 0.1375175774 0.3739960751 -0.4146585957 0.3743706135 -0.4146833876 -0.0953001642 0.1456422393
405297570.0 -0.1176671179 0.1385711426 0.3698896384 -0.4183487905 0.3698726364 -0.4181840807 -0.0937479924 0.1466968638
410297540.0 -0.1158773565 0.1399943738 0.3652423582 -0.4227363769 0.3657829234 -0.4226823274 -0.0922325392 0.1481382493
415297510.0 -0.1146638729 0.1412809042 0.3604783927 -0.426815779 0.3606909281 -0.4266015295 -0.0906001626 0.149109303
420297480.0 -0.1134396904 0.1428527938 0.3558129431 -0.4301651586 0.3560216456 -0.4304670662 -0.0892645627 0.1501728502
425297450.0 -0.1120272746 0.1436189497 0.3510915863 -0.4341625821 0.3516731428 -0.4346935832 -0.0878920601 0.1514864338
430297420.0 -0.1107983145 0.1448159682 0.3464564777 -0.4376958778 0.3462938917 -0.4376766953 -0.0859563945 0.1522369695
435297390.0 -0.1095363492 0.1460949795 0.3414508243 -0.4421406778 0.341478104 -0.4419288014 -0.0838402075 0.1535179975
440297360.0 -0.1081859958 0.1475188412 0.3367196479 -0.4456920789 0.336853136 -0.4455393002 -0.0826389177 0.1542046364
445297330.0 -0.1065402574 0.1481585529 0.3317951058 -0.4490980127 0.331849137 -0.448916994 -0.0805505015 0.1552221417
450297300.0 -0.1050611805 0.1493299238 0.3269088729 -0.4529927646 0.327049969 -0.4531467824 -0.0791950582 0.1563325068
455297270.0 -0.1039593037 0.1507398111 0.3215787493 -0.4562844719 0.3217453401 -0.4567745876 -0.0774739458 0.1571464953
460297240.0 -0.1025684282 0.1519761726 0.3165802633 -0.4599609977 0.3171574315 -0.4600936297 -0.0757754857 0.1585531582
465297210.0 -0.1009186385 0.1529035567 0.3121079191 -0.4632189284 0.3119344282 -0.4636283935 -0.0736185179 0.1592199293
470297180.0 -0.099381214 0.1539724654 0.3063697972 -0.4665113271 0.3067019064 -0.4665658523 -0.0717428946 0.1603764018
475297150.0 -0.0979782396 0.1548598157 0.3018356517 -0.4691983079 0.301320891 -0.469646811 -0.0695706178 0.1608659608
480297120.0 -0.0964877187 0.1562976275 0.2963924162 -0.4731977333 0.2963627106 -0.4734962711 -0.0679163512 0.1621270402
485297090.0 -0.095144383 0.1572330325 0.2912795702 -0.4758759703 0.2911123445 -0.4760423654 -0.0660938784 0.1629584051
490297060.0 -0.0938252766 0.158114668 0.2868455088 -0.4792127997 0.2863560136 -0.4792872843 -0.0644070043 0.1638976575
495297030.0 -0.0923387991 0.1593194061 0.2810027325 -0.4823264572 0.2812347589 -0.4822199616 -0.0629633859 0.1648291295
500297000.0 -0.090472227 0.1604260874 0.2752060929 -0.484975537 0.2754784011 -0.4850229133 -0.0608685543 0.166142097
505296970.0 -0.0886962083 0.161358312 0.2701656444 -0.4879549035 0.2701595387 -0.488228158 -0.0590202726 0.1665431043
510296940.0 -0.0874842825 0.1622270329 0.2650696452 -0.4912862747 0.2649434845 -0.4916661039 -0.05702691 0.1675963957
515296910.0 -0.0858241383 0.1634289636 0.2594618492 -0.4940194238 0.2593455647 -0.493937892 -0.0552463655 0.1684903979
520296880.0 -0.0844399305 0.16420041 0.2542925463 -0.4971376928 0.254006119 -0.4966465903 -0.05353925 0.1687275096
525296850.0 -0.0823099073 0.1648338501 0.2483595629 -0.4996895721 0.2490671398 -0.4993556817 -0.0517456657 0.1699757282
530296820.0 -0.0807270393 0.1662995924 0.2432149029 -0.5027046665 0.2432471921 -0.5023303441 -0.049848724 0.170644893
535296790.0 -0.0796034305 0.1670564603 0.2381489828 -0.5048541227 0.2382900648 -0.5046491156 -0.0481492828 0.171234151
540296760.0 -0.0781175096 0.1678637868 0.2325552637 -0.5076326261 0.2322328757 -0.5073841915 -0.0463825304 0.172440057
545296730.0 -0.0765282891 0.1688544423 0.2263016932 -0.5097474669 0.2266864837 -0.5100997943 -0.044270948 0.1726316895
550296700.0 -0.0743420302 0.169908509 0.221270151 -0.5122701751 0.2212775725 -0.5124192687 -0.0424226566 0.1735116762
555296670.0 -0.0730820568 0.1707785749 0.2158720466 -0.5146460399 0.2157872524 -0.5145278629 -0.0407669985 0.174331534
560296640.0 -0.0711444166 0.1718466206 0.2098460846 -0.5173457813 0.2100572044 -0.5172805655 -0.0388500689 0.1749850597
565296610.0 -0.0698754849 0.172531932 0.2041947444 -0.5191072344 0.2045539862 -0.5193061121 -0.0371968628 0.1751839445
570296580.0 -0.068393819 0.1731415267 0.1989670793 -0.5215605513 0.1983765793 -0.5212857606 -0.0348896312 0.1763166425
575296550.0 -0.0666597794 0.174528135 0.193038097 -0.5238676154 0.1930185418 -0.5236616387 -0.0330473619 0.1765012294
580296520.0 -0.0647742897 0.1748219877 0.1876093299 -0.5255420659 0.1871835878 -0.525826251 -0.0309046116 0.1769828229
585296490.0 -0.0631344986 0.1754380055 0.1819005374 -0.5271808522 0.1819723007 -0.5278416888 -0.0292298532 0.1775403123
590296460.0 -0.0610134089 0.1762054361 0.1759685695 -0.5288719546 0.176414746 -0.5290550678 -0.0278550573 0.1778745921
595296430.0 -0.0593296953 0.1771105069 0.1699521539 -0.5317374267 0.1699407806 -0.531090313 -0.0252257057 0.1780754388
600296400.0 -0.0581860839 0.1776835018 0.1647700018 -0.5332902062 0.1645311192 -0.5326042893 -0.0235017505 0.1784250532
605296370.0 -0.0562180248 0.1782913792 0.1584902283 -0.5347460592 0.1587384299 -0.5344323684 -0.0214677671 0.1787240459
610296340.0 -0.0542874131 0.1791324652 0.1524218215 -0.5362855204 0.152762271 -0.5362686823 -0.0191915867 0.1794471257
615296310.0 -0.0524262842 0.1796254112 0.1469246814 -0.5378423982 0.1466220013 -0.5381875788 -0.0168095469 0.1796952394
620296280.0 -0.0508428277 0.1804466853 0.1409856511 -0.5394262273 0.1410213454 -0.5392726564 -0.0153544137 0.179799126
625296250.0 -0.0494722196 0.1803524461 0.136285742 -0.5410355217 0.1352655047 -0.5411018028 -0.0126624091 0.1801357876
630296220.0 -0.0466652975 0.1811825396 0.129028499 -0.5423928495 0.1290696647 -0.5422128322 -0.0110414805 0.1806578566
635296190.0 -0.0461816617 0.1818371388 0.1238798733 -0.5439694733 0.1234577263 -0.5436983708 -0.0091566319 0.1808308166
640296160.0 -0.0441111852 0.1824129053 0.1175579769 -0.5446733373 0.1183187491 -0.5449591758 -0.006929971 0.1810120401
645296130.0 -0.042094594 0.18329173 0.1116825255 -0.5460170467 0.1122451166 -0.5460190008 -0.0047771866 0.181247777
650296100.0 -0.0404094276 0.1835827892 0.1060087612 -0.5472487953 0.1057165452 -0.5471959725 -0.0026465293 0.1809802913
655296070.0 -0.03893778 0.1842190478 0.1001101189 -0.5480555552 0.1002611655 -0.5487362782 -0.0002531923 0.1816299849
660296040.0 -0.0370640929 0.1841920062 0.094537153 -0.5490675887 0.094246582 -0.5496977014 0.0016615566 0.1815202204
665296010.0 -0.0349221896 0.1849087847 0.0876443715 -0.5502848649 0.0879842668 -0.550409776 0.0035473261 0.1820917068
670295980.0 -0.0340585215 0.1857872739 0.0824321448 -0.5509343354 0.0823301649 -0.5514330049 0.0055657662 0.1821190808
675295950.0 -0.0316340863 0.1860337493 0.0763834499 -0.5517620123 0.0765560271 -0.5514924356 0.0069089977 0.1822680709
680295920.0 -0.0300544807 0.186339631 0.0701496331 -0.5521298104 0.0701417618 -0.5533595819 0.0093269526 0.1828762463
685295890.0 -0.027998272 0.1872060188 0.0642093756 -0.5534206629 0.0640681204 -0.5532075247 0.0116974563 0.1824921628
690295860.0 -0.0260888657 0.1875470805 0.0586051232 -0.553682724 0.0583790697 -0.5542974186 0.0134177143 0.1832848214
695295830.0 -0.0243797978 0.1876691322 0.0529127979 -0.5545319374 0.0521599697 -0.5545534971 0.0155074649 0.1830092091
700295800.0 -0.0225513393 0.1878976149 0.0465716664 -0.5544928385 0.0462320577 -0.5549020586 0.0173325103 0.1834311953
705295770.0 -0.0208595064 0.1887729485 0.0401949733 -0.5549179758 0.0405886835 -0.5554818334 0.0193556027 0.183077407
710295740.0 -0.0188306734 0.1891200986 0.0344236523 -0.5564667479 0.0347113719 -0.5561820734 0.0213520104 0.1828187362
715295710.0 -0.0173252771 0.1894050987 0.029070507 -0.556474941 0.0284075838 -0.5560791676 0.0237044068 0.1829471588
720295680.0 -0.0154546078 0.1896146059 0.0223500922 -0.5563569042 0.0225560091 -0.5564931862 0.0256280278 0.183036122
725295650.0 -0.0134110298 0.1898668148 0.0163985993 -0.5569516753 0.0161931208 -0.5573259595 0.0273723406 0.1832389545
730295620.0 -0.0111293224 0.1900233336 0.0103936572 -0.5565470403 0.0106445106 -0.5566910297 0.0289399844 0.1825779779
735295590.0 -0.0095005288 0.1907930327 0.0043425853 -0.5569669943 0.0044193186 -0.5567698439 0.0309014326 0.1824420531
740295560.0 -0.007809109 0.1910032388 -0.0015392596 -0.5567789064 -0.0018382444 -0.5571492619 0.0334491362 0.1825277289
745295530.0 -0.005885341 0.1909016749 -0.0076435343 -0.5568419109 -0.007858068 -0.5568181098 0.0354433863 0.1817724151
750295500.0 -0.0037291077 0.1913646775 -0.0136996486 -0.5563479194 -0.0133755503 -0.5568330877 0.0372791842 0.1816462651
755295470.0 -0.0021941489 0.1910955195 -0.0193962648 -0.5560539084 -0.0195670007 -0.5565161827 0.039723375 0.1810219713
760295440.0 -0.0005416149 0.1915540099 -0.0254171408 -0.5560527843 -0.0257533096 -0.5564468654 0.0415366964 0.1804921179
765295410.0 0.0013625372 0.1918871498 -0.031627186 -0.5560625445 -0.03189098 -0.5557970475 0.0434362594 0.1806969207
770295380.0 0.002873657 0.1915286143 -0.037647673 -0.5551908038 -0.0374285118 -0.5552506506 0.0450021021 0.1800896841
775295350.0 0.0048244523 0.1915426852 -0.0437332742 -0.5543517468 -0.0432787745 -0.5548371243 0.0467946322 0.179953643
780295320.0 0.0069459829 0.1916890484 -0.0497991122 -0.5538924059 -0.0490701929 -0.5541950214 0.0488603938 0.1789696485
785295290.0 0.0085846873 0.1915496675 -0.0554947065 -0.5531159249 -0.0552849607 -0.5537677266 0.051566757 0.1790775678
790295260.0 0.010968232 0.1919805012 -0.0610522567 -0.5530145444 -0.0605029702 -0.5528675253 0.053269334 0.1784084055
795295230.0 0.0124535824 0.192031752 -0.0670994799 -0.5518011483 -0.0671540941 -0.5526389764 0.055617076 0.1781393985
800295200.0 0.0139059682 0.1918981691 -0.0734483469 -0.5510352647 -0.0735010058 -0.551145889 0.0574604811 0.1773146792
805295170.0 0.0162006676 0.1919210324 -0.079583052 -0.5503820427 -0.0793566264 -0.5507030862 0.0595597862 0.1771414643
810295140.0 0.0177599817 0.1912855251 -0.0846512722 -0.549075526 -0.0850874008 -0.5500473063 0.0617481544 0.1765925275
815295110.0 0.0198606144 0.191288768 -0.0910232552 -0.5480835945 -0.090901025 -0.5485667787 0.0635739174 0.1758938915
820295080.0 0.0214573623 0.1919210936 -0.0970277856 -0.547395839 -0.0965730096 -0.5477305607 0.0655310928 0.1754754363
825295050.0 0.0241493285 0.1914059245 -0.1024057761 -0.5461050468 -0.1027552294 -0.5463540624 0.0677614904 0.174935459
830295020.0 0.0256973026 0.1918763008 -0.1089528278 -0.5450442412 -0.1086806247 -0.5452713578 0.0701968732 0.1744101788
