!Created with skrf (http://scikit-rf.org).
# Hz S RI R 50.0 
!freq ReS11 ImS11 ReS21 ImS21 ReS12 ImS12 ReS22 ImS22
300000.0 -0.3178785579 -0.1276180343 0.3723385995 0.0634621508 0.3728154771 0.0656110742 -0.3174866463 -0.1321574335
5299970.0 -0.3249724568 0.0025693531 0.3782592135 0.0032750494 0.3786792681 0.0032401523 -0.3257403421 0.0018268147
10299940.0 -0.322437416 0.0143185564 0.3798207655 0.0026410447 0.3800680883 0.0029518664 -0.3232665707 0.0127302817
15299910.0 -0.3192195984 0.0225553802 0.3821988121 0.0025477345 0.3821639801 0.0027004429 -0.320737424 0.0197990785
20299880.0 -0.3156971929 0.0291121457 0.3850147291 0.0018517306 0.3852654868 0.0022107741 -0.3180407778 0.0257836827
25299850.0 -0.311358102 0.0347399313 0.3881310874 0.0003195252 0.3885812331 0.0003546016 -0.314796349 0.0311433348
30299820.0 -0.3083548875 0.0392626582 0.3920565641 -0.0020188104 0.3918821009 -0.0020375716 -0.3117255418 0.0357801612
35299790.0 -0.3043503106 0.0435333504 0.3948406872 -0.0053453547 0.3954843462 -0.0050641657 -0.3091471003 0.0398100534
40299760.0 -0.3010848334 0.0472519996 0.3981946969 -0.0088457032 0.3985752346 -0.008797842 -0.3064531831 0.0435327009
45299730.0 -0.2978540563 0.0500142298 0.4010771196 -0.0124577831 0.4015659704 -0.0127837564 -0.3037050723 0.0466771516
50299700.0 -0.2946395535 0.0526950421 0.4034249512 -0.0170687985 0.403881464 -0.0171271534 -0.3012676458 0.0497987451
55299670.0 -0.2923889427 0.0555628315 0.4056798052 -0.0216205477 0.4059289639 -0.0216557654 -0.2994083319 0.0525155776
60299640.0 -0.2896897724 0.0578390867 0.4080385205 -0.0266260394 0.4078861613 -0.0269243247 -0.2970840583 0.0547536531
65299610.0 -0.2872785391 0.0601658842 0.4099234383 -0.0317982816 0.4097860521 -0.031790876 -0.2950998659 0.057730189
70299580.0 -0.2853098679 0.062037441 0.4107362183 -0.0364031337 0.4109338515 -0.0368202769 -0.2936655759 0.0598501386
75299550.0 -0.2833141589 0.0641382059 0.4116880681 -0.0420795363 0.4117703752 -0.0418680102 -0.2918399641 0.0624243241
80299520.0 -0.2815512819 0.0666775536 0.4126631879 -0.0470188432 0.4129898894 -0.0471929336 -0.2905349542 0.0647632563
85299490.0 -0.2797292951 0.0681969137 0.4130606392 -0.0525636259 0.4135264036 -0.0522545437 -0.2889074333 0.0670055807
90299460.0 -0.2781272299 0.0707553932 0.4134748589 -0.0579607976 0.4134836127 -0.0577101843 -0.2874619256 0.0695929297
95299430.0 -0.2771031243 0.0727218217 0.4140378125 -0.0628172555 0.4143781466 -0.0632240082 -0.2862573941 0.0717312192
100299400.0 -0.2748596532 0.0745930488 0.4136295611 -0.0678893193 0.4141025133 -0.0683033199 -0.2854432302 0.0744435966
105299370.0 -0.2739250852 0.0766830801 0.4138887848 -0.0732290593 0.4142232617 -0.0734822283 -0.283918672 0.0763864378
110299340.0 -0.2725266717 0.0786684827 0.4136780651 -0.0781872103 0.4139314987 -0.0780831658 -0.283280238 0.0787536768
115299310.0 -0.2715565317 0.0808283844 0.4135486529 -0.0834101126 0.413388616 -0.083531208 -0.2819318686 0.0813081133
120299280.0 -0.2703744398 0.0831398693 0.4130968527 -0.0890021045 0.4130041841 -0.0891410135 -0.2810968484 0.0832143195
125299250.0 -0.2691636798 0.0853260586 0.4124983263 -0.0937310725 0.4126199481 -0.0939132901 -0.2800669694 0.0857742534
130299220.0 -0.2681657546 0.0875416127 0.4118187373 -0.098803275 0.4118600747 -0.0998962463 -0.2787215502 0.0885583358
135299190.0 -0.267399078 0.0900474446 0.4114013027 -0.103954186 0.4115017492 -0.1040929577 -0.278042548 0.0906271494
140299160.0 -0.2662094913 0.0922416039 0.4104968424 -0.1092345115 0.4103254042 -0.1088517299 -0.2774730428 0.0929759725
145299130.0 -0.2651890934 0.0943718934 0.4091490117 -0.1135900205 0.4096567623 -0.1138699737 -0.2767752737 0.0958389476
150299100.0 -0.2641005069 0.0970804116 0.4085362978 -0.1189095854 0.4084118536 -0.1188301198 -0.2757247976 0.0983018154
155299070.0 -0.2631210211 0.0996028419 0.4069122401 -0.1235741139 0.407544175 -0.123869692 -0.2748425249 0.1012898192
160299040.0 -0.2621396868 0.1020124115 0.4059400599 -0.1288969699 0.4061620437 -0.1290415132 -0.2740231848 0.1039635887
165299010.0 -0.2610670916 0.104307092 0.4046521291 -0.1332379955 0.4050840122 -0.1337161237 -0.2727586887 0.1059485864
170298980.0 -0.260069267 0.1069861997 0.4033147517 -0.1382677988 0.4034255359 -0.1382992058 -0.2719326904 0.1086096246
175298950.0 -0.2591540858 0.1093219467 0.4020884432 -0.1431387831 0.4022358934 -0.1435104762 -0.2709149839 0.1114969559
180298920.0 -0.2583249272 0.1116535097 0.4003815671 -0.1480063368 0.4007289822 -0.1484950987 -0.2697480533 0.1141543623
185298890.0 -0.2571700461 0.1141981313 0.3996295382 -0.1524300694 0.3989449625 -0.1527753024 -0.2687322777 0.1163479476
190298860.0 -0.2558179065 0.1172679919 0.3973590215 -0.1572925306 0.3979275373 -0.1572269359 -0.2678164688 0.1193738305
195298830.0 -0.2548692622 0.119616513 0.3959348089 -0.1616772857 0.3957681881 -0.1619560746 -0.2666155722 0.1218339975
200298800.0 -0.2534895461 0.1219785801 0.3942930628 -0.1670125574 0.3942747352 -0.1666996119 -0.2657297335 0.1243576345
205298770.0 -0.2529381206 0.1245275425 0.3924737463 -0.1707822942 0.3925666857 -0.1711738613 -0.2643370303 0.1272538816
210298740.0 -0.2511458643 0.127370293 0.3901859358 -0.1754599222 0.3905130812 -0.1756368303 -0.2636019207 0.1301142477
215298710.0 -0.2504817423 0.1301616746 0.3885581039 -0.1800658195 0.3888646706 -0.1804398298 -0.262349255 0.1325897489
220298680.0 -0.2488897827 0.1324683518 0.3868109105 -0.1846825881 0.3865941672 -0.184791678 -0.2610826687 0.1352156253
225298650.0 -0.2476853838 0.1353090937 0.3841344878 -0.1887813842 0.3848672539 -0.1885839648 -0.25985664 0.137960186
230298620.0 -0.2463837222 0.1378053188 0.3824288487 -0.193361304 0.3830317307 -0.1936053542 -0.2586372469 0.1406853071
235298590.0 -0.2453077825 0.140619494 0.3804711827 -0.1980939492 0.3808146612 -0.1980412417 -0.2572439118 0.1434004628
240298560.0 -0.2440483811 0.1433103406 0.3782345226 -0.2022189751 0.3784475292 -0.2021321618 -0.2563078552 0.1459823831
245298530.0 -0.242655222 0.1455059965 0.3759197789 -0.2064675961 0.3761190225 -0.2067729971 -0.255157705 0.1487061496
250298500.0 -0.2416998043 0.148156635 0.3740474885 -0.2105531469 0.3739850636 -0.2107833531 -0.2532828485 0.1519201458
255298470.0 -0.2400930388 0.150962646 0.3715189391 -0.2146562981 0.3718698941 -0.2150911411 -0.2518685341 0.1541527417
260298440.0 -0.2387556482 0.1533346968 0.3692613794 -0.2188081583 0.3693924874 -0.2191276682 -0.2504167938 0.1566613646
265298410.0 -0.237284754 0.1562950489 0.366975428 -0.2235666097 0.3668364046 -0.223636413 -0.2487466645 0.1594026591
270298380.0 -0.235713472 0.1587291699 0.3639454424 -0.2272391498 0.3645042938 -0.2276322946 -0.2474845816 0.162406618
275298350.0 -0.234419902 0.1617463106 0.3613371323 -0.2315025913 0.3622605389 -0.2315925768 -0.2461840737 0.1654303695
280298320.0 -0.2334870963 0.1641186336 0.3595808331 -0.2354075757 0.3597628763 -0.2357077062 -0.2443427722 0.1676085844
285298290.0 -0.2318021607 0.1668924984 0.3568282376 -0.2396800333 0.3569597914 -0.2396046915 -0.2429035097 0.1705342108
290298260.0 -0.2298835015 0.1691429737 0.354439824 -0.2435567496 0.3543084226 -0.2439292725 -0.2411627291 0.1728595733
295298230.0 -0.2285444434 0.1712279569 0.3517567487 -0.2478234522 0.3518200667 -0.2479053327 -0.2392806901 0.1752872047
300298200.0 -0.2268066622 0.1742347428 0.3490131172 -0.2514119895 0.349151505 -0.2513751401 -0.2379134672 0.1781205952
305298170.0 -0.2251199793 0.1763953396 0.3463684085 -0.2559538093 0.3461945155 -0.2557185924 -0.2355992468 0.1798689326
310298140.0 -0.2233192075 0.1787196994 0.3430707769 -0.2594299366 0.3433573737 -0.2591881769 -0.2337147977 0.1829119521
315298110.0 -0.2216913635 0.1810538554 0.3406138553 -0.2637413916 0.3405997271 -0.2636546729 -0.2322291677 0.185346541
320298080.0 -0.220036322 0.183854688 0.336917265 -0.2674296125 0.3377360455 -0.2674717147 -0.2306396149 0.1879262137
325298050.0 -0.2185936981 0.1857667514 0.3341417907 -0.2711523954 0.3347026132 -0.2716576405 -0.2281655002 0.1905448002
330298020.0 -0.2173568096 0.1887957826 0.3311178419 -0.2749528452 0.331929165 -0.2749480129 -0.2270500068 0.1927527452
335297990.0 -0.2153898969 0.1907098902 0.3285547301 -0.2783543521 0.3286080744 -0.2785285407 -0.2250126689 0.1954759956
340297960.0 -0.2134793286 0.1932660591 0.3245784099 -0.2822511665 0.3250847397 -0.2822381197 -0.2230554741 0.1981615386
345297930.0 -0.2116287932 0.1957181001 0.3220015881 -0.2860433333 0.3219015811 -0.2859016586 -0.2211335544 0.2003071554
350297900.0 -0.2101660091 0.1978570297 0.318793439 -0.2893823155 0.3191315548 -0.2889555655 -0.2193846617 0.2026602583
355297870.0 -0.2081301926 0.200336744 0.3154234507 -0.2927007528 0.315636423 -0.2924961743 -0.216931018 0.205404762
360297840.0 -0.2062889413 0.2027458555 0.311970521 -0.2962273706 0.3123166073 -0.2968764645 -0.2149869109 0.2079720778
365297810.0 -0.2045386538 0.2050248498 0.309048863 -0.2996232725 0.3090453582 -0.2998155704 -0.2134173064 0.2102782279
370297780.0 -0.2023450712 0.2069907856 0.305052972 -0.3029051259 0.3057805684 -0.302823466 -0.2115165008 0.2125473768
375297750.0 -0.2004900007 0.209436157 0.302197299 -0.3063510533 0.302356971 -0.3064015897 -0.2086435987 0.2148418421
380297720.0 -0.1985456805 0.2121769286 0.2992484794 -0.3099412489 0.2987063837 -0.3099657685 -0.2063570486 0.2175265743
385297690.0 -0.1967760831 0.214174648 0.2955992706 -0.3126480359 0.2952308145 -0.3130796286 -0.2042512264 0.2197184059
390297660.0 -0.1942516331 0.2159911329 0.2920152003 -0.31577988 0.2919880298 -0.3160553697 -0.2021130928 0.2216781499
395297630.0 -0.1916780734 0.2181543527 0.2884839766 -0.3190507523 0.2882634437 -0.3189757334 -0.1997349784 0.2240172236
400297600.0 -0.1901230103 0.2206449517 0.2849358364 -0.3226802702 0.2852306097 -0.32240553 -0.1977132434 0.2267167217
405297570.0 -0.1881424515 0.2223622289 0.2812508559 -0.3252387368 0.2818711612 -0.3256745013 -0.1950466008 0.2291826766
410297540.0 -0.1854999025 0.2249322387 0.2777998015 -0.3290076539 0.2779778508 -0.3286558771 -0.1929114654 0.2315269191
415297510.0 -0.1836009797 0.2269026472 0.2741665452 -0.3318828564 0.2744528124 -0.3319684016 -0.1901553962 0.2333983452
420297480.0 -0.1813424822 0.2288023362 0.2706223253 -0.334753885 0.2706486735 -0.3349063493 -0.1874140385 0.2358257636
425297450.0 -0.1786108771 0.2307906155 0.2664102638 -0.337704207 0.2667605911 -0.3376468269 -0.185704843 0.2374640108
430297420.0 -0.1763852101 0.232883534 0.2634564735 -0.340717815 0.26331378 -0.3405632274 -0.1826606933 0.2400059796
435297390.0 -0.1739818228 0.2346401645 0.2593066741 -0.3438771841 0.2593469582 -0.3432823896 -0.1808194246 0.2419939851
440297360.0 -0.171345978 0.2365040191 0.2553187511 -0.3462957588 0.2554405649 -0.3460680625 -0.1781951327 0.2439489935
445297330.0 -0.1688988861 0.2382796779 0.2517169435 -0.348880618 0.2518908267 -0.3492060376 -0.1750781816 0.2462505731
450297300.0 -0.1664887704 0.2404821314 0.2479437928 -0.3515352544 0.2480904722 -0.3511767403 -0.1726666149 0.2479361468
455297270.0 -0.164589301 0.2420959507 0.2443438077 -0.3542891239 0.2441217235 -0.3544690227 -0.1701231858 0.2505232823
460297240.0 -0.1610791603 0.2441959728 0.2400204405 -0.357382658 0.2402412179 -0.3572344614 -0.1679096204 0.2520189932
465297210.0 -0.1590220591 0.2456748854 0.2359865519 -0.3595349072 0.2358131775 -0.3597800019 -0.1646511131 0.25439016
470297180.0 -0.1565180765 0.2477081633 0.2320932342 -0.3619074942 0.2323545126 -0.3622932619 -0.1621940362 0.2561193225
475297150.0 -0.1542223241 0.2494236659 0.2282048708 -0.3643318926 0.2282819534 -0.3648095605 -0.1596066457 0.2577569703
480297120.0 -0.1507747184 0.2514449007 0.2240503213 -0.3671570218 0.2243035426 -0.366851923 -0.1571241827 0.2598938855
485297090.0 -0.1485459016 0.2528180142 0.2199684428 -0.3693949303 0.220202943 -0.369798146 -0.1543314417 0.2619020686
490297060.0 -0.1452555419 0.2548581686 0.2155076181 -0.3723197501 0.2161209206 -0.3720869296 -0.1514923592 0.2630581396
495297030.0 -0.1430289715 0.2559752344 0.2120097239 -0.3742473021 0.2119028509 -0.3745075802 -0.1481193215 0.2650562718
500297000.0 -0.1403193872 0.2578090681 0.2078884925 -0.3763177993 0.2076523733 -0.3766678552 -0.1457079007 0.2665582382
505296970.0 -0.1370364753 0.2593577994 0.2035278752 -0.3788756226 0.2035982176 -0.378622436 -0.1426947967 0.2682481581
510296940.0 -0.134675824 0.2612668665 0.1994996566 -0.3814057633 0.1998555101 -0.3812281149 -0.1399275935 0.2704731489
515296910.0 -0.131605233 0.26284431 0.1949216997 -0.3831642941 0.1950046463 -0.3829282354 -0.1373160834 0.2712676117
520296880.0 -0.1288187453 0.2642054031 0.1909996001 -0.3852237357 0.1909911872 -0.384922834 -0.1341390531 0.2732157936
525296850.0 -0.1259584629 0.2654578451 0.186748565 -0.3871982885 0.1864531308 -0.3869408822 -0.1313296803 0.2749246399
530296820.0 -0.1234141923 0.2671456564 0.1822378304 -0.3893744682 0.1822625191 -0.3889842615 -0.1285070391 0.2761381334
535296790.0 -0.1198414248 0.2683353078 0.1779916872 -0.3908303322 0.1780104275 -0.3910997848 -0.1251551798 0.2778908245
540296760.0 -0.1171332809 0.2701773563 0.1736442152 -0.3931043627 0.1738296511 -0.3929487171 -0.1223856332 0.2789441529
545296730.0 -0.114723835 0.2718702949 0.1696876812 -0.3947719044 0.1694319892 -0.3946066958 -0.1191457657 0.2808813982
550296700.0 -0.1110806952 0.2726952748 0.1649847676 -0.3965539387 0.1649690742 -0.39697708 -0.1166696118 0.282027809
555296670.0 -0.108686957 0.2742676197 0.1610121709 -0.3985742227 0.1608275693 -0.3980305464 -0.11379701 0.2829660181
560296640.0 -0.1050656166 0.2754955671 0.1559896895 -0.4000626552 0.1564775941 -0.400213411 -0.1103971979 0.2846621876
565296610.0 -0.1026268987 0.2767628917 0.1524591228 -0.4016393557 0.1521780892 -0.4012630285 -0.107612136 0.285943005
570296580.0 -0.0992495021 0.2780823195 0.1474987517 -0.4032772412 0.1476721519 -0.4031163178 -0.1042936579 0.2872818095
575296550.0 -0.0959923408 0.2794419118 0.1432924828 -0.4047548504 0.143106519 -0.4047548653 -0.1015228054 0.2886258857
580296520.0 -0.0932204279 0.280612933 0.1389751132 -0.4061680906 0.1387948962 -0.4062000841 -0.0985750169 0.2894565637
585296490.0 -0.0900142565 0.2819354878 0.1347364027 -0.4077448313 0.1340330886 -0.4078460327 -0.0949118156 0.2911715956
590296460.0 -0.0865029296 0.2827644774 0.1299932225 -0.4093387809 0.1298484392 -0.4093946846 -0.0923277065 0.2918321623
595296430.0 -0.0838864727 0.2839943896 0.1251363068 -0.410378599 0.1250196603 -0.4103701548 -0.0892715584 0.293179883
600296400.0 -0.0806389013 0.2852087936 0.1204695552 -0.411690708 0.1207243074 -0.4118026276 -0.0861175878 0.2938118911
605296370.0 -0.0780699988 0.2864316013 0.1168840647 -0.4129786886 0.1162561085 -0.4131446506 -0.0828438684 0.2954848927
610296340.0 -0.074386648 0.2875502163 0.1120085019 -0.413559221 0.1120421661 -0.41421455 -0.0800181329 0.2963137747
615296310.0 -0.0714036447 0.2883953223 0.1075496213 -0.4151214134 0.1071725721 -0.4154773383 -0.0765262914 0.2974382527
620296280.0 -0.0686932696 0.2896926354 0.1028711377 -0.4163845573 0.1025217435 -0.4164472736 -0.0736437904 0.2981760398
625296250.0 -0.0654917727 0.2904696148 0.0983756046 -0.417454538 0.0983377917 -0.4176115801 -0.0706513695 0.29912817
630296220.0 -0.0622371763 0.2916001079 0.0937015276 -0.418619111 0.0936461987 -0.4186017451 -0.0672525162 0.2998422711
635296190.0 -0.0592659785 0.2925612787 0.089553676 -0.4190181766 0.0888904211 -0.4194667862 -0.0643273159 0.3008310484
640296160.0 -0.0558634986 0.2933649136 0.0846684397 -0.4207076393 0.0844843449 -0.4202660779 -0.0613013716 0.3015608138
645296130.0 -0.0526365675 0.2943404163 0.0797918809 -0.4211296527 0.0800159361 -0.4210218328 -0.058029133 0.3019886443
650296100.0 -0.0499489429 0.2949250914 0.0757931934 -0.4217998469 0.0751220413 -0.4219661121 -0.0543861376 0.3029247817
655296070.0 -0.0467775826 0.2957908151 0.0708437465 -0.4227833146 0.0708580421 -0.4227502447 -0.0514810155 0.3038749986
660296040.0 -0.0434630868 0.2961190527 0.0663308631 -0.4234620538 0.0663087089 -0.4234705918 -0.0480273741 0.304321292
665296010.0 -0.0403060017 0.2975659105 0.0612243226 -0.4238499327 0.061374379 -0.4239319434 -0.0449016953 0.3048526697
670295980.0 -0.0373408122 0.2979947964 0.0569039315 -0.4244814641 0.0568419431 -0.4242675726 -0.0421708323 0.3055862232
675295950.0 -0.0339941691 0.2984066731 0.0522723975 -0.4248244454 0.0521341879 -0.4251934895 -0.0385594396 0.3063394709
680295920.0 -0.0312503152 0.2994150304 0.0478902648 -0.4255491345 0.0475211029 -0.4255051552 -0.0353232071 0.3065000077
685295890.0 -0.0276840541 0.299956531 0.0430379547 -0.4262350348 0.043007352 -0.4261850438 -0.0321815937 0.3073362402
690295860.0 -0.0251490229 0.300478328 0.0387241992 -0.4265305707 0.0382543469 -0.4263807913 -0.0291700939 0.3075701993
695295830.0 -0.021610644 0.3010383723 0.0340414198 -0.4270110989 0.0337066837 -0.4271185433 -0.0259216385 0.3083016929
700295800.0 -0.0184482107 0.30183719 0.0296791109 -0.4273291633 0.0293400085 -0.427331634 -0.0227439001 0.3086188005
705295770.0 -0.0155243333 0.3024286725 0.0246834131 -0.4273390564 0.0244448411 -0.4273790015 -0.0195258013 0.3089983814
710295740.0 -0.0126999945 0.3023999771 0.0204650285 -0.4278872059 0.0201991518 -0.4281876518 -0.016149852 0.3094779194
715295710.0 -0.0093438528 0.3030428751 0.0157321043 -0.4280670473 0.0153779988 -0.427882037 -0.0129181966 0.309633318
720295680.0 -0.0056048244 0.3031666191 0.0105350595 -0.4279629917 0.010408937 -0.4282367076 -0.0095843734 0.3098417944
725295650.0 -0.0032640655 0.3038488868 0.0066893571 -0.4279096293 0.0063637034 -0.428101553 -0.0067065285 0.3105311028
730295620.0 -0.0001065687 0.3037507187 0.0015420702 -0.4274618287 0.0016337684 -0.4278253758 -0.0033012718 0.3109131951
735295590.0 0.0030591176 0.3043593749 -0.0028635548 -0.4278690706 -0.0031268467 -0.427886398 7.36014e-05 0.3104737033
740295560.0 0.0059973708 0.304028411 -0.0074528905 -0.4278054749 -0.0076522473 -0.4282421275 0.0032301884 0.310903604
745295530.0 0.0091279631 0.3045113171 -0.0119067248 -0.4275650244 -0.0116632768 -0.4276152022 0.006424236 0.3107922835
750295500.0 0.0121795941 0.3049389279 -0.0165387284 -0.4273822285 -0.016938559 -0.4275193605 0.0094650658 0.3110226189
755295470.0 0.0151431287 0.3046648735 -0.0209997008 -0.4277735237 -0.0213583588 -0.4276436388 0.0132697291 0.3111855316
760295440.0 0.0185206227 0.3054070768 -0.0264613409 -0.4269358466 -0.0260091591 -0.4269163114 0.015971732 0.3107782816
765295410.0 0.0214106146 0.3048095721 -0.0308077715 -0.426720388 -0.0305228782 -0.426800029 0.0195929883 0.3109379308
770295380.0 0.0241978209 0.3053222457 -0.0345707698 -0.4263431193 -0.0350869029 -0.4264155737 0.0226094501 0.3109584112
775295350.0 0.0272817414 0.3048939728 -0.0396524956 -0.4258525069 -0.0397569521 -0.4258065271 0.026090146 0.3107424247
780295320.0 0.0306212057 0.3050073567 -0.0437010622 -0.4252263402 -0.0442994343 -0.4252180369 0.0295985985 0.310568523
785295290.0 0.033655335 0.3046686923 -0.0486830182 -0.4248276322 -0.0489259804 -0.4251325517 0.0323196995 0.3109593691
790295260.0 0.0367255839 0.3042927083 -0.0532815788 -0.4239400758 -0.0530262385 -0.4247016348 0.0354935024 0.3106375666
795295230.0 0.0396597511 0.3041718456 -0.0579642403 -0.4238034707 -0.0578977704 -0.4236703754 0.0388099377 0.3096474294
800295200.0 0.0425769395 0.3043870593 -0.0619273153 -0.4228551098 -0.0627306677 -0.4229346653 0.0421640229 0.3096731731
805295170.0 0.0455708242 0.304096298 -0.0666733907 -0.4223804094 -0.0667263781 -0.4223811028 0.0457060645 0.3093586735
810295140.0 0.0490462905 0.3039148294 -0.0717205625 -0.4215293595 -0.0714565525 -0.4214515883 0.0490887822 0.3088974966
815295110.0 0.0516325811 0.3032274129 -0.0758165282 -0.4203313888 -0.075968158 -0.4207479915 0.0517643054 0.3088061322
820295080.0 0.054659702 0.3025628456 -0.0798388589 -0.4193139805 -0.0802172507 -0.4200610924 0.0544800941 0.3089512684
825295050.0 0.0575980355 0.3027375521 -0.0846822361 -0.4192135905 -0.0852241448 -0.4187796486 0.0587072102 0.3081541501
830295020.0 0.0608979581 0.3023079955 -0.0890565493 -0.4182101341 -0.089484863 -0.4181350204 0.0614482093 0.3073943025
