!Created with skrf (http://scikit-rf.org).
# Hz S RI R 50.0 
!freq ReS11 ImS11 ReS21 ImS21 ReS12 ImS12 ReS22 ImS22
300000.0 -0.3136823884 -0.1247046284 0.3716109148 0.0651724395 0.370696858 0.0659390593 -0.3139189578 -0.1326305823
5299970.0 -0.3248706674 0.0027817537 0.3783912469 0.0033740239 0.3789654201 0.0032877471 -0.325548119 0.0021100364
10299940.0 -0.3226696611 0.0141126169 0.3800948907 0.0026799164 0.3798361751 0.0028665487 -0.3235256864 0.0124051189
15299910.0 -0.3188134715 0.0221661421 0.3816760673 0.0026834965 0.3821602585 0.0028124949 -0.3207659199 0.0198316683
20299880.0 -0.3157695111 0.029061864 0.3850216224 0.0015062646 0.3853945871 0.002311694 -0.3178889055 0.026047552
25299850.0 -0.3115292219 0.0349543211 0.3885504499 0.0006623107 0.3887528858 7.92605e-05 -0.3149996757 0.0312246092
30299820.0 -0.308014075 0.0393706773 0.391897273 -0.0019710139 0.3921109033 -0.0021651754 -0.3118224157 0.0356807483
35299790.0 -0.3046266868 0.043536358 0.394766019 -0.0051489301 0.3953189118 -0.0051828016 -0.3093989532 0.0400684831
40299760.0 -0.3013331478 0.0469550794 0.3982732672 -0.0087086757 0.3985769961 -0.0086650384 -0.306468602 0.0433365907
45299730.0 -0.2982850376 0.0500999326 0.4013039757 -0.012603257 0.401596066 -0.0128900671 -0.303591713 0.0466658269
50299700.0 -0.2945284833 0.0526977638 0.4037419396 -0.0172304579 0.4038561931 -0.0171855863 -0.3012477481 0.050061975
55299670.0 -0.2923064506 0.0551550248 0.4059462804 -0.0214782386 0.4057233766 -0.0218666948 -0.2990848662 0.052319948
60299640.0 -0.2896728209 0.0578716863 0.4080009767 -0.0270764066 0.4079927671 -0.0268420293 -0.2970715396 0.0547385827
65299610.0 -0.2873032685 0.0601861142 0.4096825325 -0.0313726904 0.4097617856 -0.0317023645 -0.2950526698 0.0574638395
70299580.0 -0.2851761496 0.0618797868 0.4102147927 -0.0366754312 0.4109959714 -0.0367906493 -0.293624438 0.0598780629
75299550.0 -0.2834693504 0.0641871551 0.4114351103 -0.0420164999 0.411923446 -0.041812503 -0.2916212536 0.0622322836
80299520.0 -0.2818460596 0.0666987487 0.4130073016 -0.0476532661 0.4130883335 -0.0476581783 -0.2905389335 0.064920406
85299490.0 -0.279744563 0.0682538285 0.4130494846 -0.052540655 0.4137456932 -0.0522964377 -0.2892530552 0.0670729696
90299460.0 -0.278288582 0.0707408149 0.4134959053 -0.0577870673 0.4136579639 -0.0576886877 -0.2875034246 0.06969367
95299430.0 -0.2765931643 0.0727355541 0.4137470491 -0.0630181423 0.4141492856 -0.0632864308 -0.2864190743 0.0718729179
100299400.0 -0.2753868475 0.0746145406 0.4138487175 -0.0680944505 0.413894522 -0.0680558401 -0.2853683607 0.0743804847
105299370.0 -0.2739398461 0.0766211678 0.4137835697 -0.0733805908 0.4141146027 -0.073127709 -0.2840044876 0.0762103136
110299340.0 -0.2728960244 0.0788541932 0.4139128292 -0.0782304925 0.4140641962 -0.0784793203 -0.2832556028 0.0785376908
115299310.0 -0.2715947531 0.0811420634 0.4135581293 -0.0832955806 0.4136245638 -0.0837992463 -0.2821534379 0.081500259
120299280.0 -0.270284062 0.0833067434 0.4129560936 -0.0888325221 0.4131662726 -0.0891253701 -0.2810393117 0.0834265135
125299250.0 -0.2692862816 0.0849722633 0.4124339875 -0.0938557446 0.4127289087 -0.0938938596 -0.2798626845 0.0859236312
130299220.0 -0.2682748881 0.0871808473 0.4117774154 -0.0989069312 0.4121327417 -0.0994311285 -0.2787241908 0.0882583184
135299190.0 -0.2671409224 0.0899614694 0.4110179966 -0.1039288612 0.4112893298 -0.1042799375 -0.2781778307 0.0906787409
140299160.0 -0.2661828512 0.0921663613 0.4105844322 -0.1093759936 0.4104625348 -0.1088006708 -0.2777243781 0.0930427495
145299130.0 -0.265322199 0.0943066394 0.4093417337 -0.1135361917 0.4095977545 -0.1137819659 -0.2766595629 0.0956830057
150299100.0 -0.2643234141 0.0968183209 0.408528136 -0.1190820747 0.4085833058 -0.118774259 -0.2758019415 0.0984623443
155299070.0 -0.2632808533 0.099475344 0.4070082857 -0.1237488938 0.4074057764 -0.1237768866 -0.2746670795 0.1011110144
160299040.0 -0.262165846 0.1020224298 0.4058975954 -0.128792661 0.4061368099 -0.1289364683 -0.2739282713 0.1037325344
165299010.0 -0.2609041276 0.1041203942 0.4050752647 -0.1332913751 0.4048922767 -0.1335944263 -0.2727893319 0.1056264699
170298980.0 -0.2600428825 0.1067411501 0.403100974 -0.1382956979 0.4037283588 -0.1380993331 -0.2721068161 0.1085597296
175298950.0 -0.2589630053 0.1092682233 0.4021645685 -0.1431069004 0.4022754063 -0.1435896168 -0.2709018184 0.1114960867
180298920.0 -0.2581556675 0.1118164804 0.400985455 -0.1479930819 0.400684634 -0.1481745189 -0.2698665566 0.1139957679
185298890.0 -0.2568441228 0.1142130579 0.3991267699 -0.1525183378 0.3992008906 -0.1525184177 -0.2689873645 0.1165360808
190298860.0 -0.2557555773 0.1173304237 0.3970974377 -0.1571452185 0.3978393775 -0.1573118151 -0.2678920105 0.1193936675
195298830.0 -0.2549099534 0.119622097 0.3962403959 -0.1616458155 0.3961993974 -0.1623666916 -0.2671009245 0.1220065849
200298800.0 -0.2535899843 0.1221377724 0.3944579969 -0.1669617275 0.3944805791 -0.1667831119 -0.2658944802 0.1245054246
205298770.0 -0.2526864123 0.1249057609 0.3923508071 -0.1710340342 0.3925489975 -0.1709030753 -0.26448156 0.1272757283
210298740.0 -0.2513741917 0.1274000139 0.3905671322 -0.1755506788 0.3905030808 -0.1754391895 -0.2635488117 0.1296620812
215298710.0 -0.250447408 0.1302290643 0.3883312223 -0.1798397957 0.3886093126 -0.1802779042 -0.2622891904 0.132745609
220298680.0 -0.2489057046 0.1327523159 0.3863955904 -0.1847919867 0.386863559 -0.1848926407 -0.2611174523 0.13529843
225298650.0 -0.2477565456 0.1354361016 0.3846670182 -0.1891722466 0.3846543944 -0.1888561365 -0.260006957 0.1379933123
230298620.0 -0.2466232872 0.1380492684 0.3828351977 -0.1932764223 0.3829320616 -0.1938750777 -0.2584584198 0.1406142361
235298590.0 -0.2455129511 0.1407295127 0.3806501581 -0.1982109746 0.380896754 -0.1980054482 -0.2573200371 0.1434841771
240298560.0 -0.2438932482 0.1434057707 0.3782833531 -0.2020276352 0.3783626239 -0.2020975959 -0.2563589067 0.1457951379
245298530.0 -0.2428115063 0.145778177 0.3761945366 -0.2064198625 0.3761290919 -0.2066442689 -0.2548530879 0.148619154
250298500.0 -0.2417235937 0.1482745443 0.3739847841 -0.2106475153 0.3742332974 -0.2107351425 -0.2535430808 0.151562236
255298470.0 -0.2402145682 0.1513989209 0.3721500355 -0.2146069988 0.3721939954 -0.215340145 -0.252175624 0.1545821702
260298440.0 -0.2386585727 0.1534002212 0.3694144955 -0.2185950315 0.3693834919 -0.2187822702 -0.2508768579 0.1567267145
265298410.0 -0.2373618284 0.1564492449 0.3668970354 -0.2236697436 0.3670536004 -0.2237965959 -0.2489942928 0.1595234598
270298380.0 -0.2359101702 0.1586486828 0.364316337 -0.2274785145 0.3644864974 -0.2275812636 -0.2472697367 0.1623544269
275298350.0 -0.2344223058 0.1613939207 0.3618165778 -0.2312443148 0.361823713 -0.2315403161 -0.2457547763 0.1647714416
280298320.0 -0.2330739351 0.1639389527 0.3592104309 -0.2351122537 0.3597423269 -0.2359564375 -0.2442422745 0.1676678213
285298290.0 -0.231494086 0.166524788 0.3564280777 -0.2395074393 0.3573070446 -0.2395313846 -0.2427869526 0.1706113377
290298260.0 -0.2299672297 0.169468255 0.3544965532 -0.2436544547 0.3542871946 -0.243807895 -0.2411498224 0.1729555622
295298230.0 -0.2283448717 0.1715429966 0.3513919784 -0.2479713253 0.3516950807 -0.2479704385 -0.2394649206 0.17529068
300298200.0 -0.2265340957 0.1743648371 0.34896855 -0.251820175 0.3490634684 -0.2516123792 -0.237637545 0.1778651864
305298170.0 -0.2251729473 0.1766144667 0.3462910352 -0.2556785089 0.3465303963 -0.2557054976 -0.235812105 0.1805437676
310298140.0 -0.2234144477 0.1791203815 0.3431591626 -0.2596845533 0.3436004829 -0.2595425043 -0.2338897424 0.1829786406
315298110.0 -0.2218868991 0.1813544481 0.3406839822 -0.2639860048 0.3405725065 -0.2638685226 -0.2324495505 0.1857196555
320298080.0 -0.2200762898 0.1838558358 0.3370702821 -0.2673434322 0.3380021791 -0.2673371176 -0.2304995886 0.1879392963
325298050.0 -0.2185930634 0.1857171461 0.3340016212 -0.2709361373 0.3348637964 -0.2712404782 -0.2284891462 0.1905009566
330298020.0 -0.2170872427 0.1884840022 0.3312809321 -0.2747983514 0.3320293409 -0.2751642407 -0.2270000465 0.1931521423
335297990.0 -0.2151708559 0.1907421408 0.3282664157 -0.2781970156 0.3283682348 -0.2788785044 -0.2247373011 0.1953536073
340297960.0 -0.2138002546 0.1933467827 0.32489459 -0.2822213899 0.3251657117 -0.2821919201 -0.2230078051 0.1981120634
345297930.0 -0.2121329064 0.1957623018 0.3219758572 -0.2857273542 0.321903396 -0.2859248451 -0.2210172123 0.2003689434
350297900.0 -0.2102657571 0.1978809285 0.3192455083 -0.2889520475 0.3188832277 -0.2892405596 -0.2192643885 0.2027758696
355297870.0 -0.2085953405 0.2004283512 0.3156903411 -0.2925230547 0.3158242356 -0.2926035467 -0.2171623892 0.2056180712
360297840.0 -0.2060886361 0.2027598521 0.3119277745 -0.2962478432 0.3123310548 -0.2965093473 -0.214824573 0.207763658
365297810.0 -0.2043543047 0.2052746186 0.3089067176 -0.299697857 0.3091296667 -0.2996945319 -0.2132436183 0.2103247936
370297780.0 -0.2024620627 0.2074095576 0.3052859416 -0.303217846 0.3057647068 -0.3028484479 -0.2112664411 0.2127015371
375297750.0 -0.2006372716 0.2096243611 0.3024051111 -0.3063374375 0.3023491067 -0.3065215215 -0.2089215438 0.2150201258
380297720.0 -0.1986708719 0.2118104306 0.2991983695 -0.309659996 0.2989189724 -0.3099354021 -0.2065515309 0.2175527296
385297690.0 -0.1964786922 0.2141627895 0.2952788613 -0.3128715553 0.2956074342 -0.3136474337 -0.2046641861 0.2201596568
390297660.0 -0.193951228 0.2161073631 0.2917057275 -0.3157387345 0.2920521646 -0.3162283511 -0.202126977 0.2220594353
395297630.0 -0.1921452381 0.2184422986 0.288633472 -0.3191597557 0.2885550305 -0.3190322937 -0.199954389 0.2241446305
400297600.0 -0.1899925986 0.2209272571 0.2850333388 -0.3225417314 0.2853577079 -0.3225327657 -0.1974451754 0.2268636352
405297570.0 -0.187946031 0.2224391629 0.281435551 -0.3254193862 0.2816828651 -0.325473903 -0.194945471 0.2288597451
410297540.0 -0.1855172995 0.2246947123 0.277999834 -0.3284881151 0.2778280531 -0.3287734525 -0.1925695268 0.2314511459
415297510.0 -0.1839237446 0.2266078226 0.2744631279 -0.3317430859 0.2743156451 -0.3318993765 -0.1900696044 0.2331062766
420297480.0 -0.1812695371 0.2286170856 0.2706167134 -0.3346234525 0.2708445466 -0.3347915699 -0.1876203892 0.2358292292
425297450.0 -0.1785557445 0.2307585981 0.2669944238 -0.337680445 0.2668636355 -0.3377489021 -0.1856175257 0.2377289237
430297420.0 -0.1766384144 0.2327330361 0.2636213059 -0.3404879554 0.2630834428 -0.3403498083 -0.1826395136 0.2400542609
435297390.0 -0.1738886692 0.2348279661 0.2592171237 -0.3438256855 0.2594898192 -0.3432685421 -0.1808410573 0.2424133613
440297360.0 -0.1716888334 0.236444364 0.2555785768 -0.3461783971 0.2555228191 -0.3462012833 -0.1781663119 0.2442102012
445297330.0 -0.1691099789 0.2379340501 0.2518270624 -0.3484518161 0.2517701335 -0.3492333779 -0.1752743578 0.2462779952
450297300.0 -0.1666262274 0.2405633106 0.2478123331 -0.3514300351 0.2482179116 -0.3515067523 -0.1727344665 0.248103372
455297270.0 -0.1644694819 0.2422207083 0.2444027324 -0.3542896572 0.2443389513 -0.354556193 -0.1704574231 0.2503001287
460297240.0 -0.1614855432 0.2440352821 0.2403025887 -0.3573462827 0.2399589264 -0.3571069045 -0.1676331015 0.2520793655
465297210.0 -0.159140871 0.2455786283 0.2361487496 -0.3596044555 0.2355624229 -0.3599237487 -0.1646634083 0.2545315617
470297180.0 -0.1565719456 0.2475366014 0.2321005767 -0.3620994071 0.2323769594 -0.3619649044 -0.1620407717 0.255836083
475297150.0 -0.1538628036 0.2496888653 0.2279589843 -0.3647597965 0.2285160054 -0.3648281102 -0.1597277044 0.2580789348
480297120.0 -0.1509780834 0.251412073 0.2243762428 -0.3672250212 0.2243860666 -0.3670581373 -0.1571221078 0.2598958732
485297090.0 -0.1482756045 0.25267701 0.2200232412 -0.3693515443 0.22013692 -0.3697107997 -0.1543966096 0.2618212512
490297060.0 -0.1453322716 0.2546795066 0.215811794 -0.3719463308 0.2161358339 -0.3720010629 -0.1515782704 0.2633137022
495297030.0 -0.1428705637 0.2558371832 0.2118500783 -0.3740127956 0.212015759 -0.3741132446 -0.148644791 0.2649175736
500297000.0 -0.1404938827 0.2577735551 0.2080699207 -0.3765300506 0.2079395389 -0.3766654403 -0.1456599768 0.2666611759
505296970.0 -0.1371330063 0.259189514 0.2035534259 -0.3787656414 0.2037042983 -0.3786762006 -0.142746573 0.2679820362
510296940.0 -0.1345549338 0.2608926548 0.1996332193 -0.3810768344 0.1996644711 -0.3812897654 -0.139619641 0.2705604046
515296910.0 -0.1320912297 0.2627532105 0.1952788017 -0.3830479573 0.1951723726 -0.3826895169 -0.1375645724 0.2713197252
520296880.0 -0.1287631324 0.2642156122 0.1911487038 -0.3850778006 0.1912130494 -0.3852474461 -0.1344790027 0.2739468295
525296850.0 -0.1263521003 0.2654884921 0.1868132656 -0.3870829053 0.1865972885 -0.387136293 -0.1311501058 0.2749367924
530296820.0 -0.1235609311 0.267064933 0.1825682796 -0.3892845745 0.1823802155 -0.388876157 -0.1283389493 0.276019512
535296790.0 -0.1199615913 0.2683072673 0.1779645803 -0.3907343758 0.1784481665 -0.3913651068 -0.1255021804 0.2781070144
540296760.0 -0.1174360034 0.2700716943 0.1739766896 -0.3930315947 0.1741486686 -0.3926739284 -0.1226752957 0.278975564
545296730.0 -0.1146832184 0.2717155803 0.1696328787 -0.3943610458 0.169560007 -0.3943934655 -0.1193432235 0.2807660219
550296700.0 -0.1113008131 0.2730558369 0.1653880326 -0.3966889072 0.1650884459 -0.3968080089 -0.116561063 0.281897837
555296670.0 -0.1084778237 0.2740384605 0.1609281226 -0.3980948644 0.1607548694 -0.3984469526 -0.1135002167 0.2831620158
560296640.0 -0.1049433488 0.2754904144 0.1561534897 -0.4000068237 0.1566446576 -0.4000609534 -0.1107143735 0.2848717003
565296610.0 -0.1025668869 0.2766533678 0.1524451646 -0.4014876722 0.1521033144 -0.4013538382 -0.1073279989 0.2862587974
570296580.0 -0.0995004806 0.2782970178 0.1474914568 -0.4031206736 0.1478329034 -0.4033895763 -0.104619167 0.2872862277
575296550.0 -0.0961192339 0.2791443975 0.14325654 -0.404776791 0.1431664935 -0.4045718403 -0.101357662 0.2883266614
580296520.0 -0.0932128756 0.2808042378 0.1389721144 -0.4064174186 0.1389099399 -0.4063842106 -0.0988600426 0.2896608919
585296490.0 -0.0900974548 0.2817333375 0.1345749421 -0.4075569314 0.1341825564 -0.4075221863 -0.0952659826 0.291083838
590296460.0 -0.0865389644 0.2830244864 0.1298379131 -0.4089881437 0.1299200516 -0.4092623431 -0.0926443894 0.2919087051
595296430.0 -0.0839015665 0.2842424522 0.1254508385 -0.4103234924 0.1250903936 -0.4104000156 -0.0892402772 0.2931968987
600296400.0 -0.0805085502 0.2849996504 0.1205732081 -0.4114642317 0.1208805778 -0.411648926 -0.0862768411 0.2938385129
605296370.0 -0.0780682605 0.2862147369 0.1168046789 -0.4128444156 0.1162337859 -0.4131831435 -0.0829113998 0.2953506787
610296340.0 -0.0744407385 0.2875621118 0.1119337412 -0.4137413734 0.1123599176 -0.4140510316 -0.0804077575 0.296216257
615296310.0 -0.0713095604 0.2884144414 0.1076089843 -0.4154154268 0.1070727353 -0.4155115543 -0.0764790985 0.2975722426
620296280.0 -0.068393944 0.2896781782 0.1027033095 -0.4161696461 0.1027864902 -0.4168185412 -0.0741407527 0.2984950083
625296250.0 -0.0656247457 0.2901066256 0.0984503625 -0.4172654486 0.0982812204 -0.4175983716 -0.0707490548 0.2990319427
630296220.0 -0.0621782195 0.2916323752 0.0937442695 -0.4186192844 0.0933096635 -0.4186879179 -0.0669240011 0.2999875284
635296190.0 -0.0593954901 0.2925115735 0.0893667251 -0.4192789561 0.0889416242 -0.4194897066 -0.0640740455 0.3010217791
640296160.0 -0.0559993099 0.2932199336 0.0845885475 -0.4204519532 0.0847740611 -0.420612333 -0.0611468299 0.3016988203
645296130.0 -0.0526444122 0.294370661 0.0800380856 -0.4210903355 0.0798978512 -0.4208545793 -0.0578967917 0.3021889297
650296100.0 -0.0495725063 0.294852328 0.0754549663 -0.4218921004 0.0754152229 -0.4219732706 -0.0544511573 0.3029280206
655296070.0 -0.0466015632 0.2958399087 0.0709716937 -0.4227783371 0.0706840558 -0.4227842387 -0.0518758588 0.303806454
660296040.0 -0.0435860596 0.2964902343 0.0666502069 -0.4234297342 0.0661624128 -0.4237933985 -0.0483693704 0.304263198
665296010.0 -0.0403245087 0.2973831234 0.0615338363 -0.4238294248 0.0612786228 -0.4240770437 -0.0449450728 0.3052406826
670295980.0 -0.037187333 0.297972454 0.0569598152 -0.4245589579 0.0569284295 -0.4242932001 -0.0420911971 0.3056697705
675295950.0 -0.0338881124 0.2985729066 0.0524553142 -0.4247498815 0.0526045185 -0.4254829633 -0.0387460115 0.3062644413
680295920.0 -0.0315255786 0.2995308791 0.0478522883 -0.4255594102 0.0478323171 -0.4256192629 -0.035528322 0.3067537357
685295890.0 -0.0278743715 0.3003099132 0.0433924983 -0.4264759657 0.0430276846 -0.4262081048 -0.0324169988 0.3074912204
690295860.0 -0.0247364711 0.3007059902 0.0385979407 -0.4266670749 0.0384021599 -0.4266418986 -0.0291374788 0.3076598981
695295830.0 -0.0214398433 0.3010430486 0.0343485549 -0.4267859305 0.0337341787 -0.4269054543 -0.025584611 0.3085127571
700295800.0 -0.0184961496 0.3017261138 0.0297608305 -0.4270938247 0.0297890784 -0.4271630044 -0.0224594285 0.3086719371
705295770.0 -0.0154652003 0.3020815237 0.0246077958 -0.4277018451 0.0244595578 -0.4273589798 -0.0191099425 0.3093984886
710295740.0 -0.0128573926 0.3023742218 0.0205113413 -0.4275498172 0.0201645615 -0.428044004 -0.0161165201 0.3097292222
715295710.0 -0.0090903992 0.3030819575 0.0156726983 -0.4280310333 0.0152477768 -0.4280095949 -0.0129240776 0.3095906535
720295680.0 -0.005610022 0.3029341687 0.0108919057 -0.4277768188 0.0106843467 -0.4278530658 -0.0093486133 0.310111977
725295650.0 -0.003396519 0.3036534951 0.0070202029 -0.4279175115 0.0062912424 -0.4279228346 -0.0062909234 0.3105043366
730295620.0 -0.0004665059 0.3039506463 0.0018859241 -0.4279568578 0.0014895339 -0.4277605225 -0.0034528217 0.3109558024
735295590.0 0.0031143931 0.3043298159 -0.0030224508 -0.4279269164 -0.0029772148 -0.4281319779 0.0001097202 0.3105926979
740295560.0 0.0057593009 0.3039658165 -0.0072694638 -0.4279559196 -0.0072748806 -0.4281941254 0.0031576041 0.3110554893
745295530.0 0.0090426054 0.3044905682 -0.0119668264 -0.4274260495 -0.0113729593 -0.4274977401 0.0063338185 0.3109430234
750295500.0 0.0121944025 0.3049604204 -0.0164513531 -0.4275651499 -0.0167326214 -0.4274693042 0.0096518133 0.310977671
755295470.0 0.015140668 0.3047929936 -0.0210555049 -0.4274791765 -0.0210702273 -0.4276518673 0.0128540027 0.3111994624
760295440.0 0.0183533422 0.3053695991 -0.0261827267 -0.4269834806 -0.0261085115 -0.4267737454 0.016372147 0.3106575916
765295410.0 0.0215117638 0.3048039719 -0.0302324392 -0.4264460409 -0.0303307691 -0.4266546299 0.019817304 0.3112373329
770295380.0 0.0243769799 0.3051842131 -0.0345812018 -0.4259318911 -0.0349323686 -0.4262801151 0.0226365472 0.3109524606
775295350.0 0.0277449779 0.3052088509 -0.0396313687 -0.4260726936 -0.0397883046 -0.4258355713 0.0259296323 0.3109181327
780295320.0 0.0306776208 0.3049664503 -0.043810185 -0.4252728804 -0.0442705313 -0.4253556615 0.0295758634 0.310793579
785295290.0 0.0337997358 0.3047155038 -0.0486502966 -0.4248383147 -0.0488452123 -0.4251002606 0.0324639391 0.3109889954
790295260.0 0.036729799 0.3044572821 -0.0530955932 -0.4242083039 -0.0528266368 -0.4247597516 0.0355599602 0.3108672975
795295230.0 0.0395140904 0.3044587604 -0.0577689094 -0.4240472018 -0.0580366369 -0.424018872 0.0390840327 0.3098732248
800295200.0 0.0424855567 0.3044461292 -0.0617649126 -0.422661057 -0.0623310646 -0.4233613358 0.0417957398 0.3097754263
805295170.0 0.045624752 0.3042032691 -0.0667227078 -0.4218882641 -0.0667390626 -0.4223841018 0.0455910818 0.3095349056
810295140.0 0.0489189787 0.3039770857 -0.0713892058 -0.4212737067 -0.0714262637 -0.4216109645 0.0487462037 0.3090957555
815295110.0 0.0513095062 0.3036836084 -0.07574358 -0.4209187728 -0.0757751226 -0.4209610799 0.0518567884 0.3088483119
820295080.0 0.0546849255 0.3031993289 -0.0796892459 -0.4197774567 -0.0802187175 -0.4199383542 0.0544948971 0.3087835663
825295050.0 0.0576754144 0.302683229 -0.0848577041 -0.4190869938 -0.0850429236 -0.4191866536 0.0584691467 0.3085682374
830295020.0 0.0609291953 0.3021905455 -0.0895430423 -0.4181618926 -0.0896844032 -0.4179486868 0.0614609151 0.3074439144
