!Created with skrf (http://scikit-rf.org).
# Hz S RI R 50.0 
!freq ReS11 ImS11 ReS21 ImS21 ReS12 ImS12 ReS22 ImS22
300000.0 -0.7767377737 -0.1052744509 -0.0014112041 0.0007457839 0.0017067409 0.0008083438 -0.2136160113 -0.0848849619
5299970.0 -0.7852844336 -0.0064846302 0.0002776578 -7.43984e-05 -0.0002292071 -3.03694e-05 -0.2148300179 0.0080562718
10299940.0 -0.788031567 -0.004211043 6.1667e-05 0.0002012317 -0.0001910939 7.38014e-05 -0.2110637768 0.021648596
15299910.0 -0.7937292644 -0.0025638588 0.0001651223 0.0001143324 1.74718e-05 0.0001297146 -0.2059444036 0.0311607754
20299880.0 -0.7998655196 0.0020352079 0.0001772253 -8.85721e-05 0.0001719209 -0.0001678726 -0.2001083147 0.0390230933
25299850.0 -0.8064585162 0.0078385987 0.0001290188 -0.0001753512 -3.67025e-05 -1.46122e-05 -0.1935343213 0.0453959433
30299820.0 -0.812322719 0.0151429372 -7.6121e-06 2.25494e-05 4.97378e-05 4.64806e-05 -0.18725343 0.050776098
35299790.0 -0.8170408459 0.0240184482 -4.98895e-05 0.000124864 5.60841e-05 0.0002619281 -0.181007019 0.0547880129
40299760.0 -0.821609702 0.0336303795 0.0001039193 -5.4877e-06 -2.10609e-05 -9.66379e-05 -0.1750607021 0.0572432729
45299730.0 -0.8246681032 0.0428961356 0.0001346309 -9.04377e-05 -3.49629e-05 -0.0001001469 -0.1692884821 0.0599085078
50299700.0 -0.827202271 0.05279655 2.3061e-05 5.83862e-05 -2.1252e-06 0.000221897 -0.1640173 0.0609598027
55299670.0 -0.8292769587 0.0629917497 0.0001283424 -0.0001086562 7.088e-07 6.7177e-05 -0.1595104503 0.0619107541
60299640.0 -0.830383228 0.0734749667 9.8199e-06 4.95749e-05 0.0001470276 0.000114768 -0.1547962618 0.0624183506
65299610.0 -0.8311843793 0.0833577688 -3.2045e-05 8.62538e-05 2.43756e-05 0.0001218749 -0.1514023029 0.0624607688
70299580.0 -0.8318100635 0.0930400103 0.0001121822 -3.2764e-05 0.0001078052 -0.0002076339 -0.14778468 0.0629021104
75299550.0 -0.8322516734 0.1038630567 0.0001817373 0.0001690948 -0.0001250476 -6.2717e-05 -0.1446353641 0.0624887758
80299520.0 -0.8316599346 0.113331476 -0.0001966482 0.000101799 8.56745e-05 -7.31071e-05 -0.1418743079 0.0625379334
85299490.0 -0.8311821598 0.1226884315 -0.000401908 -6.29897e-05 0.0001436872 -0.0001381079 -0.1394688835 0.0626269125
90299460.0 -0.8300414511 0.1320684611 -2.18587e-05 -0.0001145802 0.0002066741 0.0001380499 -0.1369517761 0.0621067031
95299430.0 -0.8290375948 0.1413316438 3.01573e-05 -0.0002443327 5.37284e-05 5.29469e-05 -0.1347823787 0.0621482946
100299400.0 -0.8279897572 0.1510415905 0.0001174406 -9.91122e-05 0.0001382319 7.63046e-05 -0.1326293666 0.0615666542
105299370.0 -0.8266593344 0.1601651448 5.14958e-05 1.37377e-05 0.0001982949 -2.88324e-05 -0.1307284656 0.0613553782
110299340.0 -0.825502631 0.1691775089 -9.13062e-05 0.0001889639 -9.32745e-05 -9.66441e-05 -0.1295573735 0.0614778022
115299310.0 -0.8236016857 0.1779388987 0.0002991676 5.06008e-05 1.83232e-05 0.0001531512 -0.1280677834 0.0614052958
120299280.0 -0.8220233466 0.1868403919 0.000121113 -0.0001220027 -5.14149e-05 0.0001332659 -0.1267454332 0.0614696748
125299250.0 -0.8201726903 0.1953854168 -0.0001415773 0.0001491559 0.000294306 9.54272e-05 -0.1254514467 0.0608476663
130299220.0 -0.818551501 0.2053522304 -0.0001307502 -2.88121e-05 -1.64881e-05 0.0001481389 -0.1243568852 0.0607592052
135299190.0 -0.8166622969 0.2138430884 -0.0002258186 -9.94176e-05 -0.0001356596 -2.52779e-05 -0.1232238025 0.0608617036
140299160.0 -0.8148937676 0.2231708966 -4.55821e-05 9.58282e-05 -2.63994e-05 5.98239e-05 -0.1221499402 0.0614014025
145299130.0 -0.8127785177 0.2324080658 1.40586e-05 0.0001378866 0.000167124 6.98508e-05 -0.1217832399 0.0613192385
150299100.0 -0.8100376937 0.2406763398 -0.0001734483 -0.0001733102 3.47507e-05 0.0001255502 -0.1210848489 0.0623435787
155299070.0 -0.8074894176 0.2491035979 -6.24234e-05 -7.78631e-05 0.0001709691 -1.41338e-05 -0.1197181401 0.0621445997
160299040.0 -0.8052015449 0.2579850098 0.0002183913 2.30185e-05 -0.0001172155 -0.0001112246 -0.1198827954 0.0624848684
165299010.0 -0.8030677326 0.2667133662 7.13323e-05 -6.94656e-05 -3.66987e-05 2.57057e-05 -0.1187201162 0.0631060886
170298980.0 -0.7997796456 0.2750066888 0.0002439063 1.8496e-06 -0.0002401701 -5.1846e-06 -0.1179703351 0.0632832421
175298950.0 -0.7975219922 0.2839974711 -0.0001402395 0.0004524351 0.0001070594 7.10047e-05 -0.1179385479 0.0640584234
180298920.0 -0.7943891614 0.2926264355 8.93685e-05 -5.6231e-06 4.8303e-06 3.42997e-05 -0.1171281899 0.0643769653
185298890.0 -0.7912330108 0.3007031522 5.95814e-05 0.0001084443 -2.7446e-06 0.0003607708 -0.1164732668 0.0648607812
190298860.0 -0.7883833781 0.3096721255 -5.03079e-05 0.0002724349 -2.6401e-06 9.90115e-05 -0.1160114167 0.0657660544
195298830.0 -0.785353312 0.3179972861 9.43271e-05 0.0001917782 0.0002200063 7.43375e-05 -0.1156287328 0.0662065929
200298800.0 -0.7812986157 0.325778813 0.0001794087 0.0001449048 0.0002310371 -8.4087e-06 -0.1153349709 0.066458908
205298770.0 -0.7788986776 0.3339201206 0.0001510258 0.0001107868 -5.48867e-05 0.0001591485 -0.1148855923 0.0672496256
210298740.0 -0.7753116117 0.3418453685 -0.0001206372 7.09733e-05 0.0001226686 7.42458e-05 -0.1141087936 0.0682247096
215298710.0 -0.7717209305 0.3506620947 0.00012829 -4.7115e-05 1.75522e-05 -7.33281e-05 -0.1139835843 0.0688319789
220298680.0 -0.7678343385 0.358343368 3.42159e-05 7.72774e-05 -3.3905e-05 0.0001912253 -0.1138600396 0.06931624
225298650.0 -0.7644467153 0.3664529599 -8.7112e-06 2.00636e-05 0.0001080494 0.000215991 -0.113301733 0.0700836478
230298620.0 -0.760365083 0.3744661048 0.0002355888 0.0002129121 5.13265e-05 -0.0002027612 -0.1128465893 0.0709065223
235298590.0 -0.7561208451 0.3830008278 -3.04923e-05 0.0001547189 7.57697e-05 0.0001822404 -0.1126048954 0.071641465
240298560.0 -0.7523395314 0.3911352732 6.09974e-05 0.0002044246 0.0001106887 -8.06415e-05 -0.1120529194 0.0725952164
245298530.0 -0.7488120071 0.3987786239 0.0001717177 -0.000123659 6.32999e-05 4.2325e-06 -0.1115348632 0.0729222853
250298500.0 -0.7442792326 0.4066480255 0.0003031086 0.0001336343 -0.0001159914 -7.66706e-05 -0.1114847366 0.0736933014
255298470.0 -0.7396323896 0.4135611633 -0.0001037857 9.23456e-05 -5.10619e-05 0.0001199096 -0.1106776623 0.0742340785
260298440.0 -0.7357378057 0.4221671941 -9.29383e-05 0.0002706043 0.0001436801 -8.49906e-05 -0.1099830324 0.0754654568
265298410.0 -0.7317355913 0.4297754949 9.5872e-06 -3.739e-05 0.0001829797 5.61232e-05 -0.1093615517 0.0767871346
270298380.0 -0.7268246084 0.4372873751 6.56046e-05 0.000216451 0.000231943 0.0001603652 -0.1092221381 0.0770697248
275298350.0 -0.7219421594 0.4445390569 8.69062e-05 0.0002110688 0.0001693279 6.1678e-05 -0.1083225274 0.0783103314
280298320.0 -0.7170633066 0.4524116801 7.8568e-06 0.0001912022 0.0001739099 -5.63504e-05 -0.1076563839 0.0788096699
285298290.0 -0.7126560599 0.4600270006 8.4437e-06 0.0001311786 0.0001318879 -1.98292e-05 -0.1070681446 0.0798740376
290298260.0 -0.7080199654 0.4672063731 0.0001505098 -9.9847e-06 -0.0002046505 9.03367e-05 -0.1068493908 0.0807308564
295298230.0 -0.7028893754 0.4742173021 0.0003566652 3.64178e-05 -5.64686e-05 0.0001676257 -0.1056438004 0.0809892643
300298200.0 -0.6978748961 0.481480341 0.0001794972 0.0001004896 0.0001236862 0.0001250841 -0.1052272391 0.0825263261
305298170.0 -0.6925788507 0.4877902995 0.0001695364 -7.52271e-05 -0.0001219791 1.94985e-05 -0.1041966864 0.0831451303
310298140.0 -0.6874025434 0.4960856422 0.0003194685 0.0001659238 -5.5441e-05 2.85175e-05 -0.1040080231 0.0841153238
315298110.0 -0.682783019 0.5031017355 0.0002226533 -0.0001001469 0.0001828534 0.0001496997 -0.1034228525 0.0849238114
320298080.0 -0.6771491119 0.5102443966 0.0002636186 -7.2043e-05 -6.7092e-05 0.0002128487 -0.1026820649 0.0859295644
325298050.0 -0.6719212638 0.5177304225 6.82098e-05 3.35138e-05 0.000206458 -1.24363e-05 -0.1024223085 0.0867168072
330298020.0 -0.6667174112 0.523922158 0.0002047457 5.36682e-05 0.0001661935 -1.57527e-05 -0.1019373888 0.0880961717
335297990.0 -0.6606406062 0.5309488344 0.0001329066 5.29251e-05 0.0002077867 0.0001425077 -0.1016201523 0.0893506095
340297960.0 -0.6558818503 0.5369113459 9.69063e-05 7.20893e-05 0.000163496 2.03802e-05 -0.1002771869 0.0904563829
345297930.0 -0.6498813138 0.5447325092 0.0001575737 -9.09954e-05 8.47918e-05 0.0002070094 -0.1002328373 0.0911389889
350297900.0 -0.6443553169 0.5503970279 0.000201742 0.0002023786 -0.0001284359 0.0002494121 -0.0994259962 0.0926517751
355297870.0 -0.6383885386 0.5577953582 3.86222e-05 4.93371e-05 4.44707e-05 0.0002289456 -0.0991249192 0.0934737659
360297840.0 -0.6327853645 0.5636017784 -2.43549e-05 -0.0001137497 -9.166e-07 0.0001233985 -0.0983645244 0.0944592309
365297810.0 -0.626992743 0.5705163539 1.6074e-06 2.29841e-05 9.06482e-05 5.05296e-05 -0.0974804817 0.0953969663
370297780.0 -0.6210963997 0.576850526 0.0001603219 -6.96326e-05 0.0001392833 -8.45903e-05 -0.0964136925 0.0965392678
375297750.0 -0.6150090133 0.583260327 -5.60178e-05 -0.0003563103 0.0002185273 -0.0001664754 -0.096403059 0.0974548214
380297720.0 -0.6091136386 0.5893044555 -0.0001327162 0.0001671914 3.84431e-05 -1.86292e-05 -0.0957918529 0.0985521404
385297690.0 -0.6032019334 0.5944200521 3.3713e-05 -5.62925e-05 0.0003877696 -1.22353e-05 -0.0947683151 0.0995449183
390297660.0 -0.5965399949 0.6012160759 6.16651e-05 0.0001223334 0.0001780227 8.20075e-05 -0.0940952645 0.1004894307
395297630.0 -0.5903889966 0.6081538221 8.50306e-05 0.0001938112 5.79539e-05 1.5783e-05 -0.0931373892 0.1017151638
400297600.0 -0.5841666182 0.614065925 0.0001047042 0.000159914 0.0002114724 6.0588e-06 -0.0922416472 0.1024997655
405297570.0 -0.5780462171 0.6194978056 0.0002903958 -8.27299e-05 -1.73813e-05 -0.0001146164 -0.0918787573 0.1032885309
410297540.0 -0.5716925761 0.6250414275 0.0002146736 5.6998e-05 0.0002361341 5.38334e-05 -0.091034903 0.104691892
415297510.0 -0.5643850558 0.6311314702 1.42521e-05 -0.0001263641 0.0003462764 0.0001733889 -0.0901505447 0.1054290731
420297480.0 -0.5594387528 0.6372122361 3.93999e-05 0.0003962878 0.0001806791 0.0001339009 -0.0895023082 0.1064697434
425297450.0 -0.5521821916 0.6420848928 1.125e-07 -0.0001250388 5.0553e-05 0.0001032863 -0.0885800432 0.1073237902
430297420.0 -0.5454665532 0.6481196219 -6.34168e-05 6.02774e-05 8.62293e-05 -3.77412e-05 -0.0877652603 0.1082042066
435297390.0 -0.5386083404 0.6531885056 3.0465e-05 6.78358e-05 0.0001853607 3.61567e-05 -0.086613773 0.109057296
440297360.0 -0.5322936143 0.6586159563 -1.05286e-05 1.75446e-05 0.0001693117 -0.0001142011 -0.0856338292 0.1100813205
445297330.0 -0.5249704365 0.6644407057 -9.15466e-05 0.000264575 0.0002499312 0.0001781969 -0.084944712 0.1105031662
450297300.0 -0.5180034233 0.6690102446 0.0004397917 0.0001484932 0.0002887366 1.19153e-05 -0.0839898736 0.1119699297
455297270.0 -0.5114567752 0.6745037554 -5.49675e-05 0.0001641587 0.0002464598 0.0001470355 -0.0829870502 0.1124312155
460297240.0 -0.5051512511 0.6794923181 0.0002252521 6.07207e-05 0.000330641 0.0001944113 -0.0819335447 0.1139315587
465297210.0 -0.498238777 0.6846755767 7.81039e-05 -1.31225e-05 0.0001651342 8.44763e-05 -0.0809035204 0.1145621859
470297180.0 -0.49014415 0.6898345075 0.0002595469 0.0001109877 0.0001960018 -2.64428e-05 -0.0797218019 0.1154163488
475297150.0 -0.4838048257 0.6942573934 5.28172e-05 8.4354e-05 8.10584e-05 -1.29e-06 -0.0788143244 0.1162725047
480297120.0 -0.4769154749 0.6994947841 -5.2481e-06 0.0001306446 0.0002313858 5.64195e-05 -0.0775496944 0.1173292641
485297090.0 -0.4690676669 0.7038723055 0.0001895247 5.91292e-05 0.0001694542 -0.0001118713 -0.0765143551 0.1180767237
490297060.0 -0.462595168 0.7086070978 0.0001894888 -9.72876e-05 0.0002732948 5.32615e-05 -0.0755586904 0.1192833583
495297030.0 -0.4552663614 0.7130058052 6.09319e-05 1.37881e-05 -0.0001203316 0.000221648 -0.0744315056 0.1200472618
500297000.0 -0.4475243764 0.7177149286 0.000189489 -1.67807e-05 1.67011e-05 -5.08778e-05 -0.0734911635 0.1213389679
505296970.0 -0.4404675657 0.7226860886 0.0002015458 1.9583e-06 0.0002374142 0.0002969086 -0.0726653797 0.1220180749
510296940.0 -0.4330722173 0.7264385914 0.000285974 4.61502e-05 0.0001785973 0.0001060606 -0.071452264 0.1229572389
515296910.0 -0.4244627628 0.7302239749 0.000382002 7.95e-08 0.0002651891 0.0001206126 -0.070104919 0.1237113546
520296880.0 -0.4180441873 0.7348903771 0.0001148018 2.67618e-05 0.0002257242 0.0001934376 -0.0697414391 0.1246130681
525296850.0 -0.4107621182 0.7387685537 0.0004097651 2.77711e-05 -1.979e-06 1.81334e-05 -0.0680906259 0.1258762388
530296820.0 -0.4029538439 0.7431355975 0.0004030657 -8.6104e-05 0.000126158 7.85681e-05 -0.0668165216 0.1265170002
535296790.0 -0.3961270195 0.7474210669 0.0003162012 -2.1693e-06 0.000228819 0.0001603186 -0.0664610032 0.1272596262
540296760.0 -0.3885030049 0.7506192511 0.0001580584 4.93615e-05 0.0001803171 1.29004e-05 -0.0648340402 0.1282267959
545296730.0 -0.3808327297 0.7548112198 0.0002092349 0.0001655327 0.0001949241 -5.86531e-05 -0.0642323803 0.1288294843
550296700.0 -0.3734290595 0.7583723566 7.13395e-05 -0.000397901 0.0001078777 0.0001181787 -0.0628876025 0.1298602085
555296670.0 -0.3648595876 0.7616141981 0.0003587681 -1.85319e-05 0.0003727332 1.31126e-05 -0.0620247638 0.1310597568
560296640.0 -0.357520799 0.7659073349 0.0002891949 -7.606e-07 0.0001838881 -2.97159e-05 -0.0606759482 0.1316254452
565296610.0 -0.3500379983 0.7698200391 0.0001813526 7.01441e-05 0.0003333723 -6.66457e-05 -0.059496239 0.1319143444
570296580.0 -0.3427010844 0.7722873522 0.0001874567 3.60358e-05 0.0004485223 -6.66054e-05 -0.0586457571 0.1327563663
575296550.0 -0.3347880914 0.7769398885 0.0005938693 0.0001471974 9.73567e-05 2.538e-07 -0.0571870186 0.1338919551
580296520.0 -0.3265401655 0.7795085018 0.0002506562 0.0001777578 0.0001280934 0.0002243533 -0.0558518714 0.1341320348
585296490.0 -0.3188627849 0.7823933789 0.000348202 -1.106e-06 0.0003051651 -2.86798e-05 -0.0548090093 0.1349499903
590296460.0 -0.311005513 0.7859406852 0.0001500104 0.0002606499 0.0001910345 2.74207e-05 -0.0538464822 0.1357201231
595296430.0 -0.303164977 0.7879500729 0.0001490366 -0.0001697105 0.0003296355 1.19955e-05 -0.0524505387 0.1361673614
600296400.0 -0.295452013 0.7918936572 0.0002278345 -8.90492e-05 0.0001636858 -5.7707e-05 -0.0514281438 0.1365140126
605296370.0 -0.2876501797 0.7951200108 0.0002041266 6.0418e-05 0.0001168175 -9.38468e-05 -0.0497081775 0.137636968
610296340.0 -0.2792330234 0.7969108893 2.24333e-05 -0.0001958716 5.55284e-05 0.000141846 -0.0487127126 0.1381805779
615296310.0 -0.2706759407 0.800380673 0.0001805661 2.15451e-05 0.0002626543 0.0001236694 -0.0471405492 0.1386960992
620296280.0 -0.2629137066 0.8021457419 0.0002633651 0.0002121357 0.000155415 -2.48009e-05 -0.0460780783 0.1395559093
625296250.0 -0.255210789 0.8057598557 5.95356e-05 0.0001318364 0.000112845 6.34575e-05 -0.0444371111 0.1399481873
630296220.0 -0.2463386874 0.8082397461 0.0003013695 -0.0001689653 7.8257e-05 0.0001216759 -0.043116684 0.1406027584
635296190.0 -0.2388749005 0.8104166947 3.81658e-05 -0.0001064358 0.0002094839 -2.12671e-05 -0.0419063508 0.1408496247
640296160.0 -0.231310851 0.8123191617 3.15213e-05 0.0001432204 6.6503e-06 0.0001787065 -0.0405599025 0.1415359867
645296130.0 -0.2229417145 0.8149738868 0.0003490336 -2.11972e-05 0.0002144085 0.0001671207 -0.0391237 0.1422121163
650296100.0 -0.2148815215 0.8166201634 0.0001931864 0.0001064088 0.0001219443 1.85625e-05 -0.0380133873 0.1427503499
655296070.0 -0.2063077591 0.8188140701 0.0003826252 -0.0001208984 0.0003113535 6.27671e-05 -0.0362916074 0.1434324169
660296040.0 -0.1983357422 0.8203847242 0.0004077746 7.56539e-05 0.0001666309 0.0001767103 -0.0348977294 0.1440913425
665296010.0 -0.1895485898 0.8223161155 0.0002091025 -0.0001725258 0.0002237222 0.0001113813 -0.0337009247 0.1449884986
670295980.0 -0.1821791362 0.8246862039 0.0001559724 -9.7867e-06 0.0001656108 -5.54249e-05 -0.0324797694 0.1454284669
675295950.0 -0.1735083499 0.826199662 0.0002378024 1.8333e-06 0.0001474524 -6.8501e-06 -0.0313920418 0.1458848101
680295920.0 -0.1651486509 0.828195741 0.0003834151 -0.0001578335 0.0001432108 0.0002414906 -0.0298790842 0.1465861938
685295890.0 -0.1568099254 0.8304732552 0.0003404026 -8.33183e-05 0.0001051419 3.28388e-05 -0.0280898123 0.147208164
690295860.0 -0.1488755205 0.8309112222 4.76267e-05 -1.69123e-05 0.0002750529 -0.0001324718 -0.0269482232 0.1478883372
695295830.0 -0.140612778 0.8322130461 0.0002182873 -0.0001422062 0.0004277712 8.28212e-05 -0.0253965292 0.1481647791
700295800.0 -0.1321629676 0.8340652431 0.0003250138 -9.80579e-05 0.0002651718 -0.0002210054 -0.0245468864 0.1488509599
705295770.0 -0.1245008691 0.8349211664 0.0001794643 -0.0004601038 9.69542e-05 -5.00524e-05 -0.0228667385 0.1497808055
710295740.0 -0.1158474526 0.8365322138 0.0004195766 0.000167545 4.7321e-05 -0.0001063936 -0.0216353115 0.1494799809
715295710.0 -0.1079320787 0.8375566466 0.0002087116 1.51494e-05 0.000160667 6.60753e-05 -0.0201668994 0.1499564562
720295680.0 -0.0991808777 0.8390329893 0.0002912499 0.0002720975 0.0001137121 -1.31405e-05 -0.0187364917 0.1506489831
725295650.0 -0.0908883153 0.8396263155 0.0003749772 9.28256e-05 0.0001328331 -0.0001121712 -0.0176964116 0.1510949546
730295620.0 -0.0824087297 0.8406437298 5.84741e-05 -9.20596e-05 0.0002749761 -0.0001718032 -0.0162859885 0.1513653877
735295590.0 -0.0744934706 0.8418437364 4.02367e-05 -0.0001057865 0.0003306017 -0.0001476253 -0.0153218915 0.1512619555
740295560.0 -0.0663743241 0.8423284221 0.0001627854 -0.0001987022 0.0001983205 9.80792e-05 -0.0134207042 0.1519536146
745295530.0 -0.0578460686 0.8428476234 8.87347e-05 -0.0001031399 0.0002170249 -1.75056e-05 -0.0119381949 0.1521086218
750295500.0 -0.0489642889 0.8426851921 0.0001112868 -0.0001541337 -0.0001037074 -0.0002044713 -0.0105447677 0.1526397162
755295470.0 -0.0405469644 0.8434899023 3.58705e-05 -5.9309e-06 0.0002004573 -8.6681e-06 -0.0092514405 0.1524007078
760295440.0 -0.0327974675 0.8429833685 0.0002066278 -7.52398e-05 0.0002914863 3.93749e-05 -0.0077627614 0.1526154244
765295410.0 -0.0246779362 0.8442106881 0.0003534659 -3.19246e-05 0.0002449206 -4.25406e-05 -0.0061807849 0.1532040062
770295380.0 -0.016049546 0.8442199461 0.000173467 0.0001141978 0.0002016744 -0.0001437732 -0.005221279 0.1533153048
775295350.0 -0.0078746084 0.8442442893 0.0002559612 0.0003355705 0.0002644851 1.1719e-05 -0.0037448089 0.1534680127
780295320.0 0.0011038097 0.8437825955 0.0004756285 -0.0001639308 0.0002169563 3.11142e-05 -0.0022705747 0.1536532276
785295290.0 0.0085919146 0.8440406193 0.0003791242 -3.93876e-05 -0.0001196573 -1.50527e-05 -0.0005253248 0.1539238519
790295260.0 0.017778937 0.8440666965 0.000386099 -6.5382e-05 0.0002884943 0.000139816 0.0013703194 0.1543038685
795295230.0 0.0253010929 0.8442771735 0.0003974419 5.09788e-05 0.0003835546 -2.37959e-05 0.0025551132 0.154392011
800295200.0 0.0340198931 0.8432414344 0.0001725929 -7.74862e-05 0.0002518155 4.63349e-05 0.0045702214 0.1545821032
805295170.0 0.0427372408 0.8431581039 2.73727e-05 -6.2193e-05 0.0001149188 5.0135e-06 0.0053759168 0.1548609608
810295140.0 0.0510811374 0.8427630563 -1.70067e-05 0.0002249465 0.000157073 -5.89855e-05 0.0074059003 0.1548162687
815295110.0 0.0590838513 0.8418751121 0.000261554 -0.0001252234 0.0002204337 -9.35949e-05 0.0088267495 0.1550748136
820295080.0 0.0668035774 0.8417681791 0.0002699126 -4.66257e-05 0.0001289423 -5.81463e-05 0.0104928519 0.1551943513
825295050.0 0.0765461667 0.8400367287 0.000267291 -5.66258e-05 0.0001940138 2.23443e-05 0.0116722118 0.1554963606
830295020.0 0.0841227456 0.8398999957 0.0001402497 -1.72052e-05 0.0003030066 -0.0002699883 0.0136628088 0.1551726096
835294990.0 0.0916799929 0.8393809245 6.62748e-05 9.81367e-05 4.72186e-05 -3.96701e-05 0.0149821741 0.1557709809
840294960.0 0.0998558911 0.8383044995 0.0002861168 -2.64687e-05 0.0001938158 -0.0002712867 0.0163635228 0.1558023757
845294930.0 0.1081989189 0.8365452088 0.0003784625 3.2154e-05 0.0003183877 9.30394e-05 0.0176895374 0.1555344685
850294900.0 0.1163700882 0.8364130448 0.0004395563 -6.64031e-05 0.0001677481 -1.54928e-05 0.0193182937 0.155970544
