!Created with skrf (http://scikit-rf.org).
# Hz S RI R 50.0 
!freq ReS11 ImS11 ReS21 ImS21 ReS12 ImS12 ReS22 ImS22
300000.0 -0.0962954223 -0.0841177956 0.6214233906 0.0793366186 0.6234907984 0.0841565146 -0.0948965319 -0.0925461128
5299970.0 -0.1003950195 0.0128555719 0.6306033176 0.0103127464 0.6307069068 0.0111174797 -0.1022251466 0.0118059833
10299940.0 -0.0954206786 0.0299586283 0.6344346495 0.0154787133 0.634557414 0.016148127 -0.0971982744 0.028837132
15299910.0 -0.0884418467 0.0432051628 0.6406327468 0.0205662783 0.6403343627 0.0209398093 -0.0901281941 0.0419563826
20299880.0 -0.0794792286 0.0544159363 0.6487967464 0.0242664779 0.6485711203 0.023933212 -0.0818744589 0.0535330506
25299850.0 -0.0696730525 0.0627344381 0.6581294272 0.024974016 0.6578654141 0.025321241 -0.0725892381 0.0620771948
30299820.0 -0.0596167675 0.0690106337 0.6679737905 0.0245225604 0.6673949245 0.024794785 -0.0625022284 0.068943462
35299790.0 -0.0495159652 0.0743047686 0.6772205692 0.021533359 0.6776166699 0.0219641118 -0.0526074552 0.0732896457
40299760.0 -0.0396615969 0.076908628 0.6867620597 0.0179187347 0.6864482544 0.0176199681 -0.0433969997 0.0770589266
45299730.0 -0.0302789356 0.0793384745 0.695572709 0.0108840044 0.6959952189 0.0118410746 -0.0340200485 0.0793611868
50299700.0 -0.0218009845 0.0797820892 0.7031437911 0.0048791147 0.7034978143 0.0048307544 -0.0255157053 0.0799905123
55299670.0 -0.0142176819 0.0800691489 0.7105898068 -0.0027769064 0.7110910424 -0.0023326367 -0.0179338506 0.079885372
60299640.0 -0.0067184504 0.0787829833 0.7174600473 -0.0113229668 0.717326812 -0.0117443706 -0.0102519623 0.0797694437
65299610.0 -0.0002524294 0.0778927252 0.7234604249 -0.0195831214 0.7243138786 -0.0198857052 -0.0035193551 0.0784090182
70299580.0 0.0060933457 0.0758378867 0.7287713097 -0.028994817 0.7287582545 -0.0290888397 0.0025104107 0.0771996156
75299550.0 0.0117162506 0.0742850071 0.733104638 -0.0387622676 0.7329490872 -0.0389996111 0.008176422 0.0758786142
80299520.0 0.0162446797 0.0720481409 0.7373815092 -0.0489902463 0.7376574304 -0.0486992987 0.0132244543 0.0727733304
85299490.0 0.0208759423 0.0694134982 0.740885736 -0.0588339379 0.7405832663 -0.0586346186 0.0173501535 0.0708735688
90299460.0 0.0245738481 0.0672689169 0.7434332488 -0.068528321 0.7438384396 -0.0687391554 0.0222096775 0.0688849723
95299430.0 0.0281857207 0.0650969534 0.7461162466 -0.0795926954 0.7459971155 -0.0790739449 0.0255019481 0.0663074081
100299400.0 0.0315988956 0.0628403847 0.747592375 -0.0891974859 0.747730862 -0.0890794308 0.028529813 0.0638990147
105299370.0 0.0345690666 0.0602179596 0.7489960751 -0.0992499256 0.7490809486 -0.0994553253 0.031907729 0.0620016086
110299340.0 0.0370824478 0.0577804945 0.7500255938 -0.1088235318 0.7503085254 -0.1099072643 0.0347933586 0.0590835923
115299310.0 0.0396103442 0.0549951002 0.7506881105 -0.1190231444 0.7513660765 -0.1190554762 0.0372654898 0.0562867846
120299280.0 0.0415116987 0.0528753486 0.7515123807 -0.1291532776 0.7515113397 -0.1296819023 0.0389033773 0.0542798749
125299250.0 0.0432607643 0.0503358948 0.752140919 -0.1390394383 0.7520502297 -0.1392145154 0.0413190902 0.051277177
130299220.0 0.0449266477 0.047896016 0.7514576305 -0.1488354899 0.7518811808 -0.1491644557 0.0434789472 0.0493047918
135299190.0 0.0469429439 0.0454080095 0.7510232187 -0.1585455233 0.7509189311 -0.1586833884 0.0445908134 0.0474513953
140299160.0 0.0477110385 0.0440689794 0.750776157 -0.168799885 0.7510401381 -0.1689809224 0.0462642176 0.0455003745
145299130.0 0.0491815232 0.041974952 0.7502074348 -0.178703849 0.7501985547 -0.1783396974 0.0473844062 0.0429650978
150299100.0 0.050601723 0.0398431096 0.7490205098 -0.1882088552 0.7491703851 -0.188067404 0.0485378422 0.0408746917
155299070.0 0.0514370433 0.0383111118 0.7481126444 -0.198170236 0.7480557831 -0.1980529809 0.0494455466 0.0387341687
160299040.0 0.052397161 0.035888388 0.7460609612 -0.2065025164 0.7465292685 -0.2073867617 0.0509820731 0.0371299294
165299010.0 0.0527962625 0.0341631493 0.7455211812 -0.2163876369 0.7447450467 -0.2169529902 0.0514704474 0.0350088875
170298980.0 0.0534854852 0.0326464803 0.7421510191 -0.2264034591 0.7432895894 -0.2263105452 0.0529865788 0.0328756942
175298950.0 0.0545334869 0.0305134564 0.7413493824 -0.2353829436 0.7414435233 -0.235739813 0.0534753073 0.0314601247
180298920.0 0.0553669856 0.0290911267 0.7393386219 -0.2448617355 0.7392456407 -0.2441661698 0.053747269 0.0298816029
185298890.0 0.0559699323 0.0272736883 0.7371657141 -0.2540302207 0.7370089564 -0.2535153945 0.0540508867 0.0278886646
190298860.0 0.0563656742 0.0258264666 0.7342475887 -0.262873024 0.7347663436 -0.2629580203 0.055471216 0.0262230736
195298830.0 0.0565120307 0.024115605 0.7321260014 -0.2713424864 0.7320178923 -0.2722776496 0.0559883004 0.0242963067
200298800.0 0.0570727 0.0229010374 0.7297871424 -0.2801026061 0.7291585552 -0.2802015986 0.0561862825 0.023442178
205298770.0 0.0570143344 0.0214592714 0.7267200808 -0.289035929 0.7270717856 -0.2895675967 0.0564173705 0.0206565465
210298740.0 0.0570344029 0.0196447915 0.7238315391 -0.2986470617 0.7238497095 -0.2987825684 0.056909928 0.0199889243
215298710.0 0.0580411828 0.0188496294 0.7207814033 -0.3073590224 0.7210554656 -0.3071217283 0.0570696315 0.0184096631
220298680.0 0.0582831168 0.0174414098 0.7171824979 -0.3159163143 0.7174297727 -0.3157484712 0.0574588414 0.0175522996
225298650.0 0.0587666259 0.0161163484 0.7140177985 -0.3234934052 0.7139985015 -0.3241068677 0.0575283713 0.0155550314
230298620.0 0.0581767793 0.0146838257 0.7109469922 -0.332714751 0.7110794323 -0.3325785739 0.0579166182 0.0145087048
235298590.0 0.0585689857 0.013364317 0.7073027819 -0.3408942736 0.7076331462 -0.3413958235 0.0581407156 0.0128031519
240298560.0 0.0583250618 0.0119068641 0.7037242857 -0.3493403276 0.7042425531 -0.3492436733 0.0583275284 0.0117185995
245298530.0 0.0587999893 0.0112361902 0.6990052918 -0.3574803636 0.699537556 -0.3577303032 0.058427397 0.0106164094
250298500.0 0.0585717492 0.0099073862 0.6960937647 -0.3656948135 0.6963015534 -0.3654541861 0.0586361894 0.0090542467
255298470.0 0.0582296927 0.0090186378 0.6914213209 -0.3743937828 0.692287989 -0.3741389983 0.0589971613 0.0076414715
260298440.0 0.0585034151 0.0078528822 0.68811229 -0.3817155455 0.6885159909 -0.382416971 0.0594606208 0.0070610022
265298410.0 0.0589886444 0.0070349074 0.6841728065 -0.3904142536 0.6836609169 -0.3908029862 0.0589877927 0.0056913457
270298380.0 0.0591829149 0.0055937229 0.6795449512 -0.3984560624 0.6799831672 -0.3980704058 0.0590529132 0.005246358
275298350.0 0.0586159514 0.0048201345 0.6755895491 -0.4067898905 0.6755543691 -0.4065269286 0.058815131 0.0040054709
280298320.0 0.0587986809 0.0040527528 0.6710416531 -0.4137546182 0.6711511026 -0.4143731828 0.0594154835 0.003203231
285298290.0 0.0590587025 0.0031252388 0.6663934997 -0.4217352484 0.6665427886 -0.4219152561 0.0587449046 0.0018111268
290298260.0 0.0587613229 0.001750999 0.6624269946 -0.4296024254 0.6623557615 -0.4291253257 0.0595807472 0.0007732244
295298230.0 0.0585194763 0.0007339184 0.6578049876 -0.4371184482 0.6578397585 -0.4375521813 0.0598757031 5.43186e-05
300298200.0 0.0593547089 8.87973e-05 0.6524879397 -0.4450788152 0.6534119239 -0.4449113549 0.0593800778 -0.0011774972
305298170.0 0.0589683513 -0.0013697677 0.6481048072 -0.452684271 0.6489553565 -0.4527567662 0.0598495457 -0.0020477655
310298140.0 0.0594305124 -0.002434271 0.6436943854 -0.4605093802 0.6435390886 -0.4604995437 0.0598248319 -0.0026517202
315298110.0 0.0590124402 -0.0033156494 0.6386715365 -0.4679553951 0.6386035167 -0.4680293576 0.0599815222 -0.0045467633
320298080.0 0.0587021388 -0.0043444923 0.6331331839 -0.4755866271 0.6339391416 -0.4759577843 0.0593946931 -0.0056017333
325298050.0 0.0583102125 -0.0056910241 0.6283467746 -0.4831784628 0.6287853513 -0.4833230222 0.0593259572 -0.0068491845
330298020.0 0.0579713894 -0.0064161297 0.6215276627 -0.4902752123 0.6217802612 -0.4909574725 0.0581829143 -0.008020898
335297990.0 0.0577230764 -0.0075637117 0.6167769943 -0.4978926091 0.6170032266 -0.4976125115 0.0581644981 -0.0087777641
340297960.0 0.0565564776 -0.0080779098 0.6103835926 -0.5047990534 0.6108635937 -0.5045142113 0.0574281777 -0.0091688169
345297930.0 0.0561996766 -0.0085501115 0.6052336863 -0.5109994277 0.6047033738 -0.5109670581 0.0576526635 -0.0106363507
350297900.0 0.0566322684 -0.009269634 0.5992637762 -0.5176641948 0.5997231162 -0.5183402613 0.0570729126 -0.0105506537
355297870.0 0.0561635995 -0.0101528661 0.5932423049 -0.5246925311 0.593556724 -0.5249085855 0.0564142761 -0.0114266289
360297840.0 0.0562765994 -0.0107960083 0.5878519625 -0.5315094257 0.5874528499 -0.531448902 0.0563903002 -0.0117524656
365297810.0 0.0558724827 -0.0115130528 0.5813918736 -0.5375646531 0.5816058251 -0.5380298207 0.0559748077 -0.0123857644
370297780.0 0.0558026327 -0.0120842052 0.5758891905 -0.5440825452 0.5759395729 -0.5445142266 0.0560541668 -0.0127495516
375297750.0 0.0553911736 -0.0122765248 0.5703188499 -0.5509355128 0.569874176 -0.5512306318 0.0557119587 -0.0133265577
380297720.0 0.0550306844 -0.013692409 0.563727495 -0.5568020928 0.5634836842 -0.5566061464 0.0554395501 -0.0142273347
385297690.0 0.0551141123 -0.0140712051 0.5579485984 -0.5629294847 0.5575512312 -0.5634163623 0.0551695255 -0.0146154908
390297660.0 0.0543413165 -0.0149203912 0.5511046168 -0.5698892095 0.5514010228 -0.5697941181 0.0551309498 -0.0156538376
395297630.0 0.0546562425 -0.0157106716 0.5453617319 -0.5751383723 0.5451408095 -0.5757873522 0.054438663 -0.0157671137
400297600.0 0.0538593703 -0.0159560095 0.538074912 -0.5816753388 0.5393420565 -0.581979603 0.0534480925 -0.0169459656
405297570.0 0.0539930694 -0.0164563751 0.5321338227 -0.5874487072 0.5323521189 -0.5877977296 0.0537057935 -0.0168158299
410297540.0 0.0536239984 -0.0174059791 0.5252615792 -0.593445065 0.5252460093 -0.5939362935 0.0531104891 -0.0178191385
415297510.0 0.0533515002 -0.01726076 0.5193242879 -0.5991755259 0.5191470934 -0.5997250247 0.0528136424 -0.0178153828
420297480.0 0.053135603 -0.0189610989 0.512625205 -0.6054607203 0.5130599494 -0.6054749741 0.0529083461 -0.019199535
425297450.0 0.0534633029 -0.0196186036 0.5062412469 -0.6106771745 0.5061865795 -0.6106723286 0.0522024924 -0.0192066061
430297420.0 0.0524907371 -0.019784182 0.4995076037 -0.6172121097 0.4992149345 -0.6170269644 0.0518065519 -0.0202142787
435297390.0 0.0526520777 -0.0206342059 0.4925560841 -0.6222051044 0.4924237744 -0.6218515379 0.0512051936 -0.0200511525
440297360.0 0.0522624023 -0.0216476864 0.4850120273 -0.6276462102 0.4850026791 -0.6279614936 0.0510046668 -0.021500448
445297330.0 0.0524374476 -0.0223025172 0.4779382906 -0.632994074 0.4782025795 -0.6329264145 0.0507327089 -0.0218292538
450297300.0 0.0517922711 -0.0223752681 0.4713569325 -0.638044887 0.4719724045 -0.6386664591 0.0505627188 -0.021926954
455297270.0 0.0510582375 -0.0233903739 0.4648531384 -0.6435930205 0.4648837386 -0.6434158302 0.0503899794 -0.0224913034
460297240.0 0.0503384817 -0.024046943 0.4575198061 -0.6482046268 0.457126584 -0.6484801623 0.0498250577 -0.0226643941
465297210.0 0.0506323309 -0.0245024447 0.4504113008 -0.6536190539 0.450561448 -0.6538505502 0.0488937586 -0.0236984367
470297180.0 0.0498436232 -0.0252513088 0.4430366524 -0.6584238708 0.4434490587 -0.6585402488 0.0481875195 -0.0240601294
475297150.0 0.0494447916 -0.0263666035 0.4352375461 -0.6632453925 0.4363203428 -0.6627420902 0.0484730203 -0.0245573622
480297120.0 0.0499859583 -0.0267576843 0.4287403818 -0.6681356322 0.4286875466 -0.6678758401 0.0478477543 -0.0245752054
485297090.0 0.049514563 -0.0274697907 0.4215367328 -0.6732070728 0.4215775958 -0.6732680263 0.046974936 -0.0256957037
490297060.0 0.0489740379 -0.028150814 0.4139703986 -0.6776639164 0.414188678 -0.6778093423 0.0470305621 -0.0255510243
495297030.0 0.0480816957 -0.0279646944 0.4059059074 -0.6821183993 0.4061266101 -0.6821642368 0.0466466315 -0.0262158513
500297000.0 0.0480485707 -0.0290130508 0.3987627695 -0.6868370688 0.3986552084 -0.6864564021 0.0454783503 -0.0265953101
505296970.0 0.0468201489 -0.0295838097 0.3911332942 -0.6903490173 0.3908034223 -0.6905110501 0.0450255435 -0.0270145034
510296940.0 0.0467576361 -0.030035088 0.3837601411 -0.6952471682 0.3840023927 -0.695478909 0.0450173863 -0.0271666282
515296910.0 0.0462599196 -0.0303554187 0.3756528489 -0.6991438077 0.3759771158 -0.6996435076 0.0441291157 -0.0279098149
520296880.0 0.0460487193 -0.0316314838 0.3680618968 -0.7036006964 0.3686174577 -0.7034286526 0.0444092415 -0.0282532051
525296850.0 0.0453564832 -0.0320904459 0.3608260502 -0.7074917103 0.3608314131 -0.7079885784 0.0436178096 -0.0287772197
530296820.0 0.0449843077 -0.0324616165 0.3528527507 -0.7108474367 0.352607374 -0.7113874872 0.042724375 -0.0298406902
535296790.0 0.0443082286 -0.0328563851 0.3448923545 -0.7145926605 0.3455586285 -0.7149595773 0.0424497696 -0.030179988
540296760.0 0.0438359506 -0.0336768806 0.3374619846 -0.71894236 0.3371054723 -0.7198835508 0.0415591056 -0.0299267952
545296730.0 0.0436334177 -0.0334740824 0.3290515076 -0.7223293243 0.329643206 -0.7229604432 0.0414700589 -0.0309505337
550296700.0 0.0427871421 -0.0345747442 0.3216328797 -0.7265782989 0.3221537023 -0.7265060581 0.0405939791 -0.0305710046
555296670.0 0.042476327 -0.0353063028 0.3134395392 -0.7300914172 0.3135689732 -0.7301550206 0.0401531947 -0.0310869945
560296640.0 0.0416812138 -0.0355595054 0.3055581987 -0.7328083298 0.3058470025 -0.732942733 0.0397198292 -0.0313875471
565296610.0 0.0408257291 -0.0361207147 0.2974080772 -0.7371003249 0.2972733333 -0.7364495524 0.0390153754 -0.0321376487
570296580.0 0.0413416789 -0.0364008351 0.2894066004 -0.7397399356 0.2899907446 -0.739975049 0.0389450854 -0.031701106
575296550.0 0.0402132054 -0.036169709 0.281387713 -0.7424778365 0.2815980734 -0.7425923447 0.0386992526 -0.0325528044
580296520.0 0.0396367521 -0.0371073721 0.27370151 -0.7465285673 0.2730498619 -0.7461259612 0.0375373861 -0.0334872759
585296490.0 0.0393965712 -0.0379272764 0.2655028853 -0.7491102568 0.2650557532 -0.7488190921 0.0369315996 -0.0339438258
590296460.0 0.0380447683 -0.0383478786 0.2569081593 -0.7519843956 0.2566525961 -0.7522063664 0.0369766842 -0.0335202496
595296430.0 0.0377109227 -0.0385016721 0.2490920994 -0.7546151459 0.2482389357 -0.7550022778 0.0361837508 -0.0342776185
600296400.0 0.0372816694 -0.0387314063 0.2404642409 -0.75733508 0.240633311 -0.7569881813 0.0356353978 -0.0342233981
605296370.0 0.0368195872 -0.0385790327 0.2325368289 -0.7592325395 0.2324165229 -0.7596668616 0.0355165029 -0.0351557479
610296340.0 0.035977819 -0.0395635926 0.2244360274 -0.7623868859 0.2242756575 -0.762299731 0.0346364729 -0.0341020481
615296310.0 0.0352858136 -0.0394054143 0.2153285264 -0.7644722094 0.2151885085 -0.764360966 0.0339222789 -0.0352107638
620296280.0 0.0348630745 -0.040003897 0.2074854589 -0.7667706855 0.2076241622 -0.7669567498 0.0337555314 -0.0359279915
625296250.0 0.0345111388 -0.0404419539 0.1986446853 -0.7693325916 0.1990731469 -0.7694641679 0.0332808283 -0.0355034956
630296220.0 0.0337780202 -0.0404632179 0.1899207735 -0.7717851528 0.1910719573 -0.7711886668 0.0318507195 -0.0356584013
635296190.0 0.0332941115 -0.0408293041 0.1819597762 -0.7729732005 0.1819093664 -0.7724941773 0.0314599638 -0.0363298799
640296160.0 0.0325177853 -0.0410865217 0.1742997305 -0.775021308 0.1734959778 -0.7750654729 0.0315125726 -0.0366037462
645296130.0 0.0322247766 -0.041027009 0.16496629 -0.7774979271 0.1650471716 -0.777368802 0.0299254744 -0.0372656123
650296100.0 0.0310531899 -0.0410572761 0.1570280836 -0.7786498296 0.1569696409 -0.778537864 0.0298862762 -0.0372234054
655296070.0 0.03055683 -0.0418528558 0.1487547909 -0.7799395381 0.1479502715 -0.7802320772 0.0300733505 -0.0368237457
660296040.0 0.0294281 -0.0417109315 0.1399640584 -0.7816508366 0.1397089914 -0.7818857946 0.0287220141 -0.0381212015
665296010.0 0.0294967673 -0.0421871549 0.1316972069 -0.7834674535 0.1319220139 -0.783653298 0.027796452 -0.0375528109
670295980.0 0.0295419299 -0.0422496223 0.1231117425 -0.7847365761 0.1230194349 -0.7844877784 0.027130198 -0.0382529263
675295950.0 0.0284314048 -0.0425149616 0.1141296546 -0.7858746398 0.1148885918 -0.7865549142 0.0270850804 -0.037680601
680295920.0 0.0275657537 -0.0425794254 0.1053719083 -0.7873779687 0.1055260411 -0.787556494 0.0267238501 -0.0384423597
685295890.0 0.0269022905 -0.0428590416 0.0968445584 -0.7883869849 0.0969582863 -0.7888286788 0.0259499461 -0.0382965796
690295860.0 0.0266555092 -0.0433032285 0.0885860168 -0.7892034818 0.0880591231 -0.7887356791 0.0257775024 -0.0379380736
695295830.0 0.0264661974 -0.0436345355 0.0788518892 -0.7895610497 0.0795647893 -0.7904858408 0.0245486473 -0.0383327794
700295800.0 0.0259431305 -0.0432472384 0.071066278 -0.7910628534 0.071208014 -0.7912680886 0.0237858221 -0.0391180561
705295770.0 0.0246360499 -0.0437690781 0.0619823303 -0.7913278029 0.0624876185 -0.7914281658 0.0233162347 -0.039166324
710295740.0 0.024115278 -0.0435012775 0.053828059 -0.7919135164 0.0535945683 -0.7918036089 0.0217441616 -0.0391020028
715295710.0 0.0237656969 -0.0440395767 0.0451735716 -0.792825747 0.0457936967 -0.7932195759 0.0220515357 -0.039845968
720295680.0 0.0228643315 -0.0441077314 0.0363384606 -0.7928336742 0.0361686774 -0.7937216755 0.021707127 -0.0392926046
725295650.0 0.0223232826 -0.0443980087 0.0279031832 -0.7932590909 0.0281352259 -0.793107575 0.0208788281 -0.0393837572
730295620.0 0.021469314 -0.0445482531 0.0191048106 -0.7936426875 0.0192273841 -0.7939495185 0.0206609028 -0.0405603886
735295590.0 0.0213706966 -0.0443203541 0.010239928 -0.7937257353 0.0113604121 -0.7937706293 0.0196487391 -0.0395303577
740295560.0 0.020030428 -0.0443638387 0.0020927685 -0.7934745553 0.0018918102 -0.7944800548 0.0197187652 -0.0400069162
745295530.0 0.0201900525 -0.044950848 -0.0064607811 -0.7938445948 -0.0063483323 -0.7942398381 0.0182410778 -0.0395826867
750295500.0 0.0191700478 -0.0447181891 -0.0148253453 -0.7935374327 -0.014874376 -0.7935771371 0.0182476733 -0.0401368746
755295470.0 0.0189138457 -0.0446718925 -0.0234099426 -0.7935547772 -0.0232817061 -0.7939871102 0.0171372173 -0.0400499018
760295440.0 0.0177305956 -0.044630559 -0.0324441402 -0.7932687764 -0.0326961506 -0.7938569667 0.0160607039 -0.0404372785
765295410.0 0.0170339379 -0.0452419589 -0.0401817987 -0.7924775471 -0.040404744 -0.7931721034 0.0170032667 -0.0397557392
770295380.0 0.0169863761 -0.0448124154 -0.0497622271 -0.7925193428 -0.0493680547 -0.7927871557 0.0160419712 -0.0396413919
775295350.0 0.0162675629 -0.0447789662 -0.0581353157 -0.7916296741 -0.0578708295 -0.7919162273 0.0149296188 -0.0409860682
780295320.0 0.0153486125 -0.0447992682 -0.066529462 -0.7909915839 -0.0661372184 -0.7914508646 0.0145042248 -0.0400108117
785295290.0 0.0148889943 -0.0447253844 -0.0750930088 -0.789034345 -0.0754301806 -0.7903701583 0.0129825682 -0.0402272148
790295260.0 0.013961313 -0.0446412661 -0.0838702308 -0.7895993101 -0.083606128 -0.79005561 0.0134816514 -0.0402246764
795295230.0 0.0131905384 -0.0445929219 -0.0917686132 -0.7878308776 -0.0920618818 -0.7885100186 0.0125209522 -0.0394104911
800295200.0 0.0129226504 -0.0443607056 -0.1019486679 -0.787338367 -0.1017436485 -0.7870689597 0.0117763917 -0.0397858222
805295170.0 0.0117500522 -0.0448587465 -0.1095338467 -0.7859527069 -0.1094216545 -0.7857864264 0.011131391 -0.0404512142
810295140.0 0.0114357631 -0.0447833138 -0.1179180168 -0.7852410317 -0.1181294943 -0.785331721 0.0108992238 -0.0395461965
815295110.0 0.0107156722 -0.0444888778 -0.1270699678 -0.7831719906 -0.126903374 -0.783926158 0.0100919167 -0.0402044031
820295080.0 0.0102988702 -0.0450290779 -0.1351207283 -0.7820741687 -0.1352822989 -0.7823965584 0.0088880637 -0.0398166406
825295050.0 0.009620669 -0.0449643835 -0.1433385021 -0.7802865445 -0.143417292 -0.7802854405 0.009057608 -0.0394042886
830295020.0 0.0087220852 -0.0441688983 -0.1521416304 -0.7786131044 -0.1525594174 -0.7795073226 0.0079804675 -0.0397167247
