!Created with skrf (http://scikit-rf.org).
# Hz S RI R 50.0 
!freq ReS11 ImS11 ReS21 ImS21 ReS12 ImS12 ReS22 ImS22
300000.0 -0.0469913855 -0.0754024121 -0.0001104404 0.0022429415 -0.0002192657 0.0002478202 -0.7582572895 -0.1981834595
5299970.0 -0.0500978194 0.0144201378 1.33732e-05 -9.57002e-05 9.7313e-05 5.68283e-05 -0.7842973587 -0.010016673
10299940.0 -0.0445676436 0.0328253795 -0.0001082583 -0.0001153459 0.0001809252 -2.02207e-05 -0.7875217373 -0.0053136869
15299910.0 -0.0356044767 0.0471758434 -0.0001686548 0.0001460481 -6.80627e-05 0.0001899991 -0.7927028458 -0.0024475221
20299880.0 -0.0259148341 0.0592205473 -8.83744e-05 -0.000179512 -4.75561e-05 -0.0001787776 -0.7989949738 0.0019420997
25299850.0 -0.0139940792 0.0685766688 0.0001843323 -7.25093e-05 1.80343e-05 0.0001129189 -0.8058682637 0.0076608554
30299820.0 -0.0028458685 0.0752894801 -8.57151e-05 -7.8126e-05 -9.7006e-05 -0.0001404735 -0.8115073126 0.0157299939
35299790.0 0.0091691353 0.0797685087 1.75979e-05 -4.73039e-05 -9.56237e-05 -0.0001307064 -0.8166321652 0.0246496393
40299760.0 0.0206158968 0.0825326003 0.0002619761 0.0001137778 -1.22421e-05 0.0001128787 -0.8208993945 0.0336948412
45299730.0 0.0311857585 0.0837080575 -0.0001090064 0.0001457626 -7.18529e-05 1.72366e-05 -0.8236303125 0.0434971315
50299700.0 0.0418534341 0.0838550712 -1.98088e-05 -3.6194e-05 -5.24685e-05 -9.86159e-05 -0.8262827043 0.0537561288
55299670.0 0.051247685 0.0827168411 -0.0001380651 -9.10847e-05 0.0002850836 2.90553e-05 -0.8282828951 0.0636782192
60299640.0 0.0595650223 0.0805921703 8.45521e-05 -1.21975e-05 -0.0002530828 -0.0001232422 -0.8292954622 0.0742896468
65299610.0 0.067877331 0.0783510973 7.10201e-05 -4.73104e-05 -7.77047e-05 -0.0001626996 -0.8298405168 0.0838785223
70299580.0 0.0744717852 0.0749250486 0.0001643552 8.78141e-05 3.5216e-06 -0.0002002215 -0.8309646573 0.0933671244
75299550.0 0.0810028317 0.0716663002 -6.56592e-05 -6.34143e-05 7.64545e-05 0.000108021 -0.8307466869 0.1038591054
80299520.0 0.0868660769 0.0679488058 6.14736e-05 -1.5391e-06 8.11373e-05 -5.02972e-05 -0.8304155278 0.1139415344
85299490.0 0.0919119795 0.0641175619 0.0001386223 -9.07725e-05 0.0001973307 -9.477e-05 -0.8297618231 0.1232307683
90299460.0 0.0968566615 0.060266303 0.0001217335 -0.0001861014 6.29509e-05 5.3533e-05 -0.8283381138 0.132669396
95299430.0 0.1008195213 0.0561497371 1.43926e-05 0.0002611766 2.29198e-05 -3.67402e-05 -0.8277814236 0.1426062786
100299400.0 0.1046653149 0.0520692714 9.70111e-05 -3.51723e-05 0.0001472036 -0.0001677593 -0.8271591193 0.1520729504
105299370.0 0.1078823461 0.0477344475 -0.0001976052 -6.3254e-06 2.43487e-05 -6.62514e-05 -0.8255248177 0.1605462444
110299340.0 0.110914955 0.0436352197 -8.51505e-05 -0.000108627 0.0002493681 -7.1403e-06 -0.823902821 0.1697690464
115299310.0 0.1132841096 0.0400174002 -2.94288e-05 0.0001133175 -9.36806e-05 0.0003505747 -0.8228287627 0.1791661497
120299280.0 0.1158195409 0.0361166045 0.0002110618 0.0001953191 0.0001386918 -2.19667e-05 -0.8203869712 0.1881849501
125299250.0 0.1173418452 0.0320296706 -0.0001307938 -2.32248e-05 0.0001075925 2.37797e-05 -0.8198222324 0.1972052942
130299220.0 0.1193889525 0.0280503079 -0.0001010243 -8.1691e-05 0.000241515 0.0002607091 -0.8172463403 0.2059754813
135299190.0 0.1210275085 0.0244780922 -3.38161e-05 -3.08707e-05 -0.0001870439 1.49825e-05 -0.8156906987 0.2148415403
140299160.0 0.1223119075 0.020781092 -0.0001517423 9.86005e-05 -4.06607e-05 -4.0248e-06 -0.813722055 0.2232810997
145299130.0 0.1234432511 0.0175118163 0.0001916713 -2.69888e-05 0.0001975558 1.52683e-05 -0.8116238718 0.2325919494
150299100.0 0.1243183124 0.0137999589 -5.31376e-05 1.06026e-05 6.53441e-05 -2.13923e-05 -0.8092565977 0.2414190301
155299070.0 0.1251158405 0.010746623 3.10905e-05 5.68051e-05 0.0001110646 -5.93544e-05 -0.8066457142 0.2504268698
160299040.0 0.1256883025 0.0070461001 0.0001456271 0.0001644168 8.03123e-05 -7.31593e-05 -0.8042900691 0.2588434998
165299010.0 0.1261058567 0.0040707509 9.6196e-06 -0.0001056915 8.99936e-05 0.0001734927 -0.8014736991 0.2671671471
170298980.0 0.1265545016 0.0008607408 0.0001689485 5.04391e-05 -4.01775e-05 7.89736e-05 -0.7989189867 0.2753587995
175298950.0 0.126841734 -0.0020770618 0.0002736934 -0.0001297233 0.0002509726 -2.62775e-05 -0.7956794277 0.2847898466
180298920.0 0.1268127108 -0.0053896171 -2.61558e-05 0.0001648127 -0.0001721351 7.46473e-05 -0.7930939976 0.2933588461
185298890.0 0.1268849716 -0.0083887835 8.9709e-06 -6.7446e-05 -0.000138966 6.7408e-06 -0.7899911637 0.3017537306
190298860.0 0.1271784256 -0.0109868793 0.0001593601 0.0002975959 0.0001928429 0.000161826 -0.7868802051 0.3102749918
195298830.0 0.1270807185 -0.0136411322 8.25729e-05 4.49444e-05 -3.0788e-05 -9.72291e-05 -0.7838847194 0.318176994
200298800.0 0.126982581 -0.0167477819 0.0001212692 0.0002138976 5.79869e-05 -1.9691e-05 -0.7806405275 0.3267187673
205298770.0 0.1260597434 -0.0192596781 6.15918e-05 -0.0001443075 -8.38866e-05 9.08544e-05 -0.7773280231 0.3351629983
210298740.0 0.1262116763 -0.0219895872 7.2376e-06 0.0001012293 4.21332e-05 -8.23276e-05 -0.7738697494 0.3436517916
215298710.0 0.125427376 -0.024394345 -0.0002005381 -8.05643e-05 3.43431e-05 9.18337e-05 -0.7701366373 0.3512565333
220298680.0 0.125362992 -0.0269295298 -3.68272e-05 0.0002002012 0.0001215786 -5.43362e-05 -0.7666456572 0.3594363092
225298650.0 0.1248742715 -0.029441089 -6.2911e-05 5.49613e-05 -0.000190212 9.2628e-06 -0.7630308486 0.3676956503
230298620.0 0.1240636169 -0.0315044214 9.7995e-06 6.8963e-06 0.0002664413 -0.0001795677 -0.7587553137 0.3754207913
235298590.0 0.1234149373 -0.0338333457 -0.0001492022 9.65088e-05 -4.01749e-05 0.000105885 -0.7547160491 0.3832932275
240298560.0 0.1228480507 -0.0362153241 -5.38041e-05 -0.000119544 -4.6999e-06 7.89312e-05 -0.7510425628 0.3911511821
245298530.0 0.122018748 -0.0386205904 -9.32658e-05 0.0001282323 -0.000258922 -0.0001181975 -0.7470775625 0.3991829829
250298500.0 0.1212497438 -0.0407342387 -4.6802e-06 2.71673e-05 7.24822e-05 0.0001213869 -0.7425341537 0.4071250056
255298470.0 0.1206212095 -0.0426501289 0.0002056954 0.0001438317 -1.69485e-05 6.65872e-05 -0.7390229434 0.4149269491
260298440.0 0.11984457 -0.0451100284 1.47814e-05 6.74688e-05 0.0001455785 1.14817e-05 -0.734089351 0.421946788
265298410.0 0.1187517588 -0.0468221489 0.0001928055 -6.37595e-05 0.0002759982 4.58033e-05 -0.7294198494 0.4301831128
270298380.0 0.1177626654 -0.0489249341 0.0002015849 0.0001814339 -5.79362e-05 3.41335e-05 -0.7251268298 0.4380463185
275298350.0 0.1171803854 -0.0505694307 3.77113e-05 1.61179e-05 -7.3309e-05 8.53539e-05 -0.7200889416 0.4455694262
280298320.0 0.1157237919 -0.052611712 -0.0001231478 -1.6738e-06 4.46383e-05 0.0001705525 -0.7158175071 0.4531015618
285298290.0 0.1149391716 -0.0548284292 8.36619e-05 -0.000125037 1.1705e-05 -2.14638e-05 -0.711826393 0.460848358
290298260.0 0.1140359507 -0.0564875247 2.58535e-05 -0.0001500273 0.0001925254 6.62468e-05 -0.7061760621 0.4679612638
295298230.0 0.1130773615 -0.0588287911 -6.44375e-05 -0.0001492363 0.0002180558 -7.12944e-05 -0.7012168767 0.4750568064
300298200.0 0.1119719827 -0.0602497183 -1.69586e-05 -6.91561e-05 0.0002022203 -1.89364e-05 -0.6963482389 0.4823581262
305298170.0 0.1109590181 -0.0623977254 7.88312e-05 0.000217358 0.0001192401 -0.0001833813 -0.691159949 0.4893708358
310298140.0 0.1094785781 -0.0644759769 0.0001482558 0.0001484573 0.0001105886 -0.0002142264 -0.6863146581 0.4967986885
315298110.0 0.1083968116 -0.0663511203 -0.0002788005 -0.0001436291 -0.0001066266 -2.62682e-05 -0.6812498597 0.5042132913
320298080.0 0.1071526387 -0.0682539982 0.0001092605 9.71325e-05 -0.0001145057 5.97155e-05 -0.6760040463 0.5110859143
325298050.0 0.1053637615 -0.0703323774 4.81102e-05 -8.25881e-05 8.07893e-05 5.31361e-05 -0.6701307333 0.5178192008
330298020.0 0.1038056129 -0.0714681732 4.42711e-05 0.0001075418 -0.0001221384 -2.6122e-05 -0.6650281301 0.5245136294
335297990.0 0.1023863652 -0.0729848251 6.18866e-05 3.3186e-06 2.27591e-05 0.0001320615 -0.6585288512 0.5315601556
340297960.0 0.1006636981 -0.0745622662 3.82647e-05 9.61413e-05 -2.43038e-05 6.0719e-06 -0.6539153545 0.5386694864
345297930.0 0.0996043627 -0.0759023948 0.0001280744 7.22507e-05 3.58948e-05 -2.93407e-05 -0.6486813962 0.5451373747
350297900.0 0.0981881859 -0.0773321996 -6.3362e-06 5.47713e-05 0.0003313352 5.4501e-05 -0.6429675617 0.5510338694
355297870.0 0.0968628 -0.0786570313 0.0002521064 1.85699e-05 4.20127e-05 -0.0001176477 -0.6367414978 0.5591597411
360297840.0 0.0951945797 -0.0803772781 9.62713e-05 0.0002556781 0.0001050738 -6.27505e-05 -0.6304294416 0.5651361544
365297810.0 0.0941053538 -0.0814752117 -4.37887e-05 -0.0001908777 0.0002285867 -0.0001610888 -0.6254773259 0.5707568234
370297780.0 0.092527712 -0.0829524778 -3.10441e-05 4.64364e-05 -6.29134e-05 8.00014e-05 -0.619537814 0.5774319069
375297750.0 0.0912477533 -0.084319871 -4.85159e-05 0.0001098273 -0.0001068683 4.5129e-06 -0.6131556545 0.5840350489
380297720.0 0.0896129512 -0.0853329115 2.62756e-05 -7.16033e-05 8.19823e-05 0.0001034974 -0.6070928291 0.5905120449
385297690.0 0.0882593894 -0.0867324432 1.849e-07 7.41093e-05 0.0002064425 3.3965e-05 -0.6013221071 0.5965420121
390297660.0 0.0868684838 -0.088259064 0.0001287901 4.36673e-05 -8.72605e-05 -1.40297e-05 -0.5943363755 0.6022938562
395297630.0 0.0853217812 -0.0891822788 -3.76875e-05 7.95695e-05 0.0002204553 0.0001850061 -0.5877179179 0.6077779952
400297600.0 0.083761444 -0.090319648 0.0002324889 -1.75207e-05 3.03952e-05 -2.21745e-05 -0.5822869159 0.6142891805
405297570.0 0.0822405791 -0.091847019 5.32454e-05 -0.0001405518 -1.86181e-05 0.0001154398 -0.5752720055 0.6199203501
410297540.0 0.0812398213 -0.0928622618 -1.28546e-05 0.0002328443 0.0001177733 -5.04796e-05 -0.5690557439 0.6263697825
415297510.0 0.0792286248 -0.0942396328 -0.0001000156 -8.60807e-05 4.07621e-05 -8.20214e-05 -0.5632330185 0.6314882896
420297480.0 0.0777341202 -0.095333411 0.0002430137 -6.45954e-05 0.0001582625 -9.8354e-06 -0.555908348 0.638276901
425297450.0 0.0763737343 -0.0964868473 -0.0001115546 0.0001450995 0.000150946 7.31372e-05 -0.5495121896 0.6426879906
430297420.0 0.0747071642 -0.0975660691 0.0001690669 -0.0002757515 0.0001029849 0.0001701334 -0.5426021214 0.6488796134
435297390.0 0.0733468616 -0.0988198177 0.0001746169 3.70287e-05 3.87325e-05 4.36e-07 -0.5362757452 0.654897114
440297360.0 0.0718290611 -0.0997342081 -3.3381e-06 5.1346e-06 -2.16961e-05 6.48151e-05 -0.5297479131 0.6596378509
445297330.0 0.0703249694 -0.1007772094 7.48594e-05 -1.6161e-06 0.0001193426 0.0002440086 -0.5231620049 0.6651904572
450297300.0 0.0689267238 -0.1020829911 -5.57335e-05 -4.46545e-05 0.0002124349 9.54877e-05 -0.5159815223 0.6696247719
455297270.0 0.06701348 -0.1026976523 8.19678e-05 -0.0001523198 0.0002718078 2.94646e-05 -0.5088722444 0.6753917023
460297240.0 0.0657031817 -0.1035108486 2.364e-06 0.0001478312 0.0001786659 -0.0001379765 -0.502179721 0.6804400289
465297210.0 0.0641407086 -0.1044116119 -1.41047e-05 0.0003194077 1.9193e-06 0.000135178 -0.4948139966 0.6863917063
470297180.0 0.0626547543 -0.1052233718 0.0001454749 3.93177e-05 0.0001648003 -3.8634e-06 -0.4878229263 0.6903871631
475297150.0 0.0610055212 -0.1060154531 0.0001638874 2.16114e-05 7.02235e-05 2.02139e-05 -0.4811794966 0.6956005505
480297120.0 0.0596256313 -0.106946938 0.0001340779 -3.87269e-05 0.0001799778 4.05092e-05 -0.4744095216 0.7004118574
485297090.0 0.057826932 -0.107736781 5.5926e-05 7.91336e-05 5.03207e-05 0.0002837555 -0.4670153675 0.7051301429
490297060.0 0.0569674974 -0.10847389 -8.9773e-06 -8.15337e-05 0.0001321647 0.0001064936 -0.4591915831 0.709392015
495297030.0 0.0551736663 -0.1092789532 0.0001965692 -0.0002733832 7.91609e-05 -4.19592e-05 -0.4522064226 0.7142462974
500297000.0 0.0532239712 -0.1100329124 9.78454e-05 4.58017e-05 0.0001418557 0.0002023112 -0.4452458949 0.7189091624
505296970.0 0.0520213452 -0.1108235527 0.0001361201 0.0002048306 -2.55599e-05 3.90976e-05 -0.4374868492 0.7228240135
510296940.0 0.0504612034 -0.1111233864 9.37306e-05 0.0002200312 -5.0025e-06 0.0001249444 -0.429818709 0.7279835822
515296910.0 0.0486485706 -0.1115952407 0.0001792405 2.16311e-05 0.0001935866 0.0001113448 -0.4231994091 0.7310021985
520296880.0 0.0473812452 -0.1126533154 0.0002028469 0.0001760151 9.11318e-05 -2.84157e-05 -0.4150593541 0.7363932977
525296850.0 0.0457659835 -0.1131737362 0.0001548882 -5.51262e-05 0.0001414242 0.0001596225 -0.4084918598 0.7398003454
530296820.0 0.0438783047 -0.1133774939 0.0001472524 2.80997e-05 -4.7761e-06 0.0002487067 -0.4003182973 0.7437664996
535296790.0 0.0427172823 -0.1140359054 0.0001879652 -0.0001050219 0.0003573368 -9.37331e-05 -0.3935331783 0.7486360549
540296760.0 0.040891242 -0.11431396 0.0002948197 -0.0001168364 0.0001257638 6.47886e-05 -0.3850209779 0.7514281267
545296730.0 0.0390436617 -0.1147397937 0.0001802337 9.08369e-05 0.0001316931 7.41203e-05 -0.3773005992 0.7557858224
550296700.0 0.0376562586 -0.1152986361 7.00634e-05 -1.32174e-05 7.33409e-05 -5.644e-05 -0.3698096016 0.7590475097
555296670.0 0.0363104445 -0.1155790823 -5.15367e-05 -8.30718e-05 5.81799e-05 2.78534e-05 -0.3623838799 0.7622579994
560296640.0 0.034854321 -0.1159174699 0.0002270315 8.00463e-05 -5.1579e-06 8.24544e-05 -0.354431146 0.7666726801
565296610.0 0.032786971 -0.1163317631 0.0003463194 -4.98524e-05 0.0001758074 -0.0001671704 -0.3466318004 0.7700040189
570296580.0 0.0312990834 -0.1166095432 7.84274e-05 -3.88064e-05 9.78924e-05 -0.0001207836 -0.3389253801 0.7731268114
575296550.0 0.0297545851 -0.1170673787 9.25197e-05 -7.03367e-05 0.000105953 -5.4368e-06 -0.330709791 0.7764693293
580296520.0 0.0282194465 -0.1169222237 0.0002513369 -0.0001025809 0.0001378382 -0.0001097612 -0.3237129855 0.7797649179
585296490.0 0.0266241448 -0.1171708761 0.0002011433 -5.68801e-05 -1.2237e-05 2.66792e-05 -0.3150275398 0.7830967891
590296460.0 0.0252117964 -0.1172739116 -3.23325e-05 2.3967e-06 6.10446e-05 -6.51255e-05 -0.3075059934 0.7858576977
595296430.0 0.0232305538 -0.1177734207 0.0002389607 0.0001741054 8.3532e-05 -3.13117e-05 -0.2999001937 0.7891660158
600296400.0 0.0217938871 -0.1176111191 0.0001203058 2.99317e-05 5.98046e-05 9.52342e-05 -0.2915532521 0.7917883616
605296370.0 0.0199901835 -0.1175665655 9.61849e-05 7.54675e-05 0.0001247022 -0.0002189152 -0.2837552376 0.7952194963
610296340.0 0.0187022732 -0.1176797503 7.44973e-05 1.73814e-05 0.0002625373 -0.0001056004 -0.2762037013 0.7981829401
615296310.0 0.016952777 -0.1178488883 5.62451e-05 0.0001374348 0.0002013265 5.66716e-05 -0.2675171153 0.8007472858
620296280.0 0.0154005373 -0.1174907054 0.0001196185 -6.37876e-05 7.31661e-05 -8.72854e-05 -0.2597238693 0.8033806381
625296250.0 0.0134826268 -0.1174895419 9.78851e-05 -4.61729e-05 0.000295633 3.74137e-05 -0.2512546254 0.8051168896
630296220.0 0.0120638886 -0.1173217322 0.0001862457 0.0001819744 -4.88008e-05 1.6562e-06 -0.24345767 0.8081940662
635296190.0 0.0103056119 -0.11731967 0.0001113892 -8.28048e-05 0.0002243343 -8.60726e-05 -0.2353414995 0.8101015606
640296160.0 0.0086811131 -0.1172915253 0.0001380465 2.25596e-05 0.000209327 -6.37618e-05 -0.227091799 0.8126602766
645296130.0 0.007302849 -0.1172306958 0.0002154036 0.000220227 0.0002201411 0.0001809248 -0.2194106808 0.8145223388
650296100.0 0.0054764631 -0.116868685 9.68501e-05 8.01784e-05 7.0992e-05 -8.88268e-05 -0.2105718016 0.8168099029
655296070.0 0.0037985012 -0.1166126559 7.08086e-05 0.0001208826 0.0001716123 -0.0001102634 -0.2033589992 0.8191319651
660296040.0 0.0020521151 -0.1163520679 0.0001042305 6.17778e-05 0.0001380036 -0.0001985316 -0.1940927388 0.8212395076
665296010.0 0.0001851872 -0.1162592623 -0.0002603303 6.82544e-05 0.0001955517 7.23643e-05 -0.1863847174 0.822305513
670295980.0 -0.0013957499 -0.116146806 5.0303e-05 -0.00024554 0.0001369086 -4.08448e-05 -0.178508536 0.8249370926
675295950.0 -0.0031002015 -0.1157794398 0.0002383079 -0.0001511046 5.18055e-05 3.2885e-06 -0.1696071658 0.8266969265
680295920.0 -0.0049055391 -0.1150538323 6.2296e-06 -6.25906e-05 0.0002542829 -5.72941e-05 -0.1607321697 0.8277076226
685295890.0 -0.0062423209 -0.1148591976 0.00014546 -0.0001625 0.000216914 3.31016e-05 -0.1533566946 0.8296086459
690295860.0 -0.0079202355 -0.1146659584 0.000165727 7.18786e-05 9.3168e-05 -1.79611e-05 -0.145003238 0.8312095488
695295830.0 -0.0098022994 -0.1144930288 0.0001528339 9.74784e-05 0.0002580205 0.0001905691 -0.1370257617 0.8331626978
700295800.0 -0.0115706822 -0.1138122404 0.0001760534 1.57544e-05 -7.83676e-05 1.28788e-05 -0.1283867417 0.8338143245
705295770.0 -0.0131418225 -0.1133918598 0.0001119861 -7.36837e-05 0.0001083469 0.0001121808 -0.1201400366 0.8354295057
710295740.0 -0.0149219626 -0.1129155159 -3.47207e-05 -1.20481e-05 0.0002620282 -9.74439e-05 -0.1115629506 0.8358809396
715295710.0 -0.016430068 -0.1125696959 0.0001171155 -0.0003025169 9.27774e-05 4.22804e-05 -0.102857109 0.8366379667
720295680.0 -0.0180881179 -0.112126487 8.97048e-05 0.0001218425 0.0001084188 3.26556e-05 -0.0948333619 0.8379042878
725295650.0 -0.0198474647 -0.1116973345 9.43698e-05 -0.0001279327 -6.5979e-06 -0.000102377 -0.0866645389 0.8391174903
730295620.0 -0.0219058231 -0.1112936572 7.16254e-05 -0.0003056022 0.0001147589 -2.90012e-05 -0.0788328484 0.8399672298
735295590.0 -0.0232597772 -0.1106372207 5.68584e-05 -0.0001640699 0.0001450458 0.0001820034 -0.0696848165 0.8407346185
740295560.0 -0.0251282468 -0.1100673595 1.8599e-06 -0.0002568471 0.000123712 6.50698e-05 -0.0615534965 0.8410362136
745295530.0 -0.0267805454 -0.1091037828 0.0003730473 7.70336e-05 3.40363e-05 -0.0001077242 -0.0532838948 0.8420549026
750295500.0 -0.0282402378 -0.1087573009 9.77448e-05 -5.28727e-05 -5.83843e-05 -8.95664e-05 -0.045051975 0.8422216999
755295470.0 -0.0299184569 -0.1082767142 0.0001399486 -0.0001208392 0.0002189364 -0.0001256558 -0.0376681511 0.8426020073
760295440.0 -0.0314338543 -0.1072079357 0.0001140326 -3.21552e-05 0.0001159135 0.0001813578 -0.0277947606 0.8427857626
765295410.0 -0.0329655621 -0.1071911176 0.0003491145 -0.0001309967 8.86691e-05 -2.76587e-05 -0.0196398102 0.8431881655
770295380.0 -0.0348420279 -0.1058472992 0.0001820767 -7.78363e-05 0.0001328922 -9.0161e-05 -0.010924616 0.8432051179
775295350.0 -0.0365078322 -0.105407531 7.62245e-05 0.0001339115 2.79648e-05 8.68499e-05 -0.003061961 0.8431825128
780295320.0 -0.0380187534 -0.1046576489 0.0001119836 0.0001696971 0.0002185051 -0.0001121343 0.0052501376 0.8435986465
785295290.0 -0.0397435809 -0.1039869129 0.0001122596 -9.5674e-05 9.34458e-05 -0.0001451245 0.0136545016 0.8435031183
790295260.0 -0.0415349933 -0.1037678446 0.0001244323 -7.92409e-05 0.0001927444 7.41673e-05 0.0218299392 0.8433787317
795295230.0 -0.0431008632 -0.1028652792 0.0003108219 -0.0002157451 2.33925e-05 -8.10623e-05 0.0302038024 0.8424367264
800295200.0 -0.0446205218 -0.1019166207 7.08985e-05 4.95645e-05 7.28415e-05 -0.0001348371 0.038160673 0.8419067712
805295170.0 -0.046519107 -0.1012866061 0.0001994258 -5.86267e-05 0.0003018287 1.79397e-05 0.0477020614 0.8417636342
810295140.0 -0.0476633548 -0.1003042392 0.000169455 -0.0001300583 0.0003104915 -0.0001926425 0.0556740236 0.8409334325
815295110.0 -0.0494673092 -0.0996222432 0.0002618029 -0.0001466842 0.0001356467 -5.05483e-05 0.0630667323 0.8406800238
820295080.0 -0.0508588564 -0.0988755035 -2.02965e-05 -0.0001347322 0.0002478326 -0.0002644574 0.0716391175 0.8399237617
825295050.0 -0.0527476058 -0.0983537468 0.0002115327 -0.0003403298 0.0001828438 -8.21358e-05 0.0799697466 0.8391790856
830295020.0 -0.0540942096 -0.097280156 0.0002124194 -0.0001201128 0.000137853 -0.0002296972 0.0881518501 0.8380455324
835294990.0 -0.0555661354 -0.0965821147 0.0002208682 -0.0002085251 8.37681e-05 -0.0001205354 0.0967207125 0.8377869643
840294960.0 -0.0571576577 -0.0955661448 0.0003494367 4.77015e-05 0.0001416399 -0.0001311722 0.105326129 0.836621388
845294930.0 -0.0587110032 -0.0944381738 0.0001798049 -2.82338e-05 6.63451e-05 -7.50098e-05 0.1135585206 0.8353544964
850294900.0 -0.0597920072 -0.0940126398 0.0001110818 1.24988e-05 3.34686e-05 7.57404e-05 0.1213309195 0.8341379787
