!Created with skrf (http://scikit-rf.org).
# Hz S RI R 50.0 
!freq ReS11 ImS11 ReS21 ImS21 ReS12 ImS12 ReS22 ImS22
300000.0 -0.7721500898 -0.1541730907 -0.0019928969 -0.0011543893 0.0016464444 0.0015188015 -0.2123168764 -0.0935415319
5299970.0 -0.7845948166 -0.0076034609 -8.99019e-05 -3.35884e-05 5.44161e-05 0.0001675489 -0.2163894299 0.0068399008
10299940.0 -0.7879470836 -0.0040982647 8.26679e-05 0.000156016 6.44574e-05 0.0001656173 -0.2133143432 0.0184420744
15299910.0 -0.7931938529 -0.0014227265 -0.000104183 1.29948e-05 2.246e-05 -8.12367e-05 -0.2084964915 0.0276452002
20299880.0 -0.7993861068 0.0023119054 0.0002066762 5.87784e-05 -2.18828e-05 0.0001815142 -0.2030856958 0.0355980576
25299850.0 -0.8062955988 0.0083621325 9.13497e-05 -0.0001744386 4.60032e-05 -2.68868e-05 -0.1976825764 0.0416545083
30299820.0 -0.8118739774 0.0161603836 -9.87171e-05 0.0001913811 7.40077e-05 -0.000122251 -0.191964768 0.0465575319
35299790.0 -0.8168097654 0.0254583494 0.0001107291 -9.33092e-05 -7.2128e-06 1.63415e-05 -0.1857795586 0.0502334846
40299760.0 -0.8213144132 0.0344320042 -9.69592e-05 6.59808e-05 -0.0002002265 0.0001318138 -0.1804900993 0.052978959
45299730.0 -0.8248651849 0.0440075853 -6.14299e-05 4.9732e-05 -5.164e-05 -8.27103e-05 -0.1755662114 0.0549760579
50299700.0 -0.8267239828 0.0540627455 6.64284e-05 -0.000100936 7.60429e-05 -4.74447e-05 -0.1704268054 0.0565915381
55299670.0 -0.8285394437 0.0641081059 -8.3729e-06 0.0003249692 -0.0001581778 7.45669e-05 -0.1663345482 0.0577274375
60299640.0 -0.8295755734 0.0745666464 1.87492e-05 3.15976e-05 -6.65184e-05 -0.0001020349 -0.1622134844 0.0584165075
65299610.0 -0.8309644363 0.0848496026 5.72831e-05 -3.84817e-05 -4.11618e-05 3.4931e-05 -0.1585831456 0.0591371745
70299580.0 -0.8310447896 0.0945380441 1.25978e-05 2.345e-07 0.0001531788 6.33118e-05 -0.1556650747 0.0592087311
75299550.0 -0.831296523 0.1045752968 5.87994e-05 0.0001872678 -1.87351e-05 0.0001447208 -0.152781684 0.059545751
80299520.0 -0.8314406409 0.1144958482 -1.19425e-05 5.98501e-05 5.00042e-05 7.52369e-05 -0.1501321187 0.0594725399
85299490.0 -0.8308175296 0.1236761033 9.07462e-05 -0.000108559 6.05392e-05 6.68314e-05 -0.1476991617 0.0597050123
90299460.0 -0.8297108847 0.1340849076 -9.6268e-05 3.02928e-05 7.35645e-05 2.96863e-05 -0.1453778947 0.0595304181
95299430.0 -0.8282492601 0.1435916824 -0.0001429955 0.0001352029 2.94659e-05 -1.44033e-05 -0.1433024017 0.0597169057
100299400.0 -0.8278025905 0.1531679432 0.0001282652 -6.42052e-05 -7.24136e-05 -1.15489e-05 -0.1417412464 0.0595450868
105299370.0 -0.8260829885 0.1623233645 8.50009e-05 3.75065e-05 -0.0001039512 -6.96702e-05 -0.140007933 0.0594224291
110299340.0 -0.8253473179 0.1708703581 -0.0001176729 0.0001029306 -0.0002334175 -4.47094e-05 -0.1386963862 0.0596127812
115299310.0 -0.8229585455 0.1807587246 6.44139e-05 0.0001769462 1.92642e-05 -3.01782e-05 -0.1373055485 0.0594460038
120299280.0 -0.8218707743 0.1892522973 -2.73287e-05 -5.95021e-05 -2.57146e-05 0.0001468367 -0.1361665795 0.0592162812
125299250.0 -0.8203159945 0.1984374702 -0.0001575495 5.40357e-05 0.0001857581 7.14546e-05 -0.1348060725 0.0593654598
130299220.0 -0.8181146036 0.2074982914 8.95545e-05 0.0001134155 -1.67879e-05 0.0001241737 -0.1342862292 0.0596114527
135299190.0 -0.816864905 0.2166274765 0.0001434086 0.000125838 -3.52833e-05 -0.0002031991 -0.1329041011 0.0597896186
140299160.0 -0.8141290164 0.2254442323 6.46291e-05 -3.22713e-05 0.0001489309 -0.0002488646 -0.132323271 0.0597148577
145299130.0 -0.8125643705 0.2345023569 4.7818e-06 9.86539e-05 -8.67945e-05 0.000102835 -0.1317394407 0.0599734113
150299100.0 -0.8101510488 0.2433728735 4.48896e-05 -0.0001183403 0.0003626164 0.0002483447 -0.1312569213 0.0602464953
155299070.0 -0.8075185421 0.2527222903 -1.5193e-06 0.0002955218 -2.87895e-05 3.3018e-06 -0.1303251581 0.0610135204
160299040.0 -0.8046487792 0.260866712 0.0001528204 -9.25635e-05 5.18447e-05 -0.0001008044 -0.1295114053 0.0613707192
165299010.0 -0.8025570714 0.2689506525 -0.0001189614 0.0001061607 2.65697e-05 -3.21022e-05 -0.1290300825 0.0615661506
170298980.0 -0.7995180544 0.2782923254 -1.60926e-05 -9.52988e-05 8.83218e-05 5.3358e-05 -0.1283647274 0.0620592185
175298950.0 -0.7964919564 0.2869307071 0.0002209618 1.41309e-05 -0.0001092382 -5.42507e-05 -0.1276666713 0.0629212446
180298920.0 -0.7939027966 0.2950107727 3.78409e-05 0.0002382873 0.0001155641 -1.81433e-05 -0.1271502189 0.0633645432
185298890.0 -0.7903027815 0.3041443043 7.51013e-05 0.0001544531 0.0001110688 6.71192e-05 -0.1269870268 0.063594127
190298860.0 -0.7874997092 0.3122509706 0.0001818596 -8.24494e-05 0.0002143883 0.0002057802 -0.1261385768 0.0644770817
195298830.0 -0.7839620364 0.3206355633 0.000109565 0.0001331672 0.0002940244 -0.0001190237 -0.1258573698 0.0649230459
200298800.0 -0.7807273685 0.3294380073 -0.0001000183 1.42333e-05 -6.9498e-06 -9.94176e-05 -0.1248475299 0.0655532348
205298770.0 -0.777504471 0.3374985189 0.0001597739 -7.67328e-05 0.00020956 7.23306e-05 -0.1245976885 0.0662479348
210298740.0 -0.7734095203 0.3454254659 0.0001937719 -1.36024e-05 -0.000146892 5.2274e-05 -0.1241145114 0.0672485166
215298710.0 -0.7703724001 0.3541081299 -0.0001432025 -8.5064e-06 0.0001870687 -2.28483e-05 -0.124076187 0.0679465019
220298680.0 -0.7670974306 0.3623128575 7.59555e-05 4.75439e-05 0.0001067815 9.88274e-05 -0.1231458998 0.0690161404
225298650.0 -0.7627681632 0.3707311491 1.45262e-05 0.0001250954 -3.24746e-05 0.0002429665 -0.1231141915 0.0698835311
230298620.0 -0.7587508865 0.3787285498 -7.10851e-05 0.000214537 0.0001441186 0.0001935567 -0.1222155858 0.070269946
235298590.0 -0.7547829092 0.3873211855 8.51851e-05 0.0001000847 2.02639e-05 8.95087e-05 -0.1217082995 0.0710438476
240298560.0 -0.750845459 0.3952298512 0.0001242478 0.0001087162 9.21558e-05 2.65749e-05 -0.1214623796 0.0720373535
245298530.0 -0.7466604502 0.4028403009 4.01481e-05 0.0001772312 0.0001769658 0.0003621793 -0.1205281813 0.0729775639
250298500.0 -0.7420992079 0.4104956836 1.55454e-05 6.66025e-05 6.67599e-05 0.00027978 -0.1198752477 0.0740624838
255298470.0 -0.7378820943 0.419045098 7.47733e-05 0.0002462179 2.03844e-05 -0.000111191 -0.1194649574 0.0748843755
260298440.0 -0.733863379 0.4259939553 0.0001228536 -8.83432e-05 -6.342e-07 6.02953e-05 -0.1191161834 0.0758596836
265298410.0 -0.7286924776 0.4339457262 0.0001220948 -3.21027e-05 0.0001814549 0.0002322565 -0.1184212003 0.0766424024
270298380.0 -0.7246097899 0.4416681373 0.0002913097 0.0001940836 0.0001238936 0.0003710485 -0.1174633787 0.0776220037
275298350.0 -0.7192480573 0.4497392814 -0.0001035271 3.66367e-05 0.0001106948 0.0001448359 -0.1170193276 0.0789389779
280298320.0 -0.7149378085 0.4565362049 -2.5837e-06 3.2375e-05 0.0003147217 0.0002124769 -0.1166437245 0.0795782611
285298290.0 -0.7099142967 0.4642205291 -0.000115246 -7.0171e-05 5.52861e-05 0.0004137626 -0.1159344526 0.0809619915
290298260.0 -0.7058827601 0.4718273625 0.0001653208 0.0001125169 0.0002797451 0.0002136285 -0.1151509851 0.0820007615
295298230.0 -0.7003442532 0.4789162066 -2.99603e-05 0.0001610686 8.89552e-05 0.0001112469 -0.114685169 0.0830639464
300298200.0 -0.6946367473 0.4864445662 -0.0001351579 3.87642e-05 4.87172e-05 5.25637e-05 -0.1139980466 0.0840915997
305298170.0 -0.6893709502 0.4942926785 -3.4731e-06 7.20084e-05 0.0002644754 0.000144515 -0.1130721386 0.0852716469
310298140.0 -0.6846533205 0.5010355109 0.0001082429 -6.2206e-06 0.0001693759 0.0003270035 -0.112517551 0.0862376026
315298110.0 -0.6794920703 0.5080363712 0.0002406262 0.0002242405 0.0001458464 0.0002014695 -0.1116494078 0.087294267
320298080.0 -0.6735163142 0.5153405502 0.0001114297 0.0001465955 0.0001823722 0.0001325517 -0.1110131842 0.0881510395
325298050.0 -0.6687507186 0.5220413709 0.0001435942 0.0004007467 5.11397e-05 -1.49287e-05 -0.1104109035 0.0894216975
330298020.0 -0.6630476029 0.5292788799 7.50974e-05 -3.18838e-05 -6.28e-07 0.0001229941 -0.1094667851 0.090293337
335297990.0 -0.6570297765 0.5363040453 4.34842e-05 5.90651e-05 -0.0001254317 7.93832e-05 -0.1091770802 0.0912757085
340297960.0 -0.651791733 0.5428208092 0.0001905525 0.0002353886 8.58954e-05 0.0002186227 -0.1084900971 0.0923844972
345297930.0 -0.6466113938 0.5486726336 0.0004165729 5.77935e-05 -1.20384e-05 0.000226613 -0.1081926022 0.0937491483
350297900.0 -0.6405388735 0.5563051407 0.0002836728 -2.27313e-05 0.0001964297 0.0001364539 -0.107117974 0.0948217272
355297870.0 -0.6342468897 0.5625589482 0.0001711364 0.000267107 7.4461e-06 0.0003063414 -0.1063433959 0.0959355436
360297840.0 -0.6283518338 0.5688194419 4.29831e-05 -8.50579e-05 0.0003037459 9.94322e-05 -0.1058433742 0.0971902594
365297810.0 -0.6222444904 0.5760667821 -0.0002124509 8.2675e-06 0.0001053218 -0.0001175695 -0.1049575642 0.0985235209
370297780.0 -0.6163687316 0.5817335691 0.0001978833 0.0001396959 0.0001989146 5.92372e-05 -0.1042956478 0.0995593228
375297750.0 -0.6101971443 0.5879919352 0.0002480229 0.0001015936 6.67842e-05 9.5185e-05 -0.1034438996 0.1011525944
380297720.0 -0.6036434081 0.5945501604 0.0001672387 -8.12013e-05 0.0001829766 -6.86486e-05 -0.1025970637 0.1020897662
385297690.0 -0.5981802356 0.6004658711 -6.41346e-05 0.0001043131 7.05623e-05 5.39876e-05 -0.1021064689 0.1031837383
390297660.0 -0.5916595765 0.6072425769 0.0001924479 0.0002382136 0.0001364549 2.40433e-05 -0.1011223023 0.1039983292
395297630.0 -0.5852300485 0.6129141771 0.0002107426 0.0001076232 0.0003094086 -0.0001761371 -0.1002565399 0.1057381624
400297600.0 -0.5790257702 0.6191254341 0.0001279484 3.48293e-05 0.0002506852 0.000209406 -0.0995243223 0.1068993414
405297570.0 -0.5727971806 0.6247341575 9.97708e-05 3.46552e-05 0.0001491256 -5.15219e-05 -0.0987830678 0.10780697
410297540.0 -0.5652163432 0.6303936207 0.000250577 0.0003368776 9.3631e-06 -1.27237e-05 -0.0977088452 0.1089892626
415297510.0 -0.559074435 0.6361011092 4.50498e-05 -2.09577e-05 7.61369e-05 -4.54969e-05 -0.0968425005 0.1102204015
420297480.0 -0.5521724497 0.6418164717 0.0004344751 0.0001536105 0.0001537066 4.40707e-05 -0.0960315824 0.1110906861
425297450.0 -0.5458372017 0.6476131968 -1.56957e-05 0.0001847749 1.10395e-05 0.0002086228 -0.0951494206 0.1124034373
430297420.0 -0.5393802685 0.653332511 0.000174983 0.0002809789 0.0002354346 2.17987e-05 -0.0941940378 0.1133163205
435297390.0 -0.5317622599 0.6587342574 0.00028383 0.0002856388 0.0001539738 0.0001278367 -0.0932260002 0.1145859923
440297360.0 -0.5254026377 0.6641940859 0.0002584289 2.64344e-05 0.000131564 0.0002047641 -0.0926468 0.1154120343
445297330.0 -0.518393085 0.6698355563 0.0001082939 0.0002087191 0.0002552201 4.50702e-05 -0.0914467231 0.1165544804
450297300.0 -0.51099146 0.674204622 0.0004120698 -0.0001302139 0.000315727 0.0001220612 -0.0909995714 0.1181112489
455297270.0 -0.5048839565 0.6804537577 0.0002340005 -2.83064e-05 0.0001846329 0.0001074034 -0.0891888089 0.1187969119
460297240.0 -0.4977961372 0.6851824163 0.0001722493 -0.0001181855 0.000204698 0.0001068822 -0.0882947817 0.1200718577
465297210.0 -0.489901067 0.6905050234 0.0001088318 6.85156e-05 0.00015171 -7.56728e-05 -0.0877678659 0.1208737285
470297180.0 -0.4829360613 0.6947397701 0.0002129639 0.0002906049 0.0003055244 -1.80486e-05 -0.086879203 0.1219425337
475297150.0 -0.475713879 0.6997940543 0.0001137802 0.0001858116 0.0001621729 -3.79903e-05 -0.0855034747 0.1231603968
480297120.0 -0.4688622123 0.7046552482 -0.0001905114 0.0001431287 0.0003398323 -1.49777e-05 -0.0844537181 0.1241659563
485297090.0 -0.4612202199 0.7093170875 9.05388e-05 5.41298e-05 0.0002525983 0.0001621472 -0.0838041998 0.1252411117
490297060.0 -0.4542771033 0.714374869 0.0004159898 2.13261e-05 0.0004922087 0.0003454568 -0.0825955873 0.125888406
495297030.0 -0.447025983 0.7183566231 0.0002404383 8.22128e-05 6.79885e-05 0.0001230616 -0.0814799953 0.1266415652
500297000.0 -0.4387185685 0.7231294071 0.0001405849 0.0001219437 0.0001788662 0.0001408224 -0.0805805097 0.1281259634
505296970.0 -0.4315294313 0.727193182 0.0001586764 0.0001399713 0.000196923 0.0001264424 -0.079576405 0.1292006956
510296940.0 -0.4241992604 0.7321353823 0.0001360179 -9.4957e-06 -9.264e-06 0.0001028682 -0.0785579354 0.1301107882
515296910.0 -0.416752327 0.7357998129 0.0001547709 0.0002359752 0.0001426959 9.25001e-05 -0.0772323801 0.131163044
520296880.0 -0.4090639632 0.7405718423 0.0001696947 0.0001763033 0.0002635457 0.0001345204 -0.0759639247 0.1318828577
525296850.0 -0.4016578079 0.7448868063 0.0002645854 0.0002385252 0.0003291108 8.3052e-05 -0.0748054424 0.1329973879
530296820.0 -0.393877356 0.7477208726 0.0002941871 -2.12693e-05 0.000230044 0.0001349461 -0.0741869535 0.133589187
535296790.0 -0.3858320121 0.751968252 4.19757e-05 0.0001174401 0.0002098101 0.0001432847 -0.0728871879 0.1345674794
540296760.0 -0.3787717161 0.7563515406 7.39541e-05 8.4551e-06 8.95331e-05 -0.000142114 -0.0718535209 0.135550987
545296730.0 -0.3711270896 0.7596214395 0.0002570655 0.0001153584 0.0002232468 0.0001210659 -0.0706112898 0.1362185952
550296700.0 -0.3636327938 0.7635214767 0.0004886078 9.36905e-05 0.0001665319 -3.65584e-05 -0.0695244474 0.1373245103
555296670.0 -0.3548460397 0.7672275411 0.0002339612 7.9451e-06 0.0002613394 -5.32835e-05 -0.0683478663 0.1382197216
560296640.0 -0.3473149471 0.7702804662 6.8866e-05 -3.95403e-05 0.0001721704 0.0001704275 -0.0666005792 0.1388845557
565296610.0 -0.339692771 0.7740113413 0.0001680814 0.0001046776 0.0001339946 0.0001526662 -0.0659702048 0.1396524001
570296580.0 -0.3314016043 0.7775917356 8.36839e-05 8.32386e-05 0.0001347725 -7.6013e-06 -0.0645841848 0.1407319548
575296550.0 -0.3233664458 0.7807655545 0.0001159194 0.0001006303 0.000189013 9.9826e-06 -0.0633284704 0.1412115569
580296520.0 -0.3156573062 0.7840786508 0.0001235487 0.0001554982 0.0001871635 -5.6506e-05 -0.0619962098 0.1422154456
585296490.0 -0.3075377628 0.7864088951 0.0006627007 -4.3468e-05 0.0001212664 2.9694e-06 -0.0612782762 0.1427259508
590296460.0 -0.2994985688 0.7898201747 0.0003303699 4.84939e-05 0.0001522627 -6.24809e-05 -0.0597939916 0.1439283616
595296430.0 -0.2912174003 0.793258769 0.0002318584 9.05664e-05 0.0001769205 0.0001546045 -0.0586780442 0.1445861381
600296400.0 -0.2835872603 0.7956830729 0.0002143064 0.0002541913 0.000439732 0.0002003273 -0.0568862855 0.1452629124
605296370.0 -0.2751211843 0.7982823512 0.000360088 4.68153e-05 0.0001137504 2.2529e-05 -0.0559957126 0.1460531078
610296340.0 -0.2673794567 0.8013313387 0.000170109 1.23408e-05 0.0001546195 -0.0001208216 -0.0546139693 0.1468780214
615296310.0 -0.2591342433 0.8038640488 7.96893e-05 -2.82777e-05 0.0002529024 -3.14399e-05 -0.0533650344 0.1474772044
620296280.0 -0.2507816212 0.8060758042 0.0002385539 0.0002156726 0.00022322 0.0001441817 -0.0521185963 0.1479899309
625296250.0 -0.2426783905 0.8092829907 0.0001389941 -2.5602e-05 9.15006e-05 -0.0001519019 -0.0509056101 0.1487934234
630296220.0 -0.2340085284 0.8114753038 0.0001311716 0.0002892704 0.0002335125 6.4774e-06 -0.0493567894 0.1498878474
635296190.0 -0.2260927526 0.8141218533 0.0002256384 6.5539e-05 0.0005801063 -5.96211e-05 -0.0485198305 0.1502611631
640296160.0 -0.218074316 0.8152734749 0.0002805757 -8.6525e-06 0.0003621512 -2.28894e-05 -0.0467915236 0.1509751567
645296130.0 -0.2099617312 0.8178875559 6.73411e-05 0.0002436371 0.0002610731 -0.0001637637 -0.0458781295 0.15145694
650296100.0 -0.2021228758 0.8204609233 0.0001479303 -0.0001026095 0.0001202846 5.71254e-05 -0.0443113852 0.152115421
655296070.0 -0.1927508925 0.822388539 0.0001219783 -6.72233e-05 0.0003115519 9.16086e-05 -0.0427812539 0.1530273584
660296040.0 -0.1855255344 0.8242888929 1.44678e-05 0.0001517812 0.0003081698 -0.0002322934 -0.0416537987 0.1534239467
665296010.0 -0.1767867555 0.8258204097 0.0001024924 6.30718e-05 0.0001527208 -2.5724e-05 -0.0402233727 0.1541781409
670295980.0 -0.1679051025 0.8275376402 0.0005518979 3.54945e-05 0.0002963438 -0.0001155245 -0.0387399557 0.1547544977
675295950.0 -0.1598617444 0.8288425344 0.0001989395 -2.46217e-05 0.0001273742 -0.0001356342 -0.0375266829 0.1552336189
680295920.0 -0.1522008704 0.8306605383 0.0001766377 -0.0001258566 0.0002989301 0.0001118586 -0.0361133286 0.1558849688
685295890.0 -0.1430696157 0.8322912011 0.0003161658 -4.67135e-05 0.0002997828 6.09302e-05 -0.0343124834 0.1562328399
690295860.0 -0.1342463019 0.8338552641 0.0001312098 -0.0001227024 0.0003097723 -0.0001504632 -0.0329034556 0.1569823555
695295830.0 -0.1264819027 0.8341451899 0.0001920603 0.0001425736 0.0001725309 -0.000132501 -0.0319194015 0.1574063774
700295800.0 -0.1181129738 0.8353837137 0.0002095715 -4.92267e-05 0.0001017493 5.85714e-05 -0.0304420159 0.1577751512
705295770.0 -0.10894614 0.8376518991 0.0001335166 0.0002326387 0.0004864665 -0.0001500316 -0.0291748015 0.1586409342
710295740.0 -0.1013555886 0.838059498 0.0002628577 0.0002269696 0.000253659 6.40968e-05 -0.0277975517 0.1588610901
715295710.0 -0.0933648457 0.8394525822 0.0004073849 -5.17436e-05 0.0002010771 -0.0001817828 -0.0261203249 0.1594074422
720295680.0 -0.0847793669 0.8401133598 0.0001571579 -5.35304e-05 0.000303999 -0.0002941369 -0.0247677564 0.1596152763
725295650.0 -0.074735692 0.8411154276 0.000442414 -0.0002640786 0.0002883431 -8.59338e-05 -0.0231163018 0.1599785396
730295620.0 -0.0678850956 0.8410149071 0.0004892762 -6.96701e-05 0.0002904047 -0.0001992529 -0.0217144105 0.1608090324
735295590.0 -0.0579151068 0.8419492347 0.00011994 -0.0001890981 0.0002040491 4.794e-06 -0.0200291842 0.1611937977
740295560.0 -0.0505622539 0.8424756378 0.0003891717 -0.0001001879 0.0001689069 4.70011e-05 -0.0188238436 0.1614896416
745295530.0 -0.0417050656 0.8427216599 7.3893e-05 7.76828e-05 0.0003332286 0.000141702 -0.0174900852 0.1619184517
750295500.0 -0.0339504655 0.8431959391 0.0001778187 -0.0001023305 2.63169e-05 -0.0002590565 -0.0160282665 0.1616653664
755295470.0 -0.0244039617 0.8433406761 0.000278534 -0.0001405111 0.0001591178 -8.34e-07 -0.0148267505 0.1628154586
760295440.0 -0.0164331874 0.8432479398 3.58189e-05 4.34788e-05 0.0001589921 -3.09706e-05 -0.0131895225 0.1630582024
765295410.0 -0.0077969484 0.8435675454 0.0003210693 5.62241e-05 0.0003599837 -9.40646e-05 -0.0112770149 0.1633103512
770295380.0 0.0004109825 0.8445618019 0.0001865894 2.70964e-05 0.0004511378 -0.0001068526 -0.0098755967 0.1634966104
775295350.0 0.008558683 0.8437805849 0.000252181 -0.000108342 0.0003467571 -0.0002200195 -0.0086941037 0.1637331647
780295320.0 0.0181702392 0.8433139376 0.0003335708 7.92072e-05 0.0001985737 -8.97215e-05 -0.0071338623 0.1641999945
785295290.0 0.0258241703 0.8438610706 0.0002687193 0.000131726 0.000221299 -6.92645e-05 -0.0056967636 0.1644676539
790295260.0 0.0338061413 0.8427675365 0.0003803275 -0.0001126476 0.0002685366 3.438e-05 -0.0040892568 0.1644014119
795295230.0 0.0427071239 0.843111221 0.0003841506 -6.54005e-05 6.21551e-05 -0.0001491137 -0.0023542962 0.1654204688
800295200.0 0.051532138 0.8426359233 0.0003349316 -8.298e-07 0.0003354578 -7.92041e-05 -0.000941311 0.165117176
805295170.0 0.0599008116 0.8418301566 0.0001896578 -8.06189e-05 0.0005978474 4.93313e-05 0.0002891462 0.1653169146
810295140.0 0.0684735868 0.8414931609 7.30464e-05 -6.9112e-06 0.000272408 1.06534e-05 0.0018635956 0.165950282
815295110.0 0.0770893848 0.8399198413 0.000302783 9.94418e-05 0.000185828 1.36109e-05 0.0032893336 0.1662290132
820295080.0 0.0850934149 0.8387243429 0.0002759709 -4.797e-07 0.0003005691 -0.000228297 0.004802798 0.1660105173
825295050.0 0.093562352 0.8392993145 0.0004715657 -1.26748e-05 0.0002258965 5.00893e-05 0.0067394062 0.1660532376
830295020.0 0.1022070609 0.8376262749 0.0002878616 -0.0002218763 0.000241716 -5.25215e-05 0.0080776173 0.1664531484
835294990.0 0.1099414162 0.8367922371 0.0004053257 0.0001219343 0.0001069217 -0.000200768 0.0100338871 0.1662907633
840294960.0 0.118572943 0.8355236118 0.0003212694 -0.000122393 0.0004215753 0.0001497003 0.0113576187 0.166839453
845294930.0 0.1268312479 0.8341860958 -2.9299e-06 -0.0002794497 6.81998e-05 -0.0001495806 0.0129069774 0.1669855473
850294900.0 0.1351137846 0.8325096018 0.0003120699 -0.0002183074 0.0002727911 -0.0002921524 0.0143312315 0.1667172258
