!Created with skrf (http://scikit-rf.org).
# Hz S RI R 50.0 
!freq ReS11 ImS11 ReS21 ImS21 ReS12 ImS12 ReS22 ImS22
300000.0 -0.7767600897 -0.1476801463 -0.0023139939 0.0006493933 9.07427e-05 0.0003652184 -0.0461944009 -0.0688035318
5299970.0 -0.7851753539 -0.0070543584 0.0001550743 4.49367e-05 0.0001237073 0.0001457612 -0.0488504417 0.0143840911
10299940.0 -0.7878026046 -0.0038407003 -0.0001289383 2.60848e-05 -3.0616e-06 -0.0001084302 -0.0430436039 0.0315275797
15299910.0 -0.7931707533 -0.0014147634 0.0001793778 2.40144e-05 7.26885e-05 -0.0001126322 -0.0346559488 0.0456068173
20299880.0 -0.7997531217 0.0025973297 -6.4377e-06 -0.0001548097 7.48594e-05 -0.0002311097 -0.0252322239 0.0572429629
25299850.0 -0.806448217 0.0084743435 5.91498e-05 0.0001718213 9.18582e-05 2.87456e-05 -0.0143831915 0.0661353223
30299820.0 -0.8119631464 0.0163009632 0.0001176151 -1.55492e-05 2.17629e-05 -6.5332e-06 -0.0031658325 0.0725933115
35299790.0 -0.816802261 0.0249186862 0.0001023113 0.0001104082 8.60488e-05 0.0001428135 0.0082286385 0.0772608662
40299760.0 -0.8215068353 0.0340868237 1.06419e-05 5.05007e-05 -6.80119e-05 8.67375e-05 0.0192498358 0.0796547957
45299730.0 -0.8248289169 0.0441410812 -0.0002083146 3.33495e-05 5.16737e-05 1.7716e-06 0.0297504999 0.0814528574
50299700.0 -0.8269931531 0.0540915132 5.89047e-05 3.15021e-05 0.0002452163 -5.7961e-05 0.0396914254 0.0812379997
55299670.0 -0.8284731914 0.0642476585 0.0001696611 0.0001813295 -0.0001919212 0.0001055131 0.0481232993 0.0801268737
60299640.0 -0.8296060008 0.0746450625 8.73816e-05 0.0001402391 4.66481e-05 -6.73376e-05 0.0567014644 0.078188453
65299610.0 -0.8310104455 0.0849191942 -8.51742e-05 2.74618e-05 0.0001294333 -0.0001209041 0.0645265504 0.0756802457
70299580.0 -0.8310486703 0.0944009127 8.67781e-05 6.70216e-05 4.31968e-05 -4.12341e-05 0.0713550782 0.072912569
75299550.0 -0.8312803738 0.1046638889 8.68146e-05 -0.0002069837 -1.46093e-05 -0.0002148191 0.0776015925 0.069592857
80299520.0 -0.8312981012 0.1147410869 2.44308e-05 -0.0001846539 3.16363e-05 -3.94743e-05 0.0826454601 0.0662097962
85299490.0 -0.8304797129 0.1238750384 8.51122e-05 3.09766e-05 0.0002189614 0.0001078411 0.0877052479 0.0623878441
90299460.0 -0.8294329711 0.1344510628 4.49943e-05 8.14076e-05 0.0001502891 7.84748e-05 0.0923555582 0.0585908009
95299430.0 -0.8286606858 0.1437613408 0.000104847 0.0001050725 8.20812e-05 3.83361e-05 0.0962480433 0.0548359696
100299400.0 -0.8279131995 0.1534742982 5.17752e-05 0.0001626133 6.67539e-05 -0.0001480303 0.0995417842 0.0507744862
105299370.0 -0.8264966429 0.1617806505 -0.000103987 -4.45179e-05 -6.10079e-05 -0.0001549235 0.1033006958 0.0464813397
110299340.0 -0.8250488032 0.1710907832 -4.22699e-05 3.41175e-05 0.0002118688 -7.58423e-05 0.1056910254 0.0428949857
115299310.0 -0.8240563821 0.180280895 7.99439e-05 -5.243e-07 -2.85874e-05 -3.82508e-05 0.1082845054 0.0385031705
120299280.0 -0.8222273664 0.189417724 -2.31537e-05 6.26494e-05 -0.0001447111 4.4096e-05 0.1104243391 0.0349269576
125299250.0 -0.8203699135 0.1988139384 9.81685e-05 -0.000121769 -7.22701e-05 4.00452e-05 0.1126139937 0.0309374782
130299220.0 -0.8186837871 0.2074320314 0.0003706048 6.47336e-05 1.26804e-05 9.98758e-05 0.1137615619 0.0271310877
135299190.0 -0.8166084403 0.21658954 0.0001521115 1.39335e-05 -5.04867e-05 0.0002320825 0.1153419322 0.0236511548
140299160.0 -0.8149655234 0.2253851522 6.64587e-05 8.16389e-05 3.25856e-05 3.65504e-05 0.1166739556 0.0195883091
145299130.0 -0.8120437093 0.2345970636 3.71633e-05 0.0001777297 4.80563e-05 -0.0001579834 0.1174532572 0.0165885583
150299100.0 -0.8099182203 0.2431679752 -0.0002180206 6.50035e-05 1.23587e-05 4.79074e-05 0.1184146805 0.0127961597
155299070.0 -0.807912315 0.2521988719 -0.0001750213 -2.30243e-05 -5.10173e-05 -0.0001001125 0.1191865197 0.0096753087
160299040.0 -0.8051342097 0.2610758168 -4.12871e-05 -4.97763e-05 0.0002582564 0.0001741355 0.1199018888 0.0063470255
165299010.0 -0.8019454107 0.2693161409 0.0002493495 0.0001554728 0.0001109433 -1.40475e-05 0.1200851807 0.0027594829
170298980.0 -0.7989411092 0.2779478197 0.0002717666 -4.67642e-05 -0.0001770583 0.0001576207 0.1205640912 -0.0001966506
175298950.0 -0.7969380224 0.286931434 0.0001663948 0.0001148017 0.0001655953 -2.18185e-05 0.120728281 -0.0032392723
180298920.0 -0.7941151175 0.2948148106 0.0001081614 -2.36046e-05 -9.83515e-05 -0.0001512666 0.1209786224 -0.0063217562
185298890.0 -0.7908583413 0.3043942693 3.42779e-05 4.24669e-05 -1.17575e-05 -2.18604e-05 0.1206823598 -0.0094007933
190298860.0 -0.787627837 0.3122157288 -8.21273e-05 -0.0001393683 9.71808e-05 4.9113e-06 0.1210463511 -0.0120714851
195298830.0 -0.7836486291 0.3207563028 3.87758e-05 0.0002146228 8.16245e-05 8.24081e-05 0.1204750503 -0.0152102756
200298800.0 -0.7810937292 0.3294281944 -4.7138e-05 3.00263e-05 0.0002342861 0.0001043804 0.1210057228 -0.0181249498
205298770.0 -0.7774859811 0.337157647 -0.000230168 2.61833e-05 0.0001452806 0.0001322828 0.1204864753 -0.0206048268
210298740.0 -0.7735868673 0.3458787694 0.0001221948 -9.2006e-06 0.000200016 -4.54154e-05 0.1199696142 -0.02338099
215298710.0 -0.7706611913 0.3543703302 0.0001802396 0.0002499218 7.68709e-05 -0.0001057294 0.1191315392 -0.0254696527
220298680.0 -0.7669884513 0.3621665768 -7.07645e-05 0.0001557987 0.0002127128 -1.00509e-05 0.119018502 -0.0279337531
225298650.0 -0.7624865661 0.3706473888 0.0002157448 0.0001401759 0.0003260964 0.0002015522 0.118124297 -0.030061135
230298620.0 -0.7589773855 0.3790646306 9.20159e-05 6.54907e-05 -1.9828e-05 -1.34886e-05 0.117968729 -0.0328821017
235298590.0 -0.7547479079 0.38716878 1.22103e-05 -0.0001385648 -1.7366e-05 8.56087e-05 0.1172014406 -0.035049649
240298560.0 -0.7508517725 0.3946960712 -4.86243e-05 4.50902e-05 7.75405e-05 1.9265e-05 0.1167740241 -0.0377259943
245298530.0 -0.7463471108 0.4025751161 0.0001943353 -8.89411e-05 5.5633e-05 -1.2704e-06 0.1159492772 -0.0398924428
250298500.0 -0.7424829668 0.410886664 0.0001168908 -1.38838e-05 -0.0001254257 -7.55709e-05 0.115903559 -0.0417080825
255298470.0 -0.7378483722 0.4186483965 -6.48707e-05 0.0001812135 5.22203e-05 -2.46138e-05 0.1146596752 -0.0444984806
260298440.0 -0.73373746 0.4257437708 8.77643e-05 -2.3578e-05 -2.36953e-05 -9.2457e-05 0.1137358879 -0.0461674563
265298410.0 -0.7295155752 0.4336695345 -3.3668e-05 8.42595e-05 5.40745e-05 0.0002795451 0.1127823683 -0.0482647455
270298380.0 -0.7242991804 0.4415290972 0.0002474497 -3.8805e-05 0.0001431438 -2.65976e-05 0.1124960254 -0.050434556
275298350.0 -0.719332006 0.4494074693 7.88637e-05 0.0001193042 5.0802e-05 6.88447e-05 0.1117766845 -0.0522523173
280298320.0 -0.7153625143 0.4565317869 0.000278422 2.95079e-05 6.43271e-05 -3.27988e-05 0.1105330439 -0.0541593421
285298290.0 -0.7104291718 0.4644261112 0.0002271674 -7.2308e-06 7.07863e-05 0.000106765 0.1091071309 -0.0561441457
290298260.0 -0.7051931413 0.4712722496 9.22715e-05 -7.61781e-05 9.67979e-05 7.6013e-06 0.1087980462 -0.0577795874
295298230.0 -0.7008333462 0.4792575777 0.0001009371 0.0003078116 9.00665e-05 2.83602e-05 0.1075558174 -0.0598361005
300298200.0 -0.6950462378 0.4863991342 0.0003185019 0.0001188977 -7.41181e-05 -2.59712e-05 0.1066590216 -0.0616084008
305298170.0 -0.6903730255 0.4942869819 -0.0001019363 4.5026e-05 0.0001341485 -7.38426e-05 0.1062308785 -0.0634032353
310298140.0 -0.6848221135 0.5007816146 0.0001540644 2.42084e-05 0.0001389191 0.0001982962 0.1052565002 -0.0648661968
315298110.0 -0.6794604103 0.5078684627 0.0001572729 -2.85984e-05 0.000212644 -9.70778e-05 0.1042533689 -0.0669991333
320298080.0 -0.6743736203 0.5155518772 0.0001141641 -1.17662e-05 8.738e-05 0.000126966 0.1030202491 -0.0688809671
325298050.0 -0.6684946322 0.5221066357 5.61223e-05 -3.6079e-05 -3.71752e-05 -0.0001101882 0.101562177 -0.0707149902
330298020.0 -0.6629886891 0.5292176623 0.0001302613 3.57e-05 0.0001327827 -9.46767e-05 0.1003253921 -0.0724535985
335297990.0 -0.6571984198 0.5359187931 -2.05118e-05 7.84088e-05 -8.31138e-05 0.0002048075 0.0989379185 -0.0739913575
340297960.0 -0.652678869 0.5428727946 0.0001689011 -4.2507e-06 0.0001248243 5.25248e-05 0.0979190477 -0.0754271402
345297930.0 -0.6458939728 0.5491315012 4.71282e-05 0.0001242403 0.0001169773 8.7703e-06 0.0962756987 -0.0768166824
350297900.0 -0.6402124724 0.5555918 9.41319e-05 0.0003137487 3.01616e-05 -6.90327e-05 0.0950720315 -0.0779563584
355297870.0 -0.6343017879 0.5628566354 0.000193184 4.54342e-05 -2.90245e-05 0.00014334 0.0937043474 -0.0792379332
360297840.0 -0.6282934505 0.5689083758 -4.92566e-05 0.0001454825 6.94268e-05 0.0001506202 0.0922649381 -0.0802783271
365297810.0 -0.6230625507 0.5759027878 0.0001636461 3.68067e-05 9.2222e-05 -3.65942e-05 0.0906880499 -0.0818181109
370297780.0 -0.6161479426 0.5820213151 0.0001298573 -0.000181641 -5.67195e-05 -6.89616e-05 0.0892299679 -0.0832075427
375297750.0 -0.6105342771 0.5885277258 0.0001642105 -1.11051e-05 9.8724e-06 3.273e-07 0.0880353153 -0.0841664804
380297720.0 -0.6041697641 0.59471193 -5.99837e-05 0.0001206435 -0.0001077062 1.6653e-05 0.0868477733 -0.0852223629
385297690.0 -0.5974747287 0.6005732291 2.08463e-05 0.0001336025 -9.85135e-05 5.29207e-05 0.0853458138 -0.0862113648
390297660.0 -0.5916206544 0.6070046975 -5.62812e-05 0.0001430458 -9.6766e-06 -0.0001399347 0.0841339049 -0.0877162865
395297630.0 -0.5852519544 0.6128707723 9.96237e-05 3.35097e-05 0.0002228068 0.000108009 0.0826520828 -0.0889037452
400297600.0 -0.5788449203 0.6189582956 0.0001823331 9.86203e-05 4.52516e-05 3.09081e-05 0.0807131811 -0.0898256623
405297570.0 -0.5724321089 0.6248609124 3.46561e-05 8.93459e-05 0.0001093034 9.40496e-05 0.0796907727 -0.0906766168
410297540.0 -0.5655361933 0.6307648195 -7.3315e-06 0.0001506214 6.19958e-05 6.05345e-05 0.0780562439 -0.0915677193
415297510.0 -0.5590984121 0.6364455057 0.0001990174 0.0002231615 1.21103e-05 7.68881e-05 0.0765826142 -0.0922858902
420297480.0 -0.5519354098 0.6421367836 -9.1487e-06 -4.23184e-05 -6.81449e-05 7.35031e-05 0.0749962151 -0.093677399
425297450.0 -0.5459689372 0.647920991 0.0002688178 -6.711e-05 9.84278e-05 0.0001377389 0.0737674457 -0.0946723981
430297420.0 -0.5391171393 0.6533131924 0.000309429 5.95504e-05 9.2237e-05 0.0002033559 0.0723644146 -0.0954346114
435297390.0 -0.532055516 0.6592725602 0.0001406024 -1.97423e-05 7.46617e-05 2.96919e-05 0.0707561321 -0.0962375452
440297360.0 -0.5252985313 0.6641250983 0.000117255 -6.33114e-05 0.000229046 3.73335e-05 0.0690187646 -0.0974059386
445297330.0 -0.5181533671 0.6700977265 0.0001031502 4.48148e-05 5.04255e-05 1.06788e-05 0.0676181482 -0.0982280603
450297300.0 -0.5112522377 0.6744108189 0.0002662446 7.0601e-06 5.57237e-05 9.60262e-05 0.0660857961 -0.0988820672
455297270.0 -0.5043072485 0.6807090009 0.0001018503 0.0002730165 0.0002107068 -7.34165e-05 0.0645407816 -0.0994972382
460297240.0 -0.4979586948 0.6848064202 9.37251e-05 5.64381e-05 0.0001192472 6.93434e-05 0.0634077819 -0.100470564
465297210.0 -0.4897636966 0.6905570287 3.32682e-05 0.0002004451 0.000142313 4.77658e-05 0.0611704763 -0.1012247681
470297180.0 -0.4833111788 0.6945977093 0.0001390983 0.0001943912 8.92646e-05 9.99121e-05 0.0594095106 -0.1017547085
475297150.0 -0.4762025381 0.6998071085 0.0002735978 -0.0001435708 0.0001403158 -0.0001649817 0.0583902481 -0.1027454992
480297120.0 -0.4689940896 0.7047662668 3.94549e-05 0.0002058097 6.90192e-05 0.0001150143 0.0566716291 -0.1028693001
485297090.0 -0.4617828348 0.7094209527 0.0002051507 -2.31088e-05 0.0001410155 3.56641e-05 0.054437999 -0.1038549084
490297060.0 -0.454366585 0.7138580466 0.0002162936 6.07862e-05 0.0002029116 -1.7014e-06 0.0533185293 -0.1044419008
495297030.0 -0.4472402682 0.7184451198 7.47677e-05 -0.0002538967 6.90415e-05 9.80445e-05 0.0515973933 -0.1052556833
500297000.0 -0.438239492 0.7228434576 -6.97431e-05 -8.64563e-05 0.0002043597 6.47913e-05 0.0499582647 -0.1057801407
505296970.0 -0.4315944984 0.727207381 0.0003173492 0.0001203447 8.89688e-05 4.34025e-05 0.0481613418 -0.1060465302
510296940.0 -0.4245432302 0.732387394 6.48785e-05 -0.0001220749 6.4153e-05 0.0001101975 0.0467965315 -0.1065434677
515296910.0 -0.4172696406 0.7363801521 0.0001959874 -7.6542e-06 0.0002988919 8.17797e-05 0.0450531153 -0.1070738964
520296880.0 -0.4092777061 0.7404918596 -4.08627e-05 1.82199e-05 0.0003291451 0.0001675486 0.0435325831 -0.1077875016
525296850.0 -0.4016750379 0.7445868529 0.0004118455 -4.68255e-05 0.0001425825 -2.6036e-05 0.0417829641 -0.1081580842
530296820.0 -0.3945918405 0.7479718739 -0.0001414212 0.0001414606 9.91159e-05 0.0001281463 0.0398016524 -0.1086878641
535296790.0 -0.3864759095 0.7525253429 0.0003710747 -0.0001012247 0.0001787472 -6.81277e-05 0.0382119576 -0.1094179487
540296760.0 -0.3781415974 0.7560568512 0.0001378338 -0.0001379222 4.06342e-05 7.69568e-05 0.036247607 -0.1096473841
545296730.0 -0.3708512712 0.7595041373 9.97604e-05 5.99136e-05 8.44809e-05 -0.0001336926 0.035003551 -0.1102328565
550296700.0 -0.3632691148 0.7641802796 0.0001071936 -6.20133e-05 -4.34645e-05 0.000134798 0.0330232041 -0.1102223072
555296670.0 -0.3547976234 0.7669929594 0.0001022551 -6.30015e-05 9.9299e-05 0.0001564445 0.0313745241 -0.1105051476
560296640.0 -0.3472815763 0.7707856371 0.0002390991 2.56985e-05 1.6827e-06 0.0001334751 0.0298865306 -0.1110656264
565296610.0 -0.3400388686 0.7733880161 -1.68015e-05 7.12903e-05 3.34433e-05 0.0001027183 0.0279178244 -0.1111253745
570296580.0 -0.331673087 0.7771510668 0.0001957866 -1.2234e-06 3.32924e-05 -0.0002148267 0.0264134651 -0.1114059084
575296550.0 -0.3241009228 0.7806374087 0.0001696757 -0.000130896 9.48705e-05 -1.11981e-05 0.0247481417 -0.1117906615
580296520.0 -0.3154864212 0.7836885656 -5.38238e-05 -0.0001176088 -7.99211e-05 -5.5574e-05 0.0226982703 -0.1119665051
585296490.0 -0.3077978671 0.7859812525 5.97486e-05 -5.56318e-05 0.0002043986 -3.48825e-05 0.0211627563 -0.1126158912
590296460.0 -0.3000161574 0.7896384969 0.0002674667 -2.97885e-05 0.0001509205 9.49485e-05 0.0196502697 -0.1127082088
595296430.0 -0.2909623853 0.7934589348 0.0001289112 -4.9687e-06 8.76654e-05 -4.0103e-06 0.017548674 -0.1126957236
600296400.0 -0.2840079889 0.7956851359 0.0002865789 2.41932e-05 0.0001101194 -0.0001251577 0.0159538385 -0.112652262
605296370.0 -0.2750887353 0.7990116875 0.0002730637 6.06321e-05 9.65118e-05 -0.0001531779 0.014313268 -0.1128484016
610296340.0 -0.2676194744 0.8016189601 0.0001575475 -9.7271e-06 -6.7047e-06 -6.76915e-05 0.0124620525 -0.1129509039
615296310.0 -0.2594081281 0.8042656918 -3.55925e-05 -4.56329e-05 0.0002729625 -0.0001989258 0.0111338001 -0.1132502569
620296280.0 -0.2509929241 0.8061221711 0.0001954018 -0.0001281526 0.0001747807 -0.0001266069 0.0091400857 -0.1134796356
625296250.0 -0.2424411771 0.8094124199 0.0001482529 0.000150556 9.21984e-05 0.0001293506 0.0076598052 -0.1130018408
630296220.0 -0.2342378747 0.8115448402 2.51556e-05 -0.0004655246 0.0001620635 -1.71389e-05 0.0059234629 -0.1129906846
635296190.0 -0.2264829966 0.8143109984 0.0001837386 -0.0002249483 0.0001421423 5.43427e-05 0.0042014916 -0.1127539582
640296160.0 -0.2179702664 0.8151615053 0.0001017474 -2.8274e-06 6.37089e-05 0.0001654275 0.002368478 -0.1130464095
645296130.0 -0.2099739045 0.8177478379 0.0002271135 0.0001386546 0.0002067811 -5.24341e-05 0.0007444479 -0.1129240065
650296100.0 -0.2018723838 0.8204082625 0.0001829643 0.0001324566 0.0004317843 -7.24779e-05 -0.0009374568 -0.1129008235
655296070.0 -0.1931595351 0.8220125637 -3.67639e-05 -9.3694e-05 0.0002029978 2.68594e-05 -0.0026685422 -0.1124311321
660296040.0 -0.1857066888 0.8247652878 -2.27434e-05 -6.76769e-05 0.0001333303 3.9004e-06 -0.0044572036 -0.1123791261
665296010.0 -0.1770015867 0.8259910198 0.0002564235 0.0001994727 7.57759e-05 -6.61573e-05 -0.0060929078 -0.1123481944
670295980.0 -0.1677727438 0.827437654 9.84973e-05 -6.80065e-05 -0.0001291321 6.34583e-05 -0.0075586881 -0.1120236269
675295950.0 -0.1598806464 0.8285536159 0.0001753879 -5.49075e-05 0.0001919296 8.43126e-05 -0.0091457739 -0.1119677995
680295920.0 -0.1517865141 0.8307022267 4.62405e-05 4.43375e-05 3.06872e-05 -2.32761e-05 -0.0110432911 -0.1116128722
685295890.0 -0.1433405448 0.8317209927 1.6441e-05 -0.0001150852 0.0001020929 -2.6354e-06 -0.0123065903 -0.1114700205
690295860.0 -0.13429599 0.8334940227 0.0001160728 -0.0001217641 0.0002965825 0.0002635075 -0.0139525368 -0.111095509
695295830.0 -0.1262215245 0.8347901915 9.06799e-05 3.22251e-05 0.0001707054 -0.0001122037 -0.0161981242 -0.1109366908
700295800.0 -0.1180657534 0.8359560273 -4.12747e-05 -1.14474e-05 0.0001481714 -4.51418e-05 -0.0177232548 -0.1106333299
705295770.0 -0.1091102221 0.8376659304 0.0002169988 -4.94731e-05 0.0001220683 2.64542e-05 -0.0193038922 -0.1100851669
710295740.0 -0.1011338802 0.838377727 -0.0002308212 -4.4301e-06 4.98087e-05 0.0001105719 -0.021110931 -0.1096224744
715295710.0 -0.0934367711 0.8387752249 8.25864e-05 2.39076e-05 0.0002546908 0.000168518 -0.0224259901 -0.1092599381
720295680.0 -0.084245996 0.8396511004 6.57993e-05 -0.0002146329 0.0002074975 -8.47063e-05 -0.0241577238 -0.1091776055
725295650.0 -0.0750509095 0.8406735695 0.0002847084 9.49441e-05 0.0001652554 -6.14356e-05 -0.0257302722 -0.1085089576
730295620.0 -0.0675206098 0.8415322473 0.0002485741 0.0003452247 -0.0001025261 2.1614e-06 -0.0273727571 -0.1080510471
735295590.0 -0.0585574855 0.8417368109 0.0001991402 4.99694e-05 0.0003186632 0.0001890057 -0.0287034706 -0.1074871006
740295560.0 -0.0503403841 0.8425776984 0.0001454122 0.000108909 -5.74401e-05 0.0002855799 -0.0305342944 -0.1071271996
745295530.0 -0.0415530586 0.8426090932 0.0001029161 -3.16152e-05 0.0001607418 -0.0001900864 -0.0321735249 -0.10668956
750295500.0 -0.0340766237 0.8433714699 3.89556e-05 0.0003019907 9.59405e-05 0.0001112295 -0.0338920432 -0.1065602516
755295470.0 -0.0245399689 0.8431753918 8.95392e-05 2.98586e-05 8.81967e-05 -0.000147888 -0.0354012142 -0.1053927555
760295440.0 -0.0165485749 0.8437395455 0.0001501716 -6.53884e-05 0.0001671227 -0.0001890095 -0.0372168073 -0.1046793228
765295410.0 -0.0082956548 0.843849229 0.0001084521 -0.0001111626 0.0002647755 -0.0002091564 -0.0383157066 -0.103920357
770295380.0 0.000614138 0.843899199 0.0001945266 9.3933e-06 -6.6194e-06 -0.0002224548 -0.0396116298 -0.1034961698
775295350.0 0.0088011559 0.8440980848 0.000114172 -0.0001440756 9.43785e-05 -0.0001115933 -0.0417539477 -0.1032062278
780295320.0 0.0175658137 0.8432175762 0.0002893539 -0.0001313778 0.0001145197 -0.0001488524 -0.0430733958 -0.1017770036
785295290.0 0.0258995971 0.8439571725 -8.9086e-06 6.4322e-06 0.0001120493 -2.97056e-05 -0.0445647615 -0.1015045773
790295260.0 0.0344299369 0.842764201 6.79804e-05 -9.48668e-05 0.000220857 -0.0002039643 -0.0458738093 -0.1006412678
795295230.0 0.0431323279 0.8434721795 0.0001104119 -0.000166338 3.97945e-05 1.96743e-05 -0.0476223253 -0.0996113806
800295200.0 0.0513983231 0.8426825851 0.0001531803 7.02249e-05 0.0002983109 -2.52178e-05 -0.0492302964 -0.0993147054
805295170.0 0.0591804847 0.8422147709 0.0001123224 5.70968e-05 0.0001817394 -6.9684e-06 -0.0510026365 -0.0983982745
810295140.0 0.0678113547 0.8408381266 0.0003113427 9.0244e-06 0.0002487286 3.93143e-05 -0.052141581 -0.0976252022
815295110.0 0.0769962834 0.8396553857 3.47927e-05 1.61261e-05 -1.2775e-06 -6.20307e-05 -0.0539903654 -0.096607584
820295080.0 0.0848544723 0.8384986219 0.0001801795 -9.89728e-05 0.000159552 -0.00014196 -0.0553543778 -0.0958694077
825295050.0 0.0936785141 0.8383596111 0.0002865474 -8.34143e-05 0.0001328479 8.58379e-05 -0.0568636297 -0.0947925604
830295020.0 0.1022393146 0.8378176196 6.1105e-05 8.00784e-05 0.0003311584 -9.2645e-06 -0.0582995995 -0.0940711411
835294990.0 0.1098295806 0.8368260327 0.0003617502 -0.0002428263 0.0001072477 -3.4753e-06 -0.0601199413 -0.0934849171
840294960.0 0.1184554975 0.8352088708 0.0002155088 9.21981e-05 9.55895e-05 -6.44365e-05 -0.0613338403 -0.0916690125
845294930.0 0.1274844551 0.8341776574 7.5315e-05 1.97611e-05 0.0003386153 -0.0001298246 -0.0625593155 -0.0911420497
850294900.0 0.1345556674 0.8328919672 0.0001628175 -6.81568e-05 0.0001453096 -0.0001569606 -0.0636761559 -0.0900523063
