!Created with skrf (http://scikit-rf.org).
# Hz S RI R 50.0 
!freq ReS11 ImS11 ReS21 ImS21 ReS12 ImS12 ReS22 ImS22
300000.0 -0.1003991983 -0.0627898062 0.6303478827 0.0573210121 0.6237236901 0.059657535 -0.1002787225 -0.0680691339
5299970.0 -0.1024950583 0.0133565234 0.6303464558 0.0098926797 0.6305229227 0.0106864407 -0.1010909646 0.0134646344
10299940.0 -0.0974077485 0.0295121416 0.633743087 0.0149605023 0.6343224872 0.0153994876 -0.0962170267 0.0303827912
15299910.0 -0.0902470494 0.0425349039 0.6404592244 0.0205482364 0.6408785875 0.0203832754 -0.0889394067 0.0437663019
20299880.0 -0.0817020381 0.0531325822 0.6487006935 0.0242576407 0.6483214106 0.0244507188 -0.0800736525 0.0543403894
25299850.0 -0.0725079438 0.0623072193 0.6577651814 0.0252298673 0.6575374338 0.0254987311 -0.0700428208 0.0630516653
30299820.0 -0.0622583238 0.0688415835 0.6675654501 0.0244110058 0.6671420495 0.02457421 -0.0601723389 0.0698477962
35299790.0 -0.0525985966 0.0738379145 0.6770856975 0.0211937451 0.6769454604 0.0213708658 -0.0498505964 0.0744810813
40299760.0 -0.0433615025 0.0772095004 0.6864027595 0.0173531499 0.686556484 0.0177446213 -0.0404961162 0.077220295
45299730.0 -0.0340990637 0.0793644669 0.6951138696 0.0119685955 0.6952928243 0.0121369238 -0.031477431 0.0794962874
50299700.0 -0.0257519698 0.0803339958 0.7030372639 0.0048351516 0.7038128153 0.0057094152 -0.0226507286 0.0805614513
55299670.0 -0.017634552 0.0805103179 0.7108103109 -0.0030627302 0.7111390994 -0.0026837011 -0.0145963659 0.0803574868
60299640.0 -0.009955973 0.0801446996 0.7174154303 -0.011207748 0.7176743574 -0.0105210133 -0.0076424304 0.0792383291
65299610.0 -0.0036944417 0.0789786004 0.7231927544 -0.0199437986 0.7236939999 -0.0195711089 -0.0009109389 0.0785349634
70299580.0 0.0024442824 0.0776262627 0.7286196071 -0.0292694812 0.7285401003 -0.0290295552 0.0049970941 0.0767421353
75299550.0 0.008378602 0.0758495167 0.7325863088 -0.0390260955 0.732919907 -0.0384675964 0.0103474272 0.0747142569
80299520.0 0.0131341747 0.0737347944 0.7372569399 -0.0483765352 0.7371876195 -0.0488514826 0.0153077419 0.0726322135
85299490.0 0.017756914 0.0714554422 0.740089697 -0.0581845686 0.7407652667 -0.0578606476 0.0197236829 0.0698242524
90299460.0 0.0216406435 0.0690460206 0.7428088628 -0.0685275798 0.7434747776 -0.0687224606 0.0239044355 0.0681445305
95299430.0 0.0258497334 0.0663696813 0.7459800768 -0.0788095069 0.7459702646 -0.0789029773 0.0278294953 0.0656507822
100299400.0 0.0290628924 0.0645743871 0.7465530808 -0.088755813 0.747026918 -0.0888059471 0.0314653775 0.062673941
105299370.0 0.0323223735 0.061837648 0.7487963226 -0.0993054665 0.7493935928 -0.0994322763 0.0344249313 0.0609199067
110299340.0 0.0351862297 0.059795145 0.7498347199 -0.108462377 0.7499892463 -0.1091364982 0.0363240317 0.0579709577
115299310.0 0.0375355928 0.057193542 0.7508537766 -0.1190861388 0.7512785414 -0.1189833055 0.0392690784 0.0560107463
120299280.0 0.0398256206 0.0545978611 0.751265966 -0.1289272781 0.7517915443 -0.1290087387 0.0414546379 0.053336616
125299250.0 0.041796495 0.0523558705 0.7518391961 -0.1387077435 0.7518373198 -0.1388451492 0.0429385238 0.0507644787
130299220.0 0.0434447062 0.0502185098 0.7511490231 -0.1489386938 0.7511943306 -0.1487366395 0.0446341587 0.0484799056
135299190.0 0.0453528083 0.0481645744 0.751603129 -0.1585701183 0.7513485719 -0.158691454 0.0465879519 0.0464900506
140299160.0 0.0465171581 0.0461512023 0.7507031657 -0.1686221716 0.7509709479 -0.1689027369 0.0475937854 0.0448241401
145299130.0 0.0479692965 0.0437779469 0.7497413401 -0.1783895844 0.7500974677 -0.1781220065 0.0492485584 0.0425495694
150299100.0 0.0496330199 0.0420511409 0.7489332995 -0.1872660344 0.7493416487 -0.1873751172 0.0505452861 0.0406440335
155299070.0 0.0501601118 0.0397923308 0.7481045322 -0.1982221933 0.7476365595 -0.1977252823 0.0515303564 0.0385696275
160299040.0 0.0518411962 0.0381681215 0.7462736618 -0.2071368529 0.7459186966 -0.2070702433 0.0517215175 0.0366131895
165299010.0 0.0522333106 0.0365390011 0.7451779458 -0.2166188701 0.7447333367 -0.2169241126 0.0532457614 0.0351476568
170298980.0 0.0529754496 0.0341597301 0.7426196018 -0.2261380283 0.7436548474 -0.2258911581 0.0540268222 0.0332831172
175298950.0 0.053566789 0.0324412755 0.7417032135 -0.2352557312 0.7409880583 -0.2351802634 0.0541524554 0.0315538627
180298920.0 0.0541747334 0.0309553954 0.7392863259 -0.2444286414 0.7388402741 -0.2441967662 0.0549305176 0.0299018272
185298890.0 0.0552613694 0.0290073029 0.7373064624 -0.2531395477 0.7365125617 -0.2533286407 0.0553704227 0.0283869504
190298860.0 0.0552762619 0.0277979841 0.7349557295 -0.262914795 0.7348836654 -0.2627118376 0.0560977373 0.0262884222
195298830.0 0.0559821053 0.0255859425 0.7319393201 -0.2715589043 0.7322628699 -0.2712458651 0.056839519 0.024758698
200298800.0 0.0565583414 0.0242935609 0.7290539807 -0.2812381078 0.7292729022 -0.280893237 0.0568622105 0.0234171729
205298770.0 0.0570653479 0.0229559041 0.7263366423 -0.2900856115 0.7261944641 -0.2895513376 0.0571630837 0.0211344024
210298740.0 0.0571695115 0.0212266872 0.7235634343 -0.298386435 0.72361694 -0.2973431427 0.0577019576 0.0209497813
215298710.0 0.0568925818 0.0197497209 0.7204165996 -0.3070532924 0.7210982037 -0.3071954061 0.0578174372 0.0196249118
220298680.0 0.0579626132 0.0178139604 0.7166739843 -0.3156917114 0.71725413 -0.315457599 0.0575396885 0.0178633672
225298650.0 0.0578998702 0.0167856449 0.7144123404 -0.3247384892 0.714164057 -0.3241007917 0.0576897696 0.0161402599
230298620.0 0.0581726794 0.0159708608 0.7107921163 -0.332945103 0.7113753247 -0.3326913657 0.0575080899 0.0148292078
235298590.0 0.0580776092 0.0144806356 0.7071202323 -0.3412162561 0.7075658528 -0.3408086875 0.0581296016 0.0133627901
240298560.0 0.058345873 0.0131845688 0.7038957656 -0.349711816 0.7031360737 -0.3497576458 0.0582324001 0.0129739779
245298530.0 0.0582208796 0.0119339797 0.7001585438 -0.358052412 0.7001081524 -0.3582329964 0.0586963701 0.0109131063
250298500.0 0.0586493557 0.0110082623 0.6952675355 -0.3662756774 0.6952190838 -0.3655035198 0.0584459664 0.0103543474
255298470.0 0.0587647606 0.0091167097 0.6916237598 -0.3743690437 0.6923040568 -0.3738327184 0.0586925008 0.00886195
260298440.0 0.0582186344 0.008167657 0.6880761759 -0.382663226 0.6879825312 -0.3824860456 0.0590625101 0.0078517088
265298410.0 0.0589305556 0.0076292594 0.6837104532 -0.3908548104 0.6838836681 -0.3900873368 0.0588487999 0.0068491469
270298380.0 0.0585015916 0.0062235794 0.6800410583 -0.3983424351 0.6801508414 -0.3981189875 0.0585677283 0.0058423562
275298350.0 0.0588172415 0.0049798069 0.6753119999 -0.4067263756 0.6760070288 -0.4063775025 0.058575258 0.0045136515
280298320.0 0.0585556528 0.0044548371 0.6712038315 -0.4142630294 0.6715289532 -0.4140107803 0.0590097204 0.0035011376
285298290.0 0.0586478295 0.0032846533 0.6669145411 -0.4223700802 0.6666389859 -0.422475406 0.0586069174 0.0027347258
290298260.0 0.05892187 0.0021695821 0.6622562242 -0.4296169442 0.6624230094 -0.4299179835 0.0588024175 0.0020014745
295298230.0 0.058736618 0.0009255571 0.6581616569 -0.4374638609 0.6575408603 -0.4375338585 0.0593540063 0.0007605146
300298200.0 0.0582339181 -0.0002477581 0.6530528474 -0.4451113913 0.6530828396 -0.4452865861 0.0588211578 -0.0003269882
305298170.0 0.0585328213 -0.0012377207 0.647747271 -0.4537731644 0.6478680061 -0.452955147 0.0593734095 -0.0018113356
310298140.0 0.058248166 -0.0023328693 0.6438623321 -0.4608178994 0.6437144597 -0.4603510177 0.0588226104 -0.0026002431
315298110.0 0.0582452741 -0.0038938017 0.6379964729 -0.4682866189 0.6383561184 -0.4682623221 0.058548613 -0.0038116345
320298080.0 0.058469667 -0.0048958238 0.6324653071 -0.4762882727 0.6330904782 -0.4756990378 0.0585597721 -0.0049335433
325298050.0 0.0577580375 -0.0060207359 0.6278071877 -0.4836680141 0.6274885863 -0.4831031787 0.0577449468 -0.0058755447
330298020.0 0.0573353939 -0.0069413881 0.621727157 -0.4907686999 0.622115976 -0.4907502805 0.0572943431 -0.0073682085
335297990.0 0.0569325008 -0.0083248476 0.6163728956 -0.4974824922 0.616099182 -0.4977173755 0.0563435911 -0.007471347
340297960.0 0.0558774289 -0.0087273498 0.610160041 -0.5051004542 0.6101184669 -0.5048838049 0.0568331719 -0.0083587951
345297930.0 0.0557953493 -0.0088573608 0.6051530183 -0.511845365 0.6044171279 -0.512304823 0.0560898408 -0.0097161622
350297900.0 0.0550953408 -0.0104825654 0.5980369153 -0.5182568427 0.59883495 -0.5181843459 0.0553745017 -0.0097913966
355297870.0 0.0548924629 -0.0101918676 0.5929995282 -0.5245569233 0.5932905239 -0.5247753069 0.0550160391 -0.0108408805
360297840.0 0.0547931924 -0.0114134435 0.5877375126 -0.5312326818 0.588048662 -0.5313392188 0.0547684536 -0.0112032067
365297810.0 0.0541527078 -0.0115908263 0.5810049341 -0.5382899806 0.5814411713 -0.5380374093 0.0544837878 -0.0119188243
370297780.0 0.0545830564 -0.0129187737 0.57488988 -0.5446352943 0.5757854767 -0.5439454358 0.054062289 -0.0124899689
375297750.0 0.0539559711 -0.0136048807 0.5693392195 -0.5505175289 0.56967569 -0.5510997949 0.0542318001 -0.0133687733
380297720.0 0.053707851 -0.014229444 0.5630496944 -0.557456664 0.5632925604 -0.5565376962 0.0533924173 -0.0142383062
385297690.0 0.0530358112 -0.0149327903 0.5568954806 -0.5640212368 0.5569196333 -0.5629324101 0.0533156704 -0.0144669823
390297660.0 0.0529827881 -0.0151248306 0.5507571645 -0.570165792 0.5507337417 -0.5694413881 0.0528376567 -0.0155343001
395297630.0 0.0524967496 -0.0160735118 0.5444482492 -0.5759083067 0.5448978681 -0.5760562645 0.0533769929 -0.0162428559
400297600.0 0.0520202682 -0.01681058 0.537376553 -0.5829591596 0.5380943265 -0.5820310552 0.0526929058 -0.0167775268
405297570.0 0.0512741833 -0.017397193 0.5307625354 -0.5878261973 0.5316442874 -0.5871961065 0.0521466786 -0.0169847201
410297540.0 0.0515372027 -0.0182436389 0.5252533232 -0.5938764128 0.5258382633 -0.5937873278 0.0515650336 -0.0173389603
415297510.0 0.0514399503 -0.018646227 0.5181585765 -0.5997042722 0.5189974045 -0.5995097476 0.0515646758 -0.0181997733
420297480.0 0.0510962025 -0.0192127823 0.511719566 -0.6056022663 0.5118694221 -0.6057378938 0.0510217285 -0.0191442843
425297450.0 0.0501329612 -0.0203885939 0.5051840999 -0.6116174837 0.505386406 -0.6112945482 0.0499665175 -0.0188583586
430297420.0 0.0498204247 -0.0209173094 0.498340388 -0.6160913136 0.4983560816 -0.6161522952 0.049992362 -0.0197685667
435297390.0 0.049285216 -0.0213425509 0.490821523 -0.6219080632 0.4912946152 -0.6221540856 0.0505809892 -0.0203945922
440297360.0 0.0493785927 -0.0217380752 0.4847605222 -0.6270771203 0.485075145 -0.6277377167 0.0494299037 -0.0213841035
445297330.0 0.0487163967 -0.0230771254 0.4781705237 -0.6329231294 0.4782318098 -0.632373134 0.0494092431 -0.0218733084
450297300.0 0.0486674942 -0.0230168415 0.4711549739 -0.638535636 0.4710329746 -0.6387718022 0.048539306 -0.0229677402
455297270.0 0.0483007688 -0.0235743765 0.4638732371 -0.6431471327 0.4643170159 -0.6435312867 0.0482221824 -0.0230437099
460297240.0 0.0474242928 -0.0242805286 0.456462409 -0.6484097273 0.457003177 -0.6487228515 0.0479425851 -0.0234717194
465297210.0 0.0474095185 -0.0247010433 0.4499248193 -0.653387901 0.4499785718 -0.6541998489 0.047708109 -0.0242709772
470297180.0 0.0469672047 -0.0255109932 0.4419505215 -0.6589365712 0.4426648961 -0.6587926284 0.0471993412 -0.0245510151
475297150.0 0.0466402171 -0.0261975356 0.434971141 -0.6631188221 0.4352904805 -0.6627974437 0.0473794244 -0.0255777253
480297120.0 0.0461182123 -0.0258875807 0.4280102373 -0.6684007002 0.4276571625 -0.6688118443 0.0471266405 -0.0254835026
485297090.0 0.0453349728 -0.0265327156 0.4204461881 -0.6725405903 0.4208171973 -0.6723255333 0.0463042921 -0.0262322576
490297060.0 0.0448259674 -0.0275214203 0.4137987406 -0.6779146134 0.4130003995 -0.6771756429 0.045720565 -0.0261475911
495297030.0 0.0445874556 -0.0275464827 0.4056038159 -0.6819991977 0.4062123495 -0.6818113612 0.0451661621 -0.0273788857
500297000.0 0.044128626 -0.0286162785 0.3976941746 -0.6858565885 0.3979717625 -0.6857909611 0.0447851652 -0.0270256659
505296970.0 0.0438692375 -0.0289294401 0.3904444912 -0.6907965894 0.39052908 -0.6903019018 0.0441786167 -0.0278316162
510296940.0 0.0432364194 -0.0292368511 0.3828331089 -0.6953793639 0.3831405518 -0.69486815 0.0441496784 -0.0280022148
515296910.0 0.0427074842 -0.0293150683 0.3748258381 -0.6993151876 0.3754782202 -0.699077556 0.0437179752 -0.0286570238
520296880.0 0.0423024148 -0.0299798143 0.367729806 -0.703411221 0.3680898495 -0.7027087543 0.0428282805 -0.029398476
525296850.0 0.0422247953 -0.0310915898 0.3593818004 -0.7076744592 0.360218026 -0.7073894312 0.0422725968 -0.029657406
530296820.0 0.0418595354 -0.0310364799 0.3522881902 -0.7117818353 0.3521380806 -0.7115146406 0.0423327156 -0.0300698575
535296790.0 0.040575998 -0.0316240034 0.3449174754 -0.7145178097 0.3445605905 -0.7147261253 0.0419274434 -0.0310676627
540296760.0 0.040399292 -0.0317462734 0.3360892992 -0.7197303563 0.3361664562 -0.7190389307 0.0408876437 -0.0309486664
545296730.0 0.0400422916 -0.0327060102 0.3280629082 -0.7224158953 0.3287783074 -0.7230881232 0.0404744748 -0.0313134067
550296700.0 0.0400499166 -0.0325948119 0.3205465617 -0.7258987312 0.321008254 -0.725954588 0.039368485 -0.0320364928
555296670.0 0.0388351244 -0.0333162478 0.3125501714 -0.7295774437 0.3129981398 -0.7294900862 0.0396768331 -0.0323682851
560296640.0 0.0386726057 -0.0332191241 0.3047163505 -0.733279812 0.3046185694 -0.7330246703 0.0389658634 -0.0328351648
565296610.0 0.0374923651 -0.0341526903 0.2960731902 -0.7364426558 0.2967191906 -0.7363958855 0.0379696726 -0.0333959291
570296580.0 0.0371352527 -0.0341668668 0.2886267998 -0.7399128545 0.2880759519 -0.739731544 0.0378649433 -0.0329490993
575296550.0 0.0364498472 -0.0344031357 0.2806144437 -0.7430558386 0.2807537552 -0.7429511908 0.0378027848 -0.0340290279
580296520.0 0.0364383636 -0.0346738043 0.2722549628 -0.7458401364 0.2725625745 -0.7455544678 0.0368285861 -0.0342302093
585296490.0 0.0355370724 -0.0357999801 0.2643945538 -0.7483532831 0.2644723686 -0.7487269686 0.0363543594 -0.0345952424
590296460.0 0.0355565218 -0.0357560235 0.2566076951 -0.7504342971 0.255490305 -0.7514215063 0.0353589454 -0.0344681761
595296430.0 0.0350110863 -0.0356076748 0.247285372 -0.7543292789 0.2474970512 -0.7540947172 0.0354741359 -0.035462379
600296400.0 0.0340913752 -0.0361955054 0.239272724 -0.7570913009 0.2396881808 -0.7567176737 0.0347330974 -0.035501194
605296370.0 0.0335947902 -0.036344556 0.2312644625 -0.7592976399 0.2316836443 -0.7592700251 0.0341772609 -0.0358702161
610296340.0 0.0332222574 -0.0368409109 0.2227933322 -0.762009122 0.2231864423 -0.7617296989 0.0340946382 -0.0362116401
615296310.0 0.0328471163 -0.0374856545 0.2144994677 -0.7639736368 0.2141896516 -0.7643457177 0.0335657899 -0.0363179963
620296280.0 0.032390027 -0.0378042525 0.2061985239 -0.7663623641 0.2061942303 -0.7659271364 0.0325017654 -0.0366234203
625296250.0 0.0309467958 -0.0383214088 0.1985433574 -0.7688103616 0.1980118131 -0.7690992765 0.0329867031 -0.0368107283
630296220.0 0.0315971224 -0.0379935222 0.1890227512 -0.7709129188 0.1890602038 -0.7705612032 0.0318094487 -0.0367853156
635296190.0 0.0298478615 -0.0388619242 0.181060122 -0.7727672206 0.1809359897 -0.7728330966 0.0313353519 -0.0369899852
640296160.0 0.029397842 -0.0389318437 0.1724029891 -0.7746642101 0.1730657819 -0.774374868 0.03065691 -0.0376252974
645296130.0 0.0292371997 -0.0387085712 0.1638687249 -0.7763685546 0.1643150449 -0.7767279671 0.0304999418 -0.0375626566
650296100.0 0.029018485 -0.0391439788 0.1557431763 -0.7781631213 0.1559970993 -0.7783439547 0.0303588579 -0.038444534
655296070.0 0.0275735311 -0.0398403523 0.1468946619 -0.7799298263 0.1471191349 -0.7797537709 0.0292428863 -0.0382298747
660296040.0 0.0268278615 -0.0402501177 0.1386003894 -0.7819968803 0.1388477418 -0.7819680397 0.0289219582 -0.0382881313
665296010.0 0.0273262913 -0.0399111961 0.129541226 -0.782983976 0.1300537838 -0.7827962944 0.0281790348 -0.0382789359
670295980.0 0.0252245837 -0.0400491627 0.1212765521 -0.7843125914 0.1217177134 -0.7844387412 0.0274322826 -0.0387425187
675295950.0 0.0252159945 -0.0401699932 0.1130139942 -0.7856141726 0.1133285105 -0.7846047728 0.0265307454 -0.0390021004
680295920.0 0.0244203133 -0.0408496419 0.1043751051 -0.7864070555 0.1038365903 -0.7870021773 0.0260478623 -0.0386638349
685295890.0 0.0240445363 -0.0402889807 0.095532604 -0.7878528193 0.0956100677 -0.7882160512 0.02557975 -0.0392415946
690295860.0 0.0237997991 -0.0406920932 0.0869910462 -0.7880230498 0.0871870121 -0.7888687734 0.0246155489 -0.0384681442
695295830.0 0.0232651902 -0.0412264282 0.0788894069 -0.7894884243 0.0784029902 -0.789448693 0.0239739119 -0.038733954
700295800.0 0.0226674088 -0.0417146662 0.0694999783 -0.7901087852 0.0696613727 -0.7898445218 0.0234164711 -0.0385447678
705295770.0 0.0213286482 -0.0407646298 0.0609691497 -0.7906894524 0.0613814694 -0.791528851 0.0228021868 -0.0393930594
710295740.0 0.0215246291 -0.0415632594 0.0530029251 -0.7922025701 0.0533762689 -0.7919411466 0.0226106975 -0.0399774801
715295710.0 0.0198373203 -0.0415905543 0.044404086 -0.7923906018 0.0440152503 -0.79218418 0.0221110483 -0.040128014
720295680.0 0.0198541833 -0.0417719762 0.0355125765 -0.7930680597 0.0359902082 -0.7925161042 0.0213159215 -0.0392930696
725295650.0 0.0193704218 -0.041550292 0.0267192767 -0.7927937766 0.0270747898 -0.7937382552 0.020158128 -0.0395595331
730295620.0 0.0188585781 -0.0413070555 0.0178969916 -0.7927894844 0.0181216892 -0.7935103951 0.0196559029 -0.0402329451
735295590.0 0.0181211388 -0.0416250222 0.0098794286 -0.7934875852 0.0099444149 -0.793536628 0.0190862877 -0.0404496018
740295560.0 0.0171866803 -0.0417530339 0.0011672317 -0.7931832104 0.0007681073 -0.7934903684 0.0188803692 -0.0399047368
745295530.0 0.0167956136 -0.0413828389 -0.0077292099 -0.7924643276 -0.0073875039 -0.7935052179 0.0183952016 -0.0408010611
750295500.0 0.0162338129 -0.0418204999 -0.0164726448 -0.7922200134 -0.0156798225 -0.7933496706 0.0177186356 -0.040296976
755295470.0 0.0157743451 -0.0422214561 -0.0245959826 -0.7931277228 -0.0243377679 -0.7934672788 0.0176789648 -0.0408026363
760295440.0 0.0148915895 -0.0417445295 -0.0338952024 -0.7926149249 -0.0333133832 -0.7935634166 0.0167730939 -0.0408987269
765295410.0 0.0142498 -0.0418973307 -0.0417991391 -0.7918804555 -0.0425668757 -0.7926259766 0.0162078312 -0.0406693945
770295380.0 0.0132779918 -0.042215499 -0.0511413716 -0.792055063 -0.0503787959 -0.7917360672 0.015399932 -0.0409883673
775295350.0 0.0128491978 -0.0425970753 -0.0597160334 -0.7908128831 -0.0589614652 -0.7908835091 0.0139940552 -0.0403549164
780295320.0 0.0126020021 -0.0421227685 -0.0681589816 -0.7899991249 -0.0672078691 -0.7902147805 0.0141132188 -0.0413158083
785295290.0 0.0114819052 -0.0427548275 -0.0768267721 -0.7894111387 -0.0761099472 -0.789611346 0.0143931366 -0.0404840223
790295260.0 0.0117171153 -0.0416969701 -0.0842400276 -0.7885331792 -0.0839014673 -0.7886807239 0.0131488827 -0.0407521117
795295230.0 0.010831014 -0.0424351816 -0.0930620282 -0.7868898149 -0.0928346426 -0.7877391117 0.0126951121 -0.0402678612
800295200.0 0.0097464863 -0.041620169 -0.1028612825 -0.7861986118 -0.102030344 -0.786737905 0.0122695875 -0.0407595135
805295170.0 0.0093712139 -0.0421010864 -0.110583867 -0.7849019884 -0.1107705057 -0.7857408871 0.0112653558 -0.0404122486
810295140.0 0.0085249648 -0.0425223576 -0.1188382508 -0.7839719674 -0.1190488059 -0.7841910716 0.0112612167 -0.0399118644
815295110.0 0.0084052245 -0.0427704824 -0.1277527124 -0.7822760596 -0.1272656694 -0.7824884717 0.010277791 -0.0401889192
820295080.0 0.0069231283 -0.041673746 -0.136356593 -0.7808827651 -0.1354777642 -0.7809051028 0.0097384538 -0.040336662
825295050.0 0.0075230539 -0.041786799 -0.143784274 -0.7793803802 -0.1442785952 -0.779625126 0.0096648861 -0.0399318359
830295020.0 0.0064189377 -0.0416555489 -0.1532244346 -0.7776285759 -0.1525672914 -0.7775339616 0.0092090448 -0.0396747746
