!Created with skrf (http://scikit-rf.org).
# Hz S RI R 50.0 
!freq ReS11 ImS11 ReS21 ImS21 ReS12 ImS12 ReS22 ImS22
300000.0 -0.7711385725 -0.168569411 -0.0007009726 0.0049014098 0.0012428846 -0.0012976799 -0.7645939534 -0.1850620534
5299970.0 -0.7863597812 -0.0091189793 -7.29137e-05 7.86765e-05 7.66765e-05 -0.0001419783 -0.7849637066 -0.0093842837
10299940.0 -0.7893443373 -0.0055964082 6.73161e-05 -6.02138e-05 -6.88376e-05 -0.0001108541 -0.7875177093 -0.0052513125
15299910.0 -0.7943418844 -0.0031164586 -6.18687e-05 -5.42518e-05 9.66173e-05 -0.000100326 -0.7929251746 -0.0028467937
20299880.0 -0.801268701 0.0005252161 0.0001518852 0.0002292108 -4.95106e-05 8.34522e-05 -0.799692869 0.0015524366
25299850.0 -0.8078517548 0.0069495958 -1.45218e-05 -2.64782e-05 7.33944e-05 2.62815e-05 -0.8063949958 0.0079842038
30299820.0 -0.8140596835 0.0145001411 9.10702e-05 7.2234e-06 1.25081e-05 0.0001507637 -0.8120555419 0.0156598999
35299790.0 -0.8184648007 0.0229843592 -1.50717e-05 3.42863e-05 -2.83746e-05 -0.0001604978 -0.8173296798 0.0248932277
40299760.0 -0.8236826408 0.0314758216 -5.77027e-05 -0.0001482292 -5.6496e-05 4.84577e-05 -0.821402273 0.0341450088
45299730.0 -0.8268549543 0.0414018688 0.0001258288 4.50413e-05 6.8454e-06 -9.0908e-06 -0.8246950619 0.0435507524
50299700.0 -0.8291339551 0.051894702 0.0001918027 -0.0001230423 9.41091e-05 -0.0001146037 -0.8263529472 0.0540298901
55299670.0 -0.8310078886 0.0611034424 0.0002072753 -4.7919e-06 7.10237e-05 -2.46144e-05 -0.8288715282 0.0637704428
60299640.0 -0.8326617312 0.0717171681 0.0001265774 -2.39837e-05 -6.5429e-06 -8.6968e-06 -0.8301650531 0.0736956482
65299610.0 -0.8334265308 0.0817731246 -0.0003204714 -0.0002751841 7.962e-07 -3.64297e-05 -0.8303570599 0.0840833718
70299580.0 -0.833820351 0.0918813362 -9.25117e-05 0.000105694 2.92672e-05 5.82559e-05 -0.8312543488 0.0935889495
75299550.0 -0.8342664429 0.1017044655 -3.87122e-05 4.60834e-05 0.0001706326 -1.83678e-05 -0.8309045977 0.1040628048
80299520.0 -0.8340362582 0.1119530823 -0.0003434917 -7.29684e-05 -0.0001781497 -4.59775e-05 -0.8307605495 0.1142489513
85299490.0 -0.8326495249 0.1211207244 -0.0001444438 -2.77494e-05 0.0002125017 -9.82871e-05 -0.8301955795 0.1232636629
90299460.0 -0.8322773275 0.1313163688 -0.0001125971 1.55281e-05 4.732e-05 8.09884e-05 -0.829499905 0.1330097085
95299430.0 -0.8314589506 0.1401980251 7.03387e-05 0.0001170829 -3.99242e-05 -1.8144e-05 -0.8284746284 0.1429722025
100299400.0 -0.8303975723 0.1501811615 1.6064e-05 7.0491e-06 -0.0001080723 -0.0001736662 -0.8273813628 0.1517133832
105299370.0 -0.8285550932 0.1589675743 -0.0002093958 -4.859e-05 3.02754e-05 -5.75576e-05 -0.8261849562 0.1605694265
110299340.0 -0.8270476084 0.1683536825 -2.0515e-06 -7.98049e-05 -0.0002007855 4.4473e-06 -0.8249160302 0.1695718193
115299310.0 -0.8263079329 0.1774929208 0.0001389974 0.0002759683 -6.07449e-05 -5.486e-07 -0.8230705044 0.1793845299
120299280.0 -0.824603541 0.1867682517 0.0002758271 -0.000200675 7.27101e-05 -8.0662e-06 -0.8211108511 0.1882776287
125299250.0 -0.8227387113 0.1953493304 2.108e-07 -5.7497e-06 -0.0001729334 1.1452e-06 -0.8197996357 0.1969812923
130299220.0 -0.8211270143 0.2047832091 7.90677e-05 -9.93763e-05 7.43189e-05 5.01371e-05 -0.818003249 0.2061624972
135299190.0 -0.8185155999 0.2143296828 9.90009e-05 5.043e-05 -9.84369e-05 9.11801e-05 -0.8160938187 0.2150086217
140299160.0 -0.8173570189 0.2233965412 -0.0001077441 -4.06865e-05 1.859e-06 -1.83005e-05 -0.8140842659 0.2232453146
145299130.0 -0.814934662 0.2321759012 -0.0002510342 -4.15231e-05 -9.66997e-05 -0.0001638357 -0.8121550145 0.2323223174
150299100.0 -0.8124973692 0.240976475 0.0001860556 -3.3652e-05 9.79247e-05 -0.0001121527 -0.809569728 0.2413955274
155299070.0 -0.8103493608 0.2500690302 0.000167872 0.0001634723 0.0001442095 -0.0001026657 -0.8071024809 0.2505037019
160299040.0 -0.8073707162 0.2591428905 -0.0002037445 9.81623e-05 2.0762e-05 4.04894e-05 -0.8048910053 0.2589378043
165299010.0 -0.8046340655 0.2674668467 -8.31133e-05 -8.5039e-06 0.000233915 -6.40979e-05 -0.802125386 0.2670503641
170298980.0 -0.8014980307 0.2764782592 0.0001557028 -0.0001052283 0.000111382 -2.37584e-05 -0.7997354725 0.2754698603
175298950.0 -0.7992148598 0.2844560391 3.32881e-05 0.0001030639 0.0001041994 2.14483e-05 -0.7965005054 0.284574661
180298920.0 -0.7959989668 0.293632671 1.88117e-05 0.0002314063 -1.59043e-05 0.0001259028 -0.7930509032 0.2931178614
185298890.0 -0.792425525 0.3024153258 -9.5935e-05 1.58577e-05 8.98572e-05 6.54995e-05 -0.7904139802 0.3018259636
190298860.0 -0.7897224577 0.3118098486 0.0001017303 -1.21138e-05 -7.07465e-05 -3.84335e-05 -0.7873159706 0.310193215
195298830.0 -0.7862387027 0.3188623272 9.1914e-06 0.0001110452 0.0001231766 0.0001461972 -0.7842932346 0.3181246605
200298800.0 -0.7828454148 0.32745378 0.0001828748 -5.41921e-05 -9.9765e-06 -4.458e-05 -0.7808394316 0.3268077138
205298770.0 -0.7793650723 0.3365152935 -8.02814e-05 -0.0002304148 -5.22877e-05 0.0001519172 -0.7775510699 0.3349155581
210298740.0 -0.7756405393 0.3445250117 0.000180588 0.0001480013 0.0001132518 5.74281e-05 -0.7744352153 0.3432744445
215298710.0 -0.7722069409 0.3531031187 0.0001407145 6.46726e-05 -7.15245e-05 -8.05251e-05 -0.7704207148 0.3514561433
220298680.0 -0.7686129618 0.3603675587 -1.59404e-05 -0.00019382 -5.87448e-05 -2.6302e-05 -0.7671567295 0.3595824296
225298650.0 -0.7641623827 0.369463696 5.31363e-05 0.0001971989 8.17154e-05 -5.6889e-05 -0.7631766612 0.3677237804
230298620.0 -0.7613818571 0.3777386468 0.0001093424 -8.6349e-05 2.49114e-05 0.0001156331 -0.7594444885 0.3759039913
235298590.0 -0.7575228151 0.386178995 -0.0001462052 5.43802e-05 -9.69856e-05 -0.0001716386 -0.7552722844 0.3831810285
240298560.0 -0.7532407347 0.3934980413 7.9204e-06 -0.0001035207 8.4587e-05 -2.08804e-05 -0.7511284707 0.3909693793
245298530.0 -0.7485066567 0.4017436249 -0.0001265404 0.0001465881 5.24855e-05 -6.53629e-05 -0.7477021348 0.3992405107
250298500.0 -0.7445417502 0.4089922819 -6.785e-06 0.0001777427 0.0001402051 0.0001213042 -0.743240914 0.4068369012
255298470.0 -0.7408888317 0.4171236414 -7.98519e-05 -0.0001478185 0.0001882049 9.03409e-05 -0.7389885974 0.4148055206
260298440.0 -0.7363166993 0.4250958773 8.48376e-05 8.96217e-05 6.11766e-05 -0.0001477174 -0.7343625152 0.4223186508
265298410.0 -0.731847427 0.4328480772 3.5819e-05 3.40926e-05 -6.45415e-05 -9.25017e-05 -0.7298672629 0.4301048883
270298380.0 -0.7275254699 0.4404021402 -0.0001247789 0.0002461563 6.55401e-05 -0.00018383 -0.7250516262 0.4379867073
275298350.0 -0.72343741 0.4482174919 1.27614e-05 -3.36296e-05 -2.47271e-05 0.0001645378 -0.7203525042 0.4452223545
280298320.0 -0.7180943016 0.455631913 -0.0001076524 2.89619e-05 -0.000100838 -1.95442e-05 -0.7163921886 0.4527369306
285298290.0 -0.713607409 0.4627136428 -1.37597e-05 -4.0366e-06 8.66814e-05 -0.0001656428 -0.7121669562 0.4608704185
290298260.0 -0.7087075966 0.4708988871 -6.3835e-06 -4.42913e-05 -0.0001497545 0.0001363133 -0.706510228 0.4676546565
295298230.0 -0.7037984308 0.4782992801 -5.7075e-06 0.0001126285 5.05552e-05 0.0001573457 -0.7021257111 0.47482916
300298200.0 -0.6993852352 0.4852940627 4.29285e-05 -1.4001e-05 -2.42765e-05 5.4773e-05 -0.6967519552 0.4819730511
305298170.0 -0.6944781953 0.4918924864 -0.0001554788 0.0001285745 8.05859e-05 -1.7034e-06 -0.6916616266 0.4893299146
310298140.0 -0.688654602 0.4998320924 5.17835e-05 5.41675e-05 3.27768e-05 -0.000181273 -0.6864173273 0.4969125532
315298110.0 -0.6845365089 0.5073478468 5.85919e-05 0.000107903 0.0001196617 0.0001003504 -0.6811823912 0.5041203462
320298080.0 -0.6786083681 0.5142359821 0.0001807493 5.28841e-05 -3.95651e-05 3.05934e-05 -0.6762228983 0.5103046087
325298050.0 -0.6736639525 0.5207536559 -0.0001382862 0.0002475295 8.5731e-05 -0.0001604664 -0.6699604974 0.5174552301
330298020.0 -0.6682050297 0.5278266649 0.0002142515 5.36898e-05 -0.0001653836 5.40145e-05 -0.6646621315 0.5245229044
335297990.0 -0.6631489913 0.5345966347 0.0001012406 -0.0001529192 5.64493e-05 -0.0001804765 -0.659379677 0.5315134995
340297960.0 -0.6579396988 0.541684443 0.0002522279 -4.07232e-05 -8.08713e-05 0.0001091485 -0.6539886116 0.5384395492
345297930.0 -0.6517764459 0.5485262849 -8.22369e-05 -6.19073e-05 7.53287e-05 -2.02983e-05 -0.648882481 0.5449679804
350297900.0 -0.6459373571 0.5548347689 -2.96407e-05 0.000192356 0.0001386671 -7.32578e-05 -0.6431815009 0.5514871239
355297870.0 -0.6408915399 0.5612402809 -0.0001435131 0.000125456 -3.83188e-05 -3.74354e-05 -0.6371204478 0.5586195121
360297840.0 -0.634938499 0.5679254561 0.0001184287 0.0001505443 2.8871e-05 -0.0001511712 -0.6307329367 0.5647336023
365297810.0 -0.6295010343 0.5739610933 3.27196e-05 -8.55005e-05 2.8972e-06 0.0001196854 -0.6258343098 0.57062641
370297780.0 -0.6232191058 0.5804935578 1.15758e-05 -0.0001965201 -0.0001048376 -6.10688e-05 -0.6198382846 0.5776176643
375297750.0 -0.6181296222 0.5870978385 0.0002800588 -5.0832e-05 -2.70981e-05 0.0001078388 -0.6133228967 0.5840885558
380297720.0 -0.6117472959 0.593665229 7.14425e-05 -7.48416e-05 -8.47924e-05 -1.80781e-05 -0.6070640536 0.590280369
385297690.0 -0.6057174465 0.5991458084 -2.65328e-05 -1.569e-06 -6.43988e-05 5.16935e-05 -0.6015346776 0.5962911656
390297660.0 -0.5988674086 0.6051588995 -0.0001799376 -1.44903e-05 -0.0001403421 3.33223e-05 -0.5944122073 0.602058573
395297630.0 -0.5931162771 0.611568421 0.0003135753 -9.0458e-05 0.0001126747 -4.94787e-05 -0.5881212648 0.6075700413
400297600.0 -0.5863256457 0.6179917388 1.307e-05 -0.0001845772 6.27891e-05 -1.35699e-05 -0.5826184627 0.614288497
405297570.0 -0.5806918814 0.6229811166 -7.4426e-06 -0.0001258564 0.0001442206 0.0001000342 -0.5753902643 0.6203245087
410297540.0 -0.5736248144 0.6300774253 -2.75954e-05 3.68708e-05 -0.0002092749 1.85008e-05 -0.5692826096 0.6259752907
415297510.0 -0.5678130915 0.6355644949 -3.60241e-05 -7.382e-06 5.79304e-05 4.23832e-05 -0.5627434063 0.6313311152
420297480.0 -0.5610841883 0.6409226227 5.35305e-05 -4.8276e-05 2.05e-05 5.06432e-05 -0.5564017159 0.6377880318
425297450.0 -0.5542634058 0.6463787904 1.50074e-05 -0.0001520703 -9.46337e-05 -9.8629e-06 -0.5497088681 0.6428429956
430297420.0 -0.5479338639 0.6519943562 0.0002028012 7.1758e-05 7.9354e-06 -8.24621e-05 -0.5433669015 0.6485268052
435297390.0 -0.5416574852 0.6573119012 0.0001458161 0.0001953852 4.60056e-05 -0.0001762449 -0.5366667425 0.6542271316
440297360.0 -0.5340096349 0.6629549038 2.807e-07 7.2014e-05 -1.2952e-06 -5.85768e-05 -0.5303394795 0.6595386602
445297330.0 -0.5278460178 0.6680066328 -0.0001856967 2.42867e-05 -0.0002144202 -5.70799e-05 -0.5230497119 0.6651488688
450297300.0 -0.5202530203 0.6736194912 8.74264e-05 0.0001201668 1.07255e-05 7.2649e-06 -0.5157075182 0.670042452
455297270.0 -0.5137614463 0.6786790461 -5.0589e-06 -0.0001486083 5.7946e-06 -5.72608e-05 -0.5095703918 0.6749876957
460297240.0 -0.5056938415 0.6844315923 -3.26753e-05 -4.85543e-05 6.29456e-05 2.66322e-05 -0.5021554257 0.6800987556
465297210.0 -0.4995672036 0.6890958607 -0.0001237157 -0.0001536824 5.154e-05 -2.05647e-05 -0.4952135429 0.6856999141
470297180.0 -0.4916880689 0.6939942571 -4.68592e-05 -1.6716e-05 -6.38651e-05 7.87078e-05 -0.4882254767 0.6902390385
475297150.0 -0.4847626498 0.6989309256 -3.0853e-06 0.0001666881 -0.000128672 6.10215e-05 -0.4808047562 0.6951403189
480297120.0 -0.4768412408 0.704117331 -8.26525e-05 0.0002580131 8.01027e-05 -0.0001074595 -0.474927433 0.6998765504
485297090.0 -0.4703000213 0.7085580226 -7.42895e-05 0.000140458 -0.0001354238 4.21698e-05 -0.4669997848 0.7048890276
490297060.0 -0.4621770239 0.7133287992 -5.20412e-05 0.0001474581 -6.65624e-05 0.000144273 -0.4595906843 0.7088793109
495297030.0 -0.4547277249 0.7184127383 -0.0001465242 -0.0001223797 4.43311e-05 0.0001100978 -0.4524122647 0.7135368942
500297000.0 -0.4473447011 0.7221265096 0.0001189346 0.0001055676 -1.61227e-05 2.8766e-05 -0.4454359896 0.7183714179
505296970.0 -0.4395624314 0.7274696103 -3.78248e-05 0.000128169 0.0002333296 5.03638e-05 -0.437394743 0.7228700096
510296940.0 -0.4319579419 0.7312005915 0.0001017696 -9.5407e-06 -1.59446e-05 -8.6694e-05 -0.4298884318 0.7271843669
515296910.0 -0.4244118956 0.7359428827 1.34611e-05 7.05164e-05 -0.0001486245 -7.6211e-05 -0.4237140813 0.7310540215
520296880.0 -0.4164394266 0.7397702852 -8.3338e-06 -0.0001674617 -0.0001250743 -6.31125e-05 -0.4152082568 0.7363765372
525296850.0 -0.4083303339 0.743900693 3.82067e-05 0.0001122736 0.0001351644 4.62734e-05 -0.4081108802 0.7395220542
530296820.0 -0.4016094993 0.7477299631 4.81255e-05 0.000114196 -2.17473e-05 5.54864e-05 -0.4005114103 0.7435330979
535296790.0 -0.3928300215 0.751610063 0.0001521989 5.19063e-05 9.39639e-05 -6.97635e-05 -0.3930157222 0.7482309322
540296760.0 -0.3849985099 0.7559101166 6.20494e-05 -0.0002085724 5.94276e-05 0.0001913307 -0.3850547931 0.7515100167
545296730.0 -0.3776993267 0.7604178707 -0.0001893225 5.99434e-05 8.39746e-05 4.63573e-05 -0.3777989419 0.7555106229
550296700.0 -0.3693189555 0.7638305756 6.5324e-05 3.14821e-05 -0.0001123542 -6.64281e-05 -0.3700944052 0.7594573592
555296670.0 -0.3612235614 0.7673475506 8.2945e-06 3.55749e-05 -2.15779e-05 -7.02081e-05 -0.3627085533 0.7621251059
560296640.0 -0.3533346715 0.7704844522 0.0002288737 0.0001729699 0.0001210804 6.35996e-05 -0.3544723295 0.7668283026
565296610.0 -0.3457866835 0.7742786914 -0.0001231846 4.49384e-05 -5.73748e-05 8.4643e-06 -0.346793182 0.7701708058
570296580.0 -0.3372233525 0.7778914665 0.0002463912 0.0001508788 -2.74704e-05 7.82829e-05 -0.3391229093 0.7729174093
575296550.0 -0.3285176711 0.7810357779 7.70186e-05 -0.0001642779 -5.5783e-05 6.3637e-05 -0.3310907162 0.7760717366
580296520.0 -0.3211423379 0.7844035039 -4.92293e-05 -7.184e-06 2.986e-06 -0.0002334954 -0.323872741 0.7798955233
585296490.0 -0.3125362345 0.7878953032 1.20968e-05 -2.9259e-06 0.0001312188 4.63847e-05 -0.3151129241 0.7832508446
590296460.0 -0.3040613613 0.7910093267 -0.0001556665 3.76684e-05 0.0001462216 0.0001201044 -0.3078037246 0.7857001322
595296430.0 -0.2961212394 0.7942660442 0.0001702068 9.76401e-05 -4.59757e-05 6.01398e-05 -0.299682415 0.7892645327
600296400.0 -0.2884543395 0.7965433963 -0.0001426701 4.46848e-05 -6.6793e-06 -9.77111e-05 -0.2917389768 0.7916504734
605296370.0 -0.2799827034 0.7997811142 0.0001325649 -3.92466e-05 2.0023e-05 -3.99016e-05 -0.2838440396 0.7952451151
610296340.0 -0.2717531722 0.8030305701 0.000119232 0.0001177292 0.000112864 -0.0001061466 -0.2762848465 0.797678158
615296310.0 -0.2630070956 0.805185 1.001e-07 -9.04919e-05 -5.57008e-05 -7.1813e-06 -0.2676122926 0.8004697107
620296280.0 -0.2550413774 0.8084430337 0.0001153691 -0.0001592341 -7.00457e-05 -1.57796e-05 -0.2596987445 0.8034591469
625296250.0 -0.2471941006 0.8101299605 0.0001308335 -7.03627e-05 1.7822e-06 8.14633e-05 -0.2518956508 0.8050893746
630296220.0 -0.2392237055 0.81333037 2.60937e-05 -0.0001301601 0.0001385461 8.27913e-05 -0.2434058731 0.808015722
635296190.0 -0.2303898068 0.8157045022 -0.0001464242 -1.60107e-05 -4.3673e-06 -0.0001481261 -0.2357321037 0.8099910316
640296160.0 -0.2220976769 0.8175957894 7.03522e-05 0.0001422218 5.73595e-05 3.32079e-05 -0.2271598582 0.8123493638
645296130.0 -0.2138190824 0.8204058168 -8.37442e-05 -0.0002374761 -3.51347e-05 -0.0001709395 -0.2196490741 0.8146414307
650296100.0 -0.2058487481 0.8217465799 1.70104e-05 -0.0001436991 -1.17001e-05 9.45521e-05 -0.2108604482 0.8167510609
655296070.0 -0.1973164031 0.8243860926 -1.19883e-05 -0.0001581473 8.6309e-06 -8.00823e-05 -0.2034154549 0.8191075791
660296040.0 -0.1892430913 0.8263265435 1.19962e-05 5.62687e-05 0.0002518676 4.39274e-05 -0.194227475 0.8209017317
665296010.0 -0.1811764997 0.8278653152 -5.229e-07 2.30366e-05 -7.475e-07 1.02341e-05 -0.186188357 0.8222697949
670295980.0 -0.1727897705 0.830642064 1.1154e-06 2.7908e-06 -4.83846e-05 -7.34461e-05 -0.1786423632 0.8244697549
675295950.0 -0.1638334733 0.8321393838 -0.0001267784 0.0002513202 -1.8073e-05 -0.0001204411 -0.169909227 0.8266631326
680295920.0 -0.1563273972 0.8334560389 0.0001097654 0.0001055809 4.7416e-06 -6.71387e-05 -0.1615521744 0.8279849663
685295890.0 -0.1474599369 0.8353771279 -3.53522e-05 -2.33973e-05 0.000124425 -2.3288e-06 -0.1535523658 0.8295287074
690295860.0 -0.1397097899 0.8368779013 -0.000188944 -6.31179e-05 0.000100153 -7.55857e-05 -0.1453129755 0.8309413909
695295830.0 -0.1307063409 0.8386125516 8.91352e-05 7.90433e-05 -0.0001850829 -6.74774e-05 -0.1368164548 0.8328424068
700295800.0 -0.1220963137 0.8398218148 -0.0001370798 0.0001258946 -0.0001289147 3.12995e-05 -0.1283658396 0.8333853857
705295770.0 -0.1146450435 0.8411619001 -8.44421e-05 -6.46727e-05 0.0001900753 3.95428e-05 -0.1203929934 0.8348172751
710295740.0 -0.1072140602 0.8418819986 3.2039e-05 0.0001341268 -5.7667e-06 -0.0001905106 -0.1118625661 0.8364207375
715295710.0 -0.0973634818 0.8434876653 -0.0001886887 -0.0001689923 9.93377e-05 -0.0001579918 -0.1032112973 0.8368257158
720295680.0 -0.088675786 0.8445066611 0.0001022715 9.45091e-05 -7.73738e-05 -0.0001074808 -0.0947563761 0.8379846414
725295650.0 -0.0815233627 0.8456725285 8.92004e-05 1.16728e-05 5.19289e-05 0.0001582203 -0.0870622768 0.8393905019
730295620.0 -0.0739034233 0.8469201762 -0.0001152483 -0.0001323769 -7.4979e-05 -9.13557e-05 -0.078784916 0.8404085127
735295590.0 -0.065630851 0.8473188851 4.99602e-05 5.03565e-05 -0.0001615199 -4.57002e-05 -0.0698080328 0.8404928061
740295560.0 -0.0574280486 0.8472400658 -7.07213e-05 -0.0002857941 -6.41845e-05 -6.94764e-05 -0.0615278195 0.8415013709
745295530.0 -0.0488264237 0.8484481713 -7.75333e-05 -0.0001052922 2.18829e-05 8.85e-06 -0.053707781 0.8419994687
750295500.0 -0.0407615384 0.8496039015 -0.0003146887 9.66073e-05 -6.36024e-05 -3.235e-07 -0.0449750688 0.8426045794
755295470.0 -0.0324259595 0.8502300457 9.44514e-05 6.07608e-05 4.1917e-06 9.00736e-05 -0.0368906864 0.8430246857
760295440.0 -0.0241803748 0.8510235466 8.021e-07 -6.31809e-05 -7.02665e-05 -7.91614e-05 -0.0283078903 0.8429603802
765295410.0 -0.0161841329 0.8506185122 -0.0001089668 -4.94207e-05 -4.02198e-05 -2.7367e-05 -0.020154553 0.8435951055
770295380.0 -0.0086160469 0.8512054892 3.3824e-06 -9.47319e-05 -3.6029e-06 6.66907e-05 -0.0117133605 0.8433955556
775295350.0 6.14998e-05 0.85085641 2.185e-07 -5.91846e-05 -5.28659e-05 0.0001426349 -0.0029289895 0.8432524131
780295320.0 0.0084943531 0.8515337206 5.88321e-05 -0.0002994293 -4.005e-05 3.81781e-05 0.0053947506 0.8435607541
785295290.0 0.0167341193 0.8511146351 4.81034e-05 -5.82654e-05 -6.2091e-06 0.0001033888 0.0133594779 0.8436971605
790295260.0 0.0247679333 0.8507517855 3.72457e-05 -2.18125e-05 0.0001457278 -9.56643e-05 0.0221674956 0.8432916907
795295230.0 0.0333707869 0.850730933 -0.0001720621 6.20303e-05 -3.71328e-05 -7.01952e-05 0.0301127355 0.8428541566
800295200.0 0.041129558 0.8504765327 0.0001110923 -0.0001318062 8.22833e-05 0.0001442645 0.0380239327 0.8422104859
805295170.0 0.0489524411 0.850879098 0.0001020246 -0.0002000246 5.15977e-05 -0.0001408746 0.0470555085 0.8420213612
810295140.0 0.0578615172 0.8504168521 9.94494e-05 0.0001206334 -8.03372e-05 -7.23969e-05 0.0556878491 0.8413710976
815295110.0 0.0652817065 0.8494345568 6.63067e-05 0.0001649486 1.12013e-05 1.03237e-05 0.0630020289 0.8408131732
820295080.0 0.0738101915 0.8490059572 -9.6985e-06 0.0002584485 0.0001402499 -6.6968e-06 0.0713370927 0.8407201515
825295050.0 0.0819996788 0.8481156041 -0.0001500017 6.2275e-05 -0.0001201651 7.6082e-05 0.0803078723 0.8395068643
830295020.0 0.0907698163 0.8476142892 0.0001338468 1.1788e-06 9.71846e-05 -2.52119e-05 0.0880751192 0.8383139923
835294990.0 0.0981555548 0.8466553426 7.2039e-06 -7.7147e-05 9.50612e-05 7.80466e-05 0.0965952728 0.8379505941
840294960.0 0.1064280071 0.8452150807 5.07744e-05 -6.71857e-05 0.0001030001 -3.08328e-05 0.1054337706 0.8372042227
845294930.0 0.1146239701 0.8441770476 0.0001073983 0.0001207181 3.1456e-06 9.45761e-05 0.1135369757 0.8358891358
850294900.0 0.1239521086 0.843489656 5.92874e-05 0.0002450004 -8.0218e-06 2.82305e-05 0.1213911888 0.834649416
