!Created with skrf (http://scikit-rf.org).
# Hz S RI R 50.0 
!freq ReS11 ImS11 ReS21 ImS21 ReS12 ImS12 ReS22 ImS22
300000.0 -0.2388380318 -0.1055114289 0.468757886 0.0690317838 0.4728157478 0.0707857266 -0.2396711236 -0.109886356
5299970.0 -0.2408923823 0.0070963501 0.4751851472 0.005341267 0.4749882029 0.0056004785 -0.2446122667 0.0055057001
10299940.0 -0.2372473304 0.0201152418 0.4772923256 0.006355402 0.4770142913 0.0066055687 -0.2415985751 0.0175326655
15299910.0 -0.2327277832 0.0298914531 0.4802214814 0.0076687641 0.4805249901 0.0076748691 -0.2372481753 0.0264941612
20299880.0 -0.2275660362 0.0378587624 0.4855679847 0.0081144676 0.4853698305 0.0081187186 -0.2329325919 0.0340428258
25299850.0 -0.2215918184 0.0443709003 0.4903325923 0.0067359464 0.4905876421 0.0070084632 -0.2277537072 0.0398172369
30299820.0 -0.215799009 0.0495115626 0.4963127637 0.0052288745 0.4956373299 0.0048018762 -0.2226213434 0.0448970298
35299790.0 -0.2099888769 0.0540937997 0.5012289788 0.0015304543 0.5012724108 0.0019386086 -0.2171913011 0.0488128505
40299760.0 -0.2044633663 0.0570801563 0.5065841439 -0.002178664 0.5062076167 -0.0024440462 -0.2125295778 0.0522737113
45299730.0 -0.1994176853 0.060310735 0.5110408563 -0.0074104899 0.5109159247 -0.0071454552 -0.2080879266 0.0545699716
50299700.0 -0.1945439403 0.0619442251 0.5152055782 -0.0127900419 0.5147980374 -0.0129057756 -0.2034844919 0.0563069407
55299670.0 -0.1906200231 0.0636687239 0.5186874701 -0.0190063233 0.5185734287 -0.0182609549 -0.2000904119 0.0582308669
60299640.0 -0.186425526 0.0648448734 0.521716913 -0.0248182475 0.5219379833 -0.0249114218 -0.1959303971 0.0595837472
65299610.0 -0.1829704354 0.0664707851 0.5251734365 -0.0310367263 0.5251746682 -0.031083201 -0.1928124371 0.0604658654
70299580.0 -0.1796933107 0.0671272306 0.5274775957 -0.0375223752 0.5273545606 -0.0379907314 -0.1899414577 0.0614966603
75299550.0 -0.1766318396 0.0681367881 0.5290174603 -0.0444980043 0.5293430781 -0.0442326525 -0.1873271748 0.062431626
80299520.0 -0.1742635324 0.0689088149 0.5314546448 -0.0517137635 0.5313160457 -0.0514862894 -0.185186271 0.0629670349
85299490.0 -0.1712288114 0.0693871824 0.5322973099 -0.0584877736 0.5323489432 -0.0584384552 -0.1825500881 0.0635099105
90299460.0 -0.1693335073 0.0702097075 0.5332449916 -0.0649933693 0.5336814414 -0.0652628183 -0.1801007917 0.0643761583
95299430.0 -0.1671788651 0.0711817482 0.5345122118 -0.072479132 0.5344470961 -0.0724657998 -0.1783479799 0.0651793527
100299400.0 -0.1652646395 0.0718195934 0.5344803501 -0.0792069765 0.5346914823 -0.0792349228 -0.1769699683 0.0656402195
105299370.0 -0.1634021498 0.0722638024 0.5347677242 -0.085533269 0.5349817284 -0.0861178791 -0.1748649525 0.0663523633
110299340.0 -0.1618730749 0.0729900203 0.5351339023 -0.0924761684 0.5351925868 -0.0933117679 -0.1737899344 0.0671220536
115299310.0 -0.1601560106 0.0732992892 0.5351285075 -0.0994594329 0.5353301979 -0.099321954 -0.1723105046 0.0670410237
120299280.0 -0.1592105477 0.0744592401 0.5350096079 -0.1063913444 0.5345637521 -0.1069066577 -0.1711975346 0.068164937
125299250.0 -0.1578058045 0.07520504 0.5344453683 -0.1128481139 0.534698749 -0.1135374147 -0.1697553646 0.0686100384
130299220.0 -0.156450662 0.0762646546 0.5340056482 -0.119354332 0.5337885207 -0.1199102562 -0.1688859299 0.0694251973
135299190.0 -0.1550520867 0.0765933805 0.5331532564 -0.1261694042 0.5326124076 -0.1267168709 -0.1679778139 0.0700819222
140299160.0 -0.1542951786 0.0780451369 0.5326009074 -0.1331152517 0.5326985086 -0.1330838891 -0.1668192226 0.071042663
145299130.0 -0.1530328165 0.0787498078 0.5318511468 -0.1395727906 0.531249277 -0.1394710176 -0.1659425747 0.0720076084
150299100.0 -0.1518674582 0.0798701491 0.5306026693 -0.1466622854 0.5303300501 -0.1459220261 -0.1651730423 0.072501441
155299070.0 -0.1511741555 0.0813492714 0.5293020377 -0.152913506 0.5291395556 -0.1531132063 -0.164463915 0.0734928612
160299040.0 -0.1499583728 0.0820079734 0.527193193 -0.1587479441 0.5278963026 -0.1591959925 -0.1635472532 0.074711419
165299010.0 -0.1491594119 0.0832171823 0.526456939 -0.1654474099 0.5264800262 -0.165454391 -0.16279645 0.0754087661
170298980.0 -0.1482756859 0.0845059182 0.524379619 -0.1720784148 0.5249769715 -0.1718063637 -0.1615113686 0.0765076713
175298950.0 -0.147359315 0.0855472642 0.5235711676 -0.1779865752 0.5235442009 -0.1783129619 -0.1612011269 0.0772977624
180298920.0 -0.146387977 0.0866469024 0.5216969113 -0.1847160114 0.5215961711 -0.1844565768 -0.1603117385 0.0788762183
185298890.0 -0.1451994235 0.0878456059 0.5193830117 -0.1908460019 0.5196178283 -0.1906435225 -0.1597783372 0.0797760165
190298860.0 -0.1444348989 0.0891367816 0.5175144768 -0.1972235357 0.5179454053 -0.197108136 -0.1585341435 0.0808691828
195298830.0 -0.1433054226 0.0901280305 0.515848846 -0.2030515252 0.5160051688 -0.2032851331 -0.1578892536 0.0818742679
200298800.0 -0.1425745142 0.0918147156 0.5138819678 -0.2085288815 0.5136782693 -0.2089134697 -0.1568549253 0.0831539641
205298770.0 -0.1416461623 0.092987181 0.5120303094 -0.2149487641 0.5114881099 -0.2150579281 -0.1563581739 0.0842577176
210298740.0 -0.1409436081 0.0941375327 0.5095685136 -0.2213532393 0.5095129375 -0.2214560471 -0.1557977217 0.0857747993
215298710.0 -0.1398170884 0.0955701197 0.507115312 -0.2267122209 0.5069837696 -0.2268024018 -0.1551462181 0.0865354421
220298680.0 -0.1387427357 0.0970430361 0.5046015035 -0.2327752919 0.5047565827 -0.2328197825 -0.1540332487 0.0881209429
225298650.0 -0.1375445619 0.0983361172 0.5017590218 -0.2383729658 0.5017319285 -0.2384960257 -0.1533305149 0.0894519879
230298620.0 -0.1369676971 0.0996879618 0.4997442532 -0.2444204712 0.4997881731 -0.2447574939 -0.152582216 0.0905042249
235298590.0 -0.1358701234 0.1009550138 0.4967844578 -0.2501911134 0.4968425434 -0.2505858657 -0.1516101762 0.0913929899
240298560.0 -0.1351347408 0.1026459098 0.4946317576 -0.2560473573 0.4944121213 -0.2555394735 -0.1510209407 0.093327706
245298530.0 -0.1335572258 0.1040003692 0.490956613 -0.26168331 0.4909061941 -0.2619240039 -0.1501043238 0.0945866724
250298500.0 -0.1330356434 0.105102424 0.4887504946 -0.2668423302 0.4888843625 -0.2668192829 -0.1489271818 0.0957096139
255298470.0 -0.1319526897 0.1067444047 0.4853154797 -0.2728839426 0.4854545037 -0.2729097758 -0.148336826 0.0968200316
260298440.0 -0.1306234155 0.1082377975 0.4830817539 -0.2782120134 0.4828588163 -0.2782538183 -0.147042788 0.0982582636
265298410.0 -0.1293997949 0.1096584721 0.4794412447 -0.2841138517 0.4792910138 -0.2838268121 -0.146587953 0.0997095991
270298380.0 -0.1281539915 0.110758556 0.4760587191 -0.2891723375 0.4764909815 -0.289276465 -0.1452253583 0.1012291423
275298350.0 -0.1274143043 0.1123271431 0.4732592165 -0.2946212298 0.4735789305 -0.2948018776 -0.1443493144 0.1023027731
280298320.0 -0.1263527062 0.1138814316 0.470479026 -0.2997387133 0.4703211098 -0.3000866171 -0.1432819455 0.1036477414
285298290.0 -0.1248340224 0.1155661585 0.4670481167 -0.3055222629 0.4668915889 -0.3055888481 -0.1426289172 0.1052956996
290298260.0 -0.1236515144 0.1166950316 0.4637706142 -0.3110534317 0.463582532 -0.3106414605 -0.1412184383 0.1065260234
295298230.0 -0.1223841259 0.1180863056 0.4607385517 -0.3156422494 0.4598390817 -0.3161623877 -0.1403984995 0.1076672985
300298200.0 -0.1210643812 0.1191972356 0.4567055028 -0.3209267004 0.4566446173 -0.3215770301 -0.1395653661 0.1095609086
305298170.0 -0.1198228894 0.1206172518 0.4533365392 -0.3267420874 0.4535636088 -0.3265915 -0.1381107154 0.1110008111
310298140.0 -0.1182195744 0.1218931668 0.4502820362 -0.3321312555 0.4502117411 -0.3320907208 -0.1369250426 0.112343739
315298110.0 -0.1172423142 0.1230790806 0.4465766912 -0.3367620329 0.4464798413 -0.3372269651 -0.1356289939 0.1131691129
320298080.0 -0.1159006108 0.1245630782 0.4426027308 -0.342464571 0.4423539574 -0.341925205 -0.1348019506 0.1145179396
325298050.0 -0.1146277978 0.1252913255 0.4390506622 -0.3472276876 0.4388931638 -0.3473472817 -0.1338465004 0.1158476194
330298020.0 -0.1133006003 0.1270387796 0.4340697078 -0.3525899185 0.43451265 -0.352340567 -0.1330974569 0.1171163981
335297990.0 -0.1121712593 0.1279129074 0.4304747592 -0.3570539609 0.4304503575 -0.3569556696 -0.1320354238 0.118279655
340297960.0 -0.1111932842 0.129730446 0.4261267956 -0.3620928961 0.426762394 -0.3619839413 -0.1311943134 0.1199226297
345297930.0 -0.110190956 0.1310141827 0.4224474065 -0.3661472087 0.4217471977 -0.3660532559 -0.1297974043 0.1209023237
350297900.0 -0.108379118 0.1322911252 0.4181092079 -0.3704658525 0.4183719826 -0.3709604498 -0.1288904711 0.1228033796
355297870.0 -0.1073720131 0.1335467841 0.413976967 -0.3756573743 0.4142706255 -0.3757800306 -0.1278942723 0.1246945151
360297840.0 -0.1057615229 0.1349878455 0.4104208375 -0.380205667 0.4096331623 -0.3800923385 -0.1265777721 0.1255614743
365297810.0 -0.1041901692 0.1362875397 0.4054628741 -0.3846830769 0.405808125 -0.384569369 -0.1256846454 0.1272407663
370297780.0 -0.1025208341 0.1373919384 0.4013029863 -0.3889874218 0.4013699221 -0.389364583 -0.1242227711 0.1287417913
375297750.0 -0.1013835282 0.1394349066 0.3975294061 -0.393817736 0.3970769686 -0.3939915663 -0.1230163375 0.1304431044
380297720.0 -0.0997504257 0.1400235738 0.3930284864 -0.3975688662 0.3928400433 -0.397878668 -0.1218707727 0.1317714682
385297690.0 -0.0980397911 0.1414657434 0.3882544609 -0.4019783604 0.3884195196 -0.4017794356 -0.1207563348 0.1330435485
390297660.0 -0.0967262696 0.1426269592 0.3839416925 -0.4065515966 0.3839449967 -0.4065354203 -0.1192590186 0.1340539531
395297630.0 -0.0950085551 0.1437220356 0.3798428016 -0.4105103317 0.379349053 -0.4107393614 -0.1178980709 0.1359856655
400297600.0 -0.0933893019 0.1455000183 0.3747705363 -0.4150767646 0.3751020323 -0.4147592482 -0.1171678018 0.1368689362
405297570.0 -0.0917352081 0.1463292205 0.3706459698 -0.4188657147 0.3706103306 -0.4192373512 -0.1158590532 0.138470018
410297540.0 -0.0900359209 0.1475338482 0.3655831597 -0.4229171183 0.3654043926 -0.4226828084 -0.1143000538 0.1396539401
415297510.0 -0.0886121706 0.1488642889 0.3612137869 -0.4268063018 0.3611302884 -0.4268195576 -0.1129987312 0.1413861759
420297480.0 -0.0869996928 0.149440188 0.3564882435 -0.4311682386 0.3562824339 -0.4307439661 -0.1115100785 0.141913142
425297450.0 -0.0852159004 0.1509081858 0.3516767145 -0.4346313342 0.3520135683 -0.4350198476 -0.1102075069 0.1438499569
430297420.0 -0.0835861177 0.1520643875 0.3468679151 -0.4387684549 0.3468592305 -0.4387662444 -0.1089634243 0.1445893805
435297390.0 -0.0818227472 0.1529945741 0.3421177748 -0.44217409 0.3422119536 -0.4417660964 -0.1076543649 0.1462407846
440297360.0 -0.0799810913 0.1538752328 0.3369432604 -0.445928391 0.3367507601 -0.4460717217 -0.1063769225 0.1469986203
445297330.0 -0.0779327357 0.1549983096 0.3320203107 -0.4499548372 0.3323252582 -0.4496071249 -0.1051231055 0.1484876658
450297300.0 -0.076377184 0.1562874837 0.3270491797 -0.4533000715 0.3274963717 -0.4532899244 -0.1035884886 0.1496273779
455297270.0 -0.0748883499 0.1572328988 0.3225785278 -0.4562676633 0.3222957653 -0.4565307922 -0.1016895919 0.1509684444
460297240.0 -0.0733274464 0.1578746036 0.3170769958 -0.4598042975 0.3167815852 -0.4604588522 -0.1004886567 0.1528080475
465297210.0 -0.0711156578 0.1588522396 0.3124404943 -0.4634005588 0.3124119866 -0.463726318 -0.0995775973 0.1534720701
470297180.0 -0.0694388292 0.1599754613 0.307372321 -0.4668122807 0.3072671907 -0.4668711177 -0.0980956747 0.1545009397
475297150.0 -0.0679214208 0.1604235219 0.3018159266 -0.4699327805 0.3023346537 -0.4696927277 -0.0964169535 0.1556360663
480297120.0 -0.0656939983 0.1612855942 0.2966733539 -0.4732720404 0.2972915564 -0.4731426291 -0.0949533479 0.1571855767
485297090.0 -0.0641264744 0.1623070146 0.2918929383 -0.476632415 0.2915565882 -0.476523487 -0.0937329995 0.1578127053
490297060.0 -0.0621840798 0.1628438274 0.2867411613 -0.479753309 0.2867820847 -0.479716477 -0.0920033358 0.1592257249
495297030.0 -0.0605685908 0.1641326381 0.2811244408 -0.4826826149 0.2810176699 -0.48306382 -0.0904370929 0.1600568776
500297000.0 -0.0583672986 0.1646498373 0.2756807757 -0.485905061 0.276375815 -0.4857544177 -0.0894889481 0.1615084821
505296970.0 -0.0571634554 0.16557857 0.2708364637 -0.4884658669 0.2705475459 -0.4883493884 -0.0881625741 0.1623837473
510296940.0 -0.0549686033 0.1662224097 0.2657092228 -0.4914319294 0.2654365293 -0.4920009969 -0.0863271363 0.1640342996
515296910.0 -0.0533124125 0.1670568191 0.2598820524 -0.4945436409 0.2599780448 -0.4942878058 -0.0846300504 0.1646923206
520296880.0 -0.0512026361 0.1676251936 0.2543671634 -0.4971308748 0.2547386876 -0.4970786126 -0.0829022697 0.1655289187
525296850.0 -0.0496780058 0.1681370364 0.2493374386 -0.4995700322 0.249187957 -0.5002872867 -0.0811189074 0.1666822121
530296820.0 -0.0475479156 0.1688154742 0.243841521 -0.5019720476 0.2437072636 -0.5021204099 -0.0800033702 0.1670834346
535296790.0 -0.0458599765 0.1698202937 0.2382116397 -0.5050109221 0.2383195403 -0.5045143996 -0.0785285101 0.1680134633
540296760.0 -0.043881768 0.170120652 0.2325406465 -0.5080125519 0.2321498239 -0.5079719026 -0.0772045381 0.169500471
545296730.0 -0.0418959232 0.1710259344 0.2272772535 -0.5100412097 0.2270081504 -0.5103685235 -0.0753894868 0.1697744075
550296700.0 -0.0400621112 0.1716166822 0.2216068873 -0.5128415226 0.2219683036 -0.5127293418 -0.0738978684 0.1712782855
555296670.0 -0.0377794896 0.171925768 0.2159810048 -0.5151009364 0.2161217252 -0.5148646814 -0.072465688 0.1717060789
560296640.0 -0.0361921892 0.1725293897 0.210563976 -0.5169959305 0.2109833352 -0.5170066377 -0.0702004936 0.1727979109
565296610.0 -0.03458117 0.1731018686 0.2048744071 -0.5195948556 0.2043380311 -0.5194070025 -0.0689687281 0.173526681
570296580.0 -0.0323002395 0.1736990909 0.1992330969 -0.5214902957 0.1994091479 -0.5217220132 -0.0673256561 0.1748634069
575296550.0 -0.030098444 0.1743848571 0.1934164057 -0.5235066532 0.1937402672 -0.5235743773 -0.0655396887 0.1754056312
580296520.0 -0.0283956712 0.1746806078 0.1884457041 -0.5258757657 0.1878385492 -0.5256632921 -0.0639001657 0.1760271711
585296490.0 -0.026554284 0.1747180893 0.1821468978 -0.5274749336 0.1822471267 -0.5276771143 -0.0625019472 0.1766983046
590296460.0 -0.0250163239 0.1750809872 0.1766854113 -0.5294809293 0.1766101857 -0.5294828016 -0.0607820933 0.1778858733
595296430.0 -0.0229545758 0.1758531168 0.1709862559 -0.5314979701 0.1706221829 -0.5313084161 -0.0587602175 0.1781511948
600296400.0 -0.0209384261 0.1763583451 0.1652944672 -0.5332560894 0.1653530442 -0.5333276133 -0.0573321684 0.1790967064
605296370.0 -0.0186014122 0.1767349949 0.1592339389 -0.5351320756 0.1594686376 -0.5344736166 -0.0557419032 0.1796268644
610296340.0 -0.0166120411 0.1768082302 0.153623698 -0.5365217042 0.1539758806 -0.5367508116 -0.0541941343 0.1807331672
615296310.0 -0.0150564026 0.1776560718 0.1477155416 -0.537956616 0.1474339461 -0.5380392848 -0.052421628 0.1811118908
620296280.0 -0.0129104118 0.1776545462 0.1421810272 -0.5394770874 0.1421188814 -0.5396894115 -0.0507048988 0.1815669605
625296250.0 -0.0106290784 0.1779115804 0.1354272783 -0.5414316088 0.1358021773 -0.5414515039 -0.0488195202 0.182761948
630296220.0 -0.0088926684 0.1784827623 0.1298678741 -0.5425752375 0.130572617 -0.542648858 -0.0473658257 0.1832556274
635296190.0 -0.0068590661 0.1782716975 0.1241570013 -0.5432390298 0.1242292486 -0.5438007312 -0.0455185274 0.1833128224
640296160.0 -0.0049949502 0.178646901 0.1187079682 -0.5449213571 0.1183383932 -0.5451050608 -0.0435761568 0.1841764752
645296130.0 -0.002999692 0.1789655503 0.1123026265 -0.546612574 0.1124434566 -0.5463974912 -0.0423243863 0.1844234343
650296100.0 -0.0010196478 0.1793889648 0.1069858583 -0.5474227377 0.1068469471 -0.5471120347 -0.0401987074 0.1854518166
655296070.0 0.0009177045 0.1789599104 0.1008331372 -0.5482893941 0.100744734 -0.5485816942 -0.0382063987 0.1860331383
660296040.0 0.0024316526 0.1798880911 0.0950768034 -0.5495359949 0.0953209742 -0.5492663351 -0.0370753445 0.1860022207
665296010.0 0.0051094301 0.1795559498 0.0891843032 -0.5505862557 0.0893632895 -0.5505300777 -0.0351300146 0.1868885862
670295980.0 0.0073067361 0.1796919883 0.0828928491 -0.5512584687 0.0836651635 -0.5511165088 -0.033918028 0.18724452
675295950.0 0.009053628 0.179590949 0.0770660819 -0.5523199074 0.0773674346 -0.5525780199 -0.0315656445 0.1877853548
680295920.0 0.011099446 0.1801149775 0.0710465073 -0.5534152946 0.0706220984 -0.5530011047 -0.0294073386 0.1881139807
685295890.0 0.0130936994 0.1799840689 0.0650929828 -0.5540016347 0.0646760799 -0.5539816366 -0.0277557428 0.1885407697
690295860.0 0.0152053259 0.1799997885 0.0587877245 -0.5538482381 0.0587154097 -0.5540266646 -0.0258863123 0.1890747087
695295830.0 0.0176108525 0.179754949 0.0523281493 -0.5549829564 0.0525992743 -0.5549673485 -0.0243404047 0.1895756484
700295800.0 0.0194492401 0.1795464978 0.0468282364 -0.5554563159 0.0470533225 -0.5558259818 -0.0224903509 0.1895454026
705295770.0 0.0213726949 0.1798991534 0.0408547663 -0.5559346629 0.0413163227 -0.5559731969 -0.0208522058 0.189968948
710295740.0 0.0232005805 0.1797542396 0.0350316918 -0.5560575863 0.035192604 -0.5561973394 -0.01927239 0.1907155303
715295710.0 0.0251708893 0.1797059884 0.0289272086 -0.5567685461 0.0293444847 -0.5568325951 -0.0172320787 0.1906329269
720295680.0 0.0269909074 0.1791533648 0.022988492 -0.5563616757 0.0228258011 -0.55746511 -0.0148421343 0.1912344268
725295650.0 0.0296679364 0.17921887 0.0168154683 -0.5568048942 0.0167188394 -0.5568819592 -0.0132476386 0.1915124372
730295620.0 0.0309315945 0.1789732101 0.0108128071 -0.5572242545 0.0109560305 -0.556881437 -0.0113042169 0.19115101
735295590.0 0.0335879986 0.1787083994 0.0053151298 -0.5568159262 0.0053570521 -0.557299249 -0.009602111 0.1918882799
740295560.0 0.0355068713 0.1788052508 -0.0008247135 -0.5568072226 -0.0011768108 -0.55700049 -0.007376578 0.1919638491
745295530.0 0.0374946062 0.1783296486 -0.0067847403 -0.5570204228 -0.0066259041 -0.5574711082 -0.0060659011 0.1926248505
750295500.0 0.0392205363 0.1780845987 -0.0129666347 -0.5566813726 -0.0129906286 -0.5569664393 -0.0039298921 0.1921861207
755295470.0 0.0417169213 0.1779893172 -0.0189811926 -0.5567554909 -0.0185398311 -0.5567973361 -0.0023207021 0.1928803194
760295440.0 0.0434473028 0.1775644041 -0.025252166 -0.5562017227 -0.0249469604 -0.5565688659 -0.0008636798 0.1927505615
765295410.0 0.045304061 0.1771490351 -0.0302500251 -0.5558318403 -0.0305637471 -0.556546799 0.0023235838 0.1932862934
770295380.0 0.04764234 0.1771822511 -0.037012359 -0.555672932 -0.0367924174 -0.5563116868 0.0040252558 0.193548391
775295350.0 0.0494212286 0.1768089413 -0.042622906 -0.5553098998 -0.0424796012 -0.5551566376 0.0053190798 0.1925547104
780295320.0 0.0517482481 0.1762080872 -0.0485599488 -0.5546233818 -0.0484864453 -0.5548126082 0.0073721394 0.1934689772
785295290.0 0.0534617428 0.1760748918 -0.054975439 -0.5536020242 -0.0545275254 -0.5541446464 0.0085540358 0.1935185419
790295260.0 0.0553845115 0.1753023633 -0.0608839806 -0.5535747013 -0.0607325078 -0.5537382472 0.0113024349 0.1935635209
795295230.0 0.0572921387 0.1750310355 -0.0662176582 -0.5522813249 -0.066234281 -0.5527335784 0.0128346031 0.1937116218
800295200.0 0.0594396358 0.1746074407 -0.0727551791 -0.5524126316 -0.0730088842 -0.5521798531 0.0149170215 0.1934148033
805295170.0 0.0611277145 0.173944272 -0.0782725467 -0.5506725623 -0.0788360133 -0.5510232364 0.0163391205 0.1932808972
810295140.0 0.0633400211 0.1733932151 -0.0843156594 -0.5500941015 -0.0842724252 -0.5508664183 0.0184122576 0.1939307543
815295110.0 0.0650957528 0.172866764 -0.0904255861 -0.5488146505 -0.0906794187 -0.5493001124 0.0201581242 0.1933494906
820295080.0 0.0670039893 0.1720580199 -0.096119361 -0.5483554066 -0.0963046972 -0.5486088431 0.0219724486 0.1934033358
825295050.0 0.0691093885 0.1714930001 -0.1021315202 -0.5465929675 -0.1023632555 -0.5469893432 0.0241459006 0.1935136181
830295020.0 0.0712414797 0.1711726629 -0.1083134349 -0.5457880846 -0.1084624341 -0.5460913692 0.0255440708 0.1932190419
