!Created with skrf (http://scikit-rf.org).
# Hz S RI R 50.0 
!freq ReS11 ImS11 ReS21 ImS21 ReS12 ImS12 ReS22 ImS22
300000.0 -0.2349616605 -0.112052685 0.467430071 0.0730753647 0.4703683072 0.0762501892 -0.2382988626 -0.1162308338
5299970.0 -0.2408846631 0.0068735248 0.4750975347 0.0053222901 0.4749962931 0.0057134314 -0.2443842013 0.0052345396
10299940.0 -0.2371331009 0.0199864453 0.4771053544 0.0062748818 0.4770414067 0.006363558 -0.2415323947 0.0174628347
15299910.0 -0.2327885267 0.0295957641 0.4807210915 0.0074984275 0.4803151636 0.0078016734 -0.2369259479 0.0262161842
20299880.0 -0.227487385 0.0378057777 0.4852075508 0.0082493098 0.4852770259 0.0081429903 -0.2327016879 0.0338219569
25299850.0 -0.2216287157 0.0443554488 0.4904789499 0.006860963 0.4907031092 0.0068949071 -0.2277234837 0.0401607229
30299820.0 -0.2158531913 0.0492841974 0.4963232989 0.0050363585 0.4954336014 0.0048125714 -0.2226291117 0.044861649
35299790.0 -0.2101546799 0.0541887668 0.5011524895 0.0013522634 0.5012414163 0.0016891466 -0.2172409322 0.048787575
40299760.0 -0.2043221448 0.0570370994 0.5060199878 -0.0021347522 0.5060486124 -0.0019861623 -0.2124428538 0.052140415
45299730.0 -0.1996354355 0.060152411 0.5111361242 -0.00730764 0.5111108863 -0.0070382449 -0.2080973993 0.0546081086
50299700.0 -0.1945982935 0.061862268 0.5149570747 -0.0125717621 0.5154611478 -0.0129177996 -0.20373969 0.0568712091
55299670.0 -0.190629835 0.063785941 0.5187985765 -0.0188121506 0.5189536969 -0.0184711303 -0.1999130078 0.0583701859
60299640.0 -0.1865170238 0.0648570186 0.5219699486 -0.0249187228 0.5221391003 -0.0248239922 -0.1960818727 0.0599246642
65299610.0 -0.1832137205 0.0664884135 0.524966348 -0.0311600067 0.5250650349 -0.0311266557 -0.1927674136 0.0606248237
70299580.0 -0.1794341597 0.0669889921 0.5271860228 -0.0375558936 0.5272843581 -0.0381558247 -0.1897646397 0.0616663336
75299550.0 -0.1764506818 0.0681890712 0.5289361936 -0.044659483 0.5289180769 -0.0448020213 -0.1870198566 0.0626608457
80299520.0 -0.1740094602 0.0689274759 0.5313260882 -0.0515209495 0.5312731149 -0.0513209927 -0.1847637701 0.0629586506
85299490.0 -0.1715076964 0.069390241 0.5325648882 -0.0584569502 0.5323004551 -0.0583302688 -0.1826142335 0.0639293413
90299460.0 -0.1693243807 0.0701494848 0.533374305 -0.0652639835 0.5335613694 -0.0653296008 -0.180077034 0.064276288
95299430.0 -0.1671134608 0.0710580407 0.5345413484 -0.0725104003 0.5344353332 -0.0720816575 -0.1787796633 0.0650397799
100299400.0 -0.1653335588 0.0719425503 0.5347097964 -0.0791861568 0.534784707 -0.0790582568 -0.1770356313 0.0652861492
105299370.0 -0.1634846423 0.0725296537 0.5344347922 -0.0860643682 0.5350996796 -0.0862203717 -0.174878961 0.0666179737
110299340.0 -0.1618264877 0.0729434472 0.5349401265 -0.0924511267 0.5351618839 -0.0931560645 -0.1738023218 0.0672350416
115299310.0 -0.1603329939 0.0735411453 0.5352523033 -0.0993880366 0.5351649257 -0.0995218731 -0.172068432 0.0670551871
120299280.0 -0.159108371 0.0745525633 0.5348991854 -0.1064593461 0.5351130314 -0.1064999635 -0.171269063 0.0679626709
125299250.0 -0.1579802928 0.0751364157 0.5346146425 -0.1129396785 0.5347018605 -0.1134655001 -0.1698672516 0.0688011346
130299220.0 -0.1566010531 0.0759749108 0.5339531421 -0.1194825621 0.533760231 -0.1198946497 -0.1687911093 0.0694252326
135299190.0 -0.1551528008 0.0766201609 0.5332472793 -0.1261454943 0.532902526 -0.1266039393 -0.1678631864 0.0702448117
140299160.0 -0.1541956225 0.0782089713 0.5324493706 -0.1331795877 0.5326215521 -0.1331293421 -0.1669352717 0.0711928514
145299130.0 -0.1530824726 0.0789116241 0.5319019341 -0.139524776 0.5316124007 -0.1391428541 -0.166466311 0.0715995292
150299100.0 -0.1520709902 0.0796795918 0.5305156495 -0.1463778603 0.530406045 -0.1462213191 -0.1653188647 0.0724816003
155299070.0 -0.1512529133 0.0812188282 0.529425116 -0.1530961701 0.5291257808 -0.1530039535 -0.1645231754 0.07344855
160299040.0 -0.1501814501 0.0819485615 0.527695698 -0.1585947514 0.5280927696 -0.1592996667 -0.1637857648 0.0749206641
165299010.0 -0.1492667368 0.0831420249 0.5265586764 -0.1656285046 0.5264490737 -0.165556212 -0.1627798275 0.0755872496
170298980.0 -0.148291644 0.0843898548 0.5241877386 -0.1717620757 0.5244847707 -0.1719433316 -0.1617011391 0.0763410213
175298950.0 -0.1472736032 0.085687555 0.5235852216 -0.1781714393 0.5234194836 -0.1784551921 -0.1609625338 0.0773180002
180298920.0 -0.1460838971 0.086609432 0.521489439 -0.1848037375 0.5213602818 -0.183839231 -0.1600363401 0.078642742
185298890.0 -0.1451173161 0.0878965786 0.5192784355 -0.190869984 0.5197627311 -0.1903345104 -0.1599297673 0.0795993868
190298860.0 -0.1441838433 0.0892299443 0.5177534522 -0.1971612174 0.5176955359 -0.1969072467 -0.1583510453 0.0806194599
195298830.0 -0.1433692484 0.090244658 0.5156118258 -0.202726999 0.515734212 -0.203270068 -0.1579182914 0.0816654371
200298800.0 -0.1423890172 0.0918531496 0.5140355962 -0.2086830908 0.5135002499 -0.2084085621 -0.1567949061 0.0829905163
205298770.0 -0.1416776406 0.0930557761 0.5118716301 -0.2146480466 0.5114498398 -0.2147950557 -0.1562185084 0.0839997787
210298740.0 -0.140720349 0.0941907719 0.5092552643 -0.2214804948 0.5095690826 -0.2214289513 -0.1555612998 0.0854550238
215298710.0 -0.1397755288 0.0956778579 0.5069711885 -0.2269647728 0.50720852 -0.2266622206 -0.1552185897 0.086517104
220298680.0 -0.1388775589 0.0969223178 0.5044099994 -0.2331492112 0.5043285293 -0.2331715146 -0.1541578824 0.0881641821
225298650.0 -0.1375767847 0.0985956454 0.5017886554 -0.2386928244 0.5014801574 -0.2384892149 -0.1535685339 0.0892919851
230298620.0 -0.1371091715 0.0997959229 0.499900334 -0.2444027733 0.4997767524 -0.2446190974 -0.152345914 0.0906967782
235298590.0 -0.1358582164 0.1011300611 0.496940404 -0.2500663631 0.496975167 -0.2506250683 -0.1517790653 0.0915788957
240298560.0 -0.1349853033 0.1024737299 0.4939727415 -0.2555866877 0.494426625 -0.2557436385 -0.1509450834 0.0927840149
245298530.0 -0.1335452945 0.1039526694 0.4907956268 -0.2616975315 0.4912676964 -0.2617242253 -0.150223596 0.0945742234
250298500.0 -0.1330075685 0.1050866094 0.4887719205 -0.2668900249 0.4884152708 -0.2668276069 -0.1490798635 0.0954823909
255298470.0 -0.1319295284 0.1068628415 0.4857485641 -0.2729057703 0.4855222438 -0.2728408834 -0.1480055413 0.0965776134
260298440.0 -0.1307610168 0.1080543704 0.4829421511 -0.2779251785 0.4825798713 -0.2782951469 -0.1470980179 0.0981075176
265298410.0 -0.1295016268 0.109775679 0.47987014 -0.2846946491 0.4794957725 -0.2838486992 -0.1463720164 0.0993371617
270298380.0 -0.1282279649 0.1108377099 0.476038276 -0.2891207042 0.4769875885 -0.2893938023 -0.1453443437 0.1011116676
275298350.0 -0.1274392697 0.1124659858 0.4734863277 -0.294623981 0.4740299597 -0.2948518995 -0.1441554442 0.1024610157
280298320.0 -0.1262731536 0.114022843 0.469872475 -0.2994842612 0.4698838955 -0.3001307681 -0.1433279132 0.1035774175
285298290.0 -0.1247428073 0.1156035804 0.4666288192 -0.3053153355 0.4669210897 -0.3055505999 -0.1428180102 0.1052445934
290298260.0 -0.1238845342 0.116773285 0.4639114864 -0.3107819428 0.4637128653 -0.3108037555 -0.1409018311 0.1067851784
295298230.0 -0.1225040385 0.1178326365 0.4607211849 -0.3158171746 0.4598576374 -0.3158144638 -0.1401065353 0.1079162848
300298200.0 -0.1208281375 0.1192349859 0.456832577 -0.3212171441 0.457284304 -0.3213361821 -0.1393482704 0.1093437093
305298170.0 -0.1195471453 0.1206804294 0.4535366492 -0.3266872945 0.4538497441 -0.3268716299 -0.1378504627 0.1109359016
310298140.0 -0.1181695398 0.1217133177 0.4500378413 -0.3315209253 0.4501450177 -0.3322120938 -0.1369772391 0.1123897102
315298110.0 -0.1171280717 0.1231140793 0.4461849277 -0.3371897496 0.4467792257 -0.3369652844 -0.1356417443 0.1130276124
320298080.0 -0.1160739249 0.1247912667 0.4426685925 -0.3423444594 0.4427881765 -0.3423262743 -0.1345335392 0.1145058137
325298050.0 -0.1146962231 0.1253618387 0.4389656516 -0.3470491798 0.4386496286 -0.3473797235 -0.133740926 0.1157885304
330298020.0 -0.1133726351 0.1271906808 0.4343952041 -0.352542826 0.434523731 -0.3521727337 -0.1329656847 0.1170231428
335297990.0 -0.1122599273 0.1282012902 0.4309008306 -0.357008698 0.4307103707 -0.3571352684 -0.1319388735 0.1183411335
340297960.0 -0.1115024661 0.1298858472 0.4263975462 -0.3619923293 0.4269557178 -0.3619086981 -0.1309865164 0.1201203469
345297930.0 -0.1101345598 0.1310214959 0.4223972709 -0.3661822617 0.4219680974 -0.365859346 -0.1297345444 0.1211989646
350297900.0 -0.1083503582 0.1325811004 0.4180769731 -0.3707776946 0.4185074989 -0.3710839323 -0.1289141576 0.1232121022
355297870.0 -0.1070654397 0.1339650728 0.4142272209 -0.3756604955 0.4141563319 -0.3758707178 -0.1276461418 0.1243844891
360297840.0 -0.1053839585 0.1351866232 0.4100059659 -0.3800567584 0.4098819402 -0.3802364901 -0.1264472716 0.126016375
365297810.0 -0.1040662364 0.1363101435 0.4055595721 -0.3845540357 0.4059259614 -0.3846456537 -0.1256072968 0.127676051
370297780.0 -0.1024661832 0.1377876211 0.4013561682 -0.3889403943 0.4012914332 -0.389323049 -0.1243621121 0.1287233221
375297750.0 -0.1012412826 0.1392176892 0.3977892052 -0.3939750915 0.397274704 -0.3937029871 -0.1231273421 0.1303062545
380297720.0 -0.099617297 0.1399588313 0.3928654049 -0.3973524041 0.3929657421 -0.3980125662 -0.12169504 0.131788493
385297690.0 -0.0980957676 0.1417655407 0.3886426981 -0.4018616972 0.3879933496 -0.4021765569 -0.1202799379 0.1334822568
390297660.0 -0.0967164117 0.1428842855 0.3838033199 -0.406465774 0.3839058286 -0.406733051 -0.1191375548 0.1341986353
395297630.0 -0.0948574924 0.1437592348 0.3796392616 -0.4103298412 0.3795657673 -0.410415458 -0.1180459614 0.1361411153
400297600.0 -0.0934842954 0.1453411833 0.3747516863 -0.4150206728 0.3753494015 -0.414902276 -0.1175397431 0.1370076846
405297570.0 -0.0918398277 0.1467323816 0.3704419792 -0.4190429573 0.3704052515 -0.419077637 -0.1155576982 0.1385085274
410297540.0 -0.0901273351 0.1475567879 0.3654004332 -0.4226350569 0.3655491802 -0.4226521241 -0.1145172227 0.1396440568
415297510.0 -0.0886093685 0.1491021645 0.3612443182 -0.426454035 0.3613431006 -0.4268038545 -0.1134931977 0.1415632156
420297480.0 -0.08677612 0.1497463533 0.3560916133 -0.4310742679 0.3562752251 -0.4309141542 -0.1116951726 0.1422153764
425297450.0 -0.0848350008 0.150891969 0.3514934703 -0.4348752329 0.3517642556 -0.4346708161 -0.1102776865 0.1440313651
430297420.0 -0.0835725785 0.1523231285 0.3469861061 -0.4390679932 0.3473373489 -0.438481519 -0.1094154442 0.1448221335
435297390.0 -0.0816697835 0.1530539384 0.341981358 -0.4420528647 0.3420420482 -0.4418971238 -0.1078472113 0.1464280844
440297360.0 -0.0798024352 0.1539168026 0.3369314743 -0.4458193958 0.3369361481 -0.4456876838 -0.1064811286 0.1472336315
445297330.0 -0.0779078375 0.1550489546 0.3319420914 -0.4500000483 0.3321672848 -0.449601723 -0.1048688859 0.1487779172
450297300.0 -0.0763800207 0.1560936457 0.3270639925 -0.453457411 0.3275327106 -0.4532424525 -0.1039505911 0.1498450143
455297270.0 -0.0750198078 0.1569898702 0.322820294 -0.4567506376 0.3226778467 -0.4567183444 -0.1021221289 0.151019975
460297240.0 -0.0731688754 0.1579597187 0.3172843879 -0.4600549812 0.3169777055 -0.4602606448 -0.100749585 0.1525764954
465297210.0 -0.0711264144 0.1588473523 0.3125910602 -0.4633537732 0.3127270445 -0.463746388 -0.0997296267 0.1534412023
470297180.0 -0.0696205041 0.1597748845 0.3071795009 -0.4665271852 0.3074423637 -0.4668004058 -0.0985882884 0.154862031
475297150.0 -0.0680540186 0.1606615023 0.3020564732 -0.469960745 0.3022143475 -0.4698042531 -0.0965233403 0.1556094924
480297120.0 -0.0657224077 0.1611571166 0.2968247283 -0.4734327614 0.2974311315 -0.473157567 -0.0951329408 0.1573633018
485297090.0 -0.0639885816 0.162193899 0.291872373 -0.4765543987 0.2920411917 -0.4765114522 -0.0940195959 0.15779055
490297060.0 -0.0618340536 0.163317485 0.2867681753 -0.4800025672 0.2866496554 -0.4797976985 -0.0920635555 0.159109193
495297030.0 -0.0606828432 0.164077687 0.2815263275 -0.4826931201 0.2808371302 -0.4830075649 -0.0905774261 0.1597307643
500297000.0 -0.0584857674 0.1645812764 0.2760310051 -0.4856954966 0.2759429787 -0.4856147797 -0.0896104257 0.1611631949
505296970.0 -0.0570942624 0.1656074259 0.2705467727 -0.4883617994 0.2708561997 -0.4886120377 -0.0883786733 0.1623564405
510296940.0 -0.0549676948 0.1663218932 0.2655482202 -0.4918836576 0.2653820643 -0.4918577055 -0.0857666125 0.1636617519
515296910.0 -0.0533579063 0.1672858337 0.2599418941 -0.4943074345 0.2601492292 -0.4942373407 -0.0847781742 0.1643464836
520296880.0 -0.0512924589 0.1676764062 0.2543869112 -0.4970106657 0.2549096614 -0.4971601263 -0.0830191056 0.1651830375
525296850.0 -0.0494466274 0.1682825429 0.2491235388 -0.499809031 0.2493630847 -0.4997325725 -0.0813001803 0.166299722
530296820.0 -0.0475842628 0.1691174122 0.2442426781 -0.5019243731 0.2439027332 -0.5023070373 -0.080430042 0.1671462257
535296790.0 -0.045733443 0.1696782496 0.2381173891 -0.5048921056 0.2388079543 -0.504794946 -0.0785981103 0.1677412285
540296760.0 -0.0438011943 0.1701394526 0.2329557655 -0.5076694077 0.2328364838 -0.5077408975 -0.0770795173 0.1692233448
545296730.0 -0.0419036506 0.1710282817 0.2269568673 -0.5100832415 0.2273976122 -0.5100119652 -0.0754312135 0.1697051621
550296700.0 -0.0402956886 0.1715186212 0.2218785294 -0.512458899 0.2223004956 -0.5124873745 -0.0737010816 0.171012174
555296670.0 -0.037758847 0.1721237503 0.2163560617 -0.5151690634 0.216309463 -0.5148648191 -0.0721957343 0.1719214435
560296640.0 -0.0361725248 0.1724391259 0.2103179316 -0.516937504 0.2109191589 -0.5168543012 -0.070589052 0.172609501
565296610.0 -0.0346919796 0.173019033 0.2050718427 -0.5192769897 0.2048269105 -0.5189978628 -0.0690000899 0.1733516615
570296580.0 -0.0324032681 0.1734228171 0.1994978737 -0.5212548493 0.1996090575 -0.5216227237 -0.067553774 0.174797907
575296550.0 -0.0302380671 0.1744574381 0.1936944742 -0.5233819662 0.1941339941 -0.5231989775 -0.0654827624 0.1750020288
580296520.0 -0.0286653288 0.1745790735 0.1883285298 -0.5255486341 0.187967871 -0.5257432925 -0.0641847576 0.1758142193
585296490.0 -0.0264905685 0.1749290988 0.1827386792 -0.5276953756 0.1823776446 -0.5272159475 -0.0623355778 0.1762686583
590296460.0 -0.0249158341 0.1750036939 0.1768016348 -0.5292481107 0.1764551929 -0.5293728271 -0.0607355602 0.1775120396
595296430.0 -0.0227550663 0.1760444885 0.171074483 -0.5313313891 0.1706304895 -0.531371089 -0.058856418 0.1780430306
600296400.0 -0.0209187406 0.1762249274 0.1652477598 -0.5329682977 0.1654610429 -0.5329656776 -0.0572668479 0.1789030649
605296370.0 -0.0187154528 0.1771387383 0.1593066535 -0.5350345307 0.1596637462 -0.5347726515 -0.0556219836 0.1797077361
610296340.0 -0.0169694688 0.1770560423 0.1538909854 -0.5366237371 0.1537701186 -0.5367005214 -0.0537867049 0.1806762903
615296310.0 -0.0149507054 0.1777801683 0.147380445 -0.5380947797 0.1474591728 -0.5382541226 -0.0521238453 0.181337337
620296280.0 -0.0128750937 0.1773397875 0.1421972692 -0.5394953129 0.1420232728 -0.5396271654 -0.050527618 0.1816115837
625296250.0 -0.0107241163 0.1779533301 0.1358426193 -0.5412253333 0.1361596127 -0.5411652509 -0.0485440184 0.1825889171
630296220.0 -0.0087586722 0.1784114394 0.1301067257 -0.5427279891 0.13075775 -0.5426744432 -0.0472352265 0.1828429624
635296190.0 -0.0070377781 0.1783898419 0.1241743176 -0.5435507649 0.1243607675 -0.5435732126 -0.0452275092 0.1834775286
640296160.0 -0.0047407292 0.178673232 0.1183972333 -0.5449651585 0.1185036654 -0.5452325258 -0.0429249347 0.184145717
645296130.0 -0.0030570014 0.1791537474 0.1123395996 -0.5465268008 0.1124968155 -0.5462825603 -0.042043681 0.1844129906
650296100.0 -0.0010853364 0.1796972564 0.1071105489 -0.5472569257 0.1068489505 -0.5469429188 -0.0401918812 0.1850579385
655296070.0 0.001048794 0.1793348202 0.1011096536 -0.548702722 0.1008516735 -0.5482839018 -0.037795238 0.1860236286
660296040.0 0.002854399 0.180056297 0.0945972853 -0.5496433908 0.0954833575 -0.5493312843 -0.0367065279 0.186416835
665296010.0 0.0052548174 0.1795084253 0.089164083 -0.5507265556 0.0896311566 -0.5505167338 -0.0352670533 0.1871279308
670295980.0 0.0074928656 0.1797514653 0.0827437294 -0.5512090028 0.0831974673 -0.5512504806 -0.0333999382 0.1873237791
675295950.0 0.0091568435 0.1797052376 0.0769205221 -0.5522078915 0.077276268 -0.5524452895 -0.0312666248 0.1877849896
680295920.0 0.0110203305 0.1801241504 0.0712515328 -0.5533693222 0.0710177477 -0.5531408376 -0.0294573166 0.1883514031
685295890.0 0.0131494592 0.1799371091 0.0657121994 -0.5537618162 0.0651538439 -0.5539500717 -0.0277393844 0.1888765057
690295860.0 0.0155413812 0.1799765553 0.0591337359 -0.5540197138 0.0588890023 -0.5539992943 -0.0256479511 0.1892360075
695295830.0 0.0175149652 0.179593967 0.0528598009 -0.5547706174 0.05299723 -0.5549760764 -0.0244564727 0.1897315362
700295800.0 0.0195271348 0.1799377781 0.0469323653 -0.5554868717 0.0468081772 -0.5554118393 -0.0221575464 0.1893121907
705295770.0 0.0215380408 0.1798816943 0.0413568776 -0.5558544152 0.0414617785 -0.5554266981 -0.0207498601 0.1899479607
710295740.0 0.0234493845 0.1799185699 0.0352396771 -0.5559577468 0.0349787373 -0.5561383109 -0.0190786406 0.1910034848
715295710.0 0.0253865001 0.179676229 0.0290195479 -0.5563613364 0.0293340046 -0.5564330822 -0.0170054548 0.1907798002
720295680.0 0.0272649032 0.1793475591 0.0228622139 -0.5566969522 0.0234885831 -0.5569685832 -0.0148824381 0.1913941234
725295650.0 0.0296034626 0.1792613611 0.0169853049 -0.5566055735 0.0174846592 -0.5569642018 -0.0132397219 0.1917191598
730295620.0 0.0311908309 0.1791639482 0.0111179018 -0.557333306 0.0110367901 -0.5573588318 -0.0110356571 0.1918368278
735295590.0 0.0335227086 0.1788894669 0.0050843653 -0.5572416237 0.005225606 -0.5571047777 -0.0093764797 0.1920239614
740295560.0 0.0353196378 0.1788747128 -0.0009390249 -0.5565150654 -0.0009762236 -0.5570009564 -0.0076380457 0.192225409
745295530.0 0.0373970168 0.1782805893 -0.0066069361 -0.5568563786 -0.006533854 -0.556972731 -0.0061196226 0.1923866474
750295500.0 0.0395274161 0.1779463995 -0.0127520465 -0.5563761019 -0.0129667401 -0.5565464494 -0.0040085522 0.1924332183
755295470.0 0.0417097882 0.1782304154 -0.0186979903 -0.5565322913 -0.0184587773 -0.5568376009 -0.0025891663 0.1926026121
760295440.0 0.0433793344 0.1776666451 -0.025075536 -0.5561274695 -0.0249584718 -0.556587717 -0.0008622504 0.1930064582
765295410.0 0.0452354561 0.1772439214 -0.0304873184 -0.5559347606 -0.030717258 -0.5562148435 0.0018256213 0.1934572179
770295380.0 0.0477340209 0.1770594814 -0.0369225453 -0.5555500386 -0.0366124847 -0.555874709 0.003622369 0.1932659955
775295350.0 0.0492697222 0.176749321 -0.0426778698 -0.554886879 -0.0427282575 -0.554847342 0.0051291067 0.1928400019
780295320.0 0.051749806 0.1760286645 -0.0489306882 -0.5546852851 -0.0482192038 -0.5545413345 0.0070891988 0.1937166685
785295290.0 0.0533377213 0.1758982246 -0.0548086353 -0.5535889878 -0.0543037119 -0.5541251821 0.008623502 0.1935024825
790295260.0 0.0552565843 0.1753446829 -0.0605894041 -0.5534504802 -0.0605748086 -0.5539101779 0.0110991925 0.1935311433
795295230.0 0.05722223 0.17479658 -0.0661924645 -0.5522311115 -0.0662342797 -0.5527296032 0.0125779201 0.1939666353
800295200.0 0.0596006297 0.1746270519 -0.0727743735 -0.5523215045 -0.0729665105 -0.5521929054 0.0146285657 0.1936554008
805295170.0 0.0611727695 0.1740797937 -0.0782559509 -0.5508032585 -0.0781945448 -0.5511548848 0.0160637187 0.1935750636
810295140.0 0.0632365148 0.1734610754 -0.0839908553 -0.5502393099 -0.0845850324 -0.5507704622 0.0182297262 0.1939466725
815295110.0 0.0654185565 0.1729798831 -0.0907190503 -0.5488019531 -0.09031202 -0.5492228628 0.0199445645 0.1936749398
820295080.0 0.0669943382 0.1719398656 -0.0955434401 -0.5481686056 -0.0959697383 -0.548141748 0.0218684252 0.1935326347
825295050.0 0.0691460028 0.1714764719 -0.1019364364 -0.5464675393 -0.1019704857 -0.5472247068 0.0239656456 0.1934781689
830295020.0 0.0711655351 0.1712322732 -0.1081104242 -0.5458087613 -0.1084405823 -0.5460641053 0.0256236008 0.1932545268
