!Created with skrf (http://scikit-rf.org).
# Hz S RI R 50.0 
!freq ReS11 ImS11 ReS21 ImS21 ReS12 ImS12 ReS22 ImS22
300000.0 -0.2331447925 -0.1241703009 0.4657004386 0.0801777527 0.4642623814 0.0803865825 -0.2349022998 -0.1256156466
5299970.0 -0.2449385736 0.0056445535 0.4734211821 0.0057962098 0.4742245541 0.0063311304 -0.2433042493 0.0051671718
10299940.0 -0.2418763887 0.0186889592 0.4762077946 0.0068384393 0.4758686428 0.0072550074 -0.2402065615 0.0181269485
15299910.0 -0.2369672734 0.0282051541 0.4791868867 0.0087495055 0.4799303327 0.0083266621 -0.2361731384 0.0275362328
20299880.0 -0.231507848 0.0363335522 0.4837845831 0.0083998799 0.4845904189 0.0083862905 -0.2309345181 0.0352013963
25299850.0 -0.2254399426 0.0429722109 0.4895884563 0.0080055792 0.4898706899 0.0075795788 -0.2259836948 0.0418043032
30299820.0 -0.220424159 0.047629278 0.4951453546 0.0055819466 0.4950458603 0.0056309754 -0.2208415395 0.0469192762
35299790.0 -0.214373138 0.0519518219 0.4998165577 0.0026767614 0.5005135834 0.0021573082 -0.2156540658 0.0514528749
40299760.0 -0.2093774183 0.054749498 0.5057103873 -0.0014357032 0.5056618092 -0.0016065145 -0.2106431853 0.0545512623
45299730.0 -0.2040219594 0.0572892534 0.5103784244 -0.0060950399 0.5106611657 -0.0063164645 -0.2055912289 0.0576469315
50299700.0 -0.1989349652 0.0588957691 0.5146083309 -0.0120079187 0.5142076128 -0.0117523999 -0.2011768722 0.0601433909
55299670.0 -0.1948826963 0.0605407102 0.5181361937 -0.0173232867 0.5182592648 -0.0176267469 -0.1975075975 0.0619553134
60299640.0 -0.1907657875 0.061766244 0.5218984264 -0.0236461233 0.5218819994 -0.0237731107 -0.1936043449 0.0631922911
65299610.0 -0.1872617998 0.0626451548 0.5248280269 -0.0301726965 0.5248530505 -0.0306777304 -0.1898050802 0.0645930491
70299580.0 -0.1839892547 0.0631835657 0.527065928 -0.0367904421 0.5274794877 -0.0371659287 -0.187044462 0.0658697044
75299550.0 -0.1809104201 0.0637368473 0.5287712405 -0.0439582755 0.5292828517 -0.043989004 -0.1838346886 0.0670903884
80299520.0 -0.1784518475 0.0644390343 0.5309901627 -0.0504517496 0.5314841608 -0.0510989345 -0.1816775994 0.0679366578
85299490.0 -0.1756701202 0.0648570285 0.5320679867 -0.0576970446 0.5324770362 -0.0574551842 -0.1792957413 0.0686649797
90299460.0 -0.1735283113 0.0653662619 0.5332926528 -0.0645967125 0.5333987203 -0.0641529936 -0.1768949721 0.0698261568
95299430.0 -0.1715504747 0.0659580031 0.5342118967 -0.0714697399 0.5344674319 -0.0718992328 -0.1751703299 0.0708529389
100299400.0 -0.1694149705 0.066094243 0.5345890102 -0.0783209354 0.5348321832 -0.0786094047 -0.1729346673 0.0719223356
105299370.0 -0.1675924464 0.0666211657 0.5347827024 -0.0855133417 0.5354841127 -0.0851411473 -0.1707491769 0.0722784074
110299340.0 -0.1658348646 0.0668434031 0.5350886313 -0.0916001728 0.5356897487 -0.0919126207 -0.1697741333 0.0731705013
115299310.0 -0.1649181069 0.0676869283 0.5356098754 -0.0989854278 0.5354757974 -0.0989447377 -0.1682031573 0.07437353
120299280.0 -0.1630751696 0.0683975265 0.5348837797 -0.1062738544 0.5353007034 -0.1061004794 -0.1665903472 0.074780115
125299250.0 -0.1619608913 0.0684970481 0.5345298934 -0.1125009256 0.5346221784 -0.1124523663 -0.1652467465 0.0761586962
130299220.0 -0.1605538627 0.0689102531 0.5338523245 -0.1195074928 0.5339550272 -0.1197432847 -0.1641941516 0.0769413597
135299190.0 -0.1598426534 0.0701656002 0.5335869465 -0.1257430191 0.5336681329 -0.1259941369 -0.1628086425 0.0777050941
140299160.0 -0.1584493423 0.071023587 0.5328299809 -0.1329736725 0.5330297482 -0.1324569323 -0.1621867627 0.0788940923
145299130.0 -0.1579569737 0.0716955813 0.5316336873 -0.139133094 0.5318162744 -0.1389924169 -0.1608962524 0.0797389912
150299100.0 -0.1564744932 0.0724621976 0.5305561663 -0.1458136409 0.5306096581 -0.1458457315 -0.1597406057 0.0814152002
155299070.0 -0.1556121649 0.0735063096 0.5292810392 -0.1523126774 0.5295236146 -0.1524640534 -0.1584865118 0.082477199
160299040.0 -0.1549110213 0.0745381673 0.5278957205 -0.1589552706 0.5278247373 -0.159066201 -0.1578706884 0.0834953445
165299010.0 -0.1538539217 0.0750689079 0.5265403968 -0.1646594135 0.5262830935 -0.1652380557 -0.1565500298 0.0843774599
170298980.0 -0.1530197009 0.0761333196 0.5248175262 -0.1713114704 0.5249955192 -0.1715021437 -0.1560060286 0.0856709962
175298950.0 -0.1522212444 0.0774950297 0.5234759921 -0.1781204934 0.523932274 -0.1778182633 -0.155299683 0.0873827418
180298920.0 -0.1516626859 0.0787397781 0.5215682444 -0.1844281725 0.5217394975 -0.1844970396 -0.1542482558 0.0886331943
185298890.0 -0.1508705671 0.0793266867 0.5201835435 -0.1899489897 0.5198489001 -0.1902701438 -0.1529909178 0.0896169779
190298860.0 -0.1496352936 0.0806797053 0.5173020579 -0.1963116887 0.518388745 -0.1962910519 -0.1521156044 0.0912391124
195298830.0 -0.1491764279 0.0817010045 0.516511559 -0.2022910186 0.5161768208 -0.2024014205 -0.1512790892 0.0923758369
200298800.0 -0.1483429105 0.0828320675 0.5138984392 -0.2091051896 0.5140562566 -0.2092360721 -0.1501904127 0.09365602
205298770.0 -0.1478405621 0.0838868986 0.5116081981 -0.2144903766 0.5119558525 -0.2146666903 -0.1489936233 0.0954585812
210298740.0 -0.1469235999 0.085315218 0.5093381931 -0.2208916724 0.5095923637 -0.22069754 -0.1485484999 0.0964525951
215298710.0 -0.1462538908 0.0866980379 0.5071821169 -0.2267063591 0.5071973389 -0.22674768 -0.1476014851 0.0975793121
220298680.0 -0.1453974491 0.0878305499 0.504552003 -0.2324868933 0.5046883651 -0.2327885843 -0.1463586737 0.0991395263
225298650.0 -0.1446506484 0.0891588297 0.5018706932 -0.2383276223 0.5021158387 -0.2381145945 -0.1455932315 0.1005266683
230298620.0 -0.1436071122 0.0904670574 0.4998842879 -0.2442991897 0.499787629 -0.244707454 -0.1444207305 0.1018632869
235298590.0 -0.1431931935 0.0917291452 0.4973384449 -0.2501899335 0.497255245 -0.2501077982 -0.1430769513 0.1031715161
240298560.0 -0.1423252773 0.093190863 0.4945378807 -0.255886035 0.494035464 -0.255585094 -0.142491803 0.1045872306
245298530.0 -0.1414492306 0.0940265711 0.4917449217 -0.2614619497 0.4917781448 -0.2616183337 -0.1413042258 0.1061492562
250298500.0 -0.1409567835 0.0954680035 0.4890154862 -0.2670801902 0.4890625727 -0.2671678667 -0.1407288566 0.1076529394
255298470.0 -0.1399879127 0.0972900532 0.4860371058 -0.2722873948 0.4866077285 -0.2728618695 -0.1394557995 0.1093092037
260298440.0 -0.1389772035 0.098274641 0.48337806 -0.2775960124 0.4832502124 -0.2779736004 -0.1386720843 0.1103990127
265298410.0 -0.1384175491 0.0997202667 0.4800338915 -0.2838939538 0.4798353251 -0.2839427265 -0.1366410151 0.1118167267
270298380.0 -0.1376567211 0.1005915136 0.4767572859 -0.2889177166 0.4767034186 -0.2892390331 -0.1356482824 0.113480336
275298350.0 -0.1365007173 0.1025686309 0.4732655448 -0.2947069801 0.4733183389 -0.2945390774 -0.1347714511 0.1149729351
280298320.0 -0.1359733542 0.1036457844 0.4706322403 -0.2993490618 0.4710030566 -0.3000190708 -0.1334768429 0.1166179882
285298290.0 -0.1351413684 0.1052252934 0.4671669198 -0.3051695515 0.4674975735 -0.3049318613 -0.1323284129 0.1179037675
290298260.0 -0.134080007 0.1066350802 0.4645969084 -0.310471117 0.4643633918 -0.3107498507 -0.1311315857 0.1195712182
295298230.0 -0.1334281661 0.1076891508 0.4605669144 -0.3157722908 0.4609557163 -0.3161416315 -0.1299755342 0.1206162778
300298200.0 -0.1323620324 0.1092449629 0.457213163 -0.3212412914 0.4575157368 -0.3206538468 -0.1287092836 0.1218606814
305298170.0 -0.1313020219 0.110010967 0.4538713578 -0.3262880137 0.454561989 -0.3264862461 -0.127467558 0.1231952793
310298140.0 -0.1300104283 0.1113572 0.4502906062 -0.3315046095 0.4504833708 -0.3309838198 -0.1258560281 0.1245490689
315298110.0 -0.1294775757 0.1122600017 0.4467863646 -0.3369836814 0.4468031686 -0.3369205115 -0.124668927 0.1260646156
320298080.0 -0.1285404512 0.1136510746 0.4425012486 -0.341992293 0.4432609525 -0.3420489394 -0.1236162829 0.1272274971
325298050.0 -0.1282313043 0.1145032778 0.4388330483 -0.3466786588 0.439244792 -0.3466887187 -0.1218642328 0.1282905987
330298020.0 -0.1277513247 0.1163432076 0.4352243503 -0.3520261358 0.4357542076 -0.3519070269 -0.1212622301 0.129657907
335297990.0 -0.1266184574 0.1174227491 0.4312680717 -0.3565388215 0.4315437374 -0.3565593094 -0.1198329701 0.1310639783
340297960.0 -0.1259187598 0.1186826996 0.4267255178 -0.3615685538 0.4269261067 -0.3614051902 -0.1187464923 0.132683812
345297930.0 -0.1248793075 0.1199501015 0.422778831 -0.3664519223 0.4228823686 -0.3663334903 -0.1172278699 0.1336166801
350297900.0 -0.1243453354 0.1210651477 0.4189815818 -0.3705810966 0.4192806367 -0.3707535907 -0.1161828231 0.1350976548
355297870.0 -0.1231532783 0.1225653142 0.4151092109 -0.3748565275 0.4148747503 -0.3751071071 -0.1142853561 0.1367454525
360297840.0 -0.1220305781 0.1237095254 0.4106047376 -0.3800614385 0.4112018031 -0.3803290915 -0.113588563 0.1383931652
365297810.0 -0.1212873375 0.1251525818 0.4063289879 -0.3842821319 0.4061167592 -0.3845398716 -0.1120392188 0.1392608136
370297780.0 -0.1196992819 0.1263518695 0.4013664392 -0.388901069 0.4024954779 -0.3888731028 -0.1106094569 0.141088474
375297750.0 -0.1191225789 0.1280707559 0.3980289047 -0.393405609 0.3980500654 -0.3931992797 -0.1091531187 0.1422197456
380297720.0 -0.1179973879 0.1291800792 0.3939529524 -0.3979201265 0.3933694973 -0.3974396633 -0.1076833695 0.143557425
385297690.0 -0.1169643673 0.1302302865 0.388914322 -0.4020021097 0.3895084412 -0.4025078321 -0.1060168674 0.145352528
390297660.0 -0.1157434935 0.1313614278 0.3845351015 -0.405857028 0.3853316107 -0.4060439683 -0.1044376333 0.1460321919
395297630.0 -0.1141281795 0.1327089434 0.3804228316 -0.4098727263 0.3804416546 -0.4101115443 -0.102744846 0.1474414851
400297600.0 -0.1135599799 0.1338237759 0.3759448742 -0.4145756997 0.3761456373 -0.4146381117 -0.101092985 0.1488976921
405297570.0 -0.1124631051 0.1346525339 0.3714092241 -0.4184020275 0.3712653776 -0.4186179595 -0.0991701603 0.1501929052
410297540.0 -0.111188519 0.1363340681 0.3672559124 -0.4228531585 0.3668715728 -0.4226043648 -0.0981237801 0.1516404438
415297510.0 -0.1101863605 0.1373016855 0.3621324248 -0.4265267499 0.3622436514 -0.4267792056 -0.0959335979 0.1528484934
420297480.0 -0.1089943516 0.1381465563 0.3576197097 -0.4308068592 0.3576565268 -0.430781862 -0.0943536133 0.154209123
425297450.0 -0.1069626904 0.1394253144 0.3526798776 -0.434540893 0.3525197583 -0.4345997688 -0.0929780689 0.1546987682
430297420.0 -0.1062656601 0.140703846 0.3484300274 -0.4384453939 0.3485480999 -0.4383928895 -0.0907481843 0.156360402
435297390.0 -0.1046842299 0.141621212 0.3431232049 -0.4423188686 0.3431333457 -0.442242398 -0.0897198733 0.1577186724
440297360.0 -0.1033068541 0.1428370619 0.3379887586 -0.4460699758 0.3379113604 -0.4456970355 -0.0878743076 0.158825343
445297330.0 -0.1019634338 0.1433031389 0.3337284038 -0.4491742667 0.3333808364 -0.449510267 -0.0858196234 0.1599516956
450297300.0 -0.1006126437 0.1448797322 0.3288836079 -0.4529904517 0.328777054 -0.453001497 -0.0840201058 0.1609503251
455297270.0 -0.099500919 0.1459256365 0.3232160511 -0.4565200313 0.3235755059 -0.4566213015 -0.0822770548 0.1616417078
460297240.0 -0.0977864637 0.1468271294 0.3184219287 -0.4605425487 0.3184756133 -0.4604524227 -0.0806759395 0.1630434341
465297210.0 -0.0964802575 0.1480248778 0.3130687931 -0.4637366048 0.3132304459 -0.4638775379 -0.078685586 0.1644864685
470297180.0 -0.0952691072 0.148926429 0.3079547972 -0.4670722415 0.3082977268 -0.4672183412 -0.0766746101 0.1652521463
475297150.0 -0.0938267301 0.150204004 0.3030527927 -0.4701416677 0.3034082612 -0.4707923176 -0.0747397091 0.1661654321
480297120.0 -0.0920878375 0.1512753775 0.2981103154 -0.4735739081 0.298301582 -0.473596828 -0.0736276806 0.1670821737
485297090.0 -0.090803633 0.1518995369 0.2928536439 -0.4768887886 0.293145883 -0.4767693668 -0.0715721283 0.1682156215
490297060.0 -0.0886338209 0.1530591906 0.2874110041 -0.4803321831 0.2875425045 -0.4802526127 -0.0694346733 0.168837782
495297030.0 -0.08779628 0.1537603817 0.2827989143 -0.4831520538 0.2824730793 -0.4832320305 -0.0674778924 0.1699168989
500297000.0 -0.0859818583 0.1547332966 0.2769667993 -0.4860690418 0.2769248904 -0.4865126456 -0.0654081227 0.170947846
505296970.0 -0.0841016124 0.1557802055 0.2715315235 -0.4892690777 0.2719127382 -0.4893978506 -0.0635851083 0.1714623562
510296940.0 -0.0828247103 0.1567417263 0.2663572011 -0.4926004012 0.2665605354 -0.4926948062 -0.0611297115 0.1725595654
515296910.0 -0.0812042861 0.1578342764 0.2607636793 -0.4948186826 0.260648604 -0.495020503 -0.0598280224 0.1731161017
520296880.0 -0.0794701092 0.158858542 0.2555051304 -0.497696122 0.2552973104 -0.4978330524 -0.0573503713 0.1744253416
525296850.0 -0.0778186201 0.1592455274 0.2499080392 -0.5003978733 0.2497091518 -0.5004849331 -0.0554197386 0.1749339191
530296820.0 -0.0764851335 0.160163708 0.2442941337 -0.5032530783 0.2445826845 -0.5030992372 -0.0535398461 0.1754271796
535296790.0 -0.0743613407 0.1611808292 0.2389250008 -0.5055452276 0.2391955207 -0.5058380693 -0.0513743819 0.1763914514
540296760.0 -0.0729083365 0.1620879198 0.2333190642 -0.5083090849 0.2333585635 -0.5081268938 -0.0497219477 0.1770172402
545296730.0 -0.0718268108 0.1631700217 0.2282886115 -0.5103412038 0.2278258852 -0.5106855712 -0.0475607071 0.1776832339
550296700.0 -0.0695126572 0.164014741 0.2223657933 -0.5130043268 0.2220048814 -0.5135911052 -0.0455251675 0.1782213385
555296670.0 -0.0678328273 0.1648853615 0.2168927046 -0.5158005116 0.2165686673 -0.5153935323 -0.0436798954 0.1784983011
560296640.0 -0.0657530328 0.1654331381 0.2105138739 -0.5174963483 0.2114057069 -0.5179243248 -0.041767947 0.1796509005
565296610.0 -0.0648777624 0.166537317 0.2058676177 -0.5203326553 0.2055815628 -0.5195160933 -0.0395306041 0.1801868788
570296580.0 -0.0629828429 0.1675355727 0.1999461548 -0.5223559304 0.1997753822 -0.5222975145 -0.0375060985 0.1803821363
575296550.0 -0.0612359528 0.1678403438 0.1943532572 -0.5243097379 0.1938144099 -0.5243806922 -0.0354704752 0.1810733222
580296520.0 -0.0595741078 0.1690776399 0.1888775858 -0.5261840946 0.1882834249 -0.5267252113 -0.0339492522 0.1814798928
585296490.0 -0.0576218008 0.1697778363 0.1828370438 -0.5284517569 0.1821535124 -0.5282051765 -0.0310333953 0.1821974613
590296460.0 -0.0555109455 0.1706185105 0.1770987154 -0.5301597042 0.1767499859 -0.53054245 -0.0295568789 0.1826791593
595296430.0 -0.0538550455 0.1710680772 0.1707135346 -0.5319797639 0.1706644469 -0.53230835 -0.0273149766 0.1830295603
600296400.0 -0.0520824467 0.1719480628 0.1648739427 -0.533435184 0.1652133325 -0.5342318786 -0.0252850809 0.183225132
605296370.0 -0.0505199015 0.1727190538 0.1601492268 -0.5352926385 0.1591941372 -0.5360080735 -0.0231844411 0.1838920032
610296340.0 -0.0486638758 0.1737146865 0.1538221325 -0.5367847261 0.1538799461 -0.5371765276 -0.021377309 0.184321829
615296310.0 -0.0465610012 0.1743726321 0.1476709918 -0.5389531727 0.1471774604 -0.5391498347 -0.0186688686 0.1848375972
620296280.0 -0.0454720405 0.1753845221 0.141880721 -0.5403158259 0.141737083 -0.5405581452 -0.0172656199 0.1852745877
625296250.0 -0.0436725156 0.1755087731 0.1360710051 -0.5420071407 0.1358916962 -0.5418950171 -0.0152454277 0.1851843958
630296220.0 -0.0417693669 0.1766337389 0.1299884678 -0.5433584669 0.1298002015 -0.5432940112 -0.0128839739 0.185684995
635296190.0 -0.0403605704 0.1770551399 0.124506027 -0.5445738157 0.1242002436 -0.5445947414 -0.0108428372 0.1859407509
640296160.0 -0.0383437611 0.177790258 0.1185095549 -0.5462232677 0.1182720688 -0.545949668 -0.0089004831 0.1862514462
645296130.0 -0.0364158229 0.1785220382 0.112243128 -0.5472488124 0.1123814709 -0.5469942415 -0.0072703799 0.1862812815
650296100.0 -0.0345764059 0.1787492878 0.1068572467 -0.5485347705 0.1061345205 -0.5484295082 -0.0045355681 0.1864180902
655296070.0 -0.0328349432 0.1796323495 0.0999993078 -0.5495626885 0.1006519086 -0.5492324721 -0.0031478167 0.186974067
660296040.0 -0.0309836587 0.1802294079 0.0946490489 -0.5504406744 0.0943449923 -0.5504219028 -0.000558248 0.1869065502
665296010.0 -0.0294119225 0.1809404111 0.0881697549 -0.5511913582 0.0883299569 -0.55146908 0.0013404003 0.187125207
670295980.0 -0.0275556807 0.1815411972 0.0827592897 -0.5521732233 0.0824931635 -0.5519654566 0.003311635 0.1870448358
675295950.0 -0.0257646185 0.1817746312 0.0767409475 -0.5529182027 0.0766357739 -0.5531582631 0.0054003771 0.1874031561
680295920.0 -0.0244919307 0.1825151678 0.070945591 -0.5537053935 0.0705720493 -0.5536974681 0.0079599873 0.1872118119
685295890.0 -0.0220367635 0.1831750859 0.0640901571 -0.5543686676 0.0646059011 -0.5547782914 0.0099853092 0.1874886093
690295860.0 -0.0209651654 0.1836634558 0.0587886997 -0.5552730146 0.0584820545 -0.5552932166 0.0116689685 0.1875515427
695295830.0 -0.0188851488 0.1840995638 0.0533817624 -0.5560004 0.0525708072 -0.5556076318 0.0139311728 0.1876771014
700295800.0 -0.016888647 0.1845267686 0.0472998686 -0.5560315194 0.0469100495 -0.5560687773 0.0157730835 0.1872838358
705295770.0 -0.0155252774 0.1850546984 0.0407375825 -0.5570774293 0.0408360245 -0.556696174 0.0179692863 0.1878779634
710295740.0 -0.0135722954 0.1851550818 0.0347821139 -0.5569892562 0.0345947178 -0.5574187359 0.0201234718 0.1874108998
715295710.0 -0.0118801517 0.1859645255 0.0286455041 -0.5577571324 0.0288585444 -0.5575478074 0.0219283362 0.1870819876
720295680.0 -0.0095725572 0.1861397109 0.0224813678 -0.5574061056 0.0225878618 -0.5579456958 0.0240715216 0.1873679268
725295650.0 -0.0082731244 0.1865078094 0.0169148489 -0.5577139916 0.0164616916 -0.557889446 0.0261382566 0.1876399757
730295620.0 -0.0069847443 0.1866591073 0.0103984545 -0.5573293292 0.0109277261 -0.5577711986 0.0278735117 0.1878172777
735295590.0 -0.0050140607 0.1871462742 0.0051878553 -0.5583717954 0.0048710286 -0.5578543342 0.0301671018 0.1868152405
740295560.0 -0.0033432228 0.1873365755 -0.0011145795 -0.5583803086 -0.0011178388 -0.5580285636 0.0320257338 0.1871363904
745295530.0 -0.0014800025 0.18795504 -0.0074112296 -0.5574303892 -0.0069336101 -0.5581197437 0.0335713764 0.1866444495
750295500.0 2.3768e-05 0.1881282859 -0.0127677317 -0.5574264382 -0.0134620098 -0.5575233703 0.0360351006 0.1863071693
755295470.0 0.0016632243 0.1883590363 -0.018685306 -0.557582978 -0.0191117218 -0.5578981056 0.038025801 0.1864680339
760295440.0 0.0032955985 0.1890560823 -0.0253376129 -0.557612476 -0.0255337999 -0.5571214204 0.0403852509 0.1854587783
765295410.0 0.0055398998 0.1884714134 -0.0311168595 -0.5567763811 -0.03112679 -0.5569772784 0.0424546172 0.1855756159
770295380.0 0.0069249457 0.1889952866 -0.0365587995 -0.5562274205 -0.0371805472 -0.5567923456 0.0440725526 0.1856070085
775295350.0 0.0089369937 0.1891211979 -0.0430429807 -0.5562002942 -0.0426733069 -0.5558168423 0.0466210445 0.1852549269
780295320.0 0.0104898363 0.189362656 -0.0488057683 -0.555218853 -0.0488055698 -0.5554772875 0.0487756689 0.1847828702
785295290.0 0.0121757241 0.1891950705 -0.0546341011 -0.5549796603 -0.0547223019 -0.5550553964 0.0500903184 0.1847160555
790295260.0 0.0139562032 0.1892840261 -0.0606527564 -0.5541821743 -0.06040972 -0.5548004055 0.0519649878 0.1843375714
795295230.0 0.0156967359 0.1891540257 -0.0668209856 -0.5536264694 -0.0668030856 -0.553836248 0.0543210356 0.1834035622
800295200.0 0.0170843067 0.189728384 -0.0722104387 -0.5524842393 -0.0724998112 -0.5531753114 0.0562087197 0.1831199987
805295170.0 0.0188441745 0.1897890197 -0.0781461299 -0.5523026805 -0.0784211334 -0.5522957164 0.0589049516 0.1827023605
810295140.0 0.0209375573 0.1897373623 -0.0843002038 -0.5508466005 -0.0842972242 -0.5514941815 0.0607209152 0.1822853538
815295110.0 0.0224667114 0.1897311546 -0.0902550186 -0.5501926609 -0.090184799 -0.5507071253 0.0622351825 0.1818569568
820295080.0 0.0243485175 0.1895330278 -0.0954904001 -0.5487878232 -0.0957922432 -0.5495039362 0.0635196625 0.1817692955
825295050.0 0.0255864758 0.1894787045 -0.1022019914 -0.5485109125 -0.1018507492 -0.5485718123 0.0668360873 0.1812720877
830295020.0 0.0277108836 0.1893255161 -0.1077308996 -0.5467528658 -0.107938569 -0.5469611672 0.0685238173 0.1800305261
