!Created with skrf (http://scikit-rf.org).
# Hz S RI R 50.0 
!freq ReS11 ImS11 ReS21 ImS21 ReS12 ImS12 ReS22 ImS22
300000.0 -0.1024847458 -0.0633064219 0.6324278877 0.0586791192 0.6246110727 0.0603015104 -0.1015344621 -0.0704285198
5299970.0 -0.1024012547 0.0134208547 0.6307218079 0.0096799695 0.6306510421 0.0103431767 -0.1012190951 0.0132345039
10299940.0 -0.0972920859 0.0293609672 0.6340388467 0.0152026943 0.6341463063 0.0153808411 -0.0961215618 0.0304792996
15299910.0 -0.0901198323 0.0426568459 0.6405243128 0.0203014985 0.6408523746 0.0205565292 -0.0891472908 0.0433793197
20299880.0 -0.0819541985 0.0531109241 0.648731234 0.0245996451 0.6488860039 0.0241855685 -0.0801507888 0.0545216361
25299850.0 -0.0724984266 0.0622213587 0.6575422041 0.0250479555 0.6579867733 0.0253287871 -0.0699687286 0.0633314481
30299820.0 -0.0623516445 0.0687258839 0.6676365809 0.0246061758 0.6672532672 0.0249534431 -0.0602581697 0.0701146932
35299790.0 -0.0526163471 0.07374257 0.677161613 0.0212544813 0.6774479545 0.0215804926 -0.0500631385 0.075087897
40299760.0 -0.0435663075 0.0771662937 0.6863059606 0.0171898179 0.6866667711 0.0180646654 -0.040805551 0.0773916111
45299730.0 -0.0339898086 0.0793992896 0.6951285711 0.0122699496 0.6953381028 0.012118462 -0.0314437885 0.079564412
50299700.0 -0.0255879676 0.0802713128 0.7037548324 0.0048735409 0.7032814542 0.0051521776 -0.0228119667 0.0803705596
55299670.0 -0.0176246058 0.0802123063 0.7111666588 -0.0035624263 0.7108008262 -0.0024904653 -0.0149043701 0.0806670856
60299640.0 -0.0099373709 0.0800858282 0.717099215 -0.0108021225 0.7180413497 -0.0104220504 -0.0079156294 0.0793234127
65299610.0 -0.0036424026 0.0789727379 0.7232042195 -0.0198224618 0.7234518155 -0.0200874045 -0.0009601776 0.078475892
70299580.0 0.0027511351 0.0777545494 0.7289801092 -0.0296337935 0.7286075207 -0.0286471161 0.004876941 0.0765735398
75299550.0 0.0083169347 0.0759518676 0.7330217477 -0.0384625526 0.7329371922 -0.0390927658 0.0102331165 0.074864786
80299520.0 0.0131197136 0.0735766057 0.7372130044 -0.048462136 0.737547135 -0.0490242161 0.0153504433 0.0727073496
85299490.0 0.0178840038 0.071428102 0.7406250766 -0.0582291887 0.7404408656 -0.0577798175 0.0196251015 0.0701598005
90299460.0 0.0216763339 0.0689794852 0.7428642052 -0.0687269739 0.7435303617 -0.0684148459 0.0238282228 0.0680481414
95299430.0 0.0258472219 0.066521596 0.7458318909 -0.0786847406 0.74590513 -0.079184795 0.0275647204 0.0654090542
100299400.0 0.029032708 0.0646329853 0.7465677571 -0.0888581294 0.7472932436 -0.0891585591 0.030965031 0.0626470941
105299370.0 0.0324342974 0.0619427017 0.7487919829 -0.0991904204 0.7494741224 -0.0990400316 0.0341519024 0.0607072505
110299340.0 0.0349273873 0.0596242413 0.7497362414 -0.1088961295 0.7499124982 -0.108609401 0.0363493902 0.0581120589
115299310.0 0.0374902841 0.0571577388 0.7507273296 -0.1192740014 0.7509303163 -0.1192151781 0.0390620416 0.055850602
120299280.0 0.0398018122 0.0546792056 0.7511151858 -0.1291337886 0.7515472109 -0.1290897842 0.0414220325 0.0532537477
125299250.0 0.0419651105 0.0524215413 0.7514612795 -0.1388087944 0.7516258369 -0.1387613214 0.0428466484 0.0507705724
130299220.0 0.0434455621 0.0500449898 0.7512724098 -0.1492530887 0.7515611047 -0.1491745517 0.0446881756 0.0485094098
135299190.0 0.0451309648 0.0482180623 0.7514368892 -0.1587274139 0.7514543482 -0.1581786379 0.0466580752 0.0464275944
140299160.0 0.0463347833 0.0462050629 0.7506842239 -0.1686680615 0.7512947457 -0.1684454418 0.0477651704 0.0447439929
145299130.0 0.0481013841 0.0438441023 0.7503239599 -0.1780891436 0.7498504628 -0.1781810694 0.0494413079 0.0426241251
150299100.0 0.0497414893 0.0420887686 0.7485953676 -0.1874032704 0.7495169184 -0.1872521637 0.050376639 0.0407137183
155299070.0 0.0502733138 0.0397606948 0.7479585145 -0.1980188578 0.7479165756 -0.1975015582 0.051289118 0.0387576507
160299040.0 0.0517941209 0.0382750044 0.7465682293 -0.2071868283 0.7464756105 -0.2069375244 0.0521148916 0.0366653922
165299010.0 0.0521717699 0.0365689868 0.7445957383 -0.2167895007 0.7450650341 -0.2166599375 0.0533912281 0.0353399422
170298980.0 0.0531342718 0.0341315362 0.7430828789 -0.2261256079 0.7431918103 -0.2256727711 0.0538094314 0.0332713322
175298950.0 0.0535700867 0.0324481971 0.7414062416 -0.2355052802 0.7409550255 -0.2349148088 0.054453373 0.0314027408
180298920.0 0.0542358705 0.0306572876 0.7391878887 -0.2446742904 0.7392633208 -0.2440170217 0.0550165392 0.0299357223
185298890.0 0.0553922252 0.0287598007 0.736916993 -0.253280411 0.7360938223 -0.2537238034 0.0553177926 0.0282688044
190298860.0 0.0554711406 0.0277166602 0.7344225377 -0.2628711739 0.7346131156 -0.2629874798 0.0559820765 0.0262607961
195298830.0 0.0558908335 0.0255859077 0.732160926 -0.2712928334 0.7325429542 -0.2715237661 0.0571068447 0.0250893461
200298800.0 0.0561819726 0.0242124516 0.7290104986 -0.281119176 0.7292442621 -0.2806740539 0.0566284898 0.0233729146
205298770.0 0.056937919 0.0229560929 0.7260293339 -0.2902244141 0.7264948775 -0.289735669 0.0572442371 0.0211821973
210298740.0 0.0571783002 0.0210255683 0.7229938068 -0.2979877654 0.7233847934 -0.2977386636 0.0580856733 0.0211009306
215298710.0 0.056725991 0.0196746314 0.720472989 -0.3073220335 0.7204936602 -0.3071162022 0.0578093534 0.0194694457
220298680.0 0.0576240644 0.0179629384 0.7168415878 -0.3155842083 0.7173271189 -0.315510692 0.0574315607 0.0177861383
225298650.0 0.0577119269 0.0166693818 0.7141249411 -0.3244728072 0.7142530498 -0.3243034276 0.057565912 0.0163045706
230298620.0 0.0579389205 0.0158473532 0.7105440013 -0.3326189749 0.7109873388 -0.3327714226 0.057482859 0.0145909916
235298590.0 0.0579725638 0.014635713 0.7072011023 -0.3411682113 0.7074441425 -0.3409114254 0.0577927698 0.0134280602
240298560.0 0.0578962231 0.0135787504 0.7037962487 -0.3498113739 0.7037927233 -0.349600513 0.0580478698 0.0126890624
245298530.0 0.0580710164 0.0119999901 0.7001710705 -0.3579688036 0.699983051 -0.3582298138 0.0586807687 0.0108333115
250298500.0 0.0584921334 0.0111575233 0.6952806107 -0.3663528243 0.6958426049 -0.3657476556 0.0580218104 0.0103102561
255298470.0 0.0583522058 0.0093697105 0.6915236959 -0.3736891575 0.6921198275 -0.3738677786 0.0583063637 0.0091447973
260298440.0 0.0581143594 0.0084051652 0.6879012414 -0.3824209063 0.688120463 -0.3820139769 0.0588308396 0.0081055468
265298410.0 0.0590171689 0.0076165968 0.6844464475 -0.3907749151 0.6840942962 -0.3902638623 0.0587369808 0.0068966768
270298380.0 0.0587262717 0.0062984883 0.6802012371 -0.3977455829 0.6798481934 -0.3981801518 0.0580985311 0.0059121569
275298350.0 0.0590184393 0.0050707707 0.6755230004 -0.4069655088 0.6759587232 -0.4064856159 0.058588921 0.0044061674
280298320.0 0.058564286 0.0044874052 0.6716669756 -0.4143145056 0.6715199613 -0.4144183222 0.058974309 0.0036577927
285298290.0 0.0587354229 0.003267019 0.6671687833 -0.4219849446 0.6666710279 -0.4223593545 0.058742619 0.0025192599
290298260.0 0.0588295767 0.0021805499 0.6624876569 -0.4291948508 0.6623495563 -0.4299193749 0.0588625397 0.0020217227
295298230.0 0.058905842 0.0007774676 0.6581765888 -0.4373517873 0.6578293519 -0.4373087477 0.0593442086 0.0009626487
300298200.0 0.0583558067 -0.00033305 0.6533189825 -0.4450148992 0.6534222375 -0.4456409004 0.059033558 -0.0003608852
305298170.0 0.058697807 -0.001269721 0.6474585229 -0.4527294923 0.6480990252 -0.4527215818 0.0594576952 -0.0019583439
310298140.0 0.0583464959 -0.0021725683 0.6430827007 -0.4611107036 0.643865768 -0.4606615435 0.0592375 -0.00280815
315298110.0 0.0585066578 -0.0040048375 0.638360311 -0.4683839981 0.6384312418 -0.4687898473 0.0587385002 -0.0038159977
320298080.0 0.0585733626 -0.0046954337 0.6323817985 -0.4762595163 0.6329726504 -0.4755681853 0.0585816747 -0.0049251086
325298050.0 0.0577936541 -0.0059282801 0.6274818005 -0.4833537315 0.6277204134 -0.4831658782 0.0577484585 -0.0057723488
330298020.0 0.0575191367 -0.0071597773 0.6215842537 -0.490966356 0.6217057261 -0.4907377433 0.0570539895 -0.0073099457
335297990.0 0.0570852086 -0.0083521803 0.616084129 -0.4975043985 0.6161413402 -0.4979139175 0.0563455265 -0.0074860585
340297960.0 0.055849315 -0.0086997341 0.6100379971 -0.5041928537 0.6099746034 -0.5049728568 0.0566959494 -0.0086573505
345297930.0 0.0557517954 -0.009006017 0.6048573443 -0.5119486212 0.6044476203 -0.5117027587 0.0561770115 -0.0094090436
350297900.0 0.0553492279 -0.0104856731 0.5981634754 -0.5182435681 0.5983751969 -0.5181830841 0.0553511057 -0.0095862621
355297870.0 0.0550788086 -0.0103151872 0.5925514708 -0.5250239002 0.5936284488 -0.5253098714 0.0552746448 -0.0105589406
360297840.0 0.0548448622 -0.0110551021 0.5879611439 -0.5315801314 0.5880758627 -0.5312844084 0.0545950752 -0.0108248504
365297810.0 0.0540993628 -0.0119149777 0.5807794972 -0.5381370734 0.5819281679 -0.5383425458 0.0545395957 -0.0117848681
370297780.0 0.0546939587 -0.0130651847 0.5751748863 -0.5447781101 0.575586315 -0.5443552427 0.05428241 -0.0123776805
375297750.0 0.054276745 -0.0136762355 0.5692997531 -0.5515372273 0.5700878659 -0.5509102627 0.0543623506 -0.0131690966
380297720.0 0.053349833 -0.0139065487 0.5631869079 -0.5574798997 0.5630808384 -0.5566036976 0.0535571419 -0.014163052
385297690.0 0.0530786245 -0.0149380465 0.5563897126 -0.5635845379 0.5565661025 -0.5633716423 0.0534377011 -0.0145412423
390297660.0 0.0528841191 -0.0150991946 0.5511554288 -0.5702664854 0.5504557481 -0.5694795818 0.0529135449 -0.0152645584
395297630.0 0.0522934672 -0.01598646 0.5441472026 -0.5760210251 0.5447332976 -0.5759618325 0.0531960801 -0.0159681054
400297600.0 0.0520063142 -0.016932231 0.5374708558 -0.5824600445 0.5383241037 -0.5821405636 0.0527337685 -0.0163636741
405297570.0 0.051372733 -0.0175902618 0.5312129799 -0.5881519116 0.5317649204 -0.5876071954 0.0518916259 -0.0173484554
410297540.0 0.0513719385 -0.0180194275 0.5253039168 -0.5942744969 0.5254445149 -0.5936287199 0.0514831895 -0.017301048
415297510.0 0.0513247524 -0.0186788148 0.5183595637 -0.5998775543 0.5189442435 -0.5999427534 0.0514910948 -0.01788533
420297480.0 0.0509873374 -0.0190739503 0.5113738791 -0.6060211489 0.5119687814 -0.6054468093 0.0506649906 -0.0193706912
425297450.0 0.0504472556 -0.0205674092 0.5055074969 -0.611156141 0.5057367703 -0.6107670938 0.0498045728 -0.0189064615
430297420.0 0.0500983086 -0.021118684 0.4980679584 -0.6163314343 0.498502048 -0.6159493257 0.0498410604 -0.0201067623
435297390.0 0.0493465851 -0.0211296373 0.4915933598 -0.622281731 0.4915789836 -0.622402861 0.0505562475 -0.020442894
440297360.0 0.0492715079 -0.0216548705 0.484831662 -0.6274752516 0.485109263 -0.627970156 0.0490643153 -0.0215339612
445297330.0 0.0486840178 -0.02276621 0.4785197609 -0.632732875 0.478324611 -0.632301413 0.0494646679 -0.0220182329
450297300.0 0.0486634805 -0.0230776522 0.4710130467 -0.6380400848 0.4708858359 -0.6388193858 0.048682324 -0.0226198627
455297270.0 0.0482962772 -0.023667874 0.4635629396 -0.6436974154 0.4643244366 -0.6439812956 0.0485890716 -0.0230888077
460297240.0 0.047738533 -0.0243358434 0.456659493 -0.64849981 0.4567139991 -0.6483394239 0.0477342354 -0.0231456345
465297210.0 0.0474728546 -0.0246400847 0.4496386653 -0.6531652883 0.4497424808 -0.6543120062 0.04758289 -0.0243411496
470297180.0 0.0471417056 -0.0254017355 0.4421781063 -0.6586775067 0.4426999135 -0.6590007732 0.047220046 -0.0247186153
475297150.0 0.046827005 -0.0263060459 0.4350616732 -0.6633864959 0.4355324768 -0.663132611 0.0473993287 -0.0252150764
480297120.0 0.0459267463 -0.0258082907 0.4276409103 -0.6687486209 0.4279933422 -0.6687028698 0.0469557217 -0.0256347217
485297090.0 0.0455536688 -0.0267676581 0.4206638499 -0.6728272148 0.4204993113 -0.6724825245 0.0464086394 -0.0266033531
490297060.0 0.0445606756 -0.0275103597 0.4132199466 -0.6783664107 0.4136254386 -0.6773879697 0.0460121485 -0.0265555497
495297030.0 0.0445976213 -0.0277827285 0.4053876435 -0.6821021599 0.4062690013 -0.6818499863 0.0450439642 -0.027155338
500297000.0 0.0443970592 -0.0285308826 0.397823725 -0.686459688 0.3978496375 -0.68558452 0.0450260852 -0.026884916
505296970.0 0.0439129525 -0.0290618533 0.3906792362 -0.6907599655 0.3904323922 -0.6905470911 0.0441385751 -0.0276490336
510296940.0 0.0433109164 -0.0293751807 0.3822945373 -0.694897569 0.3829133483 -0.6956147402 0.0443547549 -0.0280291692
515296910.0 0.0428599283 -0.0293251118 0.3746669936 -0.6992962212 0.3754816361 -0.6991612912 0.0440359057 -0.0284774773
520296880.0 0.0426781609 -0.0303276826 0.3672747367 -0.7039545311 0.3675608929 -0.7031994877 0.0430769141 -0.0295188374
525296850.0 0.0422715832 -0.0314203674 0.3596472774 -0.7073186208 0.3599940773 -0.7077569056 0.0426175445 -0.0297354867
530296820.0 0.041641527 -0.0311451955 0.3520376227 -0.7115448643 0.3522810601 -0.7112243836 0.0423568485 -0.0300533578
535296790.0 0.0407424969 -0.0315140536 0.3444957832 -0.7153991774 0.3447772526 -0.7146111974 0.0419404426 -0.0311150293
540296760.0 0.0403424024 -0.0318680566 0.3362116001 -0.7194103701 0.3364169709 -0.7189510938 0.0406548617 -0.0306406668
545296730.0 0.0399056351 -0.0324162817 0.3281984526 -0.7225880116 0.3287067866 -0.7223389551 0.0404124054 -0.0314222367
550296700.0 0.0401706279 -0.0324952168 0.3201294948 -0.7262228726 0.3207399465 -0.7264678889 0.0398500131 -0.0317906742
555296670.0 0.0388293703 -0.0330999227 0.3128680801 -0.7299304349 0.3130848783 -0.7293826738 0.0395255362 -0.0321264886
560296640.0 0.0386132952 -0.033097643 0.3042406944 -0.7330717652 0.3046728419 -0.733009503 0.0389578072 -0.0328455746
565296610.0 0.0377374348 -0.0339686588 0.2963260414 -0.7365108526 0.2967471375 -0.7362464103 0.0383893132 -0.033317178
570296580.0 0.0373509352 -0.0339261948 0.2879976424 -0.7399258482 0.2882221791 -0.7397120378 0.0377300184 -0.0328071779
575296550.0 0.0366073238 -0.0342389651 0.2806276613 -0.7431929618 0.2802542499 -0.7429491515 0.0378886709 -0.033929098
580296520.0 0.0362278549 -0.0347607073 0.2718005836 -0.7458815198 0.2726121812 -0.7455014533 0.0370181043 -0.034327582
585296490.0 0.0356527132 -0.0356305538 0.2643625662 -0.7486018058 0.2648280016 -0.74872453 0.0363424952 -0.0343121011
590296460.0 0.0356124772 -0.0355699624 0.2559504478 -0.7504861807 0.2562526498 -0.7516901024 0.0350093016 -0.034778825
595296430.0 0.0349885289 -0.0355427744 0.2474178104 -0.7542434104 0.2476776331 -0.7542288716 0.0356506789 -0.0352358527
600296400.0 0.0339307369 -0.0362876023 0.2395313103 -0.7566807513 0.239371052 -0.7567116501 0.0349484979 -0.0353398395
605296370.0 0.0336831991 -0.0364015826 0.2313056507 -0.7597249181 0.2313727776 -0.7591771203 0.0342006416 -0.035703665
610296340.0 0.0332424226 -0.0370132416 0.2227747203 -0.7613484406 0.2233448922 -0.761777261 0.0339874268 -0.0361563554
615296310.0 0.0328214667 -0.0376278933 0.2145297189 -0.7634374441 0.2145824543 -0.7647525147 0.0333500105 -0.0361899734
620296280.0 0.0321147098 -0.0377516914 0.2062465679 -0.7665118202 0.2061348468 -0.766286084 0.032633383 -0.0365951784
625296250.0 0.0313388795 -0.0383263329 0.1978523738 -0.7687875377 0.1979779065 -0.7689944602 0.0327659003 -0.0367603299
630296220.0 0.0318330081 -0.0379481469 0.188867053 -0.7708715194 0.188857473 -0.7706861526 0.0318376243 -0.0364844117
635296190.0 0.0300593954 -0.0387408346 0.1810220716 -0.7729403345 0.1807527784 -0.7728994634 0.0315701689 -0.0371617225
640296160.0 0.0295228005 -0.0386418353 0.1720760939 -0.7748547704 0.1727452111 -0.7748278606 0.0310481634 -0.037401673
645296130.0 0.0294515486 -0.0388402014 0.1634473783 -0.7766927021 0.1645461951 -0.7764961906 0.0301124306 -0.0375984035
650296100.0 0.0287219346 -0.039579035 0.1553507213 -0.7783424259 0.155959866 -0.7786647993 0.0300107252 -0.0387192276
655296070.0 0.0275238764 -0.0399472988 0.1466997002 -0.7800127356 0.1474016637 -0.779761461 0.0294002495 -0.0382110234
660296040.0 0.0266080026 -0.0403462245 0.1385297722 -0.7820506454 0.1387679324 -0.7818033353 0.0288823704 -0.0386161466
665296010.0 0.0271075959 -0.0402303005 0.129612239 -0.7830897174 0.1301348141 -0.7825235857 0.0284480378 -0.0383248133
670295980.0 0.0252265747 -0.0402091771 0.1216790348 -0.7842793 0.1216154177 -0.784742078 0.0271791195 -0.0388597957
675295950.0 0.0252609878 -0.0400307373 0.1133023144 -0.7848946513 0.1134607156 -0.7849596172 0.0263037588 -0.0389420834
680295920.0 0.024162423 -0.0406433148 0.1035752259 -0.7860317623 0.1037822473 -0.7874018882 0.0262632218 -0.038156886
685295890.0 0.0241009291 -0.0401202345 0.0954247951 -0.787880566 0.0953038566 -0.7885011737 0.0255492598 -0.039010393
690295860.0 0.0239031409 -0.0405660842 0.0874868973 -0.7882560916 0.0872392966 -0.788630299 0.0247212722 -0.0385944902
695295830.0 0.023194902 -0.0408900628 0.0792615115 -0.789703432 0.078283796 -0.78952738 0.0244250417 -0.0387796081
700295800.0 0.022426121 -0.0416566734 0.0696169714 -0.7900891958 0.0697166644 -0.7902075122 0.0235911793 -0.0385751741
705295770.0 0.0215020413 -0.040689676 0.060890317 -0.7909588577 0.0614888648 -0.7912122746 0.0227242964 -0.0393489759
710295740.0 0.0214848529 -0.0410932777 0.0529016651 -0.7920471518 0.0536331057 -0.7922127055 0.0225803711 -0.040230597
715295710.0 0.0197461519 -0.0414899667 0.0446715588 -0.792678788 0.0443293754 -0.7923180254 0.022080347 -0.0398802396
720295680.0 0.0197598777 -0.0418591369 0.0356682734 -0.7932438658 0.0359661323 -0.7924981053 0.0211144676 -0.0392927623
725295650.0 0.0195826467 -0.0415033611 0.0268208268 -0.7930223203 0.0270297358 -0.793130004 0.0201503671 -0.0394517798
730295620.0 0.0190379268 -0.0414387222 0.0181925838 -0.7928884844 0.0181733794 -0.7936744846 0.0197000658 -0.0403979259
735295590.0 0.0181346989 -0.0412540748 0.0099055181 -0.7939857455 0.0099101615 -0.793540698 0.019032265 -0.0404974501
740295560.0 0.0172664165 -0.0417832584 0.0008419002 -0.7932558402 0.0011490137 -0.7936882037 0.019139286 -0.0402865499
745295530.0 0.0167165917 -0.0414276705 -0.0075915691 -0.7927055783 -0.0076671044 -0.793368132 0.0185635497 -0.0408158667
750295500.0 0.0163999615 -0.0416965822 -0.0163808516 -0.7927354589 -0.0158108287 -0.7936133001 0.0176106496 -0.0404656914
755295470.0 0.015737486 -0.0418688145 -0.0246013974 -0.7930818601 -0.0244716996 -0.7932212234 0.0178862808 -0.0408731059
760295440.0 0.0148808319 -0.0416886814 -0.0335568112 -0.7932666458 -0.0334459565 -0.7931428124 0.0168001034 -0.0405505214
765295410.0 0.0141619488 -0.0419645421 -0.0423974908 -0.7921559918 -0.0425905976 -0.7924664067 0.0166138416 -0.0405659204
770295380.0 0.0134473054 -0.041845266 -0.0513299786 -0.7916280447 -0.0508724755 -0.7915135196 0.0154850086 -0.0411311734
775295350.0 0.0131207388 -0.0427367744 -0.0591768316 -0.7906060384 -0.0590391102 -0.7903422532 0.0142953015 -0.0401897377
780295320.0 0.0127045585 -0.0423640507 -0.0678034224 -0.7902570416 -0.067516662 -0.7904243581 0.0139177982 -0.0413634777
785295290.0 0.0115108347 -0.0428823741 -0.076715624 -0.7890654174 -0.0762655934 -0.7894859175 0.0144335602 -0.0406323698
790295260.0 0.0118167816 -0.0414796441 -0.0843543244 -0.7887171076 -0.0839859358 -0.788650269 0.012830881 -0.0407813498
795295230.0 0.0107246978 -0.0424340211 -0.0932175425 -0.7875792466 -0.0927112011 -0.7879140817 0.0128213864 -0.0404080182
800295200.0 0.009672883 -0.0416485526 -0.1029537161 -0.7860459884 -0.1020879044 -0.7867338203 0.0117991519 -0.0406540078
805295170.0 0.0093311789 -0.0421624765 -0.1111871806 -0.7849418348 -0.1108205831 -0.7858932124 0.0116350341 -0.0401417001
810295140.0 0.0082555927 -0.0427738965 -0.1190121786 -0.783958933 -0.1193541415 -0.7843957782 0.0114042266 -0.0399513604
815295110.0 0.0080819834 -0.0425521692 -0.1277023141 -0.7818674214 -0.1274739645 -0.782588024 0.0102180814 -0.0401008292
820295080.0 0.0069460024 -0.0416582543 -0.1364172632 -0.7805302127 -0.135615803 -0.7813819692 0.0097162935 -0.0401088878
825295050.0 0.007219093 -0.0419245532 -0.1446026432 -0.7793997512 -0.144044626 -0.7796325955 0.0095123112 -0.0398696302
830295020.0 0.0062033696 -0.0416801322 -0.1535056166 -0.7773786826 -0.1528282459 -0.777591103 0.0096050515 -0.0396051871
