!Created with skrf (http://scikit-rf.org).
# Hz S RI R 50.0 
!freq ReS11 ImS11 ReS21 ImS21 ReS12 ImS12 ReS22 ImS22
300000.0 -0.2142806129 -0.0563019249 -0.0002565385 0.001041676 0.0013262329 0.0013179635 -0.774202555 -0.1260943568
5299970.0 -0.2169367968 0.0085341358 -2.08129e-05 0.0001146724 0.0001561822 4.28555e-05 -0.7855530053 -0.0072028814
10299940.0 -0.2136161429 0.0193989211 0.000181705 -0.0001187304 -2.30205e-05 6.70983e-05 -0.7880562132 -0.0032467947
15299910.0 -0.2089118609 0.0286821458 0.0002493249 9.83172e-05 0.0001228044 -0.0001641813 -0.7936557421 -0.0016412393
20299880.0 -0.2036471675 0.0360603769 8.68377e-05 9.84711e-05 -8.5639e-05 9.66188e-05 -0.8002871663 0.0023646787
25299850.0 -0.1978093187 0.0421255365 7.90379e-05 0.0001318517 -1.84574e-05 -1.70208e-05 -0.8063330535 0.0080830342
30299820.0 -0.1922700622 0.0467109169 -1.58584e-05 9.30574e-05 8.66631e-05 -0.0001404623 -0.8125782485 0.0163580859
35299790.0 -0.1865198085 0.0504004592 0.0002071098 0.0001072016 3.96527e-05 4.45415e-05 -0.8171780682 0.0252158421
40299760.0 -0.180777622 0.0533678473 3.13898e-05 5.67514e-05 5.6668e-06 9.79358e-05 -0.8214817463 0.0346373048
45299730.0 -0.1755199016 0.0553228509 -0.0001707261 -0.0002455555 6.431e-07 -0.0001015966 -0.8250664044 0.0441106281
50299700.0 -0.1709785507 0.056850153 -2.62217e-05 5.2295e-05 -6.99294e-05 -0.000135551 -0.8275165282 0.0540897193
55299670.0 -0.1664815169 0.0579561434 0.0002472332 0.0002101898 7.95371e-05 3.07638e-05 -0.8295146498 0.0639943344
60299640.0 -0.162262914 0.0587450277 -6.11931e-05 0.0001355464 -6.5667e-05 1.8407e-05 -0.8305846865 0.0741406729
65299610.0 -0.15887028 0.0592093311 5.37215e-05 -4.52219e-05 5.01516e-05 0.0002972038 -0.8319495272 0.0837471387
70299580.0 -0.155798022 0.0596639356 9.51964e-05 -1.52484e-05 -6.17276e-05 -7.86526e-05 -0.8318761663 0.0942217851
75299550.0 -0.1527022014 0.0598528009 -0.0001701847 0.0001676558 -6.21457e-05 0.0001225094 -0.8322744342 0.1040837917
80299520.0 -0.1500749312 0.060122107 7.0277e-06 -1.08842e-05 -5.27313e-05 -2.04332e-05 -0.8318328887 0.1138581259
85299490.0 -0.1477426136 0.0596810211 0.0001007758 0.0001965226 -1.92537e-05 8.83864e-05 -0.8315631252 0.1233159182
90299460.0 -0.1456980188 0.0600255542 0.0001556562 8.62393e-05 0.0001212947 0.0001056728 -0.8314781693 0.1329622151
95299430.0 -0.1431983477 0.0596392777 0.0001613373 -5.32527e-05 6.79828e-05 -4.05302e-05 -0.8292259258 0.1430563529
100299400.0 -0.1419587257 0.0597805909 -2.40394e-05 0.0001939618 0.0001031311 2.17331e-05 -0.8285401427 0.1521064727
105299370.0 -0.1400677773 0.0600687681 -1.96916e-05 0.000103166 -0.0002522166 -2.56281e-05 -0.8274668322 0.1610057077
110299340.0 -0.1385517052 0.0599858568 -6.93291e-05 -4.91556e-05 -7.69589e-05 -7.76418e-05 -0.8257487396 0.1704456218
115299310.0 -0.1372147093 0.0599286516 9.90377e-05 -1.26632e-05 -3.5093e-06 0.0002933206 -0.8242095026 0.1797417581
120299280.0 -0.136007459 0.0597824022 -3.39401e-05 2.16065e-05 -3.28264e-05 5.72063e-05 -0.8224395512 0.1885374893
125299250.0 -0.1348304165 0.0599806412 3.9218e-05 0.0002509132 0.0001295388 -6.7146e-05 -0.8212167329 0.1976947306
130299220.0 -0.1343768735 0.060394226 7.15318e-05 0.0001337672 2.04449e-05 9.9319e-05 -0.8190319452 0.2066997872
135299190.0 -0.1332287658 0.0608178457 -1.23535e-05 0.0001179198 9.42308e-05 9.95106e-05 -0.8170407012 0.2159261023
140299160.0 -0.1324764208 0.0608650142 0.0003752839 -4.20885e-05 -2.68152e-05 0.0002201092 -0.8145565419 0.2249614089
145299130.0 -0.1313824881 0.0611997888 2.76303e-05 -0.0002208829 -0.0001359652 4.02426e-05 -0.8124948222 0.2335428373
150299100.0 -0.1307817972 0.0614572769 0.0001455337 1.04137e-05 -0.0001361078 8.85665e-05 -0.8109100008 0.2432758153
155299070.0 -0.1302459194 0.0621231473 0.0002142101 0.0001498297 0.0001425723 0.0001003438 -0.8077921805 0.2517571427
160299040.0 -0.1295560024 0.0624166959 5.7854e-06 5.0076e-06 -0.0001563512 0.0001903635 -0.8056544344 0.260498244
165299010.0 -0.1288543269 0.0628118024 8.54724e-05 9.13501e-05 5.4041e-05 -2.70705e-05 -0.8027633695 0.2694106363
170298980.0 -0.1286319458 0.0637257222 0.0002822532 0.0001292238 0.0003367636 -3.56407e-05 -0.7996538971 0.2781743397
175298950.0 -0.128006625 0.0639977316 2.665e-05 0.000156085 5.878e-06 0.0002008542 -0.7974343955 0.2863865584
180298920.0 -0.1274411301 0.0647951928 0.0001653354 0.0001702031 0.0001276751 0.0001817278 -0.7938014583 0.2949932722
185298890.0 -0.1267224021 0.0650809244 -5.12952e-05 9.2068e-05 8.82308e-05 1.07312e-05 -0.7904459772 0.304226328
190298860.0 -0.1261787027 0.0660525352 -1.96366e-05 8.93001e-05 -4.4098e-05 -0.0001275288 -0.7880884955 0.3118822797
195298830.0 -0.1259035076 0.0664470256 -2.93014e-05 0.0001279624 0.0001514331 -2.92777e-05 -0.7849842079 0.3209555297
200298800.0 -0.1252111086 0.0674125334 -8.02408e-05 -8.53605e-05 0.0001512414 0.0003040995 -0.7819991516 0.329329682
205298770.0 -0.1248512593 0.0680709322 8.44408e-05 0.0002344907 -0.0001128365 -2.92477e-05 -0.7781176809 0.3375526085
210298740.0 -0.1244963361 0.0688651568 5.78006e-05 0.0001388496 0.0002399128 0.0001653609 -0.7748881191 0.3459446946
215298710.0 -0.1242463049 0.069828274 -8.17394e-05 3.13763e-05 0.0001178398 0.0001048754 -0.771395519 0.3533330642
220298680.0 -0.1238646643 0.0704167783 0.0001408556 0.0001706793 -8.5654e-06 5.89565e-05 -0.7671807469 0.3623332196
225298650.0 -0.1234547577 0.0714506721 0.0001434621 2.8004e-05 0.0002283523 0.0002079117 -0.7641406062 0.3702783523
230298620.0 -0.1228310339 0.0723050027 -6.67792e-05 -5.964e-06 -2.11125e-05 0.0002062221 -0.7594905658 0.3782513915
235298590.0 -0.122182374 0.0732445965 0.000142805 -2.61834e-05 8.35887e-05 -8.9933e-06 -0.7560288701 0.3869751228
240298560.0 -0.1218824667 0.0738570982 0.0002230145 -5.72563e-05 0.0001401538 -1.95478e-05 -0.7513809367 0.3951351302
245298530.0 -0.1213358958 0.0748955503 8.3726e-05 0.0001390225 0.0001363922 -4.4384e-06 -0.7478989673 0.4020176404
250298500.0 -0.121037526 0.0758657963 8.8524e-05 7.51163e-05 0.0001909079 0.000215134 -0.743776459 0.4098896636
255298470.0 -0.1207924398 0.0765381797 9.13664e-05 0.0001681019 5.13256e-05 2.61021e-05 -0.7389751078 0.4177844556
260298440.0 -0.1201587768 0.07743399 0.0001100261 0.0002329883 -2.82796e-05 5.9067e-05 -0.7349564754 0.4264744869
265298410.0 -0.1197712772 0.0789610706 9.03544e-05 -5.8241e-05 2.84291e-05 1.439e-05 -0.7302304958 0.4332850743
270298380.0 -0.1188486714 0.0797303285 2.07676e-05 -0.0001445624 0.000163102 0.0001651464 -0.7253590767 0.4410781084
275298350.0 -0.1185418167 0.0809734175 8.64424e-05 -0.0001491843 -2.5479e-06 0.0001101973 -0.721011765 0.4487194548
280298320.0 -0.1176340163 0.0816003067 -3.00755e-05 0.000108819 0.0002814659 3.08452e-05 -0.7155777648 0.4561493805
285298290.0 -0.1170850039 0.0831501528 0.0001456681 0.0002061754 0.0001381312 0.0002082027 -0.7112072352 0.4636752129
290298260.0 -0.1166892477 0.0839652345 -8.6575e-05 0.000222643 -2.55313e-05 8.83441e-05 -0.7059480138 0.4709936628
295298230.0 -0.1160999508 0.0844692246 3.58298e-05 -5.9691e-06 9.56356e-05 0.000114587 -0.7013551108 0.4778964213
300298200.0 -0.1151488833 0.0858681687 7.20869e-05 0.0002350067 0.0001390968 0.0002463162 -0.6960376818 0.485469535
305298170.0 -0.1144097157 0.0866300871 8.66446e-05 2.06854e-05 3.73945e-05 7.85654e-05 -0.6904064546 0.4929881015
310298140.0 -0.1139501514 0.0879587635 0.000140234 0.0001225576 0.0001174307 -9.62768e-05 -0.6860031444 0.4996975148
315298110.0 -0.1134761891 0.0889232493 0.0001375368 0.0002141364 7.4409e-05 0.0001821197 -0.6804556283 0.5066228894
320298080.0 -0.1127118968 0.0895033099 0.0002786083 0.0002624107 0.0002530868 0.0002912302 -0.6750377529 0.5141695823
325298050.0 -0.1120640542 0.0906872015 0.0002184519 0.0002072206 0.0001117315 0.0001032837 -0.6691723436 0.521305632
330298020.0 -0.1115818934 0.0913373782 0.0001766219 0.0001552197 -0.0001182613 0.0003160055 -0.6639119397 0.5285796714
335297990.0 -0.1108306167 0.0926214081 9.07374e-05 0.0001181314 -8.3812e-06 -0.0002411064 -0.6588381892 0.5357075658
340297960.0 -0.1106270836 0.0939525872 -0.0001933422 0.0001813868 0.0001551793 0.0001423865 -0.6526498668 0.5424678213
345297930.0 -0.110027552 0.0948885844 0.0004508701 0.0001660758 2.80853e-05 -0.0001178497 -0.6476056809 0.5485446477
350297900.0 -0.1092962673 0.0959734398 1.39709e-05 0.0004505963 0.000287152 1.07817e-05 -0.6421410283 0.5554617366
355297870.0 -0.1084547268 0.0970770408 -4.91047e-05 0.0001720294 0.0001655423 0.0002226165 -0.6360184266 0.5619048418
360297840.0 -0.1077008097 0.0982352954 0.0001853037 -1.4154e-06 3.7282e-06 7.05005e-05 -0.6298932974 0.568588733
365297810.0 -0.107415808 0.0997009894 0.000116508 -4.02293e-05 0.0002792983 3.80954e-05 -0.6234464858 0.5750616108
370297780.0 -0.1064932953 0.1005460911 0.000108693 0.0002188681 0.000226554 0.0001471765 -0.6175136622 0.5819992237
375297750.0 -0.1055061507 0.101621875 -2.3176e-06 -6.17443e-05 0.0001048618 -7.05166e-05 -0.6117333508 0.5874634818
380297720.0 -0.104857838 0.1025870249 0.0001198041 0.0001668914 -5.71865e-05 -1.59581e-05 -0.6060730556 0.5934300368
385297690.0 -0.1042858576 0.1040948244 0.0002033009 9.13505e-05 0.0001948773 0.0002735041 -0.5994708363 0.6014870478
390297660.0 -0.1032325531 0.1050250605 2.9975e-06 0.0003443769 5.1331e-06 6.27586e-05 -0.5935471903 0.6064622873
395297630.0 -0.1022695885 0.1061415778 0.0001813759 0.0002237089 0.000170773 0.0001282077 -0.5863487971 0.6132436603
400297600.0 -0.1016572613 0.1072209112 0.0002316423 0.000197606 0.0001208606 -9.81297e-05 -0.5812466741 0.6186732371
405297570.0 -0.1009292038 0.1084115066 9.28397e-05 0.0001399012 0.0001356743 0.0002232119 -0.5742144039 0.6244584268
410297540.0 -0.0998140611 0.1094271612 2.02745e-05 9.47722e-05 0.0001311078 1.5364e-06 -0.5669136335 0.6308745176
415297510.0 -0.0989634015 0.1103478436 0.0001919146 0.0001871924 0.0001327868 0.0001085494 -0.5612915911 0.6365194247
420297480.0 -0.0982404828 0.1116820957 1.65803e-05 0.0001536403 0.0001568372 -1.34587e-05 -0.5543361378 0.64248069
425297450.0 -0.0971314651 0.1125090821 -4.29314e-05 -5.4359e-06 0.0002233595 1.62697e-05 -0.5480203316 0.6477128363
430297420.0 -0.0962124447 0.1134543704 0.0003772922 -5.3302e-06 0.0001536937 -6.68689e-05 -0.5414434479 0.6530866527
435297390.0 -0.0954152311 0.1149267269 6.41592e-05 -9.80427e-05 0.0003182196 0.0001680339 -0.5340817582 0.6586081065
440297360.0 -0.0944814609 0.1156839877 0.0001721394 0.0001295418 -6.8255e-06 5.05359e-05 -0.5276290962 0.6636989758
445297330.0 -0.0936847477 0.1164933251 0.0002064637 0.0002215609 0.0002262954 -7.36486e-05 -0.5209592423 0.6685780921
450297300.0 -0.0926654025 0.1175107234 0.0002037824 3.20023e-05 0.0002019902 3.11059e-05 -0.5133945093 0.6742720511
455297270.0 -0.0917499276 0.1187412285 0.0001306493 -2.26153e-05 0.0001588139 0.0001194279 -0.5067900339 0.6789481853
460297240.0 -0.090619955 0.1196191243 0.0003197264 0.0001027115 7.31887e-05 -1.22107e-05 -0.4999765987 0.6842339772
465297210.0 -0.0894684114 0.1210805499 0.0002800094 4.36421e-05 0.0002765565 -4.64763e-05 -0.4921617096 0.6892764187
470297180.0 -0.0884447309 0.1216694674 5.31198e-05 0.0001117825 7.54936e-05 0.000215717 -0.4849897544 0.694705192
475297150.0 -0.0875207378 0.1227306002 0.0001314071 0.0001386798 0.000136333 0.0001558426 -0.4779756266 0.6989707778
480297120.0 -0.0861601506 0.1237654254 0.0003297043 6.85525e-05 0.0001546744 -0.0001174388 -0.4704804062 0.7039199274
485297090.0 -0.0854342678 0.1245885066 6.51384e-05 -0.0002067751 -9.92852e-05 0.0002572091 -0.4639035674 0.7086680279
490297060.0 -0.0845968641 0.1259100975 0.0001088823 0.0001153914 4.74253e-05 0.0001656793 -0.4562036282 0.713196476
495297030.0 -0.0834028094 0.1265561337 0.000428453 0.0001260386 8.08816e-05 -6.32714e-05 -0.4488121808 0.717998723
500297000.0 -0.0821550878 0.1277895616 3.96475e-05 9.6034e-05 0.0002044666 0.0001808552 -0.4415967744 0.7229592677
505296970.0 -0.0808156606 0.1284344242 0.0001970602 -0.0001391673 0.0001844378 -1.33541e-05 -0.4342732781 0.7267445205
510296940.0 -0.0798768596 0.129559695 0.0002631345 -0.0002012863 0.0003278089 7.15283e-05 -0.4266697973 0.7313418519
515296910.0 -0.0786966909 0.1301898194 0.0001668225 7.91998e-05 0.0002224181 3.7811e-05 -0.4192989334 0.7354592403
520296880.0 -0.077874871 0.1312401904 0.0003030705 1.13541e-05 8.76289e-05 7.26702e-05 -0.4116217634 0.7393085983
525296850.0 -0.0763423507 0.1318259349 0.0004047511 0.0001719085 0.0003133116 -1.8652e-05 -0.4045805724 0.7436030537
530296820.0 -0.0752725063 0.1328623816 0.0002746408 0.0002761763 0.0001723864 9.86937e-05 -0.3966559348 0.7475157557
535296790.0 -0.0742782842 0.1341323967 6.71758e-05 2.26744e-05 0.000174641 -2.54962e-05 -0.3891023926 0.7519995312
540296760.0 -0.0731463333 0.1346499434 5.32205e-05 -0.0001461295 0.0004608773 -5.86204e-05 -0.3813501114 0.7554357348
545296730.0 -0.0718134154 0.1357426374 0.0002425077 9.53798e-05 0.0003106391 0.0001462056 -0.3738687889 0.7594041047
550296700.0 -0.0703513271 0.1365351182 0.00013928 -2.89858e-05 -4.25208e-05 3.88029e-05 -0.3656248448 0.7631218831
555296670.0 -0.069327964 0.1371821309 0.0001977771 0.0001816748 0.0001281129 -0.000225937 -0.3586080139 0.7672035289
560296640.0 -0.0680080719 0.138349719 0.0001694556 -0.0001388132 0.0002319753 9.69268e-05 -0.3501151909 0.7705938904
565296610.0 -0.0670641231 0.1392257973 5.49338e-05 0.0002562696 0.0002088888 3.39088e-05 -0.3426383823 0.7737711054
570296580.0 -0.0656188396 0.1398188083 0.0004165863 0.0001008774 0.0001283722 0.0001361566 -0.3350702233 0.7774844633
575296550.0 -0.0645668524 0.1407910532 0.000280088 7.6825e-06 0.000327989 0.0002080791 -0.3268043082 0.7809101698
580296520.0 -0.0632779784 0.1414245844 0.0002642621 0.0001036973 0.000308552 4.57495e-05 -0.3183226958 0.784136219
585296490.0 -0.0623834589 0.1421733524 8.92955e-05 -9.13e-07 0.0002582598 3.78969e-05 -0.3105668908 0.787169193
590296460.0 -0.0604787513 0.1431863979 -0.0001603957 -5.20513e-05 0.0003608267 3.76574e-05 -0.303207432 0.7900334587
595296430.0 -0.0593284619 0.1436039531 0.0001277232 7.43457e-05 0.0002334043 0.0002450181 -0.2947705555 0.7926625067
600296400.0 -0.0584202999 0.1440998902 0.0001692871 4.05574e-05 0.0004455428 0.0001246627 -0.286899537 0.7957168411
605296370.0 -0.0569087839 0.1454339844 0.0003100559 0.0002557691 0.0002671246 -9.6518e-05 -0.2779916641 0.798828294
610296340.0 -0.0555633964 0.1460773897 0.0004676387 1.84799e-05 0.000149327 0.0002094085 -0.2700109795 0.8010441253
615296310.0 -0.0540118568 0.1467340238 0.0003462308 -0.0001487412 0.0002889562 -7.57843e-05 -0.2620938328 0.8035176464
620296280.0 -0.0530552221 0.1471524834 8.76919e-05 0.0001116119 8.58333e-05 5.6437e-05 -0.2544970193 0.8064928633
625296250.0 -0.051389304 0.1477806411 0.0002932696 0.0001613217 0.0003889961 4.7062e-05 -0.2455789944 0.8087651876
630296220.0 -0.0498218951 0.1485465931 0.0003956527 0.0001747038 9.122e-05 0.000156433 -0.237835263 0.8113464978
635296190.0 -0.0488835614 0.1492541307 0.000273205 8.8007e-05 0.0002843381 -1.96826e-05 -0.2299645097 0.8130601469
640296160.0 -0.0475082588 0.1498027943 0.0003902526 9.409e-07 0.0002945228 0.0001630519 -0.221519994 0.8156706053
645296130.0 -0.0460156044 0.1509332516 0.0002093551 0.0001584483 0.0002916311 4.6149e-05 -0.2132176609 0.8178261304
650296100.0 -0.0447097386 0.1513803198 0.0001788165 7.891e-05 0.0002544666 0.0003384732 -0.2051655586 0.8191993977
655296070.0 -0.0432006299 0.1517360184 0.0003240128 0.0002835988 0.0002259459 4.08776e-05 -0.1962035696 0.8216132939
660296040.0 -0.0422200981 0.1526256348 0.0004322888 -2.22757e-05 0.0002808381 -0.0001289696 -0.1878867965 0.8235346033
665296010.0 -0.0403694104 0.1527814496 0.0003088051 -6.93868e-05 0.0001613306 -0.0001766089 -0.1798989938 0.8260391428
670295980.0 -0.0392953449 0.1537428628 0.0004484133 -0.0001434522 0.000128701 0.0001309144 -0.1723563816 0.8272359144
675295950.0 -0.0379797072 0.1541811769 0.0003094937 -2.80673e-05 0.0003273566 5.55772e-05 -0.1634792369 0.8291056743
680295920.0 -0.0362203014 0.1548521874 0.0001921293 -5.79609e-05 0.0004559346 -6.69481e-05 -0.1544610772 0.8314651968
685295890.0 -0.034752739 0.155529753 0.0001601953 0.0001166414 9.75306e-05 -8.52066e-05 -0.1466682704 0.8317684189
690295860.0 -0.033512312 0.1558328792 9.41709e-05 4.16515e-05 0.0002345374 0.0001462897 -0.1387334134 0.8339323206
695295830.0 -0.0320949392 0.1564152762 0.0001730736 -0.0001864685 0.000259293 -7.54033e-05 -0.1297648097 0.8348754063
700295800.0 -0.0307452525 0.1569853033 0.0001306865 6.28197e-05 0.0005054099 -4.67127e-05 -0.1221043526 0.8357945874
705295770.0 -0.029474141 0.1576748392 0.0002388303 0.0001228957 0.0001997817 1.23286e-05 -0.1133405757 0.8379507928
710295740.0 -0.0276515336 0.158067187 0.0003593582 -4.41535e-05 0.0003914378 -8.15005e-05 -0.1049499909 0.8387778993
715295710.0 -0.0266279029 0.1582919785 0.0003219092 -0.0001721606 0.0003309209 -0.0002460463 -0.0961655273 0.8393621201
720295680.0 -0.0248389743 0.1587161242 0.0002957306 -0.000163268 0.0002183593 3.80104e-05 -0.0879143616 0.8404907573
725295650.0 -0.0231792116 0.1592378879 0.0003028936 0.0002828063 3.77109e-05 2.17022e-05 -0.0799754761 0.8419181389
730295620.0 -0.0217245037 0.1596572217 0.0001053562 -0.0001597959 0.0002560199 8.32888e-05 -0.0720160463 0.8422278537
735295590.0 -0.02053196 0.1600322099 8.95e-05 -1.1758e-05 0.0003113969 -0.0002633191 -0.0636295527 0.8428204581
740295560.0 -0.0190751731 0.1605833244 0.000225835 -0.000291487 0.0001878252 0.0001191181 -0.0545179502 0.8439916711
745295530.0 -0.0176650448 0.1611835585 -4.93777e-05 0.000193945 0.0002471167 -0.0001260997 -0.0460277716 0.8439389465
750295500.0 -0.0159092685 0.1614291255 0.0001349887 8.77985e-05 0.0001468491 0.0001394999 -0.0380349666 0.8444315674
755295470.0 -0.0144518519 0.1615370591 1.44848e-05 3.10366e-05 0.0002750003 -4.8886e-06 -0.0292284627 0.844144498
760295440.0 -0.0132992335 0.162105958 0.0003854847 -2.52398e-05 8.92831e-05 0.0001262427 -0.0210800587 0.8441552836
765295410.0 -0.0113363615 0.1622858207 0.0003140473 -0.0001329342 0.0001593825 -0.0002538918 -0.0127507055 0.8447132259
770295380.0 -0.0099656547 0.1623843595 0.0004699073 0.0001468917 0.0003221544 -0.0002381292 -0.0043155992 0.8449538073
775295350.0 -0.0086792852 0.1627051375 0.0002507539 4.75121e-05 0.0002905942 -3.28069e-05 0.003611496 0.8445148204
780295320.0 -0.0070080643 0.1628694978 0.000478242 -0.0001123271 0.0003786348 -4.28831e-05 0.0122216976 0.8446408628
785295290.0 -0.0055792961 0.162839756 0.0004882059 -2.98696e-05 0.0002858737 -0.0003218076 0.0212261109 0.8441141663
790295260.0 -0.0040723868 0.1635660701 0.0004341405 -0.0001504727 0.0002102723 3.91347e-05 0.0298097696 0.8443562021
795295230.0 -0.0026291271 0.1641959082 5.72522e-05 -0.0002597646 0.0002919743 -1.48793e-05 0.0388401871 0.8430253228
800295200.0 -0.0010051457 0.1642051558 0.0001576583 -0.0001750597 0.000282889 -1.2395e-06 0.0470206479 0.8433709454
805295170.0 0.000703173 0.1642892231 2.80002e-05 6.59751e-05 0.000270703 -5.26298e-05 0.0548661306 0.8429426175
810295140.0 0.0025606289 0.1644609914 0.0004306923 -0.000172077 0.0004539435 -3.70779e-05 0.063197731 0.8418962903
815295110.0 0.0037113425 0.1644739829 0.0002930811 -0.0001497483 0.0004284222 -0.0001503485 0.071952295 0.8415559735
820295080.0 0.0051995675 0.1648413274 0.0005237975 -0.0001050305 0.0003438992 0.0001016133 0.0804209511 0.8405594346
825295050.0 0.0068673146 0.1648960262 0.0001366965 -6.22621e-05 0.0002519984 -8.50328e-05 0.0886469116 0.8398326068
830295020.0 0.0084085225 0.1650987374 0.0002473371 1.78817e-05 0.0003840377 -0.000134082 0.097226069 0.8389721818
835294990.0 0.0101205394 0.1652807261 0.0001114683 -2.82939e-05 0.0003387979 -8.64893e-05 0.1050758337 0.8380431056
840294960.0 0.0114470784 0.1654426349 0.0004873682 1.99677e-05 0.000420193 -0.0001443397 0.1136149844 0.8370253028
845294930.0 0.0132430331 0.1655924057 0.0002321228 1.3672e-05 0.0001588094 -0.0001645064 0.1218020505 0.8357299695
850294900.0 0.0145028051 0.1657231979 0.0002727665 2.489e-06 0.0004710254 6.09537e-05 0.1296587182 0.8344245348
