!Created with skrf (http://scikit-rf.org).
# Hz S RI R 50.0 
!freq ReS11 ImS11 ReS21 ImS21 ReS12 ImS12 ReS22 ImS22
300000.0 -0.784848931 -0.0980482308 5.12367e-05 0.0005743516 -0.0015372766 0.0010750085 -0.0475764591 -0.0596843311
5299970.0 -0.7846543034 -0.0055270139 -0.0001779298 7.54652e-05 0.0001190875 -0.0003760479 -0.0458316938 0.0158677984
10299940.0 -0.7877980452 -0.0039021614 -3.99903e-05 -0.0002068347 4.36648e-05 -1.68993e-05 -0.0402396284 0.0339755599
15299910.0 -0.7934674183 -0.0021622769 7.41076e-05 -7.59128e-05 6.5626e-05 7.65372e-05 -0.0316398982 0.0482356786
20299880.0 -0.8001374021 0.00202552 -6.0824e-05 0.0001981933 0.000246256 0.0001361065 -0.0213992137 0.0600285462
25299850.0 -0.8061712607 0.0079079839 8.11335e-05 0.0001516428 2.28516e-05 -0.0001031338 -0.0100239207 0.0694574126
30299820.0 -0.8124683171 0.0149628261 4.31315e-05 3.62983e-05 -9.4279e-05 0.000152172 0.0015381328 0.0763861949
35299790.0 -0.8171952962 0.0248021339 0.0001814697 6.0165e-05 -8.45444e-05 0.0001052409 0.0132292714 0.0811658126
40299760.0 -0.8207910132 0.0341362477 -9.1852e-05 -9.817e-05 9.10197e-05 -5.1455e-06 0.0243977348 0.0837685745
45299730.0 -0.8243059179 0.0421370365 5.68245e-05 0.0001046669 4.19106e-05 -5.26349e-05 0.0351544743 0.085587303
50299700.0 -0.8271556771 0.0529961279 4.7571e-06 7.95325e-05 0.000280486 -2.42611e-05 0.0451466679 0.0852359194
55299670.0 -0.8289537309 0.0630734747 -3.61898e-05 0.0001520053 -1.434e-07 0.000118308 0.0544261489 0.0843953755
60299640.0 -0.8303742515 0.0730423062 0.0001456833 -6.67659e-05 1.87168e-05 0.0001792789 0.0632717241 0.0822943338
65299610.0 -0.831542598 0.0832908019 -3.12846e-05 -5.30691e-05 8.63878e-05 -1.16862e-05 0.0710388852 0.0800002588
70299580.0 -0.8313416331 0.0931619238 9.25213e-05 8.59166e-05 -0.0001523426 0.0001582063 0.0777642315 0.0772014668
75299550.0 -0.8319703793 0.1032204518 0.0002770441 6.32871e-05 0.0001916737 8.24985e-05 0.0843495637 0.0733317312
80299520.0 -0.8317575266 0.1125798014 -0.0001687513 1.68221e-05 -0.0001270454 0.0001733396 0.089882115 0.0704583977
85299490.0 -0.8303274436 0.1226931513 -8.09009e-05 -7.47774e-05 -9.566e-05 5.63072e-05 0.0948441314 0.0668351292
90299460.0 -0.8300211973 0.131994898 3.21849e-05 0.0001890902 9.03979e-05 0.0001274747 0.0995259196 0.0630169994
95299430.0 -0.8294109269 0.1412739303 9.07329e-05 -9.98377e-05 2.41e-06 4.36731e-05 0.103638014 0.0589773139
100299400.0 -0.8282917002 0.1504383467 -5.44094e-05 9.27397e-05 -0.0001980143 0.000111883 0.1073174322 0.055149133
105299370.0 -0.8267113732 0.1604486772 0.0001858366 0.000276768 -2.39187e-05 7.36025e-05 0.110765997 0.0510949854
110299340.0 -0.8249424151 0.1690512337 -0.0001075233 0.0001672079 0.0002803499 -6.50377e-05 0.1132957217 0.047756695
115299310.0 -0.8236525735 0.178271741 0.0001482415 9.91673e-05 0.0002682341 2.67426e-05 0.1161971026 0.0436879397
120299280.0 -0.8219521882 0.1868877947 9.7757e-05 9.02616e-05 0.0001426841 0.0002173353 0.1180413559 0.0400252194
125299250.0 -0.8198867604 0.1956028823 4.57905e-05 9.30608e-05 1.41098e-05 -4.778e-05 0.1202466845 0.0359240909
130299220.0 -0.818775559 0.2055199098 -0.0001357143 0.0001544357 1.24684e-05 -0.0001109193 0.1220664615 0.0323395892
135299190.0 -0.8163713353 0.2141457607 8.07235e-05 2.87807e-05 -5.85078e-05 -6.88283e-05 0.1234277451 0.0289240802
140299160.0 -0.8147336229 0.2231216151 -6.16729e-05 0.0001844279 -2.88872e-05 6.0655e-06 0.1248300744 0.0255435064
145299130.0 -0.8127160146 0.2321595896 -9.2623e-06 2.40714e-05 0.000145141 4.2149e-05 0.1256632989 0.0220520448
150299100.0 -0.8100808926 0.2403167032 0.0002589515 0.0002682163 5.45142e-05 0.0001102608 0.1268811747 0.018958595
155299070.0 -0.8076345931 0.2487862741 0.0001407651 6.69757e-05 -3.06158e-05 0.0001153758 0.1278710391 0.0157354623
160299040.0 -0.8052296028 0.2576439233 0.0001432778 4.02393e-05 -2.383e-07 7.22551e-05 0.1280772265 0.0123393178
165299010.0 -0.8027022467 0.2665178618 -4.70824e-05 7.71928e-05 -0.0001954356 4.93606e-05 0.1288131828 0.0091607885
170298980.0 -0.7993361699 0.2746019271 4.60699e-05 0.0001753505 7.148e-07 0.0001550579 0.1291516662 0.0061507445
175298950.0 -0.7970560481 0.2838431737 5.39702e-05 0.0001486191 0.0001256457 -3.4782e-05 0.1297399137 0.0031773764
180298920.0 -0.7949696463 0.2927230183 0.0001981599 4.23379e-05 3.98337e-05 7.73937e-05 0.129822192 0.0005172808
185298890.0 -0.7910213647 0.300620093 0.0001159103 0.0001500449 0.0001022153 0.0002159527 0.1297185022 -0.0024858751
190298860.0 -0.7886547691 0.3095995048 9.39325e-05 7.19622e-05 3.98566e-05 0.0001244097 0.1301877402 -0.0049206353
195298830.0 -0.7851459337 0.3175236953 2.39148e-05 5.61123e-05 0.0001833573 5.36301e-05 0.1300382139 -0.0079976012
200298800.0 -0.7816657357 0.3256424252 3.56738e-05 -4.1104e-06 0.0001685364 -0.0001305293 0.1299037204 -0.0104311529
205298770.0 -0.7786205558 0.3340211775 -0.0001254521 0.0002457126 -3.9288e-06 0.0002167958 0.1297729565 -0.0130985257
210298740.0 -0.7747342634 0.3419159074 -0.0001927362 8.0903e-06 0.0001137868 9.48979e-05 0.1295929667 -0.0156660867
215298710.0 -0.7715771417 0.350468514 -2.91554e-05 -4.80451e-05 6.12958e-05 3.30108e-05 0.1290922509 -0.0181762358
220298680.0 -0.7670595555 0.3584945187 4.58263e-05 -0.0001713001 9.06565e-05 0.0001446683 0.128520985 -0.02066596
225298650.0 -0.7643808724 0.3662896513 -9.1769e-06 -1.30352e-05 9.10629e-05 8.05705e-05 0.128221696 -0.0228098658
230298620.0 -0.7604528981 0.374290452 0.0001487593 0.0001143347 -1.50107e-05 9.67875e-05 0.1278194206 -0.025144808
235298590.0 -0.7562202154 0.3830947649 -3.58754e-05 -7.00535e-05 0.0001135056 3.88319e-05 0.1272712523 -0.0274421322
240298560.0 -0.7527516305 0.3906882621 -1.65006e-05 0.0003656115 0.0002612597 0.0002540979 0.1270225731 -0.0295208551
245298530.0 -0.7481064594 0.3985798928 -1.06337e-05 0.0001542292 0.0001565216 0.0001366442 0.1262364743 -0.0320449933
250298500.0 -0.7443203848 0.4061801952 8.80916e-05 0.0002413055 3.47085e-05 8.62402e-05 0.125501047 -0.0342406416
255298470.0 -0.7392935655 0.4131464631 -1.38998e-05 -7.26006e-05 0.0001651402 0.0001658991 0.1251277542 -0.036487293
260298440.0 -0.7355601288 0.4213248177 9.9622e-05 7.15255e-05 0.0001355455 0.0001412982 0.1247466371 -0.0382923278
265298410.0 -0.7308235467 0.4297361789 0.0001928969 -0.0002288904 0.0001023234 0.0001104646 0.1240462685 -0.0400755158
270298380.0 -0.7267210886 0.4368458715 -6.85274e-05 -1.87729e-05 0.0002345164 -1.52558e-05 0.1234109955 -0.0420947595
275298350.0 -0.7226407939 0.4442791054 1.51889e-05 0.0001877697 -2.62718e-05 0.000227513 0.1224791934 -0.0439415935
280298320.0 -0.717015665 0.4519649704 -7.78724e-05 0.000109227 -4.30188e-05 0.0001150696 0.1218893097 -0.0462825583
285298290.0 -0.7131579282 0.4599931861 0.0001495723 0.0001072306 -0.0001052802 0.0001431391 0.120808411 -0.0479178825
290298260.0 -0.7082632768 0.4670265313 4.12547e-05 0.0001382861 0.0004014509 -3.8243e-06 0.1205071487 -0.0493975372
295298230.0 -0.702674861 0.4736331252 -0.0001697295 2.8582e-06 0.000315646 -0.0001783577 0.1197388598 -0.0518540551
300298200.0 -0.6981487637 0.481374502 4.05361e-05 0.0001423238 0.0001651235 0.0001848539 0.1187305704 -0.0533071724
305298170.0 -0.6924856531 0.4879177103 -1.40139e-05 6.71037e-05 0.0002086088 5.32196e-05 0.1181570165 -0.0554512475
310298140.0 -0.6877154858 0.495842223 0.0002901979 4.50358e-05 0.0002217126 9.8192e-06 0.117001865 -0.0574362915
315298110.0 -0.6829503211 0.5031375211 -3.59334e-05 -2.60544e-05 6.18202e-05 0.0002082767 0.115924028 -0.0590573994
320298080.0 -0.6771922117 0.5099484903 0.0001059761 0.0002801871 0.0002005843 0.0002057893 0.1147414311 -0.060778902
325298050.0 -0.6717058696 0.5167600869 0.0002217181 0.000233012 0.0002233636 9.82291e-05 0.113660181 -0.0627002018
330298020.0 -0.6663647353 0.5238733838 0.0002012688 1.93477e-05 9.78707e-05 0.0003165339 0.1121547183 -0.0641243155
335297990.0 -0.661091249 0.5300013909 0.0002667429 6.33772e-05 0.0002585981 0.0001060294 0.1106599816 -0.065334149
340297960.0 -0.6559356126 0.5373971084 7.28698e-05 8.645e-07 0.0002461489 0.0001920028 0.1102225958 -0.0668202406
345297930.0 -0.6506538516 0.543912187 0.0001324807 6.9267e-06 8.67517e-05 0.0002240165 0.1084898668 -0.0683687579
350297900.0 -0.6447716594 0.5509320147 0.0001171468 0.0002865894 0.0003520602 0.0001034478 0.1075812799 -0.0694187596
355297870.0 -0.6381673692 0.5573686428 0.0003235416 -6.62771e-05 0.000229018 0.000162994 0.1062474659 -0.0709227131
360297840.0 -0.6324384331 0.5636915242 0.0001163601 9.14881e-05 0.0001941007 1.79095e-05 0.1050962434 -0.0721654077
365297810.0 -0.6273816772 0.5703208281 4.49074e-05 0.0002924867 0.0002038949 0.0002564885 0.103859294 -0.0738326095
370297780.0 -0.6211234622 0.5771273155 5.7172e-05 3.79759e-05 6.82098e-05 0.0001597398 0.1031963874 -0.0747520908
375297750.0 -0.615276249 0.5829282802 0.0001958082 0.0002006174 0.0002146114 4.64256e-05 0.1017717898 -0.0764839655
380297720.0 -0.6088355751 0.5880734849 0.0001535026 0.0003242091 0.0001405929 5.20008e-05 0.1001164087 -0.0772349594
385297690.0 -0.6033725349 0.594817858 8.47751e-05 0.0001268849 0.0001647784 0.0001392735 0.099540257 -0.0786186219
390297660.0 -0.5973520395 0.6012096947 -0.0002351442 -6.8595e-06 6.87061e-05 0.0001509286 0.0976870441 -0.0795878037
395297630.0 -0.5904366327 0.6075122178 -0.0001672928 7.26295e-05 0.0003463603 0.0001527411 0.0968371204 -0.0810458698
400297600.0 -0.584253523 0.6132721862 0.0001464685 7.85008e-05 0.0001961862 4.59925e-05 0.0958495617 -0.0822022137
405297570.0 -0.5782301498 0.6189524852 4.41288e-05 0.0001802494 9.83242e-05 0.0002369528 0.0941305359 -0.0833383029
410297540.0 -0.5715078521 0.624382317 0.0004296545 -0.0001342383 0.0004030637 9.88247e-05 0.0932343484 -0.0841668482
415297510.0 -0.5646787282 0.6303475161 0.0001688521 0.0001762369 0.0001990129 2.37808e-05 0.0917713972 -0.0853185738
420297480.0 -0.5591919666 0.637188216 9.46185e-05 0.0003705703 0.0001521184 1.06582e-05 0.0906733983 -0.086352556
425297450.0 -0.5520004799 0.6422656214 5.20993e-05 -7.65665e-05 0.0003260135 0.000423481 0.0893819398 -0.0875902235
430297420.0 -0.5453549404 0.6476311205 1.21967e-05 5.30515e-05 0.0002778072 2.82828e-05 0.0882331636 -0.0887496566
435297390.0 -0.5391248611 0.6528789456 0.0001942808 0.0001385988 3.57705e-05 6.91457e-05 0.0868996193 -0.0898007442
440297360.0 -0.5318965567 0.6585212065 1.45833e-05 9.15083e-05 0.0003044664 9.28969e-05 0.0857117904 -0.0907874038
445297330.0 -0.5252761277 0.6640203985 -3.95543e-05 6.78561e-05 0.0003504199 0.0002500968 0.084383367 -0.0917989203
450297300.0 -0.5181515223 0.6691456263 3.89893e-05 0.000234003 0.0001703371 0.0001238435 0.0829202209 -0.09269536
455297270.0 -0.5109022216 0.674161153 1.77015e-05 0.0001828914 8.91182e-05 5.68463e-05 0.0817883208 -0.0936043346
460297240.0 -0.5047946314 0.6790901085 0.0003615661 0.0001262089 0.00026561 0.000212836 0.0806460599 -0.0942362132
465297210.0 -0.4978446008 0.684758229 0.0002735032 9.24672e-05 0.0002610877 0.0001540461 0.0791648933 -0.0952692964
470297180.0 -0.4906759663 0.689156753 0.0001048575 6.48244e-05 0.0003169144 8.42901e-05 0.0777787459 -0.0958991733
475297150.0 -0.4836736802 0.6940376746 0.0002741051 3.35187e-05 0.0002236934 0.000326468 0.0764032054 -0.0968621655
480297120.0 -0.4766092968 0.6992175852 0.0002432352 7.17792e-05 0.0002792776 5.32044e-05 0.0749292858 -0.097722082
485297090.0 -0.4694604174 0.7036203427 0.0001657156 -7.45399e-05 0.0003264707 5.2889e-05 0.0741173264 -0.0984333324
490297060.0 -0.4624108357 0.7084509858 0.0002496611 3.36185e-05 7.08937e-05 8.85044e-05 0.0725211527 -0.0993246685
495297030.0 -0.4549926837 0.7124213068 0.0001330394 7.07594e-05 0.000495508 0.0002401629 0.0713867266 -0.09972776
500297000.0 -0.4479443543 0.717825804 0.0002148203 3.69402e-05 0.0002057768 4.20698e-05 0.0696440309 -0.1002007287
505296970.0 -0.4401791326 0.7218926541 0.0002135828 0.000301707 0.0002513825 0.0001615332 0.0678804639 -0.1014225647
510296940.0 -0.4333685176 0.7263415347 0.0003050332 5.0789e-06 0.0002405885 3.2299e-06 0.0667295331 -0.1024692269
515296910.0 -0.4251475089 0.7302442422 0.0001673908 0.0003343118 0.0003379732 8.0778e-05 0.0653649604 -0.102402052
520296880.0 -0.4181195734 0.7349077783 0.0001820669 5.36502e-05 2.22883e-05 0.0001411858 0.0637671442 -0.1034467447
525296850.0 -0.4102780025 0.7387545566 0.0001910821 0.0001447227 0.0002153066 9.79156e-05 0.0627260361 -0.103727372
530296820.0 -0.4029679649 0.7432880966 0.0001938621 -6.38351e-05 0.0001833244 5.9492e-05 0.0613266245 -0.1043447551
535296790.0 -0.395851173 0.7468728286 0.0002446866 0.0002380897 0.0001363227 -0.000150052 0.0593562596 -0.1051122375
540296760.0 -0.3886600754 0.7506709778 8.74908e-05 8.83148e-05 0.0002374569 7.18907e-05 0.058049754 -0.1055532408
545296730.0 -0.3807396238 0.7546188874 0.0003421703 -0.0001118307 0.0001965738 -8.82756e-05 0.0568707646 -0.1063218848
550296700.0 -0.3732421681 0.7587684341 0.0003964764 1.40387e-05 0.0003679843 6.24358e-05 0.0552888263 -0.1068761858
555296670.0 -0.3649415069 0.7615232009 0.0002291264 0.0003105387 0.0003799776 0.0002591391 0.0540951789 -0.1068653105
560296640.0 -0.3575179988 0.7656607694 0.0003555497 0.000163355 0.0003116891 0.0001660048 0.0525938867 -0.1079027662
565296610.0 -0.3502250922 0.7695174771 0.0003144741 -8.32147e-05 0.0001666528 3.47259e-05 0.0511904626 -0.1080207927
570296580.0 -0.3425489417 0.7719341538 0.0001287994 2.88787e-05 0.0002763555 -5.02441e-05 0.0497978125 -0.1086322403
575296550.0 -0.3349078133 0.776491658 0.0004297543 2.01186e-05 0.0002847162 0.0002871789 0.0481057188 -0.1087780981
580296520.0 -0.3260557606 0.7793944118 1.60417e-05 0.000115718 0.0003353394 2.46628e-05 0.0467557657 -0.1093667149
585296490.0 -0.318909153 0.7825025857 0.0003342859 0.0001540349 0.000139691 0.0001975068 0.0456434804 -0.1098617304
590296460.0 -0.3107553305 0.7854039729 0.0003108036 -8.0585e-05 0.0004739561 -0.0001017287 0.0437959996 -0.1100384341
595296430.0 -0.3030849584 0.7878131682 0.0003329893 6.47875e-05 0.0001636012 0.0001151278 0.0423336022 -0.1105490912
600296400.0 -0.29519678 0.7917162163 0.0002443949 0.000171893 0.0002062126 6.4032e-06 0.0409868675 -0.1111402232
605296370.0 -0.2876784271 0.7943800341 0.0003993713 2.87733e-05 0.0005450097 0.0002692941 0.0396389872 -0.1111463645
610296340.0 -0.2789811851 0.7968578637 0.0003201711 0.0001376677 0.0002611406 8.98889e-05 0.038443299 -0.1113490433
615296310.0 -0.2704945196 0.7997586564 0.000291162 0.0002117583 0.0003013031 -0.0001083444 0.0367754482 -0.1120401639
620296280.0 -0.2629025108 0.8017819527 0.0002684896 -5.291e-05 0.000566402 0.0001749135 0.0352951784 -0.1119138824
625296250.0 -0.2550398717 0.8049570553 0.0002016625 -2.86854e-05 4.67486e-05 0.0001264614 0.0341657375 -0.1124614495
630296220.0 -0.2464766643 0.8075253926 5.47032e-05 -0.0001672333 0.0003039641 7.82649e-05 0.0325740422 -0.1123892315
635296190.0 -0.2388459287 0.8096990677 0.0004144447 -7.65461e-05 0.0003156149 -1.62986e-05 0.031248428 -0.1127078475
640296160.0 -0.2306398905 0.8123141338 0.0001115039 0.0001312551 0.0003432503 5.63981e-05 0.0296774446 -0.1127404174
645296130.0 -0.2226680362 0.8150978578 0.0003676097 -5.28842e-05 0.0002908843 -5.39505e-05 0.0282729039 -0.1127954749
650296100.0 -0.2145249104 0.8164696418 0.0003691243 -6.29241e-05 0.0003272377 5.29098e-05 0.0267290184 -0.1130766981
655296070.0 -0.2067500042 0.8190715808 0.0002143788 -4.21897e-05 0.0004218088 0.0001762958 0.0255393509 -0.1130789913
660296040.0 -0.1983444959 0.819901235 0.0002897545 6.37047e-05 0.000383112 0.0001487265 0.0240986063 -0.1133083444
665296010.0 -0.1897368777 0.8222168202 0.0003087455 -6.59983e-05 0.0001907446 -5.65692e-05 0.0229219736 -0.1132823245
670295980.0 -0.1820693351 0.8242189053 0.0005550979 -0.0001196746 0.0004394459 0.0003042368 0.0207272336 -0.1131331316
675295950.0 -0.1737514719 0.8254849914 0.0004696044 7.8305e-06 0.0003033939 0.0001193569 0.0190217812 -0.1130271256
680295920.0 -0.1649992649 0.8278313099 0.0003382836 1.23532e-05 0.0005281535 7.1954e-05 0.0180092214 -0.1133271274
685295890.0 -0.156648292 0.8298685744 0.0003618632 0.0002036342 0.0003292069 7.7049e-05 0.0166614995 -0.11318224
690295860.0 -0.1494713781 0.8311986424 0.0004946121 -0.0001028448 0.0003830382 -0.0001224362 0.0151919415 -0.1126037009
695295830.0 -0.1407370784 0.8316410962 0.0001899216 0.0004061964 0.0002518553 -2.18028e-05 0.0135257981 -0.1127648079
700295800.0 -0.1317867373 0.8340393028 0.0004911927 -0.0001290059 0.0003390056 -4.54318e-05 0.0119724388 -0.1128076711
705295770.0 -0.1238919256 0.8348019102 0.0003371455 -6.23671e-05 0.0002262167 -0.0001174812 0.0107263368 -0.1124440361
710295740.0 -0.1155528064 0.8360547843 0.0005412211 -6.51203e-05 0.0004753548 0.0001151635 0.00916936 -0.112899191
715295710.0 -0.1076148463 0.8369121542 0.0002436581 1.792e-07 0.0002171848 -1.97458e-05 0.0076243861 -0.1124518008
720295680.0 -0.0991206228 0.8384537286 0.000613635 1.96366e-05 0.0002229586 9.26144e-05 0.0066087164 -0.112391311
725295650.0 -0.0911032013 0.8393581016 0.0005736673 1.40908e-05 5.20219e-05 -2.19352e-05 0.0050218439 -0.1120699747
730295620.0 -0.0826175398 0.8405425787 0.0002357676 -0.0001445071 0.0003391226 -1.4626e-06 0.0034095183 -0.112187369
735295590.0 -0.0744974367 0.8409347074 0.0003041491 -0.0001597116 0.0002897681 0.0001004085 0.0014873581 -0.1121269936
740295560.0 -0.0657776891 0.8410402232 0.0004668446 0.0001985799 0.000289483 6.57736e-05 0.0003936989 -0.1119294451
745295530.0 -0.0573805838 0.842417108 0.0002269482 1.8493e-06 0.0002215804 -8.2639e-05 -0.0009279906 -0.1119246423
750295500.0 -0.0487559502 0.8425383198 0.0001891608 -0.0002901562 0.0003649024 0.0001102208 -0.0020067586 -0.1111915016
755295470.0 -0.0408955701 0.8425949604 0.0004831784 -1.34811e-05 0.0003054492 2.50809e-05 -0.0037669457 -0.1115428915
760295440.0 -0.0326691741 0.8429927726 0.0005787858 -5.0858e-06 0.0005809201 -8.87441e-05 -0.0050823046 -0.1113213206
765295410.0 -0.0244059166 0.8437800581 0.0003147281 0.0001357617 0.0002918628 5.75516e-05 -0.0066241037 -0.1105768246
770295380.0 -0.0166443252 0.8435015396 0.000512504 -2.11754e-05 0.0005284451 -7.03167e-05 -0.0078525608 -0.1102965679
775295350.0 -0.0076806573 0.8438004701 0.0005252714 -0.0001265202 0.0005809209 -0.0001993669 -0.0097151226 -0.1098091712
780295320.0 0.000610356 0.8441943991 0.0003600311 -0.0002249101 0.0003703304 -0.00030043 -0.0106600626 -0.1098939499
785295290.0 0.0087586878 0.843183878 0.0004653794 6.29725e-05 0.0004498436 -5.3231e-05 -0.0117200127 -0.10931046
790295260.0 0.0178565584 0.8434566105 0.0005984744 -0.0001790704 -4.2905e-06 -0.0001470335 -0.0129203341 -0.1090144297
795295230.0 0.0249102103 0.8431146283 0.0001496603 -2.73336e-05 0.0003471404 -0.0002199555 -0.0145083304 -0.1086325604
800295200.0 0.0337285795 0.8429870133 0.0005717558 -1.50279e-05 0.0003289436 7.14187e-05 -0.015947724 -0.1079423209
805295170.0 0.0422901755 0.8428154157 0.0002594342 -1.41045e-05 0.0005423689 -0.0001927388 -0.0170986944 -0.1075182216
810295140.0 0.0509773891 0.8423663921 0.0004318183 -0.0001118984 0.0004587289 8.44949e-05 -0.0180434022 -0.1073635298
815295110.0 0.0591121337 0.8412098409 0.0001411697 -0.0003498356 0.0006174829 -0.0002383438 -0.0196971211 -0.1066305269
820295080.0 0.0672666751 0.8414206681 0.0003198111 -0.0001013408 0.0002080939 -7.06421e-05 -0.0211336223 -0.1060415938
825295050.0 0.0761581324 0.8401240691 0.0004264434 -0.0001851503 0.0004187415 -0.0001319435 -0.0223378002 -0.1056963868
830295020.0 0.0833016507 0.8395532977 0.0002646986 -0.0003244036 0.0004437709 -0.0001124966 -0.0230808211 -0.10527217
835294990.0 0.092233036 0.8392265382 0.0003727671 -0.0001279567 0.000226088 3.0913e-06 -0.0249608717 -0.1042293223
840294960.0 0.0999563568 0.8382948797 0.0002536385 1.5403e-06 0.0002969518 -0.0002095784 -0.0264022009 -0.1040553515
845294930.0 0.1081957241 0.8365908378 0.0005048516 -0.0002365828 0.0003770541 -0.0001946562 -0.0277693084 -0.103600007
850294900.0 0.1168587338 0.8357381094 0.0003432929 -0.0004465055 0.0003538268 -0.0001938269 -0.0290146433 -0.1027692288
