!Created with skrf (http://scikit-rf.org).
# Hz S RI R 50.0 
!freq ReS11 ImS11 ReS21 ImS21 ReS12 ImS12 ReS22 ImS22
300000.0 -0.3197481806 -0.1024284397 0.3735437989 0.0515311126 0.3748696588 0.055041025 -0.3182485704 -0.1110070363
5299970.0 -0.323634065 0.0049142341 0.3787014148 0.0026974186 0.3783466356 0.0027824934 -0.3260122493 0.0030982841
10299940.0 -0.3211695846 0.0156890799 0.3800956771 0.0021416912 0.3796817511 0.0022994422 -0.3239124203 0.0129593943
15299910.0 -0.3182039801 0.023571676 0.3821056619 0.0023705611 0.3819823503 0.0025765023 -0.3212871892 0.0198145985
20299880.0 -0.314542499 0.03036439 0.3849348475 0.001446023 0.3849805429 0.0016895484 -0.3186108967 0.0260891932
25299850.0 -0.3106724877 0.0356447724 0.3885927511 -0.000256904 0.3886276396 5.12114e-05 -0.3157660659 0.030972464
30299820.0 -0.3066637114 0.0405714025 0.3921845369 -0.0022444761 0.3917087133 -0.0020081187 -0.3129094696 0.0354000505
35299790.0 -0.3029346015 0.0448251539 0.394930417 -0.0054610342 0.3952809845 -0.0052323561 -0.30973046 0.0396603756
40299760.0 -0.29942095 0.0479446429 0.3983774984 -0.0084457856 0.3981966478 -0.0089245983 -0.3070691753 0.0431268539
45299730.0 -0.2964617111 0.0514007178 0.4012056347 -0.0128426369 0.4012683197 -0.0125221125 -0.3047525553 0.0461819903
50299700.0 -0.293232774 0.054145448 0.4031996535 -0.0171010968 0.4037299109 -0.0171987369 -0.3020798169 0.0491485166
55299670.0 -0.2907766586 0.0567934335 0.4056054097 -0.022138194 0.4058450818 -0.0219223777 -0.3002210205 0.0520885441
60299640.0 -0.2883733881 0.0589343191 0.4076260247 -0.0268936621 0.4076471663 -0.0271835242 -0.2981176419 0.0545617847
65299610.0 -0.286134423 0.0615756674 0.4093083962 -0.0315506023 0.4093753386 -0.0316137963 -0.296236406 0.0573608002
70299580.0 -0.2838251812 0.0636027304 0.4106599684 -0.0367252746 0.4105017695 -0.0372714255 -0.2945633772 0.0597104005
75299550.0 -0.281793435 0.0658459841 0.4116338567 -0.042231618 0.411707358 -0.0423614559 -0.2931656246 0.0619278725
80299520.0 -0.2804113348 0.0682488479 0.4127200415 -0.0474228247 0.4127862781 -0.0473297234 -0.2915702237 0.0639752936
85299490.0 -0.2786808394 0.0696655507 0.4134488837 -0.0527036682 0.4130602315 -0.052686854 -0.2902104842 0.0665980457
90299460.0 -0.2771381197 0.0721474997 0.4134513808 -0.0578834275 0.4139897836 -0.0580860779 -0.2887895011 0.068992861
95299430.0 -0.2757813255 0.0742241586 0.4140697689 -0.0631864306 0.4139449387 -0.0630783867 -0.2877160693 0.0711671293
100299400.0 -0.2744836025 0.0765168774 0.4137422873 -0.068514034 0.4136333514 -0.0682815785 -0.286660336 0.0733937312
105299370.0 -0.2729442109 0.0784964133 0.4135904868 -0.0734585734 0.4137226896 -0.0735639577 -0.2850994013 0.0755051665
110299340.0 -0.2716915163 0.0804471625 0.4130920987 -0.0785640491 0.4135090955 -0.0788732496 -0.2844473748 0.0779339911
115299310.0 -0.270749614 0.0824218339 0.4129533654 -0.0837465718 0.41324982 -0.0836727855 -0.2827274522 0.0798878888
120299280.0 -0.2698538262 0.0845850752 0.413068326 -0.0889100945 0.4128791807 -0.0892699017 -0.2823245579 0.0827326403
125299250.0 -0.2687575676 0.0866664051 0.4122533077 -0.0940498719 0.4126510707 -0.0939956105 -0.2811388128 0.0845198513
130299220.0 -0.2675878567 0.0890724723 0.4115676107 -0.0987149034 0.4117302621 -0.099300861 -0.2806061161 0.0874920533
135299190.0 -0.2665648503 0.0909550409 0.410778792 -0.1039728243 0.4106019259 -0.1040834928 -0.2796148073 0.0897201491
140299160.0 -0.2657782426 0.09366668 0.4100925613 -0.1090275636 0.4101333469 -0.1092316009 -0.2784462147 0.0922341854
145299130.0 -0.2647268087 0.0959469472 0.4094478911 -0.1141807153 0.4090890655 -0.1138133544 -0.2779799933 0.0945888901
150299100.0 -0.2638811844 0.0980722827 0.4081676017 -0.1191450408 0.4083051709 -0.1192584064 -0.2766329375 0.0970449758
155299070.0 -0.2630202965 0.1007533371 0.4071375979 -0.124013373 0.4071269545 -0.1240054204 -0.2762192378 0.0995903609
160299040.0 -0.2618603921 0.1029958074 0.4055741285 -0.1286896966 0.4059704677 -0.1290161888 -0.2748943308 0.1025483602
165299010.0 -0.2610341571 0.1053420569 0.404776166 -0.1336987341 0.4047912085 -0.133629944 -0.2740330068 0.1045787056
170298980.0 -0.2601367765 0.1078633813 0.4028322409 -0.1386005787 0.4035095711 -0.1384904428 -0.2732177303 0.1073245167
175298950.0 -0.258936462 0.1105602296 0.4025417789 -0.1433317574 0.4017599917 -0.1433146226 -0.2719137266 0.1097672423
180298920.0 -0.2580935244 0.1124310288 0.4004864602 -0.1480395798 0.4004245865 -0.1480587945 -0.2709730591 0.112517203
185298890.0 -0.2569329348 0.115461747 0.3988773879 -0.1529410604 0.3988095928 -0.1523980612 -0.2701194001 0.1147209644
190298860.0 -0.2556703721 0.1177829832 0.3970553305 -0.1578153174 0.3974858224 -0.1576057002 -0.2689608152 0.1176855883
195298830.0 -0.2546668502 0.1200914818 0.3955829303 -0.1617037471 0.3956539863 -0.1623133758 -0.2679216026 0.119924181
200298800.0 -0.2534641653 0.1228992997 0.3941762872 -0.1660693813 0.3937699342 -0.1664150543 -0.2663109302 0.1230503462
205298770.0 -0.2525449763 0.1252193544 0.392302499 -0.1710117226 0.3922795459 -0.1711171754 -0.265257516 0.1253931638
210298740.0 -0.2514451831 0.1276478425 0.3904265203 -0.1757850593 0.3904229551 -0.1761435023 -0.2647137066 0.12826698
215298710.0 -0.2504011456 0.1303724741 0.3885704273 -0.180368671 0.3883140812 -0.1802153517 -0.263770917 0.130674591
220298680.0 -0.2493671882 0.1327159564 0.3863351825 -0.1846847151 0.3865455929 -0.1849297636 -0.2620681394 0.1338745281
225298650.0 -0.2479424168 0.1355427286 0.3844468208 -0.1890585939 0.3842604327 -0.1887786271 -0.2610402614 0.1363550285
230298620.0 -0.2467702904 0.1380565705 0.3825837647 -0.1936224785 0.3826447679 -0.1938137403 -0.259542643 0.1389956062
235298590.0 -0.245366709 0.1406161024 0.3802507625 -0.1977081943 0.3803803083 -0.1984111207 -0.2584632135 0.1415042619
240298560.0 -0.2444301979 0.1435101304 0.378453208 -0.2021746003 0.3784246727 -0.2022764219 -0.2572175843 0.1442753356
245298530.0 -0.2425205963 0.1455602654 0.3755067554 -0.2068564804 0.3759031349 -0.2066324648 -0.2554180568 0.1471029975
250298500.0 -0.2414620664 0.1481668554 0.3735932071 -0.2104845646 0.3736533936 -0.2102680619 -0.2538694204 0.149670593
255298470.0 -0.2400530977 0.1508992332 0.3710433144 -0.2152061588 0.3712997587 -0.2149356649 -0.2528246181 0.1524831132
260298440.0 -0.2387001592 0.1531402846 0.3692567951 -0.2189891761 0.3689078094 -0.2194623391 -0.2509946632 0.1550489745
265298410.0 -0.2369536515 0.1560922428 0.3663973155 -0.2237820672 0.3663915474 -0.2234980018 -0.2497519727 0.1576174999
270298380.0 -0.2355413927 0.1583593168 0.3637793596 -0.2272484845 0.3644406302 -0.2276315648 -0.2477436175 0.1603591762
275298350.0 -0.2341392008 0.1610792562 0.3617001052 -0.2316621496 0.3616867748 -0.2320715431 -0.246277631 0.1631387539
280298320.0 -0.2325413859 0.1636610735 0.3591009215 -0.2356945762 0.358814383 -0.2360957692 -0.2449639247 0.1658216776
285298290.0 -0.2308647356 0.1664516326 0.3564121727 -0.2398965638 0.3563768781 -0.2398447504 -0.243169758 0.1683938878
290298260.0 -0.2294054833 0.1688095697 0.3539271476 -0.2437987518 0.3538920685 -0.2440490713 -0.2409286124 0.1713971557
295298230.0 -0.2275292066 0.1710790943 0.351102472 -0.2477113667 0.3508606889 -0.2479350339 -0.2393517109 0.1738875146
300298200.0 -0.2256870637 0.1735692881 0.3480026672 -0.2517328845 0.3483350755 -0.2519532548 -0.2378559157 0.1764767457
305298170.0 -0.2238814142 0.1761302539 0.3455872713 -0.2560729582 0.3458044909 -0.2561497427 -0.2354371375 0.1794979068
310298140.0 -0.2216804559 0.1783455 0.3427143978 -0.260100898 0.3429337203 -0.2602677918 -0.2343268896 0.1819671058
315298110.0 -0.22082687 0.1809417466 0.3397741356 -0.2642794334 0.3400660173 -0.2640406296 -0.2319424901 0.1845325284
320298080.0 -0.218817046 0.1834120041 0.3371608892 -0.2679663647 0.3370240334 -0.2678395472 -0.2303707418 0.1868040887
325298050.0 -0.2171456466 0.1854207247 0.3342762313 -0.2713678864 0.3340429066 -0.2715606386 -0.2282747466 0.1895073257
330298020.0 -0.2155110643 0.1880546512 0.3308557564 -0.2752807841 0.330618158 -0.2755092902 -0.2263727023 0.1918569319
335297990.0 -0.2134328378 0.1903164547 0.3276970599 -0.2792066841 0.3279750527 -0.2793552662 -0.2248361884 0.1942927366
340297960.0 -0.211953476 0.1927961741 0.3247389875 -0.2828719531 0.324544043 -0.2825115263 -0.2228182426 0.196835659
345297930.0 -0.2100381866 0.1950405431 0.3215618034 -0.2860806122 0.32092751 -0.2861278223 -0.2205964281 0.1994577813
350297900.0 -0.2078833032 0.1975075203 0.3179798545 -0.2895359965 0.3183042471 -0.2898993567 -0.2188706958 0.2022892278
355297870.0 -0.2059997271 0.1998764755 0.3145727659 -0.2929125222 0.314801598 -0.293104991 -0.2169198085 0.204604019
360297840.0 -0.2040399608 0.2021643794 0.3116047571 -0.2968330978 0.311157548 -0.2968557661 -0.2145441038 0.207174984
365297810.0 -0.201450874 0.2048232731 0.3078415838 -0.3001288435 0.3084608535 -0.3002127972 -0.2126429598 0.2100718145
370297780.0 -0.1996740352 0.2065683806 0.3044830206 -0.3032383875 0.3046686867 -0.3038264122 -0.2103064663 0.2124195434
375297750.0 -0.1976469416 0.209030163 0.3020145474 -0.307031724 0.3013476983 -0.3068890414 -0.2081821326 0.2148615468
380297720.0 -0.1954062458 0.2113704701 0.2980530081 -0.310016431 0.2978852338 -0.3100371906 -0.2057876399 0.2173893223
385297690.0 -0.1932095242 0.213532434 0.2942199318 -0.3129167641 0.2942895188 -0.3132541871 -0.2033795229 0.2199516398
390297660.0 -0.1911973684 0.2157571212 0.2907097608 -0.3164862155 0.2908305099 -0.3168603255 -0.201131495 0.2217128864
395297630.0 -0.1885997279 0.2180278433 0.2874986849 -0.319642151 0.287609835 -0.3197155736 -0.1991178586 0.2243688321
400297600.0 -0.1865606819 0.2203178178 0.2840374033 -0.3231670021 0.284104834 -0.3230128956 -0.1972705987 0.226593592
405297570.0 -0.1842382784 0.2226106589 0.2804559681 -0.32601673 0.2803282801 -0.3261152157 -0.1947250266 0.2291225903
410297540.0 -0.181960175 0.224488603 0.2765445263 -0.3289494129 0.2763469655 -0.3288146316 -0.1921441928 0.2313771415
415297510.0 -0.1793884186 0.2266475855 0.2732001854 -0.3319143767 0.2730871294 -0.332127483 -0.1897458517 0.2340264281
420297480.0 -0.1768883528 0.228349159 0.26902934 -0.3351175191 0.2691954935 -0.3350352572 -0.187376459 0.2356769586
425297450.0 -0.1747276107 0.2304004306 0.2653115935 -0.3380860538 0.2657192198 -0.3381928348 -0.1848367278 0.2383959129
430297420.0 -0.1725759646 0.2329173417 0.2619888201 -0.341422879 0.2619400855 -0.3409394987 -0.1826611564 0.2403812197
435297390.0 -0.1697872853 0.2346169748 0.2583206595 -0.34349927 0.2583509133 -0.3434380268 -0.1799884554 0.2423801258
440297360.0 -0.1671871182 0.2366068188 0.2541393206 -0.3463893058 0.2541595523 -0.3462805653 -0.1773340133 0.2441291547
445297330.0 -0.1648508909 0.238609052 0.2501211866 -0.3497780378 0.2501372216 -0.3489400226 -0.1750037374 0.2463727736
450297300.0 -0.1624872768 0.2400980046 0.2462390598 -0.3517424437 0.246482205 -0.3520222726 -0.1725755569 0.2487797335
455297270.0 -0.1600137658 0.2420883744 0.2427816681 -0.3544823462 0.2428863626 -0.3543984963 -0.1697434273 0.2508769248
460297240.0 -0.1576659775 0.2440449536 0.2388164301 -0.3569869713 0.2385877076 -0.3568275195 -0.1669426572 0.2527800706
465297210.0 -0.1543376746 0.2456637458 0.2347902274 -0.3596039957 0.2352496461 -0.3596577147 -0.1651600056 0.2544536151
470297180.0 -0.1522583579 0.247779639 0.2307774935 -0.3620592517 0.2312138682 -0.3618957274 -0.1625878279 0.2562599098
475297150.0 -0.149885588 0.2494548065 0.2268039571 -0.3643799434 0.2269453842 -0.3642708131 -0.1594282836 0.2585562144
480297120.0 -0.1470106973 0.2508170222 0.2227260059 -0.3668489036 0.2228875377 -0.366792748 -0.1567136526 0.2606015887
485297090.0 -0.144427857 0.2525732206 0.2187952243 -0.3693534991 0.2189680586 -0.3692446743 -0.1542270419 0.262391504
490297060.0 -0.141625105 0.2542982935 0.2146985131 -0.3718448755 0.2148621305 -0.3716210752 -0.1514997415 0.2644362746
495297030.0 -0.1391232617 0.2560526626 0.2103761825 -0.3741670985 0.2100342326 -0.3739327462 -0.1487185413 0.2655443775
500297000.0 -0.136078675 0.2576891294 0.2063128335 -0.3761256933 0.2066407484 -0.3759828123 -0.1463544281 0.2674338147
505296970.0 -0.1335432511 0.2588782143 0.2022013253 -0.3777618381 0.2021531887 -0.3780704383 -0.1437961472 0.2695117701
510296940.0 -0.1309665584 0.2607326269 0.1981831105 -0.3807870165 0.1979863226 -0.3804895792 -0.1402728824 0.2714897457
515296910.0 -0.1282367934 0.2625797859 0.1934741995 -0.3823742884 0.1944828597 -0.3824839356 -0.13790521 0.2731050363
520296880.0 -0.1253412175 0.26394235 0.189662295 -0.3850310312 0.1898362271 -0.3845835415 -0.1349943987 0.2745183167
525296850.0 -0.1225065956 0.2650569744 0.1855471908 -0.3865859645 0.1857180127 -0.3869649358 -0.1321918541 0.2762133995
530296820.0 -0.1199513231 0.2665481207 0.1817425338 -0.3882431619 0.1811585172 -0.3885362937 -0.1297907955 0.2774816309
535296790.0 -0.1170011225 0.267972059 0.1770065045 -0.390153338 0.1771662733 -0.3898793388 -0.1267550188 0.2788092753
540296760.0 -0.1143523243 0.2690916984 0.1729792856 -0.392229526 0.1728052001 -0.3925535561 -0.1240508698 0.2808361944
545296730.0 -0.1115456959 0.270658181 0.1682087017 -0.3939523021 0.1683471869 -0.3943780451 -0.1211085064 0.2819502435
550296700.0 -0.1086588822 0.2721959746 0.1644405537 -0.3960299028 0.1642919877 -0.3963504396 -0.1181852017 0.2837640538
555296670.0 -0.1053972117 0.2732800321 0.1598395227 -0.3974813813 0.1600119565 -0.3979686856 -0.1151100115 0.2849721497
560296640.0 -0.1025970807 0.2748071383 0.1555041095 -0.3993388411 0.155653337 -0.3993334638 -0.1121915789 0.2865297619
565296610.0 -0.0998479698 0.2759600768 0.1510144309 -0.4008203623 0.1512420064 -0.4008211415 -0.1094724765 0.2878549307
570296580.0 -0.0969047184 0.2768561223 0.1465242603 -0.4024797955 0.1472568153 -0.4026851626 -0.106527224 0.2894218204
575296550.0 -0.0940235632 0.2781476342 0.1424706645 -0.4038499635 0.1426397941 -0.4039203984 -0.1034390192 0.2902740055
580296520.0 -0.0910312382 0.2795268906 0.1381339483 -0.4055538973 0.1379616114 -0.4056948421 -0.1003291216 0.2917136997
585296490.0 -0.0880685949 0.280116454 0.1335332623 -0.4071037386 0.1333893029 -0.406705621 -0.0974656566 0.2923510564
590296460.0 -0.085219789 0.2812364277 0.1289507082 -0.4081131619 0.1288682584 -0.4085373987 -0.0942162798 0.2939569672
595296430.0 -0.0819984592 0.2826011893 0.124580507 -0.4099069827 0.1244564718 -0.4099819212 -0.0914202868 0.2949381988
600296400.0 -0.0792716815 0.2833302877 0.1202124308 -0.4108930746 0.1207360509 -0.4110241327 -0.0884709626 0.2962790102
605296370.0 -0.076253574 0.284786078 0.1156831355 -0.4125416984 0.1159029141 -0.4121786249 -0.0856427091 0.2970558924
610296340.0 -0.0732368631 0.2854567296 0.1116082232 -0.4134260598 0.1114932512 -0.4138014839 -0.0822134087 0.2986219979
615296310.0 -0.0701459909 0.2868119822 0.1066499451 -0.4147453569 0.1067949769 -0.4144738835 -0.0791366603 0.2993273375
620296280.0 -0.0671334368 0.2871675629 0.1022882723 -0.4156380229 0.102236401 -0.4158411948 -0.0760578193 0.2998938657
625296250.0 -0.0642533076 0.2884040383 0.0973650876 -0.4169799693 0.0974128793 -0.4171341432 -0.0726541539 0.3012754858
630296220.0 -0.0613402748 0.2890434761 0.0933042397 -0.4177614967 0.0934145007 -0.4177881655 -0.0699551057 0.302049477
635296190.0 -0.0578921366 0.2897544574 0.0886454456 -0.41816156 0.088646017 -0.4183094079 -0.0670412988 0.302991372
640296160.0 -0.0549351206 0.2903455028 0.0838968864 -0.4195880076 0.0839922604 -0.4198243685 -0.0637261748 0.3035374081
645296130.0 -0.0521954029 0.2913438544 0.0794372356 -0.4203587287 0.0798441185 -0.4200143569 -0.0608471372 0.3042867192
650296100.0 -0.0489098192 0.2923836641 0.0750852565 -0.4211805865 0.0749166136 -0.4213112496 -0.0573431913 0.305521176
655296070.0 -0.0457490633 0.2925004173 0.0704730688 -0.421856947 0.0701324279 -0.4219249728 -0.0541287677 0.3062326221
660296040.0 -0.0429124765 0.293540244 0.0661540083 -0.4221511131 0.0661734559 -0.4225408454 -0.0514112448 0.306877128
665296010.0 -0.039610492 0.2940010199 0.0616535948 -0.4232528658 0.0616074998 -0.4231172922 -0.0480586699 0.3074870887
670295980.0 -0.0361330047 0.2945420544 0.0565108449 -0.4237553099 0.0571928373 -0.4237609497 -0.0452477785 0.3079703286
675295950.0 -0.0332951671 0.2948772794 0.0520539784 -0.4245126643 0.0523413067 -0.4247180559 -0.0417218209 0.3087807543
680295920.0 -0.0301923467 0.295494526 0.0472628458 -0.4249193057 0.0475606384 -0.4248290825 -0.0384724379 0.309126524
685295890.0 -0.0268914549 0.2960761393 0.042897984 -0.4252430819 0.0429595199 -0.4256035374 -0.0350771554 0.3095739696
690295860.0 -0.0237595342 0.2965540404 0.0382776469 -0.425425605 0.0379498444 -0.4257248074 -0.0318463863 0.3102735821
695295830.0 -0.0206901321 0.2964274505 0.0330976258 -0.4259854569 0.0332903083 -0.4263881285 -0.0285792875 0.3111180116
700295800.0 -0.0175035188 0.2970402654 0.0289694991 -0.4264658125 0.0290147778 -0.4266164539 -0.0255060582 0.3109836634
705295770.0 -0.0142871716 0.2975007224 0.0243228679 -0.4267503092 0.0245832318 -0.4267948928 -0.0225543896 0.311488884
710295740.0 -0.0110947561 0.2979816367 0.0195993128 -0.4268526785 0.0196027808 -0.4266139115 -0.0195864081 0.3120080934
715295710.0 -0.0083665984 0.2980160099 0.0150646048 -0.4269964737 0.0153391055 -0.4269727614 -0.0160338247 0.3118346926
720295680.0 -0.0053291507 0.2981868497 0.0106869959 -0.4268847878 0.0105904026 -0.4274727852 -0.0124013565 0.3127079251
725295650.0 -0.0013586074 0.298565387 0.0052918169 -0.4269257917 0.0059052986 -0.426878732 -0.0094702804 0.3129670764
730295620.0 0.001047372 0.2986473717 0.0012119064 -0.4271663744 0.0010880156 -0.4270184738 -0.005732444 0.3127166178
735295590.0 0.0045641661 0.2987387304 -0.003243725 -0.4268972748 -0.0030524325 -0.427052618 -0.0027842693 0.3129665366
740295560.0 0.0076781804 0.2991524481 -0.0082105812 -0.4263931232 -0.0081695708 -0.426585002 0.0006548079 0.312961478
745295530.0 0.0109986673 0.298907408 -0.0126897728 -0.426604148 -0.0122358412 -0.4269191049 0.0035648344 0.3135354529
750295500.0 0.0141065665 0.2987398333 -0.0171762719 -0.4262337739 -0.017057277 -0.4265489015 0.006723417 0.3135073835
755295470.0 0.0177030731 0.298940734 -0.0220020136 -0.4262495879 -0.0215142564 -0.4265938108 0.0096876474 0.3136417296
760295440.0 0.0204581856 0.2988496502 -0.0264744662 -0.4261464338 -0.0260996491 -0.4260570322 0.0128838536 0.3134243829
765295410.0 0.0235907289 0.298425852 -0.0309031132 -0.4257523723 -0.0309794264 -0.4258323839 0.0169821383 0.313889114
770295380.0 0.0266626257 0.2987765463 -0.0356389245 -0.4247074847 -0.0358046618 -0.425564069 0.0203663079 0.3135501324
775295350.0 0.0297981606 0.2987384526 -0.0399466114 -0.4247621813 -0.0402861521 -0.4248620338 0.0228327256 0.3133267246
780295320.0 0.0333055479 0.2981096076 -0.0450635518 -0.4240153785 -0.0444961244 -0.4243785509 0.0262720805 0.3133006315
785295290.0 0.0363683336 0.2982212452 -0.049182749 -0.4231074999 -0.0492586752 -0.4239483102 0.0292711978 0.313482583
790295260.0 0.0395916278 0.298073299 -0.0539678539 -0.423282897 -0.0541323556 -0.4235929846 0.0332541012 0.3129605947
795295230.0 0.0424703507 0.2978940235 -0.0578958803 -0.4223533806 -0.0582302347 -0.4226989071 0.0361439988 0.3133325547
800295200.0 0.0459627721 0.2976810207 -0.0631289376 -0.4221873244 -0.0631404805 -0.4221655232 0.0394087179 0.3126229108
805295170.0 0.0487114673 0.2973964542 -0.0674673045 -0.4208138052 -0.0676479214 -0.4208897796 0.0422838964 0.3122638533
810295140.0 0.0521260364 0.2967910175 -0.0721272141 -0.42015438 -0.0718407009 -0.4208430442 0.0460371425 0.3123533078
815295110.0 0.0553317726 0.2962773446 -0.0769079165 -0.4191206774 -0.0768475547 -0.4194498221 0.0490560439 0.3118333809
820295080.0 0.0582438977 0.2955688239 -0.0810348493 -0.4187140411 -0.0809801793 -0.4189658519 0.0521456006 0.3115667379
825295050.0 0.0615270056 0.295369134 -0.0855247233 -0.4173875034 -0.08579961 -0.417600927 0.0558270846 0.3111100521
830295020.0 0.0646158855 0.2946274889 -0.0901688645 -0.4160918553 -0.0904978981 -0.4169319971 0.0584575508 0.3104991726
