!Created with skrf (http://scikit-rf.org).
# Hz S RI R 50.0 
!freq ReS11 ImS11 ReS21 ImS21 ReS12 ImS12 ReS22 ImS22
300000.0 -0.213708067 -0.0592016612 -0.0005920251 9.86579e-05 -0.0002998727 0.0010411751 -0.7759908887 -0.133031602
5299970.0 -0.2168789303 0.008094562 0.0001189959 -3.51371e-05 1.42949e-05 9.62042e-05 -0.7848055346 -0.0074291732
10299940.0 -0.2133401486 0.0195527504 -6.87224e-05 0.0001274609 -0.000256488 -3.66386e-05 -0.7875265336 -0.0037427099
15299910.0 -0.2087789507 0.0285046347 2.60721e-05 6.57233e-05 -9.21146e-05 2.0264e-06 -0.7929229966 -0.0015390482
20299880.0 -0.2033458882 0.0359943635 -1.36842e-05 -0.0001311607 -4.75766e-05 0.0002841 -0.7997233871 0.0023839506
25299850.0 -0.1976709115 0.0422417359 2.43958e-05 6.358e-06 -9.4427e-05 -9.93434e-05 -0.8063593046 0.0084449144
30299820.0 -0.1920350854 0.0467651956 0.0001253089 3.54069e-05 2.30709e-05 -0.0001185347 -0.8121759633 0.0160405625
35299790.0 -0.1864333616 0.0505206499 0.0002273992 2.89218e-05 -5.8821e-06 0.0001682832 -0.8172184852 0.0250572918
40299760.0 -0.1806819621 0.0534222858 -0.0001112912 -0.0001133461 0.0001041915 7.77067e-05 -0.8216126443 0.0345546273
45299730.0 -0.1754883243 0.0553810902 0.0001039316 0.0002955061 -0.0001798261 -8.79231e-05 -0.825194414 0.044032511
50299700.0 -0.1708463917 0.05681616 3.4325e-06 0.0002591774 -1.57512e-05 -9.8546e-05 -0.8277213987 0.0542661853
55299670.0 -0.1664772734 0.0579056434 -0.0001336983 0.0001544689 -5.03367e-05 0.0001191458 -0.8296538383 0.0645310162
60299640.0 -0.1623311614 0.0587158086 8.09327e-05 1.20681e-05 1.7702e-06 -0.0001351445 -0.8307863646 0.0744724409
65299610.0 -0.1588618577 0.0590482314 9.5437e-05 -7.72733e-05 5.99886e-05 0.0001029471 -0.8318388712 0.0841947224
70299580.0 -0.1556733405 0.0596774247 -0.000170923 -3.95915e-05 -8.30539e-05 0.0002350896 -0.8315702131 0.0944209138
75299550.0 -0.1527158786 0.0601802374 3.53318e-05 7.63546e-05 5.19715e-05 4.72862e-05 -0.8319307614 0.1041366486
80299520.0 -0.1501473601 0.0602168112 9.60507e-05 0.000224343 0.0001201687 4.74261e-05 -0.8319475264 0.1138858723
85299490.0 -0.1476654127 0.0597347164 1.94966e-05 0.0001014249 3.04099e-05 0.0001449348 -0.8317358575 0.1238997291
90299460.0 -0.1452491505 0.0602215145 2.28085e-05 0.0001449303 7.99023e-05 -8.2798e-05 -0.830920858 0.1333243183
95299430.0 -0.1433940667 0.0599590203 2.50913e-05 -2.32965e-05 -0.0002068698 -6.61242e-05 -0.8291617936 0.1433308117
100299400.0 -0.1416640614 0.0599248567 -1.02124e-05 5.8263e-06 -7.48907e-05 4.64838e-05 -0.8285862146 0.1523385004
105299370.0 -0.1399094374 0.0601755058 3.11371e-05 0.0001292403 8.54575e-05 0.0001196571 -0.8267878685 0.1610072166
110299340.0 -0.1386035236 0.0598877803 4.76779e-05 0.0001195035 8.71789e-05 -9.55882e-05 -0.8252773638 0.1706318831
115299310.0 -0.1371780437 0.0598852095 0.0001759373 8.26059e-05 5.64949e-05 -4.56318e-05 -0.8245223182 0.1797829912
120299280.0 -0.1360876616 0.0600905913 6.71317e-05 -1.95688e-05 -2.04415e-05 6.36575e-05 -0.8223675549 0.1888834006
125299250.0 -0.1350793494 0.0598927382 0.0001758494 5.5852e-06 0.0001296708 4.82322e-05 -0.8210178852 0.1979264458
130299220.0 -0.1343273356 0.0604893669 3.23098e-05 0.0002484194 0.0001066685 2.51542e-05 -0.8192987865 0.2071066859
135299190.0 -0.1329694124 0.060768351 0.0001372268 0.0002017474 -0.0001471764 -0.0001666512 -0.8165981918 0.2158774909
140299160.0 -0.132302929 0.0607972593 -0.0001144586 -0.0001686703 -3.07651e-05 -1.8573e-06 -0.8144940794 0.2250415539
145299130.0 -0.13158932 0.061199575 0.0001647123 0.0003526868 0.0001102264 0.000127368 -0.8124818801 0.2341672581
150299100.0 -0.1306565643 0.0613310964 5.72199e-05 -0.0002119419 0.0001092409 -0.0001884431 -0.8105319932 0.2429772191
155299070.0 -0.1301552996 0.0620307523 -8.21154e-05 0.0002003914 -0.0001051965 0.0001892906 -0.8072044581 0.2517204863
160299040.0 -0.1297648173 0.0625211725 0.0001541687 3.85579e-05 0.0001364636 -0.0001336542 -0.8055849184 0.2608587779
165299010.0 -0.1288637198 0.0629273059 0.0002051439 0.0001403559 0.0001073454 0.0001373047 -0.8023694131 0.2693273118
170298980.0 -0.128622643 0.0635805016 0.0001114436 0.0002063082 0.0003587383 -1.88305e-05 -0.7992702168 0.2780433166
175298950.0 -0.1278131285 0.0640052012 0.0001384786 -6.26923e-05 0.0001341778 8.16984e-05 -0.7968507649 0.2869608032
180298920.0 -0.1275217404 0.0646720927 0.0001164591 -0.0002697395 2.27134e-05 -0.0001134388 -0.7938524702 0.2951507047
185298890.0 -0.1265069786 0.0649858887 -3.00657e-05 6.64545e-05 -0.000110706 9.757e-05 -0.7903645516 0.3039021405
190298860.0 -0.1260795877 0.0656703238 -0.0001121802 0.0002637273 7.45798e-05 -1.05027e-05 -0.7883492118 0.3121710112
195298830.0 -0.1258962271 0.0665360547 0.0001787615 0.0001608199 1.49375e-05 0.0001483833 -0.7851965423 0.3211784277
200298800.0 -0.12525471 0.0673535505 -2.16435e-05 4.06707e-05 7.67088e-05 6.60006e-05 -0.781806445 0.3289806635
205298770.0 -0.1248652698 0.0682058716 6.71794e-05 7.35146e-05 -4.35686e-05 0.0003256953 -0.7774289754 0.3374044668
210298740.0 -0.1244997205 0.0685952492 0.0001221768 -1.02734e-05 0.0001051467 2.61941e-05 -0.7745220612 0.3459697512
215298710.0 -0.1241816264 0.0697709621 0.0003409454 0.0001585534 -0.0001375927 -0.0001524309 -0.7710166362 0.3542055545
220298680.0 -0.1236002732 0.0703388312 0.0001048719 0.000226809 6.17738e-05 2.49805e-05 -0.7675159259 0.3617717826
225298650.0 -0.1233909137 0.0711298009 6.91722e-05 6.13646e-05 -2.91446e-05 0.0002520539 -0.7636020596 0.3703889858
230298620.0 -0.1226142345 0.0725068819 0.000180474 0.0001881193 -1.79212e-05 9.88731e-05 -0.760182369 0.3786931018
235298590.0 -0.1220965872 0.0731030394 8.44752e-05 2.91219e-05 4.43514e-05 0.0001630875 -0.7557968223 0.3870748901
240298560.0 -0.1219238447 0.0740540364 0.0001519823 0.0002288297 2.2264e-06 2.50131e-05 -0.7514131762 0.3952662346
245298530.0 -0.1211810499 0.0751174255 -0.0001512234 0.0002207045 -6.17547e-05 4.38668e-05 -0.747794839 0.402519976
250298500.0 -0.1206005847 0.07583833 -1.49672e-05 0.0001650328 4.52901e-05 0.0001283905 -0.7432640454 0.4102369518
255298470.0 -0.1206791711 0.0764167865 9.06397e-05 0.0001428969 9.4656e-05 2.36728e-05 -0.7390965891 0.4181331996
260298440.0 -0.119849778 0.077518652 0.0001913412 -6.88744e-05 0.0001850393 0.0001048713 -0.7351887542 0.4264053066
265298410.0 -0.1194770789 0.0788629521 9.86142e-05 -0.0002291303 8.37009e-05 3.67372e-05 -0.7304991835 0.4339522275
270298380.0 -0.1191898194 0.0798675399 0.0001559907 4.67829e-05 4.58514e-05 0.0001295968 -0.7251134442 0.4414252417
275298350.0 -0.1183474412 0.080651132 -7.13786e-05 0.0001265812 0.0001318225 0.000135113 -0.7207444153 0.4486939222
280298320.0 -0.1177252949 0.0818809268 2.54375e-05 2.68405e-05 -6.65848e-05 0.0001582109 -0.7161002344 0.4561198851
285298290.0 -0.117155011 0.082827365 9.59891e-05 -0.0001715348 5.1184e-05 0.0001408186 -0.7109318246 0.4640349108
290298260.0 -0.1166610842 0.0838080674 0.0002489706 -9.08945e-05 8.29939e-05 0.0002353703 -0.7060647193 0.4711307464
295298230.0 -0.1159935328 0.0847222217 0.0001648972 0.0001400503 -7.4493e-05 5.167e-06 -0.7010861654 0.4782129316
300298200.0 -0.1153716687 0.0858012198 9.05943e-05 3.74884e-05 1.44261e-05 2.68844e-05 -0.6959835573 0.4858293858
305298170.0 -0.1144970309 0.0864819764 -4.9079e-06 -0.0001202563 3.94503e-05 4.40218e-05 -0.6901668437 0.4932608315
310298140.0 -0.1139764273 0.087890632 0.0001912964 -8.71669e-05 0.0001856701 4.24732e-05 -0.685836556 0.4999614288
315298110.0 -0.1132094198 0.0887374495 0.0001084477 0.0001183243 0.0001186603 5.3704e-05 -0.6800171672 0.5071538179
320298080.0 -0.112800694 0.0895872925 0.0003751465 4.49295e-05 0.0001090058 0.0001977796 -0.6749849161 0.5148783136
325298050.0 -0.1119861477 0.090560004 7.6253e-05 5.33578e-05 0.0001253226 0.0001167863 -0.6689629577 0.5215214419
330298020.0 -0.1115949113 0.0914171918 0.0001882802 0.0001487878 -0.0001248705 -2.83011e-05 -0.6637894118 0.5280761749
335297990.0 -0.1110023235 0.0925123542 0.000228815 0.0001379044 0.0002239747 0.0001998631 -0.6582735091 0.5351938237
340297960.0 -0.1107905868 0.0936499607 9.80785e-05 0.0001083875 0.0002584602 0.0002441532 -0.6525025619 0.5425054834
345297930.0 -0.1100868552 0.0945997739 5.69091e-05 1.49798e-05 0.0001325567 5.999e-06 -0.646895509 0.5488379165
350297900.0 -0.1092945649 0.0959792484 0.0002975691 0.0002364518 0.0002778058 -0.0002408974 -0.6410512926 0.5554212597
355297870.0 -0.1082322322 0.0970639282 0.0001112652 0.0003872485 6.04336e-05 3.8941e-05 -0.6358346574 0.5620478674
360297840.0 -0.1075978541 0.0981543343 0.0001788807 1.21145e-05 4.52619e-05 2.18748e-05 -0.6295435251 0.5687866679
365297810.0 -0.1071802363 0.0995727675 4.45351e-05 1.67938e-05 -5.73243e-05 0.0002937708 -0.6232161935 0.5755020421
370297780.0 -0.106215913 0.1004012937 0.0001740788 0.0002838264 7.83776e-05 1.0174e-05 -0.6174097901 0.5816265423
375297750.0 -0.1054437897 0.1016094962 -3.52787e-05 6.02038e-05 -2.80888e-05 -5.16218e-05 -0.6119454447 0.5877118633
380297720.0 -0.1046242695 0.102487175 -0.0001764277 0.0001954392 0.0002048137 3.41467e-05 -0.6058162167 0.5943440622
385297690.0 -0.1040974752 0.1038044583 -0.0001507909 0.0001041443 -1.42629e-05 1.88747e-05 -0.5995189881 0.6012512695
390297660.0 -0.1034303372 0.1050505386 0.0001172461 0.0001113404 -9.13754e-05 1.24297e-05 -0.5934317936 0.6074158708
395297630.0 -0.1025623869 0.1061714067 0.0001155297 -4.6049e-06 0.0003163952 0.0002457127 -0.5863870401 0.6132355967
400297600.0 -0.1013525275 0.1073372614 0.0001971589 5.41093e-05 -5.33304e-05 8.52805e-05 -0.5804899747 0.6190864828
405297570.0 -0.1008430901 0.108039682 0.0002030732 1.99092e-05 6.47221e-05 0.0001101357 -0.574036989 0.6247016228
410297540.0 -0.0999463298 0.1092313524 0.000327764 8.11514e-05 0.0002100401 0.0002934665 -0.5675227415 0.6311440962
415297510.0 -0.0986380245 0.1099746029 1.4773e-05 -1.25371e-05 7.34967e-05 7.10086e-05 -0.5610904387 0.6363556728
420297480.0 -0.098172976 0.1115687309 0.0003008655 -6.98625e-05 0.000222931 0.0001437786 -0.5544659382 0.6422059013
425297450.0 -0.0972041379 0.1124968004 0.0003210703 0.0002919339 0.0002190998 4.7907e-05 -0.547896854 0.6481960743
430297420.0 -0.0964997605 0.1134089546 0.0001543825 9.33532e-05 2.96303e-05 0.0001676599 -0.5415810417 0.6525434651
435297390.0 -0.0956632405 0.1147035543 0.0003119596 0.0001512368 0.0001083813 -4.3808e-05 -0.5337810067 0.6587859594
440297360.0 -0.0947209315 0.1153624514 0.0002005336 1.16047e-05 0.0001105645 0.0001236755 -0.5273038361 0.6638550692
445297330.0 -0.0933254833 0.1166535073 0.0002460497 0.0001240663 2.93027e-05 -7.88209e-05 -0.5204454353 0.668619709
450297300.0 -0.0925639651 0.1174352024 0.0004192906 -0.0001075843 0.0002261663 2.23745e-05 -0.5130067471 0.6740819076
455297270.0 -0.0916448062 0.1184448171 0.000205083 0.0001657514 0.0001947442 0.0001330757 -0.5064929125 0.678671977
460297240.0 -0.0906426721 0.1197590517 0.0001551097 4.59711e-05 0.0001374182 1.86946e-05 -0.4998851694 0.684476858
465297210.0 -0.0896333943 0.1207434389 0.0001277441 0.00012188 0.0001915352 0.0001464803 -0.4922333394 0.6891825423
470297180.0 -0.0885936431 0.1215878855 0.0001418033 0.0002575133 0.0001331401 0.0001216194 -0.4849382731 0.6945688879
475297150.0 -0.0875270384 0.122425362 7.47541e-05 0.0002024199 0.0002074656 9.2226e-06 -0.4775536768 0.6985602612
480297120.0 -0.0863525427 0.1236053914 0.0003878966 8.7316e-06 0.0002411851 0.0001628445 -0.4702127209 0.7037466373
485297090.0 -0.0854226613 0.1245797189 9.95435e-05 1.9918e-06 0.0003641687 9.77402e-05 -0.4634131312 0.7086250703
490297060.0 -0.0847467778 0.1257945069 0.0003539522 0.0001537866 0.0001441793 0.0001514614 -0.4555301657 0.712719809
495297030.0 -0.083269833 0.126352471 0.0002616607 4.91949e-05 0.0001903818 -1.1485e-06 -0.4489845907 0.7177079733
500297000.0 -0.0817910397 0.1275212597 -4.08689e-05 0.0002332274 0.0001820114 6.38061e-05 -0.4413481473 0.7226778049
505296970.0 -0.0808581658 0.1283516026 0.0001653484 0.0001639068 0.0001181078 0.0001192558 -0.4337952129 0.7268643291
510296940.0 -0.0798693238 0.1293982237 0.0004311235 -0.0001789573 1.87714e-05 0.0001796834 -0.4262879623 0.7308321669
515296910.0 -0.0785433669 0.1298352767 0.0002289846 -8.04324e-05 0.0002649501 2.5658e-05 -0.4186737085 0.7352804676
520296880.0 -0.0778218861 0.1309387216 0.0002963338 4.13356e-05 0.0001809881 6.5814e-05 -0.4108758151 0.7394693095
525296850.0 -0.0765615103 0.1318018232 0.0001555335 0.0001727342 0.0001659431 3.27975e-05 -0.4037931423 0.7434423514
530296820.0 -0.0752288503 0.1327538447 5.74205e-05 0.0002066894 0.0001735757 0.0003376756 -0.3967345921 0.7477900169
535296790.0 -0.0743418922 0.1339257737 0.0001800722 0.0001344293 5.91655e-05 -0.0001478932 -0.3894268476 0.7511428092
540296760.0 -0.0731678769 0.1347113781 0.0002506541 1.15438e-05 0.0002607994 -9.84075e-05 -0.3811558032 0.7557839102
545296730.0 -0.0719466129 0.1354913688 0.0002206314 0.0001141315 0.0002056514 -0.0001094346 -0.3735690394 0.7595088587
550296700.0 -0.0701239872 0.1362470172 0.0002466242 6.40917e-05 0.0001742981 0.0002343717 -0.3654024408 0.7632370732
555296670.0 -0.0694337712 0.137018922 9.55954e-05 0.0001340392 0.0001335929 -2.44667e-05 -0.3583815677 0.766916701
560296640.0 -0.0678782846 0.1378979555 0.0001090132 0.000113328 0.0003500334 -1.116e-06 -0.350333297 0.7708215035
565296610.0 -0.0667768778 0.1390170608 0.0002021748 -1.96299e-05 0.0001581373 9.07055e-05 -0.3421979368 0.7742850112
570296580.0 -0.0658831149 0.1395433732 0.0002770306 0.0001311097 5.42098e-05 0.0001958824 -0.3352459607 0.7781144591
575296550.0 -0.0644984999 0.1403805013 0.0002875371 -0.0001324328 0.0002062669 0.0001101779 -0.3271892475 0.781253334
580296520.0 -0.063308785 0.1411674649 0.0003650878 4.93343e-05 -1.35124e-05 5.67237e-05 -0.3179424339 0.7837484846
585296490.0 -0.062088422 0.1418307397 0.0001589014 0.000348702 0.0001576228 9.14757e-05 -0.3107545746 0.7873622755
590296460.0 -0.0604563196 0.1429070563 0.0001093184 -8.55237e-05 4.5022e-05 0.0002787771 -0.3029691154 0.7899907315
595296430.0 -0.0591494163 0.1436259824 2.10731e-05 0.0001741711 0.0001387367 -9.82006e-05 -0.2946944107 0.7924629923
600296400.0 -0.0583141336 0.1443833413 0.0003281844 -7.61335e-05 0.0002423639 0.0001228313 -0.2866139955 0.7955139525
605296370.0 -0.0568539709 0.1448752075 9.248e-05 -2.85522e-05 0.0001847989 8.598e-07 -0.2781459561 0.7984633115
610296340.0 -0.0555264815 0.1456880869 6.50958e-05 2.3685e-05 0.0003467673 -4.24878e-05 -0.2703079236 0.80100787
615296310.0 -0.0539170945 0.1464545562 0.000249871 0.0001105642 0.0001219996 -0.0001445501 -0.2620195229 0.8034708577
620296280.0 -0.0529476594 0.1469552092 0.0005431241 0.0001726042 4.24342e-05 -0.0001530066 -0.2545626367 0.8067265514
625296250.0 -0.0515006535 0.1478792629 0.0002795146 9.63552e-05 0.000149583 -6.28553e-05 -0.2455548958 0.8080993044
630296220.0 -0.0496682153 0.1485758052 0.0002534523 5.43874e-05 0.0002543722 8.89481e-05 -0.2375310937 0.8110478007
635296190.0 -0.0488676176 0.1490041532 6.45549e-05 7.70429e-05 0.0003530278 0.0001127144 -0.2289324043 0.8125326107
640296160.0 -0.0476240784 0.1496212166 0.000196342 3.7407e-06 0.0002394132 8.557e-07 -0.2212540478 0.8155523899
645296130.0 -0.0461224753 0.1507696126 0.0001895539 1.95163e-05 0.0002585001 6.50711e-05 -0.212709936 0.8178226586
650296100.0 -0.0445383989 0.1510431486 0.0002624611 -0.0002181655 0.0002119653 0.0001043807 -0.2047864068 0.8190108805
655296070.0 -0.0433678327 0.1518722443 0.0002922861 -0.0001736974 0.0003320312 -0.0001339416 -0.1958523739 0.821124075
660296040.0 -0.0421472279 0.152438715 0.0001026508 0.0001063701 0.000308687 -0.0001049016 -0.1875451965 0.8233430949
665296010.0 -0.0403060521 0.1526178185 0.0002966109 -0.0002071479 0.0001755979 0.0001403269 -0.1791132332 0.8257726891
670295980.0 -0.0394859863 0.1535373465 0.0002410698 -3.05773e-05 2.31931e-05 0.0001835331 -0.1721506842 0.8269215159
675295950.0 -0.0378672108 0.1541912073 0.0002157844 -6.71144e-05 8.48016e-05 -9.98412e-05 -0.163254387 0.8288656441
680295920.0 -0.0363083849 0.1548207705 0.0004220145 6.45338e-05 0.0002164952 -1.93006e-05 -0.1550954976 0.8313620618
685295890.0 -0.0347198972 0.1554652654 0.0001929049 0.0001327063 0.000252393 1.38188e-05 -0.1456865034 0.8316321763
690295860.0 -0.0333522139 0.1557536834 0.0003905172 -2.48575e-05 0.0003509774 0.0001762532 -0.1381525294 0.8338818479
695295830.0 -0.0320968767 0.1563180531 0.0003377116 4.73239e-05 0.0005806598 -4.87174e-05 -0.1293347023 0.8344485826
700295800.0 -0.030632093 0.1566103524 0.0003510398 0.0001574534 0.0002608742 8.43054e-05 -0.1224971297 0.836384533
705295770.0 -0.0293548456 0.1575236063 0.000480059 -4.13908e-05 0.0002926838 9.75168e-05 -0.1134802399 0.8382603697
710295740.0 -0.0275902762 0.1576047221 0.0002697855 3.57809e-05 0.0001828177 -0.0001546147 -0.1044860834 0.8388032228
715295710.0 -0.0265244523 0.157891288 0.0003790077 -8.87742e-05 7.21386e-05 -4.72966e-05 -0.0956841332 0.8392568734
720295680.0 -0.0250291257 0.1587610316 0.0002425684 -7.13913e-05 0.0001352516 -0.000117209 -0.0880922449 0.8407794595
725295650.0 -0.0233264627 0.1593527528 -1.4049e-05 -0.000189215 0.000108254 -0.000108732 -0.0799256196 0.8419105195
730295620.0 -0.0216121338 0.1595918974 0.0004056027 -7.43959e-05 7.19194e-05 -6.15666e-05 -0.0718271973 0.8426490247
735295590.0 -0.0205348479 0.1599468954 0.000344035 2.02322e-05 0.0002996799 -4.96179e-05 -0.0630172908 0.8426043079
740295560.0 -0.0189080243 0.160695061 0.0003010985 -9.11994e-05 0.0003643525 -8.79829e-05 -0.0538575975 0.8439711876
745295530.0 -0.0176416275 0.1607110986 0.0003405671 -5.9736e-05 0.0002935718 -5.6682e-06 -0.045851426 0.8437850798
750295500.0 -0.0157848233 0.1610486004 0.0001683429 0.0001354685 0.0002545876 2.12371e-05 -0.037729966 0.8447314947
755295470.0 -0.0144584104 0.1612206632 2.57461e-05 9.01899e-05 0.0004343395 0.0001284873 -0.0290831218 0.8438258279
760295440.0 -0.0131264555 0.1617840009 0.0003700906 8.61731e-05 0.0002221309 3.83943e-05 -0.0205718726 0.8440172498
765295410.0 -0.0114860715 0.1623616688 0.0001301754 -0.0001958815 0.0002887747 -5.75861e-05 -0.0121133176 0.8450851574
770295380.0 -0.0102267736 0.1624273865 0.0001525337 -7.89317e-05 0.0002892149 0.0002083148 -0.0039587279 0.844608402
775295350.0 -0.0086975818 0.1625949769 0.0002020224 0.0001049099 0.0005873846 8.16526e-05 0.0041245512 0.8445836641
780295320.0 -0.0071542158 0.1631237394 -6.4154e-06 4.3031e-05 0.0004861178 -0.0001070131 0.0124195836 0.844287974
785295290.0 -0.0059199172 0.1630441352 0.0003058157 -7.20804e-05 0.0005659137 7.57578e-05 0.0209887428 0.843980247
790295260.0 -0.0039314524 0.1634442918 0.0004400577 -1.47407e-05 0.0004803425 -8.39521e-05 0.0298329852 0.8442180326
795295230.0 -0.0025056874 0.1636811218 0.0002549818 -0.0001012732 0.0002384955 -8.9158e-06 0.0393119951 0.8431360488
800295200.0 -0.0009237059 0.1640121473 0.000246375 -1.218e-06 0.0003155863 -3.91535e-05 0.0473495462 0.8430523337
805295170.0 0.0005784024 0.1641872148 0.0003369295 0.0001883508 0.0004897522 -2.81449e-05 0.0549935593 0.842548966
810295140.0 0.002381901 0.1641139166 0.0001092216 0.0002038682 0.0002270391 -3.93899e-05 0.0638032461 0.8415675346
815295110.0 0.0036964188 0.1640337003 0.000346847 -2.75105e-05 0.0001843288 -3.51924e-05 0.0722242402 0.8409066616
820295080.0 0.0051137716 0.1646145636 0.0002939988 -0.0004395377 0.0004252506 -9.89485e-05 0.0804672399 0.8404487751
825295050.0 0.0071922489 0.1645974137 0.0004084757 -0.0001754467 0.000363586 -0.0002553139 0.0888168263 0.8398508044
830295020.0 0.0082520406 0.1648327569 0.0001466461 -0.0001998962 0.0001907345 0.0001178458 0.0979914644 0.8387249609
835294990.0 0.0094908544 0.1650598893 0.0003653385 -9.41053e-05 0.0003927851 -0.0001604747 0.1050000987 0.8376036917
840294960.0 0.0114007245 0.1654055117 0.0001952868 -1.8755e-06 0.0004516388 -7.56213e-05 0.1142002266 0.8363710906
845294930.0 0.0128797128 0.1651779011 0.0003922815 -6.56415e-05 0.0002614167 -0.0001041058 0.1219535632 0.8351287015
850294900.0 0.0145642959 0.1654507972 0.0002792051 -0.0001918411 0.0002387441 -6.82431e-05 0.1303487824 0.8337119725
