!Created with skrf (http://scikit-rf.org).
# Hz S RI R 50.0 
!freq ReS11 ImS11 ReS21 ImS21 ReS12 ImS12 ReS22 ImS22
300000.0 -0.3224403057 -0.0779757114 0.3779707204 0.039647332 0.3733915962 0.0388233304 -0.3202239696 -0.0912625678
5299970.0 -0.3266293238 0.0043113867 0.3782120933 0.0025166074 0.37864112 0.0022045294 -0.3245771067 0.0049401236
10299940.0 -0.3243944085 0.013482924 0.3794220471 0.0021178379 0.3794209089 0.0021136258 -0.3220783096 0.0160705628
15299910.0 -0.3215735941 0.0203166813 0.3819427379 0.0020428495 0.3819624893 0.0023207531 -0.3188768931 0.0236857904
20299880.0 -0.3188220045 0.0261539419 0.3847209054 0.0017667024 0.3847400015 0.0019272699 -0.3154002529 0.0299982238
25299850.0 -0.3157879745 0.031738827 0.3881500706 0.0004198198 0.3880944138 0.0001357467 -0.3112295683 0.0357279498
30299820.0 -0.3130367389 0.0357418279 0.3914204787 -0.0023175009 0.3914059055 -0.0022757798 -0.3075550091 0.0407363639
35299790.0 -0.3097321452 0.0399777609 0.3946434406 -0.0054673286 0.3947658667 -0.0055314413 -0.3038466748 0.045002426
40299760.0 -0.3067543639 0.0436681198 0.3977816751 -0.0087960884 0.3981118779 -0.0089285028 -0.3004328363 0.0480745618
45299730.0 -0.3045544209 0.0466448057 0.400741742 -0.0127797596 0.4010159823 -0.0127888282 -0.2972855105 0.0515452814
50299700.0 -0.3022836162 0.0495872464 0.4035545067 -0.017001521 0.4034725859 -0.0172018574 -0.2941452416 0.054031863
55299670.0 -0.3001294226 0.0520127653 0.4056190772 -0.0222186594 0.4053892523 -0.0218797286 -0.2915133698 0.0568181874
60299640.0 -0.2978145046 0.0550637969 0.40733439 -0.0269430731 0.4077929826 -0.026993298 -0.2890930884 0.0593612799
65299610.0 -0.2962609966 0.0571884926 0.4090717533 -0.0318646913 0.40915094 -0.0318584913 -0.2868964198 0.0615914093
70299580.0 -0.2947184148 0.0597641819 0.4105459534 -0.0368173427 0.4102872281 -0.0370739461 -0.2848753925 0.0637881756
75299550.0 -0.2927177748 0.0621793115 0.4112664743 -0.0420318814 0.4111758997 -0.0423046479 -0.2830229694 0.0658430647
80299520.0 -0.2914560237 0.0647581343 0.4127452237 -0.0471924956 0.4123338212 -0.0473498465 -0.2811388505 0.0676943438
85299490.0 -0.2899951969 0.066541348 0.4125839765 -0.0522655192 0.412886323 -0.0522151415 -0.2799517795 0.0700017251
90299460.0 -0.2886185747 0.0695151157 0.4126911784 -0.0578000595 0.4139027134 -0.0577486575 -0.2783649873 0.072059545
95299430.0 -0.2872359579 0.0714798391 0.4136053379 -0.0629468166 0.4134958349 -0.0629002269 -0.276409858 0.0744053945
100299400.0 -0.2860453199 0.0738056801 0.412711042 -0.0679958978 0.4134579661 -0.0680832081 -0.2751501023 0.0763043411
105299370.0 -0.2850658596 0.0761927425 0.4131340935 -0.0736024955 0.4136645814 -0.0733001039 -0.2736985996 0.0783329281
110299340.0 -0.2838806465 0.0785114806 0.4132908355 -0.0785622778 0.4134463828 -0.0780949379 -0.2728956844 0.0803644218
115299310.0 -0.2827796794 0.0808855246 0.4127820607 -0.083785547 0.412883612 -0.0836015101 -0.2715243572 0.0828049682
120299280.0 -0.281948496 0.0828317641 0.4123960721 -0.0884733822 0.4126665808 -0.0886446041 -0.270495621 0.0847480191
125299250.0 -0.2808394025 0.0854975092 0.4122303058 -0.0936688408 0.4121263559 -0.0936652006 -0.2698417954 0.0865435445
130299220.0 -0.2802795714 0.0879497531 0.4112039683 -0.0989918631 0.4114498131 -0.0989773097 -0.2687532038 0.0888185745
135299190.0 -0.2793272629 0.090876963 0.4107381108 -0.104030166 0.4106558148 -0.1035456164 -0.2675972818 0.0913269006
140299160.0 -0.2784079693 0.0930967348 0.4097287183 -0.1089729148 0.4099412513 -0.1091173316 -0.2663386184 0.0937048906
145299130.0 -0.2775625654 0.0956588409 0.4093407643 -0.1140645198 0.4088710936 -0.1136732754 -0.2659506032 0.0960334087
150299100.0 -0.2762815039 0.0981113729 0.407852347 -0.1184262199 0.4077050087 -0.1183495822 -0.2646771858 0.0986797659
155299070.0 -0.2755570879 0.1007272134 0.4066648399 -0.124176366 0.4068779783 -0.1239472392 -0.2636747457 0.1010615797
160299040.0 -0.2747208032 0.1034313214 0.4054024611 -0.1285251112 0.4053773455 -0.128680924 -0.2629983894 0.1031892124
165299010.0 -0.2737997661 0.1061718839 0.4042416047 -0.1337562997 0.404283533 -0.1334675307 -0.2615183652 0.1058640895
170298980.0 -0.272944287 0.1086070112 0.4027316151 -0.1384004689 0.4030587414 -0.1383456695 -0.2606252101 0.108468713
175298950.0 -0.2717806167 0.11139587 0.401991925 -0.1429132412 0.4013767431 -0.1429538784 -0.2602022157 0.1107656788
180298920.0 -0.2712232222 0.1140011153 0.4003371503 -0.1478736278 0.3999980334 -0.1475766364 -0.2587900352 0.1132997646
185298890.0 -0.2695111406 0.1162730592 0.3983486024 -0.1522769922 0.3985240834 -0.1523191648 -0.2577345651 0.1158090385
190298860.0 -0.2688572673 0.1195778442 0.3971987614 -0.1574914116 0.3971948576 -0.1571077267 -0.2568598375 0.1180586515
195298830.0 -0.267673434 0.1217683574 0.395297668 -0.1617554199 0.3953292415 -0.1618318569 -0.2557179056 0.1206453779
200298800.0 -0.2666667123 0.1243653329 0.3936653247 -0.1664170794 0.3937598652 -0.166764455 -0.2547543238 0.1231082721
205298770.0 -0.2653910525 0.1270892283 0.3912332068 -0.1712150757 0.3917163284 -0.170915935 -0.253558246 0.1252719722
210298740.0 -0.2644692548 0.1297928195 0.3900160835 -0.1752151119 0.3901801009 -0.1755807933 -0.2521253165 0.12827669
215298710.0 -0.2637052683 0.1327248543 0.3883679791 -0.1802281667 0.3879863774 -0.1801249109 -0.2511325285 0.1305885134
220298680.0 -0.2620451841 0.1348518814 0.3856698083 -0.1841140699 0.3860758044 -0.184768314 -0.2501625671 0.1330111899
225298650.0 -0.2609849158 0.1376932068 0.3838600248 -0.1890194071 0.3841647864 -0.1888030528 -0.2493746195 0.1354961153
230298620.0 -0.2595807181 0.1408311218 0.3819179176 -0.1933147031 0.3821951775 -0.1932074898 -0.2477016913 0.1380501421
235298590.0 -0.2581044248 0.1433815898 0.3801372687 -0.1977287181 0.37994761 -0.1973739669 -0.2465499376 0.141030471
240298560.0 -0.2570870037 0.1461134837 0.377675061 -0.2020885658 0.3777049994 -0.2020495247 -0.2450939659 0.1434858907
245298530.0 -0.2559145653 0.149024474 0.3757766576 -0.2064269881 0.3755097918 -0.2064244353 -0.2438107149 0.145638946
250298500.0 -0.2542522798 0.1517653382 0.3731050566 -0.2109934716 0.3730614422 -0.210410421 -0.2428018938 0.1482595913
255298470.0 -0.2530593996 0.1539438985 0.3708247691 -0.2147291802 0.370663797 -0.2148074626 -0.2408120046 0.1509138424
260298440.0 -0.2512677169 0.1568203181 0.368343144 -0.2192337636 0.3687700363 -0.2186339079 -0.2393152236 0.1533834662
265298410.0 -0.2498949134 0.1599278759 0.3658791546 -0.223674085 0.3664416651 -0.2231725927 -0.2381296338 0.1562572925
270298380.0 -0.2485682862 0.1623643442 0.3636401139 -0.2269369692 0.3638271306 -0.2272805662 -0.2367581679 0.1585690656
275298350.0 -0.2469243615 0.1648729985 0.360857886 -0.2316482884 0.3615240805 -0.2312672731 -0.2349354792 0.1613030067
280298320.0 -0.2449749485 0.1677219739 0.3588452779 -0.2357660511 0.3587436519 -0.2352687498 -0.2332902137 0.1637054768
285298290.0 -0.2437008588 0.1704975589 0.3563294135 -0.2396399975 0.3558264489 -0.2396662488 -0.2316681117 0.1663435239
290298260.0 -0.2418371453 0.1730221172 0.3533525157 -0.2436370703 0.3535818553 -0.2434075467 -0.2301228276 0.1688710335
295298230.0 -0.2402915497 0.1753214249 0.3509939113 -0.2476536222 0.350902919 -0.2475080283 -0.2282653498 0.1712440843
300298200.0 -0.2387793616 0.1784968527 0.3480466646 -0.2516836056 0.3482377485 -0.2517758672 -0.2266029101 0.1736335212
305298170.0 -0.2367147697 0.1805785726 0.3452449212 -0.2560138121 0.3453403394 -0.2556930329 -0.2247822016 0.1762500145
310298140.0 -0.2350163487 0.1834857002 0.3425491091 -0.2596858092 0.3427493894 -0.2594947114 -0.223505582 0.1783606539
315298110.0 -0.2329735756 0.1858037147 0.33960447 -0.2634115577 0.3396455624 -0.2634274932 -0.2216182397 0.1810385371
320298080.0 -0.2312767248 0.188087941 0.3363605404 -0.2672723654 0.3366212567 -0.2672342787 -0.219915742 0.1834540587
325298050.0 -0.229499449 0.1907750066 0.3335197452 -0.2715895079 0.3336449135 -0.2711877694 -0.2185603231 0.1855231784
330298020.0 -0.2276822175 0.1929496745 0.330311592 -0.2749454514 0.3306739573 -0.2746606035 -0.2164411222 0.1878949226
335297990.0 -0.2255617932 0.1956484198 0.3268498454 -0.2785025556 0.3271790792 -0.2787583001 -0.2149762326 0.190780343
340297960.0 -0.2242362797 0.1981701211 0.3238691916 -0.2823194665 0.3239664927 -0.2821455267 -0.2127941419 0.1927779807
345297930.0 -0.2224807726 0.2010741211 0.3211063914 -0.2859256886 0.3206621331 -0.2859380203 -0.2111182309 0.1950238562
350297900.0 -0.2201107569 0.2030357514 0.3170472945 -0.28963829 0.3176323723 -0.2894757111 -0.2092940586 0.1979955634
355297870.0 -0.2178656356 0.2057681234 0.3140631496 -0.2927911082 0.3145728455 -0.2925820248 -0.2073657714 0.2000123556
360297840.0 -0.2161685204 0.2082234474 0.3115256025 -0.2961122528 0.3112465526 -0.2959862351 -0.2056689333 0.2024868069
365297810.0 -0.2143588983 0.2109269113 0.3080548938 -0.2997328935 0.3079682917 -0.2994988265 -0.2032438831 0.2046778952
370297780.0 -0.2118155602 0.2130827195 0.3041792708 -0.3028863078 0.3045193911 -0.3028414137 -0.2009483826 0.2070720381
375297750.0 -0.2095084312 0.2156672544 0.3011047927 -0.3062436289 0.3013666917 -0.3064781892 -0.1993140941 0.2092832992
380297720.0 -0.207388807 0.2179067593 0.2976502139 -0.309809725 0.2978530555 -0.3091318079 -0.1973188064 0.2113657078
385297690.0 -0.2055636692 0.2202343871 0.2941667661 -0.3125195071 0.2940132017 -0.3127607007 -0.1945721584 0.2138351675
390297660.0 -0.2034313959 0.2222910324 0.2909240284 -0.3159787645 0.2907558395 -0.3158555638 -0.1928300369 0.2160531941
395297630.0 -0.2010128087 0.2249541535 0.2874421132 -0.3192867558 0.2873669567 -0.3193142103 -0.1900044032 0.2184073669
400297600.0 -0.1984047679 0.2272059782 0.2832349473 -0.3226020796 0.2839655718 -0.3225668947 -0.1881636452 0.2206401179
405297570.0 -0.1963049188 0.2292870093 0.2799815751 -0.3251581343 0.2802263 -0.3254811675 -0.1862788377 0.2225933365
410297540.0 -0.1941186439 0.2316770481 0.2766853461 -0.3287811499 0.276818899 -0.3287037662 -0.1835631715 0.2250412157
415297510.0 -0.191335563 0.2334603435 0.2725194632 -0.3314827411 0.2730569773 -0.3314269325 -0.1815553609 0.2268028506
420297480.0 -0.1893650606 0.2361578568 0.2690022511 -0.3345839069 0.2693104899 -0.334796876 -0.1794068614 0.2291577774
425297450.0 -0.1865946003 0.2380282104 0.2658051449 -0.3370400483 0.2657396671 -0.3373773487 -0.1767807036 0.2310346382
430297420.0 -0.1842105002 0.2399695052 0.2621467282 -0.3399250433 0.2619380086 -0.3399260314 -0.174791416 0.2330419323
435297390.0 -0.1817868885 0.2423505662 0.2575401344 -0.342859737 0.2575961827 -0.3430744825 -0.1714948292 0.2351066833
440297360.0 -0.1792059501 0.2442931478 0.2541320893 -0.345502097 0.2542497929 -0.345676547 -0.1694675858 0.2372056005
445297330.0 -0.1767818061 0.2462751407 0.2507998324 -0.3484592386 0.2504624516 -0.3483293086 -0.1672396714 0.2387278043
450297300.0 -0.1741413975 0.2484256115 0.2464457887 -0.3514872522 0.2463866085 -0.3516270446 -0.1647395022 0.2407268533
455297270.0 -0.1718033406 0.2505958657 0.2424641889 -0.3537969211 0.2430129735 -0.3537878162 -0.1623400094 0.2427707619
460297240.0 -0.169150249 0.2522023865 0.2385249797 -0.3562142995 0.2389217844 -0.3565025545 -0.1598717304 0.2449536236
465297210.0 -0.1661021722 0.254450382 0.2350001015 -0.3590461326 0.2348173967 -0.3593879399 -0.157027575 0.2464627092
470297180.0 -0.1631921149 0.2562435931 0.2305325512 -0.3617667439 0.2307970787 -0.3617793243 -0.1545063287 0.2485280156
475297150.0 -0.1612280722 0.2577537424 0.2264588199 -0.3636865716 0.2270468365 -0.3638208322 -0.1515346031 0.2499386935
480297120.0 -0.1582433215 0.2602904536 0.2228668125 -0.3667553014 0.2227040125 -0.3667065857 -0.1488888724 0.2517359595
485297090.0 -0.1556132414 0.2617948411 0.2186376782 -0.3688092866 0.2188380973 -0.3687973439 -0.1462816871 0.2534330389
490297060.0 -0.1531802938 0.2638703012 0.2150016837 -0.371236097 0.2148103506 -0.3713823895 -0.143724955 0.2554005876
495297030.0 -0.1503415101 0.265321122 0.2104093263 -0.3732091757 0.2110487803 -0.3733288547 -0.1416622161 0.2569938035
500297000.0 -0.1471632971 0.2673206411 0.2061794275 -0.3754454951 0.2063389448 -0.375418664 -0.1386137226 0.2592441656
505296970.0 -0.1443889794 0.2687734788 0.2023065603 -0.3777127713 0.2020547128 -0.3779892507 -0.1358807696 0.2602517811
510296940.0 -0.1416967243 0.2706423858 0.1980178027 -0.380134482 0.1981009292 -0.3802989662 -0.1332892166 0.2616558247
515296910.0 -0.1389050333 0.2721862717 0.1938280443 -0.3825006016 0.1939529762 -0.3821876164 -0.1306447499 0.2633587793
520296880.0 -0.1363332857 0.2739652783 0.1899244868 -0.3844195247 0.1900331631 -0.3841841737 -0.1278191337 0.2648740645
525296850.0 -0.1329411239 0.2748670863 0.1853713258 -0.3863572691 0.1860060249 -0.3863644432 -0.1250797757 0.2665794014
530296820.0 -0.1303456059 0.2768211838 0.1813357737 -0.3885576867 0.181207961 -0.3885630099 -0.1220363369 0.2681476324
535296790.0 -0.1277972808 0.278043321 0.1774346668 -0.3899342019 0.1771090888 -0.38987239 -0.1195400131 0.2690816051
540296760.0 -0.1248968275 0.2799200669 0.1730073134 -0.3926059494 0.1729510709 -0.392164367 -0.1167874901 0.2709815087
545296730.0 -0.1220531691 0.2813926838 0.1682923235 -0.3936743534 0.168463843 -0.3940106023 -0.1138864272 0.2719958818
550296700.0 -0.118997357 0.2827217922 0.1643367582 -0.395486984 0.1644661983 -0.3956387191 -0.1110744775 0.2732962834
555296670.0 -0.1158895459 0.2838754512 0.1600686121 -0.3972033356 0.1602896987 -0.397287938 -0.1081267221 0.2750454997
560296640.0 -0.1126700507 0.2855531662 0.1553046427 -0.3993511286 0.1557758157 -0.3993435244 -0.1052306363 0.2763173015
565296610.0 -0.1097858692 0.2866880919 0.1510766694 -0.4006569063 0.1512903286 -0.400424835 -0.1021121024 0.2770658995
570296580.0 -0.107396794 0.2876751782 0.1471414357 -0.4026979835 0.1465346303 -0.4026465293 -0.099715996 0.2789707007
575296550.0 -0.1040212419 0.2893663944 0.1424896721 -0.4039462705 0.1421412101 -0.4040702057 -0.0962740041 0.2799525593
580296520.0 -0.1009224491 0.2906553196 0.1378741843 -0.4058384778 0.1379241205 -0.4055742421 -0.0931597849 0.2812927234
585296490.0 -0.097958127 0.2913610808 0.1337860168 -0.406555612 0.1337835526 -0.4070552461 -0.0903285369 0.2823214611
590296460.0 -0.0947140031 0.2929814969 0.1290738192 -0.4078933544 0.1292077468 -0.4082060146 -0.0877625425 0.2832953526
595296430.0 -0.0916535976 0.2939906752 0.1242443048 -0.4097260815 0.1243026992 -0.4095387922 -0.0845493959 0.283849549
600296400.0 -0.0886817944 0.2951892816 0.1201868246 -0.4110775215 0.1203740055 -0.4107648783 -0.0818880527 0.2849657009
605296370.0 -0.0860328003 0.2963200955 0.1157145021 -0.4122170295 0.1160342027 -0.4121862985 -0.0784458343 0.286276685
610296340.0 -0.0824848875 0.2971271416 0.1110799872 -0.413169653 0.1114046369 -0.4132629706 -0.075495292 0.2872656504
615296310.0 -0.0792948152 0.2980901608 0.1065515921 -0.4141928436 0.1066907194 -0.4148419662 -0.0722541591 0.2879902204
620296280.0 -0.0763231382 0.2987568238 0.1020782291 -0.4151418458 0.1025785857 -0.4152752367 -0.0697388534 0.2891113563
625296250.0 -0.0730748053 0.2996105523 0.0978778602 -0.4163039968 0.0978891726 -0.4167742428 -0.0662371893 0.2898425649
630296220.0 -0.0696503418 0.3008347455 0.0925272712 -0.4178216219 0.0932370866 -0.4173634576 -0.0634903865 0.2912380588
635296190.0 -0.0671544145 0.3019614068 0.0887669031 -0.4186620133 0.0884340604 -0.4183055034 -0.0603714539 0.2916930493
640296160.0 -0.0637750999 0.302714473 0.0842254239 -0.4193179541 0.0843154144 -0.4194788004 -0.0571873382 0.2926208115
645296130.0 -0.0605262371 0.3039505987 0.0794829045 -0.4198233769 0.0800203641 -0.4203369401 -0.0541993091 0.2937407764
650296100.0 -0.0572051174 0.3044702463 0.0749108448 -0.4208707388 0.0751502231 -0.42073144 -0.0507392534 0.2936339186
655296070.0 -0.0543268786 0.304728822 0.0703280543 -0.4216200968 0.0702156786 -0.421712244 -0.0478226477 0.2946451526
660296040.0 -0.0510839083 0.3055131368 0.0658578483 -0.4223261983 0.065826889 -0.4224714273 -0.0444805781 0.2951561868
665296010.0 -0.0475699594 0.3059495294 0.0606144868 -0.422842648 0.0611898021 -0.4230009689 -0.0414931229 0.2962206058
670295980.0 -0.0450329359 0.3068374988 0.0564716517 -0.4234566214 0.0567352732 -0.423613328 -0.0389497877 0.2967180654
675295950.0 -0.0413690977 0.3076192925 0.0519340783 -0.4238161646 0.052043972 -0.4237642344 -0.0359580185 0.2971998926
680295920.0 -0.038344056 0.3081846431 0.047130175 -0.4245613678 0.0470134598 -0.424736573 -0.0325496022 0.2982034765
685295890.0 -0.0349804347 0.308852356 0.0424333008 -0.4253313934 0.0429680867 -0.4254143926 -0.0294146726 0.2984845644
690295860.0 -0.0315743975 0.3090514099 0.0381051101 -0.4250468959 0.0383860975 -0.425823947 -0.0266820736 0.299297285
695295830.0 -0.0285485207 0.3094613018 0.0336749605 -0.4257204112 0.0335506123 -0.4257363629 -0.0229789764 0.2993667974
700295800.0 -0.0253051183 0.3098194371 0.0288115861 -0.425836365 0.0287384595 -0.4258923784 -0.0205529411 0.2999923993
705295770.0 -0.0223009816 0.310710023 0.0240643659 -0.4266178087 0.0248120432 -0.4264963818 -0.0171489396 0.3005286724
710295740.0 -0.0187535642 0.3107817841 0.0195562573 -0.4268711168 0.0197122401 -0.4265579509 -0.0137396809 0.2999292396
715295710.0 -0.015861472 0.3108550841 0.0154211739 -0.4264496143 0.0150783563 -0.4266415068 -0.0105663091 0.3006392591
720295680.0 -0.0123072384 0.3113762876 0.010340476 -0.4272551549 0.0105190121 -0.4269779246 -0.0072556403 0.301019241
725295650.0 -0.0089886571 0.3115673296 0.0055243281 -0.4265264668 0.0059527809 -0.427032244 -0.0043461678 0.3013002917
730295620.0 -0.0054751122 0.3120930539 0.0010171023 -0.4265700807 0.0013344303 -0.4271519146 -0.0013651294 0.3013198344
735295590.0 -0.0027148233 0.3120672079 -0.0032197774 -0.4270456131 -0.0035025292 -0.4269462771 0.0016949183 0.3012883597
740295560.0 0.000585245 0.3124391647 -0.0080097132 -0.4265336276 -0.0082680421 -0.4270939501 0.0055910749 0.3019340896
745295530.0 0.0039480925 0.3125428518 -0.0128700534 -0.4261619768 -0.0126537427 -0.4266499774 0.0085026834 0.3017783447
750295500.0 0.0073864357 0.3125371342 -0.0175898114 -0.4263118687 -0.0169115833 -0.4265828634 0.0114960644 0.3015553814
755295470.0 0.0104544716 0.3121640978 -0.0215837181 -0.4259377193 -0.0219038612 -0.4261997545 0.0150703628 0.301007814
760295440.0 0.0134510775 0.3124416465 -0.0262115856 -0.4262847057 -0.0263124286 -0.4263233845 0.0179007369 0.3012672398
765295410.0 0.0170345176 0.3127705492 -0.0310377326 -0.4254817142 -0.0313179505 -0.4255917486 0.0211059995 0.301643877
770295380.0 0.0200373357 0.3124739699 -0.0358631243 -0.4251564037 -0.0358352024 -0.4249938457 0.0242878147 0.3015709662
775295350.0 0.0230301712 0.3122913816 -0.0401747372 -0.4244120717 -0.0400000609 -0.424376588 0.0268156617 0.3012288743
780295320.0 0.0266783783 0.3121936945 -0.0447663315 -0.4240300827 -0.0444341372 -0.4241657266 0.0306196289 0.3011038167
785295290.0 0.0294514776 0.3115911818 -0.0496921677 -0.4230544054 -0.0491522166 -0.4238775292 0.0341533234 0.3008208574
790295260.0 0.0333408549 0.3118653686 -0.0536248664 -0.4230120056 -0.0533177142 -0.4229548078 0.037191761 0.3007182522
795295230.0 0.0364236973 0.3115666253 -0.0587059235 -0.4220488853 -0.05829869 -0.4224145636 0.0407993382 0.3004720334
800295200.0 0.0398027503 0.3114158293 -0.0632688273 -0.421583048 -0.0629346906 -0.4214350041 0.0436013106 0.3005702023
805295170.0 0.0430188265 0.3109827928 -0.0678912412 -0.4207397796 -0.0678275465 -0.4209842264 0.0465394258 0.3002541208
810295140.0 0.0460454079 0.3103529959 -0.0718117225 -0.4200042554 -0.0719277426 -0.4203302688 0.0500078803 0.2998610742
815295110.0 0.0493569547 0.3100053751 -0.0767597654 -0.4190673592 -0.0764265802 -0.4195125241 0.0529898088 0.2996652437
820295080.0 0.0525757393 0.3103503392 -0.0811628598 -0.4182199447 -0.0806879382 -0.418150522 0.0561944778 0.2989042044
825295050.0 0.0561142725 0.3092820336 -0.0850446805 -0.4169671636 -0.0856354842 -0.4174845905 0.0594957783 0.2987629728
830295020.0 0.0593137401 0.3089517361 -0.0903201698 -0.4163042764 -0.0900072312 -0.4164584814 0.0631654047 0.2981031957
