!Created with skrf (http://scikit-rf.org).
# Hz S RI R 50.0 
!freq ReS11 ImS11 ReS21 ImS21 ReS12 ImS12 ReS22 ImS22
300000.0 -0.770702562 -0.1615480158 -0.0002342293 -1.16594e-05 -0.0004697739 6.71592e-05 0.8602509016 -0.0022833392
5299970.0 -0.7851435527 -0.0078479637 -2.93917e-05 3.87005e-05 -0.0001540622 0.0001683362 0.8587077419 -0.0105156449
10299940.0 -0.787903045 -0.0038653075 -1.73411e-05 7.3449e-06 -0.0001329186 -1.32914e-05 0.8582641946 -0.0186755193
15299910.0 -0.7935323416 -0.0015326139 0.0002234604 3.9817e-06 -2.70814e-05 0.0001936627 0.8570566772 -0.0272800125
20299880.0 -0.7999018048 0.0024136202 -3.04269e-05 -8.82219e-05 -0.0001084229 -6.5143e-06 0.8568087706 -0.0363278574
25299850.0 -0.8066598563 0.00850178 0.000155584 -2.06701e-05 -3.10358e-05 0.0001382285 0.8553194664 -0.0438890211
30299820.0 -0.8116584813 0.0162220247 -0.0001092119 8.01748e-05 -0.0001536956 7.3054e-05 0.8547320823 -0.0522779673
35299790.0 -0.816746528 0.025070933 -1.88045e-05 -0.0001129676 0.0001071774 -2.64629e-05 0.8537557528 -0.0601862777
40299760.0 -0.8212997416 0.0345233906 0.0001223337 0.0001610822 5.18252e-05 0.0002463024 0.8538341081 -0.0689384802
45299730.0 -0.8251421826 0.044307948 -1.2165e-06 4.22774e-05 -4.53807e-05 -0.0001500948 0.8529410842 -0.0767961027
50299700.0 -0.8267844986 0.0538071973 3.40826e-05 -1.40588e-05 0.0001163802 -4.87912e-05 0.8512335542 -0.0855102913
55299670.0 -0.8288097726 0.0642477788 7.9709e-05 2.96202e-05 -5.45964e-05 -9.47751e-05 0.850431773 -0.0935472875
60299640.0 -0.8301415131 0.074644864 6.23405e-05 5.14421e-05 3.12897e-05 -0.0001156665 0.8498552143 -0.1016373082
65299610.0 -0.8312885961 0.0846160001 0.0001207877 2.25632e-05 3.4704e-06 -1.66921e-05 0.8485384062 -0.1102021159
70299580.0 -0.8312291743 0.0944968256 -8.62431e-05 2.08901e-05 -8.60445e-05 0.0001974838 0.8474697533 -0.1184373529
75299550.0 -0.8313399313 0.1046455493 0.0001235882 -0.0001059809 1.97775e-05 -0.0001311527 0.8469181555 -0.1262360128
80299520.0 -0.8314331427 0.1144270781 -0.000141551 -0.000114683 6.44573e-05 -5.36406e-05 0.8449564758 -0.1342305765
85299490.0 -0.8307831652 0.1244228911 -3.54826e-05 8.28115e-05 0.0001986786 -0.000120312 0.843896491 -0.1427618189
90299460.0 -0.8298989612 0.1339502146 0.0001145914 -4.10388e-05 5.01726e-05 -2.23578e-05 0.842434885 -0.1513470029
95299430.0 -0.8291114794 0.1438242609 0.0001140801 -0.0001222106 -5.74666e-05 -2.64153e-05 0.8402124027 -0.1592615196
100299400.0 -0.8279308456 0.1529660758 5.04726e-05 0.0001177897 -9.85828e-05 4.79645e-05 0.8384034485 -0.1672794911
105299370.0 -0.8267156905 0.1624916279 -0.0001307416 3.67273e-05 0.0001461716 0.0001975618 0.8369074695 -0.175845937
110299340.0 -0.8254369931 0.1708695883 2.85169e-05 0.000201615 0.0002101086 0.0001773738 0.8350671983 -0.1836439588
115299310.0 -0.8239892248 0.1805254919 1.05453e-05 -8.2877e-06 -0.0001712955 0.0001103602 0.8332475121 -0.1918907826
120299280.0 -0.8218471557 0.1896964802 0.000227305 0.0001094829 6.18524e-05 0.0001228458 0.831015354 -0.2002699758
125299250.0 -0.8205171607 0.1985421784 -0.0001633744 -1.19568e-05 1.2189e-05 0.0002108781 0.8292246587 -0.2087055112
130299220.0 -0.8187185819 0.2075898999 0.0002073336 0.0001025977 -0.0001071636 -0.0002270119 0.8269350641 -0.21584917
135299190.0 -0.8165485918 0.2163272519 -0.0001487134 -9.88549e-05 4.68515e-05 -5.79449e-05 0.8249310019 -0.2242600072
140299160.0 -0.815133697 0.225724446 -3.71488e-05 5.91879e-05 -1.3384e-05 -0.00020193 0.8225566838 -0.2324707061
145299130.0 -0.8121420466 0.2339359458 0.0001482345 -5.47706e-05 1.6184e-05 -5.90749e-05 0.8200233729 -0.2402995889
150299100.0 -0.8101073767 0.2433871993 0.0001194329 -0.0001112587 1.03672e-05 -1.33373e-05 0.8175716552 -0.2488653552
155299070.0 -0.8079293317 0.2523611951 0.0001851176 0.0001055573 2.43362e-05 -0.0002152653 0.8151795469 -0.2564674228
160299040.0 -0.8051230464 0.2610684508 0.000150718 -5.16114e-05 -0.0001226647 -0.000130887 0.8127847595 -0.2645349077
165299010.0 -0.8021259237 0.2693942734 0.0001535142 -9.41024e-05 7.39675e-05 5.3766e-06 0.8107276061 -0.2725306652
170298980.0 -0.7996077329 0.2780387002 -5.75519e-05 -3.38409e-05 -0.0001393455 2.83645e-05 0.8070210679 -0.2800510544
175298950.0 -0.7963948835 0.2875220969 -0.0001213436 0.0001087569 -1.47201e-05 -0.0001295569 0.804716614 -0.2883861065
180298920.0 -0.7935434138 0.2953497317 -2.52193e-05 -6.94018e-05 4.27563e-05 -9.94692e-05 0.8015243243 -0.296153027
185298890.0 -0.7909476436 0.3045614066 -6.94908e-05 9.93458e-05 -0.0001289214 0.0001949722 0.7986269292 -0.3042653361
190298860.0 -0.787867537 0.3127834542 7.99629e-05 4.07496e-05 -7.78028e-05 5.48518e-05 0.79631588 -0.3115762762
195298830.0 -0.7838221924 0.320972901 -2.65177e-05 5.73818e-05 -6.93435e-05 0.0002099655 0.7928789331 -0.3191509816
200298800.0 -0.7804921147 0.3292829732 0.0002362297 0.0001446239 -0.0001618854 4.2368e-05 0.7899257532 -0.327362446
205298770.0 -0.7771500946 0.3374810552 -1.29987e-05 -1.30904e-05 -8.72994e-05 -5.2549e-05 0.7865233698 -0.3346349041
210298740.0 -0.7731991113 0.3460487968 -2.93333e-05 -5.52778e-05 -8.01996e-05 -1.54578e-05 0.7833331153 -0.3425233047
215298710.0 -0.7705184322 0.3543632139 3.90803e-05 -7.69211e-05 -1.78699e-05 -0.0001280001 0.7796834173 -0.3499659175
220298680.0 -0.7673491466 0.3626352814 0.0001803188 -0.0001255366 0.0001432739 9.90711e-05 0.7767645389 -0.3575406774
225298650.0 -0.762825659 0.3706641751 -0.0001200158 0.0001399002 -5.32253e-05 5.67252e-05 0.7723519952 -0.3654049745
230298620.0 -0.7585708025 0.379142827 4.90238e-05 0.0001811091 4.6621e-05 -0.0001764182 0.7691630183 -0.373046269
235298590.0 -0.7545129136 0.3874950235 -1.06716e-05 -0.0001109747 -9.21557e-05 1.7797e-06 0.7659297244 -0.380075919
240298560.0 -0.7509836758 0.3955075198 -6.97642e-05 5.79441e-05 0.0001097319 -8.04281e-05 0.7620752194 -0.3875788162
245298530.0 -0.7463880118 0.4030321239 0.0001011032 -1.78993e-05 -0.000195237 9.9792e-05 0.7582751664 -0.3949999172
250298500.0 -0.7420933476 0.4105555151 4.54946e-05 -3.1459e-06 -0.0001790249 4.66165e-05 0.7544563115 -0.4022986299
255298470.0 -0.7379917439 0.4187231988 -0.0002161645 -6.44514e-05 8.75387e-05 -4.17854e-05 0.7508990496 -0.4095002205
260298440.0 -0.7337893869 0.4260190484 -2.92437e-05 -2.99846e-05 0.000160334 -9.25512e-05 0.7463695654 -0.4166006708
265298410.0 -0.7293899483 0.4342632719 -8.28397e-05 5.32274e-05 7.2663e-05 -9.72065e-05 0.7431253756 -0.4241253324
270298380.0 -0.7245818551 0.4413303381 -3.8999e-05 0.0001607926 -0.0001323263 0.0001187637 0.7391801649 -0.4309485234
275298350.0 -0.7193871137 0.4491693228 5.9492e-05 2.83378e-05 6.98168e-05 0.0001006621 0.7342382893 -0.4379198086
280298320.0 -0.7154804814 0.4567118653 -2.25762e-05 -5.90929e-05 -7.30042e-05 3.15848e-05 0.7311527054 -0.4453463627
285298290.0 -0.7101592588 0.4649908557 -7.27335e-05 -0.0002090875 -0.0001290902 -0.0001249724 0.7265031222 -0.4523094288
290298260.0 -0.7051996089 0.4715322695 7.09608e-05 0.0001218654 -0.0001842382 1.67722e-05 0.7224993661 -0.4592782897
295298230.0 -0.7003737509 0.4794373877 -0.0002648335 7.48822e-05 0.000172223 3.72198e-05 0.7180171598 -0.465995289
300298200.0 -0.6950272355 0.4863232653 9.5969e-06 9.24026e-05 0.0001516993 0.0001598232 0.7136013562 -0.4738202638
305298170.0 -0.6901236385 0.4941230927 -2.8687e-06 7.12858e-05 7.99499e-05 -7.75563e-05 0.7100139081 -0.4798244459
310298140.0 -0.6846702535 0.5011264585 -0.0001816618 -1.49195e-05 2.04333e-05 5.4743e-06 0.7054415027 -0.4869463539
315298110.0 -0.6793423389 0.5076998985 2.56826e-05 0.0001203396 -7.904e-06 0.0002438742 0.7005232242 -0.4944708043
320298080.0 -0.6739878798 0.5160927055 1.1753e-05 -4.80622e-05 -0.0001750748 9.67718e-05 0.6963084266 -0.5020890654
325298050.0 -0.6680868461 0.5225742139 1.2975e-06 -9.55469e-05 -2.35363e-05 0.0001685761 0.6904064001 -0.5095415613
330298020.0 -0.6629406774 0.5297766586 5.43415e-05 -0.0001451821 -4.86846e-05 -0.0001876245 0.6856039276 -0.5169917179
335297990.0 -0.6571719872 0.536814738 4.99596e-05 0.0003030864 6.3213e-05 -6.55504e-05 0.6798433881 -0.5235005413
340297960.0 -0.6519737807 0.5430924359 -5.82347e-05 6.46302e-05 4.54533e-05 0.0001735448 0.6741479991 -0.5296920008
345297930.0 -0.6459072311 0.5488647129 4.57492e-05 0.0001131766 -5.8772e-05 -8.4355e-06 0.6683287351 -0.5354856709
350297900.0 -0.6403242181 0.5561338352 5.18542e-05 2.7822e-06 9.55465e-05 -4.11874e-05 0.6629470402 -0.5413580029
355297870.0 -0.6344475117 0.5627545697 -3.92438e-05 0.0001924613 9.74274e-05 -6.9998e-05 0.6570493149 -0.547844792
360297840.0 -0.6282661032 0.5691876961 2.02851e-05 0.0001131347 -3.85507e-05 1.07234e-05 0.6516141586 -0.553786182
365297810.0 -0.6218092683 0.5754454463 6.51599e-05 -9.37755e-05 -3.11663e-05 -1.88137e-05 0.646379964 -0.5602446526
370297780.0 -0.6166276737 0.581688815 9.31992e-05 -9.92905e-05 0.0001379757 0.000115858 0.6407583448 -0.5661046893
375297750.0 -0.6099728533 0.5882673639 -0.0001387405 -2.94001e-05 -2.75439e-05 0.0001383123 0.6352253893 -0.5726008041
380297720.0 -0.6041143418 0.5946355416 -0.0001185888 -8.71506e-05 -9.68813e-05 7.91985e-05 0.6295831947 -0.5777828446
385297690.0 -0.5981711858 0.6006774863 -9.93727e-05 -3.3623e-06 -6.04077e-05 9.85737e-05 0.623894032 -0.583417832
390297660.0 -0.5916092852 0.6071172682 2.041e-06 -9.15709e-05 -3.5481e-05 -0.0001684078 0.6187120912 -0.5898463702
395297630.0 -0.5850696653 0.6133191008 0.0001138403 1.57714e-05 0.0001488517 2.6863e-05 0.6125125833 -0.5955449687
400297600.0 -0.5787600105 0.6193365082 2.39008e-05 -0.0002015684 -0.0001402342 0.0001608413 0.6063998116 -0.6012274372
405297570.0 -0.5718485858 0.6254277044 -0.0001675608 0.0001477868 -4.8629e-06 -1.49068e-05 0.6008429897 -0.6065449403
410297540.0 -0.5657032163 0.6307198874 8.27778e-05 -8.75443e-05 -0.0001732157 -5.44463e-05 0.5948400006 -0.6126214077
415297510.0 -0.559137066 0.6364308806 0.0001604672 -0.0001029216 -0.0001637917 5.35255e-05 0.5885103657 -0.6180555479
420297480.0 -0.551649517 0.6428087606 7.87202e-05 6.76675e-05 0.0001688642 1.79014e-05 0.5827390188 -0.6242879822
425297450.0 -0.5455885307 0.6482980416 -6.51038e-05 -9.69849e-05 -0.0001041064 5.29409e-05 0.5762062654 -0.628937547
430297420.0 -0.5393180352 0.6532318824 -0.0001202047 0.0001060297 -1.55474e-05 -3.59473e-05 0.5707463595 -0.6348441559
435297390.0 -0.5314799264 0.6589223545 -8.7143e-06 -0.0001247769 0.0002765309 0.000280464 0.5644289744 -0.6397615561
440297360.0 -0.5254166181 0.6642414471 -0.0002509158 -8.55896e-05 -2.81138e-05 0.0001483188 0.5578868158 -0.6463566514
445297330.0 -0.5185479965 0.6701139134 9.286e-06 -2.48854e-05 -2.0918e-05 -0.0001228079 0.5513630264 -0.6514737976
450297300.0 -0.5110485891 0.6747384053 -1.75375e-05 -7.36911e-05 -1.52182e-05 4.02529e-05 0.5448161403 -0.6568327491
455297270.0 -0.5047315642 0.6802907057 8.89506e-05 -1.26365e-05 -0.0001269911 -6.65279e-05 0.5383568535 -0.6621374643
460297240.0 -0.4976681388 0.6853919385 -6.68395e-05 -9.21234e-05 -2.25458e-05 9.66634e-05 0.5319832091 -0.6665613564
465297210.0 -0.4900908668 0.6904639574 0.0001134138 -1.75035e-05 -7.20836e-05 3.82595e-05 0.5252121328 -0.6720642588
470297180.0 -0.48316593 0.6943499532 1.72105e-05 -2.4643e-05 0.0001599227 0.0002119748 0.5184723252 -0.6772572615
475297150.0 -0.4756406532 0.7004138087 -0.0001141839 -6.50643e-05 3.4258e-06 3.80617e-05 0.5116989849 -0.6815624789
480297120.0 -0.4685633529 0.7043620435 -5.60469e-05 -6.47854e-05 5.8705e-06 -0.0002084556 0.5048186976 -0.6866857118
485297090.0 -0.4615703883 0.7098659395 -2.37694e-05 0.0001759689 7.72272e-05 -2.35594e-05 0.4983787114 -0.6917386018
490297060.0 -0.4533696976 0.7142608427 -0.0001050238 -6.73323e-05 -8.2915e-05 -2.56738e-05 0.4916106572 -0.6970403946
495297030.0 -0.4474680183 0.7191160792 -0.0001802191 -0.0001447961 0.0001393546 -0.0001529968 0.4850466271 -0.7013776683
500297000.0 -0.4385920228 0.723539142 -1.44552e-05 0.00012181 -0.000193401 -0.0002572856 0.4767772225 -0.7060771672
505296970.0 -0.4309354697 0.7272484721 0.0001276541 0.0001337197 -0.0001064761 6.083e-06 0.4697903964 -0.7109838136
510296940.0 -0.4242453208 0.7319785345 8.14887e-05 0.0001733421 6.54391e-05 -0.0001976898 0.4630425078 -0.7148037004
515296910.0 -0.4170171796 0.7364995242 -0.0001403635 7.21471e-05 -7.37096e-05 8.66808e-05 0.4555696904 -0.7193390841
520296880.0 -0.4093118959 0.740512531 -3.62147e-05 -2.14621e-05 6.92381e-05 0.0001716479 0.4496379961 -0.7239450684
525296850.0 -0.4015281726 0.7443937655 0.0001452927 -6.92001e-05 0.0003134521 -8.30424e-05 0.4416959129 -0.7281981967
530296820.0 -0.3938358262 0.7484688669 0.0001419649 -0.0001539392 0.0001700257 9.12877e-05 0.4343323198 -0.7327574882
535296790.0 -0.3860541299 0.7523582736 0.0002245561 -0.0002485443 0.0001059046 5.68416e-05 0.427077063 -0.737706772
540296760.0 -0.3782709315 0.7566365385 1.99296e-05 0.0002072099 9.71788e-05 9.74789e-05 0.4191571886 -0.7406587237
545296730.0 -0.3713066295 0.7598993225 6.4819e-05 7.3798e-05 3.37125e-05 -7.17173e-05 0.4121079389 -0.7451735969
550296700.0 -0.3633548758 0.7635869787 -5.2989e-05 0.0001916058 0.0003114125 8.95219e-05 0.4050295173 -0.7497296683
555296670.0 -0.3545153481 0.7671900879 -5.34656e-05 0.000127473 8.55457e-05 -0.0001297862 0.3969297179 -0.7524217033
560296640.0 -0.3474868888 0.7706133902 -8.719e-06 0.0001121626 -6.15775e-05 5.4094e-06 0.3895172781 -0.7570746358
565296610.0 -0.3395844166 0.7740328241 -3.88975e-05 -2.74809e-05 5.16506e-05 9.8278e-06 0.3823348633 -0.7608182004
570296580.0 -0.3319573276 0.7771020501 4.75154e-05 0.0001576385 1.3984e-06 -5.67021e-05 0.3745666966 -0.7640811988
575296550.0 -0.3243318651 0.780847339 0.0002400314 -8.79669e-05 -6.681e-07 -3.8305e-06 0.3667087012 -0.7678133062
580296520.0 -0.3155049634 0.784436796 0.0001816701 -0.0003512722 -9.54099e-05 7.16403e-05 0.3587692087 -0.7711368492
585296490.0 -0.3073377578 0.7865207707 -0.0001331447 1.07654e-05 0.000239162 1.69085e-05 0.351726135 -0.7752274333
590296460.0 -0.2992124284 0.7897756728 5.88777e-05 -1.18332e-05 1.82881e-05 6.39226e-05 0.3437272275 -0.7777980144
595296430.0 -0.2911112827 0.7940461413 3.95736e-05 0.0002198625 -0.0001230008 -3.91432e-05 0.3354782827 -0.7807149166
600296400.0 -0.2832706235 0.7955754343 -3.38511e-05 6.16864e-05 0.0001442084 -4.53202e-05 0.3281999911 -0.7839826177
605296370.0 -0.2750843482 0.7991282674 -0.0001759493 0.0002475349 -1.02483e-05 3.27624e-05 0.3196291705 -0.7874471809
610296340.0 -0.2674643053 0.8014976481 6.93796e-05 0.0001837798 -0.0002165891 -0.0001756035 0.3117467494 -0.7899566887
615296310.0 -0.2590862401 0.8043221551 5.0394e-06 -0.0001164268 -3.79438e-05 7.81025e-05 0.3044610691 -0.7940033199
620296280.0 -0.2501885119 0.8063717745 6.04163e-05 8.71247e-05 -0.0001107614 -0.0001234003 0.2964608546 -0.7970369162
625296250.0 -0.2427591879 0.8086795829 0.0002766759 -0.0001506221 -6.65281e-05 0.0001377863 0.2882533381 -0.7985549182
630296220.0 -0.2345137115 0.8119859179 0.0001446257 -8.09589e-05 0.0002189967 -3.27198e-05 0.2798309983 -0.8013613349
635296190.0 -0.2262953647 0.8137364638 0.0001668996 -2.67916e-05 -0.0002274496 7.1787e-06 0.2722747081 -0.8035441468
640296160.0 -0.2178791603 0.8153022763 2.15268e-05 8.3359e-05 -8.14702e-05 2.4212e-05 0.2638453356 -0.8067635328
645296130.0 -0.2099115604 0.8182846351 0.0001827481 0.0002387688 -0.0001211235 4.13999e-05 0.255867297 -0.8090966401
650296100.0 -0.2021948354 0.82046877 0.000132859 -9.2609e-06 2.22601e-05 1.42294e-05 0.2480836985 -0.8109778506
655296070.0 -0.1931581514 0.8224241416 8.89491e-05 0.00017646 -7.63003e-05 -1.97378e-05 0.2392711328 -0.8134780294
660296040.0 -0.1848731355 0.8243694711 -7.28669e-05 7.40734e-05 -2.75029e-05 0.0001932059 0.2310087459 -0.8158091703
665296010.0 -0.1766702002 0.8260238363 -0.000132474 -0.000109782 -0.0001181792 4.41277e-05 0.2235897895 -0.8180113399
670295980.0 -0.1681849345 0.8272054775 2.36114e-05 -4.77726e-05 7.61277e-05 -2.64217e-05 0.2155641417 -0.8195552612
675295950.0 -0.1599406506 0.8282443583 0.0001220418 -7.74152e-05 -0.0002542097 -0.0001348898 0.2075535117 -0.8218153586
680295920.0 -0.1514617711 0.8309168728 -0.000253716 8.73e-06 8.58584e-05 -0.0001066163 0.1987275431 -0.8240156004
685295890.0 -0.1426090967 0.8319605878 1.97847e-05 -3.89905e-05 -0.0001020589 8.93453e-05 0.1907451069 -0.8254892571
690295860.0 -0.1339770182 0.8338911265 0.0001629084 -7.74165e-05 0.0002113925 8.96742e-05 0.182593583 -0.8269268307
695295830.0 -0.1261036691 0.8343392503 7.49887e-05 -8.34266e-05 -6.76575e-05 -0.0001859417 0.1733827217 -0.8287439677
700295800.0 -0.1178254409 0.8355374326 0.0001544275 -0.0001338075 -3.26426e-05 6.73008e-05 0.1651055973 -0.8305341544
705295770.0 -0.108942732 0.8376952199 -0.0002242835 -9.53793e-05 -2.71908e-05 0.0001219886 0.157308771 -0.8311110685
710295740.0 -0.1004845905 0.8381896772 4.06048e-05 3.86122e-05 -0.0001002464 6.67548e-05 0.1486509532 -0.8323968588
715295710.0 -0.092864517 0.8393654511 0.0001658856 -0.0001011949 9.7786e-06 -4.28197e-05 0.140700428 -0.8344157401
720295680.0 -0.084516327 0.8398708956 9.06033e-05 0.0003238349 1.09957e-05 4.56301e-05 0.1324442246 -0.8352834548
725295650.0 -0.074979673 0.841003669 7.16291e-05 -0.0001743845 2.44987e-05 0.000220765 0.1245209603 -0.8363763492
730295620.0 -0.0671111427 0.840998302 3.11452e-05 -0.0001058324 -1.24027e-05 0.0001297731 0.1156744226 -0.8376075918
735295590.0 -0.0580314023 0.8421221379 -4.84762e-05 0.0001161056 -1.75346e-05 0.0002576993 0.1072368482 -0.8382553915
740295560.0 -0.0499078261 0.8428129427 -0.0001530814 9.5196e-06 -3.16386e-05 0.0001827218 0.0990056383 -0.8398118018
745295530.0 -0.0417517686 0.8427913115 -0.000100306 5.52717e-05 -2.87746e-05 -5.72432e-05 0.0900147888 -0.840619608
750295500.0 -0.0333863418 0.8429527516 0.0001241904 -0.0001517531 -0.0001203719 -1.29934e-05 0.0822580633 -0.84111967
755295470.0 -0.0242694763 0.8434673832 0.0002250127 -3.09652e-05 8.39334e-05 0.0001392953 0.073310844 -0.8412858447
760295440.0 -0.0159651775 0.8438534132 5.55518e-05 -0.0001436356 6.20554e-05 -6.75904e-05 0.0648836969 -0.8427527413
765295410.0 -0.0076711763 0.8439933861 -0.0002679738 -0.0001407576 7.44071e-05 -1.06325e-05 0.0570658174 -0.8421960079
770295380.0 0.0009462566 0.8438385166 0.0001971465 -3.6913e-06 7.04202e-05 -0.0001436332 0.048706209 -0.8430070701
775295350.0 0.009137148 0.8442141613 -0.0002728997 -7.4312e-05 2.05014e-05 -5.31743e-05 0.0399028607 -0.8440503542
780295320.0 0.0181482668 0.8433696018 0.0001592952 0.0002716102 7.40037e-05 2.26934e-05 0.0312103742 -0.8431695074
785295290.0 0.0264213964 0.8440597588 -0.0001188674 3.1501e-06 9.7695e-06 -0.0002320937 0.0229788921 -0.8437480982
790295260.0 0.0347911934 0.8429638394 -0.000161422 1.60972e-05 9.06496e-05 -2.03478e-05 0.0147139732 -0.8438939859
795295230.0 0.0427650759 0.8431212454 4.26811e-05 -9.80927e-05 9.98839e-05 -8.06359e-05 0.0058012227 -0.8438724456
800295200.0 0.0512254827 0.8429111842 2.52237e-05 -3.77171e-05 -1.48672e-05 9.51892e-05 -0.0025048039 -0.8437279852
805295170.0 0.059855168 0.8423729359 0.0001153592 4.27718e-05 0.000326938 0.0001080674 -0.0102647167 -0.8440073926
810295140.0 0.0685114417 0.8416950531 -8.05115e-05 0.0001186766 -0.0001256401 0.0001539919 -0.0193045277 -0.8429278501
815295110.0 0.0770911393 0.8404090406 7.21531e-05 7.95516e-05 -3.13337e-05 -0.0002277803 -0.0277187969 -0.8426794094
820295080.0 0.085381301 0.8389786466 -7.15858e-05 -9.18503e-05 0.0002142777 -0.0001177126 -0.0361490682 -0.8427946599
825295050.0 0.094129119 0.8385084068 0.0001252798 -0.0001076189 2.82862e-05 6.35112e-05 -0.044163259 -0.84188365
830295020.0 0.1022608189 0.8377323509 -0.0002199884 3.44444e-05 -7.89891e-05 -0.0001074508 -0.053032818 -0.8411857625
835294990.0 0.110108787 0.836747665 -2.29542e-05 -5.61076e-05 9.07769e-05 9.63428e-05 -0.0611152239 -0.8406959215
840294960.0 0.1188086452 0.8353557038 -0.000166969 -3.99093e-05 2.7938e-05 0.0001403183 -0.070222215 -0.8391754282
845294930.0 0.1272421586 0.8342203145 -0.0001360707 -6.453e-07 -4.46612e-05 0.0001139577 -0.0776529031 -0.8387228884
