!Created with skrf (http://scikit-rf.org).
# Hz S RI R 50.0 
!freq ReS11 ImS11 ReS21 ImS21 ReS12 ImS12 ReS22 ImS22
300000.0 -0.3144965704 -0.1319965163 0.3710821441 0.0654757546 0.3719136224 0.0646109767 -0.3174014727 -0.1294892843
5299970.0 -0.3247795857 0.0022689977 0.3786113971 0.0034737147 0.3787711756 0.0035497662 -0.3253499116 0.0016391893
10299940.0 -0.3224210553 0.0141270278 0.3799303886 0.0025769848 0.38015892 0.0029740894 -0.3229631664 0.0124219021
15299910.0 -0.3190135121 0.0222997771 0.3820362353 0.0026595895 0.3824034574 0.0029172763 -0.3204689366 0.0197193278
20299880.0 -0.3154883086 0.0290739629 0.3850480035 0.0021493448 0.3849846347 0.0017441284 -0.3176052394 0.0257018423
25299850.0 -0.3117460249 0.0346764562 0.3886397527 0.000791451 0.3888273658 0.0001081092 -0.3147157807 0.0313289969
30299820.0 -0.3082881503 0.0392844973 0.391925074 -0.0019715185 0.3920117295 -0.0021246145 -0.3120899304 0.0357660822
35299790.0 -0.304193208 0.0433619062 0.394893379 -0.0051585214 0.3955994483 -0.0050863511 -0.3088293265 0.0400415358
40299760.0 -0.3011083735 0.0467916238 0.3984757335 -0.0086262746 0.3986132371 -0.0086734198 -0.306151138 0.0434119271
45299730.0 -0.2982459769 0.0500898991 0.4015431313 -0.0126887172 0.4016108836 -0.0127234766 -0.3033611349 0.0466021673
50299700.0 -0.2950447719 0.0525277237 0.4037245191 -0.0171820896 0.4036940065 -0.0173791355 -0.3009998911 0.0497527761
55299670.0 -0.2921731396 0.0555744321 0.4058119204 -0.0217878531 0.4060051405 -0.0220114712 -0.2993811244 0.0524074417
60299640.0 -0.2898131687 0.0580910458 0.4082676754 -0.0267214926 0.4080238858 -0.0268654591 -0.297138553 0.0549339807
65299610.0 -0.2873625816 0.0600324322 0.4094951476 -0.0314067864 0.4098300725 -0.0317603391 -0.2949549296 0.0576385321
70299580.0 -0.2853383277 0.0620913551 0.4105277821 -0.0362628659 0.4108570269 -0.0366468995 -0.2936228301 0.0599026774
75299550.0 -0.2836558598 0.0643577897 0.4115283506 -0.0422546188 0.4119304817 -0.0422331967 -0.2915156804 0.0623045743
80299520.0 -0.2816410474 0.0668379454 0.41281645 -0.0471259848 0.4131889274 -0.0478805962 -0.290052101 0.0648722103
85299490.0 -0.2798181583 0.0681762597 0.4130432335 -0.0522472638 0.4135844407 -0.0522720475 -0.2889168375 0.066887405
90299460.0 -0.2781586132 0.0705599894 0.4134265227 -0.0581091301 0.4135457446 -0.0578349948 -0.2875266794 0.0692232436
95299430.0 -0.2770708 0.0727162707 0.4141252415 -0.0631688326 0.4142033894 -0.063124191 -0.2862005201 0.0718552817
100299400.0 -0.2753291916 0.0747734097 0.4140326974 -0.0678706435 0.4142329528 -0.0680997828 -0.2851106403 0.0742474506
105299370.0 -0.2740203524 0.0764723375 0.4139523419 -0.073204379 0.4140971867 -0.0734590458 -0.2837147262 0.076447355
110299340.0 -0.2727681236 0.0785692559 0.413527831 -0.0785767508 0.4140086899 -0.078321742 -0.283240502 0.0786898922
115299310.0 -0.2713900084 0.0809366727 0.4130751163 -0.0832537108 0.4134669709 -0.0838758982 -0.2819603457 0.0815008382
120299280.0 -0.2703957424 0.0832670976 0.41312289 -0.0889212328 0.4131143254 -0.0891087391 -0.2807231501 0.0835372033
125299250.0 -0.2690369028 0.0851925031 0.4122886824 -0.0938513909 0.4125798905 -0.0938860701 -0.2799442354 0.0860252596
130299220.0 -0.2682337154 0.0874470983 0.4118003308 -0.099498136 0.411926521 -0.0993164791 -0.2791816981 0.0883868007
135299190.0 -0.2673203481 0.0901353827 0.4113982242 -0.1038676927 0.4116430923 -0.1040357948 -0.2779832379 0.0909770748
140299160.0 -0.2659958106 0.0922343171 0.4104363872 -0.1093348093 0.4104118812 -0.1088488444 -0.2775831489 0.0929424428
145299130.0 -0.2653640211 0.0945990108 0.4093713293 -0.1136822658 0.4094623724 -0.1139386034 -0.2762783806 0.095561713
150299100.0 -0.2641882502 0.0966953726 0.40843359 -0.1187161462 0.4084382427 -0.1190957584 -0.275584798 0.0985591244
155299070.0 -0.263125568 0.09965713 0.4072420638 -0.123873692 0.4075004513 -0.1240979488 -0.2744543162 0.1010642017
160299040.0 -0.2625248646 0.1021495078 0.4063356104 -0.12869117 0.4063078028 -0.1290983222 -0.2734750106 0.1035879389
165299010.0 -0.2609259679 0.1042658849 0.4049424606 -0.1334325596 0.4047901126 -0.133667428 -0.272475325 0.1062463903
170298980.0 -0.2599927838 0.10700624 0.4032637129 -0.1384491901 0.4037119931 -0.1385001172 -0.2718663935 0.1085128888
175298950.0 -0.2587541689 0.1093321146 0.4021450539 -0.1430847416 0.4023927667 -0.1434355566 -0.2707813403 0.111793849
180298920.0 -0.2582242893 0.1118482802 0.4007287043 -0.148054398 0.4007738848 -0.1482282207 -0.2697186724 0.1140840549
185298890.0 -0.2572419369 0.1144658914 0.399666554 -0.1528807723 0.3993786654 -0.1524797429 -0.26890775 0.11638746
190298860.0 -0.2558241656 0.1171939087 0.3972011701 -0.1575806768 0.3977696839 -0.1571582309 -0.2677358895 0.1191418353
195298830.0 -0.2546035978 0.1196500488 0.3960144739 -0.1619269445 0.3961107513 -0.1617033871 -0.2668577282 0.1219734976
200298800.0 -0.2533469418 0.1221098094 0.3943220922 -0.1669806369 0.3942718454 -0.1667297842 -0.265711015 0.1244441265
205298770.0 -0.2525467543 0.1247112691 0.3919248141 -0.1707763412 0.3926658102 -0.1711178694 -0.2645518055 0.1273948483
210298740.0 -0.2515691814 0.1275677779 0.3906363943 -0.1757117435 0.3907017665 -0.1756069166 -0.2636120803 0.1298667379
215298710.0 -0.2503078059 0.1300361339 0.3883633192 -0.1798169758 0.3886293559 -0.1802150131 -0.2620974623 0.1326453497
220298680.0 -0.2489407839 0.1325743658 0.3864681241 -0.1847246233 0.3863840991 -0.1847520952 -0.2609453847 0.1352988397
225298650.0 -0.2478532209 0.1348903439 0.3843556233 -0.1887879372 0.3847815084 -0.1887247668 -0.2600530893 0.1381789125
230298620.0 -0.2462900005 0.1380982581 0.38258455 -0.1933514879 0.3827034004 -0.1935459116 -0.2584908147 0.1405816154
235298590.0 -0.2456069223 0.1405244367 0.3807332449 -0.1981109123 0.3808459334 -0.198043288 -0.2571951438 0.1432946238
240298560.0 -0.244021263 0.1433093413 0.3780572549 -0.2021119989 0.3784831557 -0.2021283323 -0.2560128741 0.1460344147
245298530.0 -0.242774526 0.1456481605 0.3762098746 -0.2062969758 0.3762183315 -0.2067395252 -0.2547367817 0.1486961127
250298500.0 -0.2417071057 0.1485606041 0.3740119975 -0.2108275915 0.3738081361 -0.2107749481 -0.2534498052 0.1515520329
255298470.0 -0.2398808952 0.1509970652 0.3717249653 -0.2144449107 0.3721953232 -0.2152090202 -0.2518719528 0.1543451664
260298440.0 -0.2386687346 0.1535271916 0.3694440331 -0.2186642972 0.3695931242 -0.2190980118 -0.2508577198 0.1570445268
265298410.0 -0.2371461144 0.1565197035 0.3667717691 -0.2237368532 0.3670405855 -0.223755993 -0.2486525296 0.1591004673
270298380.0 -0.235846994 0.1585564178 0.3643124371 -0.2272122273 0.3644083563 -0.2276103932 -0.2474850834 0.1623549201
275298350.0 -0.2344599777 0.1615672683 0.3615200413 -0.2315481264 0.3619012237 -0.2315054586 -0.245701895 0.1654422814
280298320.0 -0.2331531668 0.1642313765 0.3595445186 -0.2354635363 0.3596729836 -0.2357322961 -0.2444262007 0.1676800606
285298290.0 -0.231409893 0.1666936635 0.3566226836 -0.2394604123 0.357162721 -0.2397528852 -0.2427353396 0.1705125032
290298260.0 -0.2298372209 0.1692493185 0.354536855 -0.2437922829 0.354343987 -0.2434210092 -0.2410509824 0.1727031408
295298230.0 -0.2285351891 0.1715540331 0.3513982667 -0.2478570743 0.3518315411 -0.2479645588 -0.2394825816 0.1756107471
300298200.0 -0.2268422272 0.1744324497 0.3490276621 -0.2516207416 0.348949898 -0.251510165 -0.2373733335 0.1780700361
305298170.0 -0.2252906293 0.1764615021 0.346244089 -0.2554812483 0.3465942968 -0.2556670178 -0.2356652364 0.1803780984
310298140.0 -0.2231251394 0.178758804 0.3433252794 -0.259448335 0.3435316217 -0.2592471525 -0.2337781028 0.1830888361
315298110.0 -0.2221142295 0.1811780178 0.3405942269 -0.2639463999 0.3408912444 -0.2637090713 -0.2322328372 0.1856906344
320298080.0 -0.219869235 0.1836556344 0.3370482618 -0.2672173569 0.3380650653 -0.2675271629 -0.2303856622 0.1878906358
325298050.0 -0.2185133036 0.1856552827 0.3343493818 -0.271154039 0.3349716771 -0.2710565617 -0.2285068973 0.1900091654
330298020.0 -0.2172498876 0.1885958075 0.3314308843 -0.2750009678 0.3319351659 -0.2749681356 -0.2266674977 0.1927773978
335297990.0 -0.2156408701 0.1908331108 0.32839467 -0.2786547826 0.3286527493 -0.2785182177 -0.224885376 0.1953690795
340297960.0 -0.213763836 0.1933482728 0.3248286871 -0.282388326 0.3251847966 -0.2825085783 -0.2231422827 0.1982649354
345297930.0 -0.2116897069 0.195542979 0.3217852946 -0.2857808963 0.3220141561 -0.2859030583 -0.22114541 0.2003088995
350297900.0 -0.2101881922 0.1978594816 0.3188187841 -0.2889839585 0.3190677209 -0.2893713474 -0.2194991857 0.2029835776
355297870.0 -0.2084436797 0.2003595901 0.3156008148 -0.2925587452 0.3153606639 -0.2924919672 -0.2166500198 0.2055938731
360297840.0 -0.2064167399 0.2028003925 0.3122432519 -0.2961210402 0.3124688585 -0.2964228865 -0.2151572772 0.2080214692
365297810.0 -0.204509253 0.205235992 0.308627034 -0.2996570658 0.3090972765 -0.299290148 -0.2133267236 0.2104447117
370297780.0 -0.2022473538 0.2073208824 0.3053081999 -0.3030875231 0.3057640944 -0.3031635663 -0.2110802862 0.2129668686
375297750.0 -0.2004721394 0.2096740958 0.3021153386 -0.3062273503 0.3022386125 -0.3064512169 -0.2086599317 0.2151325625
380297720.0 -0.1988367012 0.2119083548 0.2991395239 -0.3098906421 0.2991625681 -0.3098549814 -0.2068712916 0.2178382063
385297690.0 -0.1966095493 0.2140466105 0.2951305834 -0.3127222306 0.2955487196 -0.3133582314 -0.2045043363 0.2201366397
390297660.0 -0.1941105229 0.2160068742 0.2917058194 -0.3158868305 0.2920502409 -0.3160177019 -0.201889358 0.2220967346
395297630.0 -0.1919679034 0.2184500373 0.2886863982 -0.3189397142 0.2885063218 -0.3190397958 -0.2000770798 0.2242128365
400297600.0 -0.1898899683 0.2206687317 0.2850939154 -0.3223168447 0.2853701047 -0.322513919 -0.1974494899 0.2270865575
405297570.0 -0.187615466 0.2222784209 0.2813102911 -0.3252382601 0.2815282208 -0.3256236128 -0.1947354901 0.2291673189
410297540.0 -0.1856287162 0.2247489432 0.2779639877 -0.3289221485 0.2780709762 -0.3287283256 -0.1929949782 0.2318007234
415297510.0 -0.1833637602 0.2268873467 0.2740734509 -0.3317349121 0.2744698422 -0.3318362292 -0.1903609299 0.2334847719
420297480.0 -0.1814107798 0.228749055 0.2703142546 -0.334610819 0.2706626057 -0.3348763441 -0.1875103117 0.2361199098
425297450.0 -0.1784560219 0.2306713695 0.267164146 -0.337692007 0.2666177423 -0.3375261238 -0.1855319103 0.2375644958
430297420.0 -0.1764871179 0.2327266085 0.2636820135 -0.3407374957 0.2632677774 -0.3405615795 -0.1827523702 0.239976527
435297390.0 -0.1740305104 0.2346468498 0.2591262235 -0.3437738176 0.2594217574 -0.3433904519 -0.1809206182 0.2426171707
440297360.0 -0.1716129713 0.2362865515 0.2555244003 -0.3460212691 0.2555191382 -0.3462657158 -0.1782248354 0.2443593265
445297330.0 -0.1689011174 0.2382580025 0.2513242648 -0.3487891509 0.2519479422 -0.3492806592 -0.1755962861 0.2464820594
450297300.0 -0.1666324862 0.2403071673 0.2477062274 -0.3516564162 0.2481480556 -0.351660364 -0.172531127 0.2484079196
455297270.0 -0.1644144226 0.2420103768 0.2443637133 -0.3541208346 0.2441559215 -0.3544428121 -0.1701658626 0.250315062
460297240.0 -0.161570449 0.2441373284 0.2405937116 -0.3576095845 0.2400261762 -0.3569073777 -0.1676728522 0.2520678887
465297210.0 -0.1591734118 0.2459154553 0.2359401015 -0.3597578455 0.235944051 -0.3597146243 -0.1647884742 0.2542882893
470297180.0 -0.1564788745 0.2477254069 0.2321584292 -0.3617450586 0.2323494279 -0.3623276703 -0.1620520889 0.2561204356
475297150.0 -0.1541050795 0.2494245752 0.2281084765 -0.3643081386 0.2284774719 -0.364809257 -0.1592173654 0.2580358926
480297120.0 -0.1510957375 0.2515967236 0.2241795858 -0.3673085217 0.224311222 -0.3673602596 -0.1567949159 0.2602996093
485297090.0 -0.1485294502 0.2527256737 0.2199212764 -0.3693468458 0.2200191698 -0.3694406671 -0.1543562157 0.2614159797
490297060.0 -0.1453188891 0.2545230348 0.2158112309 -0.37189011 0.2161291007 -0.3721186499 -0.1512653448 0.2630434088
495297030.0 -0.1434011454 0.2558983131 0.2122791696 -0.3743012581 0.2119411998 -0.3743906983 -0.1482997722 0.2649328364
500297000.0 -0.1406009698 0.2578434559 0.2077309389 -0.3763086838 0.207959157 -0.3765576993 -0.1457325798 0.2667884631
505296970.0 -0.1372660729 0.2594801794 0.2038345895 -0.3789032676 0.2037397552 -0.3785278162 -0.1428110009 0.2682588983
510296940.0 -0.1348386375 0.2609671882 0.1997804192 -0.3814946016 0.1997725465 -0.3813624825 -0.1398911527 0.2701357618
515296910.0 -0.1318847399 0.2627406173 0.1949000194 -0.3831558985 0.1950978589 -0.3830252776 -0.1374871606 0.2714344864
520296880.0 -0.1286742802 0.2640746242 0.1910936233 -0.3850440257 0.1909196623 -0.384970659 -0.1341280842 0.2738177005
525296850.0 -0.1261246065 0.2654687581 0.1865171685 -0.3870066051 0.1865136871 -0.3870666468 -0.1312136792 0.2749465895
530296820.0 -0.123508548 0.2669074872 0.182226945 -0.3892627267 0.182360084 -0.3892889523 -0.1283229398 0.2763163653
535296790.0 -0.1199875954 0.2683585769 0.1781034473 -0.3909079553 0.1780654934 -0.3910615674 -0.1249124866 0.2776573694
540296760.0 -0.1169300212 0.2699261019 0.1738033772 -0.3929183343 0.1736083118 -0.3928550792 -0.1223841959 0.2790470992
545296730.0 -0.1146278926 0.2716383289 0.1697241013 -0.3947562235 0.1692984378 -0.3946932836 -0.1192046415 0.2807248469
550296700.0 -0.1113489366 0.272989903 0.1654562487 -0.3967091484 0.1648320768 -0.3968765455 -0.1162945972 0.2822136369
555296670.0 -0.1085085862 0.274221779 0.1608471381 -0.3983123871 0.1608623348 -0.3981829739 -0.113841746 0.2830038321
560296640.0 -0.1051198934 0.2753394409 0.1561540392 -0.3999996913 0.1563325123 -0.4000333369 -0.1105888975 0.2849631976
565296610.0 -0.1025340841 0.276781265 0.1522606126 -0.4015395164 0.1522178156 -0.4013469211 -0.1073423116 0.2860763915
570296580.0 -0.0992107358 0.2780858227 0.1474159622 -0.4032742379 0.1475659534 -0.4033956735 -0.104686794 0.2872437645
575296550.0 -0.0960744295 0.2792956539 0.1436342522 -0.4047100025 0.1430899614 -0.4047607381 -0.1014793473 0.2885309933
580296520.0 -0.0932511884 0.2808702804 0.13902085 -0.4062743704 0.1388160409 -0.4064269153 -0.0987494632 0.289728943
585296490.0 -0.08992496 0.2820563379 0.134642771 -0.4076009179 0.1340459707 -0.407632818 -0.0950876515 0.2912250555
590296460.0 -0.0866435044 0.2829471274 0.1297883893 -0.4091797736 0.1297225127 -0.4093360235 -0.0921681148 0.2924484634
595296430.0 -0.083865195 0.2840642967 0.1252981306 -0.4104509783 0.1252245384 -0.4104575337 -0.0893356678 0.2931858561
600296400.0 -0.0806353501 0.2851579051 0.120620947 -0.4116829036 0.1206556802 -0.4116167232 -0.0859376244 0.2942835659
605296370.0 -0.0777865228 0.2862279742 0.1169055901 -0.4127352791 0.1160929185 -0.413205443 -0.0829797243 0.2953398258
610296340.0 -0.0746921437 0.2874881408 0.1118530746 -0.4138428744 0.1120288725 -0.4139516908 -0.0801668501 0.2963395002
615296310.0 -0.0711650257 0.2884929699 0.1073998015 -0.415534408 0.107035994 -0.4155408455 -0.0764347641 0.2973663755
620296280.0 -0.068463404 0.2897514609 0.1029252808 -0.4163384634 0.1023606077 -0.4160483866 -0.0737923019 0.2983631904
625296250.0 -0.0654055909 0.2904344402 0.0983093503 -0.4177025259 0.098216286 -0.4174869084 -0.0703226051 0.2988295444
630296220.0 -0.0619040103 0.2916280023 0.0934160158 -0.4184989745 0.0934320884 -0.4184992284 -0.0673359922 0.3001389157
635296190.0 -0.0590312986 0.2924357055 0.0892951856 -0.4192006132 0.089081703 -0.4191896928 -0.0645263485 0.3007631095
640296160.0 -0.0560880066 0.2934221852 0.0847844761 -0.4202829781 0.0844005736 -0.4200553334 -0.0609471835 0.3015530465
645296130.0 -0.0527450217 0.2944567866 0.0800312592 -0.4212681982 0.0800317593 -0.4210433372 -0.0581232172 0.3022154775
650296100.0 -0.0496961596 0.294836204 0.0756538043 -0.422027274 0.0750169298 -0.4220020205 -0.0542056185 0.3029547244
655296070.0 -0.0466276795 0.2958423293 0.0705358701 -0.4226916614 0.0706664759 -0.4227567607 -0.0517591554 0.3041367378
660296040.0 -0.0433977849 0.2966635978 0.0663880117 -0.4232053701 0.0659132682 -0.4234716085 -0.0484529571 0.304224537
665296010.0 -0.0404888177 0.2975335511 0.0614991771 -0.4237299297 0.0611243604 -0.4237279783 -0.0453245551 0.3049487417
670295980.0 -0.0373532941 0.2979902981 0.0571140341 -0.4246173539 0.0568335332 -0.4246044149 -0.0423253988 0.3057770847
675295950.0 -0.0341491734 0.2988330597 0.0525614988 -0.4252290416 0.0523168662 -0.4252746322 -0.038902597 0.3064506619
680295920.0 -0.0310916113 0.2994833359 0.0480307028 -0.4256369102 0.0477045051 -0.4256270533 -0.0353457499 0.3066684055
685295890.0 -0.0276729318 0.3001841462 0.0428205608 -0.4262435239 0.0430545874 -0.4260291202 -0.0323427068 0.3074709428
690295860.0 -0.0248593171 0.300596735 0.0389107039 -0.4263614186 0.038276033 -0.4267202485 -0.0292749511 0.3079930776
695295830.0 -0.0217064564 0.3010139775 0.0342563694 -0.4270312126 0.0338074541 -0.4270073394 -0.0260845989 0.3086343678
700295800.0 -0.0182030141 0.3017784656 0.029497049 -0.4272847308 0.0293978332 -0.4273854232 -0.0227051979 0.308774167
705295770.0 -0.0155681917 0.3022534847 0.0246761628 -0.4275110161 0.0245862829 -0.427237706 -0.0193830147 0.3095120608
710295740.0 -0.012600665 0.3021867239 0.0204740344 -0.4276695948 0.0199780532 -0.4280449273 -0.0158997729 0.309577554
715295710.0 -0.0091857119 0.3029273466 0.0157947342 -0.4276567979 0.0152232287 -0.4281629182 -0.0126334777 0.30958737
720295680.0 -0.005754241 0.3034020261 0.01081462 -0.42803033 0.0105711149 -0.4281048597 -0.0094544409 0.3099465977
725295650.0 -0.0027832666 0.3039619725 0.0063776615 -0.4282688468 0.0059651329 -0.4283212001 -0.0065044227 0.3108859657
730295620.0 -0.0004706711 0.3039831719 0.0018233525 -0.4278227168 0.0014546041 -0.4279340229 -0.0034584738 0.3109712076
735295590.0 0.0029596608 0.3045562887 -0.0028088367 -0.4280371606 -0.0029480342 -0.4278365736 -0.0002953557 0.310476691
740295560.0 0.0060012046 0.304180859 -0.0074225255 -0.4279603842 -0.0074123553 -0.4281671238 0.003256954 0.3110291711
745295530.0 0.0090966598 0.3049302594 -0.0118213316 -0.4272982227 -0.0118320132 -0.4277980585 0.0061466197 0.3111592392
750295500.0 0.0121123145 0.304726141 -0.0165672782 -0.4275098406 -0.0167686741 -0.4275846217 0.0095909466 0.3108558082
755295470.0 0.0151502791 0.3051236085 -0.0208657088 -0.4276788016 -0.0213494898 -0.4275519427 0.0130603167 0.3114778632
760295440.0 0.0184875599 0.3054865978 -0.0263370608 -0.4270964314 -0.0258840044 -0.426946238 0.0163888796 0.310802123
765295410.0 0.0216096933 0.3049571542 -0.0306067878 -0.426849627 -0.0302623646 -0.4268082544 0.0194869629 0.311094998
770295380.0 0.0242832038 0.305392389 -0.0346075188 -0.4257727939 -0.0351583284 -0.4264659183 0.0222982593 0.3111315243
775295350.0 0.0274045771 0.3050146352 -0.0393507275 -0.4260764105 -0.0398419001 -0.425404722 0.0259110972 0.3108151411
780295320.0 0.0308008455 0.3052046667 -0.044077495 -0.4252505579 -0.0441454041 -0.4253333203 0.0294668638 0.3107519154
785295290.0 0.0336503098 0.3049158549 -0.048661592 -0.4249114632 -0.0486016847 -0.4246544494 0.0319083609 0.3110047918
790295260.0 0.0367254082 0.3042754035 -0.0531306532 -0.4240469577 -0.0532471919 -0.4247482695 0.0354288176 0.3106889861
795295230.0 0.0398300045 0.3044297422 -0.0576843243 -0.4236002854 -0.0580012079 -0.4239427507 0.0388354854 0.3098323217
800295200.0 0.0429218523 0.3043927056 -0.0621056374 -0.4225882448 -0.0623927236 -0.4234398577 0.0418903666 0.3100163122
805295170.0 0.0456526938 0.3042699335 -0.0669969056 -0.4223730099 -0.066875279 -0.4227360084 0.0455932062 0.3096460193
810295140.0 0.0487533908 0.3040339608 -0.0710604847 -0.4213890915 -0.0715470609 -0.4215155239 0.0488166617 0.3093313493
815295110.0 0.0515641453 0.3033472458 -0.0757958055 -0.4205229071 -0.0759780883 -0.4208900779 0.0518459308 0.3088595797
820295080.0 0.0548100488 0.3033863627 -0.0799432279 -0.4196530268 -0.0804385221 -0.4200265084 0.0546081487 0.3086902395
825295050.0 0.0577969091 0.3025690352 -0.0848796012 -0.4190598072 -0.0850434678 -0.4192168116 0.0586276669 0.3082161905
830295020.0 0.0610985324 0.3023666082 -0.0895019836 -0.4181334682 -0.0892915552 -0.4182023328 0.0614819819 0.3076786859
