!Created with skrf (http://scikit-rf.org).
# Hz S RI R 50.0 
!freq ReS11 ImS11 ReS21 ImS21 ReS12 ImS12 ReS22 ImS22
300000.0 -0.7782401252 -0.1129132574 -0.0003905258 1.39665e-05 0.0001288803 3.9735e-05 0.8592155982 -0.0027286505
5299970.0 -0.7852130759 -0.0061671897 -3.17688e-05 -7.74617e-05 8.54642e-05 -3.07385e-05 0.8595362327 -0.0105398153
10299940.0 -0.7878142643 -0.0044691525 4.09761e-05 3.72729e-05 -8.09444e-05 0.0002114442 0.8585437812 -0.0186084691
15299910.0 -0.7935810532 -0.0023097057 1.69739e-05 -1.07018e-05 5.98718e-05 5.2415e-06 0.8576598323 -0.0275074377
20299880.0 -0.7998024307 0.0020069777 -1.29048e-05 0.0001078663 4.26538e-05 -4.60671e-05 0.8569950014 -0.036181993
25299850.0 -0.8063527249 0.008231108 -4.99623e-05 0.0002178198 -0.0001248424 9.97178e-05 0.856553883 -0.0437583475
30299820.0 -0.8129261624 0.0156140118 0.0001485004 0.0001632035 -9.8911e-06 3.0021e-06 0.8552391858 -0.0523321912
35299790.0 -0.8170749198 0.0250688197 3.81687e-05 6.33677e-05 0.0001192555 0.0001519025 0.8547736392 -0.0599735984
40299760.0 -0.821320339 0.0335831733 0.000333995 0.000151935 -0.0001094897 -3.75136e-05 0.8539077869 -0.0679050625
45299730.0 -0.8243358322 0.0433943477 -3.87593e-05 -0.000106768 -7.8217e-05 -0.0001030421 0.8527795339 -0.0762909684
50299700.0 -0.8276421031 0.0532554249 -0.0001890036 1.05134e-05 0.0001097714 4.03461e-05 0.8516815093 -0.0844422327
55299670.0 -0.8293950733 0.0633862671 1.31125e-05 2.43464e-05 -3.59846e-05 -0.0001827042 0.8507881347 -0.0923569936
60299640.0 -0.830776657 0.0736716573 -2.78196e-05 -5.80282e-05 8.64858e-05 2.09109e-05 0.8495389439 -0.1012615071
65299610.0 -0.8315385488 0.0841226963 -2.24258e-05 -2.91883e-05 0.000112639 -0.0001062139 0.8490009493 -0.1091011675
70299580.0 -0.8319784983 0.0937378679 5.54634e-05 -4.30483e-05 -4.74182e-05 -1.88581e-05 0.8475671325 -0.1174841214
75299550.0 -0.8319455661 0.1043789034 7.76958e-05 -0.0001168806 -0.0001534926 -9.58006e-05 0.8460956453 -0.1259362992
80299520.0 -0.8315964237 0.1136923906 0.0001619368 0.0001402198 2.03199e-05 0.0001405268 0.8451402583 -0.1338870867
85299490.0 -0.8308519018 0.1227510276 -0.0001104242 0.0002526779 -0.000115283 3.8247e-06 0.8437032299 -0.1420133435
90299460.0 -0.830513106 0.1320865965 0.0001447673 0.0001689652 0.0001413323 7.66382e-05 0.8418275742 -0.1506177849
95299430.0 -0.8292820585 0.1423650162 7.57642e-05 0.0001581447 -0.0001065675 8.99979e-05 0.839788852 -0.1581522896
100299400.0 -0.8281304158 0.1512843407 8.1576e-05 -0.0001844146 -0.0002361997 -0.0001173869 0.8388773088 -0.1668704159
105299370.0 -0.8269577395 0.160387177 0.0001168918 -5.89057e-05 7.0616e-05 9.926e-07 0.8374560149 -0.1752126631
110299340.0 -0.8250970933 0.1697241192 -5.22234e-05 5.03157e-05 0.0002053267 -2.40966e-05 0.8359791453 -0.1822409098
115299310.0 -0.823912506 0.1785451836 -4.43318e-05 3.63043e-05 -1.91911e-05 0.0001145675 0.8337621604 -0.1911929693
120299280.0 -0.8220615634 0.187356897 0.0003203715 -0.0002127296 2.89126e-05 -2.22781e-05 0.8322602796 -0.1993311347
125299250.0 -0.820162749 0.195711419 7.66701e-05 -4.82734e-05 -1.16741e-05 5.72758e-05 0.8303407078 -0.2072638355
130299220.0 -0.8184440294 0.2055607916 6.40282e-05 8.38235e-05 -0.0001140758 0.0002447095 0.8290599234 -0.2153804033
135299190.0 -0.8167150346 0.2144899095 0.000119029 2.03281e-05 0.0001466225 0.0002807465 0.8263378695 -0.2230696951
140299160.0 -0.8146974797 0.2235182195 5.63743e-05 -0.0001140026 -2.35326e-05 -0.0001501522 0.8240292271 -0.2309827588
145299130.0 -0.8126657567 0.2326959896 -4.42024e-05 3.46884e-05 -8.68042e-05 0.0001646591 0.8221900992 -0.238940281
150299100.0 -0.8101037391 0.241071443 -1.21336e-05 0.0001071731 2.51039e-05 -8.53073e-05 0.8198329469 -0.2469889617
155299070.0 -0.8075945151 0.2497788054 -5.58674e-05 -4.12319e-05 7.65564e-05 2.08723e-05 0.8173355 -0.2549207176
160299040.0 -0.8055259791 0.2583960328 0.0001136356 5.59011e-05 -3.44649e-05 2.1029e-06 0.814849114 -0.2625263114
165299010.0 -0.8030551202 0.2671359829 7.94383e-05 -5.91995e-05 2.82906e-05 0.0001055054 0.8114226227 -0.2707618707
170298980.0 -0.7999850033 0.2751418582 0.0001233871 -5.56051e-05 0.0001716424 -3.18338e-05 0.809488575 -0.2784982895
175298950.0 -0.7973884179 0.2844521821 -2.77149e-05 7.78737e-05 -9.7637e-06 0.0001548686 0.8067082822 -0.285830047
180298920.0 -0.7948447205 0.2929330743 -7.32086e-05 -0.0001314849 7.51816e-05 4.10978e-05 0.8035179242 -0.2941178268
185298890.0 -0.7914438333 0.3012671375 -0.0001548983 -0.0001309291 -0.0001122319 -0.000155384 0.8003928355 -0.3017299876
190298860.0 -0.7886463369 0.3100461393 -3.97074e-05 0.000133278 0.0001007667 -0.0001425879 0.7979728058 -0.3087824289
195298830.0 -0.7854531257 0.3180677782 0.0001352849 -0.0001123577 -0.0001615023 -0.0001779149 0.794676143 -0.3169077791
200298800.0 -0.7814349186 0.3263866057 -0.000136085 -1.50704e-05 -0.0001186941 3.93345e-05 0.7914330797 -0.3250305005
205298770.0 -0.7784197274 0.3342408861 7.77887e-05 0.0001145975 -1.72354e-05 -1.03896e-05 0.7877225399 -0.3322705627
210298740.0 -0.7746693083 0.3424325946 7.18928e-05 -1.58256e-05 -7.39784e-05 -0.0001514029 0.784463378 -0.3395467992
215298710.0 -0.7715088093 0.3513179675 7.6568e-05 0.0001896385 -4.59718e-05 -3.67097e-05 0.7809553717 -0.3469655395
220298680.0 -0.7674149824 0.3589695102 -0.0002216294 -4.77792e-05 4.89275e-05 -3.88805e-05 0.7773666658 -0.3543139004
225298650.0 -0.7641043196 0.3667093215 -0.0002353488 -6.86206e-05 0.0001898501 -0.0001873212 0.7733745319 -0.3623714
230298620.0 -0.7603523477 0.3748440391 0.000170955 -5.508e-06 -3.97528e-05 -6.02195e-05 0.7700467803 -0.3696815586
235298590.0 -0.7565749753 0.3833973721 -0.0002210148 0.0002408652 3.74984e-05 4.01757e-05 0.7663913317 -0.3770550087
240298560.0 -0.7525327719 0.3912029516 -0.0001600938 -9.76241e-05 -0.0001742102 -0.0001345538 0.7629062373 -0.3851236872
245298530.0 -0.748658545 0.3985773919 0.0001321247 9.0352e-05 0.0001051543 -4.3618e-05 0.7592100679 -0.3921804817
250298500.0 -0.7441009022 0.4071642312 -5.16704e-05 -4.26548e-05 9.54052e-05 -0.0001576037 0.7550994305 -0.3996674667
255298470.0 -0.7398539911 0.4141779467 0.000125226 8.58569e-05 7.92784e-05 -4.48224e-05 0.7513533142 -0.4070120572
260298440.0 -0.7353722799 0.4219898981 0.0002594026 1.52996e-05 0.0001821456 8.03584e-05 0.7473963932 -0.4135820445
265298410.0 -0.7312105174 0.4298384111 -7.15374e-05 2.71456e-05 0.0002075624 -0.0002193657 0.7433596381 -0.4212099523
270298380.0 -0.727043469 0.4376879016 -0.0001319885 -8.4586e-05 1.5072e-06 -8.73465e-05 0.7396483766 -0.4282433324
275298350.0 -0.7221434589 0.44502927 5.27389e-05 0.0001660743 1.99025e-05 -2.645e-05 0.7355451424 -0.435790592
280298320.0 -0.7167438296 0.4526276289 3.70281e-05 -4.13879e-05 5.58667e-05 -0.00012471 0.731874884 -0.4435377
285298290.0 -0.7125748673 0.4603233648 8.79286e-05 3.30342e-05 2.40283e-05 -4.04697e-05 0.7276767694 -0.4499516498
290298260.0 -0.7077601581 0.4676394263 9.61995e-05 7.93516e-05 0.0001248934 -4.1034e-06 0.7237671403 -0.4567560705
295298230.0 -0.7024122598 0.4748092991 8.43118e-05 0.0001109271 3.42808e-05 2.16774e-05 0.7196844228 -0.4643136218
300298200.0 -0.6979067298 0.4820231994 -0.0001172549 0.0001890034 -0.0001646806 -0.0002709885 0.7154468626 -0.4712812447
305298170.0 -0.692435738 0.4883741462 1.72162e-05 -8.40243e-05 5.4773e-05 -5.76717e-05 0.7112668756 -0.4799061923
310298140.0 -0.6876699854 0.4961984507 -4.67107e-05 -0.0002204839 2.28772e-05 8.87822e-05 0.7059904301 -0.4873503453
315298110.0 -0.6826223288 0.5037564111 -1.90092e-05 -7.51883e-05 -1.65827e-05 -0.0001101658 0.7012098886 -0.4947784745
320298080.0 -0.6772524659 0.5101674416 -8.39004e-05 3.64296e-05 0.0001424959 -4.29439e-05 0.6957561092 -0.5020697186
325298050.0 -0.6720542283 0.517699997 -1.26844e-05 -1.90533e-05 -0.0001376004 -0.000119562 0.6898728445 -0.5087481885
330298020.0 -0.6660583976 0.5239430511 -1.4785e-06 1.5901e-06 5.79945e-05 -0.0001013211 0.6835704014 -0.515285071
335297990.0 -0.6604148554 0.5310365111 -0.0001012979 -7.8008e-06 1.77349e-05 5.53104e-05 0.6781217161 -0.5212985015
340297960.0 -0.6558783295 0.5378337182 0.0002004372 1.46454e-05 0.0002220856 -0.0001942649 0.6734524718 -0.5279150762
345297930.0 -0.6498274652 0.5443886445 6.97342e-05 -0.0001874223 6.79967e-05 -7.758e-05 0.6675853691 -0.5343417622
350297900.0 -0.6442250957 0.5512243682 3.69648e-05 -0.0001335013 5.53314e-05 6.16037e-05 0.6617835204 -0.5396224071
355297870.0 -0.637744597 0.5583284121 -2.0053e-06 0.0001834953 0.0001305758 0.0001141619 0.6567546767 -0.5457086165
360297840.0 -0.6326820506 0.5641249456 7.79141e-05 -8.93311e-05 -0.0001722553 0.0001333206 0.6510474075 -0.5532001052
365297810.0 -0.6270465314 0.5708180074 4.2295e-06 -0.0001512386 2.01422e-05 -4.31632e-05 0.6460164961 -0.5588851157
370297780.0 -0.6205936721 0.5764055689 0.0001071781 0.0001731418 -2.6458e-05 -9.0551e-06 0.6404082089 -0.5644205383
375297750.0 -0.6149407381 0.5835220227 0.0002133133 0.0001305147 3.08839e-05 6.84728e-05 0.6342207632 -0.5707435028
380297720.0 -0.6080571938 0.5891012467 7.88436e-05 -8.60599e-05 2.87457e-05 -0.0001416603 0.6279232868 -0.5764490017
385297690.0 -0.6029085774 0.5953662612 0.0001454845 0.0002268859 0.0001761445 0.0001086036 0.6229234208 -0.5825788916
390297660.0 -0.5964535164 0.6015437295 -0.0002429168 6.82826e-05 -0.0002877586 -0.0001164654 0.6167973649 -0.5886461833
395297630.0 -0.5901932075 0.6083521646 0.0001583247 6.3153e-05 8.79169e-05 -8.23511e-05 0.6111442995 -0.5940638423
400297600.0 -0.5837236517 0.6143945884 -3.54181e-05 1.13573e-05 -0.0001361247 -0.000172117 0.6049235582 -0.5998392422
405297570.0 -0.577779764 0.6200407547 0.0001657964 3.74346e-05 -0.0002382103 3.54706e-05 0.5991253855 -0.606068165
410297540.0 -0.5704613786 0.6256437425 -3.40374e-05 -0.0001136355 0.0001120266 5.00645e-05 0.5932642833 -0.6115931301
415297510.0 -0.5643196082 0.631155372 7.24685e-05 -0.0001358189 -3.17429e-05 5.05608e-05 0.5872179554 -0.6174822804
420297480.0 -0.5586401814 0.6378161342 -2.77172e-05 -8.81762e-05 1.38666e-05 -4.37564e-05 0.5814460758 -0.622568605
425297450.0 -0.5514512499 0.6430854641 -0.0001225679 -0.0002552532 0.0002742038 0.0001573684 0.575500003 -0.6286226858
430297420.0 -0.5454532254 0.6481059095 -3.64617e-05 0.0001033251 -7.46274e-05 -1.01514e-05 0.5685520253 -0.6345947233
435297390.0 -0.5389232572 0.6538813721 -0.000186777 -1.13298e-05 0.0001899357 -4.20718e-05 0.5627698357 -0.6404328315
440297360.0 -0.5317676608 0.659003122 -1.4691e-05 5.24964e-05 7.9573e-06 4.81134e-05 0.5561663772 -0.6448463923
445297330.0 -0.5246186116 0.6645730679 -0.0001138214 5.5143e-06 -0.0001189486 0.0002126643 0.5502101306 -0.6510169019
450297300.0 -0.5182885809 0.6691813842 0.000204215 -3.3002e-06 9.44649e-05 0.0001720827 0.5433577588 -0.6557391067
455297270.0 -0.5107935249 0.6746460698 -1.64031e-05 -6.84e-05 -2.06578e-05 0.0001148231 0.5371124096 -0.6612426931
460297240.0 -0.5043030655 0.6799100947 -0.0001911985 4.32531e-05 -0.0001738916 -0.0001096735 0.5303348235 -0.6669049849
465297210.0 -0.4975195154 0.6848883826 -9.85443e-05 -0.0002111025 0.0003323115 0.0001797615 0.5238151209 -0.6711937518
470297180.0 -0.4897789561 0.6898461583 -0.0001011533 -0.0001428029 6.14336e-05 2.67589e-05 0.5169937529 -0.6765670548
475297150.0 -0.4833069347 0.6940494437 -7.16277e-05 4.4306e-05 6.59427e-05 -2.29999e-05 0.5105284187 -0.6817872343
480297120.0 -0.4761539308 0.6996102252 -0.0001373828 -7.19735e-05 -4.13255e-05 2.87863e-05 0.5046212316 -0.6861998918
485297090.0 -0.4690203619 0.704226239 -5.24958e-05 -0.0002025821 -3.0465e-05 -0.000196514 0.4975417431 -0.6915531277
490297060.0 -0.4618918891 0.7085452648 -0.0002035066 -2.11648e-05 7.94982e-05 -1.95921e-05 0.4900656476 -0.6965523314
495297030.0 -0.4546946271 0.7133304988 0.0001648594 0.000293511 0.0001949426 -0.0001656562 0.4839560782 -0.7006262021
500297000.0 -0.4471646446 0.7178695821 8.0781e-05 1.01484e-05 -7.44609e-05 -6.36466e-05 0.4769537976 -0.7057505833
505296970.0 -0.4397582131 0.7228905273 -0.000147081 -8.74824e-05 -1.00305e-05 -0.0001282525 0.469940667 -0.7097472173
510296940.0 -0.4328758628 0.7264730844 2.315e-07 -0.000276289 0.0001263255 2.88827e-05 0.4624317071 -0.7145052273
515296910.0 -0.4245926101 0.7306676265 -0.0001556574 0.0001037634 -0.0001596986 0.0001224576 0.4562305869 -0.7183513731
520296880.0 -0.4181151957 0.7358426606 -0.0001675435 3.43241e-05 -1.5064e-06 -3.3068e-06 0.4485118574 -0.7236104724
525296850.0 -0.4096753686 0.7388953452 0.0001735223 -4.8705e-06 -0.0002344197 4.41145e-05 0.4415626226 -0.7266787371
530296820.0 -0.4026856933 0.7436449647 -0.0001151529 2.58731e-05 -5.89939e-05 -2.6752e-05 0.4348773732 -0.7310714956
535296790.0 -0.3955195766 0.7472802357 -5.58379e-05 6.0913e-06 6.0648e-06 1.87277e-05 0.4264934729 -0.7358331447
540296760.0 -0.3878570152 0.7506261283 0.0002108871 -6.74698e-05 0.0001548896 -0.0002183655 0.419673969 -0.7390301027
545296730.0 -0.3804054756 0.7552573792 -0.0001128914 5.02426e-05 -0.0001990478 -0.0001087623 0.412324319 -0.7433490635
550296700.0 -0.3728028927 0.7592863633 -0.0001856959 8.13049e-05 -4.10074e-05 -5.35848e-05 0.4048877615 -0.7477604811
555296670.0 -0.3645272581 0.7617543644 -6.76593e-05 -5.59238e-05 5.53432e-05 5.42782e-05 0.3973158048 -0.7508568925
560296640.0 -0.3566741653 0.7660076049 -6.9508e-06 0.0001007639 0.0001237087 -3.11689e-05 0.3891676943 -0.7545738561
565296610.0 -0.3491241847 0.7703021905 -0.000101638 0.0001650173 0.0002018435 4.4699e-06 0.3822539316 -0.7578913177
570296580.0 -0.3421698666 0.7721190591 -0.0002118187 -1.6462e-06 -9.07415e-05 -5.7847e-05 0.3747650482 -0.7618073997
575296550.0 -0.3344884438 0.7768057823 0.0001202697 7.39815e-05 -0.0003173109 1.66211e-05 0.367040321 -0.7651258331
580296520.0 -0.3256145752 0.7797970365 -8.98026e-05 -7.1052e-05 7.81493e-05 0.00012387 0.3593552381 -0.7691051655
585296490.0 -0.318511328 0.7828432801 -0.000188805 0.0002356991 -3.37514e-05 -0.0001351564 0.3522224441 -0.7723161791
590296460.0 -0.3096730711 0.786378065 -1.4477e-06 0.0001109083 4.07615e-05 -8.69722e-05 0.3439610635 -0.7753081857
595296430.0 -0.3023276351 0.7882792614 -7.83658e-05 -3.4491e-05 4.89259e-05 2.85019e-05 0.336333225 -0.779158266
600296400.0 -0.2946480331 0.792228882 0.0001207692 -0.0002274888 -5.87722e-05 0.0001793252 0.3298279482 -0.7828751952
605296370.0 -0.2871523061 0.7944664807 -6.1396e-05 5.6507e-05 9.40714e-05 -1.46207e-05 0.3217244641 -0.7857883231
610296340.0 -0.2786375806 0.7976296033 0.0002462021 -1.54981e-05 5.41014e-05 -2.01091e-05 0.3136936248 -0.7884724372
615296310.0 -0.2696780268 0.8005856918 -4.0274e-06 1.1662e-06 5.8421e-06 0.0001289867 0.3058596299 -0.7916532931
620296280.0 -0.2623862308 0.8020786323 -0.0001290574 1.66045e-05 0.0001617319 7.58268e-05 0.2977813038 -0.7948328927
625296250.0 -0.2546300689 0.8054024931 -3.42274e-05 2.0259e-06 -0.0002744265 -0.0003402221 0.2906196315 -0.7972917501
630296220.0 -0.2455935682 0.808052052 0.0001285101 3.09076e-05 -9.98468e-05 -0.0001196494 0.2823046703 -0.7997112457
635296190.0 -0.2379951496 0.8106371587 -0.0001247017 -5.79938e-05 0.0001268455 -0.0001644697 0.2744567654 -0.8027292788
640296160.0 -0.2305735282 0.8123783961 9.39506e-05 0.0001011928 -0.0002176461 0.0002173136 0.2655115588 -0.8049498966
645296130.0 -0.222301457 0.8151708577 1.65217e-05 -1.09877e-05 0.0001334232 -3.92211e-05 0.2590580514 -0.8070877984
650296100.0 -0.2139926547 0.8168283128 7.97273e-05 -0.0002087222 -9.54897e-05 0.0001559993 0.2511632646 -0.8106046049
655296070.0 -0.2058091755 0.819079034 1.659e-06 4.2573e-06 -0.0002909735 -2.3819e-06 0.2432697724 -0.8121040802
660296040.0 -0.1973935721 0.8202942247 6.44634e-05 -1.53132e-05 -0.0001855456 -1.45835e-05 0.2354896685 -0.8151074941
665296010.0 -0.188777958 0.8219929648 -7.75306e-05 -0.0001799441 0.0001007366 -7.41628e-05 0.2267596205 -0.8169029361
670295980.0 -0.1814777751 0.8246925162 -4.70758e-05 -0.0001109466 -7.72673e-05 -0.0001892876 0.2185674325 -0.8193737191
675295950.0 -0.1730262902 0.8259460059 0.0001568285 0.0002278781 2.63909e-05 6.90769e-05 0.2102954721 -0.8210630785
680295920.0 -0.1644082663 0.8282704031 -0.0001066272 -0.000145387 0.0002296995 -2.67515e-05 0.2024767091 -0.822595564
685295890.0 -0.1556587614 0.8306392439 -0.0001125899 -0.0001619466 -9.81596e-05 -4.54053e-05 0.1941673871 -0.8243537797
690295860.0 -0.1482523474 0.8308658979 -5.57897e-05 -3.05469e-05 5.57343e-05 0.0001141533 0.1858809898 -0.8256816707
695295830.0 -0.1401755938 0.8320302254 -9.83809e-05 0.0002676333 -2.95517e-05 0.0001048048 0.1775381926 -0.8273121566
700295800.0 -0.1312116445 0.8330468573 8.25509e-05 -0.0001616371 -7.2318e-05 0.000152553 0.1697064234 -0.8294075681
705295770.0 -0.1235659456 0.8353681799 -0.0001656563 3.68544e-05 -3.62015e-05 7.83777e-05 0.1608583963 -0.8296675617
710295740.0 -0.1152069707 0.8359116814 8.50084e-05 -0.0002141495 -7.0354e-06 -5.55766e-05 0.1526852364 -0.8315522516
715295710.0 -0.1069510786 0.8374000593 -0.0002218336 0.0002673996 -8.29888e-05 0.0003731238 0.1448899671 -0.8331856311
720295680.0 -0.0985740448 0.8379737294 -3.30388e-05 0.0001613334 4.11552e-05 -0.000124092 0.1368426197 -0.83395552
725295650.0 -0.0892836559 0.8394928975 8.81887e-05 -4.40389e-05 0.0001962265 -0.0001118711 0.1280131453 -0.8345234641
730295620.0 -0.0815324898 0.8397968931 0.0002571269 -0.0001264855 0.0002098435 -7.3649e-06 0.1193999969 -0.8366255706
735295590.0 -0.07386384 0.841184332 -2.69718e-05 5.81357e-05 -1.68348e-05 7.74845e-05 0.111220358 -0.8382834327
740295560.0 -0.0652352105 0.8419801784 -0.0001041803 -6.45616e-05 9.7786e-06 -0.0001577836 0.1029643251 -0.838392629
745295530.0 -0.0567957699 0.8426241512 -8.23977e-05 -6.4196e-06 0.000246886 -3.77041e-05 0.0951486723 -0.8388295057
750295500.0 -0.0479611999 0.8428842347 0.0002367005 -8.995e-05 0.0001584943 0.000160627 0.0860719378 -0.8396134875
755295470.0 -0.0398622193 0.8429075259 5.58194e-05 8.56983e-05 0.0001372301 -1.78245e-05 0.0784915582 -0.840784707
760295440.0 -0.0318893718 0.8435669792 -0.0001325229 5.3426e-06 0.0001109892 -5.66831e-05 0.0701244707 -0.8417002817
765295410.0 -0.0238900502 0.8443045115 8.72917e-05 0.0001640692 1.6586e-06 -1.55307e-05 0.0617482382 -0.8422050443
770295380.0 -0.0153506418 0.8436900416 0.0002410204 8.63222e-05 -3.88385e-05 3.27716e-05 0.0523630227 -0.8432566893
775295350.0 -0.0070088715 0.8436242903 -6.07568e-05 0.0001919039 -0.0001990294 -2.63939e-05 0.0441508364 -0.8435448977
780295320.0 0.0014052884 0.8440479742 1.56089e-05 -4.53884e-05 0.0002599829 1.50116e-05 0.0367953877 -0.8434523523
785295290.0 0.0097758673 0.843849059 -2.94225e-05 -0.0001122409 -0.0001269668 -0.0002641243 0.0286288866 -0.8438366242
790295260.0 0.0184825714 0.8438595258 -8.0756e-05 0.0001969129 -8.9667e-06 0.0001334625 0.0203810705 -0.8441569983
795295230.0 0.0262221749 0.8433026206 0.0001305883 7.69516e-05 -3.39525e-05 0.0002177761 0.0116024015 -0.8442360291
800295200.0 0.0346162131 0.8431416901 6.25553e-05 4.6691e-06 -0.0002673225 -8.41642e-05 0.0027261315 -0.8439437075
805295170.0 0.0442764313 0.8424347541 -1.73844e-05 -0.0001411361 -0.0001289627 -2.29794e-05 -0.0051417806 -0.8436312972
810295140.0 0.0518143339 0.8423094241 2.35309e-05 9.97496e-05 9.93061e-05 -0.0001627669 -0.0125996762 -0.8439215376
815295110.0 0.0594910099 0.8417529712 -0.0001241528 4.14841e-05 -9.07987e-05 1.0749e-06 -0.0215600815 -0.8431084965
820295080.0 0.0682844113 0.8412761258 -3.23625e-05 4.86001e-05 -0.0001849546 0.0001234714 -0.029992687 -0.8429869735
825295050.0 0.0773813678 0.8401721435 -2.3822e-05 -2.2748e-06 2.09947e-05 0.0001546787 -0.0381453361 -0.8424828105
830295020.0 0.0844819149 0.8395596838 -3.21398e-05 -4.57427e-05 0.0001165642 -0.0001545597 -0.0460860044 -0.8416510625
835294990.0 0.0932501939 0.8390832485 7.95578e-05 0.000239588 5.26131e-05 1.93633e-05 -0.0553210061 -0.8411292816
840294960.0 0.1009008535 0.8377802961 -0.0001244113 0.000110832 5.9339e-05 -0.000191943 -0.0632193232 -0.8402115247
845294930.0 0.1089812491 0.8362632402 7.23115e-05 -9.18871e-05 0.0002537379 0.0001262034 -0.0716781438 -0.8389487621
