!Created with skrf (http://scikit-rf.org).
# Hz S RI R 50.0 
!freq ReS11 ImS11 ReS21 ImS21 ReS12 ImS12 ReS22 ImS22
300000.0 -0.3206165177 -0.0842047401 0.3759382523 0.0443063642 0.3726663525 0.0410342577 -0.3199433834 -0.0968769257
5299970.0 -0.3267107251 0.0040117383 0.3782349574 0.0027421046 0.3784576676 0.002711278 -0.3242723829 0.0048821545
10299940.0 -0.3241096538 0.0131788695 0.3792478687 0.0021206381 0.3796037713 0.0021950285 -0.3216724368 0.0158529648
15299910.0 -0.3214923051 0.0202602574 0.3819561896 0.0022573676 0.3819631682 0.0022855354 -0.3183020074 0.0238600573
20299880.0 -0.3184429299 0.026240185 0.3846969419 0.0016123991 0.3850122091 0.0013659764 -0.3149772789 0.0303580524
25299850.0 -0.3157546924 0.0313619775 0.3882228033 0.0003131777 0.3880798589 0.0001774959 -0.3107106665 0.0359175695
30299820.0 -0.3130592113 0.0356304391 0.3913926812 -0.0019292113 0.3913332814 -0.002191969 -0.3070324274 0.0409009138
35299790.0 -0.3097705292 0.040007083 0.3949075376 -0.0054847227 0.3949152009 -0.0050641615 -0.3037075852 0.045118448
40299760.0 -0.3073206708 0.0436500984 0.3978858602 -0.0088432058 0.3981515155 -0.0087201559 -0.3003118914 0.0485326632
45299730.0 -0.3047406015 0.0465633544 0.4007853642 -0.0123345031 0.4008373476 -0.012751067 -0.2971675321 0.0520250409
50299700.0 -0.3024876034 0.0492796898 0.4034510004 -0.0170066113 0.4034306525 -0.0170436634 -0.2943555064 0.0543974375
55299670.0 -0.3004512469 0.0520764371 0.4058105295 -0.0222239079 0.4056187202 -0.0218975655 -0.2916586224 0.0570489174
60299640.0 -0.2978215069 0.05491326 0.4073354015 -0.0268014237 0.4078370989 -0.0265834551 -0.2890517496 0.0592014108
65299610.0 -0.2959711261 0.0573419113 0.4090018907 -0.0319638018 0.4091511781 -0.0317185081 -0.2871616452 0.0616158447
70299580.0 -0.2944911876 0.0601042039 0.4099381892 -0.0370978036 0.4101792842 -0.0369380395 -0.2849563153 0.0638426219
75299550.0 -0.2930332687 0.0624175984 0.4114369443 -0.042111637 0.4111931357 -0.0422361441 -0.2830742599 0.0658334337
80299520.0 -0.2913825605 0.064889203 0.4122247211 -0.0473843192 0.4123826163 -0.047502122 -0.2815111824 0.0682716442
85299490.0 -0.2902434481 0.0669743516 0.4128415615 -0.0525639841 0.4128232359 -0.0521366975 -0.2801051904 0.069915768
90299460.0 -0.288913501 0.0695366403 0.4131401466 -0.0579532164 0.4136024406 -0.057747949 -0.2784348285 0.0719926693
95299430.0 -0.2873559135 0.0716378786 0.4135991292 -0.0632997228 0.4135039018 -0.0631364941 -0.2764989071 0.0742568996
100299400.0 -0.2863799283 0.0741063138 0.4132237215 -0.0682835485 0.4130944081 -0.0682673834 -0.2750066248 0.0760948789
105299370.0 -0.2853227425 0.0762942672 0.4133240352 -0.0736142868 0.413433843 -0.0737732436 -0.2737719886 0.0784500149
110299340.0 -0.2838509175 0.0784964951 0.4130294995 -0.0785121931 0.4127936491 -0.0785079162 -0.2729444407 0.0803427042
115299310.0 -0.2829351365 0.081185288 0.4128477048 -0.0837543069 0.4128662125 -0.0832353066 -0.271368295 0.0823074223
120299280.0 -0.2819667755 0.0830775853 0.4122580813 -0.0887062179 0.412601814 -0.0891010196 -0.2704810643 0.0844562395
125299250.0 -0.2812223577 0.0853224277 0.4119649459 -0.0936304061 0.4121490013 -0.0938802625 -0.2696469241 0.0862808644
130299220.0 -0.2803540854 0.0882881298 0.4111213607 -0.0993052928 0.4112906535 -0.099151237 -0.2685221044 0.0888027348
135299190.0 -0.2792404935 0.0906232197 0.4105261675 -0.1040095454 0.4105683807 -0.1038680127 -0.267523659 0.0911977935
140299160.0 -0.2784527284 0.093285566 0.4096597397 -0.1093522864 0.409501595 -0.109193183 -0.2661388995 0.0934834264
145299130.0 -0.2774557673 0.095747087 0.408987405 -0.1142852547 0.4088059249 -0.1140366277 -0.2654346294 0.0957200742
150299100.0 -0.2762788355 0.0981212017 0.4077788912 -0.1188541223 0.4077589584 -0.118151913 -0.2643694921 0.098572834
155299070.0 -0.2758738468 0.1007133348 0.4070292691 -0.1244875 0.4066582631 -0.1238385531 -0.2629996007 0.1007362689
160299040.0 -0.2747618827 0.1033941684 0.4054824246 -0.1286398671 0.405232253 -0.1286959617 -0.262713815 0.1031908231
165299010.0 -0.2738839663 0.106126263 0.4044256544 -0.1341970139 0.4045631183 -0.1336194627 -0.2613190087 0.1059361707
170298980.0 -0.2728883277 0.1087541613 0.4027657124 -0.1385806218 0.402856718 -0.138111465 -0.260271706 0.1082404053
175298950.0 -0.2721278081 0.1112983685 0.4014773294 -0.1427296387 0.4015436071 -0.1427298919 -0.2594733551 0.1107532474
180298920.0 -0.2709460396 0.1138479158 0.3999286624 -0.1478945233 0.399975902 -0.147777567 -0.2583495826 0.1135381504
185298890.0 -0.2697807416 0.116479605 0.3985777585 -0.1527426837 0.398485809 -0.1523243783 -0.2571220371 0.1157981405
190298860.0 -0.2686184342 0.1193721145 0.3970541161 -0.1576330444 0.3972671583 -0.1569684976 -0.2562347092 0.1182650306
195298830.0 -0.2677039426 0.1217001342 0.3955124105 -0.1615472517 0.3953100116 -0.1616340686 -0.2554252199 0.1207605174
200298800.0 -0.2665002714 0.124679298 0.3933041016 -0.1664471043 0.39349708 -0.1665058838 -0.2545606973 0.1235487858
205298770.0 -0.2654623371 0.1270538802 0.3916540471 -0.1714534296 0.3914994826 -0.1708046844 -0.2532936805 0.1252840286
210298740.0 -0.2642379982 0.1296800126 0.3894837671 -0.1753212792 0.3896685446 -0.1755724905 -0.2517486475 0.128710455
215298710.0 -0.2634551 0.1328609087 0.3879101452 -0.1800873204 0.3879472297 -0.1803827865 -0.2509433916 0.1310201696
220298680.0 -0.2620655509 0.1352003785 0.3857089537 -0.1844911164 0.3858871887 -0.1842990749 -0.2501090046 0.1333293179
225298650.0 -0.2611247832 0.1377315899 0.38391702 -0.189031625 0.384073271 -0.1890571409 -0.2491441282 0.1359202587
230298620.0 -0.2595686668 0.140816922 0.3820691977 -0.1930775269 0.3823422726 -0.1933048898 -0.2476343688 0.1385358573
235298590.0 -0.2581467754 0.1437058581 0.3793532378 -0.197637327 0.380129096 -0.1974648755 -0.2466037808 0.1411759195
240298560.0 -0.2572004424 0.1464913777 0.3780205274 -0.2027352784 0.3778034524 -0.2023587624 -0.2452220938 0.1438747723
245298530.0 -0.255663109 0.1491628733 0.3758084825 -0.2065958143 0.3755120918 -0.2065185729 -0.2439123408 0.1456033984
250298500.0 -0.2540422657 0.151756717 0.3725829477 -0.2110487215 0.3727092897 -0.2104697781 -0.2427461773 0.1483924146
255298470.0 -0.2528986708 0.1541962872 0.3702749274 -0.2148832833 0.3707574955 -0.2147584843 -0.241340637 0.1508438517
260298440.0 -0.2516859028 0.1569047082 0.3685248914 -0.2194751971 0.3686022965 -0.2188713973 -0.2396226529 0.1534742943
265298410.0 -0.2498513471 0.1599996325 0.3657973357 -0.2234366156 0.3664298448 -0.2230065541 -0.2380769448 0.1561574186
270298380.0 -0.2486178967 0.1624553774 0.363738707 -0.227433253 0.3637908423 -0.2271219941 -0.2365503778 0.1584558056
275298350.0 -0.2468588188 0.1652455192 0.3611282043 -0.2317326632 0.3614004487 -0.2314597325 -0.2351811578 0.1610054055
280298320.0 -0.2453229464 0.1678892782 0.3586038625 -0.2359545446 0.3586908339 -0.2353736586 -0.233420142 0.1637925171
285298290.0 -0.2439608605 0.1708797889 0.3560071259 -0.239811477 0.3560861195 -0.2396933779 -0.2316610404 0.1658129402
290298260.0 -0.2419844925 0.173244208 0.3534215078 -0.2435984377 0.353336795 -0.2434675088 -0.2303260777 0.1684974481
295298230.0 -0.2396325972 0.1755093653 0.3506200801 -0.2478654963 0.3505492694 -0.2477089387 -0.2282480704 0.1709317674
300298200.0 -0.2384913773 0.1781322083 0.348435132 -0.2516247348 0.3481242941 -0.251583542 -0.2267263626 0.1734458356
305298170.0 -0.2366462637 0.1807711846 0.3451169402 -0.2559549208 0.3450696239 -0.2554480467 -0.2244732783 0.1757537897
310298140.0 -0.2350137174 0.1833761884 0.3424369381 -0.259618079 0.3424322358 -0.2595927143 -0.2233585537 0.1784424887
315298110.0 -0.2331147409 0.1859048005 0.3391201295 -0.2635928737 0.3396210486 -0.2633452644 -0.2212882834 0.180444579
320298080.0 -0.2311017805 0.1881308538 0.3362138518 -0.2676517231 0.3364048417 -0.2673729306 -0.2193002261 0.1831208953
325298050.0 -0.2294009361 0.190901737 0.3333307705 -0.2715362074 0.3336122441 -0.2714993671 -0.2179680713 0.185342332
330298020.0 -0.2274983506 0.1929730802 0.3299995176 -0.2748571143 0.3305459637 -0.2749681375 -0.216356333 0.187889527
335297990.0 -0.2258067217 0.1956363504 0.3271661374 -0.2785822522 0.3269308716 -0.2785890698 -0.2146223911 0.1908054948
340297960.0 -0.2241853939 0.198415806 0.3234896784 -0.282179791 0.323896348 -0.2823441607 -0.2122487348 0.1931494317
345297930.0 -0.2223984128 0.2008365817 0.3208113558 -0.2858128401 0.3206261233 -0.2858893352 -0.2106394815 0.1951086908
350297900.0 -0.2203086772 0.2032915392 0.3174366937 -0.2897891505 0.3173934726 -0.2890980436 -0.209069528 0.1980809095
355297870.0 -0.2180768167 0.206104465 0.3143243002 -0.2927702832 0.3143435807 -0.292625234 -0.2072585178 0.2001549794
360297840.0 -0.2160086323 0.2085074215 0.3113216212 -0.2962757824 0.3114028885 -0.2959745379 -0.2051921322 0.2027903155
365297810.0 -0.2141630953 0.2106716383 0.3077954831 -0.2995026938 0.3076986366 -0.2998650294 -0.2027013791 0.2049005051
370297780.0 -0.2117070064 0.2131381213 0.3040650096 -0.3030204049 0.3047549843 -0.302580781 -0.2006603263 0.2071783819
375297750.0 -0.2095771677 0.2156558965 0.3009961683 -0.3064766877 0.301168528 -0.3064780738 -0.1988355901 0.2092249013
380297720.0 -0.2074137456 0.2177627275 0.2974531055 -0.3096677003 0.2977283657 -0.3091646936 -0.1973022142 0.2116821609
385297690.0 -0.2055367822 0.2206267216 0.2941191983 -0.3128797346 0.2941951328 -0.3126895 -0.1947006829 0.2142330834
390297660.0 -0.2030307764 0.2226481965 0.2904243391 -0.3159808326 0.2905335926 -0.3154885778 -0.1927993046 0.216299394
395297630.0 -0.2008966057 0.2249700924 0.2871109697 -0.3189813346 0.2872081888 -0.319355348 -0.190246716 0.2186767686
400297600.0 -0.1984027141 0.2273855988 0.2834110072 -0.3224224052 0.2838348394 -0.3224494591 -0.188180754 0.2207517692
405297570.0 -0.1964979799 0.2295719748 0.2798253099 -0.3251482972 0.2802163357 -0.3250827775 -0.1862137743 0.2229325571
410297540.0 -0.1936220988 0.2317895695 0.2763654603 -0.3287457592 0.2768387886 -0.3284390729 -0.1839579209 0.2249029371
415297510.0 -0.1917515823 0.2341153781 0.2727907162 -0.3321458089 0.2728846313 -0.3317153199 -0.1815656657 0.2269247836
420297480.0 -0.1893731076 0.2365726541 0.2688371485 -0.3345208328 0.2690739541 -0.3348278894 -0.1793777872 0.2293108621
425297450.0 -0.1864276391 0.2382086015 0.2652764875 -0.3376246719 0.2659241773 -0.3374429522 -0.1771462314 0.2312541571
430297420.0 -0.1842403792 0.2406468724 0.2617857658 -0.340192934 0.2618445638 -0.3398221686 -0.1746760899 0.2329018987
435297390.0 -0.1818782472 0.2425191304 0.2575227827 -0.3430549149 0.257500868 -0.3434078035 -0.1717398549 0.2352092143
440297360.0 -0.1789128365 0.2447324192 0.2537812275 -0.3458893779 0.2543178543 -0.345512983 -0.1694064087 0.2369367277
445297330.0 -0.1768615846 0.2466159568 0.2508926379 -0.3485262715 0.250475121 -0.348208123 -0.1671979367 0.2384209502
450297300.0 -0.1741390309 0.2482359946 0.2466974597 -0.3516843934 0.2464701729 -0.3513091557 -0.1644636214 0.2405598472
455297270.0 -0.1717365025 0.2504833865 0.2423128518 -0.3539352429 0.2426132468 -0.3538291923 -0.1623233533 0.2422122524
460297240.0 -0.1691359351 0.2524855982 0.2385264664 -0.3564094401 0.2388810529 -0.3566158083 -0.1598264907 0.2443506687
465297210.0 -0.1661869793 0.2545415946 0.2345462441 -0.3592859293 0.234810577 -0.3594218395 -0.1569081628 0.2456948313
470297180.0 -0.1635233913 0.2562860971 0.2303004887 -0.3615021825 0.2306126869 -0.3616562609 -0.1541305994 0.2483029679
475297150.0 -0.1612593916 0.2579490048 0.2266319681 -0.3638284584 0.2264874389 -0.3637819798 -0.1512838907 0.2494424932
480297120.0 -0.1583551496 0.2600509068 0.2227326991 -0.3666058683 0.2225882712 -0.3664946107 -0.1489332931 0.2513664881
485297090.0 -0.1555545537 0.2618775943 0.2189696021 -0.3685698544 0.2187420127 -0.3686638026 -0.1463220927 0.2530448297
490297060.0 -0.153075823 0.2638614344 0.2151221659 -0.3714147159 0.2150919712 -0.3711335534 -0.1438153228 0.254910832
495297030.0 -0.1502375913 0.2654253374 0.2104006034 -0.3734763217 0.2108715346 -0.3733309085 -0.1409728967 0.2567134902
500297000.0 -0.147397168 0.2669662693 0.2067789663 -0.3755078789 0.2061878241 -0.3756300293 -0.1380175029 0.2587249832
505296970.0 -0.1446248475 0.2687729772 0.2025752945 -0.3777043342 0.2020499985 -0.3780166659 -0.1355622741 0.2602935716
510296940.0 -0.1417070305 0.2704650442 0.1983244938 -0.3802114594 0.19783976 -0.3800082351 -0.1324659168 0.2617236982
515296910.0 -0.1387168541 0.2721141373 0.1937236453 -0.3822211611 0.1940669927 -0.3821426296 -0.1300508493 0.2632438826
520296880.0 -0.1363032315 0.2733370438 0.1899860121 -0.3841074652 0.1898944058 -0.3837360911 -0.1274339656 0.2647060634
525296850.0 -0.1329219841 0.2748092161 0.1849506896 -0.386341123 0.1856033708 -0.3866965369 -0.124587032 0.2668340333
530296820.0 -0.1302586114 0.2767306199 0.1813195281 -0.3883200984 0.1815159682 -0.388216834 -0.1215534643 0.2680114479
535296790.0 -0.1278036525 0.2782879264 0.177320036 -0.3900069245 0.1774031396 -0.3897909089 -0.1196246218 0.2690056879
540296760.0 -0.1248015768 0.2799149853 0.1727827614 -0.3925092761 0.1730268207 -0.3921240289 -0.1164451193 0.2709569765
545296730.0 -0.1216719219 0.2814123544 0.1681372341 -0.3938059638 0.1682747736 -0.3939845822 -0.1136469589 0.2722200252
550296700.0 -0.1186839876 0.2828329893 0.1639525364 -0.3955859294 0.1644744214 -0.3957746138 -0.1111795377 0.2737700364
555296670.0 -0.1156220109 0.2839895387 0.1595763211 -0.3975550115 0.1600867603 -0.3973309561 -0.1079543111 0.2754563242
560296640.0 -0.1123659941 0.2856925724 0.155177837 -0.3993674018 0.1556889847 -0.3990785632 -0.1049778921 0.2762489023
565296610.0 -0.1100616792 0.2870138467 0.150859358 -0.400725612 0.1513959366 -0.4008871871 -0.1023396398 0.2775881618
570296580.0 -0.1067660553 0.2880425676 0.1468191234 -0.4026110716 0.1461865528 -0.4023375238 -0.0996136114 0.2793911497
575296550.0 -0.1040719342 0.2896081079 0.1424504289 -0.4040708209 0.1422888209 -0.4040856459 -0.0966093806 0.2803760957
580296520.0 -0.1007679339 0.2906468322 0.1378656366 -0.4057283049 0.1381843141 -0.4056301426 -0.0935778519 0.2811659148
585296490.0 -0.0981137821 0.2914132664 0.133706878 -0.4064270583 0.1337292781 -0.4068768156 -0.0904803579 0.2821451772
590296460.0 -0.0945491649 0.292932773 0.1292589358 -0.4078917942 0.1293658843 -0.4081595206 -0.0880034897 0.2835633288
595296430.0 -0.0915629206 0.2939817716 0.124085825 -0.4095158539 0.1243352232 -0.4094905247 -0.0846982564 0.2840608145
600296400.0 -0.0888040414 0.2953586872 0.1199866472 -0.4110322705 0.1202095822 -0.4110140892 -0.0822937161 0.2852079874
605296370.0 -0.0857109402 0.2962884328 0.1154077453 -0.4119802783 0.1158003656 -0.4122053062 -0.078600244 0.2863052526
610296340.0 -0.082407875 0.2971182654 0.1107169768 -0.4130604702 0.1109492585 -0.4131890352 -0.0756546689 0.2870576758
615296310.0 -0.0791479456 0.2979396745 0.1064926594 -0.4140302881 0.1061981545 -0.4147324721 -0.0725151518 0.2878902266
620296280.0 -0.0761999895 0.2986702095 0.1019992576 -0.4149952455 0.1024269759 -0.4153520906 -0.069619377 0.2889797724
625296250.0 -0.073131297 0.2999255616 0.0977089381 -0.4165784538 0.0978042379 -0.4167208383 -0.0659880406 0.2894900817
630296220.0 -0.0691756815 0.3011845746 0.0925533654 -0.4174737747 0.0928334615 -0.4172283628 -0.0633282684 0.2909577121
635296190.0 -0.0671438279 0.3017202819 0.0886239756 -0.4181679443 0.088509623 -0.418537651 -0.060274792 0.291489137
640296160.0 -0.0636248217 0.3024807561 0.0838633826 -0.4190026943 0.0840617416 -0.4194772424 -0.0569896733 0.2923134432
645296130.0 -0.0603073777 0.3035071572 0.0791176459 -0.4198461014 0.0798136711 -0.4200593301 -0.053702901 0.2932547174
650296100.0 -0.0570675998 0.3039663739 0.0742986162 -0.4207984465 0.0750108053 -0.4208234054 -0.0508789854 0.2934007313
655296070.0 -0.0542702637 0.3047102357 0.0700450323 -0.4213145997 0.0701192083 -0.421712434 -0.0475115836 0.2943801631
660296040.0 -0.0512418511 0.30538998 0.0652891235 -0.4224061834 0.0656229578 -0.4223493791 -0.0442878136 0.2949927876
665296010.0 -0.0475333303 0.3059724133 0.0606868629 -0.4231909108 0.0611216388 -0.4229704429 -0.0413301095 0.2961103304
670295980.0 -0.045106921 0.3067891085 0.0566443324 -0.4235015316 0.0563095116 -0.4236381047 -0.0384775356 0.2963999871
675295950.0 -0.0415357698 0.3076890011 0.0519916466 -0.4241935351 0.0520970688 -0.4239264661 -0.0355521881 0.2970137413
680295920.0 -0.0383361655 0.3084667654 0.0474148648 -0.4241213256 0.0468742706 -0.4254022175 -0.0321372866 0.2982734964
685295890.0 -0.0347304851 0.3089177513 0.0425600105 -0.4249515851 0.0423140221 -0.4249641554 -0.0289263033 0.2981406683
690295860.0 -0.0316354854 0.3095023507 0.038034099 -0.425159114 0.038161789 -0.4256922156 -0.0260352651 0.2994217372
695295830.0 -0.0285003894 0.3095041268 0.0336986049 -0.4257045689 0.0332727265 -0.4259431251 -0.0227499264 0.2992526926
700295800.0 -0.0250825576 0.3097659617 0.028494046 -0.4256112686 0.0288199125 -0.4258857747 -0.019839189 0.2997090433
705295770.0 -0.0221835725 0.3110557462 0.0240166901 -0.4265989407 0.0244293134 -0.4265589755 -0.0168240321 0.3006199209
710295740.0 -0.0187446282 0.3109146841 0.0199655921 -0.4267933006 0.0198848185 -0.4267890706 -0.0136950924 0.3004848978
715295710.0 -0.0157895375 0.3110120831 0.0155495513 -0.4267446732 0.0147653275 -0.4266599847 -0.0102295438 0.3006487235
720295680.0 -0.0126028092 0.3115629509 0.010677247 -0.4268226638 0.0109009311 -0.42705421 -0.007331247 0.3015317867
725295650.0 -0.0089242611 0.3116638835 0.0055040463 -0.4267377633 0.0057040379 -0.4269841583 -0.0043691767 0.3017504615
730295620.0 -0.0057835702 0.3122539127 0.0010097298 -0.4266304866 0.001330836 -0.4268706562 -0.0014793451 0.3016970288
735295590.0 -0.0024555458 0.3123980232 -0.0034317283 -0.4269815373 -0.0034145086 -0.4267994832 0.0017797356 0.3014676315
740295560.0 0.0005371683 0.3125517278 -0.0079018008 -0.4265469406 -0.0081394755 -0.4267758973 0.005802642 0.301974839
745295530.0 0.0039805365 0.3127589349 -0.0129416082 -0.4263929097 -0.0127314716 -0.4263745592 0.0083922039 0.3014720494
750295500.0 0.0074605269 0.3125859929 -0.0173153581 -0.4258825514 -0.0172286545 -0.4264808354 0.0114851472 0.3019761072
755295470.0 0.0106032875 0.3127566679 -0.0217867888 -0.4259614052 -0.0218496624 -0.4263319804 0.0148389309 0.301168253
760295440.0 0.0140380054 0.3125561111 -0.026579593 -0.4260116354 -0.0266522078 -0.4261071435 0.0179406731 0.3016212586
765295410.0 0.0171718086 0.3129740724 -0.0312272087 -0.4256219416 -0.0311783812 -0.4258308832 0.021015876 0.3016748677
770295380.0 0.0203177869 0.3125051202 -0.0358146932 -0.4248680948 -0.0355982962 -0.4249094698 0.0239224703 0.300976561
775295350.0 0.0231275972 0.3122310165 -0.0405035264 -0.424070991 -0.0397458218 -0.4246472194 0.026946279 0.301281393
780295320.0 0.0266052583 0.3122367545 -0.0454356972 -0.4236026508 -0.0444644878 -0.4238402053 0.0301093588 0.300910461
785295290.0 0.0299255991 0.3117299553 -0.0497960931 -0.4231523959 -0.0494139208 -0.4236121991 0.0337616437 0.3007964479
790295260.0 0.0335776992 0.3121975211 -0.0538906684 -0.4231175066 -0.0534704835 -0.4227512095 0.0371377041 0.3007658143
795295230.0 0.0363614646 0.3117571549 -0.0583447773 -0.4221619756 -0.0583822963 -0.4222176911 0.0403401578 0.3003653159
800295200.0 0.0393195988 0.3115611677 -0.0634621017 -0.4215574033 -0.0633345337 -0.4213754717 0.0435398039 0.299929778
805295170.0 0.0433159593 0.3109657387 -0.0679441337 -0.4208282743 -0.0678159541 -0.4208206054 0.0467411243 0.2998053329
810295140.0 0.0462384624 0.3103984847 -0.0720865073 -0.4196707037 -0.0724061481 -0.4199985851 0.0499908686 0.2994204402
815295110.0 0.0494415592 0.3098632853 -0.0769021958 -0.4187043804 -0.0765012846 -0.4189900956 0.0532417107 0.2990984608
820295080.0 0.0525880396 0.309947362 -0.0815453582 -0.4179982574 -0.0807684629 -0.4180203769 0.056031501 0.2985798563
825295050.0 0.0564507998 0.3093920042 -0.0855081096 -0.4171573322 -0.085656929 -0.4172402254 0.0595519416 0.2984277129
830295020.0 0.0592316806 0.3091445887 -0.0903738134 -0.4163394699 -0.090141668 -0.4165029528 0.0634632833 0.2979360433
