!Created with skrf (http://scikit-rf.org).
# Hz S RI R 50.0 
!freq ReS11 ImS11 ReS21 ImS21 ReS12 ImS12 ReS22 ImS22
300000.0 -0.0927829392 -0.1055316347 0.6200559946 0.0962248946 0.6191491649 0.0976621415 -0.092876288 -0.1082887702
5299970.0 -0.1012557938 0.0111573422 0.6301381793 0.0114484354 0.6309136893 0.0113134448 -0.1015074877 0.0109652909
10299940.0 -0.0968764532 0.0283992207 0.6345310966 0.0160003144 0.6342895978 0.0166393573 -0.0961080993 0.0283508312
15299910.0 -0.0890881022 0.0423376749 0.640779149 0.0214736948 0.6409496155 0.0211367013 -0.0894713255 0.0415330677
20299880.0 -0.0804258212 0.053554595 0.6490184064 0.0242324928 0.649399534 0.0241852939 -0.080745939 0.0528123826
25299850.0 -0.0702098945 0.0625751585 0.6585788222 0.0255771881 0.6582324666 0.0254827086 -0.0712508598 0.0618585381
30299820.0 -0.0606166598 0.0687534456 0.6681409629 0.0248457717 0.6674244168 0.0244619544 -0.0615870159 0.0683481629
35299790.0 -0.0503316509 0.0734988239 0.6766753723 0.0220804986 0.6776045243 0.0216720461 -0.0521766485 0.0735423301
40299760.0 -0.0411332163 0.0762762527 0.6867523935 0.0173871509 0.6872374753 0.0176437263 -0.0423689704 0.0769421848
45299730.0 -0.0318279411 0.0784806909 0.6956813152 0.0127105009 0.6961912046 0.0120644981 -0.0328867288 0.079220088
50299700.0 -0.0229270273 0.0791527156 0.70397869 0.0053698128 0.7039090092 0.0050349072 -0.0242990461 0.0804893668
55299670.0 -0.0150683393 0.0789814759 0.7113127063 -0.0020865168 0.7109365594 -0.0024019171 -0.0169252063 0.0803617474
60299640.0 -0.0076076198 0.0785735449 0.718060651 -0.0111059824 0.7182107397 -0.0108119987 -0.00934545 0.0798040708
65299610.0 -0.0011083377 0.0770766949 0.7239407277 -0.0196877931 0.7242170232 -0.0199302065 -0.0023662382 0.0784883674
70299580.0 0.0053161844 0.075143577 0.7293991149 -0.0284855482 0.7293135323 -0.0288092379 0.0032332517 0.076912211
75299550.0 0.0109486447 0.0733172025 0.7332678112 -0.0394365142 0.733192957 -0.0389345754 0.008737033 0.0755143558
80299520.0 0.0155816637 0.0712475934 0.737450123 -0.0486421977 0.7379382384 -0.0486933804 0.0138142963 0.0736503294
85299490.0 0.0201847718 0.0689520122 0.740941451 -0.0586417245 0.7410152143 -0.0583601868 0.0183414877 0.0710603756
90299460.0 0.0242531791 0.0667563544 0.7433975865 -0.0688494899 0.7436650464 -0.068149581 0.0226870111 0.0693459762
95299430.0 0.0280964065 0.0643136096 0.746061226 -0.0787877845 0.7461152486 -0.0787252615 0.0261262753 0.0665235502
100299400.0 0.0313885061 0.0614869965 0.7475185971 -0.0886763539 0.747636707 -0.0893290859 0.0293189381 0.0645249635
105299370.0 0.034470921 0.0592989945 0.7494813307 -0.0986559668 0.7496450435 -0.0990542967 0.0331699863 0.0617431959
110299340.0 0.037410936 0.0562512433 0.7503398929 -0.1083522359 0.7506726014 -0.108146781 0.0350872126 0.0593708915
115299310.0 0.03950404 0.0542154224 0.7513606275 -0.119246307 0.7511295683 -0.1187012016 0.0375510857 0.0576415572
120299280.0 0.0416342467 0.0522557109 0.7524761297 -0.1299039615 0.7518307525 -0.1293900102 0.0400081248 0.0546587558
125299250.0 0.0440517619 0.0494963301 0.75191239 -0.1392252946 0.7521863705 -0.138632741 0.0420942039 0.0529791973
130299220.0 0.0458802276 0.0468992994 0.7521452917 -0.1491616682 0.7520740472 -0.1493268947 0.0443418893 0.0506823622
135299190.0 0.0472201518 0.0453248369 0.7521332239 -0.1586433432 0.7519306192 -0.1586352804 0.0456732243 0.0481864013
140299160.0 0.0490391709 0.0432970794 0.7521677464 -0.1689807121 0.7509935872 -0.1683324885 0.0466569444 0.0456381375
145299130.0 0.0494443418 0.0410256164 0.749821339 -0.1783353621 0.7502595946 -0.1781705986 0.0480595274 0.0437644332
150299100.0 0.0510563855 0.0391244309 0.7492220423 -0.18809317 0.7493673287 -0.1875839997 0.0492692027 0.0423417633
155299070.0 0.0525043921 0.0370347268 0.7476471999 -0.1975803308 0.748292124 -0.197675439 0.0507996622 0.039792275
160299040.0 0.0534894734 0.0354571027 0.7470830098 -0.2066992323 0.7467805607 -0.2074050957 0.0511549801 0.0383389435
165299010.0 0.0542134857 0.0333907756 0.7453974422 -0.2164153252 0.7448008437 -0.2166095216 0.0524394323 0.0360043844
170298980.0 0.055013748 0.0320041847 0.7430439866 -0.2254637335 0.743209172 -0.2260577134 0.0528847899 0.0340437558
175298950.0 0.0560527942 0.0302927076 0.7419300583 -0.2356964678 0.7416317064 -0.2358016076 0.053487432 0.0327417181
180298920.0 0.0562175316 0.028617652 0.7393899813 -0.2446318389 0.7394213977 -0.2448601773 0.0544924832 0.0309883503
185298890.0 0.0566018893 0.0270735773 0.7376595962 -0.2533638088 0.737165938 -0.2533164534 0.0551860059 0.029124474
190298860.0 0.0577338331 0.0255852995 0.7345415121 -0.2632076452 0.7348267702 -0.2625569037 0.0553038174 0.0274514243
195298830.0 0.0577888837 0.0240790758 0.7326818943 -0.2718521695 0.7327992574 -0.2716150334 0.056056197 0.0260090549
200298800.0 0.0584413618 0.0223650196 0.7297428403 -0.2810379184 0.7297432543 -0.281070052 0.0566265202 0.0242132607
205298770.0 0.0583027452 0.0207773072 0.7266670325 -0.2898396464 0.7272920193 -0.2891804892 0.0571873857 0.0229450498
210298740.0 0.0589803519 0.0196921412 0.7245781093 -0.2980071443 0.7232045018 -0.2980676098 0.0567351478 0.02078097
215298710.0 0.0594982634 0.0183918514 0.7208748866 -0.3065026793 0.7204800122 -0.3069244723 0.0573488704 0.0199836903
220298680.0 0.0595865474 0.0175321771 0.7172591524 -0.3157289068 0.7175702052 -0.3158570224 0.0575005539 0.018172638
225298650.0 0.0598025681 0.015831278 0.7141108361 -0.3240241701 0.7141903995 -0.3238446472 0.0576462538 0.0164087978
230298620.0 0.0601901546 0.0151073219 0.7116442403 -0.3328386591 0.7114784746 -0.332879621 0.0573910017 0.0154331159
235298590.0 0.0598090647 0.0138188926 0.7080229642 -0.3418578873 0.7078084521 -0.3413189823 0.0579190954 0.0143663436
240298560.0 0.0603922902 0.0127945265 0.7039563889 -0.3491891008 0.703888642 -0.3495206447 0.0580007695 0.0129632147
245298530.0 0.0603817856 0.0110658761 0.7004596792 -0.3580760644 0.7001141339 -0.3581874947 0.058020698 0.0119594052
250298500.0 0.0600916152 0.0100274496 0.6967491189 -0.366608209 0.6963811664 -0.3659833061 0.0579890807 0.0108581744
255298470.0 0.0606936555 0.0093942317 0.6930048246 -0.3738146881 0.6931372892 -0.3741801625 0.0582283551 0.0097230182
260298440.0 0.0606134891 0.0081435316 0.688935908 -0.3817783109 0.6889158262 -0.3817693364 0.0577120384 0.0079499468
265298410.0 0.0601635112 0.0075015625 0.6847594185 -0.3910914385 0.684343825 -0.3905293723 0.0589215494 0.0068924829
270298380.0 0.0600549786 0.0061302717 0.6807009047 -0.3982922872 0.68050079 -0.3986054162 0.0586721286 0.0060167863
275298350.0 0.0604963265 0.0055634336 0.6752895155 -0.4060521062 0.6753146046 -0.4057841676 0.0578499506 0.0051873755
280298320.0 0.0596915292 0.0042176863 0.6717227191 -0.4135585862 0.6722888469 -0.4141857579 0.0584540131 0.0039965232
285298290.0 0.0599543472 0.0033885548 0.6668246269 -0.422016902 0.6673988733 -0.4214790185 0.058174948 0.002635267
290298260.0 0.0600244231 0.0026267977 0.663188395 -0.4297298413 0.6632759976 -0.4290995951 0.0582514507 0.0019122113
295298230.0 0.0598025591 0.0010696033 0.6586505584 -0.4377080546 0.6582457408 -0.4379491275 0.0580455408 0.0005948588
300298200.0 0.0601383124 0.0009362029 0.6536283755 -0.4453041777 0.6536106131 -0.4446358558 0.0578402431 -0.0006634202
305298170.0 0.0601069655 -0.0007556445 0.6493991361 -0.4527895291 0.648961841 -0.4534245922 0.0577252914 -0.002151473
310298140.0 0.0601661834 -0.0016771326 0.6442403909 -0.4604033208 0.644393215 -0.4598736539 0.0579357079 -0.0034706508
315298110.0 0.0597194155 -0.0033486665 0.6392502188 -0.468763543 0.639009079 -0.468495718 0.0577087491 -0.0043402868
320298080.0 0.0596591407 -0.0039715758 0.6333799068 -0.4756554671 0.6335572391 -0.4761329341 0.0574658617 -0.0055575585
325298050.0 0.0586597446 -0.0054850125 0.6282277838 -0.4830078046 0.6287969426 -0.4832679421 0.0573467557 -0.0067291792
330298020.0 0.0574826022 -0.0058722812 0.6227039245 -0.4909439768 0.6230146576 -0.4907031866 0.0560495013 -0.0077451584
335297990.0 0.0575629373 -0.0067272716 0.6177073483 -0.4972067228 0.6166500147 -0.4980973802 0.0559832601 -0.008941676
340297960.0 0.0568065374 -0.0079839687 0.6109972415 -0.5053160001 0.6109189909 -0.5049977184 0.0555133438 -0.0090578241
345297930.0 0.0565071579 -0.0085097289 0.6059849645 -0.5121722879 0.6053406296 -0.5114614445 0.055112956 -0.0101779043
350297900.0 0.0558677138 -0.009209234 0.5999919525 -0.5179373373 0.600374655 -0.5183379383 0.0545444958 -0.0111512517
355297870.0 0.0555367426 -0.0096903896 0.5943644728 -0.5244295589 0.5944560189 -0.524121032 0.0546125408 -0.0118752179
360297840.0 0.0552274698 -0.01066544 0.5879971274 -0.5314987123 0.5882225285 -0.5316778276 0.0534828644 -0.0120609676
365297810.0 0.0544960683 -0.0109398379 0.582361841 -0.5379084972 0.5821028713 -0.5381097292 0.0527069417 -0.0133617973
370297780.0 0.054747473 -0.0114251856 0.5760989393 -0.5441518525 0.5767825705 -0.5446361805 0.0529764283 -0.0136673303
375297750.0 0.054179654 -0.0121163581 0.5706724811 -0.5508433872 0.5703828737 -0.5512094667 0.0528617971 -0.0144992221
380297720.0 0.0534980958 -0.0128616953 0.5641098695 -0.5578143717 0.5644612457 -0.55762735 0.0524576288 -0.0148226781
385297690.0 0.0533913798 -0.0136739989 0.5575992868 -0.5629301063 0.5583170387 -0.5641659603 0.052174825 -0.0152599509
390297660.0 0.0530685042 -0.0143569247 0.5521339218 -0.5692756288 0.5520493513 -0.5698217167 0.0523395201 -0.016475767
395297630.0 0.0530580333 -0.0150582696 0.5459364856 -0.575303728 0.5459900903 -0.5757179226 0.0514173443 -0.0167544236
400297600.0 0.051983575 -0.0157850434 0.5398966765 -0.5822390417 0.5397771922 -0.5822047043 0.0515603236 -0.0170656117
405297570.0 0.0521062012 -0.0167803891 0.5333904627 -0.5876281631 0.5334488282 -0.587924103 0.050696845 -0.0176664468
410297540.0 0.0514116667 -0.016542942 0.5266853436 -0.5941802344 0.5272447597 -0.5939173787 0.0504449566 -0.0186267176
415297510.0 0.0510128768 -0.0176322973 0.5197570957 -0.5997147628 0.5203107586 -0.599528298 0.050655885 -0.0188810402
420297480.0 0.0507183189 -0.0184162012 0.5132877241 -0.6055124355 0.5135770513 -0.605677967 0.050244748 -0.0193845192
425297450.0 0.0507689346 -0.0187898292 0.5068638692 -0.6108433374 0.5065166738 -0.6112570613 0.0499066187 -0.0205229085
430297420.0 0.0501169496 -0.019222405 0.5006189288 -0.6165090983 0.501089107 -0.6160834687 0.0499569855 -0.0208829555
435297390.0 0.0497640668 -0.0201788969 0.4930524778 -0.6228566707 0.4931751576 -0.6222315896 0.0488022077 -0.0210170777
440297360.0 0.0497856321 -0.0212079347 0.4860872679 -0.6280447382 0.4859140791 -0.6277701757 0.0488263445 -0.0217602005
445297330.0 0.0495660908 -0.0218868131 0.4796094683 -0.63284183 0.4790477841 -0.6332249317 0.0483288948 -0.0220867178
450297300.0 0.0490253833 -0.0223445641 0.4724855217 -0.6382977289 0.4732037907 -0.6380352315 0.0481827945 -0.0222937304
455297270.0 0.0481567243 -0.0229661684 0.466000574 -0.6432892892 0.4653061114 -0.6436510704 0.0476189188 -0.0230042148
460297240.0 0.0482011428 -0.0234468335 0.4586257403 -0.6493429871 0.4584073807 -0.6497522186 0.0473316321 -0.0239314087
465297210.0 0.0477476395 -0.023996587 0.4506397839 -0.6534763397 0.4508592247 -0.6543430829 0.0475623953 -0.0237396081
470297180.0 0.047071855 -0.0248385939 0.444202933 -0.6580513578 0.444503038 -0.6585826286 0.0470775321 -0.0252138036
475297150.0 0.0464554478 -0.0251958981 0.4370436224 -0.6636080652 0.4371738138 -0.6636811618 0.0465409684 -0.0255836152
480297120.0 0.0466112227 -0.0249893148 0.4296005919 -0.6685547928 0.4295278278 -0.6684494897 0.0459913796 -0.0260014559
485297090.0 0.0462978867 -0.0266818192 0.4222941733 -0.6731609395 0.4220261723 -0.6728932758 0.0457442402 -0.0262363479
490297060.0 0.0463296402 -0.0265981042 0.4145709407 -0.6778309487 0.4147051152 -0.6779713629 0.0452155807 -0.0270314497
495297030.0 0.0452150896 -0.0276849248 0.4074693213 -0.6825323709 0.4074144428 -0.6825616157 0.0453671115 -0.0275940232
500297000.0 0.0448019896 -0.0275388732 0.3999977085 -0.6868448683 0.4001053874 -0.6868016156 0.0446969151 -0.0276197864
505296970.0 0.0450713458 -0.0284608488 0.3924405696 -0.6914938608 0.3925174454 -0.6911497899 0.0442074699 -0.0288650554
510296940.0 0.0444332033 -0.0290581631 0.3846853272 -0.6965126168 0.3851874646 -0.6966567721 0.0442566515 -0.028523101
515296910.0 0.043434371 -0.0290807139 0.3767992576 -0.6997869741 0.3768357581 -0.7002599514 0.0437321655 -0.0299007539
520296880.0 0.0435297661 -0.0296251099 0.3696502825 -0.7036093973 0.3696928196 -0.7035393624 0.0439769914 -0.0296234906
525296850.0 0.0428789531 -0.0300508957 0.3614823073 -0.7075156308 0.3615237455 -0.707217378 0.0434267842 -0.0303551205
530296820.0 0.0426895809 -0.0312235623 0.353678362 -0.7121535222 0.3541049722 -0.7117740728 0.0427339923 -0.0312070876
535296790.0 0.0428275351 -0.0313010741 0.3457630915 -0.7155404872 0.3465778188 -0.7155388045 0.0429418976 -0.0311515195
540296760.0 0.0420152184 -0.0311943652 0.3379275083 -0.7194580634 0.3382107431 -0.7196187802 0.0421718887 -0.0323278368
545296730.0 0.0409189271 -0.0318683355 0.3301145635 -0.7227430201 0.3302988069 -0.7228280026 0.0419669561 -0.0324793938
550296700.0 0.041548086 -0.0321973557 0.3224331834 -0.726612161 0.3223280336 -0.7268927641 0.0418257891 -0.032746325
555296670.0 0.0406990838 -0.0327258191 0.314263169 -0.7305914401 0.3144851388 -0.7301424773 0.0410090589 -0.0339173067
560296640.0 0.0409150441 -0.0331461977 0.3062854768 -0.7332242202 0.306859893 -0.7335990413 0.0403383401 -0.0333203553
565296610.0 0.0398615235 -0.0335924149 0.2986142743 -0.737172242 0.2985787645 -0.7367282369 0.0402366931 -0.0338343825
570296580.0 0.0392862585 -0.0335319941 0.2895383171 -0.7402181201 0.2901313645 -0.740498819 0.039756586 -0.034826479
575296550.0 0.0389982136 -0.0343946156 0.2824926388 -0.7437250881 0.2822100887 -0.7435532623 0.0391920211 -0.0348745651
580296520.0 0.0389068175 -0.0344348901 0.2738789836 -0.7465564576 0.2742510697 -0.74659809 0.0383870683 -0.0356499122
585296490.0 0.0379596336 -0.0345081654 0.2661908681 -0.7491170991 0.2652041317 -0.7493191212 0.0387118832 -0.0356102514
590296460.0 0.03860104 -0.0351363068 0.2581574783 -0.7525723468 0.2578665949 -0.7525465631 0.0372919141 -0.0361605242
595296430.0 0.0377363976 -0.0353094809 0.2485494254 -0.7547834506 0.2488659192 -0.7550040788 0.0372275362 -0.0367293172
600296400.0 0.0376060665 -0.0357743007 0.2409763319 -0.7576869127 0.2408540107 -0.7579369859 0.0369975712 -0.0370074375
605296370.0 0.0363877511 -0.0358377747 0.2336533771 -0.7602845449 0.232771468 -0.7601942221 0.0362478691 -0.0375318137
610296340.0 0.0364507855 -0.0355524485 0.2245436878 -0.7618084609 0.2248661973 -0.7624141697 0.0354815225 -0.0376659885
615296310.0 0.0361306276 -0.0363057419 0.2161387208 -0.7651541708 0.215704896 -0.765059958 0.0355825394 -0.0378623154
620296280.0 0.0347783097 -0.0361333417 0.2075433349 -0.7676240503 0.2075188527 -0.7672332001 0.0343894831 -0.0377457981
625296250.0 0.0350229578 -0.0367816712 0.199286633 -0.7697659319 0.1995860232 -0.7701348054 0.0334609385 -0.0383334841
630296220.0 0.0343205996 -0.0369113831 0.1901874938 -0.7725444684 0.1908862358 -0.7717168095 0.0335779552 -0.0388254663
635296190.0 0.0332983362 -0.0368516823 0.1824760935 -0.7734019325 0.1826297784 -0.7736284667 0.0329322566 -0.0390746724
640296160.0 0.0330188212 -0.0372762417 0.1739282413 -0.7763306653 0.1736336298 -0.7757553373 0.0319008777 -0.0396221499
645296130.0 0.0329282375 -0.0369589758 0.165227627 -0.778105536 0.1655826369 -0.777812865 0.0311975316 -0.0403657655
650296100.0 0.0323314041 -0.0372295855 0.156922436 -0.7793850797 0.1566734554 -0.779546148 0.0319722917 -0.040233527
655296070.0 0.0316189545 -0.0374809007 0.1480174189 -0.7813626978 0.1486522925 -0.7808469744 0.0302329721 -0.0404078412
660296040.0 0.0312772812 -0.0373968605 0.1399779611 -0.782865662 0.1398684239 -0.7828529174 0.0296892533 -0.0410972838
665296010.0 0.030723126 -0.0378793572 0.1304270072 -0.7837192169 0.1312826538 -0.7836576912 0.0294664567 -0.0408866193
670295980.0 0.0304381918 -0.0378380003 0.1221497855 -0.7849514948 0.1228054062 -0.7849360347 0.0283873208 -0.041533143
675295950.0 0.0294220444 -0.0382538257 0.1137308799 -0.7869133794 0.11447906 -0.7868748161 0.0279581932 -0.0411191063
680295920.0 0.0289019842 -0.0380976133 0.1055969616 -0.7874784547 0.1063157304 -0.7879994961 0.0276716773 -0.042068018
685295890.0 0.0285840957 -0.038195799 0.0970004589 -0.789182565 0.096791761 -0.7888888768 0.0272871557 -0.0415438575
690295860.0 0.0275443211 -0.0380778321 0.0880264764 -0.7900553492 0.0881017952 -0.7901721348 0.0262309301 -0.0419497965
695295830.0 0.0273312415 -0.0385341812 0.0800295306 -0.7910576954 0.0797527551 -0.7911787255 0.025726985 -0.0423496786
700295800.0 0.0269805902 -0.038088511 0.0717435871 -0.7919092804 0.0711274691 -0.7911134323 0.0249091795 -0.0420957583
705295770.0 0.0259385315 -0.0384466356 0.0626994687 -0.7929528388 0.0628984967 -0.7920868 0.024150739 -0.0419086179
710295740.0 0.0255977064 -0.038697261 0.0540637585 -0.793579035 0.0537139868 -0.79351017 0.0240234926 -0.0420241987
715295710.0 0.0250843579 -0.0381954766 0.0452461899 -0.7938374676 0.0450641499 -0.7936752395 0.0230313072 -0.0425240186
720295680.0 0.0247959701 -0.0386556536 0.0368812213 -0.7937375473 0.0368261893 -0.7946140247 0.0224770529 -0.0430016462
725295650.0 0.0231604976 -0.0383585119 0.0286209683 -0.794582978 0.0278435647 -0.7945376518 0.0213774677 -0.0424037917
730295620.0 0.022284748 -0.0387130247 0.0194476239 -0.7944413404 0.0194904602 -0.7935813853 0.0209839718 -0.0421004915
735295590.0 0.0227336292 -0.0386451542 0.0111338671 -0.7949327979 0.0104600446 -0.7945209523 0.0200393784 -0.0427946857
740295560.0 0.0219947956 -0.0387675535 0.0022593453 -0.7952234432 0.0025225403 -0.7948518161 0.0190266552 -0.0425300461
745295530.0 0.0208138948 -0.0385507381 -0.0061142352 -0.7938437175 -0.0051002344 -0.7948108812 0.0178196526 -0.0428517112
750295500.0 0.0200802747 -0.0386028659 -0.0144062619 -0.7945103751 -0.0154253969 -0.7945921992 0.0179152166 -0.0427416429
755295470.0 0.01935862 -0.0384826383 -0.023642435 -0.7945075473 -0.0233596829 -0.7948653111 0.0176559121 -0.0420288252
760295440.0 0.0189192355 -0.0376620756 -0.0330493475 -0.7940086215 -0.0320521933 -0.7937150298 0.016925017 -0.0435610054
765295410.0 0.0190640726 -0.0386424066 -0.0406943556 -0.7936654048 -0.0400978502 -0.7936789611 0.0162103667 -0.0430133284
770295380.0 0.0177916594 -0.0381813275 -0.0493788013 -0.7925652111 -0.0492186783 -0.7938958678 0.0152734703 -0.0428689131
775295350.0 0.0174046585 -0.0385595248 -0.0581330167 -0.7929516266 -0.0577416922 -0.7916589793 0.0152342156 -0.0423818949
780295320.0 0.0163518607 -0.0381079665 -0.0660780313 -0.7916273105 -0.0658342545 -0.7915039957 0.0145202878 -0.0430320638
785295290.0 0.0156928336 -0.0386770091 -0.0745218971 -0.7909993763 -0.0747040058 -0.7910231926 0.0130344529 -0.0420340758
790295260.0 0.0154236168 -0.0385255136 -0.083443787 -0.7902711222 -0.0831794115 -0.7907554538 0.0124428219 -0.0418990719
795295230.0 0.0145962151 -0.0384937502 -0.0922139445 -0.7894563767 -0.0920815266 -0.7896278102 0.0122173405 -0.0430012511
800295200.0 0.0133830811 -0.0381205187 -0.099948368 -0.7876151785 -0.1006467913 -0.7879885517 0.0110740797 -0.0421352419
805295170.0 0.0130855593 -0.0383504779 -0.1090851589 -0.7873784516 -0.1085401672 -0.7870089486 0.0113585043 -0.0422338092
810295140.0 0.0129798297 -0.0380702897 -0.1176981972 -0.7856658013 -0.1174768688 -0.7857652062 0.0103497784 -0.0420797614
815295110.0 0.0118199132 -0.0377127126 -0.1260018495 -0.7839297604 -0.1262720804 -0.7843284271 0.0094601414 -0.0421921807
820295080.0 0.011569596 -0.0379323642 -0.1339088767 -0.7823495947 -0.1341507739 -0.7830060262 0.0080095058 -0.0414619124
825295050.0 0.0105494584 -0.0381015632 -0.1430343624 -0.7813436648 -0.1433231307 -0.7810759553 0.0083016777 -0.0407591896
830295020.0 0.0097551285 -0.0381115632 -0.1516469439 -0.7799478049 -0.1510808882 -0.7802688328 0.0077887855 -0.0417988523
