!Created with skrf (http://scikit-rf.org).
# Hz S RI R 50.0 
!freq ReS11 ImS11 ReS21 ImS21 ReS12 ImS12 ReS22 ImS22
300000.0 0.8599658632 -0.0014876043 -1.48065e-05 0.0001943537 -0.0003347888 0.0005405576 -0.7754539467 -0.1314693007
5299970.0 0.8589722414 -0.0103426278 -0.0002321122 0.000241079 -2.26976e-05 0.0001152381 -0.7844364607 -0.0068153581
10299940.0 0.858160564 -0.0188480139 0.0002795941 -0.0001125423 9.87915e-05 -9.28803e-05 -0.7872444651 -0.0036007813
15299910.0 0.8566014675 -0.0271408005 -3.89141e-05 -7.35357e-05 -0.000107958 1.65881e-05 -0.7933929191 -0.0011631581
20299880.0 0.856538325 -0.0353566093 -0.0002539079 -0.0001321716 0.0001962969 0.00010466 -0.7996758185 0.0022215252
25299850.0 0.8558680567 -0.0439260693 8.93346e-05 0.0001227144 -8.7746e-06 0.000106933 -0.806080321 0.008114459
30299820.0 0.8549018954 -0.0525466197 -6.09898e-05 6.96306e-05 1.02469e-05 1.38815e-05 -0.8125837451 0.0163811191
35299790.0 0.8542902573 -0.0605354561 4.67973e-05 -3.43495e-05 0.0002066889 -1.35748e-05 -0.8168037273 0.0254967134
40299760.0 0.8526677188 -0.0693125875 5.60323e-05 -0.0001448849 0.0001138653 -2.61064e-05 -0.8214052586 0.0343897901
45299730.0 0.8529451684 -0.0776483349 0.0002013152 -0.000153889 -7.56487e-05 -4.21007e-05 -0.8252734032 0.044227046
50299700.0 0.8522497124 -0.0856704415 -0.0001143325 -2.75995e-05 -1.4328e-05 0.0001684789 -0.8274240346 0.0541330168
55299670.0 0.8509318694 -0.0940369031 1.79901e-05 0.0002207802 5.33842e-05 -0.00022393 -0.830109389 0.0648001801
60299640.0 0.8492400729 -0.1017451556 -1.21141e-05 -1.26676e-05 0.000214735 -0.0001116487 -0.8305234615 0.0746432201
65299610.0 0.8481331946 -0.1104885755 7.71826e-05 0.0001091221 -5.93238e-05 -0.0001074773 -0.8321195708 0.0841519902
70299580.0 0.8473980822 -0.1190767298 9.55879e-05 0.0001068831 -9.05215e-05 0.0001519672 -0.831944448 0.0944431987
75299550.0 0.8461928224 -0.1270599489 2.60093e-05 0.0001706894 8.13535e-05 -8.068e-06 -0.8323382779 0.1040241662
80299520.0 0.8442882279 -0.1351425909 -0.0001648403 5.00483e-05 -0.0002796953 -8.79549e-05 -0.8320798808 0.1138495553
85299490.0 0.8432976248 -0.1431953485 0.0001142512 4.34719e-05 9.81559e-05 2.33403e-05 -0.8315075797 0.1237731585
90299460.0 0.8418893099 -0.151383553 -6.38168e-05 -2.31544e-05 0.0001307187 9.81372e-05 -0.8309968598 0.1335478343
95299430.0 0.8403959026 -0.1596778748 -6.50044e-05 0.000152105 0.0001673224 -1.88371e-05 -0.8292421385 0.1427151811
100299400.0 0.8382138742 -0.1676776438 7.1595e-05 -0.0001723658 0.0001321776 0.0001501438 -0.8285197143 0.1520288937
105299370.0 0.837110644 -0.1758727786 0.0001595117 0.0001287657 -0.0001721457 -0.0002809174 -0.8269247636 0.1613150875
110299340.0 0.8355454745 -0.184827738 0.0001146315 -1.24416e-05 3.50192e-05 7.26507e-05 -0.8257512467 0.1709616893
115299310.0 0.8332139845 -0.192723815 -5.03407e-05 5.10945e-05 6.72251e-05 -0.0002302722 -0.8243958017 0.1797303373
120299280.0 0.8313993882 -0.2003924011 0.000104147 -1.95294e-05 -2.50691e-05 -0.0002619084 -0.8224536524 0.1889637311
125299250.0 0.8293144063 -0.2093772053 3.85885e-05 -5.10852e-05 0.000157427 -2.76723e-05 -0.8207145985 0.198140189
130299220.0 0.8270966619 -0.2164310814 0.0002131299 -0.0001803461 0.0002642388 -2.38451e-05 -0.819267222 0.2064182784
135299190.0 0.8252257447 -0.2244914964 2.27831e-05 -0.0001333802 8.54465e-05 3.17271e-05 -0.8165330384 0.2162541466
140299160.0 0.8228892229 -0.2324891943 2.6986e-06 2.42797e-05 -3.541e-05 8.58978e-05 -0.8145268786 0.2253531912
145299130.0 0.8200306174 -0.2414799174 -0.0001742783 -0.0001314121 7.6883e-06 0.0001148145 -0.8122958117 0.23415347
150299100.0 0.8180436506 -0.248808442 0.0001587448 -0.0001634203 -4.36403e-05 3.19633e-05 -0.8107788801 0.2432495013
155299070.0 0.8157715806 -0.2567803108 -3.21723e-05 -4.68288e-05 -0.0002406128 -5.64771e-05 -0.8069293354 0.2519952284
160299040.0 0.8124187614 -0.2649046306 -0.0001700071 9.84499e-05 -2.08774e-05 -0.0002317731 -0.805453982 0.2608278841
165299010.0 0.8105253253 -0.2728004038 -7.08517e-05 -0.0001316437 2.12867e-05 -0.0002099755 -0.8020495827 0.2695442472
170298980.0 0.8076189238 -0.2800777777 8.27198e-05 0.0001820468 4.88764e-05 -4.60571e-05 -0.7994607516 0.2779162662
175298950.0 0.8044745904 -0.2886695129 7.15148e-05 4.83681e-05 -9.40685e-05 0.0001172496 -0.7965308731 0.2868403358
180298920.0 0.801690074 -0.2962954245 0.0001370405 -0.0001473607 0.0001975454 -7.95226e-05 -0.7934037677 0.2951983269
185298890.0 0.7984894332 -0.3045511956 -3.8801e-06 8.49104e-05 2.4369e-05 3.90447e-05 -0.790053387 0.3041057259
190298860.0 0.7957957192 -0.3122156589 -0.0001857798 0.0001059076 9.29134e-05 -0.0002224286 -0.787797909 0.3127063804
195298830.0 0.7924014442 -0.319955816 -3.66122e-05 -1.57588e-05 4.53799e-05 -1.4039e-05 -0.7845875839 0.3214294854
200298800.0 0.7890129069 -0.326997474 4.1596e-06 -0.0001549636 -6.38124e-05 0.0001025689 -0.7813248421 0.3294699045
205298770.0 0.7860578894 -0.334644129 -0.0001462625 -1.09979e-05 -7.25813e-05 -1.23935e-05 -0.7775481779 0.3376007134
210298740.0 0.7822385012 -0.3422373447 -0.0001262944 -0.0001923501 -5.38651e-05 3.01675e-05 -0.7746859905 0.345935167
215298710.0 0.7788859387 -0.3505830749 5.0477e-05 -9.05279e-05 7.17121e-05 0.0001215306 -0.770873839 0.3543106664
220298680.0 0.7754511332 -0.3578092375 -0.0001576326 -5.77271e-05 -2.68604e-05 4.59584e-05 -0.7672947029 0.3622481007
225298650.0 0.7718004955 -0.366040287 -1.32016e-05 -0.0001260964 2.61924e-05 0.0001871301 -0.7639562233 0.3705675219
230298620.0 0.7681878918 -0.3736631981 -2.16654e-05 0.000127207 0.0001441414 0.0001858129 -0.7600574999 0.3785960604
235298590.0 0.7644160406 -0.3799844135 -7.0124e-06 3.0535e-06 7.20412e-05 0.0001501197 -0.7558810852 0.387245065
240298560.0 0.761464365 -0.3880355623 5.76711e-05 2.09932e-05 -0.000229556 -9.369e-07 -0.7518650034 0.3954481837
245298530.0 0.7569913785 -0.3956972907 0.00012261 -9.64457e-05 -0.0001522765 6.31739e-05 -0.7482050564 0.4027310702
250298500.0 0.7524582181 -0.4025168425 0.0001684332 0.0001162814 -6.22066e-05 4.7411e-06 -0.743408433 0.4104109521
255298470.0 0.749026731 -0.4100771655 -8.56175e-05 6.34751e-05 -1.77325e-05 -8.96691e-05 -0.7386332123 0.4178855311
260298440.0 0.7447110705 -0.4171391996 -1.35383e-05 0.0001276305 -0.0001258857 6.03258e-05 -0.7350410859 0.4265138483
265298410.0 0.7411573674 -0.4246940766 0.00023341 -0.0001062968 -0.0001267923 8.30273e-05 -0.7304230994 0.433816847
270298380.0 0.7365610687 -0.4319443086 -9.11546e-05 2.17206e-05 0.0001623779 -5.66904e-05 -0.7258127898 0.4410029386
275298350.0 0.7327632084 -0.4394364115 -3.28998e-05 -1.22357e-05 0.000128041 -6.16541e-05 -0.7209712201 0.4490680441
280298320.0 0.7278738078 -0.4463995661 -0.0001050298 -0.0003227812 -0.0001070348 1.97333e-05 -0.7160256611 0.4562241316
285298290.0 0.7237256396 -0.4534417029 0.0001078857 -0.0001164132 3.43157e-05 3.28773e-05 -0.7107519615 0.4641073964
290298260.0 0.7195504968 -0.4602818066 0.0002647686 1.21822e-05 -0.0001079489 3.78394e-05 -0.7059262445 0.4712135424
295298230.0 0.7152850288 -0.4677797696 -3.9891e-06 6.78343e-05 3.54196e-05 -6.2293e-06 -0.7009282138 0.4779527916
300298200.0 0.7113204122 -0.4750671528 8.53942e-05 0.0001311775 2.24621e-05 -4.9114e-05 -0.696106825 0.4857325491
305298170.0 0.7065473049 -0.4818492511 1.30304e-05 8.20261e-05 1.2325e-06 0.0001149634 -0.6901747876 0.4930094876
310298140.0 0.7019722596 -0.4886405318 -0.0001333252 -0.0001388367 -0.0001368166 -0.0001110242 -0.6861191294 0.4999368955
315298110.0 0.6976216339 -0.4968028316 1.27077e-05 0.0002489069 -2.35359e-05 0.0001372075 -0.6799216899 0.5068052119
320298080.0 0.6930072786 -0.5038653013 9.82687e-05 0.0001182193 4.8885e-06 -7.766e-06 -0.6751138189 0.5144814115
325298050.0 0.6869329317 -0.5109915237 6.29423e-05 -0.0001733364 2.68949e-05 -8.64038e-05 -0.6691878272 0.5213670883
330298020.0 0.6812739105 -0.5186143647 -0.0002550713 7.81163e-05 -3.03626e-05 -9.66948e-05 -0.6637898453 0.5281860717
335297990.0 0.6755216307 -0.5256532533 -4.24316e-05 0.0001373509 2.68814e-05 -0.0001348138 -0.6580493264 0.5351962072
340297960.0 0.6696968734 -0.5324691106 0.0001308491 -1.5506e-06 -1.26007e-05 -7.60246e-05 -0.6523534839 0.5425670689
345297930.0 0.6636167109 -0.5380891288 -0.0001754332 -0.0001830787 -8.339e-07 -0.0001033395 -0.6467145325 0.5486095618
350297900.0 0.6582290268 -0.5441021079 -8.21863e-05 0.0002183137 6.61101e-05 0.0001277846 -0.6415147758 0.5556640095
355297870.0 0.6524135119 -0.5500857586 0.000125095 5.96318e-05 -0.0003050856 -8.34406e-05 -0.6358115976 0.5621947867
360297840.0 0.6466695306 -0.556272714 -1.66394e-05 -2.81579e-05 -0.0001131187 -0.0001137861 -0.6290547226 0.5689803824
365297810.0 0.640093436 -0.5628520263 -7.37467e-05 0.0001163338 0.000164209 -0.0001218814 -0.62323488 0.5752474678
370297780.0 0.6354460321 -0.56863925 9.1714e-05 -5.70533e-05 0.0003307819 -0.0001862976 -0.6176448979 0.581854679
375297750.0 0.6288793518 -0.5745119582 -4.03564e-05 -2.0179e-05 5.53066e-05 6.0189e-05 -0.6114185978 0.5879904108
380297720.0 0.6237830471 -0.5807100701 -8.08168e-05 -0.0001074069 -0.0001305537 -0.0001452885 -0.6057793035 0.5945353161
385297690.0 0.6176896834 -0.5867577553 0.0001917437 -4.90438e-05 5.1865e-06 1.2881e-05 -0.599155869 0.6010684857
390297660.0 0.6120571207 -0.5920725866 -6.66419e-05 -0.0001210848 -7.66179e-05 -0.0001662132 -0.5933041331 0.6070226263
395297630.0 0.6060228964 -0.5981429672 0.0001006964 -3.47596e-05 9.07855e-05 -5.452e-06 -0.5867659662 0.6132432101
400297600.0 0.6003300952 -0.6044467141 1.82093e-05 0.0001011625 -6.33626e-05 1.354e-07 -0.5806760887 0.618975459
405297570.0 0.5939467308 -0.609897036 -2.06186e-05 0.0001342111 -4.42604e-05 6.92367e-05 -0.5743599158 0.6251820236
410297540.0 0.5879088079 -0.6158605241 6.39081e-05 0.0001507663 0.0001441869 3.09905e-05 -0.5670308031 0.6311228427
415297510.0 0.5820084037 -0.6217215767 1.3251e-06 -4.79186e-05 3.10826e-05 1.02706e-05 -0.5607513605 0.6365971623
420297480.0 0.5756731127 -0.626611498 -0.0001211454 3.95499e-05 -0.0001115199 3.02945e-05 -0.5535963394 0.6427979981
425297450.0 0.5691713669 -0.6327226859 0.000120654 0.0002421549 -7.45106e-05 0.0001879456 -0.5479847059 0.6482634103
430297420.0 0.5630503872 -0.6379928527 3.9608e-06 -5.41928e-05 0.0002269992 -5.52565e-05 -0.541077042 0.653253466
435297390.0 0.5569194412 -0.6436036054 6.18794e-05 -0.0001060006 0.0001085941 -3.46501e-05 -0.533742791 0.6586291969
440297360.0 0.5506995007 -0.649314406 0.0001321179 -0.0001255076 8.18204e-05 0.0001158483 -0.5272491014 0.6641087922
445297330.0 0.5435451538 -0.6539972942 -0.0001604725 -6.86742e-05 -0.0002899782 -0.0001482365 -0.5205168509 0.6687972221
450297300.0 0.5377174322 -0.6594762342 -8.36692e-05 4.53308e-05 -0.0001590328 -4.6067e-05 -0.5130169918 0.6743293215
455297270.0 0.5306620097 -0.664441213 -2.74726e-05 0.0002628329 -8.29785e-05 1.92997e-05 -0.5065329007 0.6789876571
460297240.0 0.5239226913 -0.6698238678 5.26174e-05 9.44884e-05 -1.08488e-05 -6.35934e-05 -0.4995347424 0.684586508
465297210.0 0.5175876887 -0.675130436 0.0001032127 -8.84695e-05 -2.32986e-05 0.000111409 -0.4916473696 0.6892131441
470297180.0 0.510801173 -0.6796889341 -0.0001427538 -0.0001090699 -4.3085e-06 -9.00346e-05 -0.4847268868 0.6948319728
475297150.0 0.5038916921 -0.684992227 -4.06557e-05 1.28945e-05 3.74683e-05 0.0001719264 -0.4775593752 0.698642013
480297120.0 0.4969742889 -0.6893859641 2.31421e-05 0.0002731784 0.0001250115 -1.40017e-05 -0.4700506923 0.7039442452
485297090.0 0.4902921349 -0.6946481283 -0.0001391046 -8.00677e-05 -0.0001219925 -6.35677e-05 -0.4629763145 0.7081610637
490297060.0 0.482980015 -0.699110067 -9.6353e-05 -9.77388e-05 -3.30313e-05 1.54366e-05 -0.4558305622 0.7126656451
495297030.0 0.4761804317 -0.7035233192 0.0001312517 1.96819e-05 8.77021e-05 -0.0001868283 -0.4484279216 0.7180303371
500297000.0 0.4687654174 -0.7081772432 -0.0001623169 0.0001556098 -1.2409e-05 -2.60658e-05 -0.4407507181 0.723029828
505296970.0 0.4620929307 -0.7129500339 0.0001433197 4.22302e-05 0.0002430131 -5.03946e-05 -0.4333275155 0.7265258317
510296940.0 0.4546754692 -0.7174166045 0.000114825 0.0001567892 -0.0001007233 9.34123e-05 -0.4262971339 0.7311379137
515296910.0 0.4482040714 -0.7216587987 -8.83126e-05 0.0001315112 4.22163e-05 9.59642e-05 -0.4186952112 0.7348548376
520296880.0 0.4402792884 -0.7258482672 -0.0001440479 -4.46514e-05 0.000136931 -3.10345e-05 -0.4110097447 0.7398731051
525296850.0 0.4332575829 -0.7305881363 0.0001088833 0.0001802964 0.0002775335 0.0001805746 -0.4038513778 0.7437934121
530296820.0 0.4259517642 -0.7342371811 -7.76397e-05 -0.0002030205 -0.0001052544 2.83853e-05 -0.3962812082 0.7474866392
535296790.0 0.4187805865 -0.7387976621 -9.2027e-05 0.0001134414 -5.08961e-05 0.0001106456 -0.3891784584 0.7515830893
540296760.0 0.4113670023 -0.7426679308 -3.13294e-05 7.5252e-06 -0.0002483186 -2.19717e-05 -0.3809599963 0.7558575224
545296730.0 0.4037843087 -0.7465250152 9.7914e-05 0.0001073529 7.11516e-05 9.52833e-05 -0.3733309721 0.759610499
550296700.0 0.3971150375 -0.7494422604 -0.0001466615 -0.0001278528 -0.0001080356 8.27336e-05 -0.3649562636 0.7630784141
555296670.0 0.3887721245 -0.7538419387 0.000108657 -1.46275e-05 3.62055e-05 0.0001296311 -0.3578264124 0.7671980704
560296640.0 0.3812856161 -0.7572819919 9.1977e-06 -0.0001018785 0.0001268129 -1.40731e-05 -0.3498539516 0.7709164298
565296610.0 0.3736755954 -0.7608544145 0.0003466066 -1.53458e-05 -2.70398e-05 -0.0001238948 -0.3420591731 0.7741998772
570296580.0 0.3662739361 -0.7642760918 -0.0001072988 -7.2668e-06 -3.72675e-05 -0.0001685495 -0.3343374933 0.7782413342
575296550.0 0.3588155544 -0.7678450596 6.43206e-05 -0.0001377639 -6.33639e-05 -9.55665e-05 -0.3265006216 0.7808762225
580296520.0 0.3506447576 -0.7716015957 1.85603e-05 -3.90328e-05 8.921e-06 4.75419e-05 -0.3185684989 0.7842549046
585296490.0 0.3430315384 -0.7755977313 7.01741e-05 3.08867e-05 -0.0001205834 -0.0001007654 -0.3104515914 0.787824637
590296460.0 0.3358446489 -0.777276234 1.51579e-05 6.27831e-05 -1.0159e-05 0.0001822428 -0.3031129842 0.7903087246
595296430.0 0.3273014892 -0.7811351592 -5.99312e-05 4.4041e-06 9.90523e-05 1.90384e-05 -0.2950428082 0.7926182519
600296400.0 0.3193482364 -0.7840458997 0.0001896001 4.80258e-05 2.14952e-05 -7.64045e-05 -0.2867452486 0.7956459949
605296370.0 0.3116809024 -0.7873733989 -0.0001501539 2.41527e-05 -4.56202e-05 9.01014e-05 -0.2779739511 0.7987119952
610296340.0 0.3037618479 -0.7906696118 0.0001335363 0.0001904355 -1.5042e-05 -0.0001698001 -0.2701338102 0.8014638882
615296310.0 0.2967919305 -0.7930749066 -3.39471e-05 -6.75301e-05 -4.64295e-05 9.34683e-05 -0.2617721192 0.8034958499
620296280.0 0.2879124295 -0.7960220328 -0.0001052795 -2.87496e-05 -3.86332e-05 -4.27827e-05 -0.2542233992 0.8065360555
625296250.0 0.2805965278 -0.7988228275 0.0002348984 -0.0001805588 8.93861e-05 8.24819e-05 -0.2451914475 0.8082514961
630296220.0 0.2724098386 -0.8018190113 -0.0001706079 0.0001264516 -5.9528e-06 0.0001151595 -0.2373879006 0.8111061565
635296190.0 0.264712351 -0.8047948467 5.58034e-05 1.7908e-05 -3.69848e-05 -0.0001117532 -0.2291110922 0.8130372004
640296160.0 0.25625081 -0.8067846194 -1.22355e-05 0.0001360149 -4.88691e-05 -4.97977e-05 -0.2206673306 0.8155788216
645296130.0 0.2481872011 -0.8086277197 8.429e-07 -7.30131e-05 -0.0001294752 5.9839e-05 -0.2126536527 0.8181535274
650296100.0 0.2401726091 -0.8108863548 2.5829e-05 0.0001010069 7.57554e-05 6.83841e-05 -0.2045913606 0.8189963069
655296070.0 0.2320877983 -0.8131505771 0.0001138954 0.0001201766 -3.05886e-05 1.73003e-05 -0.1962544769 0.8207717071
660296040.0 0.2235954798 -0.8155572564 4.40491e-05 3.70175e-05 -2.06315e-05 9.00377e-05 -0.1873837028 0.8234864234
665296010.0 0.2159818148 -0.817744858 0.0001675667 -0.0002045613 8.73642e-05 -0.000180669 -0.1792728285 0.8252363888
670295980.0 0.2073479031 -0.8195817984 -2.78573e-05 -0.000115118 -0.0001141435 -1.04341e-05 -0.1714043308 0.826589887
675295950.0 0.1995694523 -0.8212771705 -0.0002245682 8.62125e-05 7.30222e-05 -5.15424e-05 -0.1636281717 0.8290682672
680295920.0 0.1914953205 -0.8225606067 7.45369e-05 -0.0001158922 9.0057e-06 0.0001429695 -0.1546109305 0.8311319617
685295890.0 0.1833277707 -0.824482238 0.0002171333 -5.97256e-05 -7.3198e-05 0.0001039487 -0.1454785357 0.8312135616
690295860.0 0.1750513715 -0.8260614162 7.19042e-05 -0.0001003531 -5.85534e-05 0.0001554043 -0.1379772301 0.8339441074
695295830.0 0.1667269089 -0.82779404 -6.65887e-05 0.0001067037 -0.0001655273 8.85795e-05 -0.1291592158 0.8349948808
700295800.0 0.1584491398 -0.8296581252 5.8113e-06 -8.5137e-05 -5.90812e-05 7.57081e-05 -0.1214213967 0.8363265283
705295770.0 0.1499194215 -0.8304879511 -3.14151e-05 -6.97148e-05 -2.69388e-05 6.13692e-05 -0.1130476634 0.8379017259
710295740.0 0.1414083186 -0.8324364472 0.0001828322 -5.14423e-05 0.000151201 -6.61153e-05 -0.1042314583 0.8382109076
715295710.0 0.1330848086 -0.8337999335 6.94731e-05 -0.0002029248 -0.000116909 -0.0002224057 -0.0963365527 0.8392786576
720295680.0 0.1252043077 -0.8348110524 -0.0001068294 0.0001647496 3.17035e-05 -0.0001573202 -0.0874588748 0.840799909
725295650.0 0.1163790454 -0.8350687098 -9.42525e-05 4.56938e-05 -6.10647e-05 5.75505e-05 -0.0797070858 0.8421792678
730295620.0 0.1079059022 -0.8362783981 -5.43463e-05 4.93097e-05 -0.0003358852 -6.7662e-05 -0.0715190618 0.8420200712
735295590.0 0.0997596292 -0.8365473163 0.0001315931 -1.49754e-05 -4.60058e-05 5.95552e-05 -0.0630729726 0.8424983049
740295560.0 0.0911709253 -0.8373717459 0.0002081555 0.0002127668 -4.40827e-05 6.076e-05 -0.0537928944 0.8440251714
745295530.0 0.0830431494 -0.8385092694 -9.21366e-05 0.0001508203 7.37751e-05 -9.5057e-05 -0.0450668985 0.8441144604
750295500.0 0.0744721012 -0.8392103707 0.0001383439 -4.10688e-05 -0.0002511868 -3.6032e-06 -0.0375476547 0.8441920999
755295470.0 0.0661815525 -0.8399121133 0.0001084696 2.15863e-05 6.35742e-05 -0.0001119234 -0.0283973779 0.8438006411
760295440.0 0.0577904509 -0.8405647443 0.0001462234 -8.00348e-05 0.0001071294 2.79044e-05 -0.0203759363 0.8444690351
765295410.0 0.0499854118 -0.8404346003 2.7748e-05 0.0002328901 -5.3955e-05 6.96596e-05 -0.0124417433 0.8450827767
770295380.0 0.0409940178 -0.8416104747 -1.9624e-06 8.15751e-05 1.30045e-05 -4.66597e-05 -0.0036697342 0.8445375543
775295350.0 0.0319738097 -0.8414789557 -0.0001366788 2.75133e-05 2.80625e-05 -6.45966e-05 0.0041213646 0.8441632925
780295320.0 0.024302114 -0.8411009324 0.0001464252 0.0001404637 3.78952e-05 0.000127119 0.0130974351 0.8443224763
785295290.0 0.0152051694 -0.8423054883 1.07962e-05 -4.70614e-05 1.25919e-05 0.0001029587 0.0214681611 0.8441564957
790295260.0 0.0070724276 -0.8410880719 -0.0001129168 -4.21751e-05 -8.30304e-05 -8.0718e-06 0.0303205592 0.8438314118
795295230.0 -0.0012228353 -0.8412793547 -0.0002793277 -0.0001096537 -0.0001407367 0.0001255821 0.0390461603 0.8429693416
800295200.0 -0.0100526375 -0.8407161866 -8.60674e-05 -0.0001703486 2.1304e-05 2.45299e-05 0.0477890243 0.8430731578
805295170.0 -0.0179509128 -0.8407101439 -2.65813e-05 2.00169e-05 5.95527e-05 9.51786e-05 0.0550051154 0.8426155291
810295140.0 -0.0261634705 -0.8402278624 -0.0003586133 9.97158e-05 0.0002089477 2.19309e-05 0.063854466 0.841296163
815295110.0 -0.0349279216 -0.8405851198 -5.55768e-05 -4.02134e-05 -8.15355e-05 -3.75761e-05 0.0722532472 0.8409511194
820295080.0 -0.0426909197 -0.8392820973 0.0002019269 -0.0001622458 5.04875e-05 7.23431e-05 0.0806290369 0.8402551447
825295050.0 -0.0511754452 -0.8392285542 -4.48809e-05 0.0001674864 -0.0001175327 5.70499e-05 0.0887343919 0.8397074536
830295020.0 -0.0599741248 -0.8389183607 -6.79316e-05 0.0001279297 0.0001432704 -5.3948e-06 0.0983090241 0.8385047985
835294990.0 -0.0678926104 -0.8369100558 2.9673e-05 7.35434e-05 0.0001103118 0.0002591424 0.10542498 0.8379191238
840294960.0 -0.0760096456 -0.8361859908 0.0001182321 0.0002498589 4.84231e-05 -7.83045e-05 0.1141925348 0.8361893658
845294930.0 -0.0844931092 -0.8357606394 -4.57535e-05 -6.32338e-05 -0.0001249045 0.0001620451 0.1221105062 0.8352664894
