!Created with skrf (http://scikit-rf.org).
# Hz S RI R 50.0 
!freq ReS11 ImS11 ReS21 ImS21 ReS12 ImS12 ReS22 ImS22
300000.0 -0.243583227 -0.0855993363 0.4722497781 0.0592944469 0.4703537922 0.0544605161 -0.2372091421 -0.09597235
5299970.0 -0.245181189 0.0066098007 0.4752829641 0.0052925291 0.4747220547 0.0051259318 -0.2408945421 0.0075837352
10299940.0 -0.2416149885 0.018006453 0.4769708098 0.0059948526 0.4767940887 0.0059222114 -0.2377710735 0.0205200804
15299910.0 -0.2373477936 0.0268067517 0.4800625282 0.0070209018 0.4806787677 0.0073904088 -0.2332746421 0.0300179638
20299880.0 -0.2328839862 0.034027555 0.4851468817 0.008423952 0.4849153091 0.0079746615 -0.227879338 0.0379841781
25299850.0 -0.2278064479 0.0403232562 0.490191242 0.007098482 0.4901063828 0.0071501147 -0.22184102 0.0447974459
30299820.0 -0.2226841273 0.0452776736 0.4955595811 0.0049481842 0.4956749884 0.0049461664 -0.2159601778 0.0500304504
35299790.0 -0.2173244043 0.0488987281 0.5009401248 0.0013561977 0.5011987771 0.0012953674 -0.2104187353 0.0546186236
40299760.0 -0.2123912806 0.0523716123 0.5058357734 -0.0026352551 0.5061113935 -0.0022592773 -0.2053962734 0.0574538833
45299730.0 -0.2079008351 0.0546365263 0.5103689707 -0.0071208144 0.5104994202 -0.0071259633 -0.2002716306 0.0602919498
50299700.0 -0.2038086894 0.0564675743 0.5148016452 -0.0126628322 0.5150202327 -0.0125005748 -0.1956309176 0.0624773311
55299670.0 -0.1999309185 0.0582356927 0.5187794388 -0.0193078741 0.5185766334 -0.0186731897 -0.1912504819 0.0641802393
60299640.0 -0.1959314288 0.0600896676 0.5217881577 -0.0252944238 0.5222607741 -0.0244542859 -0.1872847369 0.0656577577
65299610.0 -0.1929076365 0.0610400288 0.5248923194 -0.0312464183 0.5247048299 -0.0312933665 -0.1838661431 0.0666152997
70299580.0 -0.1898318484 0.0622524621 0.5274053318 -0.0380683962 0.527093571 -0.0377853024 -0.1807240172 0.0677990586
75299550.0 -0.1870771985 0.0629987489 0.5289170461 -0.0449822254 0.5289950531 -0.0448995875 -0.1779067451 0.0682554857
80299520.0 -0.1850728524 0.0634408519 0.5310859276 -0.0516077913 0.530908292 -0.0514260872 -0.1754670233 0.0692282892
85299490.0 -0.1826599421 0.064248286 0.5321026521 -0.0583774824 0.5320830972 -0.0580423146 -0.1729102123 0.069549353
90299460.0 -0.1803294352 0.0650067901 0.5331720795 -0.0651455889 0.5332291776 -0.0652501203 -0.1704739695 0.0705238524
95299430.0 -0.1783319829 0.0655037492 0.5343036376 -0.0723451615 0.5339743484 -0.0724083768 -0.1680773596 0.0712374293
100299400.0 -0.1766971549 0.066323757 0.5338096187 -0.0792716866 0.534413365 -0.0789749285 -0.1660181653 0.0715195452
105299370.0 -0.1750499162 0.0667413726 0.5345296081 -0.0859851439 0.5348757884 -0.0860657502 -0.1641077132 0.0725266678
110299340.0 -0.1733149151 0.0675460084 0.5346540491 -0.0924860875 0.5346914056 -0.0927373719 -0.1626609179 0.0728362164
115299310.0 -0.1719947327 0.0682809845 0.5348875801 -0.0996444537 0.5349822481 -0.0994601677 -0.1611236699 0.0738015273
120299280.0 -0.1707518962 0.0684545238 0.5345805249 -0.1063810177 0.5345359418 -0.1065963244 -0.1598676471 0.0744198032
125299250.0 -0.1695932917 0.0693621129 0.5342877212 -0.1130718677 0.5341987231 -0.1128337884 -0.1583664381 0.074838496
130299220.0 -0.1685832831 0.0702391734 0.5333263553 -0.1202979943 0.5333188455 -0.1200123722 -0.1572574117 0.0757249356
135299190.0 -0.167587112 0.0713370646 0.5325836746 -0.1268510612 0.5326090442 -0.126419607 -0.1556770264 0.0768874683
140299160.0 -0.1667770289 0.0719854132 0.5319980199 -0.1334418117 0.532207437 -0.132983479 -0.1544207834 0.0781241575
145299130.0 -0.1657272701 0.0728657334 0.531521191 -0.1396534041 0.5309038313 -0.1396413136 -0.1534485478 0.0789998418
150299100.0 -0.1646863175 0.0739663566 0.5300565721 -0.1459176297 0.5297690116 -0.1457963817 -0.1523266244 0.0802974019
155299070.0 -0.1640883408 0.0745980446 0.5292621578 -0.1536313685 0.5287641585 -0.1528812333 -0.151100754 0.0811256186
160299040.0 -0.1627906968 0.075877054 0.527689356 -0.159087991 0.5270994757 -0.1594353787 -0.1504944389 0.0823220569
165299010.0 -0.1621615451 0.0768610383 0.526075083 -0.1661560651 0.5259231425 -0.1656426021 -0.1491097794 0.0836480145
170298980.0 -0.1613822969 0.0776650921 0.5243555836 -0.1720082375 0.5244346803 -0.1720286065 -0.1483064635 0.0847610004
175298950.0 -0.160930267 0.0789470338 0.5229654073 -0.1780722843 0.5228251578 -0.178197985 -0.1474817474 0.0859031083
180298920.0 -0.1601152769 0.0799230289 0.5209858681 -0.1843490654 0.5209094552 -0.1841092556 -0.1467605354 0.087217145
185298890.0 -0.15884659 0.0807858198 0.519344905 -0.1905143703 0.5193023495 -0.1903404593 -0.1458037456 0.0884908657
190298860.0 -0.1586146664 0.0822714342 0.5172744445 -0.1971574577 0.5175634355 -0.1966509564 -0.1447144125 0.0897558004
195298830.0 -0.1577563904 0.0830838293 0.5155469032 -0.2027418055 0.5153144019 -0.2028714709 -0.1435374814 0.091041121
200298800.0 -0.1570975714 0.0845225081 0.5132477667 -0.2090770821 0.5130527241 -0.2092782381 -0.143039302 0.0922824127
205298770.0 -0.156171371 0.0856452902 0.5107351602 -0.2154077926 0.5107131896 -0.2149433722 -0.1420384186 0.0933549224
210298740.0 -0.1554648198 0.0868016364 0.5085530528 -0.2207230174 0.508583848 -0.2207402467 -0.1411261885 0.0951573315
215298710.0 -0.1551165325 0.0885150822 0.5062962625 -0.2272961463 0.5064123686 -0.227184833 -0.1404173156 0.0964703237
220298680.0 -0.1540781028 0.0892663715 0.5037056713 -0.2328666001 0.5036869458 -0.2326499165 -0.1395353056 0.0975570434
225298650.0 -0.1535652376 0.0905886828 0.5014668053 -0.2388414345 0.5013480632 -0.2387144207 -0.138751464 0.0987292915
230298620.0 -0.1526624859 0.0921685906 0.4990021475 -0.2441710876 0.4994799866 -0.2445386389 -0.1379932518 0.1001061922
235298590.0 -0.1517992113 0.0937735106 0.4960884974 -0.2505655056 0.4962407737 -0.249897878 -0.1369061964 0.1015303854
240298560.0 -0.1510689874 0.0948808104 0.493468257 -0.2563484584 0.4936539419 -0.2562639792 -0.1359366522 0.103270131
245298530.0 -0.1501703988 0.0962594072 0.4910039874 -0.2618387073 0.4906903022 -0.2621955626 -0.1345936241 0.1042261073
250298500.0 -0.149086804 0.0977569941 0.4874513889 -0.2676723615 0.4878517907 -0.2670902028 -0.1343413569 0.1056690438
255298470.0 -0.1484630428 0.0985461733 0.4843353234 -0.2723991775 0.4850076488 -0.2726787654 -0.1328368454 0.1068036487
260298440.0 -0.1479451303 0.0999738427 0.4820568168 -0.2785748728 0.4819172321 -0.2783126806 -0.1313824402 0.1087363726
265298410.0 -0.1467762946 0.1018528092 0.4787624865 -0.2842721442 0.479157359 -0.2837505063 -0.130330693 0.1097878002
270298380.0 -0.1459407819 0.103030872 0.4763137105 -0.2891320712 0.4763419608 -0.2891475216 -0.129592102 0.1112338271
275298350.0 -0.1448804393 0.1041312883 0.4727397609 -0.2949773277 0.4731560859 -0.2948544458 -0.1284052017 0.1122878878
280298320.0 -0.1439236551 0.1058827649 0.4700067059 -0.3003230576 0.4698331929 -0.3000023634 -0.1270536515 0.1136036536
285298290.0 -0.1429238618 0.1070664792 0.4667585936 -0.3056981556 0.4664931133 -0.3054127617 -0.1255784362 0.1149989968
290298260.0 -0.141973961 0.1082600276 0.4627367749 -0.3102904254 0.4631182101 -0.3108083495 -0.1243534535 0.1167327002
295298230.0 -0.1407979337 0.10958864 0.459902767 -0.3156689116 0.4594691037 -0.3157345914 -0.1227830131 0.1173954088
300298200.0 -0.140218901 0.1109943309 0.4569219235 -0.3210362545 0.4564990236 -0.3211651665 -0.1218059187 0.1192269449
305298170.0 -0.1391460463 0.1119780819 0.4524239451 -0.3264118561 0.4524867181 -0.3264510327 -0.1200807117 0.1202133864
310298140.0 -0.1381921875 0.1135581423 0.449548075 -0.3319239784 0.4495171763 -0.331875973 -0.1188258549 0.1215337453
315298110.0 -0.1371309941 0.1146001438 0.4458295007 -0.3365844991 0.4456173055 -0.3368595015 -0.1176909903 0.1227044438
320298080.0 -0.1358702392 0.1157814985 0.4416559087 -0.3422421733 0.4419113726 -0.3419624149 -0.1164402964 0.1239079397
325298050.0 -0.1350648611 0.1171229528 0.4381272953 -0.3469033465 0.4380592672 -0.3468884031 -0.1154309817 0.1254966726
330298020.0 -0.1343626349 0.1181404729 0.4338252166 -0.3521297059 0.4341344489 -0.3520645974 -0.1142356148 0.126537306
335297990.0 -0.1332095329 0.1192925707 0.4300521277 -0.3565280865 0.4300273277 -0.3570188773 -0.11357844 0.1283562497
340297960.0 -0.1326150426 0.1211784641 0.4259878637 -0.3614232571 0.4255761313 -0.3617570979 -0.1114909259 0.1298156628
345297930.0 -0.1315146874 0.1228138815 0.4217524526 -0.3664167277 0.4218339163 -0.3664255006 -0.110380616 0.1307518525
350297900.0 -0.1305871597 0.1236052886 0.4173011876 -0.3707639492 0.4174190864 -0.3711285978 -0.109641009 0.1325421717
355297870.0 -0.129177306 0.1256368205 0.4134955954 -0.3757545397 0.4134832492 -0.3753476164 -0.1080246263 0.1337512636
360297840.0 -0.1283394668 0.12678209 0.4095377801 -0.379755789 0.4095382909 -0.3799298653 -0.1067625012 0.135279585
365297810.0 -0.1274059206 0.1283598561 0.4052953503 -0.3845858876 0.4052844083 -0.3845988745 -0.1053685844 0.136864983
370297780.0 -0.1256877902 0.1291852492 0.4002374477 -0.3887055705 0.4011766535 -0.3888685149 -0.1036503759 0.1381271742
375297750.0 -0.1243143591 0.1308404695 0.3963517725 -0.3936118348 0.3971740184 -0.3933608004 -0.1025687144 0.1392412101
380297720.0 -0.123500496 0.1318199753 0.3921817602 -0.397286001 0.3924359467 -0.3971449238 -0.1014508124 0.1403419796
385297690.0 -0.1225309769 0.1334754086 0.3876678823 -0.4016288786 0.3877446954 -0.4016739829 -0.099534842 0.1420679484
390297660.0 -0.12118982 0.1349936392 0.3834685892 -0.4062329847 0.3830903289 -0.4059601648 -0.0983227625 0.1429072027
395297630.0 -0.1200207683 0.136270796 0.3791155333 -0.410633813 0.3788820064 -0.4101868118 -0.0962801092 0.1445317225
400297600.0 -0.1186367334 0.1377341085 0.3740468418 -0.4143741667 0.3744582835 -0.4145506964 -0.0953551288 0.1457160189
405297570.0 -0.117498992 0.1387970475 0.3698101277 -0.418116044 0.3699917857 -0.4182776324 -0.0937225741 0.1468377196
410297540.0 -0.1159353653 0.1399962901 0.3651160162 -0.4227354448 0.3656794091 -0.4227139475 -0.0921623045 0.1485424926
415297510.0 -0.1147210286 0.1411519469 0.3602870318 -0.4267910098 0.3606968208 -0.4266940649 -0.0905424805 0.1491501318
420297480.0 -0.1134682434 0.1425446904 0.3560710935 -0.4305082353 0.3557823395 -0.4308388638 -0.0892123472 0.1503172757
425297450.0 -0.1120389989 0.1434090427 0.3512572019 -0.434141151 0.3516030759 -0.4344023719 -0.0877111919 0.1516070279
430297420.0 -0.1107822776 0.144496501 0.3464553135 -0.4377020788 0.3459672515 -0.4379152809 -0.086179262 0.1524583101
435297390.0 -0.1094408604 0.1460532113 0.3412846182 -0.4420558961 0.3413619949 -0.4417437168 -0.0839886998 0.1534287819
440297360.0 -0.1079091195 0.1475453767 0.3365441491 -0.4454576313 0.3367521584 -0.4453961435 -0.0826273871 0.1543193184
445297330.0 -0.1066320749 0.1482125823 0.332149158 -0.4493954639 0.3322675002 -0.448709731 -0.0807639322 0.1550060742
450297300.0 -0.1053398645 0.1493798683 0.3267580367 -0.4529386157 0.3268774611 -0.45269808 -0.0788203752 0.1561162943
455297270.0 -0.1038178603 0.1506796784 0.3218023408 -0.4560596127 0.3219917551 -0.4569138696 -0.0774782891 0.1572572293
460297240.0 -0.1025105157 0.1516954211 0.316456659 -0.459727502 0.3168690455 -0.4599326904 -0.0757782113 0.1585356947
465297210.0 -0.1006370745 0.1530575469 0.3119970153 -0.4635117335 0.3116496834 -0.4634225189 -0.0734217327 0.1590030501
470297180.0 -0.0994023924 0.1539020192 0.3064893476 -0.4665331555 0.3066857288 -0.4663587352 -0.0720108915 0.160473981
475297150.0 -0.0976723838 0.1547448849 0.301409786 -0.4692341448 0.3016071187 -0.4695574758 -0.0698491942 0.1608094863
480297120.0 -0.0963284246 0.1564515624 0.296283325 -0.473501691 0.2966551409 -0.473357267 -0.067817322 0.1620791531
485297090.0 -0.0949853376 0.1573344412 0.2915389411 -0.4759517055 0.2915003908 -0.4760847366 -0.0663930014 0.1627401097
490297060.0 -0.0935969916 0.1583296191 0.2864945287 -0.4796746712 0.286296429 -0.4790360101 -0.0643550323 0.164087143
495297030.0 -0.092220316 0.1592921413 0.280727225 -0.482275494 0.2813866116 -0.4824802466 -0.0628159 0.1646927567
500297000.0 -0.0905318276 0.1602431119 0.2759012098 -0.4855541704 0.2754250299 -0.4849088079 -0.0607541844 0.166228656
505296970.0 -0.088801878 0.1611309358 0.2703910711 -0.4881673651 0.2702351582 -0.4885094071 -0.0588430325 0.1668645319
510296940.0 -0.0873075706 0.1622694584 0.2647670678 -0.4912000049 0.2647894808 -0.4917186127 -0.0568145822 0.1674209991
515296910.0 -0.085724025 0.1632266947 0.2593804914 -0.494102974 0.2590853354 -0.4939761565 -0.0547525403 0.1680639413
520296880.0 -0.0842018337 0.1644160169 0.2545591149 -0.4972823395 0.2539297258 -0.4970453808 -0.0533848638 0.1690350155
525296850.0 -0.082780294 0.1649610508 0.2488332635 -0.4994289804 0.2490685207 -0.4996644693 -0.0516288802 0.1697648967
530296820.0 -0.0809126217 0.1660147138 0.2429383313 -0.5025398609 0.2431588669 -0.5024529228 -0.0492580095 0.170641725
535296790.0 -0.0795981794 0.1669366785 0.2382088246 -0.5045138924 0.2379479127 -0.5044999008 -0.0481473713 0.1712296717
540296760.0 -0.0781815413 0.1681522579 0.2323676592 -0.5078023335 0.2324770472 -0.507729054 -0.0462481686 0.1721645198
545296730.0 -0.076381541 0.1689662386 0.2265350986 -0.5099440616 0.2267036791 -0.5096068135 -0.0445856052 0.1725450485
550296700.0 -0.0744237045 0.1699521422 0.221257691 -0.51236169 0.2214411113 -0.5123104232 -0.0424862809 0.1735624327
555296670.0 -0.0730391853 0.1705714944 0.2158066836 -0.5145837311 0.2160596052 -0.5144388554 -0.0403800532 0.1742676332
560296640.0 -0.0710104446 0.171775607 0.2100293756 -0.5171128382 0.2103839462 -0.5171032413 -0.0386696784 0.1748431726
565296610.0 -0.0697992632 0.1724931311 0.2038393084 -0.5192211063 0.2045018917 -0.5193589374 -0.0371106135 0.1752356554
570296580.0 -0.0681445466 0.17319682 0.198824821 -0.521454197 0.1982861344 -0.5209526855 -0.0348948123 0.1758678874
575296550.0 -0.066805263 0.174037838 0.1932297167 -0.5234658865 0.1928728507 -0.5237136534 -0.0327172683 0.176581135
580296520.0 -0.0648264134 0.1748550674 0.1873622883 -0.5260334221 0.1872116994 -0.525465085 -0.0309548812 0.17691081
585296490.0 -0.0632739161 0.1752539286 0.1822866705 -0.5272266376 0.181920658 -0.5277818393 -0.0289734126 0.1776273679
590296460.0 -0.0607846312 0.1760680783 0.1759464685 -0.5283901213 0.1762843046 -0.5294230869 -0.0276842518 0.1778744492
595296430.0 -0.0594914138 0.1770355012 0.1700399744 -0.5313161119 0.1702221369 -0.5312792153 -0.0253385349 0.1779644931
600296400.0 -0.0580220942 0.1777445271 0.1643294854 -0.5333008816 0.1639874071 -0.5326826466 -0.023448565 0.1787204239
605296370.0 -0.0562395127 0.1784316179 0.1584208922 -0.5346678027 0.1588879865 -0.5347185137 -0.0208983507 0.1790382252
610296340.0 -0.0544585137 0.179016434 0.1530745652 -0.5363218641 0.152716662 -0.536594104 -0.0190472459 0.1791623214
615296310.0 -0.0523394311 0.17950823 0.1470945768 -0.5375381599 0.1466924919 -0.5384584118 -0.0171579304 0.1797341567
620296280.0 -0.0510212706 0.1798271677 0.1413411979 -0.5392978 0.1411370908 -0.5392844656 -0.0156259681 0.1798783181
625296250.0 -0.0493407077 0.1805593848 0.1357348719 -0.5406639834 0.1354477217 -0.5414317747 -0.0128924231 0.1800550246
630296220.0 -0.0468534539 0.1814979321 0.128810782 -0.5425239549 0.1290345264 -0.5421258367 -0.011055045 0.1805267439
635296190.0 -0.0459507291 0.1818411428 0.123587054 -0.5432265693 0.123467658 -0.5436957563 -0.0088519989 0.1806271469
640296160.0 -0.0440311546 0.1824637558 0.1182278451 -0.5446400725 0.117773772 -0.5449593887 -0.0068496398 0.1810298902
645296130.0 -0.0421590474 0.1832162461 0.1115435986 -0.5459814124 0.1120157828 -0.546110284 -0.0049556789 0.1812906119
650296100.0 -0.0402703306 0.1833375544 0.1058079336 -0.5471038164 0.1062756919 -0.5470272539 -0.0028639363 0.1808560083
655296070.0 -0.0385554808 0.1840764871 0.1000848148 -0.5478010504 0.1000382507 -0.548301136 -0.0005253098 0.1813047454
660296040.0 -0.0372741238 0.1842087427 0.0942119042 -0.5490276247 0.0942304219 -0.5495341197 0.0016350394 0.181795659
665296010.0 -0.0348315885 0.1849565892 0.0877115542 -0.5499668587 0.0882614364 -0.5505032049 0.0034712631 0.1822295587
670295980.0 -0.0341011497 0.1857010475 0.0821914293 -0.5509606272 0.0821456574 -0.5509987775 0.0053765539 0.181994407
675295950.0 -0.0317974185 0.1861800497 0.0766436549 -0.5515334585 0.0763271593 -0.5513785003 0.0069581342 0.182047802
680295920.0 -0.0301490569 0.186214731 0.0700399402 -0.5525944138 0.0697927284 -0.5530448214 0.0093166258 0.1828222784
685295890.0 -0.0282618815 0.1873173718 0.0641035215 -0.5534319857 0.0640256354 -0.5535094212 0.0114985473 0.1826010232
690295860.0 -0.0259314826 0.1874756522 0.0583579656 -0.5532818327 0.0579982498 -0.5542535177 0.0137201517 0.1831224722
695295830.0 -0.0242447938 0.1876536132 0.0529018647 -0.5542508714 0.0521111693 -0.5543876563 0.015654809 0.1830378993
700295800.0 -0.0221329468 0.1880617306 0.0463870973 -0.5550208919 0.0459978834 -0.5547213899 0.0173231763 0.1834333891
705295770.0 -0.0206889835 0.1891170733 0.0402877605 -0.5555740808 0.0404456533 -0.5557070621 0.0194399805 0.1836725817
710295740.0 -0.0186948882 0.188946266 0.0346560524 -0.5564288446 0.0346997637 -0.5564640265 0.0214699945 0.1828341827
715295710.0 -0.0173314759 0.1892696974 0.0287696905 -0.5559033828 0.0283376829 -0.5563799359 0.0236357828 0.1826629722
720295680.0 -0.0153932952 0.189563697 0.0223393798 -0.5565154833 0.0222942048 -0.5567678725 0.0255684982 0.183310702
725295650.0 -0.0131746468 0.18984105 0.0163297624 -0.5567308891 0.0164517832 -0.5568599276 0.0274667755 0.1831854793
730295620.0 -0.0110074299 0.1905358099 0.0102144086 -0.5565447349 0.0104632889 -0.5566636215 0.0289703931 0.1825793985
735295590.0 -0.0098674841 0.1907060783 0.0048045895 -0.5573981742 0.0042684673 -0.5568720639 0.0309106712 0.1821346883
740295560.0 -0.0079519789 0.1907543956 -0.0016372052 -0.5566316323 -0.0016463414 -0.5569774122 0.0336494896 0.1823053841
745295530.0 -0.0059623459 0.1909311777 -0.0076770099 -0.5563019835 -0.0076719279 -0.5564983532 0.035593741 0.1816690541
750295500.0 -0.0039203392 0.1913699164 -0.0132720157 -0.5568101411 -0.0133174341 -0.5566759055 0.0372151583 0.1816129885
755295470.0 -0.0020230476 0.1909767977 -0.0192888501 -0.5564794589 -0.0194465276 -0.5565469261 0.0397216185 0.1810898375
760295440.0 -0.0005360014 0.1915048639 -0.0256267965 -0.5562424319 -0.0258407011 -0.5563270494 0.0414101495 0.1809555596
765295410.0 0.0013923525 0.1916990045 -0.0316819059 -0.5556136497 -0.0316687606 -0.5558872057 0.0435089574 0.1805243602
770295380.0 0.0031214194 0.1916199083 -0.037643697 -0.5552211824 -0.0379517519 -0.5552588299 0.0450326541 0.1798704959
775295350.0 0.0047916151 0.1911898727 -0.0436211437 -0.5547222112 -0.0432724915 -0.5544506401 0.0467841244 0.1798999654
780295320.0 0.0069645471 0.1917670474 -0.0495148387 -0.553976511 -0.0490342373 -0.5542126099 0.0488513023 0.1792162627
785295290.0 0.008408462 0.1912011449 -0.055636725 -0.5534378161 -0.0552987015 -0.5535946602 0.0515984294 0.1787364424
790295260.0 0.0110700937 0.192114798 -0.061232579 -0.5528272854 -0.060742879 -0.5529670701 0.05332304 0.178439145
795295230.0 0.0126535387 0.1915685941 -0.0672492785 -0.5520701199 -0.0669952137 -0.5524682333 0.0554889696 0.1781360017
800295200.0 0.014060506 0.1920628658 -0.0733599929 -0.55085365 -0.0731893837 -0.5513090584 0.0575222562 0.1775124548
805295170.0 0.0161378045 0.1918256458 -0.0791543535 -0.5504852464 -0.0790686623 -0.5507844389 0.0592952423 0.1769705599
810295140.0 0.0180911982 0.191331391 -0.0849551561 -0.548865341 -0.0850219842 -0.5496441404 0.0616821442 0.1766205552
815295110.0 0.0198569587 0.1914477221 -0.0908263955 -0.5481105559 -0.0911801277 -0.5488235111 0.0634562611 0.1761034788
820295080.0 0.0213249148 0.1917829792 -0.0969517427 -0.5470260324 -0.0965758272 -0.5477333277 0.0655833869 0.17554199
825295050.0 0.0239338888 0.1916630979 -0.1023900811 -0.5463679134 -0.1026292218 -0.5468698154 0.0677912601 0.1752880482
830295020.0 0.0256076003 0.1915226333 -0.1086178518 -0.5448844874 -0.108578045 -0.545155675 0.0703350616 0.1745647577
