!Created with skrf (http://scikit-rf.org).
# Hz S RI R 50.0 
!freq ReS11 ImS11 ReS21 ImS21 ReS12 ImS12 ReS22 ImS22
300000.0 -0.2382328506 -0.0769266806 0.4708850809 0.0518067548 0.4678665767 0.0500965134 -0.2432736962 -0.0903162481
5299970.0 -0.2443191897 0.0073653388 0.4735186138 0.0047291978 0.4736078455 0.0048609765 -0.2440423777 0.0074609552
10299940.0 -0.2411086543 0.0189734723 0.4755318754 0.005962443 0.4754783703 0.00600369 -0.2407199768 0.0204538816
15299910.0 -0.2367962143 0.0280508473 0.4791636372 0.0076082611 0.4794410652 0.0076070941 -0.2360323027 0.0298564261
20299880.0 -0.2320409245 0.0356222792 0.483984101 0.0086371904 0.4842199245 0.0081952226 -0.2307799238 0.037599036
25299850.0 -0.2267116112 0.0419814006 0.4893229626 0.0072475624 0.4891638221 0.0076564109 -0.2250212433 0.0437853394
30299820.0 -0.221605765 0.0470471667 0.4944297992 0.0050822778 0.4945856295 0.0052735172 -0.2191685791 0.0493142019
35299790.0 -0.2163861495 0.0517680861 0.5001023901 0.0016288241 0.4997295394 0.0016534333 -0.2135644736 0.0534651185
40299760.0 -0.2114512846 0.0550983176 0.5049009494 -0.0020812781 0.505173433 -0.0016765956 -0.2082509026 0.056298491
45299730.0 -0.206561582 0.0574681167 0.5095078583 -0.0063329962 0.5100085108 -0.0068709181 -0.2031757686 0.0589777447
50299700.0 -0.2023908946 0.0599550516 0.5143947527 -0.0122399099 0.5141030104 -0.0118866906 -0.1984210024 0.060535078
55299670.0 -0.1983104557 0.0619309191 0.5179225649 -0.0186577627 0.5178066696 -0.0178977506 -0.1942291385 0.0621501292
60299640.0 -0.1943630391 0.0636247759 0.5211195878 -0.0246949989 0.5217534622 -0.0241673021 -0.1905920606 0.0628260046
65299610.0 -0.191362273 0.0648398538 0.5238726929 -0.0307190488 0.5243129531 -0.0307355983 -0.1871216308 0.064093679
70299580.0 -0.1879397154 0.0661606982 0.5265892769 -0.0374145004 0.5266737179 -0.0371904969 -0.1838964128 0.0648482071
75299550.0 -0.1851348414 0.0673964211 0.5285412848 -0.0442009469 0.5282623007 -0.0439122151 -0.1810791841 0.065202128
80299520.0 -0.1823851991 0.0680575798 0.53056651 -0.0511316767 0.5305116371 -0.0511695463 -0.1782961798 0.0661534385
85299490.0 -0.1801989138 0.0690593079 0.5317671893 -0.0576616545 0.5318968446 -0.0575798059 -0.1760765769 0.0660621338
90299460.0 -0.1781955563 0.0695885158 0.5325256135 -0.0650872277 0.5330098763 -0.0649174873 -0.1736243576 0.0667467311
95299430.0 -0.1755164328 0.0704050062 0.5337762616 -0.0718661717 0.5336777399 -0.0721225637 -0.1714420395 0.0671226252
100299400.0 -0.1737485621 0.0715168882 0.5336484274 -0.0784116687 0.5340336445 -0.07884876 -0.1696500258 0.0675298837
105299370.0 -0.1720435456 0.0724669972 0.5345712847 -0.0858874752 0.5347494196 -0.085887087 -0.167494594 0.0681560098
110299340.0 -0.1704580804 0.0731716304 0.5347186135 -0.0921620554 0.5349209903 -0.092476247 -0.1667210125 0.0681963057
115299310.0 -0.1688126668 0.0741165544 0.534971529 -0.0989413505 0.5346094927 -0.0993720829 -0.164700253 0.0691283332
120299280.0 -0.1672801013 0.074662334 0.534361586 -0.1058325964 0.5343494868 -0.1059103138 -0.1630584397 0.0695213761
125299250.0 -0.1660062374 0.0756950372 0.5338448985 -0.1127888212 0.5340793536 -0.1124179485 -0.1621811034 0.069536852
130299220.0 -0.1650182135 0.0769151406 0.5329993168 -0.1198442305 0.533103067 -0.1196152802 -0.1612474359 0.0700979557
135299190.0 -0.1637054155 0.0779815543 0.5326293497 -0.1260804546 0.5328451583 -0.12600668 -0.1599304806 0.070981576
140299160.0 -0.1627071611 0.0790861015 0.5316629165 -0.1329564548 0.5321011886 -0.1329999569 -0.1587639554 0.0720899216
145299130.0 -0.1614045408 0.0798466825 0.5310932377 -0.1395614013 0.5305866435 -0.1392767785 -0.1576867698 0.0725067554
150299100.0 -0.1600694158 0.0810864907 0.5297055255 -0.145545259 0.529922971 -0.1455485123 -0.1569539057 0.0737111487
155299070.0 -0.1594852328 0.0820967877 0.5284815242 -0.1527407363 0.5283932196 -0.1527624189 -0.1558182115 0.0745542967
160299040.0 -0.1581663768 0.0833657169 0.5272704017 -0.1589632398 0.5266204249 -0.1591553806 -0.1554963196 0.0753771908
165299010.0 -0.1575007513 0.0847985038 0.5255742192 -0.1657228384 0.5258275523 -0.1657171224 -0.1542903736 0.0769040157
170298980.0 -0.1562587645 0.0856571795 0.5236646073 -0.1718525814 0.5244402508 -0.1718276888 -0.1534964416 0.0772675199
175298950.0 -0.1556537622 0.0871627061 0.5228178112 -0.1780339291 0.5225686253 -0.1780198721 -0.1529435193 0.078588965
180298920.0 -0.1546962551 0.0883045399 0.5212270144 -0.1844024008 0.5211595543 -0.1837222148 -0.1518717035 0.0798451148
185298890.0 -0.153440241 0.0894929892 0.5189526295 -0.1902692468 0.5186723973 -0.1905619855 -0.1511053156 0.0810179135
190298860.0 -0.1527792649 0.0909794172 0.5172762779 -0.1968147891 0.5175227798 -0.1968840615 -0.1503970014 0.0818547223
195298830.0 -0.1516680354 0.0920131204 0.5150479421 -0.2026915909 0.5153726265 -0.2028356946 -0.1494524992 0.0831750791
200298800.0 -0.1506741323 0.0935484064 0.5132562838 -0.2090852943 0.513337543 -0.2091633099 -0.1494350268 0.083950535
205298770.0 -0.1498531456 0.0950575307 0.5105950932 -0.2153814439 0.5106065847 -0.2148731344 -0.1486609979 0.0847543534
210298740.0 -0.1489257899 0.0961026524 0.5082125009 -0.2206083208 0.5085022224 -0.2208540542 -0.147461613 0.0867876873
215298710.0 -0.1482679028 0.0977277556 0.5063748252 -0.2270642008 0.5059222802 -0.2272908531 -0.1471479926 0.0877244498
220298680.0 -0.1471751929 0.0987304562 0.503142944 -0.2329102017 0.5035083009 -0.2328036635 -0.1466957931 0.0887492914
225298650.0 -0.1462321577 0.1003977044 0.501224778 -0.2386975522 0.5013166386 -0.2388943647 -0.1460940314 0.0898388556
230298620.0 -0.1451382655 0.1023593752 0.498879576 -0.2444863127 0.4994627426 -0.2444924205 -0.1455782318 0.0908540082
235298590.0 -0.1442479978 0.1038475596 0.4963182136 -0.2502684298 0.4960507664 -0.2496483357 -0.1445738268 0.092153564
240298560.0 -0.1431271281 0.105064148 0.4935276774 -0.2563005359 0.4936536363 -0.2562215252 -0.1443355838 0.0938115695
245298530.0 -0.1420855796 0.1063717715 0.4911937329 -0.2617994324 0.4907813349 -0.2618044418 -0.1431226786 0.0941731836
250298500.0 -0.1408351334 0.1080853054 0.4870913855 -0.2676485846 0.4870599532 -0.2671358239 -0.1424534195 0.096057248
255298470.0 -0.1400481273 0.1092244058 0.4845022864 -0.2730487409 0.4846644645 -0.2726641699 -0.141550844 0.0971081767
260298440.0 -0.1393076595 0.1108290683 0.4818813454 -0.2789290756 0.4816757206 -0.2782912313 -0.14031105 0.0981851805
265298410.0 -0.1376705751 0.1124117801 0.4785335409 -0.2840632925 0.4789871986 -0.2841522699 -0.1397613365 0.0996112142
270298380.0 -0.1365598672 0.1136867471 0.4760192207 -0.2893788614 0.4761551583 -0.2894627865 -0.1391023458 0.1005427071
275298350.0 -0.135375754 0.1151676611 0.4726625678 -0.295079981 0.4728678099 -0.2948136911 -0.1381567965 0.101917477
280298320.0 -0.1339640695 0.1167268857 0.4699118996 -0.3003985304 0.4695670115 -0.3003456717 -0.1368199148 0.102798668
285298290.0 -0.133066128 0.1183786603 0.4663235113 -0.3053628052 0.4659375526 -0.3055631619 -0.1359231525 0.1042390739
290298260.0 -0.1315169072 0.1195344863 0.4627255774 -0.3102561472 0.4629482542 -0.3110746455 -0.1351444004 0.1055455213
295298230.0 -0.1299909581 0.120818709 0.4595462491 -0.3156785141 0.4595780273 -0.3160783353 -0.133527769 0.1067078442
300298200.0 -0.1292798027 0.1225391372 0.4566300145 -0.3211539212 0.456033049 -0.3215920208 -0.1328213389 0.1078700791
305298170.0 -0.1277098194 0.1234997769 0.4525210355 -0.3265907024 0.4523379547 -0.3266137048 -0.1311370734 0.109171173
310298140.0 -0.12670727 0.1249894322 0.4492760165 -0.3319745942 0.4492148542 -0.3317017871 -0.1305007055 0.1103078198
315298110.0 -0.1251831689 0.1262957941 0.4454557453 -0.3370064346 0.4451330873 -0.3368827984 -0.1293856165 0.1113834976
320298080.0 -0.1237346392 0.1274366824 0.4414831908 -0.3426306921 0.4417072808 -0.3420233002 -0.1287937456 0.1127120891
325298050.0 -0.122587387 0.1288949836 0.4380386418 -0.3474826641 0.4376346214 -0.3471194624 -0.1279164541 0.1140445129
330298020.0 -0.1215213885 0.1300300937 0.4336891341 -0.3523342104 0.4337350367 -0.352112605 -0.1267605025 0.1150270165
335297990.0 -0.1200306474 0.1311203462 0.4296664953 -0.3571535232 0.4295966864 -0.3571461107 -0.1265298298 0.1169894928
340297960.0 -0.1190295805 0.1327198543 0.4256814355 -0.3615180387 0.4248899826 -0.3620520527 -0.1247191124 0.1181569416
345297930.0 -0.1180619037 0.1346774439 0.4214513582 -0.3669280458 0.4212677262 -0.3667472082 -0.1238606191 0.1190910087
350297900.0 -0.1167164369 0.1356053874 0.4167219161 -0.3712346089 0.4169309226 -0.3712423536 -0.1236208676 0.1209192175
355297870.0 -0.1152259499 0.1373660251 0.4129068147 -0.3754105173 0.413037147 -0.3754737331 -0.122082097 0.1220059366
360297840.0 -0.1137072792 0.1388287459 0.4092697049 -0.3800534656 0.4094483626 -0.3800641744 -0.1211763093 0.1234131753
365297810.0 -0.1125193482 0.1402772163 0.4046200254 -0.3850848664 0.4051117239 -0.384932458 -0.1199736533 0.1248202106
370297780.0 -0.1105633093 0.1413675902 0.4000608025 -0.3888711015 0.4005944203 -0.3887189726 -0.1192483164 0.1262651955
375297750.0 -0.1089183387 0.142712467 0.3960178902 -0.3935946198 0.3964179718 -0.3935089243 -0.1180635755 0.1275319876
380297720.0 -0.1078647394 0.1439776418 0.3916802804 -0.3982296443 0.3920569346 -0.3976347937 -0.1170744479 0.1289011175
385297690.0 -0.1063476611 0.1452932408 0.3873425019 -0.4021191764 0.3874126483 -0.4022082677 -0.1157864692 0.130245347
390297660.0 -0.1049380016 0.1469737464 0.3827647931 -0.4065789765 0.382838597 -0.4059273751 -0.1147641822 0.1312814385
395297630.0 -0.1032724594 0.1481560132 0.3785821539 -0.4105170442 0.3784981338 -0.4105784027 -0.1131174187 0.1326618573
400297600.0 -0.101580776 0.1494001215 0.3736295317 -0.4152526068 0.3740442194 -0.4146650976 -0.1123139299 0.1336209905
405297570.0 -0.1003546312 0.150738519 0.3696834591 -0.4184677443 0.3693680279 -0.4188751031 -0.111191428 0.1354160986
410297540.0 -0.098214587 0.1520864487 0.3647173367 -0.4229236813 0.3649222814 -0.4228395564 -0.1100757265 0.1365645699
415297510.0 -0.0966092733 0.1530236389 0.3598224472 -0.4269012496 0.3603029429 -0.4270964258 -0.1089151025 0.1376050967
420297480.0 -0.095258529 0.1543554741 0.3554616406 -0.4307192625 0.3554312216 -0.4311791246 -0.1077348891 0.138611183
425297450.0 -0.093619651 0.1553325685 0.3507969068 -0.434679624 0.3507540063 -0.434876918 -0.1066294564 0.1403693193
430297420.0 -0.0916320075 0.1565659239 0.3456220486 -0.4380313071 0.3458600299 -0.4380803344 -0.1051632488 0.1408414796
435297390.0 -0.0899644244 0.1577871948 0.3403724942 -0.4422432013 0.3406661742 -0.4420648327 -0.103165884 0.1419485385
440297360.0 -0.088474154 0.1592463285 0.3359782449 -0.4458312442 0.3363506152 -0.4461197536 -0.1025370617 0.143007356
445297330.0 -0.0868402491 0.1598040577 0.3314202634 -0.4496603707 0.3312035761 -0.4489050214 -0.1009427919 0.1437975779
450297300.0 -0.0847841483 0.1606379857 0.3263193348 -0.4525944773 0.3260803494 -0.4534054605 -0.0998060007 0.1449744276
455297270.0 -0.0831217485 0.162017066 0.3209730672 -0.4564375133 0.3214110614 -0.4566564423 -0.098268344 0.1457566642
460297240.0 -0.0816951329 0.1629604708 0.3158965094 -0.4596639986 0.3162806414 -0.4601437758 -0.0968467577 0.1470203101
465297210.0 -0.0794235802 0.1644117018 0.3112557699 -0.4633076328 0.3111732491 -0.4638702079 -0.0950798628 0.1478906463
470297180.0 -0.0778101883 0.1647639161 0.3059795715 -0.4666228916 0.3062414384 -0.4673001345 -0.0936395081 0.1491559967
475297150.0 -0.0760548882 0.165837075 0.3007862374 -0.4691892837 0.3008643775 -0.4696770605 -0.0918756182 0.1499670122
480297120.0 -0.0741346211 0.1671837949 0.2957405598 -0.4733947707 0.2959818861 -0.4735705438 -0.0903928429 0.1509242695
485297090.0 -0.0722350257 0.1681002719 0.2907040403 -0.4762945089 0.2907862413 -0.4762811727 -0.0893805257 0.1522566157
490297060.0 -0.0708148038 0.1688961816 0.2851989562 -0.4798096037 0.2854888227 -0.4792317399 -0.0875014288 0.1535635314
495297030.0 -0.0688792633 0.170082173 0.2802598341 -0.4828674738 0.2806679775 -0.4829115323 -0.0862804044 0.154257331
500297000.0 -0.0667251254 0.1707828802 0.2747552759 -0.4854103581 0.274579478 -0.4851730715 -0.0844696825 0.1554929196
505296970.0 -0.0649014904 0.1715955389 0.2695442996 -0.4881938887 0.2696605153 -0.4887366121 -0.0830349272 0.1564179324
510296940.0 -0.0630662702 0.1726663445 0.2644794247 -0.4917105882 0.2640164731 -0.4918929383 -0.0813299182 0.1573330426
515296910.0 -0.0612046355 0.1732125939 0.2584973258 -0.4942118659 0.2590419327 -0.4943286724 -0.0798122249 0.1587182468
520296880.0 -0.0596104168 0.1741099237 0.2536954248 -0.4970872268 0.2534055774 -0.4970147354 -0.0783767915 0.159253995
525296850.0 -0.0573384752 0.1744202813 0.2479597223 -0.4997173854 0.2483184664 -0.4995760751 -0.0773983309 0.1604893262
530296820.0 -0.0553991433 0.1756946402 0.2423770746 -0.5027927536 0.2425350151 -0.5026780764 -0.0754969124 0.1612575198
535296790.0 -0.053911228 0.176467525 0.2375358282 -0.5052087307 0.2372626832 -0.5046214137 -0.0740069438 0.1620200464
540296760.0 -0.0517458089 0.1772601916 0.2317637702 -0.5077425277 0.2316972444 -0.5078796073 -0.0726320017 0.1634545748
545296730.0 -0.0497410885 0.1780151207 0.2255364101 -0.5100356483 0.2262616659 -0.5101195164 -0.0714229886 0.1641698014
550296700.0 -0.0475093644 0.1786135272 0.2204952838 -0.5125630677 0.2204528282 -0.5127390699 -0.069723842 0.1653402619
555296670.0 -0.0458616423 0.1793511477 0.2152370728 -0.5147432482 0.2153188759 -0.5149371218 -0.0681835127 0.1661221119
560296640.0 -0.0435151699 0.1799438554 0.2092357087 -0.5172730506 0.2093878239 -0.5172736043 -0.0664993636 0.1666519788
565296610.0 -0.0418258019 0.1805916622 0.2032321131 -0.5196101947 0.2039019956 -0.5195123299 -0.0647885842 0.1673020697
570296580.0 -0.0399640837 0.1813207197 0.197840075 -0.5220809844 0.1976180813 -0.5218404536 -0.063580292 0.1686913403
575296550.0 -0.0380443112 0.1820303985 0.1921856193 -0.523923634 0.1922196506 -0.5235411783 -0.0614481932 0.1688590094
580296520.0 -0.0357628373 0.1824520156 0.1865665318 -0.5258432311 0.1866541567 -0.5255779147 -0.0599685029 0.169572339
585296490.0 -0.0339535465 0.1827642829 0.1809137451 -0.5274599042 0.1809732705 -0.5278225509 -0.0587564459 0.1707232838
590296460.0 -0.0315733215 0.1835524608 0.175416558 -0.5293372642 0.1752403446 -0.5296067346 -0.0575709582 0.1709001658
595296430.0 -0.0295888739 0.1839537608 0.1692305924 -0.5315280852 0.1692972368 -0.5309146241 -0.0552874363 0.171352037
600296400.0 -0.0279004821 0.1842615652 0.1636302285 -0.5333193016 0.1635470503 -0.5328730142 -0.0539535779 0.1723051178
605296370.0 -0.0258989046 0.1846493428 0.1577636379 -0.5349436072 0.1579665214 -0.534944921 -0.0521567347 0.1728569314
610296340.0 -0.0238463818 0.1851764587 0.15167728 -0.5364874215 0.152000734 -0.5365230029 -0.050476165 0.1735473975
615296310.0 -0.0213620158 0.1851928195 0.1460253803 -0.5379288975 0.1457593665 -0.5381633891 -0.0485846049 0.1741830107
620296280.0 -0.0195344781 0.1857711684 0.1402625457 -0.5392515138 0.1399858084 -0.5390957384 -0.0472627555 0.1744370665
625296250.0 -0.0176786072 0.1857102636 0.1348088522 -0.5409643625 0.134260873 -0.5412496358 -0.0448893638 0.1753361586
630296220.0 -0.0147566989 0.1862982166 0.1280294171 -0.5425293153 0.1280733504 -0.5422207335 -0.043269245 0.1756681702
635296190.0 -0.0137728609 0.1866255615 0.1226623578 -0.5436958464 0.1225003379 -0.5435153382 -0.0414638309 0.1761142308
640296160.0 -0.0116583682 0.1870244537 0.1167615316 -0.5446080672 0.1170035301 -0.5449866847 -0.039722912 0.1767454164
645296130.0 -0.009203029 0.1873604856 0.1107815027 -0.5457836911 0.1113194918 -0.5459343768 -0.03799208 0.1776571082
650296100.0 -0.00721556 0.1875122119 0.1045657345 -0.5472346828 0.105210143 -0.5470357034 -0.0361713045 0.1771935931
655296070.0 -0.0054362549 0.1874585425 0.0989400312 -0.5483186123 0.0991172036 -0.5484359139 -0.0342904597 0.1782521744
660296040.0 -0.0035868037 0.1874728983 0.0933620174 -0.5492017492 0.0934462002 -0.5493700939 -0.0324187003 0.1789962873
665296010.0 -0.0010192115 0.1876581739 0.0869961937 -0.550184866 0.0870871541 -0.5500703846 -0.0306843028 0.1795359592
670295980.0 0.0001564429 0.188391471 0.0812802498 -0.5509085491 0.0810741557 -0.5511328827 -0.0293387432 0.1798770493
675295950.0 0.002457104 0.188519532 0.0755477453 -0.5517001232 0.0752143677 -0.5513783824 -0.0278381859 0.1802317085
680295920.0 0.0047483684 0.1881211473 0.069113519 -0.5523750695 0.0686787491 -0.5532228285 -0.0254855681 0.1813248849
685295890.0 0.0069428624 0.1890488388 0.063186784 -0.5534610916 0.0631172215 -0.5534719115 -0.0240219497 0.1815173514
690295860.0 0.0089639105 0.1885021986 0.0573921851 -0.5536944156 0.0573097723 -0.5541782686 -0.0222375045 0.1821812258
695295830.0 0.0109823771 0.1884743508 0.0517451765 -0.5542262155 0.0513154045 -0.5547043793 -0.0202632517 0.1825726068
700295800.0 0.0131882219 0.1881160641 0.0452177252 -0.554849917 0.0448970841 -0.5546353167 -0.0188002778 0.1830314206
705295770.0 0.0150030225 0.1888173656 0.0391627072 -0.5553377631 0.0396814706 -0.5554722367 -0.0171010366 0.1835039305
710295740.0 0.0174575489 0.1886375836 0.0335507301 -0.5563646941 0.0336016592 -0.5560890938 -0.0150410835 0.1835711544
715295710.0 0.019015331 0.1882999386 0.028056878 -0.5561007949 0.0269809439 -0.5560752821 -0.0129834286 0.1839111456
720295680.0 0.0214550373 0.1886119458 0.0214572339 -0.5562870323 0.0215504802 -0.5565606296 -0.0114526405 0.1846498076
725295650.0 0.0237311887 0.1885626992 0.0154148652 -0.556579246 0.0153970437 -0.5565769203 -0.0101482328 0.1847867635
730295620.0 0.0260894531 0.1884904335 0.0093747917 -0.5564111293 0.0093420493 -0.5567899022 -0.0086273519 0.1849452012
735295590.0 0.0276014996 0.1884958573 0.0037565447 -0.5566699965 0.0034794173 -0.5566294679 -0.0070278561 0.1849030672
740295560.0 0.0296531066 0.1881970615 -0.0027178433 -0.5564761769 -0.002665945 -0.5565531484 -0.0044537748 0.1857962333
745295530.0 0.0316392805 0.1880026 -0.0086980614 -0.5561079763 -0.0087500702 -0.5564506823 -0.002873639 0.1853144321
750295500.0 0.0341180328 0.1876796085 -0.0146057587 -0.5562468443 -0.0146858836 -0.5565708178 -0.0011683141 0.1855717231
755295470.0 0.0361038809 0.1872340094 -0.0203009628 -0.556101715 -0.0208910601 -0.5562675072 0.0008472191 0.185547586
760295440.0 0.0377938799 0.1872747937 -0.02623418 -0.5562436903 -0.0267458104 -0.5562115659 0.0024997969 0.1857826189
765295410.0 0.0400218369 0.1869638575 -0.0325816155 -0.5553042146 -0.032924819 -0.5560526048 0.0043661169 0.1860191801
770295380.0 0.0419420102 0.1865357724 -0.0385943159 -0.555005731 -0.0386705255 -0.5548411466 0.0058743277 0.1859664507
775295350.0 0.0438393377 0.1855924932 -0.0452198052 -0.5541534596 -0.0442323593 -0.5543368668 0.0072676881 0.1858882492
780295320.0 0.0462718996 0.1855806188 -0.0504983304 -0.5543318226 -0.0498324768 -0.5539654191 0.0091313734 0.1854660085
785295290.0 0.0477249634 0.1848971941 -0.056729448 -0.5530166307 -0.0565886388 -0.5533530962 0.0117923067 0.1861245971
790295260.0 0.0507434107 0.185251942 -0.0622154859 -0.5526334713 -0.0616021946 -0.5527106268 0.0134980075 0.1859370852
795295230.0 0.0525188478 0.1843653366 -0.0686937465 -0.5517433557 -0.0682179979 -0.5518261039 0.0152929318 0.1861286658
800295200.0 0.0538904886 0.1839440846 -0.0749442992 -0.5508973248 -0.0744189942 -0.5509031604 0.0171745436 0.1859200473
805295170.0 0.0560161345 0.1834216444 -0.0801369154 -0.5502980648 -0.0801502486 -0.5506200131 0.0187358072 0.1861019115
810295140.0 0.0580530207 0.1827985671 -0.0859133568 -0.5491407903 -0.086049528 -0.5494401133 0.0211380646 0.186281474
815295110.0 0.0600912604 0.1821008321 -0.0916256184 -0.5482380777 -0.092102991 -0.548149054 0.022580507 0.1861365013
820295080.0 0.0619558774 0.182218611 -0.0977605647 -0.5470699206 -0.0979074095 -0.5472025 0.024767008 0.1860091217
825295050.0 0.0646029865 0.1811854772 -0.1034793152 -0.5457296662 -0.103556328 -0.5461406508 0.0266012208 0.1859709276
830295020.0 0.0662010959 0.1807104779 -0.1097424692 -0.5447991894 -0.1095413762 -0.5447879958 0.0289619116 0.1855371544
