!Created with skrf (http://scikit-rf.org).
# Hz S RI R 50.0 
!freq ReS11 ImS11 ReS21 ImS21 ReS12 ImS12 ReS22 ImS22
300000.0 -0.7690772229 -0.1775754136 -0.0012194522 0.0021508047 -0.0003872239 0.00114727 -0.0459508734 -0.0764971574
5299970.0 -0.785925059 -0.0095331989 8.09878e-05 4.61658e-05 -0.0002091808 -6.11261e-05 -0.0489262863 0.0142488542
10299940.0 -0.7893866152 -0.0057506257 2.37216e-05 0.0001092765 0.0001040971 1.04522e-05 -0.0429914715 0.0323801069
15299910.0 -0.7938796494 -0.003584327 -5.4837e-06 1.03869e-05 -0.0001020726 -3.74153e-05 -0.0350206823 0.0466659802
20299880.0 -0.8012188155 0.0009422625 8.57087e-05 0.000233846 -4.66049e-05 0.0002004024 -0.0252140295 0.0587133457
25299850.0 -0.80746721 0.0064575066 -9.77481e-05 2.39399e-05 -0.0001873529 1.80821e-05 -0.0144323484 0.0678916617
30299820.0 -0.8139647821 0.0140353026 -2.3757e-06 0.0001083526 -2.04097e-05 -7.063e-07 -0.0029029601 0.0745230345
35299790.0 -0.8186462024 0.0229702156 -0.0001944824 0.0001219247 8.80003e-05 -0.0001075206 0.0082549604 0.079606421
40299760.0 -0.8237711194 0.0322335655 -8.0977e-06 3.9813e-06 3.56932e-05 -1.63374e-05 0.0195708849 0.0825385683
45299730.0 -0.8267381309 0.0418672633 -6.661e-06 -0.0002036972 3.95105e-05 0.0002079182 0.0302950419 0.0841691276
50299700.0 -0.8288115406 0.0520305352 -0.0001311986 2.51258e-05 5.54822e-05 9.97462e-05 0.0402967819 0.0845792157
55299670.0 -0.8308614964 0.0616686061 -5.89738e-05 0.0002150662 -2.43389e-05 -1.5241e-05 0.0494406002 0.0833423017
60299640.0 -0.8321026732 0.0720458873 0.0001692139 1.7521e-05 0.0001028032 -9.12162e-05 0.0580731108 0.0817047972
65299610.0 -0.8334535288 0.0818870759 -7.9776e-05 9.1629e-05 0.0002094606 -1.4824e-06 0.0657049991 0.079513969
70299580.0 -0.8335729651 0.0919340846 6.50321e-05 0.0002807736 7.30211e-05 1.14851e-05 0.0725378442 0.0768013765
75299550.0 -0.8339134811 0.1017312184 0.0003175814 -2.8989e-06 -0.0002183159 7.79918e-05 0.0790407143 0.073730025
80299520.0 -0.8335758526 0.1119885026 -4.8054e-05 -5.16114e-05 -4.6156e-05 -5.39207e-05 0.0847599027 0.070286793
85299490.0 -0.8327889167 0.1211533599 9.45618e-05 3.42874e-05 8.91183e-05 -4.35613e-05 0.0898102108 0.0664820847
90299460.0 -0.8324137975 0.1313967374 -0.0001645614 4.10533e-05 -0.0001576753 0.0002050054 0.0942916298 0.0630476907
95299430.0 -0.8318285057 0.1404990766 0.0001228 -5.38719e-05 4.36647e-05 -2.29848e-05 0.0986474765 0.0592851032
100299400.0 -0.8303810751 0.1501463317 1.27358e-05 -8.12831e-05 7.96899e-05 4.56732e-05 0.1023975416 0.055731566
105299370.0 -0.8287546212 0.1595093425 3.69557e-05 0.0001475047 0.0001740498 1.09669e-05 0.1058241085 0.0513042577
110299340.0 -0.8271301185 0.1685208691 3.64837e-05 4.92304e-05 -0.0001216012 -2.29608e-05 0.1084437493 0.0473528203
115299310.0 -0.826458053 0.177508817 0.0001306371 1.3489e-05 7.83175e-05 6.86465e-05 0.1109531324 0.0437151012
120299280.0 -0.8247073742 0.1865918664 0.0001538098 0.0001347458 9.98045e-05 6.94759e-05 0.1132596618 0.0402901843
125299250.0 -0.8223114218 0.1956839238 6.15624e-05 0.0001804464 -7.91284e-05 8.51086e-05 0.1153863039 0.0362684005
130299220.0 -0.8208994362 0.2051113467 0.0003306834 -4.84916e-05 0.0001385329 0.000101424 0.117038233 0.0327839138
135299190.0 -0.8189450571 0.2145631141 -1.02254e-05 0.0003040058 0.0002481709 -1.86139e-05 0.1185469038 0.0291324957
140299160.0 -0.8176377389 0.2227334025 1.13121e-05 -0.0001161689 -7.06574e-05 6.52124e-05 0.119780116 0.0258781393
145299130.0 -0.8151710765 0.2322642969 0.0001371018 -1.2976e-05 0.0001053189 1.51682e-05 0.1210898333 0.0222268598
150299100.0 -0.8116370603 0.240898512 0.0001589215 0.0004369339 7.28547e-05 0.0002792239 0.121801034 0.019093073
155299070.0 -0.8098051493 0.2502752196 -4.1198e-05 0.0001065408 4.55987e-05 1.25531e-05 0.1227761464 0.0155314986
160299040.0 -0.8074075892 0.2594606593 0.0002920422 -1.31207e-05 7.6635e-05 0.000126658 0.1230460682 0.0123635797
165299010.0 -0.8047059098 0.2674609048 0.0001272035 -0.0001710699 9.7482e-05 5.10267e-05 0.1240472685 0.0093596616
170298980.0 -0.8013645226 0.2758136457 -5.50554e-05 0.0002672578 0.0001674101 0.0002110883 0.1243708291 0.0065865835
175298950.0 -0.7994514772 0.2846682333 6.36458e-05 8.10459e-05 0.0002115407 0.0001151862 0.1246197118 0.0037620122
180298920.0 -0.7962169608 0.2933845107 0.0001000084 4.8745e-06 4.4664e-05 9.3243e-05 0.1249734576 0.0002491514
185298890.0 -0.7925597372 0.301852908 0.0003115631 -2.5732e-06 0.0001226934 0.0002137814 0.1249857923 -0.0025197984
190298860.0 -0.7894044994 0.3108970607 0.0001666722 -4.99145e-05 0.0002557469 -7.9993e-06 0.1250781979 -0.0049666284
195298830.0 -0.7868443503 0.3193984839 -7.17193e-05 -1.1429e-05 0.0002241814 -1.63585e-05 0.1249052096 -0.007884179
200298800.0 -0.7830342215 0.3275626503 0.0002998374 0.0004190987 0.0001333878 1.7597e-05 0.1250272881 -0.0103164793
205298770.0 -0.7790780344 0.3362766434 6.47131e-05 2.81042e-05 2.93018e-05 0.0002568309 0.1249011523 -0.0131217701
210298740.0 -0.776654838 0.3445280719 0.0002080237 8.52914e-05 0.0001268351 5.08313e-05 0.1244026042 -0.0153860185
215298710.0 -0.7725184494 0.3532932382 0.0002180874 0.000125258 2.39409e-05 7.5882e-05 0.1242318064 -0.018186573
220298680.0 -0.7687093064 0.3607500011 -3.28328e-05 0.0001306377 0.0002140115 0.0001364513 0.1237746323 -0.0203013498
225298650.0 -0.7648471789 0.3698909254 0.0002073855 0.0002412389 0.0001685731 8.02015e-05 0.1231539447 -0.0228631865
230298620.0 -0.7611791335 0.377657416 0.0002128388 8.03089e-05 6.52467e-05 -2.78552e-05 0.1227863324 -0.0252261948
235298590.0 -0.7574967345 0.3861574648 0.0001377058 5.4075e-06 -1.42471e-05 0.000144273 0.1224313066 -0.0270399329
240298560.0 -0.7523549664 0.3935067048 -1.89221e-05 3.12054e-05 0.0003238265 7.56201e-05 0.121715546 -0.0296518071
245298530.0 -0.7486992596 0.4016096066 1.1669e-05 0.0001405226 -3.96529e-05 0.000410344 0.1213340113 -0.0317516042
250298500.0 -0.7448676903 0.4088118665 8.17754e-05 5.5952e-05 0.0003054427 6.40652e-05 0.1205851737 -0.0336830473
255298470.0 -0.7405020477 0.4174885512 5.23017e-05 0.0001853386 0.00021206 0.0001459432 0.1201209951 -0.0361029094
260298440.0 -0.7365467558 0.4252596585 0.0001297807 0.0001282851 -2.87564e-05 -4.32969e-05 0.1189450072 -0.0376987064
265298410.0 -0.7320823804 0.4325471323 -0.0001399144 0.0002629682 5.8371e-06 0.0003344926 0.118848881 -0.0400715521
270298380.0 -0.7272051509 0.4406471517 2.78431e-05 0.0002697865 0.0001419332 9.43812e-05 0.1178207045 -0.0419005567
275298350.0 -0.7231766071 0.4481200428 0.0001405992 0.0002578999 0.0002794761 0.0002484257 0.117276315 -0.043970784
280298320.0 -0.7184774113 0.4551293852 5.82844e-05 5.12359e-05 0.0003772936 0.0001189031 0.1163200418 -0.0454544636
285298290.0 -0.7139101146 0.4631220089 0.0002579609 0.0002511925 0.0001843619 0.0001661613 0.1156872712 -0.0473276401
290298260.0 -0.7081995521 0.4707662719 6.61983e-05 -0.00013991 0.0001523489 0.0001308987 0.1145312911 -0.0490561388
295298230.0 -0.7037665431 0.4780583287 8.42621e-05 4.84708e-05 0.0002152087 0.0001476228 0.1140128479 -0.0510556321
300298200.0 -0.6994037405 0.4854094015 8.80747e-05 2.84048e-05 0.0001638675 0.0002849414 0.1132200961 -0.0527480678
305298170.0 -0.6944123926 0.4931011512 0.0002148153 4.57654e-05 0.0001397936 0.0001737702 0.1121724133 -0.0545873585
310298140.0 -0.6892069067 0.4997840323 0.0001263326 -2.09371e-05 0.000280763 2.6034e-05 0.1117539142 -0.0563272428
315298110.0 -0.6842060552 0.5075350511 0.0001528288 3.68577e-05 0.0003588829 0.0001719447 0.1106753702 -0.0581288419
320298080.0 -0.6787756535 0.5146790212 0.0002213115 -7.44457e-05 6.08947e-05 0.000131206 0.1095848402 -0.0598191778
325298050.0 -0.673334113 0.5211561744 0.0002664559 0.0003851844 0.0002146837 0.0001393185 0.1085659331 -0.0618526614
330298020.0 -0.6681022197 0.5284410824 -8.3522e-06 -0.0001468131 0.0003151397 8.22727e-05 0.1073706829 -0.0637669029
335297990.0 -0.6629013108 0.5346367708 0.0002542215 0.0001810749 0.0001003851 0.0003201433 0.1059984352 -0.0652321569
340297960.0 -0.6577061737 0.5414993009 0.0002745632 0.0003078584 0.0002940401 0.0001416216 0.1047416209 -0.0663399147
345297930.0 -0.6517827812 0.5480967697 0.0002610872 0.0002392823 0.0001482034 7.80324e-05 0.1038159292 -0.0680464234
350297900.0 -0.6461661848 0.5549641807 0.0001559434 0.000195805 2.86653e-05 0.0002863774 0.10183823 -0.0695571107
355297870.0 -0.6408971608 0.5616881324 0.0001192477 5.25725e-05 0.000248142 9.62711e-05 0.1010538452 -0.070605835
360297840.0 -0.6349040685 0.5684099853 0.0001011222 0.0001185139 0.0001022952 -7.526e-06 0.0999223967 -0.0722591987
365297810.0 -0.6295568297 0.5745700069 3.16177e-05 0.000237982 0.0001462592 4.71549e-05 0.0986313401 -0.0733431578
370297780.0 -0.6235921443 0.5804883845 0.0002010891 0.0001687788 3.74155e-05 0.0002698141 0.0973525292 -0.0745401441
375297750.0 -0.6179191418 0.5869277007 0.0002590682 9.2602e-05 0.0001400522 9.68567e-05 0.0960770507 -0.075722363
380297720.0 -0.6119939232 0.593571223 0.0002754368 0.0001326897 9.7484e-05 0.0001665972 0.0952116421 -0.0769627482
385297690.0 -0.6058914843 0.5992252948 0.000173525 0.0001368512 7.14957e-05 0.0002340003 0.093857368 -0.0782661177
390297660.0 -0.5986372006 0.605546391 0.000269582 0.0002367844 0.0001677511 0.0002490029 0.0924430405 -0.0791986944
395297630.0 -0.5929198169 0.6117550803 0.0001052196 -0.0001954928 0.0002015216 0.0001932894 0.0913324572 -0.0806348645
400297600.0 -0.5864739337 0.6181758534 0.000270584 0.0002323495 6.32239e-05 0.0002707149 0.0904236051 -0.0813991371
405297570.0 -0.5806354221 0.6229736555 0.0004036278 -0.0002341076 0.0003861426 0.0001890591 0.088964735 -0.0826706803
410297540.0 -0.5738656348 0.6297665695 0.0001635108 6.60388e-05 0.0003677943 0.0003488032 0.0874262105 -0.0834884223
415297510.0 -0.5678791375 0.6356778565 0.0001412775 2.95476e-05 0.0003786475 9.2439e-05 0.0864813378 -0.0846462423
420297480.0 -0.5607500207 0.6407294122 0.000217663 -6.159e-05 0.0001243908 0.0003246563 0.0853911816 -0.0853880123
425297450.0 -0.5542754363 0.6464885259 0.0002744949 5.09526e-05 0.0002416391 -2.43864e-05 0.0838276331 -0.0870612732
430297420.0 -0.5478120867 0.6514657856 0.0002704993 0.0003799702 0.0002376911 5.03045e-05 0.0825707767 -0.0875309478
435297390.0 -0.5414280884 0.6574160759 0.0002648704 0.00033529 0.0003964199 0.0001383591 0.0809220788 -0.0887372823
440297360.0 -0.5343245858 0.6630720302 0.0003335976 0.0001750381 0.0002406418 0.0001342474 0.0800891398 -0.0893014569
445297330.0 -0.5271664801 0.6681450875 0.0002509433 -9.57504e-05 0.0001783496 4.27814e-05 0.0786694883 -0.0905167618
450297300.0 -0.5203787568 0.673719189 0.0003319811 1.48012e-05 0.0003044483 0.0001293223 0.0774809526 -0.0914030084
455297270.0 -0.5137171676 0.6787253538 0.0002330539 -2.24654e-05 0.0002337764 6.35915e-05 0.0760570628 -0.0920804243
460297240.0 -0.5059501429 0.6840259415 0.0004016611 -0.0001229461 0.0001824671 0.0002324577 0.0745940574 -0.0929190282
465297210.0 -0.4996760805 0.6884998695 0.0002004543 8.41164e-05 0.0001838152 -2.71681e-05 0.0732045646 -0.0937140424
470297180.0 -0.4918764806 0.6941385864 0.0004692462 6.62107e-05 0.0002592658 1.99974e-05 0.0720251718 -0.0947357941
475297150.0 -0.4844401967 0.6989622787 0.0004597295 0.0001706995 0.0001918605 0.00017403 0.0708669917 -0.0954545451
480297120.0 -0.4772316536 0.7041045637 0.000240615 1.19408e-05 0.0003491349 -1.73477e-05 0.0694066897 -0.0960913599
485297090.0 -0.4702011439 0.7086754313 0.0001865424 0.0002802901 0.0003954064 -3.37798e-05 0.0678270944 -0.0970843355
490297060.0 -0.4619726626 0.7136320873 0.0002959362 0.000201442 0.0003184895 5.86716e-05 0.0664849502 -0.097602357
495297030.0 -0.4547778317 0.7180071293 0.0004004387 -0.000101826 0.0002658266 0.0001205275 0.0652378959 -0.0984558842
500297000.0 -0.4475455436 0.7225780199 0.0002014995 8.96958e-05 0.0001932444 5.19926e-05 0.0636639345 -0.0990826274
505296970.0 -0.4393854808 0.7275065462 0.0002173407 0.0001631507 0.0002503881 0.0002056984 0.0622324443 -0.0998090886
510296940.0 -0.4322258995 0.7310246199 0.000308024 -9.2759e-05 0.00035944 5.69105e-05 0.0608592828 -0.1002531359
515296910.0 -0.4241274933 0.7359108017 0.0001882629 0.0001693809 0.0002258705 0.0002396634 0.0594904245 -0.1012488484
520296880.0 -0.4164290631 0.7401810197 0.0003236071 0.0001210583 0.0002237803 0.0001704835 0.0582926308 -0.1015116225
525296850.0 -0.4091035389 0.743902503 0.0002494287 5.50061e-05 0.000369627 0.0001953699 0.0569124681 -0.102119319
530296820.0 -0.4015585061 0.7482653305 0.0001639437 0.0003752267 0.0002720651 7.04378e-05 0.055290384 -0.1031213482
535296790.0 -0.3929938851 0.7516527333 0.0003350054 0.0003489194 0.0004441057 0.0001297616 0.0542801451 -0.1031778545
540296760.0 -0.3851348598 0.7562711103 0.0002241918 0.0002333651 0.0001846673 0.0002120586 0.0524758 -0.1037438379
545296730.0 -0.3775061483 0.7603773883 0.0002679009 0.0001153664 0.000317292 3.19026e-05 0.0512303207 -0.104153992
550296700.0 -0.3694934243 0.7636656494 0.0002937971 0.0001904044 0.0004171616 -0.000113467 0.0497352899 -0.1046423957
555296670.0 -0.3612587197 0.7675748297 0.0002372302 -3.1924e-06 0.0002341165 -6.4009e-06 0.048007792 -0.1054354166
560296640.0 -0.3527997335 0.7705189255 0.0001136756 0.00014956 0.0002340643 -6.68469e-05 0.046754794 -0.1059547988
565296610.0 -0.3453777716 0.7740623531 0.0002258311 9.29394e-05 0.0003293613 -3.3949e-06 0.0454689996 -0.1059103138
570296580.0 -0.3371331715 0.7780045164 0.0001682745 -4.96012e-05 0.0002945457 0.000117221 0.0436659252 -0.1064586281
575296550.0 -0.3283621853 0.7810119936 -1.698e-07 0.0001542472 0.0002797929 -5.09742e-05 0.0423033571 -0.1068983023
580296520.0 -0.3211842323 0.7845091783 0.0002387293 0.0001664855 0.0002702742 -0.0002054995 0.0407849553 -0.1075618918
585296490.0 -0.312734772 0.787409416 0.0002870601 8.8923e-06 0.0003468293 0.0002296401 0.0394734147 -0.107544496
590296460.0 -0.3040113147 0.7906903485 0.0003127758 0.0002718609 0.0002143971 1.38936e-05 0.0377576366 -0.1078114676
595296430.0 -0.2960533866 0.7937338245 0.0002228849 0.0002567588 0.0002719267 -1.17024e-05 0.0366780529 -0.1081679969
600296400.0 -0.2882903821 0.7966689165 0.0001956562 2.99924e-05 0.00037053 0.0002461241 0.0353102187 -0.1085484986
605296370.0 -0.279656654 0.7992462283 0.0005003301 0.0001296949 0.0003693943 -4.89035e-05 0.0336827053 -0.1087508014
610296340.0 -0.2716980494 0.8031304394 9.2971e-05 7.55325e-05 0.0003592898 8.06164e-05 0.0321087778 -0.1090202142
615296310.0 -0.2628651791 0.8054663006 0.0003879522 9.53697e-05 0.0004368852 2.146e-06 0.030917925 -0.1093005113
620296280.0 -0.2548948672 0.8084776134 0.0004573464 -0.0002136274 0.0001107154 0.0002211196 0.0293871194 -0.1092961572
625296250.0 -0.2475539619 0.8101590154 0.0004391609 -3.87652e-05 0.000287942 7.84427e-05 0.0277198278 -0.1097086328
630296220.0 -0.2386623586 0.8132243914 0.0004274549 0.0001514826 0.0002959264 -0.0001400853 0.0264623046 -0.1095723377
635296190.0 -0.2305063714 0.8155618875 0.0005284201 7.68643e-05 0.0005299702 1.67907e-05 0.0246950418 -0.1095137244
640296160.0 -0.2215822009 0.8176645595 0.0004765359 -3.01283e-05 0.0004158908 3.77726e-05 0.0234687048 -0.1098141825
645296130.0 -0.2134808417 0.8203890868 0.0004515484 -4.39824e-05 0.0001847749 2.92073e-05 0.0217830705 -0.1101191313
650296100.0 -0.2056159714 0.8218144212 0.000165676 7.32506e-05 0.0003136803 0.0001931595 0.0207945401 -0.1100107638
655296070.0 -0.1977076671 0.8247392109 0.0004932755 6.45591e-05 0.0004862739 0.0001375125 0.0190126249 -0.109975388
660296040.0 -0.1889668918 0.8261908666 7.0537e-05 -9.29533e-05 0.0004653196 -0.0001000628 0.0177411045 -0.1101534304
665296010.0 -0.1810478439 0.8288235695 0.0006964111 -2.20184e-05 0.0002998005 -8.2606e-06 0.0160410001 -0.1101286324
670295980.0 -0.1725124142 0.8308076244 0.0003628202 0.0001000905 0.0006061532 -3.13291e-05 0.0147186083 -0.1099663957
675295950.0 -0.1636700241 0.8322297556 0.0004799724 8.93952e-05 0.0003835328 0.0002317412 0.013142391 -0.1100399708
680295920.0 -0.1567414118 0.8337726766 4.90357e-05 7.90167e-05 0.0003724886 1.49613e-05 0.0117855078 -0.1101608499
685295890.0 -0.1477108925 0.8359504118 0.0004248187 0.0001363934 0.000427812 -0.0001417426 0.0102522297 -0.110001894
690295860.0 -0.139281943 0.8368248493 0.0004110571 1.4419e-05 0.0003961871 -2.97827e-05 0.009075622 -0.1098513741
695295830.0 -0.1306473816 0.8384453912 0.0002330386 -0.0001351876 0.0004259677 5.49294e-05 0.0075095581 -0.1094435026
700295800.0 -0.1222580373 0.8396696115 0.0003143254 0.0001307478 0.0004364959 -4.0558e-06 0.0062474519 -0.1097419418
705295770.0 -0.1147256684 0.8410421793 0.0007516471 -0.0001194487 0.0004493545 -5.2123e-05 0.0045908701 -0.1093851959
710295740.0 -0.1065751486 0.8419323764 0.0002822122 -6.37529e-05 0.0004110215 -5.69122e-05 0.0034820483 -0.1092834599
715295710.0 -0.0975133801 0.8438138959 0.0002908298 -7.8839e-05 0.0003264318 1.1027e-06 0.0019168726 -0.1093969789
720295680.0 -0.0888705691 0.8446005627 0.0003467339 -2.25987e-05 0.0003045252 -5.8484e-05 0.0002769617 -0.1090489107
725295650.0 -0.0814304718 0.8457295039 0.0003053129 -0.0001716747 0.0002681545 8.71168e-05 -0.0010178041 -0.1084680974
730295620.0 -0.0737725098 0.8471010752 0.0003203979 -9.06102e-05 0.0004453599 0.000219411 -0.0026676154 -0.108107897
735295590.0 -0.0656273595 0.8478713933 0.0005457535 -0.0001677241 0.000458451 -1.53908e-05 -0.0037309903 -0.1079663091
740295560.0 -0.0576445973 0.8478392449 0.0004148069 0.0001741709 0.0003934806 8.48876e-05 -0.0052158196 -0.1078804366
745295530.0 -0.0489945407 0.8485399222 0.0004840265 4.20882e-05 0.0005333824 -1.54186e-05 -0.0066489627 -0.1075603662
750295500.0 -0.0411100916 0.8490907211 0.0004198331 -1.53542e-05 0.0004478939 -0.0001740998 -0.0081353526 -0.107495202
755295470.0 -0.0321659766 0.8502013374 0.0002116944 -0.0001670194 0.0004715603 -0.0001671185 -0.0092834264 -0.1069114396
760295440.0 -0.0244853609 0.8508127346 0.0005417439 3.04523e-05 0.0003321329 -2.52949e-05 -0.0108447395 -0.106858412
765295410.0 -0.0159373731 0.8506196139 0.0002026064 -1.6215e-06 0.0005143878 -0.0001811356 -0.0120494475 -0.1063899045
770295380.0 -0.0084823705 0.8508769591 0.0005346976 -3.44161e-05 0.0001603681 -0.0001596856 -0.0137542128 -0.1060779269
775295350.0 -0.0001591285 0.8516501291 0.0002165441 2.27624e-05 0.0005031289 -0.0002554583 -0.0143896341 -0.1059547925
780295320.0 0.0086537373 0.8513760912 0.0002704738 -9.4611e-05 0.000499275 -0.0001313204 -0.0161578034 -0.1051154249
785295290.0 0.0166741116 0.8507216128 0.0005427245 -0.0003516955 0.0003895567 -9.90472e-05 -0.0179342486 -0.104419914
790295260.0 0.0250755539 0.8510634457 0.0004074744 -0.0001435867 0.0005143409 5.106e-07 -0.0190015854 -0.10402709
795295230.0 0.0329904997 0.8505582123 0.0003358188 3.49234e-05 0.0003651104 -3.88466e-05 -0.0204313073 -0.1040879995
800295200.0 0.0408642117 0.850283726 0.0005695182 -0.000141557 0.0003540163 -0.0002810586 -0.0217128535 -0.1037730417
805295170.0 0.0487509295 0.8506868125 0.0005643039 -0.000207825 0.000398136 -0.0001573123 -0.0229104027 -0.1030651207
810295140.0 0.0576806604 0.8508706713 0.0002196641 0.0001004861 0.0006524526 -0.0001960165 -0.0242738836 -0.1024487355
815295110.0 0.0657278186 0.8494770035 0.0003351187 -0.000100603 0.0005204111 5.26719e-05 -0.0258072368 -0.1018925633
820295080.0 0.0733582376 0.8491257049 0.0006781117 -0.0002713234 0.000544742 -0.0002220757 -0.027346676 -0.1011351006
825295050.0 0.082041975 0.8486255422 0.0005658133 -0.0001155277 0.0006154107 -0.0001215042 -0.0279628875 -0.1006279864
830295020.0 0.0906951405 0.8475631281 0.0002912743 7.00528e-05 0.0005119704 -0.0001898216 -0.029518416 -0.1003326299
835294990.0 0.0981914847 0.8463735765 0.000487701 -0.0003496445 0.0004754739 -0.0001461893 -0.0307735715 -0.0994760607
840294960.0 0.1067648498 0.84514382 0.0004580022 -0.0001760002 0.0003846721 -0.0001733722 -0.0319977844 -0.0988764501
845294930.0 0.1150709673 0.84428444 0.0001306565 7.34242e-05 0.0003608245 -8.07978e-05 -0.0331728885 -0.0982460982
850294900.0 0.1240355283 0.8433990636 0.0002475112 -7.202e-06 0.0005631693 2.82319e-05 -0.0346888534 -0.0976968577
