!Created with skrf (http://scikit-rf.org).
# Hz S RI R 50.0 
!freq ReS11 ImS11 ReS21 ImS21 ReS12 ImS12 ReS22 ImS22
300000.0 -0.2412045281 -0.080706423 0.4723549999 0.0549852433 0.4680149223 0.0531495115 -0.2414416294 -0.0953784534
5299970.0 -0.2442382522 0.0070415894 0.4733355545 0.0050016735 0.4736058232 0.0052024825 -0.2440480507 0.0073008635
10299940.0 -0.2411612672 0.0187653354 0.475707631 0.0061957078 0.4755685931 0.006394975 -0.240890541 0.0201786247
15299910.0 -0.2368685635 0.0279719615 0.4789537386 0.0075337336 0.4793455657 0.007953131 -0.2363225263 0.0297107143
20299880.0 -0.2321189826 0.0352162944 0.48396834 0.0084779125 0.4838479543 0.0083420456 -0.2307842004 0.0373601899
25299850.0 -0.2266806145 0.0422179308 0.4892086258 0.0073800791 0.4889913931 0.007760345 -0.2248274164 0.0438333672
30299820.0 -0.2215554577 0.0470441342 0.4945462219 0.0053918864 0.4943620642 0.0055378065 -0.2191888815 0.0490587387
35299790.0 -0.2164109211 0.0516075564 0.5001818386 0.0021461533 0.5000675839 0.0025166852 -0.2138314918 0.0533346911
40299760.0 -0.2113532153 0.0552371431 0.5048275152 -0.0017156353 0.5051578895 -0.0016168453 -0.2082617948 0.0560088988
45299730.0 -0.2067596417 0.0578090918 0.5097670022 -0.0066279969 0.510350146 -0.0062490843 -0.2036313396 0.0591047829
50299700.0 -0.2024700355 0.0599181399 0.5140845021 -0.0120745137 0.5141170916 -0.0115697553 -0.1989039157 0.0604848652
55299670.0 -0.1983911897 0.0616660883 0.518057246 -0.0183277558 0.5178831875 -0.0175706684 -0.1943796213 0.0621187318
60299640.0 -0.1942360019 0.0635144445 0.5212807447 -0.0241722355 0.5215514961 -0.0240210889 -0.1906666851 0.063107741
65299610.0 -0.1911673157 0.0643986255 0.5238475674 -0.0302453321 0.5242218978 -0.0303307061 -0.1871747583 0.0639374403
70299580.0 -0.1879948426 0.0661621447 0.5269537492 -0.0371483648 0.5265784342 -0.0370596171 -0.1838516361 0.0648938315
75299550.0 -0.1852125643 0.0673579872 0.5283727586 -0.0440782381 0.5285693067 -0.043841725 -0.1813940161 0.0650142825
80299520.0 -0.1824594761 0.0681166621 0.5305641713 -0.05094186 0.5305545098 -0.0507299641 -0.1784776482 0.0658440286
85299490.0 -0.1800414668 0.0687463826 0.5316607675 -0.057565455 0.5319365964 -0.0574196268 -0.1762468291 0.0659486265
90299460.0 -0.1779397736 0.069733459 0.5322778203 -0.0648830405 0.5328868235 -0.0647511893 -0.1735289615 0.0668243765
95299430.0 -0.1756637355 0.0703656964 0.5340149105 -0.0714606789 0.5338315114 -0.0718433849 -0.1714792173 0.0675222352
100299400.0 -0.1739410807 0.0715115018 0.5336673915 -0.078528492 0.5337810993 -0.0785820175 -0.1694507853 0.0673832491
105299370.0 -0.1718983079 0.0721773765 0.5344159341 -0.0854784214 0.5346403392 -0.0854072132 -0.1676302763 0.0679563794
110299340.0 -0.1702754474 0.0731264627 0.5347011754 -0.0920195583 0.5346304975 -0.0918934055 -0.1664663934 0.0681875159
115299310.0 -0.1686940508 0.0742131575 0.5347535262 -0.0988117968 0.5344267262 -0.0990439999 -0.1646826513 0.0688951747
120299280.0 -0.1673826215 0.074701569 0.5341037673 -0.1059409358 0.5343698352 -0.1059960293 -0.1634124801 0.0695468742
125299250.0 -0.165975134 0.0754148572 0.5339938965 -0.112369495 0.5339309957 -0.1121623611 -0.1624997123 0.0697745629
130299220.0 -0.1648868345 0.076770555 0.5328196351 -0.1194248536 0.5331802848 -0.1192978155 -0.161166125 0.0702993887
135299190.0 -0.1636416129 0.0779108017 0.5327988603 -0.1256842596 0.5325596536 -0.1255514332 -0.1598515441 0.0711563914
140299160.0 -0.1626175786 0.079032652 0.5319787854 -0.1328268508 0.5319777224 -0.1326047089 -0.1589495739 0.0723213034
145299130.0 -0.1614455695 0.0799382813 0.5311255268 -0.1393349539 0.5308983737 -0.1388821144 -0.1578668015 0.0728545835
150299100.0 -0.1601524682 0.0811672926 0.5295530737 -0.145148196 0.5298983913 -0.1453769023 -0.1570622826 0.0740888895
155299070.0 -0.1594916431 0.0820231646 0.5290485036 -0.1524393989 0.5286865196 -0.1521812434 -0.1557416827 0.0747157388
160299040.0 -0.1581371833 0.0834235727 0.5272818301 -0.15854711 0.5271815826 -0.1584856711 -0.155636362 0.0753374478
165299010.0 -0.1575392465 0.0846693928 0.5261260953 -0.1657509093 0.5262771378 -0.1653835685 -0.1543113787 0.0767181341
170298980.0 -0.156347735 0.0857354166 0.5243740935 -0.1716062129 0.5242549226 -0.1714726672 -0.15373838 0.0777481362
175298950.0 -0.1554916065 0.0870316191 0.522920696 -0.177878206 0.5224372372 -0.177868839 -0.153004377 0.0786859492
180298920.0 -0.1546045984 0.0883554475 0.5212290826 -0.1843147915 0.5209000948 -0.1837914613 -0.152254785 0.080022112
185298890.0 -0.1534638371 0.0895563349 0.5189975959 -0.1902482333 0.5189354438 -0.1902438453 -0.1513791961 0.0808712131
190298860.0 -0.1525482421 0.090973594 0.51733047 -0.1963187196 0.5176500085 -0.1963525625 -0.1506252354 0.0817507684
195298830.0 -0.1518824188 0.0920721904 0.5153406302 -0.2025305925 0.5152467415 -0.2024209144 -0.1498623232 0.0831446989
200298800.0 -0.1506767696 0.0936854336 0.5134932952 -0.2089771614 0.5132497348 -0.2087581351 -0.1493192548 0.0841978811
205298770.0 -0.1498162419 0.0951617338 0.5108158488 -0.2153646958 0.5110925264 -0.2146761608 -0.1486705262 0.0849017334
210298740.0 -0.1489542796 0.0961542774 0.509172079 -0.2207207321 0.5084908622 -0.2205689275 -0.1474722535 0.0868166486
215298710.0 -0.1483142171 0.0975548358 0.5064830779 -0.2266035949 0.5063282017 -0.226974343 -0.1473192274 0.0877612312
220298680.0 -0.1468664868 0.098793246 0.5032151861 -0.2324487571 0.5035412037 -0.2326184188 -0.1467566501 0.0888559694
225298650.0 -0.1463837209 0.1003675053 0.5014149086 -0.2387919439 0.5017520637 -0.2385583503 -0.1462767741 0.0897685317
230298620.0 -0.1451651671 0.1022680239 0.4991745236 -0.2438156811 0.4995634165 -0.2441560571 -0.1457865634 0.0910142498
235298590.0 -0.1441900061 0.1037133508 0.4967089131 -0.2499662639 0.4964249384 -0.2494422075 -0.1447387948 0.0922863649
240298560.0 -0.1429634124 0.1050853733 0.4935517818 -0.2559972443 0.493514221 -0.2560679767 -0.1440305154 0.0936734405
245298530.0 -0.1424225337 0.1067411568 0.4910523869 -0.2618608963 0.4907322936 -0.2614334429 -0.1428465703 0.0942901719
250298500.0 -0.1405786371 0.1081804609 0.4873510776 -0.2674307358 0.4876396819 -0.266990244 -0.142293015 0.0958492406
255298470.0 -0.1399462271 0.1092030684 0.4847428019 -0.2723434997 0.4848414045 -0.2725551947 -0.1413594772 0.0968705952
260298440.0 -0.1391260931 0.1106447506 0.4820099946 -0.2783386675 0.4821453712 -0.2781738027 -0.1404071685 0.0981718081
265298410.0 -0.1375868277 0.11259528 0.4791502683 -0.284131729 0.4796060268 -0.2832302879 -0.1398384984 0.0995494509
270298380.0 -0.1366733742 0.1137807951 0.4764244724 -0.2886656753 0.4764234515 -0.2890688248 -0.1389812641 0.1008927639
275298350.0 -0.1354657511 0.1153385945 0.4729882888 -0.2946867213 0.4730546292 -0.2943766723 -0.1378994506 0.1018276142
280298320.0 -0.1337655159 0.1166833357 0.4695766588 -0.3002562962 0.4695883553 -0.2999046192 -0.1367879892 0.1030742306
285298290.0 -0.1327500826 0.1184363489 0.4664849539 -0.3056104778 0.4665718845 -0.3052714074 -0.135875306 0.1042544898
290298260.0 -0.1313346833 0.1199192208 0.4629205402 -0.3106194455 0.4631056083 -0.3105238995 -0.1348426822 0.1061410811
295298230.0 -0.1301329659 0.1208515704 0.4597873325 -0.3160149416 0.4599339368 -0.3155662058 -0.1336026476 0.1065970125
300298200.0 -0.1292251942 0.1224103292 0.4567508593 -0.3207201205 0.4563985707 -0.3212181222 -0.1327855159 0.1079674264
305298170.0 -0.1276047564 0.123712 0.452272612 -0.326527193 0.4527930873 -0.3261376123 -0.1312645381 0.1092386536
310298140.0 -0.1264805742 0.1253131052 0.449134127 -0.3315648414 0.4495321664 -0.3311730769 -0.1304748125 0.1105956447
315298110.0 -0.1252215852 0.1262212419 0.4459114477 -0.3366625467 0.4456101168 -0.336441436 -0.1296081375 0.1114941389
320298080.0 -0.123737645 0.1275621843 0.4414980373 -0.3420955786 0.4420542378 -0.3417486243 -0.128773128 0.1128870907
325298050.0 -0.1227235876 0.1289215843 0.4380430183 -0.3472862719 0.4379239067 -0.3469926032 -0.1282752459 0.1140425737
330298020.0 -0.1211358137 0.1300690702 0.4337648779 -0.3516142192 0.4340600561 -0.3519003004 -0.1272336223 0.115007404
335297990.0 -0.120087382 0.131382179 0.4298102059 -0.3565149285 0.4297046398 -0.3570732372 -0.1264331817 0.1168064904
340297960.0 -0.1192543322 0.1330312331 0.4255929134 -0.3614405648 0.4258154254 -0.3612985137 -0.1248891083 0.1181763476
345297930.0 -0.118076784 0.1347224542 0.4214260567 -0.3664842274 0.4214741375 -0.3664017846 -0.1242966874 0.1191678963
350297900.0 -0.1164280292 0.1356702892 0.4167470571 -0.3709493863 0.4175407404 -0.3709962158 -0.1231938345 0.1210248949
355297870.0 -0.1151399592 0.1377288463 0.4131192227 -0.3754300749 0.4135442531 -0.3752772375 -0.1225476972 0.1219575006
360297840.0 -0.1138340485 0.1389520169 0.4095278802 -0.3794689919 0.4098577554 -0.3797806664 -0.121267697 0.123831824
365297810.0 -0.1123653454 0.1405395746 0.4047819883 -0.3847842836 0.4053440725 -0.3848493309 -0.1203154443 0.1249553847
370297780.0 -0.1105793675 0.1412981966 0.4006098656 -0.3885892711 0.4010138102 -0.3887287256 -0.1188851211 0.1262258208
375297750.0 -0.1091581805 0.1430213059 0.3964517949 -0.3933062521 0.3969687269 -0.393424639 -0.117905638 0.1276839576
380297720.0 -0.1078265046 0.1441023837 0.3922904836 -0.3976267516 0.3925825202 -0.3971167632 -0.1174218185 0.1287917606
385297690.0 -0.1064561735 0.145666482 0.3878580738 -0.4018069091 0.3877105233 -0.4016766543 -0.1160741541 0.1299995868
390297660.0 -0.1047551503 0.146851256 0.3832886305 -0.4061272877 0.3830887779 -0.405717179 -0.1149940831 0.1312594511
395297630.0 -0.103326097 0.1483250972 0.3786757476 -0.4103898757 0.3788788318 -0.4103294848 -0.1129071336 0.1326016322
400297600.0 -0.1016335125 0.1496290749 0.3742195702 -0.4149829972 0.3745453513 -0.4148614128 -0.1122261461 0.1338712516
405297570.0 -0.1004545136 0.1509598223 0.3695216665 -0.4183510334 0.369902663 -0.4181132181 -0.1111259297 0.1348018935
410297540.0 -0.0985312735 0.1519947349 0.3650375243 -0.4226633801 0.3655321717 -0.4227422504 -0.1100777795 0.1363578511
415297510.0 -0.0967400745 0.1530919107 0.3600140729 -0.4268606259 0.3606507796 -0.4267268665 -0.1085149396 0.1375038396
420297480.0 -0.0950566801 0.1545985518 0.3556555993 -0.4302596097 0.3558636837 -0.4304285238 -0.1077502141 0.1383558549
425297450.0 -0.0937662994 0.1553917366 0.3513960697 -0.4345499753 0.3515132763 -0.4344420311 -0.1067506924 0.1400148005
430297420.0 -0.0916553474 0.1566271956 0.3460863479 -0.4374223324 0.3463168734 -0.4378888563 -0.1052489678 0.1407162889
435297390.0 -0.0899758812 0.1577951099 0.3412270255 -0.44207178 0.3411365094 -0.4422520349 -0.1034136997 0.1422632181
440297360.0 -0.0884719226 0.1594157206 0.3368670865 -0.4456557446 0.3367184325 -0.4455372347 -0.1023482462 0.142950647
445297330.0 -0.0867797845 0.1599990123 0.3321087501 -0.4492889898 0.3318901645 -0.4487253724 -0.1007117326 0.1437417351
450297300.0 -0.0847192384 0.1610340501 0.3263641312 -0.4528739153 0.3267841839 -0.4530635224 -0.0993912332 0.1447027931
455297270.0 -0.0833468329 0.1621379975 0.3217098108 -0.4563930021 0.3219771484 -0.4561996233 -0.0982194813 0.1461297449
460297240.0 -0.0813692488 0.1632110326 0.3163865698 -0.4596729897 0.3166913448 -0.4597772121 -0.0965768009 0.147428031
465297210.0 -0.0796182587 0.1644156605 0.3119223892 -0.4632404189 0.3119394765 -0.4635281201 -0.0950060727 0.1477855209
470297180.0 -0.0776478193 0.1653294734 0.3065301533 -0.4664792734 0.3065381565 -0.466705696 -0.093538678 0.1494158421
475297150.0 -0.0759882502 0.1658276056 0.3010138706 -0.4695161879 0.3014716766 -0.4694890533 -0.0919054271 0.1501436153
480297120.0 -0.0741724576 0.1672058445 0.2965609039 -0.4734444223 0.2963009861 -0.4734071153 -0.0905325223 0.1512780617
485297090.0 -0.0725020548 0.1683828052 0.2916884765 -0.4760873336 0.2915065325 -0.4761326338 -0.088940522 0.1520347238
490297060.0 -0.0708463277 0.1692449279 0.2860690702 -0.4798417827 0.2859104688 -0.4792290383 -0.0874780743 0.153281284
495297030.0 -0.068777357 0.1701868677 0.2805950021 -0.4822830952 0.2813997507 -0.4823957126 -0.0864323576 0.1542561448
500297000.0 -0.0668795517 0.1707385153 0.2753727908 -0.4851923521 0.2752287592 -0.4850360189 -0.0844973385 0.1558322179
505296970.0 -0.0647803156 0.171611316 0.2702961766 -0.4883643919 0.2698391754 -0.4882531347 -0.083035242 0.156446588
510296940.0 -0.0632575603 0.1727304355 0.264843838 -0.4914321304 0.264596261 -0.4915246058 -0.0815176778 0.1574825709
515296910.0 -0.0608259532 0.1734463939 0.2590733007 -0.4944130911 0.2590522235 -0.4939899225 -0.0798874657 0.1585472453
520296880.0 -0.0592821259 0.1743967575 0.2535656079 -0.4975267994 0.2538986884 -0.4968652913 -0.0787654471 0.1593598451
525296850.0 -0.0570068624 0.1745778924 0.2478733179 -0.4993254058 0.2490255294 -0.4994632172 -0.0773362348 0.160249247
530296820.0 -0.0552987985 0.1759879715 0.2428177737 -0.5026696007 0.2432637059 -0.5022939623 -0.0755783378 0.1612183678
535296790.0 -0.0536318234 0.176319336 0.237970739 -0.50472662 0.2379423263 -0.5045424825 -0.0743432025 0.1620363379
540296760.0 -0.0519802098 0.1774597905 0.232310666 -0.5075892641 0.2318371977 -0.507476465 -0.0728638346 0.1633022372
545296730.0 -0.0496530938 0.1784512812 0.2262277755 -0.5098238959 0.2266881308 -0.5096111271 -0.0714690269 0.1637858122
550296700.0 -0.0475869003 0.1788341182 0.2206488969 -0.5124025828 0.2212661754 -0.5124585112 -0.069823844 0.1651833711
555296670.0 -0.0458961298 0.179354424 0.2157656264 -0.5146345888 0.2156717866 -0.5144485113 -0.0681874512 0.1659203111
560296640.0 -0.0433925248 0.1803950027 0.2094126162 -0.517392587 0.2097810672 -0.5168359083 -0.0664357104 0.1664907246
565296610.0 -0.0421105748 0.1806403644 0.2039762826 -0.5190277808 0.2043797068 -0.5194460335 -0.0652058463 0.1671817034
570296580.0 -0.0400423207 0.1814395939 0.1983562691 -0.5215162318 0.1983279581 -0.521230309 -0.0633456119 0.1685632437
575296550.0 -0.0382248558 0.1823183986 0.1929272399 -0.5238356034 0.1928184421 -0.5237680434 -0.0617612033 0.1689418412
580296520.0 -0.0359628378 0.1828273779 0.1873137444 -0.5258613229 0.1872409235 -0.5255442005 -0.0602080092 0.1694140719
585296490.0 -0.0340045954 0.1826163778 0.1814231425 -0.5271450458 0.1819226396 -0.5275805976 -0.0587201713 0.1701451386
590296460.0 -0.0315884589 0.1837175791 0.1755800679 -0.5287838887 0.175947654 -0.5292342337 -0.0574959987 0.1710997844
595296430.0 -0.0297572747 0.1842880679 0.169752275 -0.5313262555 0.1699040152 -0.5312013826 -0.0555109213 0.1712967104
600296400.0 -0.0278708335 0.1845758274 0.1641042414 -0.5332510267 0.1640243699 -0.5325699919 -0.0538732564 0.1722638365
605296370.0 -0.0259021938 0.1850558115 0.1582506268 -0.5344165732 0.1585998132 -0.5346660995 -0.052024526 0.1727906416
610296340.0 -0.0236623696 0.1854561784 0.151920236 -0.5362036025 0.1526365198 -0.5362137968 -0.0501826259 0.1734060087
615296310.0 -0.0215192815 0.1856494482 0.1466015048 -0.5378074873 0.1465593064 -0.5383654531 -0.0483075183 0.1738724839
620296280.0 -0.0197728789 0.18568503 0.1408804688 -0.5390703541 0.1408930232 -0.5393144347 -0.0470881894 0.1745878694
625296250.0 -0.0175216828 0.1858855624 0.1352034826 -0.5409680659 0.1353053622 -0.541221897 -0.0447234096 0.1750450872
630296220.0 -0.0148654056 0.1865668969 0.1282632238 -0.542229316 0.1286463366 -0.5422792192 -0.0434478318 0.1758462584
635296190.0 -0.0138168318 0.1869357411 0.1235398904 -0.5434368634 0.1233316155 -0.543515594 -0.0416853988 0.1764581323
640296160.0 -0.0118112822 0.1873970101 0.1175311678 -0.5446616613 0.1177533324 -0.5447906452 -0.0399203573 0.1769132763
645296130.0 -0.0094281367 0.1875297779 0.1110822264 -0.545713475 0.111880788 -0.5460742955 -0.0380905834 0.1774931534
650296100.0 -0.0072373244 0.1874352919 0.1053862976 -0.5470001555 0.1058148794 -0.5474027669 -0.0360172718 0.1777964188
655296070.0 -0.0054819747 0.1877958586 0.0997213545 -0.5483856711 0.0999944842 -0.54865985 -0.0343848719 0.1783404353
660296040.0 -0.0035951282 0.187861918 0.0934513148 -0.5494643769 0.0937475278 -0.5490420053 -0.032619103 0.1788167595
665296010.0 -0.0009342006 0.1879560282 0.0875199233 -0.5496526325 0.0876522487 -0.5504358569 -0.0303948224 0.1798679512
670295980.0 0.0001364405 0.1886121696 0.0820950127 -0.5507635387 0.0821237611 -0.5509263564 -0.0297515669 0.1799976725
675295950.0 0.0028938278 0.1887997281 0.0759749044 -0.5516711639 0.0760117162 -0.551224001 -0.0278023705 0.180209932
680295920.0 0.0049722436 0.1884466309 0.069519195 -0.5523460068 0.069580405 -0.553040081 -0.0256893844 0.1812119406
685295890.0 0.0071296282 0.1890801223 0.0639197402 -0.5530938266 0.0634554414 -0.553396082 -0.0236626555 0.1813645336
690295860.0 0.0092291261 0.1890873066 0.0578904576 -0.5537762163 0.0578835342 -0.5542190712 -0.0222186339 0.1825579423
695295830.0 0.0111902986 0.1886653458 0.0522666874 -0.5541849494 0.0519332 -0.5543435926 -0.0205759672 0.1824372503
700295800.0 0.0132897599 0.1884560663 0.0459373722 -0.5547943253 0.0459113993 -0.5549656 -0.0190372669 0.183540853
705295770.0 0.0153022088 0.1895008234 0.0398212219 -0.555383037 0.0400002684 -0.5555399613 -0.0171475188 0.1839505389
710295740.0 0.0176347475 0.1890258503 0.0341127287 -0.5564816015 0.0341861572 -0.5564383344 -0.014973817 0.1835995062
715295710.0 0.0190035254 0.1891230392 0.0286159395 -0.5562036614 0.0279123171 -0.5563552835 -0.0134159846 0.1840484924
720295680.0 0.0215120721 0.1888418712 0.0220154986 -0.5566922427 0.0225050121 -0.5565820233 -0.0116978488 0.1848647704
725295650.0 0.0236333372 0.1886668473 0.015949721 -0.556328649 0.0161591106 -0.5567566774 -0.0102889465 0.1848448071
730295620.0 0.0260003527 0.1888474908 0.009967902 -0.5564289607 0.0101267649 -0.5565460431 -0.008618239 0.1846738236
735295590.0 0.0280698159 0.1888080067 0.0037060491 -0.5569978557 0.0041129605 -0.5566931197 -0.0070658786 0.1847785216
740295560.0 0.029816108 0.1884689259 -0.0020460844 -0.5566930499 -0.001962638 -0.556536751 -0.0042787925 0.1853596088
745295530.0 0.031764408 0.1883964392 -0.0075726204 -0.5561173846 -0.0082326435 -0.556579265 -0.002965862 0.1852345716
750295500.0 0.0342803618 0.1881477663 -0.0138126673 -0.55619794 -0.0136122566 -0.5566112978 -0.0011952899 0.1855175247
755295470.0 0.0359464222 0.1876828678 -0.0197809881 -0.5559652656 -0.0196926814 -0.5560642176 0.0010157845 0.1851667411
760295440.0 0.0378732314 0.1873798181 -0.0259076692 -0.556125546 -0.0259787634 -0.5562501393 0.0024267904 0.1855538286
765295410.0 0.0399674087 0.187198378 -0.0317397537 -0.5553331525 -0.0320662354 -0.5556448864 0.0041486723 0.1858990341
770295380.0 0.0420110284 0.1867432627 -0.0379391978 -0.555019785 -0.038038968 -0.5550978698 0.005711946 0.1857467598
775295350.0 0.0438244705 0.1860948123 -0.0445857382 -0.5540787326 -0.0435532929 -0.5546384599 0.0073118271 0.186080528
780295320.0 0.0463151064 0.1858445644 -0.0501472201 -0.5533872737 -0.049324753 -0.5540034291 0.0095361736 0.185768721
785295290.0 0.0476336291 0.1853845538 -0.0561574723 -0.5531888726 -0.0557389783 -0.5536586888 0.0115682708 0.1860219075
790295260.0 0.0505224135 0.1854248824 -0.0614774495 -0.5529414154 -0.060812878 -0.5523320343 0.0134990162 0.1859807763
795295230.0 0.0521667729 0.1847170872 -0.0676487211 -0.5516914971 -0.0669156883 -0.5522911263 0.0153509342 0.1863306657
800295200.0 0.0539696167 0.1842572235 -0.0744054244 -0.5509324473 -0.073430841 -0.5509547029 0.0173074805 0.1858823611
805295170.0 0.0560778563 0.183695895 -0.0796513099 -0.5502016302 -0.0795398681 -0.5506534006 0.0188540453 0.1861589943
810295140.0 0.0583017091 0.18299037 -0.0852092673 -0.549247695 -0.0855086026 -0.5492974825 0.0212464565 0.186276774
815295110.0 0.0603885521 0.1824994724 -0.0913067937 -0.5480401992 -0.0911256915 -0.5485088711 0.0227276323 0.1857586322
820295080.0 0.0619180062 0.1825688454 -0.0971004039 -0.5471604691 -0.096642618 -0.5474459051 0.0245896972 0.1858099617
825295050.0 0.0646781878 0.1816061302 -0.1025590895 -0.5459155613 -0.1030365141 -0.5463970027 0.0267197954 0.1860939307
830295020.0 0.0661903528 0.1814270512 -0.1090969785 -0.5448709726 -0.108634713 -0.5449712313 0.0288435995 0.1860232538
