!Created with skrf (http://scikit-rf.org).
# Hz S RI R 50.0 
!freq ReS11 ImS11 ReS21 ImS21 ReS12 ImS12 ReS22 ImS22
300000.0 -0.7756587511 -0.1503944088 9.39739e-05 0.0020914154 -0.000330173 0.0007782629 -0.0455623786 -0.0698565542
5299970.0 -0.7853407796 -0.0079908102 0.0001683992 -7.4268e-05 -0.0001261719 -0.0001055414 -0.0484825976 0.0142868798
10299940.0 -0.7877316492 -0.0042441295 0.0001727171 -0.000192951 3.2849e-06 0.0001060486 -0.0429050406 0.0314785584
15299910.0 -0.7931379768 -0.0019476011 -0.0001423756 0.0001473159 -3.20913e-05 9.62619e-05 -0.0345165278 0.045411152
20299880.0 -0.7993380186 0.0024980226 0.0001170097 7.7413e-05 0.0002335298 -0.0001220365 -0.0248101342 0.0573572161
25299850.0 -0.8064709537 0.0080859544 6.415e-05 -1.0101e-05 2.5002e-06 4.06176e-05 -0.0144488598 0.0661027263
30299820.0 -0.8116008315 0.0162246119 0.0001540073 -9.53205e-05 0.0002026929 5.52664e-05 -0.0031377113 0.0728638358
35299790.0 -0.8169551516 0.0250666062 0.0002320691 -0.0001549186 -0.0001216952 -7.78627e-05 0.0082095067 0.0771072707
40299760.0 -0.8212027347 0.0341219025 2.1884e-05 -0.0001146052 1.678e-07 -6.95041e-05 0.0191698073 0.0797594177
45299730.0 -0.8245015749 0.0445114321 -6.1015e-06 7.64838e-05 6.30258e-05 -2.6638e-06 0.0296132461 0.0814214077
50299700.0 -0.8270762399 0.0537292824 -7.49005e-05 0.0002072531 -9.39853e-05 1.35476e-05 0.0398310787 0.0811940996
55299670.0 -0.82871422 0.0642761861 -6.94837e-05 0.0002052672 0.0001747561 9.03062e-05 0.0485370171 0.0804392385
60299640.0 -0.8298400078 0.074031358 -0.0001032357 0.0001205398 -4.47298e-05 3.33586e-05 0.0568818692 0.0782557259
65299610.0 -0.8310653958 0.084498869 -8.21764e-05 -0.0001039732 0.0001789226 2.3923e-05 0.0643462003 0.076123914
70299580.0 -0.8311229856 0.0943674686 0.0001577004 -2.74426e-05 8.69507e-05 -7.48778e-05 0.0712510722 0.072999911
75299550.0 -0.8312173761 0.1049219363 -0.0001724893 0.000148767 -6.01579e-05 3.008e-05 0.077233221 0.0698231946
80299520.0 -0.8314206175 0.1147218568 2.80227e-05 -8.93468e-05 4.745e-05 -0.0001033826 0.0826506026 0.0662351331
85299490.0 -0.8301622781 0.1242283623 7.0995e-05 -0.0002425092 6.26939e-05 0.0001542757 0.0875421745 0.0625433638
90299460.0 -0.8297781419 0.1341015317 -8.9718e-06 7.00905e-05 -4.37953e-05 -1.32015e-05 0.0923167188 0.058926643
95299430.0 -0.8286542215 0.1436616563 -0.0001037497 -0.00019038 3.98943e-05 0.0001573741 0.0962365559 0.0550027886
100299400.0 -0.8279867767 0.1526971062 -0.0002340798 0.0001194793 0.000156143 0.0001056397 0.0996492563 0.0507407266
105299370.0 -0.8263711191 0.162092956 0.0001328578 1.07803e-05 5.47137e-05 6.97566e-05 0.103104166 0.0466396162
110299340.0 -0.825419905 0.1707267076 0.0001012305 0.0002107512 1.08875e-05 0.0002194968 0.1053647019 0.0430898592
115299310.0 -0.8238740526 0.1807016738 9.9111e-06 7.71992e-05 9.90053e-05 8.92883e-05 0.1083301201 0.0386680459
120299280.0 -0.8217261013 0.1897654152 -8.72934e-05 -1.2695e-06 1.80234e-05 -4.3288e-06 0.1101933591 0.0351026654
125299250.0 -0.8204820943 0.1986078827 3.56527e-05 9.12698e-05 4.85058e-05 -4.71265e-05 0.1122516278 0.0310192652
130299220.0 -0.8183207775 0.2076269075 -4.93471e-05 -5.4001e-05 0.0001787365 1.28269e-05 0.1135213298 0.0274005818
135299190.0 -0.8165984101 0.21677805 -2.9697e-05 7.97016e-05 -0.000201245 -9.31106e-05 0.1154478051 0.0237146214
140299160.0 -0.8145360458 0.2258847661 -0.0002222097 0.0001355167 -0.0001767392 7.83735e-05 0.1166783153 0.0198891077
145299130.0 -0.8123483027 0.2344141962 -3.33298e-05 -9.96723e-05 -0.0001513551 3.72912e-05 0.1168376214 0.0165658651
150299100.0 -0.8099476169 0.2431182827 -1.34968e-05 8.78674e-05 -8.68554e-05 0.0001951408 0.1180559796 0.0130185884
155299070.0 -0.8076674954 0.252587657 -4.86059e-05 -1.03301e-05 0.0002127596 3.9028e-06 0.118845084 0.0098250437
160299040.0 -0.8048082312 0.2615226219 0.0002667733 3.29482e-05 8.85058e-05 -0.000147547 0.119554308 0.0063768524
165299010.0 -0.8019456865 0.2692560789 -3.73158e-05 -1.86682e-05 -2.00273e-05 -0.0001121017 0.1198435493 0.0028902035
170298980.0 -0.7995755334 0.2781635377 0.0002980326 0.0001757995 0.0001171605 -6.40632e-05 0.1204739378 -0.0001170561
175298950.0 -0.7967969367 0.2872161487 -6.23361e-05 7.9095e-05 -5.02821e-05 -4.71936e-05 0.1204091532 -0.0032989697
180298920.0 -0.7937549067 0.295265543 -0.0001633671 6.79694e-05 -4.81096e-05 2.44674e-05 0.1206709882 -0.0062964931
185298890.0 -0.7911036317 0.3045096828 0.0001699528 0.000220532 1.04898e-05 2.48076e-05 0.1203091927 -0.009403703
190298860.0 -0.7874475104 0.3122822528 7.39848e-05 0.0001847285 -6.86024e-05 6.06372e-05 0.1207765502 -0.0121843184
195298830.0 -0.7840648085 0.3210120912 -7.82138e-05 9.46545e-05 0.000130094 -7.63217e-05 0.1202419981 -0.0150346896
200298800.0 -0.7809530014 0.329240234 0.0001852634 0.0001337908 -7.88144e-05 3.51431e-05 0.1204283683 -0.0178445927
205298770.0 -0.7769372466 0.3368510716 0.0002447051 6.4547e-06 0.0001225533 6.9949e-05 0.1200237881 -0.0206590594
210298740.0 -0.773691919 0.3456750154 5.15274e-05 -0.0001206642 2.6997e-05 0.0001620447 0.1198454692 -0.023242866
215298710.0 -0.770278948 0.3541232138 -5.808e-05 0.0001172508 -9.64023e-05 5.9001e-06 0.1190260808 -0.0257344763
220298680.0 -0.766633696 0.362695728 -1.84481e-05 -3.3372e-05 -1.5591e-05 -7.7877e-05 0.1191052639 -0.0282547867
225298650.0 -0.7631927074 0.370882249 -0.0001579343 0.0002328861 -6.6655e-06 -1.02324e-05 0.1181285854 -0.0305784541
230298620.0 -0.7588782708 0.3784517251 -7.55973e-05 1.32055e-05 -0.0001169589 8.73619e-05 0.1180507341 -0.0334574175
235298590.0 -0.7544658418 0.3872163214 0.0002041999 4.20699e-05 5.18387e-05 4.07057e-05 0.1172472317 -0.0357467289
240298560.0 -0.7508763285 0.394941397 3.20156e-05 6.33741e-05 0.0001568318 0.0001062671 0.1163474097 -0.0378692736
245298530.0 -0.7461387653 0.4031028913 0.0001381955 0.0001832606 1.29468e-05 -9.52065e-05 0.1161059478 -0.0400879643
250298500.0 -0.7425015364 0.4106447318 0.0002025198 -9.31718e-05 0.0001435283 0.0002785517 0.1153538088 -0.0420754453
255298470.0 -0.7379569939 0.418708264 -3.78257e-05 -8.89684e-05 0.0001001353 -2.50679e-05 0.1143932099 -0.0443512805
260298440.0 -0.7336371367 0.4261784038 0.0002136195 -2.33894e-05 0.0002381232 5.80174e-05 0.1135988127 -0.0466182548
265298410.0 -0.7290588275 0.4341749449 0.0001189613 -4.29408e-05 -0.0001512799 -0.0002077608 0.1129687401 -0.0486044525
270298380.0 -0.7248265071 0.4418127176 1.6131e-05 2.21198e-05 -3.27865e-05 0.0001169237 0.1122514152 -0.0505947244
275298350.0 -0.719234688 0.4489593502 0.0003212646 -5.30856e-05 0.0001515712 -3.27219e-05 0.1114699581 -0.0524932813
280298320.0 -0.7149077295 0.4564913566 0.0001471349 0.0001045162 -6.58843e-05 -2.50132e-05 0.1105262251 -0.0546015321
285298290.0 -0.71024866 0.4642068832 0.0001190294 -0.0001277183 4.45666e-05 7.3649e-05 0.1095203137 -0.0561752066
290298260.0 -0.7056229091 0.4719059106 -7.79706e-05 -8.13036e-05 3.23284e-05 0.0002099206 0.1088329721 -0.0578859537
295298230.0 -0.7008700852 0.4794232804 0.0001080247 0.0001831987 0.0001525413 0.0003360788 0.1078277644 -0.0599237023
300298200.0 -0.6950468932 0.4866909386 -0.0001072143 0.0001111325 3.94737e-05 3.28476e-05 0.10669382 -0.0616773232
305298170.0 -0.6899653516 0.4941172128 5.85601e-05 5.63907e-05 0.0001437071 -6.27136e-05 0.1060853136 -0.0632385985
310298140.0 -0.6846253547 0.5007814346 7.9044e-05 -0.000107356 -4.74395e-05 -0.0001005811 0.1051590234 -0.0651387169
315298110.0 -0.6794616808 0.5078137208 0.0002120707 4.4963e-05 0.0002897639 0.000128931 0.1039238595 -0.0668575845
320298080.0 -0.6741454147 0.5154462793 0.0001507041 -0.0001065438 0.0001458964 8.83379e-05 0.1029184422 -0.0686925299
325298050.0 -0.6683949972 0.5220379884 7.31598e-05 0.0001424258 4.82833e-05 -3.22534e-05 0.1017329446 -0.070719614
330298020.0 -0.6623205711 0.5294877519 0.0002088932 -8.35151e-05 5.44456e-05 -5.68656e-05 0.1004630448 -0.0723154831
335297990.0 -0.6569330135 0.5364379067 0.0001681773 2.22928e-05 2.88817e-05 2.58399e-05 0.0989314794 -0.0740573428
340297960.0 -0.6520139661 0.5429752273 -3.92442e-05 5.8349e-05 1.83275e-05 -0.0001890797 0.0977192597 -0.0753820969
345297930.0 -0.646378422 0.5487639592 -0.000159202 -0.000275105 0.00018245 -1.4016e-06 0.0961240865 -0.0768469269
350297900.0 -0.6405284877 0.5558773081 -0.0001138716 0.0001716245 0.0002077947 -0.0002124444 0.0947103281 -0.0782142131
355297870.0 -0.6339924951 0.562824596 0.0001096491 0.0001845335 8.47195e-05 0.0001062089 0.0934702321 -0.0793838614
360297840.0 -0.6284242512 0.5693476794 0.0002690782 -5.56207e-05 -3.0189e-06 0.0002676961 0.0922855637 -0.0805878033
365297810.0 -0.6218453672 0.5759130896 0.0002458032 -3.885e-06 8.10341e-05 -8.04633e-05 0.090966256 -0.0819059055
370297780.0 -0.6163662443 0.5813908786 6.23555e-05 0.0001128282 5.31288e-05 5.99701e-05 0.08935182 -0.0831544043
375297750.0 -0.6100486152 0.5879010713 0.0001156469 0.0001009427 -3.88858e-05 -2.97931e-05 0.0881111646 -0.0841055789
380297720.0 -0.6039840327 0.5949505756 -3.26859e-05 0.0001476205 6.94409e-05 -1.9408e-05 0.086838355 -0.0851522229
385297690.0 -0.5981709998 0.6007581168 0.000112745 -2.01903e-05 7.07973e-05 -1.35306e-05 0.0852310079 -0.0861779018
390297660.0 -0.5916725539 0.6069819531 0.0003055322 0.0001602038 0.0002063764 0.0001873834 0.0838738889 -0.0876335731
395297630.0 -0.5855250612 0.6135544861 0.000365208 0.0001480694 7.21809e-05 -2.05846e-05 0.0825127969 -0.0886794936
400297600.0 -0.5788139948 0.6195932173 -0.0001041395 1.29832e-05 0.0002413154 0.000183435 0.0811745305 -0.0897651488
405297570.0 -0.5728695619 0.6251648125 3.17842e-05 9.39546e-05 0.00010719 -7.6236e-05 0.0795579541 -0.0910179897
410297540.0 -0.5651154789 0.6308494325 7.17825e-05 2.39323e-05 2.82646e-05 2.652e-07 0.0780666247 -0.0913550144
415297510.0 -0.5594624197 0.6366157524 -0.0001065689 0.0001168055 0.0002729912 -0.0001298794 0.0765803614 -0.0923882532
420297480.0 -0.5518579823 0.6421233085 6.0953e-05 0.0001288626 0.0001715738 0.0002100533 0.0750141485 -0.0934670161
425297450.0 -0.5461884744 0.6477291572 0.0002841942 1.09629e-05 0.0002172936 -6.24387e-05 0.0736402817 -0.09442278
430297420.0 -0.5396722342 0.6533180832 0.0001345703 1.53794e-05 0.0002849236 -7.80709e-05 0.0724228817 -0.0952896225
435297390.0 -0.5321584093 0.6590140682 0.0001230932 0.0001039309 -8.32406e-05 -6.33041e-05 0.0708310227 -0.096053993
440297360.0 -0.5252223315 0.664281865 0.0003069137 0.0001066538 4.31235e-05 0.0001776142 0.0689661157 -0.0971752846
445297330.0 -0.5192781349 0.6699468451 0.0003241162 -6.75636e-05 -1.47509e-05 -2.01896e-05 0.0674111804 -0.0981495036
450297300.0 -0.5116619993 0.6743793406 -2.38157e-05 -4.49929e-05 0.0001201952 -4.75234e-05 0.0656794074 -0.0984597193
455297270.0 -0.5039397581 0.6802348103 7.98437e-05 -0.0001768353 0.0001291583 -1.9915e-05 0.0644390841 -0.0995751709
460297240.0 -0.4976503754 0.6860649923 4.3015e-06 -0.0001018615 0.0001054075 3.69262e-05 0.0631845991 -0.100052116
465297210.0 -0.4897554113 0.6908089833 2.15308e-05 0.0001474671 0.0002154475 2.46092e-05 0.0610268066 -0.1011271876
470297180.0 -0.4827677759 0.6947830369 0.0002623904 -0.0001915286 8.75493e-05 0.0001216941 0.0592996314 -0.1015596512
475297150.0 -0.4758849691 0.6999637791 0.0001200467 3.07524e-05 0.0001528124 0.0001192514 0.0581815456 -0.1025626582
480297120.0 -0.4689200619 0.7041729715 0.0002429235 -0.0001555207 0.0001319996 0.0001127364 0.056237462 -0.1029421211
485297090.0 -0.4612170109 0.7092562452 0.0002308666 0.0001277331 0.0002581729 0.0001895284 0.0544621373 -0.1036210344
490297060.0 -0.4544898493 0.7142850724 0.0001135854 -0.000180403 0.0001799509 -0.000121948 0.0531398581 -0.1043716119
495297030.0 -0.4467616853 0.7186756415 0.0001464928 9.78316e-05 0.0001535392 0.0002244391 0.0518102204 -0.105163696
500297000.0 -0.43883177 0.7232968004 1.40177e-05 -0.0001090539 1.646e-07 -0.000126329 0.050041943 -0.1055853495
505296970.0 -0.4316342524 0.7269660185 3.15545e-05 -0.0001282084 7.69268e-05 -8.4653e-06 0.0481506068 -0.1063845909
510296940.0 -0.424821256 0.7322480022 -3.54296e-05 -4.79377e-05 0.0003175752 0.0001163115 0.0465642582 -0.1066950696
515296910.0 -0.4168793408 0.736339936 -1.80981e-05 0.0001264908 6.59917e-05 -0.0001137137 0.0448034561 -0.1072225102
520296880.0 -0.4092420158 0.7404782471 0.0004331083 0.000136171 0.0001474784 0.0001565662 0.0434526447 -0.1080781964
525296850.0 -0.4018031219 0.7451136645 0.0001587346 -8.86797e-05 4.76341e-05 2.40567e-05 0.0421789492 -0.1082183195
530296820.0 -0.3942792267 0.7481351212 0.0001881707 0.0001354241 5.00257e-05 -8.94604e-05 0.0395647005 -0.1086998204
535296790.0 -0.3860959652 0.7524480897 2.94133e-05 9.803e-07 0.0001329046 0.0001358519 0.0380839072 -0.1096872293
540296760.0 -0.3787397722 0.7561843534 0.0001493747 -1.35782e-05 -2.50273e-05 0.00011229 0.0361122363 -0.1095687272
545296730.0 -0.3708512969 0.7593232623 -2.7415e-05 -4.8893e-05 -0.0002147986 -3.5207e-06 0.0348147142 -0.110057163
550296700.0 -0.3635684021 0.7637292563 0.0003065397 0.0001551535 -9.2365e-06 -3.05745e-05 0.0330912434 -0.110672287
555296670.0 -0.3548171215 0.7670645867 0.0002769696 4.85403e-05 0.0002167164 4.45532e-05 0.0312563945 -0.1105505899
560296640.0 -0.3470075967 0.7707432446 0.0002925687 6.34743e-05 0.0002906629 0.0001743619 0.0294917407 -0.111004032
565296610.0 -0.3399495399 0.7740691317 0.0002378039 -0.000113497 -4.18191e-05 -6.66716e-05 0.0280135774 -0.1110199377
570296580.0 -0.3313755155 0.7778200942 -0.0001293229 0.0001347597 0.000269313 0.0001184536 0.0265306584 -0.1110483665
575296550.0 -0.3237917873 0.7804764605 -9.68829e-05 -0.0001333028 0.0002350629 -0.0001225298 0.0249026062 -0.1118239429
580296520.0 -0.3157719929 0.7842060464 0.0001416745 0.0002405019 9.97146e-05 -5.23189e-05 0.0229998287 -0.1118907123
585296490.0 -0.3080192356 0.7865009718 0.0002406785 0.0001548076 3.55935e-05 -2.71252e-05 0.0211715356 -0.1125936957
590296460.0 -0.2992656408 0.7901473398 0.0001475306 -2.87977e-05 5.51782e-05 -0.0003344974 0.0197476128 -0.1121570141
595296430.0 -0.2911769064 0.7935134315 -8.9627e-06 -2.7413e-06 0.0001397373 3.67068e-05 0.0176424608 -0.1125870842
600296400.0 -0.2832001939 0.7958701005 0.000300447 -1.26313e-05 0.0002592631 0.0002244166 0.0159404137 -0.1128513787
605296370.0 -0.2752034406 0.7991487465 7.17542e-05 9.589e-05 0.0001204394 4.66597e-05 0.0145414146 -0.1127244322
610296340.0 -0.2677921731 0.8015696119 7.26782e-05 -0.0001084996 0.0002577108 -4.21897e-05 0.0127976178 -0.1126310825
615296310.0 -0.2596304095 0.8041866868 1.31095e-05 1.87505e-05 0.000118171 -0.0001242787 0.0110972464 -0.1130031734
620296280.0 -0.2509882853 0.8062336748 0.0001139774 7.89792e-05 0.000114756 5.98734e-05 0.009208507 -0.1132026661
625296250.0 -0.242837449 0.8093756363 0.0001548844 6.10408e-05 0.0001197262 -6.91745e-05 0.0074872808 -0.11275975
630296220.0 -0.2337741485 0.8119475817 3.63152e-05 0.0001195842 4.894e-06 0.0001693007 0.0058802286 -0.1126938044
635296190.0 -0.2263753987 0.8138666666 0.0001772999 3.19e-07 -0.0001168168 -0.0001529491 0.0042675312 -0.1127979764
640296160.0 -0.2176372744 0.815510229 0.0001095949 6.71981e-05 0.0001585808 0.0002908589 0.0027613352 -0.1128546009
645296130.0 -0.2101492944 0.8180731364 0.0002074433 -8.59849e-05 0.0001593533 -1.89893e-05 0.000662921 -0.1130969932
650296100.0 -0.2010435984 0.820494767 0.000251614 1.98852e-05 -0.0001017271 0.0001192873 -0.001031061 -0.1125468098
655296070.0 -0.1930389278 0.8219672336 5.06406e-05 -4.75542e-05 0.0002591132 -0.0001386127 -0.0027256598 -0.1122861694
660296040.0 -0.1849825941 0.8240548406 6.3839e-05 4.81636e-05 3.19012e-05 8.2978e-05 -0.0044031594 -0.1125202813
665296010.0 -0.1766585363 0.8259084648 7.78387e-05 0.000113324 0.0002537052 8.50013e-05 -0.0061227132 -0.112241874
670295980.0 -0.1680696336 0.8275036201 0.0002740127 0.0001820174 0.0001696627 4.5949e-05 -0.0077357069 -0.1120151723
675295950.0 -0.1602199125 0.8283979544 0.0001310911 -6.665e-05 0.0002508899 0.0002676645 -0.0090989337 -0.1115646978
680295920.0 -0.1522395131 0.8306670363 0.0002885071 0.0001408578 0.0001541768 0.0002912084 -0.0110439938 -0.1115608508
685295890.0 -0.1430380564 0.8322387995 3.34973e-05 0.0001313859 0.0001363909 2.4657e-06 -0.0125597715 -0.1116023462
690295860.0 -0.1342307206 0.8332552139 3.52642e-05 -0.0001821723 -3.14835e-05 6.36292e-05 -0.0141358806 -0.1109368676
695295830.0 -0.1259115343 0.8342192994 0.0001241853 -2.92739e-05 -8.61795e-05 -7.03499e-05 -0.0161214023 -0.1102080807
700295800.0 -0.1178679456 0.8360717055 0.0001560596 -1.69262e-05 0.0002061154 5.74122e-05 -0.0177686042 -0.1103267252
705295770.0 -0.10862402 0.8374563004 7.87416e-05 0.0001753226 0.0002294377 -9.31207e-05 -0.0194452228 -0.1099119596
710295740.0 -0.1009720612 0.8380662338 0.0002371691 3.15207e-05 0.0001582525 5.95954e-05 -0.0210172648 -0.1094449189
715295710.0 -0.0929055019 0.8389636163 0.000183944 0.0002083043 5.1271e-05 -0.0001160773 -0.0226893733 -0.1092465321
720295680.0 -0.0843810527 0.8395319514 0.0001135176 0.0001109908 -4.45513e-05 -0.0001175758 -0.0243787917 -0.1087724189
725295650.0 -0.0749011726 0.8408156338 0.0001611687 -0.0001319287 0.0001100566 0.0001955019 -0.0257650735 -0.1084024217
730295620.0 -0.0674479294 0.8411250311 0.0002692988 -4.59585e-05 0.0001862574 5.14829e-05 -0.0276587316 -0.1080336596
735295590.0 -0.0580276739 0.8418587437 5.17893e-05 8.46923e-05 0.0001698539 0.0001481945 -0.0290386766 -0.1074840744
740295560.0 -0.0497218119 0.8426527422 0.0003559577 -0.0001416999 0.0001605598 -7.91167e-05 -0.03053921 -0.1069801595
745295530.0 -0.0419410602 0.8430934876 0.0002678169 8.6729e-06 4.56341e-05 -0.0003441211 -0.0324317656 -0.1065207874
750295500.0 -0.0339766605 0.8433469075 7.93342e-05 6.21505e-05 0.0001292286 -5.41149e-05 -0.0340337164 -0.105779824
755295470.0 -0.0245748058 0.8431200674 0.0001192144 -1.64445e-05 8.52122e-05 1.91302e-05 -0.0358453434 -0.1050537745
760295440.0 -0.0164788187 0.8435773582 0.0001483204 0.0001253166 0.0002044086 -0.0001350507 -0.0371722136 -0.1048277839
765295410.0 -0.0077423179 0.843240772 9.75213e-05 -0.0001269251 9.17295e-05 0.0001103955 -0.0385642601 -0.1041229428
770295380.0 0.0002711174 0.8440638362 0.0001275614 -4.30976e-05 0.0002999776 -5.37148e-05 -0.0399048592 -0.1033278779
775295350.0 0.0086506722 0.8445116108 0.0002669312 -0.0002394141 0.0002324877 2.683e-07 -0.0420652212 -0.1031392596
780295320.0 0.0177209004 0.843546872 0.000190633 5.76822e-05 0.00022651 0.0001251041 -0.0432423222 -0.1020412488
785295290.0 0.0262354886 0.8434246519 0.000136471 0.0001775717 0.0002192576 -0.0001831848 -0.0449679564 -0.1012831622
790295260.0 0.034214732 0.8426994575 0.0002718698 -0.0001145859 0.0001304216 -9.08569e-05 -0.0464598934 -0.1006608975
795295230.0 0.0424337606 0.8433169327 0.0003078255 -3.25534e-05 7.1178e-05 -0.0001521836 -0.0478847514 -0.0997551787
800295200.0 0.0515200833 0.843027897 0.0001909206 9.72517e-05 0.0002548192 -2.58511e-05 -0.0492417111 -0.0990844554
805295170.0 0.0599294662 0.8421015618 4.94065e-05 -0.0001944717 0.0002639515 5.29376e-05 -0.0511097232 -0.09836472
810295140.0 0.0682270908 0.8411900373 0.0002622034 -0.0001924241 0.0001704926 0.0001383311 -0.0523649884 -0.0973739196
815295110.0 0.0767862489 0.8407525899 0.0001623311 -0.0001865783 0.000192059 7.91647e-05 -0.0541370723 -0.0967370786
820295080.0 0.0851160211 0.8392776365 0.000251425 3.35664e-05 7.96571e-05 -7.52604e-05 -0.0556234279 -0.0958797712
825295050.0 0.0937633565 0.8384830248 0.0001420034 -9.35476e-05 0.0001241697 -3.14841e-05 -0.0564979727 -0.0950511388
830295020.0 0.1017657887 0.8374732155 0.0002204949 9.03744e-05 -3.96247e-05 5.18347e-05 -0.0582545556 -0.0940784252
835294990.0 0.1101993499 0.8368657118 0.000255914 -0.0001141654 0.0002174137 -9.91832e-05 -0.0596477026 -0.0933353828
840294960.0 0.1185474448 0.8351471785 6.97015e-05 2.47454e-05 8.0838e-05 7.84698e-05 -0.0610034943 -0.0919942885
845294930.0 0.127189619 0.8342877978 0.0002432732 -7.31186e-05 0.000109259 -8.37941e-05 -0.0624061957 -0.0915393487
850294900.0 0.1350601348 0.8325519793 6.0438e-06 -0.0001170751 0.0002486129 -0.0001511446 -0.0639929951 -0.0903446491
