!Created with skrf (http://scikit-rf.org).
# Hz S RI R 50.0 
!freq ReS11 ImS11 ReS21 ImS21 ReS12 ImS12 ReS22 ImS22
300000.0 -0.7736133666 -0.1705099569 0.0001341871 0.0026942614 0.000266894 0.0009569283 -0.045711269 -0.0779370325
5299970.0 -0.7863124279 -0.0089336053 0.0001884826 -0.0001853701 -0.0001019619 -4.8261e-06 -0.0489545581 0.0141489623
10299940.0 -0.7894006596 -0.0057703716 -0.0001957282 7.69623e-05 -5.15606e-05 -0.0001311573 -0.0428145229 0.0322214209
15299910.0 -0.7942355262 -0.0032399345 -0.0002282191 0.0001011348 -3.13853e-05 0.0001712894 -0.0348591484 0.0467547443
20299880.0 -0.8008386435 0.0006400667 3.91444e-05 -8.7706e-05 9.38448e-05 3.70183e-05 -0.025353947 0.0584581833
25299850.0 -0.8072591895 0.0068809955 -1.5262e-06 0.0002317283 0.0001870706 6.57652e-05 -0.0141976456 0.0678030109
30299820.0 -0.8138425055 0.0139610843 -7.3307e-05 0.0001407549 -1.78078e-05 7.89905e-05 -0.0025919747 0.0747548882
35299790.0 -0.8184991364 0.0231608153 6.19159e-05 -0.0001049611 -3.58267e-05 -7.4007e-06 0.0083016348 0.0798362893
40299760.0 -0.8237698114 0.0320320552 -3.64551e-05 -8.57204e-05 0.0001678636 7.96846e-05 0.0196062687 0.0825072103
45299730.0 -0.826598083 0.041762267 8.02163e-05 3.14596e-05 0.0001446161 0.0001099109 0.0303323666 0.0840213242
50299700.0 -0.829454754 0.0521915903 -3.76626e-05 -7.93483e-05 -3.92045e-05 5.04365e-05 0.040397301 0.0844746432
55299670.0 -0.8315741333 0.0612426247 -6.23501e-05 0.0001929873 -6.871e-07 -1.31079e-05 0.0493309916 0.0833458551
60299640.0 -0.8325093463 0.0716541637 8.4657e-06 7.2969e-05 -4.60406e-05 7.22193e-05 0.0579791636 0.0818323122
65299610.0 -0.8334958014 0.081678817 -2.75524e-05 -0.0001198357 0.0001364773 3.26695e-05 0.0655031986 0.0795485895
70299580.0 -0.8331560965 0.091419732 -1.61233e-05 0.0002858752 7.4366e-06 0.0001601563 0.0729230909 0.076703601
75299550.0 -0.8340520624 0.1013500927 -6.64317e-05 4.00358e-05 8.07202e-05 -8.73498e-05 0.0792133977 0.0738168443
80299520.0 -0.8339910009 0.1121535446 5.0708e-06 1.82932e-05 9.09254e-05 0.0001218349 0.0847788914 0.0702282459
85299490.0 -0.8326967216 0.1210277543 0.0002788764 -5.87163e-05 3.0522e-05 5.6095e-05 0.0897804396 0.0662951858
90299460.0 -0.8325375357 0.1315603878 7.26374e-05 9.00492e-05 0.0001588242 4.8739e-05 0.0944146971 0.063076008
95299430.0 -0.8314836345 0.1406317291 -0.0001499098 -0.0001567412 0.0001874314 0.0001954685 0.0985460893 0.059269343
100299400.0 -0.8306078792 0.1498322143 -5.15987e-05 4.5209e-05 -4.96893e-05 0.0001089509 0.1023068258 0.0556524797
105299370.0 -0.8285729423 0.1589944049 -0.0001115271 0.000129234 0.000129215 4.72582e-05 0.1056975638 0.0513736062
110299340.0 -0.8276520142 0.1681297012 -5.56551e-05 3.41163e-05 -0.0001437743 0.0001508311 0.1083350976 0.0473623131
115299310.0 -0.8261524158 0.1769794338 7.48135e-05 4.78266e-05 -3.59287e-05 8.26393e-05 0.1106108168 0.0437306968
120299280.0 -0.8241088954 0.1867475239 -4.86639e-05 9.15195e-05 -6.51133e-05 4.634e-05 0.1132224251 0.0398979167
125299250.0 -0.8224283924 0.1957033771 0.0001217678 3.68913e-05 0.0001367353 -8.933e-06 0.1152547834 0.0362826003
130299220.0 -0.8213185747 0.204847215 0.0002209187 -0.000148534 0.0003131487 -0.0001097476 0.1171648653 0.0326725142
135299190.0 -0.8187930765 0.2140564433 -7.39433e-05 -0.0002155301 -2.61059e-05 5.3809e-06 0.1186245208 0.0289214141
140299160.0 -0.817204869 0.2230847889 -0.0001856968 0.0001802105 6.04459e-05 0.0001024919 0.1195097412 0.0257034488
145299130.0 -0.8151106971 0.2322419886 -4.15043e-05 0.0002459175 0.000232502 -3.68003e-05 0.120996074 0.022260826
150299100.0 -0.8116558759 0.2409730232 0.0001102721 6.26648e-05 -7.05829e-05 0.0001315788 0.1218915243 0.0191438826
155299070.0 -0.8102591344 0.2498797754 8.21077e-05 0.0001345186 3.89033e-05 -1.2313e-05 0.1226946666 0.0157864528
160299040.0 -0.8078351089 0.2595500094 0.0001413699 0.0002210295 -7.05915e-05 3.46967e-05 0.1230661563 0.0125804997
165299010.0 -0.8046300764 0.267095241 0.0001295763 8.20672e-05 7.19274e-05 -4.60361e-05 0.1240525608 0.0092788114
170298980.0 -0.8016371456 0.2760549038 0.0002886176 2.33751e-05 -2.29783e-05 3.78932e-05 0.1244461622 0.0063331325
175298950.0 -0.7985706297 0.2843056631 3.86524e-05 0.0001728661 6.06229e-05 0.0002243318 0.1245759458 0.0038345462
180298920.0 -0.7959626491 0.2932041401 -2.87125e-05 3.9551e-06 1.33401e-05 3.27151e-05 0.1250495393 0.0005613667
185298890.0 -0.7930228293 0.3018524177 0.0001119804 -7.61641e-05 0.0001198558 -6.69183e-05 0.1249356958 -0.0023870242
190298860.0 -0.7897400875 0.3110711196 -6.35237e-05 0.0002220498 0.0001024351 7.11137e-05 0.1249995599 -0.0050991102
195298830.0 -0.7867815852 0.3192798977 0.0001342139 0.0001327154 0.0001217339 0.0001561251 0.125147439 -0.0077033068
200298800.0 -0.7831437425 0.3278516251 8.72052e-05 0.0002153689 1.82098e-05 4.67957e-05 0.1250348657 -0.0104540765
205298770.0 -0.7792120222 0.3366595132 0.0001689759 -0.0001610431 0.0001534408 0.0002269958 0.1247407446 -0.0128958086
210298740.0 -0.7760945995 0.3448189402 0.000199566 0.0001323686 -5.62735e-05 2.64945e-05 0.1243938894 -0.0154433658
215298710.0 -0.7728717891 0.3538103345 0.0001622092 0.0001183002 0.0002421973 0.0002190903 0.1242463877 -0.0182514094
220298680.0 -0.7688214222 0.3604945472 8.4818e-06 0.0004122958 -7.76369e-05 4.28541e-05 0.1237740183 -0.0201844243
225298650.0 -0.7647178908 0.3696290267 0.0003315239 9.3965e-06 5.91365e-05 0.000119919 0.1233286891 -0.0227805572
230298620.0 -0.7609737325 0.3775464269 0.0001791591 0.0001292466 0.0001866835 0.0001473069 0.1228421095 -0.0251205874
235298590.0 -0.757422255 0.3857078305 4.41434e-05 0.0001833584 0.0002480323 0.0002889785 0.1225726338 -0.0269894924
240298560.0 -0.7527091893 0.393714567 2.17071e-05 0.0001708551 0.0001188146 1.04961e-05 0.1220944782 -0.0296641293
245298530.0 -0.7487105981 0.4015816397 8.6973e-05 0.0001211584 -8.80471e-05 0.0001167673 0.1210100241 -0.0317381149
250298500.0 -0.7446275352 0.409578854 0.0001745151 0.0001915416 7.7818e-05 0.0002446536 0.1205308109 -0.0336107824
255298470.0 -0.7408909736 0.4171629593 0.0001098529 -5.0367e-06 -7.07547e-05 -0.0001312211 0.1200919561 -0.0359193154
260298440.0 -0.7361292077 0.4249610094 0.0002042814 7.74527e-05 0.0001126477 9.63273e-05 0.1191096342 -0.0380146606
265298410.0 -0.7319473981 0.4328601649 -8.37349e-05 2.2769e-05 1.03246e-05 0.0001611449 0.1189739188 -0.0400636092
270298380.0 -0.7271741218 0.4400682748 0.000162511 4.03356e-05 5.86824e-05 0.0001480522 0.1180025817 -0.0418055377
275298350.0 -0.723345623 0.4479079425 -0.0001062566 0.000262556 0.0001293391 0.0002791705 0.1175334217 -0.0438646925
280298320.0 -0.7184209479 0.4558797393 0.0001872749 5.76272e-05 7.83785e-05 0.0001888224 0.1163734967 -0.0457812421
285298290.0 -0.7133092403 0.4634897109 0.0002414727 -0.0001420466 -1.13455e-05 -4.06323e-05 0.1157748838 -0.0473495657
290298260.0 -0.7089092447 0.4710458698 0.0002109788 0.0001647373 0.0001819769 0.000141738 0.1145455917 -0.048995038
295298230.0 -0.7040812813 0.4781491926 -2.97434e-05 9.07226e-05 0.0002416381 8.91418e-05 0.1138951775 -0.0512296801
300298200.0 -0.6993048821 0.4853442187 5.88936e-05 0.0001420891 0.0001049974 -4.0092e-05 0.1132646826 -0.0527867535
305298170.0 -0.6942199978 0.4924526083 0.0002214721 0.0001310743 8.59029e-05 0.0001514432 0.1123233972 -0.0544844869
310298140.0 -0.6887788182 0.4992935776 0.0001824567 -3.80819e-05 0.0001358251 0.0003360944 0.1115650073 -0.0563963904
315298110.0 -0.6844345753 0.5069208632 -9.62211e-05 1.0404e-05 6.97058e-05 0.0001747616 0.1108508932 -0.0582027355
320298080.0 -0.6789889127 0.5144034229 3.15246e-05 0.0001487019 5.69573e-05 0.0001012311 0.1093879447 -0.0597706383
325298050.0 -0.6737906611 0.5203361813 1.08025e-05 -5.79003e-05 0.0001397948 0.0002536169 0.1087725168 -0.0618057657
330298020.0 -0.6680542067 0.5279410034 7.046e-06 1.23845e-05 0.0001780028 8.21495e-05 0.1073567229 -0.0636260511
335297990.0 -0.6627316786 0.5349073914 0.0003058989 0.0001382464 0.0001792758 0.0001123158 0.1061966883 -0.0651862108
340297960.0 -0.6576878787 0.5418097487 0.0003469335 0.000211086 0.0003121071 0.0002145357 0.1051496638 -0.0665517034
345297930.0 -0.652166497 0.5479611145 0.0002486365 0.0002967412 0.0002777794 0.0001715878 0.1036168124 -0.0680694815
350297900.0 -0.6462120929 0.5550700319 0.0001055024 0.0001409236 4.51693e-05 -7.85949e-05 0.1021904478 -0.0693504791
355297870.0 -0.6410029598 0.5611514131 2.8552e-05 0.0001644203 0.0003287902 0.0002157503 0.1012532538 -0.0707507132
360297840.0 -0.6346421057 0.5680962499 0.0002591017 -5.13339e-05 4.95701e-05 8.63244e-05 0.1000313918 -0.0720157721
365297810.0 -0.6291905494 0.574695229 -7.05825e-05 3.56828e-05 0.0001728703 0.0002869594 0.09863552 -0.0734842375
370297780.0 -0.6230139207 0.5806794272 0.0002453266 0.0001973157 0.000218416 0.0001267415 0.0974350675 -0.0745571102
375297750.0 -0.6172966767 0.5869203606 0.0001374023 -4.86318e-05 0.0001394204 -0.0001428734 0.0961088087 -0.0759036148
380297720.0 -0.6124680418 0.5933188173 0.0003140413 0.0002612928 0.0003054136 0.0002074901 0.0950881597 -0.0768754024
385297690.0 -0.6059776989 0.5995152104 0.0002576341 -0.0001409535 0.0002664018 3.56833e-05 0.0937841367 -0.0780075314
390297660.0 -0.5987294536 0.6061926578 0.0001355642 0.0001957394 0.0002702975 5.86942e-05 0.0926156364 -0.0791671269
395297630.0 -0.5928574477 0.6116863001 -4.68501e-05 2.81248e-05 0.0001929146 9.80107e-05 0.0913996408 -0.0805640477
400297600.0 -0.5870999739 0.6183384045 0.0001139108 0.0003121623 0.0002449227 -6.6869e-06 0.0901889578 -0.0816064737
405297570.0 -0.5806141455 0.6232602696 5.42357e-05 0.0001116998 0.0002726309 0.0001843605 0.0889131364 -0.0826990441
410297540.0 -0.5738566901 0.6297545334 0.0002341015 0.0002934437 0.0002597715 4.8267e-05 0.0875884773 -0.0833139441
415297510.0 -0.5678562092 0.6351641232 0.0002526237 2.66689e-05 0.0003170324 -2.0845e-06 0.0862655619 -0.0845551792
420297480.0 -0.561060975 0.6410918879 0.0001013584 0.0001196585 0.0002137253 -8.69588e-05 0.0855334674 -0.0854885062
425297450.0 -0.5539303826 0.646577194 0.0001312401 4.16798e-05 0.0003076309 0.0001090316 0.0837481174 -0.0870546852
430297420.0 -0.5482067945 0.65173808 0.0002585451 0.0001801102 0.0004085734 6.59561e-05 0.082477651 -0.0878679029
435297390.0 -0.540740885 0.6574630399 0.000290745 7.83298e-05 0.0002223585 -2.2393e-06 0.080837762 -0.0886216158
440297360.0 -0.5338127504 0.6632487656 0.0003867038 4.58635e-05 0.0002928736 -1.80599e-05 0.0800189546 -0.0895457319
445297330.0 -0.5271334206 0.6681132967 1.62161e-05 -7.33638e-05 0.0004377468 9.97842e-05 0.0786553075 -0.0903075018
450297300.0 -0.5201488488 0.6731810764 0.0001246675 0.0001096215 0.0003761887 0.0001681461 0.0775026233 -0.0913594983
455297270.0 -0.5136000565 0.6783821652 0.0003189629 3.15259e-05 0.0003406684 0.00022701 0.0759314334 -0.0922263646
460297240.0 -0.5057603933 0.6842348154 0.0004277462 0.0003605454 0.0002269778 0.0001678914 0.074793553 -0.0931243788
465297210.0 -0.4990270035 0.6891778287 0.0002566337 0.0002003485 0.0001212238 1.75528e-05 0.0733626138 -0.093726945
470297180.0 -0.492168218 0.6937196426 0.0001174256 0.000214149 0.0002857757 0.0001523375 0.0719856739 -0.0947983115
475297150.0 -0.4843277776 0.6987973659 0.0003945669 0.0001249073 0.0002070951 8.47411e-05 0.0707477787 -0.0955667896
480297120.0 -0.4768501336 0.7040850622 0.0001712347 -6.88581e-05 0.0002616893 -2.81541e-05 0.0689705608 -0.096135106
485297090.0 -0.4698529004 0.7085321429 0.000231708 4.63132e-05 0.0001831544 0.000132338 0.0678043659 -0.0969645352
490297060.0 -0.4625397657 0.7139972482 0.0001576328 0.0001824872 9.41146e-05 0.0002524958 0.0663540653 -0.0979748919
495297030.0 -0.4551323106 0.7180890164 0.0003758266 7.33257e-05 -5.97544e-05 0.0001256936 0.0651622897 -0.0985059851
500297000.0 -0.4472566025 0.7217806319 0.0003028261 0.0001112694 0.0005183258 0.0002379158 0.0637905344 -0.0990153953
505296970.0 -0.4394317079 0.7268964097 4.04497e-05 0.0002866044 0.0002748331 -1.97195e-05 0.0623254464 -0.0998456708
510296940.0 -0.4320528209 0.731796759 0.0001930722 9.23989e-05 0.0003105339 5.18058e-05 0.0611684683 -0.1003547997
515296910.0 -0.4244229636 0.7359479238 0.0002233692 -8.52145e-05 0.0005087351 6.37435e-05 0.0592645876 -0.101198165
520296880.0 -0.4161103227 0.7395883596 0.0004113704 0.0001140862 0.0003202196 1.15167e-05 0.058477419 -0.1014533608
525296850.0 -0.4085795785 0.7438067185 0.0004029281 9.3979e-05 0.0005103358 0.000129771 0.0566095609 -0.1023385373
530296820.0 -0.4013667785 0.7477917022 0.000256731 0.0003198981 0.0003846624 0.0001040222 0.0553231184 -0.1027584458
535296790.0 -0.3925638894 0.7519417254 0.0001645022 7.38648e-05 0.0002864486 5.92005e-05 0.0544518251 -0.1030707267
540296760.0 -0.3850546189 0.7559079062 0.0002504787 0.0001372192 0.0002816539 8.0359e-06 0.0522868556 -0.1038365416
545296730.0 -0.37762711 0.7604244527 0.0001454517 0.0001928161 0.0003965192 -2.1806e-05 0.0511361261 -0.1041886258
550296700.0 -0.369350109 0.7633731491 0.0002956632 -8.48175e-05 0.0002285032 4.50098e-05 0.0496937106 -0.1049135778
555296670.0 -0.3614799442 0.7670395947 0.0002334771 2.79842e-05 0.0003607143 -2.0174e-05 0.048015649 -0.105486455
560296640.0 -0.3533629059 0.7709065408 0.0003889018 0.0003825334 0.0004098585 -6.52826e-05 0.0466175624 -0.1058869444
565296610.0 -0.3455372045 0.7745843905 0.0001074396 0.0001466175 0.0004829376 3.22413e-05 0.0454217789 -0.1060792422
570296580.0 -0.3370809649 0.7777895457 0.0005045166 5.35576e-05 0.0001355918 0.0001086195 0.04383249 -0.1066101688
575296550.0 -0.3281443402 0.7809503552 0.0003635053 -4.50412e-05 0.0003163582 7.24746e-05 0.0422250366 -0.1071554515
580296520.0 -0.3213351225 0.78450163 0.0003643625 -7.55298e-05 0.000332674 2.83502e-05 0.040972908 -0.1073008011
585296490.0 -0.312565599 0.7878209883 0.000338572 7.84311e-05 0.0004306386 1.41459e-05 0.0397192933 -0.1076513129
590296460.0 -0.303897698 0.7910502092 0.0003366009 5.72207e-05 0.0005142267 -3.0745e-05 0.0378563197 -0.1079613892
595296430.0 -0.2957763154 0.7934772341 0.0003455877 0.0002043192 0.0003509826 0.0001710833 0.0367534366 -0.1082450765
600296400.0 -0.2880606594 0.7969636389 0.0003160175 -0.0001556725 0.0003193258 -0.0001046931 0.0351131324 -0.1086491387
605296370.0 -0.2795417235 0.7996301275 0.0002361263 2.3803e-05 0.0005448346 0.0002189783 0.0338424889 -0.1086931191
610296340.0 -0.2715327753 0.8025130292 0.0003744304 -0.0001110413 0.0003467578 7.74419e-05 0.0321728891 -0.1087302868
615296310.0 -0.2632918736 0.8055573794 0.0002436353 -9.94968e-05 0.0002810708 -0.0002131985 0.0309125928 -0.1092215649
620296280.0 -0.2556050381 0.8080106169 0.0002456955 4.30691e-05 0.0004501937 -8.17809e-05 0.0295482643 -0.1090216755
625296250.0 -0.2475390927 0.810189662 0.0001931832 0.0001309631 0.0003333525 -9.0831e-06 0.0278538087 -0.1094543253
630296220.0 -0.2384521863 0.8133393602 0.0002307494 4.18361e-05 0.0003501579 5.68646e-05 0.0266168836 -0.1096128373
635296190.0 -0.2298301584 0.8155894342 0.0002965742 -7.797e-05 0.0003366647 -2.77481e-05 0.0251184925 -0.1097906261
640296160.0 -0.2219583683 0.8178873441 0.0002004924 -0.000108344 0.0004731361 -4.60183e-05 0.0235616589 -0.1098217714
645296130.0 -0.2138416432 0.8201165545 0.0003202904 1.47122e-05 0.0004327982 -3.56875e-05 0.0219914424 -0.109746948
650296100.0 -0.2050638588 0.8214361534 0.0004437685 0.0001207265 0.0004757408 -9.50941e-05 0.0204967169 -0.1100449815
655296070.0 -0.1973788437 0.8242524993 0.0003138904 6.45591e-05 0.0004345814 -0.0002495562 0.0190391667 -0.1099769973
660296040.0 -0.1892546962 0.8263606519 0.0001638546 -4.9891e-05 0.0003611708 -2.41512e-05 0.0177439413 -0.1103275562
665296010.0 -0.1811541934 0.8283914692 0.0002854648 5.29287e-05 0.0002228075 9.76754e-05 0.016365072 -0.1101808576
670295980.0 -0.1726709329 0.8307940547 0.0003950293 -8.5553e-06 0.0005508765 -6.84156e-05 0.0146701903 -0.1102002369
675295950.0 -0.1639522167 0.8320725056 0.0003613207 7.8042e-06 0.0003915738 0.0001249841 0.0132554894 -0.1102044178
680295920.0 -0.1564762556 0.8335350722 0.0001267803 -0.0001151479 0.0004909452 -1.89389e-05 0.0119488013 -0.1099952933
685295890.0 -0.147686864 0.8353188244 0.0001451788 -2.27688e-05 0.0005193905 1.02958e-05 0.0104254881 -0.1098044478
690295860.0 -0.1393976292 0.8369530047 0.0006588129 0.0002089276 0.0001734804 -0.0001579094 0.0088288008 -0.1098280083
695295830.0 -0.1309875561 0.8384932761 0.0004747921 -0.0001469646 0.0002138753 0.000101036 0.0074740099 -0.1097088091
700295800.0 -0.1225442617 0.83959259 0.0004796906 -7.0122e-05 0.0003179755 -0.0001359267 0.0063255726 -0.1098362095
705295770.0 -0.1145756422 0.8413776484 0.0004329183 1.95773e-05 0.000277669 0.0001063091 0.0047157833 -0.109415416
710295740.0 -0.1072170924 0.841363817 0.0002231961 2.0484e-05 0.0003705123 -5.44419e-05 0.0034386339 -0.1092013744
715295710.0 -0.0978025241 0.8437683755 0.0001781947 -0.0001432749 0.0002243541 -8.82533e-05 0.0018386318 -0.1091226428
720295680.0 -0.0885310649 0.8447970998 0.0002535299 -0.0001035636 0.0003842717 -8.24236e-05 0.0004600474 -0.1090060953
725295650.0 -0.0822385712 0.8459034385 0.0002854568 -6.70058e-05 0.0005279474 -0.0002180578 -0.0009776573 -0.1087228068
730295620.0 -0.0736468489 0.8461210565 0.0001308968 -2.79688e-05 0.0003791755 -6.73477e-05 -0.0025268516 -0.1083966667
735295590.0 -0.066141351 0.8473099098 0.0003543044 -1.62523e-05 0.0002190222 0.0001156407 -0.0039262295 -0.1084789783
740295560.0 -0.0574425262 0.847758951 0.0002816076 -0.0001199597 0.000448885 -0.0001569937 -0.0053294812 -0.10787287
745295530.0 -0.0491099343 0.848916129 0.0006395534 -0.000293532 0.0004390689 -0.0002914931 -0.0069156412 -0.1074217935
750295500.0 -0.0409743736 0.8489156236 0.0005956273 -4.36635e-05 0.0003443515 -6.22616e-05 -0.0079312435 -0.107236445
755295470.0 -0.0324868159 0.8495528337 0.0007669505 -0.0001960024 0.0004715602 -4.78013e-05 -0.0093761372 -0.1065535203
760295440.0 -0.0241603832 0.8508477511 0.0003328458 -0.0001789745 0.0003648145 -0.0001109371 -0.0106986959 -0.1068324191
765295410.0 -0.0160964944 0.8502585001 0.0004471156 2.29208e-05 0.0002723945 9.59909e-05 -0.0120204272 -0.1062270348
770295380.0 -0.0084829895 0.8509804675 0.000375372 -4.33952e-05 0.0004765017 -0.0003681738 -0.0135652549 -0.1060610199
775295350.0 -0.0002690975 0.851363983 0.0002832959 -9.16515e-05 0.0003001209 -1.48591e-05 -0.0148175371 -0.1058028405
780295320.0 0.0088160944 0.8511631783 0.0002607283 -5.59871e-05 0.0003163835 -0.0003220217 -0.0161499478 -0.1053022475
785295290.0 0.0167937585 0.8507141318 0.0002448548 -0.0002653999 0.000336257 -9.96054e-05 -0.0178596244 -0.1044751672
790295260.0 0.0249281308 0.8509029995 0.0004378622 -6.95409e-05 0.0006314185 -0.0001790792 -0.0189806384 -0.1041894188
795295230.0 0.0328629964 0.850155678 0.0004444919 -0.0001266577 0.0002520023 -3.83931e-05 -0.0204707203 -0.104311431
800295200.0 0.0408410469 0.8506452233 0.0003651841 -0.0001238228 0.0003806541 -0.0002112243 -0.0215845368 -0.1033721578
805295170.0 0.0489221113 0.8509619554 0.0003408225 -0.0001346361 0.0004290239 2.12117e-05 -0.0225821377 -0.1031617117
810295140.0 0.0580946277 0.8504340638 0.0005246437 -0.0003165157 0.0004318967 -0.000205315 -0.0240392786 -0.1024155664
815295110.0 0.0652191077 0.8492492909 0.0005223008 -6.98852e-05 0.0005247312 -0.0001953411 -0.0257320284 -0.1017626996
820295080.0 0.0737028155 0.8485857733 0.000546272 -8.0665e-06 0.0004504122 -0.0001397855 -0.0270736327 -0.1008993695
825295050.0 0.0819082005 0.848261124 0.0004780409 4.80492e-05 0.0002793818 -4.54225e-05 -0.0281726871 -0.1007346143
830295020.0 0.0911291361 0.8472745228 0.0002749226 -0.0002072693 0.0006486541 -0.0002452304 -0.0296785257 -0.1002061786
835294990.0 0.0976186484 0.8465794193 0.0004092175 -0.0001064846 0.0006324233 -0.0001124592 -0.0305629654 -0.0991815912
840294960.0 0.1063404436 0.8453003762 0.0004254543 -0.000157097 0.0004008082 -6.74261e-05 -0.0319043654 -0.0987873549
845294930.0 0.1144133791 0.8443603083 0.0004239497 -0.0003906899 0.0003782264 -0.0002750771 -0.0335034145 -0.0981320276
