!Created with skrf (http://scikit-rf.org).
# Hz S RI R 50.0 
!freq ReS11 ImS11 ReS21 ImS21 ReS12 ImS12 ReS22 ImS22
300000.0 -0.209305239 -0.0950712645 -0.0003972382 -4.4755e-05 0.0001581122 0.0014337563 -0.7652988366 -0.181932791
5299970.0 -0.2153176808 0.0072719122 4.1241e-06 -2.07913e-05 2.46116e-05 -6.63017e-05 -0.7850141973 -0.0092664627
10299940.0 -0.2118111323 0.0203306839 -1.7267e-06 -0.000158179 -5.90915e-05 0.0002373643 -0.7879794733 -0.0056075178
15299910.0 -0.2062829245 0.0304999347 -9.35045e-05 -1.747e-05 3.91524e-05 2.64473e-05 -0.7932387066 -0.0025548329
20299880.0 -0.2004791 0.0383266601 -0.0001266851 -8.21129e-05 8.34203e-05 -7.3727e-05 -0.7998223486 0.0010584858
25299850.0 -0.194050865 0.04480859 5.84352e-05 2.85474e-05 8.59919e-05 0.0001786927 -0.8062474018 0.0080973718
30299820.0 -0.1877783088 0.0499424131 0.0001713397 2.00287e-05 8.85651e-05 2.03522e-05 -0.8122718211 0.0161495806
35299790.0 -0.1813211478 0.0533626976 -5.67617e-05 -0.0002428525 0.0001251967 0.0001648124 -0.8173953448 0.0247329834
40299760.0 -0.1753424942 0.0561087633 0.0001212677 0.000357147 -0.0001419723 -0.0002289114 -0.8214713366 0.0341074585
45299730.0 -0.1701242328 0.0580715333 -0.0001133349 -1.77361e-05 6.98344e-05 0.0002683457 -0.8243818517 0.0438103062
50299700.0 -0.1644512551 0.0595003586 7.71563e-05 7.56553e-05 -4.29537e-05 -4.2079e-06 -0.826692305 0.0538655086
55299670.0 -0.1598583513 0.0605374598 0.0001421149 -2.42352e-05 3.74296e-05 -0.0003253263 -0.8289013999 0.0640862001
60299640.0 -0.15528235 0.0611285278 0.0001971817 0.0002245616 0.0002426039 -2.6096e-05 -0.8300274745 0.0742246323
65299610.0 -0.1510808319 0.0615134918 0.0001105118 0.0001333475 0.0002493138 0.0002354396 -0.8304444866 0.0838194936
70299580.0 -0.147847203 0.061497725 1.88969e-05 2.9559e-05 1.84836e-05 3.60707e-05 -0.8310829037 0.093416569
75299550.0 -0.1448014232 0.0612119352 0.0002090619 8.37449e-05 -6.37626e-05 7.46259e-05 -0.8310954719 0.1042223266
80299520.0 -0.1418353257 0.0612890144 -1.96955e-05 2.99129e-05 -0.000242087 9.24904e-05 -0.8308496417 0.1136169085
85299490.0 -0.1389322563 0.0609143288 -0.0002430996 0.0002044813 -0.0001959161 0.0001401205 -0.8302883324 0.1230952452
90299460.0 -0.1365002888 0.0610592327 1.967e-07 0.0002327875 1.98642e-05 2.48382e-05 -0.8289222832 0.1323382137
95299430.0 -0.1344685002 0.0606064115 -0.0002527524 2.99208e-05 3.7043e-05 -0.0001066194 -0.8284467206 0.1427165147
100299400.0 -0.1320813597 0.0607490374 4.2639e-06 0.000234853 -0.0002614734 -0.0001091693 -0.8275365742 0.1521877045
105299370.0 -0.1303204461 0.0602542418 -8.2347e-05 8.38314e-05 -0.0001595306 0.0001182532 -0.8260071381 0.1608474173
110299340.0 -0.1285409338 0.0601585823 4.14943e-05 -5.64768e-05 -0.0002760264 5.57091e-05 -0.8247672873 0.1699855525
115299310.0 -0.1274305986 0.0599823675 0.0001308161 0.000204264 0.0001416576 -8.2979e-06 -0.8234168715 0.178899859
120299280.0 -0.1260925881 0.0600610504 -0.0001124971 0.0001202455 0.0002074183 0.000111434 -0.8215850016 0.1880815961
125299250.0 -0.1248892247 0.0598379592 -0.0001709729 0.0001617874 8.31823e-05 -0.0001808739 -0.8202960954 0.1969078633
130299220.0 -0.1239448226 0.0598388604 0.0002644445 0.0003637491 -5.98745e-05 4.67639e-05 -0.8178396431 0.2058686925
135299190.0 -0.1228559173 0.0602248225 -8.78086e-05 -8.81486e-05 0.0001373145 2.70988e-05 -0.8157488964 0.2151508896
140299160.0 -0.1219233126 0.060375524 7.71543e-05 0.0001514046 0.0002286677 1.57271e-05 -0.8142477297 0.2231891638
145299130.0 -0.1208376279 0.0604577737 4.32235e-05 0.0002335907 1.40337e-05 2.16681e-05 -0.8120718489 0.2326372755
150299100.0 -0.1199757544 0.0603526409 1.82241e-05 0.0001220675 -3.28679e-05 0.0001163626 -0.8098545844 0.2416519024
155299070.0 -0.119415855 0.0611189647 -7.52172e-05 1.01264e-05 1.85437e-05 6.95484e-05 -0.8071194954 0.2505390735
160299040.0 -0.1188367765 0.0616660899 5.18897e-05 -0.0002048323 -0.0001742218 0.0001155453 -0.8045701349 0.2588650628
165299010.0 -0.1178781186 0.0621295406 9.59322e-05 -6.34521e-05 -3.6545e-05 -9.5564e-05 -0.8021347833 0.2671739772
170298980.0 -0.1176388688 0.0621856937 4.40929e-05 -5.59292e-05 0.0002303695 9.80565e-05 -0.7994111387 0.2754184819
175298950.0 -0.1166826448 0.0628288911 0.0001548902 -1.85086e-05 2.23273e-05 0.0001254149 -0.7968257612 0.2845659671
180298920.0 -0.1163158742 0.0632337481 0.0002312466 -6.33849e-05 0.0001952372 7.24324e-05 -0.793790341 0.2933511572
185298890.0 -0.1157168371 0.063613845 8.66913e-05 -1.93031e-05 0.0001468631 7.45516e-05 -0.7907642052 0.3016101926
190298860.0 -0.1151475826 0.0646426181 2.07336e-05 0.0001554574 -0.0001858879 -0.0002128346 -0.7874961417 0.3101102111
195298830.0 -0.1143677491 0.0650726971 8.01411e-05 -2.40699e-05 0.0001750254 7.74475e-05 -0.7842642021 0.3180524473
200298800.0 -0.1138475071 0.0654902581 -4.1527e-06 -4.93573e-05 -1.32726e-05 3.08439e-05 -0.7810849603 0.3269440671
205298770.0 -0.1140372276 0.0662626595 -0.000102235 0.00010806 7.92277e-05 -7.50418e-05 -0.778303748 0.3354387615
210298740.0 -0.1131319148 0.067170093 -3.8608e-06 0.0002696143 0.0001390045 0.0001398114 -0.7742129357 0.3434163636
215298710.0 -0.1127860754 0.0680355864 -0.000181662 0.00019742 -0.0001221843 7.12284e-05 -0.7705308537 0.3509043008
220298680.0 -0.1118586228 0.0687812344 -3.26911e-05 0.0002178818 -0.0001631379 -0.0001936238 -0.7665420517 0.3594382083
225298650.0 -0.1116824257 0.0695693188 -9.06225e-05 1.02832e-05 0.0001572376 0.0001482143 -0.7631928306 0.3680238101
230298620.0 -0.1113372491 0.0703312715 8.15103e-05 -3.1587e-05 1.82445e-05 -8.09068e-05 -0.7590882148 0.375628338
235298590.0 -0.1107069434 0.0714147001 0.0001304107 4.16736e-05 3.48357e-05 -0.0001298376 -0.7552430017 0.3832315501
240298560.0 -0.1104550614 0.0720240483 -7.2409e-06 7.92928e-05 -5.28241e-05 0.0001870952 -0.751476776 0.3909971926
245298530.0 -0.1098568722 0.0726799492 9.75322e-05 1.45051e-05 -0.000171038 -8.18906e-05 -0.7471747638 0.3994808001
250298500.0 -0.1096067786 0.073742452 0.000291415 0.0001644983 0.0001982158 6.86404e-05 -0.742755167 0.4072661012
255298470.0 -0.1091709009 0.0749754377 8.65028e-05 -0.00012817 0.0001629054 0.0001760988 -0.7386223212 0.4145284708
260298440.0 -0.108681976 0.0753837019 -2.77025e-05 3.69978e-05 -3.3123e-06 0.0001735977 -0.7343096971 0.4215338705
265298410.0 -0.1080758256 0.0764642204 0.0001896016 -2.71964e-05 7.42533e-05 -2.63306e-05 -0.7299936984 0.4301894844
270298380.0 -0.1076184285 0.0774067863 4.31903e-05 0.0001227748 0.0002015444 0.0002098512 -0.7252068671 0.437778507
275298350.0 -0.1072204852 0.0783990683 9.50011e-05 0.0001171276 0.0001030138 0.0001335334 -0.7201416131 0.4457446424
280298320.0 -0.106746389 0.0792369863 0.0001359285 4.30434e-05 -8.68791e-05 -8.57658e-05 -0.7167734091 0.4525197081
285298290.0 -0.1060878024 0.0801925227 0.0002029891 0.0001440086 0.0001180641 4.24187e-05 -0.7123467131 0.4603363499
290298260.0 -0.105552943 0.0813869304 0.0002228633 0.0001524628 0.000126108 0.0001636742 -0.7063485748 0.4679884263
295298230.0 -0.1053043461 0.0821772524 3.14151e-05 0.0002152593 3.24339e-05 0.000147593 -0.7013926579 0.4749765444
300298200.0 -0.1047736038 0.0833999998 0.0001290493 8.54355e-05 -4.99718e-05 2.655e-07 -0.6963820792 0.4825037105
305298170.0 -0.1040468565 0.0840544963 7.59858e-05 0.0002449301 -0.0001048904 -4.06082e-05 -0.691246729 0.4896622842
310298140.0 -0.103539765 0.0844915793 0.0001144379 0.0002552184 8.68027e-05 0.000169631 -0.6861495192 0.4970011082
315298110.0 -0.1031270984 0.0857800948 0.0001110939 0.0002226613 0.0002751132 0.0001095116 -0.6816790975 0.5038435777
320298080.0 -0.1026899151 0.0865903835 7.20001e-05 1.62198e-05 0.0002957457 0.0001389725 -0.6762577408 0.5102562638
325298050.0 -0.102525292 0.0868004442 0.0001413448 0.0001191533 6.24001e-05 0.000175796 -0.6702441459 0.5175109397
330298020.0 -0.1019588303 0.0884925306 0.0001958182 -2.8877e-05 0.0001077688 9.4634e-05 -0.6648427521 0.5246020127
335297990.0 -0.1015961249 0.0894950613 0.000202967 -7.43679e-05 0.0002144686 9.80651e-05 -0.6601516226 0.5316214603
340297960.0 -0.1012665764 0.0905176431 4.10926e-05 -0.0001401904 0.000237053 -2.99062e-05 -0.6541099118 0.5383500547
345297930.0 -0.100459513 0.0915675122 0.0002840716 -8.18555e-05 0.000240781 3.0855e-05 -0.6485936015 0.544596994
350297900.0 -0.09987115 0.092450423 0.0003342922 9.84208e-05 0.0002144858 0.0002965145 -0.6432176176 0.5509157416
355297870.0 -0.0993667927 0.0935146553 0.0003880962 0.0001542626 -7.86857e-05 -4.23746e-05 -0.6368819795 0.5582390563
360297840.0 -0.0986396311 0.0946224132 1.90804e-05 0.0001593477 0.000161191 0.0001572178 -0.6304608368 0.5651612622
365297810.0 -0.0979890942 0.095678189 -9.9195e-06 0.000238152 0.0001807957 0.000118999 -0.6254676534 0.5712527517
370297780.0 -0.0975002306 0.0964067932 0.0001671116 0.0002015147 -2.97466e-05 3.38791e-05 -0.6196752788 0.5778092333
375297750.0 -0.0968496221 0.0974258386 0.0002218674 -4.11416e-05 9.66898e-05 0.000173254 -0.6136264268 0.5835284523
380297720.0 -0.0959980724 0.0986329345 8.93084e-05 -3.63914e-05 0.0002102825 0.0002761849 -0.6067760423 0.5902073556
385297690.0 -0.0954964773 0.0994667001 0.0002324838 0.0002520139 0.0002458277 0.0001660304 -0.601133088 0.5963630675
390297660.0 -0.0943967769 0.1003706742 0.0001494398 0.0001003774 3.15287e-05 0.0001722447 -0.5945584442 0.6024878998
395297630.0 -0.0937627485 0.1015911388 0.0001844498 4.95938e-05 -9.80972e-05 -0.0001327884 -0.5882383667 0.6074677443
400297600.0 -0.0932230479 0.1025135772 4.57246e-05 -0.0001167227 0.0001657439 0.0001747172 -0.5826581459 0.614079132
405297570.0 -0.0926454283 0.1031590942 6.59196e-05 -0.0001138907 0.0002567364 0.0002877739 -0.5756520762 0.6200624158
410297540.0 -0.0911094275 0.1042786007 0.0002385088 7.38024e-05 0.0001537404 3.65518e-05 -0.5692813017 0.6262786346
415297510.0 -0.0909531742 0.10516184 0.0001499954 2.8062e-06 0.0001174589 8.6575e-05 -0.5623897568 0.6314756241
420297480.0 -0.0900181974 0.1058987231 -0.0001139753 -4.50995e-05 0.0001320079 -4.78862e-05 -0.5563655961 0.6377257017
425297450.0 -0.0889447778 0.1067569202 4.81823e-05 -1.93829e-05 0.0002392098 0.0001149692 -0.54975356 0.6427403159
430297420.0 -0.0885371472 0.1078121322 6.69723e-05 8.41857e-05 5.97997e-05 -2.57205e-05 -0.5430024264 0.6485953077
435297390.0 -0.0873305315 0.1087045034 0.0001752309 -2.29583e-05 0.0001643843 0.0001001546 -0.5366422114 0.6544450522
440297360.0 -0.086703741 0.1095495968 0.0001487015 3.2293e-05 0.0001373727 0.00018512 -0.5306113297 0.6594985767
445297330.0 -0.0856499007 0.1102700247 0.0002631883 8.58444e-05 0.0003162121 0.0001076186 -0.5228343609 0.6645669073
450297300.0 -0.0845640952 0.1111962547 2.47619e-05 0.0001378985 0.0001384089 -3.3187e-05 -0.5155685113 0.6696543772
455297270.0 -0.0838393692 0.1119790017 0.0002177008 0.0001155558 6.9834e-05 0.0001279525 -0.5087825805 0.6751542537
460297240.0 -0.0828094382 0.1129803293 0.0003465308 0.0002289762 0.0001767362 4.42915e-05 -0.5024048608 0.6800019686
465297210.0 -0.0816251219 0.1138630238 0.0001196327 0.0001304655 5.79731e-05 0.0002501364 -0.494906562 0.6863349567
470297180.0 -0.0809456109 0.1150657256 4.59225e-05 0.0001213954 4.65002e-05 -4.3209e-06 -0.4880063892 0.6900384031
475297150.0 -0.0799092662 0.1158096555 0.0001189158 0.000120928 0.0002028416 7.46154e-05 -0.4817008913 0.6952376919
480297120.0 -0.0785927116 0.1165837362 0.0001103894 -5.85423e-05 1.49037e-05 0.0001292777 -0.4743653653 0.7002543301
485297090.0 -0.0777274021 0.1176098535 0.0002299788 0.0001456634 0.0001973831 -4.7213e-05 -0.4672750912 0.7047356496
490297060.0 -0.0760797309 0.1182900116 -2.81123e-05 8.89794e-05 -2.95895e-05 -4.49408e-05 -0.4595599821 0.7090892346
495297030.0 -0.0752897454 0.1190180485 0.000161614 2.52799e-05 0.0002003054 0.0002003782 -0.4526642543 0.7136427456
500297000.0 -0.0745688997 0.1201582745 1.41541e-05 0.000151144 0.0003050321 0.0001282132 -0.4450146208 0.7184489299
505296970.0 -0.0728570812 0.1205386508 0.0002630068 -5.78017e-05 0.0001701464 -1.20407e-05 -0.437682276 0.7222060568
510296940.0 -0.0718384336 0.1218771879 0.0003443682 0.0001046443 0.000143284 -6.447e-06 -0.4302657524 0.7272625161
515296910.0 -0.070819748 0.1226823585 0.0002599808 2.88753e-05 0.0002208175 0.0002108823 -0.4233510541 0.7309343477
520296880.0 -0.0695165218 0.1233574405 0.0002566239 0.000413279 8.38041e-05 -0.0001580348 -0.4152361625 0.735893293
525296850.0 -0.0685084676 0.1237938277 0.0002288334 0.0001283922 0.0003194607 -7.716e-06 -0.4083338809 0.7395235247
530296820.0 -0.0674017388 0.125098968 0.0002790138 2.9985e-06 0.0002004318 0.0001095633 -0.4003413251 0.7433019419
535296790.0 -0.0658445872 0.1257667187 2.65707e-05 0.0001600903 -6.93937e-05 0.0001293132 -0.3926682541 0.7480783313
540296760.0 -0.064737193 0.1263871606 0.0002687635 4.64338e-05 0.0003435103 -9.9234e-05 -0.3850534307 0.7516605224
545296730.0 -0.0636153872 0.127935672 -9.82286e-05 -0.0001903846 0.0003700127 -0.0001044232 -0.3778022056 0.7555428296
550296700.0 -0.0623735007 0.1283636609 7.69067e-05 -8.19361e-05 8.80627e-05 0.0001504252 -0.3704595958 0.7590511499
555296670.0 -0.0611463848 0.1288896791 1.3233e-06 0.0001609119 0.0001973038 0.0001475927 -0.3624902812 0.7623480565
560296640.0 -0.0596002364 0.1299456443 9.73141e-05 -2.50857e-05 8.9426e-05 5.28293e-05 -0.3546512344 0.7661435644
565296610.0 -0.0587035418 0.1306812496 0.0002970831 0.0002182701 0.0002316971 -8.15105e-05 -0.3463559498 0.7697046159
570296580.0 -0.0571924337 0.1315905756 0.0002698452 -0.0002119526 0.0002197714 0.000199484 -0.338931038 0.7727594152
575296550.0 -0.0558653581 0.1320312727 0.0002633794 5.3441e-05 0.0002100473 2.72644e-05 -0.3310390405 0.7763142983
580296520.0 -0.0548096643 0.1332698751 0.0002902887 -0.0001783464 0.0001641524 0.0002096294 -0.3234312912 0.7794186455
585296490.0 -0.0534085961 0.133986192 0.0001072225 0.0001305087 0.0003969149 7.15588e-05 -0.3154462296 0.7835682067
590296460.0 -0.0513982961 0.1346231573 9.9899e-06 0.0001363094 0.0001683935 -9.0135e-06 -0.3077705855 0.7861160982
595296430.0 -0.0506667909 0.1355941552 0.0003575915 -5.21071e-05 0.0001782449 2.71258e-05 -0.2998258975 0.788641239
600296400.0 -0.0493702895 0.1360689186 0.0001595835 0.0001219417 0.0001374635 0.0001198537 -0.2919377971 0.7914612204
605296370.0 -0.0479317357 0.1369728907 0.0001466547 0.0001066911 8.64858e-05 7.13287e-05 -0.2839371369 0.7947230304
610296340.0 -0.0464069757 0.1379145816 9.80778e-05 -3.40734e-05 0.0001845528 -3.2643e-06 -0.2765179882 0.7976786877
615296310.0 -0.0450883583 0.1385208854 0.0004338332 -0.0001734821 0.0002439293 4.86856e-05 -0.2676361025 0.8009486704
620296280.0 -0.0438917285 0.1395559868 0.000182059 4.59018e-05 0.0003225478 -0.0001369369 -0.2598276998 0.8032762487
625296250.0 -0.0429408698 0.1400156793 0.0002421777 0.0001150047 0.0003558832 -4.55249e-05 -0.2511593618 0.8047051634
630296220.0 -0.0411318782 0.1409421659 0.0001276117 -5.40471e-05 0.0001564994 8.09983e-05 -0.2433166622 0.8080192906
635296190.0 -0.0399462054 0.141622342 0.0001187668 -4.66188e-05 0.0002119827 -0.0001105402 -0.2359010091 0.8099124697
640296160.0 -0.0385718442 0.1420447238 0.000186285 -0.0001055986 0.0003528953 3.55503e-05 -0.2268068452 0.8124756555
645296130.0 -0.03715593 0.1426742212 0.0003654816 6.41144e-05 0.0001526229 -7.16107e-05 -0.2192784693 0.8143662377
650296100.0 -0.0359488821 0.1434399708 0.0003372692 6.30851e-05 0.0002874844 0.0001448982 -0.2107233918 0.8171115699
655296070.0 -0.0345430256 0.1442116158 -2.09155e-05 -2.18577e-05 0.0004642781 0.0002344907 -0.202936672 0.8191132572
660296040.0 -0.0331083834 0.1448216041 7.86835e-05 -0.0001198191 0.000391219 -5.05505e-05 -0.1938339518 0.8211650553
665296010.0 -0.0320360495 0.1455123938 0.0001854884 -0.0001009014 0.0002441236 -4.05678e-05 -0.1862489173 0.8225665086
670295980.0 -0.0304321383 0.1461177225 0.0002362337 0.0001629978 0.000465789 2.48752e-05 -0.1784182573 0.8246959293
675295950.0 -0.0292792054 0.1466500672 0.0001820125 -0.0002473788 0.0002841159 5.77515e-05 -0.1697401489 0.8267502516
680295920.0 -0.0282041338 0.1476591046 0.0002030745 -4.78136e-05 0.000333318 7.1032e-05 -0.1612083485 0.827722115
685295890.0 -0.0264426806 0.1482031572 0.0003689462 -7.251e-07 0.0002193267 -3.27372e-05 -0.1530018305 0.8299473471
690295860.0 -0.025388545 0.1484942706 0.0002451019 7.02539e-05 0.0001944232 -4.96354e-05 -0.1449528908 0.8312203537
695295830.0 -0.0238880016 0.1491688915 0.0001313163 0.0001844071 0.0002221477 0.0002264567 -0.1368723172 0.8329679422
700295800.0 -0.0226369234 0.1498907173 0.0003478933 2.36669e-05 0.0002294451 0.0001453753 -0.1282480163 0.8336534958
705295770.0 -0.0209853653 0.1504503965 0.000300032 -0.0002208858 0.0003450251 -4.35494e-05 -0.120687796 0.8354470304
710295740.0 -0.0198949171 0.1508177401 0.0004165358 7.08659e-05 0.0001957434 3.35166e-05 -0.1116440833 0.8362880571
715295710.0 -0.0182852872 0.1513131181 0.0003251998 0.0001840946 0.0002416337 -8.76348e-05 -0.1034133581 0.8364450228
720295680.0 -0.0168248435 0.1515809696 0.0002991747 0.0001752626 0.0002005132 -0.0002582648 -0.0946360811 0.8378809895
725295650.0 -0.0155521928 0.1524938556 0.0003902539 -0.0001084261 0.0001354424 -3.91834e-05 -0.0872629562 0.839157983
730295620.0 -0.0148603606 0.1528984603 0.0003548314 -6.88943e-05 0.0002339443 -4.54756e-05 -0.0784230738 0.8401707258
735295590.0 -0.0131976818 0.1534883227 0.0003245753 -0.0001143031 7.47266e-05 -0.0001334825 -0.0693898503 0.840147987
740295560.0 -0.0119762778 0.153623059 0.000137883 0.0002089536 0.0002716149 5.74589e-05 -0.0610877443 0.8414298507
745295530.0 -0.0104236209 0.1539448811 0.0002633733 -0.0001471439 0.0001000589 -5.1786e-06 -0.0535772535 0.8415798783
750295500.0 -0.0092068929 0.1547399345 0.0001850256 -4.43752e-05 0.0001519698 -7.41911e-05 -0.0450106416 0.8423001173
755295470.0 -0.0077679952 0.1549548872 -3.86676e-05 -4.22363e-05 0.0004175141 0.0001906732 -0.0365557508 0.8432923077
760295440.0 -0.0065868349 0.155465319 9.9052e-05 2.71051e-05 0.0002329458 2.2751e-05 -0.0276918668 0.842442392
765295410.0 -0.0050693097 0.1557073384 0.0003393731 -0.0001536451 3.55131e-05 -8.81355e-05 -0.0194117273 0.8431444983
770295380.0 -0.0039322222 0.1562372774 0.0002973042 -0.0002940244 0.0002708676 4.28501e-05 -0.0114911144 0.8437194595
775295350.0 -0.0024964715 0.1564632295 0.0002427507 -5.70084e-05 0.0003926098 -4.58192e-05 -0.0032692426 0.8433138178
780295320.0 -0.001095956 0.1570108051 0.0005074211 -0.0001477356 0.0002655924 -0.0001304018 0.005480114 0.8438695743
785295290.0 0.0004637888 0.1569604519 0.0002968785 -5.36184e-05 0.0002601192 5.35991e-05 0.0134616073 0.8435303272
790295260.0 0.001794645 0.1569914711 0.0002784025 -0.0002935599 0.0002289617 5.68243e-05 0.0219518799 0.8432747983
795295230.0 0.0028851261 0.1573679567 0.0001874363 1.91298e-05 0.0003933139 6.30352e-05 0.0300617664 0.8428630159
800295200.0 0.004080054 0.1576547671 0.0002589989 -6.3301e-05 0.0003543144 -1.34367e-05 0.0385471427 0.8421115747
805295170.0 0.0057748719 0.1579758701 0.000221255 -1.0114e-05 0.0002641175 -4.1643e-06 0.0475633536 0.8418337194
810295140.0 0.0070512629 0.1582317328 0.0002201914 -5.6039e-05 8.59998e-05 -0.0002107379 0.0560012601 0.8413049966
815295110.0 0.0082671996 0.1581561431 0.000337312 0.0001123011 0.0001935533 -0.0001648615 0.0631699448 0.8407220315
820295080.0 0.0096682932 0.1585631265 9.0908e-05 -9.1114e-05 0.0002526296 4.21762e-05 0.0713152753 0.8404864932
825295050.0 0.0107438062 0.158530295 0.0001982106 -0.000175336 0.0003139729 0.0001322829 0.0803878456 0.8393135822
830295020.0 0.0123658409 0.158540964 0.0002036891 -0.0002654878 0.0004048413 5.14938e-05 0.0878117972 0.8381526111
835294990.0 0.0134794215 0.1583702435 0.0001451788 -7.5096e-05 0.0001569893 -0.000218688 0.0967988434 0.8379705221
840294960.0 0.015272502 0.1586576989 0.000143156 -0.0001131498 9.28482e-05 -5.41604e-05 0.1056709083 0.8369805028
845294930.0 0.0164605759 0.1589768559 0.0001829523 -0.0002259807 3.97891e-05 -0.0002270486 0.1136438341 0.8357026057
850294900.0 0.0183824494 0.1585786745 0.0001247412 4.21681e-05 0.0005017557 2.12228e-05 0.1216132876 0.8345348744
