!Created with skrf (http://scikit-rf.org).
# Hz S RI R 50.0 
!freq ReS11 ImS11 ReS21 ImS21 ReS12 ImS12 ReS22 ImS22
300000.0 -0.2417960643 -0.0747651872 0.4739692843 0.0510831923 0.4688547502 0.050007447 -0.2430563256 -0.0896814275
5299970.0 -0.244085589 0.0075060287 0.4736194452 0.0049329564 0.4734768258 0.0050738993 -0.2443387111 0.0074505889
10299940.0 -0.2411189306 0.0190578486 0.4755551575 0.0060494875 0.4755785516 0.0063117793 -0.2411229138 0.0203247345
15299910.0 -0.2369123274 0.0280075433 0.4792576013 0.0078756764 0.4796438056 0.0077259941 -0.2366421092 0.0296583627
20299880.0 -0.2321783362 0.035548589 0.4839363229 0.0085287803 0.4838668061 0.0083120475 -0.2313424008 0.0371846799
25299850.0 -0.2270824481 0.0420429993 0.4890464842 0.0074767886 0.4891654366 0.0076872801 -0.2250935896 0.0437339609
30299820.0 -0.2216008293 0.0472391476 0.4944661781 0.0053242016 0.494153503 0.0052348384 -0.2192544891 0.0489846667
35299790.0 -0.2162642418 0.0516026686 0.4998808338 0.0021515342 0.5000755157 0.0021348884 -0.2136367216 0.0530930645
40299760.0 -0.2112145475 0.0550169882 0.5045465482 -0.0019665004 0.5051641258 -0.0017345219 -0.2084729304 0.0559720768
45299730.0 -0.2065890226 0.0577046424 0.5097523402 -0.0064598028 0.5100041497 -0.0064691641 -0.2032492985 0.0587829526
50299700.0 -0.2023295698 0.0600825777 0.514383435 -0.0120979322 0.5142088087 -0.0116361476 -0.1986012419 0.0604592223
55299670.0 -0.198414982 0.0617880329 0.5176779939 -0.0182446797 0.5178931369 -0.017887501 -0.194428805 0.0622675146
60299640.0 -0.1940874936 0.0633981826 0.5211384976 -0.0244114873 0.5216864917 -0.0241433102 -0.1904533181 0.0629243856
65299610.0 -0.1913292312 0.0646991444 0.5242695612 -0.0303099689 0.5245154731 -0.0305921666 -0.1871373213 0.0640286277
70299580.0 -0.1879618681 0.06624339 0.5267419996 -0.037319876 0.5261623495 -0.0369458064 -0.1835264996 0.064623125
75299550.0 -0.1851460917 0.0671110516 0.5283534104 -0.0440544491 0.5285890457 -0.0441445498 -0.1809011451 0.0653469435
80299520.0 -0.1823525776 0.0681084958 0.5305719202 -0.0511815353 0.5306801917 -0.0509174304 -0.178192946 0.0660718244
85299490.0 -0.1799066108 0.0688831186 0.5314403423 -0.0574074935 0.5322517478 -0.0575950949 -0.1762511984 0.0661997078
90299460.0 -0.1777223254 0.0697183652 0.5325451805 -0.0646180619 0.5330266839 -0.0646579225 -0.1737724756 0.0669261369
95299430.0 -0.1752794397 0.0702676537 0.5335070303 -0.0713705152 0.5336750976 -0.0717221125 -0.171313703 0.0674189033
100299400.0 -0.1737827382 0.0713080061 0.533849691 -0.078375973 0.5338047664 -0.0785575121 -0.1692725676 0.0674736045
105299370.0 -0.1719732539 0.0724155627 0.534225906 -0.0854567712 0.5348100639 -0.0854609995 -0.1677584604 0.0683477063
110299340.0 -0.1703241178 0.0732685124 0.5348603012 -0.0920483002 0.5346673762 -0.0917127377 -0.1664082122 0.0685961621
115299310.0 -0.1686805809 0.0741229819 0.5345684863 -0.0992365809 0.534410221 -0.0989560583 -0.1645353813 0.0691687973
120299280.0 -0.1671833833 0.0745675204 0.5342761194 -0.1061375336 0.5343423716 -0.105878502 -0.1634639767 0.0697317487
125299250.0 -0.1661342712 0.0755759151 0.5340096711 -0.1125654491 0.5342964118 -0.1123835485 -0.1625706824 0.069840532
130299220.0 -0.1648496061 0.0766721 0.5333276069 -0.1193583 0.5333611811 -0.1193680482 -0.1611260988 0.0707522272
135299190.0 -0.1637592231 0.0781221833 0.533005346 -0.1262991724 0.5327281186 -0.1256924245 -0.1599936118 0.0715608464
140299160.0 -0.1627903874 0.0789884576 0.5319589292 -0.1333649938 0.5319914725 -0.132724756 -0.159039104 0.0724982047
145299130.0 -0.1614960661 0.0797436908 0.5310102862 -0.1391413313 0.5311749393 -0.1392105399 -0.1580523714 0.0729210924
150299100.0 -0.1600284447 0.0812403613 0.5296548552 -0.1453797029 0.5299413507 -0.1451485062 -0.1569314025 0.0742578436
155299070.0 -0.1596029783 0.0818448975 0.5288727576 -0.152849267 0.5284919241 -0.1523751041 -0.1562293005 0.074765649
160299040.0 -0.1583469074 0.0833013728 0.5275339559 -0.158456361 0.5268737624 -0.1587407323 -0.1561226253 0.075749792
165299010.0 -0.157334872 0.0846551366 0.5260357045 -0.1655607384 0.5256711931 -0.1652886213 -0.154687217 0.0769419213
170298980.0 -0.1566469596 0.0856935742 0.524119538 -0.1717585442 0.5244830692 -0.1710414323 -0.1536400049 0.077393261
175298950.0 -0.1557559486 0.0869489812 0.523272646 -0.1775974992 0.5228196455 -0.1780308641 -0.1531805347 0.0786099988
180298920.0 -0.1547577848 0.088291673 0.520975619 -0.183991455 0.5206891962 -0.1838702522 -0.1525806398 0.0798061916
185298890.0 -0.1533567184 0.0895877496 0.5192254431 -0.1901594215 0.5189493052 -0.1903057221 -0.151380291 0.0808425694
190298860.0 -0.1528018296 0.0911010921 0.5175496395 -0.1968628944 0.5175204872 -0.1966809927 -0.1506819259 0.0817571849
195298830.0 -0.1517618202 0.092083417 0.514899313 -0.2024976454 0.5152838771 -0.2025059272 -0.1498252396 0.0829728539
200298800.0 -0.1507022318 0.0935565572 0.5131457467 -0.2088785823 0.5132842641 -0.209175909 -0.1496299797 0.0841713145
205298770.0 -0.149770878 0.0949848022 0.5105012718 -0.2148143302 0.5107765274 -0.2146433522 -0.1487523854 0.0844676746
210298740.0 -0.1487779988 0.0961951168 0.5083614185 -0.2203079269 0.5084991221 -0.2207129895 -0.1475922846 0.0866027597
215298710.0 -0.1483043453 0.0978125042 0.5065126804 -0.2266280438 0.506263897 -0.226929501 -0.1474304667 0.087401832
220298680.0 -0.1470918608 0.0987941169 0.5036207895 -0.2323456055 0.5040342776 -0.2324728353 -0.1469009242 0.0883344596
225298650.0 -0.1458841493 0.1003380518 0.5014179011 -0.2387317464 0.50156634 -0.2385898327 -0.1462192788 0.0894425544
230298620.0 -0.1452697968 0.1019309049 0.4987090622 -0.2440937185 0.4995330889 -0.2443371722 -0.1455892584 0.0905502446
235298590.0 -0.1443199273 0.1039475061 0.4962629776 -0.2502711752 0.4965826097 -0.2493924636 -0.1444467767 0.0921329875
240298560.0 -0.1428834621 0.1048713521 0.4936388237 -0.2557810091 0.4935614047 -0.2557237249 -0.1438765592 0.0935505505
245298530.0 -0.1420724449 0.1064116714 0.4912684057 -0.2615369843 0.4908794698 -0.2616528018 -0.1426203408 0.0942343799
250298500.0 -0.1406732854 0.1078315559 0.4872623104 -0.2671100555 0.4873866923 -0.2666530716 -0.1422380712 0.0956582282
255298470.0 -0.1399742366 0.1090457149 0.484374955 -0.272314005 0.4848526834 -0.2724003122 -0.1411136686 0.0966658205
260298440.0 -0.1393397296 0.1103641665 0.4819321709 -0.2784745243 0.4820278675 -0.2780473355 -0.1402970856 0.0982898686
265298410.0 -0.1375626463 0.1124952166 0.4790558701 -0.2837072259 0.4790152511 -0.2834287383 -0.1394836788 0.0997998388
270298380.0 -0.1365193298 0.1137890695 0.4758502247 -0.2893781856 0.4759768968 -0.2889528261 -0.1388542821 0.1007856615
275298350.0 -0.1351119693 0.1154077731 0.4724504478 -0.2945374425 0.4731302388 -0.2946556641 -0.1376365892 0.1020875281
280298320.0 -0.1341108868 0.1169943906 0.4697307014 -0.3000879613 0.4698280044 -0.2998619223 -0.1366255518 0.1032294247
285298290.0 -0.1329215499 0.1183290043 0.4664525328 -0.3051748004 0.4665604639 -0.3053473595 -0.136046825 0.1043136732
290298260.0 -0.1314531839 0.1195764654 0.4628976282 -0.3105734617 0.4633168259 -0.3106209537 -0.1348345007 0.105996622
295298230.0 -0.1303735338 0.1206916505 0.4597658331 -0.315727797 0.4597762543 -0.3157562527 -0.1335137759 0.1067598527
300298200.0 -0.1292982216 0.122281271 0.4564305431 -0.3211851041 0.4565939253 -0.3212337219 -0.1327885552 0.1083745169
305298170.0 -0.1277251131 0.1236049216 0.4525145237 -0.3264832121 0.4525893536 -0.326254491 -0.131391595 0.109346006
310298140.0 -0.1265811953 0.1252933965 0.4492010305 -0.3317823071 0.4492719874 -0.3315779349 -0.1308621892 0.1106531792
315298110.0 -0.1252139571 0.1262290515 0.4458396155 -0.3368594567 0.4457542045 -0.3365944041 -0.1298727732 0.1118747101
320298080.0 -0.1239471465 0.1276063056 0.4413480825 -0.3423224636 0.4420375658 -0.3421060679 -0.1290668933 0.1132168171
325298050.0 -0.122795303 0.1288650593 0.4377972355 -0.3472774363 0.4377887392 -0.3469121056 -0.128246341 0.1142268072
330298020.0 -0.1214612805 0.1300322977 0.4333416537 -0.3519731217 0.4341702999 -0.3519158404 -0.1272202386 0.1154062217
335297990.0 -0.1199841634 0.1314729264 0.4297890313 -0.3565385732 0.4301657487 -0.3569466271 -0.1268239611 0.1173420747
340297960.0 -0.1193994312 0.1329913071 0.4255242041 -0.3616219127 0.4253659981 -0.3620232424 -0.1252403149 0.1183161885
345297930.0 -0.1178181481 0.1345931439 0.4215268519 -0.3661658885 0.421402903 -0.3662927254 -0.1245738483 0.1192394472
350297900.0 -0.1163866436 0.1357131191 0.4172482733 -0.3709406139 0.4175188271 -0.3707772106 -0.123810273 0.121176457
355297870.0 -0.11489507 0.1376946007 0.4132361326 -0.3754271858 0.4134519044 -0.3752116845 -0.1226822253 0.122335885
360297840.0 -0.1135426947 0.1388169901 0.4092802782 -0.3799584622 0.4096036857 -0.3797766309 -0.121671823 0.1238085839
365297810.0 -0.1125406308 0.1405678512 0.4050102974 -0.3848466151 0.405627901 -0.3845335067 -0.1202335137 0.1250845129
370297780.0 -0.1106692571 0.1414747276 0.4006353946 -0.3885401305 0.4011481294 -0.3885930624 -0.1191838069 0.1263019946
375297750.0 -0.1090719406 0.1424790034 0.3962510045 -0.3929804447 0.396911989 -0.3932926594 -0.118154501 0.1272409866
380297720.0 -0.1077109026 0.1441875783 0.3921402339 -0.3980230389 0.3921427483 -0.3971129587 -0.1172979888 0.1284511565
385297690.0 -0.1063575206 0.1454162342 0.3878548015 -0.4018337702 0.3874908933 -0.4016625553 -0.1156639172 0.1298714676
390297660.0 -0.1048483982 0.1469774672 0.3833892637 -0.4062554663 0.3831833136 -0.4062558069 -0.1149548587 0.1310841531
395297630.0 -0.1032530591 0.148390361 0.3790778062 -0.4103436557 0.3789977652 -0.4102560301 -0.1129802869 0.1325524326
400297600.0 -0.1017702301 0.1495490256 0.373920762 -0.414419395 0.3741490252 -0.4144892542 -0.1121351809 0.1335688168
405297570.0 -0.1003934477 0.1506797599 0.3695810114 -0.4182107611 0.3699266095 -0.4184185799 -0.1114717741 0.134893809
410297540.0 -0.0985331899 0.1520151354 0.3651437971 -0.4225942563 0.3654268118 -0.4224921343 -0.109756975 0.1362452998
415297510.0 -0.0966424726 0.1528470255 0.3601525346 -0.4268260324 0.3607105199 -0.4268575476 -0.1086185409 0.1372430281
420297480.0 -0.095181122 0.1545581644 0.3554273823 -0.4307121635 0.3558322641 -0.4308280875 -0.107641551 0.1381984024
425297450.0 -0.0935350773 0.1552307812 0.3511763847 -0.4343363215 0.3513510597 -0.4345198717 -0.1061300913 0.1397950318
430297420.0 -0.0918608126 0.1563727469 0.34633508 -0.4378800608 0.3462253689 -0.4379132937 -0.1050821054 0.1407372053
435297390.0 -0.0901323928 0.1577860533 0.3411014567 -0.4419396902 0.3412425734 -0.4419275405 -0.102938101 0.1417085673
440297360.0 -0.0884713651 0.159039271 0.3359865662 -0.4457813099 0.3368372949 -0.4454295647 -0.1020986575 0.1428363733
445297330.0 -0.08686564 0.1598001689 0.3318371017 -0.4492501747 0.3319354165 -0.4488366883 -0.1007012189 0.1435222247
450297300.0 -0.0848569686 0.1608136114 0.3266257031 -0.4527931782 0.3268519368 -0.4525445969 -0.0992708336 0.1447894607
455297270.0 -0.083360954 0.1619995553 0.3213909983 -0.4564513721 0.3219586384 -0.4566010465 -0.0981477938 0.1458566926
460297240.0 -0.0815395233 0.1632138846 0.3165924796 -0.4599594415 0.3166949888 -0.4597693642 -0.0964739645 0.1473988691
465297210.0 -0.0793968754 0.1645751322 0.3118305531 -0.463410253 0.3117084259 -0.4637782526 -0.0950921501 0.1481541419
470297180.0 -0.0776261263 0.1650431539 0.3063962705 -0.4664768361 0.306680769 -0.4666228191 -0.0937802444 0.149475988
475297150.0 -0.076078368 0.1657814811 0.3010444317 -0.4693686431 0.3016520044 -0.4697014005 -0.0918746418 0.1502330091
480297120.0 -0.0742316677 0.1673899408 0.2961279305 -0.4735389902 0.2959597133 -0.4732987717 -0.0906148109 0.1516957819
485297090.0 -0.0724848102 0.1681159981 0.291240057 -0.4762743416 0.2909495565 -0.4762197637 -0.0890439846 0.1523065998
490297060.0 -0.071000036 0.1691047433 0.2862580956 -0.4795925655 0.2861454395 -0.4792700665 -0.0877455983 0.15356438
495297030.0 -0.0689625155 0.1698702088 0.2805750407 -0.4825057585 0.2813624361 -0.4822970242 -0.0863081539 0.154578278
500297000.0 -0.0670026661 0.1707476589 0.2754016752 -0.48497631 0.2751447607 -0.4851699656 -0.0848190604 0.156048855
505296970.0 -0.0651069061 0.1716604594 0.2701966873 -0.4882450412 0.2699075627 -0.4882282074 -0.0834696911 0.1565308992
510296940.0 -0.0632079992 0.1727309169 0.2645461095 -0.4914506218 0.2647959359 -0.4916901208 -0.0815873513 0.1578338812
515296910.0 -0.0611156948 0.1734060536 0.2589116113 -0.494264735 0.2594989 -0.4938418352 -0.0804238746 0.1585158574
520296880.0 -0.0595246844 0.1741929257 0.2537769301 -0.4973960766 0.2538899953 -0.4969835785 -0.0789086465 0.1590638513
525296850.0 -0.0572655006 0.17469055 0.2481358569 -0.4994497701 0.2489467297 -0.4995409563 -0.0775354308 0.1604753192
530296820.0 -0.0553603868 0.1758994454 0.2431554585 -0.5023052154 0.2428903621 -0.5022675129 -0.0758969661 0.1613395635
535296790.0 -0.053652923 0.1765366618 0.2376218961 -0.504942629 0.2381322865 -0.5043195599 -0.074401542 0.1619485021
540296760.0 -0.0520018856 0.1774868649 0.2316986107 -0.5076627654 0.2318033881 -0.5077102173 -0.0729574282 0.1636220859
545296730.0 -0.0497202594 0.1779498318 0.2259870487 -0.509968982 0.2265748014 -0.5100074271 -0.0717333675 0.1636551685
550296700.0 -0.0473555838 0.1789274847 0.2202020656 -0.5125344864 0.2210247813 -0.5126936955 -0.0702690392 0.1648682826
555296670.0 -0.0458780622 0.1792234296 0.2150836889 -0.5146926887 0.2156942205 -0.5144383741 -0.0681919545 0.1658482562
560296640.0 -0.0435768026 0.1802603354 0.2094950301 -0.5166819513 0.2097421535 -0.5170283017 -0.0666486052 0.1662269778
565296610.0 -0.0422171906 0.1805875583 0.2040356588 -0.5193094851 0.2042141038 -0.5192896545 -0.0652802797 0.16669793
570296580.0 -0.0402416227 0.1811791266 0.1985792792 -0.5219242994 0.1978099298 -0.5216452756 -0.0637185272 0.1682334829
575296550.0 -0.0380897218 0.182035917 0.1926948243 -0.5235410995 0.1923759009 -0.5237637788 -0.0617085606 0.1688464786
580296520.0 -0.0360781159 0.1827112141 0.1871094289 -0.5258427288 0.1869834077 -0.5255380589 -0.0600074505 0.1693805698
585296490.0 -0.0341589375 0.1826573065 0.1814024838 -0.5269729427 0.1818250707 -0.5277539208 -0.0585701231 0.1703478664
590296460.0 -0.0315147125 0.1835595976 0.1758034515 -0.5285833019 0.175904079 -0.5291913178 -0.0575288578 0.1710529489
595296430.0 -0.0297560427 0.1840271396 0.1693062694 -0.5314751577 0.1696014545 -0.531474962 -0.055135625 0.1712030033
600296400.0 -0.0279125784 0.184366418 0.1641582985 -0.5330147727 0.1640816369 -0.5326050582 -0.0538235647 0.1720687083
605296370.0 -0.026046795 0.1848157192 0.1580503295 -0.5344522893 0.158444316 -0.5347885394 -0.0516765093 0.1731533043
610296340.0 -0.0235210705 0.185050631 0.1518829692 -0.5362033898 0.152812801 -0.5363581889 -0.0502189239 0.1732050069
615296310.0 -0.0214652897 0.1853526465 0.1467270631 -0.5375184082 0.1463714206 -0.538065782 -0.0481415722 0.174010783
620296280.0 -0.0197066577 0.1854871802 0.1409019403 -0.5393776113 0.1409486879 -0.5392306159 -0.0470723222 0.1746028746
625296250.0 -0.017625944 0.18601986 0.1351552746 -0.5410872961 0.1354361793 -0.5408572585 -0.0446783711 0.1750425746
630296220.0 -0.0148611697 0.1868265585 0.128411741 -0.5425147295 0.12896215 -0.5424030102 -0.0434404582 0.1759922742
635296190.0 -0.0137012108 0.1867667472 0.1230456754 -0.5432478722 0.1231904054 -0.5435669472 -0.0417663668 0.1767095204
640296160.0 -0.0116447119 0.1873181505 0.1173063627 -0.5445497151 0.1173955359 -0.5450537108 -0.0400960873 0.1770345267
645296130.0 -0.0093754367 0.1876381817 0.1112056967 -0.5456295522 0.1118879913 -0.5463892764 -0.0380561177 0.1779373557
650296100.0 -0.0073137396 0.1877624906 0.1051649902 -0.5472504798 0.1054418711 -0.5472740403 -0.0362718409 0.1779120355
655296070.0 -0.0055232754 0.187881814 0.0995337115 -0.5483041168 0.100011775 -0.5481919689 -0.0341970328 0.178656501
660296040.0 -0.0036506155 0.1876172323 0.0937607483 -0.5488984238 0.0937868805 -0.5495710673 -0.0325757028 0.1789285094
665296010.0 -0.0008695022 0.1879525678 0.0875791066 -0.5499833498 0.0875999019 -0.5501815877 -0.0309080106 0.1799621434
670295980.0 7.17504e-05 0.1885627036 0.0818359215 -0.5507199126 0.0818444609 -0.551340548 -0.0295805586 0.1801730229
675295950.0 0.0027762338 0.1887115164 0.075847922 -0.5514984248 0.0759106017 -0.5513569461 -0.0275777552 0.1805856817
680295920.0 0.0046424157 0.1881686505 0.0697026705 -0.5524109542 0.0692883739 -0.552708146 -0.0259120905 0.1814099342
685295890.0 0.0069728255 0.1890507831 0.0634952041 -0.5531186256 0.0640214438 -0.5533517577 -0.0241971521 0.181798726
690295860.0 0.0091924953 0.1890202901 0.0578248682 -0.5534560474 0.0577535086 -0.5542415197 -0.0227864551 0.1824652641
695295830.0 0.0110052474 0.1886208255 0.0524805335 -0.554382667 0.0515820922 -0.5544269544 -0.0205444279 0.1825618337
700295800.0 0.0133410199 0.1884110565 0.045414496 -0.5547518293 0.0455734278 -0.5545377359 -0.019398164 0.1832449271
705295770.0 0.0149757572 0.1890986203 0.0395831012 -0.5554517574 0.040123995 -0.5555547379 -0.0172197351 0.1835067328
710295740.0 0.0173668372 0.1889383753 0.0343664063 -0.5562590796 0.0344301789 -0.5559391995 -0.0153137307 0.1831984169
715295710.0 0.0189464942 0.1887945062 0.0283689242 -0.5559798371 0.0280360378 -0.5561195212 -0.0135692142 0.183879053
720295680.0 0.0215500547 0.1886272381 0.0219562732 -0.5562276112 0.0220306724 -0.5564739328 -0.0115664179 0.1845800579
725295650.0 0.0234913444 0.1885426456 0.0163153121 -0.5562007308 0.0163769857 -0.5567482326 -0.0103992776 0.1848673023
730295620.0 0.0260685433 0.1886787061 0.009775316 -0.5565620111 0.010209973 -0.5564844039 -0.0087591035 0.1847075413
735295590.0 0.0274728817 0.1884458267 0.0041053805 -0.5567474458 0.0040447539 -0.5568594377 -0.0071957374 0.184727983
740295560.0 0.0294723528 0.1882748253 -0.0017922765 -0.5564695393 -0.0020449537 -0.5563838615 -0.0044985946 0.185259884
745295530.0 0.0316944645 0.1880487829 -0.0082847553 -0.5561036499 -0.0079945286 -0.5566603883 -0.0028740564 0.1849560439
750295500.0 0.0337879968 0.1879328695 -0.0140211147 -0.5563477324 -0.0141292902 -0.5564393062 -0.0013504489 0.1854950608
755295470.0 0.036129369 0.1874771721 -0.0198623801 -0.5563684834 -0.0200004854 -0.556150389 0.0011783552 0.1852351317
760295440.0 0.0380226117 0.187098735 -0.0260253932 -0.5560841942 -0.0260203537 -0.5562253805 0.0026966341 0.1854593453
765295410.0 0.0398562095 0.1870447994 -0.0322340617 -0.5555728964 -0.0323159425 -0.5557189048 0.0044099353 0.186056275
770295380.0 0.041768463 0.1865658329 -0.037861323 -0.5552679307 -0.0383109271 -0.5552266441 0.0062144545 0.1858063045
775295350.0 0.0436712476 0.18600963 -0.0440561203 -0.5543261062 -0.043585019 -0.5544912835 0.0072553593 0.1861709844
780295320.0 0.0460589973 0.1859123444 -0.0500074713 -0.5539527078 -0.0495579069 -0.5540292291 0.0095498824 0.1857422385
785295290.0 0.0480394727 0.1850568293 -0.0566030117 -0.5530858081 -0.0560478714 -0.5536020397 0.0120207455 0.1859693078
790295260.0 0.0507243258 0.1854645084 -0.0613250531 -0.5527425396 -0.0608505966 -0.552636148 0.0133141411 0.1862953034
795295230.0 0.0522480479 0.1847483728 -0.0679895905 -0.5521079924 -0.0672755809 -0.5521279388 0.0156531431 0.1865459797
800295200.0 0.0542504078 0.1843263281 -0.0741491161 -0.5510888226 -0.0734552414 -0.5510925124 0.0171767519 0.1862944849
805295170.0 0.0563613028 0.1836818723 -0.079620849 -0.5503799704 -0.0795584635 -0.5509026509 0.0189695497 0.1863071219
810295140.0 0.0584638294 0.1828254444 -0.0849808245 -0.5488700796 -0.0856077867 -0.5496800752 0.0212864178 0.1862116902
815295110.0 0.0603189218 0.1823646795 -0.0913309488 -0.5477774281 -0.0911376372 -0.5481844946 0.0226302039 0.1863196714
820295080.0 0.0619523718 0.1825224612 -0.0968796026 -0.5475359638 -0.0968802224 -0.5475294339 0.0244827789 0.1861395109
825295050.0 0.0644805661 0.1814566592 -0.1026292056 -0.545730819 -0.1029327324 -0.5466601494 0.026615522 0.1860819017
830295020.0 0.0661878784 0.1811332883 -0.1092163749 -0.5448757445 -0.1091535375 -0.545012889 0.0292507761 0.1862233888
