!Created with skrf (http://scikit-rf.org).
# Hz S RI R 50.0 
!freq ReS11 ImS11 ReS21 ImS21 ReS12 ImS12 ReS22 ImS22
300000.0 -0.2114928104 -0.0643418366 -0.0014655825 0.0008148078 -0.0002585007 0.0010977008 -0.7759437356 -0.1413417747
5299970.0 -0.2167296877 0.0081603724 1.89689e-05 -0.0001403609 0.000115011 3.97665e-05 -0.7840164635 -0.007338912
10299940.0 -0.213432056 0.0192251033 -0.0002154022 -0.0001179212 -0.0001100979 -0.0001156679 -0.7874691219 -0.0036374762
15299910.0 -0.2086557785 0.0285586838 -1.6192e-06 5.0671e-05 -0.0001031932 8.57551e-05 -0.7929652368 -0.0013622894
20299880.0 -0.2034804581 0.0359997031 -0.0001526556 -0.0001259559 9.7347e-05 6.01406e-05 -0.7996037456 0.0022203329
25299850.0 -0.1976566156 0.0421555616 1.88736e-05 2.49146e-05 0.0001182338 5.04669e-05 -0.8055168757 0.0081190088
30299820.0 -0.1921238288 0.0466310889 7.70239e-05 -0.0001043808 8.8197e-05 -1.3027e-05 -0.8120819182 0.0163680452
35299790.0 -0.1862231055 0.0504578135 0.0001289188 9.39517e-05 8.7582e-06 0.0001568663 -0.8169350733 0.0249282179
40299760.0 -0.1806139097 0.0536752578 7.69991e-05 0.0002307686 -3.38108e-05 3.90943e-05 -0.8206830731 0.0344225394
45299730.0 -0.175533933 0.0554568919 -0.0001426904 2.92096e-05 8.55119e-05 0.0002270921 -0.8251018105 0.04423702
50299700.0 -0.1710261898 0.0569286406 -0.0001061991 -3.92411e-05 8.6962e-06 -0.0002487699 -0.8273353616 0.0541791908
55299670.0 -0.1668627091 0.0580466782 0.0001305237 3.99488e-05 7.85447e-05 0.0001175492 -0.8294206398 0.0646445783
60299640.0 -0.162328873 0.0588493826 3.47434e-05 0.0001062878 0.0002361619 -0.0001226623 -0.8301012087 0.0739544928
65299610.0 -0.1588162093 0.0593134061 7.05692e-05 2.41163e-05 -5.93102e-05 5.38854e-05 -0.8316127153 0.0839556309
70299580.0 -0.1555164098 0.0596941339 0.0001434232 2.18019e-05 0.0002212452 6.15968e-05 -0.8316342623 0.0948587898
75299550.0 -0.1527577089 0.0600515037 7.75024e-05 -1.29765e-05 7.52652e-05 0.0002045123 -0.8323161337 0.1037813066
80299520.0 -0.1498584065 0.0600743012 -5.24134e-05 0.0001230473 -0.0001604822 -7.28286e-05 -0.8321823948 0.1137542641
85299490.0 -0.1475977108 0.0598585495 0.0001724195 0.0002171662 -3.6677e-05 7.89954e-05 -0.8314604697 0.1235515334
90299460.0 -0.145484384 0.0599247181 0.0001381175 1.4846e-05 0.0001733283 0.0001162627 -0.8306594481 0.1331857434
95299430.0 -0.1431796454 0.0596863662 0.0001829084 -0.0001227931 1.56087e-05 -4.35562e-05 -0.8291764181 0.1429191195
100299400.0 -0.1418166839 0.0599812262 3.9579e-05 -1.91624e-05 9.52534e-05 -0.0001471881 -0.828196751 0.1525826707
105299370.0 -0.1400036028 0.0600955312 2.2175e-06 0.0001196909 3.47571e-05 -8.62905e-05 -0.8269284324 0.1610280601
110299340.0 -0.138445412 0.0600265768 -9.05545e-05 0.0002226272 3.1663e-05 9.8351e-06 -0.8250907714 0.1706207663
115299310.0 -0.1370407631 0.060050866 8.46953e-05 0.0001285001 1.05308e-05 7.49261e-05 -0.8243607253 0.1798562697
120299280.0 -0.1360410881 0.0598524919 -0.0001596502 4.92696e-05 -5.2013e-06 -3.10171e-05 -0.8220885037 0.1887077933
125299250.0 -0.1351032158 0.0599725638 -5.53047e-05 -9.89843e-05 -0.0001645225 9.31861e-05 -0.820730529 0.1977230045
130299220.0 -0.1341510388 0.0606046217 0.0001641764 4.3098e-05 4.05636e-05 6.04787e-05 -0.8188140005 0.2065840609
135299190.0 -0.1330919322 0.0607533029 -6.61757e-05 0.0001859337 -9.57161e-05 9.96972e-05 -0.8164157321 0.2159505133
140299160.0 -0.1323399117 0.0608065235 0.0001302697 0.0001095357 -2.88134e-05 -0.0001047052 -0.8139759327 0.22466832
145299130.0 -0.1315025385 0.0611498374 -3.68151e-05 0.0002326492 -1.78778e-05 2.62221e-05 -0.8119918572 0.234105288
150299100.0 -0.1307974236 0.0617417078 0.0001573012 0.0001015284 0.0001236186 0.0001511747 -0.8102436516 0.2430013423
155299070.0 -0.1301062012 0.0619755338 0.0001698602 6.56914e-05 -0.0001626111 0.0001440889 -0.8069421834 0.2516204402
160299040.0 -0.1294588253 0.0626274267 -1.77668e-05 9.46868e-05 0.000130321 -3.31228e-05 -0.8048564964 0.2603900377
165299010.0 -0.1286929039 0.0626214428 -0.0002156861 0.0002874778 -2.43409e-05 0.0001681029 -0.8025663618 0.2694004026
170298980.0 -0.1284687794 0.0635357592 -0.0001410553 1.48014e-05 5.8107e-05 0.000106376 -0.7994579024 0.2779693128
175298950.0 -0.1277545052 0.0639180348 0.0001440442 0.0001091819 5.94905e-05 -6.30386e-05 -0.796871961 0.2866451263
180298920.0 -0.1273911556 0.0646574476 -9.77034e-05 -0.0001313211 8.61037e-05 0.000134085 -0.793161014 0.2947510407
185298890.0 -0.1264904796 0.0652385368 5.05882e-05 3.89339e-05 0.0001023803 0.0002246608 -0.7898667521 0.3032911476
190298860.0 -0.1261124796 0.0660081449 2.38097e-05 -0.0002447362 -0.0001287078 -2.58856e-05 -0.7879832185 0.3124325485
195298830.0 -0.1257285597 0.0667331907 0.000248252 0.0001612577 -5.20579e-05 0.0002605286 -0.7847022072 0.3207678039
200298800.0 -0.1250930215 0.067283607 0.0002068712 0.0001885107 -4.49664e-05 0.0002262301 -0.7815678195 0.3290727651
205298770.0 -0.1248177382 0.0679540402 -3.92989e-05 1.30877e-05 1.39453e-05 5.2287e-06 -0.7775065864 0.3374862581
210298740.0 -0.1243912498 0.0691376378 0.000133448 7.98114e-05 0.0002323878 4.80237e-05 -0.7743204793 0.3457854427
215298710.0 -0.1242069576 0.0699219274 0.0002281586 0.0002144708 6.23633e-05 -3.0901e-06 -0.7708143603 0.3540439553
220298680.0 -0.1236467613 0.0705588211 0.000132655 -8.82373e-05 -1.7472e-05 0.000100583 -0.767253384 0.3616478548
225298650.0 -0.1233227321 0.0715390182 -1.85232e-05 0.0002127907 6.60646e-05 -4.65672e-05 -0.7636242023 0.3700420474
230298620.0 -0.1227964153 0.0722285139 9.7881e-05 3.00171e-05 0.0001314481 0.0001109029 -0.7597415641 0.3786649882
235298590.0 -0.1220153715 0.0734317423 -0.0001948209 2.55441e-05 -9.1927e-06 5.26936e-05 -0.7558707511 0.386464847
240298560.0 -0.1215453095 0.0739476078 0.0001634549 9.3398e-06 0.000140951 2.22964e-05 -0.7513691886 0.39511766
245298530.0 -0.121300335 0.0749096408 0.0001094694 0.000148317 0.000263912 3.1772e-06 -0.7474222418 0.4025755027
250298500.0 -0.1205974784 0.0758907994 -3.80578e-05 0.0001255714 0.0001161911 5.45407e-05 -0.743655501 0.4100140338
255298470.0 -0.1204711911 0.0765059776 0.0002199896 0.0001906121 -5.47654e-05 -4.7912e-06 -0.7382647337 0.417849084
260298440.0 -0.1200306582 0.0775319853 1.95352e-05 0.000209345 0.0001159726 0.0001553063 -0.73492044 0.4264126512
265298410.0 -0.119443072 0.0788182542 -0.0002191678 0.000100248 0.0001708091 0.0001418492 -0.7301873764 0.4334051499
270298380.0 -0.118918211 0.0797172732 0.0001502118 3.74238e-05 2.13335e-05 0.000128397 -0.725120521 0.4407120673
275298350.0 -0.118510486 0.0807216769 -8.9655e-05 0.0002339885 0.0001754482 0.000160518 -0.7205202407 0.4485488353
280298320.0 -0.1178371571 0.0816681392 4.42673e-05 0.00010376 -1.43249e-05 0.0002065306 -0.7155456406 0.455977249
285298290.0 -0.1171372098 0.082969077 0.0002139666 0.0001316386 -3.88654e-05 4.13089e-05 -0.7106963142 0.4634275112
290298260.0 -0.1165509282 0.0836637577 6.5538e-05 -5.36597e-05 0.0002700533 -2.07143e-05 -0.7060761342 0.470753874
295298230.0 -0.1158461073 0.0845069824 0.0001447377 0.0001098592 0.0001342475 4.71228e-05 -0.7010875423 0.477845574
300298200.0 -0.1153498037 0.0860023913 0.0002291227 0.0001281709 0.0001572695 8.49009e-05 -0.696012898 0.4852424672
305298170.0 -0.1145425466 0.0866867595 0.0001075124 0.0003198561 -6.8381e-05 -8.37724e-05 -0.6899693273 0.492595824
310298140.0 -0.1138515294 0.087922107 0.0002644683 0.0001063876 0.0001982868 -8.44213e-05 -0.6856186808 0.4996524085
315298110.0 -0.1133674804 0.0888818896 0.0004487933 3.47083e-05 6.71105e-05 0.0002028322 -0.6796963848 0.5066257869
320298080.0 -0.1126337244 0.0895823334 -3.04095e-05 9.7691e-05 8.88125e-05 0.000164052 -0.6747228107 0.5143587149
325298050.0 -0.1118405311 0.0906017472 7.08564e-05 2.35303e-05 4.56431e-05 -8.811e-07 -0.6683716199 0.5210846264
330298020.0 -0.111526513 0.0915191191 -5.24053e-05 -0.0001326087 3.71981e-05 0.0001738003 -0.6635968757 0.5283008349
335297990.0 -0.110855123 0.092516641 0.000167134 6.85939e-05 0.0003187124 0.0001028774 -0.6583715656 0.5352947786
340297960.0 -0.1106089158 0.0937488902 0.0002171118 -9.5214e-06 -4.10206e-05 9.01484e-05 -0.6525320014 0.542196185
345297930.0 -0.1099226805 0.0949835913 6.43473e-05 0.0003219699 0.0001880957 0.0001285436 -0.6471928638 0.5483231588
350297900.0 -0.1092637488 0.0960720697 9.06183e-05 -0.0001569945 -8.52586e-05 0.0001767951 -0.6412393173 0.5557371068
355297870.0 -0.1083636064 0.0972777853 -6.6335e-06 5.8108e-06 0.0003991772 8.2172e-05 -0.6356803353 0.5616572
360297840.0 -0.107834024 0.0982864139 9.79409e-05 0.0003062808 0.0003455275 7.91988e-05 -0.6294947246 0.5689497706
365297810.0 -0.1069908469 0.0995915018 -5.80159e-05 -5.99204e-05 5.5463e-06 -2.69206e-05 -0.623495211 0.5748261651
370297780.0 -0.1062330756 0.1007182748 0.000137738 0.0001259339 0.0002571747 0.0003229669 -0.6173064344 0.5816912214
375297750.0 -0.1052973711 0.101586065 0.0001806285 -3.7995e-06 0.000112321 0.0001625354 -0.6118841746 0.5877023818
380297720.0 -0.1048270919 0.10260494 0.0001836048 2.79358e-05 0.00010296 -3.22501e-05 -0.6055658927 0.5945442479
385297690.0 -0.1040830664 0.1037680339 1.02499e-05 0.0001797545 0.0001214429 0.000126949 -0.5993815618 0.6004148249
390297660.0 -0.1031980545 0.1051597869 3.84024e-05 -2.5578e-06 4.32598e-05 -6.36026e-05 -0.5933529524 0.6066290246
395297630.0 -0.1023481832 0.1061784271 0.0001152658 0.0001427577 6.47181e-05 0.000184362 -0.5864832227 0.6128895526
400297600.0 -0.1013773018 0.1072127699 0.0001028031 8.721e-05 4.64277e-05 9.95159e-05 -0.5804905238 0.6189297452
405297570.0 -0.1008651118 0.1083387486 0.0001034838 -0.0001360107 0.0001333735 0.0001320907 -0.5739972616 0.6245361014
410297540.0 -0.0998625821 0.109317124 0.0002875292 0.000100232 8.32689e-05 8.80347e-05 -0.567280675 0.6305282312
415297510.0 -0.0990391011 0.1102056046 0.0002660955 7.65113e-05 0.000157113 2.75713e-05 -0.5611216658 0.6361825181
420297480.0 -0.0981881103 0.1116816205 0.0001571182 0.0001168436 0.000132262 -0.0001444636 -0.5543912328 0.6418274663
425297450.0 -0.0970264374 0.1125327597 0.0002037903 2.68244e-05 0.0001102234 4.78311e-05 -0.5481649096 0.647697911
430297420.0 -0.0962239202 0.1136884533 0.0003183589 0.0001662333 0.0002256369 -2.344e-06 -0.540749653 0.65292754
435297390.0 -0.0953251057 0.1145270659 0.000341187 -4.09245e-05 0.0002008357 1.54453e-05 -0.5340810668 0.6582045756
440297360.0 -0.0944281005 0.1155564388 0.0001912027 -2.29858e-05 0.00025207 -5.11618e-05 -0.5275224923 0.6636345929
445297330.0 -0.0934411978 0.116556133 6.00875e-05 0.0001998827 0.0003269485 0.0001106066 -0.5205481785 0.668381871
450297300.0 -0.0924197372 0.1173840195 0.0003633643 -0.0001496327 0.0001587731 8.71256e-05 -0.5133201841 0.6739701684
455297270.0 -0.0916315578 0.1185513708 0.0002542331 8.11787e-05 8.37857e-05 0.0002768214 -0.506332849 0.6783921107
460297240.0 -0.0905639945 0.1196119684 1.76598e-05 3.4619e-05 0.000252937 0.0001214168 -0.4995152675 0.6840202189
465297210.0 -0.0893990461 0.1208841628 0.0002780897 -4.04858e-05 0.0001005612 0.0001568438 -0.4917331588 0.6884376447
470297180.0 -0.0885004305 0.1217056454 0.000166708 3.30433e-05 -2.72166e-05 2.51207e-05 -0.4845409085 0.694529519
475297150.0 -0.0875300206 0.1224235525 3.30973e-05 -0.0001279313 0.0001217907 0.0002541135 -0.4780399922 0.6984450822
480297120.0 -0.0863684775 0.1236451426 0.0003256299 3.62546e-05 0.0002202155 8.47802e-05 -0.4701628492 0.7034517991
485297090.0 -0.0853482121 0.1247100591 0.0001143281 0.0001705788 3.65241e-05 7.32672e-05 -0.4633227487 0.7082431056
490297060.0 -0.0844560958 0.12574174 0.0002994093 -0.000168445 0.0002162431 0.0002381686 -0.4560532388 0.7126921002
495297030.0 -0.0830764765 0.1267982703 0.0005303146 -6.09629e-05 0.000196692 0.000219418 -0.4485096986 0.7177447886
500297000.0 -0.0817391276 0.1274097289 0.0002296541 4.89809e-05 0.00029345 0.0001044723 -0.4409498894 0.722558833
505296970.0 -0.0809314447 0.1283904221 0.0002349695 0.0002322872 0.000211595 0.0001552673 -0.4340257737 0.7263589325
510296940.0 -0.0796351892 0.1293408935 0.0001050277 0.0001604646 9.20937e-05 3.85352e-05 -0.4260526631 0.7301134588
515296910.0 -0.078375892 0.1300617745 2.57384e-05 7.93809e-05 0.0002469815 0.000181088 -0.4191463488 0.7353515692
520296880.0 -0.0775821923 0.1313007807 0.0003246716 -0.0002013426 0.0001801815 1.54642e-05 -0.4111115207 0.7386986306
525296850.0 -0.0760933508 0.1320215157 0.0001897409 0.0001581868 0.0001726963 4.69398e-05 -0.4042178083 0.7433289538
530296820.0 -0.0752258764 0.132912044 0.0002950139 -1.44306e-05 0.0002315502 0.0001614837 -0.3969235924 0.7471406406
535296790.0 -0.0739627581 0.1339520911 0.0001927863 -6.8966e-06 0.0001018292 -3.3173e-06 -0.3886506478 0.7510914292
540296760.0 -0.0727913112 0.134733576 0.0002418991 9.1143e-06 0.0003540171 0.0001460841 -0.3813718778 0.7555156042
545296730.0 -0.071711532 0.1356081292 0.0001168259 -1.49205e-05 0.0002069445 7.21885e-05 -0.3731755325 0.7588345932
550296700.0 -0.0704348479 0.1364983605 0.0001766171 0.0001015719 0.0001584579 -7.84984e-05 -0.3656269811 0.7630785975
555296670.0 -0.069253599 0.1372741054 0.0001862817 0.0001107368 0.0002468143 0.0002253998 -0.3582363515 0.7672208523
560296640.0 -0.0678928187 0.1382638761 0.0001494327 -0.0001687645 0.0002087067 0.0002347537 -0.3498421449 0.7705140205
565296610.0 -0.0668541902 0.1389393839 0.0003441773 -9.13234e-05 0.000105841 2.38974e-05 -0.3421596531 0.7738050077
570296580.0 -0.0657238356 0.1398934517 0.0001455222 0.0001779495 0.0001485266 7.8001e-05 -0.334599505 0.7778136056
575296550.0 -0.0644861881 0.1405493301 0.0001743866 0.0001232395 0.0003431022 -4.12135e-05 -0.3267256487 0.7808510241
580296520.0 -0.0630638462 0.1412726549 -2.97317e-05 3.97582e-05 0.0001379526 6.01516e-05 -0.3178358275 0.783883086
585296490.0 -0.0622167606 0.1422018207 0.0002945239 7.00131e-05 0.0003585825 0.0001230598 -0.3106673427 0.7874006886
590296460.0 -0.0605186237 0.1431191636 0.000275985 -2.52199e-05 0.0002518292 1.48416e-05 -0.3032238775 0.7902065927
595296430.0 -0.0594623502 0.1437248555 0.0002610137 -0.0002622332 0.0001377169 8.72859e-05 -0.2946388526 0.7927127575
600296400.0 -0.0583027892 0.1444791031 0.0002386603 5.46846e-05 0.0002247066 -2.07908e-05 -0.2872231281 0.7953121022
605296370.0 -0.0569678448 0.1450940035 -5.45766e-05 -8.3899e-06 0.0002045549 9.19428e-05 -0.2781404494 0.7987458663
610296340.0 -0.0554784496 0.1458395174 0.0002167964 0.0002182332 0.0004371613 1.09072e-05 -0.2704739746 0.8005314046
615296310.0 -0.0539646964 0.1466841225 0.0003695478 0.0001163755 0.0002618734 8.13301e-05 -0.2617962411 0.8031552214
620296280.0 -0.0532168449 0.1472267228 0.0001854866 0.0001532919 0.0002625497 -6.57387e-05 -0.2546192789 0.8060528105
625296250.0 -0.0514114966 0.1479716898 0.0001784391 -1.97309e-05 0.0003155605 0.0002814367 -0.2449689928 0.8080333475
630296220.0 -0.0498811966 0.1485749196 -6.79892e-05 -0.0001375507 8.93538e-05 7.48523e-05 -0.2378467789 0.8107401436
635296190.0 -0.0489608638 0.1492188849 0.0003297977 0.0002725936 6.19982e-05 5.20705e-05 -0.2298165202 0.8127158699
640296160.0 -0.0475462426 0.1498105484 0.0001609429 1.52116e-05 0.0003368586 9.92601e-05 -0.2211663029 0.815225857
645296130.0 -0.0461845378 0.1508336562 0.0003037578 -0.0001014319 0.0002167306 -0.0001047845 -0.213268114 0.8178061569
650296100.0 -0.0446150594 0.1514103958 0.0003219116 -1.03549e-05 0.000280927 -4.50829e-05 -0.2050760008 0.8184632972
655296070.0 -0.0434281109 0.1518258385 6.09509e-05 2.69162e-05 0.000129712 6.0154e-06 -0.1961328032 0.8205204782
660296040.0 -0.0422311738 0.1525037641 0.0002241913 1.76164e-05 8.40983e-05 -0.0002551443 -0.1870654155 0.8230081692
665296010.0 -0.0404303946 0.152567189 0.0004273712 -0.0001245442 0.0001882881 2.50149e-05 -0.1791347678 0.8252277
670295980.0 -0.0393584378 0.1537845655 0.0002592646 -9.93601e-05 0.0004275777 -0.0001148321 -0.1717332573 0.8264299984
675295950.0 -0.037963235 0.1541594376 0.0002380436 1.06803e-05 0.0003243829 -2.41789e-05 -0.1636885108 0.8286982689
680295920.0 -0.0362074751 0.1549296229 0.0002494149 0.0001407211 0.0001474681 -6.2681e-05 -0.1548960797 0.830485527
685295890.0 -0.0346726464 0.1553752679 0.000250706 -3.09779e-05 0.0001597832 -1.14043e-05 -0.146348773 0.8317698102
690295860.0 -0.0331687287 0.1559050439 0.0002199506 0.00012559 0.0001305164 0.0001817251 -0.138394778 0.8332999385
695295830.0 -0.0319982163 0.1564072908 0.0002957944 -1.7487e-05 0.0002369396 -9.347e-07 -0.1290923144 0.8347125081
700295800.0 -0.0305355863 0.1566253078 0.0001046155 -0.0002078831 0.0002411013 3.52591e-05 -0.1219017548 0.8362080272
705295770.0 -0.0292646425 0.1571626378 0.0001724405 -0.0001403121 9.93448e-05 1.13986e-05 -0.1136907073 0.8381184505
710295740.0 -0.0275402808 0.1578987108 0.0003513911 -2.01639e-05 0.0003314736 0.0001297957 -0.1049178718 0.8387451379
715295710.0 -0.0262397521 0.1583505321 0.0003410413 0.0001045659 0.0002335859 -8.76069e-05 -0.0960912833 0.8391383612
720295680.0 -0.0246293659 0.1586988783 0.000578042 -3.99315e-05 0.0002404702 0.0002129523 -0.0876628009 0.8404526029
725295650.0 -0.0232753066 0.1590332444 0.0003289799 -0.0001765233 0.0002427238 -0.0001435487 -0.0797968482 0.8414683812
730295620.0 -0.0217080529 0.1596629349 0.0001778536 4.62191e-05 0.0003165698 7.708e-05 -0.0717821999 0.8423111321
735295590.0 -0.0202107217 0.1603406774 0.00042192 -8.12853e-05 0.0003600014 1.4243e-05 -0.0634285465 0.8426848484
740295560.0 -0.0190015855 0.1606907937 0.0001000199 7.14877e-05 0.0004221605 0.0001500603 -0.0541092603 0.8442308939
745295530.0 -0.0175701794 0.1610358756 0.0003730259 6.92971e-05 0.0003398232 7.1088e-06 -0.0460792445 0.8435730534
750295500.0 -0.0157801819 0.1612610472 0.0004168148 -8.03236e-05 0.000390875 -1.30732e-05 -0.0382067442 0.8442710457
755295470.0 -0.0144125123 0.161752642 0.0002664738 -6.31623e-05 5.40096e-05 4.81925e-05 -0.0290334055 0.8438710444
760295440.0 -0.013097626 0.1615924997 0.0002722982 -0.0002933645 0.0001782624 4.65363e-05 -0.0211105467 0.8443763278
765295410.0 -0.0116221528 0.1622953538 0.0003408514 6.34165e-05 0.000476585 0.0002131536 -0.0122302811 0.845226726
770295380.0 -0.0100342312 0.162553739 0.0002458656 -0.0002360758 0.0004773701 -5.44082e-05 -0.0041640621 0.8446534023
775295350.0 -0.008508763 0.1627980324 0.0001642091 -0.0001112397 0.0002025938 -0.000256294 0.0037476087 0.8444907042
780295320.0 -0.0071195631 0.1632469925 0.0002176938 0.0001223051 0.0003205128 -3.402e-05 0.0121680615 0.8438396748
785295290.0 -0.0059321504 0.1631822879 0.0004498549 -4.55841e-05 0.0002796482 -0.0001975333 0.0213213351 0.8441056658
790295260.0 -0.0038185977 0.1639010625 0.000366623 -6.33779e-05 0.0002361449 -0.000334291 0.0300432266 0.8436878056
795295230.0 -0.0023713441 0.163855508 0.0002832607 -0.0001018817 0.000174172 -3.53157e-05 0.0387109025 0.8430674018
800295200.0 -0.0011684282 0.1641013386 0.0002898881 8.07735e-05 0.0001438872 0.0001748419 0.0468547525 0.8424421707
805295170.0 0.000678174 0.1641283776 0.0004866831 9.50604e-05 0.00040658 0.00010046 0.0548420403 0.842270867
810295140.0 0.0021968442 0.1642883014 0.0004461905 -0.0001380903 -2.03973e-05 0.0001746201 0.0633635259 0.8414844325
815295110.0 0.0037914947 0.1644921308 0.0003140168 2.86952e-05 6.97373e-05 -4.92035e-05 0.0719972509 0.8411244761
820295080.0 0.0053008975 0.1648342551 0.0004989139 -4.63698e-05 0.0002189248 -0.000211319 0.0802468902 0.8401232148
825295050.0 0.0071243768 0.1647558706 0.0003379958 -0.000198176 0.0003373208 0.0001371558 0.0885088851 0.8401443451
830295020.0 0.0084980736 0.1649665311 0.0002991707 -0.0002318061 0.0001146622 -0.0002308887 0.0976241582 0.8385922242
835294990.0 0.0098334969 0.1650609964 0.0002819782 0.0001071804 0.0002882729 -0.000105105 0.1055480009 0.837986942
840294960.0 0.0116679237 0.1653235366 4.61507e-05 1.23635e-05 0.0002834802 0.0001296237 0.1139226157 0.8365404543
845294930.0 0.0130955918 0.1653437047 0.00022331 -0.0002845238 0.0003714991 1.90702e-05 0.1219223486 0.8351714474
850294900.0 0.0145650863 0.1656129963 0.0006504986 0.0003516132 0.0005603202 -3.96461e-05 0.1297278658 0.834011662
