!Created with skrf (http://scikit-rf.org).
# Hz S RI R 50.0 
!freq ReS11 ImS11 ReS21 ImS21 ReS12 ImS12 ReS22 ImS22
300000.0 -0.3225308112 -0.0838987596 0.3764419357 0.0433194317 0.374038206 0.0427053807 -0.3203009841 -0.1012878196
5299970.0 -0.3264270558 0.004385738 0.3780622149 0.002478505 0.3781048758 0.002596039 -0.3237536541 0.0047787188
10299940.0 -0.3242446152 0.0131886131 0.379498626 0.0019129411 0.3795075752 0.0024216046 -0.3216682472 0.0158793101
15299910.0 -0.3217054052 0.0201418762 0.3818334679 0.0022113641 0.3820718204 0.0023182521 -0.3181980643 0.0237256739
20299880.0 -0.318561575 0.0262170306 0.3844825021 0.001590516 0.3846809006 0.0017112507 -0.3146680256 0.0302579308
25299850.0 -0.3156358996 0.0315871694 0.3881547551 0.0001762208 0.388169476 -0.0001053292 -0.3106834022 0.0359547101
30299820.0 -0.3129178168 0.0357815874 0.3914683939 -0.0023472959 0.391470291 -0.0022479888 -0.3067766167 0.0410115087
35299790.0 -0.3099099055 0.04019426 0.3948258446 -0.0055454008 0.3948583544 -0.0054366703 -0.3035573396 0.0450655738
40299760.0 -0.3072869602 0.0436871349 0.3979109543 -0.008730034 0.3980991169 -0.0089335624 -0.2999502533 0.0486897499
45299730.0 -0.3046013195 0.0464774425 0.4006377489 -0.0127788967 0.4011137991 -0.0127782872 -0.2972581316 0.0520631818
50299700.0 -0.3025722104 0.0491414269 0.4035727454 -0.0169705676 0.4032881966 -0.0170633606 -0.2941315537 0.0544876816
55299670.0 -0.3002202232 0.0523132601 0.4055418212 -0.0225295272 0.4053673267 -0.0219109607 -0.2914847432 0.0572680734
60299640.0 -0.2978310819 0.0550131285 0.4073836975 -0.0269862215 0.4076036732 -0.0270714472 -0.2889932207 0.0597591887
65299610.0 -0.2963108193 0.057508113 0.4088449084 -0.0319575248 0.4090852542 -0.0319998463 -0.2873708023 0.0615993807
70299580.0 -0.2945214221 0.0600613861 0.4104701746 -0.0369677976 0.4102515552 -0.0369525704 -0.2851167347 0.0640090471
75299550.0 -0.2928888117 0.0625784037 0.4112583839 -0.042249865 0.4111588931 -0.0423642204 -0.282889281 0.0659877164
80299520.0 -0.2916047155 0.0648145208 0.4124713753 -0.0477803305 0.412241596 -0.04745438 -0.2812450313 0.0682393595
85299490.0 -0.2899322309 0.0671137452 0.4127530462 -0.0527205355 0.4126090889 -0.0525468483 -0.280325493 0.0698989022
90299460.0 -0.2890506224 0.0694068378 0.4130456787 -0.0581026496 0.4135794881 -0.0576848062 -0.2782950615 0.0719644913
95299430.0 -0.2874646835 0.0714761388 0.4135498016 -0.0631018335 0.4135286428 -0.0630783486 -0.2768022304 0.0743505866
100299400.0 -0.2860796106 0.074010711 0.4133066604 -0.0682024319 0.4132783009 -0.068337287 -0.2752215123 0.0760053352
105299370.0 -0.28499137 0.0762199208 0.4132334856 -0.0736809617 0.413502382 -0.0733737805 -0.2736473828 0.0783036127
110299340.0 -0.2843621712 0.0789187825 0.4132672495 -0.0784863702 0.413145904 -0.0784098872 -0.2729417346 0.0800890695
115299310.0 -0.282843188 0.0809898604 0.4127411241 -0.0838855347 0.4128653694 -0.0836044616 -0.2717538041 0.0824756908
120299280.0 -0.2818269236 0.0831423881 0.4121724726 -0.088606178 0.4123450634 -0.0889040389 -0.2702207944 0.0844219327
125299250.0 -0.2813757012 0.0853607648 0.412180738 -0.0936991746 0.4120001983 -0.0939001897 -0.2694387835 0.0863717232
130299220.0 -0.2803126341 0.0882290367 0.4110537762 -0.098972714 0.4111646366 -0.0989489787 -0.2681907095 0.0886906408
135299190.0 -0.2792092768 0.0908467678 0.4108368636 -0.1043761735 0.4104583887 -0.1039479572 -0.2669229544 0.0909427424
140299160.0 -0.2782989264 0.0933013299 0.409691856 -0.1092052634 0.4098911848 -0.1090920948 -0.2660734671 0.0933792165
145299130.0 -0.27739266 0.0957214659 0.4089347077 -0.1136489039 0.4084272103 -0.1141255802 -0.265324131 0.0956371501
150299100.0 -0.27647249 0.0983740512 0.4077774572 -0.1188241617 0.4078394732 -0.1183749645 -0.2642235538 0.0982120139
155299070.0 -0.2755234113 0.1008570721 0.4068463975 -0.1244260257 0.4065567305 -0.1236569165 -0.2631316219 0.1006875863
160299040.0 -0.2746128084 0.1035888389 0.4055257899 -0.1289174178 0.4052293534 -0.1286428944 -0.2624310717 0.1031436655
165299010.0 -0.2735346548 0.1061609035 0.404087721 -0.133510003 0.4042450277 -0.1337653233 -0.2608135168 0.1058493082
170298980.0 -0.2727822211 0.1085134424 0.402669668 -0.1382741171 0.4027239173 -0.138600821 -0.2601707749 0.1081034184
175298950.0 -0.2717404228 0.1112087037 0.4016403082 -0.1426111978 0.401062338 -0.1432126041 -0.259069553 0.1106188983
180298920.0 -0.2710191164 0.1138372655 0.4001097124 -0.1480354919 0.3997610545 -0.147707315 -0.258237668 0.1133664358
185298890.0 -0.2696327017 0.1163881423 0.3983380738 -0.1527583294 0.3982479455 -0.1522855991 -0.2572754451 0.115941072
190298860.0 -0.268852474 0.1194237415 0.3971954432 -0.1572377155 0.3972011706 -0.1572741961 -0.2562262994 0.1185633651
195298830.0 -0.2676781739 0.1218850031 0.3951972663 -0.1621080352 0.3952496353 -0.1616325292 -0.2551550135 0.1210440335
200298800.0 -0.2661284731 0.1246608334 0.393028258 -0.1665913881 0.3933167431 -0.1668477939 -0.2545024379 0.1234569786
205298770.0 -0.2651371842 0.1271762737 0.3911770259 -0.1714134689 0.3915298277 -0.1712292333 -0.253005777 0.1255424542
210298740.0 -0.2643898025 0.1299071229 0.3896223596 -0.1752963622 0.3897340096 -0.1754186259 -0.2516766667 0.1288987488
215298710.0 -0.2634535446 0.132717479 0.3881568581 -0.1801829945 0.3880204831 -0.180359622 -0.2514888263 0.1310203673
220298680.0 -0.2622774906 0.1351350485 0.3855298487 -0.1842782019 0.3855962328 -0.1849855958 -0.2496804885 0.133601717
225298650.0 -0.2609429198 0.1380985914 0.3838050174 -0.1890624929 0.3841929671 -0.1891062621 -0.2492861798 0.1359985481
230298620.0 -0.2595029218 0.1410397989 0.3817585783 -0.1936261864 0.3822545525 -0.1931708192 -0.2479385368 0.138395347
235298590.0 -0.2582721319 0.1438426265 0.3796494905 -0.1981809391 0.3800810322 -0.1972591992 -0.2463417664 0.1411242452
240298560.0 -0.2571396298 0.1465273003 0.3778217488 -0.2026157193 0.3776896339 -0.2022037496 -0.2451628902 0.1440439558
245298530.0 -0.2560320795 0.1493309251 0.3758119782 -0.2066275431 0.3754595514 -0.2066493165 -0.2439335396 0.1457781074
250298500.0 -0.2542554718 0.1514497465 0.3728283573 -0.2107184199 0.3727699928 -0.2105266497 -0.2429010981 0.1482492943
255298470.0 -0.2529520689 0.1543136205 0.3706465866 -0.2149487805 0.3707550837 -0.2147633289 -0.2412713581 0.150807825
260298440.0 -0.2516081539 0.1570492162 0.3680281198 -0.219573608 0.3684965259 -0.2191904195 -0.2396703413 0.1534344102
265298410.0 -0.2500306848 0.1601398316 0.366122204 -0.2235546114 0.3662470987 -0.2229226863 -0.2382879409 0.1562406503
270298380.0 -0.2485541582 0.1625280104 0.3636481702 -0.2275150738 0.3635841114 -0.2275076095 -0.2369677204 0.1585403586
275298350.0 -0.2469313997 0.1651826225 0.3611100418 -0.231395718 0.3613369292 -0.2315566584 -0.235332094 0.1610101315
280298320.0 -0.2451700765 0.1678685054 0.3586773761 -0.2355426129 0.3586105316 -0.2356128835 -0.2334676912 0.1634685069
285298290.0 -0.2435569029 0.1705811335 0.3559122117 -0.2397789182 0.3558154318 -0.2398878566 -0.2316656564 0.1660941713
290298260.0 -0.2418528878 0.1730054757 0.3532817714 -0.243663555 0.3535541312 -0.243795766 -0.2299433543 0.1686927078
295298230.0 -0.2400259212 0.1755736753 0.3504675206 -0.2474544815 0.3505487695 -0.2477461273 -0.2283953585 0.1706489567
300298200.0 -0.2384561793 0.178183914 0.3480788501 -0.2513838827 0.348206253 -0.2521089706 -0.2268292317 0.1733106352
305298170.0 -0.2365245738 0.1807337237 0.3450243314 -0.255945231 0.3449155493 -0.2554368689 -0.2245709663 0.1758689767
310298140.0 -0.2349994011 0.1836501313 0.3425488023 -0.2595973322 0.3421798654 -0.2593735034 -0.2228304793 0.1779817661
315298110.0 -0.2331002495 0.185882468 0.3393027484 -0.2635645616 0.339721533 -0.2633717695 -0.2212685467 0.1803806101
320298080.0 -0.2311551803 0.1881931837 0.3360693209 -0.2678176058 0.3363874662 -0.2673599717 -0.2193945006 0.1830792957
325298050.0 -0.2293954589 0.1908185072 0.3332147805 -0.2714726702 0.3333399495 -0.2708677465 -0.2178041389 0.1850978343
330298020.0 -0.2275949045 0.1930306719 0.3300738115 -0.2750819224 0.3302935643 -0.2750626589 -0.215804688 0.1877950023
335297990.0 -0.2260013837 0.1954391388 0.3275341739 -0.278436866 0.3270559174 -0.2786720465 -0.2145613216 0.1908180238
340297960.0 -0.2240704844 0.1983534263 0.3238658255 -0.281737312 0.3235399946 -0.2822141591 -0.2121410943 0.1930848677
345297930.0 -0.2223449574 0.2004279415 0.3206653748 -0.2857287147 0.3202579385 -0.2858070873 -0.2104369151 0.1948607419
350297900.0 -0.2200457751 0.2030410103 0.3168499951 -0.2895840937 0.3172554289 -0.2891822363 -0.2089206086 0.1980421397
355297870.0 -0.2177702762 0.2058877466 0.3141168846 -0.2929714576 0.3144416111 -0.2927164349 -0.2069077329 0.2004085478
360297840.0 -0.2159322447 0.2082950892 0.3111960185 -0.2962570467 0.3112520222 -0.2960198411 -0.2048743184 0.2030583217
365297810.0 -0.2141016302 0.2109050782 0.3077114809 -0.2998974055 0.3077184968 -0.2999316156 -0.202582066 0.2049377229
370297780.0 -0.2116148709 0.2131184453 0.3041556826 -0.3032575074 0.3048046155 -0.3027601868 -0.2009633855 0.2074281988
375297750.0 -0.2094683302 0.2156464517 0.3009487549 -0.3062335249 0.3012393119 -0.306158698 -0.1988394352 0.2096324315
380297720.0 -0.2073900693 0.2178837342 0.2973617657 -0.3099454861 0.2976609137 -0.3092655963 -0.1968682232 0.211937906
385297690.0 -0.2052492867 0.2201348279 0.2940289187 -0.3126745868 0.2940382733 -0.3129801243 -0.1945022136 0.2142422891
390297660.0 -0.2032196209 0.2227029437 0.2906427502 -0.3160859502 0.290543465 -0.3156339719 -0.1927760787 0.216445718
395297630.0 -0.2009116246 0.22540487 0.2872413971 -0.3193855427 0.2874464575 -0.319228841 -0.1901551287 0.2188554127
400297600.0 -0.1984550533 0.2271964096 0.2833841611 -0.3226005504 0.2838669252 -0.32270535 -0.1884306702 0.2208427025
405297570.0 -0.1966057112 0.2294314506 0.2800049467 -0.3251832343 0.2797835639 -0.325304946 -0.186058969 0.2230263488
410297540.0 -0.1939155679 0.2315760804 0.2764640676 -0.3283845451 0.276625155 -0.3287947149 -0.1838447394 0.2252759488
415297510.0 -0.1911178671 0.2334921734 0.2721261759 -0.3316969718 0.2729559181 -0.3319051204 -0.1814194584 0.2273806839
420297480.0 -0.1890892667 0.2364590762 0.2686603489 -0.3344206296 0.2689081113 -0.334684053 -0.1792398217 0.2289601436
425297450.0 -0.186475777 0.2381624461 0.2654201947 -0.3376025805 0.265856789 -0.3377031434 -0.1772661157 0.2312317476
430297420.0 -0.1842379417 0.2402200962 0.2614546372 -0.3400979141 0.2615474749 -0.3400825119 -0.1748132544 0.233290485
435297390.0 -0.1817915815 0.2423619754 0.2574884327 -0.3427943246 0.2575996121 -0.3430510422 -0.1720648697 0.2348923087
440297360.0 -0.1793305264 0.2448263148 0.2541171727 -0.3458861886 0.2541937098 -0.3457588079 -0.1697473298 0.236998662
445297330.0 -0.1767352449 0.2465588411 0.25063632 -0.3488182263 0.250214044 -0.3482701959 -0.1671425656 0.2382916356
450297300.0 -0.1739273829 0.2483681164 0.2464071356 -0.3513301024 0.2464203169 -0.3514774209 -0.1646470642 0.2402308256
455297270.0 -0.1714657508 0.2504459624 0.2422457118 -0.3541503944 0.2424534388 -0.3542152057 -0.1621876599 0.2422540882
460297240.0 -0.1693133403 0.2523891642 0.2381942675 -0.3564483206 0.2385009086 -0.3567485185 -0.1597045624 0.2441412526
465297210.0 -0.1663583908 0.2546026402 0.2346248199 -0.3593871097 0.2347834925 -0.3593513983 -0.15678895 0.2458552825
470297180.0 -0.1636802743 0.2563274825 0.2306685875 -0.3614992033 0.2308353239 -0.3618781774 -0.1542642706 0.2481273295
475297150.0 -0.1608972802 0.257826708 0.2263396745 -0.3638944754 0.2265715461 -0.3636538872 -0.1513179221 0.2494576483
480297120.0 -0.1582007604 0.2602367119 0.2224579488 -0.3668855489 0.2223270148 -0.3665674934 -0.1485827496 0.2513757303
485297090.0 -0.1556168449 0.2618714957 0.2188883567 -0.3687670541 0.2185737089 -0.3686899437 -0.1461837108 0.2529963373
490297060.0 -0.1531215493 0.2638131824 0.2148847227 -0.3713001843 0.2144910351 -0.3709442065 -0.1433019642 0.2546972339
495297030.0 -0.1503237849 0.2653383016 0.2103346432 -0.3731272939 0.2106047419 -0.3734085925 -0.1408605531 0.256722768
500297000.0 -0.1471946779 0.267211846 0.206247257 -0.3754139018 0.2062828387 -0.3755043695 -0.1384399361 0.2586808875
505296970.0 -0.1444709213 0.2687086172 0.202325703 -0.3778975738 0.2019482324 -0.3777278003 -0.1352993673 0.2599292446
510296940.0 -0.1415057711 0.2702693966 0.1978636728 -0.3799382062 0.1978985072 -0.380085907 -0.1327208756 0.2616574014
515296910.0 -0.1385970129 0.2719382718 0.1937870947 -0.3822667951 0.1936844659 -0.3822528367 -0.1298015146 0.263543921
520296880.0 -0.1360309671 0.2736399479 0.1897911837 -0.3847538681 0.1897140756 -0.3843055028 -0.1273510673 0.2648671865
525296850.0 -0.1329747906 0.2750665613 0.1851916432 -0.3862034443 0.1856792253 -0.3862782262 -0.1245280382 0.2662883819
530296820.0 -0.1301257758 0.2766062389 0.1808527895 -0.3883023738 0.1812150825 -0.3883939085 -0.1215262989 0.2681214828
535296790.0 -0.1275772817 0.278271691 0.1772185984 -0.3899788087 0.1774807447 -0.3900257082 -0.1193918823 0.2693362534
540296760.0 -0.1249178081 0.2798661994 0.1727822592 -0.3924082904 0.1727065267 -0.3921364224 -0.1163475184 0.270842951
545296730.0 -0.1220474663 0.2816227641 0.1681881614 -0.3939184337 0.1683889587 -0.393881412 -0.1134433916 0.2721327979
550296700.0 -0.1185709292 0.2826150846 0.1640418775 -0.3954292151 0.1640739456 -0.3959436165 -0.110632411 0.2737530068
555296670.0 -0.115649505 0.2840079957 0.1598638347 -0.3974646745 0.1600284166 -0.3974163657 -0.1081176819 0.2752645999
560296640.0 -0.112536489 0.285442825 0.1550728745 -0.3989809645 0.155496211 -0.3991274731 -0.1048664963 0.2764103171
565296610.0 -0.1098782059 0.2871149456 0.1507186883 -0.4007601739 0.1508421359 -0.4006448579 -0.1019585746 0.277457215
570296580.0 -0.1066197161 0.2880120684 0.1463849151 -0.4025620172 0.1462492196 -0.4024282203 -0.0995386061 0.279053692
575296550.0 -0.1040896664 0.2895371149 0.1422296389 -0.4041673174 0.1423484031 -0.4039984128 -0.096463039 0.2801706575
580296520.0 -0.1006651114 0.2908693977 0.1379621997 -0.4057418511 0.1379664522 -0.4055114133 -0.0934624049 0.2811719503
585296490.0 -0.0977765479 0.291895039 0.1335076839 -0.4067989747 0.1336620337 -0.4068365793 -0.0907063502 0.2821523655
590296460.0 -0.0944978899 0.2930767529 0.1289736457 -0.4078275908 0.1292114869 -0.407990616 -0.0879346133 0.2834271392
595296430.0 -0.0915962302 0.2940871548 0.1242374376 -0.4096914631 0.1243185641 -0.4098364445 -0.0847900796 0.2840923292
600296400.0 -0.0886798932 0.2953912741 0.1198860399 -0.4109898374 0.1198946364 -0.4107788531 -0.082089203 0.2853263039
605296370.0 -0.0857310546 0.2962836235 0.1153928188 -0.4120128816 0.115822153 -0.4120300952 -0.0786471761 0.286234817
610296340.0 -0.0823870384 0.2974169271 0.1103758227 -0.4132333248 0.1108402703 -0.413083297 -0.075702902 0.2868626332
615296310.0 -0.0789388782 0.29796575 0.1062736099 -0.4138677904 0.1066242792 -0.4145934846 -0.0726188714 0.2880236063
620296280.0 -0.0760074781 0.298862039 0.1017251775 -0.415338409 0.1019849204 -0.4154151451 -0.0697514407 0.2889285014
625296250.0 -0.0731542654 0.2997528916 0.0977020789 -0.4163392353 0.0976702695 -0.4166256827 -0.0662850284 0.2896797813
630296220.0 -0.0693444555 0.3009946598 0.0923151706 -0.4175489132 0.0926187961 -0.4172837681 -0.0633951659 0.2906288681
635296190.0 -0.0669150649 0.3016847136 0.0885165938 -0.4180462142 0.0882961051 -0.4187644507 -0.0604745228 0.2910761907
640296160.0 -0.0638414176 0.3027309072 0.0838960603 -0.4189392226 0.0840379527 -0.4194078808 -0.0570945815 0.2921200927
645296130.0 -0.0605189736 0.3037850463 0.079036971 -0.4201465126 0.0796476751 -0.4199776111 -0.054031376 0.2928411008
650296100.0 -0.0571183225 0.3040151168 0.0745708848 -0.4206415058 0.0748923788 -0.420873582 -0.0506012636 0.293273117
655296070.0 -0.0543647113 0.3046417461 0.0702505468 -0.4217280905 0.0703741389 -0.4215489075 -0.0475414808 0.2943194469
660296040.0 -0.0510244386 0.3052098074 0.0657239639 -0.4220688588 0.0655207322 -0.4224882763 -0.0442126831 0.2947781971
665296010.0 -0.047501005 0.305773384 0.0606344664 -0.4226320491 0.0609695622 -0.4231457162 -0.0411405722 0.2956552193
670295980.0 -0.0451231608 0.3071826704 0.0564262281 -0.423487736 0.0562531754 -0.4235808869 -0.0385827321 0.2962063897
675295950.0 -0.0413423121 0.3074100476 0.0518219987 -0.4240149089 0.0520204788 -0.4237211757 -0.0355318252 0.2968224007
680295920.0 -0.0383411923 0.3080051359 0.0473365237 -0.4245934033 0.0469353687 -0.4248922081 -0.0316483584 0.297946725
685295890.0 -0.0348927764 0.3089413338 0.0425255038 -0.4252698349 0.0424917505 -0.425085851 -0.0288224049 0.2982107981
690295860.0 -0.0318388339 0.3091872384 0.038376871 -0.4249632921 0.0382145367 -0.4257450297 -0.0259897915 0.299269918
695295830.0 -0.0286029682 0.3093418897 0.0338903565 -0.4254219266 0.0329435245 -0.4257532955 -0.0226378963 0.2990746178
700295800.0 -0.025247985 0.3096950632 0.0288853641 -0.4258311981 0.0285031773 -0.4258066556 -0.0197661171 0.2998250486
705295770.0 -0.021774406 0.3109992921 0.0236227986 -0.4266379097 0.0241792695 -0.4264543433 -0.0167654457 0.3004268899
710295740.0 -0.0185095398 0.3110979636 0.0195528297 -0.4264963944 0.019480415 -0.4267153366 -0.0135001539 0.3000603221
715295710.0 -0.0155839217 0.3111380042 0.0155417957 -0.4267589901 0.0146157682 -0.4267195883 -0.0101005554 0.3006555692
720295680.0 -0.0123445847 0.3113657491 0.0103677355 -0.4268094876 0.0105953238 -0.4270728043 -0.007059376 0.3014147207
725295650.0 -0.0087834141 0.3119801859 0.0056049575 -0.4271219529 0.0058285484 -0.4270065957 -0.0043178167 0.3017473207
730295620.0 -0.005123373 0.3120433545 0.0007584625 -0.426575413 0.0011991277 -0.4270722927 -0.0011594015 0.3015383547
735295590.0 -0.0027061588 0.3121701864 -0.0035174307 -0.4268937974 -0.0034987104 -0.4269470053 0.0019622765 0.3015959465
740295560.0 0.0006786229 0.3123641478 -0.0082878856 -0.4265459527 -0.0083438787 -0.4269961083 0.0055503476 0.3020861351
745295530.0 0.0041304505 0.3128175793 -0.0129040664 -0.4263934202 -0.0129249709 -0.426651404 0.0083281057 0.3016727122
750295500.0 0.007442891 0.3125336484 -0.0172919586 -0.4261444903 -0.0174017613 -0.426339855 0.0113275728 0.3017470862
755295470.0 0.0106129487 0.3123154918 -0.0219342785 -0.4260546991 -0.0222270276 -0.4260607057 0.0148110476 0.301540885
760295440.0 0.0136486827 0.3126471826 -0.0262430719 -0.4258013674 -0.0267503196 -0.4260303031 0.0174794005 0.3014924073
765295410.0 0.0172273037 0.3124889073 -0.0315407552 -0.4252681622 -0.0314553869 -0.4256778074 0.0208864988 0.3015819436
770295380.0 0.0201160825 0.3125591719 -0.036272822 -0.4250249987 -0.0361805829 -0.4246758868 0.0240714787 0.3014909513
775295350.0 0.0232939873 0.312131804 -0.0406125302 -0.4240996258 -0.0402589645 -0.4244550138 0.0268757989 0.3013681206
780295320.0 0.0268761821 0.3122327134 -0.0450511255 -0.4241231088 -0.0444780357 -0.4238711208 0.030206439 0.300911173
785295290.0 0.0298878107 0.3116349305 -0.0498378762 -0.4231775388 -0.0498050577 -0.42334137 0.0338910333 0.3006420745
790295260.0 0.0336635527 0.3119136862 -0.0541472034 -0.4226927102 -0.0533774745 -0.4225790445 0.037050135 0.3007375295
795295230.0 0.0365529179 0.3112656827 -0.0587091474 -0.4221128538 -0.0583455178 -0.4220601405 0.0402621701 0.3004801439
800295200.0 0.0394202626 0.3110733708 -0.0636195417 -0.4212062213 -0.0633242131 -0.4214100046 0.0435022214 0.29978632
805295170.0 0.0429207263 0.3106330069 -0.06766994 -0.4205148622 -0.0677219875 -0.42076395 0.0463308152 0.2997628659
810295140.0 0.0464717967 0.3103850773 -0.0721592992 -0.4197395185 -0.0724564532 -0.419884825 0.0497724989 0.2993553116
815295110.0 0.049161898 0.3099744767 -0.0767218524 -0.4185842131 -0.0762868674 -0.4191126133 0.0530114685 0.2988749095
820295080.0 0.05242663 0.3100885194 -0.0810422152 -0.4180282073 -0.080868974 -0.4181786061 0.056250414 0.2987124494
825295050.0 0.0565190919 0.309240255 -0.0855810003 -0.4169609028 -0.085683473 -0.4170714249 0.0595136089 0.2980591633
830295020.0 0.059216779 0.3089283493 -0.090464372 -0.4159691917 -0.0905323757 -0.4164125688 0.0633110378 0.2975549379
