!Created with skrf (http://scikit-rf.org).
# Hz S RI R 50.0 
!freq ReS11 ImS11 ReS21 ImS21 ReS12 ImS12 ReS22 ImS22
300000.0 -0.3213284518 -0.0840110486 0.3762972415 0.0454353759 0.3725558647 0.0426061819 -0.3183214457 -0.1036774082
5299970.0 -0.3263114102 0.0039857962 0.3783644855 0.0023900792 0.3782627132 0.0028088533 -0.3237197302 0.0047927618
10299940.0 -0.3242839239 0.0135163974 0.3794113944 0.0021236689 0.3794128036 0.0021555907 -0.3214422146 0.0159543192
15299910.0 -0.3214741855 0.0202044642 0.3815377242 0.0020883382 0.3818227825 0.002148694 -0.3183813047 0.0235991088
20299880.0 -0.3186610919 0.0261359695 0.3849220471 0.0019847516 0.3849924627 0.0016816998 -0.314591406 0.0301220502
25299850.0 -0.3155271746 0.031696981 0.3879584214 2.25116e-05 0.3880213725 0.00015498 -0.3105098754 0.0361615814
30299820.0 -0.3129291211 0.0356605093 0.3915350618 -0.0021018409 0.3913352122 -0.0025030547 -0.3072876929 0.0410791459
35299790.0 -0.3100759121 0.039792581 0.394713187 -0.005432913 0.3950720428 -0.0055288833 -0.3038348138 0.0452463381
40299760.0 -0.3072954723 0.0435589676 0.3976876158 -0.008958258 0.3980742136 -0.0088758214 -0.3000753 0.0484430023
45299730.0 -0.3044089602 0.0466628469 0.4006041632 -0.0127713553 0.4011325256 -0.0127060707 -0.2973265614 0.0519365747
50299700.0 -0.3023487876 0.0494207299 0.4035606637 -0.0169645142 0.4033365227 -0.0170346868 -0.2939948778 0.0543689973
55299670.0 -0.3004403105 0.0519925414 0.4057817801 -0.0224874396 0.4054299465 -0.0219646742 -0.2916832601 0.0571484252
60299640.0 -0.2981975702 0.0552819597 0.4075019824 -0.0271729412 0.407797405 -0.0267591149 -0.2891103749 0.059432502
65299610.0 -0.2960973895 0.0574838552 0.4090463062 -0.0320837104 0.4094007098 -0.0318676565 -0.2872162385 0.0619182725
70299580.0 -0.2946070324 0.0601939626 0.4105832704 -0.0371316124 0.4100909264 -0.0370624237 -0.2848865566 0.0640233825
75299550.0 -0.2928051322 0.0625009686 0.4111916008 -0.042130933 0.4112815371 -0.0425106224 -0.2831830303 0.065979998
80299520.0 -0.2917605944 0.0646627012 0.4123435928 -0.0474836568 0.4123871075 -0.0475794527 -0.2815545143 0.0682332975
85299490.0 -0.2904658086 0.0667778196 0.4129769055 -0.0525826075 0.4127646325 -0.0523081361 -0.2802036077 0.0701352817
90299460.0 -0.2886674114 0.0691254521 0.4128321942 -0.0580293031 0.4133848443 -0.0578334623 -0.2783862932 0.071864314
95299430.0 -0.287290983 0.0715234758 0.4135033954 -0.0633228885 0.4133898572 -0.0634078311 -0.276648899 0.0743147299
100299400.0 -0.2863451369 0.0739713847 0.4129891741 -0.0684487755 0.4134210497 -0.0681587799 -0.2751524002 0.0760022591
105299370.0 -0.2852446287 0.07624152 0.413269724 -0.0735354976 0.4136241787 -0.0733988399 -0.2737977675 0.0780704001
110299340.0 -0.284128625 0.0788092724 0.4134459765 -0.0788950365 0.4129892683 -0.0784768409 -0.2726993993 0.0802342463
115299310.0 -0.2830507492 0.0814685304 0.4126347557 -0.0840976585 0.4127669016 -0.0839804118 -0.2715862456 0.0828697658
120299280.0 -0.281977068 0.0831460843 0.4121176886 -0.0890066462 0.4122977095 -0.0892902465 -0.2705491169 0.0843804991
125299250.0 -0.2808875003 0.0852205238 0.4119295362 -0.093884392 0.4121899921 -0.0938090311 -0.2697932144 0.0863281198
130299220.0 -0.2803158859 0.0882120103 0.4109101228 -0.0988277461 0.4114006747 -0.099013071 -0.2684614097 0.0886708932
135299190.0 -0.2791236888 0.0908890618 0.4106267984 -0.1042589635 0.4103673779 -0.1040851927 -0.2673729746 0.0908642679
140299160.0 -0.2783900419 0.0931228701 0.4098049437 -0.1092734597 0.4097720257 -0.1092685844 -0.2661467062 0.0936796918
145299130.0 -0.2774663982 0.0956499063 0.4087448004 -0.1140044508 0.4088396866 -0.1140874044 -0.2651452156 0.0955305721
150299100.0 -0.2760937425 0.0983885136 0.4073848649 -0.1187730398 0.4078914073 -0.1184999985 -0.2643008015 0.0984863748
155299070.0 -0.2757238594 0.100886777 0.4066849926 -0.1244298635 0.4067461948 -0.123883415 -0.2630564187 0.1005373293
160299040.0 -0.2745304451 0.1033870363 0.405007204 -0.1286520822 0.405011311 -0.1287789531 -0.2622687792 0.1030584178
165299010.0 -0.2737053011 0.1059349798 0.4040438562 -0.1337999775 0.4042814035 -0.133865441 -0.2611870775 0.1057765446
170298980.0 -0.2727674162 0.108603483 0.402452867 -0.1384406077 0.4031042583 -0.1383299341 -0.2603277851 0.1080660347
175298950.0 -0.2716682575 0.1111878472 0.4014502302 -0.1431154148 0.4012102184 -0.1429360457 -0.2594114885 0.1105644435
180298920.0 -0.2708997749 0.1140939689 0.3999218609 -0.1480859696 0.3998237022 -0.147616699 -0.2587195205 0.1132155403
185298890.0 -0.2695850513 0.1162260553 0.3984074258 -0.1525993477 0.3983321071 -0.1527229457 -0.257105778 0.1157384126
190298860.0 -0.2687146852 0.1192135393 0.3967926929 -0.1572280871 0.3972292058 -0.1569526912 -0.2562797528 0.118110349
195298830.0 -0.2677670844 0.1215409668 0.3950834965 -0.1618605403 0.3954467285 -0.1616141062 -0.2551714228 0.1210165306
200298800.0 -0.2662117893 0.124792951 0.3934000275 -0.1668519873 0.3935692538 -0.1664618262 -0.2544370296 0.1231796555
205298770.0 -0.2654764164 0.1271873936 0.3916734451 -0.1711895951 0.3918215048 -0.1709175708 -0.2531099886 0.1252483251
210298740.0 -0.2642804731 0.1300759596 0.389420857 -0.1754576106 0.3900019521 -0.1753387039 -0.2517268171 0.1285287986
215298710.0 -0.2633909064 0.1326594558 0.3878430796 -0.1800670387 0.3879306261 -0.1805956625 -0.2511832142 0.1311068538
220298680.0 -0.2622393927 0.1352956764 0.3854873957 -0.1846331595 0.3859427835 -0.1843302069 -0.2501028315 0.1333922176
225298650.0 -0.260996705 0.1379742642 0.3839774035 -0.1892592454 0.3840357034 -0.1891740595 -0.2490349709 0.1358060137
230298620.0 -0.2595889669 0.1407393624 0.3821105897 -0.1932279228 0.3822559413 -0.1933588911 -0.2476071618 0.1385188163
235298590.0 -0.2583854097 0.143673482 0.3800439844 -0.1976838582 0.379855727 -0.1976788435 -0.2465587609 0.1412248054
240298560.0 -0.2569785586 0.1463492755 0.3776217215 -0.202370614 0.3774900757 -0.2021194464 -0.2450676357 0.1440926923
245298530.0 -0.2559531437 0.1489915072 0.375670373 -0.207000474 0.3753558317 -0.2067026215 -0.2439040455 0.1460282994
250298500.0 -0.2540355155 0.1517939763 0.372753149 -0.2107681645 0.3727086512 -0.2105566683 -0.2426568299 0.1480902026
255298470.0 -0.2526209761 0.154394362 0.370068516 -0.2148930149 0.3709393502 -0.2150541063 -0.2412959094 0.1509662805
260298440.0 -0.2517872261 0.1567218405 0.3683764817 -0.2194920652 0.3686461743 -0.2189741979 -0.2398424516 0.1536334363
265298410.0 -0.2499628156 0.1600898554 0.3658588185 -0.2236017264 0.3661452062 -0.2232448947 -0.2382792984 0.1562924728
270298380.0 -0.2482668615 0.1626939885 0.3635645034 -0.2275366767 0.3639308344 -0.2275090561 -0.2370886384 0.1585969123
275298350.0 -0.2469400052 0.1653732314 0.3610183883 -0.2319483705 0.3613610701 -0.2315130508 -0.2348845262 0.1610006132
280298320.0 -0.2450958179 0.1677470533 0.3587576515 -0.2357566765 0.3585336791 -0.2354626097 -0.2334103133 0.1632417577
285298290.0 -0.243592566 0.1708184693 0.3558496147 -0.2397595946 0.3557979402 -0.2399187723 -0.2320061664 0.1661688334
290298260.0 -0.2419936733 0.1732803961 0.3532248372 -0.2437922299 0.3531219783 -0.2436987278 -0.2301285437 0.1688084259
295298230.0 -0.2398788623 0.1754303898 0.3504531112 -0.2474964511 0.3504327454 -0.2476425934 -0.2278288158 0.1705444364
300298200.0 -0.2386692568 0.1783781706 0.3480130838 -0.251538742 0.3484508733 -0.2519846 -0.2268779135 0.1734208401
305298170.0 -0.236597932 0.1805445443 0.3447027998 -0.2562002659 0.3449886846 -0.2557518053 -0.2244910135 0.1756229953
310298140.0 -0.2346979349 0.1835506893 0.3419096601 -0.2597610109 0.3423872753 -0.2596959872 -0.2230654584 0.1781815128
315298110.0 -0.2330920641 0.185491715 0.339478571 -0.263180226 0.3395788794 -0.263690945 -0.2211417117 0.1803918084
320298080.0 -0.2312523293 0.18825649 0.3361605781 -0.2675841825 0.3366357694 -0.2673578399 -0.2192409625 0.1829677043
325298050.0 -0.2294128496 0.1908907883 0.3334040684 -0.2713540533 0.3333713101 -0.2712013346 -0.2176345475 0.185344218
330298020.0 -0.2276613274 0.193011683 0.3302749736 -0.2750462136 0.3303029678 -0.2750866129 -0.216100846 0.187731902
335297990.0 -0.2255846373 0.1952241865 0.3271371792 -0.2784684201 0.3272837305 -0.2786870721 -0.2145466038 0.1905746272
340297960.0 -0.2242026432 0.1982002608 0.3238785709 -0.28210412 0.323926638 -0.2822822951 -0.2121848133 0.1930250346
345297930.0 -0.2221460533 0.2008285344 0.3207481215 -0.2859501345 0.3201689759 -0.2857693683 -0.2102954474 0.194958604
350297900.0 -0.2199598465 0.2030370476 0.3169265372 -0.2892844684 0.3170696525 -0.289238623 -0.2088061954 0.1980593204
355297870.0 -0.2180702958 0.2063011041 0.3139382769 -0.2930942147 0.3144210092 -0.292862225 -0.2070622081 0.2002215485
360297840.0 -0.2158543904 0.2082970815 0.3111866181 -0.296143663 0.3110966617 -0.2960562599 -0.204988054 0.202844861
365297810.0 -0.2140213749 0.2112479825 0.3075112248 -0.3000340245 0.3078234496 -0.2998171652 -0.202731928 0.2048940339
370297780.0 -0.2116530695 0.2132287362 0.3038325282 -0.3030729629 0.3044679139 -0.3025855112 -0.2007470092 0.2071311539
375297750.0 -0.2096740955 0.2159616283 0.3008224736 -0.3064138683 0.3011601208 -0.3064730342 -0.1987851148 0.2093524145
380297720.0 -0.2073915676 0.2178605081 0.2975946394 -0.3098142403 0.2976760985 -0.3090593655 -0.1970373146 0.211752691
385297690.0 -0.2054822942 0.2203553124 0.2939059989 -0.3127912925 0.2938509503 -0.312818565 -0.1945442445 0.2143297659
390297660.0 -0.2033012033 0.2224194209 0.2904384492 -0.3159049651 0.2906385693 -0.3159866322 -0.1925488909 0.2162841276
395297630.0 -0.2006887648 0.2252443484 0.2872500212 -0.3192546416 0.2872355028 -0.3190116998 -0.1901116035 0.218307342
400297600.0 -0.1987297495 0.2272531021 0.2833943339 -0.3225168494 0.2835752154 -0.32264956 -0.1878215969 0.2208215543
405297570.0 -0.1964449575 0.2296380561 0.2799102554 -0.3253239951 0.2799885667 -0.3250541562 -0.185821686 0.2230030374
410297540.0 -0.1937866549 0.2316033813 0.2765744305 -0.32860392 0.2765909458 -0.3285746903 -0.1837899548 0.2250344277
415297510.0 -0.1911767951 0.233622658 0.2724316365 -0.3317366397 0.2729548054 -0.3316488735 -0.1813513056 0.2271486327
420297480.0 -0.1892237343 0.2364744463 0.2687792548 -0.3345513947 0.269064573 -0.3347874818 -0.1792568505 0.2294642474
425297450.0 -0.1862277095 0.2384175401 0.2652288026 -0.3374648623 0.2653982925 -0.3372815807 -0.1769574669 0.2313118422
430297420.0 -0.1843455739 0.2404071927 0.2616749281 -0.3400738894 0.2616091243 -0.3398738492 -0.1747946811 0.2329626278
435297390.0 -0.1816398559 0.2425213709 0.2573212763 -0.3430876171 0.2574216894 -0.3430973931 -0.1717746479 0.2349479971
440297360.0 -0.1793565623 0.2446721489 0.2540616114 -0.345697986 0.2540417322 -0.3457686048 -0.1696142742 0.2367880354
445297330.0 -0.1765290037 0.246537429 0.2505271584 -0.3483915228 0.2501044756 -0.3480790906 -0.1669309425 0.2384182421
450297300.0 -0.1738172438 0.2485698692 0.2460220685 -0.3516067937 0.2462966428 -0.3513680705 -0.1646872135 0.2402552585
455297270.0 -0.1716404986 0.2505842635 0.2421795374 -0.3540991243 0.2425850494 -0.3538013298 -0.1622957475 0.2419986006
460297240.0 -0.1690221705 0.2523352391 0.2384099504 -0.3564900654 0.2386288695 -0.3567300711 -0.1596666358 0.2444435428
465297210.0 -0.1662917517 0.2548203987 0.2348268426 -0.3592920127 0.2348217339 -0.3592888218 -0.1567641523 0.2457625754
470297180.0 -0.1634531513 0.2559991253 0.2302138444 -0.3613186605 0.2306533929 -0.361557015 -0.1541998885 0.247881569
475297150.0 -0.1608062929 0.2580275598 0.2263448812 -0.3636328829 0.2269167459 -0.363662409 -0.1513883997 0.2494402217
480297120.0 -0.1584591059 0.2600087348 0.2226779509 -0.3666529567 0.2223414686 -0.3667747121 -0.1486840459 0.2513706321
485297090.0 -0.1556921491 0.2617280785 0.2187161112 -0.3688035475 0.2184105122 -0.3685177824 -0.1461638937 0.2529435615
490297060.0 -0.1531800056 0.2637376374 0.2147012272 -0.3715095461 0.2148538051 -0.3711244288 -0.1436797417 0.2548008251
495297030.0 -0.1502242738 0.2654945453 0.2101417936 -0.3737161166 0.2107743215 -0.3731886941 -0.1410786688 0.2566166595
500297000.0 -0.1473607428 0.2671057997 0.2062213597 -0.3758407884 0.2060468297 -0.3754929879 -0.1379256388 0.2587955125
505296970.0 -0.1443173805 0.2685442024 0.2021665075 -0.3777920886 0.2020243556 -0.377859657 -0.1353416904 0.2600322384
510296940.0 -0.1418849334 0.270550044 0.1980880689 -0.3804399282 0.1977059729 -0.3803927631 -0.1326170064 0.2617135291
515296910.0 -0.1389764234 0.2719942886 0.1936976762 -0.3822869586 0.193881215 -0.3821920226 -0.1296423727 0.2634559587
520296880.0 -0.1362783164 0.2735050532 0.1896682758 -0.3846200184 0.1897021037 -0.3842000597 -0.1272966105 0.2646782606
525296850.0 -0.132989291 0.2747539428 0.1853563484 -0.3864106064 0.1856418199 -0.386486617 -0.124485311 0.2664519165
530296820.0 -0.1299015661 0.2767304483 0.1810816013 -0.3885124038 0.1814557134 -0.388355348 -0.1217972675 0.2679553215
535296790.0 -0.1277279489 0.2781923352 0.1771138945 -0.3898738117 0.1770465869 -0.3896470542 -0.1192001357 0.2690587205
540296760.0 -0.1247531992 0.2797911514 0.172856191 -0.3920864565 0.1724307392 -0.3924156213 -0.1159699932 0.2710703784
545296730.0 -0.1218176683 0.2813025482 0.1682526602 -0.3936488258 0.1683274157 -0.394062739 -0.1135349798 0.2723714432
550296700.0 -0.1184850803 0.2825753407 0.1638245343 -0.395647939 0.163947134 -0.3960491245 -0.1110870451 0.2735210595
555296670.0 -0.1159120993 0.2836177908 0.1599157799 -0.3971644702 0.159734088 -0.3973711089 -0.1078496609 0.2753228368
560296640.0 -0.1126608149 0.2858393402 0.1551531285 -0.3994462251 0.1555054021 -0.3990629388 -0.1049093648 0.2761647372
565296610.0 -0.1100578114 0.2867724877 0.151105473 -0.4007688563 0.1512246604 -0.4005004122 -0.1024998445 0.2775264783
570296580.0 -0.1069341009 0.2879517696 0.1464709488 -0.4028053659 0.1460950757 -0.4027141862 -0.0992933523 0.2794715625
575296550.0 -0.1040448122 0.2898286229 0.1423882443 -0.4042578419 0.1421069899 -0.404030808 -0.0964832449 0.2800854474
580296520.0 -0.1005456927 0.2907547476 0.1378146444 -0.405938638 0.1379338879 -0.405578505 -0.0934557308 0.2811346948
585296490.0 -0.097876147 0.2918047584 0.1333614823 -0.4067657258 0.1333381463 -0.4069605622 -0.0905256001 0.2821516357
590296460.0 -0.0944233806 0.2929991091 0.1290593233 -0.4079367932 0.1292070793 -0.4080825989 -0.0881110993 0.283307319
595296430.0 -0.0915792231 0.2941193682 0.1241135155 -0.4099192444 0.1242013518 -0.4094725822 -0.0847283298 0.284073449
600296400.0 -0.0886333593 0.2953859179 0.1200295476 -0.4110747826 0.1199686567 -0.4103390381 -0.0820427144 0.2850411891
605296370.0 -0.085700044 0.2962101223 0.1151700426 -0.4121247292 0.1155790758 -0.4121224944 -0.0786976006 0.2863356784
610296340.0 -0.0822936167 0.2974061121 0.1104767809 -0.4129774245 0.1110876611 -0.4130908505 -0.0756247854 0.2869966899
615296310.0 -0.0790817066 0.2980710932 0.1066081032 -0.4140395082 0.1064365951 -0.4146252954 -0.0726329271 0.2877114327
620296280.0 -0.0762643286 0.2988314271 0.1019318788 -0.415354915 0.1020573957 -0.4151448407 -0.0697746181 0.2888224327
625296250.0 -0.0729204979 0.2997905964 0.0978490114 -0.4166023985 0.0973707458 -0.416628833 -0.0662845403 0.289217103
630296220.0 -0.0694364175 0.301030275 0.0921342602 -0.4177547706 0.0927349481 -0.4176753494 -0.0632031442 0.2905702793
635296190.0 -0.0669661735 0.3016126647 0.088419891 -0.4183122183 0.0882013028 -0.4184736335 -0.0600071253 0.2914369556
640296160.0 -0.0637577916 0.3026182715 0.0836269142 -0.4191272609 0.083996127 -0.4195034355 -0.0570850115 0.2919699664
645296130.0 -0.0601462519 0.3036642524 0.0789827646 -0.4199388749 0.0797432569 -0.4201192077 -0.0540960076 0.2926915363
650296100.0 -0.0571759014 0.3040300289 0.0744654852 -0.4209266644 0.0748073842 -0.4205875327 -0.0510180296 0.2930830724
655296070.0 -0.0541880261 0.3050267285 0.0703088987 -0.4217207004 0.0703594486 -0.4216845418 -0.047727896 0.2942111879
660296040.0 -0.0511472024 0.3052991875 0.0657130257 -0.4221053098 0.0657588862 -0.4225927997 -0.0441010037 0.2949143014
665296010.0 -0.047600261 0.3056920948 0.0607606119 -0.4228981586 0.0607941618 -0.4231959181 -0.0413230462 0.296068267
670295980.0 -0.0449748982 0.3070107086 0.0564914416 -0.4234725659 0.0564278407 -0.423346121 -0.0386179228 0.2961998131
675295950.0 -0.0415435333 0.307347227 0.0520270985 -0.4238459033 0.0516803815 -0.4236772376 -0.0356668916 0.2969814509
680295920.0 -0.0383014445 0.3082162652 0.0471503328 -0.4245584265 0.046933661 -0.4247108231 -0.0317705459 0.2979978787
685295890.0 -0.0350245857 0.3088470677 0.0426589256 -0.4248025528 0.04243853 -0.4251482737 -0.0288275434 0.2982024565
690295860.0 -0.0315243218 0.3091986208 0.0379563134 -0.4251479062 0.0379154539 -0.4255394503 -0.0259389413 0.2991146018
695295830.0 -0.0284883022 0.3094496462 0.0338454936 -0.4257122037 0.0332525189 -0.4255524496 -0.0226417995 0.299311502
700295800.0 -0.0250901216 0.3095443312 0.0283560058 -0.4255381743 0.0285766085 -0.4256731845 -0.0199030917 0.2999761052
705295770.0 -0.0220356587 0.3108406692 0.0241004795 -0.4263638263 0.0245113244 -0.4263790093 -0.0167394364 0.300533995
710295740.0 -0.0189127905 0.3110278098 0.0197205628 -0.4271290246 0.0196747148 -0.426868154 -0.0134873836 0.3003107134
715295710.0 -0.015784565 0.3107853924 0.0152250914 -0.4266334089 0.0147782655 -0.4266045495 -0.0104224295 0.3005700059
720295680.0 -0.0124433943 0.3115302091 0.0104939324 -0.426958832 0.0103950724 -0.4270507169 -0.0068916422 0.301179382
725295650.0 -0.0086589738 0.3118720895 0.0058109769 -0.4266789727 0.005914075 -0.4273652849 -0.0043390489 0.3019471434
730295620.0 -0.005584187 0.3117848603 0.0009537412 -0.4265842045 0.0012032603 -0.4267480179 -0.0012935926 0.3015958103
735295590.0 -0.002507313 0.3123275388 -0.0035442677 -0.4269485329 -0.0038927344 -0.4267880515 0.0017361842 0.3013423075
740295560.0 0.0007892746 0.3120586958 -0.008097588 -0.4265181565 -0.0082800048 -0.4269846834 0.0054492192 0.3021229246
745295530.0 0.0038109804 0.3126750414 -0.0130489993 -0.4263221898 -0.0129983653 -0.4267042617 0.0084684022 0.3015516381
750295500.0 0.0074580002 0.3123901743 -0.0175926113 -0.4261208869 -0.0175548836 -0.4263480205 0.0115365651 0.3019484401
755295470.0 0.0107754705 0.3124004843 -0.0220211197 -0.4261988526 -0.0220953005 -0.4261657415 0.0149422745 0.3011853856
760295440.0 0.0137846618 0.3124445396 -0.0267355969 -0.4260265511 -0.0267964208 -0.4259460412 0.017869842 0.3015223594
765295410.0 0.0170412654 0.3123019831 -0.0313137276 -0.4254579416 -0.0314396009 -0.4255993295 0.0212348109 0.3016558197
770295380.0 0.0199346938 0.3123538465 -0.0362505907 -0.4252231606 -0.0360745297 -0.4246496246 0.0244058951 0.3010975082
775295350.0 0.0234200769 0.3120359331 -0.0404984499 -0.424221984 -0.040338531 -0.4245265086 0.0268153166 0.301167066
780295320.0 0.0267165033 0.3119953883 -0.0451547224 -0.4236548407 -0.0445973071 -0.4238349278 0.0300862976 0.3009357776
785295290.0 0.0295810892 0.3114941083 -0.0498359521 -0.423073472 -0.0496923751 -0.4235290064 0.0337382526 0.3007662531
790295260.0 0.0336641679 0.3121769583 -0.0540346231 -0.4231015357 -0.0535560502 -0.4228581806 0.0369942759 0.300544071
795295230.0 0.0366062085 0.3112038589 -0.0587241441 -0.422060345 -0.0584770638 -0.4220826413 0.0405900009 0.3000526769
800295200.0 0.0395239954 0.3114796283 -0.0635455989 -0.4211990355 -0.0632827695 -0.4213228086 0.0434188342 0.2997761726
805295170.0 0.0429629007 0.3107181564 -0.0676633272 -0.4202636342 -0.0680468309 -0.4209179955 0.0465139704 0.29963488
810295140.0 0.0462046547 0.310452462 -0.0721092805 -0.4195953606 -0.072050643 -0.4198303599 0.0500080016 0.2992161889
815295110.0 0.0496702598 0.3101354375 -0.076925399 -0.4185808383 -0.0768871001 -0.4189735733 0.052908576 0.298800073
820295080.0 0.0523671968 0.3098703946 -0.0812482014 -0.4180830423 -0.0810793759 -0.4179854266 0.0562977574 0.2984820795
825295050.0 0.056477836 0.3091858031 -0.0857286125 -0.4170376893 -0.0855709758 -0.4176828839 0.0597139501 0.2984551678
830295020.0 0.0591148186 0.3088708068 -0.0903112269 -0.4159890968 -0.0902501783 -0.4161324703 0.0630170717 0.2979090876
