!Created with skrf (http://scikit-rf.org).
# Hz S RI R 50.0 
!freq ReS11 ImS11 ReS21 ImS21 ReS12 ImS12 ReS22 ImS22
300000.0 -0.0422906847 -0.0720735568 -0.0003532249 0.0004032984 0.0019304756 -9.17234e-05 -0.7645112439 -0.1920533417
5299970.0 -0.0460393991 0.014456015 -0.0001242245 7.81033e-05 0.0001104605 0.0002738722 -0.7848218458 -0.0100327006
10299940.0 -0.0401494424 0.0329611066 -0.000132609 0.0001030462 -5.72372e-05 0.0001736002 -0.7875679392 -0.0053429879
15299910.0 -0.0315922119 0.0472395711 -0.0001622073 2.19887e-05 -9.7003e-06 3.2731e-06 -0.7928019646 -0.0025870695
20299880.0 -0.0216461307 0.0594654763 5.6361e-06 4.66563e-05 -6.85523e-05 2.99353e-05 -0.7993391743 0.0016383755
25299850.0 -0.0099310654 0.0686885417 0.0001375123 6.78847e-05 -2.75455e-05 0.0001446817 -0.8060360657 0.0079475951
30299820.0 0.0013548864 0.0756029842 4.3217e-05 -4.2307e-05 0.0001282018 -8.98766e-05 -0.8120286626 0.0154669398
35299790.0 0.0130602002 0.0800871454 -0.0002444558 0.0002226765 0.0001531061 7.72617e-05 -0.8169479762 0.0245829958
40299760.0 0.0245214994 0.0830295846 -0.0001896498 9.16212e-05 -9.60198e-05 9.64e-05 -0.8209707119 0.0340635845
45299730.0 0.0350480309 0.08415177 7.88756e-05 -0.0002677371 0.0001179295 4.77045e-05 -0.8242129463 0.0438039086
50299700.0 0.045490781 0.0842211965 -8.17479e-05 -0.0001561868 -0.0001736222 3.7379e-05 -0.8265992239 0.0538956041
55299670.0 0.054819411 0.0836549384 1.29069e-05 8.07407e-05 -6.36323e-05 0.0001251248 -0.8290316724 0.0639449847
60299640.0 0.0633892356 0.0815352591 4.80015e-05 7.10123e-05 -3.80514e-05 -0.0001752737 -0.8297979942 0.0741105387
65299610.0 0.0715820612 0.0791968763 5.8027e-06 7.20035e-05 0.0001583324 2.8588e-05 -0.8300629968 0.0839212666
70299580.0 0.0779941506 0.0759142747 -0.0002547681 0.0001521933 -0.0001192015 -8.53586e-05 -0.8309251503 0.0936577587
75299550.0 0.0843760034 0.0729931193 -0.0001027644 -0.0001588365 -8.91618e-05 7.80342e-05 -0.8308145543 0.1043412624
80299520.0 0.090187586 0.0691728571 -0.0002940332 0.0004402129 6.69698e-05 4.8985e-06 -0.8310728183 0.1139945814
85299490.0 0.0955091112 0.0654525538 -5.25914e-05 0.0002057177 1.31088e-05 -6.01958e-05 -0.8296182114 0.1232411148
90299460.0 0.1004538549 0.0620687853 -0.0001141553 0.0001044494 0.0001027059 -5.46319e-05 -0.8288316189 0.132857321
95299430.0 0.104377359 0.0579517131 -8.08727e-05 -5.49558e-05 -1.565e-07 5.752e-05 -0.8281636627 0.1425885668
100299400.0 0.1081475053 0.0542750045 -8.93406e-05 2.94031e-05 5.81467e-05 6.4378e-06 -0.8269063078 0.1517630528
105299370.0 0.1116177921 0.0502793557 7.986e-07 5.02112e-05 -1.44452e-05 1.42135e-05 -0.826027515 0.1609033366
110299340.0 0.1146177168 0.0461477873 -0.0001230192 -0.0001804241 0.0001672599 -5.6181e-06 -0.8244463732 0.1694412596
115299310.0 0.1169342966 0.0427585708 6.86416e-05 0.0001830401 7.17507e-05 0.0001028537 -0.8229264862 0.1789111418
120299280.0 0.1195064588 0.0388078868 8.22107e-05 9.29783e-05 -0.0001919443 0.0001146319 -0.821182221 0.1876776036
125299250.0 0.121346138 0.0348498241 8.36735e-05 0.0003085674 -0.000102187 -3.40888e-05 -0.8198304983 0.1971508091
130299220.0 0.1233070341 0.0314383801 3.9423e-05 0.0001214934 -0.0001309311 -4.31246e-05 -0.8177569022 0.2058033898
135299190.0 0.124888826 0.0278545803 4.90399e-05 7.21832e-05 0.0001801253 0.0001393235 -0.8161673836 0.2151338086
140299160.0 0.1259862151 0.024277493 -0.0001084866 3.359e-06 -0.0001012373 0.0002154485 -0.8142669191 0.2229412257
145299130.0 0.1274001044 0.0208548825 -6.42052e-05 0.0002475071 2.49553e-05 0.0002194592 -0.8121127663 0.2322585048
150299100.0 0.12846691 0.017484232 8.22501e-05 -5.65435e-05 4.48219e-05 0.0002860407 -0.8095150498 0.2415347948
155299070.0 0.1293643765 0.0148048967 -0.000133695 7.76308e-05 5.21896e-05 -1.31222e-05 -0.8074989904 0.2501555911
160299040.0 0.1299096647 0.0114946295 -9.24946e-05 0.0002047079 0.0001371627 9.80035e-05 -0.8045793274 0.2588341803
165299010.0 0.1306453864 0.0087035442 0.0001553684 -4.36582e-05 2.86502e-05 2.13378e-05 -0.801551896 0.267151891
170298980.0 0.1310612048 0.0053145723 0.0001145372 0.0002844787 0.0001728584 9.73425e-05 -0.7997439624 0.2756984736
175298950.0 0.1315331102 0.002466253 9.37477e-05 2.5636e-05 1.4601e-05 0.0001274993 -0.7965036631 0.2848114709
180298920.0 0.1318450018 -0.0005741771 -5.14267e-05 -0.0001923571 0.0001087275 0.0001658167 -0.7934590247 0.2931867621
185298890.0 0.1319870363 -0.0033147227 0.0001692754 0.0002905046 0.0001353922 3.88385e-05 -0.7904664664 0.3016235434
190298860.0 0.1320177237 -0.0058880944 -4.17073e-05 -1.40374e-05 6.23969e-05 -1.7642e-05 -0.7873751694 0.309784761
195298830.0 0.1321010878 -0.0082248657 0.0001012913 0.0003833604 -7.685e-07 0.0001494553 -0.7839768032 0.3177577784
200298800.0 0.1319515569 -0.0113959785 7.00134e-05 0.0002217727 0.0001638651 7.13718e-05 -0.7809528106 0.3266445698
205298770.0 0.1316367447 -0.0135566255 -1.61553e-05 0.0002017961 0.0002427752 0.000300894 -0.7776626627 0.3351060795
210298740.0 0.1317307393 -0.016154037 -4.80385e-05 -6.15085e-05 0.0002040416 0.0001187174 -0.7741897212 0.3432431141
215298710.0 0.1311188172 -0.0183889336 0.0001313263 4.30783e-05 8.22162e-05 4.95965e-05 -0.7706444749 0.3512533771
220298680.0 0.1309547341 -0.0209028753 0.0002819956 5.5118e-06 7.27199e-05 6.28152e-05 -0.7669975205 0.3594134435
225298650.0 0.1307864034 -0.0231571705 -1.77798e-05 0.0003291326 4.18325e-05 -4.29349e-05 -0.7627589607 0.3679999969
230298620.0 0.1301649154 -0.0253127336 9.05449e-05 -5.29381e-05 0.0002485045 0.0002461462 -0.7587616295 0.3756870273
235298590.0 0.12969023 -0.02754605 9.24152e-05 4.76287e-05 1.24059e-05 3.45694e-05 -0.7548591525 0.3838192233
240298560.0 0.1290222344 -0.0296037371 2.04795e-05 1.70391e-05 -0.0002691719 2.89899e-05 -0.7513918241 0.3906179822
245298530.0 0.1282288333 -0.0318706843 -2.19647e-05 0.0001419212 1.4126e-06 -2.5534e-05 -0.747354861 0.398966087
250298500.0 0.1278389054 -0.0338107653 0.0001866045 0.0001287819 -0.0001052743 -5.82229e-05 -0.7429645943 0.4075063558
255298470.0 0.127473506 -0.0356221365 0.0002307743 9.63955e-05 7.09523e-05 0.000159693 -0.7389691284 0.41465754
260298440.0 0.1267067072 -0.0380766867 0.0001148222 0.0002198368 0.0002242493 0.0002415408 -0.7341583859 0.4221030421
265298410.0 0.1257307442 -0.0398595679 0.0002402717 7.92929e-05 5.93742e-05 5.66517e-05 -0.729892607 0.4298797773
270298380.0 0.1252571797 -0.0416531686 -7.01909e-05 0.0002362703 0.000196656 0.0001920651 -0.7251022006 0.4375168345
275298350.0 0.1243148663 -0.0435438331 0.0001633254 0.0003375173 6.82679e-05 9.11992e-05 -0.7206854077 0.4459677376
280298320.0 0.1235651563 -0.0453316306 5.54679e-05 -1.3205e-06 0.0001492314 0.0001716537 -0.7164906024 0.4527221591
285298290.0 0.1227038399 -0.0472026161 5.2981e-05 -4.7205e-06 -6.87064e-05 6.46925e-05 -0.7121392253 0.460435537
290298260.0 0.1219288398 -0.0487936753 0.000112909 7.51371e-05 0.0001274756 0.0001294828 -0.7062898939 0.4678352604
295298230.0 0.1211511022 -0.0508769125 0.0001093461 7.95337e-05 0.0001099125 0.0001356223 -0.7018415328 0.4746561396
300298200.0 0.1205747016 -0.0524542517 -9.85318e-05 8.14768e-05 4.77514e-05 9.16706e-05 -0.6967539691 0.4823917856
305298170.0 0.1195032035 -0.0546484553 1.2321e-06 0.0001680909 0.0001673354 0.0002458568 -0.6910185009 0.4894389326
310298140.0 0.1185288289 -0.0567617576 0.0001299775 0.0001992487 4.88238e-05 -1.60686e-05 -0.6868446818 0.4969104363
315298110.0 0.1174414099 -0.0582316557 0.0001936541 0.0002507842 0.0002905831 7.87426e-05 -0.6812694655 0.5036416686
320298080.0 0.1165443342 -0.060202195 0.000151675 -5.4828e-06 0.000185903 3.48532e-05 -0.6761982784 0.5103663192
325298050.0 0.1144594993 -0.061972511 0.0002220859 0.0002026953 0.0001875789 0.0001115931 -0.6701053316 0.5178833882
330298020.0 0.113617237 -0.0637220997 0.0001819427 5.20304e-05 0.0003108475 -5.59127e-05 -0.6648636677 0.5244443251
335297990.0 0.1121785786 -0.0647417035 3.95657e-05 3.70176e-05 0.0001742558 0.0001850696 -0.6589644714 0.5316881379
340297960.0 0.1108594813 -0.0659094972 -4.19601e-05 0.0002326605 0.0004373787 0.0001549612 -0.6541765268 0.5387621084
345297930.0 0.109661951 -0.0676719099 4.81477e-05 8.06058e-05 8.97133e-05 0.000153719 -0.6488761847 0.5447129392
350297900.0 0.1085202922 -0.0691276098 7.92353e-05 7.31104e-05 0.0002125493 -3.48479e-05 -0.6430483713 0.5514652919
355297870.0 0.1074104304 -0.0703079821 0.0003604407 0.0001053354 0.0001900304 0.0001104069 -0.6370311476 0.5585578116
360297840.0 0.1061493837 -0.0717109078 0.0002460739 0.0002754742 0.0002678798 0.0002023007 -0.6307991398 0.5648374445
365297810.0 0.1051129093 -0.0731254002 0.000281768 0.0001159012 0.0003345891 0.0002368203 -0.6258289626 0.5708104803
370297780.0 0.1039449151 -0.0744354134 0.0003266557 6.0793e-06 0.0001765054 0.000187142 -0.6193786307 0.577848312
375297750.0 0.102583963 -0.0757246554 5.9647e-05 4.28823e-05 9.73447e-05 0.0002351326 -0.6132153913 0.5842272982
380297720.0 0.1010344761 -0.0765798439 -5.8367e-06 -6.01399e-05 -8.94124e-05 -3.0934e-05 -0.6066112643 0.5903179485
385297690.0 0.1002258114 -0.0781690127 8.2447e-05 0.0001892473 -9.534e-06 -4.40204e-05 -0.6012105116 0.5965927511
390297660.0 0.099117485 -0.0796953365 8.02339e-05 3.92961e-05 0.0001114642 0.0001766257 -0.5944125046 0.6018080201
395297630.0 0.0979948026 -0.0806392664 5.25898e-05 0.0001175008 0.0002827921 0.0001197074 -0.5884432024 0.607965504
400297600.0 0.0964400009 -0.0819675034 0.0003056014 9.10076e-05 -4.42239e-05 -6.02562e-05 -0.5827907274 0.6137700878
405297570.0 0.0951657311 -0.0832644347 0.0001565261 0.0001125056 0.0001585909 0.0001436623 -0.5756235348 0.62010249
410297540.0 0.094371523 -0.0842187824 0.0002160179 0.0002217667 0.0003105071 0.0001777023 -0.5695364614 0.6260307465
415297510.0 0.092703507 -0.0852977444 0.0003305853 3.14405e-05 7.48796e-05 8.1213e-06 -0.5628863166 0.6314690199
420297480.0 0.0914672157 -0.0869034847 0.0002011275 0.0001117322 0.0004210522 -1.74386e-05 -0.5561082401 0.6380227139
425297450.0 0.090362768 -0.0878004533 0.0003250474 -4.76609e-05 6.76972e-05 0.0001194343 -0.5491696415 0.6423353287
430297420.0 0.0889988009 -0.0891020071 0.0002203522 9.56275e-05 6.14828e-05 -9.45358e-05 -0.5434435581 0.6484460581
435297390.0 0.0875181314 -0.0898802733 0.0002219443 -1.3034e-06 0.0002003435 0.0001166293 -0.5368179549 0.6539941849
440297360.0 0.0864247116 -0.0910760771 5.41474e-05 0.0001046771 0.0002906155 3.03e-06 -0.5305173592 0.659566613
445297330.0 0.0851875037 -0.0921537204 0.0001040929 9.56478e-05 0.0001924342 -2.14031e-05 -0.5227469962 0.6649329776
450297300.0 0.0837978773 -0.0931968526 0.0003167042 -4.1003e-06 0.0001497836 -4.424e-05 -0.5157878319 0.6698134748
455297270.0 0.0823694662 -0.0939657875 0.0002327031 0.0004036203 0.0003137675 -6.19088e-05 -0.5094554182 0.6749638975
460297240.0 0.0811791312 -0.0950966697 5.94308e-05 1.7801e-05 0.0002053866 0.0002821863 -0.5027650039 0.6798710549
465297210.0 0.0798627454 -0.0959096166 0.0003340838 8.0976e-05 7.60504e-05 0.0001057459 -0.4953561462 0.6859431131
470297180.0 0.0789329276 -0.0968907941 0.0002736337 -8.74531e-05 9.58916e-05 9.90477e-05 -0.4881614719 0.6906332233
475297150.0 0.0771909922 -0.097739929 4.80269e-05 3.9534e-06 0.0002726737 -5.92062e-05 -0.4813542658 0.6950487242
480297120.0 0.0762219052 -0.0987776292 0.0003463872 0.0002932197 2.10888e-05 0.0001600715 -0.4744957979 0.7001151734
485297090.0 0.0750269034 -0.0996880166 0.0002033043 0.0001460961 0.000224749 0.0001424157 -0.4668996349 0.7047180019
490297060.0 0.0740075481 -0.100342638 0.0002556909 0.0002167749 0.000203691 0.0001050623 -0.4598775238 0.7087888041
495297030.0 0.0725589884 -0.1013852961 0.0001528539 0.0001575274 0.0002144304 0.0001216708 -0.4523130305 0.7133793963
500297000.0 0.0708980287 -0.1023024708 0.0003317684 5.62584e-05 0.0003087396 0.0001800555 -0.4451381013 0.7183679878
505296970.0 0.0698948779 -0.102782309 0.0001443713 0.0001971059 0.0003189252 5.04636e-05 -0.4379363785 0.7226320054
510296940.0 0.0685153413 -0.1034953313 0.0002346686 -2.29348e-05 0.0001418419 0.000141287 -0.4299562754 0.7276443458
515296910.0 0.066892797 -0.1040144404 0.0002998496 7.70886e-05 0.0002646178 0.0002926557 -0.423029171 0.731269438
520296880.0 0.0660520232 -0.1049565614 0.0002051389 0.0001499834 0.0002523441 8.21492e-05 -0.4156511234 0.7356907876
525296850.0 0.0646727302 -0.1055829393 0.0002358507 2.90102e-05 0.0003783612 -1.07785e-05 -0.408522022 0.7395320945
530296820.0 0.0631665962 -0.1058941278 0.0001701119 9.836e-07 0.0003245383 8.49931e-05 -0.4003414081 0.7434826496
535296790.0 0.0622075046 -0.1067712434 0.0003051199 0.00015254 8.83142e-05 0.000213156 -0.3931774806 0.7475963989
540296760.0 0.0608011226 -0.1074203629 0.0002966924 0.0002114001 0.0001486868 0.0001051207 -0.3850528643 0.7515205793
545296730.0 0.0590834317 -0.1077794778 0.0003680642 9.47434e-05 0.0003477592 2.49218e-05 -0.3779242585 0.7554828165
550296700.0 0.0579898857 -0.1083201103 0.0002077438 0.0001720581 0.0003608786 0.0002276767 -0.3703528887 0.7592565783
555296670.0 0.0565862005 -0.1089182686 0.0003225182 -8.59471e-05 0.0002602124 -4.70926e-05 -0.3626065055 0.7624903997
560296640.0 0.0554395715 -0.1095733742 0.0001214951 0.0002384433 0.0002228036 -8.9966e-05 -0.3543915036 0.7667482356
565296610.0 0.0537634048 -0.1097390241 0.0003787613 -0.0001944177 9.34121e-05 0.0001226821 -0.3464875876 0.7701508342
570296580.0 0.0524210201 -0.1100677989 0.0002067457 0.0001718092 0.0004295336 -8.82573e-05 -0.3389240124 0.7727095126
575296550.0 0.0510957516 -0.1108564114 0.0003652056 8.4514e-05 0.0002271347 0.000124528 -0.3312059051 0.7761842034
580296520.0 0.0498764035 -0.1107102316 0.0001739388 0.0001422217 0.000461492 0.0001872826 -0.3239426029 0.7795124274
585296490.0 0.048323932 -0.111296195 0.000401679 7.0675e-05 0.0002395746 -4.86341e-05 -0.3146937932 0.7833303975
590296460.0 0.0471568496 -0.1113111463 0.0004758829 6.98887e-05 0.0002658469 1.342e-07 -0.3078284867 0.7855148746
595296430.0 0.0458946024 -0.1115883226 0.0006404226 0.0001734413 0.0005231609 -5.6565e-05 -0.2997110239 0.7894355044
600296400.0 0.0443824254 -0.1122446722 0.0004303882 0.0001693052 0.0004594084 -4.07307e-05 -0.2919504895 0.7921128705
605296370.0 0.0427930056 -0.1121167754 0.0004104602 -2.34811e-05 0.0002740732 0.0001899741 -0.2841017508 0.7949580093
610296340.0 0.041722297 -0.1125745569 0.0002306505 0.0002069863 0.0002960173 4.71782e-05 -0.2760857812 0.7978834939
615296310.0 0.0403196046 -0.1126120963 0.0004203288 -1.96062e-05 0.0004360582 8.18121e-05 -0.2677291015 0.8003609588
620296280.0 0.0387233589 -0.112483534 0.0004373833 -0.0001100891 0.0003365398 0.0001090244 -0.2600175775 0.8030783701
625296250.0 0.0373139249 -0.1129365839 0.0002448981 0.0001691026 0.0002074898 0.0001033899 -0.251418842 0.804910479
630296220.0 0.035858739 -0.1129558876 3.50673e-05 -2.11722e-05 0.0003060243 0.0001121559 -0.2434810127 0.8081266027
635296190.0 0.0345710213 -0.112954624 0.0001378762 -6.80034e-05 0.0002703893 7.52506e-05 -0.2355231044 0.8097290236
640296160.0 0.0330956398 -0.1132265005 0.0003168174 0.0002009439 0.0002114394 -3.96428e-05 -0.227238028 0.8125228551
645296130.0 0.0320740628 -0.1131829409 0.000334654 9.6161e-06 0.0002780239 3.88223e-05 -0.2195857431 0.8142879578
650296100.0 0.0303753603 -0.1132846912 0.0002050536 6.90805e-05 0.000450889 -6.02799e-05 -0.2109831988 0.8166772417
655296070.0 0.0289174402 -0.1134922703 0.0004722826 0.00018369 0.0002359672 -0.0001054942 -0.2031558071 0.8190859373
660296040.0 0.0271415853 -0.1131265159 0.0005215378 8.98834e-05 0.0003367304 1.22723e-05 -0.194157323 0.8211430258
665296010.0 0.0259645075 -0.1131441612 0.0003316369 5.85266e-05 0.0003933806 -5.4184e-06 -0.1862318095 0.822490708
670295980.0 0.0244371172 -0.1133114877 0.0003655947 -5.12548e-05 0.0003770749 6.13444e-05 -0.1786117365 0.8241782695
675295950.0 0.023085977 -0.1131114297 0.0003055217 0.0001302342 0.0004555113 1.81751e-05 -0.1698460855 0.8266902674
680295920.0 0.0212721607 -0.1129669857 0.0004710359 -0.0001265693 0.0001467763 -4.5582e-05 -0.1608529553 0.8280961493
685295890.0 0.0200988318 -0.1129125894 0.0001560513 0.0002409588 0.0004123244 5.25199e-05 -0.1533789092 0.8295593609
690295860.0 0.018595274 -0.1127953237 0.0004860713 7.40733e-05 0.0003590615 1.79737e-05 -0.1454433063 0.8309542879
695295830.0 0.0168188639 -0.1127716989 0.0005342357 8.2124e-06 0.0003610817 -9.82241e-05 -0.1368007916 0.8328830218
700295800.0 0.015727571 -0.1124064407 0.0003380243 -0.0002390772 0.0003272723 -8.66102e-05 -0.1284544594 0.8333995307
705295770.0 0.0142972195 -0.1123753252 0.0003372458 -8.02299e-05 0.0003879271 -0.0002136313 -0.1204484081 0.8353168918
710295740.0 0.012969171 -0.1122167521 0.000474257 0.0001082692 0.0002351642 -6.2587e-06 -0.1116094247 0.8359509831
715295710.0 0.0116298101 -0.1118179224 0.0003697408 3.77274e-05 0.0002373 0.0002583056 -0.102981191 0.8367346619
720295680.0 0.0099027534 -0.1118182742 0.000188635 7.43118e-05 0.0003355042 -0.0002254065 -0.0949822151 0.8376009737
725295650.0 0.0083209207 -0.1113075471 0.0003825653 1.46385e-05 0.0003865323 0.0001831591 -0.0870113271 0.8396917548
730295620.0 0.0063177697 -0.1112471828 0.0004817792 0.0001321265 0.0003038406 -0.0001452453 -0.0791623056 0.8402563197
735295590.0 0.0052891843 -0.1107949459 0.0001687018 0.000158967 0.0004933105 9.59783e-05 -0.0697441713 0.8405132983
740295560.0 0.0035106954 -0.1106775864 0.0002716622 0.0003502494 0.0004239508 -8.0355e-06 -0.0614268854 0.8412293069
745295530.0 0.0023395759 -0.110561383 0.000446387 1.22352e-05 0.0001786 -6.45803e-05 -0.0535164735 0.8418950972
750295500.0 0.0004464399 -0.1100158582 0.0002892144 -9.26864e-05 0.000249628 0.0001052151 -0.0449496717 0.8422838504
755295470.0 -0.0008543238 -0.1098519575 0.0005731386 -6.05162e-05 0.0003490714 -3.37737e-05 -0.0370868887 0.8430821512
760295440.0 -0.0022591895 -0.1093969581 0.0004033635 -0.0002251128 0.0005093814 7.05588e-05 -0.0274306053 0.8427957551
765295410.0 -0.0038231713 -0.1092171917 0.0002847771 -4.50144e-05 0.0004933391 -4.95229e-05 -0.0196097864 0.8433333344
770295380.0 -0.005467736 -0.1085072695 0.0002703862 -8.30753e-05 0.0003684398 -0.0001722386 -0.0114582181 0.8432454502
775295350.0 -0.0065808734 -0.1083656323 0.0004220956 -8.19225e-05 0.0004510673 -0.0001586382 -0.0030292434 0.8431705081
780295320.0 -0.0081736133 -0.1077940042 0.0004145864 -0.0001409654 0.0002812744 -1.1289e-05 0.0055559319 0.8438343131
785295290.0 -0.0095378475 -0.1075228692 0.0002988497 -4.49762e-05 0.0004958038 -2.72549e-05 0.0133772602 0.8432437879
790295260.0 -0.011243011 -0.1072188387 0.0001673103 -4.127e-07 0.000479544 -0.0001914976 0.0217623168 0.8432813472
795295230.0 -0.0123557923 -0.1070296358 0.0004669744 0.0001324412 0.0004554195 -1.92645e-05 0.0306529125 0.8421480049
800295200.0 -0.0138879451 -0.1064070926 0.0005130319 7.6733e-06 0.0003433248 -0.0001106367 0.0385381021 0.8419433421
805295170.0 -0.0154460886 -0.106163521 0.000331014 -0.0001999222 0.0003572449 -9.87963e-05 0.0473679401 0.8422035557
810295140.0 -0.0167217204 -0.1053844952 0.0005056898 3.03302e-05 0.000412985 6.9036e-06 0.0558422032 0.8410641348
815295110.0 -0.0185184424 -0.104997619 0.0004120018 -0.0002961867 0.0003261551 -0.0001560552 0.0632993224 0.8409853811
820295080.0 -0.0197885996 -0.1045649001 0.0001865137 -0.0002502404 0.0002887785 -0.0001770722 0.0717939097 0.8399746243
825295050.0 -0.0214062667 -0.1040193869 0.0003349011 -4.17561e-05 0.0003377995 -0.0002308802 0.0799356065 0.8395165341
830295020.0 -0.0226050599 -0.1036373226 0.0004032575 -1.9027e-05 0.000413119 -0.0003044475 0.0881174896 0.8381229881
835294990.0 -0.0241354227 -0.1032121408 0.0003114176 -0.0002277044 0.0005558523 -0.0001552744 0.0967418722 0.837763198
840294960.0 -0.0253985317 -0.1028024322 0.0003889991 -7.6048e-06 0.0006340664 3.38185e-05 0.1054212051 0.8367783215
845294930.0 -0.0269464632 -0.1021427126 0.0001490078 -0.0003206172 0.0002654029 -0.0002363588 0.1139147066 0.8356788832
850294900.0 -0.0277638828 -0.1016827062 0.0005720263 2.32054e-05 0.0005427343 -0.0002351583 0.1212994047 0.8346405203
