!Created with skrf (http://scikit-rf.org).
# Hz S RI R 50.0 
!freq ReS11 ImS11 ReS21 ImS21 ReS12 ImS12 ReS22 ImS22
300000.0 -0.2375054674 -0.110751892 0.4684303995 0.0731136438 0.471997399 0.0742077789 -0.2398096626 -0.1165134342
5299970.0 -0.2404551514 0.0068698608 0.4750757141 0.0054910045 0.4749488063 0.0057333977 -0.2447617991 0.005431087
10299940.0 -0.2371385578 0.0199759925 0.4772512363 0.0062250482 0.4770884907 0.0064659959 -0.2414819976 0.0172360875
15299910.0 -0.2329326175 0.0298691433 0.4803807226 0.0074468371 0.48053059 0.0079853529 -0.2373271446 0.0262255364
20299880.0 -0.2274407192 0.0380953907 0.4853379967 0.0079413122 0.4855871659 0.0082660682 -0.2328365849 0.0338223692
25299850.0 -0.2217354878 0.0441830323 0.4905694551 0.0067885824 0.4902046507 0.0070344046 -0.2277276408 0.0399034168
30299820.0 -0.2156745325 0.0493814677 0.4960974591 0.0050892009 0.4953943038 0.0051056468 -0.2225338218 0.0450410889
35299790.0 -0.2098821896 0.0541092572 0.5012519805 0.0015099876 0.501247973 0.0016947057 -0.2173688937 0.0489221174
40299760.0 -0.2044224576 0.0571071904 0.5062398608 -0.0019293425 0.5060678742 -0.0022069799 -0.2125188929 0.0520367125
45299730.0 -0.1995123932 0.0600366251 0.5110934625 -0.0073337178 0.5109905014 -0.0070771158 -0.2080435617 0.0546373307
50299700.0 -0.1948534837 0.0618476542 0.5152040616 -0.0127906431 0.5153041141 -0.0125164811 -0.2038341291 0.0564695001
55299670.0 -0.1906498658 0.0637164645 0.5184818644 -0.0185348093 0.5186695154 -0.0186270708 -0.199978027 0.058090083
60299640.0 -0.1863449115 0.0650523303 0.5217550753 -0.0251037288 0.5220857247 -0.0245502469 -0.1962843216 0.0593167852
65299610.0 -0.1833030003 0.0667129339 0.5251115448 -0.030730613 0.5251133156 -0.0310088961 -0.1928676138 0.0607386033
70299580.0 -0.1794618696 0.0668939426 0.5271130091 -0.0375196994 0.527275819 -0.0375845435 -0.1899209018 0.0616744549
75299550.0 -0.1763498087 0.0681973518 0.5291528684 -0.0443130492 0.5289427979 -0.0445679078 -0.187172693 0.0625697184
80299520.0 -0.1740349789 0.0689900617 0.5314325888 -0.0515295465 0.5313350188 -0.0515224127 -0.1846046798 0.063111486
85299490.0 -0.1714700671 0.069178526 0.5323562877 -0.0582576763 0.5325627056 -0.0584241559 -0.1827101208 0.0637489062
90299460.0 -0.1690498593 0.0703843047 0.5333973081 -0.0652161337 0.5339275066 -0.065411838 -0.1801030042 0.0643396444
95299430.0 -0.1671394157 0.0712285927 0.5343632117 -0.0724488766 0.5345922454 -0.0721122434 -0.1786521516 0.0651743185
100299400.0 -0.1653748231 0.0718415187 0.5345556131 -0.0791447416 0.5345884331 -0.0795051771 -0.1769711016 0.0657869939
105299370.0 -0.1633786959 0.0724955862 0.5347516251 -0.0857054978 0.5349043492 -0.0861889734 -0.1748842315 0.0660775958
110299340.0 -0.1619043758 0.0729903267 0.534793628 -0.0923601054 0.5351790432 -0.0928196911 -0.1736123417 0.0670862585
115299310.0 -0.1603179932 0.073226055 0.5347773349 -0.099096222 0.5352721774 -0.0992387854 -0.172192646 0.0672549408
120299280.0 -0.1589604641 0.0745374911 0.5349868098 -0.1062063811 0.5348751442 -0.1067583538 -0.1712588096 0.0681524987
125299250.0 -0.1579227141 0.0752534694 0.5343227627 -0.1128144547 0.5346728006 -0.113212561 -0.1699478176 0.0684036796
130299220.0 -0.1564935549 0.0760738359 0.5338959723 -0.1189788833 0.533589199 -0.1200458761 -0.1686652206 0.0692190312
135299190.0 -0.155337625 0.0767452705 0.5334057103 -0.1260326912 0.5327580828 -0.1265921968 -0.1679683716 0.0702242365
140299160.0 -0.1545933051 0.0780239638 0.5323655982 -0.1328720772 0.5329127996 -0.1334705326 -0.1667381767 0.0712101867
145299130.0 -0.1529880819 0.0789034782 0.531942043 -0.1395671495 0.531387766 -0.1394236421 -0.1661882773 0.0716995714
150299100.0 -0.151958534 0.0798378833 0.5303539236 -0.1465037525 0.5307108451 -0.1460799511 -0.1651740949 0.0726958351
155299070.0 -0.1511385848 0.0813781325 0.5292652169 -0.1528834051 0.5292017406 -0.1531192532 -0.1644799163 0.0737091248
160299040.0 -0.1500859579 0.0819136477 0.5275934381 -0.1586191242 0.5276591692 -0.1589958955 -0.163477636 0.0747180987
165299010.0 -0.1494529541 0.0833134219 0.5267555933 -0.165860263 0.526489272 -0.1656441167 -0.1625327636 0.0755641807
170298980.0 -0.1482680453 0.0843181877 0.5240848331 -0.172121681 0.5246549912 -0.1719409054 -0.1616796947 0.0763992289
175298950.0 -0.1472069029 0.0857253104 0.5237438694 -0.1781915212 0.5235338018 -0.1779134952 -0.1611263633 0.0774798801
180298920.0 -0.1462254925 0.0865992567 0.5217473537 -0.1843490478 0.5214309323 -0.184282298 -0.1601594823 0.0787331714
185298890.0 -0.1452582985 0.0880957029 0.5192787782 -0.1909842352 0.5195826395 -0.1907924475 -0.1595096609 0.0794770314
190298860.0 -0.14450059 0.0889843471 0.5174264596 -0.1970288601 0.5176208241 -0.1967730261 -0.1582462864 0.0806159336
195298830.0 -0.1434306401 0.0900572415 0.5156789777 -0.2024285281 0.5156602155 -0.2032581423 -0.1577263244 0.0816642911
200298800.0 -0.1427969004 0.0916610491 0.5142039333 -0.2084282445 0.5137913561 -0.2089822922 -0.1571262581 0.0833388607
205298770.0 -0.1416461673 0.0929267914 0.5115595603 -0.2150843758 0.5118065666 -0.2152904858 -0.1566804249 0.0840336036
210298740.0 -0.1408499672 0.0941758491 0.5091629437 -0.2211221255 0.5097297601 -0.22139893 -0.1557351122 0.0855054056
215298710.0 -0.139772547 0.0956709911 0.5068503728 -0.2265575282 0.5068167901 -0.2265990627 -0.1550730235 0.0867736327
220298680.0 -0.1387036488 0.0969997247 0.5040528998 -0.2330818818 0.5043602358 -0.232794738 -0.1539221535 0.0880626963
225298650.0 -0.1374676824 0.0985737497 0.5017986269 -0.2384899877 0.5017989736 -0.238285581 -0.1532821618 0.0892842273
230298620.0 -0.1369684123 0.0999211864 0.4998926237 -0.2444695047 0.4995350439 -0.2445370755 -0.1523520125 0.0904021572
235298590.0 -0.135771668 0.1011591098 0.4969026018 -0.2502966696 0.4972754928 -0.2502298243 -0.1517640112 0.0915178324
240298560.0 -0.1349346261 0.1022745985 0.4943907313 -0.2555479954 0.4942546998 -0.2552802386 -0.1509390517 0.0931766538
245298530.0 -0.1336694987 0.1038687763 0.4908743786 -0.2616741925 0.49154409 -0.2616121193 -0.1501227016 0.0944405062
250298500.0 -0.1330981973 0.1052886773 0.4884028381 -0.2666534182 0.4889469418 -0.2667640342 -0.1488417979 0.0954970458
255298470.0 -0.1318629847 0.1067640548 0.48549154 -0.272857356 0.4857579449 -0.2724123954 -0.1482462567 0.0966407858
260298440.0 -0.1308708951 0.1083191106 0.4827052338 -0.2782355677 0.4825646693 -0.2782991162 -0.1467492768 0.0983027088
265298410.0 -0.1296803381 0.10986996 0.4799769691 -0.2842296757 0.4794011722 -0.2836750836 -0.1462761255 0.099292033
270298380.0 -0.1283360928 0.111212392 0.4763183513 -0.2893575567 0.4766315282 -0.2894805958 -0.1452395063 0.1011558032
275298350.0 -0.1274686202 0.112355583 0.4735400077 -0.2949813795 0.4739624994 -0.2947099338 -0.1442749753 0.1024069549
280298320.0 -0.1262545755 0.1142074224 0.4700495243 -0.2996469973 0.4702152644 -0.3002099473 -0.1431924655 0.1038082589
285298290.0 -0.1247633388 0.1153399372 0.4669833348 -0.3047406805 0.4668189123 -0.3055662595 -0.142378242 0.1052932212
290298260.0 -0.1237360164 0.1166081009 0.463982543 -0.3104966248 0.463993958 -0.310626365 -0.1412817238 0.106644198
295298230.0 -0.1224542664 0.1183720528 0.4607028282 -0.3162328757 0.4601291518 -0.3156971852 -0.1400863663 0.1079544297
300298200.0 -0.1208757317 0.1192579509 0.4567525785 -0.3209327014 0.4572076442 -0.321186098 -0.1392573105 0.1093334413
305298170.0 -0.1194261116 0.1207409233 0.4535831059 -0.3264622002 0.4539323405 -0.3265622544 -0.1378746229 0.1109341809
310298140.0 -0.1178439994 0.1217778677 0.4496975325 -0.3320332527 0.450036734 -0.331867437 -0.1369429077 0.1125660819
315298110.0 -0.1171248076 0.1230699951 0.446282132 -0.3366950377 0.4469753327 -0.3365831768 -0.1358125864 0.1133566951
320298080.0 -0.1160455158 0.1247711111 0.4428431558 -0.3422985782 0.4424227956 -0.3422361261 -0.1348029589 0.114560451
325298050.0 -0.1146243982 0.1253330347 0.4388911457 -0.3473155901 0.4387756564 -0.3473124218 -0.1335368113 0.1157134526
330298020.0 -0.1134395858 0.1270123263 0.4343063137 -0.3522878508 0.4347612321 -0.3521587957 -0.1331076284 0.1168557487
335297990.0 -0.1120511568 0.1280086431 0.4307690046 -0.3569504981 0.4305626176 -0.3570126589 -0.1318897321 0.1182161316
340297960.0 -0.1114684297 0.1301070971 0.4261943245 -0.3619422917 0.4267127131 -0.3615555691 -0.1309854108 0.1200856607
345297930.0 -0.110060424 0.1312221673 0.4223452943 -0.365803554 0.4223880498 -0.3663337633 -0.129668012 0.1212775674
350297900.0 -0.1082560699 0.1325893025 0.4182740544 -0.3707832037 0.4187596163 -0.3710020532 -0.1288328913 0.1229868216
355297870.0 -0.1072615024 0.1336600518 0.4139442885 -0.3753796259 0.4138667492 -0.3754386704 -0.1277639783 0.1244011382
360297840.0 -0.105602359 0.1352550565 0.4099348623 -0.3803131795 0.4100309449 -0.3799627527 -0.1266485216 0.1259394043
365297810.0 -0.1039698414 0.1364364171 0.4058465107 -0.3847099587 0.4059315456 -0.3848451462 -0.1256791395 0.1276639221
370297780.0 -0.1025697637 0.1378174614 0.4012627442 -0.3891446711 0.4013520322 -0.3891760464 -0.1242134367 0.1287258012
375297750.0 -0.1012172558 0.1391012332 0.397618106 -0.3935066318 0.3970064543 -0.3936648146 -0.1229399047 0.1301837884
380297720.0 -0.0996185091 0.1403293482 0.3930549271 -0.3976831602 0.3930794941 -0.3977180048 -0.1219378536 0.1319103212
385297690.0 -0.09826975 0.1416869465 0.3880510844 -0.4014567592 0.3884196206 -0.4020029208 -0.1207801237 0.1334015271
390297660.0 -0.0968204682 0.1429444691 0.3839159147 -0.4064135871 0.3837727409 -0.4067854083 -0.1189626608 0.1345357762
395297630.0 -0.0949775638 0.1438607068 0.3797460656 -0.4101448753 0.379651335 -0.4104306098 -0.1181058762 0.1359495336
400297600.0 -0.0934402657 0.1454360067 0.3753430129 -0.4147526483 0.3754000095 -0.4144392204 -0.1174159505 0.1367428907
405297570.0 -0.0916846427 0.1465721686 0.370596187 -0.4190564402 0.3706000016 -0.4186962866 -0.1154038431 0.1384155362
410297540.0 -0.0901406225 0.1476364291 0.3653667547 -0.4225273379 0.3656559472 -0.422611965 -0.1144073948 0.1397273182
415297510.0 -0.0885231185 0.1490995905 0.3612787047 -0.4265802629 0.3614204386 -0.4265766668 -0.1132623379 0.1414019304
420297480.0 -0.0866693196 0.1496721813 0.3562383584 -0.4309367676 0.3565182423 -0.4306599676 -0.1116428161 0.1419559638
425297450.0 -0.0847525662 0.1506569125 0.3515881596 -0.4346882997 0.3523065708 -0.4344137897 -0.1104858566 0.1436241297
430297420.0 -0.0835109064 0.1523856686 0.3475832487 -0.4387537957 0.3472235791 -0.4385347831 -0.109159248 0.1447414214
435297390.0 -0.0815596507 0.1528465389 0.3418836811 -0.4418381767 0.3421990809 -0.4421685066 -0.1077699766 0.1465334052
440297360.0 -0.0799165838 0.1540785247 0.3370295763 -0.4458493089 0.3370795836 -0.4456555449 -0.1061776255 0.1471600316
445297330.0 -0.078200414 0.1551130975 0.3320971812 -0.4498929986 0.3322876751 -0.4492994794 -0.10491063 0.1484874047
450297300.0 -0.0763505882 0.155840864 0.3275861019 -0.4529363386 0.3275092389 -0.4530133361 -0.1037338586 0.1499606813
455297270.0 -0.0744329284 0.1570486273 0.3222087593 -0.4567571923 0.3227304744 -0.456690383 -0.1018994971 0.1512780246
460297240.0 -0.0730977274 0.1579488874 0.3173887584 -0.4600469847 0.3171706206 -0.4600652923 -0.1004870274 0.1527281212
465297210.0 -0.0711288915 0.1590307085 0.3125780673 -0.4638796302 0.312606279 -0.4633957161 -0.0997203148 0.1535979896
470297180.0 -0.0696162979 0.1600008901 0.3075075708 -0.4667860006 0.307713593 -0.4668946544 -0.0983199845 0.1546198579
475297150.0 -0.0678899513 0.1606324906 0.3016011946 -0.4697940263 0.30235496 -0.4695837958 -0.0962958639 0.1556692947
480297120.0 -0.0657817625 0.1611985434 0.2968229786 -0.4729094347 0.2975410184 -0.4732225923 -0.0953536189 0.1574311538
485297090.0 -0.0636777338 0.1622461005 0.2919260647 -0.4763307425 0.2921006035 -0.4762834569 -0.093953717 0.1580043482
490297060.0 -0.0624638117 0.1627380023 0.2869099049 -0.4796744156 0.2868076574 -0.4797205119 -0.0921112994 0.1591955545
495297030.0 -0.0606434546 0.1640670237 0.2813370137 -0.4826237869 0.2815169709 -0.4827638991 -0.0905940185 0.160102382
500297000.0 -0.058442148 0.164817472 0.2760435172 -0.4859933526 0.2761921218 -0.4857391918 -0.0896147147 0.1611177658
505296970.0 -0.0568465235 0.1653975064 0.2707428125 -0.4884647072 0.2706596614 -0.4883070031 -0.0882127398 0.1624841751
510296940.0 -0.0548400083 0.1663586697 0.2655831477 -0.4919378466 0.2654856588 -0.4917629728 -0.0860850439 0.1637071295
515296910.0 -0.0532205211 0.1671284493 0.2597629749 -0.4939374459 0.2602487992 -0.4941309521 -0.0845712736 0.1643829314
520296880.0 -0.0513201471 0.1677356833 0.254815141 -0.4967942158 0.2545466178 -0.4967046653 -0.0831425617 0.1655398293
525296850.0 -0.0493843362 0.1682427687 0.2491787042 -0.499820604 0.2496461758 -0.5002383364 -0.0814135173 0.1664454225
530296820.0 -0.0475272409 0.1687451505 0.2439912662 -0.5021350447 0.2437603776 -0.5021979888 -0.0803134227 0.1670392906
535296790.0 -0.0457983047 0.1697460468 0.2384617899 -0.5047417732 0.2386465423 -0.5047884771 -0.0787350574 0.1679416141
540296760.0 -0.0437267392 0.1700826754 0.2331518281 -0.507799412 0.2328586015 -0.5075644137 -0.076914944 0.1694289022
545296730.0 -0.0418175991 0.1710810243 0.2274244311 -0.5096309964 0.2275099505 -0.5098992087 -0.0757032643 0.1698288584
550296700.0 -0.0403257975 0.1716275664 0.2220638605 -0.5124198004 0.222489962 -0.5130035739 -0.0737955895 0.1711960138
555296670.0 -0.0377254222 0.1720889396 0.2163023071 -0.5148534136 0.2165995062 -0.5145933048 -0.0724576075 0.1717405152
560296640.0 -0.0361226762 0.1724777179 0.2107819054 -0.5170188703 0.2107542596 -0.5168906601 -0.0705379544 0.1727430815
565296610.0 -0.0346826108 0.1730633457 0.2052293227 -0.5190875357 0.2051607162 -0.519080276 -0.0691201111 0.1733216437
570296580.0 -0.0322886763 0.1734003204 0.1995215575 -0.5211273334 0.2000054792 -0.5216417502 -0.0674858673 0.1748392491
575296550.0 -0.0302586328 0.1743142725 0.1936103287 -0.5232608605 0.1943028083 -0.5231979463 -0.0656377095 0.1752332878
580296520.0 -0.028633726 0.1746239328 0.1883296623 -0.5251867411 0.188205142 -0.5254483325 -0.0640759747 0.1761847232
585296490.0 -0.0266781235 0.175001462 0.1828381189 -0.5272680373 0.182367738 -0.5274596859 -0.062670035 0.1763457027
590296460.0 -0.024870776 0.1751686943 0.1766205747 -0.5291123143 0.176588726 -0.5295014017 -0.0608062785 0.1776892753
595296430.0 -0.0229328911 0.1758326673 0.1710461187 -0.5310388643 0.1711387093 -0.5313805815 -0.0590295328 0.1782790452
600296400.0 -0.0206052974 0.1764330741 0.1649106139 -0.5329295319 0.1655475768 -0.5331399764 -0.0572214892 0.1790181782
605296370.0 -0.0187170741 0.1768972954 0.1595658144 -0.5349597376 0.159759326 -0.5346154502 -0.0556285527 0.179547839
610296340.0 -0.0171006192 0.1770670025 0.1541839744 -0.5365030641 0.1539775734 -0.5366364057 -0.0538921792 0.1806079218
615296310.0 -0.0147752053 0.1776347171 0.1479245078 -0.5378038014 0.1480183822 -0.5381424693 -0.0521760061 0.180914367
620296280.0 -0.0128846932 0.1775298013 0.1423821982 -0.5395648281 0.1423907079 -0.5400035747 -0.0505231331 0.1816068079
625296250.0 -0.0105963828 0.178008901 0.1360656237 -0.5413056015 0.1361130214 -0.5414246503 -0.048568251 0.1824539135
630296220.0 -0.0087424127 0.1783185645 0.130192142 -0.5426176496 0.1306333815 -0.5423141289 -0.0472499082 0.1829742798
635296190.0 -0.0068462672 0.1782634714 0.1243813196 -0.5429644591 0.1244309888 -0.5433893996 -0.0455089673 0.1834111902
640296160.0 -0.0047041101 0.1786986852 0.1189554918 -0.5447721338 0.1185316719 -0.5450430261 -0.043250007 0.1841094008
645296130.0 -0.0027852631 0.1790575543 0.1122806142 -0.5463012976 0.1127559561 -0.5465408714 -0.042204907 0.1846810141
650296100.0 -0.0009464562 0.1794665736 0.107310611 -0.54721759 0.1071928434 -0.5473776029 -0.0402053472 0.1852046451
655296070.0 0.0011872542 0.1791011738 0.10101206 -0.5484111602 0.1011726942 -0.5485171254 -0.0380592545 0.1861278325
660296040.0 0.0023856436 0.1797233215 0.0953541881 -0.5489343829 0.0950205618 -0.5492294485 -0.0366353852 0.1859778273
665296010.0 0.0051230885 0.1792098035 0.0892504647 -0.5500763861 0.0895857579 -0.5505827176 -0.0350134025 0.1869555138
670295980.0 0.0074782746 0.179737355 0.0833570154 -0.5515814705 0.0838317573 -0.5512422238 -0.0334874913 0.1871825198
675295950.0 0.0091162947 0.1796523719 0.0773687827 -0.5519572243 0.0776619671 -0.5527571219 -0.0310169733 0.1881761977
680295920.0 0.0111986971 0.1801099228 0.0713114227 -0.5529267199 0.071288766 -0.5532483618 -0.0292116604 0.1881935677
685295890.0 0.0128969761 0.1799138702 0.0656673589 -0.5537406994 0.0651963767 -0.5538659955 -0.0275480888 0.1888846522
690295860.0 0.0154298696 0.1801479069 0.059508705 -0.5540036804 0.0590077279 -0.554132404 -0.0259522791 0.1891901095
695295830.0 0.0173759408 0.1797567312 0.0527137249 -0.5548042557 0.053089059 -0.5550411466 -0.0243351775 0.189768792
700295800.0 0.0197591892 0.1797589056 0.0468929635 -0.5554249948 0.0474764922 -0.5558817487 -0.02241494 0.1897393698
705295770.0 0.0214896882 0.1798883971 0.0411010658 -0.5558634072 0.041532979 -0.5560631049 -0.0206620738 0.190248012
710295740.0 0.0233293489 0.1799278291 0.0354842934 -0.5562572583 0.0353127662 -0.5560683156 -0.0193938389 0.1909587061
715295710.0 0.0252343342 0.1796223033 0.029101299 -0.5564766026 0.0294324501 -0.5563856387 -0.0168667578 0.190685041
720295680.0 0.0272343423 0.1794412542 0.0229973698 -0.5565302836 0.023327876 -0.5571216692 -0.0145803266 0.1911464216
725295650.0 0.0296423286 0.1794366658 0.0167772241 -0.5569976197 0.0173975587 -0.5567019089 -0.013150329 0.1917737942
730295620.0 0.0312369273 0.1789050315 0.0112546318 -0.5568243428 0.011127929 -0.5572300339 -0.0110413266 0.1914506959
735295590.0 0.0335506708 0.178922683 0.005670036 -0.5570142738 0.0057323089 -0.5570663873 -0.0093178503 0.1920086
740295560.0 0.0356461497 0.1790637975 -0.0008371504 -0.556789811 -0.0007816987 -0.5570889972 -0.0073622142 0.1921414085
745295530.0 0.0374087932 0.17822639 -0.0068337662 -0.5570917691 -0.0065102822 -0.5571792852 -0.0059611156 0.1926366288
750295500.0 0.0393961287 0.1779469357 -0.0126440959 -0.5564644605 -0.0126013941 -0.5566767635 -0.0041047663 0.1926522067
755295470.0 0.0419116847 0.1779700386 -0.0186283339 -0.5565208648 -0.0184468285 -0.5569780886 -0.002321464 0.1929004222
760295440.0 0.0437760258 0.1776079453 -0.0251696552 -0.5561869912 -0.0248061921 -0.5565209605 -0.000686325 0.1929671036
765295410.0 0.0453434368 0.1768515359 -0.0299594294 -0.5557570115 -0.0301118924 -0.5563953795 0.0019482834 0.193219708
770295380.0 0.0478011 0.1771208579 -0.036784305 -0.5551022333 -0.0363121089 -0.555968496 0.0037492198 0.193494033
775295350.0 0.0494296821 0.1768188854 -0.042575947 -0.5551054345 -0.0424859227 -0.5551003904 0.0052103815 0.1929629795
780295320.0 0.0514164476 0.1759935591 -0.0481482103 -0.5547929285 -0.0482101324 -0.5547907515 0.0069571683 0.1937496543
785295290.0 0.0536129455 0.1759492025 -0.0542904621 -0.5536395412 -0.0542492824 -0.5541261093 0.0084483282 0.1936212722
790295260.0 0.0554236038 0.1755866862 -0.0603388224 -0.5536328701 -0.0603106353 -0.5537170733 0.0109411045 0.1935531599
795295230.0 0.0571537223 0.1752182245 -0.0658654277 -0.5523300794 -0.0659917297 -0.5530014056 0.0127074499 0.1940128555
800295200.0 0.0594406352 0.1747074275 -0.0726238547 -0.5525498942 -0.0726719264 -0.552042879 0.0146239072 0.1938746625
805295170.0 0.0611760916 0.174040412 -0.0783061602 -0.5506314669 -0.0785240034 -0.5510634969 0.0158861178 0.1936196536
810295140.0 0.0631206017 0.1734524337 -0.08414788 -0.5498860391 -0.0839698811 -0.5505790215 0.0184016184 0.1941736813
815295110.0 0.0649912953 0.1731182835 -0.0903489507 -0.5492257095 -0.0903609963 -0.5492472633 0.0198660588 0.1939954894
820295080.0 0.0670152462 0.1723639364 -0.0956226891 -0.5481773192 -0.0959303022 -0.5484875035 0.0219151261 0.1938863164
825295050.0 0.0691857048 0.1716261167 -0.1019841835 -0.5467011308 -0.1018644391 -0.5474133308 0.024041421 0.1936726965
830295020.0 0.0709827496 0.1712692718 -0.1076052161 -0.5459544629 -0.108289375 -0.5460797479 0.0254134732 0.1934859345
