!Created with skrf (http://scikit-rf.org).
# Hz S RI R 50.0 
!freq ReS11 ImS11 ReS21 ImS21 ReS12 ImS12 ReS22 ImS22
300000.0 -0.23861869 -0.0978737362 0.4667374189 0.0642328255 0.4677844809 0.0677559145 -0.2362625198 -0.1076932981
5299970.0 -0.2438269449 0.0071329358 0.4742538477 0.0053915828 0.4740779064 0.0058349569 -0.244177825 0.0061220271
10299940.0 -0.2402955265 0.0200359929 0.4760398253 0.006217619 0.4761227043 0.0068623676 -0.2413458721 0.0182109128
15299910.0 -0.2358956479 0.0294376559 0.4793001982 0.0076525791 0.4793297113 0.0081094763 -0.2369261528 0.0275976827
20299880.0 -0.2305696545 0.0372168403 0.4840350278 0.0084541111 0.4842223803 0.0083114179 -0.2322531858 0.0353308349
25299850.0 -0.2249889762 0.0435401807 0.4895252939 0.0072541985 0.4895044125 0.0073483915 -0.2269639136 0.0417148686
30299820.0 -0.2189695381 0.0484668381 0.4951437711 0.0056736483 0.4948022443 0.0055033493 -0.2216671723 0.0470653371
35299790.0 -0.213199807 0.0528477497 0.500374982 0.0022568606 0.5005817835 0.0023548932 -0.2161441612 0.0509032125
40299760.0 -0.2076869249 0.0556782349 0.5054475439 -0.0013601649 0.5053132198 -0.0015884071 -0.2115437467 0.0545786295
45299730.0 -0.2026438304 0.0585695468 0.5101878353 -0.0068607347 0.5102708029 -0.0063099927 -0.2067648593 0.0573213274
50299700.0 -0.1974553432 0.0601861856 0.5142305317 -0.0121130908 0.5145794585 -0.0123127322 -0.2022878476 0.0595901224
55299670.0 -0.1938747176 0.0617835265 0.517562409 -0.0183427621 0.5178302589 -0.0179418711 -0.1983817029 0.0613446068
60299640.0 -0.1894196405 0.0626790483 0.5207917734 -0.0243147849 0.5214929841 -0.0241811888 -0.194444142 0.0631383101
65299610.0 -0.1864560116 0.0639303017 0.5247574055 -0.0301676344 0.524639051 -0.0303716228 -0.19108969 0.0645451211
70299580.0 -0.1824393548 0.0642311565 0.5267147584 -0.0368677057 0.5269369897 -0.0371821536 -0.1882500178 0.0656643671
75299550.0 -0.1794959629 0.065141245 0.5283665241 -0.0439734193 0.528850476 -0.0442035869 -0.1852584788 0.0667291807
80299520.0 -0.1774190616 0.065874763 0.5309204266 -0.0509644476 0.5309097577 -0.0508668107 -0.1825811602 0.0673472336
85299490.0 -0.174800752 0.0658622989 0.5321581155 -0.0576627495 0.5320061063 -0.0578937585 -0.1801550472 0.0682748542
90299460.0 -0.1727243183 0.0665830321 0.5330736285 -0.0644879629 0.5331252854 -0.0647964285 -0.1774713267 0.0690701552
95299430.0 -0.1702452948 0.0672684668 0.5341590042 -0.0720645863 0.5344687399 -0.0719290572 -0.1758208535 0.0703653659
100299400.0 -0.1686985827 0.0677728491 0.5342278572 -0.0786258811 0.5343496451 -0.0785998807 -0.1743540451 0.0707817476
105299370.0 -0.166884914 0.0681120608 0.5343375989 -0.0851446043 0.5348754444 -0.0853680215 -0.1721434816 0.0716066308
110299340.0 -0.1658388645 0.068456404 0.5344776214 -0.0917303743 0.5348225656 -0.0924067626 -0.1707799124 0.0724915796
115299310.0 -0.1639431036 0.0686267623 0.5343850668 -0.0985146247 0.5350420426 -0.0989870882 -0.1692977946 0.0731057604
120299280.0 -0.1630292686 0.0694061871 0.5349790865 -0.1057215243 0.5347038699 -0.1063365784 -0.1678275085 0.0741791305
125299250.0 -0.1618127389 0.0698552208 0.5342895458 -0.1124009133 0.5347174837 -0.11277152 -0.1663849903 0.074704289
130299220.0 -0.1608005288 0.0706183509 0.5337193892 -0.1187859797 0.5338661213 -0.1193139873 -0.1652832211 0.0759390293
135299190.0 -0.1594318075 0.0710470676 0.5330463972 -0.1259046563 0.5328525567 -0.1257548762 -0.1642445184 0.0767887786
140299160.0 -0.1587374371 0.0723710789 0.5323237762 -0.1325143076 0.5324212045 -0.1327394799 -0.162659126 0.0779737284
145299130.0 -0.1575363258 0.0726897316 0.5317478757 -0.1388184953 0.5314095122 -0.1390523648 -0.1623328073 0.0786694355
150299100.0 -0.1566338666 0.0736555333 0.5299297424 -0.1458596156 0.5303002734 -0.1459700458 -0.1607422279 0.0799470936
155299070.0 -0.1561945306 0.0746878176 0.529171348 -0.1524289123 0.5292632894 -0.1524139296 -0.1602315625 0.0807597286
160299040.0 -0.1550430882 0.0753302789 0.5275622314 -0.158621456 0.5278576312 -0.1586371149 -0.1590049404 0.0822966773
165299010.0 -0.1545505169 0.0764145823 0.5270598152 -0.1651700856 0.5263429518 -0.1651949572 -0.1578784009 0.0831159858
170298980.0 -0.1536808961 0.0771480295 0.5242428553 -0.1714565605 0.5247130899 -0.171548431 -0.1566259763 0.0844504859
175298950.0 -0.152649473 0.0781832726 0.5233699178 -0.1775762275 0.5237983933 -0.1777316822 -0.1560664374 0.0856582604
180298920.0 -0.1515580499 0.0791572649 0.5214122016 -0.1842475465 0.5212463942 -0.1840625171 -0.1548151201 0.0874303036
185298890.0 -0.1509650866 0.0800727872 0.5190936108 -0.190654303 0.519972219 -0.1904500927 -0.1543702767 0.0883342576
190298860.0 -0.1501310881 0.0812256204 0.5177400744 -0.1966793086 0.5180931169 -0.1968033051 -0.1528211525 0.0895113907
195298830.0 -0.1496732189 0.081941414 0.5158878012 -0.2021488624 0.5158941425 -0.2026998261 -0.1519057237 0.0904325735
200298800.0 -0.1488305874 0.083419047 0.5139316713 -0.208025136 0.5137761335 -0.2085753968 -0.1507844091 0.0923863003
205298770.0 -0.1483354358 0.0847179296 0.5116497096 -0.2145572656 0.5116714406 -0.2145651402 -0.1501460619 0.0933803573
210298740.0 -0.1475622789 0.0854912507 0.5094237338 -0.2208987132 0.5094310969 -0.2209711509 -0.1490329557 0.0948615829
215298710.0 -0.1470146448 0.0870306123 0.5070514726 -0.2265817964 0.5070582862 -0.2265852969 -0.1482339355 0.0961566541
220298680.0 -0.1460475744 0.088223286 0.5044090355 -0.2328760493 0.5046302529 -0.2328779549 -0.14712484 0.0976943195
225298650.0 -0.1450536725 0.0893660355 0.5018964246 -0.2382371898 0.5016941699 -0.2382129564 -0.1460617394 0.0989821878
230298620.0 -0.1444666282 0.0906696484 0.4996241366 -0.2440789509 0.4998467621 -0.2445794927 -0.1449820541 0.1003104939
235298590.0 -0.1436293559 0.0917953028 0.4970697401 -0.2497204317 0.4970984355 -0.2502070412 -0.1440867641 0.1015928779
240298560.0 -0.1430371473 0.0928874617 0.4943194241 -0.2555600676 0.4946969395 -0.255686739 -0.1431485484 0.1032919394
245298530.0 -0.1417473349 0.0942411462 0.4908810986 -0.2615342093 0.4912694557 -0.2615311884 -0.1417938464 0.1051419294
250298500.0 -0.1415906229 0.0952056649 0.4887338823 -0.2666045348 0.4889348273 -0.2664892763 -0.1404574091 0.1062981588
255298470.0 -0.1407485242 0.0968054901 0.4853581941 -0.273102293 0.485972733 -0.2726011874 -0.1394818403 0.1074344213
260298440.0 -0.1398714705 0.0979390188 0.4830448792 -0.2776761312 0.4826974096 -0.2782380464 -0.1381843376 0.1092340392
265298410.0 -0.1386902304 0.0995762766 0.4794817779 -0.2840243448 0.4796959989 -0.2839612617 -0.1374864945 0.1104145139
270298380.0 -0.1374686824 0.1007629792 0.4759896668 -0.2891909957 0.4763992398 -0.289259177 -0.1361616695 0.1122348267
275298350.0 -0.1372026638 0.1019347575 0.4731997255 -0.2945451715 0.4736385431 -0.2950969105 -0.1347607393 0.1136789937
280298320.0 -0.1362736615 0.1034633822 0.4701295238 -0.2996394601 0.4699058496 -0.300376949 -0.1334373555 0.1148808184
285298290.0 -0.1351973713 0.1047302566 0.4669282534 -0.3047965449 0.4670947388 -0.3051470654 -0.1324788162 0.1163977286
290298260.0 -0.1342422585 0.1059913394 0.4635247252 -0.310597308 0.4637721162 -0.3106210729 -0.1308012155 0.1179939327
295298230.0 -0.1334214213 0.1071386459 0.460529406 -0.3162166107 0.4601383539 -0.3158912769 -0.1293852881 0.1192867378
300298200.0 -0.1319638503 0.1081911645 0.4569191663 -0.320905591 0.4571401042 -0.3212689578 -0.1284962423 0.1209118858
305298170.0 -0.1308173278 0.1094491794 0.4533495337 -0.3265244308 0.4533892419 -0.326571631 -0.1267332528 0.1223458629
310298140.0 -0.1298155743 0.1107643438 0.4501699771 -0.3317885506 0.4501271029 -0.3321223127 -0.1256588664 0.1243894798
315298110.0 -0.1292738187 0.1119082767 0.4461271294 -0.3373876127 0.4462012729 -0.3369763227 -0.1238456741 0.1248120213
320298080.0 -0.1280363226 0.1132268609 0.4426745489 -0.3420226662 0.442431877 -0.342083607 -0.1229356773 0.126315498
325298050.0 -0.127345145 0.1140838214 0.4393957917 -0.3473715432 0.4390397453 -0.3472259683 -0.1214754881 0.1275256796
330298020.0 -0.1263684715 0.1154690714 0.4344565723 -0.3521311403 0.4347140335 -0.3523273624 -0.1206014409 0.1290150437
335297990.0 -0.125590163 0.1166320098 0.4306995975 -0.3572493802 0.4307529189 -0.3573194414 -0.1192392969 0.1306742652
340297960.0 -0.1245740431 0.118321028 0.4259815593 -0.3614991474 0.4267106905 -0.3617857753 -0.1178849472 0.1321739922
345297930.0 -0.1239586767 0.1197623933 0.4223782971 -0.3661134798 0.4220421431 -0.3661315072 -0.1162307497 0.1330626939
350297900.0 -0.12221234 0.1211530337 0.4179420428 -0.370627128 0.4183977141 -0.3708814915 -0.1151704044 0.1349485348
355297870.0 -0.1214713865 0.1220882992 0.4138274873 -0.3753736351 0.4140288089 -0.3756511369 -0.1137006152 0.1364113308
360297840.0 -0.1201698511 0.1233777793 0.409967062 -0.3805105186 0.4097725914 -0.3802190916 -0.1120330707 0.1379769117
365297810.0 -0.1192771238 0.124625156 0.405545512 -0.384730032 0.4058927896 -0.3847393509 -0.1109086008 0.1397944217
370297780.0 -0.117768956 0.1257136364 0.4011177777 -0.3892670229 0.4016313956 -0.3896839929 -0.1093090339 0.1410978319
375297750.0 -0.1169541885 0.1277019024 0.3976579701 -0.3936488346 0.3972175707 -0.3938798412 -0.1077132258 0.142731678
380297720.0 -0.1154571526 0.1285210732 0.3928993772 -0.3975491094 0.3929096201 -0.3978431868 -0.1060432046 0.1438941938
385297690.0 -0.1142371378 0.1298281156 0.3880737154 -0.4019017039 0.3882340422 -0.4021297805 -0.1047400494 0.1452895184
390297660.0 -0.1133310937 0.1309799239 0.3837237265 -0.4066203564 0.3839919333 -0.4066780035 -0.1029925784 0.1462011762
395297630.0 -0.1115774599 0.1321494306 0.3792473261 -0.4104041431 0.3793518748 -0.410779997 -0.1016906605 0.148213006
400297600.0 -0.1108120437 0.1335650691 0.3749240997 -0.4149297297 0.3753444917 -0.4151229827 -0.1003915206 0.1490975168
405297570.0 -0.1092355157 0.1347370853 0.370180791 -0.4190657704 0.370534507 -0.419250465 -0.0982482435 0.1507279481
410297540.0 -0.1082004567 0.1358112739 0.364891443 -0.4229957414 0.3650050926 -0.4231419975 -0.0966216784 0.1519202666
415297510.0 -0.1066925035 0.1375500736 0.3609477191 -0.426813902 0.3615203488 -0.4264845494 -0.0954613599 0.1533204299
420297480.0 -0.105152819 0.138117002 0.3557687364 -0.430883112 0.3563127178 -0.4307310318 -0.0935317672 0.1542203682
425297450.0 -0.1038116862 0.1390891929 0.3516800213 -0.4347537978 0.3518006158 -0.434717133 -0.0915719292 0.1559642617
430297420.0 -0.1028638595 0.1407142096 0.3468974785 -0.4390609332 0.3470256759 -0.4388660151 -0.090387542 0.1567469846
435297390.0 -0.1012523274 0.1416207079 0.3418135283 -0.4420863639 0.3420811706 -0.4418885977 -0.0885773043 0.1581434256
440297360.0 -0.0997355022 0.142385395 0.3365934814 -0.4456946933 0.3369639224 -0.4455709169 -0.0870618472 0.1589027199
445297330.0 -0.0983230404 0.1437673646 0.3317687028 -0.4497566408 0.3320573186 -0.4494270728 -0.0850810528 0.160160811
450297300.0 -0.0968407344 0.1448708264 0.3270654034 -0.4530783513 0.3273559007 -0.4534808405 -0.0835183234 0.1618359716
455297270.0 -0.0957551706 0.1458306945 0.3226701064 -0.4569576251 0.3224144146 -0.4567172329 -0.0811725663 0.1627787031
460297240.0 -0.0943537053 0.1469412421 0.3173800091 -0.459904776 0.3170009394 -0.4603595611 -0.0797529428 0.1643253261
465297210.0 -0.0923978715 0.1479104771 0.3121950233 -0.4635513395 0.3126662416 -0.4637089675 -0.0784442714 0.1648742415
470297180.0 -0.0911244993 0.1490576593 0.3072787711 -0.4667787613 0.30753688 -0.4669917956 -0.0769324877 0.1660856092
475297150.0 -0.0901464286 0.149676472 0.3017753091 -0.4699487769 0.3021367748 -0.4698852699 -0.0744691212 0.1672244965
480297120.0 -0.0882863964 0.1504862578 0.2968152884 -0.4731738081 0.2971760371 -0.4735372349 -0.0728930341 0.1682364101
485297090.0 -0.0868200083 0.1515769529 0.2918419788 -0.4768092373 0.2915394235 -0.4770289247 -0.0713645663 0.1692967305
490297060.0 -0.0852558854 0.1525146816 0.2865118476 -0.4798841004 0.2865487397 -0.4799163833 -0.0694205499 0.1704715981
495297030.0 -0.0842101875 0.1539036677 0.2808520926 -0.4827373865 0.281066468 -0.4829509535 -0.0673224918 0.1707976341
500297000.0 -0.0825694111 0.1542474152 0.275550857 -0.4854268832 0.2760768722 -0.485845142 -0.0661767495 0.1719052216
505296970.0 -0.0811895357 0.155315045 0.2702789678 -0.4888439557 0.2704875154 -0.4885767469 -0.0642938847 0.1731415817
510296940.0 -0.0795710001 0.1564105039 0.2652999492 -0.4914735816 0.2653455414 -0.4915480584 -0.0618208306 0.1741256742
515296910.0 -0.0784111423 0.1575823259 0.2596999949 -0.4942643696 0.2601574972 -0.4944129429 -0.0605003422 0.1746844879
520296880.0 -0.0764525476 0.1581426252 0.2543620972 -0.4970790565 0.2542800809 -0.4969855644 -0.0580591386 0.1758338147
525296850.0 -0.0751096757 0.1589131038 0.2490166313 -0.4997422022 0.2491146787 -0.500162172 -0.0559964974 0.1765412375
530296820.0 -0.0734719659 0.1597253083 0.2435678903 -0.5018617625 0.243304064 -0.5022928925 -0.0548366957 0.1766404967
535296790.0 -0.0718794254 0.1605981296 0.2379417344 -0.504765084 0.2381111155 -0.5047142132 -0.0527620087 0.1779089164
540296760.0 -0.070335097 0.1614028375 0.2325072328 -0.5078761999 0.2322417966 -0.5081884253 -0.0511043132 0.1788115005
545296730.0 -0.069081545 0.1623642155 0.2272626117 -0.5099504984 0.2268877853 -0.510282104 -0.0492092158 0.1792271852
550296700.0 -0.0673360913 0.1631356896 0.22166634 -0.5126438716 0.2221992455 -0.5128462142 -0.0470254861 0.1803969911
555296670.0 -0.065460482 0.1637103556 0.2160607638 -0.5149571571 0.2163199988 -0.5151965927 -0.0455175796 0.1810400192
560296640.0 -0.0641805167 0.1645180124 0.2104324443 -0.5169551964 0.2104411788 -0.5169589078 -0.0430239375 0.1813577786
565296610.0 -0.062995929 0.1653392313 0.2049207233 -0.5194030328 0.204458572 -0.5192911931 -0.0415144741 0.1819342717
570296580.0 -0.0607160607 0.1659001146 0.1986471791 -0.5212968181 0.1994621592 -0.5216645285 -0.0393188915 0.1831391716
575296550.0 -0.0593303075 0.1668856786 0.1934374958 -0.5230908458 0.1937924652 -0.5234005468 -0.0371731365 0.1835491408
580296520.0 -0.0579776434 0.1675369703 0.1879122551 -0.5256316873 0.1879391469 -0.5255110929 -0.035415238 0.1836486774
585296490.0 -0.0560309897 0.1677867688 0.1823726117 -0.5275271199 0.182257151 -0.5274025027 -0.0335249603 0.1841893669
590296460.0 -0.0548420693 0.1684868077 0.1762818581 -0.5297069809 0.1762366814 -0.5296194366 -0.031502727 0.1852420246
595296430.0 -0.0528560101 0.1694433809 0.1706239713 -0.5315775793 0.1704095617 -0.5315297448 -0.0293571073 0.185235909
600296400.0 -0.0513255623 0.1701022391 0.1647732564 -0.5328968331 0.1651610199 -0.5335509514 -0.0273350812 0.186248808
605296370.0 -0.0494891219 0.1709941978 0.1593569331 -0.5348035024 0.1594005486 -0.5347290962 -0.0252087037 0.1863394538
610296340.0 -0.0476714669 0.1710760125 0.1532525571 -0.5363072276 0.1535153624 -0.536611334 -0.0234754424 0.1871928275
615296310.0 -0.0462408683 0.172120264 0.1473616979 -0.5379611956 0.1474200328 -0.5381050993 -0.0214222061 0.1870177953
620296280.0 -0.0446771431 0.172633656 0.1417266323 -0.539669223 0.1416797944 -0.5396407953 -0.0194730351 0.1873791507
625296250.0 -0.0425926103 0.1732450323 0.1353501091 -0.5414906272 0.1358316147 -0.5414002241 -0.0172829835 0.1881897638
630296220.0 -0.0410560423 0.1740377151 0.1295372046 -0.5426522058 0.1303599476 -0.5426410193 -0.0151282352 0.1884441392
635296190.0 -0.0396430588 0.1743280301 0.1240147772 -0.5435123051 0.1238931797 -0.5434664302 -0.0134002416 0.1884187705
640296160.0 -0.0376602465 0.1747569347 0.1184786393 -0.5446865802 0.1179878151 -0.5453849289 -0.0109250868 0.1888254099
645296130.0 -0.0359705412 0.1752864341 0.1118929775 -0.5463862924 0.1124332159 -0.5464484916 -0.0096412154 0.1889230638
650296100.0 -0.0344652259 0.1762854997 0.1067184558 -0.5472759425 0.1062811541 -0.5473614567 -0.0072973217 0.1895967256
655296070.0 -0.032690477 0.1762972999 0.1004658271 -0.5484881078 0.1002103451 -0.5482413768 -0.00479326 0.1897870137
660296040.0 -0.0314785203 0.177014552 0.0946645502 -0.5490895132 0.0945493457 -0.5490949664 -0.003106991 0.189821967
665296010.0 -0.0293130563 0.1768927357 0.0889905899 -0.5501100484 0.0890999289 -0.5501375147 -0.0011215115 0.1901978654
670295980.0 -0.0272737706 0.1775094251 0.0826294696 -0.5510055269 0.083044614 -0.5513558718 0.0008900334 0.1899900324
675295950.0 -0.0255262604 0.1780008034 0.0765212104 -0.5520883983 0.076940809 -0.5525798703 0.0032966691 0.1905238377
680295920.0 -0.0241516315 0.1788930812 0.0707971921 -0.5529431259 0.0702998639 -0.5529646077 0.0052449231 0.1905174403
685295890.0 -0.0222429211 0.1788955287 0.0652036395 -0.5536244027 0.0647485469 -0.5538313682 0.0070796419 0.1908300939
690295860.0 -0.0201835842 0.1791094515 0.0586647653 -0.5537406507 0.05883868 -0.5541051038 0.0095047533 0.1907433098
695295830.0 -0.0183976682 0.1795326143 0.0519764259 -0.5548579906 0.0527780696 -0.5552887601 0.0111623264 0.191000593
700295800.0 -0.0165634916 0.1799648363 0.0466750498 -0.5550364972 0.0466443979 -0.5557168438 0.0134975117 0.1903163434
705295770.0 -0.0148228064 0.1803474332 0.0405271827 -0.5558099597 0.0409787825 -0.5555481944 0.0154748453 0.1906734645
710295740.0 -0.013136031 0.1808767388 0.0343552697 -0.5559977184 0.0348217239 -0.5559195879 0.0168192282 0.1910425453
715295710.0 -0.0118548044 0.1810199948 0.0286606738 -0.556397588 0.0289730669 -0.5566828488 0.0195432981 0.1906519994
720295680.0 -0.0101580709 0.1810177781 0.0223477393 -0.5566251871 0.0229428546 -0.5572624483 0.0217508716 0.1906954184
725295650.0 -0.007608499 0.1814020998 0.0165183616 -0.5564699239 0.0169083219 -0.5566787715 0.0237357339 0.1907166897
730295620.0 -0.0066302834 0.18124658 0.0106099543 -0.5569738574 0.0108930929 -0.5571548029 0.0261413327 0.1899569729
735295590.0 -0.0042958147 0.1817415645 0.004864528 -0.5569543142 0.0050450004 -0.5572693333 0.0281763068 0.1903738203
740295560.0 -0.0027285522 0.1821756674 -0.0013530574 -0.5569638627 -0.0012358908 -0.5566886001 0.0301357558 0.1898164791
745295530.0 -0.0007982231 0.1820544306 -0.0071739344 -0.5569800567 -0.0072060045 -0.5571975762 0.0319357926 0.1900231114
750295500.0 0.0007827958 0.1822003127 -0.013199619 -0.5565360403 -0.0130798982 -0.5565956462 0.0343570968 0.1891773529
755295470.0 0.0031551796 0.182658222 -0.0193065264 -0.5569132043 -0.0189862458 -0.5569466624 0.035856502 0.1896094031
760295440.0 0.0044983136 0.1827794255 -0.0253230469 -0.5560201823 -0.0253575187 -0.5562389111 0.0380030104 0.1889391171
765295410.0 0.0062431807 0.1824904965 -0.0311036662 -0.5558755371 -0.0311341753 -0.5561897844 0.0407665312 0.1893677441
770295380.0 0.0084333946 0.1829504637 -0.0372372228 -0.5554880059 -0.0371527311 -0.5560183641 0.0428845243 0.1887937011
775295350.0 0.0098489896 0.1831817942 -0.0432633247 -0.5546206736 -0.0428175074 -0.5552955581 0.0441882053 0.1878384762
780295320.0 0.0118377847 0.1830131777 -0.0488002813 -0.5543580664 -0.0488822495 -0.5548823574 0.0461950788 0.1880762095
785295290.0 0.0136153593 0.1833172871 -0.055150504 -0.5532759363 -0.0550910452 -0.5543351731 0.048194616 0.1876964959
790295260.0 0.0154047286 0.1833536698 -0.0611346567 -0.5533212863 -0.061185628 -0.5536863444 0.0505312473 0.1872709593
795295230.0 0.0171765673 0.1832971483 -0.0663106989 -0.5523712552 -0.0666864888 -0.5526711407 0.0527160188 0.1874517378
800295200.0 0.0191963641 0.1835461556 -0.0734051149 -0.5521230054 -0.0732539592 -0.552070203 0.0545794336 0.1862222665
805295170.0 0.0203294995 0.1831649842 -0.0786192471 -0.5507636821 -0.0786298596 -0.5508988007 0.0561392218 0.1859840915
810295140.0 0.0224234426 0.1829418624 -0.0842697272 -0.5502469854 -0.0847306491 -0.5508164313 0.0586048991 0.1859746122
815295110.0 0.0242220016 0.1831104261 -0.0906334579 -0.5488734582 -0.0908638773 -0.549175185 0.0605040706 0.1851114116
820295080.0 0.0259578374 0.1828795188 -0.0962167448 -0.5482331473 -0.0963612693 -0.5484557415 0.0621981129 0.1844175215
825295050.0 0.0282788585 0.1826594425 -0.1025641341 -0.5460607709 -0.1026785836 -0.5470289962 0.0647831369 0.1844443453
830295020.0 0.029980317 0.1830050387 -0.1087052213 -0.5454602271 -0.1086936532 -0.5460588661 0.0663777392 0.183468728
