!Created with skrf (http://scikit-rf.org).
# Hz S RI R 50.0 
!freq ReS11 ImS11 ReS21 ImS21 ReS12 ImS12 ReS22 ImS22
300000.0 -0.239973625 -0.0882643816 0.4717253981 0.0604075355 0.4698625286 0.0580869897 -0.2383209212 -0.100000349
5299970.0 -0.2451683805 0.0065343006 0.4747022322 0.0049691056 0.4750829053 0.0049946071 -0.2408726161 0.0073086165
10299940.0 -0.2416491975 0.01799462 0.4767095391 0.006068779 0.4765322072 0.0062346036 -0.2376992426 0.0204623471
15299910.0 -0.2374172571 0.0270664595 0.4801805208 0.0070436679 0.4803610421 0.00715055 -0.2329308657 0.030280451
20299880.0 -0.2329577542 0.0339677688 0.4849080563 0.0081734439 0.4851902086 0.0079227072 -0.2276703182 0.0381145766
25299850.0 -0.2279494586 0.0402747698 0.4902155732 0.0074257662 0.4903303392 0.0071350198 -0.2217842327 0.0448104315
30299820.0 -0.2225710985 0.0449930827 0.4954643194 0.0047204076 0.4955050833 0.0048343872 -0.2161012664 0.0504068809
35299790.0 -0.2175399276 0.0491260705 0.500701394 0.0015223998 0.50102862 0.0015508237 -0.2106179256 0.0547560766
40299760.0 -0.212663474 0.0524182542 0.5057784504 -0.0022064811 0.5061886892 -0.0022375496 -0.2052331286 0.0576842832
45299730.0 -0.2079601258 0.0547155485 0.5103426284 -0.0070130189 0.5107823518 -0.0071328121 -0.2002037263 0.0606077488
50299700.0 -0.203902017 0.0569045015 0.5147034549 -0.012788704 0.5148622285 -0.0123274453 -0.1954187357 0.0625430277
55299670.0 -0.1999176664 0.0584223746 0.5185726344 -0.0188798294 0.518488051 -0.0182694049 -0.19153912 0.0642124829
60299640.0 -0.1959322341 0.059972023 0.5216608342 -0.0250929425 0.5220603663 -0.0245143155 -0.1873573354 0.06544903
65299610.0 -0.1928282771 0.0610618419 0.5245328191 -0.0314095123 0.5248072777 -0.0311127379 -0.1840110029 0.0667766983
70299580.0 -0.1898600326 0.062291354 0.5274159849 -0.0383592516 0.5271121449 -0.0379786952 -0.1807624543 0.0676239193
75299550.0 -0.1871642334 0.0630864925 0.5285874832 -0.0445600239 0.5286361462 -0.0446801712 -0.1777212148 0.0681138178
80299520.0 -0.1846007301 0.0634152402 0.5308606985 -0.0514353616 0.53102321 -0.0516039742 -0.1751067658 0.0691887886
85299490.0 -0.1824623026 0.0641052196 0.532128903 -0.0579346842 0.5320796534 -0.0577675589 -0.1729372534 0.0694841157
90299460.0 -0.1801963023 0.0648066323 0.5326326012 -0.0654594829 0.5332611715 -0.06540992 -0.1706292521 0.0704865766
95299430.0 -0.1781454296 0.0654500491 0.5341839251 -0.0722297213 0.534340088 -0.0724592062 -0.1685145441 0.0715140812
100299400.0 -0.1767935038 0.066043165 0.5340306264 -0.0785596398 0.5341159276 -0.0794422618 -0.1658982822 0.0716275208
105299370.0 -0.1750439841 0.066683917 0.5346554191 -0.086190319 0.5348660069 -0.0860752364 -0.1640754278 0.0726206838
110299340.0 -0.1732384849 0.067721275 0.5349669102 -0.0925450392 0.5345489647 -0.0926343755 -0.1628242711 0.0729190601
115299310.0 -0.1721224401 0.0681959377 0.5347628901 -0.1000249598 0.5346761475 -0.0994673351 -0.1611796279 0.0737592861
120299280.0 -0.1707498153 0.0684935699 0.5345657635 -0.1063695014 0.5343925695 -0.1063847759 -0.1594933958 0.0744668265
125299250.0 -0.1693382843 0.0692723105 0.5338208061 -0.1131411773 0.5342931961 -0.1130488759 -0.1586223711 0.0747379266
130299220.0 -0.1683396102 0.0700971356 0.5329298057 -0.1196398075 0.533320662 -0.1196859872 -0.1572858863 0.0759345826
135299190.0 -0.1673967671 0.0713161467 0.5330062818 -0.12669301 0.5327878923 -0.1260558638 -0.1557012804 0.076465973
140299160.0 -0.1665809502 0.0719575008 0.5321097256 -0.133129557 0.5320526828 -0.1332732702 -0.1545742774 0.0779910089
145299130.0 -0.1656075942 0.0728670876 0.5313374133 -0.1396702711 0.530841903 -0.1393520346 -0.1534906412 0.0790784021
150299100.0 -0.1644335267 0.0739823678 0.5298552409 -0.1458805477 0.5301351774 -0.1456452049 -0.1522490159 0.08019534
155299070.0 -0.1639718886 0.0747257396 0.5290583154 -0.1531173662 0.5285952709 -0.1526459176 -0.1510774636 0.0812083145
160299040.0 -0.1629114538 0.0760051328 0.5274407087 -0.1590874052 0.5271656315 -0.1596002737 -0.1505961229 0.0820985371
165299010.0 -0.1620516184 0.0766627318 0.5257062768 -0.16555023 0.5263353654 -0.1659917299 -0.1492021815 0.083594759
170298980.0 -0.1613492975 0.0777462108 0.5243380389 -0.1722608914 0.5241726171 -0.1722604799 -0.1479580876 0.0846621293
175298950.0 -0.160838259 0.0789379914 0.5231313358 -0.1779097818 0.5223974324 -0.1780815163 -0.1473959115 0.085826081
180298920.0 -0.1601779182 0.0801560081 0.5211847623 -0.1845852736 0.5210547902 -0.184133884 -0.1463945336 0.087202413
185298890.0 -0.1587833684 0.0810001812 0.5189505307 -0.1903789117 0.5188560839 -0.1904056834 -0.1455877286 0.0886096723
190298860.0 -0.1583186421 0.0822358114 0.5171817317 -0.1968531288 0.5176672559 -0.1968498297 -0.1446554763 0.089964848
195298830.0 -0.1579827228 0.0830138181 0.515396701 -0.2026274204 0.5154596704 -0.2026010912 -0.1436568372 0.0912251995
200298800.0 -0.1568979261 0.084560064 0.5126812976 -0.2090895204 0.5131561696 -0.2093188286 -0.1430914832 0.0925314972
205298770.0 -0.1561352184 0.0859661582 0.5107063122 -0.2155052817 0.5109774414 -0.2150575366 -0.1421621902 0.09345731
210298740.0 -0.1551456529 0.0868474264 0.5085075515 -0.2210829851 0.5086068193 -0.2209558373 -0.1406337181 0.0955993901
215298710.0 -0.1552356623 0.0884757374 0.5062937842 -0.2270025275 0.5061538456 -0.2273235167 -0.1401183754 0.0964854685
220298680.0 -0.1540452097 0.089013347 0.5036937914 -0.232450829 0.503646079 -0.2330050288 -0.139578663 0.0977779728
225298650.0 -0.1532654392 0.0904526313 0.5011889651 -0.2385145826 0.5016088218 -0.238770526 -0.1387048601 0.0991111061
230298620.0 -0.1525602196 0.092260285 0.4990258291 -0.2442485936 0.4993147383 -0.2444463378 -0.1377856404 0.1002160245
235298590.0 -0.1518049775 0.09368873 0.496176185 -0.2502893804 0.4962534414 -0.2500142879 -0.1368303825 0.1017049797
240298560.0 -0.1512552117 0.0948622821 0.4935823402 -0.2559931454 0.4935413241 -0.2562323276 -0.1359867089 0.1032561616
245298530.0 -0.1503444581 0.0963495778 0.4909827461 -0.2620939393 0.4908996737 -0.2619171249 -0.1345314145 0.103995751
250298500.0 -0.1493208167 0.0976100349 0.4876048928 -0.2669549208 0.4876358174 -0.2669535653 -0.1342750816 0.1057696261
255298470.0 -0.1485085263 0.0986626817 0.4847388446 -0.272618539 0.4851696541 -0.2729182777 -0.1328854055 0.1070035399
260298440.0 -0.1479452331 0.1000437116 0.4819751227 -0.2787205548 0.4821503245 -0.2781944924 -0.1314381815 0.1081707087
265298410.0 -0.1466227028 0.1016935005 0.4784212388 -0.284249952 0.4792239235 -0.2835080325 -0.1305841606 0.1095321437
270298380.0 -0.1459748178 0.1029651948 0.4762121404 -0.2891418275 0.476245745 -0.289073328 -0.1296087984 0.1110060148
275298350.0 -0.1447808268 0.1044123574 0.4725486163 -0.2946501778 0.4730416979 -0.2947717986 -0.128400975 0.1119429209
280298320.0 -0.1438836662 0.1058065768 0.4699913949 -0.3005424018 0.4698978114 -0.2999118498 -0.126927614 0.1134446231
285298290.0 -0.1431704906 0.1071471196 0.4662422147 -0.3051999805 0.4663592232 -0.3056492677 -0.1256910288 0.1147888989
290298260.0 -0.1418204799 0.1084090261 0.4630419122 -0.3103462551 0.4627760681 -0.3108987379 -0.124426217 0.116711128
295298230.0 -0.1408957468 0.1095289627 0.4599341938 -0.3158411564 0.4595969045 -0.3163179427 -0.1229371967 0.1177454003
300298200.0 -0.1403468063 0.1110074431 0.4568084739 -0.3210029595 0.4565435722 -0.3213327202 -0.1220621092 0.1189237851
305298170.0 -0.1389301146 0.111984485 0.4526887793 -0.3264124024 0.4526239445 -0.326257254 -0.1199387809 0.1202810547
310298140.0 -0.1381219995 0.1133693125 0.4492999758 -0.3315138171 0.4494234935 -0.3313165015 -0.1188744461 0.1214573954
315298110.0 -0.1370073015 0.1144860341 0.4457565378 -0.336366447 0.4459643381 -0.336658172 -0.1178949614 0.1230062977
320298080.0 -0.1357818932 0.1160463672 0.4415214391 -0.3419901502 0.4419061005 -0.3421021176 -0.1163523249 0.1241256649
325298050.0 -0.1350011588 0.1171029616 0.4380705603 -0.3468847201 0.4378544969 -0.3467946605 -0.1156621715 0.125272245
330298020.0 -0.1340343752 0.1182887871 0.4336776944 -0.3520978397 0.4341182902 -0.3516807743 -0.1143572124 0.1267147488
335297990.0 -0.1330156728 0.1194118451 0.4297272785 -0.356724166 0.4296548899 -0.3568233451 -0.1131970457 0.1285015635
340297960.0 -0.1326040115 0.1209245279 0.4259283726 -0.3614426205 0.4252980031 -0.3616065087 -0.1117424145 0.129677961
345297930.0 -0.1316092604 0.1225024135 0.4215612306 -0.3664658118 0.4212359138 -0.3662498719 -0.1103935043 0.1309465975
350297900.0 -0.1304114047 0.1235118052 0.4170929382 -0.370846895 0.4172561416 -0.3709818357 -0.1093831393 0.1323679282
355297870.0 -0.1292734851 0.1256763033 0.4130342109 -0.3755438101 0.4136564684 -0.3754388543 -0.1080854467 0.1336105398
360297840.0 -0.1280404797 0.1267198378 0.40950404 -0.3798054665 0.4099666914 -0.3797865133 -0.1068960739 0.1355341099
365297810.0 -0.1273831575 0.1282418412 0.4050476005 -0.384370824 0.4052665922 -0.3845385892 -0.1050081565 0.1368560408
370297780.0 -0.125980725 0.1295214712 0.4008076541 -0.3882912038 0.4010847116 -0.3884891624 -0.1035877683 0.1379901645
375297750.0 -0.1244277556 0.1308181846 0.3967381055 -0.3932663077 0.3968651181 -0.3932714854 -0.1023192405 0.1391492938
380297720.0 -0.1232493773 0.1321490537 0.3920183195 -0.3975609197 0.3921788601 -0.397047133 -0.1011779329 0.1406741501
385297690.0 -0.1225748476 0.1332015247 0.3876235803 -0.4017039444 0.3874493836 -0.4016022512 -0.0996994237 0.14184411
390297660.0 -0.1212480879 0.1348694119 0.3835926001 -0.4059325615 0.3835056905 -0.4056681865 -0.0986379256 0.1429405052
395297630.0 -0.119620019 0.1364116746 0.3786815237 -0.4105631901 0.3786385788 -0.4106896326 -0.0962432175 0.1445661365
400297600.0 -0.1186630848 0.1375376063 0.3741047474 -0.4150099993 0.3741670092 -0.4146286436 -0.0949928794 0.1455265311
405297570.0 -0.1176643932 0.1388058807 0.3698674543 -0.4187496636 0.3697375636 -0.4184015647 -0.0939223338 0.1469484918
410297540.0 -0.1160401288 0.1401271924 0.3649945022 -0.4224932532 0.3657984233 -0.4225013889 -0.0920993465 0.1479826368
415297510.0 -0.1144754163 0.1410083666 0.3601938728 -0.4266741875 0.3606311666 -0.4266476868 -0.0908420884 0.1492448379
420297480.0 -0.1135225566 0.1427672341 0.3554836111 -0.4305279438 0.3558750891 -0.4306523346 -0.0891445808 0.1501066791
425297450.0 -0.1119675238 0.1433917664 0.3510284393 -0.4340505204 0.3515667934 -0.4344402002 -0.0877430865 0.1515312813
430297420.0 -0.1105428194 0.144766688 0.3463014693 -0.4378086279 0.34618765 -0.4375567612 -0.0859878697 0.1523403839
435297390.0 -0.1096128071 0.1459771539 0.3412788382 -0.4417945049 0.3412847753 -0.441827053 -0.0839385508 0.153236051
440297360.0 -0.107678342 0.1470725621 0.3362001439 -0.4453949231 0.3366868219 -0.4457390131 -0.0824549195 0.1543076722
445297330.0 -0.1067989803 0.1482055359 0.3322232233 -0.4490840126 0.3317116795 -0.4489160278 -0.0806114873 0.1550538757
450297300.0 -0.1051627708 0.1495863511 0.3267598849 -0.4530093213 0.3271324568 -0.4530664304 -0.0792452497 0.1561499455
455297270.0 -0.1035261637 0.150482119 0.3216597383 -0.4563212675 0.322467616 -0.4565101104 -0.0771407167 0.1572855043
460297240.0 -0.1024010777 0.1518317047 0.31672394 -0.4595554586 0.3173070252 -0.4596701172 -0.0757827425 0.1580544173
465297210.0 -0.1006384139 0.1530693708 0.3118114444 -0.4631850696 0.3117019817 -0.4633393961 -0.0736657368 0.1589053647
470297180.0 -0.0993643044 0.1537311607 0.3066311752 -0.4668168019 0.3068097897 -0.4665879058 -0.0718445443 0.1601171284
475297150.0 -0.0977842929 0.1546249999 0.3012536838 -0.4692648477 0.3020014839 -0.4693893948 -0.0697668523 0.1607757959
480297120.0 -0.096469984 0.1561173254 0.2963133501 -0.4733288399 0.2962822848 -0.4733615045 -0.0676665175 0.1618864588
485297090.0 -0.094781048 0.1572541511 0.2914899035 -0.4764256518 0.2913177851 -0.475671534 -0.066106448 0.1627094573
490297060.0 -0.0939927884 0.1579551258 0.2864845127 -0.4794746688 0.2861479181 -0.4790351388 -0.0642857099 0.1638152534
495297030.0 -0.0921864693 0.1592612599 0.2807698774 -0.4823479047 0.2814090138 -0.4824910712 -0.0626789286 0.1648534472
500297000.0 -0.0903987583 0.1600384355 0.2752564172 -0.4851897007 0.2752829282 -0.4852564323 -0.0604586858 0.1661011068
505296970.0 -0.0886927743 0.161254136 0.2699061828 -0.4881729343 0.2700886948 -0.4882402194 -0.0587825924 0.1668878411
510296940.0 -0.0872138932 0.1623015594 0.2649427322 -0.4910965531 0.2647861347 -0.4918910491 -0.0567435682 0.1676640157
515296910.0 -0.0858892876 0.1633599336 0.2593919 -0.4938901458 0.2595975596 -0.4940918004 -0.0550386 0.1684193198
520296880.0 -0.0841596144 0.1642723944 0.2542770298 -0.4969606473 0.2541518888 -0.4966909932 -0.053244718 0.1691197551
525296850.0 -0.0825715499 0.165035413 0.2483796797 -0.4998231424 0.2491985481 -0.4995851597 -0.0516155862 0.1701533254
530296820.0 -0.0805946444 0.16614168 0.2428255584 -0.5025679088 0.2436890922 -0.5023398107 -0.0495335993 0.1710334355
535296790.0 -0.0794246231 0.1671281921 0.2380689538 -0.504740239 0.2377861014 -0.504434637 -0.0477251126 0.1711320736
540296760.0 -0.0781623865 0.1682176178 0.2326670876 -0.5077371948 0.2323342817 -0.5077046589 -0.0462012558 0.1725139465
545296730.0 -0.0762809242 0.1689338099 0.226424291 -0.5095329027 0.2267020648 -0.5099083703 -0.0443122332 0.1728647805
550296700.0 -0.0744009579 0.1700325318 0.2211502318 -0.5122064163 0.2211063796 -0.5124321771 -0.042378266 0.1734402266
555296670.0 -0.0729992071 0.1705211977 0.215898529 -0.5146560606 0.2160470998 -0.5144505798 -0.0405028949 0.1743184339
560296640.0 -0.0712155101 0.1718606164 0.2100909183 -0.5169160545 0.2103319159 -0.5171049005 -0.0385923515 0.1748276005
565296610.0 -0.070013406 0.172432475 0.2045384211 -0.5189475639 0.2046653533 -0.5190748649 -0.036964156 0.1750079186
570296580.0 -0.06832566 0.1732262312 0.1989891106 -0.5217201589 0.1983438297 -0.5212022126 -0.0348881282 0.1762190068
575296550.0 -0.0666105161 0.1742944508 0.1933073296 -0.52378573 0.1928263566 -0.5236982564 -0.0326469377 0.17649066
580296520.0 -0.0645659381 0.1748784245 0.1874913203 -0.5257565341 0.1872544417 -0.5255129532 -0.0307802439 0.1768631144
585296490.0 -0.0633253749 0.1753751289 0.181805893 -0.5271519208 0.1816232921 -0.5275446423 -0.0293027846 0.1774793124
590296460.0 -0.0611041119 0.1762822473 0.1764636584 -0.5286443462 0.1763786485 -0.5290748054 -0.0276540133 0.1780783873
595296430.0 -0.0595055175 0.1772642247 0.1695496199 -0.5312872373 0.1699926857 -0.5314889387 -0.0253528564 0.1775647094
600296400.0 -0.0582216949 0.1777426488 0.1643918227 -0.533019218 0.1643054737 -0.5327936697 -0.0237999894 0.1784759472
605296370.0 -0.056207685 0.1785532867 0.1585743429 -0.5346482323 0.1586829746 -0.5349964927 -0.0211527073 0.1790898146
610296340.0 -0.0543408968 0.1791549339 0.1523059161 -0.5361217434 0.1531133788 -0.5363687003 -0.0193561616 0.1791339712
615296310.0 -0.0521151067 0.179468994 0.1465207452 -0.5376004297 0.1466716932 -0.5382015136 -0.0168963098 0.179309245
620296280.0 -0.051062132 0.1799177208 0.1415446304 -0.5392153153 0.1412209738 -0.5394217742 -0.0157033096 0.1796178277
625296250.0 -0.0494361612 0.1804331184 0.1361743229 -0.5411934906 0.1354944596 -0.5410749444 -0.012862775 0.1802850291
630296220.0 -0.0465078044 0.1814228608 0.1287640346 -0.5422469046 0.1291842907 -0.5423422511 -0.011034397 0.1808803502
635296190.0 -0.0457110214 0.1816235794 0.1236207691 -0.5431839287 0.1237972702 -0.5437218854 -0.0090556992 0.1805373954
640296160.0 -0.0440251456 0.1827098527 0.1178080883 -0.5445753008 0.1175997253 -0.5444572425 -0.0068919685 0.1808628922
645296130.0 -0.0423023497 0.183105284 0.1118637877 -0.5456905775 0.1120791358 -0.5458010744 -0.0049211596 0.1812578867
650296100.0 -0.0405312044 0.1836926842 0.1055606922 -0.5470662909 0.1060187495 -0.5474272198 -0.002547553 0.1807842376
655296070.0 -0.0386892373 0.1841631891 0.0998824493 -0.548122281 0.1001905376 -0.5484677956 -0.0002781469 0.1814654158
660296040.0 -0.0371607156 0.1842582258 0.0941402162 -0.5487604746 0.0943751622 -0.5493637085 0.001640948 0.1815354293
665296010.0 -0.0348237188 0.1847354386 0.0876673969 -0.5496617044 0.0879390479 -0.5499888993 0.0039771953 0.1823278292
670295980.0 -0.0339543524 0.185513579 0.0822357652 -0.5508242484 0.082301271 -0.5512079402 0.0054980273 0.1818534754
675295950.0 -0.0318134592 0.1862525164 0.0766183596 -0.5517746449 0.076565775 -0.5515592135 0.0069766568 0.1822343078
680295920.0 -0.0299653437 0.1863157039 0.070090749 -0.5522109696 0.0697980461 -0.5531279699 0.0095962235 0.1827185083
685295890.0 -0.0281614069 0.1876916609 0.0643513571 -0.553403057 0.0638975235 -0.5536744141 0.0117820396 0.1825307738
690295860.0 -0.0260231223 0.1874447937 0.058403327 -0.553216523 0.0583741117 -0.5544265251 0.0134425962 0.1830582583
695295830.0 -0.02419932 0.1875681432 0.0530241925 -0.5542488576 0.0520848316 -0.5544556576 0.0153170171 0.1830970307
700295800.0 -0.0223904778 0.1878224016 0.0463890858 -0.5549685986 0.0461346556 -0.5548169567 0.0173753539 0.1833121296
705295770.0 -0.0206633921 0.1888585161 0.040195376 -0.5552438319 0.0406593945 -0.5554660102 0.0192678089 0.1831403824
710295740.0 -0.0186219355 0.1889246064 0.0342417699 -0.5564679535 0.0346948755 -0.5560493766 0.0213731847 0.1826624826
715295710.0 -0.0174076484 0.1889938629 0.0285907936 -0.5560847751 0.0283048522 -0.5561298299 0.0234247843 0.1827557379
720295680.0 -0.0153327452 0.1893477273 0.0222642959 -0.5563991241 0.0224492635 -0.5565441701 0.0256738828 0.1832301336
725295650.0 -0.0133522543 0.1898654074 0.0162981888 -0.556408687 0.0163282882 -0.5569179984 0.027372226 0.1830566411
730295620.0 -0.011474492 0.1907447706 0.0099786922 -0.556425415 0.0106747157 -0.5567800857 0.0288612322 0.1824831558
735295590.0 -0.0097673778 0.1907851373 0.0045154084 -0.5571964488 0.0044549815 -0.5568385221 0.0308582947 0.182335138
740295560.0 -0.0080165558 0.1910331929 -0.0016458995 -0.5566021373 -0.0013741749 -0.5568251607 0.033584262 0.1823542931
745295530.0 -0.0061287525 0.191148012 -0.0074625071 -0.5561671051 -0.0077220217 -0.5562821709 0.0354368667 0.1813898313
750295500.0 -0.0039662901 0.1911535207 -0.0135003453 -0.5564361559 -0.0134666888 -0.5565814131 0.0373731753 0.1817745593
755295470.0 -0.0021779476 0.1913538748 -0.0193608531 -0.5562090969 -0.0194017391 -0.5564086444 0.0398397754 0.1808427856
760295440.0 -0.0003835587 0.1915998168 -0.0254823051 -0.5562945178 -0.0255329161 -0.5561447369 0.0413745833 0.1809114707
765295410.0 0.0013176102 0.1917154085 -0.0318973509 -0.5556324188 -0.0317962288 -0.5558461684 0.043427455 0.1807127289
770295380.0 0.0031086914 0.1915676614 -0.0374884532 -0.5549617706 -0.037631407 -0.5553817329 0.0451323842 0.1799724073
775295350.0 0.0048723567 0.1913496826 -0.0437254092 -0.5543911144 -0.0430866957 -0.5545048968 0.0465394619 0.1796205204
780295320.0 0.0069379288 0.191886639 -0.0498246655 -0.5534922185 -0.0492281559 -0.5542408926 0.0489329638 0.1790295413
785295290.0 0.008647719 0.1913278377 -0.0558353519 -0.5530206663 -0.0555396652 -0.5534532546 0.0516452466 0.1788293963
790295260.0 0.0107919786 0.1921409929 -0.0609104825 -0.5528638907 -0.0605931482 -0.5527679729 0.0531997369 0.1786738317
795295230.0 0.0125739154 0.1917544529 -0.0675983159 -0.5519456299 -0.0669406375 -0.5524567488 0.055431875 0.1781126636
800295200.0 0.0141936314 0.1919390367 -0.0738316991 -0.5513675898 -0.0729946553 -0.5512387404 0.0577049468 0.1775658302
805295170.0 0.0163556923 0.1916480038 -0.0792599366 -0.5502330991 -0.0792529464 -0.5505165229 0.0594011607 0.1773205761
810295140.0 0.0180118957 0.1913868417 -0.0846604733 -0.5492334427 -0.0850534187 -0.5495899 0.0617189597 0.1765542463
815295110.0 0.0200038104 0.1911592099 -0.0912629244 -0.548095541 -0.0905794157 -0.5488672695 0.0635111985 0.1760273065
820295080.0 0.0214647991 0.1918857526 -0.0966700881 -0.5470488436 -0.0965020699 -0.5473879864 0.0655454263 0.1754631924
825295050.0 0.0241221641 0.1914640699 -0.1023707646 -0.5460380878 -0.1025512419 -0.5465478415 0.0675162873 0.1748830587
830295020.0 0.0254229642 0.1914178307 -0.1086621534 -0.5452327476 -0.1086693665 -0.5448027917 0.0703198037 0.1744826883
