!Created with skrf (http://scikit-rf.org).
# Hz S RI R 50.0 
!freq ReS11 ImS11 ReS21 ImS21 ReS12 ImS12 ReS22 ImS22
300000.0 -0.095599019 -0.0810772193 0.6201464499 0.0769731047 0.6227269349 0.0817303867 -0.0935525242 -0.0916203238
5299970.0 -0.1002304974 0.0126139997 0.6310527431 0.0104250212 0.6305022591 0.0108968056 -0.1020275985 0.0117272304
10299940.0 -0.0952176522 0.0297408074 0.6343745967 0.0155759309 0.634231462 0.0159822582 -0.0970861205 0.0287997867
15299910.0 -0.0884693885 0.0433170725 0.6402692525 0.0206319994 0.6407171299 0.020946883 -0.0899230127 0.0422004589
20299880.0 -0.0793522931 0.0542563688 0.6487609738 0.0238263923 0.648757942 0.0241095344 -0.0817920678 0.0534158465
25299850.0 -0.0696377598 0.062893133 0.6580138671 0.0250951568 0.6578453549 0.0254809124 -0.0724314472 0.0620213669
30299820.0 -0.0595170945 0.0691751818 0.6678986392 0.0244671842 0.6671951883 0.024585359 -0.0624796094 0.0687046481
35299790.0 -0.049266914 0.074249407 0.6773696243 0.0217200574 0.6774493692 0.0218601036 -0.0524718516 0.0734564224
40299760.0 -0.0397207 0.0767724075 0.6866197301 0.0174355305 0.6865290982 0.0176203325 -0.0436180266 0.0770846781
45299730.0 -0.0303584834 0.079418709 0.6957846635 0.0118909104 0.6959186912 0.0120161985 -0.0337146989 0.0791716455
50299700.0 -0.021694487 0.0798653069 0.7029663805 0.0043619166 0.7037486761 0.004733973 -0.0256046128 0.080291708
55299670.0 -0.0143384317 0.0799910868 0.7105849593 -0.0032423624 0.7112747331 -0.0032284763 -0.0176368915 0.0799379706
60299640.0 -0.006608313 0.0788749693 0.7172728633 -0.0119214995 0.7173837762 -0.0113878635 -0.0101037299 0.0798140503
65299610.0 -0.0005244128 0.0781478945 0.7237690053 -0.0190977063 0.7240346006 -0.0196588399 -0.0037488392 0.0787752488
70299580.0 0.0060837764 0.0758285528 0.7284723741 -0.029301078 0.7286949163 -0.0292960927 0.0021713069 0.0772009909
75299550.0 0.0115052759 0.0743412222 0.7325671122 -0.0389373279 0.7329104688 -0.0388326033 0.0081070393 0.0754657896
80299520.0 0.0162724575 0.0720594587 0.737535898 -0.049184277 0.7375879889 -0.0488247694 0.0130406449 0.0731111536
85299490.0 0.0207723657 0.0693355103 0.7404459269 -0.0589087646 0.7404646337 -0.0588117405 0.0174533816 0.0708269952
90299460.0 0.0245573235 0.0672475645 0.7430214076 -0.0691417969 0.7434698562 -0.0689029985 0.0221346406 0.0686399704
95299430.0 0.0281604125 0.0651324967 0.7459243353 -0.0793598133 0.7457839037 -0.0792949623 0.0254449249 0.0663834686
100299400.0 0.0314470321 0.0626212221 0.7472445927 -0.0892098309 0.7473138071 -0.0891707293 0.0286518437 0.0639397175
105299370.0 0.0347209588 0.0599872246 0.7485531587 -0.0987835309 0.748954714 -0.0995433682 0.0320034778 0.0617654252
110299340.0 0.0370228764 0.0576464103 0.7501074146 -0.1091351129 0.7500131769 -0.1094476459 0.034671379 0.0592445418
115299310.0 0.0398037881 0.0548996187 0.7511696576 -0.1190867908 0.7512429169 -0.1195324265 0.0371750153 0.0561052633
120299280.0 0.0414380927 0.0523884174 0.7518562083 -0.1296053704 0.7518087169 -0.1294980946 0.0388682526 0.0542344292
125299250.0 0.043139227 0.050320487 0.752039506 -0.1391814395 0.7517152424 -0.1396052208 0.041282509 0.0513195945
130299220.0 0.0451617482 0.0479345329 0.7517062682 -0.1486890792 0.7514269746 -0.1492169484 0.0434036598 0.049300845
135299190.0 0.0467728719 0.0452179688 0.7512953094 -0.1588160948 0.7510928322 -0.1595313878 0.0444561478 0.0474034472
140299160.0 0.0477798854 0.0440081221 0.750956977 -0.1689452845 0.7511818402 -0.1690982768 0.0461928879 0.0454062049
145299130.0 0.0491601179 0.0417772313 0.7506321617 -0.1786639707 0.7501686877 -0.1783155571 0.0471615029 0.042697784
150299100.0 0.0506476019 0.0400006069 0.7489769694 -0.1884666395 0.7487788161 -0.1879417979 0.048815252 0.0406590339
155299070.0 0.0511502445 0.0382178509 0.748002163 -0.1981248358 0.7476643009 -0.1983132006 0.0495734102 0.0388280795
160299040.0 0.0523067507 0.0360854726 0.7461929079 -0.2068960222 0.7461210568 -0.2071244061 0.0509515199 0.0372810992
165299010.0 0.0528892566 0.0339402042 0.745531971 -0.2171322445 0.7452711117 -0.2169269215 0.0516126285 0.0347955415
170298980.0 0.0534393278 0.0325072679 0.7420693245 -0.226533655 0.7427975832 -0.2262167117 0.0528307294 0.0325842144
175298950.0 0.0544724275 0.0306760585 0.7416006828 -0.2352828678 0.7414021663 -0.2352717512 0.0534331005 0.0310838326
180298920.0 0.0552233856 0.029080604 0.7391382779 -0.244827012 0.7389215823 -0.244453082 0.0538229316 0.0298412925
185298890.0 0.0559505505 0.027275991 0.7361732119 -0.2537390808 0.7369055214 -0.2540818197 0.0543175961 0.027701137
190298860.0 0.0561146446 0.0258775403 0.7343322203 -0.2627659323 0.7347164901 -0.2629778641 0.0552712129 0.0259599303
195298830.0 0.0565011842 0.024149852 0.7316324545 -0.2719264167 0.7317868945 -0.2722938795 0.0555874993 0.0240309836
200298800.0 0.05678338 0.0226381755 0.7294030554 -0.2805352972 0.7291232253 -0.280593332 0.0563639028 0.0232200777
205298770.0 0.0570922907 0.0213214455 0.726498871 -0.2894246162 0.7267384265 -0.2898740492 0.0562687363 0.0206636705
210298740.0 0.0572076531 0.0195564301 0.7239709348 -0.2990555668 0.723696553 -0.299137088 0.0567405899 0.0196941763
215298710.0 0.0579765152 0.0184637916 0.7205599453 -0.3070243411 0.7207095522 -0.3065870471 0.0568304865 0.0179975729
220298680.0 0.0581527781 0.0172806077 0.7174387423 -0.3158105971 0.7174300561 -0.3159509501 0.0574696914 0.0172482965
225298650.0 0.0587384529 0.0161352587 0.7133957782 -0.3239762633 0.7137749646 -0.3241218674 0.0576450804 0.0154646285
230298620.0 0.0580957263 0.0149729271 0.7111238086 -0.3332768172 0.7111611088 -0.3331083768 0.057811687 0.0142935149
235298590.0 0.05849126 0.013265867 0.7073365741 -0.341002113 0.7074298746 -0.3419070966 0.0580554222 0.012671784
240298560.0 0.0584229207 0.0119554024 0.7039178905 -0.3495531191 0.7038773789 -0.3487716773 0.0579653038 0.0116604363
245298530.0 0.0588852236 0.0112289846 0.6993581804 -0.3581537731 0.6995535202 -0.3581628138 0.0582329876 0.010589938
250298500.0 0.0584453018 0.0097477088 0.6959278363 -0.3659135516 0.6963471607 -0.3657371423 0.0588723404 0.0088322031
255298470.0 0.0581906058 0.0089062123 0.6917641225 -0.3747311856 0.6922316648 -0.374546826 0.0585935601 0.0072285789
260298440.0 0.0584467829 0.0078288346 0.6879169056 -0.382646743 0.6881254928 -0.382632383 0.0593018253 0.0068503363
265298410.0 0.0591202141 0.0071797136 0.6842224049 -0.3910742613 0.68377228 -0.3905458779 0.0588802967 0.0053938217
270298380.0 0.0591840834 0.0056876648 0.6793915322 -0.3982755774 0.679806547 -0.3984970275 0.0588135394 0.0048652354
275298350.0 0.0586594088 0.0048868931 0.6754712828 -0.4069628557 0.6757864424 -0.406776842 0.0587903549 0.0033493491
280298320.0 0.0587161215 0.0038811582 0.670513295 -0.4136422233 0.6711673025 -0.4142631823 0.059316997 0.0028417437
285298290.0 0.0587781136 0.0027832468 0.6662294994 -0.4220156603 0.666548228 -0.4219938217 0.0586913894 0.0015972889
290298260.0 0.0586867195 0.0017102451 0.6619779513 -0.4296936456 0.6623438407 -0.429848958 0.0597410011 0.000655823
295298230.0 0.0586343635 0.0006671876 0.658082631 -0.437429928 0.6574693703 -0.4375404328 0.0598616617 -0.0005321403
300298200.0 0.059272048 6.24376e-05 0.6526492078 -0.4450791317 0.6532223129 -0.4454840366 0.0590030486 -0.0014386891
305298170.0 0.0588773773 -0.0014269224 0.6478461647 -0.4528018222 0.6484284751 -0.4528341612 0.0594922179 -0.0021712643
310298140.0 0.0594260906 -0.0026140144 0.6434960436 -0.4607889578 0.6434394809 -0.4608366302 0.059740127 -0.0032974336
315298110.0 0.0587498026 -0.0035437609 0.6379002543 -0.4683302752 0.6384624867 -0.4685120236 0.0598615584 -0.0047608277
320298080.0 0.0583577034 -0.0044891937 0.6329865218 -0.475748681 0.6333472059 -0.4756745184 0.0593867814 -0.0058486794
325298050.0 0.0581380064 -0.0059389311 0.6282198613 -0.4833039109 0.6276897912 -0.4837869689 0.0593517471 -0.0069437088
330298020.0 0.0578695955 -0.0067809092 0.6214663975 -0.4911113567 0.6218939662 -0.4906507651 0.0583727903 -0.0082379727
335297990.0 0.0576404905 -0.0077577273 0.6169571009 -0.4977331002 0.615999029 -0.4985014266 0.0581880769 -0.0093206607
340297960.0 0.0565758932 -0.0080418335 0.6103209966 -0.5050960943 0.6105137685 -0.5047890855 0.0574250078 -0.0096834038
345297930.0 0.0561582041 -0.0087646512 0.6047143681 -0.5106948798 0.6038615211 -0.511162277 0.0577613407 -0.0110641865
350297900.0 0.056615178 -0.0095987218 0.5987691357 -0.5173641431 0.5989011749 -0.5186604123 0.0569393664 -0.0110080714
355297870.0 0.055985941 -0.0100779275 0.5930229463 -0.5250735126 0.5934689998 -0.5248196015 0.0562732132 -0.0115454315
360297840.0 0.0559852402 -0.0108445175 0.5874736083 -0.5319209976 0.5869415647 -0.5316651736 0.0564675826 -0.01204976
365297810.0 0.0557086716 -0.0114974357 0.5814847842 -0.5380663019 0.5814364838 -0.5378118452 0.0555632722 -0.0124819355
370297780.0 0.0557308023 -0.0124143787 0.5753509848 -0.5442538113 0.5753586329 -0.5447302166 0.0559238782 -0.0128028814
375297750.0 0.054855055 -0.0126284819 0.5699130851 -0.5511838692 0.56931337 -0.5509723461 0.0555711718 -0.0136193359
380297720.0 0.0549412212 -0.013665468 0.5636213008 -0.5570093613 0.5633647738 -0.5573580221 0.0552012393 -0.0145632109
385297690.0 0.0548128721 -0.0140127717 0.5570160748 -0.5631139036 0.5570345859 -0.5639680789 0.0551015814 -0.0147767408
390297660.0 0.0543892073 -0.0149095887 0.5507080856 -0.5698376108 0.5508419243 -0.5704470734 0.0550089793 -0.015931974
395297630.0 0.0544542387 -0.0156809383 0.5451656141 -0.5754087397 0.5447753533 -0.5757802412 0.0541979408 -0.015673887
400297600.0 0.0536735613 -0.0159607266 0.5381430891 -0.5820888576 0.5381656217 -0.5823713889 0.0531491981 -0.0171289178
405297570.0 0.054108212 -0.0164949762 0.5317215088 -0.5878563029 0.5319543887 -0.5879770839 0.0535975701 -0.0169379725
410297540.0 0.0536248221 -0.017619126 0.5246162003 -0.5940676789 0.5250488452 -0.594117761 0.0530501766 -0.018016985
415297510.0 0.0532022507 -0.0173091867 0.518956067 -0.5995778546 0.5187398706 -0.5998603717 0.0527147336 -0.0179850906
420297480.0 0.0529619916 -0.018973387 0.5118234321 -0.6054698682 0.5124525445 -0.6058015592 0.0527957189 -0.0191264045
425297450.0 0.0531275648 -0.0197292875 0.5057882864 -0.6111404243 0.5057757114 -0.6113504585 0.0522475612 -0.0191607522
430297420.0 0.0523121699 -0.0199135502 0.4990453366 -0.6170351358 0.4989223234 -0.616905256 0.0514015318 -0.0205494492
435297390.0 0.0523921753 -0.021021461 0.4921108555 -0.622155271 0.4919636342 -0.6225958881 0.0510092172 -0.020275071
440297360.0 0.052071387 -0.0217237682 0.4846226729 -0.6276965285 0.4844133916 -0.6280427968 0.0510937952 -0.0215644898
445297330.0 0.0523175952 -0.0222792549 0.4776960394 -0.6335228687 0.4781347685 -0.6333346121 0.0505221133 -0.0218136702
450297300.0 0.0518135981 -0.0226377263 0.4713197116 -0.6384332518 0.471227891 -0.6390991292 0.0501630342 -0.0221930698
455297270.0 0.0509576676 -0.0232391473 0.4642543054 -0.6439812103 0.4646576503 -0.6431578568 0.0502391404 -0.0224936596
460297240.0 0.0506049053 -0.0239595102 0.456807258 -0.6482526454 0.4563546298 -0.6489728616 0.049633993 -0.0225037403
465297210.0 0.0505131192 -0.0247869689 0.4496465483 -0.6537371612 0.4505864631 -0.6542478747 0.0489170957 -0.0241307698
470297180.0 0.0498411312 -0.0250430871 0.4430628028 -0.6587541693 0.4432960651 -0.6590100088 0.0479588035 -0.0244007136
475297150.0 0.049418053 -0.0263393236 0.4352195348 -0.6632653624 0.435430654 -0.6629321354 0.0481052308 -0.0246649275
480297120.0 0.0497696037 -0.0266560978 0.4280581787 -0.6683027565 0.4283803268 -0.6685065039 0.0474663096 -0.0247325965
485297090.0 0.0493467912 -0.027231269 0.4213734498 -0.6729204085 0.4208344739 -0.6736478441 0.0466843782 -0.0257507091
490297060.0 0.0488608066 -0.0280618306 0.4136734061 -0.6778399296 0.413716219 -0.6776699922 0.0469816593 -0.0255265511
495297030.0 0.0479926274 -0.0281254449 0.4056442249 -0.682384754 0.4054833515 -0.6826668635 0.0464312817 -0.0263254758
500297000.0 0.0481070077 -0.0293370083 0.3985869138 -0.6864905842 0.3981681196 -0.6863923947 0.0452800493 -0.0271550588
505296970.0 0.0471276103 -0.0296287358 0.3906422211 -0.6906874651 0.3903765796 -0.6908810622 0.0447844917 -0.0273719982
510296940.0 0.0468212143 -0.0300058779 0.3834050017 -0.6956844191 0.3834668211 -0.6954914243 0.0448330423 -0.0273179127
515296910.0 0.0461205664 -0.0305209798 0.3755227861 -0.6991678225 0.3754434231 -0.6994495566 0.0440513699 -0.0280427725
520296880.0 0.0457854411 -0.0313448178 0.3677926714 -0.7034659651 0.3681887319 -0.7036091821 0.0441084436 -0.0285904713
525296850.0 0.0452148199 -0.0321671061 0.3602759538 -0.707697222 0.3599158913 -0.7077712615 0.0437294673 -0.0287495606
530296820.0 0.0450739308 -0.0326185968 0.35251981 -0.7111772582 0.3526318916 -0.7116060262 0.0427475775 -0.0298754073
535296790.0 0.0441910054 -0.0329796124 0.3443599611 -0.7151228784 0.3447631621 -0.7152719611 0.0426573575 -0.0302468518
540296760.0 0.0437496423 -0.0339651769 0.3366908431 -0.7193658523 0.3363830534 -0.7193377869 0.0413968393 -0.0300764902
545296730.0 0.0433297925 -0.0335873822 0.3283796743 -0.7226795215 0.329014739 -0.7233846775 0.041404998 -0.0310945324
550296700.0 0.042569188 -0.0342275204 0.321301305 -0.7261667973 0.3218209991 -0.7266317855 0.0404480448 -0.0308065928
555296670.0 0.0423294905 -0.0353158753 0.3134675304 -0.730061686 0.313369804 -0.7294913791 0.0397906499 -0.0309020618
560296640.0 0.0415972861 -0.035623792 0.3051822997 -0.7327562244 0.3053735649 -0.7327047404 0.0394539413 -0.0316969668
565296610.0 0.040736605 -0.0361427722 0.2971180555 -0.7367770495 0.2972967386 -0.7369211779 0.0390990885 -0.0325651476
570296580.0 0.0410362071 -0.0366940968 0.2888899297 -0.7400462291 0.2892199421 -0.7398224889 0.0386054813 -0.0318409471
575296550.0 0.0402035297 -0.0363023409 0.2808727392 -0.7425542249 0.2812108648 -0.7425497488 0.0382544606 -0.0326996525
580296520.0 0.0394042527 -0.0373730608 0.2729433633 -0.7459628583 0.2722950006 -0.7458903179 0.0373811486 -0.0334810752
585296490.0 0.0392345515 -0.0377973767 0.2650301394 -0.7495794085 0.2645039164 -0.7489661625 0.0370062652 -0.0338813058
590296460.0 0.0379330689 -0.0386276929 0.2562021393 -0.7515367434 0.2563730388 -0.7516696154 0.0366436587 -0.0334302845
595296430.0 0.0377575263 -0.038615896 0.2480782584 -0.7548871814 0.2480566455 -0.755024912 0.0362762816 -0.0340459083
600296400.0 0.0367982508 -0.0386083117 0.2402671413 -0.756693545 0.2403404514 -0.7573035574 0.0354624666 -0.0345030597
605296370.0 0.0366029821 -0.0386227819 0.2319376341 -0.7597390984 0.2318228932 -0.7597090396 0.0351707749 -0.0352140397
610296340.0 0.0358655427 -0.0397362729 0.2237696223 -0.7619127687 0.2233556174 -0.7623568999 0.0343839499 -0.0346236921
615296310.0 0.0353253245 -0.03941794 0.2145057168 -0.7641407903 0.215157891 -0.7648113895 0.0341759962 -0.0351920169
620296280.0 0.0345603208 -0.0400787945 0.2069232178 -0.7668858584 0.2066653641 -0.7671910327 0.0335335653 -0.0358610959
625296250.0 0.0343827222 -0.0404495008 0.1978498123 -0.7694040473 0.1980616534 -0.7696325594 0.0329399148 -0.0356995793
630296220.0 0.0334921657 -0.0407073346 0.189590084 -0.7710942709 0.1900250833 -0.7715138567 0.031903716 -0.0359974198
635296190.0 0.0330820256 -0.0409181993 0.1813777934 -0.7727696303 0.1811356709 -0.7727475765 0.031403838 -0.0364055431
640296160.0 0.0321975302 -0.0412639589 0.1736137255 -0.7749224573 0.1731128837 -0.7755081558 0.031502129 -0.0365203235
645296130.0 0.0316781957 -0.0412518788 0.1651343977 -0.7772868388 0.1646911911 -0.7771898108 0.0296296211 -0.0372026443
650296100.0 0.0306766757 -0.040836306 0.1563492347 -0.7785499591 0.1566064568 -0.7784470039 0.0296955346 -0.0373737327
655296070.0 0.0302669288 -0.0419989604 0.1478832879 -0.7803007438 0.1477059844 -0.7801810461 0.0297356904 -0.0368456483
660296040.0 0.0291795541 -0.0417131655 0.139395654 -0.7816397613 0.1390778945 -0.7813654583 0.0284250716 -0.0379279725
665296010.0 0.0290633704 -0.0424282062 0.1304978889 -0.7831984059 0.1313081205 -0.7830533377 0.0277933341 -0.0373342017
670295980.0 0.029209236 -0.0420753861 0.1228267122 -0.7845889084 0.1222757429 -0.7842504186 0.0267704979 -0.0382050138
675295950.0 0.0283226116 -0.0423847464 0.1131587405 -0.7862237398 0.1141306814 -0.7864190911 0.0269379223 -0.0375614427
680295920.0 0.0273846809 -0.0423645815 0.1050301278 -0.7867708838 0.1045470114 -0.7872707814 0.0265355124 -0.0385338734
685295890.0 0.0264705089 -0.0430487768 0.0968496442 -0.7883270756 0.096390131 -0.7886136871 0.02559229 -0.0380991039
690295860.0 0.0267777629 -0.0431543743 0.0879145896 -0.7885346648 0.087367413 -0.7887101615 0.0254097463 -0.0381184111
695295830.0 0.026108298 -0.0433895081 0.078308535 -0.7901158012 0.0784819711 -0.7903207629 0.0240994093 -0.0386104944
700295800.0 0.0255613543 -0.0432529385 0.070261894 -0.7906137884 0.0702690458 -0.7913742321 0.0237319195 -0.0393075317
705295770.0 0.0247598033 -0.043461671 0.0621240142 -0.7911631667 0.0620349049 -0.7910679454 0.0227372566 -0.0392811068
710295740.0 0.023994902 -0.0432825945 0.0534763193 -0.7918736928 0.053387317 -0.7915126795 0.0214710137 -0.0387911493
715295710.0 0.0234872436 -0.0436918319 0.0453498787 -0.7926841252 0.0447115716 -0.7926461551 0.0217210156 -0.0400129698
720295680.0 0.0225828999 -0.0442367774 0.0362104842 -0.7933535422 0.0358109925 -0.7936360211 0.0215541369 -0.0392471029
725295650.0 0.0223837006 -0.0442983941 0.0268985755 -0.7933002431 0.0271926475 -0.7928834469 0.0208056577 -0.0391396829
730295620.0 0.0211082373 -0.0444147813 0.018692023 -0.7936707994 0.0188918922 -0.7938903827 0.0203275452 -0.0406150348
735295590.0 0.0213587513 -0.0440214947 0.0106645929 -0.7939827537 0.0104649119 -0.7940840559 0.0192515368 -0.0395253912
740295560.0 0.0200223354 -0.0441737738 0.0012710621 -0.7931835345 0.0017822902 -0.7936519548 0.019331047 -0.0401938788
745295530.0 0.0198729685 -0.0447755503 -0.007507301 -0.7936679486 -0.0068030965 -0.7941581659 0.0181848545 -0.0400301323
750295500.0 0.0190688475 -0.0446789093 -0.0154898278 -0.7932211559 -0.0156971341 -0.793461196 0.0179008529 -0.0404701322
755295470.0 0.0190997655 -0.0442862996 -0.0241471181 -0.7936384683 -0.0241259312 -0.7937645696 0.0167298286 -0.040108227
760295440.0 0.0177063155 -0.0444268953 -0.0330357278 -0.79309161 -0.0331986461 -0.7933580638 0.0158043365 -0.0404437484
765295410.0 0.0169701287 -0.0450030171 -0.0412454925 -0.7923442853 -0.0413360614 -0.7928765794 0.0165318436 -0.0398079359
770295380.0 0.0168444519 -0.0449779226 -0.0503857731 -0.7917999687 -0.0501756017 -0.7924046515 0.0158961203 -0.0399538787
775295350.0 0.0159972728 -0.0446589435 -0.0585461248 -0.7913480942 -0.0585527002 -0.7916014199 0.0143883892 -0.0413102207
780295320.0 0.0157390651 -0.0448308301 -0.0671667766 -0.7908466304 -0.0670231333 -0.7911195426 0.0140609606 -0.0401739485
785295290.0 0.0145110574 -0.0445017301 -0.0759317802 -0.7892769838 -0.075730911 -0.7903797315 0.0128622865 -0.0405992105
790295260.0 0.0139967539 -0.0445631963 -0.0845563756 -0.7888221567 -0.08441722 -0.7893967805 0.0132128389 -0.0405363595
795295230.0 0.0133603867 -0.0449309055 -0.0927173948 -0.7874940478 -0.092600922 -0.7880793674 0.0121959711 -0.0397871049
800295200.0 0.0127989323 -0.0445362759 -0.102136399 -0.7871704304 -0.1019604724 -0.7874413511 0.0117172425 -0.0401666682
805295170.0 0.0116902553 -0.0448015535 -0.1101445534 -0.7856267027 -0.1102423075 -0.7859094791 0.0106337994 -0.0407204541
810295140.0 0.0114089083 -0.0446981374 -0.1185182658 -0.7844887436 -0.1188734586 -0.7854331892 0.010234541 -0.0400127948
815295110.0 0.0108617993 -0.0444252723 -0.1275910042 -0.7828887332 -0.1277976033 -0.783055837 0.0094272208 -0.0403278297
820295080.0 0.0102692673 -0.0445520285 -0.1353995211 -0.7821517801 -0.1358352471 -0.7820742013 0.0090817438 -0.0399383015
825295050.0 0.0095263221 -0.0447203796 -0.1437681115 -0.7800163281 -0.1441963742 -0.7802070939 0.0089724528 -0.0397677887
830295020.0 0.0087182867 -0.044068001 -0.1531260325 -0.7787236465 -0.15313509 -0.7788613195 0.0078857899 -0.040351138
