!Created with skrf (http://scikit-rf.org).
# Hz S RI R 50.0 
!freq ReS11 ImS11 ReS21 ImS21 ReS12 ImS12 ReS22 ImS22
300000.0 -0.778588584 -0.1293237519 -0.0002117566 0.0001631002 9.791e-07 0.0002750671 0.8595745427 -0.0028303175
5299970.0 -0.7851551291 -0.0066786042 0.0001511983 2.61954e-05 -5.88681e-05 -0.0002895461 0.8596668549 -0.0099059201
10299940.0 -0.7882537457 -0.0045937984 -7.31776e-05 7.77799e-05 -3.9869e-06 -2.79572e-05 0.8589580481 -0.0187904595
15299910.0 -0.792967198 -0.0023447165 4.87731e-05 1.2014e-06 -0.0001488931 -4.28605e-05 0.8578266267 -0.027589086
20299880.0 -0.8002320106 0.0013781129 2.48364e-05 -8.23107e-05 1.43724e-05 -4.10389e-05 0.8568645321 -0.0357459746
25299850.0 -0.806630153 0.0077545388 -0.0001702436 -8.26932e-05 0.0002643976 1.64408e-05 0.8558738204 -0.0433462692
30299820.0 -0.8127177877 0.0152123631 -0.0001919181 0.0001295889 -4.44e-05 5.6978e-06 0.8546911636 -0.0520768041
35299790.0 -0.8172985715 0.0238777723 3.90417e-05 9.93415e-05 4.60894e-05 0.0001106122 0.854379648 -0.059835621
40299760.0 -0.8211949139 0.033590299 -0.0001818539 -9.86513e-05 -0.0001676845 -7.39118e-05 0.8528338932 -0.0675567136
45299730.0 -0.8243951966 0.0428999808 8.57541e-05 -3.9193e-05 2.2484e-05 -3.8267e-06 0.8525229828 -0.0762275379
50299700.0 -0.8267608411 0.0530931056 -3.26611e-05 -0.000343324 0.0001542405 -2.02582e-05 0.8516114199 -0.0839813801
55299670.0 -0.82952963 0.0633667433 0.0001308281 3.84753e-05 -0.0002432327 -3.6906e-06 0.8506568665 -0.0928232402
60299640.0 -0.830156556 0.0730199699 5.91942e-05 -0.0001417225 4.72483e-05 0.000145761 0.8498131389 -0.1005011968
65299610.0 -0.8315953566 0.0833191299 -7.22024e-05 -0.0001137869 0.0001386401 3.83014e-05 0.8490807918 -0.1087016089
70299580.0 -0.8316730018 0.0932357781 -9.084e-07 0.000107448 -4.88684e-05 8.61511e-05 0.8476726791 -0.1170229482
75299550.0 -0.8319346527 0.1033817355 -1.47632e-05 0.0002164605 2.86036e-05 -0.0001537343 0.8462702231 -0.1254189314
80299520.0 -0.8317724724 0.1125775105 0.0001288488 0.0001025321 -7.33551e-05 0.0001711164 0.8452962657 -0.1339409793
85299490.0 -0.8307163176 0.1222326104 -0.0001272449 -0.0002775892 -9.21572e-05 0.000102119 0.8439549019 -0.1418855435
90299460.0 -0.8301939209 0.1320977178 6.85372e-05 -0.0001263575 9.56394e-05 1.44538e-05 0.8417098551 -0.1499527901
95299430.0 -0.8293248914 0.1421450535 -0.0002112802 -0.0002372026 -4.80193e-05 -5.98032e-05 0.8403905458 -0.1577247283
100299400.0 -0.8279932193 0.1512500537 -0.0001659073 -8.3455e-05 -0.0001385229 -0.0001551738 0.839135973 -0.1666233033
105299370.0 -0.8268702499 0.1598643983 -0.0001190756 -0.0001442054 5.04973e-05 -0.000132585 0.8377677349 -0.1746174296
110299340.0 -0.8251665743 0.1694683036 0.0001591672 0.0001131839 6.95311e-05 -6.53794e-05 0.8358808173 -0.1823501712
115299310.0 -0.8240357145 0.1786555846 3.21655e-05 -0.0001558905 0.0001924284 -8.11669e-05 0.8344128652 -0.1905580222
120299280.0 -0.8220024866 0.186626732 -0.0002146626 -8.26188e-05 0.0001997033 2.0102e-06 0.8323020162 -0.1991037103
125299250.0 -0.8203782541 0.1958047227 -0.0001191295 -8.11407e-05 0.0002774412 -0.0002822538 0.8302441009 -0.2060806704
130299220.0 -0.8185417319 0.2052565365 -9.3619e-05 0.0001001144 3.69833e-05 -5.3757e-06 0.8287161092 -0.214892819
135299190.0 -0.8167869148 0.2142806912 0.0001127963 7.4828e-05 -3.81838e-05 6.44365e-05 0.8265116856 -0.2226385061
140299160.0 -0.8145096149 0.2225930309 -2.89666e-05 1.13136e-05 0.0001096747 0.000184148 0.8245780761 -0.2305177966
145299130.0 -0.8131105062 0.2319336378 0.0001040305 -5.53164e-05 7.8454e-06 0.0002382552 0.8219466826 -0.2385089741
150299100.0 -0.809986416 0.240611506 -2.84295e-05 -7.26516e-05 0.0001254003 -6.32285e-05 0.81988077 -0.2464995247
155299070.0 -0.8078595477 0.2495397863 7.01415e-05 0.0001118419 0.0001191237 4.24692e-05 0.8169971958 -0.2545464502
160299040.0 -0.80525874 0.2580453585 -7.67911e-05 -9.152e-07 -0.0001248296 3.50218e-05 0.8146291399 -0.2621069598
165299010.0 -0.8028880843 0.2668362604 0.0001548863 -0.0001524433 8.02812e-05 4.84248e-05 0.8118975637 -0.2700463871
170298980.0 -0.7997203281 0.2749964963 -7.08815e-05 7.41246e-05 -0.0001555351 6.79362e-05 0.8093847691 -0.2777968814
175298950.0 -0.7971423181 0.2841518848 -5.25827e-05 3.03618e-05 8.42206e-05 5.54869e-05 0.806974769 -0.2863312161
180298920.0 -0.794951237 0.2925242867 5.54527e-05 2.71253e-05 -3.5501e-06 -0.0001456547 0.8034647907 -0.2937988621
185298890.0 -0.7910576633 0.3008208016 -6.11602e-05 -3.4568e-05 0.0002668978 -0.0001090683 0.8007211004 -0.3014994357
190298860.0 -0.7886314075 0.3095626074 0.0002423818 -9.1713e-06 -8.03227e-05 -0.0001821018 0.7978650174 -0.3085580916
195298830.0 -0.7854637733 0.3177583763 0.0001357099 -8.97784e-05 1.75249e-05 -2.51529e-05 0.7947096558 -0.3166584884
200298800.0 -0.7812471943 0.326050463 -2.70964e-05 -1.91071e-05 -2.85338e-05 7.91466e-05 0.7915142926 -0.3244389516
205298770.0 -0.7783302859 0.3342086359 0.0001187485 0.0001028106 1.06157e-05 0.0002571282 0.7880860228 -0.3313371541
210298740.0 -0.7745620227 0.342398759 0.0002903406 -7.07501e-05 -9.19453e-05 0.00013357 0.7843375728 -0.3390911316
215298710.0 -0.7715604673 0.3504102907 6.649e-05 1.52531e-05 -6.7537e-06 -7.39949e-05 0.7814914216 -0.3470652357
220298680.0 -0.7673226335 0.3585413711 -4.8565e-05 8.41949e-05 0.00028955 0.000140586 0.7780414436 -0.3542995036
225298650.0 -0.7641034838 0.3665502357 1.3405e-06 0.0002509024 -0.000147138 -2.27416e-05 0.774160422 -0.3618783191
230298620.0 -0.760463293 0.3745047778 1.59055e-05 -1.32002e-05 3.5404e-06 -9.64419e-05 0.7711974124 -0.3695851413
235298590.0 -0.7563504292 0.3831911519 3.80871e-05 -0.0001722031 -0.0001303567 0.0001144576 0.7665453253 -0.376764223
240298560.0 -0.7527383109 0.3909764101 -0.0001521495 -7.92198e-05 -5.388e-06 -1.6311e-05 0.7629446451 -0.3843834302
245298530.0 -0.7486769076 0.3989002575 2.78087e-05 -0.0001617235 -4.75631e-05 0.0001805247 0.7591275268 -0.3919095408
250298500.0 -0.7440999528 0.4066606921 -0.0001683239 -0.0001228733 4.17824e-05 -0.0002497265 0.7557887015 -0.3989252982
255298470.0 -0.7396405747 0.4139409978 -0.0001704735 6.14183e-05 3.91236e-05 -6.78132e-05 0.7518005278 -0.4066667709
260298440.0 -0.7352889392 0.421538772 0.000131123 -0.0001506832 7.16023e-05 0.0001532055 0.7480377418 -0.4138146018
265298410.0 -0.7312630966 0.4293901183 0.0001680821 -6.99371e-05 -5.43594e-05 0.0002669706 0.7438329893 -0.4203840884
270298380.0 -0.7268665652 0.4368492974 -5.16129e-05 -0.0001263141 2.3107e-06 1.72324e-05 0.7399498126 -0.4280145349
275298350.0 -0.7223985921 0.4445825745 -5.38955e-05 -0.0001084484 0.0001753936 1.30469e-05 0.7358114203 -0.4348648365
280298320.0 -0.7171831795 0.4522158722 0.0001773461 -6.74547e-05 -5.04347e-05 -0.0001124598 0.7318570948 -0.4428845688
285298290.0 -0.7127420853 0.4598238401 -3.40343e-05 -0.0001478062 -0.0001789461 -0.0001907896 0.7280544333 -0.4495723127
290298260.0 -0.7077446815 0.4672392752 -7.65662e-05 0.0003015149 7.96138e-05 3.03006e-05 0.7240742164 -0.4570512608
295298230.0 -0.7025366973 0.4740997818 -1.43148e-05 -0.0001517508 -0.0001639961 -0.0001168169 0.7198946477 -0.4637498346
300298200.0 -0.697882143 0.4817065252 5.4843e-06 7.125e-06 0.0001067538 5.5015e-06 0.7158814672 -0.4709783286
305298170.0 -0.6924312041 0.4881943976 0.0001290466 7.49356e-05 -7.8805e-06 -0.0002889998 0.7116202428 -0.4791948326
310298140.0 -0.6877912798 0.4960080641 -6.23205e-05 1.47446e-05 -0.0001999307 -7.89767e-05 0.7063798269 -0.48660912
315298110.0 -0.6827382122 0.5031871989 3.36182e-05 -8.67329e-05 -0.0001241065 -7.7432e-06 0.7011971828 -0.4939502322
320298080.0 -0.677545509 0.5100466921 -2.89846e-05 0.0001081286 -8.01797e-05 -2.89438e-05 0.6958750418 -0.5013259313
325298050.0 -0.6721580643 0.5172519254 4.28404e-05 6.4905e-06 0.0001001704 -0.0002734248 0.6903898093 -0.5090975113
330298020.0 -0.6665054138 0.5240330541 -0.0001457628 2.4273e-05 -1.0943e-05 -2.03777e-05 0.6841690573 -0.5150875125
335297990.0 -0.6609951642 0.5303655849 -0.000122399 -0.0001256847 1.4559e-06 -9.24106e-05 0.6790512386 -0.5207225768
340297960.0 -0.6558837338 0.5373056574 -0.0002456923 6.00816e-05 -4.56793e-05 -3.72989e-05 0.6736867824 -0.5272386029
345297930.0 -0.6504104584 0.5443429916 0.0001071175 9.7918e-05 1.28432e-05 -5.14315e-05 0.6675336789 -0.5341029995
350297900.0 -0.6448561424 0.5510643528 -0.0001059377 4.6903e-06 -6.29979e-05 -9.80764e-05 0.6623313222 -0.5389465839
355297870.0 -0.638326578 0.5578371595 -1.6175e-06 0.0001475344 6.27324e-05 6.59343e-05 0.656786052 -0.5457892681
360297840.0 -0.632255734 0.563332397 0.0001203918 -3.71581e-05 -4.32274e-05 -6.88594e-05 0.6516800625 -0.5523797539
365297810.0 -0.6276053296 0.5702724815 0.0001204987 0.0002743551 -8.91863e-05 6.35001e-05 0.6463544123 -0.5582160389
370297780.0 -0.6213355235 0.5762286076 -6.0193e-05 4.02846e-05 -0.0001831184 -0.0001021829 0.6404095205 -0.5639766261
375297750.0 -0.6149054664 0.583024359 -4.56786e-05 0.0002107805 4.52362e-05 0.0001522168 0.6348172829 -0.5708313584
380297720.0 -0.6089137435 0.5890680464 4.60016e-05 8.88625e-05 6.50164e-05 0.0001910968 0.6285707162 -0.5760394546
385297690.0 -0.6039291427 0.5950720025 -7.49889e-05 -1.4058e-05 0.0001411385 -0.0001663407 0.6237429982 -0.5819904109
390297660.0 -0.597074317 0.6013085905 7.55526e-05 -1.81479e-05 0.0001446232 -9.10153e-05 0.6173657917 -0.5879629787
395297630.0 -0.5910449598 0.6078466332 -0.000236623 -0.0001172084 3.67473e-05 8.8121e-06 0.6113090732 -0.5938739495
400297600.0 -0.5847929642 0.6138527486 2.15119e-05 -0.0001500367 0.0003401959 9.2219e-05 0.6060214836 -0.5995234085
405297570.0 -0.5783819007 0.6192811814 1.12967e-05 -0.0001017204 -0.0001425725 5.11708e-05 0.600076963 -0.605683863
410297540.0 -0.5714021183 0.6251675176 0.0001900045 -6.8767e-06 0.000111254 0.0002210303 0.5939163778 -0.6113436915
415297510.0 -0.5646786619 0.6308334523 5.2748e-05 2.46809e-05 -0.0001234787 -4.45045e-05 0.5876265342 -0.6172614953
420297480.0 -0.5590645449 0.6367177914 -2.53547e-05 -0.0002019385 6.30239e-05 2.19978e-05 0.5817190562 -0.6225222629
425297450.0 -0.5517884514 0.6425229009 -5.40699e-05 3.38431e-05 -8.81079e-05 7.88095e-05 0.5758254826 -0.6284846888
430297420.0 -0.5454021518 0.6481932262 -6.8559e-06 6.7022e-05 -0.0001889892 0.0001304029 0.5694626909 -0.6344100591
435297390.0 -0.5389885604 0.6534473386 -7.22937e-05 -3.44832e-05 9.98189e-05 -0.0001040295 0.5633238231 -0.6400320289
440297360.0 -0.5319278745 0.6588746843 -0.000254634 -0.0001227073 -1.30203e-05 -8.29639e-05 0.5571876809 -0.6444445871
445297330.0 -0.5246270845 0.6644624135 6.91161e-05 0.0001658577 0.0002703929 -0.0001732066 0.5512602523 -0.6512038975
450297300.0 -0.5179180983 0.6693640781 7.44755e-05 -0.0002181126 6.66421e-05 6.61005e-05 0.5443688854 -0.6556298407
455297270.0 -0.5116209911 0.6743019481 0.0002688777 2.46167e-05 0.0002520258 0.0001153042 0.5377574542 -0.6604632925
460297240.0 -0.5052151068 0.6792638288 -1.57008e-05 -0.0001136838 -7.3217e-06 -0.0001017943 0.5309925181 -0.6658288396
465297210.0 -0.497916514 0.6846036512 7.5572e-05 -8.40687e-05 -0.0001239609 -0.0001888731 0.5250583301 -0.6709753827
470297180.0 -0.4901643255 0.689410922 0.0001387272 0.0001121914 -3.70837e-05 -0.0001590797 0.5177690273 -0.6757064201
475297150.0 -0.4838836261 0.6943192182 -7.1375e-06 0.0001375216 8.68689e-05 0.000181759 0.5113591352 -0.6815745985
480297120.0 -0.4767927763 0.6992569568 -2.16357e-05 -0.0001651288 6.48575e-05 -7.42134e-05 0.5053080359 -0.6853169112
485297090.0 -0.4690660709 0.7042154388 2.97613e-05 -0.0002088825 -6.16695e-05 -0.0001476669 0.4985087866 -0.69086054
490297060.0 -0.4624830399 0.7090215904 -0.0002570562 7.7587e-06 -4.78576e-05 6.1562e-05 0.4910941681 -0.6959126746
495297030.0 -0.4550722497 0.7132534325 0.0001853933 -1.4847e-05 -4.88542e-05 9.9362e-06 0.4842781802 -0.7000496169
500297000.0 -0.4478649573 0.7180451271 -0.0002387644 -0.0002476332 6.38175e-05 -0.0001090852 0.4773323103 -0.7050560034
505296970.0 -0.4404581063 0.7220376581 -0.0001457529 -0.0001092491 -0.0001841218 3.874e-05 0.4705670923 -0.7095060664
510296940.0 -0.4333112931 0.7264748807 7.86949e-05 -9.97475e-05 -0.0001320797 3.64817e-05 0.4626933456 -0.7139710662
515296910.0 -0.4249111172 0.7305198376 3.20068e-05 -0.0001885301 -3.64659e-05 -0.0001652362 0.4565563615 -0.7183788755
520296880.0 -0.4184469023 0.7351390103 0.00013763 -0.000173158 0.0001579838 -1.24571e-05 0.4490969129 -0.722791123
525296850.0 -0.4103457986 0.7388023614 8.2897e-06 0.0001457281 0.0001083227 0.0001005878 0.442368341 -0.7258927623
530296820.0 -0.4027212173 0.7430510727 -1.8927e-05 7.82279e-05 -3.02992e-05 -5.45802e-05 0.4354596506 -0.7307956647
535296790.0 -0.3957051244 0.7472808337 0.0001339467 0.0002210031 -0.0002045481 6.38677e-05 0.4277540591 -0.7353738061
540296760.0 -0.3889458975 0.7509211795 9.2399e-06 -0.000116398 -0.0001411391 -7.6837e-06 0.4200725045 -0.7387650544
545296730.0 -0.3804799294 0.7549907578 8.27143e-05 -3.03894e-05 -3.54405e-05 0.0001534752 0.4130483452 -0.7433047597
550296700.0 -0.3731998966 0.758619226 -0.0001249307 9.96355e-05 -0.0001034042 0.0001436493 0.4052486863 -0.7475718531
555296670.0 -0.3652398615 0.7613438803 -6.1366e-05 -2.29168e-05 4.06542e-05 -3.25353e-05 0.3981392108 -0.7510150012
560296640.0 -0.3580721702 0.7666713428 7.18256e-05 -0.0002206714 0.0002312875 -1.65195e-05 0.390450785 -0.7539473575
565296610.0 -0.3503578313 0.7698784198 -1.10736e-05 -2.69207e-05 0.0002649919 -0.0001745341 0.3826110863 -0.7575263821
570296580.0 -0.3432912256 0.7726862951 -0.0001205668 9.81745e-05 -9.62594e-05 0.0001979094 0.3752612803 -0.7616023797
575296550.0 -0.3347053717 0.7766116258 -0.0001101543 8.65902e-05 0.0001096091 3.27222e-05 0.3679651884 -0.7650858889
580296520.0 -0.3263920223 0.7797538804 6.91685e-05 -0.0002103373 -8.55601e-05 -4.66479e-05 0.3605862197 -0.7694911179
585296490.0 -0.318889254 0.7826240894 -4.25687e-05 5.5274e-05 3.94859e-05 -2.81947e-05 0.3535337638 -0.7723238191
590296460.0 -0.3110934569 0.7859703472 8.86817e-05 0.0001379936 6.84335e-05 -2.1648e-06 0.3449268798 -0.7748858521
595296430.0 -0.3030747981 0.7880677477 0.0001726425 -2.2176e-06 0.0001169094 -7.30325e-05 0.3373726055 -0.7788433136
600296400.0 -0.2951229342 0.7916141703 -0.0001533958 0.0001601389 9.9317e-05 -0.0002473955 0.3306835421 -0.7826077246
605296370.0 -0.2878514418 0.7944430028 -0.0001205456 2.90527e-05 0.0001033698 8.42727e-05 0.3220745331 -0.7851217567
610296340.0 -0.2794170419 0.7973142998 0.0001787393 -5.70903e-05 0.0001170891 0.0001548307 0.314730469 -0.7879115135
615296310.0 -0.2707864202 0.8003937348 -4.76755e-05 1.9157e-06 4.68114e-05 0.000117805 0.3067911823 -0.7916883458
620296280.0 -0.2635965535 0.8023013523 -6.28787e-05 5.93708e-05 -0.0001597483 8.27411e-05 0.2993161207 -0.7943685134
625296250.0 -0.2551339913 0.8055553264 2.97049e-05 -7.33329e-05 -0.0001548606 -5.04999e-05 0.29091663 -0.7976849938
630296220.0 -0.2462734639 0.8076748177 -8.8868e-06 -1.15902e-05 3.2066e-06 -3.25152e-05 0.2828973341 -0.799664899
635296190.0 -0.2391138762 0.8103225577 7.19768e-05 -0.0001787158 3.99352e-05 -8.16668e-05 0.2760421209 -0.8022412757
640296160.0 -0.2313841579 0.8124879676 -0.0001463768 2.95644e-05 -4.55278e-05 3.93293e-05 0.2670119559 -0.8054166445
645296130.0 -0.2226198803 0.8151557123 -9.87753e-05 -9.08599e-05 1.06295e-05 6.95063e-05 0.2594003961 -0.8073013548
650296100.0 -0.2144668735 0.8165955669 8.766e-05 3.58618e-05 5.23181e-05 0.0001670123 0.2520827354 -0.8108224636
655296070.0 -0.2063956487 0.8188814163 -2.18632e-05 0.0001861205 -4.98088e-05 -0.0001250336 0.2445399612 -0.8119560252
660296040.0 -0.1978736473 0.8207822731 -7.52437e-05 0.0001548423 -6.322e-07 7.74584e-05 0.2363964109 -0.8149358848
665296010.0 -0.1900651329 0.8219492884 -0.0001145133 -1.35592e-05 1.63626e-05 4.76074e-05 0.2277104628 -0.8164873973
670295980.0 -0.1821159738 0.8246140203 0.0001363879 -0.000128674 6.77355e-05 -2.3558e-06 0.2195527557 -0.8185673208
675295950.0 -0.1736400383 0.8259936043 6.07411e-05 -0.0001166513 8.32048e-05 7.63178e-05 0.2114215711 -0.8202972268
680295920.0 -0.1649641832 0.8278449153 -0.0001224567 0.0002067259 0.0001122106 -0.0001148754 0.2034258828 -0.8219730378
685295890.0 -0.156833222 0.8306834919 -0.0002819946 -0.0001265449 0.0001587334 1.40499e-05 0.195176036 -0.8242939876
690295860.0 -0.1490367218 0.8309353284 7.70277e-05 5.79433e-05 -8.09354e-05 5.84096e-05 0.1866651265 -0.8258265756
695295830.0 -0.1408057679 0.8322520015 0.0003394187 9.02176e-05 5.03557e-05 0.0001723212 0.1788909444 -0.8271839908
700295800.0 -0.1321477035 0.8342492007 1.75504e-05 -9.83277e-05 0.000197483 -0.0001364804 0.1706666657 -0.8293412576
705295770.0 -0.1242839014 0.8355309644 -3.15974e-05 -3.83097e-05 5.80434e-05 -0.0001277623 0.1620857833 -0.8293524625
710295740.0 -0.1158532656 0.8368035124 0.0001536558 0.0001003043 0.000124783 8.65747e-05 0.1538843403 -0.8318741119
715295710.0 -0.1073844626 0.8374236768 1.74551e-05 -7.9504e-06 -1.71497e-05 6.28978e-05 0.1458221518 -0.8329772765
720295680.0 -0.0992594927 0.8387994721 -0.0001573642 0.0002972487 -0.0002234924 -1.52722e-05 0.1372263031 -0.8342611058
725295650.0 -0.0907089616 0.8394953253 -2.26912e-05 3.37911e-05 0.0001654239 -6.12075e-05 0.1288159776 -0.8349881556
730295620.0 -0.0824574 0.8403110266 7.12652e-05 -3.20789e-05 -8.0322e-06 -0.0001768045 0.1200326864 -0.8367515032
735295590.0 -0.0741699963 0.8415890418 5.01828e-05 5.95433e-05 0.0002322643 9.78664e-05 0.1122467005 -0.838279254
740295560.0 -0.0659365322 0.8422870167 0.0001374131 0.000110877 0.0001420302 -8.86125e-05 0.1041245299 -0.8378931565
745295530.0 -0.0580262762 0.8427793042 3.4228e-06 -0.0001673363 -0.0001168305 3.59895e-05 0.0961382245 -0.8389524454
750295500.0 -0.0491661596 0.8431503554 -0.0001463736 9.2512e-05 -3.00151e-05 -4.2192e-05 0.0871344821 -0.8397454389
755295470.0 -0.0412021367 0.8427482338 -3.77205e-05 6.29809e-05 -9.61084e-05 -0.0001121247 0.0792683096 -0.8413370606
760295440.0 -0.0326700359 0.8429606024 -0.0001679796 -0.0001581804 0.0001398956 0.0002882324 0.0712770877 -0.8422531979
765295410.0 -0.0242513983 0.8440667292 -5.67653e-05 1.21182e-05 -0.0001385689 0.0002226828 0.0625069236 -0.8427413639
770295380.0 -0.0164836853 0.8443450706 -2.32918e-05 9.50436e-05 0.0001350207 2.55926e-05 0.0540724605 -0.8430401405
775295350.0 -0.0081007017 0.84428842 7.21553e-05 0.0001101543 -0.0001481615 -0.0002246585 0.0446637729 -0.8431987637
780295320.0 0.0008834878 0.8440798602 5.84875e-05 -2.21846e-05 -1.78377e-05 -0.0001725 0.0377352281 -0.843545221
785295290.0 0.0086824341 0.8437483935 -1.45948e-05 1.21874e-05 -8.07256e-05 -9.6858e-05 0.0295607411 -0.8435960435
790295260.0 0.0178044101 0.8439567976 8.80822e-05 9.87162e-05 -0.0001163888 0.0001178423 0.0215778509 -0.8440387551
795295230.0 0.0251239212 0.843676769 0.000142971 2.66641e-05 0.0001790516 1.9966e-06 0.0130715396 -0.8439468781
800295200.0 0.0336009055 0.8431752941 -0.0001926873 0.0001034693 -0.0001342283 -7.88741e-05 0.0038772443 -0.8430101517
805295170.0 0.0424014745 0.8432825433 -4.62189e-05 -0.0002083022 5.16544e-05 -8.43365e-05 -0.0042352246 -0.8434325987
810295140.0 0.0510477403 0.8430081289 3.3555e-05 -6.62093e-05 -0.0001167274 3.24802e-05 -0.0115938448 -0.8439420782
815295110.0 0.0588683199 0.8418247192 -0.0001111482 0.000174286 4.27366e-05 0.0001354691 -0.0207722098 -0.8427048322
820295080.0 0.0673051222 0.8417959068 0.000334198 -0.0001322218 -7.52133e-05 2.50367e-05 -0.0289678985 -0.8429764685
825295050.0 0.0760668005 0.8404091588 -0.0001677934 8.84299e-05 -3.58768e-05 -3.60668e-05 -0.0368484692 -0.8422845239
830295020.0 0.0836231247 0.8400513688 4.00345e-05 6.80245e-05 3.01606e-05 -0.0001311648 -0.0449637546 -0.8418207398
835294990.0 0.0918704337 0.8390376638 0.0001199973 8.6641e-06 0.0002449439 -5.27086e-05 -0.0536680571 -0.8414852577
840294960.0 0.099556423 0.8386742786 -9.44135e-05 -0.000109275 -0.0001700092 -4.38222e-05 -0.0620878547 -0.8402380351
845294930.0 0.1080076479 0.8374889691 0.0002187167 -0.0001755969 0.0003116362 7.00538e-05 -0.0702227024 -0.8391646664
