!Created with skrf (http://scikit-rf.org).
# Hz S RI R 50.0 
!freq ReS11 ImS11 ReS21 ImS21 ReS12 ImS12 ReS22 ImS22
300000.0 -0.3224249001 -0.0903127689 0.3755089522 0.0470616613 0.3739836745 0.0431508762 -0.3184476079 -0.1018771272
5299970.0 -0.3264651081 0.0039007655 0.3783833258 0.002889549 0.3781388905 0.0027449631 -0.3235484165 0.0046085631
10299940.0 -0.3243464837 0.0131393983 0.3794690757 0.0022047776 0.3793406626 0.0023489898 -0.3211607009 0.016074055
15299910.0 -0.3214570506 0.0205620881 0.3817777476 0.0018673994 0.3818180752 0.0020619743 -0.3179630783 0.0237321578
20299880.0 -0.3186272375 0.0262325222 0.3847479661 0.0015586403 0.384679949 0.0012390216 -0.3145495621 0.0303257494
25299850.0 -0.3158096379 0.031537751 0.3880921142 0.0002872673 0.3879448564 0.0002741092 -0.3103848901 0.0360710199
30299820.0 -0.3128628167 0.0359030631 0.3916076219 -0.0023206981 0.391294458 -0.0023290829 -0.3066698608 0.0412745674
35299790.0 -0.3099755058 0.0400398438 0.3947748297 -0.0055704552 0.3949527791 -0.0054073657 -0.3033192263 0.0454620748
40299760.0 -0.3070284205 0.0436903896 0.3978077826 -0.0088525699 0.3980279325 -0.0087630184 -0.2999423721 0.0486465694
45299730.0 -0.3046049307 0.0464409532 0.4006800592 -0.0128695003 0.4009314519 -0.0126114661 -0.2968483452 0.0521484008
50299700.0 -0.3021743709 0.0494333171 0.403349055 -0.0174182726 0.4034871497 -0.0171481744 -0.2941403733 0.0547238469
55299670.0 -0.3004019826 0.0523553284 0.4057961959 -0.0223956616 0.405510198 -0.0221934601 -0.2916282594 0.0574973148
60299640.0 -0.2982449322 0.0551788813 0.4075338132 -0.0272309874 0.4077444775 -0.0269211916 -0.2891175364 0.0596307928
65299610.0 -0.2963832063 0.0574955049 0.4092906384 -0.0321058817 0.4090736152 -0.0320689936 -0.2871287484 0.0616968962
70299580.0 -0.2946103065 0.0599933446 0.4104821388 -0.0369023466 0.4103086541 -0.0368510843 -0.285019413 0.064072661
75299550.0 -0.2930726051 0.0624266523 0.4113374414 -0.0421143635 0.4111582497 -0.0423606474 -0.2833220158 0.0659897592
80299520.0 -0.2917987931 0.0649916099 0.412515719 -0.0476941167 0.4123697637 -0.0476103275 -0.2816000011 0.0680571849
85299490.0 -0.290127936 0.0670395544 0.4125222183 -0.052529391 0.4128920857 -0.052703656 -0.2802987758 0.0700841804
90299460.0 -0.288806457 0.0693240654 0.4128497408 -0.0580385755 0.4133880721 -0.0579706195 -0.2785324181 0.0722259482
95299430.0 -0.2873047563 0.0716162496 0.4134736894 -0.0633554344 0.4135685194 -0.0632873457 -0.2767746891 0.0741941861
100299400.0 -0.2862938254 0.0741062655 0.4129298334 -0.0682840645 0.41319826 -0.068314096 -0.2752509593 0.0759159465
105299370.0 -0.2852706785 0.0765315429 0.4130777177 -0.0736464054 0.413679212 -0.0740058875 -0.2741052629 0.0782595358
110299340.0 -0.2841342014 0.0786513214 0.41340299 -0.0784065256 0.4130713358 -0.0789442464 -0.2729265336 0.0801466146
115299310.0 -0.2829544029 0.0809263271 0.4130606384 -0.0838464223 0.4126453113 -0.0838382891 -0.2716099826 0.0824709122
120299280.0 -0.2819058894 0.0832717719 0.4120794318 -0.089416275 0.4125207925 -0.0890475278 -0.2702690968 0.0843119582
125299250.0 -0.2811204271 0.0854621976 0.4116380594 -0.0940627013 0.4118561075 -0.0937282775 -0.2693890033 0.0862318577
130299220.0 -0.2801062248 0.0882885514 0.4107367302 -0.0990933454 0.4109786953 -0.0992364401 -0.2681489862 0.0885746278
135299190.0 -0.2790773091 0.0907821531 0.4105009423 -0.1041331559 0.4106034281 -0.1041243773 -0.2669779558 0.0909180904
140299160.0 -0.2782857613 0.0931971219 0.4094557278 -0.1092196707 0.4098151591 -0.1095839277 -0.2659514249 0.0933335658
145299130.0 -0.2773851687 0.0954717021 0.4086009297 -0.1140674506 0.4083065579 -0.1142395339 -0.2649043505 0.0956579318
150299100.0 -0.276070264 0.0982768128 0.4076699645 -0.1187953682 0.4076671723 -0.1184029373 -0.2640833447 0.0982383357
155299070.0 -0.2754796522 0.1007004314 0.4066950238 -0.1241530438 0.4064611956 -0.1240907318 -0.2629969294 0.100678581
160299040.0 -0.2742775206 0.1034029106 0.404903666 -0.1290254172 0.4048229488 -0.1290882283 -0.2624992874 0.1029128622
165299010.0 -0.2737288956 0.1061274778 0.4041268549 -0.1338119173 0.4040202519 -0.1338504042 -0.2608034662 0.1055051704
170298980.0 -0.2724607993 0.1086062057 0.4022009447 -0.138681707 0.4027337075 -0.1385463354 -0.2598381845 0.1079530952
175298950.0 -0.2717892105 0.1114868093 0.4014324929 -0.1432236875 0.4011080268 -0.1432158062 -0.2590080359 0.1105688155
180298920.0 -0.2707600091 0.1139579265 0.3999282312 -0.1479752875 0.3996194498 -0.1478785869 -0.2579344644 0.1132410454
185298890.0 -0.2694962811 0.1162401589 0.398352395 -0.1524447862 0.3977639707 -0.152905017 -0.2567549962 0.1160141963
190298860.0 -0.2684259989 0.1193350263 0.3966283071 -0.1573496236 0.3970872811 -0.1573450179 -0.2558818776 0.1184619154
195298830.0 -0.2675074417 0.1216823421 0.3951526687 -0.1617722696 0.3951738449 -0.161872728 -0.2548832256 0.1209847237
200298800.0 -0.2661645034 0.1246583004 0.3932422594 -0.1666160734 0.3936661641 -0.1667012102 -0.2540958726 0.1234631147
205298770.0 -0.2654218226 0.1272845099 0.391382155 -0.1711807113 0.391305558 -0.1710456825 -0.2526827463 0.1255847322
210298740.0 -0.2642566076 0.1300738142 0.3895858954 -0.1756363861 0.3896503401 -0.1757110286 -0.2514906028 0.1290036665
215298710.0 -0.2634187854 0.1329098723 0.3877815721 -0.1803658264 0.3876136915 -0.1805710081 -0.2509793096 0.1313044833
220298680.0 -0.2618211007 0.1351358263 0.3854287299 -0.1846433998 0.3858449427 -0.1847766833 -0.2500152893 0.1336581846
225298650.0 -0.261057817 0.1378241352 0.3837069973 -0.1891591437 0.383984719 -0.1891302816 -0.2489820025 0.1365141955
230298620.0 -0.2595305347 0.1411386117 0.3817467895 -0.1936064053 0.3822303944 -0.1936590175 -0.2477277384 0.1388084864
235298590.0 -0.2583953087 0.1436704271 0.3797292348 -0.1977717395 0.3797739714 -0.1976303754 -0.2467154195 0.1415689978
240298560.0 -0.2573124687 0.1466380184 0.3778109506 -0.2028410991 0.3775668588 -0.2025881404 -0.2454060118 0.1442122631
245298530.0 -0.2559649274 0.1491066652 0.3757809453 -0.2068098588 0.3750846846 -0.2070647205 -0.2438345509 0.1463127957
250298500.0 -0.2541747264 0.1521516692 0.3726266385 -0.2107622691 0.3724855281 -0.2109248581 -0.2424533075 0.1485949023
255298470.0 -0.2531098928 0.1542934688 0.3701581055 -0.2149189413 0.3704790927 -0.2149580167 -0.2412809999 0.1508981055
260298440.0 -0.2515172953 0.1568167036 0.3681832466 -0.2193959411 0.3681150792 -0.2193041 -0.2396319237 0.1534708572
265298410.0 -0.2500335868 0.1601383917 0.3656836873 -0.2234833314 0.3660323806 -0.2230471146 -0.2384085727 0.1559864921
270298380.0 -0.2485891652 0.1626732844 0.3634594992 -0.227640132 0.3634261646 -0.2275395907 -0.2369129816 0.1586588602
275298350.0 -0.246892693 0.1652908728 0.3606734729 -0.2319048357 0.3611366552 -0.2317957097 -0.2353065584 0.160887971
280298320.0 -0.2449690873 0.1680883703 0.3582743459 -0.2359491252 0.3584792942 -0.2358570865 -0.2334994545 0.1633596101
285298290.0 -0.2433539861 0.1708594841 0.3557186769 -0.2398171917 0.3556486346 -0.2400179934 -0.2316543282 0.1659788358
290298260.0 -0.2416729236 0.1731312113 0.3529144928 -0.2435157086 0.3529264735 -0.2438924878 -0.2300305025 0.1684024129
295298230.0 -0.2401101107 0.1756949062 0.3504453675 -0.2479643185 0.3504024317 -0.2479281643 -0.2280894602 0.1705388084
300298200.0 -0.2386850904 0.1782768736 0.3482009076 -0.2514447552 0.3480125968 -0.2519559224 -0.2265589549 0.1731257475
305298170.0 -0.2365927257 0.1805757786 0.344666894 -0.25593875 0.3449595512 -0.255525278 -0.2243602868 0.1755448622
310298140.0 -0.2349326271 0.1833997291 0.3423953712 -0.259615621 0.3420971711 -0.2595258745 -0.2228266642 0.1779691649
315298110.0 -0.2328698957 0.1857124629 0.3394047576 -0.2636229693 0.3394620385 -0.2636798854 -0.2210212633 0.1805516661
320298080.0 -0.2309655833 0.1881392276 0.3358883304 -0.2675547267 0.3362566633 -0.2674521975 -0.2192108893 0.1828104745
325298050.0 -0.229391557 0.1907149686 0.3333486695 -0.2715142166 0.3333241651 -0.2710114262 -0.2173763039 0.1852918854
330298020.0 -0.2274953914 0.1929602467 0.3298660354 -0.2751220481 0.3304550217 -0.274994267 -0.2157049065 0.187669308
335297990.0 -0.2256588094 0.1953440386 0.3270839719 -0.2787217666 0.327005327 -0.2787286567 -0.2141306082 0.1903385038
340297960.0 -0.2239713697 0.1980753353 0.3235702883 -0.2822601815 0.3235656882 -0.2821973622 -0.2118994109 0.1929316027
345297930.0 -0.2220557504 0.2007513517 0.320474082 -0.2860692954 0.3203294278 -0.2858730199 -0.2104226044 0.1950465143
350297900.0 -0.2199997969 0.2034185556 0.3169293141 -0.2896341356 0.3170988334 -0.2893767672 -0.2085146307 0.1978201213
355297870.0 -0.2177657785 0.2060872073 0.3139098866 -0.2929950426 0.3140743408 -0.2927261014 -0.2065372444 0.2000059224
360297840.0 -0.2159907442 0.2083149193 0.3112954158 -0.2960251409 0.3111881416 -0.2960578083 -0.2046546888 0.2027001389
365297810.0 -0.2142591978 0.2107125925 0.3075749955 -0.2999558524 0.3075619508 -0.2995140016 -0.2022440262 0.2050339606
370297780.0 -0.2118766006 0.2132433306 0.3038354986 -0.3030617454 0.304243544 -0.3029130329 -0.2002699305 0.2075371752
375297750.0 -0.2093466016 0.2154462563 0.3007975178 -0.306257639 0.3010113838 -0.3065022946 -0.1985046619 0.2095110765
380297720.0 -0.2075137781 0.2176804952 0.2969831349 -0.309796793 0.2974156348 -0.3090514537 -0.1966291851 0.2116885529
385297690.0 -0.2053309024 0.2203469494 0.2937969663 -0.3126746569 0.2939612376 -0.3130928798 -0.1944218686 0.2148325091
390297660.0 -0.2030974193 0.2230189211 0.290377731 -0.3163024877 0.2902417197 -0.3156179544 -0.1926180257 0.2165665348
395297630.0 -0.2006965931 0.2253393029 0.2870352929 -0.3197757409 0.2870682752 -0.3193795856 -0.1898902932 0.2189783104
400297600.0 -0.1981770327 0.2275511616 0.2831310885 -0.3227786815 0.2832424983 -0.322393099 -0.1881476022 0.2207815235
405297570.0 -0.1964701528 0.2296188773 0.2796123473 -0.3254510711 0.2798389127 -0.3253653702 -0.1858103713 0.2230940932
410297540.0 -0.1936555824 0.2316438096 0.2762725625 -0.3286929592 0.2764668426 -0.3286936327 -0.1838124334 0.2255419963
415297510.0 -0.191179269 0.233769709 0.2722181345 -0.3315414765 0.2728614692 -0.3316588043 -0.1815197026 0.2273086906
420297480.0 -0.1890439012 0.236693743 0.2687294566 -0.3348713631 0.2687009324 -0.3348025184 -0.1795190216 0.2293541596
425297450.0 -0.1864389265 0.2381264298 0.2653441232 -0.3374743205 0.2656495923 -0.3378597965 -0.177233835 0.231477482
430297420.0 -0.1842093967 0.2401689008 0.2611879443 -0.3397156778 0.2612880303 -0.3400397159 -0.1748998196 0.2329418583
435297390.0 -0.1818089 0.2427385669 0.2574095657 -0.3429465934 0.2573479451 -0.3434499497 -0.1719028194 0.2348999734
440297360.0 -0.1789130662 0.2448717638 0.2535634031 -0.3458725317 0.2535104326 -0.3458886394 -0.1696310924 0.2368613612
445297330.0 -0.1766641191 0.2463149866 0.2501583846 -0.3487238887 0.2498039243 -0.3487110785 -0.1672556108 0.2384300231
450297300.0 -0.1740527419 0.2481440102 0.2459596106 -0.3512913256 0.2461407397 -0.3514898734 -0.1647235878 0.2402890677
455297270.0 -0.1713777921 0.2506681204 0.2419936609 -0.3539488704 0.2422931753 -0.3540888677 -0.1622350816 0.2419104978
460297240.0 -0.1690541868 0.2523814048 0.2382023355 -0.356414549 0.2385475679 -0.3568250689 -0.1595956511 0.244071497
465297210.0 -0.1661069613 0.2542081784 0.2342681411 -0.3590115524 0.2344380688 -0.3596797879 -0.156939184 0.2456224621
470297180.0 -0.1635755079 0.2562371031 0.2301365597 -0.3615323384 0.230548095 -0.36166448 -0.1539441558 0.2477953594
475297150.0 -0.1607065942 0.2579724549 0.2264070747 -0.3637164659 0.2264470916 -0.3638655949 -0.1513353884 0.2491110186
480297120.0 -0.1582229038 0.2601579143 0.2223349994 -0.3668037069 0.2224165618 -0.3668322849 -0.1487401912 0.2512269894
485297090.0 -0.1553855277 0.2617173678 0.2188466417 -0.3688942026 0.2185218603 -0.3687930247 -0.1459665215 0.2528900544
490297060.0 -0.1529830275 0.2635710625 0.2143659607 -0.3712271401 0.2142898015 -0.371290735 -0.1432490276 0.2544951025
495297030.0 -0.1501399828 0.2650936347 0.2101915201 -0.3737312294 0.2106398503 -0.3735991454 -0.1408296441 0.2564351438
500297000.0 -0.1472505759 0.26690261 0.2058724808 -0.3755712146 0.2061613563 -0.3753595466 -0.1378871369 0.258403222
505296970.0 -0.1444007866 0.2685988657 0.2021682527 -0.3776662041 0.2019141495 -0.3781901739 -0.1349107434 0.2597758838
510296940.0 -0.1416768586 0.2700253901 0.198003885 -0.3801162327 0.1976446254 -0.3801633695 -0.1321469086 0.2613447492
515296910.0 -0.1386918355 0.2717618931 0.1935527334 -0.3823083631 0.1936912316 -0.3822910716 -0.1295774337 0.2635095487
520296880.0 -0.1357709825 0.2738930647 0.1894914613 -0.3846586643 0.1895695659 -0.383987392 -0.1269988676 0.2646053433
525296850.0 -0.1326673953 0.2748578693 0.1846743805 -0.3865164312 0.1853998893 -0.3861991193 -0.1240687175 0.2662856035
530296820.0 -0.1300660631 0.2765819531 0.1808800179 -0.3886054171 0.1809575914 -0.3882371868 -0.1215246814 0.2676699406
535296790.0 -0.1277896959 0.2783208732 0.1770046564 -0.3900675148 0.1766311043 -0.3896407339 -0.118805329 0.2692900404
540296760.0 -0.1246218791 0.2797483698 0.17224924 -0.3922685121 0.1724250925 -0.392155028 -0.1161728287 0.2708879856
545296730.0 -0.1216783717 0.2812698046 0.1679876124 -0.3939343213 0.1681119162 -0.3941838898 -0.1133852135 0.2722746319
550296700.0 -0.118679501 0.2827384491 0.164089147 -0.3959895477 0.1636714209 -0.3958880911 -0.1102933443 0.2739865317
555296670.0 -0.115793181 0.2838701628 0.159457333 -0.3974449872 0.1597669603 -0.3971916853 -0.1078190194 0.2754210354
560296640.0 -0.1126964723 0.2858431884 0.1551127949 -0.3995294607 0.1551910823 -0.3991055884 -0.1048942777 0.2768274717
565296610.0 -0.1096842002 0.2867423139 0.1504852193 -0.4007870158 0.1509940996 -0.4008924102 -0.1023145992 0.2775741711
570296580.0 -0.1068861195 0.2880070152 0.1463141461 -0.4027090416 0.1459675954 -0.4025424312 -0.0991313652 0.279454464
575296550.0 -0.1039880355 0.2897864432 0.1423736522 -0.4040715501 0.1418115538 -0.4039881502 -0.096479332 0.2804252643
580296520.0 -0.1007443621 0.2904967735 0.1378397213 -0.4055848907 0.1376687107 -0.4056436082 -0.0934214517 0.2813998221
585296490.0 -0.0976227243 0.2916109415 0.133213559 -0.406750526 0.1331184038 -0.4070081446 -0.0904522672 0.2823931928
590296460.0 -0.0944366496 0.2928272843 0.1287566198 -0.4078802695 0.1287663538 -0.4082164173 -0.0883506083 0.2835721599
595296430.0 -0.0914445195 0.2941184732 0.123913967 -0.4098568151 0.1238361682 -0.4094158234 -0.0846246906 0.2839711606
600296400.0 -0.0884220815 0.2949921238 0.1195659383 -0.410988113 0.1196294894 -0.4106917846 -0.082017549 0.2852391238
605296370.0 -0.0857625398 0.2962819521 0.1153168834 -0.4121283771 0.1152375349 -0.4119159311 -0.0786200515 0.2860568157
610296340.0 -0.0821358684 0.2971492867 0.1103311463 -0.4131100444 0.1104716523 -0.4131843401 -0.0756100582 0.286958332
615296310.0 -0.0791392545 0.2979067775 0.1059140159 -0.4142847215 0.1060019341 -0.4146093967 -0.0723219065 0.2878073024
620296280.0 -0.0761495586 0.2988937289 0.1017364735 -0.4154036907 0.1016067335 -0.4152439953 -0.0697499635 0.2889991739
625296250.0 -0.072949801 0.2996025314 0.0977674235 -0.4165636258 0.0968828434 -0.4167981249 -0.0663044665 0.2892501495
630296220.0 -0.0692127279 0.3007668287 0.0922347887 -0.4175675923 0.0923471939 -0.4175278527 -0.0632488246 0.2901957326
635296190.0 -0.0666958806 0.301613834 0.0880692685 -0.4183758255 0.0878502509 -0.4185483094 -0.0600696884 0.2909434481
640296160.0 -0.0635007805 0.302373001 0.0836027024 -0.4190148094 0.0837116927 -0.4194424135 -0.0569065618 0.2919595274
645296130.0 -0.060284589 0.3033536689 0.0785121718 -0.4197223677 0.0792152273 -0.4199704936 -0.0539463824 0.292441299
650296100.0 -0.0569754983 0.3039509085 0.0740744283 -0.4207173803 0.0746734512 -0.4206095184 -0.0507842514 0.2927837573
655296070.0 -0.0540214612 0.3046850852 0.0694949286 -0.421474789 0.0696674893 -0.4215957754 -0.0475217938 0.2934211653
660296040.0 -0.0510870399 0.3052988856 0.0655861203 -0.4222883965 0.0654241068 -0.4222613649 -0.0442392074 0.2944092613
665296010.0 -0.0474729802 0.3055894945 0.0602404817 -0.4228187867 0.0605473259 -0.4230996906 -0.04090621 0.2954157781
670295980.0 -0.0448503682 0.3064324495 0.0564983044 -0.4233143245 0.0560840487 -0.4238022112 -0.038094102 0.2959207666
675295950.0 -0.0413886436 0.30758351 0.0515622701 -0.4238056435 0.0515429862 -0.4236579376 -0.0350937203 0.2969922543
680295920.0 -0.0378041137 0.3076148042 0.0467453794 -0.4243968311 0.0465944052 -0.4245882635 -0.0317480881 0.2976510549
685295890.0 -0.0348906718 0.3086877058 0.0425366086 -0.4248565244 0.0419312132 -0.4248469885 -0.0285468056 0.2976218816
690295860.0 -0.0315988242 0.3091501848 0.0378130149 -0.425298614 0.0375443897 -0.4256389285 -0.0254507124 0.29888992
695295830.0 -0.0282939421 0.3092116216 0.033245037 -0.4254873242 0.0327703483 -0.425878819 -0.0221083473 0.2990493956
700295800.0 -0.0251270516 0.3096081271 0.0281061819 -0.4259385161 0.0281157792 -0.4259849941 -0.0192599764 0.2998719199
705295770.0 -0.0218725883 0.3103427251 0.0234623183 -0.4260692671 0.024051357 -0.4265503086 -0.0163314593 0.3007744933
710295740.0 -0.0184932105 0.3106713083 0.0193404509 -0.4266212621 0.0194664358 -0.4267129165 -0.0133859047 0.3004492873
715295710.0 -0.0158302627 0.3108306891 0.0153113654 -0.426697907 0.0143898744 -0.4268298878 -0.0096844352 0.3006895893
720295680.0 -0.0122289541 0.3111203776 0.0097620214 -0.4268472994 0.0101122644 -0.426776482 -0.0066482892 0.3012336404
725295650.0 -0.0088281047 0.3117436826 0.0052666662 -0.4271958868 0.00565798 -0.4271226423 -0.0038629285 0.301378933
730295620.0 -0.0053890878 0.3120063932 0.0005307528 -0.4266755125 0.0007311031 -0.4268044143 -0.0012505866 0.3015862743
735295590.0 -0.0022885514 0.3120837961 -0.0039419404 -0.4271255551 -0.0039964953 -0.4267758827 0.0018677145 0.3015924277
740295560.0 0.000916647 0.3124457343 -0.0086614076 -0.4267196001 -0.0087670619 -0.4267312983 0.0059584631 0.302424958
745295530.0 0.0040567397 0.3124752402 -0.0134149369 -0.4265386012 -0.0132045903 -0.4266964306 0.0083911851 0.3018448899
750295500.0 0.0076712085 0.3123180492 -0.0177764747 -0.4260632822 -0.0179305711 -0.4264424378 0.0115814358 0.3019247743
755295470.0 0.0106707945 0.3124633061 -0.0222094645 -0.4262450467 -0.0226645048 -0.426159665 0.0149744232 0.301353545
760295440.0 0.0140587963 0.3124110726 -0.0270625827 -0.4258001833 -0.0273540086 -0.4257339696 0.0181428889 0.3013135371
765295410.0 0.0174214624 0.3124808315 -0.0318278942 -0.4252928351 -0.0321503195 -0.4253724579 0.0209128638 0.3014859371
770295380.0 0.0201585738 0.3122947002 -0.0362346238 -0.425008569 -0.0362564605 -0.4244413904 0.0237536944 0.3009893571
775295350.0 0.0235288383 0.3120160712 -0.0409774473 -0.4241392606 -0.0404860992 -0.4240227658 0.0266592775 0.3008759872
780295320.0 0.0270167583 0.3121793182 -0.0456675227 -0.4237615802 -0.0451790915 -0.4240872182 0.0300312041 0.3005826125
785295290.0 0.0298559557 0.3115152565 -0.0500584973 -0.4228234498 -0.0499777617 -0.4232331104 0.0339447003 0.3005795275
790295260.0 0.0336645781 0.311635914 -0.054654821 -0.4226043825 -0.0540437696 -0.4224066811 0.0370974933 0.3002896301
795295230.0 0.0365480426 0.3110333512 -0.0590494341 -0.422101327 -0.0588507372 -0.4220841867 0.040063966 0.2997457964
800295200.0 0.0398197616 0.310876397 -0.0641993643 -0.4211345602 -0.0638689029 -0.4212790414 0.0434873547 0.2991753817
805295170.0 0.0431349298 0.3103749786 -0.0681216389 -0.4201838256 -0.0684465465 -0.4206438429 0.0465076464 0.2990659625
810295140.0 0.0461968808 0.3102264838 -0.072288358 -0.4195396139 -0.0728026619 -0.4200003565 0.0500343872 0.2990751127
815295110.0 0.0495271782 0.3097523586 -0.0771573941 -0.418963895 -0.0772604621 -0.4187195446 0.0529719563 0.29857195
820295080.0 0.052797164 0.3097819958 -0.0817397599 -0.4176306292 -0.0815837961 -0.4177278819 0.05611453 0.2980169334
825295050.0 0.0563251883 0.3088617037 -0.0862248253 -0.4167085836 -0.0861412554 -0.4168827863 0.0598521746 0.2976906758
830295020.0 0.0592079565 0.3086438066 -0.0904709185 -0.4159427353 -0.0911086938 -0.4159361828 0.0634412686 0.2974793773
