!Created with skrf (http://scikit-rf.org).
# Hz S RI R 50.0 
!freq ReS11 ImS11 ReS21 ImS21 ReS12 ImS12 ReS22 ImS22
300000.0 -0.2125676677 -0.0805631895 -0.0012597676 -0.0015171208 -5.01569e-05 0.0002854141 -0.7689110166 -0.1651484718
5299970.0 -0.2144927053 0.0086448452 -0.0002303396 -8.35512e-05 4.49766e-05 4.73467e-05 -0.78474123 -0.0084159829
10299940.0 -0.2101662629 0.0213052615 0.0001855096 -3.07267e-05 -0.0003055817 -1.91557e-05 -0.78848531 -0.0050571062
15299910.0 -0.2055209004 0.0310032931 2.80243e-05 0.0001373847 -0.0001164077 -7.3382e-06 -0.7938089456 -0.0030070753
20299880.0 -0.1994843523 0.0390390207 5.0143e-06 -4.6553e-06 0.0001318168 -0.0001066383 -0.8004151217 0.0017184612
25299850.0 -0.192753623 0.0455916056 -0.0001975382 1.99303e-05 2.49832e-05 5.27095e-05 -0.8068241776 0.0073414404
30299820.0 -0.186407393 0.0502884433 9.11862e-05 0.0001796763 5.66596e-05 8.4488e-06 -0.812939004 0.0147076508
35299790.0 -0.1800080989 0.0545200424 -0.0001680267 0.0001867632 -5.35223e-05 1.26883e-05 -0.8179873118 0.0238738907
40299760.0 -0.1739650465 0.0570133265 7.92621e-05 -6.10893e-05 -7.51238e-05 -9.9228e-06 -0.821677086 0.0332534468
45299730.0 -0.1683524971 0.0592994409 3.50505e-05 0.0001669857 1.59828e-05 9.24946e-05 -0.8255081111 0.0426332185
50299700.0 -0.1628647145 0.0605226287 -7.52956e-05 0.0001193907 1.12542e-05 7.64159e-05 -0.8278474368 0.0524875754
55299670.0 -0.1582618929 0.0619340152 -1.64898e-05 -5.65028e-05 -0.0001318933 0.0001234892 -0.829852077 0.0628360159
60299640.0 -0.1542770369 0.0619821398 1.3975e-05 3.18414e-05 7.18075e-05 0.0001542151 -0.831120585 0.0729807029
65299610.0 -0.1501680531 0.0627337099 -6.77044e-05 0.0001344647 0.0001332577 0.000166897 -0.8317684393 0.0828533787
70299580.0 -0.1463747434 0.0627875663 0.0001384444 -9.32528e-05 -8.73905e-05 -7.71326e-05 -0.8325037471 0.0929097658
75299550.0 -0.143029601 0.0625567593 3.53012e-05 0.000174031 -1.45578e-05 6.7183e-05 -0.8329415018 0.1026206605
80299520.0 -0.1404735883 0.0625795455 6.9111e-06 -8.09355e-05 -8.68602e-05 -5.74293e-05 -0.8320847815 0.1119042998
85299490.0 -0.137797672 0.0622779736 -2.93327e-05 -4.46855e-05 -0.0001345156 6.06332e-05 -0.8319599512 0.1214149526
90299460.0 -0.1355793781 0.0624108791 6.14672e-05 6.68515e-05 7.73206e-05 0.0001256699 -0.8307226295 0.1311513473
95299430.0 -0.1333063267 0.0621674515 -0.0001047036 2.99643e-05 9.6835e-06 -4.07299e-05 -0.8304245275 0.1409709451
100299400.0 -0.1318218777 0.0620453392 2.77283e-05 3.01104e-05 -0.0001756075 0.0001269137 -0.8287988549 0.1494305646
105299370.0 -0.1296251593 0.0616454736 0.0001075586 2.93183e-05 2.73571e-05 4.58067e-05 -0.8274939805 0.1590253268
110299340.0 -0.1282460729 0.0613957686 0.0001584301 0.000174566 1.1541e-06 -2.14492e-05 -0.8268291426 0.1682388232
115299310.0 -0.1267920331 0.0612028499 0.0001942937 -3.1296e-06 -4.37757e-05 -9.3714e-06 -0.8249714482 0.1773286411
120299280.0 -0.1257441832 0.0613041765 0.0001553146 0.0001308352 -2.34004e-05 0.0001630392 -0.823356331 0.1858030413
125299250.0 -0.1247099011 0.0611395906 0.0002640867 4.89301e-05 -5.50781e-05 0.000270608 -0.8220294143 0.1956841607
130299220.0 -0.1233425859 0.0612675723 -2.22524e-05 0.0001749336 -6.57598e-05 -7.50499e-05 -0.8198303614 0.2043188096
135299190.0 -0.1224015867 0.0610537089 -0.0001344095 -5.28062e-05 0.0001197899 0.0001937435 -0.8181979297 0.2130275258
140299160.0 -0.1216638422 0.0612120558 -0.0001054373 0.0002213297 3.32141e-05 0.0001286875 -0.8160331758 0.2213567397
145299130.0 -0.1207248784 0.0613057155 -3.3964e-05 -1.35845e-05 3.96623e-05 1.16518e-05 -0.8137068955 0.2296161943
150299100.0 -0.1201757757 0.0616883437 5.0749e-06 4.60547e-05 0.0001988295 8.9553e-06 -0.8119880542 0.2385873032
155299070.0 -0.1195921751 0.062145637 0.0001154724 5.78376e-05 0.0001613981 6.63067e-05 -0.809668548 0.2471454251
160299040.0 -0.118609063 0.0622286423 4.56702e-05 7.30533e-05 -1.25195e-05 -6.03832e-05 -0.8075852026 0.2568394239
165299010.0 -0.1183395295 0.0627952922 6.3573e-06 -4.78057e-05 6.11434e-05 6.6939e-06 -0.8045085992 0.2646757406
170298980.0 -0.1176711381 0.0628623674 9.50961e-05 0.0002231782 -1.64825e-05 -0.0001238622 -0.8017877827 0.2738390273
175298950.0 -0.1168662743 0.0637411544 0.0001185402 3.51575e-05 -9.19255e-05 -8.76513e-05 -0.7994919399 0.2822295174
180298920.0 -0.116515274 0.0638231604 -0.0001956492 -2.7835e-06 -0.0001233003 9.83987e-05 -0.7961194837 0.2901189753
185298890.0 -0.1160471955 0.0643510114 -6.92739e-05 0.0003147888 6.11142e-05 2.1629e-06 -0.7930201578 0.2984244041
190298860.0 -0.1153459822 0.0648103712 0.0001339617 8.16058e-05 0.0001434452 -1.03059e-05 -0.7893611942 0.3072682654
195298830.0 -0.1144126981 0.0650919377 0.0001047682 0.000159338 -9.987e-07 3.0393e-05 -0.7872805047 0.3154168716
200298800.0 -0.1142032077 0.0659705966 7.19832e-05 5.92364e-05 -1.92976e-05 9.06887e-05 -0.7833147216 0.3240228288
205298770.0 -0.1138362423 0.066420433 3.81951e-05 0.0002578815 3.7084e-05 8.4614e-06 -0.7801508301 0.332199031
210298740.0 -0.1133507668 0.0672805424 0.0001221179 -0.000104257 4.235e-07 6.44695e-05 -0.777200996 0.3407494118
215298710.0 -0.1128372551 0.0679701932 0.0002852449 0.0001791822 0.0001140762 0.0001261974 -0.7735835935 0.3477776867
220298680.0 -0.1126079482 0.0684996855 -1.27933e-05 0.0004499256 -1.70756e-05 0.0001196814 -0.7695206052 0.3572174967
225298650.0 -0.1118259727 0.0692369752 -3.92265e-05 -5.30407e-05 5.04334e-05 0.0002328646 -0.7661169354 0.3642118872
230298620.0 -0.111687825 0.0699376218 9.74577e-05 5.54233e-05 0.0001169502 5.98454e-05 -0.761836188 0.3729068856
235298590.0 -0.1110760898 0.0706102797 0.0002816914 -8.96171e-05 3.89209e-05 7.65368e-05 -0.7580385712 0.3806111171
240298560.0 -0.1106199492 0.0716857975 -1.00212e-05 0.0002416481 0.0002580804 0.000225615 -0.754784123 0.3887057574
245298530.0 -0.1099910032 0.0723455419 4.60807e-05 9.6117e-05 0.000105824 0.0002505507 -0.7502144735 0.3962836787
250298500.0 -0.1097389745 0.0730646884 -0.0001627419 9.10709e-05 2.11126e-05 -5.11587e-05 -0.7458671101 0.4048261819
255298470.0 -0.1091250826 0.0740168832 7.1012e-05 0.0001090444 0.0001506316 0.0001708238 -0.7413061843 0.4128780949
260298440.0 -0.1084515231 0.0750680988 -0.0002016523 5.99902e-05 0.0001556548 6.93789e-05 -0.7365894839 0.4195464008
265298410.0 -0.1080252928 0.0756242498 -1.31982e-05 3.06895e-05 0.0001743558 -0.0001564798 -0.7325128185 0.4270963802
270298380.0 -0.1075474121 0.0766528204 -5.54461e-05 9.52352e-05 0.0002025696 0.0001144041 -0.7276159785 0.4354856103
275298350.0 -0.1069774592 0.0777327533 0.0002484317 -2.62591e-05 0.0001721625 -9.27205e-05 -0.7232602423 0.4429331123
280298320.0 -0.1065978855 0.078442124 0.0001356801 0.0001107459 0.0002981445 8.04825e-05 -0.7188051334 0.4506479673
285298290.0 -0.1059675166 0.0796792589 -8.90814e-05 -0.0001675609 8.23732e-05 -2.38382e-05 -0.7134780749 0.457987432
290298260.0 -0.1055294668 0.080374334 0.0001988131 -0.0002044366 3.17574e-05 0.0001855665 -0.7091320204 0.4653390513
295298230.0 -0.1049786491 0.0812039386 0.0001431662 0.0004226474 3.25992e-05 -4.2481e-05 -0.7037654229 0.4732171389
300298200.0 -0.1042459018 0.0818136088 0.0001931606 -3.75475e-05 0.0001213834 8.32631e-05 -0.6989813291 0.4801045547
305298170.0 -0.1033866008 0.0829693214 9.1693e-06 -0.0001076506 0.000212115 2.08858e-05 -0.6932624533 0.4879002797
310298140.0 -0.1029430371 0.0835252412 4.50675e-05 0.0001054443 0.0002673309 0.0001068139 -0.6890233675 0.4950638695
315298110.0 -0.1026737015 0.084360903 0.0002798148 -2.78704e-05 3.64785e-05 8.79279e-05 -0.6835221091 0.5027045989
320298080.0 -0.1018342099 0.0855237949 9.04389e-05 -0.0002057493 0.0001897366 0.0001475051 -0.677698781 0.509376768
325298050.0 -0.1014433131 0.0861946854 3.5362e-06 -7.58737e-05 0.0001039279 0.0001054535 -0.6723365127 0.5161861061
330298020.0 -0.1010712346 0.0872042239 0.0002509522 -0.0002144991 -2.0657e-06 0.000255409 -0.66704586 0.5233264652
335297990.0 -0.1001277591 0.088000163 5.63447e-05 1.97839e-05 3.14834e-05 0.0001207261 -0.6614836054 0.5300237188
340297960.0 -0.0997912048 0.0892671184 0.0002270982 -3.43002e-05 0.0002327091 0.0001359508 -0.6553357142 0.5370464278
345297930.0 -0.0992111819 0.0901356982 0.0001206888 0.0002022874 0.0001247033 4.3257e-05 -0.6498040011 0.5439021494
350297900.0 -0.0985363321 0.0914143134 4.29685e-05 0.0001828765 0.0001206225 0.0004373668 -0.6445440549 0.5511970929
355297870.0 -0.0979349145 0.0920732104 -2.34732e-05 2.73504e-05 5.5243e-05 -7.63374e-05 -0.6381690629 0.5570638411
360297840.0 -0.0973872686 0.0932529493 0.000170779 6.50176e-05 6.49837e-05 0.0003061887 -0.6322054203 0.5633970648
365297810.0 -0.0965681311 0.0942017532 9.55244e-05 0.0001134563 0.0002530532 7.91257e-05 -0.6263607196 0.5710316613
370297780.0 -0.0958786126 0.0951344522 7.51613e-05 0.0002252401 2.24083e-05 6.0458e-05 -0.6203930365 0.5760460709
375297750.0 -0.0952898255 0.0964194939 8.19407e-05 0.0001588653 4.0867e-05 4.54998e-05 -0.6149512348 0.5832646419
380297720.0 -0.0943381816 0.0973512087 0.0001380846 4.42612e-05 0.0001921454 7.63328e-05 -0.6081403861 0.5903626677
385297690.0 -0.0935635193 0.09857335 0.0001152739 7.32539e-05 0.0001016779 0.0001255512 -0.6020478135 0.5959715386
390297660.0 -0.0927371038 0.0994004322 0.0003281028 0.0002979815 -1.5348e-05 -1.85564e-05 -0.5953964483 0.6010121848
395297630.0 -0.0919075111 0.1003277339 0.0001255446 0.0001496581 4.21116e-05 -5.98596e-05 -0.5887970508 0.608251198
400297600.0 -0.0912989036 0.1015700178 0.0002261831 0.0001018391 0.0001957721 7.74347e-05 -0.5829615791 0.6137944705
405297570.0 -0.0904254021 0.1023523584 -0.0001316209 0.0001093361 5.15323e-05 4.00816e-05 -0.5771751182 0.6200154516
410297540.0 -0.0895826094 0.1031958762 -9.81776e-05 1.28146e-05 0.0002082929 -1.31811e-05 -0.5699724959 0.6256456405
415297510.0 -0.0888483409 0.1041670814 8.19698e-05 0.0001646173 0.0001586539 0.000221447 -0.563538076 0.631897521
420297480.0 -0.0878613049 0.1050822667 7.82615e-05 2.1254e-05 7.16539e-05 -0.0001440198 -0.5574082507 0.6363611736
425297450.0 -0.0867679782 0.1061175943 1.69605e-05 1.963e-07 5.87946e-05 0.0001881434 -0.5501846142 0.643289847
430297420.0 -0.0858446816 0.1072527683 0.0001770877 -0.0001427235 -1.75174e-05 -3.408e-07 -0.5442411801 0.6489733965
435297390.0 -0.0850026878 0.108073541 0.0003417373 0.0001221932 0.0001794385 -7.81748e-05 -0.5369730042 0.6539185039
440297360.0 -0.0839834382 0.1091637377 1.85868e-05 0.0001355008 0.000257945 -2.12886e-05 -0.5304170022 0.6589988867
445297330.0 -0.0833155278 0.1103438389 0.0001597583 5.77988e-05 0.0001036876 0.0001406797 -0.5236659997 0.6642029534
450297300.0 -0.0823273701 0.1109712802 9.07992e-05 6.32495e-05 0.0001321897 0.0002007884 -0.5170093188 0.6697787983
455297270.0 -0.0813934403 0.111881128 0.0001323132 0.0002366875 0.0001851666 4.30807e-05 -0.5102223298 0.6749805991
460297240.0 -0.0806047081 0.1130448993 0.0002521349 -2.99988e-05 6.79754e-05 -8.77135e-05 -0.5029966453 0.6804151137
465297210.0 -0.0793432894 0.1136261346 5.83856e-05 5.98541e-05 0.0002085307 6.19742e-05 -0.4963849909 0.6849249967
470297180.0 -0.0786982538 0.1148541271 0.0003037363 0.0002602934 0.0002676512 0.0001469043 -0.4894560107 0.6897004736
475297150.0 -0.0775816483 0.1154907736 0.0002990566 6.32045e-05 7.9884e-05 3.39555e-05 -0.4822480556 0.6947929135
480297120.0 -0.0764768197 0.1164920909 7.64758e-05 -1.52216e-05 0.000165164 0.000294779 -0.4753992282 0.7002637217
485297090.0 -0.075538774 0.1174913515 4.5565e-06 -1.37606e-05 0.0001160441 4.72767e-05 -0.4678775389 0.7040042519
490297060.0 -0.0746042441 0.1181618468 0.0001288459 0.0001854399 0.0001896108 1.16003e-05 -0.4609864973 0.708501112
495297030.0 -0.0734780065 0.1192159468 8.74349e-05 0.000176468 0.0002266549 -0.0001392369 -0.4536730646 0.7128021188
500297000.0 -0.0725827635 0.1198684173 0.0001946776 0.0001132682 8.99007e-05 -0.0002015686 -0.4471152694 0.7176232068
505296970.0 -0.0715240164 0.1208758914 0.0001514829 6.49105e-05 0.0002426905 0.0002099466 -0.4402588382 0.7220585078
510296940.0 -0.070458284 0.1218326817 2.31717e-05 -0.0001004522 0.000277735 0.0001361077 -0.4321778489 0.7263224209
515296910.0 -0.0695279188 0.1228892362 0.0001203234 4.42201e-05 0.0003112162 -4.34317e-05 -0.4250609522 0.7308013153
520296880.0 -0.0680219765 0.1235379409 0.0001870249 -6.50152e-05 0.000281853 -5.36741e-05 -0.4175479162 0.7346829081
525296850.0 -0.0670537613 0.1242033715 8.72948e-05 8.5815e-05 0.0001707421 3.65292e-05 -0.4101413317 0.7394930714
530296820.0 -0.0659746438 0.125221069 0.000275207 -1.73559e-05 0.0002666334 3.71238e-05 -0.4032281521 0.7428023831
535296790.0 -0.0648862005 0.1258464862 0.0001547563 0.0001296507 0.0003075833 1.91465e-05 -0.3957590366 0.7459923928
540296760.0 -0.0637755344 0.1263964747 0.0001154093 0.0002396099 1.63579e-05 -1.66474e-05 -0.3882207913 0.751186313
545296730.0 -0.0624473381 0.1272555838 -8.9065e-06 0.0001638783 0.0003551438 -0.0001717587 -0.3811172521 0.7541661407
550296700.0 -0.0613926804 0.1283766802 0.0001202937 -2.55595e-05 0.0002115104 5.7706e-06 -0.3731770207 0.7579843254
555296670.0 -0.0601618538 0.128923166 0.0002111741 8.44845e-05 0.000166395 -0.0001443815 -0.3658884275 0.7618656123
560296640.0 -0.0592162894 0.1296822421 0.0001106101 1.20247e-05 0.0001785052 -0.0001991219 -0.3581490504 0.7655717045
565296610.0 -0.0579704427 0.1309157813 0.0002310438 5.9117e-06 -1.25789e-05 0.0001394071 -0.3507760851 0.7691874432
570296580.0 -0.056730493 0.1312936248 6.86202e-05 0.0001040267 0.0002244596 -9.90502e-05 -0.3430465958 0.7728065112
575296550.0 -0.0552488898 0.1321273038 1.13055e-05 0.0001857944 0.0002201198 0.0001232593 -0.3354039015 0.775766123
580296520.0 -0.0540447018 0.1326516823 0.0002262141 7.81438e-05 0.0002607117 -6.70051e-05 -0.3272875801 0.7792574975
585296490.0 -0.0530006677 0.13327934 0.0002687983 2.01653e-05 0.0002063852 1.58231e-05 -0.3196959901 0.7816748542
590296460.0 -0.0521339715 0.1341130288 0.0002236062 0.0003304314 6.05122e-05 0.0001888151 -0.3121211874 0.7848110614
595296430.0 -0.050852399 0.1346081214 0.0001925941 -4.93558e-05 0.0001089376 -4.42192e-05 -0.3038231221 0.787351717
600296400.0 -0.0494276164 0.1353450631 0.0002025595 0.0003012058 0.0003208237 0.0002182757 -0.2963973589 0.7912062579
605296370.0 -0.0480637193 0.1359442564 8.31063e-05 8.10004e-05 5.18488e-05 -0.0001225762 -0.2889023421 0.7942777468
610296340.0 -0.0468249225 0.1367591033 0.0001821783 -7.80672e-05 0.0001767462 4.98424e-05 -0.280747936 0.7970105977
615296310.0 -0.0454898421 0.1376052154 0.0002739563 0.0002347359 0.0004163394 0.0001619007 -0.2727422021 0.7994469614
620296280.0 -0.0442992567 0.1379775508 0.0002531958 -0.0001035909 5.77644e-05 4.39515e-05 -0.2649641654 0.8022961806
625296250.0 -0.0430296564 0.1385881636 0.0001936793 -0.0002569301 0.0001859279 -2.88482e-05 -0.2569870835 0.8047206727
630296220.0 -0.0419273289 0.1392838617 0.0001576275 -0.0001412278 0.0003777926 -5.44189e-05 -0.2487531616 0.8072574075
635296190.0 -0.0405217728 0.1398024278 0.0001764799 3.60001e-05 7.28406e-05 -6.33636e-05 -0.2412500071 0.8091806376
640296160.0 -0.0390710956 0.1402790884 0.0002779201 4.0626e-06 5.18186e-05 0.000115902 -0.2329032678 0.8114083722
645296130.0 -0.0382497398 0.1410225962 3.08261e-05 -0.0001258843 0.0003565997 -7.43496e-05 -0.225284411 0.8142888055
650296100.0 -0.0363945555 0.1419590384 2.3754e-06 0.0002625612 2.61661e-05 0.0001471778 -0.2170818765 0.8164278963
655296070.0 -0.0349769473 0.1421982156 0.0002889847 6.16693e-05 0.0002281264 -2.99716e-05 -0.208571167 0.8181703912
660296040.0 -0.0341049415 0.1430062784 0.0002072272 -1.99897e-05 0.0001749563 0.0001326077 -0.2008103991 0.8204951278
665296010.0 -0.0324667346 0.14305577 0.000207192 4.2652e-05 0.000197667 0.0001268119 -0.1930952482 0.8222578642
670295980.0 -0.0310975909 0.1436490699 0.0002727695 -0.0001389298 0.0004155627 0.0001582579 -0.1851566148 0.8241126835
675295950.0 -0.0298370588 0.1443399727 0.0004330065 0.0001021702 0.000353527 3.5386e-06 -0.1762941337 0.8264033555
680295920.0 -0.0287222003 0.1449752126 0.0003662138 -9.29623e-05 0.0002649271 0.0001177598 -0.1685032786 0.8281995988
685295890.0 -0.0271084829 0.1452955577 0.0003350885 -9.29962e-05 0.000188997 6.44153e-05 -0.1602087519 0.8294139057
690295860.0 -0.0256183791 0.1458647678 0.0003136979 -0.0001271378 0.0004669022 9.2726e-06 -0.1519445152 0.8305681569
695295830.0 -0.0242390575 0.1459926805 0.0005766602 -2.78265e-05 0.0003360993 1.16351e-05 -0.1440883718 0.8319947189
700295800.0 -0.0229550727 0.1466744867 0.0002774848 9.23743e-05 0.0002005949 -0.0001292786 -0.1350164426 0.8331969506
705295770.0 -0.0213433741 0.1469402099 0.00031536 5.94138e-05 0.0002382171 2.31979e-05 -0.1279371326 0.8345510201
710295740.0 -0.0200900064 0.147446826 0.0001537559 -6.04502e-05 0.0002616617 -3.4023e-06 -0.1197292155 0.836469707
715295710.0 -0.0189164236 0.1480438061 0.0004321004 -0.0001405686 0.0002630441 0.000107473 -0.1110600916 0.8368464794
720295680.0 -0.0175332326 0.1480908508 0.0002808031 0.0001267352 0.0002446603 -6.54427e-05 -0.1025001997 0.8382103991
725295650.0 -0.0158422377 0.1486789648 0.0001103527 3.5611e-05 0.0004498715 0.0001713632 -0.0944076663 0.8394422354
730295620.0 -0.014588525 0.1489036728 0.0002192092 8.31546e-05 0.0003189874 6.24051e-05 -0.0859053315 0.8403354231
735295590.0 -0.0130415483 0.1492625228 0.00022636 -0.0001174933 0.0001296707 3.82743e-05 -0.0772727259 0.8412008265
740295560.0 -0.0116111519 0.1497816918 0.0002217482 7.34119e-05 0.0003928336 -1.49154e-05 -0.0690856969 0.8411753465
745295530.0 -0.0100806493 0.1499695031 0.0002994837 3.2023e-05 0.00018279 -0.0001426936 -0.0610284183 0.8426382731
750295500.0 -0.0088859978 0.1501424572 0.0003235296 -3.1817e-05 0.0002454898 1.09521e-05 -0.0525294737 0.8426852447
755295470.0 -0.007404691 0.1505123844 0.0004032131 -0.0001245698 0.0002592002 5.81229e-05 -0.0445584814 0.8440090933
760295440.0 -0.0059693854 0.1508436994 0.0001442315 5.61105e-05 0.0002410024 0.0001263615 -0.0366151086 0.844180321
765295410.0 -0.004371401 0.1508709409 0.0001763267 1.79827e-05 0.0001787447 0.0001670882 -0.0277845444 0.8441889179
770295380.0 -0.0026710288 0.1515097484 0.0003327953 -0.0001834072 0.0001915619 -0.0001374135 -0.0188146401 0.8441201823
775295350.0 -0.0017954055 0.1517888667 0.000176898 -3.01674e-05 0.0001817743 -0.0001115407 -0.0114613955 0.8444091361
780295320.0 -0.0002831093 0.1516791735 0.0001199762 5.39204e-05 0.0003597689 7.6219e-06 -0.0027430175 0.8445073728
785295290.0 0.0012269868 0.1521624682 0.0003257254 -7.78587e-05 0.0001291303 0.0001198166 0.0047486188 0.8444728529
790295260.0 0.0025520012 0.1521207479 0.0004057683 -0.0001335034 0.0003382124 -2.7701e-06 0.0140694027 0.8445873792
795295230.0 0.0041364069 0.1526762388 8.46854e-05 -9.84262e-05 0.0002131681 2.47234e-05 0.0218540532 0.8447118858
800295200.0 0.005881832 0.1527392462 0.0005400249 -0.0001555968 9.42507e-05 -0.0001691367 0.0302714314 0.844038086
805295170.0 0.0074151333 0.1526683489 0.0003175443 -2.37827e-05 0.0003985002 7.45016e-05 0.0382829176 0.8433834145
810295140.0 0.0086959184 0.1531108753 0.0002194011 7.4277e-06 0.0002819602 -9.07056e-05 0.046628622 0.8442220784
815295110.0 0.0101536808 0.1528959442 0.0006064631 -0.0001079993 0.0002888609 -0.0001111144 0.0551213476 0.8434867758
820295080.0 0.0116993994 0.153031123 9.10499e-05 4.95822e-05 0.0002721938 -0.0002548706 0.0634012214 0.8422761931
825295050.0 0.0133661508 0.153323548 0.0001711623 -9.03623e-05 0.0002081065 4.98325e-05 0.071588486 0.8420780105
830295020.0 0.0148034564 0.1534530303 0.0002394738 7.89715e-05 0.000275755 -8.77964e-05 0.079485675 0.8410144928
835294990.0 0.01616439 0.1534911681 0.0005087727 8.934e-05 0.0001346108 0.0003037494 0.0883390534 0.8397317956
840294960.0 0.0177109656 0.1535493927 0.0003664845 -0.0003665331 0.0003821561 -0.0001378411 0.0955055127 0.8391999082
845294930.0 0.0191240076 0.1535755114 0.0002491033 5.653e-07 7.54186e-05 -0.0001362667 0.104295196 0.8382108616
850294900.0 0.020736631 0.1533746679 0.0001776849 -0.0002019728 0.0003665668 -0.0001249269 0.1125904709 0.8374768667
