!Created with skrf (http://scikit-rf.org).
# Hz S RI R 50.0 
!freq ReS11 ImS11 ReS21 ImS21 ReS12 ImS12 ReS22 ImS22
300000.0 -0.7738467498 -0.1426399362 -0.0023509047 -0.0007915209 0.0006111149 0.0011343674 -0.2127196582 -0.0932298699
5299970.0 -0.7854456172 -0.00746345 -5.12303e-05 0.0001708692 5.35101e-05 -3.09352e-05 -0.2163564336 0.0069771181
10299940.0 -0.7875616974 -0.0038870721 -6.30213e-05 -8.27214e-05 -0.0002064658 0.0001437507 -0.2132334409 0.0186229871
15299910.0 -0.7934371005 -0.0013451688 -2.41887e-05 9.87437e-05 0.0001471995 0.0001791545 -0.2082230302 0.0280470662
20299880.0 -0.7993626517 0.0024291612 6.65264e-05 0.0001012776 -0.0001601831 -3.96683e-05 -0.20322489 0.0354367428
25299850.0 -0.8060882865 0.0083508391 0.0002092881 -1.55069e-05 3.62118e-05 -4.40812e-05 -0.1972412493 0.0416443557
30299820.0 -0.8121075041 0.0159239402 0.0001231901 -0.0001545461 -9.63408e-05 9.58388e-05 -0.1919335554 0.0460369952
35299790.0 -0.8166791246 0.0249260574 -0.0001416509 -1.07465e-05 0.0002427112 0.0001401155 -0.1860999062 0.0500354407
40299760.0 -0.8212202459 0.0341035287 -8.2159e-05 -3.85715e-05 0.0001885976 4.2396e-05 -0.1803904353 0.0527762343
45299730.0 -0.8243882807 0.0441315182 5.73016e-05 0.0001565557 -0.0002690928 1.55203e-05 -0.1753560398 0.0549361003
50299700.0 -0.8270984403 0.054110881 2.96703e-05 4.77469e-05 0.0001836144 0.0001629147 -0.1703181573 0.0564609404
55299670.0 -0.8282444517 0.0644396351 -6.38098e-05 7.34753e-05 -8.28277e-05 0.0001168672 -0.1667424825 0.0578482579
60299640.0 -0.8298631052 0.0743613845 -9.02812e-05 0.0003275914 -4.40595e-05 0.0002583996 -0.162290212 0.0583154347
65299610.0 -0.8310699068 0.0844398008 0.000166518 0.0003795688 -3.92691e-05 -7.41387e-05 -0.1586101541 0.0591894498
70299580.0 -0.8312770389 0.0947263221 0.0001772032 9.503e-07 0.0001494547 -9.30863e-05 -0.1553745181 0.0589858014
75299550.0 -0.8313359508 0.1049266222 -2.58472e-05 0.000139908 -9.19924e-05 0.0001490841 -0.1527376514 0.0595064932
80299520.0 -0.8311981218 0.1145160304 0.0001206446 0.0003827843 5.04828e-05 0.0002090502 -0.1502977289 0.059507064
85299490.0 -0.8307071027 0.1240727586 0.0001033898 -8.65916e-05 2.93447e-05 1.08647e-05 -0.1479234807 0.0592991073
90299460.0 -0.8297906384 0.1343200834 -1.77333e-05 0.0001213508 4.28152e-05 -0.0001333577 -0.1452940534 0.0595112644
95299430.0 -0.8284302723 0.1432723028 0.0001131151 3.56004e-05 0.0001578693 3.31353e-05 -0.143324267 0.0593615128
100299400.0 -0.8277057117 0.1532986485 -0.0001930719 0.0001842511 -0.0001450748 7.81289e-05 -0.1416886825 0.0593069375
105299370.0 -0.8265439941 0.162057799 1.03e-05 8.42648e-05 0.0001391945 0.0001930076 -0.139860144 0.0594384104
110299340.0 -0.8251356389 0.1710111828 6.61613e-05 0.0002825676 -0.0001165889 0.0001312717 -0.1389296582 0.0591143738
115299310.0 -0.8237692577 0.1806122369 3.75759e-05 -0.0001066363 3.81079e-05 -3.03481e-05 -0.1371999349 0.0593148388
120299280.0 -0.8218966826 0.1895018664 -0.0001547352 2.5097e-05 5.0798e-06 0.000137669 -0.1359336646 0.0594354051
125299250.0 -0.8204058827 0.1982178149 1.84488e-05 -2.75703e-05 4.20173e-05 0.0001897866 -0.1349876961 0.0591807518
130299220.0 -0.8178639051 0.2073981926 8.99763e-05 4.44977e-05 -2.3344e-06 -0.0001969871 -0.1344040785 0.0599486608
135299190.0 -0.8166082181 0.2167013339 0.0001169301 6.18501e-05 -9.1967e-05 8.64538e-05 -0.1330538505 0.0597298755
140299160.0 -0.8146663489 0.2254976768 -7.99303e-05 -2.83489e-05 0.000130138 -1.98961e-05 -0.1322655859 0.0598957968
145299130.0 -0.8122539117 0.2337457039 0.0002526395 0.0001780449 -0.0001683767 -6.72585e-05 -0.1317172173 0.0603484351
150299100.0 -0.8097335058 0.2433117226 8.66013e-05 -1.58912e-05 1.01459e-05 0.0001694823 -0.1308726205 0.0603355373
155299070.0 -0.8074278429 0.2523643425 -6.62922e-05 3.96164e-05 0.0001798474 -3.81566e-05 -0.1303679944 0.06107822
160299040.0 -0.8049263093 0.2608653493 0.0001000811 -4.02094e-05 0.0001478698 -1.9616e-05 -0.1293801418 0.0612994842
165299010.0 -0.8020188182 0.2692793009 -4.07543e-05 0.0001862039 2.93237e-05 0.0001177646 -0.1290748994 0.0615480876
170298980.0 -0.7998295537 0.2780354422 -9.5397e-06 0.0002613961 -4.3436e-06 0.000215179 -0.1284996755 0.062220442
175298950.0 -0.7971109843 0.2867783635 0.0002261403 0.000115577 -2.70455e-05 -2.30839e-05 -0.1278992784 0.0630087097
180298920.0 -0.7940213373 0.2948129426 -0.000151364 -0.0001680947 -4.96713e-05 0.0001570938 -0.1271623262 0.063062437
185298890.0 -0.7909216209 0.3042047157 -7.47245e-05 0.0001884973 -1.9035e-05 6.12548e-05 -0.1268821726 0.0635671009
190298860.0 -0.787535328 0.3121387599 -0.000100872 5.60381e-05 -4.74091e-05 0.000140883 -0.1260968145 0.0644254533
195298830.0 -0.7841734643 0.320999732 0.0002304232 8.45296e-05 -3.87401e-05 -5.5327e-06 -0.1258491322 0.0649041406
200298800.0 -0.7804930542 0.3292059336 8.07733e-05 1.81177e-05 8.26138e-05 0.0001311125 -0.1247611894 0.0659105881
205298770.0 -0.7772821105 0.3372943046 -6.8628e-05 -0.0001447458 0.0002135305 1.763e-06 -0.1246520424 0.0662642146
210298740.0 -0.7733178658 0.3457759006 0.000178404 0.0003805655 -0.0002100607 -1.51614e-05 -0.1242195148 0.0672893136
215298710.0 -0.7699846757 0.3545305294 9.59028e-05 0.0002289347 0.0002529797 0.000258876 -0.1241093003 0.0679846197
220298680.0 -0.76712263 0.3624977105 0.0003117122 0.0001528409 3.94381e-05 -7.16785e-05 -0.1232215126 0.0689789411
225298650.0 -0.7629964918 0.3705247765 -3.36282e-05 0.0001221523 -0.0001559114 0.0001005588 -0.1231502983 0.0699569745
230298620.0 -0.7584232824 0.3784657 -2.1975e-06 0.00020989 3.04886e-05 0.0004132445 -0.1224086938 0.0703406993
235298590.0 -0.7547174146 0.3871697292 5.86779e-05 9.86764e-05 0.0001199284 5.80081e-05 -0.1217941578 0.0712492721
240298560.0 -0.7504659847 0.3949108612 5.98833e-05 7.67039e-05 5.0391e-05 -7.80477e-05 -0.1213492935 0.0722890399
245298530.0 -0.7462542842 0.4026735975 0.0001067351 -3.78764e-05 0.0001965504 0.0001041029 -0.1207100067 0.0733203664
250298500.0 -0.7426307285 0.4108828345 -2.21573e-05 0.00027805 8.23188e-05 0.0001640726 -0.119854372 0.074398995
255298470.0 -0.7380609025 0.4185769302 9.2097e-05 0.0001038093 0.0001546215 6.80592e-05 -0.1194596336 0.0751581583
260298440.0 -0.7338699772 0.4255802697 -5.87406e-05 1.84715e-05 0.0001924524 0.0002316492 -0.119000768 0.0757343261
265298410.0 -0.7288866159 0.4340005795 -2.96331e-05 0.0001275539 6.2579e-05 8.94251e-05 -0.1187998119 0.0769315689
270298380.0 -0.7240116033 0.4417997003 0.0001118236 1.5155e-05 0.0001708491 0.000145053 -0.1177000765 0.0778020072
275298350.0 -0.7194607265 0.4491941089 0.0002981086 2.49113e-05 5.14267e-05 -2.03095e-05 -0.1171555447 0.0788988895
280298320.0 -0.715477008 0.456604215 7.19929e-05 9.4436e-05 5.7187e-06 0.0002363443 -0.116534459 0.0798223309
285298290.0 -0.7105583943 0.4643445402 0.0001255109 -0.0001982994 0.0001517788 -6.58557e-05 -0.1163408274 0.080958201
290298260.0 -0.704954755 0.4717322646 0.0001803739 7.43395e-05 5.65809e-05 0.0002137614 -0.1155111617 0.0820918654
295298230.0 -0.7007136263 0.4794470153 0.000193962 -6.367e-07 0.0001019376 0.0001852888 -0.1147366254 0.0832330798
300298200.0 -0.6951102339 0.4862521699 0.0002372 1.3523e-05 0.0001565497 -1.63002e-05 -0.1142402789 0.0842918058
305298170.0 -0.6902011189 0.4937954732 0.0002137949 -4.9094e-06 1.92946e-05 3.48761e-05 -0.1132853804 0.0855075696
310298140.0 -0.684831838 0.5011340181 1.28667e-05 -0.0001076831 9.432e-05 0.0001406827 -0.112496414 0.0862296243
315298110.0 -0.679337527 0.5077715359 0.0001535992 0.0001372168 0.0002636658 0.0001640709 -0.1117210605 0.0872675049
320298080.0 -0.6744492579 0.5155600516 4.08361e-05 0.0001723442 4.97397e-05 -2.25089e-05 -0.1111334625 0.0882844805
325298050.0 -0.668293744 0.5221449943 -6.13353e-05 -0.0001248885 4.01958e-05 0.0002762083 -0.1104805073 0.0892475026
330298020.0 -0.6626618856 0.5297319744 0.0003020758 0.0001175184 0.0001439448 0.0001020017 -0.1098056079 0.0901036093
335297990.0 -0.6570121688 0.5359622709 0.000206623 0.0001632735 2.93021e-05 0.0001024949 -0.1094130477 0.0914470808
340297960.0 -0.6520397392 0.5428736424 0.000133989 6.95796e-05 6.07041e-05 1.79857e-05 -0.108421352 0.0921843797
345297930.0 -0.6462746312 0.5486452163 8.09161e-05 -0.0002153493 0.0001818824 -5.0605e-06 -0.1083459907 0.093322375
350297900.0 -0.6404687924 0.5558408182 0.0001196198 0.000225688 -6.1757e-06 -5.74508e-05 -0.1071687707 0.0949676056
355297870.0 -0.6342813528 0.5627913055 6.0346e-05 0.0003354963 8.906e-05 0.0001618511 -0.1066485953 0.0960156271
360297840.0 -0.6282482889 0.5689730551 0.0001434289 -9.62962e-05 0.0002649619 1.55747e-05 -0.1058406668 0.0973766316
365297810.0 -0.6221447303 0.5757247666 0.0002560986 -1.72818e-05 0.0001376991 1.4566e-05 -0.1051427336 0.0982452321
370297780.0 -0.615999489 0.581780327 -0.0001641122 0.0001064817 5.37635e-05 0.0002408129 -0.1044881723 0.099496918
375297750.0 -0.6102095652 0.5883038684 0.000199186 9.13961e-05 -0.0001006444 4.00952e-05 -0.1034598913 0.1004830037
380297720.0 -0.6040828333 0.5945242985 0.0002521597 0.0001662442 0.0001034132 7.93348e-05 -0.1025849822 0.1017915708
385297690.0 -0.5975472069 0.6006182455 0.0002466295 4.12508e-05 0.0001176557 0.0001390532 -0.1020213499 0.103246447
390297660.0 -0.5913746609 0.6071176371 9.05531e-05 1.87963e-05 2.22799e-05 -0.0001043073 -0.10106538 0.1040103807
395297630.0 -0.5852241848 0.6130382904 -2.29798e-05 -6.71617e-05 0.0002099617 0.0001500188 -0.1001224665 0.1052837296
400297600.0 -0.5786019129 0.6188178277 0.0001704141 6.20944e-05 0.0002250557 0.0002700428 -0.0996007594 0.1061230703
405297570.0 -0.573077955 0.6255091687 -7.8593e-06 -1.52416e-05 0.0001488172 1.507e-06 -0.09870589 0.1076483149
410297540.0 -0.5649508592 0.6306088325 0.0002672361 6.75019e-05 9.34424e-05 0.000326921 -0.0976006807 0.1089956611
415297510.0 -0.5590672544 0.6362464596 0.0002807666 0.0001690987 4.05961e-05 0.0001312805 -0.0970778054 0.1100873795
420297480.0 -0.5517399601 0.6421623457 0.0001532951 1.35007e-05 0.0001110681 -2.26091e-05 -0.095855275 0.1110200272
425297450.0 -0.5456670356 0.6475015427 8.13991e-05 -0.0001044383 0.000270248 8.06728e-05 -0.0949007977 0.1122869649
430297420.0 -0.539748818 0.6533080333 0.0001108596 0.0002207358 8.07551e-05 0.0001223202 -0.0938655426 0.1135493092
435297390.0 -0.5319474607 0.6589114114 0.0001968034 0.0001649621 0.0002549274 -4.80179e-05 -0.0929582328 0.1147383302
440297360.0 -0.5252331258 0.6641150074 -0.0001543393 0.0001666981 0.0001902366 -1.63203e-05 -0.0925013688 0.1154205263
445297330.0 -0.5185462833 0.6697755444 7.62333e-05 -3.61309e-05 0.0002636565 0.000184972 -0.0911995191 0.1165935569
450297300.0 -0.5113705566 0.6747714191 0.0001074184 2.84638e-05 9.62617e-05 0.0001455012 -0.090858577 0.1177446801
455297270.0 -0.5044657101 0.6801889477 0.0001843951 -9.29303e-05 0.0003319665 0.0001534394 -0.0892922457 0.1188403863
460297240.0 -0.4976191161 0.6853016402 0.0002994001 0.0001432335 0.0002018887 4.77533e-05 -0.0881818733 0.1199755648
465297210.0 -0.4898290024 0.6901859426 0.0003436154 -0.0001649066 6.24048e-05 2.24367e-05 -0.0878250344 0.1208742199
470297180.0 -0.482739144 0.6949397088 0.0001260349 9.22835e-05 -7.30934e-05 0.0001088704 -0.0865900276 0.1220695793
475297150.0 -0.4755174606 0.700427437 8.78305e-05 -0.0001647864 0.0002079374 -0.0001015481 -0.085552804 0.1231654425
480297120.0 -0.4688899775 0.7039030562 0.0002574746 0.0001917248 0.0002039937 -0.0001378532 -0.0842961183 0.1244203998
485297090.0 -0.4609891415 0.7093521589 -7.77077e-05 -0.0001570349 0.0002510071 -8.05177e-05 -0.0835536232 0.1253568781
490297060.0 -0.4542043038 0.713696049 0.0002310572 -0.0001758037 0.0002377958 0.000176366 -0.0827150748 0.1264197537
495297030.0 -0.4472712529 0.7189862615 6.68001e-05 0.0001676876 0.0001773653 -1.12658e-05 -0.0812611797 0.127000668
500297000.0 -0.4389122256 0.723407325 0.0003429453 7.3447e-06 0.0001055467 0.0001027951 -0.080564636 0.1280947795
505296970.0 -0.4315395336 0.7272845271 0.0002366462 0.0001835836 0.0001898425 -0.0001885578 -0.0796142133 0.1291604469
510296940.0 -0.4240887509 0.7322006108 -2.69306e-05 7.48271e-05 0.0001809725 0.0002014291 -0.0782906314 0.1302097618
515296910.0 -0.4173092581 0.7359969585 5.5364e-06 7.99576e-05 6.22115e-05 4.96449e-05 -0.0771923285 0.1313907184
520296880.0 -0.4090238522 0.7402198879 0.0002155899 -7.0986e-05 7.65517e-05 4.12664e-05 -0.0763180305 0.131915963
525296850.0 -0.4018745653 0.7443510077 0.0003855356 0.0002602274 0.0001519021 8.09988e-05 -0.0745914456 0.1326896755
530296820.0 -0.3944124837 0.7480175414 0.000505912 0.000184404 2.67443e-05 0.0001476528 -0.0740233405 0.1340331904
535296790.0 -0.3862249834 0.752318436 0.0002726422 5.9564e-06 0.0002463553 0.0002030983 -0.0729549454 0.134572933
540296760.0 -0.3783693038 0.7561662276 0.0004013947 0.0002904819 0.0003689606 0.0002101835 -0.0717061402 0.1357004036
545296730.0 -0.3709743701 0.759592307 0.0001946573 4.35999e-05 0.000362413 -0.000122421 -0.0706907351 0.1362598119
550296700.0 -0.363632891 0.7635912648 0.0003043507 6.9792e-06 0.0002358469 6.31128e-05 -0.0693539411 0.13730942
555296670.0 -0.354657293 0.7671407033 0.0001936084 5.43158e-05 0.0002181438 -2.30283e-05 -0.0683733996 0.1382682112
560296640.0 -0.3472504413 0.7704614573 0.0002924576 -6.81321e-05 0.0001442262 -0.0001913876 -0.0668682801 0.1389749704
565296610.0 -0.339698708 0.7733547086 0.0002764513 0.0001726489 0.0001857654 0.0001466393 -0.0658569831 0.1399706096
570296580.0 -0.3318934384 0.7775807199 0.0001157769 0.0001754991 0.0001101568 1.46474e-05 -0.0647704765 0.1408926044
575296550.0 -0.3237824881 0.7805498199 0.0001433984 -0.0001314157 0.0003113253 7.75733e-05 -0.0632900347 0.1414897387
580296520.0 -0.3159784803 0.7839107481 2.29683e-05 -0.0002009413 0.0001552893 2.54074e-05 -0.0624057906 0.1425004722
585296490.0 -0.3072227028 0.7866401648 0.0004125232 0.0001431956 8.55565e-05 -3.80964e-05 -0.0609665273 0.1427088014
590296460.0 -0.2991985279 0.7894523324 0.0001561592 0.0001581707 0.0002891761 2.87404e-05 -0.0599732525 0.1436519508
595296430.0 -0.2914696288 0.7935715257 0.0002244589 0.000136658 0.0002442261 5.53974e-05 -0.0588515112 0.1445218385
600296400.0 -0.2831849352 0.7952147727 0.0002369409 0.0001557927 0.0004411408 0.0001121293 -0.0572659126 0.1453638419
605296370.0 -0.2755193846 0.7992817977 0.0002530898 -7.0945e-06 0.0004189808 0.000109469 -0.0560508857 0.146059551
610296340.0 -0.2678027428 0.8009067165 0.0002909653 0.0002263631 0.0002864544 0.0002450333 -0.0549141272 0.1470570863
615296310.0 -0.2594551455 0.8040241129 0.0001481345 0.0001987772 0.0001102426 1.06047e-05 -0.0535165682 0.1478038909
620296280.0 -0.25045531 0.8062323184 0.0002639278 -0.0001137925 0.00015636 -7.09201e-05 -0.0524766866 0.1478860903
625296250.0 -0.2429204279 0.8088013693 1.67235e-05 0.0001171856 1.89633e-05 -0.0001345989 -0.0510057098 0.149054932
630296220.0 -0.234403376 0.8116217635 5.83213e-05 0.0001196466 0.0002443851 3.91026e-05 -0.0495306397 0.1497971352
635296190.0 -0.2264304576 0.8137829504 0.0001551222 -9.1902e-06 -5.74965e-05 -0.0001379513 -0.0483647477 0.1504461325
640296160.0 -0.2181691393 0.8150930661 0.0001307455 4.91063e-05 0.0003032139 -6.5692e-05 -0.0468981812 0.1508528402
645296130.0 -0.210149031 0.8183633651 0.0002303932 1.76449e-05 0.0001930546 -2.82557e-05 -0.0460576841 0.1513962179
650296100.0 -0.2014579414 0.8203808703 0.0003299437 -5.62739e-05 0.000208284 -7.80555e-05 -0.0445185492 0.151957003
655296070.0 -0.1931093711 0.8216816367 0.0001389009 0.0001758756 0.0002031193 -0.0001302022 -0.0429834292 0.1529773703
660296040.0 -0.1855089957 0.8241491991 0.0003403076 -4.8022e-06 0.0002665273 4.69807e-05 -0.0417092003 0.1533216072
665296010.0 -0.1770725673 0.8257630578 0.0003117738 3.21526e-05 0.0002513144 -0.0001878902 -0.0402216536 0.1540101643
670295980.0 -0.1681345194 0.8275735569 0.0002362691 -0.0001428396 0.0002907533 5.85068e-05 -0.0388991673 0.1547388668
675295950.0 -0.1602440749 0.8287472282 0.0004123327 -0.0001118722 0.0001926565 0.0001430275 -0.0375516902 0.1553461162
680295920.0 -0.151984377 0.8303650055 0.0001595335 0.0001991642 0.0002207724 -0.0001240923 -0.0362224071 0.1556418165
685295890.0 -0.1431511049 0.8317575578 0.0002922172 -2.23103e-05 0.00032246 -6.31762e-05 -0.0345879945 0.1561318374
690295860.0 -0.1347878112 0.8335748779 3.37727e-05 3.57548e-05 0.0002296721 -5.56653e-05 -0.0329669303 0.1567828163
695295830.0 -0.1264312114 0.8338633441 0.0001265421 -9.57599e-05 0.0001680981 6.97768e-05 -0.0320314891 0.1573069515
700295800.0 -0.1178024231 0.8357099717 0.0003468447 0.0001462988 0.0002920982 -0.0002168505 -0.0300570153 0.1577803544
705295770.0 -0.1086693494 0.8369046905 0.0002050104 1.33468e-05 0.0001974498 0.0001393429 -0.0290611602 0.1584570078
710295740.0 -0.1018235996 0.8382963621 0.0003619088 -0.00014656 0.0003417119 4.96025e-05 -0.0280770094 0.1589888646
715295710.0 -0.0930627933 0.8389535523 0.0001461221 0.0001654522 0.0002697455 6.50003e-05 -0.0262174156 0.1593773896
720295680.0 -0.0844848075 0.8397610915 0.0002452369 -5.82869e-05 0.0002681115 4.951e-06 -0.0247630859 0.159752971
725295650.0 -0.075477295 0.841050607 0.0002909407 -0.0003337569 0.0001481185 7.35303e-05 -0.0229917808 0.1603619031
730295620.0 -0.06722542 0.8408448239 0.0001919988 -0.0001547223 0.0003690962 8.12146e-05 -0.0216252596 0.1604949984
735295590.0 -0.058298996 0.8415502889 0.0001499921 1.64234e-05 0.0001023904 0.0002598664 -0.0200519083 0.161162305
740295560.0 -0.050130871 0.8424524857 0.0003543481 -4.39081e-05 0.0003939917 -0.0001679649 -0.0188480921 0.1613255729
745295530.0 -0.0416684399 0.8428964685 0.0002694154 -0.0002642231 0.0001921969 -8.20968e-05 -0.017349239 0.1616813859
750295500.0 -0.0339248478 0.8429846914 0.0003259553 -0.000109993 0.000241383 -4.51092e-05 -0.0158721844 0.1617331747
755295470.0 -0.0246190157 0.8431880692 0.0003604602 -3.57657e-05 0.0001747105 5.44863e-05 -0.014585715 0.1624530322
760295440.0 -0.0160697383 0.8432288145 0.0002579548 2.44858e-05 0.0002596999 7.60369e-05 -0.0131155973 0.1628672607
765295410.0 -0.0079443988 0.8439087475 0.0004696966 -0.000153883 0.0003916453 -9.20812e-05 -0.011219966 0.1633809644
770295380.0 0.0003912481 0.8439108367 0.0004173028 -8.7016e-05 0.0002398337 4.26819e-05 -0.009760022 0.1636107959
775295350.0 0.0088290525 0.8436433041 0.000350186 -0.000151065 0.0002984729 1.50443e-05 -0.0086633394 0.163428978
780295320.0 0.0179367861 0.8429385253 0.0003174318 -8.20603e-05 0.0002261663 -5.89973e-05 -0.0072935657 0.1642212407
785295290.0 0.0263218202 0.8436659169 0.0003749716 -3.80877e-05 0.0003554568 -4.07515e-05 -0.0056120908 0.164494407
790295260.0 0.034497175 0.8425996511 0.000104681 3.48139e-05 0.0003884225 -3.02457e-05 -0.0039648401 0.1643582742
795295230.0 0.0429329 0.8433834628 0.0003208227 -0.0001918452 0.0005739074 0.0001072203 -0.0020698637 0.1650552663
800295200.0 0.051784612 0.8423904773 3.77868e-05 -4.1259e-05 0.0002912204 -0.0001029078 -0.0008224687 0.1650205963
805295170.0 0.0594736156 0.8421388824 0.000133208 -2.54764e-05 0.0002307358 -5.97839e-05 0.0002653155 0.1652893864
810295140.0 0.0681810943 0.8409160331 0.0002823949 5.80442e-05 0.0002458942 -0.0002875181 0.0022208939 0.1658619223
815295110.0 0.0769573738 0.8401887966 0.0003234701 0.0001363635 0.0003589787 -0.0001476129 0.0036561341 0.1659528709
820295080.0 0.0848670949 0.8387895758 0.0002629946 -8.45579e-05 0.0003252852 -0.0002012299 0.0049776446 0.1659550474
825295050.0 0.0936269178 0.8382466089 0.000253673 -4.09227e-05 0.0003385681 -0.0001449564 0.0068699098 0.1664553659
830295020.0 0.1023562949 0.8377138971 0.0001606123 0.0001309966 0.0003211701 0.0001646723 0.0081701357 0.1664329964
835294990.0 0.1102385278 0.8370614125 0.0003113247 1.65738e-05 0.0002734301 -0.0001719395 0.0098602329 0.1664100769
840294960.0 0.1186299798 0.8354917862 0.0002056186 4.3001e-06 0.0001900694 9.66282e-05 0.0112644358 0.1668241224
845294930.0 0.1268291152 0.8342478235 0.0002458008 8.55616e-05 0.0002627986 -0.0002131287 0.01287362 0.1667297122
850294900.0 0.1347298385 0.8325638308 0.0004469498 2.88399e-05 0.0004146104 4.70697e-05 0.0144852226 0.1671389701
