!Created with skrf (http://scikit-rf.org).
# Hz S RI R 50.0 
!freq ReS11 ImS11 ReS21 ImS21 ReS12 ImS12 ReS22 ImS22
300000.0 -0.092502622 -0.0985226253 0.6229356625 0.0909170012 0.6182931024 0.0910647025 -0.0951789884 -0.10157598
5299970.0 -0.101376606 0.0115364887 0.6303639378 0.0108217517 0.6308579712 0.0110382632 -0.1015749439 0.011371493
10299940.0 -0.097012884 0.0286911634 0.6347463219 0.0159116758 0.6342442267 0.0165465193 -0.096418076 0.0285020895
15299910.0 -0.0891613488 0.0424962616 0.6402994237 0.0213717014 0.6404291355 0.0211013082 -0.0897755884 0.0417144032
20299880.0 -0.0805145872 0.0534591837 0.6488707067 0.0242851835 0.6489314941 0.0247403148 -0.0808557218 0.05279201
25299850.0 -0.0704431071 0.0622702287 0.6579801137 0.0260849753 0.6585349842 0.0255712228 -0.0716958136 0.0617743177
30299820.0 -0.0608765728 0.0690261432 0.6679102986 0.0246547957 0.6678526733 0.0245068693 -0.0619691208 0.0684094565
35299790.0 -0.0505475977 0.0737361337 0.6770993817 0.0219236772 0.6772433962 0.0217242646 -0.0520959259 0.0738395226
40299760.0 -0.0412579454 0.0763576364 0.6866841921 0.0175633889 0.6873889125 0.0180507641 -0.0428530007 0.0770446938
45299730.0 -0.0316633252 0.0783454438 0.6961014895 0.0121484429 0.6960406069 0.0121959498 -0.033261694 0.0791535945
50299700.0 -0.0231823339 0.0792300037 0.7038634426 0.0053422734 0.703702865 0.0054227137 -0.0247171167 0.0805993711
55299670.0 -0.0150993617 0.0789885949 0.7112455531 -0.002480262 0.7110004815 -0.0025779078 -0.0172724266 0.0803380383
60299640.0 -0.0078147972 0.0788661963 0.7181267569 -0.0105745647 0.7177981074 -0.0106699769 -0.0097727434 0.0794957095
65299610.0 -0.0011128995 0.0769777206 0.7243622539 -0.0194259253 0.7241528457 -0.0195842724 -0.0025843033 0.0788197497
70299580.0 0.0054703003 0.0751575435 0.7294068682 -0.0288341318 0.729148209 -0.0290134862 0.0029606378 0.0771276913
75299550.0 0.0105615026 0.073229164 0.7337471236 -0.0390676194 0.733914869 -0.0383286701 0.0086113184 0.0752971114
80299520.0 0.0153553652 0.0714585669 0.7374681905 -0.0490918244 0.73792276 -0.0487465717 0.0137202096 0.0732693771
85299490.0 0.0199963065 0.0690992337 0.7410592975 -0.0584592858 0.7412408202 -0.0581036482 0.01811423 0.0709480308
90299460.0 0.023976704 0.0667756758 0.743206975 -0.068839864 0.7431432153 -0.068363321 0.0224387063 0.0691239266
95299430.0 0.0278375147 0.0642816726 0.7459560485 -0.0788549375 0.7460422519 -0.0793766826 0.0258991571 0.066184809
100299400.0 0.0312806592 0.0616154778 0.7477311711 -0.0887317066 0.7476131061 -0.0889267571 0.028881571 0.0646513682
105299370.0 0.03444837 0.0592230039 0.7494451122 -0.0985479877 0.7498289496 -0.0988206095 0.0328550134 0.06143764
110299340.0 0.0371490644 0.0565090793 0.7507924249 -0.108126253 0.7506637056 -0.108597386 0.0348986075 0.0592856458
115299310.0 0.0394860538 0.0542051962 0.7515552477 -0.118734889 0.7510340487 -0.1185358437 0.0374185898 0.0576523255
120299280.0 0.0417367954 0.051926005 0.752003019 -0.1297936736 0.7517186172 -0.1296284877 0.0398157588 0.0544492425
125299250.0 0.0438361157 0.0497049788 0.7522518591 -0.1386793532 0.7520805485 -0.1388577499 0.0421380589 0.0529471024
130299220.0 0.045731139 0.046868025 0.752229524 -0.1491988894 0.751970649 -0.1492947384 0.0437645552 0.0509272313
135299190.0 0.0468321784 0.0453208396 0.7522406455 -0.1581024731 0.7521746728 -0.1590695003 0.0455133408 0.0477339399
140299160.0 0.0485550364 0.0431646991 0.7514468589 -0.1693142613 0.751265673 -0.1682152952 0.0462381111 0.0454979141
145299130.0 0.0493834618 0.0412298985 0.7507209928 -0.1783611785 0.7502538301 -0.1783613185 0.048146019 0.0436721073
150299100.0 0.0507510401 0.0392305179 0.7496394921 -0.1876887121 0.7490654904 -0.1876472397 0.0491190901 0.0419418734
155299070.0 0.0527280207 0.0371658377 0.7479133043 -0.1972576878 0.7486056907 -0.1978589384 0.0506850125 0.0394702131
160299040.0 0.0532918642 0.0354810975 0.7469355784 -0.2070656234 0.7466804413 -0.207098127 0.0509259096 0.0381879854
165299010.0 0.0542988844 0.0334895718 0.7453560421 -0.2164611626 0.7448312141 -0.2166678695 0.052215249 0.0359176333
170298980.0 0.0550494353 0.0319518996 0.7424379793 -0.2259863742 0.7430982991 -0.2259353831 0.0526070608 0.0337946981
175298950.0 0.0560217282 0.0305260902 0.7416772928 -0.2352477206 0.7419488998 -0.2358208916 0.053443223 0.0322858351
180298920.0 0.0561005603 0.0285021692 0.7399956756 -0.244508696 0.7391752194 -0.2444535365 0.0539346369 0.0308153238
185298890.0 0.0566510016 0.0273331867 0.7380340182 -0.2531914474 0.7372802496 -0.2536709581 0.0552393863 0.02896257
190298860.0 0.0576708052 0.0258646616 0.7344340468 -0.2628276924 0.7349434989 -0.2624467851 0.0550107368 0.0273414318
195298830.0 0.0578124713 0.0240111111 0.7326538694 -0.2714737905 0.7327580282 -0.2717799178 0.0556574557 0.026074503
200298800.0 0.0584595094 0.0225741069 0.7298736761 -0.2817767561 0.7300197563 -0.2807492997 0.0561556256 0.0240516664
205298770.0 0.0584627465 0.0206562323 0.7268318253 -0.2897916827 0.7271559904 -0.2892107299 0.0568012488 0.022891693
210298740.0 0.0589204927 0.019941437 0.7245007692 -0.2984605484 0.723556358 -0.298447887 0.0565778461 0.0207466766
215298710.0 0.0594471247 0.0186001474 0.7213075429 -0.3069844088 0.7207031541 -0.3068952811 0.0568734008 0.0198472833
220298680.0 0.0595639232 0.0176397148 0.7176936198 -0.3151768915 0.7172923367 -0.3159521389 0.0575204377 0.0181172358
225298650.0 0.0595340496 0.0161214485 0.7140995577 -0.3239786469 0.7144069608 -0.3237403997 0.0572978247 0.0165269308
230298620.0 0.0602133903 0.0152723326 0.7112193333 -0.3327880103 0.7116791231 -0.3330396511 0.057120801 0.0150894772
235298590.0 0.0600018413 0.0137804448 0.7079959702 -0.3418138269 0.7079216398 -0.3412300341 0.0578489653 0.0139817902
240298560.0 0.0602638802 0.013100557 0.7042617242 -0.3495113698 0.7034687248 -0.3498191901 0.0576068079 0.0126524296
245298530.0 0.060169106 0.0111807907 0.700166764 -0.3580683945 0.7002384719 -0.3578267 0.0578614134 0.0117353516
250298500.0 0.0600920857 0.0102479618 0.6970678632 -0.3659588026 0.6965737941 -0.3658442638 0.057606987 0.0105154342
255298470.0 0.060349441 0.0097646941 0.6933858732 -0.373812576 0.6930889187 -0.3744058361 0.0578102867 0.0097973807
260298440.0 0.0607028393 0.0084122012 0.6890147736 -0.3817342168 0.6890732957 -0.3820704723 0.0576138693 0.0078117075
265298410.0 0.0598995595 0.0074254108 0.6846405348 -0.3907364745 0.6844689174 -0.3908871801 0.0587650568 0.0066412882
270298380.0 0.0599215954 0.0062418031 0.6801609409 -0.3980800801 0.6803307399 -0.3982994574 0.0579997072 0.0058580418
275298350.0 0.0605320496 0.0057078328 0.6756292905 -0.406387019 0.6757084505 -0.4058423017 0.0578351597 0.0049066935
280298320.0 0.0597094985 0.0045076318 0.6718077886 -0.4139411596 0.6724558688 -0.4139198763 0.058409507 0.0036172645
285298290.0 0.0601090101 0.0037530855 0.6674884025 -0.4216882208 0.6675150508 -0.4218022971 0.0583013826 0.0026911856
290298260.0 0.0598971892 0.0024840239 0.6638562941 -0.4296799098 0.6630826033 -0.4296185367 0.0582622473 0.0015226202
295298230.0 0.0599678717 0.0012878409 0.6586278243 -0.4375824769 0.6585596491 -0.4380060673 0.0579300826 0.0003611306
300298200.0 0.0603275342 0.000962939 0.6539631858 -0.4450982847 0.6538782966 -0.4451697669 0.0577885563 -0.0009236215
305298170.0 0.0600098602 -0.0008380741 0.6495665519 -0.4529866316 0.6489659631 -0.4531122781 0.0576912738 -0.0022222285
310298140.0 0.0604748451 -0.0016009875 0.6442910344 -0.4606497111 0.6442333508 -0.4602320086 0.0581609491 -0.003773757
315298110.0 0.0596328743 -0.0029867946 0.639812525 -0.4685166944 0.6386342024 -0.4683715556 0.0575878017 -0.0045428435
320298080.0 0.059507408 -0.0039648468 0.6330060072 -0.4755445194 0.634086212 -0.4761600574 0.0573766226 -0.0056191929
325298050.0 0.0585502396 -0.0052459055 0.6282422487 -0.4832512137 0.6291332534 -0.4831247547 0.0570752008 -0.0070790614
330298020.0 0.0571580891 -0.0057580848 0.6222022352 -0.4908264887 0.6230656698 -0.4904244467 0.0559188301 -0.0079489834
335297990.0 0.0575353111 -0.0065542206 0.6170339313 -0.4976066251 0.6173965912 -0.4976908874 0.0555228546 -0.0088342
340297960.0 0.0569075355 -0.0076200455 0.6108971389 -0.5048206326 0.6107578963 -0.5043867004 0.0552228941 -0.0094438731
345297930.0 0.0562984925 -0.0084198474 0.6057157288 -0.5119767727 0.6053460428 -0.5117709245 0.0549865511 -0.0103450613
350297900.0 0.0558850457 -0.0088407027 0.6006381911 -0.5177658321 0.6002922984 -0.5178391006 0.0545044302 -0.0113524505
355297870.0 0.0556015118 -0.0099447425 0.5944291631 -0.5246106341 0.5942241579 -0.5245202782 0.0545800283 -0.0120576166
360297840.0 0.0552343272 -0.0104071404 0.5882746913 -0.5314474803 0.5886263998 -0.5318129003 0.0534098552 -0.0124546478
365297810.0 0.0546653449 -0.011010676 0.5823517693 -0.5383050283 0.5824316233 -0.5380847938 0.0530721502 -0.0134465124
370297780.0 0.0549259538 -0.0114158462 0.5761205428 -0.5443777769 0.5765667228 -0.5443376787 0.0527957489 -0.0140624579
375297750.0 0.0539327313 -0.0120800958 0.5709126771 -0.5511187301 0.5706068617 -0.550950305 0.0527004299 -0.0148096624
380297720.0 0.0534424912 -0.0126850726 0.5645522817 -0.5578521948 0.5642766769 -0.557576271 0.0522361735 -0.0151873132
385297690.0 0.0531795345 -0.0136223108 0.5583310964 -0.5638252774 0.5582829111 -0.5637966892 0.052140268 -0.0155666961
390297660.0 0.0530118227 -0.0144488362 0.5522698998 -0.5691295406 0.5522472604 -0.5699365962 0.0521172905 -0.0166572184
395297630.0 0.0530877641 -0.0148768509 0.5461350167 -0.5751705414 0.5453831418 -0.575607917 0.0514075607 -0.017123172
400297600.0 0.0521952915 -0.0158845282 0.5394123708 -0.5824020705 0.5397199953 -0.58153989 0.0515476589 -0.0175129247
405297570.0 0.0521469331 -0.0167393836 0.5332945846 -0.5873877815 0.5332278495 -0.5880577014 0.0509918131 -0.018151452
410297540.0 0.051417031 -0.0165190343 0.5263316022 -0.5937346002 0.5269830262 -0.5940184565 0.0503005773 -0.0188473569
415297510.0 0.0507163695 -0.0173746951 0.5196118826 -0.5995877434 0.520288716 -0.5995047084 0.0505761373 -0.0191391524
420297480.0 0.0504943534 -0.0185041773 0.5136714245 -0.6054676253 0.5138347824 -0.6056014579 0.050082289 -0.0194557306
425297450.0 0.0509948845 -0.0187895314 0.5070658289 -0.6107119074 0.5068722128 -0.6110251954 0.0498661878 -0.0207592371
430297420.0 0.0498451476 -0.019530926 0.5003000523 -0.617010267 0.5002778658 -0.6163023686 0.0498438764 -0.0211305804
435297390.0 0.0498610073 -0.0202824437 0.4930308562 -0.6228432097 0.493299701 -0.6226722052 0.048826038 -0.0214816573
440297360.0 0.0497612545 -0.0210676191 0.4860764184 -0.6278220653 0.4856729522 -0.6278256385 0.0485724096 -0.0221517146
445297330.0 0.0492942151 -0.0217351992 0.4794765782 -0.6324285033 0.4794364663 -0.63328853 0.0481741056 -0.0222611635
450297300.0 0.0489905073 -0.0221748316 0.4729505406 -0.638113937 0.4728903579 -0.6379747201 0.0482790209 -0.0229383267
455297270.0 0.0479532659 -0.0228485157 0.465799179 -0.6433877866 0.4661909987 -0.6435590848 0.0475262988 -0.0236500123
460297240.0 0.0482112908 -0.0233792596 0.4591850429 -0.649469902 0.4585579405 -0.6490324929 0.0475055772 -0.0239855941
465297210.0 0.0476267484 -0.0241143843 0.4511718641 -0.6534743512 0.4509484898 -0.6538404797 0.0476502691 -0.0239132232
470297180.0 0.0470238937 -0.0249768325 0.4440183176 -0.6587109666 0.4449562161 -0.6588631461 0.0469041018 -0.0253375471
475297150.0 0.0464452411 -0.0248269661 0.4368130144 -0.6636479768 0.4369734412 -0.6634744473 0.0465912863 -0.0258252216
480297120.0 0.0466740826 -0.0250661673 0.4296238236 -0.6684858984 0.4295968657 -0.6682010552 0.0460927741 -0.0262143386
485297090.0 0.046208029 -0.0267885655 0.4216555587 -0.6733251479 0.4226054141 -0.6732877382 0.0457044706 -0.0265872924
490297060.0 0.0460567825 -0.0266093946 0.4143492195 -0.6778212898 0.4150005617 -0.677793109 0.0451669439 -0.0271154445
495297030.0 0.0449912179 -0.0275861208 0.4074897503 -0.6826057624 0.4075730225 -0.6825120697 0.04531055 -0.0279201856
500297000.0 0.0447488189 -0.0274849465 0.4000287201 -0.6863691041 0.4004248895 -0.6868578086 0.0447152415 -0.0280021727
505296970.0 0.0447990182 -0.0281526801 0.392886916 -0.6916910691 0.3922502029 -0.691063275 0.0444402008 -0.0293858167
510296940.0 0.0442827015 -0.0291253003 0.385447967 -0.6962267132 0.3850648939 -0.6961052966 0.0442651956 -0.0290581777
515296910.0 0.0436391468 -0.0290599382 0.3763254212 -0.6998918821 0.3770777288 -0.6999409632 0.0436036063 -0.0303337601
520296880.0 0.0433625998 -0.0294204945 0.3693705432 -0.7033139946 0.3694158545 -0.7037973837 0.0438568256 -0.029755192
525296850.0 0.0432084871 -0.0303057152 0.3616615958 -0.7078275474 0.361176721 -0.7080130855 0.0435350622 -0.0306815328
530296820.0 0.0428810295 -0.0310794881 0.353715251 -0.7125797988 0.354247613 -0.7118475562 0.0428987335 -0.0315762859
535296790.0 0.0427981266 -0.0312889428 0.3456481265 -0.7156713628 0.346104913 -0.7161868572 0.0428877086 -0.0314451666
540296760.0 0.0419421144 -0.0312676562 0.3376881652 -0.7191287338 0.3381473388 -0.7193123661 0.0422295902 -0.0323669885
545296730.0 0.0408421169 -0.0317200487 0.3302068761 -0.722535146 0.3300939294 -0.7227211035 0.0419149493 -0.0325081048
550296700.0 0.0413460913 -0.0322849932 0.3223537692 -0.7269530035 0.3218586492 -0.7268709496 0.0417903577 -0.0331816942
555296670.0 0.0405940965 -0.0328653918 0.3140964219 -0.7309172543 0.314637317 -0.7305960258 0.0408362706 -0.0341146447
560296640.0 0.0411334992 -0.0332523117 0.3057236743 -0.7337340169 0.3068772032 -0.7334365971 0.0406276765 -0.033923609
565296610.0 0.0395079483 -0.0334491205 0.2986163429 -0.7370343846 0.2985301524 -0.7366633221 0.0403072905 -0.0341452903
570296580.0 0.0391866348 -0.0335144367 0.2897910464 -0.7398966409 0.2902039051 -0.7404480751 0.0396347736 -0.0353208078
575296550.0 0.039044931 -0.0342837344 0.2822955795 -0.7431927804 0.2822946005 -0.7434528509 0.0391123055 -0.0351635781
580296520.0 0.0386680073 -0.0342659473 0.2742951775 -0.7465124466 0.2738328031 -0.7470199259 0.0385449246 -0.0356831039
585296490.0 0.0381604032 -0.0345061569 0.2659521139 -0.7490987006 0.2656519667 -0.7493014441 0.0386332554 -0.0358112362
590296460.0 0.0385157857 -0.0348122994 0.2573939972 -0.7521831275 0.2578008276 -0.7525917837 0.037365551 -0.0363472962
595296430.0 0.037728009 -0.0356210051 0.2484987375 -0.7551949367 0.248835257 -0.7552492813 0.0375258659 -0.0373634589
600296400.0 0.0375565238 -0.0355029734 0.240765321 -0.7576939932 0.2410316221 -0.7579250798 0.0371197344 -0.0375175502
605296370.0 0.0361260797 -0.0358159275 0.2333684111 -0.7603304501 0.2324529947 -0.7603145058 0.0363896712 -0.0374075544
610296340.0 0.0363081317 -0.0356228248 0.2241668152 -0.7618652681 0.2247519578 -0.7623750237 0.0354592763 -0.0379723728
615296310.0 0.0359772502 -0.0361978015 0.2162684986 -0.7652636784 0.2154834771 -0.7653942009 0.0353528819 -0.0379168026
620296280.0 0.0348635226 -0.0362191798 0.2072627395 -0.7677493302 0.2071966945 -0.7671103137 0.0344115513 -0.0383024958
625296250.0 0.0345589517 -0.0364399828 0.1992878773 -0.7698763078 0.1996347636 -0.7698422644 0.0335494041 -0.0389054786
630296220.0 0.0341821714 -0.0365941579 0.1902145237 -0.7721715891 0.1907408102 -0.7716718931 0.0336581018 -0.0391690075
635296190.0 0.0331001679 -0.0368431005 0.1822736864 -0.7738424819 0.1826999268 -0.7735940492 0.0331162647 -0.0395133518
640296160.0 0.0328855417 -0.0370184218 0.1736797034 -0.7762102988 0.1737689635 -0.7756832704 0.0318515028 -0.0399136458
645296130.0 0.0329579767 -0.0366484455 0.1649830348 -0.7775214547 0.1655921028 -0.7773537329 0.0313324048 -0.0406023843
650296100.0 0.0321288759 -0.0373971033 0.156889768 -0.7797719338 0.156761055 -0.7796248985 0.0317999939 -0.0405214301
655296070.0 0.0314982907 -0.0374354989 0.1479852528 -0.7813645091 0.1486313067 -0.78077338 0.0302727488 -0.0405679977
660296040.0 0.0310564017 -0.0374257448 0.1399622636 -0.7832556701 0.1401396881 -0.7827785684 0.0297993103 -0.0414236797
665296010.0 0.0305656231 -0.037751733 0.130432485 -0.7840124134 0.1311889679 -0.7838567126 0.0297521463 -0.0413631863
670295980.0 0.0302289792 -0.0379212417 0.122538926 -0.7858611468 0.1222918101 -0.7847489198 0.0284267899 -0.0416784466
675295950.0 0.0295188442 -0.0379423199 0.1138207425 -0.7868674148 0.114224643 -0.7867738971 0.0279697075 -0.0415119913
680295920.0 0.0289564516 -0.0378486974 0.1055093745 -0.7878730631 0.1060377486 -0.7874765685 0.0278023724 -0.0421288593
685295890.0 0.0286474875 -0.0379372991 0.096146022 -0.789400473 0.0972359568 -0.7890885602 0.0270770438 -0.041677372
690295860.0 0.0276036134 -0.0376194633 0.0879453571 -0.7899328058 0.0877230099 -0.7901947735 0.0264248812 -0.0424496335
695295830.0 0.0273748175 -0.0384515663 0.0797594678 -0.7912299047 0.0799627376 -0.7908840982 0.0256734321 -0.0422161691
700295800.0 0.026750543 -0.0380844566 0.0717405782 -0.7917199206 0.0710773028 -0.7916785459 0.0247566602 -0.0422484095
705295770.0 0.0259907852 -0.0381917653 0.0627778723 -0.793033907 0.0627524583 -0.7922165162 0.0241938199 -0.042481695
710295740.0 0.0254821173 -0.038635774 0.0541329853 -0.7934759769 0.0541545576 -0.7933852601 0.0240733656 -0.0426175779
715295710.0 0.0248732581 -0.0381234561 0.0454714873 -0.7939108103 0.0452759976 -0.7936613475 0.0232979656 -0.0427826622
720295680.0 0.0248921591 -0.038242364 0.0365763165 -0.7942054664 0.0367256302 -0.794364417 0.0224166339 -0.0429645648
725295650.0 0.023202334 -0.0381593011 0.0287329849 -0.7943078381 0.0283188359 -0.7944532076 0.0215701811 -0.0426007275
730295620.0 0.0222241195 -0.0387068898 0.0190184113 -0.7944429901 0.0197501763 -0.7935919217 0.0211147375 -0.0421442496
735295590.0 0.0225010693 -0.0386297043 0.0104393548 -0.794821584 0.011089952 -0.7949810455 0.0198915774 -0.0432921546
740295560.0 0.0218583129 -0.0386847149 0.0020638316 -0.7955211848 0.0025434027 -0.7949766255 0.0191923763 -0.0426202563
745295530.0 0.0210490241 -0.0382540505 -0.0062538088 -0.7938734624 -0.0056473308 -0.7944493137 0.0179766806 -0.0430224286
750295500.0 0.0199827281 -0.038260726 -0.0147708464 -0.79447647 -0.0151191157 -0.7947277265 0.0176306942 -0.0429356232
755295470.0 0.0192877809 -0.0383410673 -0.0233141193 -0.7949917447 -0.022744348 -0.7947091256 0.017522067 -0.0424817137
760295440.0 0.0189839581 -0.0377376535 -0.0327518692 -0.7939978462 -0.0321263788 -0.79357489 0.0169303618 -0.0437363134
765295410.0 0.018872378 -0.0385145366 -0.0409424935 -0.7936945048 -0.0401993792 -0.7934680744 0.0162416023 -0.0433790062
770295380.0 0.0179055497 -0.0380983808 -0.0489755785 -0.7925949295 -0.0490077586 -0.7933398898 0.0151469624 -0.0428785364
775295350.0 0.0170695531 -0.0382824451 -0.0581278247 -0.7927588572 -0.0579407312 -0.7917918166 0.0149461328 -0.0428630893
780295320.0 0.0162270874 -0.0379352915 -0.0665372278 -0.7914401236 -0.0659854207 -0.7915925895 0.0145778552 -0.043387394
785295290.0 0.0155376643 -0.0380920471 -0.0751552489 -0.7908517533 -0.0750511683 -0.7911958134 0.0128558654 -0.0424614758
790295260.0 0.0153972735 -0.0385693749 -0.0830206285 -0.7907743131 -0.0833592915 -0.7900124132 0.0124413497 -0.0421138852
795295230.0 0.014635315 -0.0384036398 -0.0921983744 -0.7897697699 -0.0919638646 -0.789434705 0.0123822626 -0.0432118553
800295200.0 0.0135510681 -0.037911395 -0.100343843 -0.7876493615 -0.1006427978 -0.7880275582 0.011089084 -0.042480886
805295170.0 0.0128223988 -0.0379994988 -0.1090884935 -0.7871895705 -0.1088006822 -0.7866410979 0.0116332927 -0.0420449464
810295140.0 0.0126629536 -0.0378491762 -0.118103576 -0.7858045634 -0.1177163906 -0.785915581 0.0103528154 -0.0425931041
815295110.0 0.0118709456 -0.0377740684 -0.1261444691 -0.7846957547 -0.125411589 -0.7842877576 0.0097074824 -0.0424209444
820295080.0 0.0113929827 -0.0378197575 -0.1342770989 -0.7817860341 -0.1340270878 -0.7831118958 0.0077863999 -0.0414021161
825295050.0 0.0105236729 -0.0376702369 -0.1433473976 -0.7815099988 -0.1424451047 -0.7810390237 0.0085273098 -0.0411747836
830295020.0 0.0099950206 -0.0376325118 -0.1513366913 -0.77953992 -0.151537904 -0.7800044853 0.0078383855 -0.0418659763
