!Created with skrf (http://scikit-rf.org).
# Hz S RI R 50.0 
!freq ReS11 ImS11 ReS21 ImS21 ReS12 ImS12 ReS22 ImS22
300000.0 -0.2346206347 -0.1084290902 0.4663190513 0.0723324006 0.4707328372 0.073805878 -0.2387520368 -0.1137350089
5299970.0 -0.2408741597 0.006932034 0.4749823447 0.0053878659 0.4749868268 0.0056471345 -0.2445919944 0.0054856458
10299940.0 -0.2371861056 0.0199696685 0.4774278992 0.0063500774 0.4772000998 0.0062699184 -0.2416691231 0.0174637302
15299910.0 -0.2329519955 0.02985431 0.4805140905 0.0075946367 0.4804317686 0.0078068191 -0.2374663748 0.0262659944
20299880.0 -0.2274099971 0.0380010999 0.4853261687 0.0078054436 0.4856052101 0.0081833667 -0.2329467403 0.0339410758
25299850.0 -0.2217258745 0.0442261175 0.490448821 0.0068155009 0.4905410585 0.0065394934 -0.2278761991 0.0399717092
30299820.0 -0.2158227752 0.0496653986 0.4965402788 0.0048834189 0.4957745707 0.0046833785 -0.2227541817 0.044793886
35299790.0 -0.2099341943 0.0540487848 0.5012504677 0.0016736332 0.5013602495 0.0018147708 -0.217284839 0.0485790737
40299760.0 -0.2045031276 0.0568694892 0.5064767814 -0.0018443817 0.5065329046 -0.0022558734 -0.2129118835 0.0519628172
45299730.0 -0.1994220365 0.060210444 0.5110738676 -0.0073761082 0.5108485607 -0.0070389 -0.2079762694 0.0543708244
50299700.0 -0.1945780523 0.0621413806 0.5146396939 -0.0128919824 0.5151284867 -0.0129957618 -0.2035105236 0.0566014227
55299670.0 -0.190653525 0.0636694437 0.5185744426 -0.0186096297 0.5190528373 -0.0186550884 -0.2002069973 0.0581013068
60299640.0 -0.1865134018 0.0649418676 0.5217219021 -0.0252398157 0.5220468287 -0.0247253656 -0.1962043112 0.059635217
65299610.0 -0.1831513406 0.066362076 0.5250154779 -0.0306848086 0.5251474035 -0.031324779 -0.1927518742 0.0607432253
70299580.0 -0.1796391792 0.0670813125 0.5271243181 -0.0374484989 0.5272585813 -0.0379386279 -0.1900939815 0.0616748284
75299550.0 -0.1764788764 0.0682483806 0.5288619937 -0.0444175017 0.5290400592 -0.0448344975 -0.1874490528 0.0625699725
80299520.0 -0.1739436172 0.0690764047 0.5312193228 -0.0516444709 0.5312745954 -0.0515531903 -0.1847163554 0.0629033825
85299490.0 -0.1716272922 0.0694350969 0.5325715999 -0.0582870111 0.5325686221 -0.0585892598 -0.1825426062 0.0640110392
90299460.0 -0.1692328388 0.0702526833 0.5335820263 -0.0649423375 0.5336441051 -0.0652154796 -0.1801842051 0.0645350227
95299430.0 -0.1673036979 0.0712694961 0.5345733082 -0.0725735551 0.5343815312 -0.0721987859 -0.1785956857 0.0652413278
100299400.0 -0.1654507424 0.0718761632 0.534736041 -0.079199663 0.5344675435 -0.0792822622 -0.1771055972 0.0652702365
105299370.0 -0.1634545103 0.0720572687 0.5347139624 -0.0856678495 0.5351436106 -0.085847218 -0.1749824226 0.0661187365
110299340.0 -0.1619555608 0.0730276725 0.535229509 -0.0923797984 0.5353277374 -0.0933423177 -0.1737691205 0.0671048703
115299310.0 -0.1602394381 0.0735845067 0.5349122724 -0.0991781712 0.5356422811 -0.0998233683 -0.1723122675 0.0674968535
120299280.0 -0.1590557387 0.0741934741 0.5350924048 -0.1062214519 0.5347918798 -0.106311253 -0.171324152 0.0679552806
125299250.0 -0.1580939459 0.0752250384 0.5346282409 -0.1128905204 0.5343657498 -0.1132160479 -0.1696034377 0.0683538554
130299220.0 -0.1565752482 0.0760257727 0.5339813231 -0.1193299868 0.5338378083 -0.1198491245 -0.169089364 0.0697238873
135299190.0 -0.1551900484 0.0766983203 0.5331480466 -0.126155313 0.532910441 -0.1262205598 -0.1680233655 0.0700819457
140299160.0 -0.1543484772 0.0781764951 0.5323701536 -0.1332764801 0.5326040775 -0.1332485436 -0.1666762964 0.0711859877
145299130.0 -0.1530806734 0.0789395858 0.5316355901 -0.1397825927 0.5314516163 -0.1391252873 -0.1664820545 0.071540103
150299100.0 -0.1520456629 0.079868487 0.5303849039 -0.1460345816 0.5302411066 -0.1459845158 -0.1652364397 0.0724123471
155299070.0 -0.1512992496 0.0813366891 0.5295554556 -0.1527939213 0.5289550901 -0.1527361749 -0.1644187782 0.0734095446
160299040.0 -0.1500934859 0.0821551743 0.5273967673 -0.1587138909 0.5283548537 -0.1587421953 -0.1637136553 0.0747142031
165299010.0 -0.1492892628 0.0830586816 0.5267702872 -0.1656150488 0.5267767069 -0.1658161525 -0.1628271579 0.0754825669
170298980.0 -0.1483065256 0.0844451565 0.5242404198 -0.1719481142 0.5246320549 -0.1716428078 -0.1616215305 0.0767192937
175298950.0 -0.1474848863 0.0855555814 0.5237684904 -0.1779292779 0.523159684 -0.1781456365 -0.1608886432 0.0777312187
180298920.0 -0.1463831639 0.0866797116 0.5218222294 -0.1845948412 0.5215397596 -0.1842776547 -0.1601417122 0.0786777956
185298890.0 -0.1451713071 0.0879271915 0.5191030707 -0.1906482823 0.5198199546 -0.1905431734 -0.1598737503 0.0797321756
190298860.0 -0.1445203829 0.0891057266 0.5175905652 -0.1969191485 0.5179192699 -0.1969858094 -0.1583970692 0.0809005433
195298830.0 -0.1434003521 0.0901422339 0.5155379193 -0.2025961663 0.5155218891 -0.2031357061 -0.1577810386 0.0818167155
200298800.0 -0.1427734025 0.0916738753 0.5141756778 -0.2083687022 0.5139181779 -0.2086596503 -0.1569745634 0.083099629
205298770.0 -0.1417197295 0.0930144472 0.5115268494 -0.214915989 0.5118111862 -0.2151258036 -0.1565402126 0.0840463665
210298740.0 -0.1408274162 0.0942659512 0.5093291714 -0.2211905864 0.5092971786 -0.2213246372 -0.1555612447 0.0854423558
215298710.0 -0.1397727564 0.095625545 0.5070813226 -0.2267310035 0.5068457155 -0.2268111603 -0.1551255036 0.0867305122
220298680.0 -0.138793839 0.096869366 0.5044073203 -0.232794708 0.504677535 -0.232941942 -0.1539529243 0.0880840758
225298650.0 -0.1377515043 0.0987334558 0.501853998 -0.2385733777 0.5019441532 -0.2384154297 -0.1537689825 0.089332861
230298620.0 -0.1370133642 0.0998752109 0.4997856991 -0.244436646 0.4998228359 -0.2442969116 -0.1524467968 0.0904896673
235298590.0 -0.1358740308 0.1010179516 0.4970080978 -0.250012678 0.4970698158 -0.2501402929 -0.1516377948 0.0915632394
240298560.0 -0.1351077518 0.1025578273 0.4945062562 -0.2557638305 0.4943763912 -0.2555431075 -0.1508402648 0.0931394369
245298530.0 -0.13396635 0.1038789689 0.4911202155 -0.2616617429 0.4915081614 -0.2616410349 -0.149950992 0.0946373728
250298500.0 -0.1329001383 0.1050694968 0.4885183554 -0.2667347896 0.48856623 -0.2667388154 -0.1487881301 0.0956621584
255298470.0 -0.1320792241 0.1066136203 0.4856306016 -0.2730572661 0.4858688741 -0.272931084 -0.1482664116 0.0968933817
260298440.0 -0.1308128342 0.108195689 0.4830334676 -0.2779316716 0.4826547831 -0.2785166013 -0.1469656958 0.0984069023
265298410.0 -0.1296001736 0.109731388 0.4799967765 -0.2839809139 0.4795486153 -0.2838833462 -0.1464167757 0.0995535381
270298380.0 -0.1282169436 0.1109661196 0.4763010447 -0.2891032154 0.47668305 -0.2892266565 -0.1453105988 0.1009554701
275298350.0 -0.1273752564 0.1123542606 0.4731601345 -0.2953948075 0.4736317022 -0.2950030882 -0.1443761453 0.1025333988
280298320.0 -0.1263520447 0.1139004861 0.4704493733 -0.2995563312 0.4702167401 -0.3000898098 -0.1435388434 0.1037572366
285298290.0 -0.1248225955 0.1155659965 0.4669437674 -0.3050130367 0.4672339158 -0.3053743759 -0.1423811667 0.1051873149
290298260.0 -0.1237361448 0.116802551 0.4637373763 -0.3106270582 0.4636518207 -0.3109208281 -0.1411630101 0.1067674399
295298230.0 -0.1223672193 0.1181692854 0.4603847381 -0.3155511109 0.4601903476 -0.3159901548 -0.1400515114 0.1080395655
300298200.0 -0.12079969 0.1194611173 0.4567234452 -0.3212154047 0.457250713 -0.32143643 -0.1393990361 0.1093817141
305298170.0 -0.1196103512 0.1204244186 0.4536600111 -0.3264730689 0.4536589818 -0.3264931894 -0.137977211 0.1110154541
310298140.0 -0.1182976043 0.1217798515 0.450185923 -0.3317311336 0.450400096 -0.3319503902 -0.1371047041 0.1124610206
315298110.0 -0.1172475013 0.1232584449 0.4464053061 -0.33686281 0.4462224804 -0.3370950902 -0.1358671442 0.1133067558
320298080.0 -0.1157080723 0.1245631553 0.4427455683 -0.3424018305 0.4427256971 -0.3420138468 -0.1349381852 0.1145077844
325298050.0 -0.114578455 0.12573458 0.4391442507 -0.3472995983 0.4389235411 -0.3473261824 -0.1339026562 0.1157288893
330298020.0 -0.1134533795 0.1270168601 0.434183534 -0.3518747299 0.4343491187 -0.3521381342 -0.1330847274 0.1168604141
335297990.0 -0.1123724246 0.1280275583 0.4305040693 -0.3568809193 0.4305538612 -0.3571560079 -0.1321073147 0.1186820358
340297960.0 -0.111412665 0.1299244493 0.4263287057 -0.3619276813 0.4269949697 -0.3614232817 -0.1311354597 0.1202005363
345297930.0 -0.1102426938 0.1312137856 0.4224471865 -0.3658439624 0.4219774071 -0.3661469486 -0.1296403253 0.1209026604
350297900.0 -0.1082712725 0.1324995069 0.4180657779 -0.3704114454 0.4184961904 -0.3708726008 -0.1289658347 0.1226893407
355297870.0 -0.1070053847 0.1335712674 0.4136817599 -0.3753598797 0.4145553716 -0.3757767376 -0.1281093522 0.1245690307
360297840.0 -0.1056563141 0.1351524823 0.4102038856 -0.380368466 0.4097261078 -0.3800630652 -0.1267159357 0.125982086
365297810.0 -0.1040766388 0.1365811744 0.4055724266 -0.3845440821 0.4056428657 -0.3846647063 -0.1255533567 0.1275389576
370297780.0 -0.1028010191 0.1374669012 0.4013908938 -0.3888051057 0.4014671926 -0.389315531 -0.1238974393 0.1287957215
375297750.0 -0.1013059407 0.1391997879 0.3973945987 -0.3935553239 0.3969700368 -0.3936507779 -0.1228484572 0.1303363102
380297720.0 -0.0994481501 0.1401816922 0.3928964747 -0.3972010483 0.3930559595 -0.3975930422 -0.1219777583 0.1313434872
385297690.0 -0.0981195687 0.1415389406 0.3883249274 -0.4017824254 0.3884805774 -0.4020966877 -0.1205814749 0.1331014495
390297660.0 -0.0968762121 0.1429596378 0.3840077389 -0.406645396 0.3842217117 -0.4067682692 -0.1192578111 0.1340043176
395297630.0 -0.0948517907 0.1437343154 0.3797255599 -0.4101213639 0.3797934415 -0.4106010978 -0.1182467719 0.1358062938
400297600.0 -0.0935576504 0.1452328969 0.3750140078 -0.4145946495 0.3753668072 -0.4147178843 -0.1173020101 0.1368419973
405297570.0 -0.0919118593 0.14643078 0.3708666221 -0.4188543474 0.3707699065 -0.4193161295 -0.1157828511 0.138732597
410297540.0 -0.0903183447 0.1476667504 0.365433003 -0.4225856177 0.365537627 -0.4226121264 -0.1142502489 0.1395775389
415297510.0 -0.088568571 0.1490589462 0.3615427742 -0.4264311911 0.3614917087 -0.4265533804 -0.1133500963 0.141218561
420297480.0 -0.0869630816 0.149616878 0.3563772048 -0.4307371914 0.3563575885 -0.4310473007 -0.1114770694 0.142052798
425297450.0 -0.0845154106 0.1507165097 0.3513543784 -0.434592322 0.3522353043 -0.4345595678 -0.1102618073 0.1439749863
430297420.0 -0.0835156793 0.1521665238 0.3470945211 -0.4390430724 0.3471971921 -0.4386704968 -0.109371395 0.1448603784
435297390.0 -0.0816599712 0.1530183703 0.3422477547 -0.4419208449 0.3421381917 -0.4418406608 -0.1076420641 0.1464448144
440297360.0 -0.0799348032 0.1539976081 0.3368993453 -0.4453792827 0.3368349386 -0.4457383135 -0.1064267004 0.1473767215
445297330.0 -0.0782174862 0.154901921 0.3320127718 -0.44980584 0.3321801881 -0.449494979 -0.1048656017 0.1484484255
450297300.0 -0.0764606605 0.1562544246 0.3273031697 -0.4530783956 0.3275656513 -0.4533280337 -0.1037494576 0.1499936344
455297270.0 -0.0750013262 0.1571344766 0.3228467773 -0.4565861997 0.3228159022 -0.4566240371 -0.1019268839 0.1512614149
460297240.0 -0.0734294547 0.1580047591 0.3177182038 -0.4599855576 0.3169640015 -0.4601317785 -0.1003602214 0.1526892914
465297210.0 -0.0711492966 0.1588902357 0.3124781741 -0.46376879 0.3125887239 -0.4636549423 -0.0997015296 0.1535000671
470297180.0 -0.0694948184 0.1597316197 0.3077286934 -0.4664163723 0.3078807936 -0.4669976681 -0.0984516729 0.1546049907
475297150.0 -0.0679621486 0.1605002809 0.3020226882 -0.4698288893 0.3024736708 -0.4694748188 -0.0962203557 0.1556237011
480297120.0 -0.0658952243 0.161372392 0.2970617777 -0.473317386 0.2974524129 -0.4732354686 -0.0952683145 0.1575366902
485297090.0 -0.063754221 0.1623505589 0.2919087459 -0.4763877807 0.2919268738 -0.4763319784 -0.0938597233 0.1578580677
490297060.0 -0.0621055724 0.1629492801 0.2867967693 -0.4798111383 0.2867883589 -0.4797668266 -0.092030789 0.1591095072
495297030.0 -0.0606259121 0.1641468719 0.2812914777 -0.4826935283 0.280991815 -0.4830667699 -0.0903930902 0.1601836367
500297000.0 -0.0586450309 0.1646130114 0.275987137 -0.4859593991 0.2762413052 -0.4857712711 -0.0894429867 0.1612939166
505296970.0 -0.0569043736 0.1657164114 0.2701837744 -0.4885756615 0.2707347983 -0.4884608578 -0.088171457 0.1625828285
510296940.0 -0.0548534905 0.1662221137 0.2653717419 -0.4915677161 0.2655708258 -0.4919726701 -0.0861379369 0.1638315472
515296910.0 -0.0533004485 0.1670810541 0.2597018155 -0.4942650927 0.2604324941 -0.4943867476 -0.0849891828 0.1646414869
520296880.0 -0.0511266837 0.1677492348 0.2549440657 -0.4973127027 0.2549789835 -0.4968270103 -0.0830945626 0.1656094485
525296850.0 -0.0492896418 0.1682958093 0.2492693918 -0.4998996816 0.2494779409 -0.4998693683 -0.0814365999 0.166261488
530296820.0 -0.0476339213 0.1688849679 0.2443709254 -0.5019619905 0.2440577077 -0.5024545704 -0.0803440344 0.1670282821
535296790.0 -0.0454864173 0.1698385644 0.2383807867 -0.5045153439 0.2383559177 -0.5048696609 -0.0784532511 0.1679863079
540296760.0 -0.0437658999 0.1702299082 0.2328892265 -0.5075831385 0.2327046114 -0.5078733948 -0.0773481179 0.1694420568
545296730.0 -0.0420928288 0.1711148424 0.2274982304 -0.5096394024 0.2271566846 -0.5101444047 -0.0755874706 0.1699838161
550296700.0 -0.0403274801 0.1716040213 0.2218407751 -0.5122561258 0.2221060639 -0.5126323774 -0.0741348661 0.1712055175
555296670.0 -0.0380532654 0.1719275131 0.216534115 -0.515051012 0.2164745121 -0.5152046805 -0.0723775943 0.1721682285
560296640.0 -0.0363786201 0.1724085588 0.2107331506 -0.5168105379 0.2106772248 -0.5169444166 -0.0704463027 0.1729181869
565296610.0 -0.0347645304 0.1730283178 0.2050204636 -0.5190686712 0.2049190345 -0.5192600178 -0.0691167151 0.1734656529
570296580.0 -0.0322388131 0.1735546941 0.1996488254 -0.5214628642 0.1997351812 -0.5216238684 -0.0673473512 0.175032877
575296550.0 -0.0303886757 0.1745554274 0.1935411471 -0.5236098758 0.1944581656 -0.5232291215 -0.0655660008 0.1753996729
580296520.0 -0.028460457 0.1746172436 0.1878876213 -0.5253706426 0.1880418766 -0.525376833 -0.0640109374 0.175915793
585296490.0 -0.0264761526 0.1749388639 0.1826730639 -0.5274678803 0.1827325563 -0.5277689607 -0.0626980753 0.1765804637
590296460.0 -0.0249312737 0.1752283793 0.1764971874 -0.529327917 0.1763516284 -0.5294549192 -0.0608608715 0.1776958473
595296430.0 -0.0226386661 0.1758506443 0.1712762836 -0.5312300838 0.1708186514 -0.5314995382 -0.0589912492 0.178267483
600296400.0 -0.0208844241 0.1763117315 0.1653210599 -0.532839119 0.1657673072 -0.5331543994 -0.0572539373 0.179120883
605296370.0 -0.0185847238 0.1769149722 0.1599785991 -0.5349589191 0.1593136016 -0.5348410141 -0.0556748025 0.1796207927
610296340.0 -0.0168368183 0.1771185145 0.1540331724 -0.5362870054 0.1541787466 -0.5370363979 -0.0539961679 0.1810483918
615296310.0 -0.0150277412 0.1775961953 0.1479722826 -0.5378447366 0.147909656 -0.5379810008 -0.0520822829 0.1813000435
620296280.0 -0.0127179269 0.1776125714 0.1421638241 -0.5393867274 0.1417801454 -0.5395242341 -0.0505667403 0.1812666543
625296250.0 -0.0108417237 0.177788664 0.1358385977 -0.5412300713 0.1361837095 -0.5410921006 -0.0488764979 0.1821121949
630296220.0 -0.0087939076 0.1783405503 0.1303167678 -0.5425506287 0.1309300423 -0.5424588532 -0.0472493854 0.183063179
635296190.0 -0.006756691 0.1781367775 0.1241842514 -0.5431881003 0.124401857 -0.5432617104 -0.0455617287 0.1835416073
640296160.0 -0.0049723156 0.1785693354 0.1188595634 -0.5449189225 0.1185570287 -0.5452290384 -0.0431167594 0.1843947448
645296130.0 -0.0031536673 0.1790555045 0.112995455 -0.5466843032 0.1126993298 -0.5461991684 -0.0423902254 0.184202485
650296100.0 -0.0008414256 0.1795318459 0.1073063083 -0.547348029 0.1071172607 -0.5472742325 -0.0401175545 0.1852915054
655296070.0 0.0007527425 0.1792105786 0.1008585165 -0.5485536924 0.1004416526 -0.5483371767 -0.0379329075 0.1858380065
660296040.0 0.0026261956 0.1799447859 0.095346497 -0.5492017106 0.0954647781 -0.5490519469 -0.0369626422 0.1861487004
665296010.0 0.0051933841 0.1796006629 0.0893003186 -0.550288166 0.0895415908 -0.5507188353 -0.0349400775 0.187247102
670295980.0 0.007353997 0.1799648144 0.0831757091 -0.551737886 0.0835203455 -0.5513040389 -0.0334202918 0.1869576107
675295950.0 0.0093532574 0.1800679495 0.0767230598 -0.5526369882 0.0773757812 -0.5525355226 -0.0313783908 0.1879070784
680295920.0 0.0110837765 0.1803831632 0.0711048243 -0.5535286066 0.0711286045 -0.5531459846 -0.0295627939 0.1882804557
685295890.0 0.0128069708 0.1801183446 0.0653036626 -0.5537197863 0.06527593 -0.5539943719 -0.0278683861 0.1888955377
690295860.0 0.0151613743 0.1800338529 0.0595248857 -0.5542756419 0.0589238057 -0.5541316703 -0.0255994111 0.1892241108
695295830.0 0.0176640337 0.1798060437 0.0523980402 -0.5546007751 0.0531976501 -0.5547464933 -0.0243074316 0.1894818136
700295800.0 0.0195252677 0.1798715588 0.0472494328 -0.5552372198 0.0473120934 -0.5560879655 -0.0222260077 0.1894615247
705295770.0 0.0215210289 0.1798240793 0.0413660905 -0.5557902383 0.0414780826 -0.5559681947 -0.0207423181 0.1904265768
710295740.0 0.0234920262 0.179669007 0.0351550425 -0.5561910672 0.0352556505 -0.5558929536 -0.0193187478 0.1910078778
715295710.0 0.0252352249 0.1798004987 0.0292122159 -0.5565033618 0.0294244061 -0.5563263214 -0.0171459333 0.1905206803
720295680.0 0.0273391917 0.1792774353 0.0229856119 -0.5564738913 0.0235764332 -0.5570636307 -0.0149559904 0.1910847955
725295650.0 0.0296772782 0.1795102884 0.0167615592 -0.5568408959 0.0172706371 -0.5568792804 -0.0130783728 0.191714748
730295620.0 0.0310772095 0.1788670974 0.0111437091 -0.5568853448 0.0114994485 -0.5573259787 -0.0111832827 0.1912421729
735295590.0 0.033983185 0.178983813 0.0051977475 -0.5571033102 0.0057614403 -0.5574639069 -0.0093381388 0.1922349932
740295560.0 0.0352125367 0.1789313902 -0.0005549918 -0.5568123274 -0.0007952444 -0.5571476178 -0.0074203541 0.192401233
745295530.0 0.0372814841 0.178271603 -0.0068820218 -0.5568559825 -0.006732359 -0.5573420931 -0.0059409312 0.1923697772
750295500.0 0.0394734798 0.178136563 -0.0126481786 -0.5563889331 -0.0126678561 -0.5566176933 -0.003680645 0.1922937882
755295470.0 0.0417677257 0.1780117935 -0.0187549386 -0.5567579179 -0.0185831848 -0.5568217285 -0.0022578757 0.1928544547
760295440.0 0.0435710686 0.1776188715 -0.0252504167 -0.5565769407 -0.0244733134 -0.5565673383 -0.0007372892 0.1932313735
765295410.0 0.0452275309 0.1772973838 -0.030175465 -0.5555694814 -0.0305881111 -0.5563341984 0.0019759774 0.1936701632
770295380.0 0.0477285164 0.1771359437 -0.0365298356 -0.5553769745 -0.0363278254 -0.5560934142 0.0037207627 0.1934193624
775295350.0 0.0496164057 0.1767293585 -0.0427842174 -0.5549380113 -0.0424933114 -0.555417589 0.0050253964 0.1928288436
780295320.0 0.051557866 0.1762348846 -0.0482237538 -0.5547255983 -0.0481917693 -0.5549208007 0.0068012231 0.1938828135
785295290.0 0.0532230474 0.1760287794 -0.0540880215 -0.5539492506 -0.0543974081 -0.5542393333 0.0088189732 0.1937511832
790295260.0 0.0552201395 0.1755961778 -0.0605802298 -0.5535711995 -0.0606239038 -0.5537452895 0.0112449933 0.1935852047
795295230.0 0.0571413096 0.1753362705 -0.0659140902 -0.5526149053 -0.0662505495 -0.5529501645 0.0128352394 0.1941636484
800295200.0 0.059513364 0.1745631641 -0.073043914 -0.5520001846 -0.0726422383 -0.5524418883 0.0145836221 0.1939653155
805295170.0 0.0611758256 0.173988909 -0.0781694089 -0.5504488115 -0.0779642256 -0.5510491185 0.0163002949 0.1936254903
810295140.0 0.0629006476 0.1735868597 -0.0836840305 -0.5500782559 -0.0837876185 -0.5507316247 0.0185671056 0.1941826431
815295110.0 0.0651828715 0.1728009733 -0.0904918287 -0.5490077917 -0.0902766397 -0.549575671 0.0201633286 0.1935665311
820295080.0 0.067261362 0.1719523832 -0.0958357434 -0.5483969652 -0.0961956056 -0.5486052625 0.0217428603 0.193889147
825295050.0 0.0690015003 0.1715285209 -0.1019914007 -0.5465138626 -0.1017005711 -0.5469588093 0.0242191637 0.1940078375
830295020.0 0.0708958546 0.1713512976 -0.1078312001 -0.5459383141 -0.1079401256 -0.5462257837 0.0256908248 0.1932377128
