!Created with skrf (http://scikit-rf.org).
# Hz S RI R 50.0 
!freq ReS11 ImS11 ReS21 ImS21 ReS12 ImS12 ReS22 ImS22
300000.0 -0.3195165651 -0.0749675774 0.375201748 0.0391087227 0.3731749039 0.0372427361 -0.3227359596 -0.0899815601
5299970.0 -0.3265012946 0.0045934824 0.3784032586 0.0023731695 0.3784415429 0.0023294563 -0.3244659113 0.0051701047
10299940.0 -0.3242627482 0.0132913293 0.3794205437 0.0022675107 0.3796937401 0.0022735345 -0.322152962 0.0161109918
15299910.0 -0.3214770373 0.020580311 0.3819317123 0.0021762312 0.3819778267 0.0020590299 -0.3187652658 0.0237679985
20299880.0 -0.3187902891 0.0260145082 0.3848270422 0.0019286124 0.3847967447 0.0017070054 -0.3156298824 0.0300660086
25299850.0 -0.3156411998 0.0315116825 0.3883740861 -0.0001418524 0.3883105675 0.0003928482 -0.3115472126 0.0356955499
30299820.0 -0.3130593709 0.0359485471 0.3919004709 -0.0022289221 0.3914830927 -0.0023039507 -0.3070788216 0.0408291037
35299790.0 -0.3100874299 0.039782749 0.3949404465 -0.0055438693 0.3948442236 -0.0053239948 -0.3039709606 0.0448501602
40299760.0 -0.3073874786 0.0435477437 0.3979200585 -0.0089618142 0.3982109413 -0.0086537451 -0.3004092087 0.0482127763
45299730.0 -0.304676545 0.0463492708 0.4007447396 -0.0124938526 0.4009747576 -0.0126232974 -0.2974751551 0.051541578
50299700.0 -0.3026601196 0.0494095633 0.4038464885 -0.017481381 0.4037088378 -0.0169194094 -0.2945631229 0.054196422
55299670.0 -0.300518039 0.0518790338 0.4058105628 -0.0223328887 0.4055759228 -0.0221570759 -0.291628596 0.0568377185
60299640.0 -0.2978321613 0.0548508589 0.4075014797 -0.0271987903 0.407747352 -0.0267144141 -0.2890970583 0.0590705499
65299610.0 -0.2965171837 0.0573403308 0.4093403967 -0.0319842962 0.4092339194 -0.0318828313 -0.2872855046 0.0612789915
70299580.0 -0.2947096942 0.0600374895 0.4107005328 -0.0371812996 0.4105568255 -0.0366532026 -0.2850026178 0.0638439659
75299550.0 -0.2930078876 0.0624878037 0.4113371881 -0.0422104207 0.4114358347 -0.0421731796 -0.283209404 0.0655941146
80299520.0 -0.2915701836 0.0647850212 0.4124524975 -0.0474015687 0.412426732 -0.0474624854 -0.2812927311 0.0680549902
85299490.0 -0.2901697138 0.0666389607 0.4129869317 -0.052259259 0.4128339016 -0.0521105059 -0.2801037909 0.0697947965
90299460.0 -0.2887775065 0.0692664436 0.4128588545 -0.0576778788 0.4134024821 -0.0577471121 -0.2781924317 0.0721847864
95299430.0 -0.2874727028 0.0714288853 0.4136425875 -0.0627805731 0.4134446204 -0.0628613376 -0.2764590918 0.0744645785
100299400.0 -0.2863953605 0.0739122959 0.413301527 -0.068017759 0.4132299299 -0.0682503441 -0.2750206147 0.0762319752
105299370.0 -0.2852638782 0.0762617527 0.4133593052 -0.0733631456 0.4137191186 -0.0734709819 -0.2736180682 0.0783800378
110299340.0 -0.2837537345 0.0787164791 0.4131463105 -0.0783522845 0.4134612162 -0.078279288 -0.2727230792 0.080153341
115299310.0 -0.2829331507 0.081120668 0.4131256925 -0.0839175106 0.4129973873 -0.0834580534 -0.2716633173 0.0828318883
120299280.0 -0.2820175939 0.0829021532 0.4125308473 -0.0886532797 0.4123083613 -0.0885747147 -0.2703307899 0.0844620053
125299250.0 -0.2811835539 0.0854104079 0.4119357215 -0.093861598 0.412079132 -0.0937905891 -0.2697643254 0.0867235391
130299220.0 -0.2802984127 0.0883504415 0.4110763203 -0.099322699 0.4115167111 -0.0989013409 -0.2685413793 0.0889809447
135299190.0 -0.279383755 0.0905159666 0.4109704045 -0.1042858963 0.4107082146 -0.1037821758 -0.2674451484 0.0914075652
140299160.0 -0.2785754909 0.0930397075 0.4098214397 -0.1089103689 0.4099681134 -0.1086098349 -0.2666211542 0.0936972924
145299130.0 -0.2774306961 0.0956709106 0.4091410975 -0.1139269704 0.4088710112 -0.11405153 -0.2656691378 0.0960928516
150299100.0 -0.2765607174 0.09814411 0.4079367961 -0.1188429847 0.4080820026 -0.1181021205 -0.2647628364 0.0989131287
155299070.0 -0.2760345076 0.1005952241 0.4070849523 -0.123898676 0.4067384305 -0.1239476195 -0.2636794262 0.1010111605
160299040.0 -0.2747812507 0.1031393121 0.4054678989 -0.1282425428 0.4054362516 -0.1284903161 -0.2631425159 0.1031604295
165299010.0 -0.2740027973 0.106114471 0.4044869058 -0.1338983175 0.4043721475 -0.1334912525 -0.2618664634 0.105690091
170298980.0 -0.2729417958 0.1085402277 0.4027295435 -0.1381566763 0.4030409306 -0.1384691222 -0.2609729174 0.108103942
175298950.0 -0.2719492623 0.1114089551 0.4017615297 -0.1432478757 0.401482143 -0.143187495 -0.2599810673 0.1109499625
180298920.0 -0.2713783791 0.1141395206 0.4003685676 -0.1476452598 0.399989856 -0.1474528758 -0.2591504676 0.1131909891
185298890.0 -0.2695205417 0.1163691914 0.3984559098 -0.152688874 0.3985624935 -0.152364646 -0.2578618522 0.1157340548
190298860.0 -0.269077991 0.1191898435 0.3971042439 -0.1570964294 0.3971626584 -0.1572820733 -0.2567483096 0.1180997137
195298830.0 -0.2679931667 0.1215881559 0.3950799013 -0.161601017 0.3955481488 -0.1613495685 -0.2557489449 0.1205772916
200298800.0 -0.2665136043 0.1245662404 0.3937510446 -0.1667241073 0.3939325515 -0.1664507923 -0.2547703135 0.1231274979
205298770.0 -0.2657525429 0.1274150819 0.3917943027 -0.1712667806 0.3917347115 -0.1706796809 -0.2534689047 0.1249810061
210298740.0 -0.2643782431 0.1298421781 0.3898219085 -0.1755245445 0.3900177587 -0.1752219765 -0.2524570085 0.1282803389
215298710.0 -0.2634016852 0.1327312581 0.3880542146 -0.1798249731 0.3880707896 -0.1802658975 -0.2514944184 0.1308907611
220298680.0 -0.2622687149 0.1350216247 0.3855073435 -0.1846287312 0.3860022044 -0.1843418894 -0.2503321443 0.1328738444
225298650.0 -0.2611114427 0.138100158 0.3840885094 -0.1892657257 0.3842512239 -0.1887199405 -0.2494327212 0.1354081409
230298620.0 -0.2596166 0.1406042304 0.3822959502 -0.1930410798 0.3826431267 -0.1932817473 -0.2479585271 0.1383088515
235298590.0 -0.2584678724 0.1435192345 0.3798881224 -0.1976868099 0.380209731 -0.1973063623 -0.2463421978 0.1408098413
240298560.0 -0.2570883379 0.1462945701 0.3781159371 -0.2021532931 0.3777450565 -0.2021230617 -0.2450993339 0.1436413765
245298530.0 -0.2559843319 0.148750113 0.3759224094 -0.2064298811 0.3757995792 -0.2064645554 -0.2437711081 0.1456936854
250298500.0 -0.2541962363 0.1513465542 0.3726872785 -0.2109510542 0.3730007826 -0.2105208801 -0.2427251663 0.1483158932
255298470.0 -0.2529294849 0.1541245887 0.3704908864 -0.2145580815 0.3709711911 -0.2150984312 -0.2409910986 0.1511069103
260298440.0 -0.2517728799 0.1566705236 0.3689085221 -0.2195415354 0.368910537 -0.2190940397 -0.2397707333 0.1533698295
265298410.0 -0.2499157555 0.1599375886 0.3659460029 -0.2234059553 0.3664287544 -0.2229327967 -0.2385127749 0.156079552
270298380.0 -0.2487147384 0.1624222531 0.3641686245 -0.2274034249 0.3639178151 -0.2273381254 -0.2367049911 0.1587074486
275298350.0 -0.2470478958 0.1653003775 0.3613597549 -0.2318407725 0.3612811775 -0.2314084422 -0.2351390738 0.1609649069
280298320.0 -0.2451018591 0.167503485 0.3590055306 -0.235596753 0.3589065944 -0.2355085916 -0.2334735343 0.1638554122
285298290.0 -0.2437934071 0.1706197332 0.3562213401 -0.2395433685 0.3562700085 -0.239684035 -0.2317041988 0.1662268004
290298260.0 -0.2417853058 0.1731912534 0.3534006286 -0.2436774697 0.3536830795 -0.2438661552 -0.230333937 0.1691905311
295298230.0 -0.240065217 0.1756001694 0.3508987778 -0.2479298692 0.3510925913 -0.2474972489 -0.2283394757 0.1710190398
300298200.0 -0.2387625819 0.1783363744 0.3484295903 -0.2516401988 0.3483952161 -0.2515801365 -0.2269599996 0.1737706579
305298170.0 -0.236695057 0.1805725336 0.3451239125 -0.2557540302 0.3457141057 -0.2556014645 -0.2246761364 0.1761162236
310298140.0 -0.2352460157 0.1835609413 0.3427738767 -0.2597220962 0.342481587 -0.2592084286 -0.2230480013 0.1785471022
315298110.0 -0.2329818104 0.1858171545 0.3396031825 -0.2633146369 0.3398166335 -0.2636867066 -0.2215704663 0.1807157604
320298080.0 -0.2312210739 0.1883079845 0.3364165409 -0.2676255872 0.3367857702 -0.2674571984 -0.2200560363 0.1836465471
325298050.0 -0.2295103802 0.1905734086 0.3336640796 -0.2709391404 0.3335826243 -0.2710872285 -0.2184857509 0.1857826211
330298020.0 -0.2276820799 0.193256058 0.3302133495 -0.275196891 0.3308179466 -0.2747202942 -0.2164445828 0.1879920347
335297990.0 -0.2256201654 0.195698877 0.3270448054 -0.2781148031 0.3272980005 -0.2787675295 -0.2151822029 0.1909271133
340297960.0 -0.2245686033 0.1983227283 0.3241987957 -0.2822951114 0.3241263383 -0.2824405499 -0.2128128769 0.1932798615
345297930.0 -0.2222290516 0.2007722952 0.3207287061 -0.2858051024 0.3205333716 -0.2856354861 -0.2110859557 0.195281667
350297900.0 -0.2202559927 0.2032357884 0.3173644066 -0.2890767632 0.3176925286 -0.2893611443 -0.2094219926 0.1980148872
355297870.0 -0.2179856976 0.2059716601 0.3141955819 -0.2927112778 0.3146530841 -0.292566728 -0.2076370922 0.2002684573
360297840.0 -0.2159727223 0.2082992391 0.3114225366 -0.2963416708 0.3115718548 -0.2960798785 -0.2053038206 0.2025442619
365297810.0 -0.2146517992 0.2110847362 0.3081632779 -0.2998692902 0.3083129395 -0.2995946556 -0.2032768599 0.2050254277
370297780.0 -0.2119138665 0.2130621751 0.3044691346 -0.3028375071 0.3047393093 -0.3027910711 -0.2011635887 0.2074840898
375297750.0 -0.2094967521 0.2156037679 0.3014136768 -0.3061755353 0.301530147 -0.306429345 -0.1992199852 0.2093211133
380297720.0 -0.2073188838 0.217936778 0.2975862879 -0.3097713724 0.2982131311 -0.3088977994 -0.1976677296 0.211540798
385297690.0 -0.2055091325 0.2202614835 0.294118446 -0.312661731 0.2944077032 -0.3127680456 -0.1950652033 0.2139045771
390297660.0 -0.2036500848 0.2226714703 0.2908398822 -0.3161928763 0.2910008205 -0.3155121687 -0.1928208428 0.2161881489
395297630.0 -0.2009780273 0.2251149094 0.2872420248 -0.3191333775 0.2874337027 -0.3191452642 -0.1902843327 0.2184390551
400297600.0 -0.1986140741 0.2272513428 0.2834949685 -0.3225111193 0.2841301251 -0.3226049878 -0.188475598 0.2205907592
405297570.0 -0.1965105775 0.2292125736 0.2802482562 -0.3250791431 0.2802868072 -0.3251713131 -0.1860889075 0.2226692073
410297540.0 -0.1938583355 0.2316826725 0.2769148227 -0.3284506593 0.2769795204 -0.3283526386 -0.1837371843 0.2249522703
415297510.0 -0.1917261037 0.2336952956 0.2729786482 -0.3316886357 0.2731753621 -0.3314241819 -0.1817318043 0.2269371381
420297480.0 -0.1895508866 0.2362756274 0.2692265034 -0.3344552926 0.2691449923 -0.3344892353 -0.1790646841 0.2290066111
425297450.0 -0.1865541963 0.2381320918 0.2657561863 -0.3372689819 0.2662816716 -0.3377092864 -0.1771573861 0.2313708394
430297420.0 -0.1843636573 0.2402106786 0.2622099096 -0.3396653485 0.2623016006 -0.3399914977 -0.1747183476 0.2329966564
435297390.0 -0.1819851867 0.2425106623 0.2576222945 -0.3429240585 0.2581917322 -0.3431123204 -0.1717211677 0.2351056023
440297360.0 -0.1794151401 0.2445436667 0.2543370408 -0.3458276419 0.2546146961 -0.3461298673 -0.1697636339 0.2369710134
445297330.0 -0.1770068693 0.2466056247 0.2505523192 -0.3484159595 0.2508792177 -0.3482564626 -0.1672796735 0.238622632
450297300.0 -0.1742276615 0.2485109957 0.246727237 -0.3514770448 0.2468920907 -0.3514575435 -0.1645227416 0.2407361096
455297270.0 -0.1718334803 0.2506973024 0.2427119141 -0.3540032503 0.2429195027 -0.3539808806 -0.1624904298 0.2426499592
460297240.0 -0.1693156049 0.2525388358 0.2386872856 -0.3564796908 0.238860377 -0.3564613406 -0.1598804698 0.2448779038
465297210.0 -0.1663833554 0.2545056317 0.2350382293 -0.3589208204 0.2349150483 -0.3596534006 -0.1571046995 0.2464552522
470297180.0 -0.1635870271 0.2563137622 0.2306204749 -0.3615961925 0.2309622173 -0.3617663109 -0.1543133846 0.2485369097
475297150.0 -0.1611842564 0.2578938822 0.2268788617 -0.3637900173 0.2270673395 -0.3637137435 -0.1517082983 0.2496179003
480297120.0 -0.1585357463 0.2600062364 0.2229123878 -0.3664806466 0.2227567446 -0.3666811947 -0.1491632049 0.2518585494
485297090.0 -0.1556211156 0.2621264036 0.219002486 -0.3688270944 0.2192602206 -0.3689278762 -0.1465082165 0.2536799787
490297060.0 -0.1531912004 0.2637456931 0.2149607776 -0.3711118007 0.2151849288 -0.3710224068 -0.144160417 0.2553282806
495297030.0 -0.1503085637 0.2653953491 0.2105961573 -0.3736840222 0.2109674339 -0.373406636 -0.1413048004 0.25736066
500297000.0 -0.1476299783 0.2672082776 0.206729388 -0.375471851 0.2065552104 -0.3753934675 -0.1384831667 0.2591444161
505296970.0 -0.1446329585 0.2687134094 0.2027988195 -0.3779900553 0.2021772933 -0.3780589889 -0.1359587651 0.2604368578
510296940.0 -0.1421339038 0.2705753345 0.1982795303 -0.380242271 0.1984315863 -0.3802129846 -0.132990262 0.2620820509
515296910.0 -0.1391153492 0.2722007615 0.1943466551 -0.3822565085 0.1943041121 -0.3822614276 -0.1304327755 0.2632466773
520296880.0 -0.1362772594 0.2739629971 0.1900549358 -0.3845398691 0.1899777346 -0.3841868198 -0.1277201394 0.2648996837
525296850.0 -0.1331382545 0.2751142961 0.1857549048 -0.3861573158 0.1858511915 -0.3865238627 -0.1251583921 0.2666916263
530296820.0 -0.1300860119 0.2768532335 0.1811783868 -0.3885494497 0.1816328631 -0.3882465876 -0.1222982431 0.2680932666
535296790.0 -0.127977131 0.2785582806 0.1774409453 -0.3901859023 0.1773673309 -0.3897966899 -0.1195783282 0.2688435872
540296760.0 -0.1249895421 0.2798401177 0.173246108 -0.392298744 0.1729291985 -0.3924648331 -0.1165613804 0.2708203867
545296730.0 -0.1218273129 0.2814327625 0.1684238806 -0.3936933153 0.1686890407 -0.3939207543 -0.1139668813 0.2721199299
550296700.0 -0.1187536239 0.2826762417 0.1643734755 -0.3957730059 0.1644399089 -0.3955911676 -0.1113355702 0.2733544648
555296670.0 -0.1158065311 0.2841668029 0.1604408749 -0.397528418 0.1605527708 -0.3972232062 -0.1081813871 0.2751904306
560296640.0 -0.1127852975 0.2858736899 0.1556942325 -0.3993331925 0.1558267069 -0.3990826274 -0.1051379507 0.276071137
565296610.0 -0.1101258492 0.2867462005 0.1511037399 -0.4008049514 0.1515250022 -0.4005218154 -0.1025578399 0.2770908163
570296580.0 -0.1072220538 0.2878209009 0.1472300006 -0.4025060558 0.1467982942 -0.402600132 -0.0997389793 0.2788042116
575296550.0 -0.1042465681 0.2897260792 0.1426057043 -0.4041110417 0.1425235362 -0.4038636291 -0.0963028825 0.2799626319
580296520.0 -0.1007373238 0.2907617886 0.138225958 -0.4057648994 0.1384070213 -0.4052993404 -0.0934912026 0.2807719155
585296490.0 -0.0984859506 0.29165091 0.1340735487 -0.4065795559 0.134054378 -0.4069204226 -0.0906077447 0.2821587826
590296460.0 -0.0949212621 0.2927460492 0.1294098718 -0.407938502 0.1296877114 -0.408154834 -0.0882744717 0.2833032053
595296430.0 -0.0918828427 0.2939467607 0.1247572684 -0.4095263695 0.1248185729 -0.4096435651 -0.0845865443 0.2839074362
600296400.0 -0.0888205853 0.2951732548 0.1202691711 -0.4110935248 0.1201524164 -0.4108510498 -0.0817055681 0.285427015
605296370.0 -0.0860923582 0.296279942 0.115980626 -0.4120205823 0.1161443196 -0.4120911894 -0.0786713061 0.2862847747
610296340.0 -0.0825872538 0.2970496864 0.111010062 -0.4131560947 0.1114367251 -0.4133003193 -0.0752220697 0.287372943
615296310.0 -0.0790737502 0.2981592211 0.1063146644 -0.4140747562 0.1068016614 -0.4146724155 -0.0722715186 0.2882734872
620296280.0 -0.0764731912 0.2990354826 0.1025122082 -0.4154479142 0.1021901978 -0.4153257217 -0.0699094508 0.2894317611
625296250.0 -0.0732390388 0.3000020733 0.0982413998 -0.4167761715 0.0978992583 -0.4169659194 -0.0661634196 0.2900631083
630296220.0 -0.0695156677 0.3010921994 0.0929503889 -0.4179875436 0.0931097657 -0.4176054318 -0.0631795796 0.2911480719
635296190.0 -0.0671169512 0.3020654493 0.0888585091 -0.4183651865 0.0886041617 -0.4184927535 -0.0602906406 0.2918390757
640296160.0 -0.0635159354 0.3026054535 0.0839798709 -0.4190174461 0.0845949438 -0.4193311134 -0.0572111032 0.2927327148
645296130.0 -0.0606318484 0.3036747562 0.0793062058 -0.4202506588 0.0797953488 -0.4202748063 -0.0542634877 0.2936156256
650296100.0 -0.0574297909 0.30413651 0.0750193394 -0.4209259787 0.0748507855 -0.4209157918 -0.0511219125 0.2939435535
655296070.0 -0.0541115739 0.3049559929 0.0703393992 -0.4216940652 0.0706490105 -0.4217307591 -0.0477646884 0.2947662237
660296040.0 -0.0513460177 0.3056169858 0.0660735776 -0.4223966971 0.0660266494 -0.4226170334 -0.0444659899 0.2955004097
665296010.0 -0.0473673908 0.3060153439 0.0608048938 -0.4229502258 0.061232741 -0.4233088875 -0.0414906073 0.2963156232
670295980.0 -0.0453262608 0.306974133 0.0568384337 -0.4234752204 0.0567536726 -0.4234255567 -0.0389768121 0.2969162234
675295950.0 -0.0414238186 0.3077397091 0.0522928106 -0.4243362104 0.052642086 -0.423733405 -0.0357768862 0.2973908534
680295920.0 -0.0383970203 0.3081938349 0.0474068237 -0.4244207949 0.0472407394 -0.4250423698 -0.0324093556 0.2983519419
685295890.0 -0.0349752849 0.3093939348 0.0429601898 -0.4254183063 0.0428017964 -0.4255481987 -0.0293192177 0.2985977811
690295860.0 -0.0318641332 0.3091387402 0.0383510582 -0.4250169995 0.0382703836 -0.4260444456 -0.0261508798 0.2994806385
695295830.0 -0.0287300758 0.3096403696 0.0338595495 -0.4253257609 0.0336529125 -0.4259196389 -0.0228421917 0.2992968704
700295800.0 -0.0255285613 0.3098481748 0.0289804034 -0.4258824071 0.0285604872 -0.4261895478 -0.020277604 0.3001184025
705295770.0 -0.0221423074 0.3107186528 0.0239561937 -0.4263053674 0.0247708016 -0.4266413236 -0.017290017 0.3008153653
710295740.0 -0.0187102933 0.311079398 0.0197444826 -0.4269707899 0.0201872251 -0.4269677555 -0.013820519 0.3004235027
715295710.0 -0.0160053561 0.310822084 0.0156647749 -0.4268042433 0.0150669366 -0.4266952352 -0.0107583366 0.3005104458
720295680.0 -0.0123689547 0.3113111554 0.0103768346 -0.4269369507 0.0109612399 -0.4271706641 -0.0072067033 0.3013762852
725295650.0 -0.0093927443 0.3117004892 0.006205095 -0.4269574916 0.006333242 -0.427102111 -0.0047345195 0.3015365168
730295620.0 -0.0057051486 0.3122371556 0.0011729868 -0.4264747194 0.0014833572 -0.4269257904 -0.0015186244 0.3013995194
735295590.0 -0.0027177797 0.312267236 -0.0033163182 -0.4269646265 -0.0034049059 -0.4268921974 0.0015305204 0.3013160242
740295560.0 0.0006112151 0.3123500678 -0.0077943012 -0.4265386402 -0.0077132288 -0.4271740826 0.0051298436 0.3016535023
745295530.0 0.0037069772 0.3127747825 -0.0126601907 -0.4265124742 -0.0124496536 -0.4270234223 0.0081288196 0.3016408938
750295500.0 0.0071744862 0.3126231733 -0.0170692978 -0.4261288192 -0.0166400903 -0.426613852 0.011587159 0.3018028161
755295470.0 0.0102776419 0.3125794438 -0.0211836302 -0.4262952596 -0.0214815108 -0.4262326575 0.0148100092 0.3012858985
760295440.0 0.0133152387 0.3125728817 -0.0262937505 -0.4263557749 -0.0264443924 -0.4262408674 0.0178656924 0.3016376705
765295410.0 0.0168834274 0.312758643 -0.0309240808 -0.4256692897 -0.0311510943 -0.4259419434 0.0214662104 0.3017179663
770295380.0 0.0200820426 0.3125788239 -0.0358005271 -0.4253929737 -0.0354970779 -0.4250324616 0.0242129375 0.3015377727
775295350.0 0.0230556877 0.3123421076 -0.0402681537 -0.4244568948 -0.0396195223 -0.4246174257 0.0269966421 0.3012870801
780295320.0 0.026327559 0.3122790352 -0.0445326444 -0.4238704946 -0.0442344307 -0.4241310652 0.0302965742 0.3010248677
785295290.0 0.0292869833 0.3118271313 -0.0494695136 -0.4234906352 -0.0491727212 -0.423612993 0.0339001583 0.3010592824
790295260.0 0.0333604262 0.3121473362 -0.0537735422 -0.4230769004 -0.0533758236 -0.422931575 0.0371683148 0.3010608558
795295230.0 0.0363275083 0.3116976295 -0.0585925234 -0.4223437298 -0.0581259321 -0.4227330079 0.0404055613 0.3009318769
800295200.0 0.0394339516 0.3119094063 -0.0631583226 -0.4218260558 -0.0627013657 -0.4213849443 0.0436186029 0.3000179189
805295170.0 0.0432414256 0.3111790258 -0.0674447091 -0.4209907201 -0.0675175281 -0.4213419009 0.0466438317 0.3003372454
810295140.0 0.0461710704 0.3108214022 -0.0717411691 -0.4198965486 -0.0720601029 -0.4201179795 0.050184086 0.3001306074
815295110.0 0.0493885742 0.3100604132 -0.0769660607 -0.4190058075 -0.0761481878 -0.4193590213 0.052937142 0.2995046775
820295080.0 0.0524070787 0.310426986 -0.0809200886 -0.4184816809 -0.0806818555 -0.4184326306 0.0564661913 0.2992419225
825295050.0 0.056326752 0.30966743 -0.0854367971 -0.417230788 -0.0853333245 -0.4176844201 0.0591354037 0.2991354372
