!Created with skrf (http://scikit-rf.org).
# Hz S RI R 50.0 
!freq ReS11 ImS11 ReS21 ImS21 ReS12 ImS12 ReS22 ImS22
300000.0 -0.7737585309 -0.1530284592 -0.001143716 -0.0003112535 -0.0005646296 0.0002483995 0.860542037 -0.0019611967
5299970.0 -0.7851983046 -0.0078186197 0.0001414348 0.0001655036 -0.0001472547 -0.0001759845 0.8589184772 -0.0104889681
10299940.0 -0.7878459634 -0.0037694434 6.51848e-05 -3.14665e-05 -6.83e-05 -7.1867e-05 0.858297418 -0.0190118507
15299910.0 -0.793054477 -0.0020498379 -5.30098e-05 9.13925e-05 -2.8158e-06 -0.0001026132 0.85718284 -0.0272573045
20299880.0 -0.7996448914 0.0020822742 3.47741e-05 4.1e-08 3.4008e-06 3.65529e-05 0.8567358054 -0.0360903053
25299850.0 -0.8063842334 0.0083849349 0.0001089233 -0.0002744025 2.58726e-05 1.37375e-05 0.8557338695 -0.0437200505
30299820.0 -0.8117217669 0.0166573513 5.43228e-05 3.88976e-05 -0.0001027116 -0.0001154677 0.8550167466 -0.0521662716
35299790.0 -0.817252067 0.0249069429 -0.0001156498 -3.67963e-05 -6.65185e-05 9.69702e-05 0.8544114877 -0.0606900649
40299760.0 -0.821308764 0.034035896 -7.63828e-05 0.0001660198 2.08504e-05 3.40047e-05 0.853262502 -0.0689203549
45299730.0 -0.8249991667 0.0442235177 0.0001233588 0.0001747311 0.0001051006 6.27001e-05 0.852595722 -0.0770894105
50299700.0 -0.8268517439 0.0541021627 2.70161e-05 -0.0002076821 9.84406e-05 -7.6014e-06 0.8517176429 -0.0850175438
55299670.0 -0.8286662064 0.0646062695 3.83927e-05 5.50624e-05 0.0001902127 -0.000111128 0.8505523119 -0.09334918
60299640.0 -0.8296765917 0.0744230568 -8.2313e-06 -3.15436e-05 1.81651e-05 4.02068e-05 0.8496691108 -0.101808706
65299610.0 -0.8311819679 0.08516375 0.0001381184 0.0001307213 0.0002967762 2.77789e-05 0.8485088822 -0.1105818058
70299580.0 -0.8312381291 0.0943520416 -7.67231e-05 0.000241309 -0.0001742044 -5.50632e-05 0.8475762063 -0.1185135707
75299550.0 -0.8312056084 0.1047933983 -5.27285e-05 -0.0001205461 -2.63097e-05 -3.20636e-05 0.8463211681 -0.126481044
80299520.0 -0.8312565024 0.1146645703 7.82174e-05 7.0961e-06 0.0001301512 -0.0001271999 0.845030874 -0.1340906218
85299490.0 -0.8305327472 0.1240710586 -0.0001890033 -0.0001783615 9.60847e-05 -0.0001100948 0.8435009721 -0.142775813
90299460.0 -0.8296063435 0.1338597048 -4.38823e-05 1.59249e-05 -3.82751e-05 0.0001265206 0.84190819 -0.1512423468
95299430.0 -0.8285360681 0.1440139947 -9.64181e-05 -9.00466e-05 7.0528e-06 -3.5676e-05 0.8400226042 -0.1593774116
100299400.0 -0.8276271806 0.1529848228 -7.21971e-05 4.75405e-05 0.0002273177 -8.9062e-06 0.8385968477 -0.1673179245
105299370.0 -0.8265231343 0.1622635861 4.82406e-05 0.0001357374 0.0001458352 9.87454e-05 0.8372501545 -0.1755382499
110299340.0 -0.8251809305 0.1710760725 -3.18526e-05 7.6176e-05 0.0001635563 4.4235e-06 0.8349171342 -0.1838682309
115299310.0 -0.8236494309 0.180324449 4.85213e-05 0.0001886786 3.49848e-05 -0.0001309565 0.833138994 -0.1926132963
120299280.0 -0.8220983083 0.1896391304 2.10235e-05 0.000114721 0.0001340538 3.5796e-06 0.8308075965 -0.1996790306
125299250.0 -0.8207385201 0.1984203575 -2.95311e-05 -3.07802e-05 0.0002244131 6.39518e-05 0.8289253603 -0.2086212052
130299220.0 -0.8185361496 0.2078864082 -1.168e-07 3.75098e-05 -4.18533e-05 2.99999e-05 0.8268815689 -0.2162450936
135299190.0 -0.8166524479 0.217054953 -0.000221448 -0.0001959101 9.33455e-05 -6.31187e-05 0.8253295814 -0.2244200869
140299160.0 -0.8145916827 0.2255069441 3.63586e-05 0.0001900612 7.61056e-05 -0.0001575191 0.8228655609 -0.2321241053
145299130.0 -0.812194473 0.2343016705 0.0001228015 -9.58002e-05 2.5945e-06 -6.50403e-05 0.8202565055 -0.2409205693
150299100.0 -0.8098807705 0.2430796754 -6.57972e-05 -1.01274e-05 2.041e-05 1.35004e-05 0.817590064 -0.2482487661
155299070.0 -0.8071106678 0.2524124335 -3.1176e-05 -3.6188e-06 4.38021e-05 -4.43837e-05 0.815125346 -0.2566103254
160299040.0 -0.8049315874 0.2616162222 -0.0002064638 -6.09738e-05 -0.0001838499 -2.88973e-05 0.8127796506 -0.2642037971
165299010.0 -0.8020097084 0.2689036379 -4.12771e-05 -8.32144e-05 -6.466e-05 9.23708e-05 0.8105385252 -0.2728816992
170298980.0 -0.7997526287 0.2781620131 9.39746e-05 0.0001266474 0.0002356606 8.09452e-05 0.8076375832 -0.2801794764
175298950.0 -0.7965957499 0.2873448675 6.2984e-05 6.75093e-05 -0.0001108695 -0.000241142 0.8044017002 -0.2881008598
180298920.0 -0.7937665532 0.2951822815 6.34743e-05 -1.77231e-05 0.0001456735 2.00133e-05 0.8021969422 -0.2962710537
185298890.0 -0.7910302014 0.3045122004 -0.0001684406 -4.82701e-05 0.0002233135 -2.20389e-05 0.7991128732 -0.3041097411
190298860.0 -0.7872873402 0.3121138093 7.24418e-05 -7.04446e-05 -0.0001325245 0.0003283956 0.7965970464 -0.3115533023
195298830.0 -0.7839868674 0.3206257747 0.0001005984 0.0002814589 0.0001505311 -6.27662e-05 0.792895642 -0.3191185219
200298800.0 -0.7803499967 0.3298748473 0.0002072627 -0.0001331422 -0.0001387488 -4.5602e-05 0.7904826915 -0.3275893669
205298770.0 -0.7771718237 0.3374835938 0.0001235495 -2.99969e-05 1.01357e-05 -0.0001412775 0.7868285389 -0.33441509
210298740.0 -0.7738544248 0.3459278368 -9.52864e-05 1.37187e-05 6.24357e-05 -5.28831e-05 0.7832956044 -0.3422561664
215298710.0 -0.770588581 0.3543558816 -6.7975e-05 7.79036e-05 2.5267e-05 -0.0001029705 0.7801244291 -0.3498401832
220298680.0 -0.7670001649 0.3624502875 -9.521e-05 0.0002389784 0.0001098431 -0.0001335817 0.7767132242 -0.3572788044
225298650.0 -0.7626592329 0.3710563486 8.79954e-05 -0.0002225321 3.77399e-05 0.0001119283 0.7726735212 -0.3653027768
230298620.0 -0.7589609751 0.3787292816 0.000179266 7.59457e-05 -2.83791e-05 -5.9318e-06 0.770151113 -0.3734239487
235298590.0 -0.7548682392 0.3873329936 -0.0001404969 3.32058e-05 -1.71829e-05 -4.9531e-05 0.7661198185 -0.3794106604
240298560.0 -0.7506957159 0.3952137398 0.0001179487 -0.0001863009 4.37227e-05 -4.32195e-05 0.7622739534 -0.3869506388
245298530.0 -0.7464006264 0.4027764673 1.02902e-05 0.0001180579 -5.45695e-05 -0.0001583638 0.7585994708 -0.3948697904
250298500.0 -0.7421223038 0.4107519829 2.7602e-06 -0.0001582181 3.91002e-05 -8.78322e-05 0.7544639684 -0.4020798663
255298470.0 -0.7378346152 0.4187869697 1.85629e-05 7.20414e-05 4.3103e-06 2.1159e-05 0.7510407214 -0.4095211206
260298440.0 -0.7332904172 0.4256235301 -2.7357e-06 0.0002340726 9.51419e-05 0.0001500581 0.7467434924 -0.4162115636
265298410.0 -0.7291029302 0.4336946704 5.0121e-06 -0.0001623854 7.30955e-05 4.11899e-05 0.7436800873 -0.4245235613
270298380.0 -0.7250066245 0.4418399459 0.000162384 -0.0001177881 -0.0001405956 -7.23747e-05 0.739479907 -0.4308035165
275298350.0 -0.719714662 0.4492704548 -4.7888e-05 0.0001438434 -4.1415e-06 5.41556e-05 0.7346671994 -0.437302888
280298320.0 -0.715003268 0.4564397599 -0.0001164781 4.51038e-05 5.2179e-05 -5.74323e-05 0.7314309554 -0.4449758513
285298290.0 -0.710112806 0.4646261801 -0.0001037261 0.0002705893 -0.0001248922 -6.67119e-05 0.7265582255 -0.4515839059
290298260.0 -0.7056498653 0.4718683122 -1.11663e-05 -0.0001328804 4.98019e-05 -7.9198e-06 0.7223493398 -0.4588377854
295298230.0 -0.7002004751 0.4795201349 -0.0001087792 -0.0001984798 0.0001097155 3.94476e-05 0.7184358584 -0.4656189806
300298200.0 -0.694419026 0.4870711623 -4.407e-05 -7.91619e-05 -0.0001673629 6.25716e-05 0.7142038059 -0.4736471195
305298170.0 -0.6899502778 0.4939485062 -0.0001256392 -1.76255e-05 -2.52893e-05 -5.41295e-05 0.7101737543 -0.479512776
310298140.0 -0.6846316539 0.5008383246 -4.99954e-05 5.41357e-05 8.2236e-06 0.0001723925 0.70576219 -0.4866186412
315298110.0 -0.6792479025 0.5078316441 3.27186e-05 -0.000102615 -0.0001272504 -6.81769e-05 0.700881841 -0.4939788997
320298080.0 -0.6741347137 0.5155482147 0.0001152966 -0.0001401361 -0.0002446541 -4.63326e-05 0.6963342801 -0.5013957386
325298050.0 -0.6685350112 0.5219806583 -2.77118e-05 0.0002158512 2.85509e-05 0.0002104746 0.6910339672 -0.5097351065
330298020.0 -0.6625812547 0.5292573158 -0.0002506707 0.0001933093 -7.94138e-05 2.38529e-05 0.6857768842 -0.51668193
335297990.0 -0.6570012203 0.5361649735 -1.31766e-05 0.0002390161 7.84398e-05 0.0001196749 0.6799214255 -0.5233151382
340297960.0 -0.6520764161 0.5431629411 -0.0002901928 7.30954e-05 2.06205e-05 -2.32129e-05 0.674572668 -0.5297449903
345297930.0 -0.6464617866 0.5488526684 0.0003783659 3.55611e-05 5.41396e-05 -3.64872e-05 0.6685910826 -0.5359337448
350297900.0 -0.6404729373 0.5564582537 0.0002040183 0.0001733238 -0.0001518832 -3.24512e-05 0.6632752411 -0.5412429589
355297870.0 -0.6339083457 0.5627535776 -4.37936e-05 -0.0001044433 -6.50339e-05 -0.0001124386 0.6576885749 -0.5478465261
360297840.0 -0.6285547023 0.5690248198 -0.000114049 -1.08058e-05 0.0001829526 0.0001381947 0.6521389108 -0.5531222091
365297810.0 -0.6224101827 0.5758262525 -0.0002802151 -0.0001197404 -5.9961e-06 0.0001886585 0.6466696214 -0.5601247079
370297780.0 -0.6158362524 0.5818710877 0.0001300845 -0.0001447201 -3.46959e-05 1.13399e-05 0.6411958057 -0.5659611672
375297750.0 -0.6099073153 0.5881833763 3.03423e-05 0.0001578942 -4.15016e-05 2.59166e-05 0.6355781335 -0.5714842664
380297720.0 -0.6038026801 0.595070934 9.02714e-05 -1.733e-07 -9.51285e-05 0.0001166165 0.6300169881 -0.5776442408
385297690.0 -0.5982560574 0.6013295164 -4.53048e-05 1.85284e-05 -3.37587e-05 -0.0001748644 0.6242871545 -0.5828673559
390297660.0 -0.5913472602 0.6076366817 0.0004869001 -9.8885e-06 -6.72988e-05 0.0001098144 0.6188715092 -0.58985215
395297630.0 -0.5852776279 0.61354225 -8.6952e-06 -8.21645e-05 3.3125e-06 6.37459e-05 0.6127859384 -0.5954859146
400297600.0 -0.5782181463 0.6189989895 5.34743e-05 -3.10509e-05 -0.0002618566 -5.91116e-05 0.6069659595 -0.6013143564
405297570.0 -0.5729617702 0.6252414387 -0.000231481 5.02047e-05 3.43305e-05 -4.8958e-06 0.6017120266 -0.6066630882
410297540.0 -0.5658487139 0.6312021659 -2.76711e-05 -0.0001310301 8.85968e-05 6.02058e-05 0.5954476579 -0.612130239
415297510.0 -0.5591308119 0.636976429 6.59093e-05 0.0001009928 -0.0001050011 0.0001495306 0.5888242515 -0.6178786958
420297480.0 -0.5518693987 0.6424674391 -0.0002270231 -0.0001559697 -0.0001897994 1.42512e-05 0.5828443916 -0.6240433279
425297450.0 -0.5460289113 0.6480466292 5.177e-07 0.0001165115 8.35955e-05 0.0001322862 0.5770065344 -0.6291985145
430297420.0 -0.5393729635 0.6535822947 -3.59249e-05 3.31537e-05 -0.0001148632 0.000197642 0.5709265256 -0.6346926659
435297390.0 -0.5321502891 0.6586558998 -3.23734e-05 8.75754e-05 6.25274e-05 6.59924e-05 0.5647480961 -0.6399817309
440297360.0 -0.5249132107 0.6640317594 4.03832e-05 -0.0001659861 -0.0001929512 -0.000140539 0.5580584683 -0.6454836042
445297330.0 -0.5183385134 0.6698467456 0.000253936 -6.03205e-05 8.95658e-05 -0.0001052742 0.5520496261 -0.6513320788
450297300.0 -0.5108607693 0.6741205139 4.3736e-06 2.8757e-06 -0.0004103979 2.17384e-05 0.5451293201 -0.6564487503
455297270.0 -0.504843079 0.6801849406 8.04457e-05 2.5427e-05 4.79967e-05 -2.99629e-05 0.5388320382 -0.6615750396
460297240.0 -0.4980322992 0.6850103969 -0.0002538847 1.76331e-05 0.0002141284 0.0001970787 0.5326050085 -0.6659613388
465297210.0 -0.4899887801 0.6905914796 0.0001293247 -1.48031e-05 -3.98888e-05 -0.000112077 0.5256822246 -0.6721214759
470297180.0 -0.4831065574 0.6948287491 -0.0001448821 8.12913e-05 -0.0001050095 9.9351e-06 0.5188328937 -0.6771295191
475297150.0 -0.4751816654 0.7005653094 3.26654e-05 -9.18951e-05 0.0002970942 0.000195993 0.5122408769 -0.6818147417
480297120.0 -0.469260874 0.7047616884 2.9158e-05 4.2846e-05 -6.00483e-05 -0.0002405365 0.5051490873 -0.6868366105
485297090.0 -0.4611471893 0.7093512594 -0.0001424034 0.0001342444 4.94546e-05 -2.01625e-05 0.4989497363 -0.6917803704
490297060.0 -0.4545587071 0.7142513564 -0.0001024606 -0.0002196979 8.59389e-05 -8.13326e-05 0.4918066916 -0.6965930314
495297030.0 -0.4473331679 0.719292399 -2.36151e-05 0.0001441885 7.19136e-05 -5.75487e-05 0.4854536006 -0.7014095621
500297000.0 -0.4386602656 0.7234758282 6.16606e-05 0.0002192238 -8.21663e-05 0.0001140606 0.4782487796 -0.7065574119
505296970.0 -0.4313773492 0.7271814414 0.0001926222 0.0001217738 -4.74458e-05 -9.94251e-05 0.4704496126 -0.710240021
510296940.0 -0.4245591173 0.7320418117 0.0001861997 -7.016e-07 0.0001386232 -7.042e-07 0.463678386 -0.7144786629
515296910.0 -0.417175079 0.7362275271 -0.0001473352 -6.57469e-05 8.94615e-05 0.0001274081 0.4560162875 -0.7191625721
520296880.0 -0.4092261519 0.7406109195 -4.15654e-05 -7.85581e-05 -0.0003005164 -9.10426e-05 0.4495032532 -0.7239410131
525296850.0 -0.4017566066 0.7445696656 8.40221e-05 -3.91109e-05 -0.00012941 0.0001285003 0.4425835224 -0.7277014177
530296820.0 -0.3943603314 0.7484606387 -0.000197837 0.0001210507 1.69158e-05 -9.3478e-05 0.4345677115 -0.7323917293
535296790.0 -0.3859166318 0.7521312789 -0.0001885459 0.0001361345 -2.23454e-05 6.03048e-05 0.4279910995 -0.7376788774
540296760.0 -0.3783185096 0.7560218966 -4.79527e-05 -1.32638e-05 -1.84161e-05 7.8952e-06 0.4196731734 -0.7407860551
545296730.0 -0.3709235988 0.7597570426 -5.83664e-05 9.63357e-05 4.65196e-05 0.0001574316 0.4127378969 -0.7454346677
550296700.0 -0.3634894286 0.7634539393 -4.95856e-05 -4.97605e-05 -0.0001043446 -0.0002231207 0.4054318659 -0.749619921
555296670.0 -0.3547687595 0.7668117267 8.36577e-05 2.14218e-05 5.50983e-05 6.30255e-05 0.398203653 -0.7529716336
560296640.0 -0.3473579821 0.7708412215 2.36422e-05 -0.000137778 -1.70217e-05 2.2919e-06 0.3901578564 -0.7565993139
565296610.0 -0.3397981785 0.7739234025 -0.0002142963 6.75751e-05 0.0001074252 0.0001016225 0.382750834 -0.7606010612
570296580.0 -0.3314036842 0.7775167231 -9.46783e-05 -7.1378e-06 4.60043e-05 5.86142e-05 0.3743718172 -0.7636867653
575296550.0 -0.3239670857 0.7812368609 -1.96085e-05 0.0001426632 0.0001871154 0.0001669933 0.3670188704 -0.7671323316
580296520.0 -0.3156596076 0.7840356515 -4.12819e-05 -8.59956e-05 0.0001168475 -7.52937e-05 0.3591200405 -0.7707817692
585296490.0 -0.3078375855 0.7871127046 -9.04898e-05 3.78623e-05 0.0001430844 -0.0001617303 0.3520612303 -0.7749503827
590296460.0 -0.299386441 0.7896555259 -2.89207e-05 -3.08325e-05 0.0001194191 -8.96302e-05 0.3447966775 -0.7774305232
595296430.0 -0.2916385283 0.7935418201 -0.0001150745 8.11281e-05 0.0001552769 0.0002989907 0.3357048143 -0.7807710732
600296400.0 -0.2835584077 0.7960205351 -2.178e-07 -9.03039e-05 4.36235e-05 2.53705e-05 0.3285349008 -0.7841671655
605296370.0 -0.2751176627 0.7990500542 5.225e-07 7.02648e-05 3.00043e-05 -8.59509e-05 0.3201458701 -0.7875180565
610296340.0 -0.2678947127 0.8017316928 -0.0004259094 -6.16668e-05 0.0002247109 -7.74827e-05 0.3122036778 -0.7895868425
615296310.0 -0.2586382503 0.8040922195 -0.0001166817 0.0002538007 0.0002137151 0.0001572674 0.3047340634 -0.7938614366
620296280.0 -0.2507724796 0.8062971605 -4.1455e-06 -0.0002377494 1.89025e-05 -1.89256e-05 0.2967227019 -0.7967879788
625296250.0 -0.2427925178 0.8094804495 0.0002144211 0.0001355873 9.7867e-06 -5.03855e-05 0.2884637962 -0.7985379731
630296220.0 -0.2342835087 0.8116780361 0.0001896264 0.0001255784 -5.09758e-05 -6.64874e-05 0.2803815748 -0.8011678256
635296190.0 -0.2262957629 0.8139061468 -0.0001010601 9.73097e-05 0.0001304006 6.06261e-05 0.27290532 -0.8038409295
640296160.0 -0.2181949737 0.8154769727 -9.45415e-05 0.0001053062 7.55761e-05 -9.18266e-05 0.2645112646 -0.8070677243
645296130.0 -0.209981639 0.8180380362 4.9695e-06 0.0001087816 0.0001084806 0.0001597137 0.2565977838 -0.8088416663
650296100.0 -0.2013538491 0.8206574583 -0.0002552294 -3.15286e-05 -0.0001232069 6.45146e-05 0.2483896334 -0.8109550387
655296070.0 -0.1934398025 0.8221779413 9.0805e-05 -4.96932e-05 -7.50158e-05 -0.0001405553 0.239774138 -0.8135005203
660296040.0 -0.1853103572 0.8241057842 1.95205e-05 -9.06608e-05 8.1536e-06 9.26946e-05 0.2316684896 -0.8156211775
665296010.0 -0.1765913263 0.8258991827 0.0002002474 -2.21994e-05 6.78362e-05 7.43793e-05 0.22336744 -0.8177759402
670295980.0 -0.1679728108 0.8277697143 -8.93825e-05 1.9322e-05 -6.74525e-05 2.89851e-05 0.2158776857 -0.8195633064
675295950.0 -0.1600261377 0.8290308157 -1.32e-06 -8.3502e-06 0.0002187856 -0.0001889244 0.2077739591 -0.8215383187
680295920.0 -0.151294989 0.8306712576 0.000135981 -6.1329e-05 0.0002195305 0.000211998 0.1997330578 -0.8237995531
685295890.0 -0.1431528821 0.8321696892 -0.0001089246 0.0001328754 -4.75868e-05 -8.64382e-05 0.19129418 -0.8255736835
690295860.0 -0.1344287058 0.8337729133 -8.15067e-05 9.58884e-05 3.81509e-05 0.00012361 0.1832816378 -0.8267318535
695295830.0 -0.1258244596 0.8342255226 -1.64858e-05 -0.0001193791 7.96257e-05 7.10308e-05 0.1743573356 -0.8289418458
700295800.0 -0.118152942 0.8358109678 0.0001280896 -0.0001348215 1.701e-07 -2.94198e-05 0.1662551817 -0.8301178683
705295770.0 -0.108666064 0.8373355524 5.49417e-05 0.0001704061 7.76661e-05 -2.37416e-05 0.1576868003 -0.8312342212
710295740.0 -0.1010783493 0.8381321323 4.92254e-05 -0.0001379711 9.6204e-06 -1.51942e-05 0.1494244914 -0.8325861316
715295710.0 -0.0926379688 0.839231572 0.0001513954 -0.0002221651 0.000119816 -3.33528e-05 0.1415348063 -0.8349173841
720295680.0 -0.0843499864 0.8394007711 6.83936e-05 -3.25825e-05 -0.0002001151 -0.00010042 0.1331888382 -0.8356414519
725295650.0 -0.0749122222 0.8409468966 -5.70153e-05 -0.0001075507 -6.22925e-05 0.0002062789 0.124962071 -0.8367501426
730295620.0 -0.0673018565 0.8413860296 -3.65301e-05 -5.96175e-05 -0.0001411578 -5.58962e-05 0.1158025796 -0.8375140613
735295590.0 -0.0582345252 0.8420034699 7.8306e-06 -0.0002001782 -0.0001075231 -0.0001996289 0.1078281877 -0.8392962372
740295560.0 -0.0501052978 0.8424199513 0.0002110649 -0.000233563 1.96738e-05 0.0001417181 0.0993646523 -0.8401195567
745295530.0 -0.0419596115 0.8428204705 0.0001153732 -7.10732e-05 -0.0001217714 -0.0001029047 0.0909863201 -0.8409208971
750295500.0 -0.0337068725 0.8434067848 0.0001182855 -6.6573e-05 0.0003225765 -0.000137638 0.0825227572 -0.8411971236
755295470.0 -0.0239756548 0.8434619122 -0.0001335815 2.62688e-05 -0.0001266868 -7.14544e-05 0.0742435903 -0.8415447983
760295440.0 -0.0159680058 0.843587594 -8.33451e-05 -0.0001233233 -0.000223468 7.43942e-05 0.0654164397 -0.8427755937
765295410.0 -0.0077433055 0.843912568 -0.0001297112 -1.48161e-05 0.0001993738 -7.04143e-05 0.0575727546 -0.8427594154
770295380.0 0.0003970664 0.8444189993 0.0001238684 5.32449e-05 -0.0002849039 0.0001633833 0.0491866641 -0.8434718064
775295350.0 0.0088312787 0.8440495969 -2.66381e-05 5.78597e-05 9.7452e-06 -0.0001740412 0.0410587975 -0.844683318
780295320.0 0.0176229714 0.843924147 0.0001274142 -5.3527e-05 -9.37728e-05 -0.0002249663 0.0320987476 -0.8434673047
785295290.0 0.0257645402 0.8432728707 0.0001057577 0.0002296955 -0.0001085828 -0.0001052353 0.0231548635 -0.8435279
790295260.0 0.0345284126 0.8430050984 -5.48925e-05 -7.59022e-05 -7.46176e-05 8.98138e-05 0.0157774275 -0.8438853903
795295230.0 0.0428527231 0.8437054769 0.0002386162 0.0001096408 3.55277e-05 -2.82138e-05 0.0068139303 -0.8439693627
800295200.0 0.0514939605 0.8423539982 1.11126e-05 -0.0001649767 -5.62445e-05 -6.03834e-05 -0.0015686423 -0.8443260635
805295170.0 0.0594286152 0.8420726012 4.3838e-05 0.0001798697 2.28108e-05 4.55633e-05 -0.009864292 -0.8439321416
810295140.0 0.0682234589 0.8410673044 -9.03769e-05 -0.0001843321 4.3193e-06 -5.70526e-05 -0.0185747425 -0.8433066023
815295110.0 0.0768779818 0.8401754734 8.11164e-05 0.0001043494 6.78127e-05 7.89176e-05 -0.0271221914 -0.8427970783
820295080.0 0.0850421461 0.8385644165 4.9761e-06 -3.98295e-05 9.06763e-05 -0.0001726243 -0.0359736677 -0.8423516991
825295050.0 0.0943666873 0.8387388303 -0.0001651539 1.68034e-05 -0.0001591975 6.00634e-05 -0.0434046013 -0.8418478189
830295020.0 0.1023704751 0.8376235625 3.47154e-05 -5.36651e-05 -9.66771e-05 5.26248e-05 -0.0530285794 -0.8414710685
835294990.0 0.1101376985 0.8371048169 7.88028e-05 -0.0001134571 0.000108629 -2.83167e-05 -0.0609294317 -0.8408708176
840294960.0 0.1189178971 0.8352195677 2.96075e-05 7.06389e-05 1.1554e-06 0.0001565243 -0.0693622014 -0.8394300299
845294930.0 0.1269791537 0.8347291556 6.82314e-05 5.39715e-05 -0.0001473555 -8.22221e-05 -0.0766828505 -0.8389034317
850294900.0 0.1353586155 0.832777458 6.58334e-05 3.31563e-05 -1.32374e-05 -0.0001307752 -0.0857495452 -0.8380402538
