!Created with skrf (http://scikit-rf.org).
# Hz S RI R 50.0 
!freq ReS11 ImS11 ReS21 ImS21 ReS12 ImS12 ReS22 ImS22
300000.0 -0.2113264075 -0.0774507512 -0.0007154738 0.0011639053 -0.0002643751 0.0013399644 -0.7684213627 -0.1592571906
5299970.0 -0.2142006919 0.0087404569 4.88235e-05 -8.1067e-05 5.84939e-05 -2.12731e-05 -0.7850928294 -0.0088806793
10299940.0 -0.2102435652 0.0212721126 -3.23263e-05 -9.23355e-05 -8.9511e-06 -3.7211e-06 -0.7884149514 -0.0053941033
15299910.0 -0.2054343068 0.0310742125 4.47634e-05 -0.0001893183 -3.84205e-05 6.56766e-05 -0.793811485 -0.0029108285
20299880.0 -0.1994721128 0.0389704764 2.64936e-05 -0.0001633605 -0.0001007428 -4.69052e-05 -0.8006854896 0.0017036153
25299850.0 -0.1928546786 0.0456603548 -4.80049e-05 -0.0002380364 0.0001743076 -9.71605e-05 -0.8066310878 0.0071638653
30299820.0 -0.1865133646 0.0505676059 -0.0003460938 9.57689e-05 5.03529e-05 4.79658e-05 -0.8128947956 0.0145552651
35299790.0 -0.1799189018 0.0545889235 4.63747e-05 -0.0002005636 -5.47843e-05 -0.0001394756 -0.8180568521 0.0238040736
40299760.0 -0.1739945201 0.0570860679 6.72355e-05 5.28366e-05 -0.0001647011 2.62099e-05 -0.8216081613 0.0329942691
45299730.0 -0.1684432249 0.0594886069 -0.0001326103 -1.70171e-05 6.59005e-05 -2.89808e-05 -0.8254326575 0.0425538288
50299700.0 -0.1629447659 0.0604709147 -2.52639e-05 -4.00082e-05 -1.49541e-05 -0.0001764929 -0.8276990216 0.0525572337
55299670.0 -0.1583779886 0.0618080212 -1.40471e-05 -4.16327e-05 6.96102e-05 0.0001232698 -0.8303145283 0.0631331859
60299640.0 -0.1537297424 0.0620901034 -8.21903e-05 -0.0001356411 0.0001086968 0.0001375436 -0.831076778 0.0736247686
65299610.0 -0.1501380909 0.0627275784 0.0001364691 0.0002222712 2.82548e-05 5.55e-06 -0.8314542114 0.0829695718
70299580.0 -0.1464007077 0.0626148697 -1.60181e-05 4.23301e-05 0.0001804174 8.6219e-05 -0.8318806368 0.0924356486
75299550.0 -0.1430751432 0.0625033659 -0.0002190537 -2.58674e-05 -0.0001768125 0.0001386163 -0.8328620796 0.1028785508
80299520.0 -0.1404856257 0.0626546123 1.61886e-05 -0.0002353632 -4.71229e-05 -0.0001201181 -0.8315411237 0.1126308104
85299490.0 -0.1377373753 0.06226639 9.68529e-05 5.16852e-05 -9.1334e-05 -0.0001700977 -0.8317141023 0.1215506303
90299460.0 -0.1355949118 0.0621544758 -0.0001402528 1.84182e-05 1.61604e-05 4.2215e-06 -0.8309523028 0.1310794913
95299430.0 -0.1331130336 0.0620592806 8.90742e-05 -5.97635e-05 1.44903e-05 0.0001318289 -0.8301323564 0.1412780686
100299400.0 -0.1317275359 0.0619549496 -0.0001050728 0.0001233541 8.67961e-05 -8.01145e-05 -0.8287508945 0.1498573513
105299370.0 -0.1295129404 0.0618194019 6.88011e-05 8.31703e-05 -2.6525e-05 0.0001521709 -0.8274985817 0.1591870162
110299340.0 -0.1284150813 0.061473911 2.22926e-05 -1.1203e-05 -8.4708e-05 5.94694e-05 -0.826860394 0.1685402451
115299310.0 -0.1267570583 0.0611981444 7.4923e-05 -7.0168e-05 -0.0001269553 9.6726e-06 -0.8245447689 0.1768970425
120299280.0 -0.1257604987 0.0612516848 -9.5276e-06 -4.2661e-05 2.84846e-05 4.2378e-05 -0.8235154717 0.1859352657
125299250.0 -0.1248140181 0.0611153102 0.0001557414 -0.0001268257 6.60724e-05 8.682e-07 -0.8215534805 0.1949132667
130299220.0 -0.1233120518 0.0614626833 -1.7674e-05 9.68334e-05 0.0001590346 0.0001809496 -0.8202341208 0.2039129086
135299190.0 -0.1227146415 0.0612121215 -2.4274e-06 8.8862e-06 -6.98977e-05 -6.17487e-05 -0.817617491 0.2124105239
140299160.0 -0.1214055133 0.0612954927 8.7226e-06 -9.15692e-05 -5.20639e-05 0.0001909562 -0.8160132342 0.2215359286
145299130.0 -0.1207798821 0.0615645151 -7.03615e-05 -0.0001052139 -5.68882e-05 0.0001121911 -0.8133252591 0.2300636558
150299100.0 -0.1202601388 0.0614006815 1.36288e-05 0.0001532296 0.000205721 7.00008e-05 -0.8113259336 0.2384505861
155299070.0 -0.1193316673 0.062108197 6.03643e-05 0.0001929646 7.93077e-05 -0.0001241425 -0.8095628449 0.247385423
160299040.0 -0.1187852147 0.062161216 4.93956e-05 9.20612e-05 -8.60191e-05 0.000237948 -0.8072002498 0.2564568311
165299010.0 -0.1183416489 0.0625126395 -1.68763e-05 0.0002431592 -5.09437e-05 0.000144528 -0.8042528082 0.2648917924
170298980.0 -0.1175637677 0.0627684271 0.0001121493 5.21906e-05 0.0001455821 -0.0001612423 -0.8017788347 0.2737296458
175298950.0 -0.1168650088 0.063608226 -0.0001080535 0.0002058284 0.0001890647 8.62168e-05 -0.7989132079 0.282272961
180298920.0 -0.1164298198 0.0635966757 -6.08709e-05 -0.0002919673 -3.4972e-06 1.70849e-05 -0.7954548746 0.2908378657
185298890.0 -0.1159082882 0.0643521578 0.0001653931 -0.0002099567 7.65832e-05 0.0001651651 -0.7931533509 0.2986269748
190298860.0 -0.1154085475 0.0648593273 -1.8438e-06 9.68133e-05 9.50254e-05 4.83116e-05 -0.7896430325 0.3076548019
195298830.0 -0.1144134641 0.0650895654 0.0001691572 4.69736e-05 4.39223e-05 4.711e-06 -0.7868748279 0.3151586461
200298800.0 -0.1143588764 0.0658970976 -2.29331e-05 -9.73921e-05 -0.0001191979 3.6257e-05 -0.7831178517 0.3242049451
205298770.0 -0.1138894199 0.0664220552 5.96378e-05 4.02668e-05 6.96945e-05 3.41162e-05 -0.7802337277 0.3325386657
210298740.0 -0.1133285016 0.0672704176 -0.000180581 1.45859e-05 0.000280789 0.0001342996 -0.7771536094 0.3407808957
215298710.0 -0.1129579589 0.0678656666 0.0002359972 8.28881e-05 8.55722e-05 7.4421e-06 -0.7734324098 0.3485761908
220298680.0 -0.112752855 0.0685033262 4.9245e-06 -0.0002010178 0.0001431588 -4.985e-07 -0.7696914725 0.3568197865
225298650.0 -0.1119570484 0.0694592458 4.78468e-05 0.0001891389 -0.0001375828 -1.43089e-05 -0.7658838536 0.3647576517
230298620.0 -0.1114040651 0.0702209118 -3.27958e-05 -8.92867e-05 3.89548e-05 7.55586e-05 -0.7615673624 0.3726692502
235298590.0 -0.1111697557 0.0705928562 0.0001093624 5.42278e-05 4.90397e-05 3.54022e-05 -0.7581469934 0.3807087898
240298560.0 -0.1108077844 0.0716560919 4.47455e-05 0.0001894024 7.0118e-05 -4.90065e-05 -0.7540520111 0.3888602624
245298530.0 -0.1098756236 0.0723349833 0.0001690813 4.00764e-05 -7.7503e-05 0.0001028707 -0.7502748853 0.3968817276
250298500.0 -0.1099763568 0.0729672274 0.0001018566 0.0001353562 0.0001300955 2.78081e-05 -0.746214478 0.4047645727
255298470.0 -0.1090497572 0.0739059912 0.000140436 0.000119255 0.0001851526 -9.70757e-05 -0.7411340486 0.4126076063
260298440.0 -0.1084050348 0.0747764594 5.89681e-05 2.56776e-05 6.4811e-06 -5.49954e-05 -0.7367944244 0.4199388597
265298410.0 -0.1082072444 0.0758261198 -7.47297e-05 -0.0001451852 -2.98777e-05 6.12202e-05 -0.7324232815 0.4276540533
270298380.0 -0.1074711064 0.0768328907 -5.88455e-05 0.0001681286 -2.16329e-05 1.43151e-05 -0.7276849129 0.4354397049
275298350.0 -0.1070265606 0.0775194262 8.50282e-05 4.33273e-05 2.05025e-05 -6.77231e-05 -0.7231573717 0.443506129
280298320.0 -0.1065237623 0.0782493866 -0.000133157 -3.93048e-05 7.87134e-05 0.000144464 -0.7185752571 0.4502408262
285298290.0 -0.1058941155 0.0794260951 -5.15471e-05 -7.347e-05 0.0003768404 6.35397e-05 -0.7134611178 0.457402972
290298260.0 -0.1054471868 0.0805005725 0.0002567872 2.48942e-05 0.0001361896 1.62919e-05 -0.7086770543 0.4658445476
295298230.0 -0.1049134562 0.0812057674 2.07371e-05 0.0002032567 0.000221596 0.0002851453 -0.7037637354 0.4727823911
300298200.0 -0.1042371517 0.0819103527 -0.0002028253 7.4011e-06 0.0001819976 -2.74412e-05 -0.6986002419 0.4801027129
305298170.0 -0.1033087974 0.0829805001 0.0001305335 -4.5824e-05 0.0003747287 1.35968e-05 -0.6938658862 0.4878672442
310298140.0 -0.1027525652 0.0834004127 0.0001131855 0.0001844841 4.97744e-05 0.0001732987 -0.6890087435 0.4949273521
315298110.0 -0.102792365 0.0842448929 6.62047e-05 0.0001620031 1.08922e-05 0.0001113037 -0.6832916817 0.5022631381
320298080.0 -0.101781555 0.0853272824 0.0001278758 -4.59569e-05 -4.52577e-05 0.0001415145 -0.6779441868 0.5095869132
325298050.0 -0.1011297354 0.0861650097 3.57804e-05 0.000128241 -5.65497e-05 8.15957e-05 -0.6722841997 0.5157973758
330298020.0 -0.1009049798 0.0872438236 0.000192157 -8.4689e-05 0.0001697327 0.0001090976 -0.6670073067 0.5233611594
335297990.0 -0.1003551561 0.0880928576 -0.0001709077 -1.93591e-05 0.0001353372 7.53966e-05 -0.6611804395 0.5301501413
340297960.0 -0.0998557522 0.0891660609 -0.0001512961 -2.11031e-05 0.0001550451 8.28117e-05 -0.6555660812 0.5367532423
345297930.0 -0.0994729875 0.0901513198 -8.07975e-05 0.0001084208 0.0001285693 4.46373e-05 -0.6496176292 0.5442959392
350297900.0 -0.0985392993 0.0913114047 0.0001289811 0.0001290894 0.0001916655 0.0002107289 -0.6441667469 0.5510075009
355297870.0 -0.0980998559 0.0921210383 0.0001554465 0.0001319736 0.0001306165 7.40837e-05 -0.6383832524 0.5572186743
360297840.0 -0.0973003162 0.0931700542 7.26123e-05 0.0001177687 -1.2368e-06 -0.0001235659 -0.6325042717 0.5639834862
365297810.0 -0.0965159445 0.0940803292 -1.67894e-05 8.5256e-05 7.07359e-05 0.0001134617 -0.6261725537 0.5705380061
370297780.0 -0.0961668707 0.095148668 9.07468e-05 0.0001284164 6.6027e-06 0.00014186 -0.6209006309 0.5766759761
375297750.0 -0.0950046931 0.0963443797 0.000231239 9.72353e-05 0.0002957469 0.0001305177 -0.6143306618 0.5831540363
380297720.0 -0.0941116502 0.0971980577 -3.75764e-05 1.26107e-05 3.39752e-05 0.0001913104 -0.6080687102 0.5903038257
385297690.0 -0.0935185855 0.0983197303 0.0002612144 -0.0001142415 0.0001168942 0.0001852288 -0.6019578475 0.5959926002
390297660.0 -0.09299541 0.0993302458 0.0004001303 0.0001052155 9.54659e-05 -3.6891e-05 -0.5953117268 0.6016418786
395297630.0 -0.0919804986 0.100377958 5.91717e-05 0.0001205071 0.0001560352 0.00028156 -0.5891545133 0.6081218451
400297600.0 -0.0912837899 0.101197463 0.0001696436 9.95677e-05 3.3691e-06 0.0002346927 -0.5829390109 0.6136176195
405297570.0 -0.0902381317 0.1022627259 5.25772e-05 -0.0001096509 7.30243e-05 1.31862e-05 -0.5766366609 0.6197632952
410297540.0 -0.0894257613 0.1031761498 -2.57482e-05 0.0002359538 -0.0001321602 9.86085e-05 -0.5701014141 0.6253391161
415297510.0 -0.088698271 0.104279447 0.000215227 2.61732e-05 0.0003029375 3.5659e-06 -0.5633085867 0.6316879688
420297480.0 -0.0877686056 0.105225864 0.0002696082 -6.25094e-05 0.0001064448 0.0002082975 -0.5567852071 0.6369224291
425297450.0 -0.086989826 0.1058556675 2.53434e-05 7.61729e-05 0.0002548045 -2.20646e-05 -0.5501066996 0.6434552357
430297420.0 -0.0862633805 0.1070995637 0.0003096092 0.0002185005 0.0001006945 0.0003913213 -0.5437538286 0.6483406396
435297390.0 -0.0850017075 0.1080055895 -3.1408e-06 7.461e-06 -7.6863e-06 1.2035e-06 -0.5367403501 0.6535633629
440297360.0 -0.0841411466 0.1090351021 -6.34263e-05 0.0001073837 0.0002075813 6.52056e-05 -0.5299516772 0.6589528109
445297330.0 -0.0833024576 0.1099922854 8.91884e-05 3.00307e-05 -5.99291e-05 -8.8462e-05 -0.5232974132 0.6642943196
450297300.0 -0.0824145013 0.1109253241 0.0001177805 3.36167e-05 0.0002392391 9.94182e-05 -0.516930083 0.6698576048
455297270.0 -0.0815249156 0.1117086949 3.4651e-06 3.7604e-06 -0.0001901238 8.2674e-06 -0.5099804124 0.6749982692
460297240.0 -0.0806658483 0.112752696 0.0002000215 -4.00687e-05 3.68707e-05 0.000208718 -0.5025135113 0.6801359345
465297210.0 -0.07923572 0.1136839125 -6.62442e-05 0.0001004471 0.000329528 0.000112172 -0.4962104568 0.6849922447
470297180.0 -0.0784556297 0.1146750692 0.0002511838 2.22226e-05 0.0001537728 2.20279e-05 -0.4890449423 0.6897698079
475297150.0 -0.077629417 0.1156699391 0.0002057461 -1.45014e-05 8.19939e-05 -4.2003e-06 -0.4818771103 0.6950876719
480297120.0 -0.0767396241 0.1161971896 4.58809e-05 0.0001026834 0.0002145083 0.0001558001 -0.4747935751 0.7000660035
485297090.0 -0.0755195897 0.1173108941 8.12003e-05 0.000221071 0.0004485408 9.39166e-05 -0.46786644 0.7041044488
490297060.0 -0.0745665744 0.1181438807 0.0001451616 0.0003421323 0.0002352143 -0.0001068721 -0.4607564619 0.7091315643
495297030.0 -0.0734324988 0.1191288872 0.0001944326 -0.000111008 0.0002555061 3.0216e-06 -0.4531828997 0.7130498718
500297000.0 -0.0724384593 0.1198192142 0.0001808196 3.66877e-05 0.0001024745 -0.0001059178 -0.446759775 0.7176949535
505296970.0 -0.0713829092 0.1206546973 0.0001967228 -6.48453e-05 0.0001714395 0.0001038534 -0.4401849644 0.7216182868
510296940.0 -0.0702361264 0.1218276164 0.0002656935 -4.62937e-05 2.70421e-05 0.0001289332 -0.4318279328 0.7264085716
515296910.0 -0.0692851858 0.122592133 0.0001654984 6.8308e-06 0.0002720724 0.0002319495 -0.4249726498 0.7309567719
520296880.0 -0.0681321087 0.1233040635 0.0001345755 -1.7324e-06 4.37975e-05 -0.0001299193 -0.417246951 0.7350598101
525296850.0 -0.0670452142 0.1241306457 0.0002516247 0.0001269111 0.0002218245 8.92243e-05 -0.4099404632 0.7394812508
530296820.0 -0.0661426446 0.1252565722 0.0003880487 -0.0001861476 0.0005147728 -3.68157e-05 -0.4030124145 0.743369492
535296790.0 -0.0646591702 0.1256936161 0.0001627878 0.0001237751 6.54076e-05 0.0001511417 -0.3953156379 0.7469895918
540296760.0 -0.0639071039 0.1263803032 0.0004542864 0.0001422511 0.0002478106 1.20506e-05 -0.3878103812 0.7510636059
545296730.0 -0.0626699105 0.1273534519 0.0001243037 -4.22354e-05 0.000136396 0.0001560938 -0.3804569657 0.7542855698
550296700.0 -0.0616720437 0.1282894054 0.0002705379 -0.0001142402 6.9003e-05 -6.7121e-06 -0.372844804 0.7582242968
555296670.0 -0.06014954 0.128748575 0.000416698 -4.21686e-05 0.0001880681 7.78759e-05 -0.3652702124 0.7618715831
560296640.0 -0.0589007141 0.1295481317 0.0001283562 0.0002377502 7.77728e-05 -0.0002388892 -0.3571479272 0.7657823307
565296610.0 -0.0580449769 0.1305038278 0.0002084575 -0.0001215191 8.77468e-05 6.73686e-05 -0.3495624594 0.7694198692
570296580.0 -0.0567584794 0.1311031919 7.46197e-05 -6.4215e-05 0.0002288209 0.0001327814 -0.3424483181 0.7724995979
575296550.0 -0.0553174158 0.1319716775 0.0001107164 3.03062e-05 6.68506e-05 0.0001951256 -0.334540681 0.7760571858
580296520.0 -0.0542709345 0.1325719514 0.0002236257 -0.0001099333 0.000167659 0.000213921 -0.3269965442 0.7788790695
585296490.0 -0.0532593586 0.1333336334 0.0002860159 0.0001277369 -1.86434e-05 8.61173e-05 -0.3191919058 0.7817769514
590296460.0 -0.0521311658 0.1338742151 0.0001114405 8.20787e-05 0.0001891586 3.94791e-05 -0.31171076 0.7845851129
595296430.0 -0.0506188231 0.1346634839 0.0001898058 -1.28614e-05 0.0002208733 7.385e-06 -0.303956571 0.7877735263
600296400.0 -0.0495261899 0.1352281231 0.0002137424 8.7043e-05 0.0002945629 6.56065e-05 -0.2957631574 0.7908970106
605296370.0 -0.0480830855 0.1358972346 0.0001123623 4.01495e-05 3.8197e-05 5.54526e-05 -0.2883074181 0.7944948042
610296340.0 -0.0469873631 0.1365197181 0.0003080919 -6.24326e-05 0.0003077141 9.85205e-05 -0.2799680417 0.7967512614
615296310.0 -0.0456201482 0.1374661334 0.0001875743 3.96415e-05 0.0002669931 0.00019118 -0.2723713966 0.7995828475
620296280.0 -0.0441372288 0.1377566922 0.0003156664 0.0001246826 0.0002546665 8.64656e-05 -0.2646130781 0.8014339659
625296250.0 -0.0431066607 0.1385766507 0.0002368167 -2.91996e-05 0.000299214 0.0001376536 -0.2562504633 0.8049357805
630296220.0 -0.0418205269 0.1392533509 0.0002211614 8.25999e-05 0.0003763867 -2.20772e-05 -0.2488581702 0.8072373831
635296190.0 -0.0407157911 0.1398303815 9.33657e-05 -6.90566e-05 5.6806e-05 -5.4826e-05 -0.2408613497 0.8092065058
640296160.0 -0.0392197577 0.1399801426 0.0002017256 0.0002155167 0.0001177653 0.0001049439 -0.2320054908 0.8118012857
645296130.0 -0.0382126101 0.1409666168 6.10693e-05 0.0002238835 0.0002270213 3.82873e-05 -0.2249476845 0.8140717134
650296100.0 -0.0367677662 0.1416815134 0.0002376033 -8.70593e-05 0.000143482 -0.00016153 -0.2163543134 0.8164085816
655296070.0 -0.0351303856 0.1420987936 0.0001510563 0.0001068027 0.0002539 -8.38326e-05 -0.2086851118 0.817931629
660296040.0 -0.0342050179 0.1429965958 0.0001744692 -7.56121e-05 0.0003835967 0.000130094 -0.2005200041 0.8203215154
665296010.0 -0.0325570194 0.1432666644 0.0003739398 -3.9387e-06 0.0001251233 -0.0001507306 -0.1927673036 0.8224649001
670295980.0 -0.0311293024 0.143386492 0.0002993292 -5.56989e-05 0.0002708203 -2.32829e-05 -0.1850573808 0.8237443676
675295950.0 -0.0299271335 0.1439450615 0.0002198266 6.17273e-05 0.0002775821 6.60172e-05 -0.1762615454 0.8262452619
680295920.0 -0.028363815 0.1447837448 7.02956e-05 0.0001069819 0.0001367154 -3.72093e-05 -0.1677818874 0.8277485972
685295890.0 -0.0271427622 0.1449404438 0.0003241639 0.000240437 7.33492e-05 -5.9641e-06 -0.1596808443 0.829825542
690295860.0 -0.0258233251 0.1456577864 0.0003409983 3.13936e-05 0.0001576134 -5.78785e-05 -0.1511568897 0.8300810024
695295830.0 -0.0242413824 0.1458789288 0.0002454507 0.0001382402 0.0003754742 8.03006e-05 -0.1433737914 0.8323642082
700295800.0 -0.0229418357 0.1463833476 0.00011471 9.4914e-06 0.000313921 1.9068e-05 -0.1343060472 0.8324318967
705295770.0 -0.0213668327 0.1468800604 0.0002210722 4.9259e-05 0.0002264542 -4.31712e-05 -0.1270561394 0.8351999688
710295740.0 -0.0202185258 0.1471590803 0.0002673505 -0.0002019818 0.0002569657 0.0002253501 -0.1187315709 0.8366476394
715295710.0 -0.0190277752 0.1478387824 0.0002337855 -0.0001278908 0.0002775829 -8.85417e-05 -0.1104568403 0.8372665852
720295680.0 -0.0175118842 0.1479023524 0.0003201305 2.13459e-05 0.0003448061 7.32522e-05 -0.1015519246 0.8383001833
725295650.0 -0.0157406846 0.148316517 0.0002382959 -0.0001195315 0.0002851324 -0.0001948519 -0.093723701 0.8395341442
730295620.0 -0.0145679482 0.1485575026 0.0004386398 0.0001606361 0.0002669227 0.0001312296 -0.0854565797 0.8401616998
735295590.0 -0.0130874637 0.1488697346 0.0002539195 0.0002107243 0.0004857747 8.09751e-05 -0.0766029594 0.8407095005
740295560.0 -0.0117096522 0.1496571016 0.0003157239 -2.05231e-05 0.0004002334 -1.03889e-05 -0.0687985881 0.8411763529
745295530.0 -0.0103769575 0.1496626382 -4.30505e-05 -0.0001490895 0.0001611468 1.3152e-05 -0.060257697 0.842028442
750295500.0 -0.0089182945 0.1501080116 0.0003335078 0.0001815943 0.0002617049 0.0001347059 -0.0517371644 0.8424748603
755295470.0 -0.0071764973 0.1503033446 0.0002326302 -5.14799e-05 0.0001670427 -0.0001301053 -0.0441502453 0.8435036639
760295440.0 -0.0059257991 0.1507252364 0.00034328 -2.21994e-05 0.0001169952 5.17241e-05 -0.0362981296 0.8437424057
765295410.0 -0.0045195907 0.1507228499 0.0001097658 -5.5398e-06 0.0001850344 9.34706e-05 -0.0272944889 0.8442420022
770295380.0 -0.003029774 0.1512968644 0.0003671168 -8.84308e-05 0.0003607074 -3.28825e-05 -0.018643333 0.8442032585
775295350.0 -0.0018622747 0.151515158 0.0001450921 -0.0001244451 0.0002263578 1.88795e-05 -0.0112032299 0.8439673072
780295320.0 -2.18707e-05 0.151520378 0.0001198952 3.26971e-05 0.0003020689 -7.80089e-05 -0.0022425297 0.8447182288
785295290.0 0.0011786189 0.1520846678 0.0001496375 -9.52791e-05 2.13481e-05 -7.2249e-06 0.0052768425 0.844593668
790295260.0 0.0026452011 0.1519240689 0.0001642819 -0.0002275721 6.4282e-05 0.0001519322 0.015168815 0.8444381967
795295230.0 0.0039123782 0.152429271 3.01605e-05 -0.0001308007 0.0004379301 -5.44727e-05 0.0229844595 0.844362079
800295200.0 0.0057999161 0.1524828366 0.0001474318 -0.0001366897 0.0003234362 -0.0003362206 0.0312434197 0.8438180956
805295170.0 0.0072755053 0.1524817682 0.0004979581 -9.497e-07 0.0002729131 -0.0001273348 0.0389949286 0.8429666296
810295140.0 0.0088419788 0.1526175317 0.0003700874 8.06086e-05 0.0002380787 0.0001423979 0.047628741 0.8440709216
815295110.0 0.0101848549 0.1528598576 -2.60145e-05 -5.36206e-05 0.0003076193 2.8518e-06 0.0559384642 0.8426153151
820295080.0 0.0116017724 0.1529503771 0.0003278582 7.1447e-05 0.0002164189 -1.51155e-05 0.063927461 0.8416885686
825295050.0 0.0133212862 0.153117611 0.0002412238 -0.0001454906 0.0002991854 -0.0001008621 0.0725460816 0.8417561487
830295020.0 0.0147141806 0.1534595428 0.0002345403 -0.0002830675 0.0002461219 5.7332e-06 0.0799945629 0.8407255911
835294990.0 0.016222763 0.1535865018 6.63974e-05 0.0001800564 0.0001838404 2.65323e-05 0.0883308521 0.8392640466
840294960.0 0.0173957812 0.1532026982 0.0003596348 -0.0002355796 0.0001771355 -5.8181e-05 0.0965065707 0.8389701108
845294930.0 0.0192852307 0.1535319843 0.0002351023 -3.47757e-05 0.000287496 -9.03192e-05 0.1052456592 0.8379913173
850294900.0 0.0204875563 0.1532918097 0.0004093948 -0.0001056437 0.0003116734 -0.0002664964 0.1134213588 0.8370771369
