!Created with skrf (http://scikit-rf.org).
# Hz S RI R 50.0 
!freq ReS11 ImS11 ReS21 ImS21 ReS12 ImS12 ReS22 ImS22
300000.0 0.860230308 -0.0021685394 -0.0006170641 8.026e-05 -0.0001277922 0.0009919247 -0.766977104 -0.1652030911
5299970.0 0.8594369473 -0.0100869844 -0.0002785525 -9.47562e-05 -5.91703e-05 8.4511e-05 -0.7847087626 -0.0089853844
10299940.0 0.8589263976 -0.019229562 -0.0001290434 2.83721e-05 -0.0001004444 -0.0001504823 -0.7882116979 -0.0052934467
15299910.0 0.8580091868 -0.0276108937 0.0002112957 -6.72787e-05 3.39539e-05 8.5354e-05 -0.7932900257 -0.0028410602
20299880.0 0.8574839753 -0.0357219503 0.0001161404 0.0001382459 0.0001041474 -0.0001876727 -0.8005625162 0.0015969014
25299850.0 0.8563841529 -0.0442175046 7.65477e-05 -0.0001725357 9.84344e-05 6.28051e-05 -0.8064650797 0.0071001568
30299820.0 0.8558407212 -0.052338512 0.0001562673 0.0002556613 0.0001232645 -7.7296e-06 -0.8123052192 0.0147834549
35299790.0 0.8548533921 -0.0603328272 -6.2444e-05 -1.54558e-05 -0.0001474948 3.32071e-05 -0.8179936492 0.024022581
40299760.0 0.8544060583 -0.0683824319 0.0001639636 -8.50238e-05 -9.24441e-05 -0.0002068564 -0.8218680885 0.0328540616
45299730.0 0.8539105564 -0.0767368501 -6.61674e-05 -3.51543e-05 3.68496e-05 -5.6967e-06 -0.8253427718 0.0424048412
50299700.0 0.8524404978 -0.085583938 -7.86295e-05 0.000125407 5.81027e-05 0.0001515925 -0.8276955451 0.0528290137
55299670.0 0.8514172831 -0.0931131963 -7.81964e-05 0.0001530433 -1.88025e-05 0.000217203 -0.8299847498 0.0626723735
60299640.0 0.8501279411 -0.1010630854 -6.69492e-05 -3.00851e-05 -4.3942e-05 -0.0001418892 -0.8310680579 0.0730364467
65299610.0 0.8496599957 -0.1091587233 -7.1649e-05 -3.3261e-06 2.57679e-05 -9.94104e-05 -0.8310537416 0.0827745615
70299580.0 0.8490319646 -0.1179908354 0.0001200229 -0.0001185864 -1.5402e-06 -3.26514e-05 -0.8320051627 0.0930294948
75299550.0 0.8475869955 -0.1263877665 -0.0001107286 -6.51176e-05 -6.27327e-05 -2.75797e-05 -0.8321409886 0.1030236437
80299520.0 0.8461278166 -0.1345340132 -0.0001296107 -9.6067e-05 2.4236e-05 -0.0001467806 -0.8316795409 0.1125498753
85299490.0 0.8446919221 -0.142813741 -0.0001286765 8.55074e-05 -1.05254e-05 -7.7748e-06 -0.8316140579 0.1219973711
90299460.0 0.8433222156 -0.1506466499 -1.39249e-05 3.86055e-05 -0.0001439258 -0.0001417774 -0.830292605 0.1313585754
95299430.0 0.8416571431 -0.1588095194 9.43943e-05 0.0001309906 4.92969e-05 1.30319e-05 -0.8300472968 0.141590426
100299400.0 0.8398188094 -0.1667494171 4.2631e-05 -8.72024e-05 8.77152e-05 -3.4229e-06 -0.8287728539 0.1498592319
105299370.0 0.8380861139 -0.1752630612 -2.52591e-05 8.662e-07 -9.41366e-05 3.09496e-05 -0.8278750704 0.1596171995
110299340.0 0.8367694867 -0.1832058656 -0.0001093426 -6.94612e-05 -1.8412e-05 0.0001043471 -0.8265577217 0.1680944095
115299310.0 0.8346222994 -0.1920257885 0.0001703671 -0.0001469296 -0.0001862732 -0.0001682094 -0.8246672485 0.1772866353
120299280.0 0.8324965829 -0.198979849 -7.39681e-05 0.0001122838 3.84252e-05 9.68593e-05 -0.8231648109 0.1863484075
125299250.0 0.8304248002 -0.2083136532 4.7626e-05 -0.0001375564 3.30152e-05 -1.5808e-06 -0.8217948917 0.1959715145
130299220.0 0.8293892319 -0.2158688787 0.0001476672 -9.5066e-06 -0.0002367742 0.0001330776 -0.8201006116 0.2041841622
135299190.0 0.8260756213 -0.2239669393 -8.37284e-05 5.78223e-05 -3.64148e-05 -9.991e-06 -0.818068363 0.2129453628
140299160.0 0.8242768465 -0.2308237708 7.53848e-05 6.21708e-05 -9.14249e-05 -0.0001202612 -0.8152183803 0.2212776167
145299130.0 0.821799785 -0.2396288782 -0.0001564971 3.1189e-06 -6.9295e-05 -8.59445e-05 -0.8140762182 0.2301715486
150299100.0 0.819430509 -0.2475600602 -1.10407e-05 -2.2042e-06 2.43579e-05 6.8261e-05 -0.8116544751 0.2388314869
155299070.0 0.8167204068 -0.2562659526 4.21617e-05 -2.77195e-05 -0.0001415489 8.45528e-05 -0.8093359574 0.2474078462
160299040.0 0.8140965471 -0.2636280133 1.97341e-05 9.32798e-05 0.0001039242 1.52222e-05 -0.8075611779 0.2568651471
165299010.0 0.8122873237 -0.2710887398 -1.66183e-05 4.82612e-05 0.0001226074 -5.72991e-05 -0.8042100693 0.2647425269
170298980.0 0.8087376153 -0.2790884084 8.91098e-05 0.0001129688 -1.89245e-05 -5.92497e-05 -0.8018784062 0.2730187738
175298950.0 0.8064462467 -0.2874752653 0.0001075823 1.49618e-05 -0.0002236947 4.36142e-05 -0.7988144391 0.2821642196
180298920.0 0.8035087937 -0.2942993013 0.0001229907 -7.83977e-05 -1.758e-06 3.09315e-05 -0.7958309096 0.2906109
185298890.0 0.8004205338 -0.3032318464 -2.31623e-05 0.0001634743 -4.71573e-05 -6.78779e-05 -0.7930841261 0.2986394867
190298860.0 0.7971464483 -0.3105625175 -4.29291e-05 0.0001835472 6.53903e-05 -0.0001765815 -0.7895768392 0.3076762334
195298830.0 0.7942945929 -0.3177728275 -0.0001274734 4.6709e-05 -9.73899e-05 -7.38775e-05 -0.7868051376 0.3155514949
200298800.0 0.7913163251 -0.3264058992 -0.0001479075 9.34083e-05 -6.41579e-05 -2.97908e-05 -0.7831123274 0.3242069846
205298770.0 0.7880599216 -0.3338391308 2.1007e-06 4.22456e-05 1.46446e-05 -1.89417e-05 -0.7799422157 0.3316289618
210298740.0 0.7850613811 -0.341246202 -0.0002062596 4.04015e-05 -2.86047e-05 6.42616e-05 -0.776809309 0.3404984984
215298710.0 0.7815377468 -0.3487837849 -0.0001836691 -7.27209e-05 6.15747e-05 2.9027e-06 -0.7732411968 0.3482476299
220298680.0 0.7783766234 -0.3570814743 5.68766e-05 -3.5935e-05 8.73213e-05 4.67052e-05 -0.7697034641 0.3570370676
225298650.0 0.7743168633 -0.3635388062 1.0253e-05 -0.0001535079 0.0002734773 7.31738e-05 -0.7663098282 0.3646101849
230298620.0 0.7712122832 -0.3717881396 -0.0001300321 0.0001392821 -5.45565e-05 -6.882e-06 -0.7612760613 0.3725318369
235298590.0 0.7672693367 -0.3787282383 2.09821e-05 5.64372e-05 7.30542e-05 -8.84391e-05 -0.7577242503 0.3804931317
240298560.0 0.7632811444 -0.3866302732 7.77602e-05 3.0951e-06 7.0801e-05 0.0002107212 -0.7540104258 0.3883556606
245298530.0 0.7598671576 -0.3933716864 -0.0001079488 6.11196e-05 0.0002108124 -7.06587e-05 -0.750189198 0.396628478
250298500.0 0.7562594492 -0.4012268564 -6.77393e-05 0.000244554 3.73029e-05 0.0002272065 -0.745508709 0.4044101187
255298470.0 0.7522516179 -0.4080276028 -0.0002249456 -5.91956e-05 -2.3884e-06 -0.0001598072 -0.7408747167 0.4123476153
260298440.0 0.7477934434 -0.4152864015 0.0001890687 9.43102e-05 0.0001957772 0.0001918672 -0.7366433565 0.4195205923
265298410.0 0.7440835337 -0.4228219424 -0.0001986806 -3.6865e-06 3.34639e-05 4.65481e-05 -0.7323811986 0.4273201569
270298380.0 0.7397479152 -0.4296754172 -0.000155804 0.0001961535 -0.0001563535 0.0001061693 -0.7271298746 0.4356365817
275298350.0 0.7356513989 -0.4372010635 0.0001368501 -6.7894e-05 0.0001001493 -6.03759e-05 -0.7228945462 0.4431320987
280298320.0 0.732040359 -0.4442753497 2.94131e-05 2.10371e-05 0.0001437121 -4.89236e-05 -0.718248037 0.4504074764
285298290.0 0.727201698 -0.4512062987 0.000140892 -3.77401e-05 2.54697e-05 -6.31952e-05 -0.7134661483 0.4579593867
290298260.0 0.723276358 -0.4587888209 0.0002172426 9.45217e-05 -4.8999e-06 0.0001194428 -0.7085329901 0.4657614324
295298230.0 0.7192100353 -0.4661708199 6.50146e-05 6.50371e-05 2.54612e-05 -0.0001240969 -0.7035341269 0.4731425575
300298200.0 0.7143151655 -0.4737302195 6.91616e-05 1.6264e-05 -9.64606e-05 -2.28009e-05 -0.6987699294 0.4797952616
305298170.0 0.7102263627 -0.4799702105 -0.0001237016 -0.0001449348 0.0001335848 0.0001342606 -0.693325148 0.4875285292
310298140.0 0.7061881982 -0.4882085309 -3.77882e-05 -3.44254e-05 2.65574e-05 -9.78412e-05 -0.688482715 0.4949676387
315298110.0 0.7006125068 -0.4962045379 0.000266767 7.66674e-05 0.0002841597 -8.02509e-05 -0.6831799236 0.5022700999
320298080.0 0.6947746584 -0.5027701656 0.0001021209 0.0001292665 9.8581e-06 -0.0001063052 -0.6774029664 0.509599102
325298050.0 0.6894571777 -0.5100310672 0.000288461 1.27006e-05 -0.0001402149 -0.0002582069 -0.6721036135 0.5163269989
330298020.0 0.6836285205 -0.5165635326 0.0001128028 7.43845e-05 -0.0001220043 8.88449e-05 -0.6665835244 0.5235321691
335297990.0 0.6778424508 -0.5229687789 1.96308e-05 -0.0001097655 0.0001318533 6.91231e-05 -0.6608660569 0.5300151597
340297960.0 0.6724852381 -0.5296886468 2.63508e-05 -0.0002612156 -0.0001400623 0.00013305 -0.6553593609 0.5372210341
345297930.0 0.6667011813 -0.5356763177 3.10328e-05 -0.0001096423 0.0001683541 5.5901e-06 -0.6501434736 0.5440263655
350297900.0 0.6615562082 -0.5420885165 -0.0001296892 -4.07026e-05 9.87763e-05 -0.0002051914 -0.6441611091 0.5509847831
355297870.0 0.6562252231 -0.5483173731 9.97458e-05 -7.58189e-05 -7.86326e-05 -0.0001803308 -0.6382286488 0.5572116771
360297840.0 0.6500721426 -0.5545971008 -0.000107787 -0.0002716655 -0.0001917107 2.06261e-05 -0.6320029106 0.5641643561
365297810.0 0.6450964473 -0.5606688016 -0.000190148 0.0001284723 5.3708e-06 -0.0002221303 -0.6259519461 0.5707650542
370297780.0 0.6394376755 -0.5665615199 0.000156658 -2.63061e-05 -0.000164856 -0.0001844807 -0.6203018007 0.5767871228
375297750.0 0.6336172033 -0.5725525238 -7.56622e-05 0.000196306 -4.56325e-05 8.85355e-05 -0.6139080586 0.5830924279
380297720.0 0.6290290353 -0.5781822597 -8.61764e-05 0.0001183283 -0.0002558149 2.4064e-05 -0.6080529195 0.5903492383
385297690.0 0.6225942518 -0.5847260751 -9.65887e-05 -4.70249e-05 -4.24534e-05 -0.0001650496 -0.6017108614 0.5961181803
390297660.0 0.6166703316 -0.5904351471 0.0001545344 9.29777e-05 -0.0001289617 -7.49674e-05 -0.5955673434 0.6012846942
395297630.0 0.6111908521 -0.5961917487 0.0001263951 9.53982e-05 -0.0001051952 2.66099e-05 -0.5889444939 0.6084285852
400297600.0 0.6052680092 -0.60204393 -2.31227e-05 3.54943e-05 -9.1182e-06 -4.30442e-05 -0.5828788794 0.6138661811
405297570.0 0.5991341561 -0.6079134461 0.00022243 3.20302e-05 -5.73624e-05 -2.1616e-06 -0.5774560513 0.6198566437
410297540.0 0.5929838464 -0.6134657558 -6.40291e-05 2.3422e-05 1.28392e-05 -6.83692e-05 -0.5694215647 0.6257165328
415297510.0 0.5876401391 -0.6191557896 -5.87414e-05 1.26148e-05 1.47542e-05 2.49648e-05 -0.5637258369 0.6320340781
420297480.0 0.5809561661 -0.6253030889 6.7124e-06 -9.40263e-05 -6.62412e-05 -1.8957e-06 -0.5568495953 0.6368590703
425297450.0 0.5745690529 -0.6306051238 -0.0001717802 0.0002757479 -0.0001557728 -0.0001398782 -0.549871642 0.6433042007
430297420.0 0.5684051186 -0.6357277174 -0.0001522256 0.00010953 8.37873e-05 5.82601e-05 -0.5437572619 0.6487600361
435297390.0 0.5622539857 -0.6417149733 5.1236e-05 0.000160927 -5.72102e-05 0.0001501499 -0.536981266 0.6536017048
440297360.0 0.5557153446 -0.6476474655 1.86165e-05 3.96428e-05 -5.7672e-05 -0.0001224656 -0.530043402 0.6589453741
445297330.0 0.5493729535 -0.6518591136 -0.0001286644 2.87946e-05 0.0002001601 -2.9482e-05 -0.5235952867 0.6644771972
450297300.0 0.5431132621 -0.6577423279 -0.0001486648 0.000234323 -4.75134e-05 -3.59859e-05 -0.517040364 0.6698410952
455297270.0 0.5363020827 -0.662474702 -2.66001e-05 8.60657e-05 -2.4512e-05 -8.82963e-05 -0.5099758454 0.6750561463
460297240.0 0.5301576754 -0.6672383884 -0.0001962965 -6.09071e-05 5.94377e-05 -0.0002195509 -0.5025204064 0.6804287564
465297210.0 0.5230650648 -0.6728357484 0.0001686906 0.000170336 0.000164577 -7.182e-06 -0.4961270136 0.6851683151
470297180.0 0.5164938935 -0.6782093168 4.73451e-05 2.97727e-05 1.47509e-05 -6.46895e-05 -0.4895811538 0.6894858519
475297150.0 0.5101045245 -0.6828952294 7.2304e-06 -1.99775e-05 0.000185713 5.99954e-05 -0.481785515 0.6951297056
480297120.0 0.5034199002 -0.6877068693 -4.53966e-05 1.04005e-05 0.0001904831 3.42364e-05 -0.4750542266 0.6995504797
485297090.0 0.4966292462 -0.6923714944 -0.0001146616 -1.74126e-05 -4.4104e-05 6.22866e-05 -0.4679056864 0.7041446673
490297060.0 0.4901057544 -0.6974545784 0.0001113579 -2.45438e-05 -6.57222e-05 1.37414e-05 -0.4608731017 0.708573155
495297030.0 0.482701916 -0.7024330102 -7.55627e-05 7.66323e-05 6.45793e-05 7.9623e-06 -0.4533308427 0.7128245373
500297000.0 0.4761252147 -0.7065880906 6.22347e-05 0.0001458402 -0.0001450879 -0.0001100707 -0.4466321808 0.7175199784
505296970.0 0.4684128137 -0.711058716 -7.17342e-05 -0.0001219181 8.07437e-05 -6.6965e-05 -0.4400832294 0.7217650778
510296940.0 0.4616436938 -0.7152103778 -0.000105216 0.0002169056 -0.0001602113 -5.80474e-05 -0.4319163047 0.7259583825
515296910.0 0.4547366379 -0.7199649236 -2.71194e-05 0.0001152706 -6.12428e-05 -8.07394e-05 -0.4245511559 0.7309138944
520296880.0 0.4476073811 -0.7246809069 -4.66922e-05 -9.17416e-05 7.58168e-05 -0.0001240992 -0.4172246026 0.7345743891
525296850.0 0.4404135055 -0.728661608 0.0001017732 -3.25003e-05 1.717e-06 -3.37986e-05 -0.4095392188 0.7393952705
530296820.0 0.4330318534 -0.732331207 -0.0001780059 0.0001387576 -2.21566e-05 5.18998e-05 -0.4027952727 0.7429470893
535296790.0 0.4261790269 -0.736650215 0.0001224453 1.01673e-05 -4.82412e-05 -0.000100456 -0.3955520216 0.7460154221
540296760.0 0.4186277817 -0.7411911081 -0.0002538169 3.31014e-05 0.0002163427 8.188e-06 -0.3877424453 0.7506907233
545296730.0 0.4113777759 -0.7441348426 2.4712e-06 -0.0001327145 6.143e-05 -0.000194559 -0.3805257329 0.7538270476
550296700.0 0.4038141977 -0.7487895724 0.0001077179 6.977e-05 6.32132e-05 2.7187e-06 -0.3728611771 0.7579803219
555296670.0 0.3962548443 -0.7528933018 0.0003002697 4.98992e-05 -8.07289e-05 -1.95666e-05 -0.3655230936 0.7616651002
560296640.0 0.3895631667 -0.7569682215 -0.0002318677 7.9804e-06 4.24861e-05 -7.77804e-05 -0.3571715911 0.7654647632
565296610.0 0.3812943311 -0.7602200524 -0.0001111896 3.42905e-05 4.69815e-05 -0.0002071798 -0.3504162615 0.7685361679
570296580.0 0.3744466023 -0.7641441471 9.2573e-05 -7.2586e-05 -0.0001605181 0.0002169116 -0.3427964609 0.772221566
575296550.0 0.3664316582 -0.7674256219 -0.000187477 -8.84946e-05 0.0001066394 -0.0001812975 -0.3348781837 0.7756867343
580296520.0 0.3598895922 -0.770465849 0.0002043483 -3.97886e-05 -7.44041e-05 -0.0001058603 -0.3270274458 0.7786741818
585296490.0 0.351058147 -0.7738537789 -0.0001632205 5.74419e-05 -9.02746e-05 -3.98811e-05 -0.3194004027 0.782020523
590296460.0 0.3439834876 -0.7778735217 -0.0001723665 0.000199724 0.0002193122 3.11373e-05 -0.3115123056 0.7849266261
595296430.0 0.3359132714 -0.7804865384 7.22609e-05 -7.41027e-05 0.0001465198 -0.0001005633 -0.3039839656 0.7867162419
600296400.0 0.3281019944 -0.7841330068 -7.66548e-05 -6.07424e-05 -4.65162e-05 -5.81394e-05 -0.2958734974 0.7912806261
605296370.0 0.3205565932 -0.7862620817 0.000152166 -9.80388e-05 -6.23081e-05 3.86245e-05 -0.2882280877 0.7947059833
610296340.0 0.3129734118 -0.7906523306 9.2475e-06 -2.30816e-05 -8.41438e-05 -0.0001064055 -0.2800184171 0.797000681
615296310.0 0.3046504231 -0.7925008974 1.98044e-05 3.01108e-05 -4.44277e-05 4.10022e-05 -0.2725831917 0.7991932277
620296280.0 0.2973170548 -0.7960497878 0.0001157116 -6.58905e-05 -9.70494e-05 -2.7066e-05 -0.2646655353 0.8017816825
625296250.0 0.2896573072 -0.7982179296 4.86789e-05 4.645e-05 -0.0001132757 4.74027e-05 -0.2569510852 0.804910893
630296220.0 0.2809393134 -0.8014170279 6.2597e-05 8.0378e-05 0.0001011689 -7.53095e-05 -0.2478990038 0.8072817426
635296190.0 0.2734878054 -0.8041698744 -0.0001422647 6.49964e-05 4.34283e-05 0.0001083755 -0.240799866 0.8092415596
640296160.0 0.2658168527 -0.8060003113 -8.00009e-05 0.0001175234 0.0001062644 0.0001705973 -0.2323768366 0.8119028702
645296130.0 0.257272858 -0.8087975929 0.000171192 -1.79719e-05 -3.48133e-05 0.0001534965 -0.2250639735 0.8140323087
650296100.0 0.2493790137 -0.8114264352 0.0001077464 0.0001486777 -0.0001137778 -0.0001399926 -0.2165844496 0.8163690014
655296070.0 0.241325993 -0.8131300478 8.83609e-05 -5.63115e-05 -2.38086e-05 3.10778e-05 -0.2083030664 0.8178669381
660296040.0 0.2327402586 -0.8157877706 4.77771e-05 0.0001337427 -3.32142e-05 -0.0001779795 -0.199981 0.820346188
665296010.0 0.2250550966 -0.8177422695 -6.99388e-05 6.45424e-05 5.73763e-05 5.66457e-05 -0.1920936295 0.8226616866
670295980.0 0.2178203611 -0.8201041701 2.8543e-05 0.0001072249 -9.85713e-05 -0.0001331061 -0.1845987575 0.8238882944
675295950.0 0.2089774295 -0.8220825719 -0.0002131587 -4.51704e-05 1.74807e-05 0.0001871688 -0.1761232985 0.8260591262
680295920.0 0.2006163107 -0.8236617317 0.0001460794 5.59157e-05 -5.59601e-05 8.51324e-05 -0.1675014269 0.8276155976
685295890.0 0.1923924607 -0.8254708912 -5.16234e-05 3.79305e-05 6.78438e-05 8.16902e-05 -0.1597161153 0.8294172645
690295860.0 0.1850369585 -0.82696235 -9.38282e-05 8.6554e-06 2.97218e-05 -5.3952e-05 -0.1514382449 0.8301970116
695295830.0 0.1766773012 -0.8291333783 1.83943e-05 -6.53946e-05 -0.0001291458 -0.0001019521 -0.1434048608 0.8326387337
700295800.0 0.1682602711 -0.8302225378 -6.47162e-05 -0.0001284192 0.000186284 -8.56369e-05 -0.1344823808 0.8334769393
705295770.0 0.1604256782 -0.831989336 1.75736e-05 2.29623e-05 0.0001175279 -8.34585e-05 -0.1274340937 0.8353355312
710295740.0 0.151816854 -0.8332854157 1.3167e-06 -0.00019557 3.69159e-05 -0.0002796981 -0.1187251638 0.8364904926
715295710.0 0.1436118539 -0.8343602105 2.13536e-05 -8.06618e-05 -6.15938e-05 5.89347e-05 -0.1109253411 0.8374856528
720295680.0 0.1354578103 -0.8360807521 -3.92072e-05 -2.2971e-05 -6.51381e-05 -7.48529e-05 -0.1021406178 0.8379863147
725295650.0 0.1272970586 -0.8368934273 6.9932e-05 8.46188e-05 0.0001262969 -4.42585e-05 -0.0939295225 0.8396684203
730295620.0 0.1193201187 -0.838751096 -0.0001183777 0.0003907416 1.164e-07 0.0001206362 -0.0854624038 0.8405510467
735295590.0 0.1107338114 -0.8385619113 0.0002174048 -0.0001924825 0.00011052 -5.7097e-06 -0.07688855 0.8409091306
740295560.0 0.1026457183 -0.8402802728 9.08167e-05 6.29919e-05 -1.89572e-05 3.35584e-05 -0.0687503498 0.8411417143
745295530.0 0.0936967689 -0.8414548097 0.0002383197 2.44927e-05 5.5972e-06 2.82921e-05 -0.0604558889 0.8424102094
750295500.0 0.0855423801 -0.8416680359 1.94077e-05 3.94663e-05 -5.61756e-05 4.35985e-05 -0.0517421827 0.84260054
755295470.0 0.0775630619 -0.8420627779 2.44063e-05 9.84958e-05 3.70807e-05 -0.0001257144 -0.0439714778 0.8436847525
760295440.0 0.0689686735 -0.8428701095 8.19193e-05 0.0001452563 9.29561e-05 4.26089e-05 -0.0359304035 0.8436691554
765295410.0 0.0607484129 -0.8433136682 -0.0001008606 6.58639e-05 2.73772e-05 -2.15075e-05 -0.0273020503 0.8441918486
770295380.0 0.052637027 -0.8439303741 0.0001971781 -0.0002656729 0.0002322643 -0.0001853642 -0.0186031556 0.8440148273
775295350.0 0.0444386398 -0.8439397519 0.000279589 9.53502e-05 -0.000258179 0.0001233152 -0.0113762653 0.8435862104
780295320.0 0.0353244167 -0.8453547129 -1.44751e-05 -4.63463e-05 -0.0001356775 -1.83046e-05 -0.0023732701 0.8442792361
785295290.0 0.027104001 -0.8447786877 -2.22314e-05 9.83136e-05 -9.51797e-05 0.0001476024 0.0050788549 0.8443327045
790295260.0 0.0193309241 -0.8444587582 -3.35646e-05 -7.6127e-05 -3.62213e-05 -4.12452e-05 0.0147549249 0.8441843924
795295230.0 0.0104297076 -0.8444399917 2.77693e-05 -0.000189899 3.8325e-05 6.97396e-05 0.0228573071 0.8441934585
800295200.0 0.0023690894 -0.8442032024 6.87465e-05 -0.0001426744 0.0001048422 -1.79615e-05 0.0303841952 0.8438597844
805295170.0 -0.0056427977 -0.844845551 -4.86354e-05 -2.16714e-05 -4.16987e-05 6.044e-07 0.0388498632 0.8427611521
810295140.0 -0.0143144847 -0.8437723544 1.04356e-05 0.0001569555 -2.40733e-05 2.26863e-05 0.0469468449 0.8431906224
815295110.0 -0.0223248207 -0.8435856111 -3.60368e-05 0.00015024 -6.00023e-05 -0.0001745197 0.0556845164 0.8423846824
820295080.0 -0.0309664383 -0.8439616368 0.0001660617 0.0003002879 -0.000132415 -0.0001297736 0.0634299877 0.8419295693
825295050.0 -0.0393579064 -0.8430672469 0.000294149 0.0002083532 -0.0002533679 7.10803e-05 0.0720266006 0.8413202529
830295020.0 -0.0480353756 -0.8419856349 0.0001349699 0.0001106695 0.0002046394 3.50385e-05 0.0800091809 0.8405305132
835294990.0 -0.0555871642 -0.8417979346 0.000138353 6.29769e-05 -2.02826e-05 5.56749e-05 0.0885232547 0.8397023868
840294960.0 -0.0639069523 -0.840893006 7.60215e-05 7.7514e-05 -5.11429e-05 2.33914e-05 0.0965983506 0.8387078577
845294930.0 -0.0721814785 -0.8407811169 8.03498e-05 3.83177e-05 2.10351e-05 -0.0001546959 0.1045385813 0.8376263204
850294900.0 -0.0811612151 -0.8390692201 2.34114e-05 0.0001506192 7.83684e-05 0.0003550789 0.1128500655 0.8369381558
