!Created with skrf (http://scikit-rf.org).
# Hz S RI R 50.0 
!freq ReS11 ImS11 ReS21 ImS21 ReS12 ImS12 ReS22 ImS22
300000.0 -0.7698585905 -0.1075368347 -0.0014638372 0.0026439835 -0.0012592005 0.0010203798 -0.2113077337 -0.0836168627
5299970.0 -0.7848642346 -0.0061352585 -6.70631e-05 0.0002184703 0.0002605636 -2.003e-05 -0.2149302615 0.0084765247
10299940.0 -0.7876236022 -0.0041975615 3.9149e-06 -3.13864e-05 3.40656e-05 7.44347e-05 -0.211129486 0.0213000454
15299910.0 -0.7938261691 -0.002288699 0.0001012732 0.0001418305 -5.0477e-06 -2.48308e-05 -0.2059397992 0.0312594394
20299880.0 -0.8002695088 0.0020652104 2.86701e-05 3.59551e-05 1.51035e-05 0.0002137515 -0.1999588664 0.0389777847
25299850.0 -0.806589896 0.0078017384 2.39549e-05 0.0001399191 0.0002125721 5.47328e-05 -0.1936191657 0.0458656218
30299820.0 -0.8122655785 0.0148654442 -0.0001257341 0.0001441756 0.0001582304 2.56497e-05 -0.1872049328 0.0508457728
35299790.0 -0.8174511661 0.0243731345 3.29692e-05 0.0001965578 -2.1663e-06 0.0001422758 -0.1811458962 0.0548037589
40299760.0 -0.8215567492 0.0333721183 0.0002534066 7.92741e-05 4.97338e-05 -0.0001004042 -0.1748414359 0.0573231922
45299730.0 -0.8245016407 0.0427130863 -0.000176122 3.43625e-05 -4.61868e-05 0.0001155451 -0.1692235229 0.059880965
50299700.0 -0.8271300078 0.0527380333 4.25809e-05 9.9999e-06 -3.37407e-05 -0.0001341546 -0.1641128501 0.0607468578
55299670.0 -0.829288096 0.0629323811 -0.0001093975 0.000152438 3.54978e-05 0.0001415699 -0.1595657671 0.0621148239
60299640.0 -0.8304636982 0.0732094531 0.0001994344 4.87958e-05 -7.1315e-06 -0.0001269204 -0.1547780309 0.0624861279
65299610.0 -0.8310676547 0.0833189881 0.0001135792 5.4595e-05 2.04188e-05 0.000154586 -0.1514176615 0.0625431845
70299580.0 -0.8315894199 0.0931210433 8.20163e-05 -1.96962e-05 2.12161e-05 0.0001595568 -0.1477041325 0.0630438865
75299550.0 -0.8319519141 0.1032522403 0.0001621136 -7.93668e-05 8.3096e-05 0.0002901522 -0.1448158522 0.0624746621
80299520.0 -0.8320438667 0.1132855226 0.0001961382 -4.69356e-05 -9.147e-06 -8.51345e-05 -0.1420368103 0.0629637495
85299490.0 -0.8308514648 0.1222881146 5.7193e-05 9.95822e-05 5.99303e-05 -7.57793e-05 -0.1395346649 0.0622916587
90299460.0 -0.8303096907 0.1319633244 -0.0003073902 6.82033e-05 -0.0001593173 0.0001352242 -0.136791558 0.0620481077
95299430.0 -0.8290559604 0.1414952979 -0.0001395319 0.0001452265 5.50433e-05 1.46782e-05 -0.1349305904 0.0620581494
100299400.0 -0.82754046 0.1509362497 1.70947e-05 -6.0823e-06 0.0001745827 4.01093e-05 -0.1325739017 0.0617741305
105299370.0 -0.8274245918 0.1599596241 7.88899e-05 1.82858e-05 -2.7552e-06 2.2527e-05 -0.1309410891 0.0611433053
110299340.0 -0.8253665447 0.1692737168 -0.0001066094 5.99516e-05 -2.32086e-05 1.67428e-05 -0.1292791852 0.0612833441
115299310.0 -0.8239923752 0.1784209614 7.37828e-05 6.5e-07 5.93195e-05 5.76751e-05 -0.127820314 0.0612873518
120299280.0 -0.8221035066 0.1868099342 2.23806e-05 -7.17635e-05 -0.0001634178 -2.15544e-05 -0.12666686 0.0612127128
125299250.0 -0.8206807818 0.1958040406 0.000221645 0.0001090513 -8.38815e-05 6.3066e-05 -0.1255897072 0.0607572106
130299220.0 -0.8187825851 0.2054765529 8.61227e-05 1.89541e-05 8.87557e-05 -6.45472e-05 -0.1243944573 0.0608249634
135299190.0 -0.8171334264 0.2141900271 -6.8882e-05 0.0001053441 -0.000136488 6.18705e-05 -0.1231937661 0.0609370785
140299160.0 -0.8147319338 0.2230357764 -3.42762e-05 -7.56584e-05 -1.87712e-05 2.78914e-05 -0.122216723 0.0612995263
145299130.0 -0.8124246204 0.2317659321 -1.59571e-05 0.0002734182 3.39549e-05 0.0001247231 -0.1218058593 0.0615792325
150299100.0 -0.8101395167 0.2407806592 8.522e-07 3.22494e-05 -3.16379e-05 2.05669e-05 -0.121012963 0.0620966821
155299070.0 -0.8081335587 0.2494700845 -8.14855e-05 0.0001519214 -0.0001507213 7.67385e-05 -0.119850587 0.0624332046
160299040.0 -0.8049347699 0.2575095155 -0.0001080649 3.66866e-05 0.0001576819 -1.05495e-05 -0.1196340299 0.0628290892
165299010.0 -0.8030238608 0.2669709144 0.0002184416 8.49114e-05 2.4757e-05 -1.70579e-05 -0.1185986885 0.0631124646
170298980.0 -0.7999204689 0.2754624048 -2.38214e-05 -0.0001455678 0.0001442958 -5.4557e-06 -0.1180278616 0.0636348071
175298950.0 -0.7972615162 0.2839230072 9.83343e-05 0.0001495769 9.62508e-05 0.0002687514 -0.1178615011 0.0639801692
180298920.0 -0.7946880125 0.292672244 -0.0001164173 0.0002399717 -3.6455e-06 0.0001909746 -0.1171581627 0.0645675356
185298890.0 -0.7915793817 0.3009835653 7.74868e-05 0.0002280076 2.01562e-05 -0.0001008408 -0.116341389 0.0650390345
190298860.0 -0.7884837262 0.3096734969 -1.66399e-05 0.0001384356 5.61548e-05 2.69741e-05 -0.115913559 0.065565286
195298830.0 -0.7849854641 0.3178873041 6.5038e-06 7.88595e-05 6.10289e-05 4.223e-05 -0.1157824147 0.0662461607
200298800.0 -0.7818132165 0.3258941108 6.81366e-05 -0.0001771403 9.73885e-05 0.000212312 -0.1153218664 0.0666906407
205298770.0 -0.7785759623 0.3341262741 -3.14674e-05 -1.46199e-05 0.000108982 -2.3865e-06 -0.1149552325 0.0672455692
210298740.0 -0.7752796474 0.3426278932 0.0002665399 -3.28181e-05 1.66102e-05 0.000143497 -0.114250969 0.0682121817
215298710.0 -0.7721256147 0.350719929 0.0001279573 9.74279e-05 -0.0001302007 -1.24762e-05 -0.1143538914 0.0687184998
220298680.0 -0.7675291842 0.3582535988 -6.74192e-05 9.89991e-05 -3.2173e-06 -3.41956e-05 -0.1135062615 0.0695206594
225298650.0 -0.7647522179 0.3662915995 0.0001018366 9.7321e-06 -7.66984e-05 -0.0001547999 -0.1138069519 0.0700170524
230298620.0 -0.7600772448 0.3745436662 1.25093e-05 1.35632e-05 0.000251598 -2.38385e-05 -0.1128246113 0.0705444021
235298590.0 -0.7566753697 0.3831009933 6.52116e-05 0.0001210258 -9.00735e-05 0.0001254764 -0.1125454503 0.0715838181
240298560.0 -0.7525668973 0.3913513225 0.0001814988 0.0001887213 0.0001552143 -5.3861e-06 -0.1119787366 0.0725221251
245298530.0 -0.7487561174 0.398644682 1.89428e-05 0.0001929462 -7.139e-07 0.0001893313 -0.1116502598 0.0727839727
250298500.0 -0.7438297167 0.4066519609 -6.04481e-05 -2.44667e-05 1.6809e-06 6.44283e-05 -0.1115106915 0.0739838256
255298470.0 -0.7398531677 0.4138132246 -4.52844e-05 2.27043e-05 0.0001411851 0.0001140473 -0.1106324993 0.0740320875
260298440.0 -0.735769359 0.4215417535 0.0002145432 -3.10501e-05 -1.07854e-05 5.72431e-05 -0.1101802471 0.0753410216
265298410.0 -0.7315234569 0.4294909044 7.63747e-05 0.0001305098 9.41428e-05 0.0001109121 -0.1095056873 0.0766023183
270298380.0 -0.7269851298 0.437020194 0.0001168906 2.71766e-05 -2.34606e-05 8.47545e-05 -0.1089592645 0.0773426201
275298350.0 -0.7219719076 0.4447725563 0.0001439285 9.20962e-05 -4.95235e-05 0.0001459214 -0.1083415004 0.0779997898
280298320.0 -0.7172452168 0.4523656519 0.0002014181 -1.80353e-05 7.03988e-05 0.0001346569 -0.107940622 0.0789276842
285298290.0 -0.7132224296 0.4600957998 -9.61788e-05 -2.53607e-05 0.0002025885 4.75844e-05 -0.1071082246 0.0797050949
290298260.0 -0.7075207946 0.467023305 -0.0001035249 0.0001477557 4.69992e-05 0.00043327 -0.1066139234 0.0808222978
295298230.0 -0.7023795816 0.4739175636 0.0001280873 0.0002814002 0.0001639652 1.58478e-05 -0.1055199934 0.0814341812
300298200.0 -0.697870414 0.4816803438 8.025e-07 0.0003126888 9.87716e-05 2.19397e-05 -0.105487302 0.0825889568
305298170.0 -0.6929165885 0.4879006286 8.72861e-05 7.55623e-05 -1.81706e-05 0.0002546848 -0.1042707388 0.083079514
310298140.0 -0.6875522185 0.4958758125 6.35846e-05 4.98302e-05 2.31587e-05 0.0003177449 -0.1042544293 0.0841007243
315298110.0 -0.6827361676 0.5031546691 0.0001233436 4.43795e-05 0.0001651511 0.0001229221 -0.1031959176 0.0847813513
320298080.0 -0.6773915134 0.509947191 6.59567e-05 -7.17554e-05 0.0002319537 0.0001003703 -0.102769286 0.0858424798
325298050.0 -0.6719414465 0.517069391 0.0002709915 -5.422e-07 8.46145e-05 0.0001390573 -0.1023659174 0.0866411625
330298020.0 -0.6665462641 0.5234960215 0.0001974215 0.0001934705 2.72992e-05 7.39062e-05 -0.1021117427 0.087984842
335297990.0 -0.6609105603 0.5302726123 3.55043e-05 -1.50216e-05 8.40487e-05 0.0001227356 -0.1015548962 0.0892645037
340297960.0 -0.6560323208 0.5370898558 -0.0001338163 -8.45846e-05 -1.36845e-05 0.0002830974 -0.100329823 0.0899631637
345297930.0 -0.6507116394 0.5444294621 -3.28196e-05 5.18239e-05 4.65866e-05 1.28778e-05 -0.1002894561 0.0909359859
350297900.0 -0.6448460916 0.550633859 5.61529e-05 5.65229e-05 -0.0001265461 6.71e-08 -0.0995244993 0.0926709248
355297870.0 -0.6382427503 0.5581427796 6.50002e-05 3.84664e-05 0.0002212806 0.000402288 -0.0991753507 0.0933527463
360297840.0 -0.632599488 0.5637226113 8.74166e-05 0.0001222823 7.08005e-05 0.0001348332 -0.0985013531 0.0944125628
365297810.0 -0.6270973847 0.5704510594 6.58438e-05 0.0002021668 0.0002509456 0.0001312764 -0.0976678902 0.095595395
370297780.0 -0.6212073112 0.5769928048 -0.0001184822 7.17602e-05 0.0003522244 0.0001926417 -0.0967342088 0.0965235226
375297750.0 -0.6145146535 0.5830598328 -3.00565e-05 3.98387e-05 0.0002126725 8.58329e-05 -0.0965640808 0.0973952478
380297720.0 -0.6082761519 0.5888517469 8.39692e-05 6.01538e-05 0.0001295246 -2.90116e-05 -0.095787129 0.0985658559
385297690.0 -0.6033748885 0.5948562689 4.63074e-05 0.0001606869 0.0002634594 -6.2079e-05 -0.0946279449 0.0994632482
390297660.0 -0.5972206319 0.6011683962 0.0001674985 5.37635e-05 0.0001368689 3.63271e-05 -0.0944093103 0.1007260217
395297630.0 -0.5901095303 0.6078264043 0.0002513243 -9.3088e-05 0.0001552388 -2.6253e-06 -0.0932230123 0.1016019298
400297600.0 -0.5841940324 0.6143296043 0.0003094648 8.38608e-05 8.28433e-05 3.85363e-05 -0.0925936785 0.1026717452
405297570.0 -0.5783294672 0.6197641314 0.0001902022 2.8135e-05 0.0002053203 0.0001455879 -0.0919863503 0.1034186178
410297540.0 -0.5710714115 0.625222574 0.0001742788 0.0003658871 1.39133e-05 0.0001016538 -0.0909230868 0.1047068775
415297510.0 -0.5645442406 0.6309078837 -7.1919e-06 1.9688e-05 6.53064e-05 0.0001938337 -0.0901115067 0.1055309822
420297480.0 -0.5592619925 0.6367638461 0.0002622856 -7.48761e-05 0.0001041489 0.0002239881 -0.089046985 0.1068821843
425297450.0 -0.5522106781 0.6426076582 -0.0001131187 9.66853e-05 0.0001731576 5.06535e-05 -0.0884315926 0.1076642045
430297420.0 -0.5451852165 0.6480265856 9.68348e-05 0.0003008893 6.41759e-05 7.3288e-06 -0.088002354 0.1081516832
435297390.0 -0.5389786529 0.6527925327 0.0001657397 0.0001604449 -9.05398e-05 7.13403e-05 -0.0868105934 0.1091766221
440297360.0 -0.531976909 0.658762717 -6.60417e-05 -6.25632e-05 0.0003563984 0.0001325032 -0.0857063505 0.1103430169
445297330.0 -0.5251134276 0.6646998461 -6.61833e-05 0.0001550887 5.08063e-05 8.46352e-05 -0.0850416858 0.1107784643
450297300.0 -0.5185299156 0.6690211459 0.000179375 9.3721e-05 0.0002687142 8.79046e-05 -0.0837481601 0.1118780678
455297270.0 -0.5117983815 0.6744315228 0.0001509712 -8.24986e-05 0.0001271202 7.95518e-05 -0.0831210494 0.1126293443
460297240.0 -0.5049210122 0.6795798306 -1.88328e-05 3.00249e-05 0.0001094309 4.76103e-05 -0.082091552 0.1138119262
465297210.0 -0.4978051335 0.6848477402 0.000306605 0.0001216428 0.0002783839 -9.19744e-05 -0.0809509573 0.1144659758
470297180.0 -0.490181979 0.6896277864 0.0001901841 0.0001171824 0.0001777374 3.13858e-05 -0.0798814569 0.1153225396
475297150.0 -0.4837241713 0.6943212115 0.000127069 0.0001655107 -8.20683e-05 6.15668e-05 -0.0788526675 0.1160941171
480297120.0 -0.4763656899 0.6993839582 0.0001021682 -0.000272622 0.0001915974 5.0225e-05 -0.0775717436 0.117583713
485297090.0 -0.469364013 0.7037804993 0.0001684362 -0.000194285 0.0001484027 0.0003041058 -0.07628398 0.1185211979
490297060.0 -0.462384805 0.7086655576 0.0002376775 7.21432e-05 0.0002020777 0.0002308605 -0.0755034997 0.1192623559
495297030.0 -0.4554933835 0.7129230899 0.0002728909 -8.90249e-05 7.8348e-05 0.0002653606 -0.0744448701 0.1204512744
500297000.0 -0.4476588146 0.7181595673 2.75462e-05 7.47864e-05 6.35319e-05 -1.05993e-05 -0.0732907942 0.1213810625
505296970.0 -0.4402411146 0.7222100658 0.0002071297 4.15208e-05 0.0001422678 6.43192e-05 -0.0726384016 0.1220598931
510296940.0 -0.4327556998 0.7263604776 0.0001199332 5.20223e-05 0.0001216657 0.0002678031 -0.071220168 0.1228429315
515296910.0 -0.4250123797 0.7308540578 0.0004187569 0.0002113066 0.0002475166 6.4268e-06 -0.0702689866 0.123888551
520296880.0 -0.4186812669 0.7352007333 0.0002168424 -0.0001281132 0.0001192099 0.0002174384 -0.0694931142 0.1245516473
525296850.0 -0.4099755496 0.7387930514 0.0001871925 1.01457e-05 0.0001721863 3.09819e-05 -0.0682770165 0.1258399269
530296820.0 -0.403172254 0.7431616213 -1.5432e-05 0.0002375906 0.0001278541 3.36876e-05 -0.0670944565 0.1264801684
535296790.0 -0.395745808 0.7471001383 9.64482e-05 -0.0001074288 0.0003647977 0.0001644234 -0.0663777771 0.1273724768
540296760.0 -0.3882390067 0.7509073274 4.4994e-05 -0.0001531644 0.0001338133 -5.1381e-06 -0.0650032426 0.1280454729
545296730.0 -0.3809189884 0.7550424449 0.0004208794 0.0001014006 0.000211987 0.0001148101 -0.0642820507 0.1289108201
550296700.0 -0.373458265 0.7586171114 0.0002508696 0.000132344 0.0002072117 -0.000106023 -0.062854342 0.1297571667
555296670.0 -0.3652468002 0.7617144744 3.11535e-05 0.0001279424 0.0002005562 3.59524e-05 -0.061951231 0.1309948304
560296640.0 -0.3576231906 0.7664113794 0.0003684857 6.35906e-05 6.43828e-05 8.16874e-05 -0.0604868183 0.1317617849
565296610.0 -0.3497177166 0.7695753943 0.0002855948 7.2431e-05 0.0001883293 5.31062e-05 -0.0592855399 0.1319570968
570296580.0 -0.3425106014 0.7722101611 0.000284978 0.0002294844 0.0002394092 -0.0002633463 -0.0586074262 0.1330590473
575296550.0 -0.3347004391 0.7761430659 0.0002429525 9.34008e-05 0.0001396897 4.20428e-05 -0.0568416701 0.1338637179
580296520.0 -0.3263020918 0.7796784881 0.0002947357 2.49142e-05 0.0001420957 -1.66132e-05 -0.0557696401 0.1341907248
585296490.0 -0.3187596419 0.7827417949 0.0002481547 -0.0002659148 0.000268586 -7.61738e-05 -0.0547951233 0.1350434621
590296460.0 -0.3108172034 0.785433802 5.77943e-05 0.000197232 -3.2518e-05 2.52924e-05 -0.0536608932 0.1356698551
595296430.0 -0.3029652585 0.7883721016 7.5408e-05 2.7251e-06 -3.07447e-05 7.31101e-05 -0.0524485738 0.1357970469
600296400.0 -0.2950366706 0.7918772051 0.0001722704 0.0001512669 0.0001786844 2.10305e-05 -0.0513149023 0.1369958689
605296370.0 -0.2874681762 0.7946879199 0.0001008911 -1.15612e-05 2.6601e-05 -0.0001446122 -0.0496873942 0.1374540716
610296340.0 -0.2794408482 0.7975271049 2.69434e-05 -2.77285e-05 0.0001043694 -0.0001016208 -0.0484687259 0.138420809
615296310.0 -0.2709282785 0.7998609781 0.0002352133 -1.90944e-05 0.000160809 -4.95677e-05 -0.0472470096 0.1385020742
620296280.0 -0.2632171708 0.8016043167 0.0001280105 2.98557e-05 -0.0001219919 0.0001147722 -0.0458913474 0.1393011117
625296250.0 -0.2550506886 0.8056522512 0.0004489939 -1.36729e-05 5.32049e-05 -7.5775e-06 -0.0446645565 0.1397357642
630296220.0 -0.2463329709 0.807208585 0.0003753945 -4.62538e-05 0.0004380739 -0.0001281937 -0.0432489997 0.1407509768
635296190.0 -0.2392557077 0.8102571639 -4.53624e-05 -7.17993e-05 0.0001804731 7.33513e-05 -0.0420624843 0.1411096487
640296160.0 -0.2313114595 0.8123877038 0.0001991152 8.61701e-05 0.0003439633 -2.6816e-06 -0.0406440217 0.1416274297
645296130.0 -0.2227758757 0.8145040303 8.08644e-05 -0.0001426829 0.0002208703 -0.000210015 -0.0394358843 0.1425153637
650296100.0 -0.2149131127 0.8168009241 0.0002959831 -2.97074e-05 0.0005238016 0.0002997827 -0.0376505651 0.1426886983
655296070.0 -0.2064801814 0.8187832241 0.0002833042 -0.0001062857 0.0003309548 1.26078e-05 -0.0363033867 0.1433577939
660296040.0 -0.1984289446 0.8205212847 0.0002679063 0.0001437567 0.0003143924 -2.82999e-05 -0.0349890461 0.1442139162
665296010.0 -0.1897042082 0.8224381663 0.0003301501 -3.54518e-05 0.0001449048 0.0001077405 -0.0334687792 0.1449957811
670295980.0 -0.1826479942 0.8249236855 0.0002711141 -4.02372e-05 0.0001611093 0.000123266 -0.0325640689 0.145299605
675295950.0 -0.1737529914 0.8265014801 0.0001030447 -3.4094e-06 0.0003469016 -0.0001257017 -0.0312193148 0.1459817684
680295920.0 -0.1652759807 0.8280719235 0.0001190865 -2.08473e-05 0.0001638986 0.0001019491 -0.0296259594 0.1466950883
685295890.0 -0.15648934 0.8302547983 0.0002817758 0.0001261844 0.0001258538 -0.0001064937 -0.0284012497 0.147276846
690295860.0 -0.1489876619 0.8308278555 0.0004322821 -5.79125e-05 0.00039459 3.08532e-05 -0.0267276712 0.1477628448
695295830.0 -0.140989943 0.8322599855 0.0002009216 -0.0001884173 0.0002399391 4.1559e-05 -0.0256076894 0.1480790772
700295800.0 -0.1321582786 0.8339135573 0.0001384193 -0.0002096025 0.000365229 0.0002124436 -0.0246544388 0.1487009153
705295770.0 -0.1240006282 0.8355370729 0.0001774948 -3.10527e-05 2.89942e-05 3.63065e-05 -0.0230745474 0.1496260046
710295740.0 -0.1158944878 0.8365275724 0.0001405229 0.0001429638 0.0002954322 9.53227e-05 -0.021822103 0.1494956715
715295710.0 -0.1076809243 0.8372969642 0.0001342681 -1.0545e-05 0.0001379602 -8.35001e-05 -0.0203466771 0.1502787141
720295680.0 -0.0990598289 0.8383862053 0.000224955 -0.0001250671 0.0002954337 8.06561e-05 -0.0190275802 0.1505620347
725295650.0 -0.0907374238 0.8396084983 0.0002135046 0.000179699 0.0002834468 9.0778e-05 -0.0177751422 0.1512016088
730295620.0 -0.0821609892 0.8407068909 0.0004273186 -7.98032e-05 0.000340628 7.37789e-05 -0.0164564131 0.1512288726
735295590.0 -0.0744104308 0.8411341492 0.0003227616 0.0001072289 0.000216978 -0.0001148426 -0.0152895448 0.151567638
740295560.0 -0.0664161972 0.8425230293 0.0003369477 -8.56729e-05 0.0003116112 -8.64316e-05 -0.0133901139 0.1520702068
745295530.0 -0.0575374421 0.8426245367 0.0001965142 0.0001425515 0.0002123198 4.2298e-05 -0.0117243189 0.1520212792
750295500.0 -0.048965589 0.8428143431 0.0002220651 6.96904e-05 0.0001778497 -0.0001363281 -0.0105790968 0.1527896855
755295470.0 -0.0407962314 0.8431947459 0.0001864618 -5.42738e-05 0.0004806051 0.0001341998 -0.0088005571 0.1524419688
760295440.0 -0.0328586489 0.8428593895 0.0004407882 -0.0001269745 0.0002387768 0.000133225 -0.007973534 0.1527014457
765295410.0 -0.0249674172 0.8439344411 0.0002299757 -4.94547e-05 0.000244314 4.39793e-05 -0.0063535 0.1530977688
770295380.0 -0.016506338 0.8439937816 8.3913e-05 -0.0002666439 0.0002140467 -0.0001231204 -0.0051044114 0.1534959954
775295350.0 -0.0083917349 0.8447080248 0.0002270872 9.62644e-05 -4.13077e-05 -5.6062e-06 -0.0036240141 0.1535926887
780295320.0 0.0008243219 0.8439935364 0.0001198599 0.0001560197 0.0002960994 -3.25894e-05 -0.0021690121 0.1538834252
785295290.0 0.008539941 0.8437438898 -4.44535e-05 -0.0002189786 3.7182e-06 6.32385e-05 -0.0002879961 0.1541944037
790295260.0 0.0174807499 0.844009783 0.0003023321 -0.0002247434 0.0001185653 -6.9353e-06 0.0013608243 0.1543788639
795295230.0 0.0253248334 0.8435210811 0.0001537367 -7.4197e-06 0.0003068258 -2.12724e-05 0.0027318806 0.154383911
800295200.0 0.0336969106 0.8434477417 0.0002943654 0.0001433445 7.88661e-05 -5.72646e-05 0.003847986 0.1545387246
805295170.0 0.0427081131 0.8431543148 -5.46291e-05 5.33439e-05 7.87068e-05 -0.0001049955 0.0057080832 0.1546364592
810295140.0 0.0508399757 0.8425945012 0.0002394838 -9.09774e-05 0.0001593588 -0.0001089802 0.007500711 0.154770294
815295110.0 0.0590536249 0.8418140175 0.0003550213 1.71699e-05 0.000252694 -6.00365e-05 0.008941413 0.1549899914
820295080.0 0.0670989426 0.8418360169 0.0003712786 -0.000221613 0.0002011998 3.33848e-05 0.0105785781 0.1552430204
825295050.0 0.0761520052 0.840498073 0.0001869378 -8.893e-07 0.000172943 -0.0003054445 0.0118935442 0.1555172709
830295020.0 0.0839132747 0.8398435791 0.0003104997 3.7113e-05 -7.4507e-06 -9.71708e-05 0.0135693874 0.1554388928
835294990.0 0.0924328502 0.8392500665 0.0004498014 0.0001580961 0.0002401601 0.0001051048 0.0148426018 0.1558035612
840294960.0 0.099765046 0.8382984037 0.0002890022 -0.0001801455 0.0004043074 -0.0001477158 0.016290948 0.1557815504
845294930.0 0.1080668047 0.8368249101 0.0001721934 -0.0001301697 5.49753e-05 -0.0001794055 0.017675477 0.1556259827
850294900.0 0.1170406132 0.8360743972 0.0001090637 -0.000105335 0.0002708694 -5.825e-05 0.0191268069 0.1560784589
