!Created with skrf (http://scikit-rf.org).
# Hz S RI R 50.0 
!freq ReS11 ImS11 ReS21 ImS21 ReS12 ImS12 ReS22 ImS22
300000.0 -0.7802540508 -0.1229456257 -0.0004724548 -0.0003955477 0.0002612808 0.0001350594 0.8595852557 -0.0027000743
5299970.0 -0.7852969927 -0.006571892 6.89965e-05 -8.19389e-05 -0.0001146499 3.12468e-05 0.8596032041 -0.0099146768
10299940.0 -0.787947216 -0.0042159641 -9.57995e-05 0.0001364573 -0.0001303149 -2.2214e-05 0.8584438078 -0.0186418728
15299910.0 -0.7930717571 -0.0022703991 0.0001181939 7.69977e-05 0.0001158911 -0.0001271769 0.8570912645 -0.0267031947
20299880.0 -0.8003097102 0.0017646795 3.36892e-05 4.92234e-05 -2.83731e-05 9.92589e-05 0.8570408047 -0.035532667
25299850.0 -0.8066765261 0.0074917331 -3.415e-05 5.50071e-05 -6.72851e-05 0.00027413 0.8564119374 -0.0432352514
30299820.0 -0.8115978579 0.0152602 -0.0002377353 -7.21662e-05 -3.93007e-05 -0.0001314954 0.8555894881 -0.052402025
35299790.0 -0.8173111685 0.0243894037 -4.83335e-05 7.35428e-05 0.0001028717 -3.52589e-05 0.8547517968 -0.0601701011
40299760.0 -0.8211653728 0.0335632529 3.60655e-05 -5.79026e-05 5.25308e-05 -1.12908e-05 0.8536378003 -0.0684919616
45299730.0 -0.8245566118 0.0424570441 -1.0771e-05 -0.0002397881 -0.0001188564 8.22974e-05 0.8527946322 -0.0766565977
50299700.0 -0.826598026 0.0529196381 0.0001639561 -0.0002487744 -7.5758e-05 -4.49341e-05 0.852011184 -0.0842537294
55299670.0 -0.8295949272 0.0631627561 -6.0059e-06 -4.0211e-05 9.92798e-05 0.0001607129 0.8512030425 -0.0929094519
60299640.0 -0.8305566953 0.0731088305 0.0001002419 -0.0001654587 4.55244e-05 -5.04077e-05 0.8498659079 -0.1010200918
65299610.0 -0.8310481276 0.0831335774 -0.0003101718 -7.37809e-05 6.27964e-05 0.0001129179 0.8493735267 -0.1091982933
70299580.0 -0.8314684801 0.0936799424 0.0001877636 0.0001742161 -0.0001445577 9.93338e-05 0.8480192253 -0.1171674074
75299550.0 -0.8312644795 0.1034883847 0.0001557734 -3.93604e-05 8.04087e-05 4.41334e-05 0.8467001941 -0.1256968388
80299520.0 -0.8318807149 0.1131455412 0.0002668061 -0.0001025979 -7.08942e-05 4.35363e-05 0.8451217018 -0.1335291059
85299490.0 -0.8308795126 0.1224470739 -3.39904e-05 0.0001047095 0.000139242 2.2058e-06 0.8442698869 -0.1419093352
90299460.0 -0.8296026149 0.1323743541 0.0002041162 -0.0001994976 0.0001317577 -2.86685e-05 0.8423094745 -0.1498666982
95299430.0 -0.8287081131 0.141383599 5.58439e-05 -0.0001515661 -0.0002809314 0.0001079678 0.8406919823 -0.1580472937
100299400.0 -0.8280307508 0.1511892093 -0.0001849415 -7.36989e-05 -9.37984e-05 9.65662e-05 0.8399133416 -0.1664972704
105299370.0 -0.8269920516 0.1598662098 -0.0001084884 0.0001476365 -8.70984e-05 -1.40552e-05 0.8373272234 -0.1743634023
110299340.0 -0.8252820513 0.169412429 3.62957e-05 3.33829e-05 0.0002798102 -1.89691e-05 0.8363557516 -0.182478195
115299310.0 -0.8237023456 0.1785410933 -5.34835e-05 1.67285e-05 7.86262e-05 0.0002462871 0.8346577342 -0.1908329404
120299280.0 -0.8219265005 0.1869135168 -0.0002978334 0.0001418582 3.2238e-05 -1.46737e-05 0.8328482213 -0.1988251512
125299250.0 -0.8202964759 0.1953905973 -0.0001249945 -5.93634e-05 -4.6363e-05 4.65334e-05 0.8306807413 -0.2066476301
130299220.0 -0.8184996478 0.2053534781 4.10337e-05 0.0001640555 1.11239e-05 0.0001069037 0.8290586652 -0.214807885
135299190.0 -0.8166688115 0.2142945208 0.0002190509 4.45589e-05 8.78959e-05 -2.38683e-05 0.8266037048 -0.2223411579
140299160.0 -0.8148026172 0.2228970646 3.60113e-05 6.39919e-05 -4.51863e-05 4.69115e-05 0.8242157489 -0.2303105711
145299130.0 -0.8129443036 0.2317506909 3.9335e-05 -0.0002010584 0.0001564912 3.82854e-05 0.8220049119 -0.2380579874
150299100.0 -0.8097809049 0.2410407983 4.9199e-05 -5.06908e-05 0.0002041147 -6.439e-06 0.819950283 -0.246921403
155299070.0 -0.8076593343 0.2492069253 4.82682e-05 7.46897e-05 6.46317e-05 -0.0001089293 0.817373573 -0.2543661464
160299040.0 -0.8049802846 0.2577745523 5.29418e-05 -5.44011e-05 3.94296e-05 9.56608e-05 0.814403381 -0.2617203984
165299010.0 -0.8028583128 0.2668508581 -9.8485e-06 -0.0002321785 -1.2785e-06 7.09237e-05 0.811227526 -0.270318518
170298980.0 -0.7997470408 0.2751746927 0.0001183054 -0.0001286362 7.75826e-05 1.67388e-05 0.8095321775 -0.2781535554
175298950.0 -0.797509281 0.2839337812 0.0001020182 6.25699e-05 8.4356e-05 -5.28946e-05 0.8069347268 -0.2857934361
180298920.0 -0.7950514656 0.292391403 7.13257e-05 -0.0001994494 0.0001852551 0.0001592309 0.8037346449 -0.2940832354
185298890.0 -0.7911237224 0.3004999756 -2.8844e-05 -1.20881e-05 -9.23402e-05 -0.0001167555 0.8008792666 -0.301601961
190298860.0 -0.788396405 0.3096587578 2.75755e-05 -0.0002124617 0.0002938984 0.0001096424 0.7976036896 -0.3082913929
195298830.0 -0.7855578385 0.3177409597 1.95507e-05 1.9602e-06 0.0001539773 -0.0001217721 0.7951415813 -0.3167673735
200298800.0 -0.7814420485 0.3260860345 0.0001147769 0.0001328727 -2.11349e-05 -5.91396e-05 0.7913046111 -0.3247949383
205298770.0 -0.7783094091 0.3337820265 0.0001188308 -3.44066e-05 -0.0001379029 -3.68316e-05 0.787989986 -0.3322385387
210298740.0 -0.7752792111 0.3423046827 -3.30205e-05 3.07025e-05 -0.0001529426 -9.35356e-05 0.7846856023 -0.339459533
215298710.0 -0.7717744648 0.3503088075 -8.69471e-05 0.0001676665 0.0001169671 8.36811e-05 0.781987196 -0.3471289776
220298680.0 -0.7676744585 0.3581943843 6.77201e-05 -0.0002758883 -5.76142e-05 -1.47651e-05 0.777772299 -0.3547864013
225298650.0 -0.764352939 0.3657705214 -0.0001204495 -4.833e-07 1.35747e-05 1.96141e-05 0.7739772772 -0.3623187798
230298620.0 -0.7600795553 0.3746083437 0.000128367 4.66148e-05 -0.0001989264 -2.6007e-05 0.7713931463 -0.3693287341
235298590.0 -0.7559458906 0.3829629011 -8.22841e-05 -0.000256211 -0.0001301354 3.57039e-05 0.7675426908 -0.3773581785
240298560.0 -0.7522754592 0.3912181215 -0.000138587 8.118e-07 9.24065e-05 0.0001638212 0.7637956709 -0.38461601
245298530.0 -0.7490359175 0.3984242121 -2.67318e-05 -2.54645e-05 0.0001784263 -0.0001040278 0.7601744882 -0.3922128199
250298500.0 -0.7445257421 0.4068598731 0.0001712909 -0.0002126953 -0.000157248 -1.6414e-05 0.7562162487 -0.3991748037
255298470.0 -0.7398814577 0.413632299 -7.4311e-06 1.14404e-05 0.0001072981 3.0402e-05 0.7523262015 -0.4069056282
260298440.0 -0.7355984613 0.4215094349 -2.20721e-05 9.28397e-05 0.0001756484 -5.2e-09 0.7484522146 -0.4137189572
265298410.0 -0.7313164405 0.4294706935 6.88993e-05 -0.000163541 -2.99282e-05 -2.69127e-05 0.7444838852 -0.4209508372
270298380.0 -0.7270952238 0.4370468291 -7.0064e-05 5.41139e-05 -0.0001401749 -7.81956e-05 0.7401477074 -0.4277334073
275298350.0 -0.7220141838 0.4439999044 -0.0001088791 7.55643e-05 2.86682e-05 -7.35875e-05 0.7362414189 -0.4355254299
280298320.0 -0.7169374066 0.4523046881 -6.38964e-05 -5.74753e-05 -5.31617e-05 -0.0001809889 0.7330225006 -0.4430284367
285298290.0 -0.7129905484 0.4599227672 -0.000111031 6.42577e-05 -2.13306e-05 5.07572e-05 0.7281489106 -0.4493521462
290298260.0 -0.7082187143 0.4672423715 8.15848e-05 -8.4521e-06 -0.0001014018 -0.0001936099 0.72424155 -0.4566996561
295298230.0 -0.7029568438 0.4741242456 8.42728e-05 -0.0001372389 0.0001799089 -0.0002093648 0.7202246243 -0.4636694228
300298200.0 -0.6979166356 0.4811970887 -3.88188e-05 0.0001564959 -3.4064e-05 0.000174426 0.7157377575 -0.4709624721
305298170.0 -0.6927846522 0.4880241239 -0.0001015701 -1.55768e-05 -5.824e-05 8.77695e-05 0.7117479595 -0.4784657864
310298140.0 -0.6879707265 0.495850147 0.0001055324 -0.0001044742 0.0001071655 -0.0001099087 0.7064065628 -0.4868565647
315298110.0 -0.6834040981 0.5030910282 -8.25737e-05 1.21565e-05 -6.30178e-05 4.80921e-05 0.7011353738 -0.4940272202
320298080.0 -0.6773936476 0.5099698818 -7.94092e-05 0.0002129793 -9.04274e-05 0.0001454339 0.6958737286 -0.5015614744
325298050.0 -0.6720946717 0.5170281933 -2.57286e-05 -4.86443e-05 3.94898e-05 3.32849e-05 0.6910513817 -0.5083764762
330298020.0 -0.6663580172 0.5239658708 -6.80314e-05 -0.0002001452 0.0002768038 0.0001384874 0.6836194751 -0.5145355797
335297990.0 -0.6607571587 0.5306354808 -0.0001886808 0.0001389301 -3.557e-05 6.37742e-05 0.6787436119 -0.5207039699
340297960.0 -0.656194997 0.5377146676 -8.53609e-05 -5.61853e-05 8.7616e-06 -0.0001358125 0.673692418 -0.5274687991
345297930.0 -0.6503336914 0.5439908677 3.01257e-05 0.0001000165 -0.0001113713 6.2206e-05 0.6682631279 -0.533886646
350297900.0 -0.6445127893 0.550743147 -2.88056e-05 -0.000153282 -0.0001124904 -7.45077e-05 0.6621670145 -0.5391902001
355297870.0 -0.6383398963 0.5581545246 0.00012341 -0.0001274661 2.88774e-05 -1.04537e-05 0.657298112 -0.5457068078
360297840.0 -0.6326783761 0.5633837225 -2.20304e-05 3.50035e-05 -0.0001659245 -0.0002306362 0.6516440524 -0.5527184539
365297810.0 -0.6275652695 0.5702412607 0.0001956614 -2.28072e-05 -0.0001648738 3.67472e-05 0.6460395865 -0.5585256562
370297780.0 -0.6211932626 0.5764555122 0.0001913704 1.51633e-05 -0.0001127596 0.0001814796 0.6406981961 -0.5644256398
375297750.0 -0.6150008239 0.5833023702 -5.03087e-05 -0.0001323715 0.0001745918 -4.29e-06 0.6356574157 -0.5705123512
380297720.0 -0.6088682 0.5887737298 -9.82162e-05 0.0001448856 -3.24782e-05 7.47898e-05 0.6287905477 -0.5765995363
385297690.0 -0.6027950887 0.5951293701 3.64296e-05 0.0002254072 -0.0001159606 -0.0001554686 0.6239342577 -0.5826373389
390297660.0 -0.5969802453 0.6010745155 0.0002080609 -8.7588e-05 2.76063e-05 0.0001003701 0.6174200282 -0.58853802
395297630.0 -0.5903257986 0.6076901506 -0.0001846767 -2.69579e-05 6.93618e-05 -6.11424e-05 0.6122303497 -0.5944827897
400297600.0 -0.5846355515 0.6136612141 6.0115e-05 0.0001303078 -3.89994e-05 0.0001628361 0.6056093991 -0.5999657973
405297570.0 -0.5780583815 0.6190259676 -0.0002603043 -0.000167519 0.0002735218 0.0002045121 0.6000310869 -0.6060811123
410297540.0 -0.5714075287 0.624917062 0.0003941324 -0.0004273178 -8.5673e-05 0.0001236059 0.5946141386 -0.6117745708
415297510.0 -0.5648695 0.6308791569 -1.62234e-05 -5.86272e-05 2.2978e-06 5.31033e-05 0.5881762617 -0.6170174791
420297480.0 -0.5598428042 0.6368356293 -0.0002290883 0.0001715605 -0.0001957455 5.52621e-05 0.5822568245 -0.6225423125
425297450.0 -0.551647374 0.642483761 0.0002451682 1.67948e-05 2.86675e-05 0.000123661 0.5763304439 -0.6286171887
430297420.0 -0.5454717016 0.6478916454 5.63088e-05 2.70148e-05 -0.000271427 0.0001010643 0.5698251155 -0.634935122
435297390.0 -0.5390636703 0.6536752068 -7.18341e-05 -0.0001649696 -0.000170635 -0.000115895 0.5635291886 -0.6401687314
440297360.0 -0.532083662 0.6590110161 -0.0002760651 1.06282e-05 -0.0001878476 8.79109e-05 0.5568834349 -0.6449577915
445297330.0 -0.5253929183 0.6646230894 6.10214e-05 -0.0001381173 9.36933e-05 -7.56837e-05 0.551484787 -0.6510880989
450297300.0 -0.5180061476 0.6695263717 0.0001236694 0.0001371945 -3.0349e-05 0.0001789906 0.5443738543 -0.6555123917
455297270.0 -0.5116522148 0.6744537734 0.0002693372 0.0001832511 3.29562e-05 2.48959e-05 0.537893516 -0.6609062752
460297240.0 -0.5051351114 0.6792897444 1.41772e-05 -5.81554e-05 -0.000165076 -7.19276e-05 0.5314302896 -0.6663814431
465297210.0 -0.4977835877 0.6851895502 -1.06029e-05 -0.0001397388 -0.0003424171 -8.9888e-05 0.5248129136 -0.6708191505
470297180.0 -0.4907628298 0.6895117603 -0.000224764 1.10892e-05 8.17677e-05 0.0001517498 0.5178223796 -0.6761154466
475297150.0 -0.4838222525 0.6942651928 1.89752e-05 -0.0001824568 -0.0003487719 -0.0002132181 0.5109378648 -0.6810452688
480297120.0 -0.4769347946 0.69933324 0.0001892315 7.3494e-05 9.9436e-06 1.25816e-05 0.5049313733 -0.6852151626
485297090.0 -0.4691624757 0.7038399109 5.0695e-05 -9.1283e-06 -0.0001144965 -0.0001215183 0.4984412978 -0.6902456308
490297060.0 -0.4623780752 0.7083346669 8.3465e-06 -0.0001803648 -6.66326e-05 0.0001330004 0.4905262802 -0.6957930003
495297030.0 -0.4551221008 0.7126899082 0.000223291 2.62542e-05 0.0001546611 -1.2543e-05 0.4847352039 -0.7001430894
500297000.0 -0.4479189267 0.7174082988 0.0001799505 -0.0001536116 -0.0001077746 3.86634e-05 0.4771894643 -0.7050718677
505296970.0 -0.4402198066 0.7224535173 -3.83853e-05 -4.66043e-05 0.0001633377 -9.09496e-05 0.4703511243 -0.7092310682
510296940.0 -0.4334595694 0.7269082559 7.3266e-05 -0.0001062366 3.5358e-06 -8.22929e-05 0.4632315773 -0.7140338242
515296910.0 -0.4247096164 0.7305258912 4.07685e-05 2.75456e-05 0.0001632975 0.0001315922 0.4566512203 -0.7181330912
520296880.0 -0.4189533969 0.735458268 2.26963e-05 7.6079e-05 8.82545e-05 -9.6276e-05 0.4492796168 -0.7235358696
525296850.0 -0.4105005805 0.7389831193 9.09284e-05 8.08058e-05 -0.000111549 -8.46913e-05 0.4420653312 -0.7262857781
530296820.0 -0.4035681188 0.7434844213 2.5199e-05 0.0001448432 7.0322e-06 1.7126e-06 0.4352305561 -0.7309777331
535296790.0 -0.3960998717 0.7470910433 6.95624e-05 0.0001495981 0.0001206759 5.0513e-06 0.4273038261 -0.7356529551
540296760.0 -0.3883156523 0.7506441912 0.0001816653 -0.0001159422 3.871e-07 -6.25627e-05 0.4201272616 -0.739134367
545296730.0 -0.3809388957 0.7548320247 -2.08904e-05 0.0002580407 -8.22851e-05 -3.8423e-06 0.4128095209 -0.7436698791
550296700.0 -0.3736830418 0.7592801958 -5.77749e-05 -0.0001138323 9.42607e-05 0.0001320222 0.4056677956 -0.7476558442
555296670.0 -0.3651602157 0.7613765461 0.0001009356 0.0001615745 0.0001473347 -0.0001292036 0.3983046005 -0.751101737
560296640.0 -0.3580483259 0.7662453841 3.97581e-05 -0.0001592948 2.32815e-05 -0.0001388231 0.3903354882 -0.7547359456
565296610.0 -0.3501253701 0.7697718681 -0.0001801928 -9.57994e-05 0.0001194258 3.86796e-05 0.3832490933 -0.7582498181
570296580.0 -0.342971769 0.77219858 0.0002153015 -4.05923e-05 -3.68213e-05 6.99768e-05 0.3755598695 -0.7620581589
575296550.0 -0.3346104615 0.776485423 -7.83317e-05 -0.000198759 0.0002251291 -3.37671e-05 0.3679917402 -0.7661368865
580296520.0 -0.3264243845 0.779498315 0.0001619448 9.58804e-05 -0.0002688137 -7.11248e-05 0.3606485403 -0.7694762617
585296490.0 -0.3193321877 0.7821533077 -8.62128e-05 0.0004481823 4.15716e-05 0.0001128649 0.3531426437 -0.7729809936
590296460.0 -0.3112153565 0.785659936 7.4802e-05 0.0001448798 -0.0001187193 -7.17239e-05 0.3449826019 -0.775138451
595296430.0 -0.3029843926 0.7880439032 -3.59657e-05 0.0001601692 0.0001480089 -0.0001818565 0.3373054431 -0.7790406181
600296400.0 -0.2950339614 0.7914922253 -9.22173e-05 0.0002668715 -9.58883e-05 0.0002803694 0.3309613552 -0.7832162672
605296370.0 -0.2879945058 0.7944630459 5.64724e-05 -2.47853e-05 -7.32449e-05 0.0001656588 0.3226070796 -0.7858489251
610296340.0 -0.2790896382 0.7971314274 -0.0001701731 -0.0001437859 -0.0001014811 0.0003118661 0.3143947496 -0.7887845602
615296310.0 -0.2703519027 0.7997802436 8.28186e-05 2.4723e-05 -3.08342e-05 0.0001857842 0.3066032582 -0.7913377159
620296280.0 -0.2630064605 0.8023869422 9.31335e-05 0.0001901644 0.0001075282 3.47626e-05 0.2994411105 -0.7936449023
625296250.0 -0.2552826474 0.8052380862 -4.02687e-05 6.60782e-05 -7.08843e-05 -0.0001444164 0.2916375579 -0.7968437673
630296220.0 -0.2465176992 0.8078813352 4.17278e-05 9.60206e-05 6.78771e-05 -9.7564e-06 0.2831017508 -0.7991922609
635296190.0 -0.238951229 0.8099390181 -0.0001319242 0.0001585645 3.17786e-05 -0.0001094377 0.2759284482 -0.8027740718
640296160.0 -0.231403012 0.8119743609 -0.0001487874 -1.84829e-05 -8.38513e-05 8.76165e-05 0.2669713612 -0.8048350118
645296130.0 -0.2230101131 0.8151804819 7.6218e-06 4.01383e-05 0.0002306642 -0.0001318731 0.2597196927 -0.8071674723
650296100.0 -0.214698969 0.8166867003 0.0001033374 0.0001348764 4.73086e-05 3.25075e-05 0.2519229361 -0.8105244647
655296070.0 -0.206295578 0.8189893586 0.0001238434 0.0001204572 -9.95989e-05 0.0002042057 0.2442452376 -0.8114564332
660296040.0 -0.1976877636 0.8204746923 0.0001134539 -7.64513e-05 -2.337e-05 -9.75907e-05 0.2365260045 -0.8145376857
665296010.0 -0.189915048 0.821904268 5.7593e-06 -7.47473e-05 -0.0001198292 -5.19942e-05 0.2276954687 -0.8162370398
670295980.0 -0.1821532771 0.824572629 -7.03062e-05 -3.03649e-05 4.8233e-05 2.27048e-05 0.2194466989 -0.8187275327
675295950.0 -0.1734613088 0.8261792238 9.2257e-05 8.4363e-06 -4.17949e-05 6.58127e-05 0.2111451975 -0.8203071588
680295920.0 -0.1652942265 0.8279660273 0.000117628 -0.0001004122 0.0001052927 -3.37988e-05 0.2036353891 -0.8222059523
685295890.0 -0.1567432783 0.8297237819 -0.000131418 6.98301e-05 -0.0001473571 7.90993e-05 0.195060948 -0.8243990077
690295860.0 -0.1488624089 0.8310418893 -3.19845e-05 5.42512e-05 0.0002077565 3.5625e-05 0.1864959601 -0.8256051038
695295830.0 -0.140481632 0.8318002385 -4.64155e-05 9.71576e-05 7.99969e-05 3.07134e-05 0.1782743055 -0.8274239724
700295800.0 -0.1320885175 0.834188168 -3.395e-06 -5.08071e-05 2.12313e-05 -0.0001031765 0.1702496204 -0.8297182534
705295770.0 -0.1243287494 0.8352458869 9.52959e-05 -7.0568e-06 0.0002236448 7.50526e-05 0.1621914837 -0.8300658979
710295740.0 -0.1159454606 0.836175908 9.15583e-05 2.47235e-05 1.54501e-05 -1.72163e-05 0.1540122777 -0.8319021385
715295710.0 -0.1079850777 0.8379148025 -0.0001293151 0.0001138098 7.95281e-05 0.0001582132 0.1455114412 -0.833680244
720295680.0 -0.0992263686 0.8383574594 0.0001091715 6.92919e-05 -7.05632e-05 5.82626e-05 0.1376132811 -0.8344231903
725295650.0 -0.0906911567 0.8392208008 0.0001574567 4.09062e-05 -0.0001536991 6.10113e-05 0.1289740388 -0.8354446435
730295620.0 -0.0824335838 0.83982444 -0.0001377408 0.0001563343 -2.7925e-05 9.41344e-05 0.1199874197 -0.8370472623
735295590.0 -0.0748135461 0.8411098086 -6.20132e-05 1.84934e-05 4.7891e-05 0.0001517796 0.1121198645 -0.838708992
740295560.0 -0.0657319037 0.8423547155 5.36579e-05 0.0001011377 2.82843e-05 -2.53477e-05 0.1041552427 -0.8384090165
745295530.0 -0.0579526974 0.84234087 -3.62075e-05 1.59058e-05 0.0002664765 -0.0001148027 0.0963297662 -0.8394402243
750295500.0 -0.0494429604 0.8425692691 -0.0003028932 3.84515e-05 -2.88105e-05 0.0002206316 0.0874486667 -0.8408705158
755295470.0 -0.0405221733 0.8431211328 -6.92366e-05 6.06617e-05 -5.35684e-05 -1.97935e-05 0.0793269263 -0.8416322331
760295440.0 -0.0327479349 0.8430634461 -6.78905e-05 -5.0268e-05 -8.52e-05 -0.0001051206 0.0712400267 -0.8424817917
765295410.0 -0.0248174843 0.8439992133 -1.95089e-05 -4.36982e-05 -6.73926e-05 0.0002732082 0.0632880605 -0.8423960854
770295380.0 -0.0163990564 0.8438381891 -1.48296e-05 0.0001009636 9.9316e-05 -5.56241e-05 0.0542951981 -0.8431858188
775295350.0 -0.0079356691 0.8441295695 -0.0001168842 -6.03996e-05 0.0001759531 4.95633e-05 0.0453692675 -0.8435436646
780295320.0 0.0005996622 0.8438543122 8.72786e-05 8.05208e-05 -3.66574e-05 -0.0001343928 0.0376167919 -0.8436034386
785295290.0 0.0086643635 0.8434038878 -7.38892e-05 -0.0002142525 -1.68214e-05 0.0001660485 0.0292413999 -0.8439834128
790295260.0 0.0177076372 0.8435602415 0.0001564445 0.0001331856 9.41186e-05 -9.21109e-05 0.0217397404 -0.8438441901
795295230.0 0.0253357568 0.8433313231 -5.75391e-05 1.45041e-05 -5.36671e-05 0.0001671943 0.013237486 -0.8444348808
800295200.0 0.0341424506 0.8430545224 -3.85774e-05 -4.80277e-05 -1.75257e-05 6.05139e-05 0.0040969795 -0.8437265758
805295170.0 0.0429671464 0.8426646413 -3.48794e-05 -0.0001232067 -0.0001641987 0.0002029066 -0.0041237535 -0.8433899949
810295140.0 0.0506067798 0.8424431531 -0.0002078493 -8.74072e-05 -0.0001677582 2.74882e-05 -0.0116789989 -0.8438278479
815295110.0 0.0590211354 0.8417181289 -7.48282e-05 -0.0001336651 2.32261e-05 -0.0001004094 -0.0207086839 -0.8431343525
820295080.0 0.0677339039 0.8413204062 -0.0001056679 -0.0001923627 -2.01468e-05 5.19966e-05 -0.0290384884 -0.8421486755
825295050.0 0.0765928486 0.8405688638 0.0001350602 -6.83262e-05 0.0001009256 2.73275e-05 -0.0363362832 -0.8421160435
830295020.0 0.0834241502 0.8396788996 -4.49589e-05 7.1079e-05 -0.0002506489 2.46419e-05 -0.0450203246 -0.8417376594
835294990.0 0.092195728 0.8385711955 5.01561e-05 0.0001379207 -8.09036e-05 -6.50008e-05 -0.0538894698 -0.8410411792
840294960.0 0.1002646302 0.8383877298 1.95056e-05 -0.000128622 5.50034e-05 -1.39552e-05 -0.0621481183 -0.8406290305
845294930.0 0.108165717 0.8368184898 1.76953e-05 -0.0002087498 -5.57071e-05 -6.5405e-06 -0.070796723 -0.8388478319
850294900.0 0.1170002517 0.8361773872 0.0001954874 -7.5905e-06 8.7455e-06 6.78717e-05 -0.0793669121 -0.8385790723
