!Created with skrf (http://scikit-rf.org).
# Hz S RI R 50.0 
!freq ReS11 ImS11 ReS21 ImS21 ReS12 ImS12 ReS22 ImS22
300000.0 -0.7799736292 -0.1388397171 0.0005511375 -0.0018309325 0.0011141602 0.0021075066 -0.7721809462 -0.1579815533
5299970.0 -0.785133212 -0.0070164843 -4.52214e-05 2.70014e-05 6.89108e-05 6.06223e-05 -0.7849693792 -0.00839204
10299940.0 -0.787551483 -0.004289593 -9.47895e-05 -6.53321e-05 -2.92894e-05 -0.0001634406 -0.7886540408 -0.0051578887
15299910.0 -0.7932149493 -0.0015781629 0.0001662369 -9.04336e-05 -1.27981e-05 -8.096e-05 -0.7939578158 -0.0030761117
20299880.0 -0.799362879 0.0024152446 0.0001884362 -0.0001140591 -9.75731e-05 0.0001272515 -0.8010712032 0.0017374673
25299850.0 -0.8062189388 0.0085664726 -5.03e-07 0.0001172254 -4.18846e-05 0.0001701841 -0.8073066681 0.0072403598
30299820.0 -0.8120004483 0.0163167147 -1.29057e-05 9.60539e-05 -0.0001050433 -7.4991e-05 -0.8126685965 0.0144577824
35299790.0 -0.8169141073 0.0250288783 -9.15936e-05 -0.0001959099 -0.0001256382 8.16889e-05 -0.8182106094 0.0237095812
40299760.0 -0.8215198495 0.0338917405 5.4521e-06 -7.27326e-05 2.52318e-05 2.0863e-05 -0.8221463035 0.03309146
45299730.0 -0.8250108456 0.0442893892 -6.94112e-05 2.09924e-05 0.0001433667 -0.0002623773 -0.8257511356 0.0423183645
50299700.0 -0.8268483116 0.0541866071 0.0001060474 -0.0001285291 0.0001359067 0.0001295648 -0.8277594471 0.0525402105
55299670.0 -0.8287373403 0.0641379688 0.0001100623 0.0001713863 1.35078e-05 -7.21729e-05 -0.8297594555 0.0631752354
60299640.0 -0.8298195656 0.074347588 0.0001867928 -0.0001740015 0.0001120843 -4.79001e-05 -0.8313252627 0.0729497639
65299610.0 -0.8311815641 0.0849268886 -6.95609e-05 -0.0001334196 0.000170411 -0.0001005809 -0.8315755165 0.0824439085
70299580.0 -0.8313996921 0.0943979149 6.44897e-05 7.15951e-05 -0.0001079426 -0.0001598031 -0.8320932516 0.0932015092
75299550.0 -0.831656127 0.1046717501 -0.0001271106 -6.19757e-05 1.00224e-05 -4.56518e-05 -0.8327412584 0.1022078475
80299520.0 -0.8312384319 0.1145212166 -1.32032e-05 -5.43332e-05 -1.27971e-05 -4.03394e-05 -0.8322221746 0.1121994778
85299490.0 -0.8305518042 0.1239802589 -0.0001958442 -2.25908e-05 -0.0002011582 2.1503e-06 -0.8316908855 0.1219391394
90299460.0 -0.8296398271 0.1341510975 -8.883e-05 6.35272e-05 0.0001005862 8.34915e-05 -0.831032561 0.1313158201
95299430.0 -0.8285474671 0.1437313209 0.0001325272 3.65345e-05 -0.0001303882 -8.22493e-05 -0.8306216888 0.1409281739
100299400.0 -0.8276459873 0.1531160325 -6.24711e-05 -9.446e-07 0.0002333954 -7.95315e-05 -0.8289819305 0.1495403675
105299370.0 -0.8265460258 0.1624486186 -0.0001298466 6.8989e-06 8.7654e-06 3.95192e-05 -0.8278922459 0.1589058171
110299340.0 -0.825176533 0.1710776224 3.71759e-05 -0.0002073963 4.2787e-06 0.0001414884 -0.8267074234 0.1680373936
115299310.0 -0.8237132218 0.1804367262 9.55197e-05 -4.81533e-05 0.0001162101 -1.7035e-06 -0.8246706175 0.1766535339
120299280.0 -0.8222065202 0.189364406 -0.0001281413 -1.94972e-05 0.0001435285 2.17274e-05 -0.823180654 0.1862305302
125299250.0 -0.8206410699 0.1987176097 7.00106e-05 -0.0001114881 -0.0001208646 5.12832e-05 -0.8215492688 0.1957901241
130299220.0 -0.8180042318 0.2069977191 3.06595e-05 -0.0001514802 9.23754e-05 -8.95228e-05 -0.8203724564 0.2041102114
135299190.0 -0.81702068 0.2164127217 -0.0002458861 -5.86411e-05 6.81455e-05 -9.7204e-06 -0.8185370982 0.2125654132
140299160.0 -0.8148298566 0.2255870559 -0.0002481422 -5.11523e-05 0.0001070559 7.42606e-05 -0.8159313789 0.2215341891
145299130.0 -0.811927293 0.2341123091 -2.56751e-05 -4.6379e-05 -7.0711e-05 -1.13785e-05 -0.8137528629 0.2299540728
150299100.0 -0.8101413475 0.2433656924 -0.0001646998 0.0001236248 -6.05484e-05 0.0001649991 -0.811734659 0.2386340578
155299070.0 -0.8076885192 0.2522256487 -0.00013029 -4.92435e-05 -7.71815e-05 0.0001038635 -0.809510822 0.2474641659
160299040.0 -0.8048540949 0.2609777248 0.0001453931 -0.0001522442 9.4405e-06 0.0002733551 -0.8077010122 0.2565013859
165299010.0 -0.8023678799 0.2692426884 7.54525e-05 -8.1776e-05 -4.8008e-05 -0.0001348027 -0.8045038251 0.2650331188
170298980.0 -0.7997626648 0.2781097093 -6.39333e-05 6.73329e-05 -4.96204e-05 -2.83724e-05 -0.8021079363 0.2733819807
175298950.0 -0.7967732888 0.28691747 0.0001371441 3.96154e-05 6.1959e-05 0.000104821 -0.7987033138 0.2818710825
180298920.0 -0.7937643952 0.2949841754 -9.67417e-05 3.48584e-05 0.0001160208 -1.2327e-05 -0.7957858013 0.2906515566
185298890.0 -0.7908153147 0.3042993546 8.44482e-05 -3.89893e-05 7.86362e-05 -0.000153096 -0.7928021016 0.2985781598
190298860.0 -0.7873764876 0.3122810188 6.4724e-06 -3.24468e-05 -5.09736e-05 -3.21366e-05 -0.7896097469 0.307171028
195298830.0 -0.7841859127 0.3208655813 -0.0001177166 -8.1604e-05 0.0001002757 -1.96454e-05 -0.7872000045 0.3157409691
200298800.0 -0.7807548938 0.3291754092 1.96832e-05 -8.02696e-05 1.33241e-05 -8.26537e-05 -0.7835383448 0.3241093719
205298770.0 -0.7775742127 0.3374556209 -5.47412e-05 9.177e-05 0.0002516606 4.49513e-05 -0.7803010708 0.3322238729
210298740.0 -0.7731170557 0.3457065982 4.85315e-05 4.8555e-05 -0.0001001585 0.0001075917 -0.7769356546 0.3404667434
215298710.0 -0.7699394917 0.3543285457 -1.14131e-05 0.0001088633 6.88848e-05 8.75131e-05 -0.7736609433 0.3483196725
220298680.0 -0.7671545298 0.3624787357 6.27482e-05 -0.0001707162 -8.53557e-05 -7.52396e-05 -0.7699485327 0.3572104368
225298650.0 -0.7627968509 0.37113738 -0.0001034367 -4.27539e-05 -3.35164e-05 -2.37462e-05 -0.7662159039 0.3647116532
230298620.0 -0.7591340287 0.3787369877 -5.261e-06 9.1593e-05 2.7709e-05 -6.19865e-05 -0.7618462844 0.3728985426
235298590.0 -0.7550366714 0.3870678985 0.0001038939 -4.75818e-05 7.90275e-05 1.22096e-05 -0.7579855558 0.3805790589
240298560.0 -0.7509759706 0.3950787776 7.39286e-05 0.0001530782 -3.9654e-06 -6.35042e-05 -0.7542116504 0.3888542009
245298530.0 -0.7463496959 0.4030528056 0.0001287515 0.0002424358 -3.72414e-05 -4.05581e-05 -0.7503846277 0.3965676338
250298500.0 -0.7427579462 0.4102822923 8.2677e-05 -0.0001204264 -9.86222e-05 2.4778e-05 -0.746223196 0.4047069262
255298470.0 -0.7376243954 0.4189104429 8.84726e-05 1.17699e-05 0.0001064361 0.000119219 -0.741712355 0.4126469481
260298440.0 -0.7339825657 0.4257110898 -0.000129374 -0.000220916 7.0302e-06 -6.28143e-05 -0.7370098864 0.4202279397
265298410.0 -0.7293424202 0.4344019397 3.21331e-05 -5.35101e-05 -0.0001104683 7.59335e-05 -0.7330140541 0.42745427
270298380.0 -0.7244394628 0.4414461163 0.0001621308 -8.21383e-05 -1.80407e-05 6.1857e-05 -0.7278543657 0.4357088726
275298350.0 -0.7193758918 0.4486830949 4.63113e-05 3.84556e-05 6.34213e-05 -3.72122e-05 -0.7236094019 0.4429940698
280298320.0 -0.7150259407 0.4565777339 4.79734e-05 3.62698e-05 -8.84925e-05 -7.25779e-05 -0.7186289106 0.4501823318
285298290.0 -0.7106400946 0.4641064753 8.52109e-05 2.06229e-05 0.0001133315 0.0001246357 -0.7136100335 0.4578363704
290298260.0 -0.7055223177 0.4716601421 0.0001150616 7.15313e-05 -8.11595e-05 -0.0002119237 -0.7091838128 0.4661568658
295298230.0 -0.7005137905 0.4790494312 -8.33825e-05 3.2346e-06 -7.992e-06 2.62154e-05 -0.7038951918 0.4729010315
300298200.0 -0.6948189964 0.4860361903 0.0001585014 -1.24033e-05 0.0001346064 -4.82243e-05 -0.6993440527 0.4802827398
305298170.0 -0.689948631 0.4941277347 -4.08594e-05 -0.0001383475 -9.06838e-05 -9.5915e-05 -0.6936356254 0.4882015831
310298140.0 -0.6846622846 0.5009882168 0.0001760712 0.0001296537 -5.99022e-05 -0.0001558524 -0.6895001262 0.4952205928
315298110.0 -0.6798775499 0.5078473044 0.0002253891 5.40872e-05 -0.0001547237 0.0001477127 -0.6832248031 0.5024103474
320298080.0 -0.6740421472 0.5153988464 0.0002885545 7.14435e-05 4.84864e-05 2.28343e-05 -0.6782276716 0.5092841819
325298050.0 -0.6687579824 0.5222637174 0.0001025906 0.0001708839 -5.64266e-05 3.37288e-05 -0.6733011599 0.5161498818
330298020.0 -0.6625620513 0.5295727495 -2.96508e-05 -0.0003998296 9.90513e-05 6.79748e-05 -0.6668546266 0.5232194441
335297990.0 -0.6571040385 0.5360375035 0.0001780457 0.0001025181 2.5888e-06 8.30518e-05 -0.6616320863 0.5302765693
340297960.0 -0.6521997176 0.5428223148 -3.1449e-05 -5.4533e-06 -4.46698e-05 0.0001272377 -0.6557192611 0.5372528013
345297930.0 -0.6468067743 0.5489989939 2.0184e-06 -0.0002433479 -6.18357e-05 3.52879e-05 -0.6500733077 0.5443806342
350297900.0 -0.6402653258 0.556573767 9.01575e-05 -0.0001395489 -9.4013e-05 6.69875e-05 -0.6445852626 0.551278908
355297870.0 -0.6343241078 0.5622825608 -5.9765e-05 -0.000150482 -9.41776e-05 -0.0001058474 -0.6384709572 0.5573075052
360297840.0 -0.6287267839 0.5693025494 -3.80742e-05 0.0001445728 -0.0001039144 -3.22729e-05 -0.6327519216 0.563576317
365297810.0 -0.6225796575 0.5756891776 -5.77647e-05 -3.39579e-05 9.16588e-05 9.40696e-05 -0.6263429465 0.5707937563
370297780.0 -0.6163019952 0.5818242303 -0.0001966555 -0.0001931385 -0.0001388127 3.6071e-06 -0.620640981 0.5770641694
375297750.0 -0.6103288192 0.588098714 0.0001341785 -0.0004164047 -9.41219e-05 9.14172e-05 -0.6146149016 0.5831006366
380297720.0 -0.6041043549 0.594578838 0.0001905667 0.0001488855 0.0002456769 -0.000174577 -0.6082716025 0.5902571561
385297690.0 -0.5982691163 0.6006329982 -5.4061e-05 4.47454e-05 -0.000137492 0.0001374061 -0.6025547058 0.5957618675
390297660.0 -0.591164417 0.6068243163 0.0002618616 -5.02556e-05 -0.000227019 0.0001292284 -0.5960085237 0.6017148026
395297630.0 -0.5856547933 0.6129605587 -1.08321e-05 -1.62847e-05 1.67119e-05 1.92191e-05 -0.58955483 0.6081662535
400297600.0 -0.5786287687 0.6194861934 -4.6457e-05 -0.0002341092 6.42508e-05 3.91998e-05 -0.5833592537 0.6141615091
405297570.0 -0.5723037576 0.6252145162 9.82477e-05 7.22537e-05 -5.24289e-05 4.16757e-05 -0.5774420819 0.6197534119
410297540.0 -0.5653056502 0.6304067582 -0.000193734 7.5931e-06 -7.1103e-05 -5.40824e-05 -0.5697876806 0.6251898307
415297510.0 -0.5583665967 0.6361978048 -1.41782e-05 0.000231102 -5.2405e-06 3.33174e-05 -0.5635121945 0.6318254668
420297480.0 -0.5522030301 0.6418941607 0.0001132559 -4.93208e-05 2.63411e-05 0.0001257371 -0.5573638879 0.6370817826
425297450.0 -0.5459338863 0.6479875758 0.0001973706 -7.21101e-05 -0.0001198932 -8.1176e-06 -0.5504303915 0.6432603455
430297420.0 -0.539328241 0.6532070133 7.19117e-05 2.55688e-05 0.0001172799 -7.47375e-05 -0.5442143983 0.6489772346
435297390.0 -0.5322662357 0.6589769083 0.0001345651 -7.68423e-05 -0.0001013354 8.66092e-05 -0.5369362934 0.6537914281
440297360.0 -0.5252489026 0.6641285721 -2.39876e-05 -9.1148e-06 -7.40767e-05 -9.87423e-05 -0.5305030401 0.6589072016
445297330.0 -0.5184660905 0.6693935577 -4.03138e-05 0.0001288451 5.05081e-05 9.34874e-05 -0.5238968004 0.664145719
450297300.0 -0.5111385601 0.6745647497 3.65506e-05 -2.49631e-05 1.76184e-05 -0.0001511 -0.5171412295 0.6695259147
455297270.0 -0.5039681368 0.6797239386 -2.4685e-05 -0.0001665579 -6.49438e-05 -5.59141e-05 -0.5102769844 0.675238711
460297240.0 -0.4974353443 0.684966782 -0.0002170341 0.0002615472 7.84724e-05 -5.14606e-05 -0.5029193354 0.6800586982
465297210.0 -0.4897843838 0.6905381501 4.8939e-06 -5.34582e-05 -9.09502e-05 -4.16845e-05 -0.4968593354 0.6850851029
470297180.0 -0.483190254 0.6945412954 3.5823e-06 0.0002679015 -2.99118e-05 1.4043e-06 -0.4893630425 0.689983186
475297150.0 -0.4756963746 0.7001676403 -0.0001814345 0.0002183134 7.62357e-05 -0.0002521653 -0.4821774012 0.6948871977
480297120.0 -0.469120965 0.7043976143 0.0001191198 -4.72227e-05 -5.46917e-05 -4.29495e-05 -0.4755264654 0.7002037924
485297090.0 -0.4611500087 0.7087854632 -0.0001931885 0.0001746999 8.97673e-05 -4.355e-05 -0.4680951693 0.7039811078
490297060.0 -0.4540000738 0.7136788135 0.000246409 0.0001215138 -7.73314e-05 6.65566e-05 -0.4614475049 0.708838081
495297030.0 -0.4471309477 0.7187778235 -7.40948e-05 -0.000160922 0.0001399493 -5.81716e-05 -0.4540535668 0.7131161655
500297000.0 -0.4389277083 0.7233340019 0.0002550905 0.0001164596 -0.0001208036 1.60121e-05 -0.4468557052 0.7178142901
505296970.0 -0.4314596045 0.7274596749 -7.2176e-06 1.11082e-05 0.0001686904 0.0001275585 -0.4403484508 0.7220022748
510296940.0 -0.4243159067 0.7322260239 1.15668e-05 -9.68132e-05 3.26641e-05 -3.9192e-06 -0.4317878495 0.7262837631
515296910.0 -0.4169357417 0.7358725008 -0.0002238692 8.0889e-06 -0.0001143797 0.0001426872 -0.4249656267 0.7309705486
520296880.0 -0.4089552097 0.7405595517 -0.0002072188 -7.17137e-05 8.53883e-05 -8.53037e-05 -0.4179395982 0.7346753738
525296850.0 -0.4022634386 0.744238856 -9.67163e-05 3.47754e-05 -0.0001793615 5.53666e-05 -0.410033967 0.7393150887
530296820.0 -0.3942162118 0.7482770426 1.30364e-05 -0.0001926574 8.465e-07 -4.30644e-05 -0.4033976283 0.7431445581
535296790.0 -0.3863982295 0.7522928683 -0.0002065898 0.0001505662 -9.94082e-05 -1.24674e-05 -0.3959867267 0.746522307
540296760.0 -0.3783390415 0.7561987645 -1.4727e-05 0.000235791 -0.000109621 -5.20118e-05 -0.3882659705 0.7508722703
545296730.0 -0.3714474928 0.7596214604 -4.90291e-05 0.0001025132 0.0001645109 -0.0001542314 -0.3810038809 0.754345578
550296700.0 -0.3633579345 0.7635217784 1.36697e-05 8.93917e-05 -0.0001146806 4.51164e-05 -0.3734482044 0.7581011896
555296670.0 -0.3550778079 0.7669950511 0.000262101 -0.0001606176 7.07736e-05 8.59211e-05 -0.3656677229 0.7620854772
560296640.0 -0.3472003643 0.7707700775 0.0001347525 3.70357e-05 1.81317e-05 0.0001028139 -0.3580453887 0.7658347152
565296610.0 -0.339627213 0.7742756531 4.23862e-05 -7.32728e-05 -5.24345e-05 0.0001096129 -0.3503225885 0.7691873949
570296580.0 -0.3318293106 0.7775192753 5.24422e-05 1.54939e-05 0.0001485388 -0.0002894222 -0.3433196114 0.7725723357
575296550.0 -0.3236114444 0.7808091917 9.26264e-05 3.15491e-05 -0.0001003872 -8.7028e-05 -0.3349900949 0.7760503167
580296520.0 -0.3159259783 0.783569537 -2.03217e-05 0.0001672482 -0.0002686289 4.0891e-05 -0.3276311655 0.7792780186
585296490.0 -0.3079881897 0.7865786938 -0.0001945999 7.60077e-05 -0.0002179028 8.51389e-05 -0.3200319404 0.7814534319
590296460.0 -0.299905922 0.7896684353 -6.20038e-05 -8.42793e-05 0.0001072911 -1.94853e-05 -0.3118033532 0.7853243378
595296430.0 -0.291321498 0.7936440291 0.0002081239 -6.7368e-06 7.2224e-06 -9.91423e-05 -0.3039725578 0.7875325933
600296400.0 -0.2836530755 0.795647517 -0.0001065787 6.24788e-05 -3.79697e-05 0.0002355983 -0.2961036473 0.7918034301
605296370.0 -0.2755889803 0.7986095284 -0.0001135663 -2.56494e-05 0.0001091547 -1.95408e-05 -0.2886625635 0.7950706508
610296340.0 -0.267528991 0.8013707033 -7.38905e-05 0.0002572345 0.0002224715 -0.0001272565 -0.280598421 0.7972633883
615296310.0 -0.2590399095 0.8043983225 0.0001602974 0.0001181726 -2.62546e-05 -0.0001852935 -0.2729694257 0.7997376461
620296280.0 -0.2507145518 0.8054710701 -5.74967e-05 -0.0002613111 8.4718e-06 9.34107e-05 -0.2649881741 0.8022063239
625296250.0 -0.2428444392 0.8087874189 0.0001407403 -0.0001290036 1.66168e-05 -0.0001091601 -0.2569863077 0.8046176523
630296220.0 -0.2342085133 0.8119275012 -1.30508e-05 0.0001636936 2.51884e-05 -0.0001365483 -0.2490262 0.8072819382
635296190.0 -0.2265043446 0.8140115529 -4.81476e-05 -3.36518e-05 0.0001430923 8.14332e-05 -0.2410041144 0.8091938494
640296160.0 -0.2178932209 0.8151313249 2.68015e-05 -4.42784e-05 -0.0001330243 -9.69032e-05 -0.2323798113 0.811368754
645296130.0 -0.210050221 0.8181410452 0.0001124063 -4.92248e-05 -8.58974e-05 2.58793e-05 -0.2254185005 0.8139549552
650296100.0 -0.2019287132 0.8206774931 -0.0001083892 4.9844e-06 -0.0001500764 4.95992e-05 -0.2168720995 0.8165797724
655296070.0 -0.1928037353 0.8220152016 0.000160253 4.5089e-05 -4.92559e-05 -3.48507e-05 -0.2093302997 0.8181516929
660296040.0 -0.1852514579 0.8239374448 0.0001748431 -0.0001987433 9.31842e-05 -2.76779e-05 -0.2009503417 0.8204475421
665296010.0 -0.1767410346 0.8258619875 0.0001463046 0.0001564776 0.0001031214 8.57212e-05 -0.1930934364 0.8220114074
670295980.0 -0.1677631253 0.8272584049 -0.0001098585 0.0001501372 0.0001448253 4.20027e-05 -0.1849718877 0.824194622
675295950.0 -0.1601055009 0.8287042378 -5.79842e-05 0.000105831 -6.91471e-05 -0.0001603282 -0.1766812095 0.8260313858
680295920.0 -0.15188304 0.8306469629 0.0001403706 6.39618e-05 -6.04244e-05 4.8105e-05 -0.16835737 0.8274585625
685295890.0 -0.1432284243 0.831781999 -0.0002414479 -1.3873e-05 5.83313e-05 -0.0001502516 -0.1600604062 0.8296193193
690295860.0 -0.1345804845 0.8337681543 0.0002717656 -0.0001395359 -3.16196e-05 -8.06168e-05 -0.1521902164 0.8310177816
695295830.0 -0.1259258869 0.8339613572 -0.0001804787 8.79157e-05 2.09516e-05 -5.8258e-05 -0.1437578929 0.8320356495
700295800.0 -0.1182887733 0.8356810806 -7.4093e-06 6.74672e-05 -0.0001301692 0.0002033264 -0.1349466977 0.8333753741
705295770.0 -0.1086342397 0.8376366358 6.28636e-05 -0.0001021367 -7.48895e-05 0.0001891421 -0.1276525883 0.8348792917
710295740.0 -0.1011448998 0.8384592168 0.0001428202 4.13151e-05 -9.2905e-06 -6.64232e-05 -0.1196248508 0.8368446854
715295710.0 -0.0928711922 0.8389512081 7.10662e-05 1.91124e-05 2.0442e-06 -0.0001123647 -0.111066644 0.8376490866
720295680.0 -0.0844054649 0.8393905129 3.92682e-05 -7.40638e-05 -3.591e-07 3.16093e-05 -0.1023892955 0.8384858411
725295650.0 -0.0756620351 0.8410006895 0.0002370049 -3.64172e-05 2.47226e-05 -3.8251e-05 -0.09432856 0.8397621792
730295620.0 -0.0671729037 0.8412496444 8.52927e-05 5.30631e-05 -0.0001392237 6.00711e-05 -0.0857800832 0.8402289021
735295590.0 -0.0584610769 0.8416840621 5.37037e-05 -2.0169e-06 0.0002443842 0.0001882352 -0.0770057962 0.8404963262
740295560.0 -0.0502982409 0.8429642856 1.53357e-05 0.0001344927 -7.96818e-05 2.7774e-05 -0.0692088899 0.8410178541
745295530.0 -0.0419822307 0.84279548 -7.00675e-05 -0.00010284 8.2185e-06 0.0002178278 -0.0611569813 0.8424581134
750295500.0 -0.0340679691 0.842989712 -3.49984e-05 -1.3636e-06 -8.78692e-05 -0.0002499851 -0.0526144369 0.8426073816
755295470.0 -0.024507391 0.8433466246 -9.98921e-05 3.16331e-05 -9.15649e-05 -0.0003169359 -0.0446020141 0.8432050873
760295440.0 -0.0164283001 0.8434163938 3.92075e-05 -0.0002826691 -0.0002448472 -3.7684e-05 -0.0363048389 0.8439852489
765295410.0 -0.0084076031 0.8435050845 -8.86405e-05 0.0001229574 1.6178e-06 -6.41466e-05 -0.0272992318 0.844496187
770295380.0 0.0005302382 0.8441684025 -0.0001097798 -8.48256e-05 -7.14472e-05 0.0001123971 -0.0188922725 0.8439872633
775295350.0 0.009074895 0.8443386024 -0.0002023527 0.000210793 -1.9845e-06 -6.04104e-05 -0.0118274914 0.8442985519
780295320.0 0.0174799943 0.8437032604 1.53545e-05 8.32074e-05 -9.9835e-05 -4.99339e-05 -0.0031631378 0.8448757381
785295290.0 0.025983605 0.8434919999 0.000123234 0.000112529 -0.0002662632 0.0001863672 0.0049616307 0.8446182126
790295260.0 0.034565722 0.8428433869 7.06518e-05 -6.83362e-05 2.374e-05 -8.70752e-05 0.0143508185 0.8443737526
795295230.0 0.0428099111 0.8428926521 7.44837e-05 7.92117e-05 -8.18991e-05 3.66438e-05 0.0222668352 0.8445506257
800295200.0 0.0514953289 0.8423823319 -0.00017898 -7.553e-06 -2.29369e-05 -6.06667e-05 0.0302941109 0.8440041285
805295170.0 0.0598034757 0.8420422532 -1.36693e-05 -0.0001048959 2.52229e-05 -0.0001007412 0.0383867304 0.8437524317
810295140.0 0.0681537613 0.8406649909 -2.47618e-05 0.0002031221 -6.7531e-05 7.49647e-05 0.0468916597 0.8440844359
815295110.0 0.076572599 0.8401588718 -9.80323e-05 -8.9835e-05 -0.0002245548 -8.83677e-05 0.0550051321 0.8434816815
820295080.0 0.0850153081 0.838568136 0.0001679442 0.0001326502 -2.346e-07 8.01776e-05 0.0631442306 0.8424445099
825295050.0 0.093319381 0.8386212861 -0.0001134151 3.02579e-05 0.0001042844 2.23402e-05 0.0715231459 0.8421060883
830295020.0 0.1017839076 0.8376975653 0.0001287827 -8.21119e-05 -0.0001164097 2.47381e-05 0.0796805437 0.8411477858
835294990.0 0.109742229 0.8367738802 0.0001063489 -7.34504e-05 -0.00010723 0.0001588848 0.0879073653 0.8403886647
840294960.0 0.1185419156 0.8354311939 0.0001757684 -8.82084e-05 5.45477e-05 -0.00030051 0.0958832829 0.8397365423
845294930.0 0.1269277763 0.8342172243 7.06124e-05 9.50886e-05 -1.0612e-06 -9.64087e-05 0.104462573 0.838756513
850294900.0 0.1346180753 0.8324997127 -0.0001787215 3.15815e-05 -4.6121e-06 0.0001447132 0.1126505034 0.8372887963
