!Created with skrf (http://scikit-rf.org).
# Hz S RI R 50.0 
!freq ReS11 ImS11 ReS21 ImS21 ReS12 ImS12 ReS22 ImS22
300000.0 -0.7784178802 -0.083892815 -0.0019468364 0.0008753628 -0.0006153286 0.0024067454 -0.7713930631 -0.126701467
5299970.0 -0.7846005562 -0.0054595983 0.000169876 0.0001193996 -9.21504e-05 -9.79274e-05 -0.7844661018 -0.0070144446
10299940.0 -0.7877198804 -0.0040199243 -7.92888e-05 0.0001010334 -0.0001177978 -9.30692e-05 -0.7876219291 -0.0034827917
15299910.0 -0.7933905053 -0.0018604176 0.0001025729 4.16166e-05 -0.00020903 -6.84666e-05 -0.7930083275 -0.0016797083
20299880.0 -0.800102463 0.0020113573 -6.80925e-05 -8.23959e-05 -0.000162644 -4.74007e-05 -0.7996556938 0.0023517688
25299850.0 -0.8066134585 0.0081187783 8.79664e-05 0.0001945923 -0.0001713685 6.8613e-06 -0.8061855334 0.0086155556
30299820.0 -0.8127733354 0.0155734659 0.0001860351 -2.9283e-06 -1.9684e-06 1.5169e-06 -0.8119634071 0.0159756304
35299790.0 -0.8173300958 0.0246858794 -0.0001477071 0.0002035772 4.5406e-06 -0.0001900297 -0.8173102499 0.0252626585
40299760.0 -0.8215019716 0.0339849108 -4.89329e-05 0.0001857081 2.9022e-06 -3.35797e-05 -0.8215926428 0.0343680083
45299730.0 -0.8242723599 0.04272587 0.000122847 -4.9936e-05 4.17507e-05 -0.0001223301 -0.8249844067 0.0441585527
50299700.0 -0.8270835214 0.0531286428 0.0002128213 -0.0001100607 0.000104102 -0.0003416389 -0.8273905417 0.0537127343
55299670.0 -0.8295060877 0.0632921868 -4.31898e-05 -0.0002192874 -2.98245e-05 -7.32548e-05 -0.8297029208 0.0644360476
60299640.0 -0.8304676493 0.0737197875 -0.0001346327 -1.09171e-05 8.82195e-05 -0.000116973 -0.8304121198 0.0741525634
65299610.0 -0.8313712776 0.0841371295 -2.04328e-05 7.492e-05 -3.15872e-05 9.98176e-05 -0.8320717866 0.0841542692
70299580.0 -0.8319397834 0.0939031508 0.0001600576 -0.0001005375 -5.69364e-05 0.0001191259 -0.8317237797 0.0944247063
75299550.0 -0.8317896991 0.1037683969 -2.7339e-05 -0.0001950121 -1.23503e-05 3.39519e-05 -0.8326463531 0.104067127
80299520.0 -0.8324275909 0.1136995795 0.0001516326 8.61121e-05 5.05963e-05 -2.51805e-05 -0.8319977424 0.1140896377
85299490.0 -0.8310318217 0.1225270698 2.47151e-05 -3.16984e-05 -0.0001749029 -1.16729e-05 -0.8315738348 0.1236511742
90299460.0 -0.830135268 0.1323091468 -7.5483e-05 -0.0001059606 4.03628e-05 0.0001106387 -0.8306977067 0.1330363591
95299430.0 -0.8296907623 0.1422559567 -3.8181e-06 -0.0001076074 -1.79596e-05 0.0001287763 -0.8293913135 0.1432604799
100299400.0 -0.8279922287 0.1508308295 -1.19648e-05 -8.30397e-05 -8.28897e-05 0.000242095 -0.8286213605 0.1525929086
105299370.0 -0.8274883769 0.160012487 -2.23103e-05 -7.8738e-06 7.14766e-05 -5.85317e-05 -0.8272541411 0.1610801213
110299340.0 -0.825307069 0.1695622207 -0.000205431 -4.22524e-05 0.0001351318 5.98208e-05 -0.8255803533 0.1710466394
115299310.0 -0.8237164394 0.178927516 0.0001165314 -0.0002488251 0.0001189915 7.2488e-06 -0.8241459962 0.1800687712
120299280.0 -0.822278726 0.187065483 -0.0002484102 0.0001467389 -0.0002547707 0.0002539754 -0.8224462839 0.1891473696
125299250.0 -0.8204408452 0.1959839001 -0.000184688 -2.9686e-05 -0.0001225273 -7.12995e-05 -0.8208534371 0.1979752287
130299220.0 -0.8186678335 0.2055523064 -0.0001989409 3.24274e-05 -0.0001092982 7.65039e-05 -0.8190189467 0.2066471026
135299190.0 -0.81687873 0.2144271466 8.2754e-06 -0.0001876058 4.6364e-05 -5.96951e-05 -0.8168854326 0.2157209834
140299160.0 -0.8149505513 0.2230110089 -1.10495e-05 -4.08284e-05 0.0001107485 -0.000201847 -0.8146612267 0.2250037003
145299130.0 -0.8123946429 0.2326166965 5.94682e-05 9.98131e-05 -0.0002142529 -0.0001904678 -0.8121721807 0.2339873019
150299100.0 -0.810182738 0.2413366094 7.40573e-05 2.06398e-05 2.50293e-05 -4.24717e-05 -0.810498118 0.2433273784
155299070.0 -0.8075681606 0.2495964538 -0.0002386174 0.0001983252 -1.98632e-05 -5.91726e-05 -0.8073747651 0.2518099909
160299040.0 -0.8056203711 0.2580081828 0.0001642492 4.39686e-05 8.94545e-05 -2.42415e-05 -0.8048639085 0.2605946483
165299010.0 -0.803079792 0.2672024288 -0.0001879038 0.0001642865 -0.0001862794 9.08065e-05 -0.8028268074 0.2695018108
170298980.0 -0.800056497 0.2751700466 -3.50628e-05 4.2292e-06 -9.82229e-05 -3.83369e-05 -0.7992480011 0.277752711
175298950.0 -0.797515739 0.2838255347 -0.0001548595 0.00017939 -0.000102916 -4.78079e-05 -0.7967480596 0.2871212974
180298920.0 -0.7944324852 0.2932805091 -0.0001487813 2.05037e-05 9.07476e-05 0.0001612503 -0.7938668984 0.2953667797
185298890.0 -0.7908143962 0.30089852 1.36293e-05 0.0002325549 -2.44422e-05 -0.0001758301 -0.7902538486 0.3042046927
190298860.0 -0.7883883711 0.3096211228 6.0286e-06 -0.000160743 -0.0001125249 0.000120033 -0.7875834696 0.311999629
195298830.0 -0.7854126856 0.3181702694 -6.21317e-05 0.0002253604 -0.0001156112 -0.0001072319 -0.7847107175 0.3207930977
200298800.0 -0.7817398654 0.3261723745 -7.23535e-05 -7.68749e-05 3.58909e-05 0.0001076163 -0.7816153347 0.3290998319
205298770.0 -0.7779518238 0.3343753735 1.46423e-05 -0.0001671212 -4.06702e-05 9.20262e-05 -0.7777681675 0.337698054
210298740.0 -0.7751574049 0.3426516069 2.78882e-05 2.93416e-05 -0.0001494918 0.0001225403 -0.7744201692 0.3463701862
215298710.0 -0.7721209554 0.3507915801 -5.8074e-05 6.31425e-05 -2.40364e-05 -0.000112856 -0.770911475 0.3539461715
220298680.0 -0.7677073147 0.3590628957 -4.63342e-05 4.06221e-05 -0.000126472 -0.0001500577 -0.7674382462 0.3622188811
225298650.0 -0.764245392 0.3666613658 5.59572e-05 1.38008e-05 -0.0001868293 4.73671e-05 -0.7640006608 0.3704166581
230298620.0 -0.7603415601 0.3749574551 -0.0001093999 3.77937e-05 0.0002369364 0.0001031581 -0.7602023714 0.3783806502
235298590.0 -0.7559755362 0.3836199941 -2.63288e-05 0.0001661013 0.0001011786 -4.3015e-05 -0.755868139 0.3874074668
240298560.0 -0.7526894527 0.3910905846 0.0001898427 0.0001349549 3.30983e-05 -7.18952e-05 -0.7515686212 0.3953993711
245298530.0 -0.7488140611 0.398959128 -9.34461e-05 0.0001798196 0.0001418489 -6.22697e-05 -0.7481320259 0.4022420207
250298500.0 -0.7442179592 0.4071916917 0.0001053716 -3.99015e-05 -9.49213e-05 -3.52137e-05 -0.7436273955 0.4098730661
255298470.0 -0.7391003864 0.4139576303 -5.57655e-05 0.0001114111 8.12458e-05 4.25494e-05 -0.7389409822 0.4183109104
260298440.0 -0.7356577591 0.4215700665 9.92879e-05 1.23971e-05 -9.31988e-05 -0.0002361911 -0.7347658694 0.4264247351
265298410.0 -0.7309942155 0.4299239619 -8.6438e-06 -0.0001236354 3.8966e-05 -0.0001680514 -0.7307995565 0.4338217635
270298380.0 -0.7267151746 0.4374984089 0.0001215045 8.5614e-06 8.82891e-05 -0.0002718576 -0.72556963 0.4411868192
275298350.0 -0.7223343119 0.4448859678 0.000193813 -1.90276e-05 -3.1337e-05 0.0001114952 -0.720935666 0.4486415899
280298320.0 -0.7168426339 0.4525241505 7.12393e-05 0.0002427118 -6.26688e-05 -2.4404e-06 -0.7162402371 0.4558512026
285298290.0 -0.7130574574 0.4598244219 7.84023e-05 -6.91511e-05 -0.0001939319 -2.39951e-05 -0.7105912429 0.4636345916
290298260.0 -0.7073847443 0.4674223133 -6.71416e-05 0.0002188733 1.98794e-05 1.48873e-05 -0.705922513 0.4712200493
295298230.0 -0.7023269367 0.474159191 -0.000141467 -6.3293e-06 -0.0002203816 8.48415e-05 -0.700935709 0.4780870595
300298200.0 -0.6979129607 0.4819334952 -2.29557e-05 6.76111e-05 3.46183e-05 0.0001326533 -0.6959642749 0.4852363473
305298170.0 -0.6924222779 0.4886220549 6.31078e-05 0.0001807561 -0.0002110905 -4.06065e-05 -0.6904663962 0.4931832699
310298140.0 -0.687376659 0.4962289648 -1.65557e-05 -8.44083e-05 -0.0002455686 4.581e-05 -0.6858072198 0.4995636114
315298110.0 -0.6826998638 0.5031732609 0.000183229 -2.3182e-06 -7.05189e-05 0.000105311 -0.6798174559 0.5070735872
320298080.0 -0.6773500022 0.5105404891 0.0001042735 -0.0001204643 0.000151152 -9.00575e-05 -0.674776086 0.5149447342
325298050.0 -0.6718570711 0.5177648867 0.0001890541 -0.0002162799 0.000239315 0.0001096442 -0.6690742923 0.5209428192
330298020.0 -0.666432128 0.5240978397 -2.12544e-05 -0.000123988 -0.000155841 -3.77953e-05 -0.663270604 0.5284574768
335297990.0 -0.660763005 0.5302442617 0.0001094332 -5.0665e-06 0.0001295994 0.0001015019 -0.658467261 0.5353419655
340297960.0 -0.6560820888 0.5378723504 -0.0001803408 0.000206478 0.0001007799 -0.000117135 -0.6527473261 0.5424459922
345297930.0 -0.6501391386 0.5444188063 -3.01494e-05 2.42549e-05 -3.02703e-05 6.32094e-05 -0.6468092651 0.548691261
350297900.0 -0.644491456 0.5514186798 2.06203e-05 6.07766e-05 0.000101157 1.82456e-05 -0.641271378 0.5553078635
355297870.0 -0.6378163744 0.558188369 -3.3697e-06 4.3041e-05 0.0001871891 -7.1286e-05 -0.6358817714 0.5615225313
360297840.0 -0.6324297502 0.5638992806 6.87131e-05 7.52121e-05 5.29114e-05 6.69371e-05 -0.6297415288 0.5687765371
365297810.0 -0.6275537061 0.5709118485 9.15931e-05 0.0001379179 4.72717e-05 -0.0001195676 -0.6231463337 0.5756171804
370297780.0 -0.6208437978 0.576758987 3.92462e-05 9.69948e-05 -3.16891e-05 9.92625e-05 -0.6176281598 0.5816589044
375297750.0 -0.6144525173 0.5831671883 -3.25239e-05 -0.0001186296 7.99358e-05 7.78787e-05 -0.6117005928 0.5879790661
380297720.0 -0.6088381739 0.5893499459 0.0001781912 1.29497e-05 -0.0001283838 8.33396e-05 -0.6055738751 0.5941915233
385297690.0 -0.6032348773 0.5957988781 6.62934e-05 8.53616e-05 -7.11385e-05 -2.28993e-05 -0.5990659387 0.6006463449
390297660.0 -0.5965707093 0.6016657043 -3.7445e-06 -0.0001869084 -0.0002075469 0.0002143562 -0.5928965628 0.6068292148
395297630.0 -0.5900300388 0.6084555311 -1.8245e-05 0.0001163112 0.0003229121 3.49778e-05 -0.5866032319 0.6136003602
400297600.0 -0.5837208239 0.6144407366 0.0001212988 2.07181e-05 8.25066e-05 -1.56609e-05 -0.5804212816 0.6185191312
405297570.0 -0.5775044517 0.6196467676 3.83286e-05 3.58128e-05 -2.98318e-05 9.15502e-05 -0.5742153709 0.6252410501
410297540.0 -0.5711576847 0.6257581732 0.0002030435 5.27652e-05 -0.000129371 0.0001579793 -0.5675484004 0.6307088731
415297510.0 -0.5646523704 0.6310736264 6.43345e-05 -0.0002315067 -0.0001167879 -7.4936e-05 -0.5610988297 0.6367160652
420297480.0 -0.5588427859 0.637355525 -1.8965e-06 3.4293e-06 0.0001193221 -6.0125e-06 -0.5539707466 0.6432105343
425297450.0 -0.5512944321 0.6424807667 -5.28026e-05 -1.7157e-06 -6.41638e-05 -3.41237e-05 -0.5480547839 0.6481211666
430297420.0 -0.545139301 0.6482018884 3.39013e-05 -5.7905e-06 -0.0002276002 3.99815e-05 -0.5417183785 0.6529701498
435297390.0 -0.5388533467 0.6531008003 -2.49643e-05 0.000130464 -3.36867e-05 2.61e-05 -0.5338980538 0.6588771448
440297360.0 -0.5317544147 0.6592656779 8.26213e-05 0.0002984191 -0.00015834 -0.0001287244 -0.5272151886 0.6639424093
445297330.0 -0.5248701262 0.6644384072 -0.0001624314 -2.99584e-05 -0.0001811927 0.0002136881 -0.5201762521 0.668895472
450297300.0 -0.5182088323 0.6693918847 0.0001534897 -4.59173e-05 -7.19868e-05 -3.73758e-05 -0.5131685986 0.6741020964
455297270.0 -0.5113448104 0.6744199706 0.0001827734 4.88027e-05 6.7332e-06 -3.36562e-05 -0.5061492378 0.6788639459
460297240.0 -0.5050825075 0.6798657045 -3.09592e-05 -0.000138774 -8.57727e-05 -2.27502e-05 -0.4995953335 0.6843405163
465297210.0 -0.4977211507 0.6854207526 -5.8369e-05 -6.65106e-05 -0.0002856519 0.0002294631 -0.491747155 0.6893477954
470297180.0 -0.4902643663 0.6895853137 -4.26643e-05 8.88699e-05 -9.22531e-05 9.1325e-06 -0.4847483686 0.6946887706
475297150.0 -0.4834025366 0.6946314396 -0.0001676512 -8.87878e-05 -3.46085e-05 9.49824e-05 -0.4775468755 0.6987988028
480297120.0 -0.4764986805 0.6994573752 -0.0002306305 -0.000101727 -0.0002189623 6.82851e-05 -0.4702957508 0.7037282056
485297090.0 -0.468738034 0.7043313904 -8.64106e-05 8.52827e-05 5.42103e-05 -0.0001065743 -0.4634281373 0.7083210517
490297060.0 -0.4620036265 0.7087991379 0.0001169223 7.48984e-05 7.69885e-05 -4.16617e-05 -0.455585377 0.7124541057
495297030.0 -0.4546785145 0.7131728824 0.0001236571 0.0001181138 0.0001126182 0.0001877037 -0.4487418758 0.7176110088
500297000.0 -0.4474696586 0.7180653766 0.0001493133 -0.0001184255 -0.0001381898 0.0001083952 -0.4410026045 0.7223872438
505296970.0 -0.4400927832 0.7227396595 -0.000171289 -0.0001625041 -8.90494e-05 3.73e-07 -0.4335891884 0.7267700897
510296940.0 -0.4328491184 0.7268281397 -7.40836e-05 0.0002006814 -8.23759e-05 -0.0001330162 -0.4260485422 0.7309618546
515296910.0 -0.4244741216 0.730455486 -0.000210773 -2.56416e-05 -0.0001216047 8.0391e-06 -0.4187463103 0.7357216709
520296880.0 -0.4179986751 0.7353045759 -0.0001273548 -3.51226e-05 -8.4288e-06 0.0001419456 -0.4111086748 0.7388730016
525296850.0 -0.4103550832 0.7392708521 -7.37751e-05 -0.0001474539 -1.88162e-05 -0.0001903344 -0.4034735433 0.74438569
530296820.0 -0.4024576776 0.7436319105 -2.56111e-05 -5.15569e-05 7.85642e-05 -1.6133e-06 -0.3964589801 0.7478783543
535296790.0 -0.3955176907 0.7468563514 -8.50063e-05 7.27933e-05 -8.1107e-05 0.0001259967 -0.3890384168 0.7516429311
540296760.0 -0.3878673369 0.7510752051 -2.11447e-05 -2.76314e-05 0.0001366213 -0.0002296619 -0.3812916409 0.7561020268
545296730.0 -0.3805883774 0.7556840878 -0.0001025886 -1.82738e-05 1.30789e-05 -0.0003457101 -0.3734913522 0.7596358639
550296700.0 -0.3727876748 0.7592768782 2.96647e-05 9.50953e-05 2.37666e-05 -5.42383e-05 -0.3654483291 0.7635582053
555296670.0 -0.3645735001 0.7619883574 -0.0002125863 -6.56009e-05 3.52451e-05 8.15917e-05 -0.3577914482 0.7677709553
560296640.0 -0.3568214523 0.7668142521 -7.8122e-05 -4.13644e-05 0.0001972969 0.0001048086 -0.3498033978 0.7707728132
565296610.0 -0.3496763685 0.7697494652 -5.8313e-06 -1.78088e-05 2.90039e-05 6.47885e-05 -0.3420167199 0.7738790884
570296580.0 -0.3421015861 0.7722784885 -8.12623e-05 -3.7918e-05 -9.78727e-05 0.0001215673 -0.3350559988 0.777942581
575296550.0 -0.334147432 0.7769943379 0.0001064279 0.0002787808 0.000108505 -1.381e-07 -0.3265629591 0.7811794381
580296520.0 -0.3261320786 0.779741011 -3.1805e-06 -7.27521e-05 -5.07367e-05 -5.20084e-05 -0.3183632503 0.78408919
585296490.0 -0.3186582559 0.7827728035 2.75086e-05 0.0001682497 -0.0002288007 -3.48095e-05 -0.3104332562 0.787462513
590296460.0 -0.3103658338 0.7860250476 0.0001369394 -3.64545e-05 0.0001621732 -5.71845e-05 -0.3024145529 0.7905185395
595296430.0 -0.3022858742 0.7886629284 0.0002390873 -9.14353e-05 0.0001939244 -6.0373e-05 -0.2943999406 0.7924855148
600296400.0 -0.29468739 0.7921330358 -0.0001589644 -0.0002064656 0.0001929892 0.0002050761 -0.2868868328 0.7956257199
605296370.0 -0.2872546209 0.7942644636 -0.0001911579 2.72267e-05 -6.67022e-05 -1.10366e-05 -0.2776879185 0.7982298167
610296340.0 -0.2784702434 0.7968633722 -3.7223e-05 7.44248e-05 4.89857e-05 -9.9374e-06 -0.2703642493 0.8012564878
615296310.0 -0.26998786 0.8001150852 -2.39913e-05 -0.0002033333 -3.08022e-05 8.12262e-05 -0.2613689045 0.8035147718
620296280.0 -0.2622605061 0.8022437821 -9.18667e-05 6.99488e-05 0.0001554289 -0.0001197244 -0.2540969694 0.8064854643
625296250.0 -0.2545368753 0.8057637433 -0.0001465425 0.0001119446 2.29226e-05 0.0001179959 -0.2453319677 0.8079474996
630296220.0 -0.2462063052 0.807980826 -4.0776e-05 -5.41376e-05 8.46678e-05 0.0001280778 -0.2377466362 0.8109718112
635296190.0 -0.2378454245 0.8103626651 3.49591e-05 -4.54727e-05 -0.0001281985 -1.04932e-05 -0.2290380111 0.8128898693
640296160.0 -0.2308026927 0.8117765423 0.0002498377 0.000210261 -3.323e-05 6.81294e-05 -0.2212894532 0.8155451054
645296130.0 -0.2224340564 0.8152169531 0.0003281217 -1.67897e-05 -0.0003812083 -9.09453e-05 -0.212894218 0.8172088515
650296100.0 -0.2141151191 0.8163692759 -5.22499e-05 -0.0001265974 -0.0001073683 0.0001523693 -0.2051092278 0.8188579933
655296070.0 -0.2057788925 0.8190443117 -9.21771e-05 -0.0001244015 5.87745e-05 1.86303e-05 -0.1955891625 0.8211105651
660296040.0 -0.1976533811 0.8203586255 -5.33924e-05 -9.16687e-05 8.46904e-05 -0.0001885764 -0.1874060379 0.8233819001
665296010.0 -0.1894067102 0.8217769789 0.0002078749 -0.0001988944 -0.0001508353 4.30695e-05 -0.1793374372 0.8254606219
670295980.0 -0.1817053125 0.824527743 4.43682e-05 -3.20698e-05 6.66337e-05 4.60585e-05 -0.1716027482 0.8268795901
675295950.0 -0.1732651382 0.8255417583 -0.0002883015 3.27168e-05 -0.0001151663 4.58624e-05 -0.1636544383 0.8290803814
680295920.0 -0.1645209327 0.8281734183 2.04695e-05 8.35763e-05 -8.34e-08 0.0001887978 -0.1549344035 0.8311406034
685295890.0 -0.1563283869 0.830021414 -4.92789e-05 -0.0001792206 -3.15861e-05 0.0001710963 -0.145991722 0.8317305687
690295860.0 -0.1481784347 0.8307182869 5.55008e-05 3.24337e-05 0.0001425917 3.34233e-05 -0.137978794 0.8338068666
695295830.0 -0.1408169023 0.8320321962 8.48103e-05 -4.65982e-05 6.03222e-05 0.0001592335 -0.129340503 0.834824368
700295800.0 -0.1313113519 0.8336109573 0.0001303486 0.0001582573 4.25485e-05 -0.0002008617 -0.1219842303 0.8361597465
705295770.0 -0.1239953284 0.8358770895 -0.0002445254 5.5799e-05 8.9035e-06 -0.0002606694 -0.11329176 0.8383139041
710295740.0 -0.1153788785 0.8364259575 0.0001915539 -0.0001017172 3.39181e-05 -0.0001283584 -0.1047274207 0.8389480088
715295710.0 -0.1072075178 0.8375122374 0.0002250037 -0.0001698855 -0.000135644 9.64921e-05 -0.0964165334 0.8400284281
720295680.0 -0.0983963396 0.8382020646 3.46262e-05 -0.0001238266 0.0001941737 -2.5989e-06 -0.0876023553 0.8407950957
725295650.0 -0.090054327 0.8391384545 -0.0001674413 0.0002107688 -2.0678e-06 -2.71376e-05 -0.0796995846 0.8415582797
730295620.0 -0.0821657075 0.8402862798 -5.30409e-05 9.46862e-05 3.15869e-05 0.0001337782 -0.0719154574 0.8423461892
735295590.0 -0.0738113065 0.8412250152 2.11506e-05 0.0003041771 -4.4112e-06 1.8389e-05 -0.0631359545 0.8425555651
740295560.0 -0.0653792373 0.8419106952 -7.51396e-05 1.29608e-05 8.75697e-05 6.98825e-05 -0.0537535468 0.8437336766
745295530.0 -0.0566259706 0.8424128645 -9.72998e-05 0.0001786791 -6.34644e-05 2.82052e-05 -0.0458217528 0.8439590373
750295500.0 -0.0486708777 0.8429960844 -0.000211779 -3.03057e-05 3.56772e-05 -7.36776e-05 -0.0375400497 0.8441449728
755295470.0 -0.0396821484 0.8432776172 -8.09858e-05 0.000169463 -9.69327e-05 -0.0001530006 -0.0290440904 0.843666485
760295440.0 -0.0320056696 0.8428363174 5.70225e-05 -6.10867e-05 -0.0001528849 0.0001537145 -0.0204038291 0.8441505565
765295410.0 -0.0237551958 0.8439692999 -0.0002164874 -7.21914e-05 0.0001514674 -9.97428e-05 -0.0122728683 0.844849176
770295380.0 -0.0152690833 0.8439609278 0.0001231625 -2.71022e-05 -0.0001424689 -0.0001173277 -0.0040985414 0.8448269436
775295350.0 -0.0070496019 0.8438890111 -7.41308e-05 -0.0001139257 8.09509e-05 0.0001886191 0.0037893897 0.8442502041
780295320.0 0.0015475367 0.8438409205 0.0002018126 -0.0003726413 -9.02086e-05 -1.86148e-05 0.0127376612 0.8439338362
785295290.0 0.0095098292 0.8433480462 0.0001007599 9.41042e-05 1.24148e-05 0.0001143942 0.021184878 0.844147454
790295260.0 0.0181662878 0.8438860678 0.0001552714 -0.0001929253 5.28122e-05 -6.54823e-05 0.0304498513 0.8444138346
795295230.0 0.0266154324 0.8434387535 0.0001823332 3.16332e-05 5.89324e-05 3.98386e-05 0.0389343274 0.8426981448
800295200.0 0.0346155455 0.8433022757 1.13065e-05 -2.81041e-05 -0.0001252151 6.45904e-05 0.0470910942 0.8426097102
805295170.0 0.043391174 0.8429952616 -0.0001031883 9.72062e-05 -0.000261697 0.0001862165 0.0550457086 0.8425299721
810295140.0 0.0514493495 0.8423588626 -0.00017885 0.0001410123 0.0001441811 9.28392e-05 0.0637137131 0.8415638319
815295110.0 0.059342932 0.841766043 -0.0001082254 1.13144e-05 3.00591e-05 0.0001245927 0.0722442465 0.841050213
820295080.0 0.0677807971 0.8415898779 -0.000248895 -8.42707e-05 -7.06331e-05 0.000220408 0.0801548529 0.8402234004
825295050.0 0.0770037118 0.8402692055 0.0001881959 -0.0001008371 0.0003710385 4.75616e-05 0.0889989283 0.8396695238
830295020.0 0.0840063176 0.8398556635 -6.31563e-05 0.000115001 -0.0002181174 -2.88987e-05 0.0979873038 0.8383238859
835294990.0 0.0927027644 0.8387334535 0.0001137262 4.2541e-06 -0.0001453111 -3.77568e-05 0.1057699883 0.8380413122
840294960.0 0.1004645983 0.8379941643 -0.0001855332 0.000163964 0.000125554 -0.0001381207 0.1142587485 0.8370190048
845294930.0 0.1089504628 0.8368722569 -3.56982e-05 0.0002682379 3.82633e-05 0.0002078184 0.1216436847 0.8352363479
