!Created with skrf (http://scikit-rf.org).
# Hz S RI R 50.0 
!freq ReS11 ImS11 ReS21 ImS21 ReS12 ImS12 ReS22 ImS22
300000.0 -0.2346398878 -0.1367092099 0.467272017 0.0871515088 0.467572929 0.0864544848 -0.235560214 -0.1327003867
5299970.0 -0.2417208816 0.0049502632 0.4748545591 0.0062034155 0.4757314238 0.0059184443 -0.2442816641 0.0044529574
10299940.0 -0.2386408607 0.0188325392 0.4771855195 0.0069211725 0.4768708835 0.0068668129 -0.2406406179 0.0174027787
15299910.0 -0.2337329916 0.0287337574 0.4801547799 0.0083210562 0.4809323421 0.0082744199 -0.2367344404 0.0264323024
20299880.0 -0.2282196506 0.0366247518 0.4850478808 0.0083942149 0.4856232655 0.008302245 -0.2317383657 0.0336959067
25299850.0 -0.2224312948 0.043521895 0.490474043 0.0076328445 0.4907727673 0.0073314483 -0.226533627 0.0400244081
30299820.0 -0.2171239486 0.0486029933 0.4961461198 0.005109159 0.4961828888 0.0048893158 -0.221267879 0.0450129043
35299790.0 -0.2114419828 0.0529654819 0.501037407 0.0019551131 0.5015532737 0.0019029872 -0.2166663377 0.0493909879
40299760.0 -0.2061839103 0.0561079956 0.506641142 -0.0020942198 0.5067413517 -0.002549958 -0.2116299651 0.0523188203
45299730.0 -0.201011362 0.0587316943 0.5111942357 -0.0067024832 0.5114893748 -0.0067275931 -0.2069216347 0.0546465957
50299700.0 -0.1960750062 0.0610516844 0.5155131337 -0.0124562831 0.5152785992 -0.0127505831 -0.20250361 0.0569309375
55299670.0 -0.1917718073 0.0622359681 0.518897595 -0.0177623755 0.5188028755 -0.0184332363 -0.1990105779 0.0583864718
60299640.0 -0.1876794261 0.0640767856 0.5222158908 -0.024746366 0.5225028954 -0.0245570796 -0.1952044543 0.0599009741
65299610.0 -0.1841395406 0.0653398532 0.5258474466 -0.0309046993 0.5250849603 -0.0310856341 -0.1916016941 0.0608191253
70299580.0 -0.1807163342 0.0659398312 0.526899644 -0.03737527 0.5278591366 -0.0376399889 -0.1888439952 0.0619990182
75299550.0 -0.1779107714 0.0668698055 0.5292735702 -0.0446356531 0.5294686441 -0.0445984962 -0.1860834661 0.0626145163
80299520.0 -0.175219786 0.0677745593 0.5316062338 -0.0514188698 0.5318758697 -0.0513276879 -0.1835364442 0.0637643334
85299490.0 -0.1723970754 0.0681752253 0.5327909426 -0.0580570662 0.5329680319 -0.0579642573 -0.181380055 0.06384666
90299460.0 -0.1700744239 0.0691449136 0.5337196038 -0.0654606042 0.5336041833 -0.0647451817 -0.1789737485 0.0651158918
95299430.0 -0.1678364731 0.0699028776 0.534438033 -0.0724482358 0.5349385143 -0.0723616088 -0.1771887289 0.0654366265
100299400.0 -0.1660119869 0.0704129306 0.5348774533 -0.0789146267 0.5345761515 -0.0789299936 -0.1755728171 0.0666398998
105299370.0 -0.1640762152 0.0708603552 0.5350208987 -0.0852696858 0.5359314261 -0.0860509309 -0.1738807238 0.0665422853
110299340.0 -0.1620959721 0.0713873055 0.5349521131 -0.0921622931 0.5357707578 -0.0923509333 -0.1723552228 0.067505802
115299310.0 -0.160773636 0.0725029573 0.5353930756 -0.0994520752 0.5355912796 -0.0993446365 -0.17131931 0.0686716495
120299280.0 -0.159545886 0.0731679211 0.5355101441 -0.1063839142 0.5349487434 -0.1064204422 -0.1700009526 0.068779094
125299250.0 -0.1577499029 0.0740676136 0.5346827577 -0.1131257873 0.5348912084 -0.1131089143 -0.168592213 0.0698217842
130299220.0 -0.1566927087 0.0749251929 0.5344419506 -0.119749839 0.5342874422 -0.1196951882 -0.1676992156 0.070529778
135299190.0 -0.1555821158 0.075835335 0.5339325287 -0.1263220515 0.5338712299 -0.1266346406 -0.1664671271 0.0711064084
140299160.0 -0.1540658485 0.0768168134 0.5329341544 -0.133429595 0.5327534225 -0.1328577487 -0.1657497148 0.0720695689
145299130.0 -0.1535020066 0.0779652868 0.5322817512 -0.1391848072 0.5319106428 -0.1396393642 -0.1648357985 0.0730235086
150299100.0 -0.1521341402 0.0788898268 0.5308664177 -0.1462600751 0.5303434574 -0.1461551117 -0.1638441012 0.0742396238
155299070.0 -0.1507878895 0.0799119895 0.5288607474 -0.1525117164 0.5297740644 -0.1529322815 -0.1629606715 0.0750415597
160299040.0 -0.1499892037 0.0812922953 0.5280215128 -0.1590056603 0.5282244499 -0.1591705606 -0.1624378586 0.0758193434
165299010.0 -0.1487937017 0.0823005635 0.5268105973 -0.1651124305 0.5267166201 -0.1658412745 -0.1611245479 0.0770303344
170298980.0 -0.1477236228 0.0833822948 0.5245313514 -0.171789654 0.5252016798 -0.171958837 -0.160682354 0.0780132643
175298950.0 -0.1471472658 0.0847431871 0.52376967 -0.1778887318 0.5238764507 -0.1785246764 -0.1600205014 0.0792856221
180298920.0 -0.1460967735 0.0860457149 0.5218133201 -0.1843628383 0.5218340669 -0.1845899119 -0.1592575241 0.080314642
185298890.0 -0.1450406836 0.0870648333 0.5200635306 -0.1903909611 0.5202168333 -0.1905989079 -0.1582931397 0.0812206787
190298860.0 -0.1440318069 0.0889978769 0.5178869633 -0.1968212689 0.5184330351 -0.1964723924 -0.1578426529 0.0823606443
195298830.0 -0.1432733365 0.0899233873 0.5163212641 -0.2026318452 0.5160299465 -0.2028659719 -0.1571668151 0.0835575318
200298800.0 -0.1419228639 0.0912719478 0.5141226205 -0.2092020763 0.5140870849 -0.2091583411 -0.1560794519 0.0847473369
205298770.0 -0.1415529061 0.0926518079 0.5115819252 -0.2149827256 0.5118855647 -0.2147464068 -0.155212523 0.0860171096
210298740.0 -0.1404337638 0.0939536546 0.5096316339 -0.2211215461 0.5095238318 -0.2210124476 -0.1550435366 0.0870692925
215298710.0 -0.1393071564 0.0954610256 0.5069931454 -0.2268162876 0.507207792 -0.227229735 -0.1539657271 0.0884298528
220298680.0 -0.138265336 0.096707708 0.5042967758 -0.2325975919 0.5045756563 -0.233025115 -0.1531733175 0.0897913753
225298650.0 -0.13715934 0.0982564518 0.501846789 -0.2383849647 0.5020352916 -0.2381268646 -0.1524657988 0.0907463681
230298620.0 -0.1359903133 0.0997602109 0.4996024687 -0.2443569078 0.4999328841 -0.244573633 -0.1520044272 0.0919500678
235298590.0 -0.1355164424 0.1011439239 0.4974180567 -0.2506591359 0.4972985914 -0.2502971034 -0.1510093 0.0935759229
240298560.0 -0.1342728218 0.1026618148 0.4944091103 -0.2556528608 0.4943434808 -0.2561115682 -0.1502028525 0.0945545889
245298530.0 -0.1333094674 0.1038610043 0.4913577906 -0.2619213725 0.4914475887 -0.2616498398 -0.1493889886 0.0961127495
250298500.0 -0.1327284554 0.1053706245 0.4891219872 -0.267183096 0.4889273016 -0.2672043422 -0.1489910695 0.0977449612
255298470.0 -0.131079474 0.1074191108 0.4861855105 -0.2724252063 0.4864970083 -0.2729967945 -0.1479599229 0.0988800909
260298440.0 -0.1301052281 0.1083346192 0.4832149022 -0.2775884392 0.4831718476 -0.2777417596 -0.1471715987 0.099731305
265298410.0 -0.1292778517 0.1100389808 0.4799274664 -0.2841147694 0.4798748897 -0.2840146122 -0.1458684244 0.1012267822
270298380.0 -0.1283214768 0.1114468002 0.4772196239 -0.289325183 0.4773228096 -0.2893093027 -0.1451607281 0.1027642705
275298350.0 -0.1268424477 0.1130628894 0.4731090011 -0.2942708718 0.4737106541 -0.2948219605 -0.1441962577 0.1042543483
280298320.0 -0.126169869 0.1141146881 0.4706023364 -0.2991914708 0.4709905312 -0.3000090598 -0.1433495686 0.1054839634
285298290.0 -0.1250652784 0.1157147167 0.4670216154 -0.3048774934 0.4675609427 -0.3048456097 -0.1423932693 0.1068858929
290298260.0 -0.1237304767 0.117510587 0.4644377648 -0.3104372125 0.4642302809 -0.3105968487 -0.1414633702 0.1083401778
295298230.0 -0.1225449137 0.1184043873 0.4605653279 -0.3157612514 0.4610664175 -0.315942824 -0.1403137362 0.1093391392
300298200.0 -0.1214723901 0.1201772959 0.4572617237 -0.3208273967 0.4575857851 -0.3210580936 -0.139497427 0.1108491675
305298170.0 -0.120118092 0.1213069312 0.4542276455 -0.3263364495 0.4541536026 -0.3263557477 -0.1381716992 0.11185757
310298140.0 -0.1186658629 0.1223887642 0.4503365196 -0.3313086261 0.45074523 -0.3307511722 -0.137662583 0.1130091781
315298110.0 -0.1177179907 0.1236670022 0.4468167899 -0.336710757 0.447116049 -0.3369483605 -0.1363505066 0.1147031004
320298080.0 -0.1164407521 0.1249379408 0.4425212778 -0.3414850969 0.443511322 -0.3420069042 -0.1354734776 0.1157082081
325298050.0 -0.1155887731 0.1260346194 0.4390854809 -0.3465142015 0.4395046213 -0.3468204813 -0.1345135561 0.1166628701
330298020.0 -0.11495825 0.1279085657 0.4355626225 -0.3521283143 0.4357440606 -0.3520036116 -0.134063929 0.1183222666
335297990.0 -0.1133317155 0.1289773696 0.4312329888 -0.3566435247 0.4315686493 -0.3570281125 -0.1325553549 0.1192546084
340297960.0 -0.1123393977 0.1302370776 0.4266761995 -0.361484406 0.4274113501 -0.3615236688 -0.1318830538 0.121269007
345297930.0 -0.1112429005 0.1313381141 0.422977992 -0.3664199475 0.4232089942 -0.3662966564 -0.1308624225 0.1221258758
350297900.0 -0.1099905044 0.1328856546 0.4191683639 -0.370447954 0.4195287595 -0.3706656114 -0.1299069863 0.1232957341
355297870.0 -0.1089295316 0.1341394196 0.4154433662 -0.3752052228 0.4148394086 -0.3748167516 -0.1286854624 0.1247683448
360297840.0 -0.107304326 0.1357361678 0.4105632584 -0.3799613515 0.4108558886 -0.3802501117 -0.1276198921 0.1262766646
365297810.0 -0.1063524977 0.1370679638 0.4066482483 -0.3841382866 0.4067871992 -0.3844420965 -0.1268862816 0.1274802909
370297780.0 -0.1048092441 0.1386349073 0.4023254531 -0.3886622656 0.4028517105 -0.3886500132 -0.1258397195 0.1292063266
375297750.0 -0.1035572648 0.1398756601 0.3979817266 -0.3930626742 0.3983260409 -0.3930849346 -0.1243718169 0.1302665612
380297720.0 -0.1022667635 0.1411100808 0.3941012552 -0.3978701604 0.3938254917 -0.3974993533 -0.123077262 0.1318184042
385297690.0 -0.1007148125 0.1417829822 0.3892498877 -0.4015568308 0.3894054495 -0.4023364974 -0.1218353327 0.1333025109
390297660.0 -0.0991114713 0.1434138015 0.3848186367 -0.4060401122 0.3852724605 -0.4060673687 -0.1206609601 0.1343193822
395297630.0 -0.0975875864 0.1445405034 0.3807630354 -0.4097126162 0.3804604366 -0.410065796 -0.1190571882 0.1355450142
400297600.0 -0.0964191487 0.1456470305 0.3762115629 -0.4142097339 0.3763771163 -0.4145544467 -0.1180166348 0.1370523195
405297570.0 -0.0948136164 0.1465491959 0.3716882138 -0.4182577593 0.3718821204 -0.4183478896 -0.1167410385 0.1382155798
410297540.0 -0.0931755571 0.1483478793 0.3672494804 -0.4227381727 0.366908528 -0.4223948858 -0.1153586094 0.1394883786
415297510.0 -0.0918857395 0.1492950034 0.3621302222 -0.4266183826 0.3629676123 -0.4267946015 -0.1142409835 0.1409472693
420297480.0 -0.0901280047 0.1501117322 0.3576801258 -0.4304271702 0.358168305 -0.4304043064 -0.1128359639 0.1426190411
425297450.0 -0.0881557736 0.1512295942 0.3530216328 -0.4342549673 0.3530285844 -0.4343807024 -0.1114942368 0.1431736633
430297420.0 -0.0870099249 0.1523372758 0.3485773102 -0.4380915047 0.3488825343 -0.437699572 -0.1098480632 0.1447110741
435297390.0 -0.085299385 0.1533778443 0.3432671492 -0.4422307528 0.3432924418 -0.4418773126 -0.108916931 0.146121491
440297360.0 -0.0834622545 0.1540941465 0.3383146493 -0.4456249767 0.3383933995 -0.4458537462 -0.1074023545 0.1474021576
445297330.0 -0.0817909072 0.155220125 0.334123144 -0.4491211033 0.3338307562 -0.4499622579 -0.1057140257 0.1484039895
450297300.0 -0.079760915 0.1564189683 0.3284634453 -0.4527946597 0.3289247788 -0.4529280357 -0.1044568354 0.1494633198
455297270.0 -0.0788540983 0.1572545126 0.3240086877 -0.4561705557 0.3239089285 -0.4566350592 -0.1027846026 0.1507799414
460297240.0 -0.0765133993 0.1582996662 0.3190180747 -0.4604026307 0.3188911322 -0.4601088 -0.1015571614 0.1514831828
465297210.0 -0.0750432976 0.1592479734 0.3136705933 -0.4634950403 0.3134173372 -0.4640974557 -0.0995060229 0.1536163202
470297180.0 -0.0730499922 0.160098547 0.3086271724 -0.4665596629 0.3090065276 -0.4668946205 -0.0981861366 0.15381285
475297150.0 -0.0717622645 0.1613580052 0.3034983309 -0.4701734241 0.3034966638 -0.4703129553 -0.0967573229 0.1550275362
480297120.0 -0.0690723553 0.1623778935 0.2981387346 -0.4736341721 0.2983520208 -0.4735748372 -0.0951586953 0.1564680861
485297090.0 -0.0677033367 0.1627647725 0.2930173977 -0.4769309997 0.2930522531 -0.476640288 -0.0939933375 0.1573851699
490297060.0 -0.0654323651 0.1637816635 0.2874995601 -0.4800972736 0.2882264476 -0.4803132421 -0.0925482213 0.1582045461
495297030.0 -0.0641421819 0.1643536415 0.2829082112 -0.4831056651 0.2827308662 -0.483264756 -0.0903578777 0.1595170504
500297000.0 -0.0623658101 0.1654346117 0.2777469123 -0.4855146668 0.2773741973 -0.4865525958 -0.0890670672 0.1606350098
505296970.0 -0.0599085435 0.166166547 0.2722181678 -0.4891974634 0.2718824794 -0.4888028041 -0.0874338839 0.1610277879
510296940.0 -0.0582711314 0.1669443173 0.2668358182 -0.4922820831 0.2671486115 -0.4924378182 -0.0856205081 0.1623918787
515296910.0 -0.0562187535 0.1680856034 0.2611581404 -0.4947991218 0.2606692637 -0.4949678494 -0.084207024 0.1630392961
520296880.0 -0.0544948623 0.1687994798 0.2561180676 -0.4975963968 0.2556653179 -0.4973313726 -0.0823778715 0.1644100071
525296850.0 -0.0521106855 0.1688508079 0.2503407367 -0.5004375596 0.2503445911 -0.4999848783 -0.0807996165 0.1650660517
530296820.0 -0.0507387075 0.1697698498 0.2449272117 -0.5031791073 0.2450385814 -0.5031076639 -0.0791574207 0.1657643742
535296790.0 -0.0480302598 0.1705679962 0.2395394869 -0.505308423 0.2396552461 -0.5055493739 -0.0771379553 0.1670823065
540296760.0 -0.0463199025 0.1712355776 0.2338411967 -0.5078305434 0.2336307113 -0.5079409609 -0.0760115351 0.1674738173
545296730.0 -0.0447849125 0.1722414723 0.2285026748 -0.5106526329 0.2283959608 -0.5105205342 -0.074117133 0.1687294227
550296700.0 -0.0422076809 0.1730297849 0.2226998258 -0.5132088356 0.222394526 -0.5133648403 -0.0724917289 0.169613402
555296670.0 -0.0404007249 0.1733747705 0.2174907496 -0.5155828083 0.2171118017 -0.515286028 -0.0710035239 0.1696548673
560296640.0 -0.0379822617 0.1741108729 0.2110376736 -0.5176353653 0.2116599437 -0.517765331 -0.0691288151 0.1711502418
565296610.0 -0.036470692 0.1745837741 0.2060037026 -0.5201698486 0.2063358023 -0.519536698 -0.067438208 0.1720591637
570296580.0 -0.0345020291 0.1754002801 0.2001875442 -0.5221542807 0.2001468271 -0.5221125507 -0.0657989029 0.1723442145
575296550.0 -0.0321227293 0.1755356079 0.195290186 -0.5241863743 0.1946178048 -0.5241993064 -0.0637127316 0.1733488053
580296520.0 -0.0301903453 0.1766132679 0.1888160906 -0.5261445115 0.1887664572 -0.5261305232 -0.0626915969 0.1740267637
585296490.0 -0.0279160223 0.1770014975 0.1837049133 -0.5280521145 0.1827597151 -0.5281580224 -0.0602614982 0.1750363851
590296460.0 -0.0253181511 0.1776012149 0.1773801092 -0.5303807493 0.1778671188 -0.5304162968 -0.0592691608 0.175484487
595296430.0 -0.0235543432 0.1779618195 0.1712147043 -0.5317952603 0.1714104742 -0.5321600787 -0.0568357073 0.176173549
600296400.0 -0.0215399282 0.1782113929 0.1654878861 -0.5338845948 0.1656911998 -0.5338296166 -0.0552675472 0.1767111547
605296370.0 -0.0199323926 0.1790416442 0.1603787844 -0.5356891505 0.1597404205 -0.5356632124 -0.0538114725 0.1776470812
610296340.0 -0.0172081252 0.1796831335 0.1542093891 -0.5365598818 0.1544180842 -0.5369683657 -0.0522258758 0.1782406355
615296310.0 -0.0150566487 0.1796458087 0.1484385316 -0.539299025 0.1478690012 -0.5390207199 -0.049968633 0.1789203337
620296280.0 -0.0137601878 0.1805197658 0.1423472575 -0.5407981473 0.142348708 -0.5404202776 -0.0485151662 0.1797062998
625296250.0 -0.0114778204 0.1806488872 0.1365327142 -0.5419889261 0.1365435797 -0.5418009295 -0.04681498 0.1800805923
630296220.0 -0.0094310347 0.1813778474 0.1304632752 -0.5433788626 0.1308031257 -0.5430775367 -0.0451985091 0.1807470613
635296190.0 -0.0075447358 0.1816575243 0.1251930854 -0.5443042226 0.1246847521 -0.5444520042 -0.0433135247 0.1811925262
640296160.0 -0.0053896983 0.1818039538 0.1191386324 -0.5463309532 0.1184966828 -0.5459819974 -0.0417048918 0.1817447348
645296130.0 -0.002960958 0.1825823027 0.1130605545 -0.5471809068 0.1132416441 -0.5469440528 -0.0400042226 0.1820019134
650296100.0 -0.0010324277 0.1827265329 0.1072541311 -0.5483902738 0.1069739303 -0.548683866 -0.0374009973 0.1828539368
655296070.0 0.0007599682 0.1830052461 0.1013814494 -0.5496885486 0.1010087696 -0.5490747324 -0.0364398219 0.1836080643
660296040.0 0.0031713168 0.183441295 0.095045797 -0.5506882959 0.0948786971 -0.5505583973 -0.0341773721 0.1834221651
665296010.0 0.0049132478 0.1834299935 0.088788424 -0.5511374252 0.0889291563 -0.550926735 -0.0324149317 0.1841146159
670295980.0 0.0073223035 0.1839073811 0.082922876 -0.552422563 0.0830750197 -0.5516953954 -0.0312033924 0.184575176
675295950.0 0.0092494993 0.1838624828 0.0772640174 -0.5529894806 0.0774503739 -0.5529576423 -0.0292410444 0.1853283419
680295920.0 0.0108233378 0.1844219609 0.0715930092 -0.5538285991 0.0714745601 -0.5534476148 -0.0269281821 0.1851779079
685295890.0 0.013533966 0.1844737564 0.0651380333 -0.5545285218 0.0653214877 -0.5550235833 -0.0253554342 0.1864448444
690295860.0 0.0149125041 0.1843518987 0.0595710736 -0.554969215 0.0591282518 -0.5552754997 -0.0234878826 0.1863951597
695295830.0 0.0173437843 0.1842986 0.0538509801 -0.5558261531 0.0532803059 -0.5556918908 -0.0217434815 0.1869281605
700295800.0 0.0196102149 0.1846811954 0.0479929625 -0.556281214 0.047723454 -0.5562083864 -0.0200936724 0.1870764468
705295770.0 0.0210122977 0.1850849771 0.0418982598 -0.5573783737 0.0413776607 -0.5566491846 -0.0183831181 0.1878869366
710295740.0 0.0233115229 0.1843554645 0.0358772861 -0.5570158995 0.0352996482 -0.5572049963 -0.0160875065 0.1881099586
715295710.0 0.0255194937 0.1848350763 0.0300398281 -0.5577624722 0.0293974278 -0.5576168626 -0.0143588373 0.1879844835
720295680.0 0.0277307149 0.1846518734 0.023598343 -0.5572944836 0.0233841794 -0.5578152564 -0.0129297737 0.1882317767
725295650.0 0.0288553026 0.1846821064 0.0180487234 -0.557937346 0.0176431538 -0.5578729029 -0.0111127841 0.1887425017
730295620.0 0.0307228328 0.1846588975 0.0120071998 -0.5575509358 0.0116581736 -0.557748438 -0.0094613996 0.1890674662
735295590.0 0.0331834812 0.1846487975 0.0056450403 -0.5582207103 0.0056770659 -0.5581874546 -0.0073078061 0.1890366206
740295560.0 0.0349659515 0.1840404476 -0.0007680356 -0.5579500362 -0.0004066432 -0.5584373624 -0.0057497662 0.1898586308
745295530.0 0.0369242244 0.1842479966 -0.0057414089 -0.5574476463 -0.0057939799 -0.5578431786 -0.0041706197 0.1898850099
750295500.0 0.0386115536 0.1845603302 -0.0118357258 -0.5580741663 -0.0127207755 -0.5578209637 -0.0019658451 0.1901684971
755295470.0 0.040623598 0.1840452435 -0.0180569774 -0.5581176936 -0.0182417958 -0.5582522292 3.01233e-05 0.1904072111
760295440.0 0.0426005932 0.1843182685 -0.0246976612 -0.5575415209 -0.0244112343 -0.557155568 0.0017137045 0.189845323
765295410.0 0.0447668098 0.1832502114 -0.0300813607 -0.5569887343 -0.0298960647 -0.5569986342 0.0034385489 0.1902809672
770295380.0 0.0467366163 0.1832637129 -0.0360085786 -0.5563589164 -0.0362649348 -0.5568460657 0.0050968869 0.1907652149
775295350.0 0.0481755304 0.1830760278 -0.0418069433 -0.5563166952 -0.0420030048 -0.5563038267 0.0072343815 0.1908253749
780295320.0 0.0502555374 0.1831225424 -0.047651134 -0.5553538451 -0.0478251554 -0.555791003 0.0094933272 0.1908322974
785295290.0 0.0520248932 0.1823268362 -0.0540867019 -0.5550815643 -0.0542104046 -0.5551516495 0.0102951472 0.1911537301
790295260.0 0.0542254134 0.181842787 -0.060030682 -0.5549711662 -0.0597142521 -0.5551294181 0.0127209191 0.1915759297
795295230.0 0.0562981092 0.1814458257 -0.065839457 -0.5539512699 -0.0658059349 -0.5541315207 0.014462166 0.1906274251
800295200.0 0.0576765858 0.1812726013 -0.0711943451 -0.5526742831 -0.0717760894 -0.5532642602 0.0162505472 0.1911261146
805295170.0 0.0594879709 0.1805601209 -0.0776263462 -0.551875961 -0.0777724945 -0.5526764162 0.0186088323 0.1907957108
810295140.0 0.0619125581 0.1803004761 -0.0836916192 -0.5509881193 -0.0839254052 -0.5520077503 0.0202385306 0.1911669394
815295110.0 0.0634046403 0.1800840878 -0.0893373135 -0.5505327687 -0.0891084066 -0.5505055318 0.0218456132 0.1910277577
820295080.0 0.0652794875 0.1794986086 -0.0945661788 -0.5487258781 -0.0949173326 -0.549792309 0.023137338 0.1915369512
825295050.0 0.0668970137 0.1788589579 -0.101080094 -0.5485397663 -0.1014296201 -0.5485438247 0.0258975798 0.1914666865
830295020.0 0.0690470981 0.1783092618 -0.1068903215 -0.5475100226 -0.1067403155 -0.5475995932 0.0272267623 0.1907278687
