!Created with skrf (http://scikit-rf.org).
# Hz S RI R 50.0 
!freq ReS11 ImS11 ReS21 ImS21 ReS12 ImS12 ReS22 ImS22
300000.0 -0.7739025661 -0.1447611656 -0.0004688802 0.0005651529 0.0009489471 0.0012988701 -0.0454758741 -0.0672538451
5299970.0 -0.7853023554 -0.0068499715 4.07578e-05 1.13932e-05 0.0001899379 9.80331e-05 -0.0486303966 0.0141131791
10299940.0 -0.7874016316 -0.0037396967 -0.0001293886 -6.30068e-05 -0.0001323038 0.0001908493 -0.0432111688 0.0316603558
15299910.0 -0.7933029057 -0.0012608275 5.55983e-05 9.30873e-05 -0.0001233111 -5.71268e-05 -0.0345798724 0.0453718141
20299880.0 -0.7996820553 0.0022473819 0.0001039842 7.45781e-05 -8.34386e-05 -0.000223322 -0.0252383251 0.0570611845
25299850.0 -0.806358765 0.0083241859 -9.04769e-05 -5.65607e-05 9.61175e-05 -8.00304e-05 -0.0146811014 0.0658461334
30299820.0 -0.811723238 0.0162444188 4.86161e-05 0.0002815049 -0.0003255369 0.00018237 -0.0033596594 0.0727329799
35299790.0 -0.8167991422 0.0254061952 -7.6668e-06 -4.22045e-05 -5.77349e-05 -0.0001841323 0.008056703 0.077102904
40299760.0 -0.8211110058 0.0343503564 -0.0001242311 -4.94937e-05 5.76956e-05 0.0001736365 0.0193786912 0.0798353635
45299730.0 -0.8241984087 0.0442962857 1.79721e-05 9.51281e-05 -5.96844e-05 9.8336e-05 0.0294903901 0.0814899581
50299700.0 -0.8265991923 0.0537882196 -0.0001035441 0.0002522671 -1.41271e-05 6.10358e-05 0.0396463864 0.0814526272
55299670.0 -0.8282870433 0.0645131079 3.89601e-05 -2.045e-07 0.0002867308 5.80564e-05 0.0482514258 0.0802608188
60299640.0 -0.8298085674 0.0744854849 1.97209e-05 -9.8789e-06 -4.44913e-05 0.0001889674 0.0564883331 0.0783845313
65299610.0 -0.8312452703 0.0848789573 -5.02392e-05 -8.39132e-05 -0.0001495948 -7.31711e-05 0.0643731135 0.0763704336
70299580.0 -0.8313978133 0.0944857004 -0.0001493707 6.06719e-05 -9.4014e-06 -0.0001025689 0.071292638 0.072903367
75299550.0 -0.8314666684 0.104847381 8.10101e-05 4.18161e-05 -7.131e-07 0.000102068 0.0775407844 0.0699909926
80299520.0 -0.8314395359 0.1144418375 0.0001315728 4.57406e-05 9.58689e-05 7.94245e-05 0.0826154366 0.0664800335
85299490.0 -0.8305977796 0.1243603146 0.0001674605 3.68755e-05 9.1805e-06 0.0001816865 0.0877548334 0.0624353912
90299460.0 -0.8296286848 0.1337537428 -5.4217e-06 -8.18733e-05 0.0001147312 9.49053e-05 0.0924389244 0.058568156
95299430.0 -0.8286201263 0.1438427291 -1.06083e-05 -5.88546e-05 -3.86305e-05 -1.7822e-06 0.0965766908 0.0547144412
100299400.0 -0.8276912473 0.1531812935 3.95444e-05 0.0001880089 -1.60672e-05 8.20114e-05 0.0998168921 0.0507210738
105299370.0 -0.8264862882 0.1619616001 -9.68684e-05 0.0001280249 -0.0001595936 4.23578e-05 0.1033964691 0.0466739405
110299340.0 -0.8251275313 0.1708387891 -3.26012e-05 -1.37984e-05 9.77916e-05 9.39769e-05 0.1057576237 0.0433064392
115299310.0 -0.8237289972 0.1804443921 8.67199e-05 8.9487e-06 7.82163e-05 9.85166e-05 0.1083835149 0.0387006346
120299280.0 -0.8216368636 0.1894977551 9.83681e-05 0.0001213982 0.0001505157 -0.0001191524 0.110623154 0.0352194966
125299250.0 -0.8206566597 0.1987644594 0.0001670772 -6.0515e-06 6.62619e-05 5.65338e-05 0.1124372218 0.0308930052
130299220.0 -0.8186002336 0.2073893808 4.73412e-05 -6.26197e-05 5.26262e-05 0.0001644252 0.1137969925 0.0275320432
135299190.0 -0.8167356364 0.2160234049 -5.9908e-05 0.0003664439 2.1785e-06 0.000144689 0.1154241262 0.0234344756
140299160.0 -0.8141655786 0.2254500305 4.05801e-05 -0.0001533499 -1.99136e-05 3.12592e-05 0.1166481784 0.0201437532
145299130.0 -0.8124815558 0.2339810522 3.64122e-05 -6.97347e-05 3.6613e-05 7.25755e-05 0.1172622992 0.0165710567
150299100.0 -0.8098328046 0.2430154038 0.0001388438 4.99145e-05 0.0001038034 -0.0001396771 0.1183302083 0.0130645156
155299070.0 -0.8077842502 0.252087174 -3.59965e-05 6.56518e-05 0.0001056134 0.0002121512 0.1189883425 0.0096459217
160299040.0 -0.8049591111 0.2615016035 0.0002031858 -3.05723e-05 2.973e-07 8.50854e-05 0.1196475309 0.0063398181
165299010.0 -0.8020907375 0.2690486877 -0.0001086923 -9.02209e-05 6.40043e-05 -7.0088e-06 0.1199927778 0.0030816212
170298980.0 -0.7995360708 0.2780501681 9.97967e-05 0.0001661965 -7.57403e-05 -0.0001074098 0.1204408928 -0.0001583609
175298950.0 -0.7969607588 0.286861613 -3.30031e-05 -6.71431e-05 -3.94041e-05 0.0001883225 0.1204299406 -0.0031777559
180298920.0 -0.7935063767 0.2951014533 0.0001952555 2.86211e-05 0.0001709475 0.0002207305 0.1210514085 -0.0063136367
185298890.0 -0.7912045829 0.3042143882 8.58435e-05 9.04499e-05 -4.06722e-05 1.20379e-05 0.1205140267 -0.0092784707
190298860.0 -0.7875071373 0.3122704954 -3.38162e-05 7.95294e-05 9.81969e-05 -7.082e-06 0.1206818864 -0.012108919
195298830.0 -0.7838886828 0.3207828064 0.0001663167 -7.8092e-06 0.0001106647 -6.5371e-06 0.1205293952 -0.0151043449
200298800.0 -0.7806338402 0.3293093426 6.50423e-05 0.0001192235 -0.0001315986 0.0001329346 0.1206545621 -0.0178117221
205298770.0 -0.7769301989 0.3373995127 -1.96722e-05 0.0001000104 0.0001111721 8.11375e-05 0.1202440714 -0.0206032405
210298740.0 -0.7736421378 0.3456249201 -0.0001448475 0.0001228434 8.5625e-06 0.0002143899 0.1200108315 -0.0231483558
215298710.0 -0.7704569911 0.3540926184 0.0001015094 6.61596e-05 0.0002647522 -2.14606e-05 0.1194132412 -0.025508853
220298680.0 -0.7669584276 0.3623004095 7.18636e-05 -1.16034e-05 -2.67363e-05 0.0001322371 0.1190157031 -0.028110305
225298650.0 -0.7630178432 0.3705029369 1.10912e-05 0.0002037977 0.0001090037 3.2236e-06 0.1182565802 -0.0301011798
230298620.0 -0.758913542 0.3784307903 3.58225e-05 2.58124e-05 1.82359e-05 0.0001753866 0.1179487868 -0.0329966841
235298590.0 -0.7544233431 0.3876538638 0.0001961544 0.0001702026 0.0001361239 8.14692e-05 0.1171772599 -0.0355234927
240298560.0 -0.7510448891 0.3951178346 4.86117e-05 -1.04865e-05 3.13295e-05 2.23497e-05 0.1166752677 -0.0374528493
245298530.0 -0.7461695111 0.403160454 0.0001901527 0.0002014751 0.0001882024 -0.000202743 0.1161462641 -0.0399570963
250298500.0 -0.742152326 0.4099783586 7.50731e-05 5.15906e-05 -5.19905e-05 2.63472e-05 0.1155524916 -0.0418677226
255298470.0 -0.7376887621 0.4185600797 0.0001022217 -5.93046e-05 0.0001042082 0.0001156763 0.1146303712 -0.0442672293
260298440.0 -0.7339437476 0.4264173701 -4.67845e-05 -2.68429e-05 9.3446e-06 -1.22632e-05 0.113904306 -0.0462356598
265298410.0 -0.7291551597 0.4337848689 -3.01998e-05 7.50834e-05 4.60184e-05 -2.1335e-06 0.1129392447 -0.0484942073
270298380.0 -0.7244908049 0.4416958153 0.0001841608 9.44082e-05 7.87935e-05 1.36748e-05 0.1124480753 -0.0503675469
275298350.0 -0.7197404243 0.4491940382 -3.76442e-05 8.36471e-05 2.16761e-05 1.33362e-05 0.1111105697 -0.052223177
280298320.0 -0.7152563772 0.4568525124 9.70304e-05 0.0002053445 -7.8363e-06 5.31427e-05 0.1105072001 -0.0542901448
285298290.0 -0.7105117333 0.4643301989 5.89976e-05 -7.9974e-06 0.000155011 0.0001255633 0.1092294448 -0.056149356
290298260.0 -0.7053653719 0.4715874759 -0.0002358113 4.73874e-05 0.0001740984 0.000149247 0.1091353487 -0.0579988542
295298230.0 -0.7004741238 0.4794882286 -4.9203e-05 0.0001463218 -0.000115513 5.61248e-05 0.1075314923 -0.0598190688
300298200.0 -0.6945735747 0.4861356859 0.0001390891 -4.8628e-05 0.00012637 5.8176e-05 0.1067383103 -0.061397587
305298170.0 -0.6901415312 0.4939419595 0.0001544838 3.3312e-06 1.49695e-05 0.0002469601 0.1061342675 -0.0631280245
310298140.0 -0.6842983566 0.5004903198 8.34442e-05 8.64315e-05 0.0001416297 -3.06287e-05 0.1050910543 -0.0649782769
315298110.0 -0.6795112075 0.5080321803 1.85127e-05 5.59488e-05 0.0003358433 -0.0002050462 0.1041254834 -0.0668094938
320298080.0 -0.6743224832 0.5153392749 0.0001683416 0.0001148193 0.0001832386 -7.4158e-05 0.1029907541 -0.0686775444
325298050.0 -0.6681883847 0.5220866936 0.0002032305 0.0001703974 2.93245e-05 -6.97457e-05 0.1016929855 -0.0705815684
330298020.0 -0.6630789934 0.5289022755 -1.908e-07 -0.0001115478 -0.0002398779 0.0001852288 0.1002388869 -0.0724096098
335297990.0 -0.6563122394 0.5361446962 4.3816e-06 -6.82121e-05 0.0001576784 0.00012919 0.0987772377 -0.0739169683
340297960.0 -0.6522200088 0.5426992013 9.87869e-05 1.56974e-05 0.0001425415 -1.0639e-05 0.0977590169 -0.0754894969
345297930.0 -0.6462042523 0.5483130257 0.0001784071 7.06773e-05 0.0001571738 0.0001798952 0.0959685533 -0.0768726569
350297900.0 -0.640198384 0.5557895221 0.0001627958 -4.69366e-05 7.10194e-05 -6.0927e-06 0.0948340209 -0.0780849617
355297870.0 -0.6342973003 0.5627467783 0.0001379134 9.32288e-05 0.000208785 0.0001052248 0.0933610208 -0.0793626501
360297840.0 -0.628429166 0.568789115 0.0001757643 -5.18694e-05 2.43654e-05 -1.45071e-05 0.0921871934 -0.0802374553
365297810.0 -0.6219759534 0.5753627843 0.0001397711 -1.12486e-05 3.45321e-05 -3.19741e-05 0.0906971715 -0.0818814731
370297780.0 -0.616498811 0.5815379482 0.0001083303 -0.0001297341 0.000123243 0.0002437122 0.0893328993 -0.0829649912
375297750.0 -0.6103592495 0.5881121289 0.0001253693 2.92684e-05 0.0002156252 7.99198e-05 0.0881699265 -0.0843009046
380297720.0 -0.6042930906 0.5944152677 -4.79026e-05 4.4321e-06 -6.95491e-05 0.0001115571 0.0870120714 -0.0852309819
385297690.0 -0.5978237286 0.6005290379 0.0001107501 -3.0461e-06 4.12576e-05 -7.64161e-05 0.0853523819 -0.0860199751
390297660.0 -0.5913250806 0.6070148587 0.0002998866 0.0002857389 7.53692e-05 -0.0001563339 0.0840599818 -0.0876963769
395297630.0 -0.5851282695 0.6129341326 -4.60415e-05 -0.0001409009 -0.000173711 -4.33101e-05 0.0825916634 -0.088531681
400297600.0 -0.5789297519 0.6186815652 3.08847e-05 2.49941e-05 8.21157e-05 -4.68008e-05 0.0810512702 -0.089728673
405297570.0 -0.5724590535 0.6249671638 -5.7054e-06 -7.1165e-06 4.08525e-05 5.48621e-05 0.0796269291 -0.0905174918
410297540.0 -0.565965127 0.6308968904 0.0002712465 -0.0002693086 0.0001337152 0.0001826243 0.0779607315 -0.0917832975
415297510.0 -0.559055829 0.6362402919 9.10424e-05 0.0002439448 5.60537e-05 -1.76681e-05 0.076462802 -0.0924668009
420297480.0 -0.5516829172 0.6421389121 6.48877e-05 0.0001637857 8.01515e-05 0.0001778916 0.0750832698 -0.0937921329
425297450.0 -0.545800292 0.647692451 0.000194015 -3.5988e-06 7.68598e-05 -2.58737e-05 0.0739158248 -0.0944158788
430297420.0 -0.539496461 0.65273172 0.0001165837 7.78361e-05 2.80138e-05 0.0001338852 0.0723291007 -0.0953440656
435297390.0 -0.5323580242 0.6591583506 0.0002219674 7.97486e-05 7.16459e-05 -0.0001279072 0.070923283 -0.0963252287
440297360.0 -0.5255973369 0.66444039 0.000202857 -0.0001942447 -0.0002826922 5.09376e-05 0.0688392749 -0.0972617963
445297330.0 -0.518615754 0.6699071102 7.0513e-06 -3.84223e-05 0.000170895 -6.5875e-05 0.0676378596 -0.0980697225
450297300.0 -0.5111573515 0.6739753774 -6.47056e-05 -0.0001136514 -7.58614e-05 6.89206e-05 0.0659901467 -0.0988939762
455297270.0 -0.5041920091 0.6796253047 0.0002777885 -0.0001206399 5.91927e-05 0.0001497344 0.0648876917 -0.0994566268
460297240.0 -0.4974259098 0.6852759116 0.0003169135 0.0001903123 3.40278e-05 0.0002814486 0.0633914142 -0.100219769
465297210.0 -0.4902596159 0.69056198 9.66883e-05 -0.0002357479 -0.0001099797 0.0001430245 0.0613024465 -0.1011498434
470297180.0 -0.4829626864 0.6948857236 -5.43266e-05 4.39132e-05 0.0001719887 -3.0223e-05 0.0595710791 -0.1016599439
475297150.0 -0.4761638872 0.7002392717 5.89943e-05 7.0039e-06 7.41993e-05 0.0001117692 0.0583688917 -0.1021790436
480297120.0 -0.4689262466 0.7040229471 0.0001107009 9.06233e-05 2.76955e-05 -4.03923e-05 0.0565549674 -0.1029423516
485297090.0 -0.4612014104 0.7092831665 0.0001268719 0.0002441921 0.0001052534 0.0001201424 0.0548076543 -0.103707654
490297060.0 -0.4543341836 0.7143271329 0.0002374839 0.0001175192 -0.0001004658 4.18428e-05 0.0535060944 -0.1044307342
495297030.0 -0.4474566287 0.7185601309 0.0001712157 -4.56465e-05 0.000116087 -2.78094e-05 0.0517696677 -0.1052712667
500297000.0 -0.4387074704 0.7233674588 0.0003477915 0.0001009135 0.0001493042 -4.77556e-05 0.0499904143 -0.1055061647
505296970.0 -0.4315256863 0.7266141213 0.0002118961 8.17636e-05 -9.14562e-05 0.0001688407 0.0481783405 -0.1058885197
510296940.0 -0.4245270332 0.7321447278 9.01937e-05 -0.0001490164 -4.34516e-05 -1.81935e-05 0.0464630261 -0.1063861483
515296910.0 -0.4171143661 0.7362187497 0.0003264553 0.0001591393 0.0002080847 2.87466e-05 0.0450314685 -0.1067692422
520296880.0 -0.4092264865 0.7405060788 0.0002090329 6.76697e-05 0.0001378984 -4.91364e-05 0.0435081695 -0.1076286887
525296850.0 -0.4018048968 0.744169512 0.0001024245 -0.000108654 -6.24049e-05 -0.0001002983 0.0417294679 -0.1080962971
530296820.0 -0.3944174649 0.7479641016 0.0001686785 -0.0001360572 2.79359e-05 -3.68045e-05 0.0397314741 -0.1085021061
535296790.0 -0.3862982497 0.752368122 0.0001788154 8.19245e-05 1.4256e-06 -6.72537e-05 0.0381988647 -0.1090852857
540296760.0 -0.3781608031 0.7563116484 0.0002160006 9.78023e-05 -9.08245e-05 0.0002211892 0.0363200645 -0.1094097296
545296730.0 -0.3712100127 0.7596419339 0.0001428147 7.32288e-05 -0.0001002412 0.0001163588 0.0349171298 -0.10998401
550296700.0 -0.3637750729 0.7632853043 -9.08576e-05 -5.67417e-05 0.0002054873 0.0001338789 0.03320692 -0.1103515286
555296670.0 -0.3551954755 0.7669578629 0.0003030198 0.0001981427 -8.08852e-05 1.4041e-06 0.0313457738 -0.1104827441
560296640.0 -0.34777942 0.7709042017 4.19272e-05 6.27587e-05 -8.9584e-05 -3.94885e-05 0.0299156187 -0.1108507455
565296610.0 -0.3398505969 0.7736880149 0.0002707706 -1.0558e-05 1.77524e-05 8.62573e-05 0.0281186761 -0.1111209814
570296580.0 -0.3322781971 0.7774056502 0.0001820126 7.89031e-05 9.81269e-05 -5.87113e-05 0.0263649622 -0.1112059905
575296550.0 -0.3238967318 0.7802461106 0.000119954 -9.66383e-05 0.0001538021 2.01591e-05 0.0247547776 -0.1117359227
580296520.0 -0.3156599194 0.7840356201 2.43581e-05 6.5557e-06 0.0001586601 -0.0001109214 0.0230633563 -0.1116820869
585296490.0 -0.3075032297 0.7864565227 0.0001868153 3.90178e-05 0.0002638466 -0.0001585008 0.0210567173 -0.1126024886
590296460.0 -0.3002822882 0.7893945029 0.0001054855 -0.0001067756 0.0002774172 -6.98289e-05 0.0197906388 -0.1123413511
595296430.0 -0.2910460592 0.7932227986 0.000117887 2.63718e-05 4.82251e-05 -2.51741e-05 0.0176210053 -0.1126760556
600296400.0 -0.283700293 0.79569733 0.0001220176 -6.90461e-05 8.20486e-05 -1.1898e-06 0.0158992804 -0.1124430399
605296370.0 -0.2757529462 0.7986409476 5.0197e-06 -3.03668e-05 0.0001740819 0.000114481 0.0144828636 -0.1126130272
610296340.0 -0.2674426054 0.8012465972 0.0002357862 0.0002272887 3.51754e-05 -2.28924e-05 0.0127876595 -0.1124978233
615296310.0 -0.2594192142 0.8043536679 6.24911e-05 5.84539e-05 0.0002331187 0.0002548461 0.0111813088 -0.1130708932
620296280.0 -0.2507390417 0.8058492397 0.0003009931 2.08496e-05 -9.3072e-06 0.0001868914 0.0093027972 -0.1131893673
625296250.0 -0.2430613577 0.8089368748 0.0002971927 0.0001317676 0.0001685181 -0.0001301183 0.0075251429 -0.1127426405
630296220.0 -0.234410091 0.811982868 0.00028266 -2.27778e-05 6.6437e-06 -6.02188e-05 0.0058539607 -0.1127080882
635296190.0 -0.2262356279 0.8137031679 5.44159e-05 3.76816e-05 0.0002319014 -0.0001219674 0.0042521323 -0.1128964239
640296160.0 -0.2182908629 0.8153407488 0.0003572357 3.54161e-05 -2.2814e-06 8.35606e-05 0.0027061531 -0.1130449229
645296130.0 -0.2103477457 0.817843436 0.0001051128 -9.2977e-05 0.0002549184 -3.84468e-05 0.0007406713 -0.1133141563
650296100.0 -0.2013812633 0.8198594075 0.0003575997 9.64104e-05 0.000181043 -2.9464e-05 -0.000743959 -0.1125475859
655296070.0 -0.1932985265 0.8218229125 0.0001899624 -0.0002184458 0.0002796197 -0.0001936901 -0.0023330523 -0.1127248531
660296040.0 -0.1853178862 0.8238958402 0.0001070188 5.39275e-05 3.63111e-05 5.20629e-05 -0.0044779809 -0.1126091464
665296010.0 -0.1771787379 0.8258901245 0.0001569695 2.41336e-05 0.0001400551 -0.0001163331 -0.0058611018 -0.1121925449
670295980.0 -0.1678585612 0.8273558525 0.0001591432 3.70289e-05 -2.16518e-05 7.61678e-05 -0.0074721756 -0.1121263234
675295950.0 -0.1601134263 0.8285748115 0.0002109914 -0.0001179461 2.50638e-05 0.0002159332 -0.0091797221 -0.1117681199
680295920.0 -0.1519248209 0.830616385 0.0001658099 -4.12875e-05 0.0002541757 3.17648e-05 -0.0109440743 -0.1115612735
685295890.0 -0.1428810022 0.8318670917 4.30569e-05 -0.0001431512 0.0001736784 5.439e-06 -0.0124072434 -0.1115655991
690295860.0 -0.1348526779 0.8339004488 0.0002284659 -1.58128e-05 0.0001469695 0.0001250758 -0.0140513614 -0.1111689193
695295830.0 -0.12612779 0.8339674841 0.0003102289 -1.18032e-05 0.0001269518 7.05606e-05 -0.0160795603 -0.1107542597
700295800.0 -0.1182240679 0.8358331873 0.0001905846 -5.33661e-05 0.0001847786 0.0001248786 -0.0175350444 -0.1106158344
705295770.0 -0.109288466 0.8378105429 0.0001082966 -9.02679e-05 0.0002915754 4.21788e-05 -0.0190915202 -0.1098625488
710295740.0 -0.1013557486 0.837991546 0.0002648572 8.63306e-05 0.0003971636 -2.30034e-05 -0.0212700069 -0.1094218983
715295710.0 -0.0935977617 0.8384946599 0.0002436679 -0.0001981472 3.95868e-05 -8.81916e-05 -0.0224392299 -0.1093831131
720295680.0 -0.0840622531 0.8401460348 0.0001759274 -0.0001117829 6.73775e-05 -4.55247e-05 -0.0238684548 -0.1088185358
725295650.0 -0.0752554638 0.8406366579 3.28025e-05 -3.724e-05 6.07386e-05 -5.21109e-05 -0.025722252 -0.108453932
730295620.0 -0.0673467912 0.8411275315 0.0002195228 0.0001086087 0.0001539747 1.80519e-05 -0.0271282789 -0.1082066461
735295590.0 -0.0587949123 0.8412856557 0.0001805779 -4.88959e-05 -5.13898e-05 -0.0002079348 -0.0287741499 -0.1075636556
740295560.0 -0.0505219072 0.8426880072 0.0001715596 -8.53502e-05 -3.92941e-05 0.0001334672 -0.0302599866 -0.1071992158
745295530.0 -0.0419658577 0.8423530983 0.0003774738 -1.41561e-05 5.59053e-05 -7.87106e-05 -0.0322832133 -0.1060796666
750295500.0 -0.03396317 0.8431042939 9.84326e-05 -7.19204e-05 0.0001341163 -1.50327e-05 -0.033630322 -0.1061552023
755295470.0 -0.0243868957 0.8431197865 9.01223e-05 -0.0001971938 0.0002723015 1.27808e-05 -0.0353219792 -0.1049956995
760295440.0 -0.0163995123 0.8434712285 9.08248e-05 -0.0001109475 0.0003533617 0.0001191403 -0.0367940849 -0.1046993703
765295410.0 -0.00824846 0.8436749387 -5.05735e-05 6.40976e-05 -9.27017e-05 -8.68245e-05 -0.0381819782 -0.1036593159
770295380.0 0.0005747794 0.8444061724 7.44561e-05 0.000153733 0.0003094264 0.0001920147 -0.0398926546 -0.1034956426
775295350.0 0.0085596517 0.8441363721 -5.1628e-05 9.8183e-05 2.67794e-05 8.85624e-05 -0.0417784262 -0.1031856136
780295320.0 0.0173016286 0.8432945843 0.000176083 -0.0001257558 0.0003291712 3.56208e-05 -0.0432269879 -0.1017920189
785295290.0 0.0255520834 0.843523592 3.61985e-05 5.99803e-05 9.09559e-05 -8.86923e-05 -0.0446218285 -0.1012046454
790295260.0 0.0336129412 0.8431689181 4.64173e-05 -5.77167e-05 0.0001781324 9.30158e-05 -0.0460284419 -0.1009315125
795295230.0 0.0430357367 0.8433325231 0.00013504 6.48241e-05 0.0002047618 -0.0003142561 -0.047565573 -0.0998915506
800295200.0 0.0511896035 0.8425998724 0.0001297202 -2.87143e-05 1.55916e-05 -2.57273e-05 -0.049090608 -0.0994500614
805295170.0 0.0598703702 0.8423059011 0.0002117538 -1.41385e-05 0.000171854 2.42196e-05 -0.0509653223 -0.0983503128
810295140.0 0.0680880669 0.8413490777 0.0002980179 6.34121e-05 0.0002968368 -0.0001231289 -0.0522072296 -0.0971905023
815295110.0 0.0762904825 0.8399911782 0.0001077687 1.54593e-05 0.0003860293 -9.49859e-05 -0.0535712873 -0.0965701661
820295080.0 0.08498235 0.8390893682 -3.71343e-05 -1.3889e-05 0.0001706794 2.8585e-05 -0.0553432217 -0.0957961294
825295050.0 0.0933020513 0.8379663019 0.0002404424 -0.0001110324 0.0001412554 -7.51572e-05 -0.0563689708 -0.0951234765
830295020.0 0.102086034 0.8375652589 0.000306932 -6.02256e-05 8.88933e-05 -3.47798e-05 -0.0583590335 -0.0941923863
835294990.0 0.1098591992 0.8371278847 0.0002665916 -0.0002295337 0.0001954744 -0.000148533 -0.0591430079 -0.0933394112
840294960.0 0.1183521495 0.8351208549 0.0002628464 -8.688e-05 0.0001938939 -3.07066e-05 -0.0611016834 -0.0918191227
845294930.0 0.1269025706 0.8343150191 0.0001599999 0.0001606066 0.0001270676 3.27993e-05 -0.0624882131 -0.0911298098
850294900.0 0.1348769684 0.832613512 0.0001566447 1.29695e-05 0.0002940411 -1.65469e-05 -0.0637979431 -0.0902390655
