!Created with skrf (http://scikit-rf.org).
# Hz S RI R 50.0 
!freq ReS11 ImS11 ReS21 ImS21 ReS12 ImS12 ReS22 ImS22
300000.0 -0.2352673223 -0.1093455355 0.4663813466 0.07242112 0.4720541398 0.0739105456 -0.2392945741 -0.1135328696
5299970.0 -0.2407661897 0.0071240944 0.474976337 0.0053616131 0.4752057259 0.0055986966 -0.2449598601 0.0055892721
10299940.0 -0.2373852814 0.0201863367 0.4773244406 0.0061763811 0.4772429249 0.0065317663 -0.2419395601 0.0174971758
15299910.0 -0.2329098536 0.0298127374 0.4804803389 0.007560661 0.4807351409 0.0076514928 -0.2375945144 0.0263786916
20299880.0 -0.227402958 0.037784717 0.4852675308 0.0082033312 0.4857772972 0.0079669433 -0.2329031309 0.0342551886
25299850.0 -0.2214945156 0.0442504576 0.4903862275 0.0066900353 0.4904782693 0.0068208281 -0.2280893929 0.0401484438
30299820.0 -0.2156921236 0.0493225683 0.4960265 0.0052599426 0.4957735478 0.0050212234 -0.2229064232 0.0448329488
35299790.0 -0.210364916 0.0540532563 0.5014152491 0.0015731816 0.501509842 0.0020563934 -0.2175192194 0.0486236893
40299760.0 -0.2044369125 0.0568781419 0.5062376941 -0.0017921853 0.5064995142 -0.0022563173 -0.2129391285 0.0519511226
45299730.0 -0.1996232909 0.0602438389 0.5110349822 -0.0072875755 0.5112727111 -0.0069170492 -0.2082436697 0.0545059851
50299700.0 -0.1948435965 0.0619206152 0.5147770011 -0.0128132259 0.515066559 -0.012796736 -0.2034923469 0.0566157628
55299670.0 -0.1904158602 0.0636852849 0.5182363319 -0.018993186 0.5191604207 -0.0183300803 -0.200226428 0.0578851236
60299640.0 -0.1865806536 0.0649475982 0.5217828855 -0.0247810042 0.5220900402 -0.024788431 -0.1964531898 0.0592983889
65299610.0 -0.1829868824 0.0664954776 0.525136209 -0.0310284094 0.5250005189 -0.0312904621 -0.192976204 0.0606082921
70299580.0 -0.1794180723 0.0668927213 0.5271049824 -0.0375917155 0.5269720073 -0.0379361853 -0.1901272411 0.0614698695
75299550.0 -0.1764642473 0.0680462456 0.5291035928 -0.0445751908 0.5291580322 -0.0447784092 -0.1871905313 0.0626394463
80299520.0 -0.1741334828 0.0687361418 0.5312471738 -0.0516330911 0.5314279504 -0.0514788411 -0.1848155985 0.0629053805
85299490.0 -0.1714512829 0.0694943383 0.532635991 -0.0584025251 0.5322792884 -0.0583917909 -0.1825764576 0.0634548651
90299460.0 -0.1692547262 0.070183875 0.533457974 -0.0647716844 0.5337597581 -0.0650128419 -0.1804264745 0.0642188049
95299430.0 -0.1671626514 0.0712053709 0.5344787068 -0.0726264336 0.5342402991 -0.0720613095 -0.1784679638 0.0647668236
100299400.0 -0.1654090407 0.0717119697 0.5344154242 -0.0790796613 0.5345381916 -0.0793390189 -0.1768601636 0.0656813592
105299370.0 -0.1634822315 0.0724842878 0.5349597763 -0.0857193429 0.5349387821 -0.0861482996 -0.1750459311 0.0661158644
110299340.0 -0.1619232887 0.0730806371 0.5346970105 -0.0926564384 0.5349711882 -0.093310393 -0.1734005796 0.0666839574
115299310.0 -0.1602189611 0.0735989431 0.5348970519 -0.0991932453 0.5350373921 -0.0993448182 -0.1721871628 0.0668439213
120299280.0 -0.159052552 0.0744223866 0.5352001557 -0.1062606778 0.5346741348 -0.1061930265 -0.1710106668 0.0678377143
125299250.0 -0.1578959135 0.0752340384 0.5344329857 -0.1127164165 0.5348175278 -0.1132660894 -0.169811392 0.0682446387
130299220.0 -0.1564514846 0.0760826999 0.5336787955 -0.1191923974 0.5338593386 -0.1200694785 -0.1687580005 0.0696247487
135299190.0 -0.1551107655 0.076815708 0.5331281675 -0.1262501508 0.5329213583 -0.1262329781 -0.1679416422 0.0702964083
140299160.0 -0.1543468739 0.0781641215 0.5322639945 -0.1331312787 0.5327498582 -0.1329308832 -0.1666880597 0.0709025489
145299130.0 -0.1530819689 0.0786704442 0.531791161 -0.1397532197 0.5312235449 -0.1392209827 -0.1660929591 0.0716183736
150299100.0 -0.1519286625 0.0800634678 0.5301420433 -0.1458874601 0.5303937049 -0.1459395729 -0.1651769081 0.072416815
155299070.0 -0.1511505584 0.081339509 0.5294843443 -0.1531851869 0.528800524 -0.1525726901 -0.1643355126 0.0735582324
160299040.0 -0.1500297872 0.0821649577 0.5277321317 -0.1587168758 0.5279771891 -0.1590158712 -0.1634280476 0.0747094172
165299010.0 -0.1491003245 0.0831679576 0.5265841016 -0.1652303213 0.5265012335 -0.1654273705 -0.1625124631 0.0755262385
170298980.0 -0.1485250687 0.0844903164 0.5242190325 -0.1719803527 0.5247688723 -0.1719605308 -0.161659687 0.0767243
175298950.0 -0.1474561201 0.0855924 0.523488469 -0.1779278534 0.5234892758 -0.1778635754 -0.1610808626 0.0775517998
180298920.0 -0.1462591051 0.086566539 0.521630216 -0.1844739046 0.5217742459 -0.1843409045 -0.1600297171 0.0790428772
185298890.0 -0.1453621577 0.0877317045 0.5192518582 -0.1906793914 0.5198337011 -0.1905772155 -0.1598945164 0.079513421
190298860.0 -0.1445104429 0.0890596956 0.5176829322 -0.1968439073 0.5182169368 -0.1968081945 -0.1583838708 0.0808518708
195298830.0 -0.1434388998 0.0901690377 0.5155849798 -0.2026457936 0.5157622397 -0.2031941099 -0.1579957999 0.0817260638
200298800.0 -0.1425754618 0.0918080004 0.5137021876 -0.2085450725 0.5138864508 -0.2091587878 -0.1569777492 0.0834992887
205298770.0 -0.1416959104 0.0928641859 0.5116887896 -0.2146001672 0.5115992843 -0.2148667233 -0.1565104456 0.084059423
210298740.0 -0.1410057146 0.094137286 0.5094423573 -0.2211107332 0.5095629972 -0.2213736395 -0.1554682773 0.0857840881
215298710.0 -0.1398869617 0.0956964987 0.5072074007 -0.2269393234 0.5073803517 -0.2268879972 -0.1549452214 0.0867718278
220298680.0 -0.1389098972 0.0971624115 0.5045895712 -0.2328863925 0.5048476244 -0.2330257651 -0.154010556 0.0883753057
225298650.0 -0.1376592971 0.0983967851 0.5017997308 -0.2383602313 0.5018387722 -0.2379788774 -0.1536880505 0.0894258708
230298620.0 -0.1370197406 0.0998680586 0.4996620923 -0.2445003739 0.4998208643 -0.244431883 -0.1523393292 0.0905046031
235298590.0 -0.1360020381 0.1008713121 0.4969574054 -0.2498515404 0.4969687442 -0.2504108625 -0.1516470861 0.0915709852
240298560.0 -0.135016966 0.1025243716 0.4943853101 -0.2555668006 0.4944115402 -0.255743276 -0.1511928846 0.0930828693
245298530.0 -0.1338066187 0.1040791124 0.4907525674 -0.2615782297 0.4916470017 -0.2619418574 -0.1502865772 0.0946733741
250298500.0 -0.1330361106 0.1052518397 0.4885137148 -0.2667802256 0.488979152 -0.2665608423 -0.1488932892 0.0958207816
255298470.0 -0.1318661347 0.1069325001 0.4853437207 -0.2728637521 0.4857668145 -0.2727877607 -0.148296671 0.0970691744
260298440.0 -0.1309203212 0.1080482601 0.4829586797 -0.2775868569 0.4830666029 -0.2783895301 -0.147166448 0.0984766222
265298410.0 -0.1293760114 0.1098458087 0.4797581031 -0.2840662249 0.4794279028 -0.2840251492 -0.1466195516 0.0994670115
270298380.0 -0.1281052467 0.1110445645 0.4761701073 -0.2892902684 0.4766550923 -0.2892993164 -0.1452853788 0.1009740079
275298350.0 -0.1273033649 0.1125408936 0.4731700179 -0.2950279139 0.4738528644 -0.2949748548 -0.1445557672 0.1024009777
280298320.0 -0.1263524779 0.1141413023 0.470244949 -0.2994616138 0.4700441881 -0.2999278319 -0.1437034695 0.1039450707
285298290.0 -0.1247709513 0.1153249476 0.4668095191 -0.3051493723 0.4668644825 -0.3052390037 -0.142793801 0.105353408
290298260.0 -0.1237636248 0.1166289835 0.463704702 -0.3106310728 0.4637428291 -0.3109161821 -0.1412060418 0.106521765
295298230.0 -0.1222427169 0.1181582875 0.4606348206 -0.3160234168 0.4603866723 -0.3159365774 -0.1402742563 0.1080356594
300298200.0 -0.1207102503 0.119335395 0.4564145831 -0.3212136061 0.4569617805 -0.3211886101 -0.1396617146 0.1093495885
305298170.0 -0.1196929311 0.1207289111 0.4537967039 -0.3267377795 0.4539413625 -0.3267497677 -0.1382786629 0.11089702
310298140.0 -0.1181915196 0.1217994439 0.4502344127 -0.3318059385 0.4502335286 -0.3320217779 -0.1371985801 0.1124543759
315298110.0 -0.1173898279 0.1233601586 0.4462613347 -0.3366732765 0.4467308303 -0.33687738 -0.1356095238 0.1133641045
320298080.0 -0.1160141792 0.1245345168 0.4423631647 -0.3421568301 0.4431896799 -0.342180801 -0.1348794599 0.1146981426
325298050.0 -0.1146432051 0.1256031545 0.4390522945 -0.3472520068 0.4392594095 -0.3473671808 -0.1339505406 0.1160257314
330298020.0 -0.1136544079 0.127115128 0.4342836124 -0.3522409761 0.434690838 -0.3521996358 -0.1328431319 0.1170406802
335297990.0 -0.1121570007 0.1281461364 0.4303562316 -0.3569513696 0.4307405887 -0.357298258 -0.1320241974 0.118433172
340297960.0 -0.1113919763 0.1297949161 0.4262469994 -0.3614883626 0.4268536962 -0.3619393252 -0.1312477091 0.12013086
345297930.0 -0.1099628594 0.1310144781 0.4221295056 -0.3662668741 0.4222619353 -0.3662273573 -0.1299737681 0.1212051669
350297900.0 -0.1080884632 0.1325519467 0.4179700285 -0.3705442786 0.4185512345 -0.371058362 -0.1292133651 0.122907445
355297870.0 -0.107212567 0.1339303273 0.4138787805 -0.3750429278 0.4143690262 -0.3756324964 -0.128089754 0.1243039131
360297840.0 -0.1056974066 0.1351554742 0.4100119182 -0.3801131871 0.4100225764 -0.3804409148 -0.1269832989 0.125916295
365297810.0 -0.1038990503 0.1362441596 0.4054692 -0.384557657 0.4058544827 -0.3845977458 -0.1256245961 0.1276284128
370297780.0 -0.1024290155 0.1376429896 0.4012220932 -0.3888921122 0.4015871384 -0.3890655072 -0.1240089645 0.1283491278
375297750.0 -0.1013873884 0.139114774 0.3977022958 -0.3932952222 0.3972559821 -0.3936718268 -0.1229782873 0.1303001499
380297720.0 -0.0997724958 0.140326701 0.3932557187 -0.397818125 0.3927897466 -0.3979669132 -0.1217615068 0.1317097988
385297690.0 -0.0979268018 0.1416907941 0.3883283156 -0.4015020969 0.3882686391 -0.4021374728 -0.1204632066 0.1332754565
390297660.0 -0.096622569 0.142811836 0.3842643665 -0.4063796618 0.3842165108 -0.4067941849 -0.1193831413 0.1342808182
395297630.0 -0.0948854251 0.1438301394 0.3796848705 -0.4099242947 0.3797451466 -0.4104928572 -0.1184736993 0.1358602981
400297600.0 -0.0934108002 0.1453458829 0.3751891395 -0.4148525256 0.375436933 -0.4149074875 -0.1170418506 0.1367952333
405297570.0 -0.0918318622 0.1465934679 0.3707924644 -0.41894529 0.3708327293 -0.4187920867 -0.1156556709 0.1386464414
410297540.0 -0.0903901858 0.1475956497 0.3660655676 -0.422524406 0.3657820736 -0.4230263906 -0.1145060895 0.1395648208
415297510.0 -0.0884917642 0.1491066165 0.361311489 -0.4268828869 0.3614882712 -0.4265977936 -0.1133778989 0.1412275912
420297480.0 -0.086558368 0.1496425998 0.3563603524 -0.4309297872 0.3567469825 -0.4310126599 -0.1115443783 0.1422190133
425297450.0 -0.0848559847 0.150735919 0.3516262042 -0.4342948379 0.3520786562 -0.4348752489 -0.11000723 0.1438930738
430297420.0 -0.0834281929 0.1520430047 0.3470556955 -0.4388411292 0.3475458089 -0.4384125082 -0.1091554206 0.1449317496
435297390.0 -0.0815607127 0.153164603 0.3420185773 -0.4421489151 0.3423746722 -0.4417355728 -0.1076504865 0.146370777
440297360.0 -0.0798066169 0.1539127383 0.3370874103 -0.4454685504 0.3371925458 -0.4457510282 -0.1065157106 0.1469908569
445297330.0 -0.0780906707 0.1549352078 0.3320880824 -0.4499174953 0.3321688425 -0.4495165626 -0.1049475631 0.1485234409
450297300.0 -0.0764564488 0.1559465541 0.3276443359 -0.4529120685 0.3277835273 -0.453302895 -0.1039056126 0.1500612202
455297270.0 -0.074824037 0.1569839102 0.3225928518 -0.456864053 0.3229691278 -0.4565230368 -0.1022320195 0.1510366607
460297240.0 -0.0731731009 0.1580797927 0.3173871646 -0.4595956932 0.3172875105 -0.4601625191 -0.1003966347 0.1530067004
465297210.0 -0.0710382711 0.158826133 0.312307252 -0.4633525328 0.3129411998 -0.4635075183 -0.0995128701 0.1536361255
470297180.0 -0.0697147691 0.1598392772 0.3072301171 -0.4666350347 0.3076351947 -0.4671451774 -0.0984834988 0.1547679476
475297150.0 -0.0678572104 0.1604281249 0.3020525091 -0.4699245288 0.3025028714 -0.4698469872 -0.0965426148 0.1556814896
480297120.0 -0.0657681951 0.1613950167 0.2969037976 -0.4732869826 0.2973063513 -0.4731989887 -0.0950915691 0.1574723658
485297090.0 -0.0640088701 0.1624342113 0.2922576019 -0.4766440359 0.2921531087 -0.4765714794 -0.0937269389 0.1580147704
490297060.0 -0.0621928486 0.1629060594 0.2867829919 -0.4796434092 0.2870601206 -0.4799220664 -0.092087842 0.1593384685
495297030.0 -0.0607042467 0.1640851918 0.2817343334 -0.4825339113 0.2813535525 -0.4826618162 -0.090388963 0.1600136717
500297000.0 -0.0586240115 0.164749334 0.2761062765 -0.4858376047 0.2762164297 -0.4858475828 -0.0893661556 0.1612597779
505296970.0 -0.0569509188 0.1654779559 0.2704708768 -0.4883339723 0.2708570278 -0.4883226005 -0.0881682647 0.1625471134
510296940.0 -0.0547493649 0.1661569011 0.2652277225 -0.4912778261 0.2653899905 -0.4914621971 -0.0859389043 0.1636172571
515296910.0 -0.0534546897 0.1673719942 0.2599315014 -0.4941293037 0.2603398649 -0.4945298542 -0.0847113012 0.1646678986
520296880.0 -0.0512735177 0.1676327527 0.2547814289 -0.4971081968 0.2551246806 -0.496952635 -0.0833581929 0.1655384169
525296850.0 -0.0495620986 0.1681398228 0.2495723412 -0.4995947801 0.2496677916 -0.5002258306 -0.081296283 0.1664897641
530296820.0 -0.0476406288 0.1691840218 0.2441756017 -0.5019345757 0.2440882637 -0.502526128 -0.0803561194 0.1668957675
535296790.0 -0.0455588306 0.1697278794 0.2385546813 -0.5044053898 0.2388082235 -0.50477363 -0.0785372559 0.1679925878
540296760.0 -0.0437178778 0.1699937259 0.2327679484 -0.5075240232 0.2327294558 -0.5081740296 -0.0772630378 0.1693670772
545296730.0 -0.0419466918 0.1712363095 0.2273797497 -0.5100194627 0.227520249 -0.510059244 -0.0756474799 0.169914175
550296700.0 -0.0402665826 0.1715184903 0.2218253806 -0.5126020089 0.2229725622 -0.512690321 -0.0739561266 0.171295686
555296670.0 -0.038130003 0.1719140077 0.2164725621 -0.5147950579 0.2166353958 -0.5148499646 -0.0727160152 0.1720755437
560296640.0 -0.0362008127 0.1724501985 0.2106237835 -0.516813415 0.211218892 -0.5170596644 -0.0705743234 0.1729669314
565296610.0 -0.034540821 0.1731773791 0.2049457787 -0.5191037389 0.2048317349 -0.5194774644 -0.0692006124 0.1735613983
570296580.0 -0.0322834907 0.1735409745 0.1995338158 -0.5210975479 0.1999016326 -0.5218333971 -0.0671850706 0.1749261182
575296550.0 -0.0304487753 0.1746383892 0.1937612784 -0.5233178456 0.1940996785 -0.5234122182 -0.0656552524 0.1754351105
580296520.0 -0.0284340512 0.1746210108 0.1885987896 -0.5257476221 0.1884331958 -0.5256271578 -0.0641453895 0.1760361344
585296490.0 -0.026290596 0.174644162 0.1827123098 -0.527372508 0.1823971314 -0.527506967 -0.0624968186 0.1765665781
590296460.0 -0.0248657406 0.175290809 0.1768619188 -0.5294141211 0.176844881 -0.5296682351 -0.061020873 0.1776262413
595296430.0 -0.0226155852 0.175749425 0.1711999765 -0.5314783421 0.1712244639 -0.5317077954 -0.0590396049 0.1780576296
600296400.0 -0.0208484944 0.1763463814 0.165443994 -0.5330307306 0.1655881838 -0.5332016134 -0.0575987989 0.1792936338
605296370.0 -0.0186967504 0.1771655193 0.1598255468 -0.5352621306 0.1598334209 -0.5347857373 -0.0559407935 0.1796639076
610296340.0 -0.0169266013 0.1768891881 0.1541109367 -0.5361976861 0.1538998848 -0.536704356 -0.0541093355 0.1810313078
615296310.0 -0.0148318755 0.1774911793 0.1481581913 -0.5377567822 0.1479489714 -0.5380978548 -0.0524984029 0.1810772181
620296280.0 -0.0129844563 0.1776456019 0.1423449998 -0.5393635203 0.1422403582 -0.5396266141 -0.0506621976 0.1813382825
625296250.0 -0.0107376107 0.1780160563 0.1360141921 -0.541158051 0.1361068589 -0.5415227757 -0.0487202602 0.1825899305
630296220.0 -0.0087738621 0.1782645987 0.1302289421 -0.5429118313 0.1310116108 -0.5424960988 -0.0475327589 0.1834641904
635296190.0 -0.0068402715 0.1785634224 0.124467349 -0.5437090326 0.1246754838 -0.5433654574 -0.0454605444 0.1833861746
640296160.0 -0.0049743581 0.1786283189 0.1186298043 -0.5449653072 0.1189131516 -0.5450901087 -0.0432505621 0.1842025263
645296130.0 -0.0030257991 0.1791886929 0.1125815081 -0.546288043 0.1127686002 -0.5464799002 -0.0422925337 0.184517002
650296100.0 -0.0008700178 0.1793767153 0.1071212022 -0.5471425561 0.1069802006 -0.5474141648 -0.0404955519 0.1853346684
655296070.0 0.000918539 0.179269512 0.1009722262 -0.5485667256 0.1008194198 -0.5485035482 -0.0380555961 0.185806268
660296040.0 0.0028255506 0.1797030891 0.0952051229 -0.5491482696 0.0953010507 -0.5493480048 -0.0367199161 0.1860780964
665296010.0 0.0048721185 0.1794909432 0.0891895846 -0.5504228458 0.0898908011 -0.5509141162 -0.0351657853 0.1872748819
670295980.0 0.0074008118 0.1798613903 0.0833508137 -0.5512449437 0.0838040934 -0.5514391921 -0.033614005 0.1872977978
675295950.0 0.0093658909 0.1795068842 0.0771446332 -0.5519040696 0.0775928589 -0.552957524 -0.0314947733 0.1880070493
680295920.0 0.0111186944 0.1799838103 0.0713849532 -0.5530801264 0.0713894244 -0.5533836607 -0.0295361116 0.1882619804
685295890.0 0.0129175485 0.1800622057 0.0657751247 -0.5536439919 0.0651435249 -0.554168505 -0.0278476235 0.1887392078
690295860.0 0.0154156603 0.1800478793 0.0593767223 -0.5536736894 0.0590050011 -0.5539267297 -0.0256477757 0.1893231544
695295830.0 0.0174673297 0.1796624668 0.0527020453 -0.5546515185 0.053235687 -0.555123939 -0.0242287517 0.1895925212
700295800.0 0.019665718 0.1801548502 0.0471835483 -0.5556736612 0.0474359422 -0.5558125091 -0.0224572837 0.1896329519
705295770.0 0.0214238866 0.1799069259 0.041479096 -0.5558700877 0.0415869161 -0.55596881 -0.020924585 0.1904001472
710295740.0 0.023329743 0.1798347971 0.03564483 -0.556062057 0.0354015539 -0.5560936475 -0.0192139113 0.1907184988
715295710.0 0.0253189556 0.1800009184 0.0296779372 -0.5567633935 0.0297918912 -0.556966238 -0.01697497 0.1906303308
720295680.0 0.0272916892 0.1792834728 0.0232113543 -0.5564757989 0.0232561674 -0.557421798 -0.0149904594 0.1914887367
725295650.0 0.0295840876 0.1793870949 0.0169138503 -0.5565026827 0.0171948488 -0.5571004053 -0.012873961 0.191815438
730295620.0 0.0311871868 0.1791049323 0.0113560783 -0.5571639393 0.0113721556 -0.5571739566 -0.0110417498 0.1915751603
735295590.0 0.033524191 0.1788812983 0.0055061792 -0.5573673431 0.0058022351 -0.5571845476 -0.0093252248 0.192249983
740295560.0 0.0355387457 0.1790442922 -0.0010470084 -0.5566350221 -0.0006958503 -0.5568187985 -0.0077512476 0.1923469453
745295530.0 0.037581413 0.1783839953 -0.0068343715 -0.5570335549 -0.0062314877 -0.5575202014 -0.0061662666 0.1924084327
750295500.0 0.0393862807 0.1781411766 -0.012443448 -0.5566058863 -0.0123940829 -0.5566788642 -0.0040927629 0.1921862124
755295470.0 0.04187232 0.1781898739 -0.0184264621 -0.556525824 -0.0186135901 -0.55710012 -0.002203482 0.1930443201
760295440.0 0.0434919812 0.1777176356 -0.0248990146 -0.5560972544 -0.024584754 -0.556680194 -0.0006314053 0.193201072
765295410.0 0.045201372 0.176845286 -0.030174661 -0.555684626 -0.030413069 -0.5564117868 0.001987368 0.1936204518
770295380.0 0.0475781419 0.1769710769 -0.0364877668 -0.5558251912 -0.0366852724 -0.5562016098 0.0036967778 0.1934745253
775295350.0 0.0494342711 0.1768315857 -0.0425657956 -0.5549949377 -0.0424425498 -0.5550754153 0.0052145022 0.1930712478
780295320.0 0.0515084535 0.1760588974 -0.0482521301 -0.5544594057 -0.0482028944 -0.5549773698 0.0070316792 0.1941061772
785295290.0 0.0535622524 0.1763390875 -0.0542997744 -0.5536873024 -0.0548140208 -0.5543363614 0.0086882835 0.193751838
790295260.0 0.0553731662 0.1754229001 -0.0604034235 -0.5534735551 -0.0603758759 -0.5541098982 0.0110238865 0.1936258133
795295230.0 0.0573346595 0.1753268871 -0.0664676054 -0.5524349592 -0.0658805687 -0.5528798257 0.0126960011 0.1940764085
800295200.0 0.0594610816 0.1747304568 -0.0727043787 -0.5525225661 -0.0723484833 -0.5518999192 0.0144677782 0.1938717295
805295170.0 0.0608260855 0.1740118801 -0.0777900364 -0.550955935 -0.078520933 -0.5511311153 0.0162921827 0.1937071108
810295140.0 0.062934193 0.1735356919 -0.0836772712 -0.5503172449 -0.0841956574 -0.5511087068 0.0185090859 0.1940819319
815295110.0 0.0651649985 0.1729600628 -0.0898172283 -0.5491407005 -0.0902575921 -0.5492058541 0.0198975983 0.1936549115
820295080.0 0.0670715044 0.172064899 -0.0959268735 -0.5483755695 -0.0958690827 -0.5488808056 0.0217802981 0.1935785856
825295050.0 0.0690578128 0.1716960299 -0.1018092296 -0.5466403691 -0.1016794257 -0.5471234939 0.0236025049 0.1938091719
830295020.0 0.0708861298 0.171310842 -0.107986533 -0.5457457836 -0.1079510989 -0.5463534756 0.0255701354 0.1936499209
