!Created with skrf (http://scikit-rf.org).
# Hz S RI R 50.0 
!freq ReS11 ImS11 ReS21 ImS21 ReS12 ImS12 ReS22 ImS22
300000.0 -0.0994351075 -0.0674784559 0.6304052286 0.0628996228 0.6228805064 0.0622981015 -0.0990488507 -0.0714983426
5299970.0 -0.1019503304 0.0133699211 0.63061414 0.0096028929 0.6306073077 0.0100853178 -0.1007681583 0.0130314566
10299940.0 -0.0972136858 0.029241442 0.6340970466 0.0153158945 0.6342110642 0.0157488375 -0.0955376326 0.0305031587
15299910.0 -0.0900869437 0.042570077 0.6401061454 0.0203184275 0.6406031417 0.0202365301 -0.0885140194 0.0434305658
20299880.0 -0.0816220952 0.0532291864 0.6479311491 0.0240259093 0.6483574894 0.0241410765 -0.0795950844 0.0545918498
25299850.0 -0.0723780555 0.0622846929 0.6577186476 0.025025917 0.6578589183 0.025245651 -0.0697394891 0.0632229355
30299820.0 -0.0622539441 0.068815544 0.667209965 0.0243433519 0.6672551312 0.0242501291 -0.0596230914 0.0700808068
35299790.0 -0.0524616583 0.0736874293 0.6772240138 0.0210712834 0.6772527486 0.0215708944 -0.0501113398 0.0751057078
40299760.0 -0.0433513611 0.0773753486 0.6863629083 0.0171793185 0.6864503187 0.0172183947 -0.0403973061 0.0775565852
45299730.0 -0.0337152584 0.0793143675 0.6945835745 0.0114549703 0.695353758 0.0120960548 -0.0314395604 0.0797669067
50299700.0 -0.0258668158 0.0800149554 0.7035433896 0.0046038792 0.7036420739 0.0053833308 -0.0228999613 0.0805933513
55299670.0 -0.0176283444 0.0803849061 0.7110812642 -0.003388871 0.7108841843 -0.003045755 -0.014920999 0.0806112616
60299640.0 -0.0100709544 0.0800067781 0.7173741332 -0.011769221 0.7180225156 -0.0113123853 -0.0074999285 0.07974126
65299610.0 -0.0038740052 0.0787989095 0.7233911144 -0.0202398551 0.7235193748 -0.0204604866 -0.0012154351 0.0786326927
70299580.0 0.0027724553 0.0775574853 0.7287417486 -0.0298218292 0.7285848494 -0.0293558325 0.0047765569 0.0768595202
75299550.0 0.0080543704 0.0758069789 0.7324682757 -0.0390970323 0.7322739164 -0.0392603548 0.0101575407 0.0748462741
80299520.0 0.0130931752 0.0735524759 0.7368320781 -0.0489850959 0.7371228315 -0.0492479908 0.0148957397 0.0728712865
85299490.0 0.0174933535 0.0713586345 0.7402453007 -0.0584029274 0.7406937234 -0.0585770074 0.019384241 0.0700074138
90299460.0 0.0216617522 0.0690227407 0.7424062253 -0.0691915587 0.7432112007 -0.0688710481 0.0237424729 0.0678273895
95299430.0 0.0258344994 0.0664498133 0.7458804155 -0.0792967116 0.7453752901 -0.0792847086 0.0274296367 0.0651060188
100299400.0 0.0290193171 0.0645352635 0.746364189 -0.089216029 0.7469777703 -0.0894539438 0.0311204737 0.0626253616
105299370.0 0.03226025 0.0621711686 0.7486071942 -0.0998911601 0.748849784 -0.099492274 0.0340189732 0.0604941035
110299340.0 0.0347182493 0.0596549302 0.7502293091 -0.1093261507 0.7494655534 -0.1092626489 0.0359264028 0.0576441513
115299310.0 0.0376175303 0.0572671576 0.7504491335 -0.1195226953 0.7508987257 -0.1193611528 0.0387592241 0.0552768363
120299280.0 0.0398628934 0.0546884432 0.7510743311 -0.129571326 0.7515101189 -0.1296713537 0.0414362827 0.05297978
125299250.0 0.0416141909 0.0520433464 0.7512954101 -0.139334259 0.7516360005 -0.1392577925 0.0426836084 0.0501863674
130299220.0 0.0438236055 0.0502668007 0.7509037796 -0.1494591122 0.7511900978 -0.1492182883 0.0447443494 0.0481418641
135299190.0 0.045265271 0.048168196 0.7514430549 -0.1596600159 0.7509846168 -0.1590820558 0.0465448261 0.0458913999
140299160.0 0.0467235085 0.0462161836 0.7505539917 -0.1695291542 0.7508258618 -0.1691385446 0.0482409392 0.044088134
145299130.0 0.0482133183 0.0438909257 0.7500149384 -0.1784209543 0.7496535528 -0.1784946729 0.0492908712 0.0419043652
150299100.0 0.0497245336 0.0421348102 0.74865803 -0.1877073438 0.748764278 -0.1877878736 0.0508351435 0.0400987019
155299070.0 0.0503689345 0.039564922 0.7480812749 -0.1986482786 0.747489671 -0.1977733458 0.0515900811 0.0384824701
160299040.0 0.051753446 0.0381017905 0.745812568 -0.2077420403 0.7456574627 -0.2075225311 0.0521556629 0.0360709816
165299010.0 0.052486857 0.0362703617 0.7443308065 -0.2176487882 0.7446489133 -0.2173930911 0.0536949997 0.0348528902
170298980.0 0.0534678431 0.0338089001 0.7424846249 -0.2266520311 0.742908209 -0.2264739602 0.0542067213 0.0329275214
175298950.0 0.0536866899 0.032190261 0.7413041492 -0.2353111948 0.7408188423 -0.2359378347 0.0547403615 0.0312927638
180298920.0 0.0543314719 0.0302562287 0.7384704806 -0.2450458213 0.7384770877 -0.2449378796 0.055492523 0.0296598232
185298890.0 0.055409359 0.0286162541 0.7365471524 -0.2535777949 0.7361983158 -0.2541929294 0.0560477915 0.0281266933
190298860.0 0.055475374 0.0271136636 0.7343930106 -0.2635020416 0.7346852089 -0.2632503368 0.0565061865 0.0262729174
195298830.0 0.0560756859 0.0252950729 0.7314547958 -0.2722938007 0.7319841656 -0.272209101 0.0572983704 0.0250609412
200298800.0 0.0563051242 0.0239819839 0.7285217428 -0.2812889332 0.7290637841 -0.2814943552 0.0568298006 0.0234999611
205298770.0 0.0569614971 0.0227927467 0.7258254739 -0.2905486797 0.726047224 -0.2902436582 0.0572688676 0.0215005415
210298740.0 0.0569895686 0.0205940741 0.7229351178 -0.2986700805 0.7228725385 -0.2980334969 0.0578662863 0.0212945091
215298710.0 0.0568056635 0.0195930002 0.7201712704 -0.3078379771 0.7200836467 -0.3077369354 0.0577725354 0.019586984
220298680.0 0.0574522346 0.017628111 0.7165355276 -0.315739796 0.7166621492 -0.3160875233 0.0575155152 0.0178180976
225298650.0 0.0577522983 0.0167301117 0.7137473227 -0.3249049208 0.7135627913 -0.3249935692 0.0573885569 0.0164782231
230298620.0 0.0576288553 0.015711603 0.7105211296 -0.3328428225 0.7104472377 -0.3332745144 0.0572570344 0.0151524266
235298590.0 0.0580259201 0.0143627922 0.7069735293 -0.3415514224 0.7068877946 -0.3410180499 0.0576129706 0.0138569969
240298560.0 0.0578415034 0.0133508083 0.7034507585 -0.3504486817 0.7030458948 -0.3502758546 0.0576014671 0.0127877737
245298530.0 0.0578672428 0.0119391871 0.6997626969 -0.3584772106 0.6997744659 -0.3588720166 0.0583166296 0.0110181576
250298500.0 0.0583543484 0.0110140258 0.6949601649 -0.3668841555 0.6944397062 -0.3659364399 0.0578374432 0.0103757341
255298470.0 0.0583267017 0.0092750517 0.6908459955 -0.3746036289 0.6916789149 -0.3743108242 0.0581328939 0.0090566717
260298440.0 0.0578197846 0.0081535398 0.6872025652 -0.3834150846 0.6873218065 -0.3825175087 0.0584766483 0.0080889686
265298410.0 0.0590768977 0.0075823927 0.6835356621 -0.3918221376 0.6837346342 -0.3909122775 0.0579495717 0.0066728982
270298380.0 0.058615414 0.0062051227 0.6796444973 -0.3989987332 0.6795078585 -0.3986997331 0.0580363364 0.0059174601
275298350.0 0.0588904534 0.0051412837 0.674738355 -0.4076206609 0.6754219626 -0.4071439433 0.0583110433 0.0041048364
280298320.0 0.0587425235 0.004377712 0.6708773467 -0.4148917553 0.6708334142 -0.4143680846 0.0586496701 0.0031063611
285298290.0 0.0585552321 0.0028987089 0.6668235132 -0.4223415094 0.6660493199 -0.4224472992 0.0582522124 0.002029143
290298260.0 0.0591031912 0.002113515 0.6620022085 -0.4296466887 0.661722698 -0.4305141945 0.0585879307 0.001420855
295298230.0 0.0585938223 0.0008478256 0.6572308561 -0.4379035798 0.6568450741 -0.438005193 0.0592615642 0.000203518
300298200.0 0.0583834356 -0.0002462529 0.6527575443 -0.4457672029 0.652578543 -0.4464293915 0.0587003117 -0.0008096298
305298170.0 0.0587231479 -0.0017236451 0.6474652753 -0.4537963387 0.6472477252 -0.4534947516 0.0591477834 -0.0022979813
310298140.0 0.058374498 -0.0026186334 0.642569098 -0.4614842721 0.6428314698 -0.4606494429 0.0592151347 -0.0033064561
315298110.0 0.0583340607 -0.004075299 0.6380740394 -0.4686038611 0.6377953796 -0.4687628922 0.0587214826 -0.0043493387
320298080.0 0.0584666039 -0.0048745693 0.6321304477 -0.4765792313 0.6326077834 -0.4761862062 0.0584222555 -0.0055144844
325298050.0 0.0577717132 -0.006377948 0.6268831443 -0.4838250498 0.626878625 -0.4836259837 0.0578351047 -0.0066811689
330298020.0 0.0576293876 -0.0074512847 0.6212038629 -0.4910123036 0.6210892698 -0.4913846346 0.057274448 -0.0078154391
335297990.0 0.0569501227 -0.0087548558 0.6157140232 -0.4978816395 0.6157179706 -0.4982804024 0.0566097231 -0.0080673694
340297960.0 0.0561106383 -0.0091392201 0.6097795011 -0.5050358939 0.6092808009 -0.5053462037 0.0571010508 -0.0086045585
345297930.0 0.0556366451 -0.0095011885 0.6041010647 -0.5118099311 0.6037075495 -0.512077503 0.0565713563 -0.0101223179
350297900.0 0.0551072308 -0.0111159481 0.5974928797 -0.5195393659 0.5978197972 -0.5191236711 0.0556304502 -0.0097719671
355297870.0 0.0547290946 -0.0109657271 0.5919783088 -0.5251862595 0.5923359896 -0.5252358956 0.0553306055 -0.0110176449
360297840.0 0.0546981745 -0.0117580059 0.5870708473 -0.5318430754 0.5868750301 -0.5319352201 0.0550160664 -0.0110572864
365297810.0 0.0540634375 -0.0122670518 0.5805478748 -0.5384978766 0.5806273941 -0.5387935104 0.0544836725 -0.0115964689
370297780.0 0.0540898378 -0.0134643303 0.5741182994 -0.544902721 0.5749099903 -0.5445518378 0.0543047339 -0.0123725573
375297750.0 0.0537813974 -0.0141844032 0.5686410711 -0.5513423091 0.5693080649 -0.5515820815 0.0542904114 -0.0129160924
380297720.0 0.0535144007 -0.0145507803 0.5623587213 -0.5584599376 0.5626125676 -0.5569712207 0.0531902827 -0.0139747246
385297690.0 0.0527593759 -0.015237609 0.5557773531 -0.564147302 0.5561618638 -0.5639087969 0.0532564962 -0.0139871306
390297660.0 0.0524830881 -0.0156535302 0.5499028019 -0.5699165627 0.549770921 -0.5702724601 0.0526428234 -0.0152416787
395297630.0 0.0522634207 -0.0162853348 0.5441916529 -0.5762593713 0.543956299 -0.5765038748 0.0529981121 -0.0156180326
400297600.0 0.0516276162 -0.0168834976 0.5365946238 -0.5826457727 0.5375393585 -0.5827708781 0.0521399056 -0.0160048173
405297570.0 0.0511467952 -0.0176760137 0.5304745874 -0.5881726979 0.5304823689 -0.5878996842 0.0513826928 -0.0165781426
410297540.0 0.0513425437 -0.0180397982 0.5246414162 -0.5942345923 0.5249634547 -0.5942673955 0.0512307549 -0.0170789106
415297510.0 0.0512301089 -0.018874486 0.5177820798 -0.6003702373 0.5183283592 -0.599819091 0.0511746298 -0.0178527916
420297480.0 0.0510417655 -0.0190267113 0.5107899926 -0.6060443873 0.5111002367 -0.6063033918 0.0502463611 -0.0189452686
425297450.0 0.0503391397 -0.0207348243 0.5048248459 -0.6118674742 0.504883618 -0.6113406329 0.0493388893 -0.0189488594
430297420.0 0.0496739555 -0.0209530117 0.4971820245 -0.6167375258 0.4976145607 -0.6166200269 0.0494048834 -0.0201099233
435297390.0 0.0494132233 -0.0213276163 0.4900649267 -0.6226130597 0.4904825502 -0.6226569269 0.0500062117 -0.0205339038
440297360.0 0.0491870034 -0.0218098944 0.4846242821 -0.6280251924 0.4836294891 -0.6282200872 0.0486241849 -0.0214327144
445297330.0 0.0484486972 -0.0229800837 0.4776291475 -0.633383318 0.4771280549 -0.6329184242 0.0488147492 -0.0223826846
450297300.0 0.0486978705 -0.0232215535 0.4700959944 -0.6381261995 0.4704831211 -0.6387831009 0.0483431589 -0.02312815
455297270.0 0.0481500725 -0.0238113607 0.4629637564 -0.6440027528 0.4632735346 -0.6442947878 0.0478545122 -0.0235117132
460297240.0 0.0478677841 -0.0244870454 0.4558046872 -0.6485452437 0.4558285658 -0.6489200583 0.0475536549 -0.0237895163
465297210.0 0.0473187264 -0.0250460847 0.448991712 -0.6543004156 0.4487280261 -0.6549489761 0.0472653094 -0.0248080194
470297180.0 0.0468522085 -0.0259088996 0.4411371514 -0.6586685868 0.4417727905 -0.6587764547 0.0469584501 -0.0251425352
475297150.0 0.0466014477 -0.0265930108 0.434029004 -0.6629418676 0.4342633216 -0.6631863783 0.047202246 -0.025829701
480297120.0 0.0458824087 -0.0264396941 0.4269557746 -0.6686917569 0.4266800687 -0.6690101043 0.0465976527 -0.0261474083
485297090.0 0.0452588621 -0.0271549348 0.4197407753 -0.6726409922 0.419882509 -0.6727290973 0.0461587423 -0.0268062966
490297060.0 0.0445801493 -0.0277575301 0.4127676804 -0.678064957 0.4121690105 -0.677163977 0.0456709367 -0.0268447616
495297030.0 0.0443290287 -0.0280909818 0.404756104 -0.6818987624 0.4051016795 -0.6822138095 0.0449922895 -0.027954741
500297000.0 0.0439248623 -0.0289204797 0.3973377669 -0.6862834722 0.3970139275 -0.6861804892 0.0447747926 -0.0276950649
505296970.0 0.0438074972 -0.0292788577 0.3896557003 -0.6911897082 0.3892836564 -0.6911406574 0.0442605554 -0.0285692841
510296940.0 0.0431969381 -0.02967437 0.3819065145 -0.6953007905 0.3815660694 -0.6953621191 0.0442518604 -0.0284197064
515296910.0 0.042591149 -0.029948116 0.3738107931 -0.6989029494 0.3741022362 -0.6996296722 0.0438327142 -0.029059314
520296880.0 0.0420109772 -0.0306037117 0.3668429755 -0.7038960591 0.3666750653 -0.7033674626 0.0431162602 -0.0298021372
525296850.0 0.0418247302 -0.0316814589 0.3585031644 -0.7077314885 0.359091809 -0.7076447161 0.0423529452 -0.0299246976
530296820.0 0.041479757 -0.0317371815 0.350820303 -0.7119305383 0.3513787947 -0.7118669694 0.0422928771 -0.0301117869
535296790.0 0.0404048783 -0.0320067734 0.3436948936 -0.7154586719 0.3434736556 -0.7147220971 0.0419172925 -0.031146602
540296760.0 0.040035139 -0.0321741377 0.3352275722 -0.7190821145 0.3350494914 -0.7190901578 0.040685216 -0.0305724751
545296730.0 0.0394025987 -0.0328493142 0.3269970027 -0.7229452095 0.3272226301 -0.7230391099 0.0403786886 -0.0314043085
550296700.0 0.0396323278 -0.0327345109 0.3196158771 -0.7261567808 0.3199456851 -0.7262747059 0.0395638477 -0.0316807092
555296670.0 0.0385641815 -0.0333892275 0.3117429524 -0.7293441272 0.3113887579 -0.7293717107 0.0393439977 -0.0317890251
560296640.0 0.0386339986 -0.0330612159 0.303693414 -0.7332873397 0.3038210577 -0.7331821963 0.0386453174 -0.0322546863
565296610.0 0.0373093696 -0.0339880964 0.2956691651 -0.7367684366 0.2955047816 -0.7363120952 0.0378909154 -0.0330197018
570296580.0 0.0370069656 -0.034064833 0.2875079551 -0.7398730015 0.2867893494 -0.7395843703 0.0374842843 -0.0324990506
575296550.0 0.0362454308 -0.0344470751 0.2797776295 -0.7428270545 0.2792066631 -0.7429510677 0.0374061961 -0.033399542
580296520.0 0.0359926991 -0.0347884457 0.2711106774 -0.745958631 0.2715316045 -0.7461372846 0.0366168245 -0.0340437705
585296490.0 0.0354882846 -0.0358611215 0.2630626971 -0.7484822466 0.2631745996 -0.7486861832 0.0360652889 -0.0338834557
590296460.0 0.03536107 -0.0355269482 0.2553940377 -0.7502948033 0.2544972519 -0.7518211955 0.034917111 -0.0341806602
595296430.0 0.0348250193 -0.035726485 0.2461468373 -0.7549529941 0.2463547462 -0.7542796788 0.0347740643 -0.0350327696
600296400.0 0.0336828504 -0.0366114901 0.2385335404 -0.7573629184 0.2385332216 -0.7566412202 0.0339473023 -0.0354304455
605296370.0 0.0333580332 -0.0367031943 0.2303930063 -0.7592330004 0.2301387667 -0.7597273706 0.0333261384 -0.0355264271
610296340.0 0.0329101751 -0.0369950253 0.2215078794 -0.7620423801 0.2216172608 -0.7620885026 0.033140209 -0.0359816378
615296310.0 0.0325420499 -0.037907595 0.2137235177 -0.7640222802 0.2130734354 -0.7649651195 0.03302067 -0.0362894966
620296280.0 0.0320445677 -0.038069025 0.2052221765 -0.7664195642 0.2051471421 -0.7658466538 0.032020406 -0.0369923615
625296250.0 0.0310533168 -0.0387053198 0.1976775624 -0.7687400233 0.1970363784 -0.7691217111 0.0321432823 -0.0371754282
630296220.0 0.0317070908 -0.0384061037 0.1885960178 -0.7707216873 0.1873759292 -0.7705497372 0.0310372465 -0.0371146956
635296190.0 0.0294424402 -0.0393393097 0.1795475919 -0.7726793684 0.1799675346 -0.7726683108 0.0311057749 -0.0374595768
640296160.0 0.0294243421 -0.0392343759 0.1714534978 -0.7741568064 0.1712730679 -0.774818721 0.0301446673 -0.0378763407
645296130.0 0.0288354835 -0.0391561717 0.1627996225 -0.776498191 0.1636679705 -0.7764944984 0.029898711 -0.0378754338
650296100.0 0.0281952864 -0.0395655556 0.1536366569 -0.7781055502 0.1548341255 -0.7785356651 0.0301413069 -0.0390541058
655296070.0 0.0273776697 -0.0403084649 0.1460937389 -0.7799462653 0.1459079818 -0.7799330004 0.0290347077 -0.0387842611
660296040.0 0.0262119508 -0.0408109228 0.1376701365 -0.7817921604 0.1376123968 -0.7816186952 0.02877142 -0.0388848214
665296010.0 0.0265753321 -0.0406351609 0.128565555 -0.7828087271 0.1287926165 -0.7825413582 0.0281499263 -0.0386241764
670295980.0 0.0245749167 -0.040709868 0.120384824 -0.7844365798 0.1202164225 -0.7842308958 0.0269960122 -0.0394292733
675295950.0 0.0248958157 -0.0403943337 0.1127649083 -0.7853400213 0.1116582711 -0.7847027361 0.0264049575 -0.0392683525
680295920.0 0.0238991497 -0.0411098095 0.1029710323 -0.7861110797 0.1027231793 -0.7871606123 0.0262095196 -0.0386502001
685295890.0 0.023461083 -0.0405104066 0.0944843209 -0.7875051277 0.0942931065 -0.7872465432 0.0253650936 -0.0392380003
690295860.0 0.0232117367 -0.0409274691 0.0858604611 -0.7876928379 0.0859455741 -0.7887139474 0.0248425895 -0.0387059203
695295830.0 0.022627804 -0.0413701299 0.0776515385 -0.7890974197 0.0774676412 -0.7890868952 0.0242523856 -0.0388457168
700295800.0 0.0219486084 -0.041825277 0.0688397807 -0.7904221212 0.0685128817 -0.7895049838 0.0234445765 -0.0384114952
705295770.0 0.0212845754 -0.040900823 0.0600368264 -0.7905794789 0.060096371 -0.7910924478 0.0229983543 -0.0390963249
710295740.0 0.020882052 -0.0417726642 0.0516337834 -0.7923724695 0.0520542032 -0.7918705832 0.022813363 -0.0398252854
715295710.0 0.0196460409 -0.0416524118 0.043602085 -0.7928140421 0.0428244656 -0.7916906416 0.0220765748 -0.0398163073
720295680.0 0.0195078341 -0.0416413932 0.0348546343 -0.7925239306 0.0349451582 -0.792114206 0.0211620867 -0.0389375299
725295650.0 0.0191672416 -0.0416751739 0.0258110264 -0.792510755 0.0258869065 -0.7930156395 0.0199444831 -0.0388982186
730295620.0 0.0186696212 -0.0413106746 0.0169040323 -0.7928043197 0.0170037501 -0.7933785345 0.019511963 -0.0396743203
735295590.0 0.0178822855 -0.0415692497 0.0082265442 -0.793363332 0.0087205753 -0.7930621586 0.0188580849 -0.0400528394
740295560.0 0.0167647167 -0.041563449 -0.0005490515 -0.7928177298 -0.0002599784 -0.7927055438 0.0191684884 -0.0393788429
745295530.0 0.0165385933 -0.0417288665 -0.0088274905 -0.7923882232 -0.0093515309 -0.7929116634 0.0179646792 -0.0402246121
750295500.0 0.0160795206 -0.0418765691 -0.0173600019 -0.7924697 -0.0177077883 -0.7929793497 0.0173183303 -0.0399393881
755295470.0 0.0156036031 -0.0424079173 -0.0256373483 -0.7925699545 -0.0259203926 -0.792787665 0.0172878962 -0.0405480975
760295440.0 0.01481615 -0.0418133289 -0.0345623436 -0.7927837278 -0.0348610285 -0.7926501283 0.0164628 -0.0406413286
765295410.0 0.0142957369 -0.0421629012 -0.0433219087 -0.792007213 -0.0438565004 -0.7920049169 0.0157857626 -0.0404221007
770295380.0 0.0131093261 -0.0423304523 -0.0521828073 -0.7912784487 -0.052128252 -0.7911948707 0.0148235768 -0.0408362761
775295350.0 0.0126049449 -0.0429362353 -0.0605525104 -0.7906553042 -0.0604363608 -0.7903084617 0.0137063274 -0.0401017044
780295320.0 0.0120800382 -0.0425958872 -0.0691449211 -0.789724883 -0.0685629955 -0.7894992205 0.0134967845 -0.0411080321
785295290.0 0.0111741752 -0.0431471024 -0.0780614763 -0.788956908 -0.0775656233 -0.7888049549 0.0138482779 -0.0402230762
790295260.0 0.0111184837 -0.0419227435 -0.085450046 -0.7878854665 -0.0851689116 -0.7878771531 0.0124529317 -0.0409716628
795295230.0 0.0105124596 -0.0426773094 -0.0946180253 -0.7869402426 -0.0942236767 -0.7869871633 0.0123882616 -0.0401979317
800295200.0 0.0091499819 -0.0421265097 -0.1042424596 -0.7857834364 -0.1033304152 -0.7858346206 0.0114715544 -0.0407294221
805295170.0 0.0088649257 -0.0424819008 -0.1115419951 -0.7844319238 -0.1119328002 -0.7847733959 0.0108750452 -0.0403963138
810295140.0 0.0077516527 -0.0429886995 -0.1198664966 -0.7832375706 -0.1204223669 -0.783603891 0.0107665832 -0.0403204735
815295110.0 0.0078843845 -0.0429679086 -0.1286597395 -0.7813320303 -0.1285471576 -0.7820841715 0.0099753406 -0.0404480094
820295080.0 0.0065415136 -0.0419498646 -0.137555225 -0.7802734211 -0.1371357174 -0.7804754486 0.0091385996 -0.0404538071
825295050.0 0.006747639 -0.0423047536 -0.1452399082 -0.7784962591 -0.1456592619 -0.7789070497 0.0089865924 -0.0403211765
830295020.0 0.005827936 -0.042111338 -0.1539748802 -0.7768956389 -0.1543567004 -0.7770807455 0.0093863679 -0.0400518622
