!Created with skrf (http://scikit-rf.org).
# Hz S RI R 50.0 
!freq ReS11 ImS11 ReS21 ImS21 ReS12 ImS12 ReS22 ImS22
300000.0 -0.7733004526 -0.1600177908 -0.0006504145 -0.0008954308 0.0002182663 0.001221427 -0.0461810485 -0.0725248227
5299970.0 -0.7852520216 -0.0080060827 0.0001033411 -1.80527e-05 -0.0001651546 8.47226e-05 -0.0480240323 0.0142641923
10299940.0 -0.7876711878 -0.0040033429 -6.8286e-06 5.9197e-05 -5.65638e-05 6.11966e-05 -0.0431043541 0.0313867367
15299910.0 -0.7932001299 -0.0011672233 -5.9167e-06 -0.0001295287 -4.75367e-05 -0.0002505386 -0.0344879576 0.0454599313
20299880.0 -0.7996033685 0.0024182806 0.0001870986 -0.0001146949 0.000147074 -6.32723e-05 -0.0247766969 0.0570505454
25299850.0 -0.8063723032 0.0081633285 -0.0001126538 -0.0001184993 -2.92605e-05 -2.74214e-05 -0.0142065444 0.0661476814
30299820.0 -0.8122720463 0.0166550842 2.18962e-05 5.87727e-05 0.0001071172 -5.40919e-05 -0.0028773725 0.0726757717
35299790.0 -0.817096378 0.024986723 -8.92212e-05 -7.53663e-05 0.0001233347 0.0001446418 0.008144847 0.0771394439
40299760.0 -0.821471622 0.0343554323 -5.0119e-05 0.0002728539 2.63929e-05 3.59165e-05 0.0194531319 0.0800077869
45299730.0 -0.8249022716 0.0444261696 4.03478e-05 -1.73228e-05 4.90079e-05 -0.0001011846 0.0298148345 0.0814025176
50299700.0 -0.8268388074 0.0541511645 -0.0001278882 -0.0001362822 5.54147e-05 -6.072e-05 0.0397583454 0.0815296926
55299670.0 -0.8286130277 0.0645737664 -7.353e-06 8.50447e-05 0.0002443087 -0.0001101048 0.0486969353 0.0805107533
60299640.0 -0.8302524618 0.0745351111 6.34888e-05 -0.0001938645 -1.02352e-05 -2.50134e-05 0.0569587654 0.0785656645
65299610.0 -0.8310182179 0.0848837338 5.11088e-05 -2.91141e-05 -6.13928e-05 -0.0002301156 0.0645074453 0.0762517705
70299580.0 -0.8313584754 0.0946143289 1.05996e-05 -8.65918e-05 0.0003369219 0.0002619068 0.0712951767 0.0729697012
75299550.0 -0.8313227251 0.1049225596 0.0001441216 -4.62085e-05 -7.9936e-05 -4.41347e-05 0.0775971074 0.0697566844
80299520.0 -0.8314579517 0.1145792904 2.32966e-05 0.0001592026 0.0001368132 3.553e-06 0.0827941204 0.0665630787
85299490.0 -0.8304564599 0.1243601075 1.58762e-05 5.94267e-05 0.000236163 -3.17119e-05 0.0877141635 0.0626857482
90299460.0 -0.8295371045 0.1341406153 -0.0001578062 -0.0002064228 0.0001509068 0.0001779452 0.0923004775 0.0586452638
95299430.0 -0.8292879095 0.1434440692 -6.77285e-05 -0.00010703 6.13142e-05 0.0002420391 0.0963245661 0.0552514959
100299400.0 -0.8280463772 0.1532423609 -0.0001402271 5.0734e-06 0.0001702109 -0.0001454839 0.0997147673 0.0507777742
105299370.0 -0.8263203382 0.1624362569 -3.36018e-05 0.0001485488 5.78464e-05 -0.0001257394 0.1030311817 0.0467724112
110299340.0 -0.8255721823 0.1710924077 9.26075e-05 -1.3928e-06 0.0001265182 -0.0002031646 0.1055367961 0.0431339718
115299310.0 -0.8236694212 0.1808172881 6.70877e-05 5.7879e-06 -1.73702e-05 -0.000127983 0.1081820989 0.0386327791
120299280.0 -0.8216349215 0.1894660504 0.0001393356 0.0002194894 4.95126e-05 -5.81919e-05 0.110235806 0.0353544365
125299250.0 -0.8203501765 0.1985698784 0.0002847174 -4.51734e-05 -0.0001103399 -0.0002065373 0.1123502584 0.0310253547
130299220.0 -0.8181412459 0.2077911263 -0.0001261158 -4.15979e-05 8.7943e-05 0.0002778389 0.1132974835 0.0275765894
135299190.0 -0.8168550569 0.2165079355 0.0001189163 -6.55407e-05 0.0002155609 -9.92062e-05 0.1151259723 0.0235180938
140299160.0 -0.8147976902 0.2256896025 -2.82887e-05 0.0001012774 -9.30298e-05 4.28934e-05 0.1163477563 0.0201560921
145299130.0 -0.8123072895 0.2343664002 8.2534e-05 -3.2084e-05 -2.47254e-05 2.75042e-05 0.1168557455 0.0165141091
150299100.0 -0.8100552876 0.2432430375 0.000184364 0.000109238 0.0001841065 -6.17701e-05 0.1181225881 0.0128368472
155299070.0 -0.8076686144 0.2520318257 0.0002606849 0.0002518365 0.0001288594 5.67944e-05 0.1187194515 0.0095985282
160299040.0 -0.8047090936 0.2610160321 0.0001210186 -0.0002940761 5.23994e-05 -0.0001177473 0.1194042344 0.0062949494
165299010.0 -0.8022078951 0.2688606566 -0.0001868373 -0.0001400857 0.0002729031 8.78222e-05 0.11991642 0.0028703407
170298980.0 -0.7996365051 0.277995897 -7.19696e-05 -3.2399e-05 1.73928e-05 -5.3795e-05 0.1200763166 -7.99561e-05
175298950.0 -0.7969039609 0.2872611739 3.5598e-06 2.97268e-05 -0.000205544 -4.04066e-05 0.1201528849 -0.0032070431
180298920.0 -0.7932482314 0.295008793 1.99561e-05 0.0001129533 0.0002298511 -3.87322e-05 0.1207491558 -0.0066163341
185298890.0 -0.7905427373 0.304455854 -3.65118e-05 5.66602e-05 -5.66318e-05 2.3406e-06 0.1204009731 -0.0095378652
190298860.0 -0.7875681355 0.3124065144 0.0001425078 0.0001164558 -5.76617e-05 -1.35034e-05 0.1207342232 -0.0125295142
195298830.0 -0.7837545642 0.3209210236 -2.9e-06 -0.0001368635 3.36476e-05 8.4415e-05 0.1204828451 -0.0150555522
200298800.0 -0.7805455169 0.3296830971 0.0001380737 2.75908e-05 0.0001189311 0.0001578293 0.1205001172 -0.018320889
205298770.0 -0.7767444525 0.3370927432 0.0001857407 2.8402e-06 0.0001392827 -5.4545e-06 0.1199184021 -0.0206167582
210298740.0 -0.7737938754 0.3457572422 0.0001880515 -4.70564e-05 -0.0001737843 6.05607e-05 0.11981259 -0.0234536883
215298710.0 -0.7697766562 0.3544854818 1.50878e-05 7.83854e-05 -0.0001229342 2.5124e-05 0.1189663395 -0.0258982907
220298680.0 -0.7668399853 0.3624278922 -3.80528e-05 -7.4481e-05 0.0001157885 -5.78709e-05 0.1188519131 -0.0283745869
225298650.0 -0.7628910243 0.3706070704 2.265e-07 -0.0003161313 0.0001426204 -4.32529e-05 0.1182210968 -0.0306127727
230298620.0 -0.7589448887 0.3785002984 0.0001374468 -0.0001631917 0.0003420625 -0.0001868962 0.117759606 -0.0334250957
235298590.0 -0.7544122859 0.3869713067 0.0002179916 6.38436e-05 -4.51011e-05 -1.23743e-05 0.1171870513 -0.0355801204
240298560.0 -0.7511040311 0.3950717939 0.0001615756 -0.0002125258 9.00307e-05 2.68261e-05 0.1165518728 -0.0378605399
245298530.0 -0.7463099824 0.4027039016 3.48274e-05 6.245e-07 5.10485e-05 1.41223e-05 0.1158406983 -0.0400548812
250298500.0 -0.7428308147 0.4106467906 0.0001155147 6.70402e-05 0.0002051511 -2.31413e-05 0.1154119104 -0.0421006966
255298470.0 -0.7375558711 0.4186893731 5.57806e-05 4.9101e-06 7.21353e-05 0.0001898495 0.1146072439 -0.0447122139
260298440.0 -0.7339778192 0.4262264451 0.0001232436 -0.0002001049 -8.52368e-05 1.10515e-05 0.1138549619 -0.0464214389
265298410.0 -0.7287079658 0.4338697414 0.0001260651 5.16526e-05 0.0001120161 0.0001046696 0.1129235825 -0.0488830045
270298380.0 -0.7244105652 0.441752726 3.24717e-05 0.0002575211 2.16856e-05 8.7673e-06 0.112630709 -0.0508100909
275298350.0 -0.7198097696 0.4493787208 -8.4188e-06 -0.0001120462 3.62433e-05 0.0001999699 0.1114332398 -0.0525088343
280298320.0 -0.7150790141 0.4565802565 -5.28744e-05 0.0002329068 3.30234e-05 0.0001359031 0.1107714556 -0.0547912152
285298290.0 -0.7099453297 0.4646056548 8.07115e-05 0.0001377381 0.0001400217 -4.95399e-05 0.1094693082 -0.0563843953
290298260.0 -0.7056171115 0.471525188 0.0001576474 0.0001236424 0.0003121847 0.0001349456 0.1090224647 -0.0579978428
295298230.0 -0.7006561755 0.4790640285 0.0001957189 -0.0001455601 -2.31424e-05 1.78203e-05 0.1078117127 -0.0601758469
300298200.0 -0.6948849465 0.4864985124 0.0002810039 0.0001197967 6.99101e-05 0.0002131461 0.1068573044 -0.061663609
305298170.0 -0.6898914474 0.4939699901 8.14684e-05 3.11306e-05 0.0001542581 -3.0241e-05 0.1063330034 -0.063324157
310298140.0 -0.6844077159 0.5012798149 4.92838e-05 -0.0001470908 -5.992e-05 -5.88062e-05 0.1055299809 -0.0649326633
315298110.0 -0.679512683 0.5084940467 -5.3e-06 3.25197e-05 6.38203e-05 -0.0001073811 0.1044857964 -0.0669302231
320298080.0 -0.6739740436 0.5154205037 0.0002082438 5.52287e-05 0.0001303216 4.98418e-05 0.1031471602 -0.0687806915
325298050.0 -0.6686417426 0.5222678588 0.0001641397 0.0002692247 2.84066e-05 9.0605e-05 0.1018463771 -0.0706026451
330298020.0 -0.6634736088 0.5291576479 0.0001756396 -5.455e-05 1.90571e-05 -1.33246e-05 0.1007092308 -0.0722412864
335297990.0 -0.6571120175 0.5363063673 0.0002665348 7.52197e-05 0.0001472525 5.07589e-05 0.0988999723 -0.0737835421
340297960.0 -0.6518722748 0.5430533857 8.14214e-05 -0.0001116499 1.68751e-05 0.0001027746 0.0976842892 -0.0755729071
345297930.0 -0.6465215388 0.5494167717 -2.92768e-05 3.12258e-05 6.77751e-05 -6.29781e-05 0.0962994749 -0.076863474
350297900.0 -0.6404401701 0.5563822512 -6.97324e-05 -7.24991e-05 0.0001119852 3.29731e-05 0.0951754227 -0.0779802299
355297870.0 -0.6342532999 0.5628831351 -0.0001049795 0.0001887741 0.0001741293 0.0001374323 0.0935506537 -0.0792348618
360297840.0 -0.6287163577 0.5692555805 -0.0001604989 5.85224e-05 6.07974e-05 0.0001209666 0.0924608629 -0.0804604772
365297810.0 -0.6222929312 0.57566247 1.70668e-05 0.0001376568 -7.48413e-05 0.0002462497 0.0907639511 -0.0816103652
370297780.0 -0.6162438273 0.5819661948 -9.6271e-06 4.50261e-05 0.0002336838 7.58508e-05 0.0893624344 -0.0829352195
375297750.0 -0.6101258216 0.5881276668 2.76138e-05 -7.98779e-05 1.37249e-05 6.70373e-05 0.0879322045 -0.084122298
380297720.0 -0.6041766236 0.5949051673 9.1633e-06 -3.71711e-05 0.0001472624 0.0002292966 0.0868773295 -0.0852158143
385297690.0 -0.5981304735 0.6010361131 9.96787e-05 -3.83297e-05 0.0002258574 0.0001975606 0.0852809422 -0.0860679414
390297660.0 -0.591561761 0.6071603412 0.0002963614 8.50385e-05 0.0001077182 3.6522e-06 0.0838804736 -0.0877942058
395297630.0 -0.5853247187 0.6136250114 0.0001103198 2.84634e-05 0.0002117522 0.0001091874 0.0823958619 -0.088632076
400297600.0 -0.5790481682 0.6193617389 0.0003469387 -1.77518e-05 2.63928e-05 4.31948e-05 0.0807099483 -0.089541898
405297570.0 -0.5724978159 0.625197844 6.121e-05 0.0002339115 -8.0469e-06 -9.07069e-05 0.0796181376 -0.0906034803
410297540.0 -0.5651920522 0.6309449795 3.0602e-05 -0.0001600916 5.96889e-05 5.79242e-05 0.0778081954 -0.0915155405
415297510.0 -0.55902761 0.6362286344 1.25603e-05 -2.50991e-05 0.000142864 -6.04821e-05 0.0766164638 -0.0923313037
420297480.0 -0.5520910581 0.6423953221 9.57175e-05 6.72062e-05 -5.89538e-05 -1.60547e-05 0.0748562108 -0.0935661523
425297450.0 -0.5461078784 0.6479271716 0.0001885349 -6.10816e-05 0.0002601131 8.07424e-05 0.0735903436 -0.0944996326
430297420.0 -0.5394463875 0.653290598 0.0001354288 -0.0001219125 1.58251e-05 -8.1222e-05 0.0722323008 -0.0953227602
435297390.0 -0.53192793 0.6586307195 0.000210107 0.0002232518 0.0001237227 0.0001398104 0.0707349536 -0.0961511549
440297360.0 -0.5250594741 0.6649940874 -0.0003320076 0.0001032436 1.3812e-06 0.0001454102 0.0686968458 -0.097106815
445297330.0 -0.5186027151 0.6700924595 2.2234e-05 0.0001199157 0.0001261408 -8.47592e-05 0.06731439 -0.0980447393
450297300.0 -0.5114288507 0.6745718691 3.13493e-05 -5.12293e-05 3.45816e-05 7.52392e-05 0.0656803992 -0.0986492286
455297270.0 -0.5044726713 0.6801592383 0.0001337912 -9.4607e-05 0.0001707779 0.0001223069 0.0642273445 -0.0996826711
460297240.0 -0.4974906723 0.6849057567 0.0004359923 0.0001492139 4.95122e-05 -9.23647e-05 0.0630117296 -0.1003336224
465297210.0 -0.4897017942 0.6905981845 -6.32149e-05 0.0001396992 0.0002300102 0.0002022559 0.0607288788 -0.1010913047
470297180.0 -0.4828942044 0.6946632938 0.0001475496 -0.0001516132 0.0001124421 -7.52987e-05 0.0591243403 -0.1018814566
475297150.0 -0.4756509529 0.7005182986 4.69049e-05 -0.0001577014 1.59713e-05 4.1287e-06 0.057959634 -0.1027377351
480297120.0 -0.4689816676 0.7047243832 0.0001370338 6.70869e-05 0.0002137694 -1.69243e-05 0.0562900163 -0.1031797154
485297090.0 -0.4611518095 0.7093350241 -3.87564e-05 0.0002118275 4.59221e-05 5.10225e-05 0.054468292 -0.1040088031
490297060.0 -0.4546034155 0.7140023725 0.0002013679 9.84695e-05 0.0001106694 -0.0001486188 0.0527109614 -0.1045051078
495297030.0 -0.4472290378 0.7187435065 0.0002662783 -0.0001968028 0.0002470086 -0.0001767098 0.0513983067 -0.105460897
500297000.0 -0.4384042768 0.7234936876 3.4529e-06 4.6505e-05 6.7164e-05 0.0001352417 0.0496730757 -0.1058942019
505296970.0 -0.431039761 0.7273052862 0.000383711 -8.97396e-05 0.000125411 2.38446e-05 0.0477505288 -0.1062556181
510296940.0 -0.4244072033 0.7323923623 4.7814e-05 -2.18648e-05 0.0001557949 8.8305e-05 0.046542074 -0.1064748546
515296910.0 -0.4168504258 0.7362257022 0.0001778966 8.24187e-05 -6.82638e-05 0.0001328689 0.044944002 -0.1071437294
520296880.0 -0.4094480809 0.7407251285 7.94326e-05 0.0001914494 0.0001420033 9.57662e-05 0.0432759139 -0.1077980271
525296850.0 -0.4017173514 0.7444236304 -2.00287e-05 9.92626e-05 4.479e-05 -9.43059e-05 0.0415359723 -0.1086747086
530296820.0 -0.3943350209 0.748553826 -1.10023e-05 0.0002913732 7.83994e-05 0.0001478149 0.0393733057 -0.1088202337
535296790.0 -0.3860196412 0.7525457111 0.0002806478 -1.265e-06 -2.7849e-05 9.4389e-06 0.0376635871 -0.1097007222
540296760.0 -0.3783047286 0.7559040166 3.01452e-05 0.0001119958 0.0001151181 0.0002442264 0.0360853299 -0.1096948127
545296730.0 -0.3707544196 0.7600575197 0.0003538165 2.84272e-05 -0.0001290451 6.01765e-05 0.0348489357 -0.1103281681
550296700.0 -0.3631993382 0.763283342 6.86564e-05 5.05852e-05 0.0001772787 0.0001252352 0.033202076 -0.110702001
555296670.0 -0.3542771767 0.7672602005 -0.0001131883 -0.0001715755 0.0001221931 -3.5272e-06 0.0312725944 -0.1106043877
560296640.0 -0.3469937243 0.7709880989 0.0001002044 -6.99856e-05 0.0001251658 -8.1267e-05 0.0299393189 -0.1113060571
565296610.0 -0.3395546366 0.774065635 -3.3599e-06 -7.0481e-05 0.0001341432 -0.0001151764 0.0276662221 -0.111433159
570296580.0 -0.3315143812 0.7775337469 0.0002499841 6.8249e-06 0.000237999 0.0002349772 0.0263035758 -0.1112526328
575296550.0 -0.3237826767 0.7810190908 7.62041e-05 -4.59776e-05 0.0001256934 3.02119e-05 0.0245700028 -0.1117361188
580296520.0 -0.3157472376 0.7844463984 0.0002772314 0.0003833907 0.0001563069 -2.6518e-05 0.0229640854 -0.1121864949
585296490.0 -0.3078907125 0.786805931 6.40663e-05 1.22454e-05 3.8476e-05 6.13504e-05 0.0211784922 -0.1126739834
590296460.0 -0.2994282609 0.7897526951 0.000194405 -2.22523e-05 0.0001046587 1.42541e-05 0.0197025391 -0.1123701131
595296430.0 -0.2911920632 0.7936283953 6.3774e-05 9.16314e-05 -7.8602e-05 -0.0002223761 0.0176139265 -0.1128148916
600296400.0 -0.2836698897 0.7953877066 6.97391e-05 0.0003021475 0.0001126788 -6.967e-07 0.0163320748 -0.1125979814
605296370.0 -0.2750193859 0.7988755855 -1.084e-05 0.0001247487 9.2374e-06 -0.0003114345 0.0145014964 -0.112788095
610296340.0 -0.2671647527 0.801425805 0.0001562883 -4.75882e-05 6.09376e-05 0.000117057 0.0130066376 -0.1126635548
615296310.0 -0.2589806236 0.8040752241 0.0001500519 -8.3373e-05 3.43013e-05 5.10493e-05 0.0113845524 -0.1134090768
620296280.0 -0.2507897759 0.8061132434 0.000204972 -0.0004099974 0.0001881197 0.0002533446 0.009142762 -0.1133669592
625296250.0 -0.2424729477 0.8094309316 -5.33305e-05 -0.0002037279 9.3399e-06 0.0001137916 0.007665173 -0.1130617854
630296220.0 -0.2340295178 0.8120409542 0.00010953 5.33242e-05 8.23347e-05 2.85464e-05 0.0061521518 -0.1129469539
635296190.0 -0.2264804185 0.8136167296 0.0002612907 1.51601e-05 -9.0497e-06 -3.75271e-05 0.0043753314 -0.1130399637
640296160.0 -0.2180771911 0.8154319618 0.0001136973 3.52931e-05 0.0001559007 -0.0001485949 0.0028020829 -0.1130085375
645296130.0 -0.2097252968 0.8183664306 0.0001093094 -0.0001162793 4.79533e-05 6.33872e-05 0.0010091371 -0.1130244548
650296100.0 -0.2016654574 0.8204062182 4.49358e-05 2.10072e-05 0.0001395685 4.14835e-05 -0.0010148262 -0.1126044257
655296070.0 -0.1930766576 0.8225682802 0.0002387727 8.64416e-05 0.000181725 0.0001217935 -0.0024332981 -0.1124232275
660296040.0 -0.1847054758 0.8245351262 0.000101679 0.0002108688 0.0001529839 7.69151e-05 -0.004263426 -0.1123054851
665296010.0 -0.1768498424 0.8262606806 0.0001691442 0.0003718536 0.0001986282 -8.1067e-06 -0.0060083686 -0.1122340026
670295980.0 -0.1675740899 0.8277913154 0.0002639127 5.78227e-05 7.49809e-05 0.0001858936 -0.0075096099 -0.1118680799
675295950.0 -0.159966776 0.8285926782 0.0001317596 -0.0001753114 -5.5243e-06 4.8386e-05 -0.0093116163 -0.1119166573
680295920.0 -0.1517325315 0.8308963548 0.0002590069 4.4279e-06 -2.1947e-06 -3.82713e-05 -0.0112083837 -0.1115072443
685295890.0 -0.1430752108 0.8318860645 0.0002745795 4.89253e-05 0.000168209 -0.0002521919 -0.0123078583 -0.111376921
690295860.0 -0.1339821325 0.8337548738 0.0001952372 4.65848e-05 0.0002018238 -0.0001182241 -0.0139001489 -0.1108529509
695295830.0 -0.1262267553 0.8345500665 0.0001014094 0.0001397424 0.0001027149 -7.34146e-05 -0.0161268829 -0.1106681306
700295800.0 -0.1179284817 0.8358870412 1.76571e-05 -0.0002032324 0.0003316052 -0.0001592282 -0.0176014552 -0.1106186279
705295770.0 -0.1088762828 0.8375218496 3.0911e-05 -0.0002216387 3.8815e-05 -1.43034e-05 -0.0197252805 -0.1096570506
710295740.0 -0.1012789021 0.8377977393 0.0002001481 -0.0001278721 3.6663e-05 -9.3145e-06 -0.0211895603 -0.1089426232
715295710.0 -0.0929432498 0.839649256 0.0001780727 -0.0002157492 0.0001071892 3.2758e-06 -0.022656639 -0.1088270283
720295680.0 -0.0838557472 0.8398014414 8.00326e-05 0.0001754494 0.0002687973 0.000113399 -0.0240849702 -0.1084969055
725295650.0 -0.0752379002 0.8407477329 0.0004427312 -0.0001151101 0.0002515318 -0.0001701637 -0.0259363107 -0.1084499891
730295620.0 -0.0674339244 0.8413121337 -4.5666e-06 -2.35255e-05 -3.31228e-05 -8.512e-06 -0.0274434742 -0.1077590404
735295590.0 -0.058378864 0.8419312777 -8.40838e-05 0.000153733 0.0001832579 -6.90993e-05 -0.0292736185 -0.1073824349
740295560.0 -0.0499908763 0.8427665025 3.66011e-05 0.0001165127 0.0001433793 9.32165e-05 -0.030758143 -0.1069527493
745295530.0 -0.0419007911 0.8427730108 0.0002595409 -7.97835e-05 0.0001892779 2.04635e-05 -0.0324516204 -0.1062567056
750295500.0 -0.0338758115 0.8432969186 6.94923e-05 1.29501e-05 0.0002781722 -2.43843e-05 -0.0340142519 -0.1062143596
755295470.0 -0.0245651868 0.8436599265 0.0001969987 1.79587e-05 5.84982e-05 -6.73538e-05 -0.0357940261 -0.1052522739
760295440.0 -0.0161020024 0.8436228891 9.21078e-05 -0.0001794098 0.0002250993 -3.81243e-05 -0.0375391809 -0.1045608917
765295410.0 -0.0078182984 0.8438384131 2.33376e-05 1.92112e-05 0.0001357782 0.0001461455 -0.0388604541 -0.1037539775
770295380.0 0.0007713429 0.8441293309 0.0002002651 -0.0001006352 0.0001987889 -5.07166e-05 -0.0402517828 -0.1035423695
775295350.0 0.0090766853 0.8441025463 -2.14548e-05 -3.61648e-05 0.0001226255 -7.17586e-05 -0.0421133249 -0.1031066017
780295320.0 0.0177048257 0.843372212 1.90367e-05 7.32452e-05 9.72134e-05 -1.93323e-05 -0.0436550791 -0.1017936527
785295290.0 0.0263134168 0.8438944175 6.33269e-05 -0.0001477515 0.0003247929 4.59418e-05 -0.0454075536 -0.101226025
790295260.0 0.0344756219 0.8431130995 4.97188e-05 -7.44863e-05 -5.59375e-05 2.35336e-05 -0.04656964 -0.1008048493
795295230.0 0.0425818152 0.8431957563 0.0003049737 -0.0001317512 0.000420774 0.0001173996 -0.0479681021 -0.1000403497
800295200.0 0.0517915006 0.8426842123 3.41629e-05 -0.0001384631 0.0002053625 6.41482e-05 -0.0498760238 -0.0994321142
805295170.0 0.0598092194 0.8418857409 5.75462e-05 -6.9428e-06 0.0002378526 -1.45296e-05 -0.0513901245 -0.0983317221
810295140.0 0.0682023995 0.841088379 0.0001437877 -1.69642e-05 0.0001226069 -0.0001463377 -0.0524774457 -0.0976215608
815295110.0 0.0769301051 0.8401696745 0.0004461786 -2.33703e-05 0.0001041834 -3.05431e-05 -0.0541199381 -0.0968590007
820295080.0 0.085171615 0.8391079275 0.000236742 -0.00022288 -7.20112e-05 -8.28236e-05 -0.0556973149 -0.0962122451
825295050.0 0.0939940321 0.8388001005 -0.0001694373 -4.57828e-05 0.0001051933 7.8568e-06 -0.0567726028 -0.0951927949
830295020.0 0.1019738537 0.8378374567 5.3783e-05 1.19927e-05 -4.6201e-05 1.52966e-05 -0.0585126196 -0.0945018667
835294990.0 0.1100871331 0.8370286708 6.37837e-05 8.00991e-05 0.0003021165 3.69537e-05 -0.059572469 -0.0936049729
840294960.0 0.1187562149 0.835568153 -1.3333e-06 -0.0001042435 4.88465e-05 -5.23942e-05 -0.0613796806 -0.0920902987
845294930.0 0.1271478537 0.83442645 0.0001932786 3.72122e-05 0.0001836017 4.985e-06 -0.0626989251 -0.0912762376
850294900.0 0.1350710089 0.832697767 0.0003253685 -0.0002793723 0.0003551355 -0.0001046221 -0.0639169617 -0.0903200487
