!Created with skrf (http://scikit-rf.org).
# Hz S RI R 50.0 
!freq ReS11 ImS11 ReS21 ImS21 ReS12 ImS12 ReS22 ImS22
300000.0 -0.7708278084 -0.1385831732 -0.0007052501 0.0032252373 -0.0013315765 0.0023065807 -0.7702021041 -0.1595995611
5299970.0 -0.7851177248 -0.0074497442 -1.03162e-05 -3.93415e-05 -2.9154e-05 -5.44451e-05 -0.7850981749 -0.0086380762
10299940.0 -0.7875083093 -0.0041287587 -8.93107e-05 -1.12864e-05 9.59812e-05 -8.17841e-05 -0.7885788187 -0.0049555709
15299910.0 -0.7932269083 -0.0017402201 -0.0001655654 1.80521e-05 4.30964e-05 3.5952e-05 -0.7942254187 -0.0033237396
20299880.0 -0.7993151116 0.0025037582 -1.32404e-05 -4.02771e-05 0.000119766 0.0001090703 -0.8009461623 0.0016298308
25299850.0 -0.8062184774 0.0081262167 -5.88836e-05 2.9249e-05 -1.31475e-05 -9.7339e-05 -0.8070481487 0.0071840987
30299820.0 -0.8117351846 0.016583709 -0.0001530631 0.0002272733 -5.07326e-05 9.37281e-05 -0.8130301038 0.0143141742
35299790.0 -0.8169332318 0.0252332083 2.76995e-05 5.18251e-05 -0.0001962307 9.55652e-05 -0.8183739422 0.0237119168
40299760.0 -0.8213953523 0.0343716589 -7.34613e-05 0.0002087257 -1.16528e-05 0.0002585105 -0.8219638588 0.0331450513
45299730.0 -0.8243696789 0.0441869092 5.68605e-05 -5.1496e-06 9.47584e-05 0.0002287146 -0.82552538 0.0422139745
50299700.0 -0.8270178359 0.0543555552 4.71074e-05 0.0001061783 3.70065e-05 3.09622e-05 -0.8281008997 0.0521296407
55299670.0 -0.828496912 0.0643227028 0.0001093462 -4.0286e-06 7.76721e-05 -9.56702e-05 -0.8297686316 0.0628713207
60299640.0 -0.8298453682 0.0743823239 -2.64413e-05 1.61473e-05 -0.0001529071 -0.0001678493 -0.831338332 0.0726120337
65299610.0 -0.8312107814 0.0849539356 0.0002051498 0.0001411046 -0.0001061902 3.97318e-05 -0.8314583829 0.0830809304
70299580.0 -0.8311731599 0.0949331622 -3.28335e-05 1.8388e-05 0.0002379421 -2.02861e-05 -0.8325729955 0.0926883201
75299550.0 -0.8317852349 0.104886634 -3.9285e-06 -8.57136e-05 -7.15753e-05 9.84832e-05 -0.8327605668 0.102252626
80299520.0 -0.8314219802 0.1140669075 2.30687e-05 -0.0001136556 -0.0001443174 0.0002163744 -0.8322307391 0.1118315024
85299490.0 -0.8304079766 0.1239951385 -6.57309e-05 -2.21336e-05 -0.0001965591 -4.56666e-05 -0.8319037753 0.1217436324
90299460.0 -0.8294602363 0.1339027558 3.78109e-05 -6.3383e-06 1.83961e-05 7.30583e-05 -0.8312137609 0.1311428341
95299430.0 -0.8283966415 0.1437461838 3.54336e-05 -6.91655e-05 8.88856e-05 7.3733e-05 -0.8301498069 0.1410360694
100299400.0 -0.8274146462 0.152646311 0.0001150834 -3.56338e-05 4.02741e-05 -8.44755e-05 -0.829232066 0.1496989574
105299370.0 -0.8264168607 0.1621800531 0.0001328229 0.0001395874 -6.7367e-05 0.000101681 -0.8276833033 0.1590537393
110299340.0 -0.8252738239 0.1711068753 2.40364e-05 7.02714e-05 3.17322e-05 6.68044e-05 -0.8266113928 0.1681117097
115299310.0 -0.8233236089 0.1806201285 2.31789e-05 0.0001667813 -8.61808e-05 3.27803e-05 -0.8246989665 0.1771776479
120299280.0 -0.8215170834 0.1892908496 0.0001602916 0.000211956 -7.92505e-05 -7.56803e-05 -0.823797496 0.1861280599
125299250.0 -0.8203096453 0.1982641942 0.0001027062 -0.0001046202 0.0001054412 5.03873e-05 -0.8218756297 0.1955040696
130299220.0 -0.8183746046 0.2078799268 -0.0001068176 -3.00049e-05 -5.25711e-05 -4.55703e-05 -0.820515228 0.2040675263
135299190.0 -0.8166619697 0.216494122 1.21483e-05 1.9414e-06 -1.71399e-05 7.1319e-06 -0.8176205896 0.2121255965
140299160.0 -0.814344236 0.2259093493 -7.86578e-05 -2.07753e-05 0.0001489653 -0.0001845614 -0.8159724783 0.2210425155
145299130.0 -0.8116259798 0.2342558859 -1.45088e-05 -9.25402e-05 2.11583e-05 -0.0001189175 -0.814207364 0.2293611381
150299100.0 -0.8103774201 0.2432306816 5.03628e-05 -5.4249e-06 -0.0001044595 7.46471e-05 -0.8116434865 0.2386884271
155299070.0 -0.8076332216 0.2526376236 -4.8303e-06 -2.8168e-05 0.0002934898 2.49462e-05 -0.8096891114 0.2474179484
160299040.0 -0.8049587842 0.2609236547 0.0001936854 7.99177e-05 -0.0002038914 0.000170757 -0.8075740077 0.2565539985
165299010.0 -0.8020077761 0.2693678094 -0.00027958 0.0001017529 -5.41e-07 -5.02801e-05 -0.8043429173 0.2646940373
170298980.0 -0.7993790391 0.2776539586 -6.09834e-05 -0.0001152842 -5.7554e-06 -7.1253e-05 -0.8017879788 0.2731848784
175298950.0 -0.7964189429 0.2870368797 -0.0002032153 -5.30376e-05 5.40303e-05 -0.0002498955 -0.798814715 0.2818544594
180298920.0 -0.793835917 0.294724896 -1.9627e-05 0.0002203985 -0.000107147 -5.05921e-05 -0.7956695153 0.2900226967
185298890.0 -0.7907253912 0.3043053779 0.0003327623 -0.0003008487 -2.53954e-05 -0.0001537064 -0.7931280326 0.2986177222
190298860.0 -0.7874897771 0.3121705828 -0.0001372133 -0.0002473919 -9.37671e-05 7.559e-06 -0.789584985 0.3073007942
195298830.0 -0.7843039641 0.3206561522 -0.0001777003 2.45334e-05 4.64895e-05 0.0001580315 -0.7870998664 0.3156920428
200298800.0 -0.7808008473 0.3291225889 -6.91049e-05 -0.0001057524 -2.56943e-05 0.0001841154 -0.7836128934 0.324041533
205298770.0 -0.7772085433 0.3375034546 0.0001689147 0.0001925106 -1.13286e-05 -0.000133533 -0.7803401463 0.3321467144
210298740.0 -0.7732586055 0.3459272017 -4.94245e-05 -5.51874e-05 -0.0001114982 4.25563e-05 -0.7772363914 0.3406180437
215298710.0 -0.7706841744 0.3540508625 7.10015e-05 -0.000149393 0.0001915816 -2.0756e-05 -0.7734836691 0.3483953796
220298680.0 -0.7667335112 0.3624076021 8.68813e-05 -1.81945e-05 -3.98102e-05 -0.0001651556 -0.7697950935 0.3570057987
225298650.0 -0.7626626123 0.3704985299 -6.85764e-05 -3.9737e-06 2.80334e-05 -9.89397e-05 -0.766530333 0.3647089422
230298620.0 -0.7591775593 0.3791261033 2.35483e-05 -0.0002440672 -2.87553e-05 -9.82346e-05 -0.762091554 0.3721879458
235298590.0 -0.7545262048 0.3872705897 0.0001180482 0.0003403784 -5.36375e-05 -0.000100287 -0.75822291 0.3806937254
240298560.0 -0.7508064674 0.3949060144 0.0001922209 8.73754e-05 1.10907e-05 4.08216e-05 -0.754217558 0.3883899706
245298530.0 -0.7466037748 0.4029368631 0.0001929984 0.0001065266 8.22053e-05 0.0001082168 -0.7505982533 0.3963305424
250298500.0 -0.7423312238 0.4104178439 -7.9815e-06 -0.000173713 -5.21945e-05 -1.75092e-05 -0.7462360146 0.4045207273
255298470.0 -0.7374622171 0.4185142966 0.0002279997 2.98759e-05 -8.68256e-05 8.4483e-06 -0.7420053352 0.4129776281
260298440.0 -0.7335152656 0.426168811 0.0001181692 5.46012e-05 7.3984e-05 0.0001662184 -0.7375188172 0.4198196296
265298410.0 -0.7293163706 0.433846967 -2.31877e-05 2.25975e-05 -0.0001810593 -2.55258e-05 -0.732797643 0.4276390666
270298380.0 -0.7243027459 0.4414186755 -0.0001315726 -0.0002170991 -4.24712e-05 -0.0001230876 -0.7279834024 0.4350319341
275298350.0 -0.7193822819 0.4489761725 8.18717e-05 -9.04426e-05 -0.00012785 -0.0002043879 -0.7234835823 0.4430712402
280298320.0 -0.7150726046 0.4563312316 -3.66543e-05 0.0002249675 0.0001371638 2.24502e-05 -0.7191866981 0.4503116358
285298290.0 -0.7105549254 0.4643671492 2.4223e-06 0.0002375152 -0.0001436867 -0.0001558943 -0.7138037744 0.4578454209
290298260.0 -0.7052910574 0.4715329333 2.5793e-06 -0.0002120696 8.31762e-05 -0.000197816 -0.7092667604 0.4655475883
295298230.0 -0.7003662073 0.4791344511 -2.23974e-05 -9.58991e-05 -9.07387e-05 0.000131407 -0.7042992385 0.4732437052
300298200.0 -0.6942803147 0.4864439385 -0.0002453681 -7.39246e-05 -5.68313e-05 0.0001253556 -0.6988770433 0.4803029946
305298170.0 -0.6904481573 0.4937403033 6.51201e-05 7.04086e-05 -0.000153108 0.0001909449 -0.6936155006 0.4876818164
310298140.0 -0.6844285408 0.5007347375 -0.0001344521 -0.0002374584 -0.00010542 -3.59814e-05 -0.6891843757 0.4951472002
315298110.0 -0.6792669291 0.508080117 -7.28287e-05 0.0001445715 -7.44573e-05 0.0001967022 -0.6838065409 0.5020319424
320298080.0 -0.6740102533 0.5152677649 -0.0001001892 4.46647e-05 6.48936e-05 -6.32136e-05 -0.6781365391 0.5092657944
325298050.0 -0.6682804537 0.5218738888 -3.19006e-05 -0.0001286744 3.89222e-05 -8.18688e-05 -0.6726962379 0.5159174926
330298020.0 -0.6630024979 0.5290816891 1.46026e-05 0.0001426441 -4.71134e-05 0.0002172113 -0.6672198979 0.5228478924
335297990.0 -0.6574441545 0.5365156546 9.81e-07 -0.0001446639 0.0002081067 -0.0001235568 -0.6618593532 0.5303107635
340297960.0 -0.6521456099 0.5422550176 -4.10907e-05 0.0002370809 -0.0002166066 -1.8331e-05 -0.6558426742 0.5374556415
345297930.0 -0.6463344191 0.5488313121 -1.23071e-05 0.0001502574 6.63292e-05 0.0001008095 -0.6500014137 0.5438540309
350297900.0 -0.6402803495 0.5562935486 -0.0001092744 -7.84422e-05 -9.69374e-05 -3.4921e-05 -0.6449408666 0.5509274484
355297870.0 -0.6343542296 0.5624844597 0.0002435585 0.0001765964 9.9457e-05 7.31235e-05 -0.6387792076 0.5571458651
360297840.0 -0.6280642415 0.5691326225 -9.91688e-05 0.0001680049 4.76067e-05 -0.0001444254 -0.6325419783 0.5635984928
365297810.0 -0.6221503356 0.5758519108 0.0001574802 9.05478e-05 -0.0002035508 -0.0002207935 -0.6265954834 0.5707076351
370297780.0 -0.6158204903 0.5815598174 -3.25201e-05 0.0001417662 -2.2508e-05 -4.31394e-05 -0.6206839814 0.5766840639
375297750.0 -0.6100128426 0.588210986 2.70944e-05 -0.0001045079 -0.0001633625 -0.0001072406 -0.6149740331 0.5832933519
380297720.0 -0.6039979157 0.5949088807 4.62396e-05 -0.0003084073 -3.49699e-05 -3.48681e-05 -0.6083912812 0.5902047473
385297690.0 -0.5974749982 0.6001164638 0.0001954307 -4.29005e-05 8.89931e-05 0.0001553589 -0.6022869289 0.5959302153
390297660.0 -0.5916102437 0.606958469 0.000154308 -5.32147e-05 -0.0001068593 9.4057e-06 -0.5959596058 0.6016504172
395297630.0 -0.5850893777 0.6131468404 9.21518e-05 -0.0001149035 8.5574e-06 -0.0002935159 -0.5895183755 0.6081086154
400297600.0 -0.5788940473 0.6186250123 -0.0002198109 9.52999e-05 -0.0001092064 0.0001586363 -0.5828974006 0.6134549315
405297570.0 -0.5728957574 0.6245463328 5.99784e-05 0.000172387 -0.0001266566 4.61132e-05 -0.5774131781 0.6196746009
410297540.0 -0.5658635219 0.6306467566 2.90429e-05 6.72858e-05 2.565e-05 -0.0001568051 -0.5702206383 0.6252127879
415297510.0 -0.5589193983 0.6364983818 -6.13384e-05 -8.50337e-05 -6.82095e-05 -2.5039e-06 -0.5643084939 0.6319823766
420297480.0 -0.552365753 0.6421669989 0.0001742845 0.0002751757 -4.4616e-05 -0.000114667 -0.5571478423 0.6366251071
425297450.0 -0.5459599738 0.648057792 5.30849e-05 -0.0001796799 -0.0001242843 3.51298e-05 -0.5502984023 0.6428306191
430297420.0 -0.5398073968 0.6533480369 9.61874e-05 1.92111e-05 -9.28757e-05 -8.06254e-05 -0.5440564457 0.6482387792
435297390.0 -0.5321947761 0.6588911505 0.0001732487 -2.6557e-05 -3.43332e-05 -0.0001593019 -0.5370594599 0.6530394374
440297360.0 -0.5254277965 0.6642240699 1.36359e-05 9.22363e-05 -9.73904e-05 -0.0001322182 -0.5306268134 0.6586731879
445297330.0 -0.5188904118 0.6693516024 -9.93152e-05 -3.2854e-05 -8.57671e-05 -1.13021e-05 -0.5234876024 0.663987418
450297300.0 -0.5112869066 0.6746987711 0.0001651769 0.0001558337 0.0001471739 -1.50207e-05 -0.5169244817 0.6697382331
455297270.0 -0.5043636149 0.680011838 5.47489e-05 7.56746e-05 -2.50133e-05 2.21246e-05 -0.5106444762 0.674862082
460297240.0 -0.4976082814 0.6850521449 -8.61231e-05 4.80595e-05 -0.0001307446 -0.0001693404 -0.5031810203 0.6803943064
465297210.0 -0.4902619774 0.6903557167 -0.0001082463 -0.0001507351 -0.0001975196 4.02408e-05 -0.4966851851 0.6849790468
470297180.0 -0.4828101074 0.6945324429 1.09853e-05 0.0001188634 4.64098e-05 -0.0001137467 -0.489606834 0.6895535158
475297150.0 -0.4761664729 0.7004512238 0.0001469749 -3.16474e-05 8.3928e-05 -8.41076e-05 -0.4822491038 0.6946440201
480297120.0 -0.4687798724 0.7046307085 3.49592e-05 0.0001122742 5.27618e-05 -8.55876e-05 -0.4759493387 0.6999119113
485297090.0 -0.461287569 0.7090305681 0.0002492481 -0.0002565219 4.39604e-05 9.25394e-05 -0.4685096723 0.7041341095
490297060.0 -0.4542565872 0.7134991761 -3.47556e-05 -6.361e-05 -8.44956e-05 -8.11207e-05 -0.4612726302 0.7084176407
495297030.0 -0.4472266652 0.7184121796 2.28872e-05 0.0001797581 1.98037e-05 -2.426e-05 -0.4537472936 0.713206818
500297000.0 -0.4386571521 0.7231920227 7.54974e-05 9.77709e-05 -0.000124647 5.95593e-05 -0.446924606 0.7177663568
505296970.0 -0.4318603648 0.7266855275 0.0002358418 -0.0002810749 1.53226e-05 0.0001425922 -0.4403746616 0.7220741528
510296940.0 -0.4243987065 0.7319428228 -4.20682e-05 -7.97055e-05 9.80289e-05 0.0001205142 -0.432566581 0.7263969825
515296910.0 -0.4171355333 0.7355848004 -8.89842e-05 0.0001620393 -6.22264e-05 7.62147e-05 -0.4249788734 0.7307820103
520296880.0 -0.4088059505 0.7401869716 -7.86559e-05 5.2671e-06 -2.09716e-05 1.97192e-05 -0.4178043667 0.7349515175
525296850.0 -0.4017971992 0.7445034937 6.4534e-05 -2.61022e-05 -6.63524e-05 -7.80999e-05 -0.4101639884 0.7397779437
530296820.0 -0.3940859417 0.7481107963 -0.0001959972 0.0001696386 -6.83949e-05 0.0001905484 -0.4032718819 0.7434285444
535296790.0 -0.3862999048 0.7520803982 0.0003148365 -7.79411e-05 0.0001368646 5.93194e-05 -0.3960840751 0.746815495
540296760.0 -0.3782804373 0.75582015 -7.1969e-06 -2.95191e-05 0.0001542743 0.0001071947 -0.3888005476 0.7512320981
545296730.0 -0.3710493306 0.7594662312 4.5766e-06 3.8606e-06 -9.75247e-05 -0.000250586 -0.3810253185 0.754553724
550296700.0 -0.3635969736 0.7632807926 -0.0001885179 -0.0001942007 0.0001206574 -9.7167e-05 -0.3736163824 0.7580781474
555296670.0 -0.3545891871 0.7668488859 0.0001399213 0.0001569836 -5.95118e-05 0.0001160123 -0.3658893846 0.762013788
560296640.0 -0.3473068544 0.7704521104 -0.0002896907 0.0001439458 6.32667e-05 2.1393e-05 -0.3581908817 0.7651959332
565296610.0 -0.339718783 0.7736250411 -0.000132176 5.8614e-06 2.10751e-05 1.90112e-05 -0.3505784061 0.7693550997
570296580.0 -0.3319592214 0.7766137209 -9.93845e-05 -1.26567e-05 0.000280396 -3.64607e-05 -0.3436961675 0.7728178572
575296550.0 -0.3235728226 0.7805407018 -3.4132e-06 -0.0001057519 8.68014e-05 0.0002570482 -0.3357962825 0.7760354087
580296520.0 -0.3160813302 0.7838075114 0.0001162007 0.00012089 4.2244e-06 -0.000110963 -0.3281781094 0.7791729372
585296490.0 -0.307779536 0.7865954326 -1.6075e-06 -0.0001057993 0.0001079316 0.0001266166 -0.3198423749 0.7818704448
590296460.0 -0.2996944529 0.7898521154 9.38806e-05 0.0001048655 -0.000107989 -9.29913e-05 -0.3118082117 0.7850976578
595296430.0 -0.291642088 0.7934127234 0.0001557939 -6.38064e-05 -7.18198e-05 -9.97364e-05 -0.3043709443 0.7877676344
600296400.0 -0.2842771395 0.7954398901 -0.0001718739 7.00531e-05 4.77608e-05 -0.0001580789 -0.2964359835 0.7917901591
605296370.0 -0.2757107489 0.7988319772 6.72759e-05 9.3964e-05 8.62141e-05 -0.0002150782 -0.2890390444 0.7946229372
610296340.0 -0.2679858721 0.8012989954 1.36768e-05 1.38839e-05 -3.45231e-05 -3.46179e-05 -0.2805224665 0.7971326136
615296310.0 -0.25939069 0.8044471661 4.32458e-05 6.3547e-05 0.0001027685 7.98312e-05 -0.2733535932 0.7995053815
620296280.0 -0.2511197147 0.8059668698 -0.0001533105 0.0001544565 5.70394e-05 -0.0001164079 -0.2648419798 0.8018408745
625296250.0 -0.2428058813 0.8088376898 9.62288e-05 -0.0001197671 -3.11677e-05 -0.0002485401 -0.2571284848 0.8051758482
630296220.0 -0.2342110747 0.8114582168 -5.27678e-05 2.41582e-05 -0.0001306977 -0.0002620289 -0.2497384144 0.8076619569
635296190.0 -0.2264500284 0.8135789885 -7.73831e-05 0.0002049949 1.19572e-05 -3.63605e-05 -0.24157875 0.8094332422
640296160.0 -0.217900879 0.8150213162 5.78403e-05 -9.02037e-05 -7.7606e-05 8.50366e-05 -0.2327175893 0.8115785438
645296130.0 -0.2106963066 0.8178884334 -4.2797e-06 0.0001045164 2.89837e-05 -0.0001544725 -0.2254124838 0.8136736683
650296100.0 -0.2018915956 0.8199387916 1.88048e-05 -0.0001812568 -8.81781e-05 6.59499e-05 -0.2173023099 0.8165986753
655296070.0 -0.1935799213 0.8220119287 -0.0001055957 -0.0002190131 -4.85077e-05 -0.0001127153 -0.208590568 0.8181319187
660296040.0 -0.1853284775 0.8236359887 -1.71994e-05 -2.37667e-05 -7.82857e-05 -0.0001425717 -0.2003996549 0.8200259991
665296010.0 -0.1771845679 0.8255594754 0.000130871 -0.0001249238 -4.75913e-05 -9.83132e-05 -0.1932444832 0.8222528653
670295980.0 -0.1681499945 0.8275743142 0.0002008729 3.92104e-05 8.24427e-05 -5.83579e-05 -0.185935844 0.824203306
675295950.0 -0.1600836918 0.8285782395 7.5823e-06 2.7551e-06 -0.000168693 3.08299e-05 -0.1766836143 0.8264595333
680295920.0 -0.1518602306 0.8306829445 -0.0001331362 -0.0001554258 -5.05742e-05 -1.88388e-05 -0.1685670162 0.8273846195
685295890.0 -0.1431738392 0.8317490602 0.0001212943 -3.6494e-05 4.21951e-05 -3.43815e-05 -0.160088506 0.8291846117
690295860.0 -0.1345993578 0.8334355199 -0.0001017456 -0.000133569 -2.3466e-05 0.0001666756 -0.1519741199 0.831012229
695295830.0 -0.1264168094 0.8340933798 -6.36681e-05 -0.0001823084 0.0001288891 1.77069e-05 -0.1441272425 0.8327188617
700295800.0 -0.1181271076 0.8352053262 0.0001433156 -0.0002099116 -5.4499e-05 -5.05906e-05 -0.1355632922 0.8332268563
705295770.0 -0.1095035085 0.8370950185 9.42026e-05 -2.96286e-05 -1.1929e-06 1.65824e-05 -0.1282313193 0.8356495848
710295740.0 -0.1011328606 0.8377969467 -0.0001242325 -2.21316e-05 7.05941e-05 -1.17262e-05 -0.1198786714 0.8365937412
715295710.0 -0.0934027992 0.8396405388 -3.65582e-05 1.56315e-05 -0.0001216976 -1.03471e-05 -0.1110080583 0.8379668788
720295680.0 -0.0849215822 0.8400593784 1.23998e-05 0.0001394816 -0.0001308555 9.6044e-06 -0.1026887994 0.8382926989
725295650.0 -0.0754713277 0.8402463174 0.000183264 -4.27303e-05 1.11211e-05 -8.19564e-05 -0.0946874414 0.8395464709
730295620.0 -0.0674566038 0.8411255647 -3.46843e-05 -6.0553e-05 -0.0001343181 -7.7156e-05 -0.0861451504 0.8408348884
735295590.0 -0.0590041579 0.8416020879 -0.0001920587 0.0001046051 -8.37e-06 3.15765e-05 -0.0773311054 0.8406931478
740295560.0 -0.0507929588 0.8420290268 5.0173e-06 -9.66741e-05 -6.54531e-05 -0.0001733068 -0.0698001827 0.8414313904
745295530.0 -0.0420345675 0.8428904097 -0.0001531498 -1.2523e-06 -9.44271e-05 -0.0001084227 -0.0613321228 0.8425445764
750295500.0 -0.0343717079 0.8432142189 -7.65156e-05 -0.0001447343 0.0001250255 0.0001868584 -0.0528565679 0.8428851871
755295470.0 -0.0244184003 0.8435118626 -8.06115e-05 -0.0001401928 5.37332e-05 0.0001168881 -0.0453320273 0.8435012469
760295440.0 -0.0166068294 0.8436662566 -8.81951e-05 -6.43271e-05 0.0001660606 8.18265e-05 -0.0368139427 0.8437168666
765295410.0 -0.0080617696 0.843313618 -1.9306e-05 -0.0001474931 9.11422e-05 0.0001049984 -0.0273905885 0.8443858427
770295380.0 0.000251233 0.8439071239 -0.0001324222 1.86373e-05 0.000192639 0.0001038887 -0.0197273742 0.8446049708
775295350.0 0.008652431 0.8439504338 2.53261e-05 -0.0001924862 0.0001133442 0.0001062697 -0.0117162233 0.8440975001
780295320.0 0.0177034521 0.8432087865 -4.79932e-05 -0.0001787819 0.000109844 3.23226e-05 -0.0037035181 0.8451553115
785295290.0 0.025817436 0.8435969683 -6.8014e-05 -5.6749e-06 6.73288e-05 -0.000125631 0.0046520801 0.8447890815
790295260.0 0.0343196194 0.8427124594 1.36596e-05 -1.38873e-05 -3.5962e-05 1.32495e-05 0.0139066595 0.8448029249
795295230.0 0.0426406553 0.8431888208 4.19986e-05 -7.26792e-05 -1.06033e-05 1.42142e-05 0.0219060794 0.8449625306
800295200.0 0.0512144239 0.8426667734 6.16497e-05 -7.05175e-05 -3.9604e-05 2.30827e-05 0.0302283659 0.8441854316
805295170.0 0.0597393688 0.8420750278 -2.32032e-05 0.000140057 0.0002403713 -5.89402e-05 0.0379351446 0.8435291706
810295140.0 0.0677609793 0.8410695598 0.0001455415 -5.00844e-05 -9.0901e-05 -8.9196e-06 0.0462232879 0.8442765555
815295110.0 0.0764142308 0.8400482872 -0.0002238472 -2.86888e-05 7.61841e-05 2.30898e-05 0.0548638812 0.8434228798
820295080.0 0.0845158543 0.8388959051 -5.81229e-05 -0.0002004318 -0.0001103577 9.59301e-05 0.0626364609 0.8425609232
825295050.0 0.0934024929 0.8382737825 0.0001805941 3.20409e-05 -0.0002223554 2.21882e-05 0.0711221585 0.8422701294
830295020.0 0.1016547706 0.8374640202 0.0001577777 -0.000248617 -2.05064e-05 -0.0001511376 0.0793850562 0.8413007555
835294990.0 0.1095543632 0.8371005192 -6.37123e-05 0.0001019575 -0.0001665318 0.0001677102 0.0878444809 0.8404060317
840294960.0 0.1183818858 0.835132228 4.72149e-05 -5.534e-06 0.0002997599 0.0001077399 0.095681869 0.8398313755
845294930.0 0.1262320985 0.8345625247 0.0001111764 6.39694e-05 0.0001407148 -7.8775e-06 0.1039276541 0.8386985053
