!Created with skrf (http://scikit-rf.org).
# Hz S RI R 50.0 
!freq ReS11 ImS11 ReS21 ImS21 ReS12 ImS12 ReS22 ImS22
300000.0 -0.7689396249 -0.1683577415 0.0004049264 -5.32966e-05 -0.0005406424 -3.53871e-05 0.859821281 -0.0025379643
5299970.0 -0.7861395928 -0.0094854838 -0.000195921 0.0001409528 -0.0002059138 0.0001286284 0.8594163324 -0.0099886602
10299940.0 -0.7895625394 -0.0057935854 0.0001031949 4.11709e-05 -4.47794e-05 5.69066e-05 0.8582882199 -0.019152616
15299910.0 -0.7942170856 -0.0028254252 -6.13573e-05 8.85596e-05 2.95735e-05 0.0001044083 0.8571437507 -0.0277143056
20299880.0 -0.8008330375 0.0007352545 -6.18908e-05 -0.0002352129 -4.22512e-05 -0.0001797568 0.8566566 -0.0362643196
25299850.0 -0.8076776803 0.0069849214 0.000149391 -0.0001556059 7.06403e-05 -3.23289e-05 0.8550647993 -0.0435540175
30299820.0 -0.813789795 0.0138322698 0.0001603978 7.78775e-05 4.2993e-06 -0.0001182947 0.8553961496 -0.0522873222
35299790.0 -0.8186490798 0.0233622248 1.18188e-05 0.000150824 -4.02366e-05 4.82976e-05 0.8541209529 -0.0616996851
40299760.0 -0.8236055505 0.0321443773 -0.0001783178 -0.0001489886 4.84756e-05 -9.92509e-05 0.8539436692 -0.0686436276
45299730.0 -0.8263966569 0.041659611 7.53275e-05 -5.96601e-05 -9.23155e-05 -0.000102338 0.8531713734 -0.0776339892
50299700.0 -0.8286654887 0.0522125619 0.0001357694 2.96689e-05 -0.0001292811 -8.90725e-05 0.8515313278 -0.0853889543
55299670.0 -0.8311506371 0.0612660053 -4.87064e-05 -4.685e-07 8.68094e-05 -4.6771e-05 0.8508431853 -0.0937019383
60299640.0 -0.8324142726 0.0714466861 -0.0001354297 0.0001449864 1.28637e-05 -9.95193e-05 0.8502538796 -0.1021159443
65299610.0 -0.8332238647 0.0817794194 6.27e-06 1.01789e-05 0.0001192194 7.99373e-05 0.8492047322 -0.1109579917
70299580.0 -0.8337549094 0.0918210438 0.000191434 -4.2717e-05 0.0001032315 0.0001304549 0.8473738606 -0.1189910672
75299550.0 -0.8341433578 0.101816923 -0.000170254 -5.15574e-05 -2.66413e-05 8.75759e-05 0.8460391666 -0.126896986
80299520.0 -0.8335094514 0.1122582418 -1.16205e-05 -5.01291e-05 0.0001318575 -0.0001385189 0.8449984428 -0.1353482726
85299490.0 -0.8328337999 0.1209524489 3.7042e-06 5.6722e-06 0.0001239003 3.58588e-05 0.8436867536 -0.1434457928
90299460.0 -0.8323942771 0.1318402238 9.63485e-05 3.70732e-05 3.68034e-05 -9.92437e-05 0.8422387952 -0.1510917912
95299430.0 -0.8315030641 0.1405200636 -0.0001155708 -4.83841e-05 -6.18974e-05 0.0002151211 0.840697453 -0.160042745
100299400.0 -0.8300410337 0.149708609 -5.0409e-06 -8.71415e-05 0.0001015068 -0.0001062179 0.8387734282 -0.1682530654
105299370.0 -0.8291159866 0.159554968 0.0002576641 1.82024e-05 0.0001479004 5.84057e-05 0.8373436914 -0.1762949522
110299340.0 -0.8269832028 0.1686170147 -0.0001049938 -5.09278e-05 0.0001070985 -0.0001028021 0.835709107 -0.1844545111
115299310.0 -0.8257847439 0.1777268035 -9.86798e-05 0.0001215197 -9.08985e-05 -5.27265e-05 0.8330484609 -0.1932785352
120299280.0 -0.8238998715 0.1872364303 -6.36031e-05 0.000185644 3.77509e-05 -0.0001016448 0.8317793817 -0.2007318761
125299250.0 -0.8224008465 0.1956069715 3.18515e-05 3.15148e-05 1.85091e-05 4.2447e-05 0.8295617817 -0.2092699793
130299220.0 -0.8209576377 0.2048337093 -0.0001649034 -6.11331e-05 -7.5298e-06 4.13156e-05 0.8275918222 -0.2169908361
135299190.0 -0.8181587836 0.2143333887 4.04922e-05 -3.81065e-05 0.0001061779 -0.0001477928 0.8251761587 -0.225269668
140299160.0 -0.8171663515 0.2238228091 4.22061e-05 0.0001507026 -0.0001325116 -8.74408e-05 0.822638938 -0.2334228175
145299130.0 -0.814483277 0.2319183862 -0.0002661659 -1.80542e-05 -9.41033e-05 4.41195e-05 0.8205655191 -0.2419120924
150299100.0 -0.8118323336 0.2404765581 3.46384e-05 9.6799e-06 5.55133e-05 -0.0001374244 0.8176259714 -0.2490013257
155299070.0 -0.8097466785 0.2503985135 0.0001292446 -0.0001131966 8.11049e-05 5.56282e-05 0.81583779 -0.2578991472
160299040.0 -0.8077014002 0.2594262068 -7.55247e-05 0.0001432009 8.33427e-05 -9.58099e-05 0.8131809414 -0.2651612651
165299010.0 -0.804469984 0.2676026123 8.67035e-05 -0.0001472885 -0.0001302705 0.0001426648 0.8108599059 -0.2736380054
170298980.0 -0.8017643533 0.2766685906 -0.0001703687 -7.32701e-05 -0.0001200807 -1.23122e-05 0.8074287168 -0.2811200843
175298950.0 -0.7985824801 0.2844766238 4.37758e-05 -4.40456e-05 -0.0001746428 1.27834e-05 0.8045435456 -0.2893368949
180298920.0 -0.7960101905 0.293752853 -0.0001128836 -7.28299e-05 -0.0001076161 -1.85427e-05 0.8016739475 -0.2971009734
185298890.0 -0.7927191549 0.3019672946 1.49682e-05 8.55791e-05 -6.78173e-05 0.0001488679 0.7993143917 -0.3047707106
190298860.0 -0.7893844926 0.3109889553 1.34938e-05 0.0001027717 0.0001193916 8.44011e-05 0.7955563243 -0.31309675
195298830.0 -0.786147239 0.3192403967 3.107e-07 -9.151e-06 4.92465e-05 5.18243e-05 0.7928896326 -0.3203805712
200298800.0 -0.7827385598 0.3278968399 6.6037e-05 -7.28684e-05 -5.92388e-05 3.65239e-05 0.7892734412 -0.3278852716
205298770.0 -0.7791233423 0.3367360546 1.96593e-05 1.81698e-05 -7.49166e-05 -3.44873e-05 0.7866222923 -0.3361163164
210298740.0 -0.775584151 0.3449481481 3.57e-07 -1.23127e-05 2.3879e-06 8.54711e-05 0.7826632307 -0.3438052798
215298710.0 -0.7723376075 0.3537460527 9.0498e-06 2.7995e-06 0.0001597672 9.1745e-06 0.7796882842 -0.3514441684
220298680.0 -0.7690786067 0.3608010384 -0.0001538205 0.0002846991 0.0001370134 4.53746e-05 0.7755878986 -0.3587397882
225298650.0 -0.764894659 0.3699037757 5.67241e-05 -0.000140617 -7.61992e-05 -0.0002080076 0.7722363737 -0.3666659123
230298620.0 -0.7612442164 0.3777389913 -0.0001527867 -0.0001492896 -7.8475e-05 4.12389e-05 0.7685560825 -0.3740288082
235298590.0 -0.7572481393 0.3859801037 -0.0001104162 1.51333e-05 -0.0001703368 -0.0001887369 0.7645709882 -0.3809656342
240298560.0 -0.752598702 0.3937602666 0.0001328389 0.0001504373 -8.3141e-05 -0.000203747 0.7613009967 -0.3888963344
245298530.0 -0.748741652 0.4018150148 7.1389e-05 8.64976e-05 0.0001666362 8.01649e-05 0.7571391928 -0.3958968174
250298500.0 -0.7445831621 0.4095773312 5.46485e-05 4.5505e-06 -3.52063e-05 -0.0001696428 0.7533290227 -0.4033958926
255298470.0 -0.7402137964 0.4180985524 -3.76246e-05 -0.0001161265 -1.18388e-05 0.0001801361 0.7495136836 -0.4110056606
260298440.0 -0.7364743285 0.4253426943 -0.0001152741 -0.0001214627 -3.2245e-06 -1.48053e-05 0.7449061394 -0.4182190077
265298410.0 -0.7317094779 0.4329789502 -0.0001300422 -2.87525e-05 -5.10862e-05 0.0001408424 0.7410463962 -0.4253592231
270298380.0 -0.726897121 0.4409134398 0.0001998211 -0.0002047021 0.0001146426 0.00015561 0.7374895937 -0.4325951822
275298350.0 -0.7232995203 0.4479569331 -5.90742e-05 -0.0001613932 0.0002239583 -3.08516e-05 0.732484432 -0.4401386017
280298320.0 -0.7177462357 0.4558823424 -0.0001446163 -7.19804e-05 -5.35347e-05 -3.53622e-05 0.7285644851 -0.4469602239
285298290.0 -0.7131718462 0.4634219961 2.24117e-05 7.91466e-05 7.12955e-05 3.71962e-05 0.724531932 -0.4542495858
290298260.0 -0.7082980788 0.4711257195 -5.90958e-05 -0.0001532701 0.0001019344 -1.35479e-05 0.7198981565 -0.4610374609
295298230.0 -0.7039141535 0.4780226117 -7.58608e-05 6.97093e-05 0.0001471335 0.0001773606 0.715832719 -0.4677688034
300298200.0 -0.6994684729 0.4856038538 -3.71276e-05 2.75724e-05 -0.0001607053 4.86223e-05 0.711267393 -0.4755392517
305298170.0 -0.6942422053 0.4926996244 2.81374e-05 -4.36051e-05 -0.0001177248 0.0001387818 0.7064951919 -0.4825209604
310298140.0 -0.6888382369 0.4993828598 1.18876e-05 1.71633e-05 -3.89226e-05 6.94759e-05 0.7022700753 -0.4897326256
315298110.0 -0.6842919596 0.5072236283 -2.5197e-05 -0.0001612187 -2.72811e-05 6.99847e-05 0.6973621548 -0.4970134683
320298080.0 -0.6789664154 0.5140932141 0.0002319648 8.2521e-06 -6.90224e-05 3.80728e-05 0.6924031063 -0.5046335309
325298050.0 -0.6729501575 0.5209349636 -7.37833e-05 6.39407e-05 0.0001303527 8.2944e-06 0.6870980255 -0.5121944704
330298020.0 -0.6682199708 0.5280399133 -4.35041e-05 7.02468e-05 0.00019065 2.37943e-05 0.6819112086 -0.5195484522
335297990.0 -0.6629126331 0.5349607106 0.0001331613 0.0001945525 -0.0002039182 -1.81091e-05 0.6755186623 -0.5260369872
340297960.0 -0.6574573425 0.5418475781 -7.70746e-05 6.96288e-05 0.0001615547 3.86906e-05 0.6697124671 -0.5321791899
345297930.0 -0.6514755877 0.5484434881 5.32248e-05 -0.0001981968 0.0001233373 2.48109e-05 0.6638391255 -0.5393165537
350297900.0 -0.6462313408 0.5553390214 -9.57196e-05 3.63749e-05 7.17795e-05 -9.3482e-05 0.6585150316 -0.5459638812
355297870.0 -0.6410235132 0.5614563189 0.0002401701 2.53819e-05 -6.98006e-05 -5.99099e-05 0.6526485646 -0.5512744888
360297840.0 -0.634983292 0.5684684109 -3.12522e-05 0.0001443135 7.67653e-05 -4.66645e-05 0.6472688927 -0.5580478265
365297810.0 -0.6290477651 0.5747804822 -0.0002408174 0.0001151623 0.0002409485 -0.0001449972 0.6409677761 -0.5638661117
370297780.0 -0.6231421374 0.5812256469 0.0001311829 -0.0001274677 -0.0001511857 -2.02463e-05 0.6353034156 -0.5699191896
375297750.0 -0.6172194903 0.5869479864 9.34399e-05 0.0001498807 -0.0001690318 6.68683e-05 0.6297888116 -0.5761500365
380297720.0 -0.6118289813 0.5936346008 -0.00012017 -0.0001174757 -4.24571e-05 0.0001041547 0.6240864334 -0.5814240446
385297690.0 -0.6057067611 0.5991924501 -6.25113e-05 -0.0001299445 -8.64621e-05 0.0001020616 0.6179906083 -0.5882798084
390297660.0 -0.5983927674 0.6054163557 -0.0001930973 -0.0001156214 0.0001232583 0.0001727997 0.6120222847 -0.5938936307
395297630.0 -0.5924820672 0.6125139744 8.28463e-05 -0.0001555762 -5.42305e-05 0.0001051591 0.6059726082 -0.5997009222
400297600.0 -0.586208521 0.6181294608 -0.0001075365 -0.0001459479 -6.7535e-06 -0.0002822217 0.6002525756 -0.6051782589
405297570.0 -0.5800543068 0.6233457321 -4.88819e-05 0.000172893 5.5057e-06 -0.0001570089 0.5939933865 -0.6113115888
410297540.0 -0.5734807024 0.6298616559 0.0001553384 1.8014e-06 -1.553e-05 -2.95613e-05 0.5878612166 -0.6169636809
415297510.0 -0.5673321772 0.635367796 -4.42995e-05 -8.28187e-05 0.0001368165 3.54845e-05 0.581730135 -0.6226103741
420297480.0 -0.5603607395 0.6412127512 -0.0002960178 0.0001383292 8.2282e-06 0.0001700182 0.5755979902 -0.6276624398
425297450.0 -0.5538642415 0.6469648349 4.44246e-05 3.57438e-05 3.75105e-05 -0.0001104801 0.5696017755 -0.6342221013
430297420.0 -0.5477307024 0.652258797 0.0001517939 -4.88584e-05 -0.0001116722 0.0001248239 0.5631127215 -0.639510579
435297390.0 -0.540939392 0.6580167111 -0.0001003202 1.50132e-05 3.275e-05 7.6088e-06 0.5566230443 -0.6449788997
440297360.0 -0.5334982102 0.6630704978 0.0001763887 0.0002164069 0.0001351051 0.000169098 0.5502148844 -0.6501012615
445297330.0 -0.5267569588 0.6678116648 8.43914e-05 -0.0001604358 -5.97321e-05 4.85583e-05 0.5436646524 -0.6545964415
450297300.0 -0.5203279578 0.6735060296 0.0001271629 -4.99289e-05 -0.0001172685 3.67159e-05 0.5374539052 -0.6605547405
455297270.0 -0.5131931468 0.6787718434 1.73501e-05 3.73053e-05 -0.0001246393 -6.94625e-05 0.5308312611 -0.6657681121
460297240.0 -0.5053221361 0.6845855368 -5.31721e-05 9.82455e-05 2.46754e-05 8.28094e-05 0.5234451835 -0.6710060289
465297210.0 -0.4986594207 0.6885340245 0.0001611898 7.2485e-06 0.0002245505 0.000172131 0.517040058 -0.6754732093
470297180.0 -0.4917000409 0.6940514106 3.66401e-05 5.41986e-05 0.0001190741 6.86271e-05 0.5105726689 -0.680797688
475297150.0 -0.4844263189 0.6987340083 -0.000158772 -3.5251e-05 -0.0002979815 -0.0002260912 0.5042931087 -0.6852545711
480297120.0 -0.4767494947 0.7040631742 -3.5288e-06 -5.2376e-05 0.000154168 -8.7589e-05 0.4967728654 -0.6902054907
485297090.0 -0.4700008638 0.7085245253 -7.88062e-05 -0.0001182883 6.8162e-06 -5.958e-06 0.4904796041 -0.6956673131
490297060.0 -0.4617067058 0.714086068 -0.0001585657 9.86965e-05 0.0001766252 7.2201e-06 0.4830177396 -0.6996759384
495297030.0 -0.4545497328 0.7178718494 -0.0001014747 5.23142e-05 -0.0001543413 4.22698e-05 0.4766368447 -0.7048466125
500297000.0 -0.4472224795 0.7221450229 2.91516e-05 8.2213e-06 -3.39936e-05 -5.83522e-05 0.4694223805 -0.709378505
505296970.0 -0.4394376573 0.7269666156 1.03452e-05 0.0002916775 -7.51255e-05 -0.0001351575 0.4617673905 -0.7138269609
510296940.0 -0.4319042402 0.7316662584 0.0001045621 0.0001782019 -6.04552e-05 -0.000129975 0.4545435437 -0.7179421919
515296910.0 -0.4241059489 0.7354438961 0.0001382289 -5.59915e-05 -0.0001409647 4.46046e-05 0.4478194408 -0.7228978615
520296880.0 -0.4160916114 0.7403150612 8.7166e-05 -1.41741e-05 -0.0001294162 2.6522e-05 0.4406426761 -0.726794409
525296850.0 -0.4087286074 0.7440280619 0.0001352319 0.0002658604 -3.5804e-06 0.0001333803 0.4334714903 -0.731019638
530296820.0 -0.4009840799 0.7480360822 0.000123033 -6.09195e-05 -6.95167e-05 3.9047e-06 0.4264343052 -0.7352792309
535296790.0 -0.3924971447 0.7516437155 0.0001710178 -0.0001814965 -1.07505e-05 2.33009e-05 0.4196399764 -0.7389688146
540296760.0 -0.3847390818 0.7561659569 2.65438e-05 -0.000255534 2.55918e-05 0.0002055281 0.4114461511 -0.7431334856
545296730.0 -0.3771052491 0.7603637725 0.0002753529 -9.72508e-05 -0.0001354505 3.91973e-05 0.4043079732 -0.747393972
550296700.0 -0.368787106 0.763727701 -0.0001046757 -0.0002999151 9.44913e-05 9.79978e-05 0.3964855589 -0.7511994377
555296670.0 -0.361359906 0.7674494966 7.61662e-05 3.3217e-05 -0.0002545256 -0.0002515617 0.3892640967 -0.7552685198
560296640.0 -0.3530370415 0.7706300073 2.16537e-05 -1.36924e-05 -0.000127726 5.10944e-05 0.3816907684 -0.7586128239
565296610.0 -0.3453366114 0.7744707797 8.9741e-05 -0.0002160967 3.30873e-05 3.8197e-05 0.374040055 -0.7620052919
570296580.0 -0.3369858806 0.7782322755 0.0001262883 9.3231e-06 -9.17418e-05 -2.7616e-06 0.3662370586 -0.7662138754
575296550.0 -0.3277528179 0.7810010795 -0.0001262306 -0.0002732345 -1.46425e-05 0.0002815781 0.3589562916 -0.7694464929
580296520.0 -0.3210252417 0.7842824823 -7.64042e-05 -0.0001579203 8.76932e-05 -1.84315e-05 0.3509676665 -0.7724526047
585296490.0 -0.3124294051 0.7874460515 -4.23986e-05 0.0001506596 3.47943e-05 -2.9495e-05 0.3431266168 -0.775658387
590296460.0 -0.3034422715 0.7906663694 0.0002427537 0.0001530885 -5.028e-07 0.000151265 0.3351268464 -0.7791024925
595296430.0 -0.2961952031 0.7934406466 -0.0001603909 -2.05601e-05 -0.0001415929 -5.2306e-06 0.3280452558 -0.7825331901
600296400.0 -0.2880759424 0.7963799412 -0.0002474626 7.73739e-05 7.68288e-05 7.2646e-05 0.319840827 -0.7853103708
605296370.0 -0.2796649504 0.7992522437 -0.000113352 0.0001725273 -4.75793e-05 -0.0001506516 0.3123682411 -0.7881026156
610296340.0 -0.2710504147 0.8027816469 8.5169e-05 0.0001220984 -0.0001085307 -7.93394e-05 0.304106923 -0.7913854855
615296310.0 -0.2632479584 0.8052314584 0.0002401691 1.56454e-05 7.3435e-05 -7.57401e-05 0.2963225869 -0.7945422023
620296280.0 -0.2550266641 0.8078771457 6.83376e-05 -3.84e-05 9.27531e-05 -8.55233e-05 0.2886552593 -0.7966053185
625296250.0 -0.2476192348 0.8102440494 -6.322e-07 2.63489e-05 0.0001716977 1.88172e-05 0.2804100597 -0.8000830459
630296220.0 -0.2387042547 0.8130705472 3.5586e-05 0.0001160045 6.0115e-05 0.0001152789 0.2728675674 -0.8022706962
635296190.0 -0.2308496305 0.8154986528 -2.55033e-05 -0.0002833327 1.72097e-05 3.7048e-05 0.2645219487 -0.8046976378
640296160.0 -0.2215785038 0.8177976861 4.74261e-05 0.0001128386 0.0001373407 -1.41871e-05 0.2561589357 -0.8072082091
645296130.0 -0.2134693309 0.8205982343 -3.19328e-05 -0.0001840999 -4.16709e-05 0.0002806369 0.2479522364 -0.8097738847
650296100.0 -0.2051087941 0.8218118368 1.48972e-05 0.0001538199 8.12132e-05 8.46451e-05 0.2402206162 -0.8121536682
655296070.0 -0.1968142806 0.8237377091 0.0002084114 -8.90689e-05 0.0001902241 7.81167e-05 0.2317010978 -0.8147668001
660296040.0 -0.1891490727 0.8262531025 -4.90322e-05 9.15682e-05 5.75766e-05 6.29985e-05 0.2241188015 -0.8166617084
665296010.0 -0.1806620486 0.82791202 -7.0729e-06 8.91617e-05 6.8149e-06 -3.18822e-05 0.216180294 -0.8181745406
670295980.0 -0.1724860852 0.8301306137 -5.08365e-05 -0.0002076912 0.0002366277 -0.0001616252 0.2074077814 -0.8197608668
675295950.0 -0.1639628077 0.8316091238 -0.0001875256 -0.0001012421 8.11546e-05 1.00172e-05 0.198976871 -0.8221121142
680295920.0 -0.1562495223 0.834164408 -0.0002367221 7.09103e-05 7.62007e-05 6.81777e-05 0.1911075106 -0.82425902
685295890.0 -0.1473223584 0.8355941426 0.0001057866 -1.7943e-05 -3.00159e-05 -2.16763e-05 0.1828744594 -0.8253950291
690295860.0 -0.138450569 0.8373140385 -0.0001215289 2.74258e-05 -6.5085e-05 0.000118123 0.1744405458 -0.8275371273
695295830.0 -0.1305257314 0.8388794008 0.0001380598 -2.98178e-05 -1.04775e-05 2.46952e-05 0.1669688638 -0.8287658897
700295800.0 -0.1222960762 0.8398154136 -1.75255e-05 0.000269549 0.0002255187 -0.0001747687 0.158743317 -0.830269387
705295770.0 -0.1146526013 0.8413896615 -0.0002551227 -0.0001324716 5.1125e-06 -0.0001944499 0.1494740685 -0.8306677611
710295740.0 -0.1069454295 0.8423173012 0.0001093942 0.0002071461 -0.0001641816 6.74103e-05 0.1421587342 -0.8328544936
715295710.0 -0.0975337517 0.8436548015 -0.000148855 0.000115795 -0.0001223558 -3.17632e-05 0.1336880489 -0.8348326663
720295680.0 -0.0889111624 0.8445047882 -2.58905e-05 3.46982e-05 -0.00023455 -0.0001552217 0.1256570541 -0.8355018459
725295650.0 -0.0814224946 0.8454339803 5.67768e-05 -6.09448e-05 -7.84762e-05 -0.0001776684 0.1168394133 -0.8363098342
730295620.0 -0.0727437441 0.8460953124 0.0001207937 -0.0002164483 5.23078e-05 4.37755e-05 0.1082963895 -0.8372634309
735295590.0 -0.065205467 0.8476609965 4.9733e-06 7.01174e-05 3.78615e-05 -0.0001361825 0.1002578063 -0.8380821905
740295560.0 -0.0576049216 0.8471358267 -0.0001618276 0.0001144435 5.82406e-05 7.19437e-05 0.0918344127 -0.839212869
745295530.0 -0.0485475102 0.84852724 -6.07545e-05 0.0001119622 -1.57727e-05 0.000177592 0.0833391164 -0.8398759421
750295500.0 -0.0409364931 0.8492360062 0.0001996625 -3.32286e-05 -5.94507e-05 -3.66133e-05 0.0747293208 -0.8404430387
755295470.0 -0.0318700609 0.8493937449 -0.0001210879 -2.6478e-06 6.63411e-05 -6.5726e-06 0.066384249 -0.8403783978
760295440.0 -0.0240790461 0.8500970477 -0.0001564024 -1.88523e-05 -5.57235e-05 -1.01779e-05 0.0582917611 -0.8416162155
765295410.0 -0.0159328083 0.8503626211 -1.99221e-05 -0.0001904441 6.87693e-05 -4.18442e-05 0.0499702657 -0.8418608956
770295380.0 -0.0081620187 0.8513068693 -0.0001317027 2.1338e-06 -0.0001251731 0.0001143795 0.0415700667 -0.8421396505
775295350.0 0.0005197655 0.8510173328 8.63056e-05 -0.0003157158 -4.70269e-05 -3.98333e-05 0.0334513159 -0.8430039899
780295320.0 0.0090407382 0.85147597 6.84757e-05 0.0002066217 -8.08392e-05 -8.59936e-05 0.0249425251 -0.8427480664
785295290.0 0.0175610572 0.8512839157 -1.83537e-05 0.0001417319 3.01779e-05 -4.18957e-05 0.0161224062 -0.8421758024
790295260.0 0.0252631009 0.8506410506 -0.0001365316 1.5406e-06 -8.1724e-06 -8.52709e-05 0.0081249124 -0.8422414583
795295230.0 0.0335967597 0.850267905 -0.0001468153 -6.74703e-05 -1.25823e-05 -0.0002390439 -0.0009879191 -0.8432613708
800295200.0 0.0413091217 0.8503974737 -0.0002118201 -0.0001002053 -0.0001362345 0.0002164558 -0.0090582432 -0.8422531165
805295170.0 0.0493734156 0.8503664598 0.0001830739 -3.01769e-05 -5.90965e-05 -2.64096e-05 -0.0171227385 -0.842161624
810295140.0 0.0578566488 0.8500539186 9.7926e-05 -2.12875e-05 -0.0001462487 4.15451e-05 -0.0256295245 -0.8416092565
815295110.0 0.0655957145 0.8496354616 -2.2566e-05 1.10763e-05 5.21446e-05 -6.17782e-05 -0.0350281555 -0.8414999849
820295080.0 0.0742432567 0.8491060969 -5.5487e-06 -4.74948e-05 -9.81387e-05 -7.94328e-05 -0.0425117379 -0.8402119667
825295050.0 0.0816349878 0.8480121623 -7.8418e-05 1.77075e-05 4.90549e-05 -0.0001260146 -0.0505639772 -0.8396970477
830295020.0 0.0907657362 0.8476075295 1.5178e-05 -0.0001606918 -6.50867e-05 -8.332e-06 -0.0593638866 -0.8397364625
835294990.0 0.0984439068 0.8464606856 -4.00336e-05 0.0001532069 0.0001019395 6.27698e-05 -0.0675952063 -0.838137651
840294960.0 0.1074185913 0.8449638115 0.0002435364 -3.0532e-06 2.44985e-05 0.0001355949 -0.0755842739 -0.8370751277
845294930.0 0.115316006 0.8441261761 -0.0001763942 0.000137078 8.87911e-05 -0.0001012767 -0.0843287291 -0.8363315509
850294900.0 0.1241513147 0.8434522474 9.6737e-06 7.87346e-05 8.4614e-06 -8.4299e-05 -0.0925555136 -0.8350259918
