!Created with skrf (http://scikit-rf.org).
# Hz S RI R 50.0 
!freq ReS11 ImS11 ReS21 ImS21 ReS12 ImS12 ReS22 ImS22
300000.0 -0.0967997985 -0.0852726736 0.6218025986 0.0806950256 0.6246145929 0.0853442927 -0.0942253536 -0.0956107223
5299970.0 -0.1003683839 0.0127320822 0.6303859922 0.0105637513 0.6302588731 0.0112535336 -0.1016918547 0.0119986731
10299940.0 -0.0953756231 0.0296970112 0.6347258026 0.015324411 0.6340035218 0.0158399049 -0.097151318 0.0289991637
15299910.0 -0.088327005 0.0433114211 0.6404173072 0.0202406645 0.6401136757 0.020734005 -0.0899099523 0.0423439081
20299880.0 -0.0792987937 0.0543878085 0.6487151924 0.0238991592 0.6487253005 0.0239041662 -0.0812820179 0.053351282
25299850.0 -0.0696200711 0.062950285 0.6580973011 0.0248802491 0.6579869201 0.0249433007 -0.0725128996 0.0618391899
30299820.0 -0.0597478385 0.0694471377 0.667984221 0.0243138009 0.6673298767 0.0244794792 -0.0624445289 0.0685239045
35299790.0 -0.0492004502 0.0740533782 0.6772415914 0.0214067311 0.677292937 0.0213310446 -0.0522888894 0.0735375533
40299760.0 -0.0395884307 0.0768965557 0.6869161527 0.0180543185 0.6864178253 0.017631344 -0.0435437499 0.0772749571
45299730.0 -0.0303752778 0.0793718134 0.6956468318 0.0116510936 0.6955809303 0.0121757653 -0.033769554 0.0792158633
50299700.0 -0.0218306787 0.0797475595 0.7035161172 0.0051452682 0.703928745 0.0046602101 -0.0253410855 0.0801548937
55299670.0 -0.0140656554 0.0799581569 0.7102810258 -0.0029892644 0.7109174769 -0.0028082283 -0.0178137761 0.0800917367
60299640.0 -0.0066094499 0.0788684 0.7173389939 -0.0118887123 0.7177320348 -0.0116526464 -0.0103120862 0.0798270392
65299610.0 -0.000216463 0.0780221494 0.7235672434 -0.0192388736 0.7237385255 -0.0200261508 -0.00336276 0.0787699184
70299580.0 0.006125599 0.0759136783 0.7283954298 -0.0294278899 0.7285001596 -0.0289761145 0.0021500847 0.0772788086
75299550.0 0.0115426721 0.0740798638 0.7330565552 -0.0386835377 0.7327672459 -0.0389637929 0.008141277 0.0755381174
80299520.0 0.0163702243 0.0721731417 0.7373613029 -0.0488121933 0.7377810519 -0.0486907526 0.0130908639 0.0728576582
85299490.0 0.0207703924 0.0694089775 0.7404967601 -0.0588629952 0.7404541562 -0.0587136804 0.0174226392 0.0711670115
90299460.0 0.0246129193 0.0674379636 0.74335069 -0.0687039328 0.7438851373 -0.0687031139 0.0221152539 0.0689589312
95299430.0 0.0283091277 0.065307188 0.7460271376 -0.0794116293 0.7459256689 -0.0788584415 0.0252054884 0.0662452397
100299400.0 0.0314258644 0.0624589908 0.7471175135 -0.0894547453 0.7471591843 -0.08949322 0.0286703349 0.0638980492
105299370.0 0.0346315034 0.0601305209 0.748425132 -0.0990946054 0.7489669094 -0.099613197 0.0322060177 0.061779513
110299340.0 0.0370134189 0.0577490102 0.7498797282 -0.1091204354 0.7495571718 -0.1094620414 0.0348839646 0.0592356646
115299310.0 0.0396422796 0.0548469995 0.7509194932 -0.1190871802 0.7508340203 -0.1193931169 0.0373001234 0.0562869297
120299280.0 0.0413702361 0.0524331899 0.7517583324 -0.129783808 0.7511568416 -0.1297955733 0.038890451 0.0542714176
125299250.0 0.0433291298 0.0501188525 0.752057654 -0.1393711881 0.7513005346 -0.1393470595 0.0410478848 0.0511702812
130299220.0 0.0450880824 0.0478322432 0.75156024 -0.1490490391 0.75157912 -0.1491308204 0.0432010725 0.0494819272
135299190.0 0.0467828076 0.0455473949 0.7513759663 -0.1586183121 0.7507527658 -0.1590963207 0.0442814644 0.0474987871
140299160.0 0.0477012634 0.0441917852 0.750758177 -0.1687880808 0.7509137002 -0.169255704 0.0463581741 0.0455577693
145299130.0 0.0491860463 0.0419874698 0.750068411 -0.178719137 0.750165286 -0.1785361281 0.0472464186 0.0426819677
150299100.0 0.0504923669 0.0398416361 0.7492526959 -0.1883275182 0.749123824 -0.1883209579 0.048499479 0.0409198922
155299070.0 0.0511920463 0.0382092978 0.7477218972 -0.1982430673 0.7478191904 -0.198520182 0.0494162317 0.0386760804
160299040.0 0.0522626472 0.0359060027 0.7458617713 -0.2072017004 0.7462068796 -0.207286821 0.0506554762 0.0370379031
165299010.0 0.0527827946 0.0342390804 0.7451827893 -0.2170284263 0.7445724967 -0.2168125383 0.0515332089 0.0349097665
170298980.0 0.0531596076 0.0328164792 0.7418333313 -0.226157853 0.7429911897 -0.2265008815 0.0529370198 0.0328490882
175298950.0 0.0544917554 0.0307337317 0.7415139098 -0.2354925657 0.7413828334 -0.2354339558 0.0531594496 0.0313583171
180298920.0 0.0552515944 0.0291114886 0.7389496302 -0.2454264799 0.7391196206 -0.2446379018 0.053679035 0.0298597338
185298890.0 0.0560485624 0.0272196902 0.7367188513 -0.254227019 0.7366449721 -0.2536737257 0.0543285831 0.0275953841
190298860.0 0.0561889882 0.0258039947 0.734331092 -0.2630654837 0.734506885 -0.2628719587 0.0553790816 0.0261639673
195298830.0 0.056414302 0.0239770432 0.7317894637 -0.2716305823 0.7321704041 -0.2725551944 0.0557614185 0.0240482826
200298800.0 0.0569924548 0.0226643197 0.7292857236 -0.2804744535 0.7290256118 -0.2808774587 0.056030001 0.0231234711
205298770.0 0.057152943 0.0215924468 0.7268246972 -0.2898364771 0.7266988222 -0.289586187 0.0562666291 0.0205555026
210298740.0 0.0571869252 0.0199509278 0.7240871737 -0.2987384039 0.7238730119 -0.2987694328 0.05685836 0.0198593356
215298710.0 0.0578526184 0.0186593408 0.7207665432 -0.306994717 0.7203953605 -0.307254339 0.0568947723 0.0182396271
220298680.0 0.0582047886 0.0172332997 0.717225813 -0.3159907341 0.7171613801 -0.3158114447 0.0574857255 0.0172296376
225298650.0 0.0587968922 0.016234016 0.7136906021 -0.3241867041 0.7138561689 -0.324202321 0.0576195413 0.0153022396
230298620.0 0.0580984606 0.0149164843 0.7107630994 -0.3329070069 0.7107415162 -0.3330925616 0.0579228246 0.0142417322
235298590.0 0.0584157736 0.0134852498 0.707408696 -0.3413940529 0.707544157 -0.3420781567 0.0579690973 0.0124950113
240298560.0 0.0584076856 0.0121717029 0.7038066952 -0.3493870639 0.7038716217 -0.3493850149 0.0581624984 0.0114440567
245298530.0 0.0585493305 0.0113082944 0.6991135415 -0.3582249889 0.6998175226 -0.3582747744 0.0582862563 0.0105774172
250298500.0 0.0584798843 0.0095568389 0.6954814836 -0.365311746 0.6963395757 -0.3653994273 0.0587604457 0.0090658897
255298470.0 0.0581094184 0.0087150173 0.6914205394 -0.3746294337 0.6923560093 -0.3740089906 0.0589934005 0.0073052777
260298440.0 0.0583143048 0.0076067508 0.6880462785 -0.3819769577 0.6883926302 -0.3827801769 0.0593842252 0.00687953
265298410.0 0.0591993635 0.0068649861 0.6838967692 -0.3910300721 0.6836812822 -0.3906719222 0.0587627101 0.005382956
270298380.0 0.059200699 0.0055567754 0.6790991395 -0.3981156072 0.6800202469 -0.3983789076 0.0591062946 0.0050136198
275298350.0 0.0584965762 0.0046568595 0.6755698008 -0.4067471057 0.6761102475 -0.4065465633 0.0591179442 0.0036434858
280298320.0 0.0588494801 0.0038569384 0.6714297678 -0.413633674 0.6708378963 -0.4143079234 0.0593652666 0.0026524484
285298290.0 0.0588950741 0.0031763973 0.6667216625 -0.4219296862 0.6664867602 -0.4222082942 0.0590255108 0.0016104563
290298260.0 0.0589584801 0.0017505167 0.6619105674 -0.4299356194 0.6621583109 -0.4299137383 0.0595367814 0.0005787789
295298230.0 0.0585510459 0.0005060944 0.6577942056 -0.4377051113 0.6569910094 -0.4377099309 0.059845775 -0.0004655719
300298200.0 0.0592122419 -0.000204665 0.6525199097 -0.4450589703 0.6531892873 -0.4455421459 0.0593479703 -0.0014127348
305298170.0 0.0589082203 -0.0015007414 0.6478868841 -0.4530800781 0.6486041545 -0.453345269 0.0598300788 -0.0023626691
310298140.0 0.0597489671 -0.0024297244 0.6437312203 -0.4609082365 0.6434881027 -0.4611763063 0.0598088195 -0.0030815011
315298110.0 0.0589278403 -0.0035639951 0.6382058359 -0.4684555054 0.6386189902 -0.468211516 0.0600214283 -0.0045403917
320298080.0 0.0585726825 -0.0045071098 0.6331899097 -0.475617897 0.6334160647 -0.4757977222 0.0594169116 -0.0061037077
325298050.0 0.0582299138 -0.0058833099 0.6284700732 -0.4832604168 0.6284179086 -0.4835345269 0.0593657333 -0.0067017883
330298020.0 0.0581536584 -0.0065173481 0.621115511 -0.4910099411 0.6216598075 -0.4910202027 0.0583202979 -0.008049038
335297990.0 0.0573218363 -0.0077304806 0.6166779192 -0.4977730846 0.6162369588 -0.4978496698 0.0581847174 -0.0089279022
340297960.0 0.056589463 -0.0080506342 0.6101709503 -0.5045156095 0.6105122562 -0.5045567351 0.0572754099 -0.0097425834
345297930.0 0.0563933076 -0.0087354567 0.6047737799 -0.5109063538 0.6045178774 -0.5115668832 0.0577195509 -0.0106643806
350297900.0 0.0562437409 -0.0095664782 0.5989054035 -0.5175545785 0.5992634201 -0.5178766751 0.0566721168 -0.0106088736
355297870.0 0.0559527524 -0.0104276871 0.5926947725 -0.5246849805 0.5930541437 -0.5251199745 0.0561844885 -0.0115265323
360297840.0 0.0559993985 -0.0108625053 0.5874962954 -0.5317091728 0.587499594 -0.5317806255 0.0562197411 -0.0116776123
365297810.0 0.0558296408 -0.0116725515 0.5813500305 -0.537908789 0.581335593 -0.5378816139 0.0558698835 -0.0123893401
370297780.0 0.0557327616 -0.0124181482 0.5753124508 -0.5441373726 0.5758664053 -0.5448709864 0.0560627286 -0.0128755347
375297750.0 0.0548970125 -0.0124398088 0.5700355884 -0.551139879 0.5692286876 -0.5515913831 0.0556402239 -0.013429272
380297720.0 0.0550440224 -0.0138173994 0.5633791638 -0.5574065441 0.56329785 -0.5573754448 0.0550922051 -0.0143466614
385297690.0 0.0547479762 -0.0139062949 0.5574432284 -0.5628731848 0.5570834154 -0.563304347 0.0549892601 -0.014900997
390297660.0 0.0541967321 -0.0149709863 0.5509146473 -0.5701778205 0.5509618367 -0.5703795432 0.054916918 -0.0157968859
395297630.0 0.0545407066 -0.0158824379 0.54489331 -0.5754100519 0.5450084922 -0.5758445748 0.0542335869 -0.0157860197
400297600.0 0.0535687821 -0.0160641047 0.5381075869 -0.5818894505 0.5382409298 -0.5823491245 0.0533332293 -0.0167224513
405297570.0 0.0537218992 -0.0165509405 0.5317614515 -0.5880512176 0.5320875655 -0.5882022006 0.0534980989 -0.016946112
410297540.0 0.0535424656 -0.017508869 0.5247706676 -0.5932776539 0.5255745998 -0.5937708728 0.0529764174 -0.0177331132
415297510.0 0.0531712223 -0.0171336511 0.5185823366 -0.5995030053 0.5191349668 -0.5995353835 0.0524821295 -0.0178951683
420297480.0 0.0530042161 -0.0190702936 0.5117922718 -0.6057731183 0.5123714986 -0.605857397 0.0525983988 -0.0191662878
425297450.0 0.0532442141 -0.0196366541 0.5061432245 -0.6111160409 0.5057167064 -0.6108676667 0.0520689596 -0.0191028423
430297420.0 0.0522865619 -0.0197468436 0.4988674592 -0.6172593964 0.4985759419 -0.6170140527 0.0516459692 -0.0203310809
435297390.0 0.0523687194 -0.020626566 0.4920034316 -0.6219893225 0.4921832867 -0.6216369101 0.0508349699 -0.020152178
440297360.0 0.0521488981 -0.0214813033 0.4846831635 -0.6275261618 0.4845505329 -0.6279652038 0.0509077397 -0.0214843545
445297330.0 0.0523343671 -0.0221450815 0.4777901554 -0.6334232363 0.4782315526 -0.6331105187 0.0504942843 -0.0215494934
450297300.0 0.0515237808 -0.0226062685 0.4716146257 -0.6382693992 0.4709697447 -0.6388932466 0.050248055 -0.0221153527
455297270.0 0.0510326298 -0.02331648 0.4646735944 -0.6437971906 0.4647031142 -0.6435806372 0.050136783 -0.0227958204
460297240.0 0.0504859366 -0.0238687371 0.4565980722 -0.6482238446 0.4567355678 -0.648490657 0.0495476523 -0.0228343301
465297210.0 0.0505506487 -0.0248115012 0.4503843519 -0.6538814979 0.4503437454 -0.6543351271 0.0488734022 -0.0236114373
470297180.0 0.0498083409 -0.0250972849 0.4425772937 -0.6585102749 0.4434780602 -0.6588537817 0.0478295121 -0.024268626
475297150.0 0.0493148054 -0.0264053186 0.4349785677 -0.6634890778 0.4355402916 -0.6630644681 0.0482562129 -0.0245529622
480297120.0 0.0498539136 -0.026876206 0.428328966 -0.6683561875 0.4284562264 -0.66850027 0.0472389844 -0.0245398345
485297090.0 0.049359784 -0.0274199453 0.4212368896 -0.6730899752 0.421146298 -0.6729527328 0.046933607 -0.0259337454
490297060.0 0.0488000907 -0.0281331778 0.413683706 -0.6778190998 0.413979135 -0.6777616782 0.0469290549 -0.0255319899
495297030.0 0.0479352926 -0.0281979721 0.4057158569 -0.6824933861 0.406073153 -0.6823126109 0.0465978602 -0.0261984872
500297000.0 0.048077935 -0.0292477232 0.3986770463 -0.6864804224 0.3983651422 -0.6864309326 0.0452821198 -0.0269897617
505296970.0 0.0471196517 -0.029614519 0.3901983017 -0.6906903416 0.3908254786 -0.6911444684 0.0447303152 -0.0273274933
510296940.0 0.046646674 -0.0301633178 0.3834305844 -0.6956529199 0.3831806278 -0.6954228248 0.0450570665 -0.0271850992
515296910.0 0.0461417182 -0.0305766907 0.3753288827 -0.6993803068 0.3753613473 -0.6997943956 0.0437200291 -0.0281306229
520296880.0 0.0458331966 -0.0316324641 0.3675777205 -0.7037571953 0.3681987761 -0.703475809 0.0442561921 -0.0283842867
525296850.0 0.0450612632 -0.0321925338 0.360635701 -0.7076400439 0.3606041187 -0.7079442165 0.0435890044 -0.0288260745
530296820.0 0.044965551 -0.0324278146 0.3526066828 -0.7106070721 0.3522025934 -0.7116210725 0.0426373175 -0.0298801621
535296790.0 0.0442199416 -0.0330227011 0.3445735667 -0.714936502 0.3448673023 -0.7152095451 0.0425028672 -0.0303120236
540296760.0 0.043945103 -0.0337026552 0.3371731408 -0.7193528488 0.336864717 -0.7197763576 0.0414061254 -0.0302082084
545296730.0 0.0434458452 -0.0336835631 0.3288414631 -0.7218251782 0.3287919393 -0.7231213043 0.041232471 -0.0309239852
550296700.0 0.0423009784 -0.0343784106 0.3210025118 -0.7264423444 0.3219983341 -0.7260979183 0.0405048078 -0.0305178161
555296670.0 0.0425121893 -0.0354659431 0.3131341973 -0.7301200088 0.3133960812 -0.7301071762 0.0400871662 -0.0313084231
560296640.0 0.0417631381 -0.0357750058 0.3056424662 -0.7337228183 0.3052677488 -0.7328989097 0.0395693375 -0.0315375454
565296610.0 0.0407524198 -0.0361904695 0.2968715055 -0.7366802447 0.296346112 -0.7366823601 0.0390376596 -0.0326890173
570296580.0 0.041091412 -0.0365869324 0.2887634768 -0.7396805475 0.2891161718 -0.7399698859 0.0387479952 -0.0318396003
575296550.0 0.0402245658 -0.0363494224 0.2808163374 -0.7417469549 0.2816680832 -0.7424697927 0.038334975 -0.0329494738
580296520.0 0.0393389924 -0.0369356022 0.2733676685 -0.7460614549 0.2726766698 -0.7461233514 0.0372408172 -0.0333480334
585296490.0 0.0392909005 -0.0381781194 0.2651918297 -0.7489968455 0.2647026233 -0.748800944 0.0367720864 -0.0340311103
590296460.0 0.0378688052 -0.0385326643 0.2562294697 -0.75206534 0.2561714802 -0.7520073076 0.0366915618 -0.0336642169
595296430.0 0.0376667296 -0.0385141586 0.2485768638 -0.7547612355 0.2484543319 -0.7548351216 0.036355261 -0.0341449925
600296400.0 0.036926594 -0.0388379756 0.2399176854 -0.7571374166 0.2401307607 -0.7572203527 0.0354650803 -0.0345109628
605296370.0 0.0367401045 -0.0387347657 0.2321016343 -0.7598232977 0.2318942055 -0.7597683378 0.0349411247 -0.0348480686
610296340.0 0.0358372842 -0.039404676 0.2239556203 -0.7621755965 0.2237771668 -0.7622529213 0.034630352 -0.0346357266
615296310.0 0.0352604128 -0.0396672595 0.2146024311 -0.7645709322 0.2149097292 -0.7645862741 0.0340851783 -0.0351806334
620296280.0 0.0345119261 -0.0403608066 0.2066334343 -0.7668406476 0.2069868765 -0.7668553392 0.0334026282 -0.0358598619
625296250.0 0.0342462783 -0.040429707 0.1981778814 -0.7692669169 0.1983749121 -0.7693049408 0.0329993103 -0.0357211863
630296220.0 0.0336585926 -0.0406316675 0.1895885503 -0.7718018031 0.1901019979 -0.7714183029 0.0319208625 -0.036027582
635296190.0 0.0330965175 -0.0409563458 0.181420632 -0.7725903894 0.1808594621 -0.7728476644 0.031711663 -0.0363951245
640296160.0 0.032289779 -0.0410595753 0.1735180981 -0.7746340179 0.1736728366 -0.7750490294 0.0315234158 -0.0364981761
645296130.0 0.031761521 -0.0412282637 0.1645515945 -0.7774875453 0.1644497113 -0.77711515 0.0296884079 -0.0373661486
650296100.0 0.030941708 -0.0409881611 0.1561506921 -0.7783871258 0.1565720097 -0.778537287 0.0297092488 -0.0371562968
655296070.0 0.0302941319 -0.0420545382 0.1477810504 -0.7803236899 0.1477891468 -0.7801247683 0.0298821049 -0.0368192906
660296040.0 0.0290427109 -0.0416363295 0.1393460484 -0.781610005 0.1397492429 -0.7816152189 0.0283600839 -0.0377473667
665296010.0 0.0294000068 -0.0423210881 0.1307485716 -0.7833580539 0.131353157 -0.7826799432 0.0275298171 -0.0374143679
670295980.0 0.0290660271 -0.0422940429 0.1221519448 -0.7845377396 0.1225417933 -0.7845189692 0.0270568686 -0.038005069
675295950.0 0.0285077572 -0.0422796402 0.1135981376 -0.7856933422 0.1140690543 -0.7861285472 0.0272090526 -0.0379473576
680295920.0 0.0274066987 -0.0425867455 0.1047332337 -0.7871686297 0.1050469589 -0.7871902371 0.0263756656 -0.0384247165
685295890.0 0.0267692503 -0.0427522897 0.096635758 -0.7880536949 0.0959798148 -0.7888084897 0.025714148 -0.0381094461
690295860.0 0.0267297379 -0.0430355973 0.0880461217 -0.7884526621 0.0871684184 -0.7890600588 0.0256387003 -0.038014392
695295830.0 0.0263243301 -0.0434888381 0.0788044008 -0.7899029469 0.0787597004 -0.7903435983 0.0239051582 -0.038587126
700295800.0 0.0257204681 -0.0435663666 0.0703771106 -0.7908298394 0.0702625193 -0.7915787207 0.0236902826 -0.0392854426
705295770.0 0.0248313388 -0.043625615 0.062199358 -0.7918241142 0.0620794827 -0.7917638967 0.0231694241 -0.0393614416
710295740.0 0.0241978742 -0.0433616507 0.0534894994 -0.7919128182 0.0533276082 -0.7917647623 0.0216588918 -0.0390130529
715295710.0 0.0236369969 -0.0437735531 0.0449641439 -0.7930421006 0.0451489814 -0.7934025212 0.0217689479 -0.0398799607
720295680.0 0.0227624687 -0.0440683717 0.0358069971 -0.7929462971 0.0362121012 -0.7935402176 0.0215061555 -0.0389937842
725295650.0 0.0224913992 -0.0440589172 0.0273460712 -0.7932199714 0.0272829606 -0.7933509563 0.0208264087 -0.0393139759
730295620.0 0.0210967161 -0.0445590882 0.0188591574 -0.7939723972 0.0187339179 -0.7941614148 0.0202107303 -0.0404627515
735295590.0 0.0212303287 -0.0441319861 0.0105543979 -0.7936410661 0.01065806 -0.7936192868 0.0195429282 -0.0394560707
740295560.0 0.0201823211 -0.044064694 0.0011761021 -0.7931682369 0.0011731766 -0.7940294889 0.0197137967 -0.0399888269
745295530.0 0.0198730055 -0.0448266675 -0.0069080928 -0.7938850264 -0.0070292847 -0.7940735326 0.0179412783 -0.0398888716
750295500.0 0.0191419875 -0.0448178349 -0.0156514528 -0.7933756645 -0.0157219313 -0.7937308455 0.0180590532 -0.040390413
755295470.0 0.0188844156 -0.0446339808 -0.0244030815 -0.7935910269 -0.0241835007 -0.7937139935 0.0167679108 -0.0403022751
760295440.0 0.0178483634 -0.044626688 -0.0331787356 -0.7930709854 -0.0331477347 -0.7935308388 0.0158080092 -0.0404671709
765295410.0 0.0171661439 -0.0451755187 -0.0409463314 -0.7925469102 -0.0410825486 -0.793000282 0.0165419028 -0.0397211223
770295380.0 0.0169378339 -0.0449162456 -0.0500798396 -0.7920612194 -0.0502465756 -0.7923073123 0.0156202754 -0.0398548409
775295350.0 0.0160349931 -0.0448808723 -0.0582352914 -0.791423075 -0.0582743687 -0.7918099268 0.0143849454 -0.0409408259
780295320.0 0.0156839824 -0.0449266048 -0.0668254062 -0.7914635722 -0.0669284416 -0.7908292617 0.0139367733 -0.039908922
785295290.0 0.0147022925 -0.0445877942 -0.0757798745 -0.7888920879 -0.0757839944 -0.7900505998 0.0129091462 -0.0405303069
790295260.0 0.0142056469 -0.044612258 -0.0841337023 -0.7894710699 -0.0846362083 -0.7896549842 0.0132509597 -0.0402197447
795295230.0 0.0133011723 -0.0447710875 -0.092247101 -0.7878597622 -0.0925098372 -0.788150548 0.0123326768 -0.0394898337
800295200.0 0.013050222 -0.0446421608 -0.1022069053 -0.7876265237 -0.1022082329 -0.7875722378 0.0119318673 -0.0401906444
805295170.0 0.0117226877 -0.0449991475 -0.1098201659 -0.7854510744 -0.1097601966 -0.7859482 0.0107883758 -0.0404460546
810295140.0 0.0112762105 -0.0447702501 -0.1182337936 -0.784469155 -0.1182434041 -0.7849607526 0.0107559452 -0.0398556279
815295110.0 0.0107697113 -0.0444571382 -0.1276241584 -0.7831887056 -0.1276631269 -0.7832118649 0.0096061378 -0.0405762545
820295080.0 0.010274027 -0.0449368665 -0.1355094052 -0.7820273494 -0.1358238836 -0.7823271672 0.0090140649 -0.0402158606
825295050.0 0.0095550915 -0.0447639352 -0.1441958444 -0.7799726653 -0.1437158658 -0.7801741585 0.0089784064 -0.0396516404
830295020.0 0.0088316437 -0.0442225269 -0.1528364473 -0.7789670224 -0.1530625082 -0.7789945899 0.0080952625 -0.04026211
