!Created with skrf (http://scikit-rf.org).
# Hz S RI R 50.0 
!freq ReS11 ImS11 ReS21 ImS21 ReS12 ImS12 ReS22 ImS22
300000.0 -0.2412725952 -0.087535703 0.4719873942 0.0575294233 0.4701584423 0.0551540176 -0.2389143587 -0.0947307623
5299970.0 -0.2449640772 0.0065153431 0.4750486353 0.0051223694 0.474782893 0.0050591603 -0.2409641554 0.0074233068
10299940.0 -0.2417985646 0.017991439 0.4768432918 0.0059602071 0.4767045153 0.0061859448 -0.2376002791 0.0207394641
15299910.0 -0.2378047908 0.0269731964 0.4803396038 0.0075425035 0.4807976797 0.0074488507 -0.233081777 0.0301688572
20299880.0 -0.2329028825 0.03409428 0.4851436918 0.0083165615 0.4849057032 0.0075511868 -0.2278236799 0.0383850758
25299850.0 -0.228010504 0.0402881888 0.4901959109 0.0069689919 0.4903553578 0.0071350671 -0.221714086 0.044535914
30299820.0 -0.2225485154 0.0451260586 0.4956009078 0.0049436021 0.4953544166 0.0048487827 -0.2159995464 0.0502948115
35299790.0 -0.2174995991 0.0491415469 0.501073134 0.0013327278 0.5008992961 0.0015368672 -0.2104112343 0.0544081369
40299760.0 -0.212430616 0.0525864679 0.5060909741 -0.0024964463 0.5062081322 -0.0024204274 -0.2054411705 0.0575916075
45299730.0 -0.2078712204 0.0548933466 0.5102559247 -0.0073536543 0.5107146455 -0.0071380421 -0.200289342 0.0606117072
50299700.0 -0.2038315167 0.0569175473 0.5152082858 -0.0128667485 0.5149368495 -0.0122621225 -0.195572058 0.0624823226
55299670.0 -0.2000528384 0.0583568632 0.5185439568 -0.0189272347 0.5185481272 -0.0184278208 -0.1912029444 0.0641948715
60299640.0 -0.1960449845 0.0601675925 0.5219654036 -0.0247580782 0.5221538831 -0.0246474966 -0.1875104508 0.0652589616
65299610.0 -0.1930411961 0.0610652807 0.5248026453 -0.0314177814 0.5250552589 -0.0312978357 -0.184300788 0.0666680423
70299580.0 -0.1898249487 0.0621685764 0.527249457 -0.0376352903 0.5269033082 -0.0379771987 -0.1807861026 0.0675617776
75299550.0 -0.1870611295 0.0627951841 0.5289005624 -0.0444591121 0.5291140738 -0.0450454689 -0.1779437412 0.068582849
80299520.0 -0.1846304314 0.0637757558 0.5309242917 -0.0517530436 0.5309929736 -0.0518478802 -0.175105107 0.0693999789
85299490.0 -0.1827396154 0.0642229251 0.5322158805 -0.0581682722 0.5321408855 -0.0580452295 -0.1728417014 0.0695604374
90299460.0 -0.1804154583 0.0648203861 0.5328516611 -0.0651353411 0.533579058 -0.0651968904 -0.1704469233 0.0704401347
95299430.0 -0.1782982576 0.0654295548 0.5342204063 -0.0721051827 0.5341741154 -0.07237723 -0.1682834596 0.0711268865
100299400.0 -0.1766716887 0.0664041616 0.5337481019 -0.0790822263 0.5342752946 -0.0791769439 -0.1660966967 0.0712853467
105299370.0 -0.1750112644 0.0668377639 0.5343887719 -0.0860583051 0.5348145203 -0.0860276414 -0.1641854772 0.0724758477
110299340.0 -0.1734418672 0.0675215642 0.535336512 -0.092418506 0.5344914669 -0.0925209343 -0.1628449588 0.0730865834
115299310.0 -0.1717345695 0.0681862337 0.5347658346 -0.0996569571 0.5345322805 -0.0994775118 -0.1609601649 0.0735660176
120299280.0 -0.1708822519 0.0684815275 0.5344324229 -0.1064638915 0.5343037093 -0.1065623738 -0.1595018868 0.074714059
125299250.0 -0.1695684616 0.0692432525 0.5342448299 -0.1130207655 0.5344143437 -0.1131684185 -0.1585838175 0.074816777
130299220.0 -0.1684976708 0.0701878052 0.5335078504 -0.1198836882 0.5335303211 -0.1195925095 -0.1571094188 0.0756646738
135299190.0 -0.1674834516 0.0712732028 0.5333407415 -0.1265694516 0.5325272235 -0.1264096884 -0.1556841598 0.076844551
140299160.0 -0.1666801791 0.0720670852 0.5320866317 -0.1331231125 0.5319331357 -0.1335979864 -0.1546494496 0.0779002203
145299130.0 -0.1654053511 0.0727431301 0.5314790812 -0.1397395358 0.5307816433 -0.1396440021 -0.1536316635 0.0787859826
150299100.0 -0.1645705763 0.0740332243 0.5300499144 -0.1459703898 0.5298185105 -0.1461288514 -0.1522173228 0.0800426358
155299070.0 -0.163772313 0.0745986154 0.528716031 -0.1529586218 0.5287023388 -0.1526414167 -0.1511852551 0.0812428521
160299040.0 -0.162746783 0.0759356 0.5271898285 -0.1593456134 0.527035091 -0.1593816577 -0.1504523516 0.0820521904
165299010.0 -0.1621706453 0.0770150337 0.5260653261 -0.1662769651 0.5258918944 -0.165704809 -0.1491821155 0.0840633326
170298980.0 -0.1613982786 0.0778690779 0.524083437 -0.1721384953 0.5245597437 -0.1720201894 -0.1482768749 0.0847822091
175298950.0 -0.160703972 0.0788217178 0.523117221 -0.1780971613 0.5224389848 -0.178298005 -0.1474468203 0.0859011654
180298920.0 -0.1601645016 0.0798863598 0.521251333 -0.1842794139 0.5209653826 -0.1843072048 -0.1465124046 0.0872902839
185298890.0 -0.158890177 0.0809779432 0.5190719034 -0.1906816337 0.5190304005 -0.1902956397 -0.1455796603 0.0884885731
190298860.0 -0.1583571757 0.0824941663 0.517715251 -0.1970846768 0.5175275616 -0.1969905608 -0.144668769 0.0895598429
195298830.0 -0.1577878278 0.0832388477 0.515349934 -0.2031732111 0.5155142654 -0.2026188333 -0.143735907 0.0910923388
200298800.0 -0.1569222378 0.0846289164 0.5129147104 -0.2092334624 0.5133596211 -0.2093835073 -0.1433839753 0.0924736803
205298770.0 -0.1560319083 0.0859155983 0.510582266 -0.215439603 0.5106891407 -0.2148013904 -0.1421278209 0.0932176579
210298740.0 -0.1553037713 0.0869274665 0.5088107864 -0.2207689218 0.5084347105 -0.2210943669 -0.1407103932 0.0952093593
215298710.0 -0.1551618541 0.0885085968 0.5065531338 -0.2270354067 0.5063310644 -0.2271537487 -0.1403942991 0.0965648318
220298680.0 -0.1539303305 0.0892715564 0.5033383082 -0.2329219668 0.5039462605 -0.2329897279 -0.1396284928 0.0977761791
225298650.0 -0.1535624356 0.0906655506 0.5015254404 -0.2390853424 0.5015842247 -0.2386116554 -0.1388430569 0.0987427583
230298620.0 -0.1527561274 0.0924136068 0.4992237711 -0.2444434476 0.4995311201 -0.2445204358 -0.1382477235 0.1001498164
235298590.0 -0.1517842283 0.0937053129 0.496090714 -0.2501239725 0.4964991459 -0.25018227 -0.1367014896 0.1015562117
240298560.0 -0.1511438999 0.0950177639 0.4939416143 -0.2564797233 0.493530073 -0.2563488642 -0.135876112 0.1032846979
245298530.0 -0.150481041 0.0959955889 0.4912276 -0.2621903028 0.4908137339 -0.2618656968 -0.1346906083 0.1037295922
250298500.0 -0.149334902 0.09763388 0.4875755853 -0.2672726045 0.487408395 -0.2668336037 -0.1340307719 0.1055168283
255298470.0 -0.1485942569 0.0985650511 0.4847230066 -0.2727171579 0.4850108267 -0.2727553237 -0.1331043107 0.1066291573
260298440.0 -0.1480296968 0.0998967008 0.4822787406 -0.2786503613 0.4820842837 -0.2783182046 -0.1311705779 0.1083608714
265298410.0 -0.1468121097 0.1017679624 0.4792654885 -0.2841749809 0.479284445 -0.2838574506 -0.1306894156 0.1099014054
270298380.0 -0.1458757557 0.1030344564 0.4760404506 -0.2890365399 0.4762433467 -0.2894022176 -0.1297896098 0.1111899661
275298350.0 -0.1450009259 0.1043225711 0.4728445217 -0.2952839289 0.4728949922 -0.2948693778 -0.1283020708 0.1122663148
280298320.0 -0.1437654145 0.105875304 0.4699283732 -0.3003444288 0.4697797374 -0.2999622653 -0.1270112138 0.1137626276
285298290.0 -0.1430356213 0.1071385761 0.4665802537 -0.3054299532 0.46652165 -0.3058998845 -0.1258187317 0.1150853706
290298260.0 -0.1418683674 0.1083554468 0.4627343959 -0.3103306782 0.4631923886 -0.3107654422 -0.124458198 0.1165028172
295298230.0 -0.1407556279 0.1096113773 0.4595267732 -0.3161313475 0.4595932868 -0.3160031449 -0.1226618344 0.1175526521
300298200.0 -0.1402952184 0.1110038381 0.4568961131 -0.321103271 0.456740495 -0.3217042981 -0.1220541207 0.1192247773
305298170.0 -0.1388102814 0.1122813006 0.4522172185 -0.3270726719 0.4527199878 -0.3262469575 -0.1200773266 0.1200215603
310298140.0 -0.1380459674 0.1136316768 0.4491060975 -0.3315628563 0.4491746296 -0.3317235428 -0.1190360695 0.1215013048
315298110.0 -0.1369327112 0.1144497661 0.4454625581 -0.3365723685 0.4458633902 -0.336770642 -0.1175782718 0.1225931539
320298080.0 -0.1357676137 0.1158715287 0.4414291482 -0.3427133977 0.4418009651 -0.3418624325 -0.1163729452 0.1243318749
325298050.0 -0.1350908617 0.1170664892 0.438074343 -0.3475099487 0.4379639894 -0.3468277315 -0.1152966523 0.12539155
330298020.0 -0.1341637534 0.1181818433 0.4331774453 -0.3521438386 0.4341619697 -0.352075471 -0.1143659379 0.126653551
335297990.0 -0.1330080892 0.1195219104 0.4298743306 -0.3565726812 0.4298172542 -0.3569122312 -0.1135861558 0.1284997222
340297960.0 -0.1325935867 0.1209548519 0.4257691181 -0.3613327379 0.425737299 -0.3619075966 -0.1114204221 0.1297558507
345297930.0 -0.131450359 0.1225773448 0.4218757483 -0.3663356901 0.4213469686 -0.3664519233 -0.1104763024 0.1308541412
350297900.0 -0.1303398823 0.1234822481 0.4168908446 -0.3710059396 0.4173746956 -0.3709460518 -0.1095503606 0.1326806897
355297870.0 -0.1292756255 0.1256770071 0.4129470081 -0.3755943815 0.4136736371 -0.3751193917 -0.1083396796 0.1339133865
360297840.0 -0.128060914 0.1267672431 0.4096457997 -0.3798566787 0.4095345145 -0.3797720658 -0.1067398369 0.1352266973
365297810.0 -0.127563811 0.1284890891 0.4052186766 -0.3847288129 0.4054276726 -0.3848500327 -0.1053916148 0.1370132749
370297780.0 -0.1259422994 0.1295815733 0.4003686375 -0.3888291765 0.4008797452 -0.3885815445 -0.1036087023 0.1382021712
375297750.0 -0.1246118132 0.1309233524 0.3965031107 -0.3930807842 0.3971098502 -0.3933715122 -0.1025770878 0.1392733757
380297720.0 -0.1236468648 0.1320949465 0.3923850427 -0.3974779319 0.3924005507 -0.3967892487 -0.1014304881 0.1403470025
385297690.0 -0.1225769007 0.133233547 0.3876093237 -0.4017026545 0.387562448 -0.4018417055 -0.099594217 0.1417622643
390297660.0 -0.1212961625 0.1350793099 0.3837490995 -0.4062676696 0.3833343702 -0.4060105083 -0.098466203 0.1429905819
395297630.0 -0.1198868861 0.1362202995 0.378845664 -0.4104979961 0.3791535483 -0.410640356 -0.0963549604 0.1444272011
400297600.0 -0.1183132735 0.1377437114 0.3738398576 -0.4148642187 0.3745990074 -0.4144823415 -0.0951664406 0.1457786453
405297570.0 -0.1176939499 0.1386208248 0.3696501885 -0.4184150263 0.3696309212 -0.4183381016 -0.0938944122 0.146749057
410297540.0 -0.1161323325 0.1398733506 0.3651192251 -0.4225943529 0.3656767406 -0.4230148251 -0.0921818488 0.1482312356
415297510.0 -0.1145839493 0.1410770949 0.3600590327 -0.4267965354 0.3607949899 -0.4269160166 -0.0905575441 0.1493676996
420297480.0 -0.1132353074 0.1429961992 0.3553667316 -0.4307409637 0.3558834195 -0.4307593335 -0.0890884091 0.1500607571
425297450.0 -0.1120256727 0.1435290209 0.3512224041 -0.4343592584 0.3515372943 -0.4345860632 -0.0878714069 0.1516905782
430297420.0 -0.1105760718 0.1447607967 0.3462496815 -0.4379429827 0.3465609669 -0.437903478 -0.0861471951 0.1522422331
435297390.0 -0.1095697894 0.1460392425 0.341118647 -0.4420626354 0.3410615582 -0.442201857 -0.0837705747 0.1535372496
440297360.0 -0.1079219687 0.1474560925 0.3366524301 -0.4457652565 0.3366350622 -0.4457088202 -0.0826659993 0.1544756967
445297330.0 -0.1066411706 0.1484096969 0.3319769094 -0.4494189535 0.3321039417 -0.4491422137 -0.0808476862 0.1552734145
450297300.0 -0.1049942347 0.1493695408 0.3264551207 -0.4525476891 0.3266937698 -0.4530775028 -0.079076349 0.1559805777
455297270.0 -0.1038698206 0.1506095812 0.3217142875 -0.4563945092 0.321878593 -0.456212609 -0.0774246545 0.1572936854
460297240.0 -0.1023517692 0.1516918541 0.3166601359 -0.4595446435 0.3166686753 -0.4598545376 -0.0758045938 0.1584150645
465297210.0 -0.1007762009 0.152743155 0.3118571925 -0.4631386219 0.3120027245 -0.4637505709 -0.0734515074 0.1590897314
470297180.0 -0.0993445085 0.153612103 0.3063306953 -0.466554887 0.3069834837 -0.4667712989 -0.0717409944 0.160368731
475297150.0 -0.0977536628 0.1546044027 0.3013421357 -0.4692274531 0.3010550968 -0.4695439005 -0.0697734423 0.160754893
480297120.0 -0.0964054857 0.156356656 0.2963661716 -0.473329854 0.2964445052 -0.4732372675 -0.0679661903 0.1618459867
485297090.0 -0.0949607913 0.1572061583 0.291611078 -0.4761255682 0.2916545409 -0.4760876944 -0.0661156224 0.1626549735
490297060.0 -0.0937717359 0.1582088597 0.2863832656 -0.4798433812 0.2861858033 -0.479336162 -0.0644582574 0.1638070539
495297030.0 -0.0919087498 0.1593780785 0.280719455 -0.4823600502 0.2811937181 -0.4825122497 -0.0627643627 0.1648016473
500297000.0 -0.0904370912 0.1602519261 0.2753417599 -0.4851409278 0.2751188426 -0.4854083031 -0.0606775814 0.1662292907
505296970.0 -0.0887995535 0.1611554872 0.2701586317 -0.4877334049 0.269978254 -0.4885552838 -0.0591411961 0.1666558099
510296940.0 -0.0875604097 0.1622205028 0.264916874 -0.4912938038 0.2646010846 -0.4914733742 -0.0571589122 0.1674764499
515296910.0 -0.0856103435 0.1633161233 0.2591910315 -0.4942665036 0.2593862608 -0.4940815921 -0.0550397326 0.1684835423
520296880.0 -0.0843175611 0.1640232365 0.2540127424 -0.4971693299 0.2537474882 -0.4967329189 -0.0532163427 0.1688479446
525296850.0 -0.0823898553 0.1647323917 0.2484410884 -0.4995539781 0.2486014141 -0.4998499554 -0.0514863212 0.1698034021
530296820.0 -0.0807835513 0.1661176588 0.243325534 -0.5025152753 0.2435202031 -0.502324771 -0.0498066003 0.1706422133
535296790.0 -0.0797624851 0.1669975625 0.2380533021 -0.5049745098 0.2378464491 -0.5043936052 -0.048095044 0.1708937969
540296760.0 -0.0782079558 0.1679095075 0.2327906654 -0.5074870342 0.2322831136 -0.5075564111 -0.046086362 0.1723577988
545296730.0 -0.0762449019 0.168765901 0.2264295014 -0.5097639122 0.2265666006 -0.5097844178 -0.0442879886 0.1727410521
550296700.0 -0.0744155333 0.1698139613 0.2214432411 -0.5120995993 0.2213100961 -0.5126309909 -0.0425694678 0.1738092629
555296670.0 -0.0730545089 0.1706020994 0.2156750335 -0.5148491446 0.2159676113 -0.5144642466 -0.0402833213 0.1743304453
560296640.0 -0.070974584 0.1718635366 0.2098461362 -0.5175066608 0.209836518 -0.5172559545 -0.0384877993 0.1747712144
565296610.0 -0.0696673714 0.1721668417 0.204279401 -0.5191290657 0.204689545 -0.5193309366 -0.0367384038 0.1750520915
570296580.0 -0.0683243199 0.1730975185 0.1989003473 -0.5220300229 0.1980637395 -0.5214500152 -0.0349614701 0.1762492078
575296550.0 -0.0663414738 0.1741845828 0.1933297301 -0.5236673885 0.1928104445 -0.5236274083 -0.0329736925 0.1765522322
580296520.0 -0.0645460194 0.1749446328 0.1871665782 -0.5257483387 0.1871243972 -0.5257383502 -0.0309223514 0.1770659959
585296490.0 -0.0630436139 0.1753580894 0.1813633874 -0.5274170321 0.1819447507 -0.5274393909 -0.0289299622 0.1778045994
590296460.0 -0.0611708449 0.1764300502 0.1759349875 -0.5288304987 0.1761321876 -0.5290106696 -0.027670158 0.1778245159
595296430.0 -0.0591924971 0.1770626932 0.1694756778 -0.5313450135 0.1696138352 -0.5313142373 -0.0252295433 0.1778809811
600296400.0 -0.0581458932 0.1777823213 0.1643067102 -0.5333145019 0.1643123279 -0.5329096336 -0.0235552693 0.1786267377
605296370.0 -0.0562600495 0.17851522 0.1585096174 -0.5345027638 0.1586932766 -0.5344648422 -0.0212113858 0.178792539
610296340.0 -0.0542871147 0.1790806743 0.1524444088 -0.5360779128 0.1526215669 -0.536127601 -0.0191378941 0.1792355628
615296310.0 -0.0522138937 0.1794159851 0.1466027112 -0.53761754 0.1467577906 -0.5381298263 -0.0168073021 0.1796101456
620296280.0 -0.0507815913 0.1799692455 0.1411414124 -0.5390898907 0.1410111225 -0.5393131066 -0.0154027783 0.1799158462
625296250.0 -0.0494182713 0.1803565589 0.1356040138 -0.540837739 0.1352988496 -0.5412504009 -0.0126512779 0.1797841413
630296220.0 -0.0467551023 0.1814225743 0.1285236544 -0.5423544842 0.1291593923 -0.5419926911 -0.011058462 0.1805864475
635296190.0 -0.0458499349 0.1817053361 0.1234583155 -0.5431737142 0.1232086478 -0.5437144219 -0.009016258 0.1805742514
640296160.0 -0.0440954282 0.1827153383 0.1177149282 -0.5449811008 0.1175617759 -0.5448485903 -0.0068189944 0.1806029796
645296130.0 -0.0422497622 0.1835247721 0.1112845594 -0.545828366 0.1122056028 -0.5464006755 -0.0047178887 0.1812878076
650296100.0 -0.0405291162 0.1837800165 0.1058682231 -0.5469246523 0.1057826047 -0.5473826753 -0.0023880564 0.1809296645
655296070.0 -0.0387329757 0.1840505217 0.0997840543 -0.5484167702 0.1001746222 -0.548482839 -0.0004401582 0.181616038
660296040.0 -0.0371169953 0.1841846448 0.0937962897 -0.5491136961 0.0942744781 -0.5494665022 0.0015545492 0.1816507091
665296010.0 -0.0349023042 0.1847636176 0.0877164432 -0.5502747642 0.0878853273 -0.5498592952 0.0035025442 0.1820364617
670295980.0 -0.0339969676 0.1856683875 0.0823544215 -0.551018465 0.0816624141 -0.5508594693 0.0055821978 0.1819932578
675295950.0 -0.0317876201 0.1862603147 0.0761479805 -0.5514060154 0.0765924284 -0.5513387744 0.0070075191 0.1824059046
680295920.0 -0.0302137216 0.1865037092 0.0704257057 -0.5524190018 0.0699582047 -0.5528416885 0.0094056858 0.182934923
685295890.0 -0.0279331293 0.1873541545 0.064096637 -0.5535520915 0.063992916 -0.5533214173 0.0113576552 0.1823010066
690295860.0 -0.0260891607 0.1875732235 0.0582690488 -0.5538927036 0.0584484064 -0.5541195844 0.0134947142 0.1832247227
695295830.0 -0.0244026704 0.1877744988 0.0527102207 -0.5542287124 0.0519375382 -0.5541580414 0.0154887699 0.1828135679
700295800.0 -0.022398032 0.1876808064 0.0460690127 -0.5547731041 0.0465685733 -0.5548171028 0.017173532 0.18385336
705295770.0 -0.0210009896 0.1888190828 0.0401336359 -0.555310918 0.0405730211 -0.5560202803 0.0193385794 0.1834917979
710295740.0 -0.0186706837 0.1889017109 0.0343359713 -0.5561689804 0.0345126143 -0.5563897221 0.0214427683 0.1827170652
715295710.0 -0.0172462376 0.1891559065 0.0288227722 -0.5560934365 0.0280189961 -0.556006183 0.0238973939 0.1828553167
720295680.0 -0.0152455932 0.1896085697 0.022471621 -0.5563930243 0.0227702149 -0.556347776 0.0254779866 0.1832028286
725295650.0 -0.0135625282 0.1897962255 0.0160717586 -0.5564896096 0.0165028862 -0.5568972487 0.0272261308 0.1829790201
730295620.0 -0.0114396886 0.1904563216 0.0102604976 -0.5563164473 0.0103116145 -0.556886201 0.0292093129 0.1823294891
735295590.0 -0.0096700573 0.1904447871 0.0043386598 -0.5571843767 0.0042133682 -0.5568468637 0.0307075782 0.1822136046
740295560.0 -0.0082548311 0.1907374599 -0.0015385917 -0.5563007864 -0.001621698 -0.5568983588 0.0337974949 0.1823955692
745295530.0 -0.0062197971 0.1913303721 -0.0078132448 -0.5560327109 -0.0078258781 -0.556523228 0.0354665847 0.181643984
750295500.0 -0.0038612607 0.1910072274 -0.0137531114 -0.556073966 -0.0139691287 -0.556983594 0.0372284795 0.1819511308
755295470.0 -0.0019812471 0.1912036342 -0.0193940434 -0.5560755044 -0.0197328639 -0.5565947064 0.0395938194 0.1810734132
760295440.0 -0.0005221033 0.1913043938 -0.0252362433 -0.5561704874 -0.0256995436 -0.5564439141 0.041432197 0.1806834951
765295410.0 0.0014740647 0.191519569 -0.0318008611 -0.5556729811 -0.0323808893 -0.5556951333 0.0435967612 0.1806606019
770295380.0 0.0029208075 0.1916581697 -0.0376509615 -0.5556510926 -0.0377195717 -0.555352612 0.0449918828 0.1801676341
775295350.0 0.0048610103 0.1912600489 -0.0437448755 -0.5543689508 -0.0434184472 -0.5542539391 0.0468245499 0.1798645535
780295320.0 0.0072169657 0.1916806062 -0.049556693 -0.5543480519 -0.0492682179 -0.5542464845 0.0489491493 0.179208465
785295290.0 0.0084825108 0.1915152005 -0.0561092696 -0.5532643482 -0.0555857882 -0.5535507544 0.0515590865 0.1789691922
790295260.0 0.0109426985 0.1921787005 -0.0613132382 -0.553101674 -0.0610399016 -0.553033701 0.0533208984 0.1785810488
795295230.0 0.0125385634 0.1915712424 -0.0672305777 -0.5518584204 -0.0668245179 -0.5524801591 0.0557281254 0.1781074925
800295200.0 0.0141190878 0.1918289521 -0.0737989012 -0.5512221567 -0.0730992018 -0.5511391501 0.0574501452 0.1773599628
805295170.0 0.0162327566 0.1916902178 -0.0793889288 -0.5501685863 -0.0797925501 -0.5509460865 0.0592091302 0.1770423772
810295140.0 0.0179283779 0.1915945473 -0.0850718489 -0.5491889162 -0.085145833 -0.5498688723 0.0616009672 0.1766770721
815295110.0 0.0199371802 0.1911776355 -0.0911768535 -0.5484093037 -0.0910757077 -0.5483893632 0.0636226068 0.1759606603
820295080.0 0.0215136101 0.1919386177 -0.0970272815 -0.5474877553 -0.0968945446 -0.5475119644 0.065297684 0.1754945078
825295050.0 0.0239832027 0.1915178523 -0.1024552633 -0.5460981991 -0.102769868 -0.546420161 0.0677837438 0.1748205876
830295020.0 0.0257158032 0.1913624108 -0.1086532113 -0.545092322 -0.1085706422 -0.5449467704 0.0702568768 0.1743343298
