!Created with skrf (http://scikit-rf.org).
# Hz S RI R 50.0 
!freq ReS11 ImS11 ReS21 ImS21 ReS12 ImS12 ReS22 ImS22
300000.0 -0.3236796703 -0.0817296117 0.3762466779 0.0425363144 0.3751359022 0.0409264795 -0.3217160808 -0.100301058
5299970.0 -0.3267330446 0.0042436752 0.378260136 0.0024876661 0.3784517568 0.0025157187 -0.3238739225 0.004743236
10299940.0 -0.3241129266 0.0132735398 0.379133849 0.0018900148 0.3795954321 0.0022814569 -0.3214794088 0.0161861441
15299910.0 -0.3216505922 0.0204654746 0.3817312853 0.0022362892 0.3819517747 0.0019785774 -0.3182685338 0.0237353832
20299880.0 -0.3187517747 0.0262593708 0.3852090139 0.0015518447 0.385128207 0.00141287 -0.3146087347 0.0303391041
25299850.0 -0.3155307317 0.0315472213 0.3881532264 0.0001139606 0.3882181436 4.77392e-05 -0.3108947714 0.036213107
30299820.0 -0.3130984467 0.035946377 0.3915128078 -0.0023833257 0.3914759526 -0.0021012593 -0.3072853092 0.0410919122
35299790.0 -0.310050323 0.0400532168 0.3948527377 -0.005405651 0.3950325375 -0.0054856412 -0.3036684454 0.0452701086
40299760.0 -0.3070420941 0.0436669522 0.397771807 -0.008739923 0.3979689417 -0.0088396849 -0.3000787118 0.0486536397
45299730.0 -0.3047285216 0.0467860204 0.4005734065 -0.0129237083 0.4009458503 -0.0127815746 -0.2971670727 0.0520926048
50299700.0 -0.3026398693 0.0493673622 0.4037863015 -0.0171826593 0.4034906561 -0.016955845 -0.2940578914 0.0545813428
55299670.0 -0.3003720045 0.0520960392 0.4056139463 -0.0224144006 0.4055292166 -0.0220022467 -0.2916147121 0.0571570951
60299640.0 -0.2980946447 0.0549935477 0.4074269843 -0.0273156411 0.4078193758 -0.0268866161 -0.2891983102 0.0594311063
65299610.0 -0.2963976933 0.0573846815 0.4090549029 -0.0319449219 0.4092806596 -0.0320476095 -0.2872023043 0.0616588886
70299580.0 -0.2949400664 0.0601112558 0.4104547946 -0.037049875 0.4103360662 -0.0369969087 -0.2850317721 0.0638307714
75299550.0 -0.2931482746 0.0626138858 0.4110780129 -0.0422404672 0.411418622 -0.0421744217 -0.2835397516 0.0658538439
80299520.0 -0.2917080602 0.0651825952 0.4125310715 -0.0475121113 0.412657441 -0.0474654276 -0.2814904032 0.068314927
85299490.0 -0.2904119233 0.0667340073 0.4127456193 -0.0525767011 0.4130488166 -0.0522923553 -0.2801828088 0.0701080217
90299460.0 -0.2889101474 0.0694561254 0.4130265136 -0.0579954968 0.4134735476 -0.0579336364 -0.2784511698 0.0719744999
95299430.0 -0.2874253023 0.071683231 0.4135710888 -0.0632405993 0.413560277 -0.0630646945 -0.2765942483 0.0745741863
100299400.0 -0.2864635672 0.0741857445 0.4130463 -0.0684317148 0.413522935 -0.068333411 -0.275383543 0.0759200964
105299370.0 -0.2850465187 0.0765384859 0.4133482165 -0.0733645321 0.4133602446 -0.0736264116 -0.2738656873 0.0783233295
110299340.0 -0.2841657692 0.0787514918 0.4133278814 -0.0786515691 0.4131384765 -0.0784629817 -0.2730489263 0.0801261804
115299310.0 -0.2827853854 0.0813276692 0.4127893107 -0.0842226244 0.4128571968 -0.0839969855 -0.2716503832 0.0827419209
120299280.0 -0.2819967573 0.083152136 0.4122171336 -0.0889370886 0.4125911508 -0.0887341902 -0.2702897984 0.0844843166
125299250.0 -0.2811495797 0.0854650047 0.4118539345 -0.0939567382 0.4120744428 -0.0938956581 -0.2696896613 0.0863632185
130299220.0 -0.2802857136 0.0883149534 0.4110956218 -0.0992190562 0.4113226975 -0.0991488308 -0.2683395439 0.0885401841
135299190.0 -0.2792687768 0.090711255 0.4106104103 -0.1042827008 0.4103445392 -0.1039289994 -0.2674142342 0.0910136722
140299160.0 -0.2785308875 0.0933222551 0.4097109039 -0.1095897526 0.4097572724 -0.1092426562 -0.2661566944 0.0935172115
145299130.0 -0.2774972955 0.0957054781 0.4090929379 -0.1139487275 0.4087755772 -0.1140078046 -0.2651620388 0.0957828058
150299100.0 -0.2764188179 0.09840095 0.407748099 -0.1190330953 0.4075688813 -0.1186649318 -0.264413993 0.0983747349
155299070.0 -0.2757115954 0.1007719388 0.4068712113 -0.1244203891 0.4066312226 -0.1239369301 -0.263157569 0.1005796829
160299040.0 -0.2744292278 0.1031751827 0.4052084679 -0.128655675 0.4051025905 -0.1290821773 -0.2623896199 0.103142813
165299010.0 -0.2736912069 0.1060195742 0.4043485822 -0.1337492665 0.4044982185 -0.1335485116 -0.2611711514 0.1056703918
170298980.0 -0.2730960978 0.1084462757 0.402779971 -0.1383552239 0.4030524682 -0.1381977453 -0.2600980287 0.1080207543
175298950.0 -0.2720558571 0.1113032824 0.401850399 -0.1430187891 0.4012949615 -0.143210095 -0.2595220434 0.1108639443
180298920.0 -0.2709283371 0.113971525 0.3999614506 -0.1480485661 0.4000000806 -0.1478360455 -0.2584212855 0.113531439
185298890.0 -0.2694618609 0.1164869224 0.398410061 -0.1527674831 0.398346325 -0.1526746439 -0.2570480836 0.1160091014
190298860.0 -0.2686126616 0.1192867316 0.3967452187 -0.1574940967 0.3969312013 -0.1572847999 -0.255989895 0.1184196378
195298830.0 -0.2677950267 0.1216493908 0.3954412661 -0.1618019585 0.3954962145 -0.1617680931 -0.2551568568 0.1210538213
200298800.0 -0.2664578891 0.1247168525 0.3932990893 -0.1668271403 0.393475096 -0.1669608369 -0.2542627012 0.1235381533
205298770.0 -0.2652299873 0.1273726747 0.3912125995 -0.1716014791 0.3918548956 -0.1708248484 -0.2534969076 0.1255146327
210298740.0 -0.2644628354 0.1301009845 0.3895663074 -0.1753398945 0.3898419073 -0.1753620018 -0.252116227 0.1285308097
215298710.0 -0.2636640925 0.1327625815 0.3881031204 -0.1803805878 0.3876195917 -0.1803528575 -0.251138511 0.1311538194
220298680.0 -0.2620558974 0.1351836279 0.3854334413 -0.1846580005 0.386049247 -0.1847738406 -0.2501205499 0.1335259484
225298650.0 -0.260985186 0.137866839 0.3840948738 -0.1891061229 0.3839682791 -0.1892625397 -0.2490299673 0.1361526317
230298620.0 -0.25973127 0.1410808755 0.3818582305 -0.1933632482 0.3824329817 -0.1934289043 -0.2481533841 0.1385533485
235298590.0 -0.2582255086 0.1438701387 0.37991368 -0.198039545 0.3802200502 -0.1974631445 -0.2468253267 0.1409875765
240298560.0 -0.2569826174 0.1462754006 0.3780061868 -0.2023577314 0.377715195 -0.202561702 -0.245389889 0.1441674047
245298530.0 -0.2559020752 0.149204444 0.3755451897 -0.2067018637 0.3755315323 -0.2068003496 -0.2440769248 0.1459337361
250298500.0 -0.2543909783 0.1516361333 0.3726529984 -0.2109772235 0.37290087 -0.2107687551 -0.2428716283 0.1487128791
255298470.0 -0.2529375123 0.154220607 0.3702540123 -0.2150012927 0.3705674251 -0.2149693027 -0.2411428452 0.1509675923
260298440.0 -0.2515685821 0.1569946945 0.3684502035 -0.2193740936 0.3685578697 -0.2191583382 -0.2398145507 0.1534991871
265298410.0 -0.250065233 0.159982789 0.3659643087 -0.2235837034 0.366165351 -0.2233385628 -0.2383838754 0.1561511225
270298380.0 -0.2487249454 0.1626741742 0.3638782397 -0.2274252848 0.3639109475 -0.2275990981 -0.2369337115 0.1588239571
275298350.0 -0.2466451871 0.1651197842 0.360932985 -0.2318851755 0.3613132625 -0.231686921 -0.2351541332 0.160853326
280298320.0 -0.2450192174 0.1679482994 0.3585080487 -0.2359064301 0.3586814306 -0.2354770502 -0.2336315516 0.1633344135
285298290.0 -0.2436522077 0.1710029167 0.3560482695 -0.2397284959 0.3557138547 -0.239993605 -0.2316916992 0.1660720054
290298260.0 -0.2418997179 0.1730913749 0.3531731763 -0.243600772 0.3532467565 -0.2438307195 -0.2301063226 0.1688598789
295298230.0 -0.2401326646 0.1754216835 0.3505545414 -0.2477396555 0.3508478249 -0.2476349947 -0.2282906986 0.1707280311
300298200.0 -0.2384359555 0.1782144537 0.3479579302 -0.2515426483 0.3483416011 -0.2519674777 -0.2268883569 0.173451763
305298170.0 -0.2367512671 0.1805643797 0.344965059 -0.2559288536 0.3450533332 -0.2556851542 -0.2245526733 0.1754856876
310298140.0 -0.2347290998 0.1835968306 0.3424679872 -0.2596944713 0.3419918688 -0.2598467899 -0.2232447143 0.1784484561
315298110.0 -0.2332168167 0.185648884 0.3394698254 -0.2633609049 0.3398118475 -0.2634464848 -0.2212127392 0.1805659612
320298080.0 -0.2311576431 0.1882752314 0.3359000462 -0.2676523103 0.3363704825 -0.267313655 -0.2191250198 0.183062067
325298050.0 -0.2292427489 0.1908717754 0.3331469035 -0.2713244564 0.3333345497 -0.271122293 -0.2177656301 0.1853601836
330298020.0 -0.2274658387 0.1931521031 0.3301775428 -0.2752857894 0.3303628591 -0.2750163626 -0.2159401372 0.1878050116
335297990.0 -0.2257145044 0.1955882147 0.3272441906 -0.2785564987 0.3270185281 -0.2788401898 -0.2145476207 0.1906002272
340297960.0 -0.2240798914 0.1985589697 0.323784779 -0.2823703948 0.3236892908 -0.2825387066 -0.2121980735 0.1929246955
345297930.0 -0.2222051262 0.2007361192 0.3207287256 -0.2859956093 0.3204047413 -0.2858507924 -0.2103753535 0.1951159643
350297900.0 -0.2201177081 0.2031009212 0.3172442875 -0.289287098 0.3172781391 -0.2896341788 -0.2086255299 0.1979000382
355297870.0 -0.2177914884 0.2060021767 0.3138899613 -0.2928458502 0.3143723546 -0.2928237085 -0.2068866861 0.200349739
360297840.0 -0.2160981303 0.2083353442 0.3109640765 -0.2961577107 0.3114365655 -0.2964507677 -0.2049110721 0.2028968116
365297810.0 -0.2142407208 0.2108886629 0.3077049237 -0.2997948299 0.3076300867 -0.2999235276 -0.2028171345 0.2050259106
370297780.0 -0.2120745343 0.2133536191 0.3041306202 -0.3030377036 0.3044557699 -0.3028698923 -0.200796003 0.2073726609
375297750.0 -0.2092818016 0.2154232978 0.3008076205 -0.306406686 0.301294905 -0.3066105898 -0.1988488984 0.2098254443
380297720.0 -0.2075698022 0.2178557537 0.2973244971 -0.3097984906 0.2977021715 -0.3093381666 -0.1971133147 0.2119504277
385297690.0 -0.2055201435 0.2202804116 0.2938641329 -0.3130016999 0.2939393271 -0.3130022989 -0.1945311521 0.2145700426
390297660.0 -0.2033895408 0.2227176466 0.2907978186 -0.3161636948 0.2904018793 -0.3161885123 -0.1929908113 0.216755255
395297630.0 -0.2007567067 0.225246637 0.2874727779 -0.3194288441 0.2873567224 -0.3194292778 -0.1900816968 0.2187880269
400297600.0 -0.198414204 0.227829457 0.2831841993 -0.3229882298 0.2839122818 -0.3225942535 -0.188478703 0.2207669876
405297570.0 -0.1965038808 0.2297900906 0.2798856923 -0.3254947776 0.2799585998 -0.3251292422 -0.1863490512 0.222971346
410297540.0 -0.1939790209 0.2319614429 0.2763714491 -0.3285126174 0.2766517114 -0.3287237922 -0.1838929187 0.2253954773
415297510.0 -0.1913444601 0.2339410636 0.2726685116 -0.332002141 0.2728165227 -0.3318450602 -0.1815104829 0.2270931818
420297480.0 -0.1893508387 0.2363610527 0.2688225255 -0.3346081463 0.2690131029 -0.3348531329 -0.1795709561 0.2291051634
425297450.0 -0.1867431729 0.2381844391 0.2656026088 -0.3374722463 0.2657798428 -0.33782361 -0.1772898052 0.231404398
430297420.0 -0.1842085061 0.240459591 0.2614000625 -0.3402060401 0.2617486875 -0.3400060469 -0.1749244503 0.2329904393
435297390.0 -0.1817832624 0.2425987476 0.2572516125 -0.3430529133 0.2575578836 -0.3431603304 -0.1719660488 0.2347709535
440297360.0 -0.1789582514 0.2447235798 0.2541754356 -0.3457920658 0.2540887212 -0.3458341364 -0.1696888633 0.2367421244
445297330.0 -0.1767214706 0.2465308179 0.2505490916 -0.3488297908 0.2501147385 -0.3487560024 -0.1670848668 0.2386363859
450297300.0 -0.1741010435 0.2486538753 0.2463017888 -0.3512055628 0.2463943532 -0.3513951211 -0.1647699937 0.2403922644
455297270.0 -0.1713505991 0.2502597628 0.2423403422 -0.3540256945 0.2425848861 -0.3542631745 -0.1622901112 0.2422654734
460297240.0 -0.1693458049 0.2524921225 0.2382697081 -0.3566010648 0.238535225 -0.3568610465 -0.1597971449 0.2443411202
465297210.0 -0.1662237552 0.2544510654 0.2345179741 -0.3595041448 0.2344975252 -0.3595939898 -0.1569585222 0.2458972902
470297180.0 -0.1637874866 0.2560348138 0.2304249861 -0.3615223611 0.2308276125 -0.3618164405 -0.1543326119 0.2480304777
475297150.0 -0.1612163549 0.2579890042 0.2264793639 -0.3638509092 0.2266128415 -0.364183412 -0.1516209341 0.2494324638
480297120.0 -0.1582896042 0.259967334 0.2222223599 -0.3665916593 0.2225677748 -0.3667923036 -0.1488690119 0.2512252489
485297090.0 -0.1556247394 0.2620478803 0.2184328185 -0.368678748 0.2186755751 -0.3686995865 -0.1462088547 0.2528759632
490297060.0 -0.1531163669 0.2638375276 0.2147592627 -0.3713127127 0.2148883818 -0.3712429999 -0.1435550496 0.254685264
495297030.0 -0.150355396 0.265205628 0.2102384361 -0.3734506246 0.2110029814 -0.3735757167 -0.1410956827 0.2567053113
500297000.0 -0.1475120824 0.2671645903 0.2064442407 -0.375603393 0.2061054919 -0.3754291609 -0.1382176489 0.2585917424
505296970.0 -0.1443872487 0.268728825 0.2021847293 -0.3778735987 0.2020220553 -0.3782059092 -0.1353544126 0.2599361893
510296940.0 -0.1418988801 0.2706157121 0.1982143677 -0.3803976274 0.1977340528 -0.3801219393 -0.1322425337 0.2617195252
515296910.0 -0.1388433596 0.272091337 0.1937828281 -0.3823748132 0.193786641 -0.3823304844 -0.1297937467 0.2634062817
520296880.0 -0.1361543248 0.2738434418 0.1894377463 -0.3845740189 0.1896547588 -0.3842177525 -0.1270577189 0.2646275716
525296850.0 -0.1331550558 0.2749483254 0.1853983898 -0.3863604072 0.1857798192 -0.3860389357 -0.1245571655 0.2662499839
530296820.0 -0.1304297963 0.2766784519 0.1811422228 -0.3882600217 0.1811052073 -0.3885772737 -0.1213863014 0.2676348511
535296790.0 -0.1276003756 0.278282284 0.1771487179 -0.3901349933 0.1771129555 -0.3900241893 -0.1190772401 0.2694300685
540296760.0 -0.1247467434 0.2797720914 0.1725278065 -0.3923083021 0.1727455889 -0.3923815475 -0.1164531019 0.2712670685
545296730.0 -0.1216763144 0.2810138235 0.1683690904 -0.393783871 0.1682521258 -0.3941130625 -0.1137853988 0.2724620325
550296700.0 -0.1182618815 0.2827940421 0.1637616196 -0.3956600049 0.1641211635 -0.3957532122 -0.1108207735 0.2741984793
555296670.0 -0.115789822 0.2841755408 0.1599878086 -0.397627737 0.1599983388 -0.3976704559 -0.1079231161 0.2753322118
560296640.0 -0.1126829602 0.2861078799 0.155372999 -0.3995876388 0.1554785353 -0.3989977333 -0.1048768236 0.2762514755
565296610.0 -0.1100361489 0.2869572332 0.1508477964 -0.4009418779 0.1509026501 -0.4008842766 -0.1021293816 0.2774937959
570296580.0 -0.1074612787 0.2879955284 0.1465850545 -0.4025523742 0.1460434064 -0.402883449 -0.0994954284 0.2792878833
575296550.0 -0.1041364841 0.2895732008 0.142471715 -0.4043579457 0.1419582344 -0.4039801584 -0.0965410539 0.2802570266
580296520.0 -0.1005933614 0.2906736736 0.1376974381 -0.4055238745 0.1377181927 -0.405682822 -0.0935213487 0.28137641
585296490.0 -0.0978292676 0.2917752843 0.1334355546 -0.4065534697 0.1336126305 -0.4071234551 -0.0906467515 0.2825230189
590296460.0 -0.0943484397 0.2931181387 0.1289105274 -0.4082526624 0.1289278705 -0.4079160563 -0.0879814939 0.2832736161
595296430.0 -0.0915961288 0.2939218728 0.124201136 -0.4096557069 0.1239555289 -0.4094984243 -0.0847660977 0.2840173596
600296400.0 -0.0886704496 0.2954479189 0.1199228755 -0.4109972883 0.1198255027 -0.41062855 -0.0819542985 0.285253282
605296370.0 -0.0855098487 0.2963303529 0.1151593128 -0.4122008824 0.1154176423 -0.4121707269 -0.078684132 0.2862430228
610296340.0 -0.0821187516 0.297201825 0.1104622582 -0.4130833203 0.1111207596 -0.4133340368 -0.0756896568 0.2871332346
615296310.0 -0.0787876054 0.2981230645 0.1061064262 -0.4142212882 0.1061472429 -0.4145541818 -0.0725731324 0.2879356956
620296280.0 -0.0761984476 0.299148352 0.1017514338 -0.4154743926 0.1019229168 -0.4154708415 -0.0700487569 0.2888217905
625296250.0 -0.0729835435 0.2996934049 0.0971882168 -0.4164226239 0.0973533754 -0.4169839067 -0.0661033637 0.2897767999
630296220.0 -0.0694882586 0.3011154812 0.0919932181 -0.4178270369 0.0924608234 -0.4174870055 -0.0631308048 0.2905647816
635296190.0 -0.0671126695 0.3015754716 0.088310494 -0.418346349 0.0881215776 -0.4186739063 -0.0603272363 0.2912475734
640296160.0 -0.0639446874 0.302410986 0.0839859088 -0.4190990607 0.0838876642 -0.4194116215 -0.0571287179 0.2921643077
645296130.0 -0.0606064037 0.3034756296 0.0791418621 -0.419816393 0.0793264138 -0.4201725622 -0.0540574381 0.2926756132
650296100.0 -0.0571552106 0.3041537649 0.07464561 -0.4205792529 0.0746813418 -0.4211490193 -0.0505950377 0.2934370481
655296070.0 -0.0538924403 0.3048042356 0.0697766698 -0.4212756369 0.0701897861 -0.42156513 -0.0473881201 0.2940804825
660296040.0 -0.0511399873 0.3056004191 0.0654687212 -0.4222573651 0.065579943 -0.4225042593 -0.044227858 0.2949056701
665296010.0 -0.0474735647 0.3058331179 0.0605703699 -0.4230568887 0.0607276769 -0.4229706155 -0.0408031377 0.2957368492
670295980.0 -0.0451214287 0.3068680208 0.0561250491 -0.4235057857 0.0565444532 -0.4234194975 -0.0384064262 0.2962479611
675295950.0 -0.0414527724 0.307588134 0.0517225492 -0.4243965856 0.0518303167 -0.4237524726 -0.0353187437 0.2969820499
680295920.0 -0.0381568616 0.3081576288 0.0474053883 -0.4243552645 0.0469705378 -0.4249429516 -0.0317981881 0.2978831493
685295890.0 -0.0346503178 0.3090359566 0.0424013565 -0.4251019962 0.0425744159 -0.4250302049 -0.028979382 0.2980297234
690295860.0 -0.0314012559 0.3091154062 0.0379002727 -0.4249777389 0.0377499531 -0.4259535295 -0.0256956044 0.2991628027
695295830.0 -0.0285323613 0.3093488586 0.0336004295 -0.4258892817 0.0330594839 -0.4259713356 -0.0224988383 0.2995026315
700295800.0 -0.024893294 0.3096674103 0.0282621349 -0.4260349076 0.0284151837 -0.4258825837 -0.0195788966 0.2997943186
705295770.0 -0.0221884299 0.3108575219 0.023996348 -0.4265017825 0.0242094702 -0.4263510336 -0.0163006199 0.3007843556
710295740.0 -0.0185595895 0.3108442543 0.0196157613 -0.42703443 0.019470267 -0.4270764167 -0.0133630777 0.300358675
715295710.0 -0.0157798549 0.3114254698 0.0149924548 -0.426812986 0.0145492597 -0.4266025562 -0.0098271153 0.3004372066
720295680.0 -0.0125287655 0.3116068002 0.0100317819 -0.4269238428 0.0103065934 -0.427003406 -0.0068494098 0.3014021825
725295650.0 -0.008759606 0.3114211557 0.0051490452 -0.4268192111 0.0057859907 -0.4272774512 -0.0043792613 0.3018998667
730295620.0 -0.0053142544 0.3120263934 0.0007745071 -0.4267642725 0.0009943807 -0.4270130903 -0.0010232795 0.301592326
735295590.0 -0.0022945195 0.3125305623 -0.0037131057 -0.427170449 -0.003815043 -0.4269433483 0.00194427 0.3016046838
740295560.0 0.0006426471 0.3123949029 -0.0083313193 -0.4269180239 -0.0084069359 -0.4270192262 0.0056664161 0.3021490579
745295530.0 0.0039668106 0.3127757266 -0.0132195081 -0.4266493494 -0.013090933 -0.4265228885 0.0086416156 0.3018941179
750295500.0 0.0076671917 0.312392874 -0.0177742352 -0.4260945102 -0.0172658386 -0.4266027107 0.0115629524 0.3019978555
755295470.0 0.0107807093 0.3126385447 -0.0222633566 -0.4260705819 -0.0224559095 -0.4261276299 0.015049224 0.3013218712
760295440.0 0.0137294693 0.3125449964 -0.0267704719 -0.4263291404 -0.0270596541 -0.4261591225 0.0179410769 0.3015570959
765295410.0 0.0173418583 0.312550193 -0.0313827487 -0.4253658872 -0.0315170185 -0.4258427813 0.0211264185 0.3017596037
770295380.0 0.0202402975 0.3123286676 -0.0361871464 -0.4247425048 -0.0361601751 -0.4252196063 0.0240588935 0.3011528559
775295350.0 0.0233426383 0.3123882135 -0.0412240997 -0.4242899529 -0.0402920128 -0.4247673708 0.0269161856 0.3012126458
780295320.0 0.0266734746 0.3122056849 -0.0453820063 -0.4237935902 -0.0446325287 -0.4239227949 0.0303157098 0.3007434788
785295290.0 0.029747791 0.3116385427 -0.0501974469 -0.4228607006 -0.0496966774 -0.423457046 0.0340791665 0.3006669215
790295260.0 0.0336907557 0.3119888082 -0.0540189033 -0.4229179052 -0.0538242136 -0.4228508781 0.0372249023 0.3007617627
795295230.0 0.0364010137 0.3112630372 -0.0591204821 -0.4220715306 -0.0586883653 -0.4221800831 0.0404497022 0.3001940542
800295200.0 0.0397337242 0.3115120321 -0.0638835083 -0.4214691372 -0.0632890789 -0.4211281667 0.0434975757 0.2998907023
805295170.0 0.0433631267 0.3110378356 -0.0680125884 -0.4206484103 -0.0681999943 -0.4209280428 0.0464810524 0.299699415
810295140.0 0.0461127938 0.3103943547 -0.0721430969 -0.4199617185 -0.0722435714 -0.4203229459 0.0502674877 0.2993293187
815295110.0 0.0495081806 0.3099207557 -0.0771425102 -0.4185386559 -0.0769806807 -0.4192893615 0.0531135425 0.2990848448
820295080.0 0.0526494723 0.3098400391 -0.0812617815 -0.4182444567 -0.0811254818 -0.4179923041 0.0564140318 0.2982618219
825295050.0 0.0563501071 0.3091965223 -0.0854162242 -0.4169119449 -0.0860534082 -0.4173494438 0.0596245366 0.2980113344
830295020.0 0.0593613831 0.3090707131 -0.0903649124 -0.4163100828 -0.0904528335 -0.4160451833 0.0633107564 0.2975779533
