!Created with skrf (http://scikit-rf.org).
# Hz S RI R 50.0 
!freq ReS11 ImS11 ReS21 ImS21 ReS12 ImS12 ReS22 ImS22
300000.0 0.8589484171 -0.002774765 -0.0010639069 0.0004927293 0.0005710013 -1.2033e-06 -0.7718166228 -0.1281948569
5299970.0 0.8588301346 -0.0098414036 3.23888e-05 -0.0002217736 3.69412e-05 -1.13648e-05 -0.7853395081 -0.0071298252
10299940.0 0.8577432554 -0.0182396674 7.53331e-05 0.0002707209 0.0001312139 6.02888e-05 -0.7885764124 -0.0037651628
15299910.0 0.8566809275 -0.0267402484 -7.26521e-05 -8.2978e-06 5.4847e-06 -4.38455e-05 -0.7937909896 -0.001964957
20299880.0 0.8562026148 -0.0349701836 6.88103e-05 0.0001851454 8.91658e-05 4.97707e-05 -0.8003352741 0.0024074543
25299850.0 0.8556962755 -0.0434340289 0.0002985069 0.0001149396 -5.26273e-05 -5.72869e-05 -0.8064804292 0.0086442827
30299820.0 0.854896436 -0.0524686268 -2.5156e-05 -6.03713e-05 -5.64544e-05 7.20877e-05 -0.8125098268 0.0164755195
35299790.0 0.8535357511 -0.0603884277 5.45342e-05 9.9754e-06 8.53749e-05 0.0001268534 -0.8174520103 0.0246418152
40299760.0 0.8530136482 -0.0687805526 -0.000114683 -7.11295e-05 1.68851e-05 -0.0001677097 -0.8214675996 0.0344566029
45299730.0 0.8526610292 -0.0767784285 0.0001626031 -5.72337e-05 0.0001313257 -6.32584e-05 -0.8255844534 0.044169961
50299700.0 0.8516081313 -0.0850194799 -0.0001408959 -6.6727e-05 5.06081e-05 -4.73448e-05 -0.8274400323 0.0536046488
55299670.0 0.8509437039 -0.093024365 -0.0001318518 7.83789e-05 0.0001269122 -1.7443e-06 -0.8296017818 0.064249223
60299640.0 0.8490805088 -0.1008456753 2.81388e-05 -2.18744e-05 2.18739e-05 -0.0001856297 -0.8306555525 0.0741008483
65299610.0 0.8482148988 -0.1097425186 -2.48264e-05 0.0001372936 1.49325e-05 -5.3959e-05 -0.831971703 0.0837556578
70299580.0 0.8476183465 -0.1182991744 -0.0001911261 0.000114345 -1.45672e-05 -0.0001928678 -0.8322367716 0.0941103446
75299550.0 0.8463333082 -0.126473751 -3.32008e-05 4.27126e-05 0.0001087617 -5.74543e-05 -0.8327221896 0.1036749154
80299520.0 0.8447344833 -0.1348013502 -0.0001094195 9.25566e-05 -0.0001099871 -4.57092e-05 -0.8318171318 0.113691248
85299490.0 0.8435857783 -0.1426184004 1.69507e-05 -0.0001122011 0.0002042033 -1.3097e-06 -0.8313560734 0.1238680498
90299460.0 0.8414287312 -0.1510060852 0.0001991207 -4.10251e-05 -0.0001033784 0.0001248985 -0.8311038411 0.132814702
95299430.0 0.8402442175 -0.1595640301 -0.0001236902 6.25738e-05 -0.0001611546 0.0001135964 -0.8292431392 0.1427339787
100299400.0 0.8382941253 -0.1678009615 -9.8123e-06 -9.61305e-05 3.3509e-05 -4.74799e-05 -0.8287166667 0.1521307829
105299370.0 0.8372722108 -0.1756377248 9.99414e-05 -9.21105e-05 3.81731e-05 -8.0073e-06 -0.82693103 0.1607841
110299340.0 0.8350960221 -0.1834194503 4.8959e-05 3.29133e-05 8.84812e-05 -4.07448e-05 -0.8259693056 0.1708631255
115299310.0 0.8334685029 -0.1919052684 -0.0001149223 4.41777e-05 -5.30693e-05 -3.73132e-05 -0.824423127 0.1797882321
120299280.0 0.8313454498 -0.1999614858 -5.67259e-05 -0.0001306087 -6.94526e-05 -4.88518e-05 -0.8225771247 0.1892103996
125299250.0 0.829776494 -0.208381685 6.1081e-05 0.0001675461 -1.94045e-05 5.29049e-05 -0.8210445354 0.1978780987
130299220.0 0.8272966598 -0.2159551634 -0.0001458404 0.0001483859 -7.60031e-05 -8.0851e-05 -0.8195433958 0.2070483895
135299190.0 0.8252597191 -0.2239357068 0.0001099667 -0.0001394192 0.000146016 -0.0001331676 -0.8165856061 0.2158809026
140299160.0 0.8234299057 -0.2323568655 -9.06427e-05 -0.000152209 -8.94974e-05 -8.63397e-05 -0.8149652723 0.2251277449
145299130.0 0.8204786486 -0.24022752 -0.000102668 4.28254e-05 1.8782e-06 9.86071e-05 -0.8130002836 0.2340353903
150299100.0 0.8182752149 -0.2486328468 -0.0001056278 -0.0002530701 3.64428e-05 0.0001264849 -0.8109491402 0.2427843093
155299070.0 0.8157827544 -0.2560397741 6.00134e-05 -7.3328e-05 0.0001440561 0.0001156107 -0.8080983552 0.2521291329
160299040.0 0.812910363 -0.2639182373 4.2226e-05 9.43989e-05 4.33204e-05 2.0008e-06 -0.8058846531 0.2604449046
165299010.0 0.8105389547 -0.2723061448 1.91319e-05 -0.0001666693 -0.0001831761 -2.38234e-05 -0.8032484806 0.269802773
170298980.0 0.807525338 -0.2801145667 -3.44732e-05 0.00010855 2.11241e-05 1.46453e-05 -0.8003011227 0.2782404305
175298950.0 0.8049056797 -0.2879170082 -0.0001805595 0.000106105 -0.0001588114 -6.2202e-05 -0.797659977 0.2860700364
180298920.0 0.8021217281 -0.2959233105 4.14336e-05 -0.0001672282 -3.7124e-06 4.14892e-05 -0.7939299369 0.2950263083
185298890.0 0.7992762934 -0.3037200403 0.0002060244 1.84776e-05 -6.03294e-05 -0.0001738636 -0.7908342942 0.3037791375
190298860.0 0.7959596492 -0.3114071943 4.5516e-06 -0.000112143 2.64388e-05 0.0001070493 -0.7886142159 0.312312225
195298830.0 0.7925875319 -0.3188323975 4.5356e-06 0.000146518 2.144e-05 0.00010011 -0.785083721 0.3205571826
200298800.0 0.7892345393 -0.3262654562 0.0001556066 2.97494e-05 -0.00016547 -6.66051e-05 -0.7820576656 0.3289256033
205298770.0 0.7864156171 -0.3341074548 -3.0226e-05 3.44871e-05 0.0001763685 -1.1016e-06 -0.7785835971 0.33718247
210298740.0 0.7829220467 -0.3418378461 -5.11914e-05 7.95616e-05 0.0002144094 -0.0001312724 -0.7748428908 0.3450974406
215298710.0 0.7794844856 -0.3499824834 -0.0001131516 4.93123e-05 -8.55142e-05 2.41556e-05 -0.7713300979 0.3537870967
220298680.0 0.7759575905 -0.3575627826 5.31879e-05 2.95853e-05 9.09422e-05 1.01292e-05 -0.7678657755 0.3614725697
225298650.0 0.7721715937 -0.3652198636 -9.96639e-05 -0.0001075725 2.3551e-05 -2.20419e-05 -0.7640446617 0.3697390037
230298620.0 0.768929012 -0.37248531 3.74346e-05 -2.87874e-05 4.77669e-05 1.82784e-05 -0.7598395944 0.3780894598
235298590.0 0.7645110204 -0.3793849714 2.09029e-05 0.0002111675 3.81137e-05 -6.45629e-05 -0.7562725077 0.3865444067
240298560.0 0.7614481029 -0.387651194 -4.84691e-05 7.05327e-05 -4.73796e-05 -3.35964e-05 -0.7514127965 0.3947237607
245298530.0 0.7572583361 -0.3951312731 -0.0001094586 6.03492e-05 -0.0001059525 6.56869e-05 -0.747713949 0.4023391225
250298500.0 0.7536575961 -0.4017207768 -4.59167e-05 1.625e-07 -6.87192e-05 1.93962e-05 -0.7435510183 0.4100116461
255298470.0 0.7491059086 -0.4096420538 -0.0001598882 5.88495e-05 -4.83865e-05 1.5774e-05 -0.7390962498 0.4176747952
260298440.0 0.745238977 -0.4168058611 -8.47827e-05 7.8671e-06 -6.25679e-05 0.0001704657 -0.7346917287 0.4260194358
265298410.0 0.7416329783 -0.4238201879 -0.000218235 0.0001378955 0.0002209539 5.95807e-05 -0.7308062244 0.4332346748
270298380.0 0.7370903465 -0.431246 0.0002480627 0.0002897692 -6.4639e-05 6.17495e-05 -0.7257883938 0.4409125391
275298350.0 0.7336256991 -0.4384245629 -3.12378e-05 -0.0001562879 -7.40017e-05 0.0002096738 -0.7211075564 0.4481860709
280298320.0 0.7284176982 -0.4452156333 -8.13888e-05 -9.42743e-05 -5.2599e-06 0.0001220558 -0.7159319941 0.4557711964
285298290.0 0.7245347592 -0.4531140746 -0.0001286181 -6.5972e-05 -5.47835e-05 9.32406e-05 -0.7112276504 0.463295839
290298260.0 0.7205133496 -0.4594420814 0.0001538032 4.76205e-05 -9.48821e-05 -9.75048e-05 -0.7063777393 0.4711858497
295298230.0 0.71603015 -0.4666240199 0.0002508211 7.1348e-06 7.80516e-05 -4.66006e-05 -0.7011417167 0.4779523251
300298200.0 0.7116930665 -0.4737188657 -0.0001332667 -9.99099e-05 2.59113e-05 -3.04376e-05 -0.6962993648 0.4858572576
305298170.0 0.7071335396 -0.4807392489 -0.000167081 0.0001725671 -2.43558e-05 -0.0001560341 -0.690977958 0.4935602509
310298140.0 0.7023456842 -0.4878018085 -5.04271e-05 0.0002623988 -0.0001545107 -1.60204e-05 -0.6860285912 0.4998248299
315298110.0 0.6981627257 -0.4961887973 -0.0001131456 -0.0001052627 -3.76756e-05 -2.27202e-05 -0.6807619313 0.5071057713
320298080.0 0.6934095302 -0.5030854878 5.65966e-05 -0.0001273428 -8.45553e-05 0.0001891658 -0.6754202916 0.514770966
325298050.0 0.6877057621 -0.5105558235 -0.0001774003 8.40912e-05 -0.0002699829 -9.11254e-05 -0.6695674366 0.5211708658
330298020.0 0.6819272221 -0.51761903 6.63593e-05 -0.0001587277 -7.97296e-05 -1.36484e-05 -0.664457335 0.5285401532
335297990.0 0.6757881222 -0.52465325 0.0001904891 -3.89649e-05 0.0001059358 -0.0001969178 -0.6593614957 0.5354502221
340297960.0 0.6702099844 -0.5312711465 8.89051e-05 6.71964e-05 3.45628e-05 0.0001432445 -0.6532742166 0.5423568735
345297930.0 0.6636415613 -0.5376860219 3.54318e-05 0.0001166122 0.0001850455 -1.0726e-06 -0.6475794198 0.5484783742
350297900.0 0.6588520567 -0.5428099861 -2.12835e-05 1.76745e-05 -9.04324e-05 0.0001512585 -0.6420741141 0.5553817261
355297870.0 0.6528438565 -0.5496325136 -8.50033e-05 9.63276e-05 0.0002458871 -4.49317e-05 -0.6363408449 0.5615669912
360297840.0 0.647679362 -0.5555701464 -2.16839e-05 0.0001135215 0.000106893 -0.0001220759 -0.6299026435 0.5690052621
365297810.0 0.6412268768 -0.5617713414 5.43548e-05 -9.12986e-05 -6.77541e-05 6.49302e-05 -0.6237037314 0.5746867402
370297780.0 0.6364112629 -0.568551946 8.34998e-05 9.96759e-05 4.47636e-05 -2.06802e-05 -0.6182930052 0.5816990581
375297750.0 0.6299855143 -0.5739526468 0.0001910206 -0.0001018909 0.0001249083 6.18052e-05 -0.6119817371 0.5876654119
380297720.0 0.6248304976 -0.5798999863 -0.0002413594 4.67549e-05 -0.0002723286 -0.0001574542 -0.6062012691 0.5938141092
385297690.0 0.6185031471 -0.5860128971 2.97779e-05 -5.80021e-05 -7.97559e-05 0.0001578547 -0.5999534225 0.6004053772
390297660.0 0.6124018386 -0.5918580355 3.00584e-05 -0.0001188668 -3.7727e-06 9.48845e-05 -0.5937284418 0.6062791899
395297630.0 0.6066520159 -0.597639154 1.79509e-05 -0.0001322501 -8.11213e-05 -0.0002042398 -0.586385468 0.612802276
400297600.0 0.6012325502 -0.6038377658 -5.78501e-05 0.000123941 0.0002099321 9.00584e-05 -0.5809340037 0.6184459144
405297570.0 0.594915971 -0.6092632423 0.0002758616 -9.37662e-05 -3.81659e-05 1.29283e-05 -0.5740859705 0.6245560002
410297540.0 0.5888274486 -0.6155488011 -0.0001456344 0.0001784469 9.2615e-06 -7.98446e-05 -0.567384004 0.6302743176
415297510.0 0.5829751253 -0.6212523504 3.03135e-05 0.0002048204 0.0001537616 -6.89999e-05 -0.5614068736 0.6360550896
420297480.0 0.5767846484 -0.6261452698 2.55592e-05 5.97886e-05 5.9619e-05 5.6002e-05 -0.5541854566 0.6418660607
425297450.0 0.5703471293 -0.6318885287 0.0001241208 6.83965e-05 -4.46709e-05 1.712e-07 -0.5477900267 0.6479441926
430297420.0 0.5642051444 -0.6376959828 1.51548e-05 -4.3292e-06 -6.04828e-05 4.5735e-05 -0.5411479855 0.6528394243
435297390.0 0.5575171971 -0.6429295532 -2.0175e-06 -6.18521e-05 -5.54203e-05 -4.21377e-05 -0.5342643479 0.6585909766
440297360.0 0.5517578191 -0.6488459683 6.80414e-05 -0.0001729485 4.87584e-05 5.67125e-05 -0.5277865262 0.6637216139
445297330.0 0.5440578358 -0.6538177328 0.0001761939 9.83216e-05 -2.43047e-05 -5.95968e-05 -0.5205761611 0.6686285906
450297300.0 0.5386780457 -0.6584373325 3.20092e-05 -4.14541e-05 -9.97157e-05 -4.30608e-05 -0.5134412515 0.6738956786
455297270.0 0.5315797831 -0.6639608965 -0.0002789486 5.05025e-05 -5.43358e-05 -7.43702e-05 -0.5069305035 0.6788062008
460297240.0 0.5252281556 -0.6692473957 6.14624e-05 -0.0002139772 -0.0001055544 4.98719e-05 -0.4999610295 0.6843997703
465297210.0 0.5181739785 -0.6743814071 -0.0001092446 -0.0001384724 0.0001277325 7.99185e-05 -0.4925906935 0.6897468316
470297180.0 0.5114830486 -0.679029282 7.84981e-05 -0.0002545209 -0.0002032848 3.88766e-05 -0.4852752845 0.6950030764
475297150.0 0.5048196824 -0.6841180857 -0.0002223541 -6.43628e-05 0.0001029349 5.24388e-05 -0.4780430168 0.6992277006
480297120.0 0.498116506 -0.6884939412 0.0001146357 5.72132e-05 8.76126e-05 0.0002466289 -0.4706331125 0.7041226578
485297090.0 0.4916395427 -0.6934167119 5.28e-07 -0.0001170632 4.95254e-05 -4.68718e-05 -0.4639533736 0.7093434383
490297060.0 0.4840913071 -0.6987397386 8.5508e-05 -0.0001639365 -0.0001312507 8.95947e-05 -0.4566182877 0.7128810956
495297030.0 0.4770686275 -0.7030843616 -0.0001558114 0.0001220829 -3.04835e-05 0.0002138016 -0.4491704571 0.7179378945
500297000.0 0.4704052561 -0.707840459 0.0001175076 8.82975e-05 -0.0001092818 1.87798e-05 -0.4415220042 0.72285856
505296970.0 0.4633077353 -0.7121723321 -1.94323e-05 0.0004020919 0.0001345734 2.64215e-05 -0.4341657267 0.7272162895
510296940.0 0.4555572444 -0.7164649157 -3.6683e-06 -7.09243e-05 0.0001493935 5.05775e-05 -0.4266632733 0.731635136
515296910.0 0.449222999 -0.7211910624 0.0001718878 -6.64076e-05 -1.70786e-05 -0.0001141817 -0.4190537645 0.7349701258
520296880.0 0.441554056 -0.7259624419 8.29092e-05 0.0003795677 -5.29405e-05 5.49556e-05 -0.4120919163 0.7394950125
525296850.0 0.4348934695 -0.7298933838 1.83477e-05 0.0002387815 0.0001484344 0.0001793197 -0.404690767 0.743442281
530296820.0 0.4272941312 -0.7335803125 -2.39324e-05 -2.06606e-05 -3.72328e-05 -7.23668e-05 -0.3973979747 0.7474945285
535296790.0 0.4202600023 -0.7376481017 0.0001180963 -3.66789e-05 5.99999e-05 -3.4234e-05 -0.3893975122 0.7511699574
540296760.0 0.4122985807 -0.7418326247 5.94885e-05 9.25388e-05 -0.0001155869 0.0002151599 -0.3818511001 0.7552574493
545296730.0 0.405030494 -0.7459763455 -0.0002220597 3.50477e-05 -0.0001340068 0.0001809177 -0.3743245553 0.7592083186
550296700.0 0.3981406472 -0.7492119446 -8.7871e-05 -0.0001461462 0.0001749295 0.0001446377 -0.3664015539 0.7627727545
555296670.0 0.3900336846 -0.7535286453 7.24812e-05 8.3907e-06 4.31154e-05 0.0001962305 -0.3588933038 0.7668502516
560296640.0 0.3827258665 -0.7566306325 8.57163e-05 2.73306e-05 4.64e-05 8.8677e-05 -0.3503676774 0.7703939458
565296610.0 0.3751265515 -0.7598604352 1.48458e-05 0.0001374667 -1.7533e-05 1.97399e-05 -0.3431394415 0.773774236
570296580.0 0.3675722439 -0.7640105479 -0.0001115096 -0.0001799432 -0.0001300099 3.95507e-05 -0.3355705835 0.7778595297
575296550.0 0.3595520451 -0.7675195363 -0.0002517968 4.90498e-05 -4.87e-07 -8.92346e-05 -0.3270276165 0.7810844028
580296520.0 0.3524383086 -0.770932466 -0.0001776967 -5.1245e-05 0.0001355068 4.90009e-05 -0.3187854952 0.7836212992
585296490.0 0.3440043914 -0.7751660881 -2.06495e-05 -9.53594e-05 -8.03448e-05 -5.88859e-05 -0.3110629123 0.787042389
590296460.0 0.3372457086 -0.7769902682 0.0002023846 2.93023e-05 -4.18976e-05 2.70837e-05 -0.3033830339 0.7902637406
595296430.0 0.3291691682 -0.7808764693 0.0001836562 -5.09933e-05 0.000114008 -5.3097e-06 -0.2950113736 0.7929513694
600296400.0 0.3208759829 -0.7840423666 0.0001133428 9.21323e-05 -8.83044e-05 -3.70966e-05 -0.2865882085 0.7956500189
605296370.0 0.3129771548 -0.7866543826 -1.309e-05 -4.4017e-06 -9.32804e-05 4.10843e-05 -0.2783625534 0.7984398835
610296340.0 0.3050944627 -0.7902246233 9.2904e-06 0.0001522114 -0.0002258231 -2.61167e-05 -0.2705271149 0.8011168475
615296310.0 0.2975800351 -0.792849981 0.0001682816 -8.97195e-05 -0.0001097888 6.88974e-05 -0.2617124698 0.8035374725
620296280.0 0.28948272 -0.7953352181 -0.0001859561 4.70384e-05 7.75736e-05 0.0001703799 -0.2546575503 0.8065252163
625296250.0 0.2820002948 -0.7982656598 -0.0001634174 -0.0001221077 6.20135e-05 6.55251e-05 -0.2457317081 0.8084923507
630296220.0 0.2743507182 -0.8015386601 -0.0001462198 0.0002061838 0.0001421444 2.92999e-05 -0.2379337558 0.8112320467
635296190.0 0.2654400719 -0.8035225937 0.0003996803 0.00013431 0.0002610507 -0.0001016856 -0.2300305399 0.8132474759
640296160.0 0.2579697996 -0.8063440069 -2.60532e-05 -1.46988e-05 1.35478e-05 -3.80038e-05 -0.2215879131 0.8158225987
645296130.0 0.2499938115 -0.8084790409 -0.0001742187 -0.0001061576 -7.52852e-05 0.0002139328 -0.2136581015 0.8182421912
650296100.0 0.2414338207 -0.8107753754 9.77409e-05 -4.61642e-05 9.0568e-06 0.0002229719 -0.2050665479 0.8197864016
655296070.0 0.2334067917 -0.8134194029 0.0002099603 0.0002370677 -6.9579e-06 -1.95382e-05 -0.1965100961 0.8213330047
660296040.0 0.2256339579 -0.8153236039 0.0004146252 2.00803e-05 -5.30804e-05 -0.0001866753 -0.1879449063 0.8235337378
665296010.0 0.2178715394 -0.8172225384 6.45024e-05 3.42896e-05 -0.0003197396 8.68665e-05 -0.1799960013 0.8256740115
670295980.0 0.2089787546 -0.8193700019 -7.241e-07 -0.0001024816 0.0002136334 -0.0001275093 -0.1724305537 0.8269570575
675295950.0 0.2013962519 -0.8209628986 5.66578e-05 -0.0001407573 -0.0001173429 6.43036e-05 -0.1643822438 0.8288406419
680295920.0 0.1928109346 -0.8226119092 -0.0002746804 0.0001999985 -0.0001375879 -2.1885e-05 -0.1554407274 0.8312908245
685295890.0 0.1847966657 -0.8240605077 -3.645e-07 3.7867e-06 0.0002209174 -0.0002687687 -0.1466749712 0.831976819
690295860.0 0.176424375 -0.826059399 -0.0001079306 2.59406e-05 -5.28818e-05 -8.16616e-05 -0.1391120116 0.83439113
695295830.0 0.1678783218 -0.8276398034 3.48928e-05 -9.0392e-05 -8.09995e-05 0.000119055 -0.129621882 0.8350960147
700295800.0 0.1598194438 -0.8290591109 -3.73378e-05 9.97962e-05 5.9791e-05 0.0001135056 -0.1228653217 0.8360320273
705295770.0 0.1512206924 -0.8304372394 0.0001108732 -3.8493e-05 -0.0001273713 -9.67889e-05 -0.1141001557 0.8380146863
710295740.0 0.1424236688 -0.832326069 2.55943e-05 -8.9075e-05 -0.0001004776 6.80511e-05 -0.1057415586 0.8386137589
715295710.0 0.1348485277 -0.8337777669 0.0001018542 7.75678e-05 0.0001480863 0.0001610916 -0.0967225715 0.8399740242
720295680.0 0.126724407 -0.8345216857 0.0001390012 -9.51523e-05 -1.32121e-05 0.000113766 -0.0886506011 0.8409235877
725295650.0 0.1180760676 -0.8354883385 -2.26371e-05 5.21548e-05 0.00013512 0.0001087733 -0.0804395193 0.841794984
730295620.0 0.1096320449 -0.8365253959 0.00010277 4.32818e-05 0.0001928018 -2.02772e-05 -0.0728525535 0.842060659
735295590.0 0.1012266758 -0.8365420007 1.84116e-05 -2.64765e-05 1.1816e-06 -0.0001124899 -0.0636451502 0.8420646244
740295560.0 0.0930881825 -0.8377647212 -6.2409e-05 -0.0001608244 -0.000123561 2.55872e-05 -0.0545899415 0.8438969303
745295530.0 0.0845383008 -0.8386102244 -4.80177e-05 -4.4097e-06 2.9245e-06 7.26282e-05 -0.0457492107 0.8439546483
750295500.0 0.0757937684 -0.8395694258 -0.0001093077 -1.62517e-05 -7.78038e-05 0.0001147762 -0.0382666985 0.8446733724
755295470.0 0.067491047 -0.840035005 -8.12798e-05 5.73761e-05 1.26968e-05 9.17251e-05 -0.0293781839 0.8438339893
760295440.0 0.0590745085 -0.8402253009 -8.94012e-05 0.0003131996 -8.23674e-05 -0.0001260112 -0.0213929719 0.8450433955
765295410.0 0.0513286802 -0.8411743909 -0.0001335135 -9.8528e-05 8.8055e-06 -9.68154e-05 -0.012863549 0.8452062711
770295380.0 0.0419623593 -0.8412203988 8.36283e-05 0.0001387998 -0.0001458233 -0.0001241809 -0.0049018159 0.8451905467
775295350.0 0.0339518936 -0.8415665075 -2.58835e-05 0.0002132709 0.0001537632 -5.81596e-05 0.0037309746 0.8445277667
780295320.0 0.0255478815 -0.8418564508 5.6761e-06 0.0002321687 -1.70149e-05 0.0001460418 0.0119798611 0.8442962338
785295290.0 0.0169171829 -0.8421462856 -0.0002080682 -0.0001649178 -8.93199e-05 1.2547e-05 0.0205018096 0.8443389376
790295260.0 0.00878704 -0.8417522218 0.0001387201 7.85194e-05 -4.46693e-05 -0.0001761332 0.0298255466 0.8445648015
795295230.0 0.0008656981 -0.8412510716 2.32994e-05 -8.25146e-05 -2.47068e-05 -2.61842e-05 0.0385304599 0.8431071015
800295200.0 -0.0079226812 -0.8408421985 -0.0001090391 6.32403e-05 -0.0001624974 0.0002123993 0.0468925655 0.8434378582
805295170.0 -0.0166652606 -0.8413459912 6.77931e-05 1.87327e-05 -9.43331e-05 6.68321e-05 0.0542924922 0.8434817927
810295140.0 -0.0245536379 -0.8402537558 0.0001951104 -8.23528e-05 -2.18782e-05 0.0003630003 0.0631728326 0.8423772951
815295110.0 -0.0330463322 -0.8406244253 0.0004245834 -5.37774e-05 0.0002115977 2.23969e-05 0.0717224416 0.8414016092
820295080.0 -0.0414158912 -0.8398624843 7.1163e-05 -2.46158e-05 0.0002051689 -0.0001822531 0.0799576052 0.8413039215
825295050.0 -0.0495367506 -0.8393344477 3.39348e-05 0.0002799755 7.67662e-05 0.0001061667 0.0880344295 0.8402524315
830295020.0 -0.0582909975 -0.8388441607 1.80025e-05 -7.17309e-05 -7.13814e-05 -5.36962e-05 0.0974590905 0.8393094332
835294990.0 -0.0663312818 -0.837466108 0.000167635 -0.000137549 -9.3887e-06 -8.32473e-05 0.1050401233 0.8381638345
840294960.0 -0.0749106808 -0.8369212137 -4.16925e-05 -0.0002047781 -5.5622e-06 0.0001726334 0.1133287523 0.8371495091
845294930.0 -0.0830692446 -0.8364373618 2.85256e-05 8.29534e-05 4.29638e-05 -9.99496e-05 0.1214875223 0.8359268444
850294900.0 -0.090605493 -0.8345836612 -5.40163e-05 1.96585e-05 -9.37706e-05 0.0001539341 0.1296198535 0.8346872709
