!Created with skrf (http://scikit-rf.org).
# Hz S RI R 50.0 
!freq ReS11 ImS11 ReS21 ImS21 ReS12 ImS12 ReS22 ImS22
300000.0 -0.0974404763 -0.0841144821 0.6239988314 0.0779095297 0.62553773 0.0819730856 -0.0976338844 -0.0907939824
5299970.0 -0.1006611312 0.0129508531 0.6308791078 0.0104573435 0.6307338335 0.0111613066 -0.1019369671 0.0119451956
10299940.0 -0.0954159873 0.0300158661 0.634561577 0.0154771049 0.634521577 0.0159015709 -0.0974608909 0.0287965094
15299910.0 -0.0885395901 0.0430316788 0.6402958169 0.0202736635 0.6404588391 0.0211452952 -0.0900386754 0.0420372728
20299880.0 -0.0797409752 0.0540529491 0.6489721189 0.0241841236 0.6487403305 0.0243236199 -0.081967451 0.0535266807
25299850.0 -0.0696715712 0.0627554963 0.6578178863 0.0247808065 0.6582713636 0.0254764026 -0.0724434665 0.0620123622
30299820.0 -0.059875781 0.0690178356 0.6678799975 0.0246354401 0.6677546291 0.0247168087 -0.0630262679 0.0687255775
35299790.0 -0.0492473497 0.0743181832 0.6769957587 0.0216040445 0.6773908584 0.0217752355 -0.0525277861 0.0731982339
40299760.0 -0.03962752 0.0770122495 0.6869555461 0.017775334 0.6866897262 0.0173060077 -0.043548654 0.0771099789
45299730.0 -0.0304347847 0.0794933322 0.6961345462 0.0114221731 0.6958436062 0.0120359026 -0.0343864157 0.0790255425
50299700.0 -0.0219253617 0.0799032767 0.7033833419 0.0050521122 0.7034944934 0.0043697877 -0.0255632341 0.0799044629
55299670.0 -0.0142922059 0.0798546483 0.7107451625 -0.0032571884 0.7115830179 -0.0030731784 -0.0178515452 0.0798803119
60299640.0 -0.0069391177 0.0789187536 0.717150347 -0.0114840784 0.7178372591 -0.0112226495 -0.0102094318 0.0799122207
65299610.0 -0.000277466 0.0781220449 0.7237689108 -0.0192248517 0.7237130596 -0.0202073374 -0.0035132328 0.0786583018
70299580.0 0.0061977363 0.075813873 0.7287931385 -0.029565219 0.7287426793 -0.0291484541 0.0021561578 0.0771486741
75299550.0 0.0114681409 0.0741872537 0.7329849491 -0.0391625122 0.7332931235 -0.0390964415 0.0080910995 0.0756840322
80299520.0 0.0163032774 0.0721446965 0.7378872093 -0.0491183123 0.7378613931 -0.0491028308 0.0130096536 0.0727174374
85299490.0 0.0210152386 0.0695624897 0.7406414426 -0.0590381344 0.7409561412 -0.0590805877 0.0173814585 0.0711543724
90299460.0 0.0246228949 0.0675393252 0.7436712181 -0.0686827224 0.7438196348 -0.0689189441 0.0220279162 0.0688457463
95299430.0 0.0281267195 0.0654667404 0.7463757381 -0.0794589229 0.7464295108 -0.0787475618 0.0252215808 0.0661959458
100299400.0 0.0314719779 0.0627515428 0.7475120508 -0.0892670498 0.7474830884 -0.0892117459 0.0284013513 0.0639087401
105299370.0 0.0346103654 0.0601460796 0.7483531915 -0.0991036894 0.7487212339 -0.0993901445 0.0320192956 0.0615319848
110299340.0 0.0372518474 0.0576865603 0.7499077499 -0.1089596403 0.7503683886 -0.1094886452 0.034756281 0.0592055099
115299310.0 0.0396750454 0.0548507126 0.7507255849 -0.1190701558 0.7513238234 -0.119261266 0.0372935348 0.0564106673
120299280.0 0.0410931376 0.0529554804 0.7519948702 -0.1290831411 0.7515795105 -0.1298707682 0.038780889 0.0544104236
125299250.0 0.0432959248 0.0504750586 0.7519783578 -0.1389476775 0.7520188598 -0.1398262019 0.0412617212 0.0512433829
130299220.0 0.045079711 0.0480263046 0.751508276 -0.1487190549 0.7519154907 -0.1492623178 0.0431564086 0.0493013188
135299190.0 0.0467458898 0.045421037 0.751129047 -0.1588948633 0.7509188868 -0.1588824119 0.0445070268 0.0474828908
140299160.0 0.0479135937 0.0441632936 0.7509243261 -0.1687406673 0.7508332824 -0.1686439724 0.0461287507 0.0454190704
145299130.0 0.0492761457 0.0417675457 0.7503963764 -0.1782176847 0.750193659 -0.1784331348 0.0473969912 0.0427217787
150299100.0 0.0506210447 0.0398168734 0.7490261802 -0.188400755 0.7494173294 -0.1882469703 0.0486032184 0.0408978054
155299070.0 0.0510262443 0.0384309217 0.7481329623 -0.1980535301 0.7479113049 -0.1986678377 0.0493135828 0.0389757001
160299040.0 0.0525254476 0.0358672195 0.7463277772 -0.2069165288 0.7464544533 -0.207035311 0.0506812126 0.0370424674
165299010.0 0.0528595827 0.0340671261 0.7454877714 -0.2165116225 0.7445942944 -0.2168107718 0.0516574804 0.034863199
170298980.0 0.0535522793 0.0325804384 0.7420033319 -0.2258770129 0.7431459013 -0.2261263874 0.0526733757 0.0328730774
175298950.0 0.0543822153 0.0306159182 0.741522706 -0.2353351579 0.741805361 -0.2352233101 0.0534130813 0.0312778532
180298920.0 0.0552087353 0.0291743094 0.7394239259 -0.2447039256 0.739054821 -0.2444053014 0.0538919824 0.0298336928
185298890.0 0.0561060715 0.0273420207 0.736432874 -0.2535929613 0.7370889108 -0.2536511873 0.0542621753 0.0277925286
190298860.0 0.0561694061 0.0257305984 0.7340164481 -0.2629064571 0.734832305 -0.2630400194 0.055576964 0.0262963854
195298830.0 0.0563957298 0.0238197369 0.7317768421 -0.2708192762 0.7322478954 -0.2723424104 0.0557481867 0.0242442855
200298800.0 0.0571812643 0.0227107459 0.7295545352 -0.279933501 0.7290992584 -0.2803806282 0.0561014257 0.0232493273
205298770.0 0.0571557567 0.0214004761 0.7267701459 -0.2897755198 0.7268573366 -0.2893525756 0.056536543 0.0208204178
210298740.0 0.0570786745 0.0197075441 0.7236681542 -0.299077451 0.7238458684 -0.2987277855 0.0568551317 0.0197821964
215298710.0 0.0577668749 0.0185497752 0.7203054087 -0.3066844114 0.7210252174 -0.3066709747 0.0569837731 0.0183202903
220298680.0 0.0581144292 0.0172679855 0.7173202582 -0.315769541 0.7175323525 -0.3157191554 0.0575799825 0.0176605361
225298650.0 0.0583468531 0.0162475458 0.7140335473 -0.3237939918 0.7140574164 -0.3241278884 0.0576781846 0.0157468895
230298620.0 0.058151791 0.0147600543 0.711461925 -0.3332430281 0.71120693 -0.3331809544 0.0578834708 0.0141269304
235298590.0 0.0583785017 0.0133754281 0.7072804674 -0.34066736 0.7075429699 -0.3416850233 0.0581178969 0.0127836381
240298560.0 0.0581275796 0.0121368104 0.7038142959 -0.3491705694 0.7041039168 -0.3491878274 0.0581764409 0.0117574154
245298530.0 0.0587105265 0.0112914923 0.6992071229 -0.3576428685 0.6999926094 -0.3578630868 0.0582113362 0.0109490952
250298500.0 0.0581998306 0.0095490919 0.6962882332 -0.3656787926 0.6963623978 -0.3656764244 0.0588504958 0.0090507973
255298470.0 0.0581235336 0.0089429297 0.6918147828 -0.3745536109 0.6923148136 -0.3743361467 0.0588606944 0.0076285932
260298440.0 0.0581120222 0.0079452063 0.6882534979 -0.382258163 0.6886867652 -0.3825012086 0.0594866711 0.0070902253
265298410.0 0.0590771464 0.0071252987 0.6843468992 -0.3913017613 0.6837725233 -0.3908524969 0.0586277929 0.0054695918
270298380.0 0.059261313 0.0056766115 0.6791276603 -0.3986328241 0.6802372898 -0.3982725082 0.0588855802 0.0051707833
275298350.0 0.0582848625 0.0049759876 0.676037703 -0.4062061987 0.6760801661 -0.4070310227 0.0592492728 0.0037199105
280298320.0 0.0586325377 0.0040749448 0.6712600015 -0.4140539187 0.6710367815 -0.4142806691 0.059416339 0.0029440153
285298290.0 0.0587884987 0.0031554092 0.6669588629 -0.4219081928 0.6667624675 -0.4220346972 0.0588132093 0.0017262154
290298260.0 0.0585898063 0.001775202 0.6622114196 -0.4298393098 0.6626625632 -0.4297390006 0.0598758807 0.0006681442
295298230.0 0.0586422729 0.0008286576 0.6578771847 -0.4373240171 0.6579099318 -0.4375813926 0.059574935 -0.0002764911
300298200.0 0.0592487554 0.0001602616 0.6530934759 -0.4450632365 0.6530787831 -0.4452889436 0.0592482579 -0.0012831396
305298170.0 0.0587829598 -0.0012106697 0.6486039122 -0.4531351592 0.648862446 -0.4532558503 0.0598897946 -0.0020822053
310298140.0 0.0593992082 -0.0024721524 0.6435272714 -0.4606316024 0.6438627663 -0.4605581792 0.0594171614 -0.0027619771
315298110.0 0.0586782102 -0.003275353 0.6382842029 -0.468300198 0.6390159534 -0.4685712559 0.05982086 -0.0043813449
320298080.0 0.0585081134 -0.0044890277 0.6332491664 -0.4759327497 0.6335100079 -0.4755402642 0.0593333695 -0.0059564664
325298050.0 0.0581990623 -0.0057601157 0.628170234 -0.4833910782 0.628467275 -0.4836993003 0.0592334064 -0.0068379818
330298020.0 0.0578872632 -0.0064583366 0.621682356 -0.4905516462 0.6220894491 -0.4908269186 0.0582374193 -0.0083167446
335297990.0 0.0572954687 -0.0076595933 0.6166499081 -0.4977461609 0.6168026203 -0.4980495025 0.0582230604 -0.0090503363
340297960.0 0.0567019786 -0.008106757 0.6104138567 -0.5048586642 0.6107106218 -0.5045270654 0.0573218579 -0.0093776548
345297930.0 0.0562096768 -0.0084502313 0.6048017453 -0.5106936215 0.6046078375 -0.5105532296 0.0575288404 -0.010838195
350297900.0 0.0565665462 -0.0093451563 0.5987647672 -0.5174873293 0.5994968917 -0.5179969989 0.0567336653 -0.0107091351
355297870.0 0.056132792 -0.0102328618 0.5933089074 -0.5246174858 0.5932535676 -0.5250819479 0.0562833003 -0.0112116927
360297840.0 0.0559956127 -0.0106855818 0.5879268438 -0.5315764414 0.5874689442 -0.5317078996 0.0564028058 -0.011778527
365297810.0 0.0559655741 -0.011462589 0.5817350564 -0.5379706826 0.5819452044 -0.538054489 0.0556258094 -0.0123560789
370297780.0 0.055764521 -0.0118835608 0.5756313687 -0.5446581662 0.5761734413 -0.5445190661 0.0558977659 -0.012913532
375297750.0 0.0552121813 -0.0123860635 0.5701308415 -0.5508393328 0.5698470629 -0.5514332981 0.0557174541 -0.0134320312
380297720.0 0.0550915911 -0.0137161146 0.5638675601 -0.5569234474 0.5639281789 -0.5569383465 0.0553757387 -0.0142700158
385297690.0 0.0549886708 -0.0140321529 0.5572410056 -0.5634122658 0.5573088598 -0.5633595922 0.0550833622 -0.0148208393
390297660.0 0.0543468579 -0.0149835781 0.5510133485 -0.5703000173 0.5511619988 -0.5703946967 0.0553981621 -0.0155847812
395297630.0 0.0545713806 -0.0155059288 0.5452149539 -0.5753951117 0.5450139031 -0.5756237795 0.0543018199 -0.015864311
400297600.0 0.0537574942 -0.0160768909 0.5382003852 -0.5818556544 0.5387901437 -0.5824402405 0.0534970794 -0.0171126128
405297570.0 0.0537895228 -0.0165727257 0.5323885263 -0.5879081585 0.5323962068 -0.588406207 0.0538479889 -0.0169629329
410297540.0 0.0538009301 -0.0173475787 0.5249940436 -0.5938111529 0.5254027644 -0.5940555355 0.0533562275 -0.0181742073
415297510.0 0.0533930045 -0.0173178634 0.5189607584 -0.5990755233 0.5191692313 -0.5994080056 0.0527604262 -0.0183187458
420297480.0 0.052939277 -0.0189480931 0.5122403733 -0.6056225468 0.5127947384 -0.6058669168 0.0527950499 -0.0192788937
425297450.0 0.0534047717 -0.0196475963 0.5059073498 -0.611085508 0.5061164595 -0.6108286986 0.0521171466 -0.0191020452
430297420.0 0.0528169911 -0.0196748657 0.4994593241 -0.6172004729 0.4990156432 -0.6170791745 0.0517054798 -0.0203439627
435297390.0 0.0524020563 -0.020926163 0.4923849051 -0.6218778712 0.4926104215 -0.6219806236 0.0511376718 -0.0201879124
440297360.0 0.0524064952 -0.0214368841 0.4853241175 -0.6279740601 0.4850362291 -0.6276426988 0.0510965884 -0.021574458
445297330.0 0.0523618282 -0.0220152909 0.4783358499 -0.6336358292 0.4784082759 -0.6329775786 0.0507968837 -0.0217892902
450297300.0 0.0518952339 -0.0225879251 0.4712499321 -0.6385216943 0.4719043895 -0.6388843803 0.0504805158 -0.0221767492
455297270.0 0.0509726324 -0.0231723124 0.4643221957 -0.6431914167 0.4650021399 -0.6436796153 0.0503007521 -0.0225441057
460297240.0 0.0504505563 -0.023878602 0.4574803889 -0.6489805449 0.4570386135 -0.6488640866 0.0498531672 -0.0227039233
465297210.0 0.050742931 -0.0245836008 0.4503453156 -0.6536283766 0.4509611428 -0.6538574858 0.0488080412 -0.0236994349
470297180.0 0.0500253293 -0.0250716902 0.4429180681 -0.6585332903 0.4434946963 -0.659030394 0.0481333064 -0.0243010641
475297150.0 0.049389078 -0.0263527041 0.4357605018 -0.6631972867 0.4360421061 -0.6632676818 0.0483770071 -0.0244417386
480297120.0 0.0498947824 -0.026651019 0.4282710221 -0.6678430923 0.428750304 -0.6683606854 0.0475552146 -0.0245021509
485297090.0 0.0493220001 -0.0272642114 0.4217774011 -0.6732552452 0.4213945224 -0.6735717831 0.0470081536 -0.0255435195
490297060.0 0.0488815555 -0.0281756835 0.4137847356 -0.6775650159 0.4141895443 -0.6780523267 0.0470796259 -0.0256102678
495297030.0 0.0482153503 -0.0282838459 0.4057761198 -0.6823098276 0.4060142829 -0.6824478262 0.0466551457 -0.026483931
500297000.0 0.0481056049 -0.0290729492 0.3990406553 -0.6864351185 0.3988028564 -0.6868570779 0.0455922846 -0.0270151199
505296970.0 0.0470837829 -0.0296662409 0.3908280776 -0.6904598666 0.3906494316 -0.6911458674 0.0449363707 -0.0272505588
510296940.0 0.0468855734 -0.0299483342 0.3837470758 -0.695452181 0.3840034947 -0.6956062103 0.0452024568 -0.0270101416
515296910.0 0.046212951 -0.0304815341 0.3752577727 -0.6992297401 0.3756232643 -0.699346156 0.0440727036 -0.0277546316
520296880.0 0.0457323997 -0.0312028912 0.3683220756 -0.7038226122 0.3682495054 -0.7034786557 0.0441506857 -0.0282986592
525296850.0 0.0452088766 -0.0320297721 0.3608348969 -0.7076298248 0.3605296415 -0.7079130934 0.0439361882 -0.0285056243
530296820.0 0.045071813 -0.03225438 0.3527843084 -0.7114125607 0.3524119678 -0.7115951053 0.0425441541 -0.0297343106
535296790.0 0.0441537704 -0.0330315917 0.3451173591 -0.7149645756 0.3452989416 -0.7154443479 0.0427247258 -0.0302067859
540296760.0 0.0437245915 -0.0337100564 0.3372697791 -0.7193066058 0.3369172015 -0.7198155788 0.0414331088 -0.0300494857
545296730.0 0.0435002801 -0.033438398 0.3289682371 -0.7223299294 0.3295903968 -0.72306676 0.0415156252 -0.0307994038
550296700.0 0.0426928086 -0.0344635573 0.3212938115 -0.7264745922 0.3218669343 -0.7261685139 0.0407224121 -0.0306062169
555296670.0 0.04249525 -0.0350562196 0.3135486159 -0.7299125886 0.3136627479 -0.730364536 0.0401004135 -0.0310812903
560296640.0 0.0419471326 -0.0355356209 0.3056705109 -0.732958552 0.3055528591 -0.7330815948 0.0399213568 -0.0315877526
565296610.0 0.0407501411 -0.0361159819 0.2974563679 -0.7364079854 0.2975404377 -0.7367144701 0.0392080669 -0.0321924119
570296580.0 0.0413501129 -0.0365467307 0.2894183515 -0.7397631932 0.2897620545 -0.7397783416 0.0386239144 -0.031319492
575296550.0 0.0403547254 -0.0362310889 0.2814633886 -0.7423732441 0.2817465871 -0.7427643087 0.0384262377 -0.0323831792
580296520.0 0.0395921189 -0.0370992331 0.2734761718 -0.7455282001 0.2734588134 -0.7462503269 0.0376320518 -0.0332108141
585296490.0 0.0393525063 -0.0378361373 0.2654048028 -0.7493495618 0.2648423261 -0.7487351974 0.0369494291 -0.0337507183
590296460.0 0.0378976422 -0.0386505422 0.2567161643 -0.75170021 0.2565736203 -0.7519107961 0.0367081309 -0.0332928506
595296430.0 0.0375814762 -0.0383656075 0.2489251053 -0.7547092257 0.2484903742 -0.7551432667 0.03634383 -0.0341488909
600296400.0 0.0368582696 -0.038713372 0.2401011294 -0.7575135504 0.2406023145 -0.7572422507 0.0354489602 -0.0339560967
605296370.0 0.0366252815 -0.0385200354 0.2320219119 -0.7598146204 0.232295098 -0.7598353984 0.0350294376 -0.0349190825
610296340.0 0.0357252404 -0.0393179888 0.2241365583 -0.7623619953 0.2243199605 -0.7621953153 0.0345766818 -0.0341841248
615296310.0 0.0353200766 -0.0394884095 0.2151055644 -0.764261674 0.2154683897 -0.7644927576 0.0341867212 -0.035113598
620296280.0 0.03491209 -0.0400172353 0.2071212526 -0.7666442913 0.2071545756 -0.7668809144 0.0332479289 -0.0360739238
625296250.0 0.0346094744 -0.0403640201 0.1984366186 -0.7697890271 0.1988856973 -0.7694682426 0.0330976055 -0.0354626791
630296220.0 0.0338263933 -0.0402963299 0.1901551163 -0.7716193858 0.1907598563 -0.7712238681 0.0317222852 -0.0357535346
635296190.0 0.0329531967 -0.0408658858 0.1814771121 -0.7728019739 0.181856854 -0.7727785725 0.0313914368 -0.0362895813
640296160.0 0.0322540721 -0.0412300759 0.1736910836 -0.7751329988 0.1734573979 -0.7754836226 0.0315116439 -0.0365324318
645296130.0 0.0318912697 -0.0412266388 0.1649343484 -0.7772834874 0.1648678506 -0.7771689025 0.0295166164 -0.0373189166
650296100.0 0.031015127 -0.0409819092 0.1574502044 -0.7783673873 0.1568889326 -0.7783889286 0.0297334187 -0.037249382
655296070.0 0.0304761444 -0.0420825918 0.1480725712 -0.7801950224 0.1480657757 -0.7803098193 0.029854502 -0.0367530808
660296040.0 0.0291014915 -0.0417816436 0.1394680611 -0.7815665175 0.1395037504 -0.7814737591 0.028651592 -0.0377092664
665296010.0 0.029514525 -0.042605304 0.1315015334 -0.7833182492 0.1314460664 -0.7832603138 0.0276732239 -0.0374777223
670295980.0 0.0291782651 -0.042511278 0.1227891242 -0.7848697206 0.1233473675 -0.7848152853 0.0270938932 -0.0380333296
675295950.0 0.0284635342 -0.0423129593 0.1138695622 -0.7859053929 0.1144984937 -0.78664709 0.0269034058 -0.0378374506
680295920.0 0.0276972332 -0.0424861049 0.1049190232 -0.7871127987 0.1053833713 -0.7871806004 0.0267447157 -0.0383681013
685295890.0 0.0268978292 -0.0427962361 0.0971441224 -0.7880678625 0.0965741114 -0.7885296938 0.0257728299 -0.0381729739
690295860.0 0.0264978826 -0.0431126465 0.08810098 -0.7886111643 0.0879869036 -0.7885530555 0.025575736 -0.0380306733
695295830.0 0.0263801573 -0.0435549876 0.0790212854 -0.790182139 0.0792736369 -0.7904882299 0.024112339 -0.0385799187
700295800.0 0.0258906922 -0.0435352534 0.0710794193 -0.7906366366 0.0708677551 -0.7915820031 0.0238216657 -0.0395629804
705295770.0 0.0248045115 -0.0436273105 0.062351595 -0.7913037774 0.0624963329 -0.7918303845 0.0227853493 -0.0393693843
710295740.0 0.0242454456 -0.043347688 0.0536041776 -0.7919740316 0.0533082399 -0.7918659235 0.0217688042 -0.0389429684
715295710.0 0.0235550791 -0.0438115522 0.0454144667 -0.7927362198 0.0452042222 -0.7930885543 0.0219486805 -0.0398677537
720295680.0 0.0227060338 -0.0441935492 0.0365957448 -0.7929265435 0.0366055378 -0.793634839 0.0217344191 -0.0392370029
725295650.0 0.0223968812 -0.0440223464 0.0271866441 -0.7939743722 0.0277441175 -0.7935072895 0.0209649919 -0.0392262626
730295620.0 0.0213054176 -0.0445628988 0.018939295 -0.7939759857 0.019618024 -0.7941922693 0.0205872367 -0.040628026
735295590.0 0.0213652237 -0.0443086052 0.0109634219 -0.7938064795 0.010839183 -0.7938857703 0.0197136068 -0.0397434687
740295560.0 0.0202873533 -0.0441567812 0.0013051127 -0.7931722031 0.0020390168 -0.793994145 0.0197468655 -0.0398661281
745295530.0 0.0198929597 -0.0446918983 -0.0068194911 -0.7937940277 -0.0064028725 -0.7943773078 0.0184242888 -0.0397283251
750295500.0 0.0192303554 -0.0447079164 -0.015207868 -0.7938728616 -0.0151905512 -0.7940846976 0.0183689766 -0.0404393
755295470.0 0.0190520642 -0.0444496082 -0.0238215452 -0.793320656 -0.0238338659 -0.7940558009 0.0167728656 -0.040071695
760295440.0 0.0180640004 -0.0444782145 -0.0326445408 -0.7931271244 -0.0325735956 -0.7936588447 0.0161845947 -0.0405890728
765295410.0 0.0170370157 -0.0452749434 -0.0406883646 -0.7922841424 -0.0406503199 -0.7933855063 0.0168095212 -0.0398244229
770295380.0 0.0168679916 -0.0448137125 -0.0493842145 -0.7919103995 -0.050061358 -0.792914376 0.016064699 -0.03991813
775295350.0 0.016244343 -0.0448635142 -0.0585780701 -0.7909833275 -0.0582222848 -0.7921171456 0.0148450239 -0.0408108582
780295320.0 0.0156783712 -0.044643036 -0.066392202 -0.7911521757 -0.0663318135 -0.7910202906 0.0144752711 -0.0397130428
785295290.0 0.014679318 -0.0444221327 -0.0756654181 -0.7897919697 -0.0758283951 -0.790516009 0.0132946154 -0.0403646678
790295260.0 0.014176866 -0.0447627271 -0.0838163532 -0.7894161461 -0.0841349046 -0.789901666 0.0133868701 -0.0401189583
795295230.0 0.0131907832 -0.0445777306 -0.0926359685 -0.7876364645 -0.0924964345 -0.7883442591 0.0124192363 -0.0393283746
800295200.0 0.0128434037 -0.0444069892 -0.1016411161 -0.7875449327 -0.1016821733 -0.787405626 0.0121353454 -0.0399176742
805295170.0 0.0117233623 -0.0446547579 -0.1101779842 -0.7855179546 -0.109722798 -0.7858059888 0.0110276779 -0.0402333382
810295140.0 0.011570354 -0.0445924465 -0.1185265769 -0.7848002182 -0.1183434091 -0.7857348236 0.0106996888 -0.039767811
815295110.0 0.0108106525 -0.0443443209 -0.1270020693 -0.7829627447 -0.127422956 -0.7833354826 0.0097420895 -0.0402144082
820295080.0 0.0102832459 -0.0446607276 -0.1346560744 -0.7818883712 -0.1353186632 -0.7825080559 0.0091992786 -0.0398253927
825295050.0 0.0095963714 -0.0446448971 -0.1436357062 -0.7799939473 -0.1438745676 -0.7803398476 0.0091002225 -0.0394219148
830295020.0 0.0089383912 -0.0441067218 -0.152671026 -0.7787243197 -0.1530166425 -0.7794044411 0.0080823998 -0.0402370197
