!Created with skrf (http://scikit-rf.org).
# Hz S RI R 50.0 
!freq ReS11 ImS11 ReS21 ImS21 ReS12 ImS12 ReS22 ImS22
300000.0 -0.2422041016 -0.0859720552 0.4734303039 0.0561518808 0.4725213555 0.0539438591 -0.24139571 -0.0910324907
5299970.0 -0.2451587311 0.0069448338 0.4747635846 0.0050821148 0.4747540962 0.0049836651 -0.2415050868 0.0076779335
10299940.0 -0.241767425 0.0180052862 0.4769868958 0.006326705 0.477023096 0.0062455017 -0.2382307747 0.0206323236
15299910.0 -0.2376273568 0.0270143859 0.4804486191 0.007233308 0.4808651074 0.0072104813 -0.2335637548 0.030113444
20299880.0 -0.2331041731 0.0339849864 0.4851450936 0.0082169543 0.4852896536 0.0082337344 -0.2282749035 0.0379075921
25299850.0 -0.2278246339 0.0403771733 0.4902077435 0.007161793 0.4903104971 0.0073157383 -0.2221848868 0.0445817789
30299820.0 -0.2226720849 0.0450431372 0.4956585622 0.0048688765 0.4955634443 0.0052070907 -0.2165423811 0.0499813032
35299790.0 -0.2173169983 0.0489561249 0.5009612721 0.0017569154 0.5009841913 0.0014052245 -0.2107134673 0.0542623011
40299760.0 -0.2127630071 0.052476624 0.5058609329 -0.0024825909 0.5061527943 -0.0023045102 -0.2054620344 0.057197773
45299730.0 -0.2078039788 0.0551250225 0.5107778181 -0.0071874626 0.5108709613 -0.0071197126 -0.2006740677 0.0601290331
50299700.0 -0.2040013771 0.056861018 0.5154722613 -0.0125352633 0.5150697654 -0.0123861362 -0.1955700961 0.0622559062
55299670.0 -0.1998884579 0.0583366744 0.5187896996 -0.0191902777 0.5186160155 -0.0182143976 -0.1911931695 0.0635981566
60299640.0 -0.1960688871 0.0597007924 0.5218941154 -0.0248254569 0.5222528978 -0.0244864198 -0.1873982661 0.0652259161
65299610.0 -0.1928618722 0.0607221705 0.5248080916 -0.0313623357 0.5248138193 -0.0309262196 -0.1840283499 0.0661412846
70299580.0 -0.1898692316 0.062017854 0.5274045527 -0.0377252908 0.5272006309 -0.0375258531 -0.1805908435 0.0673269229
75299550.0 -0.1870842682 0.062967686 0.5287322628 -0.0442863965 0.5290582702 -0.0443494385 -0.1777605699 0.0677638739
80299520.0 -0.1847964848 0.0636149504 0.5310544659 -0.0514477894 0.5309356891 -0.0514562498 -0.1749401564 0.0690441906
85299490.0 -0.1826127589 0.0640849973 0.5319111298 -0.0580440897 0.5322441778 -0.0577498706 -0.1726934595 0.0693845036
90299460.0 -0.1802935869 0.0647592296 0.5332326852 -0.0653660231 0.5334372608 -0.0649429048 -0.1702447904 0.0704985136
95299430.0 -0.1779108576 0.0651241425 0.534073023 -0.071813879 0.5340442577 -0.0722515591 -0.1678576624 0.0712594622
100299400.0 -0.176737159 0.0661196664 0.5342592029 -0.0791411803 0.5341974807 -0.0789889288 -0.165963491 0.0717774875
105299370.0 -0.1748688264 0.0665480907 0.5347317842 -0.0856794924 0.5352963989 -0.0860726216 -0.1639344361 0.072674292
110299340.0 -0.173379787 0.0673062122 0.5350859192 -0.0925208346 0.5349369467 -0.0923247729 -0.1628439526 0.0733459911
115299310.0 -0.1718138841 0.0681963955 0.535104432 -0.0994495174 0.534982793 -0.0990285641 -0.1611457255 0.0737619813
120299280.0 -0.1709692486 0.0681373801 0.5347521919 -0.1060053092 0.5349347728 -0.1063436572 -0.1596765807 0.0748256384
125299250.0 -0.1695661973 0.0693015596 0.5341199457 -0.1126550293 0.5345069187 -0.1127203774 -0.1586654136 0.0752501271
130299220.0 -0.1688232967 0.0702498569 0.5332752868 -0.1198497289 0.5335784388 -0.1198229104 -0.1572240197 0.0761418278
135299190.0 -0.1672713212 0.0709515852 0.5331427935 -0.1262369381 0.533151858 -0.1257676389 -0.1557989147 0.0771426795
140299160.0 -0.1666854459 0.0721355587 0.5321099466 -0.1331174555 0.5321928213 -0.1329366248 -0.1549005675 0.0786083475
145299130.0 -0.1658503188 0.0727150535 0.5314039151 -0.1396803328 0.5310356389 -0.1393521976 -0.1537147677 0.0792975674
150299100.0 -0.1644796371 0.0739560364 0.5301913067 -0.1455468754 0.5301230887 -0.1455148228 -0.1529109798 0.080477013
155299070.0 -0.1641270817 0.0746598138 0.5290872078 -0.1527822564 0.5287834563 -0.152535186 -0.1514607808 0.0814293503
160299040.0 -0.1630746147 0.0758885147 0.5278435483 -0.1590201551 0.5271871259 -0.1589328656 -0.151135986 0.0823301988
165299010.0 -0.1622146515 0.0770225456 0.5256060061 -0.1659750787 0.5263261806 -0.1656641155 -0.1497307438 0.0837096955
170298980.0 -0.1616597534 0.0777195646 0.5245753092 -0.1719277996 0.5248931975 -0.1717195284 -0.1487002331 0.0848879958
175298950.0 -0.1608454276 0.0789201526 0.5231710864 -0.1776629263 0.5229057345 -0.1780195225 -0.1478977788 0.0860532067
180298920.0 -0.1599098163 0.0802509927 0.5212162836 -0.1845139325 0.5212691188 -0.1840866481 -0.1469412611 0.0871324638
185298890.0 -0.1588159179 0.0811540665 0.5190196276 -0.1898592477 0.5194788511 -0.19060873 -0.1460069902 0.0882150418
190298860.0 -0.1584126381 0.0824555809 0.5174447366 -0.1969354135 0.5178582352 -0.196725742 -0.1452240587 0.0898153493
195298830.0 -0.1577944669 0.0832868936 0.5149151725 -0.2024352546 0.5156477981 -0.2026720822 -0.1437916148 0.0906822864
200298800.0 -0.1569987598 0.0846825963 0.5133076129 -0.2088884918 0.5138454618 -0.2092533234 -0.1433502673 0.0923144311
205298770.0 -0.1559439888 0.0857230932 0.510581534 -0.2147957617 0.5109968466 -0.2149580696 -0.1422191004 0.0931436988
210298740.0 -0.1553491975 0.0867826697 0.5086199804 -0.2203590306 0.5087377474 -0.220405085 -0.1409485108 0.095211106
215298710.0 -0.1549763553 0.088306213 0.5065469756 -0.2267324609 0.5064408403 -0.2271900761 -0.1406465856 0.0963414412
220298680.0 -0.1539651916 0.0891952567 0.5033520843 -0.2325081687 0.5038656128 -0.2325075877 -0.1394934984 0.0972301343
225298650.0 -0.1533085059 0.09072033 0.50166513 -0.2386789661 0.5016008191 -0.2385478805 -0.1389862186 0.0984819736
230298620.0 -0.1524153336 0.0922020834 0.498987146 -0.2441237425 0.4999619095 -0.2444765978 -0.1382201328 0.0999772918
235298590.0 -0.1515141815 0.0936808319 0.4963254189 -0.2497203216 0.4963233326 -0.2496234488 -0.1369397699 0.1013421534
240298560.0 -0.1508986056 0.094894659 0.4938239357 -0.2558246403 0.4938240644 -0.2556006053 -0.1358839337 0.1026967451
245298530.0 -0.1502288513 0.0961916265 0.4914993827 -0.2617420666 0.4910319056 -0.261604243 -0.1345380684 0.1036047587
250298500.0 -0.149192127 0.097875017 0.4878541912 -0.2671670635 0.4877781895 -0.2667266664 -0.1336918131 0.1054853094
255298470.0 -0.1483763462 0.0985247678 0.4846623766 -0.2725043042 0.485433911 -0.2725843301 -0.1326644689 0.1066548255
260298440.0 -0.1478261575 0.0997711169 0.4822772885 -0.2782453511 0.482420778 -0.2780652492 -0.1311849802 0.1083878651
265298410.0 -0.1467311231 0.1016992941 0.4791799934 -0.2839687349 0.4797430843 -0.283400358 -0.1303777673 0.1097907812
270298380.0 -0.1461718501 0.1028648778 0.4761530369 -0.2892320612 0.4765641245 -0.2887827449 -0.129503968 0.1112432473
275298350.0 -0.1448387494 0.1043100517 0.4730935832 -0.2947027317 0.4734922223 -0.2944223326 -0.1281024799 0.112486217
280298320.0 -0.1438955555 0.10580141 0.4701551219 -0.3002872657 0.4702371882 -0.2997237219 -0.1266298566 0.1139618463
285298290.0 -0.1432456963 0.1072240798 0.4669995708 -0.3054834951 0.466677281 -0.3052435966 -0.1255257865 0.1154318921
290298260.0 -0.1421425976 0.1085621001 0.463399771 -0.3104296929 0.4634024933 -0.3104418089 -0.1243111265 0.1169851333
295298230.0 -0.1409531368 0.1094812023 0.4601669854 -0.3156535273 0.4600217629 -0.3159084163 -0.1226876423 0.1181893454
300298200.0 -0.1402790747 0.1110654191 0.4569360536 -0.320997002 0.4569928782 -0.321118759 -0.1217126124 0.1194336385
305298170.0 -0.1390934894 0.1121973209 0.452856222 -0.3261882873 0.4528849352 -0.3261508182 -0.1200047701 0.120542904
310298140.0 -0.1382736865 0.1137585237 0.4498263135 -0.3318543504 0.4498714542 -0.3314211538 -0.1193054302 0.1219908774
315298110.0 -0.137110679 0.1147066626 0.4459956821 -0.3367794268 0.4459140393 -0.3363487858 -0.1180102595 0.1230214249
320298080.0 -0.1359505601 0.1158984762 0.4415546409 -0.3418208951 0.4423243742 -0.3419443129 -0.1167818553 0.1245604473
325298050.0 -0.1351175251 0.1171349168 0.437814223 -0.3468598562 0.4382969167 -0.3467962537 -0.1158564297 0.1257747622
330298020.0 -0.1343039526 0.1182129673 0.4338911459 -0.3514966913 0.4343864792 -0.3520875727 -0.1145561219 0.1268328341
335297990.0 -0.1330975428 0.119521809 0.4302807689 -0.3567799665 0.4302166912 -0.3566522 -0.1139349862 0.1286403527
340297960.0 -0.1327414194 0.1210875506 0.4258907126 -0.361105862 0.4259878333 -0.3614569681 -0.1119484119 0.1298692109
345297930.0 -0.1314362497 0.122814048 0.4220903545 -0.3662210638 0.4221821317 -0.3659372982 -0.1109192008 0.1307468887
350297900.0 -0.1306527503 0.1237509758 0.4170616001 -0.3707912865 0.4175042962 -0.3706189248 -0.1099367684 0.1328382951
355297870.0 -0.1292831314 0.125508155 0.4133631054 -0.3749404817 0.4141534023 -0.3753545711 -0.1085477002 0.1337356011
360297840.0 -0.1281730082 0.1267432258 0.4097538176 -0.3792927819 0.4100869771 -0.3799315863 -0.1072909851 0.1354885609
365297810.0 -0.127523282 0.1284156138 0.4052399225 -0.3844265035 0.4057089282 -0.384334977 -0.1054467688 0.1367276129
370297780.0 -0.1258315481 0.1292883053 0.4007863154 -0.3885200661 0.4014647296 -0.3880378148 -0.1042853988 0.1378327154
375297750.0 -0.1245618915 0.1308258496 0.396942836 -0.3933891251 0.3972679298 -0.3930746872 -0.1027762429 0.1389208415
380297720.0 -0.123593463 0.1321273296 0.3925704797 -0.3974415578 0.3929380461 -0.3968931608 -0.1016460705 0.1405472208
385297690.0 -0.1223429094 0.1334900977 0.3879609708 -0.4016593998 0.3878377185 -0.4016379655 -0.0996760956 0.1415598955
390297660.0 -0.1210244168 0.1348221564 0.3833299368 -0.4061459354 0.3839026042 -0.405642414 -0.0984739847 0.1426695191
395297630.0 -0.1198917203 0.1360812386 0.379394785 -0.4101457317 0.3793685034 -0.4101885437 -0.0964892358 0.1443617516
400297600.0 -0.1187431036 0.1374452442 0.3747141881 -0.4146016538 0.3748782249 -0.414477094 -0.0948246848 0.1452244837
405297570.0 -0.1177531007 0.138688088 0.3698439809 -0.4180868548 0.3702960821 -0.4184271265 -0.0939680586 0.1465164538
410297540.0 -0.1160927213 0.1399496096 0.3656221454 -0.4227321616 0.3660436863 -0.4226125281 -0.091918655 0.1480051334
415297510.0 -0.1143885107 0.1412789466 0.3606285044 -0.426625563 0.3612760638 -0.4265229717 -0.0902887665 0.1489121188
420297480.0 -0.1135883205 0.1426998524 0.3563314194 -0.4305227988 0.3562471854 -0.4306398599 -0.0889131803 0.1499977655
425297450.0 -0.1122579115 0.1435141975 0.3516200819 -0.4342247349 0.352009488 -0.4343566083 -0.0874766372 0.1514054179
430297420.0 -0.1105693219 0.1447693384 0.3464322627 -0.4375190284 0.346746763 -0.4377134666 -0.0860627073 0.1523198822
435297390.0 -0.1093888033 0.1460958652 0.3414088535 -0.4418235714 0.3418929981 -0.441802413 -0.0834160088 0.1536234654
440297360.0 -0.1079398531 0.1472161456 0.3370539789 -0.4447549602 0.3372449715 -0.445530624 -0.0824309961 0.1545316925
445297330.0 -0.1069598907 0.148214454 0.3325710306 -0.4490640045 0.3324752116 -0.4484797116 -0.0805017199 0.1549861061
450297300.0 -0.1052146396 0.1495335677 0.3270744715 -0.4526860206 0.3270061279 -0.4528676141 -0.0788473951 0.1563435978
455297270.0 -0.1035894948 0.1506541066 0.3217574321 -0.455798413 0.3227250973 -0.4562122811 -0.0772363453 0.1574459875
460297240.0 -0.1023197101 0.1517748598 0.3169948447 -0.4594997927 0.3173432997 -0.4597625631 -0.0754706047 0.158601819
465297210.0 -0.1008111079 0.1531569136 0.3127303722 -0.4632664667 0.3123510491 -0.4632156878 -0.0737201546 0.1594254702
470297180.0 -0.0992517677 0.1539903413 0.3072746013 -0.4663900743 0.3075756921 -0.4664771371 -0.0717410193 0.1607269013
475297150.0 -0.0978581955 0.1548250817 0.3017625466 -0.4692177887 0.3022824848 -0.4695878368 -0.0696657058 0.1612223933
480297120.0 -0.0963933519 0.1565632013 0.2967817973 -0.4732275038 0.2970750709 -0.4732029233 -0.0680011415 0.1624445118
485297090.0 -0.0949672565 0.1574508775 0.2923041598 -0.476042871 0.2918516367 -0.4759918269 -0.0662298875 0.1632648351
490297060.0 -0.0938838573 0.1585013778 0.2867930757 -0.4792249836 0.286998215 -0.4791925927 -0.0645424046 0.1644246369
495297030.0 -0.09217211 0.1593258278 0.2811172733 -0.482233453 0.2815554101 -0.4822967858 -0.0632930499 0.1651320723
500297000.0 -0.0904907473 0.1603282082 0.2758395937 -0.485073775 0.2756805165 -0.4851761468 -0.0613291233 0.1664299579
505296970.0 -0.0888108165 0.1613501023 0.270624646 -0.4882604675 0.2706978955 -0.4881755149 -0.0593529592 0.1669301237
510296940.0 -0.0874825536 0.1627653331 0.2654200376 -0.4913168289 0.2654000929 -0.491393751 -0.0572285907 0.1679483572
515296910.0 -0.0856149649 0.1635357209 0.2598113694 -0.4939667131 0.2598816464 -0.4939769454 -0.055676441 0.1684287337
520296880.0 -0.084190611 0.1645814572 0.2542724463 -0.4971417441 0.2546991295 -0.4966492357 -0.0537698115 0.1692734774
525296850.0 -0.0825661108 0.1648041677 0.2488255783 -0.4992995339 0.2493805061 -0.4992734785 -0.0520501828 0.1699952483
530296820.0 -0.0808024434 0.1662173128 0.2433845412 -0.5025484647 0.2436729835 -0.5024059867 -0.0502963199 0.170663702
535296790.0 -0.0797330933 0.1670241475 0.2384557752 -0.5044350601 0.2384555162 -0.5041754393 -0.0484327315 0.1708526084
540296760.0 -0.0779006202 0.1680645674 0.2324803057 -0.5073955236 0.2326779548 -0.5074523596 -0.0465320127 0.1722084602
545296730.0 -0.0762655055 0.1688818225 0.2270411707 -0.5096454054 0.2273642956 -0.5099185864 -0.044658118 0.172724014
550296700.0 -0.0744885165 0.1699292043 0.2214373002 -0.5122018822 0.2216680506 -0.512405704 -0.0427293328 0.1732128777
555296670.0 -0.0731751157 0.1704383966 0.2160586905 -0.5142861659 0.2163416591 -0.5144835231 -0.040645149 0.1743024291
560296640.0 -0.0708768828 0.1717385895 0.2107583771 -0.5173931719 0.2103901017 -0.5169196441 -0.0383468495 0.1744979547
565296610.0 -0.0698761255 0.1723934341 0.2047115325 -0.5190190058 0.2050488761 -0.5190551313 -0.0370350648 0.1748402961
570296580.0 -0.0682189305 0.1734759962 0.199299057 -0.5218326714 0.1988376278 -0.5212790005 -0.0349763039 0.1760482868
575296550.0 -0.0664961547 0.1742777898 0.1934418649 -0.5236512439 0.1934246179 -0.5234032892 -0.0326536491 0.1762173355
580296520.0 -0.06462906 0.1749178212 0.1876172868 -0.5254196586 0.1878977503 -0.5255539045 -0.0308530302 0.1769024072
585296490.0 -0.063343361 0.1751826018 0.1824001141 -0.5273703369 0.182285921 -0.5274748637 -0.0288480888 0.177232006
590296460.0 -0.0610281778 0.1762632762 0.1765070016 -0.5289354678 0.1768592203 -0.5288381139 -0.0273700436 0.1778764479
595296430.0 -0.0595348598 0.1771654633 0.1703109423 -0.5318129913 0.170784685 -0.5311930875 -0.0250323992 0.1776157552
600296400.0 -0.0583574628 0.1776816411 0.1651297466 -0.5331780245 0.1649892432 -0.5325640547 -0.0232582639 0.1783178825
605296370.0 -0.0562202708 0.1783982291 0.1589580965 -0.5345355868 0.1594306058 -0.5349325129 -0.0209278888 0.1789307665
610296340.0 -0.0545299797 0.1790989764 0.1530670139 -0.5360862596 0.1533422319 -0.5362507151 -0.0190578245 0.1794912335
615296310.0 -0.0525189091 0.1795218764 0.1472908449 -0.5377125771 0.1474479286 -0.538372916 -0.0169109728 0.1798406722
620296280.0 -0.0509714426 0.1801563078 0.1418985243 -0.539047394 0.1417926946 -0.5392839667 -0.015258885 0.18000668
625296250.0 -0.0493866091 0.1804316952 0.1361913033 -0.5411657783 0.1360658253 -0.5411208216 -0.0121868825 0.1804663886
630296220.0 -0.0466694225 0.181390473 0.1295216811 -0.5424455964 0.1297312903 -0.5420722118 -0.010806646 0.181049602
635296190.0 -0.0459843328 0.1820825338 0.1239341048 -0.5435969757 0.1241727804 -0.5436355334 -0.0090130502 0.1810858417
640296160.0 -0.0438940359 0.1827320828 0.1183977744 -0.5445722345 0.1183685517 -0.5447325944 -0.007018937 0.1814633518
645296130.0 -0.0422280599 0.1833086729 0.1120039417 -0.5458799718 0.1126602927 -0.5461453925 -0.0047611761 0.1818557848
650296100.0 -0.0403148381 0.183930273 0.1060810308 -0.5472061804 0.1064042575 -0.5469717855 -0.0026791961 0.1813346076
655296070.0 -0.0387138599 0.1843693253 0.1000902141 -0.5482459162 0.1004086847 -0.5483916693 -0.0005800149 0.1815323293
660296040.0 -0.0372633651 0.1846068159 0.0947249948 -0.5492608956 0.0947061599 -0.5493824694 0.0015238089 0.1821512409
665296010.0 -0.0346754051 0.1852858008 0.0882127549 -0.550279798 0.0886436787 -0.5501574298 0.0034288165 0.1825864794
670295980.0 -0.0337882489 0.1857472315 0.0826804869 -0.5512383632 0.0827578404 -0.5510117649 0.0051288971 0.1824672652
675295950.0 -0.0317048139 0.1862998453 0.0766758082 -0.5517812192 0.0766699311 -0.551398343 0.0066033546 0.1823905979
680295920.0 -0.0300206223 0.1865960718 0.0705850339 -0.5528690618 0.0706902802 -0.5530077811 0.0089141104 0.1832834743
685295890.0 -0.0280976446 0.1877450932 0.0645310845 -0.5535558844 0.0645925874 -0.5535691553 0.0112616088 0.1829027697
690295860.0 -0.0260715223 0.1877981074 0.0587112394 -0.5534596189 0.0590560277 -0.5544717495 0.0130345966 0.1833250208
695295830.0 -0.0243653521 0.1877803437 0.0529620185 -0.5540328681 0.052675353 -0.5546499137 0.0150875861 0.1833364451
700295800.0 -0.022359921 0.18821283 0.046627079 -0.5553155786 0.0467976719 -0.5545761086 0.0165853638 0.1833712555
705295770.0 -0.0210562077 0.1891098024 0.0406939572 -0.5555499806 0.0411807263 -0.5557986255 0.0189256891 0.1832805213
710295740.0 -0.0187459788 0.1889503317 0.0351740103 -0.5563876609 0.0353364761 -0.5563271886 0.020968802 0.1824777161
715295710.0 -0.017399255 0.1893192186 0.0294840079 -0.5560800237 0.0289958962 -0.5561854361 0.0233543371 0.1826103088
720295680.0 -0.0153952932 0.1896205642 0.0227432271 -0.5568081486 0.0234358234 -0.556923627 0.0251858195 0.1831852726
725295650.0 -0.0133601883 0.1899830928 0.0169267356 -0.556758927 0.0168899926 -0.5569195518 0.0269511363 0.1826633754
730295620.0 -0.0112399754 0.1904549175 0.010962698 -0.556525211 0.0109518535 -0.5569011424 0.0289013715 0.1823572037
735295590.0 -0.0099664612 0.1907042382 0.0052430263 -0.5570677591 0.0047391729 -0.5569865392 0.0309991674 0.1821703601
740295560.0 -0.0081100622 0.1909019698 -0.0009763923 -0.5566274817 -0.0009837932 -0.5570316948 0.0335518971 0.1823114523
745295530.0 -0.0062297382 0.1912566449 -0.0070910451 -0.556522192 -0.0072374316 -0.5570273559 0.0355660598 0.1814400084
750295500.0 -0.0040606589 0.1911403317 -0.0129367109 -0.5561061867 -0.0125603256 -0.5569367398 0.037353642 0.1814758467
755295470.0 -0.002230431 0.1911620784 -0.0187065017 -0.5561321314 -0.0186225835 -0.5564519609 0.0397029119 0.1809898443
760295440.0 -0.000584796 0.1917509051 -0.0249195961 -0.5563138066 -0.0252804981 -0.5564832058 0.041534979 0.1806753399
765295410.0 0.0013130631 0.191857616 -0.0310299338 -0.556088207 -0.0314781872 -0.5562796631 0.0436693903 0.1806673645
770295380.0 0.0027656743 0.1917908207 -0.0370156046 -0.5556788426 -0.0372016852 -0.5552407587 0.0455229538 0.1801213024
775295350.0 0.0047115474 0.1913795127 -0.0432798023 -0.5548080909 -0.0424704502 -0.5546375932 0.0469101266 0.1800783532
780295320.0 0.0068094141 0.1918904138 -0.0492421084 -0.5542435606 -0.0481664152 -0.5545607538 0.0493894871 0.179392481
785295290.0 0.0084800822 0.1918427441 -0.0552156548 -0.5534389681 -0.0547257992 -0.5537386501 0.0514594753 0.1788045654
790295260.0 0.0111440435 0.1922803757 -0.0604684222 -0.5530780356 -0.0602010697 -0.5527314202 0.0537564473 0.1787469162
795295230.0 0.0127071812 0.1920278124 -0.0669027281 -0.5520853255 -0.0664750467 -0.5526562332 0.0557947829 0.1784551011
800295200.0 0.0140109729 0.1923713218 -0.0730556813 -0.5514541633 -0.0725195735 -0.5516013833 0.0575167045 0.1776982985
805295170.0 0.016231059 0.1921938139 -0.0785827834 -0.5510889425 -0.0785875784 -0.5510890059 0.0596337878 0.1776601058
810295140.0 0.0181037805 0.191848685 -0.0840425732 -0.5497599408 -0.0842652306 -0.5498884495 0.0619221644 0.1770815339
815295110.0 0.0200896416 0.1915401571 -0.0906164906 -0.548331714 -0.0900014363 -0.5489475813 0.0635722537 0.1767507573
820295080.0 0.0215441221 0.1921503653 -0.0964728274 -0.5476718861 -0.0959331537 -0.5479641724 0.0656915094 0.176024623
825295050.0 0.0243579095 0.1917706943 -0.1021209037 -0.5460199276 -0.1019415329 -0.5468561446 0.0677588634 0.1753879372
830295020.0 0.0255285831 0.1919488963 -0.1081656792 -0.5455067658 -0.1079027929 -0.5453735926 0.0700241024 0.1749999281
