!Created with skrf (http://scikit-rf.org).
# Hz S RI R 50.0 
!freq ReS11 ImS11 ReS21 ImS21 ReS12 ImS12 ReS22 ImS22
300000.0 -0.7800286544 -0.0945651928 0.0002335158 0.0013630712 -0.0007960072 0.0013633735 -0.0477553642 -0.057424991
5299970.0 -0.7852525518 -0.0055862216 0.000196992 -3.96161e-05 -0.0002254323 0.0001742677 -0.0458439867 0.0159437741
10299940.0 -0.7876841076 -0.0036322677 -6.1936e-06 6.26962e-05 -0.0002026385 0.0003013839 -0.0402768509 0.0340802336
15299910.0 -0.7935532476 -0.002446428 -4.68445e-05 0.00012704 0.0002470011 -3.03948e-05 -0.0318638128 0.0480987734
20299880.0 -0.8001617258 0.0019713212 6.13628e-05 -1.26752e-05 -5.84451e-05 0.0001291256 -0.0216023284 0.0600182767
25299850.0 -0.8065979419 0.0079719462 1.69424e-05 0.000107697 0.0001858509 -2.24911e-05 -0.0102747263 0.0695169913
30299820.0 -0.8125116696 0.0150153072 -0.0001368534 7.08885e-05 0.0001088575 8.82776e-05 0.0017739794 0.0762833109
35299790.0 -0.8174506271 0.0247310813 -4.19772e-05 -0.0001664251 -2.4584e-05 6.9389e-06 0.0130588283 0.0810755401
40299760.0 -0.8211875963 0.0336438775 6.861e-06 -0.000142829 -9.0979e-05 4.94499e-05 0.0244005654 0.0837665437
45299730.0 -0.8244276285 0.0432829376 0.0002656542 -5.55456e-05 9.4622e-05 0.0001175139 0.0353771489 0.0853416838
50299700.0 -0.8270475096 0.0531631558 0.0001461207 6.68348e-05 8.4081e-06 -7.03022e-05 0.0452967628 0.0852406698
55299670.0 -0.8290807626 0.062897022 3.31271e-05 -7.5745e-05 0.0001013992 0.0001455603 0.0546891754 0.0842756126
60299640.0 -0.8299989984 0.073358993 -8.97212e-05 0.000124727 5.11596e-05 -8.02378e-05 0.0635538794 0.0822309226
65299610.0 -0.8314948014 0.0835646844 -9.92135e-05 7.8166e-06 -0.0001221647 -0.0001105588 0.0708179709 0.0799416826
70299580.0 -0.8315209519 0.0934086613 -0.0002893547 0.0001446811 -7.701e-06 -2.41383e-05 0.0780888285 0.0770945021
75299550.0 -0.8317283893 0.1031469893 0.0001825123 -7.54529e-05 8.79853e-05 3.61082e-05 0.0842654863 0.0736548737
80299520.0 -0.8318772028 0.1126722124 5.75498e-05 5.26422e-05 -0.0001145237 0.0001939609 0.0898553924 0.0704742053
85299490.0 -0.8310077639 0.1226754457 -0.000123488 -0.0001313269 0.0001754341 0.0001972169 0.0947952085 0.0668289284
90299460.0 -0.8298053362 0.1318272244 0.0001746696 9.5729e-06 2.32655e-05 0.0001776715 0.099623059 0.0628067517
95299430.0 -0.8288087337 0.1418776163 7.26029e-05 -0.0001170375 3.48721e-05 0.0001195009 0.1035555761 0.0594956768
100299400.0 -0.8276195441 0.1507075044 0.0001674907 9.98887e-05 4.14041e-05 8.04259e-05 0.1074967183 0.0550655995
105299370.0 -0.8267609066 0.1603610017 5.53498e-05 -0.0001707941 0.0001951326 0.0001039284 0.1108748662 0.0513878831
110299340.0 -0.8251424022 0.169089894 2.40922e-05 0.0001242658 0.0001015783 0.0001363145 0.1136047559 0.04757792
115299310.0 -0.8239469381 0.1783020611 -4.46772e-05 8.92252e-05 0.0001437973 9.37515e-05 0.1160993821 0.0435334149
120299280.0 -0.8221882358 0.1871139166 0.0001117772 -4.63511e-05 2.79536e-05 1.43497e-05 0.1185118652 0.0399978352
125299250.0 -0.82068041 0.195865597 6.80653e-05 0.0001912874 3.7751e-06 0.0001836364 0.1199540051 0.0360344248
130299220.0 -0.8184125104 0.2054860951 2.30007e-05 -0.0001255432 0.0002132168 1.22704e-05 0.122093486 0.0324592062
135299190.0 -0.8167613972 0.2139187759 0.0001699815 9.18855e-05 0.0003200977 5.63424e-05 0.123616869 0.0288994052
140299160.0 -0.8148152263 0.222931272 0.0001434138 -2.09632e-05 0.0001267464 0.0001970103 0.1249637152 0.0256047257
145299130.0 -0.8125713624 0.2318862808 6.227e-06 -3.51054e-05 2.3229e-05 0.0002100519 0.1257622914 0.0219280451
150299100.0 -0.8097103546 0.2408525668 0.0001999423 8.94394e-05 -2.95885e-05 0.0002584189 0.1269116535 0.0192269115
155299070.0 -0.8075230441 0.2490284137 7.73166e-05 0.0001629542 -2.3163e-05 0.0002454361 0.1278440199 0.0158464916
160299040.0 -0.8054774754 0.2579227806 4.63161e-05 3.82974e-05 2.1879e-05 6.77236e-05 0.1280602576 0.0125340622
165299010.0 -0.8027202239 0.2666707473 4.19356e-05 -5.33479e-05 -0.0001631074 0.0001285204 0.128964104 0.0092932581
170298980.0 -0.8000807935 0.275182933 0.0002773316 -7.9295e-06 -7.42524e-05 -9.64465e-05 0.1294040825 0.0063965033
175298950.0 -0.7974440222 0.2837195269 5.0517e-06 8.13191e-05 0.0001209684 0.0001580699 0.1295663688 0.0032546576
180298920.0 -0.7946165724 0.2921443242 9.43868e-05 0.0002436787 0.000275814 -1.11003e-05 0.1295896472 0.0007708127
185298890.0 -0.7910008418 0.300547904 0.0001210836 0.0001842986 8.7807e-06 0.000255486 0.129913154 -0.0020793603
190298860.0 -0.7882372376 0.309515926 3.01e-06 -0.0001038802 -4.05378e-05 5.47625e-05 0.1298936218 -0.0051480698
195298830.0 -0.7856361379 0.3177891616 7.03555e-05 -2.57557e-05 2.90525e-05 6.41108e-05 0.1299737081 -0.0076691604
200298800.0 -0.7816145503 0.3255826665 0.0002122669 8.3815e-05 0.000138528 -7.12866e-05 0.1298695462 -0.0104681073
205298770.0 -0.7781839436 0.3335539614 0.0001526267 4.21425e-05 0.0002483911 -2.3381e-06 0.1294133592 -0.0131171652
210298740.0 -0.774719102 0.3419326183 -4.43689e-05 0.0003311633 9.06648e-05 0.0001672559 0.1296111049 -0.0155504117
215298710.0 -0.7717291359 0.3503944685 -3.27134e-05 4.37184e-05 -3.84443e-05 0.000168331 0.1290693854 -0.0178379676
220298680.0 -0.7674273748 0.3584923665 -0.0001031577 6.1873e-05 -0.0001175841 5.44376e-05 0.1286303862 -0.0202896481
225298650.0 -0.7641720413 0.3664167411 0.000174134 -6.68669e-05 0.0001440968 0.0001104126 0.1280471249 -0.0228753907
230298620.0 -0.7599541586 0.3742216511 6.58293e-05 -7.83764e-05 -1.47714e-05 7.73421e-05 0.1276732239 -0.025566745
235298590.0 -0.7564809649 0.3825556464 0.0001129299 0.0002534785 0.0001167372 0.0001418429 0.1274807751 -0.0273588194
240298560.0 -0.7522757235 0.3903421534 8.52601e-05 3.61848e-05 -7.2624e-06 0.0001242226 0.1270134733 -0.0298400013
245298530.0 -0.7486638335 0.3983544108 9.35706e-05 0.0001539899 1.39161e-05 0.000223872 0.1263444634 -0.0318514609
250298500.0 -0.7437957569 0.4059836344 0.0002156616 0.0001037965 0.0001769097 0.0001520577 0.1253755466 -0.0338927064
255298470.0 -0.7396224692 0.4136280584 6.35741e-05 0.0002900004 0.0001413156 3.64192e-05 0.1251401589 -0.036451678
260298440.0 -0.7351828472 0.4213329058 0.0003325009 0.0001417909 2.3084e-06 -3.45937e-05 0.1245139305 -0.0379715138
265298410.0 -0.7313668976 0.4293905852 3.30659e-05 0.0001907318 4.26129e-05 8.43623e-05 0.1238182553 -0.0400945427
270298380.0 -0.727315375 0.4369779178 8.55897e-05 4.51431e-05 9.89671e-05 0.0004780994 0.1233092896 -0.0423252415
275298350.0 -0.7225113602 0.4446685304 0.0004126347 -0.0001327296 0.0003029186 3.53148e-05 0.1225670964 -0.0439704238
280298320.0 -0.7169733546 0.4521194597 9.759e-07 6.48288e-05 -8.22096e-05 -0.0001165881 0.1219174627 -0.0461307093
285298290.0 -0.7124529264 0.4591250366 0.0001902109 0.0001724238 -6.08854e-05 -7.25761e-05 0.1210921531 -0.047786378
290298260.0 -0.708212664 0.4669211727 0.0001349688 1.48058e-05 0.0001668497 -0.0001949312 0.1203067672 -0.049384309
295298230.0 -0.7031406773 0.4736949486 0.0002230186 4.4336e-05 0.0002095668 8.13123e-05 0.1195645679 -0.0514951607
300298200.0 -0.6978291014 0.4819080253 0.0001102635 -3.47486e-05 0.000155286 8.55988e-05 0.1188812039 -0.0530141616
305298170.0 -0.6925902964 0.4881184639 -2.00266e-05 -1.75169e-05 -3.63816e-05 0.0001407278 0.1181476037 -0.0552343029
310298140.0 -0.687499588 0.4960759801 6.31359e-05 0.0002111138 0.0002136554 0.0001476711 0.1168933925 -0.0572819174
315298110.0 -0.6827081371 0.5029581862 0.0002067565 0.0001965228 0.0002924901 0.0001915143 0.1158911374 -0.0588560686
320298080.0 -0.6775701307 0.5101371713 0.0002393225 0.0001091682 0.0002182241 8.59536e-05 0.1148361904 -0.0608064353
325298050.0 -0.6716074626 0.5170608845 0.0001972294 9.21628e-05 0.0002041369 0.0001509839 0.1135796923 -0.0628921513
330298020.0 -0.6665670805 0.5237278306 -3.90531e-05 -3.2217e-06 -5.62691e-05 4.47193e-05 0.1119957054 -0.0639684559
335297990.0 -0.6610200328 0.5299347569 0.0002166593 -1.74644e-05 0.0002536905 9.51739e-05 0.1107290726 -0.0653359284
340297960.0 -0.6560541086 0.5378190072 0.0001888698 0.0001053268 0.0002646973 0.000116782 0.1100358282 -0.0666337275
345297930.0 -0.6503879838 0.5438947486 -1.9672e-05 8.74033e-05 0.0001202225 0.0001438238 0.1088415242 -0.0683606891
350297900.0 -0.6443487979 0.5509772068 2.9266e-05 8.00131e-05 3.08398e-05 0.0002069317 0.1071542475 -0.0692111316
355297870.0 -0.6384999448 0.5580218904 0.0001869544 0.0001127341 -7.09e-06 -3.95029e-05 0.105913345 -0.0711034274
360297840.0 -0.6329188208 0.5638703542 5.3404e-06 0.0001220619 0.0001111864 -0.0001055994 0.1052271924 -0.0721184207
365297810.0 -0.6276697815 0.5703523259 0.0003108273 7.9123e-06 0.0001705405 0.0004533219 0.1040577165 -0.0737720899
370297780.0 -0.6213048257 0.5765489815 0.0001276787 0.0001015141 0.0002164068 0.0002236281 0.1029680267 -0.0749252512
375297750.0 -0.6145300113 0.5826926729 0.0002524332 -6.52126e-05 -3.72532e-05 -7.58215e-05 0.1014631321 -0.0765198242
380297720.0 -0.6087538162 0.588798411 7.83605e-05 0.0003381281 0.0002461864 8.80899e-05 0.1001388718 -0.0774043683
385297690.0 -0.6026441572 0.5949627905 0.0002769006 9.51234e-05 8.22435e-05 8.01547e-05 0.0993299368 -0.0788058099
390297660.0 -0.596803049 0.6011726763 0.0001913858 3.42912e-05 0.0002452823 0.000185783 0.0977134158 -0.0794750512
395297630.0 -0.5902268396 0.607904422 0.0004129436 5.92406e-05 0.0001127146 0.0001066691 0.0969489248 -0.0809966671
400297600.0 -0.5839539201 0.613114546 0.0002378395 0.0003078491 0.0003266124 0.0001127334 0.0958726167 -0.081853695
405297570.0 -0.5784385549 0.6195181078 -0.0002227019 -4.66434e-05 5.43591e-05 3.84296e-05 0.0943032375 -0.0833637912
410297540.0 -0.5710685902 0.6246692931 0.0005848244 0.0002134878 3.18977e-05 -8.89159e-05 0.0932995878 -0.0845611916
415297510.0 -0.5647795955 0.6310165597 0.0003682224 -0.0002241762 0.0002357529 0.0001106161 0.0919331315 -0.0857040193
420297480.0 -0.5596897924 0.6369051553 2.40126e-05 0.0001720216 0.0002213286 0.0001225444 0.0907611604 -0.0862547494
425297450.0 -0.5519150531 0.6420966216 0.0001956624 0.0002396157 0.0002218535 5.65794e-05 0.0897368814 -0.0876255706
430297420.0 -0.5453156596 0.6481615219 6.71146e-05 -4.6087e-06 0.0002697061 0.000149956 0.0880780071 -0.088739246
435297390.0 -0.5390805077 0.6526460092 0.0002339407 0.0002733676 0.0001367792 0.0001571227 0.0871017685 -0.089907548
440297360.0 -0.5323255719 0.6588770805 9.07228e-05 -6.69885e-05 0.0002796551 0.0001715291 0.0859727444 -0.0905817965
445297330.0 -0.5252718842 0.6638868228 0.0001899662 0.0001457361 0.0001290444 0.0001339238 0.0841400408 -0.091788322
450297300.0 -0.5186229407 0.6689611142 0.0001973279 0.0001005962 0.0002990983 -0.0001339807 0.0829844953 -0.0924619806
455297270.0 -0.5120347684 0.6742331217 0.0003679827 0.0003057386 0.0002940076 -0.0001173528 0.0818590092 -0.0934989492
460297240.0 -0.5049241434 0.6792885901 0.0001454243 5.1907e-05 0.0001257245 -4.82101e-05 0.0804753705 -0.0940224492
465297210.0 -0.4978131532 0.6844607939 0.0005269064 0.0001142263 0.0001932743 9.65817e-05 0.0791782323 -0.0951903696
470297180.0 -0.4907872671 0.6897106855 0.0001428603 6.04924e-05 0.0001597468 1.85497e-05 0.0778810613 -0.095796697
475297150.0 -0.4839419061 0.6943433679 8.46334e-05 6.33109e-05 0.0001879678 0.0001435715 0.0765964416 -0.0968238151
480297120.0 -0.4772567473 0.6995450263 0.0002854283 0.0001289129 0.0002000615 -3.8438e-06 0.0751536794 -0.0976035276
485297090.0 -0.46941529 0.7039129804 8.38059e-05 7.51123e-05 0.0003145745 0.0002051472 0.0741880296 -0.0983562188
490297060.0 -0.462263117 0.7082779718 7.20846e-05 -2.13925e-05 -2.73098e-05 3.89578e-05 0.0724994256 -0.0993716005
495297030.0 -0.455343835 0.7123095259 0.0003436483 7.73468e-05 0.0004193978 0.0002491288 0.0713210549 -0.0996982641
500297000.0 -0.4477413058 0.7174291332 0.0003800498 0.0001900404 0.0003742905 2.35062e-05 0.0698139752 -0.1004145215
505296970.0 -0.4399978116 0.7228826962 0.0002271428 0.0001795923 0.0001870243 0.0001821472 0.0681522602 -0.1015406781
510296940.0 -0.432911067 0.7264930408 0.0005008533 -5.18294e-05 0.0001735234 -1.00726e-05 0.0665382398 -0.1018106147
515296910.0 -0.4250653464 0.7302352174 0.0001340541 0.0003076963 0.0003136909 8.49565e-05 0.065708147 -0.1028008705
520296880.0 -0.4186570624 0.7349227022 0.0002447264 0.0001910411 0.0003387058 0.0002757441 0.063746472 -0.1032288677
525296850.0 -0.410826861 0.738463603 8.62783e-05 5.29093e-05 0.0002054756 0.000182977 0.0628553342 -0.1035456953
530296820.0 -0.4028143124 0.7430884644 9.2642e-06 0.0001418805 0.0002365644 1.57339e-05 0.0615926097 -0.1043170818
535296790.0 -0.3959857771 0.7470550237 0.0001454525 1.56893e-05 0.0003292995 0.0001643834 0.0596357675 -0.1050760084
540296760.0 -0.3883577052 0.7505089434 0.000337719 0.0002510355 0.000201109 -2.37819e-05 0.0580887341 -0.1054612953
545296730.0 -0.3808262321 0.7551721028 0.0005052603 0.0001337655 0.0003143935 9.49783e-05 0.0569461742 -0.1063871029
550296700.0 -0.3733448956 0.7582504153 0.00038712 6.26455e-05 0.0003200066 -0.0001532852 0.0553236043 -0.1066849987
555296670.0 -0.3651703833 0.7613456939 0.0001865601 0.0002942655 0.0004321498 -0.0001499173 0.0541111577 -0.107176062
560296640.0 -0.3576824798 0.7660456141 0.0001352187 0.0001711402 9.14876e-05 0.0001830743 0.0527841944 -0.1077015744
565296610.0 -0.3503903336 0.7692077779 0.0002616217 2.92934e-05 0.0003787458 0.0001034303 0.0510827361 -0.1082159024
570296580.0 -0.3424780252 0.7722727791 0.0001885263 0.0002618085 0.0004274064 2.04989e-05 0.0496790699 -0.1086754585
575296550.0 -0.3347175692 0.7764765217 0.0002333459 0.0001611431 0.0001627363 0.0001465813 0.0483942422 -0.1090719182
580296520.0 -0.3263091732 0.7787893603 0.0003037928 0.0002131323 0.0003344544 -8.72025e-05 0.0469774064 -0.1095673907
585296490.0 -0.3188354011 0.782354859 0.0001591934 0.0001456825 0.0004529307 0.0003170159 0.045785712 -0.1098783523
590296460.0 -0.3107089953 0.7852523618 0.0002519741 1.6557e-06 0.0001210253 0.0001156282 0.0437900535 -0.1102055525
595296430.0 -0.3031651306 0.7881462735 0.0001304006 0.0002847956 0.000400049 -9.73651e-05 0.0426717361 -0.1105314384
600296400.0 -0.2953681681 0.7917792215 0.0002493097 8.47833e-05 0.0002357676 -3.0012e-06 0.0408040664 -0.1111222106
605296370.0 -0.2882840511 0.7943363115 0.0001118568 0.0002108924 0.0003569962 0.0002039757 0.0397592761 -0.1113379913
610296340.0 -0.2794788689 0.7974526199 0.0003352358 -2.82034e-05 0.0003528059 0.0001508128 0.0383417427 -0.1112397864
615296310.0 -0.2706763989 0.7999131064 0.0002331626 -0.0001069831 0.0002045976 0.0003951585 0.0370366559 -0.1121257062
620296280.0 -0.2631765295 0.8018255733 0.0001565632 -9.70188e-05 0.0002524093 -5.94662e-05 0.035606094 -0.1121324111
625296250.0 -0.2551477901 0.8050026729 0.0002823839 -6.5916e-06 0.0003555371 1.44156e-05 0.0341402045 -0.1122897585
630296220.0 -0.2465808228 0.8078771023 0.0003564362 6.28728e-05 0.0003470716 0.0001032786 0.0324351272 -0.1118571814
635296190.0 -0.2392210874 0.8102189335 0.0003318817 8.21065e-05 0.0001212877 -2.61155e-05 0.0309888238 -0.1124948375
640296160.0 -0.2312920625 0.8124717493 0.0003036892 6.20456e-05 0.0001990506 0.0001701553 0.0297777409 -0.1127783958
645296130.0 -0.222942263 0.8154144956 0.0003672734 0.0002172617 0.0004408742 -0.0001027967 0.0280341808 -0.1124371635
650296100.0 -0.2147078476 0.8165236833 0.0002153672 -7.0134e-05 0.0001269885 -5.56328e-05 0.0271169324 -0.1130829922
655296070.0 -0.2063693472 0.8191711911 0.000357055 0.0001686353 0.0004888979 5.7528e-05 0.0256516511 -0.1129724818
660296040.0 -0.1979052651 0.8207164135 0.00037246 -0.0001258184 0.0004061721 -4.74416e-05 0.0240041775 -0.1132340622
665296010.0 -0.1898583641 0.8218176131 0.0001467182 -9.34975e-05 0.0003606096 2.69173e-05 0.0225004814 -0.113110947
670295980.0 -0.1821973713 0.824430513 0.000331993 0.000277881 0.0002083374 -0.0001106824 0.0209128191 -0.1133175586
675295950.0 -0.1733219532 0.8257618688 0.000243103 0.0001262118 0.0003055242 -3.56765e-05 0.019404232 -0.1128728594
680295920.0 -0.1654073336 0.8282680107 8.6815e-06 3.00912e-05 0.0001900005 6.71123e-05 0.0183397256 -0.1131993317
685295890.0 -0.156750432 0.8303463304 0.0003529827 9.09487e-05 0.0003982198 3.1619e-05 0.0166847525 -0.1131256386
690295860.0 -0.1493715974 0.8308080424 0.0003061293 9.54552e-05 0.000432215 -7.50982e-05 0.0150104489 -0.1128338591
695295830.0 -0.140967045 0.8320853292 0.0003211169 5.28048e-05 0.0003002037 7.6158e-06 0.0137633236 -0.1129170375
700295800.0 -0.1321403151 0.8341628651 0.0001328673 -5.0468e-05 0.0004349898 0.0001432276 0.012078675 -0.1126156434
705295770.0 -0.12458061 0.8353402732 0.000627472 4.28947e-05 0.0001341808 2.94605e-05 0.0106098638 -0.112463462
710295740.0 -0.1157319894 0.8362811174 0.0003281859 9.70241e-05 0.000451406 6.49545e-05 0.0091565433 -0.1128538256
715295710.0 -0.1076794925 0.8371961424 0.0004557637 -0.0001258867 0.0002649436 -0.0001219161 0.0077878332 -0.1125845103
720295680.0 -0.0993324119 0.8383148043 8.55646e-05 -2.89792e-05 0.0004074642 -5.71626e-05 0.0065811719 -0.1125086213
725295650.0 -0.0910861585 0.8396408337 0.0001992395 -6.05343e-05 0.0003258412 -0.0001399483 0.004706395 -0.1121645739
730295620.0 -0.0827809819 0.8401665093 0.0005130309 3.78116e-05 0.0003402679 0.0001645206 0.0033670716 -0.1121397309
735295590.0 -0.0748044359 0.8406555894 0.0003529134 5.14479e-05 0.0003698126 4.44133e-05 0.0016558375 -0.1121234275
740295560.0 -0.0666325363 0.842016842 0.0002302892 8.51683e-05 0.0004085263 0.0001053463 0.0009161438 -0.1116033285
745295530.0 -0.0579292415 0.8430802555 0.0003635551 0.0001512141 0.0003121091 -1.66159e-05 -0.0008651095 -0.1116853903
750295500.0 -0.0486884834 0.84308902 0.0001412266 1.43842e-05 0.0004448339 -5.6658e-05 -0.0021103013 -0.111476415
755295470.0 -0.040847521 0.8428963303 0.0002442889 -0.0001355791 0.0004757462 5.20033e-05 -0.0035710254 -0.1113877871
760295440.0 -0.0330087207 0.8434239779 0.0003749826 -0.0001723379 0.0003709072 -1.14927e-05 -0.0051749718 -0.1110537107
765295410.0 -0.0246270214 0.8439079426 0.0003320828 2.4887e-06 0.0003766077 -0.0001818467 -0.0063122575 -0.1104005265
770295380.0 -0.0164156758 0.8440892611 0.0004254612 6.06349e-05 0.0002554552 -0.0001085744 -0.0079453476 -0.1105602378
775295350.0 -0.0083528719 0.8437389389 0.0003321075 0.0001053672 0.0002708193 -4.81425e-05 -0.0093768965 -0.1102770342
780295320.0 0.0006612481 0.8437478882 0.0004169386 -0.0002446324 0.0002742201 -7.97212e-05 -0.0103448695 -0.1097164596
785295290.0 0.0085672473 0.8434518474 0.0003416175 0.0001087049 0.0004479249 5.95319e-05 -0.0116341991 -0.1096851241
790295260.0 0.0172865251 0.8435301674 0.0004508896 -0.0001962222 0.0005330389 -4.6959e-06 -0.0130755259 -0.1088974974
795295230.0 0.0256523962 0.8436789891 0.0002074499 -8.33346e-05 0.000338913 -0.0001484319 -0.0139083666 -0.1082714929
800295200.0 0.0336885043 0.8431989202 0.0003460261 -0.000133618 0.0003988 5.29999e-05 -0.0157360609 -0.1078297116
805295170.0 0.0424842743 0.8423501744 0.0003688909 9.3315e-06 0.000355467 0.0001091683 -0.0174319304 -0.1074190598
810295140.0 0.0504086832 0.8424224102 0.0005631991 -5.91127e-05 0.0002375151 -3.98481e-05 -0.0180353204 -0.1073891931
815295110.0 0.0585062937 0.8420074771 0.0005132331 -0.0001521407 0.0001203032 -0.0002399757 -0.0197861404 -0.1066784053
820295080.0 0.0674555757 0.8414518762 0.0001490215 9.83722e-05 0.0004018654 -0.0001835849 -0.0211144652 -0.1061360151
825295050.0 0.0763328313 0.8403433682 0.000387066 -0.0002621534 0.0003874053 -0.0001725828 -0.0222587905 -0.1057206569
830295020.0 0.0838292132 0.8398990021 0.0005203125 -0.0002785713 0.0004197548 -0.0002149108 -0.023416364 -0.1051370209
835294990.0 0.0920578714 0.8386035596 0.0002103617 -0.000180229 0.0004912968 -0.0002623711 -0.0248690057 -0.1046434858
840294960.0 0.1000785512 0.8385969536 0.0001065261 -0.0001691656 0.0003300824 -0.0002826295 -0.0261518821 -0.1036970178
845294930.0 0.1083833796 0.8370626295 0.0004321576 -1.53722e-05 0.0003305939 -0.0001135706 -0.0275268587 -0.103414477
850294900.0 0.1168707523 0.8366432676 0.0002873551 -1.19028e-05 0.0003542278 -0.0001583736 -0.0290946881 -0.1025495646
