!Created with skrf (http://scikit-rf.org).
# Hz S RI R 50.0 
!freq ReS11 ImS11 ReS21 ImS21 ReS12 ImS12 ReS22 ImS22
300000.0 -0.3234179993 -0.0899526352 0.3774052058 0.0467956058 0.3725430717 0.046501188 -0.3174866198 -0.1063638214
5299970.0 -0.3263204877 0.0038562342 0.3783129 0.0022218705 0.3781674783 0.002675358 -0.3236667069 0.0048957015
10299940.0 -0.3240636343 0.013279864 0.3793660559 0.0022451282 0.3793931962 0.0023676439 -0.3210501587 0.0160720832
15299910.0 -0.321476097 0.0204568053 0.3817827578 0.0021315872 0.3819032392 0.0021704204 -0.3178331989 0.0239467972
20299880.0 -0.3184856454 0.0264730871 0.384504482 0.0017575097 0.3846103413 0.0015363229 -0.3143218211 0.0304679499
25299850.0 -0.3157627562 0.0313354326 0.3880473007 5.69876e-05 0.3880687194 -0.000239997 -0.3103504712 0.036255035
30299820.0 -0.3126422004 0.0358631607 0.3911100849 -0.0024283704 0.3914320469 -0.0024318552 -0.306758552 0.040956467
35299790.0 -0.3098723676 0.0400950461 0.3946635186 -0.005734171 0.3945588792 -0.0054111275 -0.3031857626 0.0454529564
40299760.0 -0.3068200635 0.04358465 0.3978274591 -0.0089009343 0.3979113752 -0.0087013254 -0.2997432545 0.0489693123
45299730.0 -0.3046034041 0.0466495423 0.4008985335 -0.0128063267 0.4006112886 -0.0128146918 -0.2968965727 0.0521467437
50299700.0 -0.3021658435 0.049627443 0.4035111536 -0.0173956596 0.4033479855 -0.0172812289 -0.2939866182 0.0550889369
55299670.0 -0.3002861984 0.0522057918 0.4055651845 -0.022295755 0.4053629946 -0.0220689992 -0.2913635564 0.0577809203
60299640.0 -0.2977351739 0.0553251256 0.4075482041 -0.0271232056 0.4076557205 -0.0269231168 -0.2889121299 0.0597871547
65299610.0 -0.29630475 0.0574977169 0.4091954858 -0.0319792489 0.409052943 -0.0320795259 -0.2873098527 0.0619652676
70299580.0 -0.2947138296 0.0601226104 0.4102368928 -0.0369869907 0.4101404924 -0.0368643031 -0.2850249668 0.0641254955
75299550.0 -0.2928681709 0.0624056111 0.4112023663 -0.042511299 0.4111015534 -0.0423286929 -0.2829126084 0.0658518159
80299520.0 -0.2913356298 0.0647900621 0.4122336295 -0.0473298117 0.4123445869 -0.0477604738 -0.2816848131 0.0685980068
85299490.0 -0.2901179154 0.067173552 0.4126097134 -0.0528035467 0.4125416706 -0.052740184 -0.2799723526 0.0701983483
90299460.0 -0.2891515288 0.0695388702 0.4129662654 -0.0581799783 0.413607952 -0.0582041589 -0.2783598099 0.0724205319
95299430.0 -0.2876546347 0.0715980419 0.4135038308 -0.0632799577 0.4133977605 -0.0634050636 -0.2769179726 0.0745579828
100299400.0 -0.2865683711 0.0740742659 0.4130017491 -0.0682611179 0.4133469326 -0.068520507 -0.2753405206 0.0758043635
105299370.0 -0.2850590465 0.0763795808 0.4131675245 -0.073952585 0.4134591329 -0.0736688479 -0.2738261168 0.078160709
110299340.0 -0.2839526916 0.07861036 0.413128591 -0.0788125496 0.4129150644 -0.0786408686 -0.2730782518 0.0801652764
115299310.0 -0.2828522316 0.0810343457 0.412880653 -0.0838666806 0.4125761268 -0.0842114117 -0.2714197182 0.0822378332
120299280.0 -0.2817372116 0.0833404775 0.4120361826 -0.0889428849 0.4122946164 -0.0891310042 -0.2704112065 0.0843136917
125299250.0 -0.2809254639 0.0854443824 0.4119272126 -0.0937737206 0.4119743874 -0.094066755 -0.2693517653 0.0860689022
130299220.0 -0.2800793453 0.0881728489 0.4106279606 -0.0991703922 0.4109228443 -0.0993773524 -0.2684103701 0.0882006522
135299190.0 -0.2792646058 0.090836499 0.4104437494 -0.1043841479 0.4103272251 -0.1040940046 -0.2667763504 0.0905316967
140299160.0 -0.2784915638 0.0932978144 0.409406865 -0.1094171818 0.4096634565 -0.1094118884 -0.2658106619 0.0931922286
145299130.0 -0.2772300266 0.0957832922 0.4087522449 -0.114300567 0.4083432528 -0.1137004886 -0.265163427 0.0952843434
150299100.0 -0.2761756653 0.0983502774 0.40760676 -0.1187295522 0.4075306487 -0.1186640988 -0.2640742148 0.0982215481
155299070.0 -0.275314863 0.1006204328 0.406525389 -0.1242441823 0.4065956614 -0.1240381237 -0.2627885567 0.1006633146
160299040.0 -0.2743802421 0.103617817 0.4052052212 -0.1287928389 0.4048391436 -0.1289305084 -0.2621364852 0.1031096707
165299010.0 -0.2735886142 0.106110785 0.4039933618 -0.1340857674 0.4039620734 -0.1338888989 -0.2607322046 0.1055350367
170298980.0 -0.2724964165 0.1087223832 0.4025536036 -0.1387213257 0.4028223181 -0.1384989385 -0.2597369445 0.1081629691
175298950.0 -0.2714574316 0.1113532936 0.4016408405 -0.1433788613 0.4009613731 -0.1435392237 -0.2586489075 0.110758793
180298920.0 -0.2708496814 0.114102669 0.3997107758 -0.148040638 0.3998336 -0.1477919051 -0.2581281419 0.1134559874
185298890.0 -0.2693334893 0.1164807005 0.3983474562 -0.1527150911 0.3980134539 -0.1527071049 -0.2566061635 0.116076314
190298860.0 -0.2685902793 0.1193699667 0.3968508215 -0.15719811 0.3970592014 -0.1574008746 -0.2560132862 0.1184547451
195298830.0 -0.2677502537 0.1218990059 0.3949984167 -0.1621126824 0.3949457155 -0.162053757 -0.2544900354 0.1208926365
200298800.0 -0.2661533277 0.1245547049 0.3930477125 -0.1666969993 0.3933923163 -0.1667706372 -0.2539841623 0.1237079407
205298770.0 -0.2654077429 0.1272703546 0.3911579411 -0.1711513587 0.3913814566 -0.1711704814 -0.252903894 0.1258078847
210298740.0 -0.2642465911 0.1298335649 0.3896624414 -0.1755582592 0.3894569128 -0.1755240541 -0.2512055126 0.1289231561
215298710.0 -0.2634296145 0.133022028 0.3879826845 -0.1803337985 0.387878308 -0.1805436511 -0.250888391 0.1313739884
220298680.0 -0.262027144 0.1351715541 0.385414121 -0.1845244067 0.3856004943 -0.1847042859 -0.2498702408 0.1336987283
225298650.0 -0.2607222769 0.1380387215 0.3837422085 -0.1891815287 0.3838080289 -0.188911982 -0.2489848057 0.1363457733
230298620.0 -0.2596111634 0.1408725794 0.3818338201 -0.193183336 0.3820855992 -0.1934081964 -0.2477944152 0.1386585818
235298590.0 -0.2582443527 0.1439355784 0.3797466365 -0.1980133623 0.3798892675 -0.1974633923 -0.2465230971 0.1418144381
240298560.0 -0.2568757955 0.1463961788 0.3777128616 -0.2025058194 0.3773952642 -0.2023685833 -0.2454141087 0.1440720385
245298530.0 -0.2558839434 0.1491519172 0.3757215091 -0.2069716128 0.3752568457 -0.2068959288 -0.2441110384 0.1461753444
250298500.0 -0.2542881504 0.1519612994 0.3722967971 -0.2109829077 0.3726247758 -0.2108401952 -0.2428790955 0.1487674889
255298470.0 -0.2527677304 0.154211311 0.3702447346 -0.2149403885 0.3701531602 -0.2150822393 -0.2412280374 0.1511952983
260298440.0 -0.2520672867 0.1570189586 0.3680600504 -0.2198050425 0.3683957221 -0.2194068092 -0.2399773166 0.153459596
265298410.0 -0.2500097064 0.1600405262 0.3656845396 -0.223819698 0.3659220157 -0.2231675529 -0.2382359088 0.1558426289
270298380.0 -0.2485868478 0.1623765132 0.3631846135 -0.2272795373 0.363478034 -0.2274739489 -0.2368424308 0.1583084085
275298350.0 -0.2468267538 0.165319336 0.3606289207 -0.2318823683 0.3609219808 -0.231882968 -0.2352679814 0.161151396
280298320.0 -0.245095942 0.1678869273 0.3584194311 -0.2359386959 0.3584250555 -0.235535665 -0.2335490532 0.1634840375
285298290.0 -0.2434892775 0.1708340047 0.3559198085 -0.2398330273 0.3552915394 -0.2398165586 -0.231631148 0.1658632153
290298260.0 -0.2417995291 0.1731043402 0.3531462751 -0.2437171859 0.3530353563 -0.2438903122 -0.2299167233 0.1683990164
295298230.0 -0.2399823434 0.175658649 0.350131456 -0.2476987255 0.3500062205 -0.2477344843 -0.2277791875 0.1705336498
300298200.0 -0.2385448933 0.1782719602 0.3478245772 -0.2515561743 0.3478532713 -0.2520771196 -0.2265789127 0.1730809811
305298170.0 -0.2362395008 0.1806254055 0.3444146909 -0.2558364758 0.3448291271 -0.2558825582 -0.2243707385 0.1752625178
310298140.0 -0.2345255679 0.1835957347 0.3421461559 -0.2595096782 0.3421848263 -0.2596474228 -0.2225128083 0.1779606358
315298110.0 -0.2328552361 0.1857582117 0.3389429058 -0.2634734484 0.3391142878 -0.2636404249 -0.2207983687 0.1802679076
320298080.0 -0.2308736291 0.1883434877 0.3357026962 -0.2675796643 0.3361732622 -0.2673933195 -0.2188009131 0.1826657611
325298050.0 -0.2290487264 0.1908676887 0.3332427214 -0.2715086208 0.333200869 -0.2712758337 -0.2175064068 0.1851603975
330298020.0 -0.2274027414 0.1930863827 0.3298751543 -0.2753809939 0.3300020045 -0.2751186993 -0.2154316437 0.1874173851
335297990.0 -0.2256204369 0.1951797589 0.3265577559 -0.2779250911 0.3270188298 -0.2788726596 -0.2139697064 0.1902618473
340297960.0 -0.2241758694 0.1984544475 0.3235739822 -0.2823855872 0.3232921652 -0.2827229466 -0.2117899156 0.1929223947
345297930.0 -0.2220013822 0.2009407446 0.3202948724 -0.2862455029 0.3204123929 -0.2857651197 -0.2099095006 0.1951286411
350297900.0 -0.2202491436 0.2029595232 0.3167761919 -0.2892130874 0.3171241757 -0.2894393359 -0.2081839588 0.1978090157
355297870.0 -0.2178752365 0.2059604352 0.3138120241 -0.29293297 0.3142052651 -0.2928961796 -0.2065743427 0.200113317
360297840.0 -0.2157162747 0.2082029123 0.310734455 -0.2962384502 0.3111823172 -0.2962587379 -0.2043702923 0.2028825184
365297810.0 -0.2139256593 0.2110520027 0.3073846995 -0.2998401142 0.3076099016 -0.2998681604 -0.2021919846 0.2049987938
370297780.0 -0.2117149316 0.2128360741 0.3037702049 -0.3028384296 0.3042982536 -0.3029558876 -0.2001447051 0.2077456095
375297750.0 -0.2092953893 0.2158056323 0.3009625558 -0.3064207998 0.3009706565 -0.3062780214 -0.1984479972 0.2096324172
380297720.0 -0.2073595939 0.2181149478 0.2972314958 -0.3099246105 0.2971835426 -0.3091401032 -0.1964448928 0.2119058886
385297690.0 -0.2052519856 0.2203468199 0.293688289 -0.3130027044 0.2934807186 -0.3133226557 -0.1943311686 0.2144445255
390297660.0 -0.2029059358 0.2227404718 0.2905629064 -0.3162274764 0.2904096536 -0.3158933393 -0.1926549724 0.2165204603
395297630.0 -0.2006798768 0.2251853904 0.2869230093 -0.3196149568 0.2867344176 -0.3192992829 -0.1898630595 0.2185632148
400297600.0 -0.1986427722 0.2278815547 0.2830582673 -0.3228146588 0.2833434999 -0.3224720251 -0.1881089951 0.2208612413
405297570.0 -0.1964134989 0.2296886512 0.279801344 -0.325172007 0.2795363754 -0.3255978545 -0.1861169562 0.2232603514
410297540.0 -0.1937179701 0.231648046 0.276174502 -0.3286162423 0.2764860986 -0.3285876657 -0.1840398265 0.2253989443
415297510.0 -0.1911887261 0.2336087947 0.2723086691 -0.3317169687 0.2723071247 -0.3317237169 -0.1813533387 0.2271702215
420297480.0 -0.1891915883 0.2365979051 0.2686530211 -0.3348442375 0.2685988141 -0.3349176183 -0.1795900745 0.2292088844
425297450.0 -0.1865775129 0.2381983758 0.2652337636 -0.3376068284 0.2655519774 -0.3378669001 -0.1770541848 0.2313431355
430297420.0 -0.183794512 0.2403367891 0.2614120168 -0.3403326653 0.2616983139 -0.3401660817 -0.175173797 0.2329982788
435297390.0 -0.1816818981 0.2423823822 0.257362957 -0.3432286188 0.2569791965 -0.343293855 -0.1717715982 0.2349343838
440297360.0 -0.1789487835 0.2446691797 0.2535345429 -0.3459457469 0.2538231441 -0.3459780435 -0.1701714513 0.2366813343
445297330.0 -0.1764359699 0.2466751881 0.2501779699 -0.3488026895 0.2498928841 -0.3483646796 -0.1672619686 0.2383425914
450297300.0 -0.1740186695 0.2482672993 0.2458773032 -0.3514564998 0.2459129489 -0.3513860174 -0.1645066185 0.2403124197
455297270.0 -0.1713594675 0.2505575621 0.2420904306 -0.3538239874 0.2423610307 -0.3536639736 -0.1621730187 0.2416802581
460297240.0 -0.1692348615 0.2523529597 0.2381389576 -0.3566971191 0.2384241461 -0.356773266 -0.1595295542 0.2441195996
465297210.0 -0.1661877506 0.2545197835 0.2344550996 -0.3591473307 0.2343078644 -0.3595267021 -0.1569538422 0.2453115645
470297180.0 -0.1634212466 0.2559547987 0.2297841053 -0.3617610549 0.2305169421 -0.3614905438 -0.1540946397 0.2475729615
475297150.0 -0.1609162506 0.2578813518 0.2259593061 -0.3639064135 0.2262855225 -0.3638595427 -0.1512701109 0.248862449
480297120.0 -0.1583468489 0.2597500574 0.2221813225 -0.3666911746 0.2220475604 -0.3667317093 -0.1482750778 0.2509680989
485297090.0 -0.1555117049 0.2618054006 0.2183976642 -0.368861924 0.2183468282 -0.3686941479 -0.1458582252 0.252262408
490297060.0 -0.1530880362 0.2634683805 0.2142303094 -0.3712299614 0.2145368033 -0.3710645126 -0.1430737479 0.2543692381
495297030.0 -0.1504164072 0.2650242797 0.2100427988 -0.3736945899 0.2105165869 -0.3734121619 -0.1404586067 0.2562529309
500297000.0 -0.1470234499 0.2671100717 0.2058595315 -0.3755417414 0.2060190544 -0.3756982121 -0.1375608399 0.258070154
505296970.0 -0.144214981 0.2686137859 0.2019706755 -0.3777942291 0.2018698638 -0.3778365795 -0.1351210484 0.2599090759
510296940.0 -0.1416419305 0.2702188353 0.1981076384 -0.37982143 0.1974156765 -0.3803526352 -0.1320244751 0.2615253339
515296910.0 -0.138497801 0.2719426656 0.1936375063 -0.3821674168 0.1934819368 -0.3821197255 -0.1293975938 0.2632436368
520296880.0 -0.136130377 0.2736663891 0.1895620506 -0.3844927307 0.1892977946 -0.3840204569 -0.1268576175 0.2644641873
525296850.0 -0.1330285001 0.2747516992 0.1847923157 -0.386104345 0.1855185437 -0.3860436551 -0.1239369771 0.2664335515
530296820.0 -0.1301179769 0.2766091096 0.1808269504 -0.3886104005 0.1808664108 -0.3884179904 -0.1212304738 0.2679348042
535296790.0 -0.1277622282 0.2782026132 0.1769350525 -0.3898416205 0.1768259453 -0.3899273024 -0.1186903209 0.2692302453
540296760.0 -0.1244948428 0.2798480727 0.1724275859 -0.3925117913 0.172205701 -0.3923186329 -0.115898443 0.2712357021
545296730.0 -0.1218033418 0.2812724748 0.1676738974 -0.394051176 0.1683071428 -0.3942546928 -0.1135389858 0.2723263123
550296700.0 -0.1183637223 0.2825767887 0.1638690447 -0.3957125886 0.1637677358 -0.3956212018 -0.1106681622 0.2735590995
555296670.0 -0.1155106295 0.2839337682 0.1595436601 -0.3977603437 0.159621499 -0.3974100685 -0.1077829203 0.2755725669
560296640.0 -0.1122986559 0.2858817892 0.1549291541 -0.3994590212 0.1552211199 -0.3992350932 -0.1044903319 0.2767471264
565296610.0 -0.1096923912 0.2869350086 0.1506335928 -0.4009771379 0.150841779 -0.4007786563 -0.1018471616 0.2774502065
570296580.0 -0.1067305714 0.2879044362 0.1463020313 -0.4025994933 0.1458230705 -0.4024033938 -0.0993657819 0.2791519652
575296550.0 -0.10373725 0.2897357034 0.1415310896 -0.4041782836 0.1412651922 -0.4039814401 -0.0960580981 0.2804536601
580296520.0 -0.1003142887 0.2908314954 0.1372306739 -0.4056428762 0.1373038774 -0.4054133626 -0.0936627233 0.281510796
585296490.0 -0.0977303533 0.2917088589 0.1331511766 -0.4067154418 0.1332402683 -0.4068913002 -0.0906795631 0.2827335615
590296460.0 -0.0942201477 0.2926766242 0.1285670611 -0.4076530436 0.1286563062 -0.4083933682 -0.088035386 0.2836148632
595296430.0 -0.0915263581 0.2941584872 0.1239112857 -0.4098041094 0.12391045 -0.4094276257 -0.0848829746 0.2837629193
600296400.0 -0.0883630315 0.2952665794 0.1190038341 -0.4111137946 0.1196671766 -0.4106481222 -0.0821366577 0.2850298879
605296370.0 -0.0855060564 0.2960910054 0.1152477724 -0.4120751932 0.1151618828 -0.4120498355 -0.0788330763 0.2862085815
610296340.0 -0.0819918324 0.2970712761 0.1102627915 -0.4132296109 0.1107582506 -0.4132402385 -0.075737788 0.2869285655
615296310.0 -0.0789248732 0.2979164203 0.1061633631 -0.4140514555 0.1060093114 -0.4147272264 -0.0727013866 0.2876816648
620296280.0 -0.0758075003 0.2985558506 0.1015669793 -0.414883145 0.1015050962 -0.4151279572 -0.0695861717 0.2884828216
625296250.0 -0.0729607936 0.2995633431 0.0972877643 -0.4163142143 0.0969378188 -0.4166723712 -0.0662218879 0.2889523442
630296220.0 -0.069173524 0.3006670816 0.0919607654 -0.417611133 0.0924893243 -0.4175571456 -0.063489353 0.2903245583
635296190.0 -0.0667869879 0.3015755402 0.0877370512 -0.4181532037 0.0876577156 -0.4181266446 -0.0602367979 0.2908818362
640296160.0 -0.0635710608 0.302401156 0.0833379139 -0.4189176885 0.0837249324 -0.4193077787 -0.0567249264 0.2916282759
645296130.0 -0.0602604296 0.3035211846 0.0787001624 -0.4199176639 0.0790762497 -0.4199939867 -0.0539062796 0.2923860194
650296100.0 -0.0569374618 0.3037692294 0.0741369612 -0.4206243333 0.0742843289 -0.4209691807 -0.0505322218 0.2925128064
655296070.0 -0.0542692325 0.3045553228 0.0699854519 -0.4215777177 0.0697640961 -0.4213559574 -0.0474033967 0.2935926069
660296040.0 -0.0509580646 0.3050147262 0.0652365423 -0.4220355349 0.0651117391 -0.4223031633 -0.0439785092 0.2943146029
665296010.0 -0.0473335403 0.3057818995 0.0604015769 -0.4226237902 0.0606722067 -0.4229952634 -0.0406643273 0.2953905933
670295980.0 -0.0447079756 0.3066853086 0.0559324989 -0.4231148946 0.0561640736 -0.4232743019 -0.0380561842 0.2958653792
675295950.0 -0.0414521533 0.3072336577 0.0513704512 -0.4237859089 0.051545855 -0.4235243915 -0.0349552288 0.2964139741
680295920.0 -0.0379836235 0.3077487905 0.0465956595 -0.4243166778 0.0465720668 -0.424974213 -0.0317048392 0.2975413869
685295890.0 -0.0345492017 0.3087439752 0.0423937788 -0.4249368075 0.0420179994 -0.4250069772 -0.028537307 0.297890854
690295860.0 -0.0313703465 0.3091109111 0.0374016434 -0.4250912955 0.0373997884 -0.4258017701 -0.0253773444 0.2991356773
695295830.0 -0.028488833 0.3092333491 0.0334324905 -0.425264922 0.0326430408 -0.4259443529 -0.0219812736 0.2993549395
700295800.0 -0.0248726245 0.3096323824 0.0284478745 -0.425372244 0.0277349942 -0.4260966701 -0.0192102872 0.2995947893
705295770.0 -0.0220933911 0.310539756 0.0236826854 -0.426151703 0.0238832096 -0.42626442 -0.0160517524 0.300621563
710295740.0 -0.0184772998 0.3107016659 0.0193505544 -0.4266098763 0.0192666774 -0.4267068153 -0.0128754957 0.300394303
715295710.0 -0.0155712091 0.3109036456 0.0149680393 -0.4267342888 0.0143978729 -0.4267910514 -0.009861829 0.3008698527
720295680.0 -0.0119170924 0.3115100308 0.0100916645 -0.4270038659 0.0099517269 -0.4266488881 -0.0065775662 0.3013757461
725295650.0 -0.0083853993 0.3115352525 0.0053480958 -0.4268993848 0.0053304994 -0.4268597136 -0.0039913552 0.301935505
730295620.0 -0.005146017 0.3120323782 0.0003429914 -0.4266075914 0.0006988729 -0.4268722227 -0.0013638315 0.3015558304
735295590.0 -0.0024314813 0.3120703544 -0.0039899966 -0.4271542011 -0.0038328473 -0.426686071 0.0017882221 0.3017442575
740295560.0 0.0009097647 0.3122822621 -0.0084576802 -0.4266339909 -0.0089232478 -0.4266236449 0.0059506599 0.3021170932
745295530.0 0.0040620604 0.3125616245 -0.0134025149 -0.4261839835 -0.0132962137 -0.4265882751 0.0085665221 0.3017455753
750295500.0 0.0075532484 0.3125457914 -0.0177694751 -0.4262001523 -0.0177942763 -0.4262372164 0.0116428719 0.3022288011
755295470.0 0.0107747594 0.3125840652 -0.0224831772 -0.4262662233 -0.0225961903 -0.4259592235 0.0149266967 0.3012100142
760295440.0 0.014012771 0.3121952793 -0.0270662811 -0.4260017729 -0.0270817395 -0.4258270195 0.0179949918 0.3015576843
765295410.0 0.0173043334 0.3125197606 -0.0317822475 -0.425231554 -0.0319823773 -0.4252367481 0.0209793561 0.3015448198
770295380.0 0.0201254018 0.3119713006 -0.0363044021 -0.4248645132 -0.0364427128 -0.4249129004 0.0235530692 0.3010245988
775295350.0 0.0234761247 0.3118690993 -0.0410505885 -0.4241538615 -0.0407544493 -0.4243145734 0.0266863817 0.3010889037
780295320.0 0.0270891839 0.3119937342 -0.0457924468 -0.4234857988 -0.0449336872 -0.4237657194 0.0299239972 0.3005147146
785295290.0 0.0299411768 0.3116191061 -0.0505173683 -0.4231046296 -0.0499009579 -0.4232069659 0.0338891425 0.3002801639
790295260.0 0.0337089722 0.3117124561 -0.0544239189 -0.4226029021 -0.0538735347 -0.4226345406 0.0369253085 0.3003687375
795295230.0 0.0363964963 0.3113472428 -0.0590730528 -0.4217466204 -0.0586887292 -0.4219247442 0.0405800793 0.2999798311
800295200.0 0.039862497 0.3110823465 -0.0640640464 -0.421136804 -0.0636380992 -0.421148274 0.0435446467 0.2992861406
805295170.0 0.0433957312 0.3107439081 -0.0684895357 -0.4206111899 -0.068259294 -0.4207088112 0.0465097142 0.2992784057
810295140.0 0.0462730682 0.3101239118 -0.0722432258 -0.4195623972 -0.0726715166 -0.4197036037 0.0499586408 0.2988956097
815295110.0 0.0494638844 0.3097720598 -0.0769962389 -0.4185644984 -0.0766621145 -0.4186047827 0.0532925077 0.2982990604
820295080.0 0.0522800682 0.3098503585 -0.0814138676 -0.4180525291 -0.0815864186 -0.4179153523 0.0565162861 0.2979612247
825295050.0 0.0565359901 0.3090836119 -0.086161647 -0.4168363583 -0.0861684673 -0.4169171248 0.0597180387 0.2974067536
830295020.0 0.0593230584 0.308707233 -0.0907929109 -0.4158228821 -0.0909500379 -0.4156679729 0.0635497283 0.29694429
