!Created with skrf (http://scikit-rf.org).
# Hz S RI R 50.0 
!freq ReS11 ImS11 ReS21 ImS21 ReS12 ImS12 ReS22 ImS22
300000.0 -0.3149344705 -0.1274345144 0.3713933661 0.0627534866 0.371051462 0.0637158347 -0.3175441213 -0.1261791729
5299970.0 -0.3249382196 0.0032351547 0.3783943611 0.0032813035 0.3786722682 0.0029208833 -0.3258512413 0.002362265
10299940.0 -0.3225159144 0.0143094329 0.3800375489 0.0025857272 0.379661633 0.0030019709 -0.3233891892 0.0129165187
15299910.0 -0.3189680959 0.0225391243 0.3817654692 0.0027044641 0.3822348923 0.0028152151 -0.3209703515 0.0199813663
20299880.0 -0.3157589979 0.028948474 0.385064115 0.0014740241 0.3855543475 0.0021983787 -0.3180642794 0.0259383721
25299850.0 -0.3116189396 0.0347514441 0.3886561623 0.0006096904 0.388500017 0.0001619959 -0.3150245563 0.0313403584
30299820.0 -0.3082811522 0.0396442949 0.3919407902 -0.0021992987 0.3921480326 -0.0022310424 -0.312104763 0.0359303098
35299790.0 -0.3043797422 0.0437209198 0.3948617104 -0.0051931843 0.3951188105 -0.0051915554 -0.3093162092 0.0399882386
40299760.0 -0.3013552117 0.0470428415 0.3984579525 -0.0085880587 0.3985392921 -0.0086576945 -0.3065846413 0.0432341823
45299730.0 -0.2983636773 0.0501440305 0.4012684085 -0.0127240928 0.4016791627 -0.0127315875 -0.3039741377 0.0464945876
50299700.0 -0.2949052634 0.0527555665 0.403737419 -0.0171826871 0.4038079198 -0.0172454078 -0.3013418276 0.0497263508
55299670.0 -0.2921801589 0.055469196 0.4060788458 -0.0215554061 0.4059772647 -0.0219712214 -0.2995544648 0.0522505999
60299640.0 -0.2899316875 0.0579054016 0.4080500805 -0.0267511231 0.4081905755 -0.0266540251 -0.2970859506 0.0548747931
65299610.0 -0.2871220266 0.0602193953 0.4098333395 -0.0314782841 0.4098907517 -0.0319107998 -0.2951762804 0.0575059399
70299580.0 -0.2854532642 0.0619893068 0.4106867683 -0.0364441045 0.4112417469 -0.0369279233 -0.2938820128 0.0597776484
75299550.0 -0.2834491725 0.0642768293 0.4115040262 -0.0423049504 0.4117891148 -0.0419852138 -0.2920433666 0.0625457189
80299520.0 -0.2820101756 0.0667667084 0.4128838959 -0.0473401225 0.4130802873 -0.0472077987 -0.2906696144 0.0648012713
85299490.0 -0.2798535056 0.0685297538 0.4133279211 -0.0526046159 0.4135684405 -0.05238702 -0.2892565253 0.0670549673
90299460.0 -0.2779880837 0.0709343732 0.4136258726 -0.0580691084 0.4138254158 -0.0576801065 -0.2878005422 0.069507785
95299430.0 -0.2768604395 0.0725268218 0.4141522786 -0.0629119214 0.4144123595 -0.0631827091 -0.2866829767 0.0718769388
100299400.0 -0.2753330816 0.0746195983 0.4139552412 -0.0679352997 0.4141487515 -0.0683055846 -0.2853807192 0.0742887251
105299370.0 -0.2741257737 0.0767530619 0.4138522056 -0.0729904516 0.4142282244 -0.0734244043 -0.284186894 0.0764586678
110299340.0 -0.2726498446 0.0786743948 0.4138030051 -0.077941762 0.4138002 -0.0783227805 -0.2835172634 0.0783874229
115299310.0 -0.2716811086 0.080760211 0.4134548951 -0.0833632064 0.4134617214 -0.0837294621 -0.2822584606 0.0811734222
120299280.0 -0.2702886033 0.0832075438 0.4131659176 -0.089098764 0.4130425024 -0.089151093 -0.2813828003 0.0831565238
125299250.0 -0.2696492288 0.0850468924 0.4128445782 -0.0938021987 0.4126289336 -0.0939052981 -0.2801411899 0.0860355649
130299220.0 -0.2684894008 0.0874694582 0.4120147493 -0.0990102428 0.4118785703 -0.0993928908 -0.2795244359 0.0881189335
135299190.0 -0.2672256041 0.0897925231 0.4110908208 -0.1038102884 0.4115630753 -0.1041807337 -0.2784459475 0.0906830635
140299160.0 -0.2660767284 0.0921997929 0.4102918742 -0.1090418463 0.4105340244 -0.1087572275 -0.2778290263 0.0930047835
145299130.0 -0.2654255948 0.094799724 0.4094868047 -0.1140736245 0.4095377899 -0.1138441146 -0.2765139679 0.0957915427
150299100.0 -0.2641118888 0.0970421322 0.4082538163 -0.1190875284 0.4082962407 -0.1189092753 -0.2755888158 0.0984343946
155299070.0 -0.2629630776 0.0995189112 0.4068503985 -0.123849817 0.4074748849 -0.1240287499 -0.2749958506 0.1011849875
160299040.0 -0.2621771988 0.102327343 0.4059510511 -0.1287171087 0.4060780239 -0.129087307 -0.2739219786 0.1037501803
165299010.0 -0.2610365402 0.1042432173 0.4050716516 -0.1334340225 0.4048852729 -0.1336275467 -0.273047088 0.1060226158
170298980.0 -0.2600087965 0.1066292322 0.4032698975 -0.1381079302 0.4035525036 -0.1383902313 -0.2721774231 0.1083914981
175298950.0 -0.2591406441 0.1092965554 0.4022059758 -0.1430344753 0.4025296137 -0.1432450979 -0.2710539745 0.1116298436
180298920.0 -0.2584371004 0.1116487268 0.4008001992 -0.1476483845 0.4008699955 -0.1482950726 -0.2700805591 0.1140427362
185298890.0 -0.2569628809 0.1143528422 0.3992641234 -0.1524147452 0.3991036542 -0.1526522846 -0.2688892015 0.1163575685
190298860.0 -0.2560843074 0.1171643031 0.3972966871 -0.1572261369 0.3977429296 -0.1572317452 -0.2681064978 0.1192279358
195298830.0 -0.2547990077 0.1198415644 0.396161516 -0.1620712825 0.3961283799 -0.1618358327 -0.2669719307 0.1221224507
200298800.0 -0.253518559 0.122213879 0.3940659202 -0.16689974 0.3943681782 -0.1666017745 -0.265866311 0.1245344944
205298770.0 -0.2526037916 0.1248044551 0.3921941662 -0.1712369653 0.3928251471 -0.1709660709 -0.2649305147 0.1273073444
210298740.0 -0.2515497743 0.1273180741 0.3905475314 -0.175548629 0.3905197049 -0.1756808021 -0.2637700884 0.1299200897
215298710.0 -0.2502234619 0.1302192158 0.3883097842 -0.1799973526 0.3885595392 -0.1804235801 -0.2622909454 0.1326809622
220298680.0 -0.2491195412 0.1323332161 0.3867270208 -0.1846429222 0.3867277064 -0.1846797809 -0.2611579832 0.1353287347
225298650.0 -0.2477847939 0.1352131022 0.3844216677 -0.1891139097 0.3847003279 -0.188721884 -0.2601327036 0.1379657435
230298620.0 -0.2465590084 0.1379351025 0.3826304649 -0.1933938318 0.3830493536 -0.1935627967 -0.2588694007 0.1404599853
235298590.0 -0.2455513085 0.1407626415 0.3806450144 -0.198162944 0.3807210518 -0.1979141342 -0.2576073999 0.143695908
240298560.0 -0.2439907016 0.1434367185 0.378047137 -0.2020550097 0.3786769227 -0.2020939644 -0.2564882156 0.14581466
245298530.0 -0.242866833 0.1455390158 0.3763400927 -0.2065455196 0.3761464536 -0.2066065798 -0.2550298879 0.1485145084
250298500.0 -0.2416714454 0.1483439922 0.3741404353 -0.2105700692 0.3740918261 -0.2107010472 -0.2535811729 0.1514712994
255298470.0 -0.2397751928 0.1510267593 0.3714093999 -0.2146085666 0.3722635522 -0.2151275395 -0.2524372722 0.1543331159
260298440.0 -0.2386607206 0.1535847183 0.3691635233 -0.2187651475 0.3694293861 -0.2190182335 -0.2507100672 0.1564704533
265298410.0 -0.2374412022 0.1563048524 0.3669103217 -0.2235662544 0.3668707555 -0.223448389 -0.2489286525 0.1591037617
270298380.0 -0.2359811114 0.1586386059 0.3642259829 -0.2275399398 0.3642162081 -0.2271234461 -0.2474029558 0.1619943095
275298350.0 -0.234350137 0.1616114907 0.361422151 -0.23136053 0.3617562543 -0.231742883 -0.245809481 0.1649954262
280298320.0 -0.233056986 0.1639394816 0.3598556752 -0.2351805696 0.3594596817 -0.2354370083 -0.2442014398 0.1673657261
285298290.0 -0.2315322566 0.1666745599 0.3569962942 -0.2395557502 0.3571811133 -0.2397575067 -0.242769334 0.1703937908
290298260.0 -0.2299144196 0.1693190834 0.3544102676 -0.2436678809 0.3541037171 -0.2440032116 -0.2409194628 0.172714442
295298230.0 -0.2283969537 0.1714560208 0.3516766314 -0.2478914788 0.3517904902 -0.2477772194 -0.2393169841 0.1754181744
300298200.0 -0.2269610013 0.1742174072 0.3487402989 -0.2515471116 0.3489486395 -0.2517461342 -0.2378383844 0.178128571
305298170.0 -0.2252066789 0.1764594601 0.3461272875 -0.2554664893 0.3464432801 -0.255721452 -0.2360587014 0.1801990883
310298140.0 -0.2230553835 0.1787541066 0.342987911 -0.2595243854 0.3438176007 -0.2591778171 -0.2340784806 0.1830689112
315298110.0 -0.2220111012 0.1811040864 0.3405860129 -0.2635232536 0.3404120675 -0.2636929627 -0.2319700074 0.1852915955
320298080.0 -0.2198646177 0.1837540157 0.3368983976 -0.2674001041 0.3379606256 -0.2674325002 -0.2308180057 0.1877295747
325298050.0 -0.2188947816 0.185585752 0.3343868147 -0.2709042987 0.3347728078 -0.2711891141 -0.228394005 0.1900717281
330298020.0 -0.2169858193 0.1886525471 0.3313714966 -0.2751641705 0.3316677673 -0.2751115317 -0.2270406903 0.1928065101
335297990.0 -0.2153747023 0.1908126254 0.3281880494 -0.278690116 0.3285932812 -0.2786543194 -0.2251897851 0.1954515481
340297960.0 -0.2137536317 0.1933410551 0.3249308052 -0.2821851437 0.3251270649 -0.2823115639 -0.2231261895 0.1980369959
345297930.0 -0.2119364927 0.1953754563 0.3220359487 -0.2860145178 0.3218346149 -0.2859808175 -0.2211009661 0.2002867134
350297900.0 -0.2102698318 0.1980211728 0.3191127069 -0.2891428939 0.3187140337 -0.2894207427 -0.2194652307 0.2026642598
355297870.0 -0.2079668137 0.2002181335 0.3155572599 -0.2925611361 0.3156126373 -0.2926401548 -0.2169246347 0.2052558014
360297840.0 -0.2061166293 0.2027211979 0.3119893141 -0.2961430837 0.3124203431 -0.296656105 -0.2151612961 0.2078821237
365297810.0 -0.2046648005 0.2051382388 0.308973521 -0.2996941625 0.3092485755 -0.2997797767 -0.213576019 0.209917628
370297780.0 -0.2023584451 0.2070092405 0.3052197732 -0.3029889881 0.3057565929 -0.3029409192 -0.2109488258 0.2125170661
375297750.0 -0.2005431482 0.2097687667 0.3023013239 -0.3061918225 0.302366099 -0.3065112343 -0.2085537035 0.2149348597
380297720.0 -0.1986888604 0.2118607836 0.2990922798 -0.309893319 0.298765467 -0.3098183658 -0.2065605058 0.2174618032
385297690.0 -0.1964028167 0.2141786683 0.2951725444 -0.312897692 0.2956166337 -0.3133242967 -0.2047428166 0.2197983302
390297660.0 -0.1939943507 0.2160504641 0.291981058 -0.3160380722 0.2921302161 -0.3161940685 -0.2021427003 0.2219014698
395297630.0 -0.1917746882 0.2183943334 0.2884784182 -0.3189412025 0.2884770552 -0.3192509105 -0.1999283227 0.2241682742
400297600.0 -0.1901661445 0.2203448813 0.2850948209 -0.3223869223 0.2851465587 -0.3222096543 -0.1976879265 0.2263728208
405297570.0 -0.1878297584 0.2221442809 0.2815431161 -0.3252087 0.2814962034 -0.3256703347 -0.1951125803 0.2289374393
410297540.0 -0.1854245448 0.2249941647 0.2777814039 -0.3289179434 0.2778022177 -0.3288072804 -0.1927997781 0.2311132752
415297510.0 -0.183444589 0.2267980744 0.2739448354 -0.3316369819 0.2746285204 -0.3319547384 -0.1907145368 0.2333938252
420297480.0 -0.1810978025 0.2287785534 0.2703101468 -0.3348073206 0.2707415719 -0.3349066949 -0.1878915155 0.2360504904
425297450.0 -0.1785723843 0.2307440023 0.2668571871 -0.3373227435 0.2667259516 -0.3373596585 -0.1856983174 0.2372216096
430297420.0 -0.1764397337 0.2328163399 0.2635746501 -0.3405538342 0.2634796011 -0.3401649675 -0.1831111231 0.2397418841
435297390.0 -0.1741631872 0.2343787806 0.259392064 -0.3436876206 0.2594681172 -0.343471882 -0.1810186388 0.2421986893
440297360.0 -0.1717046869 0.2364893585 0.2553424009 -0.346348163 0.25517099 -0.346262016 -0.1780971489 0.2440541831
445297330.0 -0.1692830974 0.2381639813 0.2518414594 -0.3488827179 0.2518874004 -0.3492438975 -0.1753623483 0.2462992039
450297300.0 -0.1662825304 0.2405506701 0.2475797223 -0.3515626132 0.2480480618 -0.3518167487 -0.172622526 0.2484161537
455297270.0 -0.1646064763 0.2422642322 0.2442296232 -0.3546942474 0.2442689441 -0.3545730102 -0.1702389841 0.2502673477
460297240.0 -0.1614518301 0.2443638996 0.2402749563 -0.3573890948 0.2400259657 -0.3572441423 -0.1674993053 0.2519662085
465297210.0 -0.1590001222 0.2456804255 0.2358563002 -0.3598665978 0.2358374637 -0.3600566139 -0.1647034288 0.254516924
470297180.0 -0.1562830873 0.2476724865 0.2321335033 -0.3619446238 0.2323212147 -0.3623319276 -0.1623637252 0.2560330144
475297150.0 -0.1541737399 0.2495261103 0.2281774941 -0.3644712821 0.2283869851 -0.3645744835 -0.1597663985 0.2578293335
480297120.0 -0.1510056713 0.2515056949 0.2238660514 -0.3675161187 0.2243826899 -0.3672067435 -0.1573858653 0.2597751363
485297090.0 -0.1482583693 0.2528704582 0.2198060221 -0.369666441 0.2197327287 -0.3695875235 -0.1543252824 0.2618916509
490297060.0 -0.1453750735 0.2547989959 0.2155837557 -0.3720690271 0.2159522557 -0.3720378948 -0.1514674958 0.2629465772
495297030.0 -0.1432766252 0.256273433 0.2121467345 -0.3747292354 0.2120656142 -0.3741553629 -0.1484013662 0.2646130011
500297000.0 -0.1403577283 0.2577160225 0.2078149154 -0.3762971918 0.2079609149 -0.3766233291 -0.1458142386 0.2668384117
505296970.0 -0.1370236798 0.2596179325 0.2039215026 -0.3788789224 0.2034781263 -0.3784977062 -0.1429269292 0.2680194406
510296940.0 -0.1344150544 0.2608008014 0.1994225511 -0.3810236016 0.1997508436 -0.3812994215 -0.1400138342 0.2700554346
515296910.0 -0.1317694782 0.2626373354 0.1949790217 -0.3832000274 0.1949257984 -0.3831123174 -0.1374334621 0.271554043
520296880.0 -0.1286870852 0.2641091337 0.1908047341 -0.3851656722 0.1908912936 -0.3848004757 -0.1339999229 0.2732849664
525296850.0 -0.1258947248 0.2657115405 0.186508073 -0.387237665 0.1864670113 -0.3870974712 -0.1309052709 0.2746488599
530296820.0 -0.1234679295 0.2673032698 0.1824797776 -0.3891527105 0.1823231781 -0.3889947025 -0.1285879183 0.2760338709
535296790.0 -0.1197673208 0.26881687 0.1780974317 -0.3912487151 0.178191459 -0.3913902553 -0.1252819675 0.2781418258
540296760.0 -0.1172651348 0.2699889482 0.1734611262 -0.3931374643 0.1735675318 -0.3926096 -0.1225932533 0.2787903414
545296730.0 -0.114681633 0.2717735173 0.1696658603 -0.3944900397 0.169610665 -0.3945243297 -0.1194649668 0.2806516671
550296700.0 -0.1109335556 0.273052954 0.1651340251 -0.396525005 0.1645817106 -0.3966770128 -0.116207715 0.2820022177
555296670.0 -0.1084028336 0.2742822481 0.1608688092 -0.3982967036 0.1610465645 -0.3981943653 -0.1137105666 0.2829291174
560296640.0 -0.1050742042 0.2753055351 0.1563017153 -0.399973527 0.1565663115 -0.400139977 -0.1106099063 0.2850789361
565296610.0 -0.102653982 0.2767993427 0.1523449738 -0.4015507911 0.1519196321 -0.4012879353 -0.107457848 0.2861745156
570296580.0 -0.0995771398 0.2783561395 0.1477486272 -0.4030770376 0.1473452435 -0.4030228371 -0.1045332197 0.2869592102
575296550.0 -0.0963280563 0.2794262103 0.1432402987 -0.4047943164 0.1430989624 -0.404923868 -0.1015229261 0.2883605777
580296520.0 -0.0934692788 0.2810388002 0.1387813609 -0.4061865115 0.1384669227 -0.4064279767 -0.0985929652 0.2899223093
585296490.0 -0.0901559198 0.281823299 0.1347142698 -0.4076826356 0.133971696 -0.4077924804 -0.0950595607 0.2909268037
590296460.0 -0.0866852805 0.2830492876 0.130100229 -0.4092391211 0.1300255367 -0.4092470244 -0.0925477154 0.2918220363
595296430.0 -0.0841119759 0.284189252 0.1252156989 -0.4107711928 0.125120233 -0.4102150537 -0.089259119 0.2926101079
600296400.0 -0.0806893451 0.285308003 0.120558132 -0.4115678811 0.1208453884 -0.4117993332 -0.0860881704 0.2938162651
605296370.0 -0.0779992854 0.2862436167 0.1166054172 -0.4129312241 0.1161327711 -0.4133288048 -0.0827526257 0.2954634118
610296340.0 -0.0743287806 0.2876588906 0.1121307257 -0.4137337991 0.1120279643 -0.4141899717 -0.0798901334 0.2962134614
615296310.0 -0.0712404574 0.2886186519 0.1074645362 -0.4156054173 0.1069223939 -0.4153396926 -0.0763916198 0.2971474998
620296280.0 -0.0682881314 0.2899205182 0.1024713137 -0.4165521964 0.1026423666 -0.4163263617 -0.0736204311 0.2983641
625296250.0 -0.065644738 0.2904574865 0.098333971 -0.4175822511 0.0982044574 -0.417705312 -0.0704880714 0.2990194373
630296220.0 -0.062483564 0.2916603757 0.0937639054 -0.4186351573 0.0934531698 -0.4184491 -0.0673912633 0.3000942551
635296190.0 -0.0591158474 0.2927223743 0.0890820544 -0.4191482792 0.0889025037 -0.419456605 -0.0641866158 0.3006054939
640296160.0 -0.0561137942 0.2931197493 0.0845860316 -0.4202669014 0.0843153929 -0.4206774431 -0.0611737548 0.3014838781
645296130.0 -0.0528489197 0.2941080154 0.0799581519 -0.4210330146 0.080017004 -0.4208555124 -0.05834868 0.302062357
650296100.0 -0.049761246 0.2949726288 0.0756497461 -0.4216943226 0.0750935367 -0.4222241867 -0.0544599742 0.3027450823
655296070.0 -0.0467986376 0.2957516614 0.0706982079 -0.4229756516 0.0709257565 -0.422463779 -0.0519341342 0.3037782301
660296040.0 -0.0436361281 0.2969191402 0.0662311227 -0.423939183 0.0662819487 -0.4234270277 -0.0480560648 0.3041417852
665296010.0 -0.040351497 0.2974735858 0.0610391532 -0.4236707978 0.0613132017 -0.4239521378 -0.0451667279 0.3048166015
670295980.0 -0.0372597386 0.2980494594 0.0567668598 -0.424434679 0.0568226866 -0.4244140674 -0.041934163 0.305385785
675295950.0 -0.0341965789 0.2987968271 0.0522988511 -0.4250270966 0.0519949959 -0.4253746032 -0.0387548657 0.3061412586
680295920.0 -0.0313673908 0.2996838458 0.0478069666 -0.4259438412 0.0476050998 -0.4254617988 -0.0352301542 0.3063478179
685295890.0 -0.0276420482 0.3003057456 0.0429018707 -0.4264076362 0.0431237468 -0.4264469798 -0.0323654221 0.3073007265
690295860.0 -0.0249091474 0.3008255641 0.0386602055 -0.4264487789 0.0381815692 -0.4267288651 -0.0290771011 0.3075965136
695295830.0 -0.0214801661 0.301226917 0.0341488447 -0.4271307951 0.0337817134 -0.4268108301 -0.0258710205 0.3084032433
700295800.0 -0.018555016 0.3018925399 0.0293752482 -0.4271647852 0.0290925298 -0.4273025143 -0.0224849613 0.3085812445
705295770.0 -0.0157116791 0.3021004275 0.0246694052 -0.4274808874 0.0246842655 -0.427467345 -0.019393363 0.3091777621
710295740.0 -0.012542429 0.3021175466 0.0200587466 -0.4274867955 0.0198422157 -0.4282206607 -0.0160336809 0.3095652529
715295710.0 -0.0088505172 0.3031753115 0.0152702475 -0.4282223002 0.0151960186 -0.4278896239 -0.0127343092 0.3090652218
720295680.0 -0.0057667882 0.3032325676 0.0109319914 -0.4277193346 0.0106538867 -0.4281289837 -0.0093411415 0.3096565983
725295650.0 -0.0031330849 0.3038294145 0.0064428408 -0.4281619993 0.0059852589 -0.4282384377 -0.0066332783 0.3101505839
730295620.0 -0.0003938908 0.3038908613 0.0017850518 -0.4277148914 0.0014170638 -0.4276942999 -0.0033896743 0.3109315819
735295590.0 0.0030360546 0.3043328721 -0.0029490438 -0.4280533419 -0.0031268324 -0.4278341056 0.0001244276 0.310483148
740295560.0 0.0060194518 0.3042448681 -0.007338472 -0.4280690437 -0.0075260861 -0.4281358505 0.003499884 0.3110872646
745295530.0 0.0093150991 0.3047102497 -0.0120299973 -0.4273920836 -0.0117970966 -0.4276483928 0.0060668588 0.3109187677
750295500.0 0.0124207421 0.3046473235 -0.0165049234 -0.427484187 -0.0169561905 -0.4276622189 0.0098745851 0.3110519806
755295470.0 0.0153668721 0.3048876434 -0.0210310872 -0.4276848137 -0.0212672241 -0.4274960543 0.0129884189 0.3109071391
760295440.0 0.0181359886 0.305388296 -0.0262411443 -0.4272830133 -0.0260473558 -0.4267527299 0.0163111476 0.3105498104
765295410.0 0.0215798171 0.3048164475 -0.0309074853 -0.4267359874 -0.0304451407 -0.4267240527 0.0197147413 0.3110117085
770295380.0 0.0243140968 0.3051950122 -0.0347709531 -0.4260241994 -0.0353881781 -0.4267590628 0.0226061563 0.3110582859
775295350.0 0.0276688786 0.3048912108 -0.0397028909 -0.4256374956 -0.0396253197 -0.4255586392 0.0261123319 0.3108398498
780295320.0 0.0307577125 0.3050352897 -0.0437663193 -0.4251298596 -0.0441161016 -0.4252771924 0.0295409539 0.3108166176
785295290.0 0.0335770389 0.3048729702 -0.0487772843 -0.4249825377 -0.0487239905 -0.425174979 0.0322797545 0.3110897583
790295260.0 0.0368230123 0.3044892921 -0.0534477029 -0.4245292584 -0.0532304944 -0.4245500912 0.0358008301 0.3107671903
795295230.0 0.0397724554 0.3045074338 -0.058058082 -0.4235707277 -0.0578162228 -0.4240235322 0.0387495827 0.3097867287
800295200.0 0.0426078006 0.3044165973 -0.0619006149 -0.4228612845 -0.062754844 -0.4231028407 0.0419996105 0.3097101319
805295170.0 0.0456096301 0.3041625655 -0.066861289 -0.4222421033 -0.0670996266 -0.4224749029 0.0460787074 0.3093590075
810295140.0 0.0491302588 0.3040438766 -0.0716193356 -0.4214118121 -0.0714248501 -0.4214827214 0.0487701677 0.3089934827
815295110.0 0.051835023 0.3035506016 -0.0758688716 -0.4210466875 -0.0758759794 -0.4207947201 0.0519744436 0.3087840493
820295080.0 0.0548585463 0.3030428769 -0.0802317517 -0.4197872008 -0.0801405509 -0.4200947888 0.0546707429 0.3087810968
825295050.0 0.0577305853 0.3026640345 -0.0848080684 -0.4191336758 -0.0851567881 -0.4190605114 0.058749188 0.3083051554
830295020.0 0.0609765101 0.3024152783 -0.0892673383 -0.4180024146 -0.0896802953 -0.418034925 0.0616020415 0.3073930478
