!Created with skrf (http://scikit-rf.org).
# Hz S RI R 50.0 
!freq ReS11 ImS11 ReS21 ImS21 ReS12 ImS12 ReS22 ImS22
300000.0 -0.2388559606 -0.0883741144 0.4657377728 0.0593996093 0.4686526758 0.0642857609 -0.2358520075 -0.1022818661
5299970.0 -0.2436928617 0.0077798023 0.4739204039 0.005040357 0.4738839624 0.005644979 -0.2437087185 0.006178516
10299940.0 -0.2403535416 0.0198269555 0.4757904736 0.0063462504 0.4759519225 0.0066975231 -0.2411947516 0.0184810993
15299910.0 -0.2360097792 0.0297276768 0.4792297905 0.0078183135 0.4792497911 0.0077716928 -0.2364683171 0.0276077325
20299880.0 -0.2304683697 0.0374693819 0.4841157156 0.0080925569 0.4841345732 0.008137288 -0.2319632684 0.0353409968
25299850.0 -0.2248343736 0.043614127 0.4895073219 0.0070940103 0.4896970018 0.0073418482 -0.226920437 0.0418623759
30299820.0 -0.2186678438 0.0485075252 0.4950525128 0.0054861588 0.4946715227 0.0054145024 -0.2215534191 0.0466847217
35299790.0 -0.2130151326 0.052931924 0.5002962414 0.0020067344 0.5002373711 0.0019009423 -0.2159601394 0.051106592
40299760.0 -0.2074703227 0.0558341278 0.505237867 -0.0017026557 0.5053975011 -0.0017629594 -0.2115277544 0.0547677558
45299730.0 -0.2025024982 0.0586182045 0.5099759147 -0.0067772086 0.5101421533 -0.0066062034 -0.2064294994 0.057524801
50299700.0 -0.1975304496 0.0602819352 0.5141142743 -0.0120578832 0.5142361673 -0.0122249001 -0.2018394434 0.0596652546
55299670.0 -0.1936477115 0.0620213471 0.5178876783 -0.0183115246 0.5182352844 -0.0178237336 -0.1984146181 0.0614414164
60299640.0 -0.1895576427 0.0627312512 0.521204441 -0.024435865 0.5211874331 -0.0243059736 -0.1944217083 0.0630399072
65299610.0 -0.1861712224 0.0640373567 0.5245267807 -0.0302264739 0.5244015065 -0.0305445237 -0.1908945023 0.0644892353
70299580.0 -0.1826266243 0.0644048185 0.5266839957 -0.0370079675 0.526908475 -0.0374105541 -0.187818078 0.0659087075
75299550.0 -0.1797030589 0.0651374414 0.528735544 -0.0438065493 0.5287014287 -0.0442595207 -0.1849544331 0.0667088303
80299520.0 -0.1773104716 0.0658109553 0.5308286945 -0.0508627391 0.5308409599 -0.0512548797 -0.1822763912 0.0673951054
85299490.0 -0.1745764925 0.0659703837 0.5318177505 -0.0581210255 0.5322148792 -0.0581751652 -0.1802295142 0.0685622514
90299460.0 -0.1724599141 0.0668958933 0.533007856 -0.0648706729 0.5330351067 -0.0650275542 -0.1777390934 0.0693389882
95299430.0 -0.1704245215 0.0671722225 0.5341486185 -0.0722305319 0.534058766 -0.0714669334 -0.1759061277 0.0700713513
100299400.0 -0.1686987644 0.0677582081 0.5341707301 -0.0786769448 0.5341278887 -0.0787501571 -0.1741335845 0.0708989932
105299370.0 -0.1668225537 0.0679643499 0.5342806639 -0.0856256495 0.5346990109 -0.0856305172 -0.1720436627 0.0718409114
110299340.0 -0.1656822927 0.0683842689 0.53460894 -0.0920712148 0.5346627139 -0.0927515277 -0.1707064569 0.0729351131
115299310.0 -0.1640645232 0.0687194804 0.5346985382 -0.0987797095 0.5347793495 -0.0993524371 -0.168824706 0.0731264972
120299280.0 -0.162677719 0.0694086473 0.5349783928 -0.1061417584 0.534636389 -0.1061655022 -0.1676463593 0.0743943279
125299250.0 -0.161909488 0.0698595586 0.5345161243 -0.1125372209 0.5345693322 -0.1129922932 -0.16651547 0.0749087521
130299220.0 -0.1604314671 0.0706340037 0.5337401435 -0.1190736553 0.5337347222 -0.1197865284 -0.1649212716 0.0762521646
135299190.0 -0.1592203351 0.0710685603 0.5328486451 -0.1256925371 0.5329912846 -0.1258486926 -0.1642028548 0.0768595372
140299160.0 -0.1586956786 0.0721623163 0.5319948688 -0.1326283004 0.5324660292 -0.1329279305 -0.1630631001 0.0781080863
145299130.0 -0.1576005971 0.0727645262 0.5316040795 -0.1395607151 0.5313364879 -0.1389449057 -0.1621923628 0.0788347667
150299100.0 -0.1564215002 0.0735912437 0.530179148 -0.1460073045 0.5299809785 -0.1458739352 -0.1606836176 0.0799835899
155299070.0 -0.1559582093 0.0747596016 0.5290150749 -0.152547207 0.5291212569 -0.1525492639 -0.1603643215 0.0812325796
160299040.0 -0.1549486594 0.0752989496 0.5272002508 -0.1586526483 0.5276590395 -0.1590110161 -0.158939126 0.0828230816
165299010.0 -0.1543535304 0.0762116707 0.5264443021 -0.1654946025 0.526466194 -0.1656586581 -0.1579158201 0.0832759932
170298980.0 -0.1537554619 0.0770740028 0.5239394958 -0.1716841892 0.5245409189 -0.1718286971 -0.1568055924 0.0843786005
175298950.0 -0.1528190049 0.0781630949 0.5234059178 -0.1780302381 0.523182891 -0.1777993913 -0.1560010039 0.0856966881
180298920.0 -0.1517500835 0.0792823698 0.5211199876 -0.1843639849 0.5213560306 -0.1839510472 -0.1549881036 0.0874475491
185298890.0 -0.1508929128 0.0801150338 0.5190519742 -0.1906304995 0.5197376718 -0.1904618675 -0.1543173482 0.0879411465
190298860.0 -0.1504345589 0.0813620468 0.5174702871 -0.1969814887 0.5174606527 -0.1969475466 -0.1527445755 0.0898453037
195298830.0 -0.1496056949 0.0821830449 0.515563921 -0.2029167518 0.5157145167 -0.202893222 -0.151976629 0.0906918886
200298800.0 -0.1489141842 0.0832760997 0.5136843357 -0.2086006301 0.5131822611 -0.2090225532 -0.150695396 0.0924370414
205298770.0 -0.1479913815 0.0845407839 0.5113002618 -0.2147930157 0.5115569281 -0.2149292888 -0.1498920889 0.0933898502
210298740.0 -0.1475102279 0.0855011457 0.509460675 -0.2211249911 0.5092843963 -0.2210415767 -0.1492829592 0.0948448106
215298710.0 -0.1467107173 0.0867586495 0.5066085177 -0.2266247217 0.5071522836 -0.2267185551 -0.1486647733 0.0961506547
220298680.0 -0.1459304033 0.0879280119 0.5041944794 -0.2330296359 0.5042978018 -0.2330976971 -0.1469310504 0.0977780122
225298650.0 -0.1449182434 0.0890499529 0.501656943 -0.2382956205 0.5016587688 -0.23848343 -0.1461935205 0.0991035093
230298620.0 -0.1447145512 0.0906651222 0.4995558204 -0.2446193586 0.4993250537 -0.2444141383 -0.1448256614 0.1003427192
235298590.0 -0.1436625458 0.0913642167 0.4965604371 -0.2500474922 0.4968445726 -0.2502641043 -0.1441246796 0.1017092985
240298560.0 -0.1430306002 0.093026085 0.4941553064 -0.2555101213 0.4938795811 -0.2557543159 -0.1429587642 0.1031919629
245298530.0 -0.1419705469 0.0943514859 0.4909426589 -0.2617928725 0.491323186 -0.2618325202 -0.1421472738 0.1046758141
250298500.0 -0.1414890181 0.0951080647 0.488670578 -0.2668546133 0.4888172747 -0.2667117428 -0.1407307264 0.1060154164
255298470.0 -0.1407017724 0.0966289809 0.4851013026 -0.272741528 0.4855490583 -0.2727183537 -0.1397227484 0.1075501301
260298440.0 -0.139901932 0.0978648028 0.4828647482 -0.278247579 0.4826950675 -0.2784782001 -0.1382573965 0.1090889426
265298410.0 -0.1387045338 0.0991974411 0.4791974869 -0.2841093971 0.4792387427 -0.2840348096 -0.1375335459 0.1101380904
270298380.0 -0.1377448216 0.1005258355 0.4760746389 -0.2895136327 0.4763058908 -0.289660713 -0.1360210832 0.1120866555
275298350.0 -0.1370893773 0.102072959 0.4730537849 -0.2950075444 0.4733232513 -0.2949397457 -0.1348143314 0.1133281549
280298320.0 -0.1362621612 0.1032952146 0.4700100975 -0.2997512429 0.4698208691 -0.3001803185 -0.1334859431 0.1149794445
285298290.0 -0.1353442235 0.1047119406 0.4670851531 -0.3053049877 0.4666032447 -0.3054653738 -0.1325760655 0.1163234426
290298260.0 -0.1341426623 0.1058946002 0.4635654651 -0.3109469094 0.4634213306 -0.3110476226 -0.1307471905 0.1179728512
295298230.0 -0.1336883576 0.1070715525 0.4605519908 -0.3161236469 0.4600053306 -0.316166238 -0.1299889932 0.1190834731
300298200.0 -0.1320077524 0.1083857019 0.4565058849 -0.3215408823 0.4565721089 -0.3215795381 -0.1283943644 0.1207093663
305298170.0 -0.1310514968 0.109660302 0.4531993955 -0.3268492239 0.453318075 -0.3270569314 -0.1266610551 0.1222735807
310298140.0 -0.1297731386 0.110381427 0.4497017879 -0.3316941973 0.4498195577 -0.3323693129 -0.1257192508 0.1239543902
315298110.0 -0.1292060184 0.1120231755 0.445760177 -0.336866338 0.445848336 -0.3373838586 -0.1241791945 0.1250104271
320298080.0 -0.1281711494 0.1132103952 0.4423177801 -0.3423790747 0.4421868307 -0.3421224501 -0.1230242508 0.1262046649
325298050.0 -0.1274367738 0.1141763688 0.4385288064 -0.3476320734 0.4386563003 -0.3474557549 -0.1214603704 0.1274664682
330298020.0 -0.1262315669 0.1155314769 0.4340760045 -0.3526858064 0.4341207485 -0.3524113242 -0.1205168035 0.1284774196
335297990.0 -0.1254215753 0.1164419771 0.4301976235 -0.3574123107 0.430132952 -0.3571378315 -0.1191422856 0.1301178428
340297960.0 -0.1250361777 0.1179822651 0.4261254314 -0.3619769033 0.4263152143 -0.3617738454 -0.1180652464 0.1318872965
345297930.0 -0.1238926579 0.1194030554 0.4223855089 -0.3663792639 0.4214417247 -0.3664593176 -0.1162667919 0.1329041301
350297900.0 -0.1224652704 0.1206480467 0.417600496 -0.370779314 0.4181981782 -0.3714211075 -0.115193241 0.1348391786
355297870.0 -0.1216654008 0.1219074459 0.4134293654 -0.3758893203 0.4138185324 -0.3762558735 -0.1135369416 0.1362944568
360297840.0 -0.1204646506 0.1233458129 0.409621493 -0.3802714032 0.4096044463 -0.3803985202 -0.1123310249 0.137699426
365297810.0 -0.1190465549 0.1245561446 0.4052039717 -0.3848141091 0.4054700935 -0.3848218292 -0.110722755 0.1392864189
370297780.0 -0.118047538 0.1255737642 0.4006486709 -0.3888999563 0.4010856039 -0.3894289072 -0.1092528739 0.1408023453
375297750.0 -0.1170412465 0.1275303902 0.3973967235 -0.3940033469 0.39688337 -0.3940874212 -0.1075513844 0.1420981739
380297720.0 -0.115743774 0.1283089933 0.3921922351 -0.3978437488 0.3927735562 -0.3980484473 -0.1062776394 0.1439373565
385297690.0 -0.1141675304 0.1295933987 0.3876368289 -0.4020638037 0.3879978529 -0.4022571364 -0.1046552667 0.1449313498
390297660.0 -0.1131016755 0.1308738986 0.3832782545 -0.40674778 0.3835817458 -0.4069717268 -0.1026152149 0.1460878516
395297630.0 -0.1115855933 0.131931391 0.3790296481 -0.4103877466 0.379047824 -0.4110015788 -0.1014164872 0.1477491438
400297600.0 -0.1107100879 0.1333466225 0.3743658675 -0.414643163 0.3749659821 -0.4152706642 -0.1004016789 0.1488519816
405297570.0 -0.1094521791 0.1345583393 0.3701048531 -0.4188301516 0.3698550574 -0.4192521478 -0.0981607936 0.1504181094
410297540.0 -0.107723823 0.1358862821 0.3649886164 -0.4230405382 0.3653089355 -0.4227404228 -0.0967628043 0.1514063018
415297510.0 -0.1067488613 0.1371905574 0.3606923391 -0.4267929652 0.3606651539 -0.4268285113 -0.0953825845 0.1531019619
420297480.0 -0.1053980218 0.1378983935 0.3556820498 -0.4308667307 0.3560105216 -0.4310813099 -0.0931496499 0.1540894607
425297450.0 -0.103892196 0.1391117363 0.3510373936 -0.434785141 0.3518068556 -0.434603474 -0.0917712757 0.1556111668
430297420.0 -0.1030264371 0.1405467535 0.3462370865 -0.4392004267 0.3465779238 -0.4387895427 -0.0902311663 0.1563054549
435297390.0 -0.1013853003 0.1415072973 0.3415332126 -0.4420288495 0.3417305094 -0.4420926696 -0.0883261199 0.1582016809
440297360.0 -0.0997923956 0.1426104138 0.3363969673 -0.4460236323 0.3362562091 -0.4462563538 -0.0865602141 0.1590876369
445297330.0 -0.0981962809 0.1436778389 0.3311518424 -0.4501994894 0.3315479947 -0.4497473536 -0.0847705827 0.1600755937
450297300.0 -0.0969961036 0.1445589934 0.3266921113 -0.4530909179 0.326848861 -0.4534796118 -0.0830996967 0.1613353449
455297270.0 -0.095762894 0.145699823 0.3219488698 -0.4568070567 0.3223240244 -0.456866985 -0.0809834691 0.1624941576
460297240.0 -0.0946129462 0.1469292253 0.3166564876 -0.4600737069 0.3163909422 -0.4605910645 -0.079436027 0.1638844317
465297210.0 -0.0926591139 0.1477389348 0.3117070869 -0.4637049924 0.312109505 -0.4639007201 -0.0780919922 0.1644811927
470297180.0 -0.0913530879 0.1489755572 0.3067774225 -0.4669235181 0.307168434 -0.4671270041 -0.076642068 0.165927027
475297150.0 -0.0900776599 0.1497043106 0.3012353831 -0.4701781242 0.3018251988 -0.4700355588 -0.0740476382 0.166815237
480297120.0 -0.0881750859 0.1504284978 0.2960494915 -0.4733366517 0.2968009779 -0.4734512599 -0.0724959645 0.1683329304
485297090.0 -0.0868382913 0.1514722878 0.2912009781 -0.4766910249 0.2914307062 -0.4766626386 -0.0710064727 0.1687976991
490297060.0 -0.0855580174 0.1524445786 0.286053603 -0.4798529996 0.286161649 -0.480008042 -0.0687615147 0.1702574562
495297030.0 -0.0843097286 0.1538097147 0.2805019291 -0.4828882257 0.2801177561 -0.4827908083 -0.06697124 0.1706788395
500297000.0 -0.0824327607 0.1543303389 0.2753129737 -0.4862185754 0.2752818468 -0.485821085 -0.0657032595 0.1717978146
505296970.0 -0.0811496078 0.1552029055 0.2697610755 -0.4880617798 0.2699768669 -0.4888409866 -0.0640155773 0.1728557947
510296940.0 -0.0797724986 0.156454001 0.2645705153 -0.4920014871 0.265002817 -0.4917320064 -0.0615192561 0.1740674463
515296910.0 -0.0784513785 0.157355811 0.2593632056 -0.4944358183 0.2592803512 -0.494733205 -0.0603084929 0.1747409346
520296880.0 -0.0763338583 0.1580053657 0.2536839564 -0.4970838617 0.2541577325 -0.4970170127 -0.0579754418 0.175451903
525296850.0 -0.0752422593 0.1588880762 0.2485496972 -0.5000989852 0.2487497374 -0.5002917459 -0.0559067005 0.1761512085
530296820.0 -0.0734652134 0.1596066035 0.2430789855 -0.5022611754 0.2431789279 -0.5027421631 -0.0544517833 0.1767670615
535296790.0 -0.0718701906 0.1604741012 0.2371200557 -0.5049525453 0.2378086107 -0.5051157704 -0.0524483616 0.1775706482
540296760.0 -0.0704825861 0.1609866982 0.2322703019 -0.5076671502 0.23160263 -0.507914346 -0.050798391 0.1788546822
545296730.0 -0.0689400969 0.1622109018 0.226794793 -0.5096461269 0.2267436767 -0.5104028637 -0.0489789314 0.1791266907
550296700.0 -0.0675602398 0.1628127864 0.2210567722 -0.5125903663 0.2214133671 -0.5128770022 -0.0470307999 0.1802859241
555296670.0 -0.0654878269 0.1634410935 0.2153808608 -0.5148484449 0.2156242904 -0.5150752981 -0.0446809868 0.1806601449
560296640.0 -0.0640982811 0.1645614808 0.2101477087 -0.5167961646 0.2100132903 -0.5167763011 -0.0430786298 0.1814377118
565296610.0 -0.0627750616 0.1651563208 0.2042920494 -0.519265618 0.2043248654 -0.5193639657 -0.0415289772 0.1819869449
570296580.0 -0.0605995214 0.1656213854 0.198299917 -0.5213102601 0.198611769 -0.521492265 -0.0391362426 0.1831492725
575296550.0 -0.059405337 0.1667442949 0.1928582757 -0.5235257025 0.1934674356 -0.523630188 -0.0369317347 0.1836404594
580296520.0 -0.0577886002 0.1672976234 0.1873794191 -0.5256090297 0.1872029828 -0.5256300917 -0.0351988787 0.1838234039
585296490.0 -0.0561377907 0.1678377953 0.1817108901 -0.5278731293 0.181643058 -0.5275455829 -0.0335506606 0.1840429306
590296460.0 -0.0550990948 0.1682780648 0.1758150181 -0.529481056 0.1756094644 -0.5292912489 -0.031060415 0.1849026874
595296430.0 -0.0527698449 0.1692941688 0.1700667983 -0.53155271 0.1701909692 -0.5317673287 -0.0292736804 0.1850740903
600296400.0 -0.0514251356 0.1699468477 0.1640633876 -0.5333279168 0.1646266031 -0.5335038474 -0.0274892408 0.1859319783
605296370.0 -0.0494561812 0.1707889234 0.1585247321 -0.5350134282 0.1587789459 -0.5351306115 -0.0252672465 0.1866253954
610296340.0 -0.0480793342 0.1710378719 0.1530931907 -0.5364596828 0.1529831958 -0.5369055813 -0.0230937173 0.1871796273
615296310.0 -0.0461644331 0.1718819171 0.1467983306 -0.5378429298 0.1467419612 -0.5378103979 -0.0211942036 0.1871186932
620296280.0 -0.0447407804 0.1722460152 0.1412507591 -0.5393669438 0.1409850213 -0.5395276487 -0.0195791039 0.1873935605
625296250.0 -0.0428425967 0.1730234256 0.135200871 -0.5412712354 0.135269387 -0.5412403424 -0.0174493936 0.1882304865
630296220.0 -0.0411648703 0.1737394744 0.1290294893 -0.5426053203 0.1298689945 -0.5427154649 -0.0156281249 0.1882844194
635296190.0 -0.039631683 0.1741890593 0.1234988272 -0.5433907177 0.1231755231 -0.5433643029 -0.0133494234 0.1885805676
640296160.0 -0.0377858546 0.1745918485 0.1176400514 -0.5450224813 0.117336023 -0.545133123 -0.0109044863 0.1885255217
645296130.0 -0.0362608085 0.1750327784 0.111855065 -0.5465246193 0.1116916337 -0.5464722593 -0.0098386764 0.188941353
650296100.0 -0.0347163165 0.1761476467 0.1061078117 -0.5470421702 0.1060078197 -0.5472495811 -0.0074706702 0.1890143234
655296070.0 -0.0328168731 0.1762131292 0.0998396692 -0.5484274073 0.0998208982 -0.5485457919 -0.0048457212 0.1895748885
660296040.0 -0.0314103221 0.1769878358 0.0942871046 -0.5490448672 0.0941359092 -0.5493530131 -0.003291988 0.1893421193
665296010.0 -0.0294437392 0.177146331 0.0881286959 -0.5500296348 0.0885981056 -0.5499628409 -0.0015495178 0.189793165
670295980.0 -0.0275639231 0.1773520962 0.0821512634 -0.5511794672 0.082154657 -0.5512593128 0.0003867245 0.1900039875
675295950.0 -0.0256519047 0.178066198 0.0760650108 -0.5521949592 0.0767379948 -0.5524480352 0.0030621037 0.1898732268
680295920.0 -0.0240075292 0.1785556895 0.0701776992 -0.552757793 0.0700661126 -0.5533274842 0.0053879518 0.1901330946
685295890.0 -0.0224828237 0.1789421071 0.0644025962 -0.5535891613 0.0640691422 -0.5539705153 0.0070034796 0.1904485265
690295860.0 -0.0204676243 0.1793352202 0.0585102013 -0.5537316531 0.057970471 -0.5542999048 0.0094057768 0.1906305438
695295830.0 -0.0184436782 0.1793222226 0.0517726507 -0.5546639981 0.0522553948 -0.555040205 0.0108796215 0.1905957569
700295800.0 -0.0168699694 0.1798855171 0.0460482724 -0.5554750344 0.0461967978 -0.5554108571 0.0132116793 0.1898229076
705295770.0 -0.0151998575 0.1802526701 0.040598271 -0.5555992092 0.0400032733 -0.555736953 0.0150135078 0.1903674734
710295740.0 -0.013360517 0.1808525579 0.0339451617 -0.5559686294 0.0341140898 -0.5559786774 0.0167768218 0.1905407459
715295710.0 -0.0117223121 0.1807988101 0.0284098215 -0.5562387248 0.0283221249 -0.5564963664 0.0195406079 0.1901864619
720295680.0 -0.0100716537 0.1809628679 0.0219867651 -0.5563794266 0.0223444814 -0.5567358393 0.0217298647 0.18992456
725295650.0 -0.0081340426 0.1814512438 0.0157588484 -0.5565761225 0.0161049455 -0.5568067442 0.0237919218 0.1903035201
730295620.0 -0.0066389311 0.1813302598 0.0102216279 -0.5567274119 0.0100001685 -0.5570901207 0.0258783578 0.1893884661
735295590.0 -0.0043129084 0.1817700176 0.0044713769 -0.556877789 0.0041925403 -0.5572314471 0.0280801839 0.1897211612
740295560.0 -0.0028165714 0.1821373582 -0.0019473296 -0.5562330256 -0.0021157229 -0.5565864782 0.0304360057 0.1893618529
745295530.0 -0.0007098615 0.1819898221 -0.0081224761 -0.556771545 -0.0073720593 -0.5571241317 0.0319185565 0.1892764386
750295500.0 0.0009363058 0.1821291498 -0.0133748806 -0.5559485806 -0.0142269474 -0.5563811069 0.0343744845 0.1887920189
755295470.0 0.0031489178 0.1823897219 -0.0195481898 -0.5562628907 -0.0195226253 -0.5568762307 0.0358692217 0.1892492232
760295440.0 0.0046172627 0.1825001139 -0.0263711995 -0.5557467054 -0.0257875911 -0.5560733807 0.0377754342 0.188252534
765295410.0 0.0060631909 0.182630655 -0.0314253537 -0.5559548558 -0.0317899476 -0.5561345964 0.0410376962 0.188796634
770295380.0 0.0081814172 0.1831005008 -0.0377881849 -0.5550973247 -0.0377932004 -0.555851579 0.0426524683 0.1881176851
775295350.0 0.0097384735 0.1832260862 -0.0435676429 -0.5547343879 -0.0439667355 -0.5551047621 0.0442599623 0.1872231304
780295320.0 0.0119628005 0.182781904 -0.0494354862 -0.5541081934 -0.0498047598 -0.5544978468 0.0464640364 0.1874134987
785295290.0 0.0136185951 0.1834457307 -0.0555812729 -0.5533122853 -0.0559543745 -0.5538615742 0.0482454049 0.1870582859
790295260.0 0.0154069575 0.1830200475 -0.0617022307 -0.5530749663 -0.061657733 -0.5536049281 0.0508318147 0.186664443
795295230.0 0.0170687778 0.1832243023 -0.0673011507 -0.5521135533 -0.0674354554 -0.5522229778 0.0528340012 0.1865384785
800295200.0 0.0191032342 0.1832807851 -0.0738665322 -0.5518001477 -0.0740629039 -0.5517414985 0.054653584 0.1858017524
805295170.0 0.0203583083 0.1828267441 -0.0791193288 -0.5503567101 -0.0793633494 -0.5508025024 0.0565945787 0.1853790838
810295140.0 0.0226009468 0.1830425469 -0.0849892172 -0.5502609942 -0.0848920153 -0.550492429 0.0590059502 0.1852707579
815295110.0 0.0244546787 0.1830837701 -0.0913148056 -0.5486025316 -0.0917313814 -0.5490948679 0.0607121475 0.1842789394
820295080.0 0.0261893897 0.182560481 -0.0970017492 -0.5477386614 -0.0973835413 -0.5480236212 0.0625093199 0.1837646945
825295050.0 0.027950786 0.1825130469 -0.1027725892 -0.5462469472 -0.1030270961 -0.5466517873 0.0649377109 0.1836495893
830295020.0 0.0299921482 0.1829174756 -0.1090541441 -0.5455111327 -0.1093330475 -0.5454494389 0.0668451596 0.1826489503
