!Created with skrf (http://scikit-rf.org).
# Hz S RI R 50.0 
!freq ReS11 ImS11 ReS21 ImS21 ReS12 ImS12 ReS22 ImS22
300000.0 -0.0456698785 -0.0618024219 -0.0009569807 0.001750344 -4.39419e-05 0.0007411041 -0.7695700345 -0.173271981
5299970.0 -0.0448325096 0.0156931302 7.04646e-05 -0.0002416265 -7.49295e-05 -0.000155783 -0.7843039639 -0.0089186288
10299940.0 -0.0388797079 0.0334895591 5.51042e-05 -0.0001133278 -8.30002e-05 4.55301e-05 -0.787950787 -0.0052762701
15299910.0 -0.0308331177 0.0479939647 -3.91112e-05 -0.0001195709 0.000149676 -5.94316e-05 -0.7931009434 -0.0027531863
20299880.0 -0.0205084763 0.0599289654 -3.00542e-05 9.21213e-05 -4.5937e-05 7.67432e-05 -0.8000123182 0.0014177707
25299850.0 -0.0092573805 0.0693108514 -5.18312e-05 0.00018333 -7.54774e-05 5.74912e-05 -0.8063750606 0.0075064338
30299820.0 0.0026582817 0.0760345308 6.1222e-05 0.0002356513 5.70397e-05 0.0001121253 -0.8121291508 0.014997665
35299790.0 0.0143825635 0.0810156265 -6.2073e-06 0.0001678252 5.48908e-05 -0.0001610699 -0.8175193223 0.0235910239
40299760.0 0.0257432601 0.0837025194 4.0634e-06 0.0001938186 2.31313e-05 1.87377e-05 -0.8216397719 0.033150179
45299730.0 0.0365131508 0.0854142381 0.0002040565 4.74193e-05 -6.21076e-05 -0.0001947273 -0.8246703196 0.0427741271
50299700.0 0.0467346354 0.0851345691 -0.0001804445 6.44731e-05 -3.0652e-05 2.46185e-05 -0.8273739897 0.0526900908
55299670.0 0.0557980914 0.0840200659 -4.79885e-05 -3.76266e-05 -5.18804e-05 9.27435e-05 -0.829760959 0.0627605436
60299640.0 0.0644406302 0.0818857327 9.02846e-05 5.29667e-05 -2.65155e-05 -5.18227e-05 -0.8305791775 0.0732781848
65299610.0 0.0720492464 0.0801485216 -2.49461e-05 0.0001635083 -6.9749e-05 0.0001481742 -0.8309030259 0.0826869164
70299580.0 0.0794654186 0.0768919927 -0.0001484561 0.0001759365 -8.8813e-06 -0.0001293722 -0.8322333428 0.0930903286
75299550.0 0.0857768588 0.0735154782 2.44365e-05 -8.05553e-05 0.0001404005 0.000126622 -0.832375588 0.102789606
80299520.0 0.0913417719 0.0704064549 3.54799e-05 0.000106743 -0.0001121117 0.0001383286 -0.8316483845 0.1123105595
85299490.0 0.0965069986 0.0664090602 -0.0001343798 -2.9834e-05 -7.15051e-05 -1.05573e-05 -0.8316445196 0.1220641283
90299460.0 0.101084121 0.0627440352 -3.74372e-05 0.0001450436 4.50908e-05 -0.0001092899 -0.8307527255 0.1312944711
95299430.0 0.1051453006 0.058813686 -6.38469e-05 0.0001843434 -7.624e-05 -0.0001005182 -0.8299778931 0.141672586
100299400.0 0.1086332973 0.0553053351 -9.39747e-05 0.0001999659 0.0001575986 -1.55192e-05 -0.8285077956 0.1499896665
105299370.0 0.1120277246 0.0509622162 -0.0002286694 0.0001850706 0.0002070008 1.04762e-05 -0.8275102321 0.1588371285
110299340.0 0.1145801721 0.0473004025 -8.06212e-05 0.0001625794 -7.15171e-05 0.0001265605 -0.8268476746 0.1681170006
115299310.0 0.1172618132 0.0430983444 -1.88039e-05 2.9657e-06 0.0002405874 -8.93063e-05 -0.8246347886 0.1771546123
120299280.0 0.1193253631 0.0395085686 3.06707e-05 0.0001698495 -1.2566e-05 -2.58625e-05 -0.8237181508 0.1858268538
125299250.0 0.120961394 0.0357218713 -0.0001414642 -1.35215e-05 -2.11216e-05 7.73596e-05 -0.8214994933 0.1959760489
130299220.0 0.1232013956 0.0322507948 -4.76361e-05 0.0001599579 -0.0001738696 2.52942e-05 -0.8200279564 0.2041377581
135299190.0 0.1246122362 0.0285057364 -4.83841e-05 -7.48765e-05 0.0001710192 7.47569e-05 -0.8177824062 0.212552408
140299160.0 0.1262955467 0.0250151444 -9.6608e-06 0.0002538689 -0.0001161969 -6.90848e-05 -0.8156462084 0.2216018477
145299130.0 0.1270954932 0.021398988 -7.02093e-05 0.000227064 -8.43585e-05 -1.75718e-05 -0.8138508216 0.2299313922
150299100.0 0.127795504 0.0181366898 2.98017e-05 1.32118e-05 -6.51012e-05 4.95428e-05 -0.8119231887 0.2385131118
155299070.0 0.1290232079 0.015073317 3.12016e-05 0.0003258209 0.0001276235 -9.282e-07 -0.8092126992 0.2472152963
160299040.0 0.1293395093 0.0114941622 7.18181e-05 0.0003026056 -0.0002083435 -4.52475e-05 -0.8074675254 0.2566468919
165299010.0 0.1296005851 0.0084978996 -6.14941e-05 7.8705e-05 -2.80022e-05 -7.73209e-05 -0.8046593694 0.2647518128
170298980.0 0.1301628244 0.0055305029 0.0002955187 6.18106e-05 -4.1419e-06 9.13426e-05 -0.8016336414 0.2738705755
175298950.0 0.1307716243 0.0028480534 3.8919e-05 0.0001292721 -7.80357e-05 8.24465e-05 -0.7994779299 0.281776186
180298920.0 0.1306932285 -0.0004526104 7.21263e-05 1.67967e-05 -3.27639e-05 0.0002312164 -0.7954634919 0.2907514429
185298890.0 0.130988537 -0.0032883385 0.0003535767 0.0002104003 0.0002766711 -2.72434e-05 -0.7930805944 0.2981118449
190298860.0 0.1312495917 -0.0062301718 -0.0001554349 0.0001944338 -0.0001304827 0.0002407977 -0.7894631498 0.3075211434
195298830.0 0.1313681775 -0.0089578437 -0.0002173079 0.0001028045 0.0001184531 7.8285e-06 -0.7866542082 0.3154815639
200298800.0 0.1309643276 -0.0113873746 6.89001e-05 -1.75642e-05 5.94575e-05 0.0001243158 -0.783059533 0.3242194892
205298770.0 0.1305192381 -0.0141604359 -2.32069e-05 0.0001072676 0.0001371819 -3.5532e-06 -0.7798347762 0.3319922432
210298740.0 0.1305654026 -0.0164474502 3.95601e-05 0.0001565169 2.52222e-05 0.0002972465 -0.7763362112 0.3405884787
215298710.0 0.1301814001 -0.0190350245 -2.84206e-05 0.0001529757 -1.93822e-05 0.0001289862 -0.7730954194 0.3484240591
220298680.0 0.1299423468 -0.0216492872 6.45124e-05 7.68088e-05 0.0001493045 2.23716e-05 -0.7696937523 0.3568915836
225298650.0 0.1294207592 -0.0239768464 5.45166e-05 4.42555e-05 3.596e-05 3.77323e-05 -0.7657351888 0.3644407654
230298620.0 0.1291180734 -0.0260434326 -5.62053e-05 -5.92703e-05 -3.67135e-05 0.0002149946 -0.7615631252 0.3723428964
235298590.0 0.1285490257 -0.0286701007 -5.36398e-05 0.0002808084 0.0002339754 0.0003571214 -0.7577566891 0.3800793291
240298560.0 0.1278525014 -0.0305456621 5.52833e-05 -2.74519e-05 -0.0001558314 2.46435e-05 -0.7539926693 0.3881092322
245298530.0 0.1274713851 -0.0329333034 0.000252433 0.000182729 2.09625e-05 0.0002940063 -0.7497149421 0.396407623
250298500.0 0.1267846092 -0.0352393955 6.06133e-05 0.0001574386 -3.80453e-05 0.0001906182 -0.7455778713 0.4046304422
255298470.0 0.1263442815 -0.0369493987 -0.0001229492 0.0002817607 0.0001807068 0.0004083162 -0.740873057 0.4126275258
260298440.0 0.1255965765 -0.0391072549 7.75105e-05 0.000232171 0.0001418586 0.0001944602 -0.7366755116 0.4195396474
265298410.0 0.1248901605 -0.0412524966 0.0002867585 0.0001947179 5.86324e-05 0.0001596389 -0.7319857556 0.427565929
270298380.0 0.1243895592 -0.0433427698 0.0001589182 0.0001215931 0.000145323 0.0001275077 -0.7271096232 0.4351328514
275298350.0 0.1236805577 -0.0451367761 0.0002516104 8.8363e-06 0.0001172749 0.0002492462 -0.7225146503 0.4431585119
280298320.0 0.1228844943 -0.0470302117 9.84401e-05 0.0001171051 2.63683e-05 0.0003844999 -0.7184404779 0.4499936784
285298290.0 0.1217736065 -0.0486338452 2.90167e-05 0.0002385821 1.18323e-05 0.0001262674 -0.7126973075 0.4578812824
290298260.0 0.1211766833 -0.0507119075 8.18531e-05 0.0001890232 0.0003651777 0.0003178636 -0.7086036388 0.4656041169
295298230.0 0.120527818 -0.0525040944 0.0002138378 -7.3505e-06 0.0003711164 -1.01879e-05 -0.7034805029 0.4724486976
300298200.0 0.1197862343 -0.0546395589 2.71399e-05 -5.68044e-05 0.0001800792 -1.7265e-05 -0.6982190808 0.4800706214
305298170.0 0.1191509188 -0.0561443597 5.76988e-05 -8.61962e-05 0.0002055262 0.0001578614 -0.6928174004 0.4874578457
310298140.0 0.118144271 -0.058598086 -5.37378e-05 4.19142e-05 -2.06404e-05 0.0001899872 -0.6886597876 0.4950072042
315298110.0 0.1168579523 -0.0601685159 8.67852e-05 2.0568e-06 0.0002757332 5.85037e-05 -0.6830842307 0.5022880798
320298080.0 0.115717714 -0.061852781 0.0001726014 0.0002333895 0.0002290379 0.0001135536 -0.6773386336 0.509420924
325298050.0 0.1147071448 -0.0637971549 0.0001156815 0.0002891927 0.0001840957 0.0001008051 -0.6718409335 0.5163070963
330298020.0 0.1131584471 -0.0654806986 0.0001385703 1.06957e-05 7.53e-08 0.0002443842 -0.6665398624 0.5232194538
335297990.0 0.1120529395 -0.0670302133 1.03301e-05 0.0001111001 0.0001746647 0.0003827915 -0.6608391349 0.5295936715
340297960.0 0.1105338639 -0.0681452554 0.0001707372 -4.93257e-05 5.06771e-05 -0.0001675938 -0.6557810428 0.5369220904
345297930.0 0.1092859613 -0.0696809638 0.0002758314 -0.0001150367 0.0001268786 -4.03e-05 -0.6496705838 0.5436165227
350297900.0 0.1086728276 -0.0709236812 0.0001749896 0.0002251496 0.0001064942 0.0001441914 -0.6437859415 0.5510096464
355297870.0 0.1069769036 -0.072478664 0.0002304616 6.60738e-05 0.0002761987 6.1192e-06 -0.637950398 0.5572239085
360297840.0 0.1059902802 -0.0739626452 0.0001942149 7.92208e-05 6.85524e-05 0.0001786859 -0.6321305247 0.563841358
365297810.0 0.1050646944 -0.0750457471 4.4013e-05 -3.02191e-05 0.000224396 3.06937e-05 -0.6264116919 0.5705195889
370297780.0 0.103663188 -0.0765279835 0.0002159763 0.000123859 0.0001458592 -1.94202e-05 -0.620540363 0.576649301
375297750.0 0.1025488709 -0.0775509289 0.0001955519 0.0002096882 0.0002272265 0.000294915 -0.6139848301 0.5833720864
380297720.0 0.1017332178 -0.0789502576 0.0001367442 9.73174e-05 0.0001868088 6.13896e-05 -0.6077482241 0.5905461217
385297690.0 0.1003726137 -0.0800158503 2.67233e-05 0.0001575564 0.000126897 0.000249855 -0.6016583515 0.5960388627
390297660.0 0.0990740828 -0.0813759092 -0.0001089737 6.73541e-05 -3.86672e-05 8.44927e-05 -0.5947598428 0.6014842976
395297630.0 0.0978374599 -0.0823646756 0.0003750665 0.0001778852 0.0001346708 0.0001468563 -0.5891915961 0.6082150771
400297600.0 0.096560493 -0.0834939896 0.0002543767 3.88459e-05 7.75043e-05 0.0001372967 -0.5827554866 0.6141755447
405297570.0 0.0955989463 -0.0847109843 0.0001999709 0.0001436116 0.0001502709 0.000113205 -0.5770297947 0.6204386735
410297540.0 0.0942175635 -0.085921157 5.54297e-05 0.0002783877 0.0002257403 -3.35121e-05 -0.5696590433 0.6254678008
415297510.0 0.0932018404 -0.0872314106 0.0002236509 0.0001119105 0.0003884298 0.0002339296 -0.5638657923 0.6317564817
420297480.0 0.0916142055 -0.0882919545 0.0002519184 1.43081e-05 0.0001033727 0.000184506 -0.5570452186 0.6370016988
425297450.0 0.0906568766 -0.0891801201 0.000133473 3.4549e-05 0.00015305 0.0001289445 -0.550060275 0.6431574833
430297420.0 0.0889784961 -0.0901273861 0.0001588273 9.6621e-06 0.0002228241 -2.00608e-05 -0.5440115446 0.649028448
435297390.0 0.0878359388 -0.0911923254 0.0003542792 0.0002104578 0.0002885632 -1.90912e-05 -0.5370803588 0.6538110395
440297360.0 0.0867372934 -0.0921666592 0.0002432949 0.0001341308 0.0001286659 3.649e-07 -0.5300546431 0.6590513823
445297330.0 0.0854305929 -0.0932482679 6.78272e-05 5.5139e-06 0.0001766748 0.0001113194 -0.5238753714 0.6646058173
450297300.0 0.0839638901 -0.0942580116 0.0002488115 -7.1769e-06 0.0002393711 0.0001554347 -0.5172178391 0.669866185
455297270.0 0.0824424328 -0.0949408029 0.0003200456 0.000112544 0.0002441739 0.0002210865 -0.5099962527 0.6744941679
460297240.0 0.0812705618 -0.095676715 0.000354091 0.0001486495 0.0003174754 9.09856e-05 -0.5026539635 0.6798948678
465297210.0 0.080020525 -0.0968010881 0.0004274099 -2.59346e-05 0.0001321074 0.000168959 -0.4965665473 0.6843778127
470297180.0 0.0788327113 -0.0978402097 0.0002636647 0.0001928203 0.0003063172 0.0002593202 -0.4891587275 0.6898776214
475297150.0 0.0771485811 -0.0985341306 0.0003889441 0.0001423024 0.0003007184 0.0001010876 -0.482122247 0.6949560033
480297120.0 0.0759363643 -0.0993445847 0.0003951011 0.0001330074 0.000270298 7.68371e-05 -0.4753369067 0.6995061109
485297090.0 0.0747553222 -0.1000672709 0.0004015527 8.05094e-05 0.0002946096 0.0002701447 -0.4679906842 0.7042674897
490297060.0 0.0731422306 -0.1009982973 0.0001262257 2.2148e-06 0.0003900438 0.0001557533 -0.460890178 0.7082490391
495297030.0 0.071637643 -0.1015970009 0.0004967944 -0.0001164151 0.0002458676 0.0001334496 -0.4535046465 0.7130583717
500297000.0 0.070640687 -0.1025022221 0.0002693695 0.000226782 0.0003173973 -0.00010324 -0.4465786537 0.7171432799
505296970.0 0.0687594489 -0.1031425278 0.0002794609 0.0001775102 0.000212429 -5.89225e-05 -0.4400215114 0.7217652575
510296940.0 0.0675490348 -0.1036111808 0.0004075738 0.000336563 0.0001523025 -4.97501e-05 -0.4317527269 0.7260899155
515296910.0 0.0660387555 -0.1042994874 0.0001861839 -4.4323e-05 0.0003487929 0.0001032054 -0.4246768549 0.7308459227
520296880.0 0.0651221253 -0.1052382129 0.0003930748 -0.0001230367 0.0002734796 -3.3714e-06 -0.4174723397 0.7342068111
525296850.0 0.0632863404 -0.1057160071 0.0003996397 0.0001428381 0.0003582946 0.0001463948 -0.4096408054 0.7392371245
530296820.0 0.0620444595 -0.1062506162 0.0001889592 8.43679e-05 0.0005064892 -4.48672e-05 -0.4029580649 0.7425330036
535296790.0 0.0607820873 -0.1068827976 0.0003149368 5.32181e-05 3.37013e-05 4.70833e-05 -0.3955450274 0.7460381902
540296760.0 0.0590480023 -0.1077232198 0.000416408 0.0001369458 0.000203523 6.03326e-05 -0.3878905307 0.7507882429
545296730.0 0.0577258068 -0.1077106836 0.0003362283 7.17817e-05 0.0002693426 6.78439e-05 -0.3808456281 0.7537814595
550296700.0 0.0561771874 -0.1084039274 0.0003849308 -2.72424e-05 0.0002303509 0.0001611011 -0.3727441475 0.7576310352
555296670.0 0.0548444161 -0.1092860599 9.94104e-05 0.0001376558 2.89522e-05 -0.0001956686 -0.3654601761 0.7615355713
560296640.0 0.0534240756 -0.1098723654 0.0004404934 0.0001790014 0.0002030683 -0.0001098621 -0.3578187441 0.7650103025
565296610.0 0.0521525146 -0.1096934512 0.0002187381 0.0001077809 0.0002706224 -7.77392e-05 -0.3499152453 0.7682284625
570296580.0 0.0505987219 -0.1106626186 0.0002555161 -0.000117697 0.0003926032 4.29479e-05 -0.3430668493 0.7719633637
575296550.0 0.0492259325 -0.1108741009 0.0002299908 7.6699e-05 0.0003712688 0.000173201 -0.3346535522 0.7757014302
580296520.0 0.0478869401 -0.1111407181 0.0003911729 0.0001476321 0.0002830229 0.0002800204 -0.3269587444 0.7785914298
585296490.0 0.0461534721 -0.1115970906 0.0004432928 0.0002401582 0.0002804822 0.0001636062 -0.3190299395 0.7813494496
590296460.0 0.0445168507 -0.1119915615 0.0003600487 0.000140386 7.31809e-05 0.0002375855 -0.3116542547 0.7847199413
595296430.0 0.0435914306 -0.1124000249 0.0003207244 0.0001442139 0.000303759 6.75037e-05 -0.3036361257 0.7872584154
600296400.0 0.0417528503 -0.1125951861 0.0003019064 2.52823e-05 0.0001245894 6.52188e-05 -0.29583624 0.7914358211
605296370.0 0.0406314732 -0.1129556967 0.0003872551 -0.00012144 0.0002002551 8.11547e-05 -0.28786747 0.7942493318
610296340.0 0.0391784482 -0.1134315192 0.0002066344 -2.01723e-05 0.0002781388 3.61323e-05 -0.2800594335 0.7967696894
615296310.0 0.0375900715 -0.1133503806 0.0002593411 8.45453e-05 0.0002154543 0.0001364224 -0.2723097363 0.7993845667
620296280.0 0.0362850189 -0.1137334687 0.0003796213 -6.5151e-05 0.0002794433 5.6734e-05 -0.2646200137 0.8018026209
625296250.0 0.0348045494 -0.1140300303 0.0003478393 -1.16e-05 0.000299523 -0.0001322515 -0.2563922158 0.8039976713
630296220.0 0.0331078227 -0.1142198164 0.000299888 1.17502e-05 0.0004468712 0.000266784 -0.2477730266 0.8070550096
635296190.0 0.0314656108 -0.114404265 0.0002291549 0.0003201511 0.0002503619 6.67125e-05 -0.2410446241 0.8091969684
640296160.0 0.0303189621 -0.1147126808 0.0002672239 7.7834e-06 0.0004143169 4.73835e-05 -0.2322494248 0.8115413993
645296130.0 0.0286656168 -0.1146760517 0.0001172194 -7.32269e-05 0.0003175029 0.0001357154 -0.2250336844 0.8144137771
650296100.0 0.0275075637 -0.1146572905 0.0002566568 9.03562e-05 0.000459 0.0001174193 -0.2163572782 0.8165721782
655296070.0 0.0258836631 -0.115124596 0.0002657905 3.52593e-05 0.0002604119 -0.0001750876 -0.2082661832 0.8176716114
660296040.0 0.0242444863 -0.1150169635 0.0003228269 -7.02743e-05 0.0005064862 -8.47727e-05 -0.2001795554 0.820044081
665296010.0 0.0230233049 -0.1153304086 0.0002310213 1.2947e-06 0.0003004611 -0.0001652998 -0.1925815447 0.8223184089
670295980.0 0.0216016668 -0.1152693452 0.0003756441 -0.0001524642 0.0003294897 -0.0002287084 -0.1850376582 0.823833005
675295950.0 0.0201378248 -0.1152859809 0.0002962169 -5.83894e-05 0.0003375262 -2.17538e-05 -0.1761092384 0.8263438733
680295920.0 0.0186108146 -0.1149530177 0.0002886915 3.19994e-05 0.0003017565 3.29691e-05 -0.1675339756 0.8278092608
685295890.0 0.0172676313 -0.1151810858 0.0004243393 0.0001577795 0.0004616978 -9.8442e-05 -0.1599285757 0.8292119667
690295860.0 0.0161053432 -0.1152290016 0.0002652527 -4.51618e-05 0.0003709891 -4.32486e-05 -0.1517666836 0.8304488341
695295830.0 0.0143152683 -0.1152608407 0.0003954317 -0.0001155961 0.0002049194 -0.0001089681 -0.143884889 0.8320373221
700295800.0 0.0130089969 -0.1149751457 0.0002894796 0.0001613665 0.0003825606 8.84752e-05 -0.1343889433 0.8334878342
705295770.0 0.0114628226 -0.1153247077 0.00030132 4.35394e-05 0.0003192168 -0.0002958372 -0.1273507845 0.8352850127
710295740.0 0.0099753649 -0.1150139005 0.0002877102 -9.2532e-06 0.0003307676 -0.0001255349 -0.118957827 0.8368079347
715295710.0 0.008538216 -0.1148921572 0.0003306746 -5.86475e-05 0.0004321553 1.17849e-05 -0.1110685312 0.8372648921
720295680.0 0.0070454597 -0.1148712569 0.0004469465 0.0002518018 0.0003847004 -0.0001777114 -0.1023568988 0.8384246899
725295650.0 0.0055452132 -0.1143975708 0.0003695202 -6.8257e-06 0.0003614546 2.23104e-05 -0.0936769137 0.8395229642
730295620.0 0.004010448 -0.1144668304 0.0004769694 -0.0001386563 0.0004357536 -0.0001189198 -0.0855974458 0.8402151543
735295590.0 0.0029348327 -0.1142821759 0.0001689495 0.0001044869 0.0001326289 -7.81775e-05 -0.0767374775 0.8408154338
740295560.0 0.0014911413 -0.1140802176 0.0003415379 -6.86937e-05 0.0002475621 -7.61936e-05 -0.0692952055 0.8410965288
745295530.0 -0.0001225008 -0.1140046945 0.0003964391 7.9341e-05 0.0003725339 -1.76352e-05 -0.060612578 0.8419234182
750295500.0 -0.0012207013 -0.1135567177 0.0001103895 0.0001855925 0.0003517825 6.0486e-05 -0.0524479565 0.842292679
755295470.0 -0.0027910746 -0.1131409003 0.0004414438 -0.0001336112 0.0004491138 3.9645e-05 -0.0447926753 0.8436372198
760295440.0 -0.0043283009 -0.1130507983 0.0003294017 -0.0001613052 0.0004896096 0.0001289479 -0.0361073469 0.8438470261
765295410.0 -0.0057902221 -0.1129468141 0.0002382674 -0.0002818624 0.0004170749 -6.50089e-05 -0.0269394201 0.8438934429
770295380.0 -0.0070410108 -0.1124329288 0.000251624 -6.12097e-05 0.0002661207 7.05104e-05 -0.0189965723 0.8434016672
775295350.0 -0.0085726314 -0.1120586184 0.0002347117 1.7033e-05 9.63716e-05 -8.60742e-05 -0.0115075526 0.8439020198
780295320.0 -0.0100476982 -0.1120791978 0.000373591 -0.0001662661 0.0004078497 -4.58494e-05 -0.0029067287 0.844036411
785295290.0 -0.0111151708 -0.1115041046 0.0005402772 -0.0001002736 0.0002931386 -4.96422e-05 0.0050416213 0.8441829034
790295260.0 -0.0125897507 -0.1110932986 0.0006733515 -0.0002114048 0.0002917836 -2.04606e-05 0.0142644984 0.8439195692
795295230.0 -0.0141017287 -0.1102200769 0.000155226 3.65151e-05 0.0004900649 -0.0001277375 0.0225765456 0.844440088
800295200.0 -0.0153020808 -0.1100684445 0.0005128851 -0.0003892405 0.0004622572 -0.0001532371 0.0303186541 0.8435041579
805295170.0 -0.0167147043 -0.1099208983 0.000243295 -0.0002962387 0.0004045439 -0.0001617034 0.0385560122 0.8428477955
810295140.0 -0.0180538625 -0.1092951541 0.0001519816 -6.76565e-05 0.0004245437 -0.0001791208 0.0474182541 0.8436997532
815295110.0 -0.0194221746 -0.1087772103 0.0003107438 -0.0001915188 0.0003559063 -0.000111639 0.0552640663 0.8426521131
820295080.0 -0.0206276276 -0.1084110764 0.0003689472 -6.62659e-05 0.0002850838 -0.0001993205 0.0631744134 0.8417125317
825295050.0 -0.0220795841 -0.1079093677 0.0003571366 -0.0002019555 0.0001767374 -2.9978e-06 0.0719839185 0.841653204
830295020.0 -0.0232011394 -0.1072781029 0.0004607966 -0.0001350473 0.0004718411 -3.5338e-05 0.0796392558 0.8404888027
835294990.0 -0.024468645 -0.1066853168 0.0003356078 -0.0002290674 0.0003667675 -0.0001069322 0.0879506426 0.8395991138
840294960.0 -0.0259340124 -0.1064961389 0.0004059545 -0.0001487684 0.0003731872 -0.0001327935 0.0958858633 0.8389415285
845294930.0 -0.0272219188 -0.1055961726 0.0003546685 -0.0002166898 0.0002179818 -0.0001287594 0.1046622973 0.8371888785
