!Created with skrf (http://scikit-rf.org).
# Hz S RI R 50.0 
!freq ReS11 ImS11 ReS21 ImS21 ReS12 ImS12 ReS22 ImS22
300000.0 -0.7746645668 -0.0959188297 0.0006801129 0.0004735137 0.0004524678 0.0004431523 -0.0487975311 -0.0619429917
5299970.0 -0.7851261532 -0.0054669059 -0.0001150952 -2.21311e-05 5.0521e-05 -0.0001207548 -0.0496448068 0.0155433371
10299940.0 -0.7877676272 -0.0036423148 0.0001848754 4.81626e-05 -0.0003153909 -1.77391e-05 -0.0440762913 0.0337297947
15299910.0 -0.793574707 -0.0019742948 0.0002131036 -6.85842e-05 1.2139e-05 1.78624e-05 -0.0355035341 0.0480673633
20299880.0 -0.8003872111 0.0024704802 -0.0001340015 -0.0001099984 4.04367e-05 5.26978e-05 -0.0252553012 0.0598128093
25299850.0 -0.8063392753 0.0083099402 7.90339e-05 -2.58902e-05 -6.62438e-05 -4.93344e-05 -0.0138014481 0.0691411674
30299820.0 -0.8123635932 0.0156380881 7.16602e-05 5.83062e-05 -3.39901e-05 5.0968e-05 -0.0019587377 0.0763003427
35299790.0 -0.8174948615 0.0251017623 8.15406e-05 -1.54514e-05 4.80569e-05 1.707e-05 0.0093935754 0.0812655292
40299760.0 -0.8213096594 0.0338410271 4.95434e-05 -3.65332e-05 0.0001234947 -3.44411e-05 0.0207566654 0.083543718
45299730.0 -0.8249443731 0.0430393527 -0.0001396778 -0.0001476743 -3.7967e-05 -0.0001091677 0.0314296073 0.0849863509
50299700.0 -0.8273960891 0.0536892885 -1.95109e-05 -0.0002448819 -0.0001170154 0.0001279695 0.0415568553 0.0848271731
55299670.0 -0.8293681894 0.0634647985 -1.04216e-05 0.000200607 -0.0001138022 -2.22904e-05 0.0506542161 0.0835539787
60299640.0 -0.8307556027 0.074004469 -0.0001387858 0.0001128085 0.0002357893 4.09519e-05 0.0593655871 0.0818815947
65299610.0 -0.8312018968 0.0835588991 0.0002402899 -5.89136e-05 0.0002479333 0.0001872828 0.0669426909 0.0792133533
70299580.0 -0.8320063383 0.0936547983 -5.86611e-05 -0.0001114693 6.28817e-05 -3.45936e-05 0.0737603625 0.0759558108
75299550.0 -0.8319789834 0.1036874497 4.44121e-05 6.83244e-05 -1.9753e-05 -9.8318e-05 0.080235806 0.0723157458
80299520.0 -0.8317599598 0.1133007725 -7.19059e-05 -8.39884e-05 7.3469e-06 0.000256746 0.085990255 0.0689352151
85299490.0 -0.8313667768 0.1227193001 0.0001013384 0.0001491011 -8.65763e-05 -5.00111e-05 0.090943491 0.064935091
90299460.0 -0.8303547819 0.1323169811 -7.43676e-05 -5.6196e-05 4.0826e-05 1.54434e-05 0.0955067094 0.0609303852
95299430.0 -0.8293088186 0.1421192078 1.79641e-05 -4.6527e-05 3.69806e-05 -8.81595e-05 0.099600558 0.0570064452
100299400.0 -0.828009988 0.1511815749 5.94583e-05 -2.69351e-05 0.0001439153 -1.30985e-05 0.1034405535 0.0525465365
105299370.0 -0.8276382861 0.1606255047 -0.0001645804 0.0002536421 -9.51662e-05 3.27065e-05 0.1072517706 0.0485595275
110299340.0 -0.8257019045 0.1698743442 -0.0002064868 -6.00006e-05 8.49184e-05 -0.0001328028 0.1096479356 0.0444791345
115299310.0 -0.8240977475 0.1788560524 -0.0001374196 2.97486e-05 -6.20807e-05 -1.26362e-05 0.1120010552 0.0406706389
120299280.0 -0.821924673 0.1875913308 -4.00412e-05 0.0001371247 -2.31193e-05 -0.0001664193 0.114346432 0.0366159833
125299250.0 -0.8201400353 0.1967362739 0.0002532413 -7.46329e-05 0.0002640726 -6.70574e-05 0.116639352 0.0324337323
130299220.0 -0.819058541 0.2059743097 -8.3148e-06 0.0001821461 0.0001312856 4.868e-06 0.1181991593 0.028501378
135299190.0 -0.817059786 0.2145276794 0.0002245784 -6.57882e-05 -5.21562e-05 -1.5339e-05 0.1198004603 0.0248782507
140299160.0 -0.8145171806 0.2233896425 -3.8373e-05 0.0001230886 -1.43417e-05 -6.33497e-05 0.1209862624 0.0214922566
145299130.0 -0.8129691967 0.2326222981 3.57934e-05 0.0002778018 0.0001826622 -1.40007e-05 0.121992963 0.0177222243
150299100.0 -0.8102030238 0.2412450254 7.83268e-05 6.43336e-05 -3.06763e-05 6.02954e-05 0.1231589706 0.0146381408
155299070.0 -0.8081491336 0.2498114742 1.38353e-05 -1.10368e-05 -0.0001212772 8.36794e-05 0.1241317508 0.0112142801
160299040.0 -0.8052126204 0.258033943 -2.32845e-05 1.56506e-05 -0.0001758322 7.39955e-05 0.1241814424 0.0077300986
165299010.0 -0.8025975704 0.2670302876 6.13909e-05 -6.82168e-05 0.0001230605 7.98992e-05 0.1248315417 0.0044646711
170298980.0 -0.8003324938 0.275498235 3.17024e-05 -1.39507e-05 -3.55367e-05 3.33916e-05 0.1254585775 0.0015323122
175298950.0 -0.797335995 0.284194962 0.0001659599 -5.1407e-05 -0.0001148784 -6.1346e-05 0.1252404674 -0.0014274328
180298920.0 -0.7945741595 0.2930165378 -0.000225392 0.0001405965 -0.0001559628 -0.0001620034 0.1254754379 -0.0044664773
185298890.0 -0.7915597018 0.3011074726 9.91171e-05 -1.42377e-05 -3.57387e-05 -4.09401e-05 0.1255142568 -0.0072362133
190298860.0 -0.788330793 0.3096969878 -4.31491e-05 9.59678e-05 -6.54205e-05 6.91874e-05 0.1255740766 -0.0098760634
195298830.0 -0.7849971042 0.3183332573 -2.77712e-05 8.55757e-05 -0.000118111 6.57005e-05 0.1252622795 -0.0127305684
200298800.0 -0.7819389832 0.326756604 0.0003624587 -0.0001310749 9.82581e-05 0.0001040614 0.1250813904 -0.0157412161
205298770.0 -0.7786356126 0.3344871356 -8.07343e-05 0.000333499 3.14491e-05 -7.24958e-05 0.1246368642 -0.0184720448
210298740.0 -0.7749870169 0.3429843905 -9.98712e-05 5.13044e-05 -6.3271e-06 3.1533e-05 0.1241004929 -0.0209256115
215298710.0 -0.7718025862 0.3507758995 0.0001931463 -1.66652e-05 -6.72441e-05 0.0001525301 0.1232898698 -0.0237215374
220298680.0 -0.7677609025 0.3593611317 5.82866e-05 0.0002270564 -6.409e-05 0.0001421126 0.1227156999 -0.0261488965
225298650.0 -0.7641482229 0.3668563938 -0.0001968461 2.54415e-05 0.0001013562 0.0001752158 0.1220374753 -0.028720872
230298620.0 -0.7601902653 0.37535415 -0.0001023345 7.9584e-06 4.967e-05 -0.0001043296 0.1216121521 -0.0312144165
235298590.0 -0.7562551335 0.3838570533 -0.0001640866 -0.0001417109 -3.2627e-05 8.07571e-05 0.1207841795 -0.0335581754
240298560.0 -0.7523141121 0.3914918078 -0.0002654866 0.0001300892 -3.21329e-05 0.000191273 0.1204846414 -0.0360978061
245298530.0 -0.7486718873 0.3992348222 0.0001602202 -3.508e-07 -5.30245e-05 -2.10968e-05 0.1194547202 -0.0385261435
250298500.0 -0.7443398417 0.4071828188 0.0001627019 -5.8939e-06 0.000205771 2.5733e-06 0.1183567248 -0.0408406905
255298470.0 -0.7393055008 0.4141473035 0.0001125219 -3.12724e-05 2.11134e-05 0.0001759088 0.1177082864 -0.0433945054
260298440.0 -0.7356082355 0.4219882651 -9.98794e-05 -1.30957e-05 -0.000188301 -0.0002324379 0.117111648 -0.0452088639
265298410.0 -0.7309261214 0.4304417442 0.0001279214 2.57917e-05 -0.0002186666 3.9839e-05 0.1161599924 -0.0474069041
270298380.0 -0.7270844403 0.4379830611 -3.4042e-05 -6.54625e-05 -8.90298e-05 0.0001988317 0.1151961485 -0.0497134172
275298350.0 -0.7219490464 0.4449282934 1.80968e-05 0.000323091 0.0001064338 0.0002095791 0.1146736504 -0.0512990594
280298320.0 -0.7168832229 0.4529076381 0.0001239432 9.5782e-06 -5.65054e-05 0.0001400222 0.1138575529 -0.0539457624
285298290.0 -0.7126238772 0.460119213 3.91529e-05 1.88433e-05 1.9498e-05 -6.42326e-05 0.1127114948 -0.0558644822
290298260.0 -0.7074607221 0.4677289322 6.9474e-06 -0.0001985967 6.95616e-05 7.14216e-05 0.1124884831 -0.0576801894
295298230.0 -0.7020931096 0.4746321379 0.0001614971 0.0001023649 0.0002762043 2.07507e-05 0.1111607047 -0.059877408
300298200.0 -0.6978087539 0.4819528018 -6.4624e-06 0.0002490333 9.00416e-05 0.0001920455 0.1100803134 -0.0615844137
305298170.0 -0.692532593 0.4886026699 3.15208e-05 -2.64481e-05 0.0002265337 9.781e-06 0.109845959 -0.0636156163
310298140.0 -0.6873705513 0.4967474978 5.94194e-05 0.0001608006 -1.19792e-05 1.43167e-05 0.1082272924 -0.06581739
315298110.0 -0.6823639368 0.5037449734 -0.0001053901 5.10256e-05 5.87961e-05 -9.87354e-05 0.1069671211 -0.0675920085
320298080.0 -0.6774474223 0.5103019882 0.0001393753 9.80959e-05 1.50912e-05 0.0001602504 0.1059659307 -0.0695075454
325298050.0 -0.671995354 0.5173973087 8.64039e-05 0.0001526366 0.0001790765 0.0002126163 0.1046314891 -0.0713898824
330298020.0 -0.6663039538 0.5237405529 2.70123e-05 0.0001773683 2.92788e-05 -7.80232e-05 0.1026996671 -0.0725967577
335297990.0 -0.6606234196 0.5308813971 7.2955e-05 0.0001490308 1.42483e-05 -0.0001782405 0.1013820785 -0.0739500954
340297960.0 -0.6560316856 0.5381923343 0.0002583469 -7.05492e-05 8.25549e-05 0.0001302484 0.1005918541 -0.0751139893
345297930.0 -0.6496565866 0.5440431222 -8.90779e-05 -4.2649e-06 2.0727e-06 7.67055e-05 0.0986286344 -0.0767903456
350297900.0 -0.6441605292 0.5515496342 -0.0002047839 -8.18141e-05 0.0001064393 1.19768e-05 0.0974353323 -0.07776684
355297870.0 -0.6381036861 0.5587243207 2.2624e-05 0.0001887712 0.0001267809 -9.0341e-06 0.0957657425 -0.0790635882
360297840.0 -0.6320373776 0.5639501426 0.0001912836 1.99688e-05 2.92418e-05 0.0001085459 0.0946153612 -0.0807387864
365297810.0 -0.6268265543 0.5704347729 0.0001803395 8.3788e-05 1.72599e-05 -2.34014e-05 0.0930748889 -0.0825149472
370297780.0 -0.6207216186 0.5770668941 3.99438e-05 0.0001320704 4.87044e-05 -0.0001043839 0.0920664824 -0.0829992327
375297750.0 -0.6144955697 0.5834091165 0.0002467604 -0.0002371348 1.83117e-05 -0.000106458 0.0903459308 -0.0847963466
380297720.0 -0.6087115109 0.5890983589 -0.0001029358 7.73825e-05 2.02195e-05 2.16516e-05 0.0882849613 -0.0857042538
385297690.0 -0.6032204999 0.5957305806 4.24777e-05 8.60576e-05 0.0001313978 0.0001967528 0.0875191918 -0.0870469438
390297660.0 -0.5963666387 0.6013507718 -2.8993e-06 0.0002117834 -2.98496e-05 8.05905e-05 0.0855940559 -0.0879964385
395297630.0 -0.5896883712 0.6084166557 0.0002733658 -4.33863e-05 0.0002467154 8.08114e-05 0.0844011805 -0.0893114562
400297600.0 -0.5837791454 0.6149366083 -2.32489e-05 5.35339e-05 0.0002278813 0.0001710933 0.0829888316 -0.0904467529
405297570.0 -0.5772959562 0.6203450577 0.0001446773 -8.08133e-05 -4.80098e-05 0.0001397228 0.0812408888 -0.0915553125
410297540.0 -0.5709388556 0.6260816857 -0.0001749508 5.79753e-05 3.24037e-05 8.8305e-05 0.0794725678 -0.0925865644
415297510.0 -0.56432479 0.6316405183 0.0001616973 -0.0001739885 0.0001379179 0.0001958857 0.0779687428 -0.093959067
420297480.0 -0.5585317493 0.6375590905 5.20662e-05 3.63879e-05 0.0002709386 0.0002207188 0.0766079063 -0.0949470839
425297450.0 -0.5516860454 0.6427199891 0.0002434785 0.0003134717 -1.40575e-05 5.00242e-05 0.0750982076 -0.0961013649
430297420.0 -0.5449350715 0.6483520126 0.0001701132 0.0001713611 2.79332e-05 0.0001577581 0.0734568501 -0.097224417
435297390.0 -0.5383377256 0.653809782 0.0001835709 -0.000220672 0.0002159066 -0.0001149258 0.0718778286 -0.0983739331
440297360.0 -0.531676387 0.6593231001 0.0001174018 1.32376e-05 0.0002094357 9.82311e-05 0.0705262116 -0.0995535454
445297330.0 -0.524247392 0.664960811 -5.39225e-05 0.0002860038 -1.67654e-05 0.0002048699 0.0689682583 -0.1006674099
450297300.0 -0.5181592641 0.6701070527 -2.1178e-05 5.3163e-06 4.79841e-05 -1.49172e-05 0.0672156453 -0.1012705694
455297270.0 -0.5112426721 0.6747865848 -6.60265e-05 0.0002124679 0.0001792833 0.0001532297 0.0657500402 -0.1022476989
460297240.0 -0.5045820644 0.6796199801 0.0003823491 -1.7611e-05 4.43328e-05 2.96e-05 0.0642133043 -0.1028841084
465297210.0 -0.4973740382 0.6849511949 8.9481e-05 -2.29233e-05 0.0001109059 2.43508e-05 0.0630093497 -0.1042094854
470297180.0 -0.4901506167 0.6898601603 -4.41691e-05 0.0001614149 0.0001841699 0.0001005236 0.0613351915 -0.1045692726
475297150.0 -0.4830462512 0.6949196243 8.25994e-05 -1.4302e-05 2.95146e-05 0.0001270788 0.0600201281 -0.1058005872
480297120.0 -0.4758214747 0.6997620429 0.0001834551 -9.47023e-05 0.0002244831 2.74012e-05 0.0585341966 -0.1062068214
485297090.0 -0.4687055847 0.7045390496 5.2931e-05 4.41085e-05 7.13422e-05 -0.0001940407 0.0571804863 -0.1068856275
490297060.0 -0.4620414592 0.708984602 0.0004920996 -3.40776e-05 8.80285e-05 0.0001704155 0.0551981747 -0.1079523633
495297030.0 -0.4543975257 0.712959143 0.0002964829 0.000178738 7.70803e-05 -0.000101433 0.0538388669 -0.1081159631
500297000.0 -0.4475377563 0.7180809725 7.80006e-05 5.53297e-05 0.0001101031 3.97789e-05 0.0524826894 -0.1086783469
505296970.0 -0.4400473415 0.722899739 6.48343e-05 -3.28522e-05 0.0002195147 -1.87166e-05 0.0505046738 -0.1095674172
510296940.0 -0.4323954392 0.7271486732 0.0003702342 7.17023e-05 -9.04108e-05 0.0002807458 0.0490198012 -0.1099657131
515296910.0 -0.4242018881 0.731007956 0.0001596788 0.0001439408 0.0001030835 0.0001260204 0.0473758355 -0.1105568685
520296880.0 -0.4177853766 0.7361128317 0.0001150586 -9.5645e-06 8.6809e-05 2.63623e-05 0.0458772232 -0.1111404407
525296850.0 -0.4098459959 0.739390783 0.0001325907 4.9053e-06 0.0001925097 0.0001009985 0.0441899267 -0.1113802624
530296820.0 -0.4023093963 0.7435248266 3.02013e-05 7.88532e-05 0.0002873098 -7.8283e-05 0.0425011918 -0.1116585247
535296790.0 -0.3948938747 0.7474457463 0.0003349793 -0.0001241894 0.0001012789 1.60692e-05 0.0401554332 -0.1124331565
540296760.0 -0.3880766666 0.7515161362 0.0001944909 -0.000228163 0.0001508454 0.0001373847 0.0387477574 -0.1125689656
545296730.0 -0.3803195488 0.7549690411 -0.000112051 1.69035e-05 0.0001359034 6.7026e-05 0.036999685 -0.1128171395
550296700.0 -0.3725214682 0.7591513101 -0.0001237753 0.0001523357 -3.19175e-05 9.22958e-05 0.0350975816 -0.1135385942
555296670.0 -0.3640473899 0.7615282298 0.0001977819 -4.37068e-05 6.66884e-05 1.7637e-06 0.0339826613 -0.1135301574
560296640.0 -0.3570180755 0.7667144345 0.0002952434 -0.0001891694 0.0002723712 -1.14479e-05 0.0319836559 -0.1137789721
565296610.0 -0.3489863251 0.7694624789 0.0003332707 1.51872e-05 0.0003393796 -0.0001521997 0.0304325331 -0.1144254264
570296580.0 -0.3419903241 0.7726678747 -5.38404e-05 -0.0001682293 8.72686e-05 4.45989e-05 0.028415812 -0.1145615365
575296550.0 -0.3335961447 0.7768913702 0.000346482 0.0004506451 0.000198863 -7.00901e-05 0.0264683334 -0.1148159666
580296520.0 -0.3254717958 0.7798743228 0.0002798419 4.5459e-06 0.0002451178 -5.913e-06 0.0249140757 -0.1151060071
585296490.0 -0.318654721 0.7826409347 -0.0001719572 -1.14298e-05 0.000136634 9.84519e-05 0.0233915335 -0.1156022828
590296460.0 -0.3097431522 0.7859612547 0.0002043834 0.0002065144 0.0001300682 1.92508e-05 0.021272012 -0.1155801308
595296430.0 -0.3022965849 0.7888888461 6.42308e-05 1.10345e-05 0.0002991902 -1.0856e-06 0.019553566 -0.1161033546
600296400.0 -0.2942862021 0.7921748852 0.0002518692 -1.74403e-05 6.0766e-05 -0.0001886714 0.0181316247 -0.1164434016
605296370.0 -0.2870188478 0.7945354264 -8.61677e-05 -0.0001643441 0.0002181307 0.0002461727 0.0165327596 -0.1166007854
610296340.0 -0.2785507975 0.7973185202 0.0004044473 1.18315e-05 0.000110203 -0.0001188803 0.014568966 -0.1166631929
615296310.0 -0.269838838 0.8000502884 0.0001938102 -0.0001320315 7.94946e-05 1.39048e-05 0.013043804 -0.1168066341
620296280.0 -0.2620310588 0.8023679341 1.97047e-05 -7.45989e-05 0.000158407 0.0001160851 0.0112604349 -0.1169847783
625296250.0 -0.2543389714 0.8054766601 -1.09544e-05 0.0001845927 -3.10501e-05 7.68324e-05 0.0099384867 -0.1171240125
630296220.0 -0.2453264217 0.8079023351 0.0001464001 -0.0001287082 5.78342e-05 1.3277e-05 0.0079717319 -0.1167557631
635296190.0 -0.2380611987 0.8103282896 -2.41004e-05 -1.33149e-05 0.0001772493 -0.0003272313 0.0062921444 -0.1173430545
640296160.0 -0.2305135641 0.8122856543 0.0002306434 -1.84353e-05 3.85112e-05 0.000103562 0.0050196877 -0.1172286884
645296130.0 -0.2220726995 0.8153711575 0.0002456992 5.96748e-05 7.59668e-05 -5.48634e-05 0.0032586185 -0.116882304
650296100.0 -0.2136240518 0.8170309582 0.0004423695 -5.24608e-05 0.0001356156 7.25001e-05 0.0017391102 -0.1170204886
655296070.0 -0.205517546 0.8191984658 5.78437e-05 -0.0002408305 0.0002178074 0.0001082609 0.000449592 -0.1167111716
660296040.0 -0.1975538934 0.8206814902 -1.73117e-05 -0.0001666817 0.0001796304 -7.86322e-05 -0.0012334326 -0.1167968492
665296010.0 -0.1888691668 0.8219981744 0.0001478498 0.0003377499 0.0001899238 0.0001647883 -0.0029988412 -0.1160662599
670295980.0 -0.1819934158 0.8245193401 0.0001770859 7.68318e-05 5.3068e-05 -9.56254e-05 -0.0049816607 -0.1163988863
675295950.0 -0.1727389074 0.8261241618 5.35602e-05 0.0002403069 0.000151997 -0.0002080451 -0.0062243077 -0.1157846123
680295920.0 -0.1646262361 0.8279852947 0.0001174201 -0.0002988472 0.0001509034 -0.0001750625 -0.0078833836 -0.1153124914
685295890.0 -0.1559455793 0.8304847483 0.000172886 0.0001887518 0.0003359871 -2.53945e-05 -0.0097338825 -0.1150054374
690295860.0 -0.1478644229 0.8308184631 0.0001134487 -0.0002892835 0.0001457801 0.0001075617 -0.0115099078 -0.1144595322
695295830.0 -0.1401617503 0.8319197691 0.0002639605 0.0001117255 0.000161743 -0.0001863484 -0.0126925067 -0.1143863191
700295800.0 -0.1315062184 0.8341301647 -7.66274e-05 0.000151226 0.0001517155 0.0002394016 -0.0145040972 -0.1136816475
705295770.0 -0.122954094 0.8354939551 0.0002854968 5.8863e-06 0.0002592709 -0.0001154198 -0.0161375161 -0.1133692824
710295740.0 -0.1150475617 0.8367198296 -4.4215e-05 3.101e-06 7.15853e-05 -7.91522e-05 -0.0179752295 -0.1131540631
715295710.0 -0.1063063333 0.8375731899 0.0001959966 -7.95532e-05 -1.867e-07 -2.76502e-05 -0.0198108481 -0.1131006827
720295680.0 -0.0982588848 0.8383479113 0.0002389702 -0.0001122194 0.0001825168 0.0001003041 -0.0212849742 -0.1124808473
725295650.0 -0.0900642777 0.8397551648 0.0002292278 0.0001122558 0.0001797286 -0.0001066289 -0.0232392587 -0.1116470518
730295620.0 -0.0811887185 0.8404150925 4.61722e-05 0.0001206468 0.000282134 0.0002009661 -0.0250978376 -0.1114334584
735295590.0 -0.0735074985 0.8414959675 0.0001387878 -5.0572e-05 -0.0001810321 -9.34772e-05 -0.0269610303 -0.1111048451
740295560.0 -0.0645498425 0.8424435934 8.84856e-05 -9.77168e-05 0.0001345825 -9.9445e-06 -0.0279187523 -0.1105076041
745295530.0 -0.0564019131 0.8425308834 0.0001801771 -7.09006e-05 0.0001212181 -2.35413e-05 -0.0297800208 -0.110101333
750295500.0 -0.0477727107 0.8429832863 0.0002353282 6.41104e-05 0.0003587105 -0.0001826556 -0.0315097821 -0.1095830351
755295470.0 -0.0396836862 0.8428682381 -9.27461e-05 -0.0001466136 0.0002117478 0.000123998 -0.0328378537 -0.1093470868
760295440.0 -0.0316683738 0.8427538287 0.0001243836 -4.6283e-06 0.0003308495 -2.69489e-05 -0.0348248039 -0.1087111599
765295410.0 -0.0235043734 0.8438982698 0.0001006204 -0.0001864449 0.0002411343 -0.0001071938 -0.0362296228 -0.107975971
770295380.0 -0.0154379854 0.8444682108 0.0003545603 8.2079e-06 0.0002370446 4.80025e-05 -0.0380235385 -0.1074998753
775295350.0 -0.0067371239 0.843744152 0.0002460945 -9.9929e-05 0.0001140504 -9.74942e-05 -0.039845196 -0.1067348343
780295320.0 0.0021827719 0.8440132594 6.43951e-05 7.74467e-05 4.44219e-05 -4.03373e-05 -0.0410909935 -0.1064684378
785295290.0 0.0101519755 0.843639144 3.39568e-05 7.35448e-05 0.0001730253 0.0001254888 -0.0423366424 -0.1056518537
790295260.0 0.0191662697 0.8437461658 -3.86271e-05 -0.0002593389 0.0001811521 -0.0001061382 -0.0437704315 -0.104971667
795295230.0 0.0269923659 0.8434261315 0.0003595438 -0.000140145 8.29719e-05 0.0001000055 -0.0454827132 -0.1042418188
800295200.0 0.0352508493 0.84325681 -3.54394e-05 -0.000100967 -7.33467e-05 -6.62033e-05 -0.0469957221 -0.1034217309
805295170.0 0.0436587863 0.8429519339 0.0001523644 -0.0001682848 7.99803e-05 -6.9668e-05 -0.0482820563 -0.1029348383
810295140.0 0.0517526136 0.8424533553 8.38483e-05 -0.0002764161 9.17513e-05 -0.0002305771 -0.0494368777 -0.1023008437
815295110.0 0.0599191523 0.8416107945 0.000222471 -7.52269e-05 0.0002182039 0.0001139255 -0.0507635205 -0.101492076
820295080.0 0.0683262526 0.8411137243 0.0002733624 -7.07917e-05 4.68545e-05 -8.85931e-05 -0.0522305042 -0.1006114313
825295050.0 0.0778499278 0.839297568 0.0002160213 -0.0001556136 0.0001409636 -0.0002962941 -0.0535944979 -0.0995583796
830295020.0 0.0851344977 0.8398352987 0.0001357928 -9.33093e-05 0.0002274119 -0.0001854924 -0.0546831658 -0.0990458714
835294990.0 0.0934250877 0.8385046729 0.0002010468 6.1271e-05 0.0002717434 0.0001713705 -0.0563225131 -0.0978621985
840294960.0 0.1011489176 0.8382618798 8.8652e-05 -7.56961e-05 0.0004998535 -1.41773e-05 -0.0578622925 -0.0969412507
845294930.0 0.1094698814 0.8367440775 7.30191e-05 -2.76759e-05 0.0001340059 -0.0001337869 -0.0592196866 -0.0960110369
850294900.0 0.1173628071 0.8358535586 0.000350583 -0.0001940626 0.0003145577 -4.97706e-05 -0.0607569963 -0.0947839718
