!Created with skrf (http://scikit-rf.org).
# Hz S RI R 50.0 
!freq ReS11 ImS11 ReS21 ImS21 ReS12 ImS12 ReS22 ImS22
300000.0 -0.0934698948 -0.106169179 0.6213376801 0.0965174776 0.6182938829 0.0964538706 -0.0936038138 -0.1071224006
5299970.0 -0.1012852252 0.010940736 0.6304026583 0.0111305003 0.6306510361 0.0112826482 -0.1014290948 0.0110223072
10299940.0 -0.0969337116 0.0285411308 0.6348352149 0.0161978207 0.6342277925 0.0163348165 -0.0962823044 0.0281918484
15299910.0 -0.0892459604 0.0420529508 0.6404360383 0.0215255166 0.6409048139 0.0214638041 -0.0896555379 0.0417350481
20299880.0 -0.0801822904 0.0533610023 0.6483046423 0.0241481513 0.6490904305 0.0240107092 -0.0806263259 0.0528471632
25299850.0 -0.0701833077 0.0624366809 0.6584455993 0.0258947538 0.6580575388 0.0255303344 -0.0717469511 0.0619435443
30299820.0 -0.0606256417 0.0688728369 0.6679710595 0.0242422913 0.6682406077 0.024348562 -0.0615237504 0.0685079545
35299790.0 -0.050473738 0.0734391312 0.677009015 0.02214346 0.6777244838 0.0220616851 -0.0521084922 0.0736285031
40299760.0 -0.0409454225 0.076490072 0.6870006233 0.0177639828 0.6870220272 0.017741668 -0.0424713919 0.0766262651
45299730.0 -0.0316405156 0.0783439401 0.6956930082 0.012537393 0.6961798746 0.012137775 -0.0329042786 0.0790696515
50299700.0 -0.0227152678 0.079237728 0.7039369923 0.0049702765 0.7038984267 0.0048709348 -0.0241659291 0.0802385735
55299670.0 -0.0150958747 0.0789493483 0.7107533578 -0.002244944 0.7111901808 -0.0025883257 -0.0168027961 0.0804726951
60299640.0 -0.0074831601 0.078541609 0.7179138473 -0.0110009335 0.717806792 -0.0108659356 -0.0096861544 0.0795504787
65299610.0 -0.0011697466 0.0772254528 0.7243463061 -0.0198462834 0.7242209101 -0.0198230909 -0.0025438864 0.078561369
70299580.0 0.0053389868 0.0751239133 0.7292266946 -0.0283439061 0.7292991625 -0.0290528267 0.002949495 0.0774492724
75299550.0 0.0106620464 0.0732427321 0.7332543548 -0.0390095425 0.7334299686 -0.0386613855 0.0088885575 0.0755053485
80299520.0 0.0155922231 0.0714285183 0.7378296909 -0.0488624929 0.7376464484 -0.0487945255 0.0140700857 0.0733597596
85299490.0 0.0201314698 0.0688828995 0.7412539034 -0.0588306138 0.7413075777 -0.0584490704 0.018222536 0.0709966915
90299460.0 0.0242524685 0.0664870617 0.7429408007 -0.0688035521 0.7438331999 -0.0684146731 0.0226000034 0.0692319634
95299430.0 0.0280252166 0.0640413086 0.7462815502 -0.0787533062 0.7464143208 -0.0790875465 0.0259379123 0.0665598799
100299400.0 0.0313991643 0.0613663412 0.7475086787 -0.0885561807 0.7476924503 -0.0891154565 0.0291279869 0.0646986836
105299370.0 0.0346419675 0.0591063269 0.7492699209 -0.0986045061 0.7498472496 -0.0989868125 0.0330761397 0.0614618342
110299340.0 0.0374796146 0.0563237007 0.7500730248 -0.108589012 0.7507004849 -0.1083502492 0.0349658536 0.0594318726
115299310.0 0.0396886293 0.0542202574 0.7513360804 -0.1190903516 0.7510966351 -0.1186055541 0.0376505565 0.0576632145
120299280.0 0.0418528629 0.0519023 0.7517014438 -0.129610705 0.7516505641 -0.1293401647 0.0399251883 0.0544422439
125299250.0 0.0439611159 0.0496105835 0.7522845119 -0.1389914941 0.7521571378 -0.1387413936 0.0421656695 0.0528682054
130299220.0 0.0456480496 0.0470342944 0.7523195813 -0.1488286558 0.7517652529 -0.1494046164 0.0439570416 0.0507473176
135299190.0 0.0472350405 0.0453363632 0.7518213181 -0.1587382857 0.7522464241 -0.1589991538 0.0454817349 0.0482202101
140299160.0 0.0489634616 0.0431631699 0.7518683522 -0.1687933562 0.7511314946 -0.1685083904 0.0465426944 0.0456896495
145299130.0 0.0496214989 0.0409315442 0.7500345861 -0.1780730215 0.7507503607 -0.1782514533 0.0483017523 0.0437433979
150299100.0 0.0507310176 0.0389797563 0.7492648483 -0.1882198753 0.7492159178 -0.1878490669 0.0492462699 0.0421756644
155299070.0 0.052720779 0.0370912232 0.7477763603 -0.1976525392 0.7482049995 -0.1974834347 0.0505019528 0.0397932169
160299040.0 0.0535212005 0.0354868822 0.7468731417 -0.207127653 0.7463221868 -0.2075561207 0.0511781304 0.0382288878
165299010.0 0.0543450313 0.0333101148 0.7450973589 -0.2163267237 0.7449713487 -0.2166867087 0.0524425711 0.0359719964
170298980.0 0.0551580881 0.0316530525 0.7429381233 -0.2254971885 0.7434098896 -0.226120602 0.0529495561 0.0342774452
175298950.0 0.0559733712 0.0301274941 0.7418160533 -0.2353588416 0.7417160495 -0.2354748038 0.0535392013 0.0327536615
180298920.0 0.0564179142 0.0284787368 0.7394639239 -0.2445253089 0.7391299014 -0.2444115953 0.0540390299 0.031123195
185298890.0 0.0569470997 0.0269596871 0.7379931245 -0.2537453766 0.7369369354 -0.2532682247 0.0551934224 0.028920525
190298860.0 0.0578314346 0.0254571584 0.7344229154 -0.2625488425 0.7351931219 -0.2625734171 0.0554712956 0.0275509475
195298830.0 0.0578205678 0.0240854056 0.7327328644 -0.271418054 0.7324325223 -0.271633502 0.0557138047 0.0259050489
200298800.0 0.0585745091 0.0222487909 0.7301949605 -0.2810203322 0.7298122355 -0.2810198896 0.0565156094 0.0242621401
205298770.0 0.0584431744 0.0206557938 0.7264860078 -0.289099811 0.7273932165 -0.2891305466 0.057224153 0.0229973063
210298740.0 0.0590453098 0.0199947045 0.7244291858 -0.2983695777 0.7235897675 -0.2979288573 0.0565649032 0.0209932466
215298710.0 0.0596210563 0.0184017417 0.720576384 -0.3063141982 0.7208749039 -0.307280278 0.0573006544 0.0200296009
220298680.0 0.0598359703 0.0174504991 0.7172223946 -0.315550165 0.7178133011 -0.315824127 0.0575825891 0.0181944515
225298650.0 0.0595895021 0.0159327597 0.7138234087 -0.3239363145 0.7144517656 -0.3238938097 0.0578115061 0.0165812702
230298620.0 0.0604953402 0.0150129127 0.71141008 -0.3327934357 0.7111067921 -0.33313265 0.0575212579 0.015399475
235298590.0 0.0597790233 0.0138487243 0.7078957849 -0.3421034807 0.7078664622 -0.341626934 0.058128421 0.0143478107
240298560.0 0.0605761847 0.0128413902 0.7045349831 -0.3492592854 0.7037849759 -0.3497140553 0.057799052 0.0127528695
245298530.0 0.0601195759 0.0111078438 0.7003581151 -0.3579939169 0.7000741734 -0.3579693458 0.0579638258 0.0120524962
250298500.0 0.0600775769 0.0099621217 0.6963419112 -0.3659930309 0.6966527201 -0.365746422 0.0583918167 0.0105995289
255298470.0 0.0606302232 0.0093685691 0.6931516615 -0.3738234835 0.6932368432 -0.3742914205 0.0580068369 0.0101319785
260298440.0 0.060629799 0.0081877567 0.68903287 -0.3813936263 0.6888121531 -0.3821780937 0.0579441457 0.0079306984
265298410.0 0.0601907386 0.0074721533 0.6844261662 -0.3906820484 0.6845136708 -0.3909405471 0.0588857414 0.0067970629
270298380.0 0.0603911269 0.0059684088 0.680261475 -0.3985401042 0.6806037037 -0.3985634216 0.0585331881 0.0061151572
275298350.0 0.0603454055 0.0056005387 0.6754824409 -0.4059259062 0.6757784964 -0.4059634916 0.0578105425 0.0051088677
280298320.0 0.0598725004 0.0043909516 0.6719771268 -0.4139141204 0.6721008114 -0.4138402244 0.0586482618 0.0039694455
285298290.0 0.0600969679 0.0033529396 0.6671540508 -0.42194012 0.6677327283 -0.4217899854 0.0582768278 0.0029605969
290298260.0 0.0599519685 0.0027152595 0.6634352247 -0.4300506304 0.6633003315 -0.4298217152 0.0582574616 0.0018795764
295298230.0 0.0598968387 0.0011116544 0.6584074133 -0.4378502867 0.6585243454 -0.4376878408 0.0583146892 0.0007623157
300298200.0 0.0600401883 0.000948775 0.6535532936 -0.445091018 0.6536310466 -0.4449679591 0.057930011 -0.0005128518
305298170.0 0.060198638 -0.0009324567 0.6494777763 -0.4533318649 0.6490688422 -0.4532757801 0.0579884847 -0.0018105932
310298140.0 0.060521153 -0.0017047923 0.6442934294 -0.4604601482 0.6448963 -0.4603801947 0.0582324396 -0.0032454266
315298110.0 0.0597224325 -0.0030504777 0.639568822 -0.4687513933 0.6391086574 -0.4679352705 0.0576150424 -0.0041443466
320298080.0 0.0595600645 -0.0040478113 0.6331648605 -0.475667996 0.6342451198 -0.4764118528 0.0574394982 -0.0056881352
325298050.0 0.0585368882 -0.0053158625 0.6283014825 -0.4829835908 0.6287726929 -0.4831495624 0.0573906591 -0.006679788
330298020.0 0.0574709394 -0.0055640469 0.6227004156 -0.4901175672 0.6229924759 -0.490749948 0.0561928292 -0.0077328339
335297990.0 0.0575828318 -0.0066939545 0.6172890565 -0.4974903532 0.6171042279 -0.4978642602 0.0558788103 -0.0086949275
340297960.0 0.0570905991 -0.0077395084 0.6110248712 -0.5048047533 0.610881466 -0.5046579422 0.0552268246 -0.0090784489
345297930.0 0.0562804632 -0.0085608934 0.6056324219 -0.5117506474 0.6053465808 -0.5118470276 0.0553115136 -0.0103543222
350297900.0 0.0559261128 -0.0092694249 0.6003805747 -0.5179657746 0.6004277611 -0.5175957678 0.0547930602 -0.0111783882
355297870.0 0.0555512136 -0.009842827 0.5946448196 -0.5242931229 0.5944540438 -0.5242860885 0.0546965431 -0.0116281934
360297840.0 0.0551699423 -0.0102953346 0.5882189386 -0.5315990597 0.5883384534 -0.5319895036 0.0534496355 -0.0122124281
365297810.0 0.0544034913 -0.0111356611 0.5823157889 -0.5384631831 0.5821379069 -0.5383963055 0.0530990391 -0.0130421776
370297780.0 0.0547232631 -0.0115382 0.575964608 -0.5442989665 0.576312978 -0.5444602308 0.0527842481 -0.0136804861
375297750.0 0.0541388532 -0.0121206389 0.5705893496 -0.5503628888 0.570627156 -0.5513447313 0.0531293895 -0.0144888252
380297720.0 0.0534001962 -0.0127215559 0.5649115809 -0.5574306616 0.5643677889 -0.5573708544 0.0523308194 -0.0147678763
385297690.0 0.0529325466 -0.0137936016 0.5580561423 -0.5637183074 0.5582518676 -0.5640516346 0.0524284674 -0.0154305614
390297660.0 0.0529181833 -0.0144159 0.5517504885 -0.569176036 0.5518279807 -0.5699311664 0.0520669284 -0.0166023842
395297630.0 0.0531135688 -0.0147846383 0.5460833542 -0.575345643 0.5454173628 -0.5755550182 0.051537111 -0.0168175876
400297600.0 0.0520500491 -0.0157808143 0.5396363412 -0.5825518824 0.5394622416 -0.5821281954 0.0517566908 -0.017139964
405297570.0 0.0517942044 -0.0168238277 0.5334122386 -0.5876016013 0.5331886892 -0.5880530673 0.0508209597 -0.0176046185
410297540.0 0.0515337435 -0.0166206847 0.5266177969 -0.5938373645 0.527136598 -0.5938517143 0.0504290036 -0.0185110977
415297510.0 0.0509662684 -0.0174954615 0.5196656932 -0.5996632049 0.5207179846 -0.5997667719 0.0502539123 -0.0189027035
420297480.0 0.0505976412 -0.0184567365 0.5132359598 -0.6053233024 0.5139903171 -0.6055600089 0.0504632559 -0.0193110162
425297450.0 0.0509928541 -0.0190731569 0.5074390755 -0.6109483348 0.5067800912 -0.6111735042 0.0500206765 -0.0205903232
430297420.0 0.0499809015 -0.0194726088 0.5007645808 -0.6169981246 0.5005704154 -0.6163868395 0.0499626355 -0.0208535626
435297390.0 0.0498040034 -0.0202486955 0.4928101374 -0.6231366455 0.4930548923 -0.6220246027 0.0488596682 -0.0214087582
440297360.0 0.0494928329 -0.0209295113 0.4861388171 -0.6277295655 0.4863241009 -0.6280663547 0.0487289465 -0.0214691984
445297330.0 0.0496706052 -0.0219466509 0.4798141351 -0.6329064761 0.4793051104 -0.6331339962 0.048401633 -0.0217918088
450297300.0 0.0489331139 -0.0221044881 0.472844106 -0.6382825867 0.4728019115 -0.6385236841 0.0482198384 -0.0225151741
455297270.0 0.047980556 -0.0227607737 0.4659214183 -0.6436499974 0.4658278059 -0.6436810228 0.0478889223 -0.0233289827
460297240.0 0.0481425843 -0.0232653211 0.4590969892 -0.6489170147 0.4584244697 -0.648951518 0.0473207011 -0.0240108149
465297210.0 0.0476922246 -0.0241010619 0.4512282702 -0.6539009389 0.4509076397 -0.6541897441 0.0474209471 -0.0235254397
470297180.0 0.0474274022 -0.0249858243 0.4437401696 -0.6582175498 0.4449697918 -0.6585206961 0.0472241264 -0.0249771339
475297150.0 0.0464560433 -0.0248935274 0.4367034995 -0.6638995337 0.4376273531 -0.6636206284 0.0463868453 -0.0253410015
480297120.0 0.0466845503 -0.0249491928 0.4296256597 -0.6688927302 0.4300619087 -0.6683868741 0.0461081215 -0.0260235202
485297090.0 0.0461214693 -0.0267234465 0.4222038524 -0.6737657631 0.4224104791 -0.6727573294 0.0454630403 -0.0263923439
490297060.0 0.0463094429 -0.0266750144 0.4145949803 -0.6773713996 0.4151299993 -0.6780053879 0.0452571966 -0.0270316789
495297030.0 0.0452049291 -0.0276507593 0.4078276601 -0.6825246268 0.4075236374 -0.6825696627 0.0456648015 -0.0274423418
500297000.0 0.0447282796 -0.0276581248 0.4000647396 -0.6865833352 0.3999642359 -0.6872300556 0.0446549738 -0.0276379414
505296970.0 0.0451068203 -0.0282875686 0.3923735441 -0.6915784569 0.3924187528 -0.6910069171 0.0443590877 -0.0290144025
510296940.0 0.044189984 -0.0289556427 0.3847936582 -0.6964448424 0.3852107497 -0.6965279479 0.044396307 -0.028709012
515296910.0 0.0436348211 -0.0292380739 0.3766869341 -0.6999470305 0.3766878482 -0.7000952847 0.0433971317 -0.0299091485
520296880.0 0.0436278122 -0.0296042947 0.3696939107 -0.703771412 0.3691897756 -0.7037677262 0.0438430663 -0.0294710672
525296850.0 0.0430691483 -0.0304235065 0.3615084215 -0.7077587828 0.3616271594 -0.7080464741 0.0436359664 -0.030412121
530296820.0 0.0426488011 -0.0312358655 0.3538216914 -0.7123885144 0.3539647624 -0.7119859225 0.0430227838 -0.0312411156
535296790.0 0.0429529187 -0.0312878968 0.3459672225 -0.7158032738 0.346194984 -0.7159102283 0.042785197 -0.0310647157
540296760.0 0.0420975803 -0.0313892493 0.3379497036 -0.7192399523 0.3380514679 -0.7197982894 0.0422808396 -0.0322522918
545296730.0 0.0407235241 -0.031795911 0.3303922474 -0.7231534353 0.3298720035 -0.7225511254 0.0417025146 -0.0324174076
550296700.0 0.041543737 -0.0323198306 0.3221778376 -0.7268120165 0.3219720502 -0.7272870513 0.0419119236 -0.0327844823
555296670.0 0.0406799256 -0.0326900733 0.3142328147 -0.7309571333 0.3145597389 -0.7306480485 0.0411297895 -0.0339518353
560296640.0 0.0410802297 -0.0331605945 0.3063578447 -0.7334099118 0.3068227921 -0.7335895919 0.0404324591 -0.0334728123
565296610.0 0.0397808322 -0.0336295921 0.2988716958 -0.7372308405 0.2985291986 -0.7366489101 0.0404118428 -0.0337886407
570296580.0 0.039347063 -0.0337087472 0.2902541426 -0.7399814408 0.290425763 -0.7404997757 0.039509622 -0.0351390213
575296550.0 0.0390718321 -0.0344653565 0.2827279722 -0.7435923124 0.2821477481 -0.7434459656 0.0393161617 -0.034875641
580296520.0 0.0390736323 -0.0342243388 0.2742173258 -0.7463207738 0.2738164093 -0.7467874863 0.0383704421 -0.0355217579
585296490.0 0.0386244841 -0.034702796 0.2662319496 -0.7493622572 0.2658442933 -0.7492211662 0.0386765534 -0.0353051428
590296460.0 0.0386769818 -0.0349868042 0.257633263 -0.7520574577 0.2577925496 -0.752443627 0.0376009995 -0.0358940534
595296430.0 0.0379130334 -0.0355329117 0.2485016903 -0.7552844641 0.2488300348 -0.755136535 0.0373202635 -0.0367745103
600296400.0 0.0376418211 -0.0355487526 0.2405605327 -0.7578365114 0.2408855938 -0.7579613706 0.0370974621 -0.0373683888
605296370.0 0.0364971186 -0.0360973385 0.2329656116 -0.7603075603 0.2326112756 -0.7606217264 0.0362578889 -0.0373511281
610296340.0 0.0363794564 -0.0358421286 0.2245280159 -0.7619834567 0.2248389428 -0.7624443833 0.0353821079 -0.0374078969
615296310.0 0.036084325 -0.0364639757 0.2162103878 -0.7655911158 0.2161393805 -0.7657143007 0.0351051253 -0.0378873122
620296280.0 0.0349952366 -0.0360566066 0.2075723175 -0.7672055041 0.207710664 -0.7673689668 0.0342828734 -0.0380564808
625296250.0 0.0346144123 -0.0367945631 0.199141852 -0.7704226377 0.1992918498 -0.7697319108 0.0335477095 -0.0386461171
630296220.0 0.0342852049 -0.0368670446 0.1904704306 -0.7723347649 0.1909532829 -0.7716714397 0.0336612233 -0.0387258269
635296190.0 0.0335770732 -0.0368138201 0.182797891 -0.7735609572 0.18266729 -0.7739435086 0.0330902977 -0.0392594585
640296160.0 0.0328216179 -0.0371371449 0.1737839103 -0.7760324687 0.174042415 -0.7761630365 0.0318042861 -0.039766451
645296130.0 0.0328975429 -0.0367478169 0.1649567888 -0.7775216436 0.165584369 -0.7774676031 0.0312757831 -0.0405998682
650296100.0 0.0322545298 -0.0374664437 0.1567901811 -0.7800524923 0.15725026 -0.7798919593 0.0323113727 -0.0403773704
655296070.0 0.0317459608 -0.0374434063 0.148280511 -0.781553039 0.1488926655 -0.7810114277 0.0302759828 -0.0403267172
660296040.0 0.0313387015 -0.0373893143 0.1399132104 -0.7832677748 0.1402825468 -0.7832248243 0.029675786 -0.041101197
665296010.0 0.0307369192 -0.0379308705 0.1306618183 -0.7836170339 0.1313315432 -0.7842114896 0.02928088 -0.0409096133
670295980.0 0.0304305243 -0.0377373188 0.1224330695 -0.7859137457 0.1226459516 -0.7850365221 0.0284138527 -0.0415819674
675295950.0 0.0294790772 -0.0383176439 0.1140482918 -0.7862973945 0.1143262737 -0.7871473686 0.027701714 -0.0412383754
680295920.0 0.0288892967 -0.0379086981 0.1056572205 -0.7880003932 0.1061118342 -0.7877304493 0.0277163552 -0.0419911845
685295890.0 0.0286798791 -0.0379250139 0.096452611 -0.7895394585 0.0972154304 -0.7896216847 0.0270695191 -0.0415677728
690295860.0 0.0278128962 -0.0378954562 0.0885183621 -0.7905869593 0.0880550869 -0.7903122076 0.0261366607 -0.0421659239
695295830.0 0.0276440059 -0.0384409912 0.0800707186 -0.7910535381 0.0799799522 -0.7909011413 0.0255820944 -0.0417851221
700295800.0 0.0268944906 -0.0380431927 0.0719795709 -0.7917640524 0.0711585129 -0.791364408 0.0250451869 -0.0420927531
705295770.0 0.0258737786 -0.0383221015 0.0623972019 -0.7929761812 0.062880737 -0.7922125235 0.0244427142 -0.0421110519
710295740.0 0.0253861325 -0.0385984605 0.0543952863 -0.7932258189 0.0538245374 -0.7934694708 0.0239462302 -0.0420495899
715295710.0 0.0248288604 -0.0381341109 0.0457399506 -0.7938425432 0.0453466923 -0.79369609 0.0232150415 -0.0425027017
720295680.0 0.0250656475 -0.0382582311 0.0366759818 -0.7936431873 0.0369371444 -0.7942522409 0.0226099363 -0.0427798475
725295650.0 0.0234625218 -0.038426281 0.0285809202 -0.7943241409 0.0281335686 -0.7942778488 0.0213001953 -0.0423225469
730295620.0 0.0223371413 -0.0388467959 0.0193330819 -0.7949978534 0.0197704997 -0.7941025817 0.0206647192 -0.0420610683
735295590.0 0.0225415109 -0.0384636875 0.0109521863 -0.7949461796 0.0110387383 -0.7945781552 0.0201150107 -0.0429432199
740295560.0 0.021888133 -0.0389311073 0.0019821731 -0.7953575479 0.0027761034 -0.7952917352 0.0190524457 -0.0425795677
745295530.0 0.0208737911 -0.0385222516 -0.0063726687 -0.7941237833 -0.0053462081 -0.7949894211 0.017971581 -0.0429972988
750295500.0 0.020145304 -0.038589894 -0.0148818795 -0.7944795651 -0.0149426129 -0.7944384374 0.0180004871 -0.0428628009
755295470.0 0.0192541958 -0.038195792 -0.0232068009 -0.7948653583 -0.0235905733 -0.7952121933 0.0175970846 -0.0422536589
760295440.0 0.0188397218 -0.0379226815 -0.0326249628 -0.7943045588 -0.0322651018 -0.7937123838 0.0170329018 -0.0435148033
765295410.0 0.0189012576 -0.0386733773 -0.0415119414 -0.7938588712 -0.0406116127 -0.7935581249 0.0161868187 -0.0425790105
770295380.0 0.0182612941 -0.0382102784 -0.049178864 -0.7928371255 -0.0493281751 -0.7935432284 0.0151601055 -0.0428155591
775295350.0 0.0172058257 -0.038497044 -0.0579752092 -0.7926259584 -0.0571424894 -0.7921263599 0.0151691153 -0.0425242956
780295320.0 0.016263458 -0.0379268318 -0.0666691882 -0.7913778299 -0.0656970002 -0.7913512875 0.0145321413 -0.0426622537
785295290.0 0.0157783411 -0.0386519696 -0.0748484321 -0.791140415 -0.0747347215 -0.7913058304 0.0129723609 -0.0422478477
790295260.0 0.0155560077 -0.0385140317 -0.083456935 -0.7901918079 -0.0832097668 -0.7903966922 0.0124434229 -0.0419729011
795295230.0 0.0148017541 -0.0384136221 -0.0918960012 -0.7892871814 -0.0921950298 -0.7898856263 0.0119473809 -0.0429824593
800295200.0 0.0135123758 -0.0379806405 -0.1001681442 -0.7873940486 -0.1003161256 -0.7882927098 0.011264774 -0.0423966825
805295170.0 0.0128985159 -0.0381450149 -0.1092258267 -0.7872582881 -0.1086533731 -0.7870256067 0.0114094575 -0.0421301972
810295140.0 0.0127360916 -0.0379728949 -0.1174657467 -0.7856002409 -0.1175855588 -0.7860806834 0.0104385194 -0.0422451135
815295110.0 0.0118828411 -0.0377244768 -0.1260692599 -0.7841985291 -0.1256262474 -0.7845337894 0.0095231706 -0.0423190446
820295080.0 0.011541308 -0.0377797624 -0.1338652414 -0.7825766597 -0.1342995513 -0.7831293105 0.0079992879 -0.0411553798
825295050.0 0.0105225512 -0.0379183087 -0.1427978673 -0.7819029492 -0.1427824392 -0.7813058878 0.00884955 -0.0409738614
830295020.0 0.0098815715 -0.0379583099 -0.1513508934 -0.7798630412 -0.15134527 -0.7796490088 0.0076754038 -0.041694304
