!Created with skrf (http://scikit-rf.org).
# Hz S RI R 50.0 
!freq ReS11 ImS11 ReS21 ImS21 ReS12 ImS12 ReS22 ImS22
300000.0 -0.2359930417 -0.1203456578 0.4657042305 0.0791895716 0.4644207383 0.0799201545 -0.2347706868 -0.1253616479
5299970.0 -0.244936605 0.0051596881 0.4737022536 0.0060246473 0.4743155372 0.0059321825 -0.2435978393 0.0052641929
10299940.0 -0.2418695827 0.0186759767 0.4760252122 0.0067639382 0.4762679235 0.007567072 -0.2398972688 0.0179105216
15299910.0 -0.2367905656 0.0281795305 0.4794335692 0.0086634254 0.4796090361 0.00836452 -0.2361069809 0.0276430855
20299880.0 -0.2316954792 0.0365831546 0.4842338797 0.0083357799 0.4844707251 0.0085685784 -0.2311122106 0.0352227321
25299850.0 -0.2254769803 0.0429203548 0.4895188237 0.0077459654 0.4897819828 0.0075692241 -0.2260798925 0.0419238978
30299820.0 -0.2204354927 0.0477345896 0.4952632964 0.0055411682 0.4951332017 0.0054321644 -0.2207571708 0.0469744617
35299790.0 -0.2143255766 0.0515857167 0.5001260992 0.0024108275 0.5003636346 0.0021645697 -0.2156982573 0.0514847916
40299760.0 -0.209268405 0.054693542 0.5054129159 -0.0015084093 0.5058316546 -0.0017932645 -0.2105700365 0.0548734264
45299730.0 -0.2039524573 0.0573752949 0.5099564949 -0.0061216483 0.5104683815 -0.0065093739 -0.2056622775 0.0577335404
50299700.0 -0.1989694797 0.0590900072 0.5142481693 -0.0120349125 0.5146860176 -0.0121808878 -0.2009343199 0.0600398071
55299670.0 -0.1950401213 0.0604314463 0.5183248577 -0.0174548908 0.518525313 -0.017859853 -0.1972851267 0.06186737
60299640.0 -0.190992572 0.0619741755 0.5220058477 -0.0239573348 0.521711574 -0.024125909 -0.1936790206 0.0632739875
65299610.0 -0.1873345813 0.0626631637 0.525181825 -0.0304142145 0.5248007534 -0.0304019727 -0.190167908 0.0646936654
70299580.0 -0.183950988 0.0631104882 0.5267433214 -0.0366186035 0.527206232 -0.0370487179 -0.1871641858 0.0659639346
75299550.0 -0.1806896284 0.0636785901 0.5289104415 -0.0441984085 0.529401012 -0.0441407073 -0.1839534212 0.0672813013
80299520.0 -0.1784247699 0.0645805736 0.5309315156 -0.0510184024 0.5311794423 -0.0511671282 -0.1815476376 0.0680204365
85299490.0 -0.1756764153 0.0648337427 0.5321836925 -0.0578408784 0.5324477452 -0.0576186833 -0.1791108747 0.0686522874
90299460.0 -0.1735644515 0.0652560834 0.5331539582 -0.0642416282 0.533081358 -0.0644738327 -0.1765023739 0.0697104771
95299430.0 -0.1713663326 0.0658398385 0.534141478 -0.0715266426 0.534328822 -0.0720561753 -0.1749374119 0.0709712506
100299400.0 -0.1693803812 0.0662784665 0.5347134627 -0.0781663092 0.5348076316 -0.0784768579 -0.1729799753 0.0718449069
105299370.0 -0.1676172942 0.0664494438 0.534843799 -0.0853078338 0.5350444273 -0.0852811839 -0.1709808974 0.0721336695
110299340.0 -0.1659270963 0.0668910965 0.5352096698 -0.0916419193 0.5352919946 -0.0914277349 -0.1698925879 0.0731156324
115299310.0 -0.164618717 0.067625077 0.5352069524 -0.099045741 0.5352696326 -0.0987448369 -0.1682800037 0.0742316554
120299280.0 -0.1633082964 0.0683279132 0.5354028065 -0.1060945359 0.5347754116 -0.1062390504 -0.1668018815 0.0745951645
125299250.0 -0.161691297 0.068644438 0.534731507 -0.1124897029 0.5347306303 -0.1122005244 -0.1652101922 0.0762300095
130299220.0 -0.1604781091 0.0690866961 0.5340473932 -0.1191421439 0.5341572738 -0.1196210644 -0.1641255826 0.0771231113
135299190.0 -0.1594519276 0.0700516584 0.5336779751 -0.1261299085 0.5338685623 -0.1261560951 -0.1627909169 0.0777703815
140299160.0 -0.1583946502 0.0710921938 0.5327821429 -0.1330377819 0.5328516473 -0.1324182272 -0.1622548961 0.078615586
145299130.0 -0.1578640869 0.0718778611 0.5318325548 -0.1391190204 0.5319009391 -0.1389186646 -0.1608832351 0.0798261728
150299100.0 -0.1567988973 0.07257894 0.5306886903 -0.1455200624 0.5305541863 -0.1457602649 -0.1597376468 0.0813993038
155299070.0 -0.1555324856 0.0732249589 0.5289079699 -0.1522218924 0.5293606345 -0.1523537389 -0.1587116032 0.0823284909
160299040.0 -0.1548533822 0.0742030997 0.5281036177 -0.1582658906 0.5279615044 -0.1589486507 -0.1580610065 0.0834628026
165299010.0 -0.153751875 0.0752784514 0.5267569897 -0.1649374903 0.5265501714 -0.1655505837 -0.1566191366 0.0843308288
170298980.0 -0.153106463 0.0762676224 0.5245141028 -0.1714068961 0.5254150233 -0.1711414198 -0.1561377034 0.0856942286
175298950.0 -0.1520029445 0.0774315973 0.5235186422 -0.1776438375 0.5237742222 -0.1781662674 -0.1547732121 0.0871314039
180298920.0 -0.1515602561 0.0783497407 0.5218979485 -0.1844077347 0.5217106869 -0.1845200507 -0.1540862039 0.0883170326
185298890.0 -0.1510374721 0.0794738442 0.5205393053 -0.1903032879 0.5199696545 -0.1903292435 -0.1529428082 0.0895909324
190298860.0 -0.1496767923 0.0807820919 0.5175262444 -0.1962655361 0.5179408113 -0.1964895917 -0.1519165852 0.0909611837
195298830.0 -0.1490981981 0.0817416935 0.5162304381 -0.202602846 0.5163649017 -0.2024507891 -0.15158418 0.0923814675
200298800.0 -0.1480793688 0.0827877852 0.514107487 -0.2092499349 0.5141878219 -0.208997285 -0.1501185444 0.093515274
205298770.0 -0.147890261 0.0838980896 0.5113690366 -0.2145194688 0.512011227 -0.214641986 -0.1489413201 0.0949114353
210298740.0 -0.1468584824 0.0853557 0.5096710832 -0.2207633687 0.5091130533 -0.2205405109 -0.1487044893 0.0963576385
215298710.0 -0.1462438797 0.086643572 0.5071419081 -0.226349881 0.5071414832 -0.2267426261 -0.1474044361 0.0975676104
220298680.0 -0.145432697 0.0879486018 0.5045390782 -0.2328980073 0.5041699759 -0.2327345019 -0.1460701662 0.0990717826
225298650.0 -0.144369477 0.0891200995 0.5019446202 -0.2380442507 0.5023173059 -0.2380900452 -0.1454036281 0.1002234829
230298620.0 -0.1437133895 0.0904668417 0.4996178924 -0.244008472 0.5000095344 -0.2446099166 -0.1446743488 0.1018817879
235298590.0 -0.1432512541 0.0917624275 0.4974162027 -0.2503864517 0.4972040341 -0.2501198037 -0.1433567289 0.1033408263
240298560.0 -0.1421154834 0.0931005486 0.4941562708 -0.2557766809 0.4945295091 -0.2556592705 -0.1426359148 0.1047133224
245298530.0 -0.1415377172 0.09414613 0.4915848516 -0.2615822732 0.491557077 -0.2615787026 -0.1416513597 0.1062356944
250298500.0 -0.1407710768 0.0955309596 0.4885716717 -0.2672590602 0.489006496 -0.2668004278 -0.1405210613 0.1076049386
255298470.0 -0.139878723 0.097084246 0.4863197187 -0.2724600395 0.4863500716 -0.2729259623 -0.1393841514 0.1095098494
260298440.0 -0.1390010587 0.0979176999 0.4827467904 -0.2778474001 0.4831089056 -0.278168408 -0.1384697225 0.1105061563
265298410.0 -0.1384593031 0.0997759928 0.4799589768 -0.2842901333 0.4796003721 -0.2840945045 -0.1364921357 0.1115691365
270298380.0 -0.137717107 0.100862854 0.4768821491 -0.289361144 0.4769646666 -0.2892823333 -0.1358688743 0.113336301
275298350.0 -0.1367861648 0.1023335993 0.4731640033 -0.294304116 0.4736273254 -0.2945371681 -0.1346572602 0.1151891524
280298320.0 -0.1361260235 0.1037181808 0.4708532626 -0.299540196 0.4709200771 -0.2997004156 -0.1333870381 0.1162527093
285298290.0 -0.1353473667 0.105142885 0.4669717008 -0.3053320565 0.4673550211 -0.3050200576 -0.132600475 0.1175722588
290298260.0 -0.1342697291 0.1063703715 0.4645173577 -0.310532249 0.4642184026 -0.3105728382 -0.1310356487 0.1190755531
295298230.0 -0.1334874542 0.1074400406 0.460943509 -0.3158335216 0.4607499549 -0.316326113 -0.1300238208 0.1204088926
300298200.0 -0.1324490739 0.1090145458 0.4574459956 -0.3209040285 0.4575045212 -0.3212008042 -0.1287650513 0.1221990741
305298170.0 -0.1313872328 0.1098458578 0.4537564532 -0.3260714464 0.4541037854 -0.3264136423 -0.1276625777 0.123167828
310298140.0 -0.1302333038 0.1112292555 0.4505142739 -0.3313352442 0.4505837521 -0.3313113288 -0.1256062803 0.1244361902
315298110.0 -0.1296909746 0.1123647697 0.4467986128 -0.3370997264 0.4465550218 -0.3369397499 -0.124502601 0.1258597223
320298080.0 -0.1286909827 0.1138464681 0.4425530163 -0.3423319202 0.4434175367 -0.3420971997 -0.1237493087 0.1271464537
325298050.0 -0.1280707996 0.1143540184 0.4387530086 -0.3465246963 0.4397990152 -0.3470728347 -0.1221095739 0.1278737711
330298020.0 -0.127493353 0.116267545 0.4349775976 -0.3522685412 0.4356307771 -0.3520128327 -0.121276796 0.1297031178
335297990.0 -0.1267237372 0.1173550478 0.4312320235 -0.3564674588 0.431185537 -0.3565135388 -0.1201237577 0.130987315
340297960.0 -0.1259618701 0.1184683651 0.4269428297 -0.3616958478 0.4266621212 -0.3617422956 -0.1186949679 0.1326982336
345297930.0 -0.1250444549 0.1197233569 0.422963731 -0.3665845692 0.4226498248 -0.3662710326 -0.1168054902 0.1338486262
350297900.0 -0.1240772822 0.121334628 0.4192728131 -0.37091008 0.419382758 -0.3707823127 -0.1161282965 0.1351986928
355297870.0 -0.123335575 0.1224638203 0.4147884946 -0.3750608198 0.4151744058 -0.3750652304 -0.1143907548 0.1367671915
360297840.0 -0.122116777 0.1240026124 0.4105549346 -0.3799156233 0.4107168016 -0.3804890151 -0.1133219124 0.1382894742
365297810.0 -0.1212884513 0.125582235 0.4062833482 -0.3849225619 0.4065070944 -0.3846059863 -0.1123491081 0.1391717379
370297780.0 -0.1199200741 0.1267439134 0.4017791511 -0.3891991421 0.4025019198 -0.388711668 -0.1105485061 0.1407649609
375297750.0 -0.1188922947 0.1277726357 0.3979361134 -0.3928454266 0.3981973554 -0.3935701001 -0.1092020375 0.1423225245
380297720.0 -0.1181793161 0.1293139497 0.3941308684 -0.3980124733 0.3935672869 -0.3980522875 -0.1074306682 0.1435599845
385297690.0 -0.1169083785 0.130186615 0.3890495162 -0.4017661289 0.3892903518 -0.4022190256 -0.1059548817 0.1452018617
390297660.0 -0.1158691401 0.1312426026 0.3849538959 -0.4055810499 0.3849977302 -0.4061567534 -0.1042964051 0.1463694457
395297630.0 -0.1144477656 0.1327822681 0.3804393159 -0.4099572073 0.380388727 -0.4102897469 -0.1030659312 0.1471980844
400297600.0 -0.1135047638 0.1339421808 0.3759254889 -0.4148496715 0.3761357032 -0.4148243062 -0.1012027449 0.1490803123
405297570.0 -0.1122388186 0.1345370998 0.3712009283 -0.4184401998 0.3715322109 -0.4187513418 -0.0995392831 0.1502122757
410297540.0 -0.1110006396 0.1364052269 0.3669028564 -0.4227810121 0.366886106 -0.4226392162 -0.0979933768 0.1513005584
415297510.0 -0.1099358568 0.1375680615 0.3620469296 -0.4265720379 0.3623423215 -0.4267522487 -0.0957480407 0.1525980944
420297480.0 -0.1088207257 0.1384176176 0.3572829884 -0.4309104762 0.3578894931 -0.4306206502 -0.0943409926 0.15380636
425297450.0 -0.1069688008 0.139616016 0.352684203 -0.4342760077 0.3524258861 -0.4344178941 -0.0931638266 0.1546904831
430297420.0 -0.1060999706 0.1408224115 0.3485003778 -0.4381772441 0.3483599838 -0.4380546206 -0.0908766432 0.1564162981
435297390.0 -0.1046132103 0.1416540866 0.3427451826 -0.4424806637 0.3431478172 -0.4420333982 -0.0898645505 0.1577871729
440297360.0 -0.1032201975 0.1427217265 0.3382744184 -0.445990157 0.3381339957 -0.4459693473 -0.0878275798 0.1586135321
445297330.0 -0.1020141907 0.1435332861 0.3333067739 -0.4492300165 0.3334851299 -0.4496307703 -0.0858336007 0.1597740031
450297300.0 -0.1003374599 0.1447626835 0.3282054987 -0.4532402546 0.3286661451 -0.4530482971 -0.0841926452 0.160966611
455297270.0 -0.0995156306 0.1458885009 0.3233193456 -0.456930974 0.3237873389 -0.4568304781 -0.0826298476 0.1617832079
460297240.0 -0.0978279884 0.1469827005 0.3188235067 -0.460509136 0.3183489084 -0.4606938702 -0.0803320496 0.1629334636
465297210.0 -0.0962516371 0.1477940235 0.3131087152 -0.4637011225 0.31297152 -0.4639318221 -0.0784123546 0.1644245905
470297180.0 -0.0949743789 0.1487877733 0.3080689055 -0.4669422361 0.3085550283 -0.4669608104 -0.0767236588 0.1649496975
475297150.0 -0.0939677084 0.1499981428 0.3029281003 -0.4704272077 0.3032486181 -0.4707137589 -0.075150895 0.1665333813
480297120.0 -0.0916878072 0.1513951134 0.2979616805 -0.4738886377 0.2981330447 -0.4737066068 -0.0733139603 0.1669644958
485297090.0 -0.0906801032 0.1517957606 0.2925545518 -0.4769980634 0.2928340635 -0.4765906957 -0.0715618666 0.1679772648
490297060.0 -0.0885426698 0.1530764293 0.2872156675 -0.4802847302 0.2877628301 -0.4800566163 -0.0695234282 0.1686472298
495297030.0 -0.0876083847 0.1538175817 0.2825820054 -0.4835474119 0.2824186151 -0.483289335 -0.0673274314 0.1697755589
500297000.0 -0.0862057649 0.1548685228 0.2771889123 -0.4858441378 0.2766933058 -0.4862699389 -0.0651160249 0.1707425104
505296970.0 -0.0841270418 0.155824806 0.2717934389 -0.4892823113 0.2717550652 -0.488766154 -0.063654763 0.1709787919
510296940.0 -0.0829359645 0.1567116902 0.2664200463 -0.4925565939 0.2665058013 -0.4924784679 -0.0615411664 0.1724708809
515296910.0 -0.0812966817 0.1577586426 0.2604599035 -0.4947697219 0.2604208574 -0.4951071897 -0.0599162234 0.1727124086
520296880.0 -0.079701887 0.1587433188 0.2554918506 -0.4978069942 0.255420274 -0.4975699521 -0.0574086193 0.1739071304
525296850.0 -0.0779655887 0.1591574385 0.2499959046 -0.5005358594 0.2493663671 -0.5004505478 -0.0555807189 0.1746797596
530296820.0 -0.0766346348 0.1602432115 0.2444218979 -0.5030180124 0.2445831149 -0.5030603124 -0.0538189145 0.1750840142
535296790.0 -0.07421226 0.1612623922 0.2390520879 -0.5058222657 0.2391015361 -0.5057653607 -0.0515446307 0.1764260659
540296760.0 -0.0730465106 0.1623724841 0.2331996027 -0.5082033496 0.2332004685 -0.508217573 -0.0495457775 0.1767659297
545296730.0 -0.071884932 0.163270375 0.2280902689 -0.510719742 0.2279176188 -0.5104944539 -0.0474365142 0.1773511271
550296700.0 -0.0694676368 0.1642072135 0.22243552 -0.5132440413 0.2217572896 -0.5132971782 -0.0454753172 0.1782994827
555296670.0 -0.0679318334 0.1647138711 0.2167302776 -0.5157868626 0.2165887545 -0.5155694004 -0.0440399357 0.1783051677
560296640.0 -0.0658251455 0.1656031824 0.2111201101 -0.5179168434 0.2110325757 -0.5177504721 -0.041616114 0.1794893787
565296610.0 -0.0649237344 0.1664878361 0.2056614225 -0.5202189425 0.2054469947 -0.5195149534 -0.0395026884 0.1800502614
570296580.0 -0.0630576649 0.1674446162 0.1993043386 -0.5221428405 0.1999935739 -0.5223845827 -0.0376069437 0.1805507828
575296550.0 -0.0609815296 0.1680234535 0.1943039723 -0.5243136037 0.1938434518 -0.5243383508 -0.0357152286 0.1809118602
580296520.0 -0.0595262153 0.1689165169 0.1882734261 -0.5262750146 0.1881533807 -0.526668376 -0.0338266114 0.1814312837
585296490.0 -0.05754132 0.1699394121 0.1826517991 -0.5282717225 0.1821728585 -0.5281569386 -0.0311586301 0.1819146212
590296460.0 -0.0554604845 0.1703686028 0.1768967615 -0.5304521742 0.1771285314 -0.5306262229 -0.0295896759 0.1827046051
595296430.0 -0.0539023368 0.1710728898 0.1706292076 -0.5323332165 0.1704020651 -0.532503902 -0.0272491435 0.1830683359
600296400.0 -0.0520887117 0.1719688291 0.1649131536 -0.533734486 0.1648936234 -0.5340514833 -0.0251680131 0.1832148967
605296370.0 -0.0507350191 0.1727354828 0.1597269725 -0.5353206807 0.1591365747 -0.5357467196 -0.0232098226 0.1840023648
610296340.0 -0.0484141341 0.1738826255 0.1534821672 -0.5369841322 0.1538057214 -0.5372205976 -0.021513364 0.1841845551
615296310.0 -0.0465974328 0.1739289717 0.1476494674 -0.5386278752 0.1472965921 -0.5390824848 -0.018940269 0.18489735
620296280.0 -0.0456401446 0.1752109077 0.1421266736 -0.5405190293 0.1414621725 -0.5405794075 -0.0173822509 0.1851753949
625296250.0 -0.0437890135 0.1755434892 0.1359701722 -0.5420837766 0.1361681133 -0.5421100174 -0.0153562278 0.1850636813
630296220.0 -0.0416508149 0.1765445885 0.1294876683 -0.5435861164 0.1300647705 -0.543496815 -0.0132338902 0.1856549156
635296190.0 -0.0400640221 0.1771293756 0.124234712 -0.5442689521 0.1240872318 -0.5443380289 -0.0111367899 0.1855420432
640296160.0 -0.0385685741 0.1775245124 0.1183994295 -0.5459228415 0.1182238593 -0.5462647828 -0.0091809129 0.1860113452
645296130.0 -0.036172431 0.1786272695 0.1121818041 -0.5471972028 0.1122723606 -0.5469523443 -0.0072609976 0.185990134
650296100.0 -0.0346468677 0.1789500803 0.1066973113 -0.5481535847 0.1062500033 -0.5486259023 -0.0043661297 0.1861965855
655296070.0 -0.0327900005 0.1796676144 0.1001364855 -0.5495501116 0.100332273 -0.5494935197 -0.0030863956 0.1868106939
660296040.0 -0.0311928466 0.1804548212 0.0946905934 -0.5507343316 0.0944252789 -0.5505039487 -0.0007653832 0.1862651485
665296010.0 -0.0290587781 0.1809167228 0.0876213019 -0.5509720245 0.0882415551 -0.5511561787 0.0014543888 0.187000026
670295980.0 -0.0276636244 0.1814186598 0.082572798 -0.5523942822 0.0823960194 -0.5522774577 0.0029690817 0.1869442496
675295950.0 -0.0259343259 0.1819462252 0.076738667 -0.5527094707 0.0764978314 -0.5529366202 0.0053181445 0.1869257354
680295920.0 -0.0244187214 0.1824115501 0.0708319957 -0.5535885911 0.0705146888 -0.5536560918 0.0077455245 0.1869481281
685295890.0 -0.0223029935 0.1831456694 0.0645463905 -0.554777327 0.0646714372 -0.5545353084 0.0098796947 0.1873183854
690295860.0 -0.0206298135 0.1834613457 0.0587487419 -0.5550532769 0.0582883637 -0.5552315451 0.0117094315 0.1872700735
695295830.0 -0.0186204282 0.1839479346 0.052900265 -0.5558422721 0.0526184066 -0.5554948484 0.0138502817 0.1875629627
700295800.0 -0.0167654995 0.1842507458 0.0470506303 -0.5561674844 0.0471048114 -0.5560798196 0.0160163666 0.1872330483
705295770.0 -0.0155797899 0.1849967998 0.0408856619 -0.5569174047 0.0404282267 -0.5565156248 0.0176422054 0.1879681446
710295740.0 -0.0136815753 0.1853058093 0.0349001588 -0.5568564901 0.0344582029 -0.5571209354 0.020188805 0.1874730451
715295710.0 -0.0120162363 0.1856649355 0.0290143009 -0.5574293292 0.0287605791 -0.5575112655 0.0218187541 0.1871461107
720295680.0 -0.009713519 0.1860514742 0.0228942547 -0.5574999244 0.0228082906 -0.5580521692 0.024044712 0.1870367953
725295650.0 -0.0085523616 0.1867524824 0.017102395 -0.5579345768 0.0169110432 -0.5580656915 0.0259878677 0.1876248497
730295620.0 -0.0071047934 0.1865884746 0.0108728653 -0.5575525083 0.0105717977 -0.5571658572 0.0279170647 0.1874045175
735295590.0 -0.0048383384 0.1871895931 0.0046060118 -0.5582872454 0.0049840737 -0.5579064379 0.0298915395 0.1867338117
740295560.0 -0.0035418508 0.1870388971 -0.0011678912 -0.5582017317 -0.000862267 -0.5584861888 0.0318012325 0.1868475471
745295530.0 -0.0015098543 0.1877525633 -0.0074441935 -0.5571560622 -0.00654385 -0.5575901537 0.0335377282 0.1864951315
750295500.0 -5.6411e-05 0.1881724064 -0.0130444105 -0.5577177585 -0.0133200938 -0.5581031656 0.0359513232 0.1863501214
755295470.0 0.0018115497 0.1885357255 -0.0186730091 -0.557866268 -0.0191662853 -0.5578344109 0.0383154419 0.1865058621
760295440.0 0.0035252224 0.18901317 -0.0258230562 -0.5571330963 -0.0250495093 -0.5572911345 0.0401637243 0.185496315
765295410.0 0.0052926713 0.1885338642 -0.0312967158 -0.5572556399 -0.0308313233 -0.5570336176 0.0422570025 0.1858538752
770295380.0 0.0068768312 0.188911528 -0.0367890466 -0.5563522013 -0.0368746413 -0.5568992923 0.043946791 0.1854255282
775295350.0 0.0083292822 0.189165816 -0.0427314473 -0.5561799508 -0.0427736926 -0.5557760122 0.0462973785 0.1849670613
780295320.0 0.0104712585 0.1892045185 -0.0487712243 -0.5550208611 -0.0489213199 -0.5554822137 0.0484554877 0.1845209956
785295290.0 0.0119738154 0.189213522 -0.0544030005 -0.5552064835 -0.0546819778 -0.5551619476 0.0501224604 0.1846563876
790295260.0 0.0140205439 0.1891454257 -0.0606642932 -0.5540536122 -0.0605240473 -0.5547625572 0.0522429055 0.1843862307
795295230.0 0.0156497152 0.189151527 -0.0665252068 -0.5539764118 -0.0668650491 -0.5541118036 0.0546148158 0.1831613888
800295200.0 0.0172085878 0.1897488534 -0.0720185097 -0.5526994326 -0.0727688204 -0.5531355345 0.0561052553 0.1829142451
805295170.0 0.0189532768 0.1897827338 -0.0781780445 -0.552057479 -0.0781744074 -0.5521285124 0.058845668 0.1825906569
810295140.0 0.0210057461 0.1898165841 -0.0846547818 -0.5512001555 -0.0847151428 -0.5513479371 0.0605660482 0.1821122836
815295110.0 0.0222519083 0.1898628399 -0.0900519798 -0.5503073495 -0.0900016143 -0.5506897988 0.0622776288 0.1816807527
820295080.0 0.0240661098 0.1895809413 -0.0957058804 -0.5490344735 -0.0960360017 -0.5493862749 0.0636520329 0.1817068805
825295050.0 0.0257179357 0.1893128027 -0.1021135791 -0.5482887514 -0.102017615 -0.5480145552 0.066598036 0.1809386132
830295020.0 0.0276836658 0.1894639418 -0.1078071527 -0.5467117744 -0.1079024262 -0.5468186835 0.0682918808 0.1798973701
