!Created with skrf (http://scikit-rf.org).
# Hz S RI R 50.0 
!freq ReS11 ImS11 ReS21 ImS21 ReS12 ImS12 ReS22 ImS22
300000.0 -0.7729565248 -0.1366764482 -0.0017580086 -0.0016292595 0.0016564876 0.0009677565 -0.0465788799 -0.0657717177
5299970.0 -0.7851060371 -0.0067823553 -0.0001507372 4.19533e-05 -2.83673e-05 -7.63458e-05 -0.0486253396 0.0144404225
10299940.0 -0.7876875529 -0.0039608768 1.80678e-05 -3.62498e-05 6.62802e-05 8.4369e-06 -0.0429027628 0.0314702068
15299910.0 -0.7933401503 -0.0016028463 -4.11379e-05 -0.0001269804 0.0002514296 8.4322e-06 -0.034500282 0.0456777777
20299880.0 -0.7994549 0.002409856 8.2994e-05 0.0001110585 2.70655e-05 9.3643e-06 -0.0249801434 0.0569414713
25299850.0 -0.8062629749 0.0081546428 -2.0734e-05 3.52407e-05 4.48926e-05 9.87322e-05 -0.0146308615 0.0661276415
30299820.0 -0.8118809706 0.0165457018 8.5957e-06 -1.74198e-05 9.72e-08 -0.0001190424 -0.0031070369 0.0728993328
35299790.0 -0.8171241067 0.0249792328 -4.38848e-05 7.89123e-05 0.000117895 -4.19386e-05 0.008156857 0.0772576796
40299760.0 -0.8217294922 0.034458482 0.0001837547 9.71918e-05 -0.0001693602 -0.0001598515 0.0190666581 0.0800498581
45299730.0 -0.82443178 0.0442680789 7.72935e-05 0.000112142 3.39389e-05 9.70504e-05 0.0296330499 0.0813852896
50299700.0 -0.8265130931 0.0543077507 4.5155e-05 -4.2507e-05 2.22464e-05 -1.34623e-05 0.0397040499 0.081220816
55299670.0 -0.8291108 0.0642276856 1.34146e-05 -5.48235e-05 0.0001128597 0.0001791909 0.0486104272 0.0802763067
60299640.0 -0.8295716784 0.0745636353 -6.59396e-05 0.0001021168 -7.95788e-05 4.50421e-05 0.0568705553 0.0784435189
65299610.0 -0.8311497732 0.0842421085 4.87019e-05 9.38236e-05 -4.57013e-05 3.94193e-05 0.0644714841 0.0757915939
70299580.0 -0.8314155478 0.0945855095 -4.85208e-05 -6.70254e-05 5.78024e-05 -9.34386e-05 0.0712788985 0.0727158644
75299550.0 -0.8315882959 0.104554223 0.0001604091 -4.11548e-05 -0.0001004733 -1.02182e-05 0.077396327 0.069847316
80299520.0 -0.8310104889 0.1147022769 1.53323e-05 2.04899e-05 6.96839e-05 0.0001235659 0.0826307334 0.0663061917
85299490.0 -0.8308526307 0.1238609218 5.20166e-05 0.0002769985 4.3578e-06 4.77106e-05 0.0878081184 0.0623974181
90299460.0 -0.8299064888 0.1338648011 0.000189053 -5.1186e-05 -2.77718e-05 0.0001246277 0.0925998345 0.0587585535
95299430.0 -0.8289938248 0.1436263418 0.0001641221 -2.86361e-05 0.0001003145 5.41619e-05 0.096314274 0.0547259907
100299400.0 -0.8280175405 0.1529162812 0.0001011297 0.0002028589 5.9675e-06 -3.77828e-05 0.0996911054 0.0506757658
105299370.0 -0.8263823396 0.1624941208 -0.0002433189 0.0001129201 1.67542e-05 0.0001101994 0.103153347 0.046570145
110299340.0 -0.8252211898 0.1709450435 -0.0002333606 6.27877e-05 9.30343e-05 0.0002665196 0.1054531322 0.0429668043
115299310.0 -0.8238525938 0.1806289849 6.86291e-05 0.0001101799 7.96339e-05 -8.50197e-05 0.1084690125 0.0385511325
120299280.0 -0.8219779795 0.1895848544 7.07505e-05 -6.80421e-05 0.0001106627 -8.71435e-05 0.110629542 0.0350783119
125299250.0 -0.8204439245 0.1984074797 -0.0001110674 -4.64855e-05 9.02066e-05 -4.44514e-05 0.1125629015 0.0307098549
130299220.0 -0.8181157777 0.2074235476 -8.97959e-05 0.0002040429 -6.32726e-05 6.73335e-05 0.1138062076 0.0275571277
135299190.0 -0.8166817438 0.2170360306 7.7248e-05 8.94177e-05 0.0002245086 4.31893e-05 0.1152970241 0.0236600373
140299160.0 -0.8144919825 0.2252886534 8.99976e-05 0.0001525145 3.70227e-05 9.19149e-05 0.1167679936 0.0195598376
145299130.0 -0.8123053069 0.2344424877 -7.57227e-05 -1.86158e-05 5.07177e-05 -6.64214e-05 0.1172572087 0.0165063454
150299100.0 -0.8101418844 0.2430967671 -1.6329e-05 -3.05718e-05 -4.44117e-05 0.0001735127 0.1182286464 0.0128808438
155299070.0 -0.8079025835 0.2526778343 -5.72482e-05 4.1584e-05 8.31253e-05 -8.1408e-06 0.1189303553 0.009770232
160299040.0 -0.804865304 0.2613708538 9.33125e-05 4.40633e-05 3.5802e-05 0.0003291353 0.1197088009 0.0063712531
165299010.0 -0.802427701 0.269269035 6.24352e-05 -0.0001450526 1.63533e-05 3.43834e-05 0.1201005346 0.0029032963
170298980.0 -0.7994727473 0.2781185206 -8.78186e-05 -3.40726e-05 0.0002159526 0.000160851 0.1204395552 -5.48582e-05
175298950.0 -0.7969612833 0.2871480726 0.0001022439 -8.62782e-05 0.0002080228 0.0001299693 0.1207289993 -0.0033239648
180298920.0 -0.7937912365 0.2946977791 -9.1474e-05 -2.73977e-05 8.44133e-05 0.0001133601 0.1209178109 -0.0062431192
185298890.0 -0.7907479096 0.3041565891 4.94694e-05 0.000146789 -2.44201e-05 4.92337e-05 0.1205514964 -0.0094239337
190298860.0 -0.7876455472 0.3124649429 -9.704e-07 -8.3022e-06 1.53007e-05 -0.0001119771 0.1210715102 -0.0124150065
195298830.0 -0.7839772996 0.3210214087 0.000161914 -4.65563e-05 0.0001480054 -3.9754e-06 0.1206416716 -0.0148538566
200298800.0 -0.7810750907 0.3298595809 7.09418e-05 -4.77377e-05 4.557e-07 3.69712e-05 0.1208342964 -0.0177572608
205298770.0 -0.7771212885 0.337547294 7.05359e-05 -0.000147362 0.0001049312 0.0002475259 0.1203716764 -0.0203831148
210298740.0 -0.7736732149 0.345538408 7.6679e-06 5.63272e-05 -1.09845e-05 6.94252e-05 0.1202742827 -0.0232624433
215298710.0 -0.7706400001 0.3541605409 -0.0001415565 0.0001337994 -6.93454e-05 -6.31859e-05 0.1191989866 -0.0255739366
220298680.0 -0.7671837417 0.3624787465 6.80959e-05 -0.0001501497 2.68064e-05 3.80196e-05 0.1192074849 -0.0279627848
225298650.0 -0.7630862121 0.3703348118 -0.0001053737 -3.3727e-05 -3.04977e-05 9.5744e-06 0.1183659279 -0.0302353294
230298620.0 -0.7588480848 0.3782782836 -2.7458e-05 0.0001190033 6.86569e-05 5.16991e-05 0.1179491418 -0.0331575518
235298590.0 -0.7545898817 0.3869099025 0.0001049553 3.17702e-05 0.0001872333 -7.17583e-05 0.1172796495 -0.0353801336
240298560.0 -0.7507391137 0.394926834 0.000201166 0.000204886 1.81167e-05 0.0001305411 0.1166046091 -0.0376584922
245298530.0 -0.7464322055 0.4023331785 4.38081e-05 -9.73104e-05 0.0001539916 0.0001979334 0.1159138001 -0.0399084156
250298500.0 -0.7423285739 0.4104362179 9.32538e-05 4.24112e-05 -3.9897e-05 8.31e-06 0.1155211396 -0.0419701711
255298470.0 -0.7376471893 0.4188544166 4.58491e-05 -4.77682e-05 -0.0001252893 -3.71954e-05 0.1146112 -0.0439632812
260298440.0 -0.7335597502 0.4262120545 -5.25074e-05 0.0004729963 0.0001822708 2.55822e-05 0.1137763748 -0.0461317884
265298410.0 -0.7294423343 0.4340494793 0.0001667854 0.0001902343 -5.36847e-05 1.56252e-05 0.1128867209 -0.0484446768
270298380.0 -0.7247312684 0.441566831 1.26679e-05 0.0001564405 -7.73176e-05 -2.42167e-05 0.1125307389 -0.0505402104
275298350.0 -0.7196793282 0.4485908571 0.0003572639 7.96065e-05 0.000112904 -0.0001185884 0.1114387268 -0.0523699871
280298320.0 -0.7155809535 0.4562484999 -2.41448e-05 -0.000162158 -0.0001191864 0.0001172243 0.110556015 -0.0544371505
285298290.0 -0.7103621798 0.4642465069 -5.72619e-05 2.83114e-05 -0.0001399021 -4.45837e-05 0.1092524844 -0.0565777486
290298260.0 -0.7057135089 0.4715034692 -4.68443e-05 7.30309e-05 0.0002751233 -1.57035e-05 0.1089870686 -0.0579177869
295298230.0 -0.7006141063 0.479451649 -6.94082e-05 1.28957e-05 0.0001514573 0.0001480623 0.1075158204 -0.0597938934
300298200.0 -0.6950349436 0.4864403221 1.44902e-05 1.87178e-05 1.42815e-05 7.2728e-05 0.1067252504 -0.0614869828
305298170.0 -0.6897803771 0.4940590242 0.0003680216 -3.43816e-05 0.0001027294 -1.43089e-05 0.1060952508 -0.0633691063
310298140.0 -0.6845697767 0.5008857564 3.07663e-05 -0.0001189011 0.0002011961 2.56107e-05 0.1050790513 -0.0647860502
315298110.0 -0.6796911844 0.5076457158 -4.21246e-05 -8.2526e-06 9.0341e-06 2.6763e-06 0.1039524206 -0.0671168613
320298080.0 -0.6744280583 0.5157423309 1.3588e-06 -0.000269827 1.00201e-05 0.0001346067 0.1029972641 -0.0688695728
325298050.0 -0.6688832231 0.5218478482 0.0001550785 -1.13019e-05 -1.1883e-05 -3.92144e-05 0.1013164268 -0.070703528
330298020.0 -0.6628281793 0.5288951618 0.0002017208 3.40253e-05 0.0001767718 0.0001315421 0.1002949921 -0.0723389318
335297990.0 -0.6570855343 0.5364481686 0.0001541276 7.44621e-05 -3.90917e-05 0.0001257754 0.0986880114 -0.0739009444
340297960.0 -0.6519440885 0.5427381341 0.0001299436 -8.36759e-05 -4.58384e-05 8.98779e-05 0.0978314119 -0.0754929392
345297930.0 -0.6463485824 0.5488492811 0.0001544138 8.91317e-05 0.0001732298 -0.0001202861 0.0960285871 -0.0769127189
350297900.0 -0.6402300267 0.5558173987 -0.0001230846 -2.63671e-05 -6.83428e-05 8.58561e-05 0.0949605791 -0.0781302901
355297870.0 -0.6344052547 0.5624772324 0.0003616481 -1.83496e-05 0.0001914519 -0.0001512163 0.0933062325 -0.0796050148
360297840.0 -0.6283496688 0.5694455805 -4.4254e-05 0.0001448678 1.27408e-05 -4.16903e-05 0.0922001244 -0.080635258
365297810.0 -0.6220636986 0.5752088932 -0.0003042793 -7.725e-06 0.0001887432 -0.0001102723 0.0906284741 -0.0819624631
370297780.0 -0.6159679472 0.5821063714 -0.0001713554 5.946e-07 -8.8193e-06 5.192e-05 0.0893503465 -0.0830374663
375297750.0 -0.6101800454 0.5878466145 0.0001912392 -0.0002405182 5.05104e-05 -4.16649e-05 0.087862506 -0.084207798
380297720.0 -0.6039958076 0.5946982219 6.07163e-05 -0.0001621109 -4.91805e-05 -6.60257e-05 0.0869294514 -0.0851420884
385297690.0 -0.5977749925 0.6008917164 -4.16484e-05 1.932e-07 0.0002092202 0.000105214 0.08536386 -0.0862422502
390297660.0 -0.5913637919 0.6066446087 3.14691e-05 0.0001425773 -5.26215e-05 -3.51872e-05 0.0838855717 -0.0880244462
395297630.0 -0.5853378814 0.6133665218 0.0002299204 -2.83779e-05 4.63243e-05 0.000104666 0.0827156851 -0.0885870823
400297600.0 -0.5789365271 0.6190647464 0.0001609459 0.0002141626 -1.83066e-05 -0.0001552552 0.080676156 -0.0899074523
405297570.0 -0.57230298 0.6249815636 0.0003170369 0.0001462366 2.13126e-05 -9.75759e-05 0.0797188286 -0.090882917
410297540.0 -0.5658728713 0.6304325941 0.0002118713 -0.0001346016 0.0001698057 -0.0002560785 0.0781490665 -0.0914671549
415297510.0 -0.5591070488 0.6365895859 0.0001538995 0.0001264055 7.54598e-05 8.48182e-05 0.0766337292 -0.0926328611
420297480.0 -0.5515371524 0.6422161795 -6.51437e-05 0.0001933819 0.0002829811 1.3464e-06 0.0753026922 -0.0937098472
425297450.0 -0.5456648993 0.6480068188 5.95371e-05 0.0002355075 8.52075e-05 0.0001035362 0.0739262523 -0.0948666848
430297420.0 -0.5393861326 0.6531556864 3.9328e-06 0.0002951134 7.91866e-05 -0.0001352671 0.0724078867 -0.0952911815
435297390.0 -0.5318991314 0.6586404355 -5.9943e-05 0.0001071638 5.97674e-05 0.0002119458 0.0710121209 -0.0958882993
440297360.0 -0.5253115028 0.6642619686 0.000301842 1.43893e-05 1.10905e-05 7.43397e-05 0.0689870841 -0.0974894039
445297330.0 -0.5187582052 0.6696027661 6.26153e-05 -2.68222e-05 7.93482e-05 0.0001606989 0.0674429778 -0.0985271076
450297300.0 -0.5109636903 0.6744563959 5.40082e-05 0.0001820094 0.0001407297 7.69937e-05 0.0660926346 -0.0989171648
455297270.0 -0.5044298571 0.6800969069 5.87063e-05 -5.07789e-05 -4.21203e-05 5.82963e-05 0.0646254383 -0.0997269046
460297240.0 -0.4978572136 0.6853629708 -3.8387e-06 0.000366975 0.0002149731 9.41897e-05 0.0632342677 -0.1004456603
465297210.0 -0.4901632727 0.6910140973 5.83947e-05 -9.6054e-06 0.0001766892 0.0001020082 0.0614213745 -0.1012933528
470297180.0 -0.4827687759 0.6944876161 -0.0001555467 0.000183939 6.40283e-05 1.79124e-05 0.0596344317 -0.1015680186
475297150.0 -0.4761124579 0.6999239946 8.66029e-05 1.36228e-05 4.81495e-05 0.0002046062 0.058456782 -0.1024467829
480297120.0 -0.469058227 0.7041572331 0.0001293311 -0.0002521737 0.0001500695 5.27683e-05 0.0566725542 -0.1029060941
485297090.0 -0.4608796138 0.7092365958 0.0002058487 0.0002212198 0.0001360716 -8.93383e-05 0.0547689364 -0.1036202925
490297060.0 -0.4539621822 0.7137905673 0.000314095 1.17335e-05 -5.14972e-05 0.0001780482 0.0532446772 -0.1044219921
495297030.0 -0.4470539859 0.7185367448 0.0001547128 1.63899e-05 2.34034e-05 -0.0001900287 0.0517582556 -0.1054496885
500297000.0 -0.4386705604 0.7237756199 -8.83733e-05 -4.26304e-05 6.77282e-05 -4.49092e-05 0.0501326039 -0.1055916462
505296970.0 -0.4316546045 0.7266812204 0.0001416794 3.96205e-05 0.0002225682 3.77104e-05 0.0485324316 -0.105856798
510296940.0 -0.4244853826 0.7317562859 -3.1931e-05 -0.0001101027 9.12159e-05 3.20845e-05 0.0466461875 -0.1066367207
515296910.0 -0.4172186993 0.7362272883 0.0002782266 0.0001063878 9.86086e-05 -8.58072e-05 0.0448744165 -0.1069575647
520296880.0 -0.4086557345 0.7408146531 7.38083e-05 -9.08589e-05 0.0001648707 -4.04917e-05 0.0432408959 -0.1076883204
525296850.0 -0.4018575882 0.7443989432 0.0001828151 -0.0001014732 0.0001771695 -9.31474e-05 0.0419972278 -0.1077911513
530296820.0 -0.3941059326 0.7483533025 0.0001735053 -5.81612e-05 0.0002609455 -7.84957e-05 0.03967146 -0.1088737748
535296790.0 -0.3858155379 0.7520650875 8.72874e-05 0.0001833068 3.56014e-05 6.19847e-05 0.0384708188 -0.1092324777
540296760.0 -0.3782708154 0.7559718615 -4.71414e-05 3.0266e-05 0.000177772 -0.0001997321 0.036206121 -0.1091380049
545296730.0 -0.3712257116 0.7596155647 0.0002518936 -0.0001715125 0.0002285362 -2.788e-06 0.0346437322 -0.1099880216
550296700.0 -0.363100832 0.7634776767 8.74681e-05 7.71498e-05 0.0002005747 -0.000161386 0.0331236061 -0.1101638909
555296670.0 -0.354850518 0.7669292293 0.0001927045 -5.55962e-05 -8.9473e-05 5.7052e-05 0.0313656146 -0.1102713413
560296640.0 -0.3469066614 0.7709016231 0.0001643992 8.86565e-05 0.0002177567 -7.1342e-05 0.0299293295 -0.1108639653
565296610.0 -0.3390483401 0.7737274683 0.0001725797 -1.6147e-06 0.0002100414 -2.28819e-05 0.0281462244 -0.1110760119
570296580.0 -0.3320265033 0.7772338691 1.35483e-05 -7.32891e-05 0.0001620008 -0.0001945574 0.0264002879 -0.1114571988
575296550.0 -0.3236360832 0.7806443685 0.0001752839 -7.50302e-05 0.0001770365 -8.04172e-05 0.0248516336 -0.1116910608
580296520.0 -0.315642584 0.7838159974 7.86706e-05 2.94136e-05 8.73094e-05 -5.62238e-05 0.0230646765 -0.1117704939
585296490.0 -0.3078863274 0.7864250258 8.05892e-05 -6.95797e-05 2.2307e-06 -6.0362e-06 0.0211924704 -0.1126083662
590296460.0 -0.2997767653 0.7896510887 0.0002057746 -8.72354e-05 -8.8572e-06 -0.0001051317 0.0196988185 -0.1123729505
595296430.0 -0.2914293602 0.7933610319 1.97759e-05 8.43791e-05 3.17027e-05 -1.9877e-05 0.0177196136 -0.1125050968
600296400.0 -0.2835754492 0.7960410513 0.0001178022 -0.000123809 -4.8598e-05 -4.42952e-05 0.0161714955 -0.112908261
605296370.0 -0.2751321622 0.7985750545 0.0002888456 -2.208e-06 0.0003797351 4.30708e-05 0.014489875 -0.1127471596
610296340.0 -0.2674478596 0.8010904553 2.56018e-05 -1.73909e-05 0.0001812151 -6.06361e-05 0.0127962309 -0.1126581
615296310.0 -0.2588977149 0.8041900141 0.0004023036 -7.10201e-05 5.55234e-05 -3.12398e-05 0.0108413692 -0.1131225125
620296280.0 -0.2509703988 0.8061934808 0.0001422649 0.0001989944 0.0001241212 2.17076e-05 0.0091916112 -0.1134844617
625296250.0 -0.2429891428 0.8090798607 5.01275e-05 -0.0001588192 0.0001006233 7.53219e-05 0.0075896951 -0.1131006381
630296220.0 -0.2343679769 0.8115192699 -1.44448e-05 4.20608e-05 0.000177662 -8.20482e-05 0.0060336539 -0.1129023229
635296190.0 -0.2267058284 0.81422666 0.0001502795 0.0002129086 0.0002040161 9.53677e-05 0.0043431587 -0.1128114109
640296160.0 -0.2178791647 0.8153091902 -0.0002329076 0.0001794171 0.0002436416 0.0001281235 0.0027373055 -0.1126661758
645296130.0 -0.2104184268 0.8177045254 4.93819e-05 4.376e-07 -1.14409e-05 6.3212e-06 0.0006106387 -0.1130262913
650296100.0 -0.2018791867 0.8202243857 0.0002768605 -6.49007e-05 4.17027e-05 9.72585e-05 -0.0008972433 -0.1126487051
655296070.0 -0.1931604944 0.8224353436 0.0001881439 0.0002761696 0.0001520506 -4.78981e-05 -0.0025082218 -0.112684939
660296040.0 -0.1850112512 0.824563107 0.0001756102 -1.23794e-05 0.0002644473 -5.54565e-05 -0.0042801224 -0.1122953215
665296010.0 -0.1771872077 0.8256632183 0.0001943863 -4.5767e-06 7.88676e-05 -0.0001973365 -0.0060764362 -0.1123126265
670295980.0 -0.1676426834 0.8275731621 0.0001201044 5.89807e-05 0.0002492159 -0.0001468871 -0.0075041531 -0.1121921997
675295950.0 -0.160077045 0.8283510877 0.0002499452 -0.0002693349 -9.42828e-05 -0.0001672131 -0.0092794188 -0.1119010271
680295920.0 -0.151739701 0.8305004332 0.0002425846 0.000138455 0.0002680349 -0.0001476099 -0.0109286397 -0.1119304453
685295890.0 -0.1433658555 0.8318360861 0.0001493156 -3.80238e-05 0.0001670244 3.83741e-05 -0.0124377955 -0.1116214671
690295860.0 -0.1341459493 0.8334935054 0.0002985253 -0.0001356709 0.0002000119 -0.0001762194 -0.0141050264 -0.111228904
695295830.0 -0.1266104047 0.834121306 1.52063e-05 -3.44004e-05 0.0002318494 6.73938e-05 -0.0161916557 -0.1109476774
700295800.0 -0.1177637754 0.8358405754 0.0003149466 -2.07315e-05 -1.46707e-05 5.92206e-05 -0.0173793733 -0.1105701281
705295770.0 -0.1091092308 0.8377030579 0.0001967253 0.0001282606 6.43995e-05 -0.0002248275 -0.0194308846 -0.1098720885
710295740.0 -0.1012887728 0.8379601074 0.0002250921 -2.96693e-05 9.79804e-05 -2.73828e-05 -0.0212218684 -0.1093335375
715295710.0 -0.0933332013 0.8388551099 0.0002471807 -0.0001641192 0.0001798725 -0.0002242646 -0.0224301721 -0.1094130125
720295680.0 -0.084296749 0.8396111067 0.0001487142 -7.90603e-05 0.0002494199 -0.0001429552 -0.0239982983 -0.1085162588
725295650.0 -0.0755444709 0.8406881643 0.0001193667 1.53893e-05 0.0001735891 -6.3823e-06 -0.0256589397 -0.108627471
730295620.0 -0.0675689476 0.8415580508 0.0001032498 3.66768e-05 -2.49195e-05 4.42658e-05 -0.0273496492 -0.1080406101
735295590.0 -0.0586615623 0.8417826969 0.0001917098 3.03972e-05 0.0001890265 0.00012642 -0.0286131195 -0.1075337872
740295560.0 -0.050104726 0.8423855912 6.77066e-05 -1.33987e-05 0.0001764492 1.3911e-05 -0.0306578471 -0.1073843067
745295530.0 -0.0418268884 0.8424957014 0.000339305 -0.0001613014 0.0001434402 0.0001181901 -0.0322973765 -0.1064443667
750295500.0 -0.0339881389 0.8432396539 0.000276397 -5.02238e-05 3.7239e-05 -0.0001181419 -0.034062782 -0.1061079613
755295470.0 -0.0243633923 0.8428904698 -7.7557e-06 -0.0001872203 0.0002160737 7.73013e-05 -0.0354659365 -0.1051102415
760295440.0 -0.0162945426 0.843751133 9.05531e-05 2.31735e-05 0.0001209702 4.43178e-05 -0.0372698439 -0.10453325
765295410.0 -0.008258362 0.8437369747 0.0002207931 7.90529e-05 0.0002055467 -4.77614e-05 -0.0382667792 -0.1042003555
770295380.0 0.000333121 0.8445300371 8.46354e-05 -0.0001214644 0.000217955 -3.57916e-05 -0.0396574724 -0.1037080037
775295350.0 0.0087466853 0.8437206548 6.22852e-05 6.3323e-06 0.000292268 0.0001576889 -0.0418264675 -0.103282329
780295320.0 0.0181598375 0.8432470661 0.0002394119 -5.98584e-05 0.0002501163 -9.38606e-05 -0.043398114 -0.1018190467
785295290.0 0.0258961429 0.8434658093 0.0003094301 -7.8004e-06 0.0001039396 -0.0002913096 -0.0449069984 -0.1011423941
790295260.0 0.0343721254 0.8428765168 0.0001953972 7.70453e-05 0.0003450586 -1.92134e-05 -0.0460490416 -0.1007878442
795295230.0 0.0426591151 0.8434465685 3.2772e-05 -0.0001108959 0.0001212783 -0.0001315961 -0.04770197 -0.0999114951
800295200.0 0.0512045342 0.842571277 0.0001256005 -9.4685e-05 0.0002257834 1.37168e-05 -0.049399974 -0.0994308015
805295170.0 0.0598464997 0.8422765641 0.0002967383 -1.36632e-05 0.0002695471 7.60892e-05 -0.0511237348 -0.098325335
810295140.0 0.0680430729 0.8415393445 -8.32533e-05 1.39241e-05 5.18363e-05 0.0001073457 -0.0521487853 -0.0974841807
815295110.0 0.0766905343 0.8404365894 -1.59899e-05 0.0001058913 0.0002161901 -6.85039e-05 -0.0536944189 -0.0966514297
820295080.0 0.0851122107 0.8390890862 0.0002824863 -7.03791e-05 0.000246012 -6.42961e-05 -0.0556591781 -0.0958811412
825295050.0 0.0936257685 0.8390117643 -1.47265e-05 -0.0001593845 4.517e-05 -9.938e-07 -0.0565466366 -0.0949378297
830295020.0 0.1019826897 0.8379012977 4.59453e-05 -0.0001758269 0.0001135343 9.72087e-05 -0.0584956503 -0.0940165274
835294990.0 0.1095065037 0.8368839094 0.0002698389 -8.7829e-06 0.000160402 -0.0001234655 -0.0591154097 -0.0934726016
840294960.0 0.1185275508 0.8352051986 0.0002379259 3.65655e-05 0.0002592761 4.40038e-05 -0.0610713232 -0.092114691
845294930.0 0.1268073527 0.8343337592 -9.63795e-05 2.42634e-05 2.5137e-05 0.0001655489 -0.0622338409 -0.0909341307
850294900.0 0.1351557226 0.8322529635 0.0001450531 -5.63547e-05 0.0002631902 -5.22138e-05 -0.063976262 -0.0905416077
