!Created with skrf (http://scikit-rf.org).
# Hz S RI R 50.0 
!freq ReS11 ImS11 ReS21 ImS21 ReS12 ImS12 ReS22 ImS22
300000.0 -0.0486836571 -0.048713632 -0.0009236348 0.0011464766 0.0004085865 0.0002218582 -0.7777079046 -0.1365042329
5299970.0 -0.0485963194 0.0150699652 5.95936e-05 0.0003732505 -0.0001386388 -4.7194e-05 -0.7849072501 -0.0080005663
10299940.0 -0.0432484698 0.0320658298 -0.0002025912 -0.0001334825 0.0003150372 1.80511e-05 -0.7877046154 -0.0035476797
15299910.0 -0.0349000709 0.0461933191 0.0001219941 6.5784e-05 -4.33812e-05 9.38519e-05 -0.7933535712 -0.0012576243
20299880.0 -0.0252958228 0.0572471288 -2.01127e-05 -5.24844e-05 -0.0001119004 -6.68491e-05 -0.7999628559 0.0022850018
25299850.0 -0.0142096101 0.0668197501 0.0002502114 -5.70468e-05 -3.92572e-05 -5.36265e-05 -0.8061416324 0.0084173009
30299820.0 -0.0033598187 0.0729834507 0.0003095223 0.0001647407 -6.47681e-05 0.0001745822 -0.8121648876 0.0160479596
35299790.0 0.0078810407 0.0777621513 0.0001051489 0.0001197837 -2.54265e-05 4.597e-06 -0.8171052044 0.0251455672
40299760.0 0.0191906857 0.0805426645 -1.25391e-05 -4.39213e-05 -0.0001608199 -5.48927e-05 -0.8209932383 0.0344811552
45299730.0 0.0295506571 0.0815366982 0.0001018425 2.4778e-06 6.82793e-05 0.0001493586 -0.8254378739 0.0436209281
50299700.0 0.0392732948 0.0818521431 3.83456e-05 0.0001652144 -6.29023e-05 4.85253e-05 -0.8273302297 0.0540407407
55299670.0 0.0481667402 0.0803800951 -8.5333e-06 9.44252e-05 3.6711e-06 -6.4309e-05 -0.8297086503 0.0648465671
60299640.0 0.0567728611 0.0788383502 3.1757e-05 0.0001087027 5.75713e-05 0.000150481 -0.8303077829 0.0742403015
65299610.0 0.0640621841 0.0759659597 0.000187442 6.15836e-05 5.86002e-05 3.1908e-06 -0.831662914 0.083653783
70299580.0 0.0708605508 0.0732499008 0.000162331 -7.01834e-05 0.0001341456 -6.37959e-05 -0.8315604041 0.0939804863
75299550.0 0.0773980875 0.0701946008 0.0001659925 -0.0001976733 5.66027e-05 -7.6916e-06 -0.8318665382 0.1038446622
80299520.0 0.083074021 0.0666874447 -4.07518e-05 -2.09756e-05 1.09362e-05 -3.9967e-05 -0.8321158784 0.1134906048
85299490.0 0.0875206681 0.0628691117 5.76181e-05 1.73764e-05 -3.93602e-05 -0.0001170167 -0.832100074 0.1234230629
90299460.0 0.0921689019 0.0592298925 0.0001081821 4.17946e-05 0.0001150396 1.85078e-05 -0.8305941976 0.1326468343
95299430.0 0.0963344998 0.0546973508 4.10856e-05 -0.0002642579 7.07576e-05 0.0001180489 -0.8288481504 0.1429874679
100299400.0 0.0998549888 0.0513415859 2.76218e-05 8.37524e-05 -8.88795e-05 -0.0001074129 -0.8286491602 0.1520594399
105299370.0 0.1031955141 0.0474410632 0.000118517 0.0001290474 0.0001601194 0.0001848963 -0.8268077857 0.1608673388
110299340.0 0.1059109343 0.0433972525 0.0002637859 1.81335e-05 -6.06334e-05 -6.29599e-05 -0.8256514841 0.1705121337
115299310.0 0.1086590933 0.0394104065 0.0001032962 2.99917e-05 -5.74157e-05 6.5498e-06 -0.8236932917 0.1798288793
120299280.0 0.1103881008 0.0353124524 1.60974e-05 3.39553e-05 -6.50537e-05 8.07009e-05 -0.8221813517 0.1887831602
125299250.0 0.111996703 0.0315764797 9.65973e-05 9.05912e-05 9.915e-07 6.2272e-05 -0.8207233967 0.197894945
130299220.0 0.1136293197 0.0279950696 -6.28369e-05 3.83181e-05 -0.00016933 7.77162e-05 -0.818784416 0.2066008898
135299190.0 0.1153702175 0.0244050124 -0.0001159096 9.10845e-05 4.1376e-05 9.32751e-05 -0.816339758 0.2158508123
140299160.0 0.1163540571 0.0207245747 7.41312e-05 2.63975e-05 9.49511e-05 -3.7965e-05 -0.8143067102 0.2247372647
145299130.0 0.1175221968 0.0172474438 0.0001057039 -4.3672e-06 -0.000172568 1.90557e-05 -0.812066323 0.2340574418
150299100.0 0.1185383575 0.0137846007 0.0001121522 1.97834e-05 6.42618e-05 5.898e-06 -0.8108116315 0.2424834179
155299070.0 0.1188727009 0.0101945529 0.0002378603 -0.0002278029 9.3056e-05 3.5372e-05 -0.8070896866 0.2517012183
160299040.0 0.1193369999 0.0073719217 0.0001482389 -0.0001151149 5.72417e-05 -9.77028e-05 -0.8048257987 0.2604353737
165299010.0 0.1199489247 0.0039633179 -1.68375e-05 2.05853e-05 4.5545e-05 3.41207e-05 -0.8026528226 0.2689284573
170298980.0 0.1199170676 0.001038352 0.0001569281 0.0001403468 6.02065e-05 5.65407e-05 -0.7989995335 0.2778254153
175298950.0 0.1201282904 -0.0023002646 -0.000230095 0.0002843059 -0.0001136575 1.4126e-05 -0.7968898762 0.2866618461
180298920.0 0.1205801652 -0.0051613764 -1.52513e-05 -1.93435e-05 0.0002188436 0.000165707 -0.7934359215 0.2950898195
185298890.0 0.1206058941 -0.0081942861 -0.0001049686 -4.58266e-05 -0.0001266815 -0.000172362 -0.7904179063 0.3034780969
190298860.0 0.1207055598 -0.0108328835 0.0001673521 9.81037e-05 5.2258e-06 4.824e-07 -0.7878513911 0.3120970551
195298830.0 0.1203878447 -0.0136226472 0.0003384957 -0.0001305429 -0.0001531638 5.50462e-05 -0.7843832565 0.3208858447
200298800.0 0.1199332711 -0.016248671 0.0001512567 0.0001719091 -1.39751e-05 9.74336e-05 -0.7814583482 0.3290388722
205298770.0 0.1197498357 -0.0188426997 2.0189e-05 0.0001296856 0.0001724648 0.0001284942 -0.7774645026 0.3372533711
210298740.0 0.119464298 -0.0216023545 -0.0001389467 6.86726e-05 0.0001980366 9.22038e-05 -0.774330089 0.3461667115
215298710.0 0.1187064449 -0.0240948632 4.86644e-05 -0.0002324917 4.16316e-05 0.0001786222 -0.7709584312 0.3536591376
220298680.0 0.1183097668 -0.0269794464 0.0001190523 0.0001620397 -0.0001182429 8.3788e-06 -0.7673481267 0.3621031221
225298650.0 0.1174781553 -0.0292924996 -7.04158e-05 -3.62507e-05 1.02039e-05 -3.33054e-05 -0.7636196284 0.3698018957
230298620.0 0.1169201717 -0.031493752 7.43468e-05 0.0001976932 7.26771e-05 0.0001572271 -0.7594568543 0.3782774903
235298590.0 0.116490216 -0.0338811282 -6.1193e-06 -0.0001881205 7.33495e-05 -0.000128615 -0.7554898558 0.3864452441
240298560.0 0.1157378278 -0.0363771108 7.09635e-05 0.0001736928 -6.25435e-05 0.000110122 -0.7514007785 0.3956059763
245298530.0 0.1150709395 -0.0385747585 0.0001729142 5.62205e-05 3.34849e-05 0.0002199213 -0.7477297118 0.4016993188
250298500.0 0.114355543 -0.0408895053 3.53714e-05 0.000280443 8.5261e-05 6.87115e-05 -0.7435183356 0.4102754457
255298470.0 0.1132643711 -0.0429949289 0.0001220586 9.44862e-05 -1.06617e-05 3.0323e-06 -0.7387400111 0.4177217201
260298440.0 0.1123168656 -0.0450081235 -9.027e-07 -3.645e-06 -3.24472e-05 0.0001244251 -0.7347740319 0.425862038
265298410.0 0.1116021603 -0.0468296703 -8.86526e-05 8.83974e-05 9.4163e-06 0.0001804867 -0.7299468937 0.4337915282
270298380.0 0.1106725206 -0.048893061 0.0001421075 0.0001954601 9.74867e-05 -0.0001158355 -0.7254833092 0.4407674586
275298350.0 0.1097761528 -0.0507622776 -0.0001128795 8.98068e-05 0.0001098755 0.0001332067 -0.7207473478 0.4483085667
280298320.0 0.1091201226 -0.0527833802 0.0003134427 -0.0001102554 -6.61166e-05 0.0001984673 -0.7159212911 0.4562979138
285298290.0 0.1083041735 -0.0544276681 9.29782e-05 2.12189e-05 -0.0001619614 -1.36028e-05 -0.710656143 0.4633364328
290298260.0 0.1071097594 -0.0564940806 9.28327e-05 0.0003976153 8.18718e-05 -5.53668e-05 -0.7060868112 0.4710484139
295298230.0 0.1060075099 -0.0586967279 8.55791e-05 -7.68115e-05 0.0001872096 -0.0001622226 -0.7012012641 0.4777024484
300298200.0 0.1050784782 -0.0604566234 -7.3332e-05 8.15406e-05 -3.03513e-05 0.0001379672 -0.6957245883 0.4853827385
305298170.0 0.1041736965 -0.0620722367 8.12277e-05 0.0002286237 6.5893e-05 -1.09923e-05 -0.6902440861 0.4931009887
310298140.0 0.1032518448 -0.0637974618 -0.0001835597 1.88701e-05 7.25742e-05 -2.00326e-05 -0.6854661463 0.499990131
315298110.0 0.1022093672 -0.0658805098 0.0001710984 -0.000146178 -0.0001309452 9.85014e-05 -0.6801009338 0.5064946734
320298080.0 0.1011999814 -0.0678688221 0.0002351526 0.0001035159 5.24826e-05 9.75469e-05 -0.674862219 0.514476754
325298050.0 0.0997241096 -0.0697566925 -6.449e-07 0.0001299735 -4.34402e-05 -6.59932e-05 -0.668998368 0.5211003823
330298020.0 0.0980814661 -0.0714649086 -0.0002114362 -0.000174901 0.0002280806 7.0914e-06 -0.6638728618 0.5281165328
335297990.0 0.0964940439 -0.0731076642 7.80134e-05 -0.0001445732 -6.41544e-05 -0.0001866778 -0.6584869612 0.5351685254
340297960.0 0.0951135226 -0.074329294 0.0001450569 0.0001553463 9.04059e-05 -5.46553e-05 -0.6524790151 0.5419286619
345297930.0 0.0937497595 -0.0757911817 0.0002945295 -3.80929e-05 3.13765e-05 0.0002484223 -0.6470153688 0.5486308266
350297900.0 0.0922917394 -0.0772196384 7.68504e-05 5.60795e-05 -5.65624e-05 0.0001600044 -0.64186379 0.5557202408
355297870.0 0.0909678659 -0.0787461604 0.0002777279 0.0003322876 0.0001084581 -6.13677e-05 -0.6360128912 0.561657084
360297840.0 0.0895531414 -0.0797375864 0.0002327192 0.0001787609 9.54048e-05 0.0002393644 -0.6293590705 0.5684551624
365297810.0 0.0878827368 -0.0810215982 0.0003645481 5.68432e-05 7.33369e-05 -0.0001350014 -0.6228489273 0.5754123303
370297780.0 0.0869156352 -0.0823735877 0.0001194254 -5.20671e-05 4.24993e-05 0.0002580001 -0.6183078028 0.5816532966
375297750.0 0.085250977 -0.0835392046 -0.0001315924 0.0001317047 -1.9673e-06 -6.25846e-05 -0.6115718585 0.5874146154
380297720.0 0.0840223247 -0.0848026189 9.21961e-05 0.0002609459 0.0001716351 0.0001012801 -0.6057053924 0.5940763366
385297690.0 0.0823791732 -0.0860041972 -3.59131e-05 0.0001021192 5.91983e-05 1.19222e-05 -0.5994944707 0.6005822783
390297660.0 0.0810350434 -0.0870274783 6.5326e-06 0.0002169335 3.647e-07 -0.0001686907 -0.594017953 0.6063913582
395297630.0 0.0795587555 -0.0883369705 0.0001279668 -7.12719e-05 7.86298e-05 0.0001681286 -0.5866866924 0.6127459283
400297600.0 0.0783990824 -0.089411697 0.0001757791 -1.31e-07 0.0003458602 -0.0001168525 -0.5806108235 0.6183244137
405297570.0 0.0767903321 -0.0904524189 9.13734e-05 0.0001434077 0.0001857959 -1.19678e-05 -0.5737225492 0.624319973
410297540.0 0.075097238 -0.0915195158 2.82617e-05 0.0001629493 0.0001730742 -1.1787e-06 -0.5675914285 0.6311424424
415297510.0 0.0737370448 -0.0927608644 9.43009e-05 8.7122e-05 4.51365e-05 0.0001000799 -0.5611117512 0.6364496541
420297480.0 0.0722994445 -0.0935078018 0.0001194882 8.28384e-05 -0.0001514532 0.0001650096 -0.5539393902 0.6418226165
425297450.0 0.0709588672 -0.0945814225 0.0001792644 1.55914e-05 9.42608e-05 -0.0001205224 -0.5478180603 0.6475043972
430297420.0 0.0693663852 -0.0958336595 9.65205e-05 0.0001617164 5.50385e-05 8.71714e-05 -0.5416093976 0.6525543093
435297390.0 0.0678347142 -0.0962217699 0.0001363049 0.0003216067 -5.57044e-05 2.10585e-05 -0.5342290017 0.6585703122
440297360.0 0.0660372912 -0.0975979823 9.48591e-05 0.0001916985 0.0002030451 0.0001215287 -0.527133967 0.6637506163
445297330.0 0.0644347327 -0.0984722273 6.85141e-05 0.0002093882 0.0001396318 3.59067e-05 -0.520690545 0.6684135692
450297300.0 0.0632728541 -0.0993448655 8.66729e-05 0.0001930678 0.0001602998 -6.60391e-05 -0.5131968805 0.6738912703
455297270.0 0.0612455842 -0.0999321923 9.73594e-05 8.705e-05 0.0001302914 -1.3312e-05 -0.5066654861 0.6784990384
460297240.0 0.0599384805 -0.1009501966 9.89741e-05 5.00338e-05 6.79922e-05 -8.429e-07 -0.4998713593 0.6841892853
465297210.0 0.0583867646 -0.1014742534 0.0002038556 -0.0001892418 -0.0003009936 4.56537e-05 -0.4924144309 0.6886833704
470297180.0 0.0568085022 -0.1023188123 0.0001670435 0.0002841856 0.0001317179 4.46145e-05 -0.4848421161 0.6946793335
475297150.0 0.0552261766 -0.1033756916 -1.70783e-05 3.46815e-05 0.0001225949 8.69683e-05 -0.4778688325 0.6982383186
480297120.0 0.0537245114 -0.1037129233 0.0001506842 -4.9762e-05 0.0001916111 -0.0001147154 -0.4709483882 0.7037339466
485297090.0 0.0520692831 -0.1046764617 2.98024e-05 -7.61384e-05 0.000126847 -0.0001212106 -0.463768653 0.7080652818
490297060.0 0.050323161 -0.105062285 0.0001956587 4.0674e-06 0.000186067 -2.51949e-05 -0.4559642468 0.7122074586
495297030.0 0.04890607 -0.1057573362 0.0001935565 8.64367e-05 0.0002148325 4.20825e-05 -0.4487789957 0.7175944068
500297000.0 0.0475101772 -0.106623576 0.0002124996 -0.0001164474 0.0001906057 0.0001100222 -0.4412314232 0.722720287
505296970.0 0.0458466336 -0.1071151098 0.000295931 6.60254e-05 6.50022e-05 -0.0001162849 -0.4336807453 0.7263705545
510296940.0 0.0439942817 -0.1076380443 2.28141e-05 3.14191e-05 6.31225e-05 -0.0001392634 -0.4258165302 0.7308865725
515296910.0 0.0425973721 -0.1081784584 -3.13051e-05 0.0001701694 0.000220995 -1.68271e-05 -0.4187119662 0.7346101131
520296880.0 0.0409097836 -0.1088244465 6.84124e-05 0.0001227065 1.54959e-05 1.18862e-05 -0.4116579626 0.7393431408
525296850.0 0.0392613637 -0.1095117671 4.70915e-05 0.0001039132 0.0001104919 7.15652e-05 -0.4044383571 0.7433834049
530296820.0 0.0376074795 -0.1097497508 7.35651e-05 8.94273e-05 -2.74964e-05 -0.0001503553 -0.3968952384 0.747341069
535296790.0 0.0358830648 -0.1100017525 9.4502e-06 -0.000159452 0.0003278277 -0.0001361928 -0.3895086955 0.7509413475
540296760.0 0.0340763977 -0.1105617953 3.48956e-05 7.87341e-05 0.0001590295 0.000104418 -0.3808301235 0.7553491022
545296730.0 0.0324140399 -0.1107747067 0.0003627147 5.13885e-05 0.0001376287 4.9631e-05 -0.3734437969 0.7588932769
550296700.0 0.0312679152 -0.1109269713 0.0002457107 0.0001113239 -8.27661e-05 0.000223547 -0.365906471 0.7632944148
555296670.0 0.0291423516 -0.1116824184 0.0003131972 0.0001412843 0.0001706095 -4.5172e-06 -0.3580526184 0.7673190887
560296640.0 0.0279344741 -0.111597286 0.0001563772 -5.11475e-05 0.0001163353 -9.34361e-05 -0.3500689462 0.7704373715
565296610.0 0.0258987482 -0.1119104066 6.6039e-05 0.0001248406 0.0001447618 2.16923e-05 -0.3425679043 0.7738756381
570296580.0 0.0243657642 -0.1123185435 0.0003381741 7.29599e-05 9.99981e-05 -3.56788e-05 -0.3349861104 0.7771779814
575296550.0 0.0226018546 -0.1121968106 0.0001850468 0.0001737607 -3.27205e-05 -3.49141e-05 -0.3269377267 0.7804277672
580296520.0 0.0208419994 -0.1127002167 0.0001009914 5.90138e-05 -1.08856e-05 -0.0001598622 -0.3181959818 0.7838082744
585296490.0 0.0187230157 -0.1131163847 0.0001522877 6.1185e-05 -0.0001247241 1.69164e-05 -0.3108095548 0.7870218958
590296460.0 0.0177366474 -0.112968039 1.09133e-05 -5.5901e-05 0.0001325321 -0.0001446839 -0.3032779446 0.7896543658
595296430.0 0.0158756091 -0.1133290686 0.000413063 0.0001274867 0.0001967251 -0.0002492102 -0.2948041607 0.792250982
600296400.0 0.0140802177 -0.1134029622 -4.3783e-06 0.0001474508 0.0001055432 5.0585e-05 -0.2867804819 0.795301886
605296370.0 0.0123996405 -0.11345706 0.0001077953 7.97954e-05 -4.21446e-05 4.60746e-05 -0.2783695277 0.7983477985
610296340.0 0.0105642529 -0.1137571837 0.0002519649 1.037e-07 3.91493e-05 -4.62044e-05 -0.2706334382 0.8010379567
615296310.0 0.0092973469 -0.1138488676 0.0003305867 -0.0001936885 -2.26553e-05 6.13403e-05 -0.2618255632 0.8032644983
620296280.0 0.0070966285 -0.1136678611 0.0002772037 9.6083e-06 -8.18137e-05 -2.07072e-05 -0.254702012 0.8063614535
625296250.0 0.0055559365 -0.1140076986 0.0002002082 0.00013035 0.0001642983 -7.03672e-05 -0.2453226463 0.8082413259
630296220.0 0.0045392396 -0.1140550761 0.0001837371 -0.0002866853 0.000179254 -0.0001353946 -0.2382611974 0.8106314452
635296190.0 0.0023711574 -0.1138579831 0.0001159432 -0.0002183202 7.82585e-05 3.53048e-05 -0.2295267375 0.8128135871
640296160.0 0.0007264865 -0.11388609 0.0002011511 -0.0001030713 6.14331e-05 0.0002653803 -0.2213623604 0.8156908211
645296130.0 -0.0010127966 -0.1134854996 5.04945e-05 -0.0001860257 5.95753e-05 0.0001709195 -0.213597764 0.8174354838
650296100.0 -0.0024558585 -0.1136249845 0.0001145347 -6.30145e-05 0.0002897396 -0.0001773838 -0.2052199207 0.8190256538
655296070.0 -0.0044397796 -0.11343628 0.0001781703 -2.41776e-05 0.0002714566 0.0001030255 -0.1966138647 0.8207279322
660296040.0 -0.0062266698 -0.1131253829 0.0001286114 -0.0003302601 0.0002277106 -3.38135e-05 -0.18785781 0.8232286856
665296010.0 -0.0075737638 -0.1132532135 0.0002188608 -0.0001005067 0.000171393 -0.0001031743 -0.1795959633 0.8256919073
670295980.0 -0.0096405789 -0.112743138 0.0001757031 0.0002949802 -7.3803e-06 -0.0001635181 -0.1719617086 0.8270056157
675295950.0 -0.011004208 -0.1123527527 0.0002024393 5.84481e-05 0.0002274794 -5.069e-07 -0.1637145836 0.8281321449
680295920.0 -0.0126923357 -0.11228507 0.0001440313 -4.70556e-05 0.000312904 0.0001310843 -0.1551183061 0.8312194561
685295890.0 -0.0139969726 -0.1119645029 0.0001576735 2.25955e-05 -4.7607e-05 6.2582e-05 -0.1461470856 0.8322496673
690295860.0 -0.0156557604 -0.1116124469 0.0002177539 -4.85024e-05 6.48721e-05 -0.0001408418 -0.1386511314 0.8337003888
695295830.0 -0.0173771482 -0.1113582247 0.0001270329 -5.07534e-05 0.00023613 -8.91197e-05 -0.1296321848 0.8346961337
700295800.0 -0.0190646939 -0.111353053 -8.19734e-05 0.0001210811 0.0001575765 7.89839e-05 -0.1222676047 0.8357909596
705295770.0 -0.0210492899 -0.110507937 0.0001460534 8.37103e-05 4.77344e-05 -5.57326e-05 -0.1133836314 0.8377848873
710295740.0 -0.0224791484 -0.1102518324 4.9987e-05 7.76511e-05 0.00036706 -8.52711e-05 -0.1054629443 0.838540224
715295710.0 -0.0242756364 -0.1101288029 0.0001950006 0.0001073122 0.0002615058 -1.74586e-05 -0.0967147259 0.838879494
720295680.0 -0.0258422302 -0.1095567378 0.0001093016 0.0002051653 9.16898e-05 -3.7729e-05 -0.0877375447 0.8406382837
725295650.0 -0.0274540322 -0.1088768699 -7.4113e-05 5.56633e-05 0.0001990463 -0.0001098253 -0.0801221453 0.8416542877
730295620.0 -0.0290647065 -0.1084597231 6.55042e-05 0.0001333968 0.0002782368 0.0002054789 -0.0720952869 0.8420253553
735295590.0 -0.0305297105 -0.1080432681 0.0003414007 2.01903e-05 0.0003616812 -8.5026e-05 -0.0636360508 0.8425404801
740295560.0 -0.0322993107 -0.1073386544 0.0001440418 -4.94886e-05 0.0002014556 6.0377e-05 -0.054628459 0.8435786722
745295530.0 -0.0341413459 -0.1067262614 0.0001414697 -0.0001636442 0.0003128175 -0.0002236893 -0.0460804653 0.8433195971
750295500.0 -0.035442213 -0.1063863669 -0.0001908563 -0.0001232043 0.000342342 -0.00024851 -0.0382259845 0.8440956414
755295470.0 -0.0367892336 -0.1056978724 0.0001642433 5.54957e-05 -7.40597e-05 0.0001052808 -0.0298988297 0.8438836643
760295440.0 -0.0387272442 -0.1050574625 0.0001558655 -0.0001632187 0.000382353 -3.36514e-05 -0.0210605492 0.8440317145
765295410.0 -0.0401403983 -0.1044248027 0.0003237262 -0.0003172848 0.0002578784 0.0001527815 -0.012805601 0.8449372198
770295380.0 -0.0417493864 -0.1040234285 0.0003304429 0.0004516374 5.97486e-05 5.10666e-05 -0.0045786477 0.8444812313
775295350.0 -0.0434437534 -0.1034326148 3.33297e-05 6.0765e-05 0.0001394662 -2.88486e-05 0.0037932376 0.8444358166
780295320.0 -0.0447487757 -0.1026644539 0.0002767499 0.0001258452 6.09459e-05 -7.23112e-05 0.011847243 0.8443176265
785295290.0 -0.046425847 -0.1022546384 6.6764e-05 1.63026e-05 0.0001311655 -0.0001964777 0.0209933191 0.8440271247
790295260.0 -0.0478029493 -0.1010546437 5.04783e-05 -0.000114951 0.0002588227 -6.76784e-05 0.0297006618 0.8438989633
795295230.0 -0.0492588909 -0.100530208 8.55038e-05 -0.0002099494 7.97376e-05 7.91953e-05 0.0385877243 0.8428573878
800295200.0 -0.0509788414 -0.0993979439 4.55533e-05 -3.40879e-05 0.0002284719 6.88856e-05 0.0468435358 0.8429003776
805295170.0 -0.0522908207 -0.0990068581 0.0002041333 4.07876e-05 -6.82502e-05 -0.0001733821 0.0545684025 0.8424591681
810295140.0 -0.0535044967 -0.0982477617 5.81805e-05 -6.53157e-05 2.07759e-05 -9.3968e-06 0.0636961175 0.8420183074
815295110.0 -0.0553516437 -0.09753416 0.0001617336 -1.36174e-05 0.0001401979 0.0001009899 0.071972398 0.8406677371
820295080.0 -0.0565700728 -0.0962688832 3.66538e-05 -4.21445e-05 0.000133234 -0.0001477211 0.0799624407 0.8405985906
825295050.0 -0.0578385861 -0.0955504636 0.0002676065 4.43029e-05 0.0001602889 -0.0002690068 0.088238394 0.8393856136
830295020.0 -0.0594550225 -0.0944396784 -6.8453e-05 6.80899e-05 0.0001819928 -0.0001159535 0.0975168567 0.8386279441
835294990.0 -0.0609537243 -0.0937124363 0.000179079 -0.0001427987 2.58796e-05 -0.0001193028 0.1048757708 0.8377254626
840294960.0 -0.062315076 -0.0927703937 0.0002221628 0.0001798412 0.0001154195 8.75254e-05 0.1137011639 0.8361788187
845294930.0 -0.0637223299 -0.0916254781 -3.84055e-05 -0.0001830331 0.0002174737 -1.32633e-05 0.1211705155 0.8353015202
850294900.0 -0.064903237 -0.0907362281 0.0002637956 2.1586e-05 0.0002047187 -0.0001301226 0.1296463201 0.8343587698
