!Created with skrf (http://scikit-rf.org).
# Hz S RI R 50.0 
!freq ReS11 ImS11 ReS21 ImS21 ReS12 ImS12 ReS22 ImS22
300000.0 -0.2326165171 -0.1373910115 0.4652184003 0.0864208124 0.4671883392 0.0872092943 -0.2363094423 -0.1297315904
5299970.0 -0.2417423623 0.0052551076 0.4746630493 0.0060533948 0.4751973876 0.0059781691 -0.244215491 0.0043880093
10299940.0 -0.2390121009 0.0185676709 0.4774022931 0.0068943119 0.4771217819 0.0072366511 -0.2407516332 0.017281596
15299910.0 -0.2337744773 0.0287130781 0.4806485157 0.0081460745 0.4807310997 0.0079980701 -0.236419579 0.0262665203
20299880.0 -0.2283335227 0.0369543887 0.4853923699 0.0080847065 0.4855846507 0.0082986229 -0.2319114537 0.0336980721
25299850.0 -0.2225056858 0.0435682712 0.4906895555 0.0079366102 0.4909724527 0.00717673 -0.2266676087 0.040039556
30299820.0 -0.2172323996 0.0487070143 0.4961498524 0.0052219418 0.4959474076 0.0053000857 -0.2214624402 0.0447205749
35299790.0 -0.2112263252 0.0527122735 0.500908715 0.0021425424 0.5013065316 0.0016721567 -0.2167757156 0.0489563891
40299760.0 -0.206044925 0.0561425203 0.5063819108 -0.0019630457 0.5064913106 -0.0021650171 -0.2118921143 0.0521643999
45299730.0 -0.2010405608 0.0590326934 0.511469798 -0.0068742644 0.5115824122 -0.0070872061 -0.2066288503 0.0546940448
50299700.0 -0.196092017 0.0608930187 0.5153199081 -0.0126752135 0.5154168675 -0.0125665595 -0.2024388822 0.0571507925
55299670.0 -0.1919952963 0.0625011264 0.5190553643 -0.0178825754 0.5188624229 -0.018173365 -0.199000445 0.0584835787
60299640.0 -0.1876984195 0.0641277078 0.522037539 -0.0245749151 0.5224376837 -0.0248776982 -0.1950739004 0.0597013267
65299610.0 -0.1840446598 0.0652761086 0.5254702288 -0.0310057448 0.5254465621 -0.0307922911 -0.1917242149 0.0608088062
70299580.0 -0.1807828783 0.0659096622 0.5275333524 -0.037692219 0.5277464275 -0.0375328889 -0.1890399533 0.061791922
75299550.0 -0.1779747307 0.0667979994 0.5291768647 -0.044374068 0.5298024588 -0.0446401251 -0.185972879 0.0627784662
80299520.0 -0.1752308854 0.0679255732 0.5317206062 -0.0512433348 0.5319976122 -0.0516102413 -0.1834859896 0.0637987977
85299490.0 -0.1726798991 0.0682670724 0.5328470164 -0.0581859408 0.5328989462 -0.0580646219 -0.1817429672 0.0640219434
90299460.0 -0.17006554 0.0688601979 0.5337234884 -0.0646872087 0.5334520685 -0.0648129732 -0.179093944 0.0650343767
95299430.0 -0.167840001 0.0696833336 0.5344700137 -0.0723492585 0.5347933275 -0.0724257059 -0.1774460498 0.0658436125
100299400.0 -0.165862834 0.0702794204 0.5347720497 -0.0786117193 0.535184549 -0.0790737562 -0.1756735072 0.0664551026
105299370.0 -0.1638781465 0.0707633896 0.5349458846 -0.0857914139 0.5355579484 -0.0857769959 -0.1736825841 0.0666619372
110299340.0 -0.1622502262 0.0716275605 0.5352284064 -0.0920261799 0.5359218189 -0.092315463 -0.1726109359 0.067445174
115299310.0 -0.160897123 0.0724905421 0.5352132757 -0.099101548 0.5356039063 -0.0990134793 -0.1713489901 0.0685840565
120299280.0 -0.1591112331 0.0732697284 0.5351063546 -0.1063958484 0.5351647503 -0.1063307653 -0.1700193581 0.0686814306
125299250.0 -0.1578364296 0.0741338436 0.5348635679 -0.1128747147 0.5349785523 -0.1128125958 -0.1687689284 0.0697963059
130299220.0 -0.1564933718 0.074661356 0.5340118489 -0.1199019869 0.5342093557 -0.1203878849 -0.1674504336 0.0705958137
135299190.0 -0.1555346038 0.0758571672 0.5335085302 -0.1259637004 0.5341498288 -0.1268306559 -0.1664737177 0.0710204402
140299160.0 -0.1541034518 0.0768473487 0.5328538701 -0.1330919637 0.5331433643 -0.1327590312 -0.166220114 0.0720435953
145299130.0 -0.1535081771 0.0779250736 0.5318000028 -0.1394598688 0.5321505 -0.1392962443 -0.1649459971 0.0729654053
150299100.0 -0.1522666663 0.0788465433 0.5306523811 -0.1459969507 0.5306173456 -0.1462640067 -0.1640163839 0.0739869071
155299070.0 -0.150708458 0.0799806732 0.5288827277 -0.152314129 0.52954796 -0.1527351535 -0.1629245236 0.0747492352
160299040.0 -0.1498346998 0.0812281467 0.5280670744 -0.1589904893 0.5283657267 -0.1592025091 -0.1627941193 0.0762520091
165299010.0 -0.1490226708 0.0822188633 0.5265854745 -0.1652566438 0.5267983162 -0.1655303993 -0.1614535118 0.0767275549
170298980.0 -0.1477702787 0.0836760014 0.5249978375 -0.171960382 0.5252855076 -0.1721223533 -0.1609061829 0.0778470988
175298950.0 -0.1467318074 0.0847312915 0.5236896074 -0.1776538542 0.5240403552 -0.1781971913 -0.1603245823 0.0791585811
180298920.0 -0.1458940733 0.0862507735 0.5217623996 -0.1845910072 0.5218477031 -0.184400523 -0.1590401365 0.0799824101
185298890.0 -0.1450625911 0.087024899 0.5203561133 -0.1907631469 0.5198505645 -0.1902995087 -0.1582226001 0.0812783518
190298860.0 -0.1439555516 0.0888380976 0.5178818814 -0.1969299216 0.5183688729 -0.1965380482 -0.1578644178 0.082358088
195298830.0 -0.1428744688 0.0899652678 0.5164290738 -0.2026702048 0.5163031886 -0.2029940001 -0.1571381126 0.083571037
200298800.0 -0.1416772708 0.0912574543 0.5141162456 -0.2091929421 0.5139961267 -0.2092777055 -0.1561297605 0.0845410111
205298770.0 -0.1414770513 0.0925344786 0.5116469744 -0.21465112 0.5119892359 -0.2146077472 -0.1553728111 0.0859758184
210298740.0 -0.1401107669 0.0940920817 0.5096183522 -0.2207463584 0.5095505866 -0.2213504289 -0.1550863527 0.0872429361
215298710.0 -0.1393180262 0.0955775215 0.5069194997 -0.2265867008 0.5072115934 -0.2268771146 -0.1538437511 0.0884120697
220298680.0 -0.1381153706 0.0969656547 0.5042866842 -0.232386461 0.5048382888 -0.2330220167 -0.1531488878 0.0895092878
225298650.0 -0.1373055699 0.098381665 0.5018931689 -0.2384664568 0.5024284797 -0.238079628 -0.152668798 0.0906799567
230298620.0 -0.135970265 0.1000147405 0.4997009022 -0.2444016693 0.4998721247 -0.2445862875 -0.1520397202 0.0919981254
235298590.0 -0.1352892819 0.1012169784 0.4973930149 -0.2504472342 0.4970538723 -0.2501854776 -0.1509354545 0.0933962011
240298560.0 -0.1342339995 0.1027606093 0.4942012537 -0.2555831613 0.49460023 -0.2555535128 -0.1502595765 0.09472478
245298530.0 -0.133114631 0.1040419351 0.4915595088 -0.2614312545 0.4917293588 -0.2615334766 -0.1495926178 0.0959724676
250298500.0 -0.1322904645 0.1054041751 0.4889593691 -0.2668403683 0.4891297338 -0.2668683589 -0.1489008452 0.0976179937
255298470.0 -0.1310153132 0.1071183538 0.4861279553 -0.2723237387 0.4863912062 -0.2727216617 -0.1479729009 0.0989214535
260298440.0 -0.1302755736 0.1084835617 0.4830014942 -0.2776564574 0.4833198846 -0.2776632336 -0.1473770818 0.0998662915
265298410.0 -0.1293997519 0.110082452 0.4800206306 -0.2838272038 0.4798181122 -0.284004149 -0.1457888963 0.1010077195
270298380.0 -0.1282940283 0.1113619606 0.4768193072 -0.2895559468 0.4768824953 -0.28947649 -0.1450612302 0.1027923263
275298350.0 -0.1270190067 0.1128469489 0.4732478391 -0.2941971715 0.4736444274 -0.2944656228 -0.144381935 0.1040491189
280298320.0 -0.1262616918 0.1141963161 0.4708100945 -0.2994731455 0.4712075606 -0.3002964057 -0.1431981734 0.1055948602
285298290.0 -0.1248464736 0.1158729089 0.4672008393 -0.3053094134 0.467619544 -0.3051098247 -0.1424132556 0.1069590454
290298260.0 -0.12378868 0.1174217247 0.4647748074 -0.3101318501 0.4643278933 -0.3101901209 -0.1414099328 0.108021072
295298230.0 -0.1228478587 0.1184583502 0.4609367511 -0.3158679866 0.4611324765 -0.3161920877 -0.1406336353 0.1092878394
300298200.0 -0.1212794533 0.1203968972 0.4577690225 -0.3208750413 0.4579168418 -0.3209236458 -0.1395220285 0.1109154251
305298170.0 -0.1200575592 0.1212830906 0.4540347281 -0.3263279094 0.4544728726 -0.326299319 -0.1383889203 0.1116026241
310298140.0 -0.1184861363 0.122541586 0.4506709664 -0.3313708977 0.4508332126 -0.3311953027 -0.1372071359 0.1129486698
315298110.0 -0.1177089995 0.1237457348 0.4469566904 -0.3364950176 0.4470971962 -0.3371463897 -0.136224365 0.114472499
320298080.0 -0.116491814 0.1250630967 0.4427941351 -0.3418628808 0.4436198921 -0.3418294982 -0.1357830602 0.1154203441
325298050.0 -0.1158534891 0.125896196 0.4390193874 -0.3467113288 0.439845264 -0.3467570675 -0.1344312623 0.1167054742
330298020.0 -0.1147451603 0.1278278965 0.4350176894 -0.3519197471 0.4357875956 -0.3515708116 -0.1339736487 0.1177851403
335297990.0 -0.1133302143 0.1291294877 0.4314926149 -0.3565593529 0.4315669579 -0.3567455403 -0.1328623425 0.1193813445
340297960.0 -0.112159869 0.1303802537 0.42687302 -0.3618753174 0.4272160678 -0.361642031 -0.1319784657 0.121074808
345297930.0 -0.1111405153 0.1316767451 0.4232062004 -0.3661565815 0.4230966185 -0.3664766998 -0.1309181193 0.121953067
350297900.0 -0.110042659 0.1328936342 0.4189071671 -0.3707941194 0.4197251951 -0.3706942792 -0.1300938559 0.1231277648
355297870.0 -0.1088104272 0.1341343105 0.4151311479 -0.3748431766 0.4151456477 -0.3748442355 -0.1289290583 0.1246361932
360297840.0 -0.107345354 0.1356813234 0.4106450689 -0.3798255857 0.4113111556 -0.3799435116 -0.1278435413 0.1261314391
365297810.0 -0.1063796054 0.1372288235 0.4066563759 -0.3841241377 0.4068752616 -0.3847140413 -0.1270350152 0.1277060231
370297780.0 -0.1046332791 0.1381231282 0.4020184463 -0.3887743298 0.4024737461 -0.3888289785 -0.1258009584 0.1288962652
375297750.0 -0.1031730812 0.1393906404 0.3980383735 -0.3928095575 0.3983783082 -0.3932257451 -0.1243528975 0.1302761294
380297720.0 -0.1020291631 0.1411930023 0.3944023544 -0.3981441988 0.393944352 -0.3976014406 -0.1232038979 0.1316213664
385297690.0 -0.1009796112 0.1421266 0.389338234 -0.4018636402 0.3898195991 -0.4023379899 -0.1219736287 0.1333484163
390297660.0 -0.0991304315 0.1433110462 0.3846991261 -0.4054515363 0.3854060668 -0.4060422435 -0.120371146 0.134007594
395297630.0 -0.097543954 0.1446150052 0.3809475454 -0.4097187926 0.3809966758 -0.4100284905 -0.1196914056 0.1353668838
400297600.0 -0.0964020127 0.14577862 0.37611937 -0.4141347048 0.3762790237 -0.4143130772 -0.11821472 0.137012298
405297570.0 -0.0949538611 0.1463931683 0.3719354763 -0.4181459118 0.3718796026 -0.4188167666 -0.1164547387 0.1385602736
410297540.0 -0.0930355191 0.1480361884 0.3670828754 -0.42270994 0.3672881023 -0.42268844 -0.1154660218 0.1399020723
415297510.0 -0.0918003279 0.1491529499 0.3619539826 -0.4266342832 0.3630005158 -0.4266525036 -0.1139029408 0.1407458119
420297480.0 -0.0902402074 0.1498860929 0.3578123755 -0.4303234034 0.3580716106 -0.4306401095 -0.1125672512 0.1422622656
425297450.0 -0.0880931669 0.1511300173 0.3531490107 -0.4340923131 0.3531168599 -0.4340570389 -0.1115220424 0.1430238298
430297420.0 -0.0870428815 0.1524431377 0.3485918123 -0.4382011222 0.3487000817 -0.437818298 -0.1094623921 0.144569034
435297390.0 -0.0852777179 0.1532834676 0.3434956343 -0.44230231 0.3434456652 -0.4418463289 -0.1089553267 0.1459221844
440297360.0 -0.08342203 0.1542090299 0.3384126004 -0.445457762 0.3382685716 -0.4458954539 -0.107405682 0.1470323066
445297330.0 -0.0817116615 0.1550088744 0.3339789685 -0.4489591842 0.3340301006 -0.4496398764 -0.1057958885 0.1484589352
450297300.0 -0.0800623116 0.1564125762 0.328915361 -0.4527611783 0.3293776966 -0.4526413896 -0.1045148193 0.1496346699
455297270.0 -0.0788233786 0.1570435216 0.3240913652 -0.4560461923 0.3240968081 -0.4567693448 -0.1029619309 0.1507293965
460297240.0 -0.0766369979 0.1584215989 0.3190409523 -0.4604386939 0.318856934 -0.4603402441 -0.101453042 0.1516182358
465297210.0 -0.0749182893 0.1589870675 0.3134671961 -0.4633799544 0.3135469243 -0.4639614542 -0.0995838359 0.1535135321
470297180.0 -0.0731076499 0.1600240516 0.3084611125 -0.4664693845 0.3090661543 -0.4666578552 -0.0981615931 0.153958257
475297150.0 -0.0716227298 0.1611521714 0.3037734744 -0.470448582 0.303829321 -0.470088013 -0.0969081399 0.1549288978
480297120.0 -0.0692465083 0.1625264908 0.2982636203 -0.4741015128 0.2988780602 -0.4734360514 -0.0956782512 0.1558917001
485297090.0 -0.0677061123 0.1624447403 0.2931929473 -0.476811389 0.2933771704 -0.4769302122 -0.0940502484 0.1575712754
490297060.0 -0.0656275066 0.1637840844 0.2879105012 -0.4802779845 0.288075569 -0.4800414315 -0.0926510263 0.158200815
495297030.0 -0.063851187 0.1643513034 0.282909869 -0.483173726 0.2826938042 -0.483137708 -0.0904923556 0.1594528238
500297000.0 -0.0623253926 0.1653785829 0.2776967348 -0.4859886601 0.2773538947 -0.4865169503 -0.0888626711 0.1606814693
505296970.0 -0.060038695 0.1662792379 0.272588398 -0.4891261341 0.2723166849 -0.4888936183 -0.0875485725 0.1610281685
510296940.0 -0.057970077 0.1668068204 0.2672815631 -0.4924919525 0.2671367366 -0.4925402741 -0.0855553566 0.1623278076
515296910.0 -0.056194674 0.1679693222 0.2611095828 -0.4949207239 0.2612960705 -0.4947228008 -0.0843479329 0.1627323718
520296880.0 -0.0542474969 0.1686079918 0.2562487893 -0.4976653815 0.2559850025 -0.4970485016 -0.0822523647 0.1641872278
525296850.0 -0.052292347 0.1690024063 0.2506543734 -0.4998619306 0.2505350985 -0.5004045025 -0.0809111316 0.1650747352
530296820.0 -0.0508441013 0.1697328362 0.2450687349 -0.5030324356 0.2453170109 -0.502896894 -0.0792746744 0.1658229199
535296790.0 -0.0480826904 0.1707247781 0.2396765783 -0.5054126374 0.2396116615 -0.5053554212 -0.0772957971 0.1669209531
540296760.0 -0.046296313 0.1714022347 0.2340290468 -0.5079931163 0.2338840993 -0.5079733847 -0.0760081139 0.1675067194
545296730.0 -0.0447215811 0.1724367849 0.2287936519 -0.5103761298 0.2284021349 -0.5102720951 -0.0740099017 0.1684240577
550296700.0 -0.0421183832 0.1730352193 0.2229333776 -0.5130369284 0.2224535529 -0.5133917939 -0.0722726963 0.1693402674
555296670.0 -0.0403317724 0.1733831005 0.2174502838 -0.5157859785 0.2173070106 -0.5156056135 -0.0709261282 0.1696648436
560296640.0 -0.0379521414 0.1739427741 0.2113936711 -0.5178323301 0.2116509063 -0.5176505482 -0.0689313462 0.1711580937
565296610.0 -0.0366030748 0.1745243436 0.2065327619 -0.5196753255 0.2064884041 -0.5195915494 -0.067324446 0.1719378135
570296580.0 -0.0342722269 0.17540208 0.2004288512 -0.5218792288 0.2003166814 -0.5222816503 -0.0656239378 0.1727273395
575296550.0 -0.0320627314 0.1759048449 0.1950413417 -0.5245294769 0.1948166565 -0.5242557154 -0.064097149 0.1733176109
580296520.0 -0.0300158349 0.1763920687 0.1891545318 -0.5262451823 0.1891006193 -0.5265109796 -0.0627255131 0.174272146
585296490.0 -0.0280955018 0.1770083753 0.1837222606 -0.527987935 0.183164213 -0.5283889876 -0.0606565209 0.1752479085
590296460.0 -0.0253923624 0.1774923005 0.1778703974 -0.5298586058 0.1777138748 -0.5305773716 -0.0590010607 0.1758055299
595296430.0 -0.0237422865 0.178008584 0.1715761489 -0.5318096752 0.1717044263 -0.5322431044 -0.0569936273 0.1759444516
600296400.0 -0.0216178043 0.1784654076 0.1658916567 -0.5335592013 0.1657054721 -0.5340101919 -0.0551470616 0.1766791082
605296370.0 -0.0200281174 0.1787419884 0.1606458838 -0.5352031862 0.1599159093 -0.5360241141 -0.0534459451 0.1779288702
610296340.0 -0.0174927565 0.179810103 0.1545031667 -0.5364981993 0.1549899346 -0.5371951307 -0.0521695563 0.1782989252
615296310.0 -0.0148573804 0.179748081 0.1487765063 -0.5392442798 0.1480099739 -0.53890606 -0.0499548523 0.1788805532
620296280.0 -0.0134955925 0.1804795099 0.1426601709 -0.5402927815 0.1426588107 -0.5401201076 -0.0486650408 0.1797979983
625296250.0 -0.0117525615 0.180472696 0.1368017122 -0.5419627976 0.1367064336 -0.5420933643 -0.0470418619 0.180249255
630296220.0 -0.0093898409 0.1811783031 0.1306477903 -0.5435049634 0.1308626182 -0.5434371567 -0.0449256056 0.180800806
635296190.0 -0.0074870082 0.1817257123 0.1254586764 -0.5446443078 0.1248867476 -0.5445510519 -0.0432357506 0.1813619892
640296160.0 -0.0054607534 0.1819536438 0.1193783951 -0.5457852551 0.11911578 -0.5460126172 -0.0415172701 0.1819193944
645296130.0 -0.0026799873 0.1825791552 0.1131165948 -0.5471891249 0.1130537325 -0.546835279 -0.0398277473 0.1820815019
650296100.0 -0.0010161269 0.182486776 0.1074456581 -0.5483839664 0.1069234026 -0.5484857727 -0.0372404251 0.1828117246
655296070.0 0.0006859421 0.1826199923 0.1009944598 -0.5494547953 0.1011146772 -0.5491137171 -0.0363048813 0.1835657269
660296040.0 0.002998731 0.1830936447 0.0954646361 -0.550471816 0.0955398062 -0.550451755 -0.0343117958 0.1835390495
665296010.0 0.0052137058 0.1834112135 0.0889079502 -0.5510259854 0.0891562231 -0.5511549364 -0.032588369 0.1842415671
670295980.0 0.0073817852 0.183651856 0.0831168863 -0.5521822391 0.0836091201 -0.5517294524 -0.0311728913 0.1844643411
675295950.0 0.0090723253 0.1838314977 0.0775054238 -0.5527802665 0.0774509808 -0.553352007 -0.0291991757 0.1851448833
680295920.0 0.0112612367 0.1841943631 0.0717857569 -0.553336626 0.0715087981 -0.5536849009 -0.0270088282 0.185405815
685295890.0 0.0132440605 0.184466715 0.0653254333 -0.5553133083 0.0655849298 -0.5545189177 -0.025247368 0.1861976738
690295860.0 0.0147683686 0.1843600395 0.0593643792 -0.5551005207 0.0591696567 -0.5556059197 -0.0234683936 0.1865189788
695295830.0 0.017164812 0.1845352311 0.0540559174 -0.555874743 0.0538542421 -0.5556292023 -0.0217180425 0.1866612443
700295800.0 0.0195576612 0.1845973338 0.0484936289 -0.5564514092 0.0478675938 -0.5564484072 -0.0197828804 0.1873072955
705295770.0 0.0210737938 0.184810985 0.0418075355 -0.5572574202 0.041896538 -0.5566653594 -0.018443425 0.1875950991
710295740.0 0.0232752432 0.1846452789 0.0355550602 -0.5572655845 0.0357733585 -0.5575087323 -0.0162704436 0.1880349134
715295710.0 0.0252342547 0.1849396459 0.0297936772 -0.5575766268 0.029721279 -0.5576457658 -0.014633763 0.1879624264
720295680.0 0.0276882497 0.1845556595 0.0235607511 -0.5576882744 0.0233124159 -0.5579967436 -0.0128491329 0.1884734914
725295650.0 0.0290228346 0.1847502248 0.0180609569 -0.5576647628 0.0178338725 -0.5581132866 -0.0109133763 0.1889100256
730295620.0 0.0306433285 0.1845122746 0.0118056415 -0.557807283 0.0116992609 -0.5575455095 -0.0091333581 0.189690126
735295590.0 0.0329880266 0.1849810272 0.0055289987 -0.5584404767 0.005705651 -0.5582184519 -0.0074214914 0.1890811029
740295560.0 0.0349011415 0.1841988867 -7.12613e-05 -0.5583817162 -0.0002249664 -0.558524638 -0.0058281182 0.1899784075
745295530.0 0.0371142579 0.1842716736 -0.0062774754 -0.5576875958 -0.0055191473 -0.5581044476 -0.0040330954 0.1896548883
750295500.0 0.038550081 0.1841945795 -0.0115104253 -0.5580553175 -0.0124413485 -0.5577657631 -0.0019407979 0.1900836249
755295470.0 0.0404290422 0.1839883801 -0.0177343184 -0.5580295456 -0.0181804879 -0.557941723 4.87355e-05 0.1907997383
760295440.0 0.0425285571 0.1842546388 -0.0245369903 -0.5575921819 -0.0240774307 -0.5572326732 0.0018964117 0.1898344534
765295410.0 0.0447739063 0.1836605649 -0.0300707364 -0.5570923891 -0.0298756636 -0.5570052417 0.0034442637 0.19042632
770295380.0 0.0466614858 0.1836657141 -0.0361196026 -0.5565538894 -0.0359064466 -0.5570872599 0.0054046486 0.1904913669
775295350.0 0.0485041182 0.1831567808 -0.0420774278 -0.5563991349 -0.0418356913 -0.5561463864 0.0073486658 0.1908075926
780295320.0 0.0502412581 0.1829817141 -0.0477743298 -0.5555025459 -0.0476476906 -0.5557720723 0.0096530296 0.1908724971
785295290.0 0.0522157705 0.1823367832 -0.0532850952 -0.5554953067 -0.053809326 -0.555217291 0.0109195035 0.1913832771
790295260.0 0.0543414889 0.1817839956 -0.0596540467 -0.5546294625 -0.0595543061 -0.5551118788 0.0124116661 0.1913827591
795295230.0 0.0560180046 0.1816625685 -0.0657247834 -0.554295264 -0.0659998991 -0.5542149681 0.0147411836 0.1904983351
800295200.0 0.0577815783 0.1813185014 -0.0713952645 -0.5528771312 -0.0720531721 -0.5535911087 0.0160850067 0.1913087628
805295170.0 0.0595666467 0.1809071468 -0.0774007032 -0.5522787268 -0.0774507276 -0.5527163305 0.0186871694 0.1911643473
810295140.0 0.0617792996 0.1807536343 -0.0835902487 -0.5512579153 -0.0836689142 -0.5517035268 0.0202598061 0.1911686861
815295110.0 0.0633285284 0.1800925558 -0.0888255776 -0.5506607934 -0.0889237066 -0.5507529402 0.0218969785 0.1910545783
820295080.0 0.0652430546 0.179548277 -0.0945519557 -0.5495229158 -0.0949132413 -0.5502734448 0.022997669 0.1915650671
825295050.0 0.066901089 0.1787887616 -0.1010023338 -0.5486859876 -0.1013567798 -0.5486305297 0.0258520117 0.1913954633
830295020.0 0.0690238804 0.178278643 -0.1070711188 -0.5473810859 -0.1068882053 -0.5469502933 0.0272919522 0.1908851002
