!Created with skrf (http://scikit-rf.org).
# Hz S RI R 50.0 
!freq ReS11 ImS11 ReS21 ImS21 ReS12 ImS12 ReS22 ImS22
300000.0 -0.3233153251 -0.0831909138 0.3784979594 0.0439357477 0.3741615135 0.042740444 -0.3207648998 -0.1004736415
5299970.0 -0.3264909296 0.0043293807 0.3782730493 0.0024345367 0.3783858905 0.0026470321 -0.3240863812 0.0049080828
10299940.0 -0.3243497242 0.0132461689 0.3794517586 0.0020450155 0.3796733958 0.0023387092 -0.3217533186 0.0159648077
15299910.0 -0.3214298104 0.0203069671 0.3819061663 0.0019114399 0.3819871215 0.0024535708 -0.3182922718 0.0239467
20299880.0 -0.3186400538 0.0263793433 0.3849855308 0.0018796444 0.3850554801 0.0017113542 -0.3147506584 0.030473301
25299850.0 -0.3155806978 0.0314510205 0.3881516603 9.93565e-05 0.3880528632 0.0004193157 -0.3108600285 0.0359671207
30299820.0 -0.3127315035 0.0358757156 0.3914650445 -0.0022955488 0.3914065518 -0.002321268 -0.3072526656 0.0406637997
35299790.0 -0.3098992071 0.0397331187 0.3948556356 -0.0052562776 0.3948648492 -0.005412979 -0.3033848414 0.045077139
40299760.0 -0.3073199545 0.0436532655 0.3981046478 -0.0088120891 0.3981789092 -0.0088414616 -0.3002929719 0.0484694506
45299730.0 -0.3045485892 0.0466863561 0.4009094564 -0.0127148713 0.4009406077 -0.0124478285 -0.2973576251 0.0515491525
50299700.0 -0.3025086217 0.0494855716 0.4034568782 -0.0173407969 0.4036041513 -0.0169291176 -0.2944064927 0.054438105
55299670.0 -0.3001784355 0.0520691295 0.4056640985 -0.0222880808 0.4057020612 -0.0221215072 -0.2917028431 0.0572160423
60299640.0 -0.2980244501 0.0549807565 0.4071804853 -0.0268389026 0.4077630703 -0.0267375321 -0.2891103231 0.0592111276
65299610.0 -0.2964033676 0.0573004408 0.4091768178 -0.0318493178 0.4094895219 -0.0318506112 -0.2872103344 0.0615087724
70299580.0 -0.2947686346 0.0601154036 0.4104502933 -0.0372158154 0.4105109099 -0.0366346996 -0.2852231861 0.0637238409
75299550.0 -0.2931161835 0.0623061792 0.4111952494 -0.041820888 0.4113331495 -0.0422574943 -0.2831673956 0.0658399657
80299520.0 -0.2913416097 0.0650566607 0.4121973241 -0.0475350081 0.4123515986 -0.0475003883 -0.2813367582 0.0682575828
85299490.0 -0.2904633632 0.0668990005 0.4128196869 -0.0523545669 0.4129292625 -0.0523639525 -0.28002142 0.0698595426
90299460.0 -0.2888147365 0.0691884481 0.41330809 -0.0579281687 0.4134690142 -0.0578876057 -0.2780635622 0.071995034
95299430.0 -0.2872204084 0.0716028963 0.4137111327 -0.0631460101 0.4135174806 -0.0634164119 -0.2769433485 0.0747225935
100299400.0 -0.2862840003 0.0739863848 0.4133066777 -0.0682451311 0.4132365145 -0.0682110378 -0.2751871872 0.0760115243
105299370.0 -0.2851452432 0.0763821702 0.4129949943 -0.0736942349 0.4136154717 -0.0735363244 -0.273737894 0.0780590976
110299340.0 -0.2841588788 0.0786114123 0.4134240318 -0.0784429992 0.4132795636 -0.0785070401 -0.2728146183 0.0803527797
115299310.0 -0.282795444 0.0810810727 0.4131629278 -0.0838861382 0.4128849673 -0.083617467 -0.2715432648 0.0825680112
120299280.0 -0.2820263027 0.0829699384 0.4124689072 -0.0886805811 0.4128315711 -0.0890172889 -0.270267765 0.0844781679
125299250.0 -0.281143591 0.0853542943 0.4116210858 -0.093890127 0.4121142795 -0.0935480654 -0.2696274571 0.0863864476
130299220.0 -0.2802570904 0.0881000244 0.4110993959 -0.0991109006 0.4109650514 -0.0992084636 -0.2682697471 0.088395013
135299190.0 -0.2791743334 0.090642196 0.4106637535 -0.104241044 0.4106797316 -0.1036884355 -0.2672953738 0.0907588064
140299160.0 -0.2784394583 0.0930634699 0.4098633886 -0.1091814161 0.4098124712 -0.1088466202 -0.2661509824 0.0937335409
145299130.0 -0.2774936015 0.0957092666 0.4088083272 -0.1143003713 0.4085787756 -0.1139112173 -0.2655092663 0.095882863
150299100.0 -0.2761996072 0.098331556 0.4075754991 -0.1187957451 0.4077900013 -0.1183240987 -0.2643593506 0.0982965863
155299070.0 -0.2755497298 0.100751577 0.4066496305 -0.123967453 0.4065768027 -0.1239464401 -0.2631218543 0.1008265749
160299040.0 -0.2747285424 0.1035207565 0.4056088884 -0.1286320881 0.405233021 -0.1285446026 -0.2627528904 0.1029758895
165299010.0 -0.2735490334 0.106068501 0.40421867 -0.1337776779 0.4044223289 -0.1335667746 -0.261375915 0.1057666145
170298980.0 -0.2727959455 0.1085391711 0.4027896149 -0.1382250311 0.4028711735 -0.1383654008 -0.2602972127 0.1083609785
175298950.0 -0.2718076931 0.1111400762 0.4016337554 -0.1429305399 0.4014144179 -0.1432084201 -0.2594046265 0.1107659
180298920.0 -0.2709360656 0.1137483866 0.4001059387 -0.1477450496 0.3998514189 -0.147722541 -0.2585096189 0.1134728088
185298890.0 -0.2696158103 0.1163005775 0.3983754051 -0.1525930102 0.398429833 -0.1525639148 -0.257194396 0.1161995287
190298860.0 -0.2687834815 0.1194789213 0.3970114039 -0.1574086718 0.3972026138 -0.1570670008 -0.2564086675 0.1184293398
195298830.0 -0.2680463861 0.1218329745 0.3952981076 -0.1616843612 0.395305279 -0.1618738248 -0.2553443599 0.1210063793
200298800.0 -0.2664068578 0.1245131949 0.3935889271 -0.1666182315 0.3936588343 -0.1664232991 -0.254360984 0.1234549676
205298770.0 -0.265369038 0.1273082904 0.3915924323 -0.1715979506 0.391520615 -0.1709376298 -0.2531723355 0.1256850441
210298740.0 -0.2644092278 0.129791046 0.3898556533 -0.1753485944 0.3900042684 -0.1755458091 -0.2522034097 0.128886595
215298710.0 -0.2635485366 0.132652517 0.3882111195 -0.1799858891 0.3879596862 -0.1803073398 -0.251267488 0.1310107665
220298680.0 -0.2617013937 0.1349575499 0.3854451799 -0.1844363652 0.3859395021 -0.1847094655 -0.2505008988 0.1334201569
225298650.0 -0.2607602196 0.1380156588 0.3839370916 -0.1892346502 0.383984996 -0.1891651689 -0.2487959765 0.1358280145
230298620.0 -0.2594167055 0.1410026456 0.3818687749 -0.193092767 0.3823854563 -0.1934339639 -0.2477200788 0.1384596857
235298590.0 -0.2581220352 0.1437838363 0.3796864541 -0.1979176521 0.3801476639 -0.1973230655 -0.2465049958 0.1411489112
240298560.0 -0.2570825663 0.1461700879 0.3778211412 -0.2021894853 0.3776440456 -0.2024401144 -0.2450821373 0.1440613328
245298530.0 -0.2558476014 0.1493094287 0.3757820562 -0.2071504365 0.3755158066 -0.2064157922 -0.2441076652 0.1456229637
250298500.0 -0.2542132324 0.1519513395 0.3727827867 -0.2108301864 0.3728612544 -0.2103358964 -0.2427803096 0.1482941253
255298470.0 -0.2530654337 0.1541085799 0.3706520506 -0.2147318432 0.3709373091 -0.2148368875 -0.2413025786 0.1509237248
260298440.0 -0.2516149383 0.1567187064 0.3682849123 -0.2193896339 0.3687405379 -0.219299423 -0.2398284782 0.1539305558
265298410.0 -0.2498964594 0.1601253973 0.3659375627 -0.2236947144 0.3664056262 -0.2232388641 -0.238050918 0.1565068662
270298380.0 -0.2485674372 0.1625265074 0.3637958197 -0.2274186629 0.363922039 -0.2272317707 -0.2366871663 0.1588885105
275298350.0 -0.2467805681 0.1650485473 0.361229506 -0.2319304063 0.3614652472 -0.2315408485 -0.235087143 0.161133927
280298320.0 -0.2450534998 0.1680972905 0.3586996498 -0.2358876329 0.3589187229 -0.2355678961 -0.2338705116 0.1636196429
285298290.0 -0.2437061894 0.1708200939 0.3561827321 -0.2394202151 0.3558404941 -0.2396571755 -0.2317359552 0.1659169777
290298260.0 -0.2418435218 0.1732743728 0.3534193971 -0.2435165011 0.3533909569 -0.2437669738 -0.2303022766 0.1688114421
295298230.0 -0.2400758102 0.1754822776 0.3507407664 -0.2476336099 0.350643521 -0.2476049376 -0.2282610361 0.1708733901
300298200.0 -0.2388107398 0.1782859917 0.3479977325 -0.2512975412 0.3481979211 -0.2519318186 -0.2268712027 0.1735601506
305298170.0 -0.2367006283 0.1806178704 0.3449852697 -0.2558576921 0.3449390901 -0.2554777117 -0.2246228872 0.1759348896
310298140.0 -0.2349450891 0.1835850653 0.3421920549 -0.2596801224 0.3423977877 -0.259720756 -0.2232229187 0.1783305058
315298110.0 -0.233056345 0.1856468504 0.3393889379 -0.2634166423 0.3396941591 -0.2634711105 -0.2212659357 0.1806395654
320298080.0 -0.2310415946 0.1882658317 0.3359607512 -0.2677888769 0.3365298996 -0.2674171645 -0.2194389781 0.1832458714
325298050.0 -0.2296144346 0.190724368 0.3335055337 -0.2711777928 0.3335968746 -0.2711566017 -0.2181720744 0.185318581
330298020.0 -0.227537837 0.1934210555 0.3302070878 -0.2751725204 0.3306691393 -0.2749492504 -0.2162675042 0.1879880174
335297990.0 -0.2254864613 0.1953730296 0.3271739174 -0.2785111627 0.3272889935 -0.2786161662 -0.2147211812 0.1906535719
340297960.0 -0.2239703221 0.1982715081 0.3238163026 -0.2823499998 0.3235784015 -0.2823396492 -0.2123353175 0.1932086611
345297930.0 -0.2225097637 0.2008805255 0.3208351534 -0.286179341 0.3205525468 -0.2858536862 -0.2107523702 0.1948826431
350297900.0 -0.2201634522 0.2031379102 0.3172827819 -0.2889530212 0.3174912467 -0.2891192008 -0.2090066063 0.1981415951
355297870.0 -0.2177881016 0.206212006 0.3140258308 -0.2928122166 0.3145238803 -0.2923503627 -0.2072631238 0.2002475867
360297840.0 -0.2160344629 0.2084266475 0.311310112 -0.2961682157 0.311427248 -0.2960662061 -0.2050696773 0.2025955241
365297810.0 -0.2142617264 0.2110790242 0.3078861708 -0.3000938704 0.3080384834 -0.2997358759 -0.2029865847 0.2052091881
370297780.0 -0.2121251514 0.2132555762 0.3042772526 -0.3030460082 0.3044363203 -0.3028621069 -0.2006179361 0.2075810637
375297750.0 -0.2093777964 0.2159056437 0.3009230371 -0.3064039819 0.3011858615 -0.3064652472 -0.198762634 0.2095693841
380297720.0 -0.2073343098 0.2178608234 0.2974846407 -0.3097688243 0.2978951076 -0.3091143713 -0.1971570937 0.2117511404
385297690.0 -0.2052834368 0.2202779721 0.2942130875 -0.3126905554 0.2942616456 -0.3128420023 -0.1949060186 0.2142462422
390297660.0 -0.2030810506 0.2225857498 0.2909441753 -0.3158974033 0.2907410557 -0.3155945815 -0.192621963 0.2162030084
395297630.0 -0.2007215423 0.2251577648 0.2872970319 -0.3192283225 0.2872828656 -0.3191412542 -0.1902431936 0.2184809094
400297600.0 -0.1986096694 0.2276833118 0.2835193411 -0.3226863885 0.2835734759 -0.3223760446 -0.1882275661 0.2208501048
405297570.0 -0.196624999 0.229434787 0.2801125955 -0.3252931468 0.2801159738 -0.3252141733 -0.1859662993 0.222856656
410297540.0 -0.193743045 0.2317765117 0.2764637653 -0.3285598445 0.2768690478 -0.328679088 -0.1840007294 0.225130155
415297510.0 -0.1910517309 0.2337231679 0.272596943 -0.3316121804 0.2729883622 -0.3315293714 -0.181462583 0.2271483712
420297480.0 -0.1890204037 0.2361766449 0.2689753146 -0.3340871057 0.2692119203 -0.3344701461 -0.1792327335 0.2292916069
425297450.0 -0.1864998544 0.2382802628 0.2658408888 -0.3370978758 0.2657443858 -0.3374619217 -0.1772589533 0.2313885455
430297420.0 -0.1841890735 0.240147714 0.261779896 -0.3395474205 0.2618747038 -0.3398094466 -0.1749182045 0.2328619682
435297390.0 -0.1818265386 0.2426790744 0.2577206897 -0.3433116139 0.2578130838 -0.343087867 -0.1717940456 0.2350217955
440297360.0 -0.1792248575 0.2446267835 0.2538610254 -0.3458111467 0.2541530364 -0.3457454814 -0.1697181369 0.2369372909
445297330.0 -0.1771094905 0.2466674772 0.2508360796 -0.3487561934 0.2502973894 -0.3482518109 -0.167339001 0.2387911383
450297300.0 -0.1740497271 0.2484812375 0.2463868029 -0.3512836873 0.2464423564 -0.3514681672 -0.1644115897 0.240486005
455297270.0 -0.1716110547 0.2503533309 0.2426321043 -0.3536554125 0.2428602769 -0.3540377544 -0.1623789815 0.2424519649
460297240.0 -0.1691276316 0.2525340276 0.2384703796 -0.3567201407 0.2387115265 -0.3563261112 -0.1596145202 0.2443388951
465297210.0 -0.1662181216 0.2545410157 0.2347118067 -0.359347556 0.2345124129 -0.3591752361 -0.1569950417 0.2458193226
470297180.0 -0.1634571201 0.2563506201 0.2304686011 -0.3614024102 0.2308126847 -0.3619249269 -0.1540613885 0.2481552138
475297150.0 -0.1610833504 0.2579985675 0.2265926807 -0.3639943703 0.2266429876 -0.3636422187 -0.1515698582 0.2497110694
480297120.0 -0.1584369346 0.2602614387 0.222612455 -0.3668984067 0.2225337018 -0.3671071066 -0.1488235917 0.251521375
485297090.0 -0.1555254031 0.2617388628 0.2188966482 -0.368985639 0.2187121201 -0.3686214231 -0.1461433989 0.2531311071
490297060.0 -0.1533197014 0.2636364523 0.2147342497 -0.3711864625 0.2149657548 -0.3710338617 -0.1437671874 0.2550692096
495297030.0 -0.1503821768 0.2654993864 0.2104187164 -0.3732750183 0.2110603674 -0.3732031483 -0.1411641208 0.2567428125
500297000.0 -0.1472140897 0.2669442623 0.2062432635 -0.3754770255 0.2063418193 -0.3751443799 -0.1380633325 0.2589453393
505296970.0 -0.1446653299 0.2688192131 0.2022824099 -0.3777637032 0.2022065573 -0.3778522586 -0.1355394469 0.2601418789
510296940.0 -0.1418713198 0.2705613202 0.1978058016 -0.3800160151 0.1979393167 -0.3799542863 -0.1325694569 0.2618894808
515296910.0 -0.1387021197 0.2722140799 0.1940162941 -0.3826121913 0.1936807413 -0.3819914657 -0.1301226634 0.2633274078
520296880.0 -0.1362014868 0.2738203556 0.1895566517 -0.3844181746 0.1896995017 -0.3841967867 -0.1273509915 0.2647901111
525296850.0 -0.1331476599 0.2750540029 0.1853864046 -0.3862867856 0.1858493189 -0.3863443931 -0.1247294099 0.2664890399
530296820.0 -0.1302806742 0.2766771904 0.1811803608 -0.3884250746 0.1817536218 -0.3881666165 -0.1220762325 0.2680412173
535296790.0 -0.1276475531 0.2781087843 0.1772149018 -0.3897911327 0.1770550696 -0.3898317477 -0.1193589618 0.2693876735
540296760.0 -0.1246812118 0.2800723091 0.1727589402 -0.3924455067 0.1728953104 -0.3920403817 -0.1165782918 0.2709429913
545296730.0 -0.1215619054 0.2815251819 0.1682278615 -0.3936599643 0.1687974843 -0.3938627262 -0.1140333476 0.2722078347
550296700.0 -0.1184564771 0.2830283971 0.1640132808 -0.3958311512 0.1643398419 -0.3955361761 -0.1110793364 0.2736903295
555296670.0 -0.1157176892 0.2841638885 0.1600223666 -0.3973456261 0.1603162323 -0.3972173386 -0.1084473538 0.2756861355
560296640.0 -0.1128920366 0.285601865 0.1552426061 -0.3993308687 0.1556136373 -0.3991692088 -0.1052100916 0.2763841863
565296610.0 -0.1099286467 0.2871935201 0.1509839299 -0.4009408834 0.1511516817 -0.4007229524 -0.1023400155 0.2775974168
570296580.0 -0.1070948439 0.2880866059 0.1467279019 -0.4028166885 0.1464080807 -0.4025952722 -0.0997415898 0.2788700116
575296550.0 -0.1038774406 0.2900210032 0.1423709949 -0.4040580186 0.142380746 -0.4039432133 -0.0966164391 0.2799832897
580296520.0 -0.1008244816 0.2907642988 0.1378216372 -0.405593622 0.1380754585 -0.405395498 -0.0933534145 0.2811633286
585296490.0 -0.0979004761 0.2917329014 0.1337610659 -0.4065407165 0.133773092 -0.4067470111 -0.0905001851 0.2824679956
590296460.0 -0.0945991371 0.2931673656 0.128967878 -0.4080089745 0.1292802283 -0.4081304302 -0.0880344522 0.2834475434
595296430.0 -0.0913459967 0.2940600397 0.1241367684 -0.4098973957 0.1244730948 -0.4097501794 -0.0850357911 0.2840581088
600296400.0 -0.0887037403 0.2953092575 0.120311128 -0.4110091563 0.1203423352 -0.4104857869 -0.0819694452 0.2852221437
605296370.0 -0.0857064832 0.2960978928 0.1157371452 -0.4122430026 0.1158035975 -0.4120439951 -0.0786446982 0.2859706185
610296340.0 -0.0826781954 0.2969734384 0.1109109442 -0.4131027497 0.1112866577 -0.4132422376 -0.075746331 0.2871292052
615296310.0 -0.079120154 0.2981613193 0.1063402973 -0.4143875462 0.1062475822 -0.4143965866 -0.0724402391 0.2880798314
620296280.0 -0.0760470657 0.2988939961 0.1022343557 -0.4151573135 0.102197013 -0.4152534031 -0.0698347802 0.2890116793
625296250.0 -0.0732086721 0.3001081344 0.0979873961 -0.4167111376 0.0973554361 -0.4168921008 -0.0661869491 0.2897559825
630296220.0 -0.0696010286 0.3010204254 0.0926300972 -0.4176350845 0.0927586015 -0.417304142 -0.0631372491 0.2908514635
635296190.0 -0.0670254547 0.3018822733 0.0888026725 -0.4182671509 0.0885566141 -0.418487375 -0.0599699615 0.2915917781
640296160.0 -0.0637249823 0.3026069067 0.0838404129 -0.4188614734 0.0843068556 -0.4195008436 -0.0572604824 0.2920610167
645296130.0 -0.0602156697 0.3036603235 0.0790569452 -0.4199007207 0.0797550191 -0.4200058961 -0.0540588917 0.2933800549
650296100.0 -0.057074059 0.3042082791 0.0747981528 -0.4207079335 0.07471265 -0.4209234305 -0.0507280731 0.2933117011
655296070.0 -0.0541902157 0.3050632743 0.0700198823 -0.4216397645 0.0704213892 -0.4218731687 -0.0476511498 0.2944793522
660296040.0 -0.0510593566 0.3052371438 0.0657240726 -0.4222514186 0.0656291971 -0.4223026761 -0.0444402391 0.2950095186
665296010.0 -0.0473844386 0.306067884 0.0606421324 -0.4228801551 0.0609965381 -0.4229391767 -0.0412576512 0.2958705231
670295980.0 -0.0448455562 0.3070615276 0.0565481448 -0.4236945399 0.0567195463 -0.4233974483 -0.0387234659 0.2965467281
675295950.0 -0.0415437249 0.3075590786 0.051783916 -0.4241134983 0.0521982825 -0.4237471964 -0.0352832917 0.2971321842
680295920.0 -0.0381276453 0.3081409444 0.0473468961 -0.4242340631 0.0470703036 -0.4249751175 -0.0318484883 0.2982493309
685295890.0 -0.0349716313 0.3092070587 0.0427465022 -0.4252933135 0.0424291423 -0.4250665006 -0.0288798925 0.2981988033
690295860.0 -0.031777589 0.3092621978 0.0379797489 -0.4252424365 0.0380897415 -0.4256300506 -0.0259215542 0.2989905976
695295830.0 -0.0288117863 0.3094069274 0.0337762633 -0.4255561883 0.0333441208 -0.4257150538 -0.0228538693 0.2994563855
700295800.0 -0.0254995081 0.3099607588 0.028928016 -0.4259575956 0.0287844418 -0.4258934575 -0.0201761571 0.2999048745
705295770.0 -0.0222417054 0.3109636789 0.0245869862 -0.4262429537 0.0245998245 -0.4265415567 -0.0168562877 0.3006248987
710295740.0 -0.0187460049 0.3109853721 0.0196605446 -0.4271143417 0.0199251615 -0.4267901163 -0.0136128714 0.3001472048
715295710.0 -0.0157428058 0.3109201957 0.0156377074 -0.4267954016 0.0148893778 -0.4268840012 -0.0104681673 0.3007482029
720295680.0 -0.0125507507 0.3112289907 0.0105362482 -0.4269336895 0.0110231373 -0.4269121254 -0.0074399126 0.3015325435
725295650.0 -0.0090484256 0.3119176302 0.0058053138 -0.4270273924 0.0057631736 -0.4274125262 -0.0045176507 0.3018656195
730295620.0 -0.0055598254 0.3121323723 0.0008366848 -0.4265229562 0.0014033493 -0.4268517335 -0.0014211894 0.3016873274
735295590.0 -0.0024250827 0.3123830802 -0.0031365185 -0.4271797266 -0.0034910692 -0.4267064398 0.0018413461 0.3014176354
740295560.0 0.0004830845 0.3124757443 -0.0079616751 -0.4267305417 -0.0080996903 -0.4269494387 0.0057540858 0.3018792712
745295530.0 0.0039575671 0.312772692 -0.0128239046 -0.4262584471 -0.0127964992 -0.4265644458 0.0083243673 0.3021405137
750295500.0 0.0075692979 0.3128166537 -0.0172012348 -0.4262570315 -0.0171634867 -0.4262308596 0.0113585363 0.3019773612
755295470.0 0.010870233 0.3125661849 -0.0220371262 -0.4260588828 -0.0217238211 -0.4262252885 0.014748417 0.301376699
760295440.0 0.0135983758 0.312576521 -0.0266462305 -0.4261253951 -0.0266193091 -0.4260731825 0.0182195468 0.3011747763
765295410.0 0.0167682163 0.3125845589 -0.0308709483 -0.4251994209 -0.0312708674 -0.4257807439 0.0210232977 0.3016950327
770295380.0 0.020089447 0.312304371 -0.035912296 -0.4248314932 -0.0355546444 -0.425094082 0.023889492 0.3011580472
775295350.0 0.0230521493 0.3118634234 -0.0405521362 -0.4241714873 -0.0399283214 -0.4243334411 0.0270007026 0.3013786186
780295320.0 0.0267589131 0.3123066366 -0.0452355782 -0.424048864 -0.0442002393 -0.424087508 0.0298943683 0.3009366697
785295290.0 0.0296367205 0.3117714874 -0.0499454389 -0.423148601 -0.0494501225 -0.4235516855 0.033997961 0.3007866235
790295260.0 0.033753739 0.3119972916 -0.0540455874 -0.4228994765 -0.0530834013 -0.4227463654 0.0370520088 0.3007149546
795295230.0 0.036564387 0.3116448239 -0.0585563259 -0.4222622337 -0.0584026922 -0.4222172381 0.0404547972 0.3003469069
800295200.0 0.0393512587 0.3115612949 -0.0634787357 -0.4216009573 -0.0632061974 -0.4213223793 0.0435954352 0.3004288694
805295170.0 0.0431219758 0.3111168023 -0.0679004836 -0.420520315 -0.0673629056 -0.4208121999 0.0467879288 0.3000054402
810295140.0 0.0463415261 0.3104393322 -0.0721388786 -0.4196012985 -0.0723101702 -0.4201447191 0.0499070475 0.2996270024
815295110.0 0.0491396728 0.3098698223 -0.0765462517 -0.4187107151 -0.076687453 -0.4192751199 0.053217883 0.2990547398
820295080.0 0.052482168 0.310151696 -0.0811519957 -0.4182030922 -0.080712459 -0.418044853 0.0563308401 0.298726452
825295050.0 0.0563503502 0.3094598794 -0.085764841 -0.4172756373 -0.0857820918 -0.4175379799 0.0595031911 0.2986935749
830295020.0 0.0593090065 0.3091947173 -0.0902723095 -0.4160275823 -0.09007006 -0.4159961588 0.0631187905 0.2977598048
