!Created with skrf (http://scikit-rf.org).
# Hz S RI R 50.0 
!freq ReS11 ImS11 ReS21 ImS21 ReS12 ImS12 ReS22 ImS22
300000.0 0.8587052596 -0.002262833 -0.0004853536 0.00012826 0.0006493052 0.0002393515 -0.7817711707 -0.1205949536
5299970.0 0.8582616072 -0.0090960382 0.0002888253 -0.0001658339 3.80757e-05 -0.0001382643 -0.7851506003 -0.0069217351
10299940.0 0.8577697669 -0.0186128277 -0.0001621442 0.0001198593 -4.22814e-05 -4.13188e-05 -0.788175619 -0.0035393006
15299910.0 0.8565799717 -0.0269158257 -0.000188442 -3.11668e-05 -6.9835e-06 0.0001423687 -0.79414333 -0.0014116191
20299880.0 0.8563564135 -0.0351930726 -0.0002043074 -0.0002633327 -4.98761e-05 0.0001302587 -0.8004756903 0.0023896031
25299850.0 0.8553027598 -0.0429623982 -6.5169e-06 5.36428e-05 0.0001135069 -8.31713e-05 -0.8064540141 0.0082467253
30299820.0 0.8552208985 -0.0519597048 -0.000155458 -2.37229e-05 0.0001158893 9.64604e-05 -0.8124858599 0.0162547757
35299790.0 0.8540292036 -0.06004891 -5.84351e-05 7.79925e-05 -0.0001025896 -5.25704e-05 -0.817595679 0.0246854028
40299760.0 0.8531766532 -0.0688425825 6.78729e-05 8.05729e-05 -0.0001434595 -0.0002188645 -0.821416142 0.0346209552
45299730.0 0.8530323484 -0.0768709 -0.0002155045 1.33802e-05 -0.0001772232 9.6401e-05 -0.8253316622 0.043642376
50299700.0 0.8520684888 -0.0847852121 -4.85556e-05 -6.21665e-05 -0.0002336188 -6.04218e-05 -0.827976319 0.0540826559
55299670.0 0.8504584493 -0.0936021816 8.97277e-05 3.74483e-05 8.36743e-05 7.80418e-05 -0.8291403457 0.0641172232
60299640.0 0.8493681929 -0.1010697768 3.25849e-05 -2.69535e-05 -0.00017264 0.0001645634 -0.8306300019 0.0738204419
65299610.0 0.8481115256 -0.110135892 -0.0001153439 0.000150631 -4.76869e-05 0.0001377351 -0.8322169446 0.0837524264
70299580.0 0.8472769956 -0.1183304255 -5.96361e-05 0.0001648187 -0.0001153541 -0.0002425231 -0.8317234127 0.0941753035
75299550.0 0.8467525043 -0.126005514 4.67056e-05 -9.14093e-05 2.48475e-05 -2.07188e-05 -0.8323705631 0.1042822486
80299520.0 0.8441470512 -0.1350229539 0.0001822761 0.0002477953 0.0001140042 -8.066e-06 -0.8314366566 0.1133859704
85299490.0 0.8433969749 -0.1425035132 5.16055e-05 0.0001155964 -0.0001829674 -8.49721e-05 -0.8315810571 0.1236941476
90299460.0 0.8418187719 -0.1509831671 2.5003e-06 -0.0001298549 0.0001008562 -5.29091e-05 -0.8302917699 0.133026331
95299430.0 0.8399437702 -0.1597300414 0.0001251643 -0.0001088723 2.7995e-05 6.85104e-05 -0.8288587454 0.1428306917
100299400.0 0.8384786643 -0.1672342251 -1.16126e-05 -3.4351e-05 0.0001561594 -4.53907e-05 -0.8283908817 0.1519979836
105299370.0 0.8374044415 -0.1754372995 -0.0001017802 -2.81731e-05 1.4479e-05 8.19756e-05 -0.8269040163 0.1610392615
110299340.0 0.8354177648 -0.1836862783 0.0001075101 6.82461e-05 -0.0001272284 -6.32352e-05 -0.8257538057 0.1708386535
115299310.0 0.8332349338 -0.1916003408 0.000136563 -0.0001837022 1.06902e-05 3.15544e-05 -0.8239735718 0.1796486256
120299280.0 0.8315923291 -0.2001068457 -7.89589e-05 8.73095e-05 -1.03808e-05 1.7642e-05 -0.8227336856 0.1884998263
125299250.0 0.8298352985 -0.2089240076 -8.3197e-05 9.90554e-05 -2.77052e-05 9.47561e-05 -0.8212900299 0.1974715828
130299220.0 0.8277306552 -0.2158591047 2.41786e-05 -9.18799e-05 5.58076e-05 -1.52875e-05 -0.8198359968 0.2068763039
135299190.0 0.8252383492 -0.223890812 -0.0001251761 3.64315e-05 -7.2624e-06 -3.52664e-05 -0.8168762688 0.2161077835
140299160.0 0.8230192606 -0.2319813622 0.0001777125 0.0002471952 -0.0001499705 2.43248e-05 -0.8146505476 0.2245328112
145299130.0 0.8206894639 -0.2403436509 -0.0002938872 0.000255948 0.0001070228 4.29459e-05 -0.81279663 0.2342201731
150299100.0 0.8186838997 -0.2478977496 1.9372e-05 4.14706e-05 -0.0001301861 0.0001860681 -0.8109963345 0.2428830147
155299070.0 0.8155858874 -0.2561557652 0.0001538186 -6.85738e-05 -6.722e-07 -5.5261e-05 -0.8080607359 0.2519619549
160299040.0 0.8132110608 -0.2644596821 -0.0001418933 -3.44296e-05 -7.5926e-05 8.99582e-05 -0.8057551013 0.260965994
165299010.0 0.810114445 -0.2719515762 0.0002424852 0.0002080131 1.03832e-05 -2.95111e-05 -0.803310568 0.2694403823
170298980.0 0.807803414 -0.2798051346 -1.5155e-06 0.0002457818 -4.0691e-06 -9.42691e-05 -0.8000061701 0.2779331826
175298950.0 0.8044860932 -0.2880913861 -4.7381e-05 0.0002543689 -2.43166e-05 -0.0001001854 -0.7975758386 0.2864807438
180298920.0 0.8022704112 -0.2955630505 1.46806e-05 -0.0002337567 4.28695e-05 3.92836e-05 -0.7946113122 0.2951121322
185298890.0 0.7988295984 -0.3033949218 -0.0002368453 0.000287238 4.02263e-05 8.95377e-05 -0.7910073929 0.3037290154
190298860.0 0.7959192525 -0.3109947626 9.35421e-05 2.27681e-05 1.21929e-05 -0.0001395149 -0.7889220785 0.3122532223
195298830.0 0.7930398981 -0.3189019677 -0.0001249365 0.0001466355 0.0002307141 0.000118774 -0.7849539775 0.3208435984
200298800.0 0.7893548231 -0.3262777 4.351e-07 -8.24903e-05 -0.000158915 -0.0001671122 -0.7820605137 0.3290276657
205298770.0 0.7861847066 -0.3345398063 0.0001468133 8.91363e-05 7.73842e-05 6.42257e-05 -0.7779247463 0.3371808692
210298740.0 0.7827013241 -0.3415764266 3.57955e-05 1.00184e-05 3.67837e-05 0.000167399 -0.7744550978 0.3454146967
215298710.0 0.7795624346 -0.3500776064 -1.3202e-06 -2.00653e-05 6.18682e-05 -3.0657e-06 -0.7713004056 0.3536036427
220298680.0 0.7760705703 -0.3574685416 8.87602e-05 -6.38429e-05 -0.000116374 3.08098e-05 -0.7678075208 0.3616337947
225298650.0 0.7724814983 -0.3650544087 2.50343e-05 -4.14652e-05 -3.45108e-05 -7.03679e-05 -0.7639987998 0.3704318131
230298620.0 0.7683094967 -0.3724425415 4.54862e-05 8.1705e-05 -3.64572e-05 2.4594e-06 -0.7600649899 0.3781587213
235298590.0 0.7648163997 -0.3798545607 -3.50596e-05 -0.0002387207 -1.80321e-05 3.13774e-05 -0.7561114678 0.3861776143
240298560.0 0.7616394578 -0.3874168958 -0.0001511516 0.000158458 2.83484e-05 -4.46705e-05 -0.7518145429 0.3944639462
245298530.0 0.7576036514 -0.3945392908 -1.85927e-05 -6.32621e-05 -7.70841e-05 -0.0001161442 -0.747710385 0.4017719117
250298500.0 0.7535991562 -0.4019092583 3.18314e-05 -7.2004e-06 4.27822e-05 7.68582e-05 -0.7432683476 0.409839824
255298470.0 0.749123754 -0.4096698682 0.0001156478 -4.59579e-05 -3.91211e-05 5.68594e-05 -0.7390290864 0.4176343817
260298440.0 0.745497353 -0.4170488157 -6.08212e-05 0.0002001207 1.59849e-05 -7.97425e-05 -0.7343736063 0.4258402163
265298410.0 0.7414590722 -0.4237829951 3.83234e-05 -2.69571e-05 -2.86353e-05 -3.36766e-05 -0.7301880223 0.433557402
270298380.0 0.736493097 -0.4315628161 -9.93062e-05 -1.66084e-05 9.949e-05 2.89968e-05 -0.7255504833 0.4409830785
275298350.0 0.7327783049 -0.4383820125 9.01722e-05 -3.10698e-05 7.27312e-05 -2.88932e-05 -0.7206968184 0.4484985595
280298320.0 0.7282678713 -0.4458870221 0.0001136974 -6.86379e-05 3.68211e-05 2.24554e-05 -0.7160886367 0.4559039024
285298290.0 0.7243402151 -0.4527772412 -8.33803e-05 -4.6309e-06 1.55826e-05 1.38757e-05 -0.7113929697 0.4634868396
290298260.0 0.7204828728 -0.4593987819 -7.6308e-05 -2.27815e-05 -0.0001813735 -0.0001993516 -0.7061371387 0.4708556458
295298230.0 0.7158467803 -0.4662833676 3.80574e-05 -0.0001670246 1.78997e-05 1.78804e-05 -0.7015248476 0.477924862
300298200.0 0.7117156743 -0.4740411883 9.795e-07 0.0002229846 0.0001434697 1.83665e-05 -0.6959717579 0.4854081059
305298170.0 0.706959905 -0.4807187438 8.19383e-05 0.0002260294 6.64633e-05 6.12008e-05 -0.6908572889 0.4928319023
310298140.0 0.7023359691 -0.4883748363 9.00164e-05 -0.0001260171 -0.0002897173 -0.0001243829 -0.6862571196 0.5000142484
315298110.0 0.6986902686 -0.4963119653 -0.0002182802 0.0001121795 -0.0002019207 -0.0001420191 -0.6805849382 0.5069975309
320298080.0 0.6932293906 -0.5030355082 0.0001148312 0.0001218155 -4.27899e-05 -4.38639e-05 -0.6751079791 0.5145405343
325298050.0 0.6875427786 -0.5099552666 0.0001720331 -3.15671e-05 0.0001451604 0.0002091763 -0.6696695399 0.5215851477
330298020.0 0.6814738371 -0.5179751889 -1.35143e-05 -3.0388e-05 6.517e-06 0.0001178648 -0.6642693531 0.5289516659
335297990.0 0.6762335686 -0.5247547126 -4.3026e-06 -0.0001649538 -9.80348e-05 -9.66422e-05 -0.6592536508 0.5355863612
340297960.0 0.6703665267 -0.5311222158 0.0001723298 0.0001241003 -0.0001111615 4.34457e-05 -0.6529607589 0.5432163838
345297930.0 0.6638477614 -0.5374886934 0.0001093742 -0.0001900002 -7.67894e-05 -0.0001650732 -0.6473104148 0.5482443327
350297900.0 0.658305457 -0.5434495601 -8.25426e-05 -1.57561e-05 7.4892e-06 -0.0001640727 -0.6422161821 0.5552621584
355297870.0 0.6524011267 -0.5494055584 7.80568e-05 0.0001477162 4.33447e-05 -2.63111e-05 -0.63604384 0.5615362193
360297840.0 0.6475694394 -0.5556772416 -0.0001844074 0.0001317969 7.184e-05 -0.000165201 -0.6302527943 0.5688701988
365297810.0 0.6409028787 -0.561876945 -0.0001587598 -8.57244e-05 0.0001123171 9.5696e-06 -0.6237472219 0.5750571287
370297780.0 0.6363186529 -0.568163535 0.0001629838 -4.19853e-05 2.56352e-05 -0.0001541528 -0.6182781349 0.5818253606
375297750.0 0.629707552 -0.5739299624 0.0001360237 -4.06056e-05 -0.0001000882 0.0001628806 -0.6121845049 0.5876597003
380297720.0 0.6244982199 -0.5804114271 -1.94214e-05 -0.0001727063 -0.0002765624 0.0001719842 -0.6066479239 0.5941492103
385297690.0 0.6183155129 -0.5861690036 -9.87006e-05 3.67969e-05 9.25836e-05 7.0535e-05 -0.5998357983 0.6005022262
390297660.0 0.61274724 -0.591532293 -9.07144e-05 6.88148e-05 0.000248682 6.86195e-05 -0.5938698898 0.606000262
395297630.0 0.606869615 -0.5980599473 2.43113e-05 -0.0002664245 0.0002616672 4.39103e-05 -0.5862778394 0.612877853
400297600.0 0.6012178446 -0.6034453674 7.8564e-05 -0.0001124514 -9.43698e-05 2.56759e-05 -0.5807881815 0.6188759713
405297570.0 0.5947170894 -0.6089586051 -5.31263e-05 -4.85867e-05 -0.0002101195 -5.6661e-06 -0.574177111 0.624140034
410297540.0 0.5884548991 -0.615706395 1.97255e-05 0.000172875 8.3792e-05 5.1605e-06 -0.5679339322 0.6303318328
415297510.0 0.5829612197 -0.6207308909 0.0001367025 0.0001993092 0.0001176029 0.0001227227 -0.5615223563 0.6357456225
420297480.0 0.5763311663 -0.625984944 0.000105274 3.02777e-05 3.8416e-06 -3.48542e-05 -0.5545048298 0.6420293357
425297450.0 0.5697089389 -0.6319383989 -0.0001377254 2.31598e-05 -0.0001183141 0.0001782766 -0.5482437951 0.6476311935
430297420.0 0.5637163994 -0.6371753138 -3.5466e-05 9.19044e-05 -7.74573e-05 -6.34921e-05 -0.5414846735 0.6530100078
435297390.0 0.5576323001 -0.642772243 0.0001354937 -0.0001795548 8.1077e-06 7.02129e-05 -0.5338819007 0.6588289849
440297360.0 0.55119857 -0.6486569777 -0.0001629945 -0.0001258266 -0.0001233166 -8.52422e-05 -0.5280714822 0.6634527687
445297330.0 0.5442903762 -0.6537302239 -0.0001040504 -8.08174e-05 0.0002657185 -2.18104e-05 -0.5209392915 0.6686749687
450297300.0 0.5384415477 -0.6590539797 -7.46721e-05 0.0001593225 -1.52038e-05 -4.99706e-05 -0.5134462627 0.6742967462
455297270.0 0.5317004607 -0.6637924305 0.0001198857 0.0001642325 5.26797e-05 -4.12544e-05 -0.5065676905 0.6784275914
460297240.0 0.5254365472 -0.668967535 -4.87815e-05 -0.0001315895 -0.0002519219 8.58629e-05 -0.5004599015 0.6845818175
465297210.0 0.5182976763 -0.6745675166 7.42509e-05 0.0001510311 0.0001303259 -3.70047e-05 -0.4924436973 0.6892161953
470297180.0 0.5118980288 -0.6789086961 0.000315015 -0.0001502687 -0.0001065485 1.50811e-05 -0.4851183327 0.6947798418
475297150.0 0.5047791847 -0.6844462885 1.75521e-05 -0.0003801804 1.1311e-06 -4.753e-05 -0.4780113316 0.6991677743
480297120.0 0.4977628944 -0.688674617 -2.7065e-05 0.0001246393 -7.13288e-05 -0.0003885836 -0.4709674027 0.7044072966
485297090.0 0.4913944051 -0.6934283729 6.89012e-05 -3.91041e-05 -4.10616e-05 3.85905e-05 -0.4640452325 0.7087628358
490297060.0 0.4841835563 -0.6984486412 -0.0002903117 -9.7864e-05 0.0001346497 0.0002024612 -0.4563732264 0.7133406393
495297030.0 0.4771692466 -0.7030378746 -8.00163e-05 0.0002987812 0.0001160786 0.000306776 -0.4493231491 0.7180317386
500297000.0 0.4696663498 -0.7082007996 -9.65046e-05 -0.000116574 -0.0001089788 -7.58514e-05 -0.4413566156 0.7232452697
505296970.0 0.4636646385 -0.711649893 0.0001556345 -8.0194e-06 3.8357e-05 0.0001546131 -0.4340075601 0.7272258558
510296940.0 0.4557528699 -0.7168852932 -0.0001431917 -4.16479e-05 -7.99256e-05 7.38704e-05 -0.4269995447 0.7311737616
515296910.0 0.4488496691 -0.7206873365 -2.02103e-05 -8.60312e-05 -0.0001770258 6.08156e-05 -0.4193409925 0.7353999849
520296880.0 0.4418350725 -0.7259112041 -0.0001807032 -0.0002251184 1.20782e-05 2.27166e-05 -0.4115644121 0.7394870218
525296850.0 0.4350048566 -0.7297460264 -5.78417e-05 -9.47759e-05 3.81861e-05 -0.0001508192 -0.4042845577 0.7437495496
530296820.0 0.4273308627 -0.7335631148 -6.2831e-05 -0.0001880423 -3.52457e-05 0.0001183833 -0.3967763673 0.7474641664
535296790.0 0.4198584281 -0.7376773151 0.0003097458 7.0272e-06 0.0002205823 8.89252e-05 -0.3896032888 0.7512286014
540296760.0 0.4122713307 -0.7421182588 -3.71935e-05 3.8688e-06 5.58889e-05 -4.49399e-05 -0.3815557928 0.7551824256
545296730.0 0.4049083709 -0.745880898 -0.0001130766 7.89906e-05 -8.39984e-05 0.0002128225 -0.3743470037 0.7596940395
550296700.0 0.3980117041 -0.7488827612 -2.97202e-05 -3.17921e-05 -5.46905e-05 5.73984e-05 -0.3661321236 0.7628625223
555296670.0 0.3899974222 -0.7534230871 2.22382e-05 5.18871e-05 -6.71995e-05 4.7331e-05 -0.358239486 0.76711018
560296640.0 0.3823361005 -0.7570239806 -0.0001555979 4.65905e-05 0.0001696652 -6.91754e-05 -0.3505487802 0.7705486991
565296610.0 0.3750726102 -0.7605907974 -8.35284e-05 7.94566e-05 0.0001036641 -0.0002048354 -0.3421954274 0.7735517372
570296580.0 0.3672945664 -0.7639346151 -4.03296e-05 0.0002039252 -2.06106e-05 -5.9315e-05 -0.3352699011 0.777192064
575296550.0 0.3594576788 -0.767433004 -6.42848e-05 8.57119e-05 -3.7965e-05 -2.5086e-05 -0.3271264989 0.7808369611
580296520.0 0.3519206739 -0.771198577 -1.28778e-05 -0.0001179576 -0.0001207522 7.74654e-05 -0.3187267694 0.7839694107
585296490.0 0.3439503762 -0.7746956289 1.1566e-06 9.82904e-05 2.0761e-05 -0.0001419775 -0.3110394021 0.7872828223
590296460.0 0.3370428723 -0.7772444295 -1.57552e-05 -6.3048e-06 8.13416e-05 -0.0001342126 -0.3033125572 0.7902446314
595296430.0 0.3286088143 -0.7812202663 6.10222e-05 -7.80234e-05 -3.94661e-05 0.0001243323 -0.295028673 0.7928780654
600296400.0 0.3207264148 -0.7837268491 -6.0137e-05 0.0001607598 -0.0001311792 3.86526e-05 -0.2870693969 0.7955205062
605296370.0 0.3132987887 -0.7866189641 -8.39867e-05 -0.0001244871 0.0001304514 0.000124715 -0.2783714628 0.7984828256
610296340.0 0.3055000929 -0.7905846215 0.0001195883 1.20569e-05 -4.58078e-05 6.45744e-05 -0.2706754478 0.8010860099
615296310.0 0.297521887 -0.7930452109 0.0001942968 6.38681e-05 0.0002167612 0.0001603099 -0.2619009152 0.8039494777
620296280.0 0.2894926814 -0.7953356648 9.95112e-05 3.36757e-05 -1.06069e-05 -6.24588e-05 -0.2545855383 0.8064360967
625296250.0 0.281830754 -0.7982045092 -0.0001239318 3.63365e-05 -5.74215e-05 -6.1924e-06 -0.2455527428 0.8086044668
630296220.0 0.2739962747 -0.8008378462 0.0001032095 -5.66845e-05 -1.88893e-05 0.0001290313 -0.2379766186 0.8113577396
635296190.0 0.2655688802 -0.8035024761 -9.55896e-05 -0.0001967374 2.01038e-05 0.0002206905 -0.2299818351 0.8132241965
640296160.0 0.2577151374 -0.8064710846 -5.32637e-05 -0.0003280885 0.000145142 0.0003071996 -0.2214697719 0.8157836757
645296130.0 0.2496478561 -0.8079328554 -0.0001928353 -3.91085e-05 9.31034e-05 -5.94958e-05 -0.2135023104 0.8180099222
650296100.0 0.2414529682 -0.8104374346 -0.0001865819 -3.0993e-06 -2.34351e-05 -0.0001134633 -0.2053609946 0.8197352262
655296070.0 0.2332542927 -0.8131857324 5.91824e-05 -0.0003262001 2.05631e-05 4.25099e-05 -0.1968789202 0.8214793656
660296040.0 0.2251226095 -0.815214596 7.8169e-05 -9.2219e-05 9.79752e-05 0.0001163613 -0.1880722823 0.8240001193
665296010.0 0.2176335322 -0.8173951693 8.18456e-05 0.0001340544 -9.84128e-05 5.10044e-05 -0.1796357402 0.8257300232
670295980.0 0.2090206501 -0.819443159 -3.28513e-05 2.80252e-05 -5.76784e-05 3.84779e-05 -0.1725343063 0.8276986813
675295950.0 0.2013606351 -0.8211749491 4.5507e-06 3.26942e-05 -1.73095e-05 -0.0001384312 -0.1640013222 0.8292569165
680295920.0 0.1924102732 -0.8230316508 -3.52619e-05 -9.91828e-05 -0.0001194579 2.88903e-05 -0.1551938757 0.8317274047
685295890.0 0.1846882253 -0.8242104905 2.32038e-05 7.12535e-05 -8.35752e-05 -0.0001005499 -0.1466842325 0.83193491
690295860.0 0.176310194 -0.8257411205 5.52637e-05 5.85076e-05 0.0001434414 0.0001232668 -0.1387935774 0.8338907352
695295830.0 0.1678978677 -0.8277472295 6.58477e-05 6.21808e-05 -9.75023e-05 4.7674e-06 -0.1298506706 0.8348468135
700295800.0 0.1596116865 -0.8293216519 3.51336e-05 -7.73635e-05 -1.10219e-05 -0.0001127212 -0.1225425751 0.836755399
705295770.0 0.1509728703 -0.8302139423 0.0002277799 -0.0002150594 -3.7142e-05 -3.73189e-05 -0.1138215739 0.8383650167
710295740.0 0.1429933273 -0.8319806831 -5.56012e-05 6.21847e-05 3.79588e-05 7.2864e-06 -0.1055311248 0.8385023157
715295710.0 0.1343829923 -0.8338044633 -3.21921e-05 -0.0001770673 -5.12042e-05 0.0003105985 -0.096918694 0.839305325
720295680.0 0.1269677487 -0.8347631644 0.0001005575 -8.35893e-05 0.0001515052 2.63095e-05 -0.0886809281 0.8403727662
725295650.0 0.1179211279 -0.8346922326 9.9379e-05 -1.45555e-05 -7.15811e-05 -1.92595e-05 -0.0804687509 0.8417285915
730295620.0 0.1093630612 -0.8364066892 -1.00675e-05 8.93694e-05 3.60678e-05 -1.58387e-05 -0.0721869688 0.8421642951
735295590.0 0.1012030227 -0.8368267189 -0.0002480737 -0.00022351 -2.18045e-05 -0.0001441245 -0.0635541742 0.8426812026
740295560.0 0.0924760131 -0.8379776695 0.0001403678 -5.82745e-05 5.9743e-05 -0.0001507932 -0.0544934125 0.8437830085
745295530.0 0.0841849032 -0.8385584591 0.0001746811 -5.75553e-05 9.4089e-05 -3.73645e-05 -0.0467220519 0.8437115867
750295500.0 0.075845123 -0.8394579372 7.04271e-05 0.0002517954 -2.13545e-05 0.0001929791 -0.038135683 0.8442326142
755295470.0 0.0669511523 -0.839924513 -3.21455e-05 0.0001373408 -0.0001283237 6.123e-07 -0.0296235077 0.844033943
760295440.0 0.0588644167 -0.8403888179 -6.40536e-05 -4.5636e-06 0.0001637006 4.01337e-05 -0.0208430407 0.8443665736
765295410.0 0.0505253582 -0.8412363701 -0.000148193 -5.032e-07 2.05e-07 0.0001103984 -0.0125731317 0.8445147805
770295380.0 0.0416633137 -0.8412333671 -0.0001242759 4.95419e-05 -1.52086e-05 2.77171e-05 -0.0043456273 0.8448993608
775295350.0 0.0333699497 -0.841875225 0.0001532418 9.5199e-05 -3.51217e-05 -2.58645e-05 0.0033865356 0.8445070363
780295320.0 0.0260237051 -0.841826846 -6.99632e-05 0.0001672403 1.51697e-05 -5.39672e-05 0.0122339268 0.8446041616
785295290.0 0.0170212592 -0.8420219621 -0.0001988463 9.61804e-05 0.0001140983 -2.07658e-05 0.0204851892 0.8443749604
790295260.0 0.0092084802 -0.841401106 -9.14769e-05 6.57483e-05 1.99795e-05 -1.21605e-05 0.0297559261 0.8443913232
795295230.0 5.78749e-05 -0.8415598367 0.0002754511 -1.79986e-05 4.38896e-05 2.92093e-05 0.03821649 0.8432894766
800295200.0 -0.0081603775 -0.841050925 -0.00017582 -0.0002307247 7.60506e-05 -9.8786e-05 0.0467624116 0.8430593508
805295170.0 -0.0161040428 -0.8415123942 0.0002200615 0.0002276229 0.0001696218 -5.46968e-05 0.0550371924 0.8433261486
810295140.0 -0.024358689 -0.8404903896 -0.0001112193 0.0001415372 0.0001636937 -4.48578e-05 0.0637261386 0.8422483314
815295110.0 -0.0334025307 -0.840892607 -0.0003847013 -0.0001034985 0.0002431744 -4.39028e-05 0.0715508752 0.8418815882
820295080.0 -0.0412057277 -0.8391094198 0.0002146703 -5.0068e-06 0.0001337481 0.0001813385 0.0800320348 0.8410523871
825295050.0 -0.0494288307 -0.839158645 -7.58747e-05 -6.57154e-05 -0.0001651242 -0.0001230313 0.0882219805 0.8405318801
830295020.0 -0.0579781684 -0.8386913774 -4.99213e-05 -0.0001213585 5.88111e-05 -0.0001401053 0.0975454328 0.8393560518
835294990.0 -0.0664164694 -0.8376661371 0.0001828935 4.78004e-05 4.92385e-05 0.0001708291 0.1048029468 0.8386224012
840294960.0 -0.0745152546 -0.8366258935 -0.0004089282 0.0001417716 -0.0001271092 0.0001062728 0.1136324252 0.8366820956
845294930.0 -0.0831608831 -0.8357346494 -5.74731e-05 0.0001026324 1.69099e-05 -5.39878e-05 0.121168894 0.835766894
850294900.0 -0.0903905289 -0.8342991061 -3.79658e-05 9.0324e-05 0.0001161397 8.64746e-05 0.129701635 0.8343180811
