!Created with skrf (http://scikit-rf.org).
# Hz S RI R 50.0 
!freq ReS11 ImS11 ReS21 ImS21 ReS12 ImS12 ReS22 ImS22
300000.0 -0.2331917359 -0.1265004537 0.4668338484 0.0813815757 0.4675730656 0.0808620971 -0.2353436698 -0.1241131343
5299970.0 -0.2421299725 0.0053836705 0.4746927822 0.0058889813 0.4754034113 0.0059668812 -0.2443056325 0.0046675217
10299940.0 -0.2390132072 0.0189106922 0.477287542 0.0070103052 0.4772547237 0.0067265788 -0.2409122652 0.0174988085
15299910.0 -0.2336921402 0.0289137233 0.4807213121 0.0078980792 0.480841874 0.008148906 -0.2371355551 0.0265262255
20299880.0 -0.2286784127 0.0369891025 0.4855177515 0.0080353484 0.4855447473 0.008213016 -0.2321532343 0.0340106317
25299850.0 -0.2224114815 0.0436988771 0.4907483421 0.007739565 0.490608824 0.0073352074 -0.2268592642 0.0400370616
30299820.0 -0.2171746051 0.0486716698 0.4960078368 0.005084529 0.4962102015 0.0049589911 -0.2222109367 0.0449594142
35299790.0 -0.2113142239 0.0530658709 0.5009786536 0.0019172217 0.5015980249 0.0020253687 -0.217105975 0.049090588
40299760.0 -0.2059864147 0.0559997542 0.5063602801 -0.0019710818 0.5068094484 -0.002086357 -0.2119795592 0.0522349652
45299730.0 -0.2012752142 0.058604772 0.5113735885 -0.0064857094 0.5115518141 -0.0065676103 -0.2070973511 0.0549312507
50299700.0 -0.1961711932 0.060806259 0.5150859786 -0.0125044003 0.5156557672 -0.0125549764 -0.2029540027 0.0569246653
55299670.0 -0.1920525015 0.062473756 0.5190519061 -0.0179908771 0.518953863 -0.0183909145 -0.1993938901 0.05870403
60299640.0 -0.1877984732 0.0642635262 0.5225109946 -0.0247503533 0.522433635 -0.0246868436 -0.1954964151 0.0599458771
65299610.0 -0.1844614896 0.0650231047 0.5256899234 -0.030504216 0.5255522264 -0.0310274162 -0.1920058508 0.0607875528
70299580.0 -0.18091954 0.0658588381 0.5276586356 -0.0372607362 0.5277507955 -0.0377798214 -0.1892327974 0.0618227399
75299550.0 -0.1779798949 0.0666369419 0.5292241139 -0.0446139498 0.5298497074 -0.0445744248 -0.1864087631 0.062808949
80299520.0 -0.1754309309 0.0676396482 0.5315209908 -0.0511843971 0.5317780658 -0.0515805352 -0.1840693427 0.0635205345
85299490.0 -0.1728186209 0.0685629086 0.5327509815 -0.0584226678 0.5330076863 -0.0582550567 -0.1817569844 0.0638481883
90299460.0 -0.1705002543 0.0691380463 0.5338472533 -0.0652647696 0.5337663646 -0.0650778352 -0.1797781293 0.0651107672
95299430.0 -0.1681596433 0.0696615516 0.5345971377 -0.0721500345 0.5350465571 -0.0723410899 -0.1777445593 0.0656199144
100299400.0 -0.1661991387 0.0701549276 0.5354356324 -0.0786033534 0.5353215189 -0.078756358 -0.1761904877 0.0664576909
105299370.0 -0.1641454232 0.0708942508 0.5349668495 -0.0856685697 0.5358921143 -0.0855863599 -0.1740531646 0.0667508993
110299340.0 -0.162241217 0.0714876711 0.5353034302 -0.091915708 0.535854718 -0.0925395297 -0.1728339193 0.0673196587
115299310.0 -0.1608779459 0.0724185634 0.5357149349 -0.0988787922 0.5354814593 -0.0992147459 -0.1716585102 0.0685392461
120299280.0 -0.1593397907 0.0733412916 0.535591357 -0.1066260533 0.53499238 -0.1064541393 -0.1701087139 0.0684976729
125299250.0 -0.1579772903 0.0741834696 0.5347351269 -0.1130083721 0.5350523187 -0.1128946862 -0.1689501895 0.069840751
130299220.0 -0.1566827378 0.0746377344 0.5342444872 -0.1196480085 0.534154929 -0.1201701759 -0.167780917 0.0704727038
135299190.0 -0.1557227696 0.0757930888 0.5337742323 -0.1258784586 0.5339824826 -0.1265064445 -0.166761606 0.0708045649
140299160.0 -0.1542365356 0.077214943 0.5333953598 -0.1331341363 0.5327812726 -0.1327865907 -0.1665500027 0.071441532
145299130.0 -0.1535555638 0.0779903124 0.5317505314 -0.1395714574 0.5318850409 -0.1393777208 -0.1652535366 0.0726317077
150299100.0 -0.1521111587 0.0787287285 0.5307979542 -0.1459374544 0.5307277967 -0.1462137884 -0.16448067 0.0738174237
155299070.0 -0.1509486766 0.0800869997 0.5294542312 -0.152525757 0.5296253952 -0.1526022853 -0.163196129 0.0746576828
160299040.0 -0.1498803553 0.0812791016 0.5280436297 -0.158643253 0.5280787825 -0.1592004574 -0.1628950387 0.0758504794
165299010.0 -0.1489024896 0.0820912285 0.5266440713 -0.165021481 0.5268059348 -0.1652844023 -0.1617914221 0.0767158439
170298980.0 -0.1478449303 0.0833594835 0.5242771663 -0.1720264952 0.5249885977 -0.171903811 -0.1613032695 0.0776874002
175298950.0 -0.1469595737 0.0849562138 0.5236934013 -0.178220557 0.5239596117 -0.1785905684 -0.1603026095 0.0792957741
180298920.0 -0.1461011201 0.0861548241 0.52184023 -0.184604356 0.5219100295 -0.1845021385 -0.1596257578 0.0800587942
185298890.0 -0.1448675618 0.0874591745 0.5202544237 -0.1907007849 0.5199930702 -0.1906322438 -0.1585328542 0.0810874847
190298860.0 -0.1437666494 0.088711024 0.5174862544 -0.1965509415 0.5183523662 -0.1968612843 -0.158202211 0.0822806031
195298830.0 -0.1432064785 0.089903952 0.5166592414 -0.2024785966 0.5162929368 -0.2029464669 -0.1573791568 0.0834480071
200298800.0 -0.1417279015 0.0911754693 0.5140671149 -0.2091008393 0.5139214178 -0.2090043203 -0.1565209598 0.0844926737
205298770.0 -0.1413343781 0.0925589216 0.5118370427 -0.2148613233 0.5121659087 -0.2148290015 -0.1559219606 0.0858940819
210298740.0 -0.1402542669 0.0942695286 0.5098113274 -0.2212161361 0.5093717614 -0.2210799075 -0.1550262683 0.0868719842
215298710.0 -0.139295603 0.0955595787 0.5070670322 -0.2265658227 0.5071573481 -0.2272303684 -0.1542575888 0.0883106443
220298680.0 -0.1380621592 0.0969985175 0.504437806 -0.2327911934 0.5046907507 -0.233057763 -0.1536397779 0.0897648108
225298650.0 -0.1372365983 0.0982767064 0.5017661135 -0.2387913783 0.5023136811 -0.2381440839 -0.1527938061 0.0904070502
230298620.0 -0.1359748253 0.1000514814 0.4995622408 -0.2447460975 0.4996696536 -0.2444526082 -0.1523162757 0.0917075307
235298590.0 -0.1354200193 0.1013421207 0.4973804469 -0.2504675373 0.4972897859 -0.2502146564 -0.1515512482 0.0933465953
240298560.0 -0.134336053 0.1029080056 0.4944930276 -0.2557361377 0.4946536063 -0.2557839088 -0.1508806727 0.0942000981
245298530.0 -0.1333261974 0.1040303376 0.491675157 -0.2616652459 0.4916701296 -0.2614828048 -0.1498700938 0.095991354
250298500.0 -0.1324594704 0.1055789487 0.4892558995 -0.2667959727 0.4889822038 -0.2674076311 -0.149130554 0.0974649104
255298470.0 -0.1311323434 0.1073452784 0.4862988792 -0.2725306721 0.4864404446 -0.272850495 -0.148178912 0.0988339124
260298440.0 -0.1301715056 0.1082843752 0.4834708164 -0.2778227522 0.4835378293 -0.2778350304 -0.1475497187 0.0995976293
265298410.0 -0.1295341932 0.1098226627 0.4802420813 -0.2836661976 0.4799256232 -0.283934341 -0.146170519 0.1008457234
270298380.0 -0.1284144526 0.1111402294 0.4769284359 -0.2891642837 0.4772205225 -0.289087871 -0.1455180263 0.1025174383
275298350.0 -0.1271754559 0.1130838205 0.4731978519 -0.2942530036 0.4738686542 -0.2945043482 -0.1447532851 0.1039602605
280298320.0 -0.1261736617 0.1142972924 0.4705834943 -0.2994300339 0.4709955157 -0.2999769978 -0.1438691191 0.1052826115
285298290.0 -0.1249422703 0.1158148256 0.4671525741 -0.3050724414 0.4678774605 -0.3050923732 -0.143061913 0.1067304023
290298260.0 -0.1239141863 0.1173199843 0.4649059428 -0.3102740704 0.4642083891 -0.3103892422 -0.1417974696 0.1079425791
295298230.0 -0.1226284499 0.1184794665 0.4608540081 -0.3159382973 0.460963475 -0.3163513325 -0.140858281 0.1091586034
300298200.0 -0.1212675039 0.1202296719 0.4572662616 -0.3209443395 0.4575793607 -0.3211790054 -0.1396748669 0.1107743901
305298170.0 -0.1200887277 0.1212297431 0.4540480398 -0.3267393649 0.4542696097 -0.3268111305 -0.1385850324 0.1116709836
310298140.0 -0.1186549132 0.1223917825 0.4507408183 -0.3313949019 0.4507418489 -0.3310247779 -0.137780741 0.1126505884
315298110.0 -0.1176364277 0.123821041 0.4473134737 -0.3369047783 0.4470550059 -0.3370434055 -0.136585739 0.1141466278
320298080.0 -0.1165274311 0.1252372706 0.4426865621 -0.3418614752 0.4436467571 -0.3423378856 -0.1358272215 0.1154005555
325298050.0 -0.1158503151 0.1260417602 0.4389690775 -0.3469533695 0.439673167 -0.3471277659 -0.1343694486 0.1164414601
330298020.0 -0.1151220947 0.1276048805 0.4350655454 -0.3518232504 0.4357449558 -0.3516901097 -0.13451678 0.1180429891
335297990.0 -0.1132677424 0.129225626 0.4311925845 -0.3566665513 0.4317204666 -0.3566699889 -0.1331901502 0.1192638062
340297960.0 -0.1122715664 0.1304719015 0.4266637893 -0.3614960352 0.4270298499 -0.3616103054 -0.1320018381 0.1207885921
345297930.0 -0.1112963854 0.1317464079 0.4234422487 -0.3665583206 0.4233669333 -0.3663599561 -0.1312021045 0.1218035576
350297900.0 -0.1102203995 0.1330464917 0.4194508449 -0.3706466014 0.419289686 -0.3707437801 -0.1297959279 0.1229676665
355297870.0 -0.1088766143 0.1344928726 0.4151333573 -0.3752254578 0.4150939674 -0.3750515152 -0.1287678257 0.1246550541
360297840.0 -0.1075233574 0.1357407537 0.4104580345 -0.3798496714 0.4110123848 -0.380384175 -0.1276471836 0.1261722934
365297810.0 -0.1063010936 0.137176327 0.4070476195 -0.3846465717 0.4068372849 -0.3845138073 -0.1271530982 0.1272766943
370297780.0 -0.1046505432 0.1384139541 0.4021284849 -0.3891176374 0.4025794483 -0.3887666305 -0.1257623446 0.1285802157
375297750.0 -0.1036085703 0.1398181586 0.3984531503 -0.3930799553 0.3985891281 -0.3932564307 -0.1245617138 0.1299893879
380297720.0 -0.1023995012 0.1410876438 0.3941478663 -0.398094289 0.3938052952 -0.3977877619 -0.1234696159 0.1316005302
385297690.0 -0.1007988723 0.1420593481 0.3893824097 -0.4015765349 0.3896310031 -0.4025537128 -0.1220519583 0.132973172
390297660.0 -0.0988871262 0.1435016914 0.3851604461 -0.406137247 0.385111742 -0.4064131303 -0.1206642505 0.1338329598
395297630.0 -0.0973499942 0.1446223094 0.3808628095 -0.4098735433 0.3807445327 -0.4101171207 -0.1196165579 0.135154863
400297600.0 -0.0962273466 0.1459626147 0.3763315134 -0.4144296091 0.3763071511 -0.414563402 -0.1179662311 0.13719435
405297570.0 -0.0949756157 0.146505302 0.3716167347 -0.4177432311 0.3718654001 -0.4186396229 -0.1167033701 0.1381794756
410297540.0 -0.0932781551 0.1484035963 0.3672722194 -0.4225661144 0.3671628458 -0.422319836 -0.1157016355 0.1393116487
415297510.0 -0.0920067156 0.1492592614 0.3621942348 -0.4264592621 0.362907833 -0.4268423434 -0.1142665591 0.1405301171
420297480.0 -0.0901956526 0.1502024952 0.3576505702 -0.4302262326 0.3578749705 -0.4305340913 -0.1128424986 0.1420329997
425297450.0 -0.088117692 0.1511667419 0.3528968913 -0.4342106962 0.3529606902 -0.4343527327 -0.1116452005 0.1427482603
430297420.0 -0.0868178835 0.1523349225 0.3488534874 -0.4383451356 0.3488006756 -0.4381749695 -0.1096419506 0.1443189021
435297390.0 -0.0852773108 0.153292049 0.3431298049 -0.4424380822 0.343681368 -0.4420601272 -0.1092777959 0.1456033712
440297360.0 -0.0832982549 0.1544474 0.3384951595 -0.4460941466 0.338776291 -0.4460031265 -0.1076373996 0.1468045557
445297330.0 -0.0815945113 0.1552637095 0.3337079232 -0.4491620334 0.3336304765 -0.4495597047 -0.1057666478 0.1479568801
450297300.0 -0.0800221857 0.1564411854 0.3287428953 -0.4530236407 0.328859836 -0.4528592242 -0.1043599459 0.1492798852
455297270.0 -0.0788066389 0.1573207988 0.3240219119 -0.456439883 0.323901168 -0.4566417705 -0.1030858618 0.1504037647
460297240.0 -0.0766406298 0.1582943802 0.3186653936 -0.4603864958 0.3185579012 -0.4605659335 -0.1015139563 0.1512610512
465297210.0 -0.0749163779 0.1591998313 0.3135986655 -0.4635444127 0.3135202147 -0.4639891366 -0.0997794726 0.1529896254
470297180.0 -0.073172511 0.159991199 0.3083955651 -0.4666723839 0.3089971657 -0.4667663585 -0.0982901916 0.153530978
475297150.0 -0.0716613865 0.1611547977 0.3036198484 -0.4703057167 0.3037898345 -0.4703507288 -0.0968438602 0.1548942026
480297120.0 -0.0691651298 0.1623361279 0.298371223 -0.4733676736 0.2985950178 -0.4733457545 -0.095796055 0.1558703981
485297090.0 -0.067735986 0.1626932629 0.293366614 -0.4767728835 0.2930442977 -0.4767201381 -0.0941186023 0.1571132505
490297060.0 -0.0654079232 0.1638675748 0.287506065 -0.4798352028 0.2880377867 -0.4801270574 -0.0924186078 0.1580412885
495297030.0 -0.0641097997 0.1646335296 0.2832377205 -0.4833079564 0.2825568453 -0.4832763977 -0.0904360527 0.1592931164
500297000.0 -0.0622985558 0.1654296699 0.2778469613 -0.4856187707 0.277757519 -0.4864266666 -0.0893146514 0.1602849385
505296970.0 -0.0599669856 0.1664704178 0.2722111955 -0.4892915112 0.2723640238 -0.4889699139 -0.087637572 0.1607908516
510296940.0 -0.0581234643 0.1670091837 0.2669456092 -0.4926206649 0.267311244 -0.4924279144 -0.0857579213 0.162324584
515296910.0 -0.056250265 0.1680477804 0.2609575531 -0.4949638643 0.2610597758 -0.4948258396 -0.0844475563 0.1627391827
520296880.0 -0.0542204711 0.1687690793 0.2561900956 -0.4973648026 0.255404717 -0.4976022539 -0.0822585533 0.1643184124
525296850.0 -0.0523016111 0.1692166685 0.2504865329 -0.5001222554 0.2502740014 -0.5002316086 -0.0809577683 0.1648004715
530296820.0 -0.0507488405 0.1698485903 0.2448664149 -0.5029754361 0.2452662983 -0.5031151784 -0.0792606849 0.1657694729
535296790.0 -0.0480076352 0.1707529712 0.2394128762 -0.5051441812 0.2397438718 -0.5057360383 -0.0772558023 0.1670814577
540296760.0 -0.0463589288 0.1715640401 0.2340040792 -0.508123893 0.2335111299 -0.5082676838 -0.0757901053 0.1673628789
545296730.0 -0.044732971 0.1725825403 0.2286533428 -0.5103585117 0.2285271605 -0.5103107782 -0.0741863637 0.1682932091
550296700.0 -0.0420321018 0.1729261331 0.2227144127 -0.5132016642 0.2227484004 -0.5134745514 -0.0725565453 0.1689889685
555296670.0 -0.0403876755 0.1733729685 0.216973456 -0.5158149915 0.2173657884 -0.5153067419 -0.0709379091 0.1693494895
560296640.0 -0.0378834363 0.1740194877 0.2114562018 -0.5178363324 0.2116507472 -0.5176381288 -0.0688943199 0.1708290426
565296610.0 -0.0364886991 0.1747460787 0.2063156699 -0.5203153109 0.206111937 -0.5198252223 -0.0673190855 0.1717283648
570296580.0 -0.0344088861 0.1753302833 0.2001372432 -0.5220588445 0.2005245042 -0.5222388361 -0.0660857881 0.1721226592
575296550.0 -0.0318687885 0.1758099198 0.1945688736 -0.5243496207 0.1949470217 -0.5239606868 -0.0641098162 0.1729172075
580296520.0 -0.0301180125 0.1767575751 0.1891558317 -0.5262250204 0.1890756391 -0.5262493385 -0.062530516 0.1737895041
585296490.0 -0.0280301789 0.1771493396 0.1834272943 -0.5280365798 0.1829123615 -0.5280248655 -0.0606300472 0.1748090102
590296460.0 -0.0251844008 0.1777435376 0.177614965 -0.5302212795 0.1777759549 -0.5304020596 -0.0590121433 0.1753776222
595296430.0 -0.02362753 0.178114095 0.1714890891 -0.5320766201 0.171397598 -0.5324918387 -0.057329442 0.1758806148
600296400.0 -0.0217504211 0.1784381004 0.1654626346 -0.5334548309 0.1657323537 -0.5339983147 -0.0552442169 0.1763984318
605296370.0 -0.0199182379 0.1792756717 0.1606539077 -0.5355166398 0.159615794 -0.5356659104 -0.0535256898 0.1773745038
610296340.0 -0.0173955186 0.179828982 0.154276009 -0.5368535957 0.1545668534 -0.5371756995 -0.0519777036 0.1780494626
615296310.0 -0.0151326949 0.1797533886 0.148702109 -0.5392140483 0.1480076457 -0.5386554597 -0.0500239316 0.1786417539
620296280.0 -0.0136657556 0.180864614 0.1423851535 -0.5407283862 0.1423410206 -0.5404622855 -0.0484841705 0.1794443662
625296250.0 -0.0117130644 0.1811459055 0.1368620001 -0.5423164733 0.1368125536 -0.5422536882 -0.0471312948 0.1800506858
630296220.0 -0.0094908904 0.1813718435 0.1305095069 -0.5432048522 0.1305678284 -0.5433626695 -0.0450114229 0.1806669872
635296190.0 -0.0074403174 0.1818647871 0.1247358698 -0.5446831627 0.124750452 -0.5441653054 -0.0430435758 0.1809088572
640296160.0 -0.0052815813 0.1823272617 0.1188281756 -0.5467131767 0.1189753204 -0.5461985077 -0.0417829058 0.1814845264
645296130.0 -0.0032114573 0.1828374626 0.1130558487 -0.5471590265 0.1129088085 -0.5467817098 -0.0398701092 0.181697178
650296100.0 -0.0012816174 0.1825148379 0.1073111869 -0.5486884429 0.1068713439 -0.5483746185 -0.0371984221 0.1825975994
655296070.0 0.000767105 0.1828987213 0.1010016201 -0.5496000137 0.1011080739 -0.5491883789 -0.0361815849 0.1830652611
660296040.0 0.0027963745 0.1830815375 0.0956905991 -0.5503462858 0.0950054366 -0.5508272542 -0.0341756518 0.1832920088
665296010.0 0.0047477738 0.1836264772 0.0891885828 -0.5510255822 0.0890107085 -0.5515982748 -0.0322435246 0.1840807537
670295980.0 0.0071360553 0.1837496115 0.0832744111 -0.5525386224 0.0831125154 -0.5516857529 -0.0308549651 0.18422154
675295950.0 0.0090838667 0.1835106801 0.07750829 -0.5526240165 0.0774141226 -0.5533680233 -0.0290745879 0.1849992499
680295920.0 0.0110582179 0.184123476 0.0712005728 -0.5538008011 0.0712464695 -0.5536031402 -0.0269948077 0.185089442
685295890.0 0.0132667457 0.1843754975 0.0654704626 -0.5547196931 0.0654170783 -0.5548661492 -0.0251492027 0.1859966049
690295860.0 0.0149674641 0.1845348102 0.0593732823 -0.5553349335 0.059038702 -0.5553920774 -0.0234849718 0.1861534388
695295830.0 0.0170540764 0.1844865231 0.0538444077 -0.5559282494 0.0533898968 -0.5554493054 -0.0216731309 0.18652538
700295800.0 0.0192848386 0.1847301514 0.0476704407 -0.5563896523 0.0476768976 -0.5565814429 -0.0197105465 0.1867865969
705295770.0 0.0209153472 0.1847463129 0.041574988 -0.5571866511 0.0414130775 -0.5567935575 -0.0182017836 0.1876658124
710295740.0 0.0229932777 0.1846227691 0.0354664289 -0.5571518578 0.035312286 -0.5573504494 -0.0162792372 0.1877976685
715295710.0 0.0254864353 0.1848939312 0.0295114557 -0.5576985156 0.0294663546 -0.5578800606 -0.014239816 0.1877738219
720295680.0 0.0274094555 0.1848223597 0.0234226407 -0.5577628372 0.0234228281 -0.5581847958 -0.0123470378 0.1881213182
725295650.0 0.0289922251 0.1849019291 0.0180445464 -0.5577686594 0.0174253154 -0.5580260387 -0.0108649995 0.1889138429
730295620.0 0.030578118 0.1847661326 0.0116839999 -0.5579301426 0.0113859638 -0.5576381208 -0.009246151 0.1895573516
735295590.0 0.0329382363 0.1847302801 0.005884454 -0.5584325945 0.0056280334 -0.5580805057 -0.007101713 0.1891008019
740295560.0 0.034968567 0.1843814555 -0.0004124393 -0.5582468772 -0.0001266588 -0.5582694096 -0.0055600855 0.1894835801
745295530.0 0.0370564445 0.1846454863 -0.0062092279 -0.5574474192 -0.0057644193 -0.5581574218 -0.0039652766 0.1897463878
750295500.0 0.0385110747 0.184444635 -0.0117956184 -0.5578967622 -0.0124473127 -0.5577805584 -0.0019870291 0.189930359
755295470.0 0.0409636766 0.1840978251 -0.018144794 -0.5578914559 -0.0181210058 -0.5581265159 -0.0002002408 0.1901973104
760295440.0 0.0425503719 0.1843976603 -0.0245371111 -0.5577913162 -0.0245803777 -0.5571834788 0.0019766592 0.1899924456
765295410.0 0.0447420989 0.1838016423 -0.0303627851 -0.5574609113 -0.0298304747 -0.5570967981 0.0037180723 0.1901276291
770295380.0 0.0464328367 0.1835109671 -0.0357936638 -0.5562187587 -0.0363502855 -0.5567000742 0.0051979123 0.1903870904
775295350.0 0.0481884971 0.1831189094 -0.0419494841 -0.5562865061 -0.0422649677 -0.5562338775 0.0073164268 0.1906624819
780295320.0 0.0505089397 0.1831077757 -0.0477760426 -0.5554493437 -0.0482614437 -0.5555670041 0.0096006471 0.1906495403
785295290.0 0.0523195256 0.1823621627 -0.0538469195 -0.5550840059 -0.0541867631 -0.5550619154 0.0107287806 0.1911077815
790295260.0 0.0543948522 0.182120062 -0.0598973845 -0.5547293069 -0.0598660592 -0.554888386 0.0127777493 0.1913814341
795295230.0 0.0559664993 0.1817300919 -0.0658606406 -0.5539178788 -0.06608803 -0.5541766517 0.0146509102 0.1905178409
800295200.0 0.0577105333 0.1814070694 -0.0712031661 -0.5529955438 -0.0721299983 -0.553535071 0.0161426609 0.1910125192
805295170.0 0.0594574666 0.1809652132 -0.0775625695 -0.5524334565 -0.0770980586 -0.552613142 0.0186608487 0.190889649
810295140.0 0.0617660254 0.1808698261 -0.0834558804 -0.5519936229 -0.0837627201 -0.5516103032 0.0203205204 0.1910686935
815295110.0 0.0633199431 0.1803074586 -0.0892535122 -0.5507233494 -0.0892892036 -0.5508502446 0.0219762291 0.1907685753
820295080.0 0.0652678108 0.1795043374 -0.0948288818 -0.5494705356 -0.0951769969 -0.5499239475 0.0232708563 0.1911861214
825295050.0 0.0671123674 0.1788738914 -0.1008771323 -0.548299431 -0.1013173549 -0.5482429636 0.0259892445 0.1912087397
830295020.0 0.0690057605 0.1784012315 -0.1071396451 -0.5478689035 -0.1071012076 -0.5473828987 0.0276548725 0.1904933832
