!Created with skrf (http://scikit-rf.org).
# Hz S RI R 50.0 
!freq ReS11 ImS11 ReS21 ImS21 ReS12 ImS12 ReS22 ImS22
300000.0 -0.0429347007 -0.0719518783 -0.000805613 0.0004678259 -0.0008111673 0.0006847496 -0.7648387101 -0.1997817895
5299970.0 -0.0458908753 0.0144278071 -0.0002783284 -2.78432e-05 -0.0001280058 3.5428e-06 -0.7847577689 -0.0104964931
10299940.0 -0.0404687296 0.0329035616 9.57268e-05 -5.43352e-05 1.86961e-05 -0.0001581579 -0.7876204712 -0.0055879171
15299910.0 -0.0314783406 0.0474991953 0.0004220908 0.0001052219 9.5873e-05 1.0803e-05 -0.7923423182 -0.0028339307
20299880.0 -0.0215006686 0.05948328 -5.55551e-05 5.93444e-05 0.0003290699 4.7298e-05 -0.7992164151 0.0020742189
25299850.0 -0.0100929902 0.0689542942 0.0002075535 -6.1276e-05 6.67507e-05 -9.01229e-05 -0.8058493781 0.0081166516
30299820.0 0.0012009096 0.0757146048 6.1615e-05 1.6861e-05 4.45496e-05 -2.25e-07 -0.8120072218 0.0157160844
35299790.0 0.0131298307 0.0803043881 7.3846e-06 4.59543e-05 -0.0001069524 -0.0001773431 -0.8171722261 0.0247450766
40299760.0 0.0245962695 0.0831444288 8.04174e-05 6.96385e-05 -0.0001610675 2.4495e-06 -0.820842831 0.0339792027
45299730.0 0.0351933185 0.0842700786 8.34977e-05 -4.46865e-05 -4.81356e-05 3.16038e-05 -0.8238485072 0.0436531529
50299700.0 0.0454661974 0.0844448506 -3.98354e-05 0.0001208022 -1.93809e-05 0.0001431877 -0.8263797766 0.0539272248
55299670.0 0.0547559104 0.0834779775 0.0001151207 0.0001280417 8.13007e-05 0.0001693503 -0.8281993184 0.0637425223
60299640.0 0.0632923905 0.0816715676 -0.00011789 0.0001428795 -0.0001261673 -8.67924e-05 -0.8297806239 0.0737520996
65299610.0 0.0714389337 0.079319202 -0.0004191905 -2.6949e-05 -3.08e-08 1.23103e-05 -0.8302534797 0.0840119202
70299580.0 0.0781759764 0.0760725645 0.000145381 6.16677e-05 -5.2681e-05 -0.0001074375 -0.8311172052 0.0938693697
75299550.0 0.0847209312 0.0728405752 -2.09947e-05 0.0001777473 0.0001442076 -0.0001131956 -0.8306466231 0.1036555598
80299520.0 0.0902682009 0.0694429107 -7.54632e-05 0.0001452514 5.52923e-05 4.75087e-05 -0.8306146478 0.1139477901
85299490.0 0.0956772846 0.0657130045 0.0001687438 0.000187985 0.00022081 0.000126845 -0.8298414858 0.123016325
90299460.0 0.1004204628 0.0618312247 8.2879e-06 -4.73e-07 3.51358e-05 -8.87258e-05 -0.8291907024 0.1325915997
95299430.0 0.1043464753 0.0582772464 -6.45014e-05 -0.0001585893 0.0001320731 -7.36736e-05 -0.8282950263 0.1422790525
100299400.0 0.1083361244 0.0542465561 0.0001000012 -6.46837e-05 4.50115e-05 -0.0001394749 -0.8269271604 0.151962017
105299370.0 0.1114256489 0.0504061315 0.0001234066 6.72886e-05 -0.0001304136 0.0001614856 -0.8253982898 0.1607539761
110299340.0 0.1147807828 0.0464558188 -0.0001051122 0.0001606216 -0.000154471 1.00271e-05 -0.8243191695 0.170006755
115299310.0 0.1170351676 0.0428227701 0.0001354498 3.71426e-05 0.0002549239 -8.9868e-05 -0.8230751573 0.179254438
120299280.0 0.1195649193 0.0388561385 -5.31603e-05 0.0001332401 -2.4842e-05 4.07168e-05 -0.8207668404 0.1879145543
125299250.0 0.1212094548 0.0349443752 8.78855e-05 1.07568e-05 -0.0001951765 0.0001557988 -0.8194888106 0.1969410443
130299220.0 0.1230494824 0.031292864 2.34609e-05 4.36308e-05 -7.1352e-06 -8.16411e-05 -0.8171841473 0.206123481
135299190.0 0.1245937175 0.0277999542 -0.000110005 0.0001759164 0.0001212828 5.78541e-05 -0.8160692609 0.2144746602
140299160.0 0.1262087465 0.0245249025 1.74914e-05 4.00177e-05 -7.54762e-05 -0.0001456369 -0.8139863766 0.2234016508
145299130.0 0.1274558646 0.0210338651 3.76735e-05 0.0001808396 2.62915e-05 4.53163e-05 -0.8117064841 0.2324397481
150299100.0 0.1283921372 0.0176157516 5.7209e-06 9.64005e-05 0.0001688289 -0.0001661008 -0.8093309087 0.2412479254
155299070.0 0.1293143 0.0145160015 -1.90346e-05 0.0003041392 -5.60598e-05 8.66195e-05 -0.806693557 0.2506019012
160299040.0 0.1298443893 0.0115314336 7.29635e-05 0.0001501035 -9.24761e-05 2.51102e-05 -0.8049851584 0.2588185805
165299010.0 0.1308297114 0.0085166385 -5.0368e-06 9.54489e-05 9.1182e-05 -4.9571e-06 -0.8014787862 0.2673713782
170298980.0 0.1308036112 0.0053507109 -7.78631e-05 0.0003141201 0.0001234264 -5.78601e-05 -0.7991451025 0.2756410631
175298950.0 0.1314552483 0.0024831103 -7.55548e-05 -3.3069e-06 7.24227e-05 1.81969e-05 -0.7966294088 0.284666266
180298920.0 0.1315460235 -0.0003032802 6.72671e-05 -7.3707e-05 -0.0001218114 0.0001397813 -0.7930999391 0.2932604001
185298890.0 0.1317478552 -0.0032686412 4.80105e-05 -5.80401e-05 5.21608e-05 7.13353e-05 -0.7897922341 0.3018037773
190298860.0 0.1318078257 -0.0057794326 9.37604e-05 1.78748e-05 -6.74052e-05 -2.20759e-05 -0.7871369342 0.3101997463
195298830.0 0.1319646236 -0.0082851873 1.60244e-05 4.7508e-05 -9.03105e-05 0.0001213885 -0.7841242122 0.3182042861
200298800.0 0.1319680721 -0.0111913594 0.0001541244 0.0001217423 0.0001765454 9.3848e-06 -0.7803509937 0.3267038915
205298770.0 0.1313456569 -0.0138016606 -2.2041e-06 -8.1531e-06 0.0001081011 -2.03974e-05 -0.7776172278 0.3353250692
210298740.0 0.1315889657 -0.0159102368 -0.0001248235 0.0001065051 6.33646e-05 0.0001927668 -0.773870109 0.3433743909
215298710.0 0.1310454249 -0.018502636 9.51981e-05 0.0001778304 0.0001104958 0.0002627335 -0.7702535425 0.3510739244
220298680.0 0.1310799757 -0.0210223497 5.6288e-05 -0.000127549 -2.46292e-05 0.0003227125 -0.7666595648 0.3597833842
225298650.0 0.1307110582 -0.0232499452 3.0767e-05 0.0002385781 0.0001586884 -5.14401e-05 -0.7633987192 0.3675783261
230298620.0 0.130115564 -0.0251989071 -5.222e-07 6.82582e-05 -3.57027e-05 6.91455e-05 -0.7587757886 0.3753855045
235298590.0 0.1298348043 -0.0275460208 5.99992e-05 -1.35975e-05 -4.0331e-05 0.0003700509 -0.755241628 0.3835138046
240298560.0 0.1287849104 -0.0296934341 6.97586e-05 0.0001333014 2.90407e-05 -6.37712e-05 -0.7511582161 0.3907417034
245298530.0 0.1284241108 -0.0319597833 4.32665e-05 0.0001557393 3.14725e-05 0.0001506752 -0.7473268886 0.3989669563
250298500.0 0.1279105643 -0.034129198 -7.72314e-05 5.09895e-05 4.74794e-05 0.0002807366 -0.7425664966 0.407335506
255298470.0 0.1272240965 -0.0357864102 -0.0001488625 -0.0001083513 5.46715e-05 0.0002499248 -0.7387231145 0.4148663128
260298440.0 0.1265764859 -0.0382591968 -1.71722e-05 0.0001108617 0.0002402513 0.0001861289 -0.7341353438 0.4218935986
265298410.0 0.1256755047 -0.0400290785 0.0001085132 0.0002041522 0.0001119669 0.0001676482 -0.7296904599 0.4303444232
270298380.0 0.1251452953 -0.0418514101 3.4534e-06 -7.51478e-05 0.0001419823 0.0001519355 -0.7250292862 0.4376559148
275298350.0 0.1243576268 -0.0433577472 0.0001029018 4.01357e-05 8.5997e-06 9.99955e-05 -0.7201057697 0.4454209515
280298320.0 0.1237148973 -0.045225102 7.96273e-05 0.0001466461 0.0001341973 0.000147395 -0.716083482 0.4525773774
285298290.0 0.1227193513 -0.0471567471 6.9366e-05 0.0001816416 0.0004016475 0.0002001488 -0.7119435911 0.4608742398
290298260.0 0.1218713523 -0.0489159696 0.0002352137 0.0001556641 0.0001603747 0.0001047414 -0.7063642878 0.4677745342
295298230.0 0.1209434526 -0.051085019 5.02452e-05 0.0002315534 1.13011e-05 -1.53168e-05 -0.7016490286 0.4750221908
300298200.0 0.1203333116 -0.0525992928 0.0001263649 9.4146e-05 4.88474e-05 0.0001374179 -0.6966629888 0.4824306545
305298170.0 0.1196991748 -0.0545814999 0.0001537605 0.0001752347 -4.27114e-05 5.12316e-05 -0.6913625411 0.489107247
310298140.0 0.1185325449 -0.0567478725 0.0001079399 9.32724e-05 5.35882e-05 2.95026e-05 -0.6864226634 0.4967979913
315298110.0 0.1173430426 -0.0582404516 6.6821e-05 7.7266e-05 0.0001429799 0.0002192314 -0.6811727898 0.5039279791
320298080.0 0.1161641547 -0.060195009 3.5267e-05 4.6832e-05 -1.0748e-06 9.86737e-05 -0.6761836939 0.5108878061
325298050.0 0.1147553442 -0.0619773006 0.0002798868 9.7503e-05 -5.6386e-06 0.0001868337 -0.6705292798 0.5179723619
330298020.0 0.1134747264 -0.0634044206 0.0001963133 0.0001760774 0.0002225967 0.0001096583 -0.6650352895 0.5243584109
335297990.0 0.1120135669 -0.0646111363 0.000134518 0.0002129252 0.0001162052 0.000110887 -0.659273243 0.5315944647
340297960.0 0.1107738927 -0.0658710143 0.0003533245 0.0002387334 0.0001767049 1.28127e-05 -0.6536474219 0.5385918097
345297930.0 0.109684763 -0.0674561526 4.64076e-05 0.0002056282 0.0002024595 -2.8491e-05 -0.648615892 0.5447678338
350297900.0 0.108668665 -0.0691364681 7.45492e-05 0.0002012171 0.0001173086 0.0001474837 -0.6432935983 0.5514186513
355297870.0 0.107345424 -0.0704447123 0.0001439238 -8.09173e-05 0.0001741837 0.0001670106 -0.6368950471 0.5584702746
360297840.0 0.1062701921 -0.0716976103 0.0001546353 -9.61502e-05 0.0001212535 0.0004608521 -0.6305615777 0.564504543
365297810.0 0.105129909 -0.0732073187 0.0001820139 0.000135449 0.0001550994 4.44922e-05 -0.6254960947 0.5708185866
370297780.0 0.1038186841 -0.0744110983 0.0003639891 0.0001121198 0.0001021365 4.17896e-05 -0.6190074303 0.5776043375
375297750.0 0.1028254049 -0.0756643116 -8.23722e-05 0.0001256337 0.0001541789 0.0003953663 -0.6129937249 0.5839053845
380297720.0 0.1014304548 -0.076674423 0.0001950652 1.46422e-05 0.0001540391 0.0002598915 -0.6068750046 0.5905701014
385297690.0 0.1002728343 -0.0782066983 0.0001081863 0.0002261266 0.0001036555 3.13406e-05 -0.6014261992 0.5964489991
390297660.0 0.0991355171 -0.079699136 2.09488e-05 0.0001338758 0.0001080334 0.0001660215 -0.5945034382 0.6018528517
395297630.0 0.0979209997 -0.080576054 0.0001301041 0.0002019924 0.0003387716 -4.32735e-05 -0.5885142581 0.6079716561
400297600.0 0.0961634306 -0.0819394594 0.0003065451 7.66822e-05 0.0002821142 0.0002683577 -0.5824907833 0.6142637576
405297570.0 0.095148808 -0.083141801 0.0003794133 -2.83708e-05 0.0003672186 7.35774e-05 -0.5750725646 0.6198484317
410297540.0 0.0944303099 -0.0843288818 0.0002163801 0.000144039 0.0001608045 -0.0001201972 -0.569185598 0.6265436214
415297510.0 0.0926184792 -0.0853733331 0.0002854522 6.7478e-06 0.0002237422 -4.58538e-05 -0.5629428298 0.6313497851
420297480.0 0.0915673477 -0.0865297168 0.0003612745 4.60948e-05 0.0001926284 4.41469e-05 -0.5563230562 0.6383557344
425297450.0 0.0904568347 -0.0876649539 0.0002464661 0.0003769687 0.0002930607 0.0003785915 -0.549580648 0.6425451969
430297420.0 0.0890590864 -0.0889852463 0.0003855776 0.0002319401 8.2032e-05 0.0001466525 -0.5428391067 0.6481923976
435297390.0 0.087594261 -0.0898777462 0.0003712239 0.0003161474 0.0001532558 9.41285e-05 -0.5362641651 0.6545247026
440297360.0 0.0866319806 -0.0909043601 0.0002885941 2.95805e-05 0.0002702173 9.52041e-05 -0.5302310163 0.6597097879
445297330.0 0.085266071 -0.0921821795 0.0003139907 0.0001165703 0.0001503452 1.743e-05 -0.5227163529 0.6650571816
450297300.0 0.0840220526 -0.0931712472 0.0001543212 4.27794e-05 8.84428e-05 0.0003143976 -0.5158622496 0.669671547
455297270.0 0.0823192935 -0.094133577 0.0002173514 0.0003201533 0.0001950057 5.9887e-05 -0.5090767228 0.6748308401
460297240.0 0.0814157712 -0.0950184819 0.0002269742 -5.00173e-05 0.0002112211 -1.33838e-05 -0.5023857169 0.6801530932
465297210.0 0.0801182435 -0.0957592643 0.0002291235 8.07546e-05 0.0004806289 0.0002019314 -0.4950524497 0.686181218
470297180.0 0.0786001125 -0.0969619133 0.0002233839 0.0001234849 9.13497e-05 0.0001060903 -0.4880005515 0.6904657712
475297150.0 0.0772186736 -0.0974719743 0.0002462199 -5.14778e-05 0.0001903525 5.81106e-05 -0.4812695051 0.6954299185
480297120.0 0.0762556775 -0.0987738173 9.49652e-05 9.88659e-05 0.0002805456 0.0001858436 -0.4740967163 0.6999172904
485297090.0 0.0748108825 -0.0994055861 0.0002751512 -0.0001141633 0.0002191168 4.981e-06 -0.4674397211 0.7048249882
490297060.0 0.0740049503 -0.1004748619 0.0003541892 0.0002922911 0.0001965651 -6.39139e-05 -0.4595684992 0.7086276062
495297030.0 0.0722415637 -0.1012147169 0.0002306947 -5.10601e-05 0.0003912497 0.0001126766 -0.4521121346 0.7139329487
500297000.0 0.0708781781 -0.1018987204 0.0003222625 0.0002450511 0.000236976 0.0001933081 -0.4456010595 0.7187500257
505296970.0 0.0696922044 -0.1027110982 0.0001665313 9.11501e-05 0.0002122621 2.85646e-05 -0.4375488102 0.7225396285
510296940.0 0.0685780444 -0.1033016403 0.0003384974 6.3938e-06 0.0002987228 0.0001293108 -0.4301403442 0.7273600986
515296910.0 0.067165503 -0.1039693497 0.0001285476 0.0001279085 0.0003028206 0.0001198497 -0.4232696626 0.7306330347
520296880.0 0.0658326015 -0.1048608855 0.0002710144 9.27131e-05 1.74004e-05 6.7048e-06 -0.4147315022 0.7361448639
525296850.0 0.0646529333 -0.1056995676 8.61237e-05 0.0001062062 0.0001998464 0.0001096915 -0.4083091769 0.7400049711
530296820.0 0.0629592156 -0.1061320065 0.0002313906 0.0002348617 0.0001572893 0.0001775909 -0.4006713344 0.7435602383
535296790.0 0.062029041 -0.1066618523 0.0002813679 0.0001377971 0.000335864 -2.68547e-05 -0.3931086813 0.7485459826
540296760.0 0.0609498914 -0.1073810998 0.0003190957 0.0001746182 0.0002271056 0.0001238353 -0.3850537765 0.7519514703
545296730.0 0.058899706 -0.1074936429 0.0003521982 4.3865e-05 0.0004111056 0.0001907549 -0.3776717 0.7555901281
550296700.0 0.0579519192 -0.1082597258 0.00024207 -2.43876e-05 0.0003719946 2.55826e-05 -0.3698287319 0.7589741341
555296670.0 0.0565179813 -0.1089182696 7.63088e-05 -0.0001742921 0.000282251 4.16412e-05 -0.3626717461 0.7618415541
560296640.0 0.055365851 -0.1094979571 0.0003846899 -0.0002296433 0.0004406461 6.30721e-05 -0.3544399111 0.7668856273
565296610.0 0.0538294066 -0.1099695213 0.0001888729 -0.0002027442 0.0002250361 7.93773e-05 -0.3472560986 0.7700608216
570296580.0 0.0526066597 -0.11004231 -7.45e-08 4.79137e-05 0.0004448785 -8.16821e-05 -0.3393906627 0.772934663
575296550.0 0.0512916216 -0.110533381 0.0003159454 6.11308e-05 0.0003707308 -0.0002175412 -0.3311481899 0.7767206812
580296520.0 0.05004417 -0.1105725456 0.0002535635 0.0003068381 0.0003862464 -9.19034e-05 -0.3237065751 0.7796452234
585296490.0 0.0483958543 -0.1108903953 0.0003208751 4.2205e-06 0.000325596 0.0001608151 -0.3153994331 0.7833483213
590296460.0 0.0472531051 -0.1113769291 0.0001979054 0.000111765 0.0003565424 -5.12015e-05 -0.3079128576 0.7860229247
595296430.0 0.0455902129 -0.1118510131 0.0004267667 0.0001942554 0.0001571748 7.73243e-05 -0.2998543485 0.7888747697
600296400.0 0.0441946132 -0.1121402152 0.0003813082 -4.67226e-05 0.000145891 3.11155e-05 -0.2919252921 0.7914610175
605296370.0 0.0426013298 -0.1122401394 0.0002343912 -1.65695e-05 0.0002469727 -3.50704e-05 -0.283854349 0.7950903771
610296340.0 0.0418746263 -0.112544041 0.000284902 -6.10455e-05 9.36249e-05 7.71326e-05 -0.2761675654 0.7978719322
615296310.0 0.0404761993 -0.1128660731 0.000466765 0.0001219376 0.0004329917 0.000125279 -0.2675025993 0.8006030793
620296280.0 0.038873442 -0.112585446 0.0003527774 0.0001143362 0.000294213 0.0001522732 -0.2597863859 0.8033083368
625296250.0 0.0370794239 -0.1128646402 0.0001243671 0.000108094 0.0001107164 0.0002454616 -0.2517250969 0.8050498453
630296220.0 0.0360405647 -0.113116768 0.0001771564 0.0001123362 0.0003806593 1.2689e-05 -0.2432503555 0.8081009414
635296190.0 0.0343742122 -0.1129724259 0.0004326941 -2.74436e-05 0.000322509 -3.3627e-06 -0.2357845415 0.810327862
640296160.0 0.0329424749 -0.1133745619 0.0002455069 -0.0001188058 0.0003455447 7.06976e-05 -0.2272354533 0.8123229046
645296130.0 0.0319481814 -0.1131610637 0.0004199851 0.0001895718 0.0004550686 0.0001387033 -0.2198939282 0.8145518762
650296100.0 0.0301312018 -0.1134812423 0.0002756177 2.83344e-05 0.0001856228 2.5834e-06 -0.2104440992 0.8171465039
655296070.0 0.0287073808 -0.1133270273 0.0003753241 3.91184e-05 0.0001918818 6.07503e-05 -0.203204138 0.8193300124
660296040.0 0.0271607281 -0.1133890828 8.49649e-05 7.31345e-05 0.000238156 -3.12569e-05 -0.1944366114 0.8212543734
665296010.0 0.0257904328 -0.1133321494 0.000198417 5.90954e-05 0.000360735 3.28918e-05 -0.1860842821 0.822357681
670295980.0 0.0244958053 -0.1132179933 0.0004392591 0.0002496602 0.0002668746 -0.0001140594 -0.1788033336 0.8241533386
675295950.0 0.0228263636 -0.1134083754 0.0002313839 4.93193e-05 0.0003648952 -9.15408e-05 -0.1702992757 0.8263788977
680295920.0 0.0211584209 -0.112883654 0.0002039801 0.0001556982 0.0003254704 8.0769e-06 -0.1610395515 0.8275263945
685295890.0 0.0200144079 -0.1130129677 0.0005349776 -7.08248e-05 0.0003684251 0.0001295089 -0.1531003321 0.8297197209
690295860.0 0.0184087022 -0.1129088077 0.0002751335 4.97453e-05 0.000495204 5.75021e-05 -0.1453476975 0.8309318736
695295830.0 0.017193833 -0.1127840343 0.0001005154 -1.95448e-05 0.0003597043 -8.34234e-05 -0.1372555523 0.8328829911
700295800.0 0.0154569708 -0.1123956206 0.0001894966 0.0001778769 0.0003264272 1.04394e-05 -0.1285018214 0.8336421937
705295770.0 0.014155039 -0.1122053789 0.0003804966 -0.0001332991 1.27299e-05 -1.89474e-05 -0.1204282465 0.8355033141
710295740.0 0.0126034064 -0.1124758061 0.0001672119 -0.0002188393 0.000119056 -9.615e-07 -0.1118334615 0.8365683167
715295710.0 0.0113305069 -0.1119882422 0.0004262511 -1.13747e-05 0.0003224165 -0.0001578853 -0.1030633417 0.836851775
720295680.0 0.0101027714 -0.1118849067 0.0002311832 6.26279e-05 0.0005977577 0.0002133374 -0.0949824722 0.8379063886
725295650.0 0.0083656099 -0.1116077412 0.0004329875 -1.64607e-05 0.0004596918 -0.0001100864 -0.0869375651 0.8393355895
730295620.0 0.0063179571 -0.1113797166 0.0003970691 -0.0001958155 0.0004039339 7.7996e-06 -0.0790968418 0.8400541593
735295590.0 0.005161848 -0.1109845609 0.0001910402 -5.33506e-05 0.0003965951 1.98642e-05 -0.0695320577 0.8404129926
740295560.0 0.0035549864 -0.1108203617 0.0005275942 4.87403e-05 0.0002666028 3.52362e-05 -0.0616886952 0.841612925
745295530.0 0.0023219073 -0.1102851333 0.0003004204 -7.3704e-06 0.000239681 -7.13923e-05 -0.053956566 0.8414575105
750295500.0 0.0005703017 -0.1101268709 0.0003604316 -6.444e-06 0.0005098073 -9.75628e-05 -0.044921406 0.8425448653
755295470.0 -0.0007831291 -0.1099079764 0.0004058725 5.92909e-05 0.0002055177 -7.76153e-05 -0.0366462374 0.8428589554
760295440.0 -0.0023244709 -0.1093933187 0.0002050547 4.55687e-05 0.0003733323 -8.94232e-05 -0.0278348922 0.8431218328
765295410.0 -0.0033816382 -0.1090503378 0.0002923612 0.0001549244 0.0004077067 -0.0001159297 -0.0198735539 0.8434451663
770295380.0 -0.0051278983 -0.1086929057 0.0004295237 3.50508e-05 0.0003083003 -5.43421e-05 -0.0114676166 0.8433233011
775295350.0 -0.006635986 -0.1083079272 0.0002521864 -3.3932e-05 0.0002827758 0.0001783244 -0.0034179491 0.842754261
780295320.0 -0.0080276257 -0.1078812274 0.0003222895 -0.0002323412 0.0003658709 -0.0001474245 0.0058376134 0.8436825541
785295290.0 -0.0096960349 -0.107658386 0.0004061852 7.14974e-05 0.0006017848 -0.0001402683 0.0130286955 0.8433324579
790295260.0 -0.0109808965 -0.1073615561 0.0004807933 -0.0002172642 0.000394602 -0.0001422632 0.0217303724 0.8433330045
795295230.0 -0.0126902129 -0.1068668441 0.0002721157 -0.0003387964 0.0005303654 -3.03953e-05 0.0300410615 0.842105537
800295200.0 -0.0141679396 -0.1061554991 0.0003539023 8.266e-07 0.0002995072 1.16089e-05 0.0381915484 0.8421013748
805295170.0 -0.0154368634 -0.1059094542 0.000378423 -0.0001941254 0.0005425745 0.0001415954 0.0475542854 0.8418332186
810295140.0 -0.016767719 -0.1053922077 0.0004033312 -5.26633e-05 0.0003497239 -0.0001375069 0.0557968438 0.8412127023
815295110.0 -0.0182425739 -0.1051399764 0.0004195603 9.55305e-05 0.000523367 -0.0002009179 0.0633679171 0.840907662
820295080.0 -0.0198963534 -0.1047661394 0.0001384831 -5.20586e-05 0.0003172015 5.18265e-05 0.0711917491 0.8401820469
825295050.0 -0.0213126154 -0.1043675298 0.000176289 0.0001509854 0.0005740024 -0.0001890146 0.0799095744 0.8396689516
830295020.0 -0.0226947842 -0.1038462506 0.0001295207 -0.0001274398 0.0005309768 -0.0003063798 0.0879020193 0.8386074974
835294990.0 -0.0240981819 -0.1034430046 0.0003558826 3.87436e-05 0.000314681 0.0001011137 0.0966774795 0.8381547116
840294960.0 -0.0253640479 -0.1026220711 0.0003204055 -1.13453e-05 0.0004095157 -0.0002616901 0.105347267 0.8366573629
845294930.0 -0.0267426099 -0.1023220579 0.0003402793 -0.0001902038 0.0003199599 -0.000275739 0.1138288043 0.8353659144
850294900.0 -0.0278853782 -0.1018151269 0.0004590475 3.93593e-05 0.0002294595 -0.000139427 0.1211907776 0.8342942017
