!Created with skrf (http://scikit-rf.org).
# Hz S RI R 50.0 
!freq ReS11 ImS11 ReS21 ImS21 ReS12 ImS12 ReS22 ImS22
300000.0 -0.2349641791 -0.1164166163 0.4680414536 0.0768531463 0.4646979481 0.0768164767 -0.2359609479 -0.1222105698
5299970.0 -0.2448130723 0.0058921019 0.4735323757 0.0059389998 0.474396309 0.0057511028 -0.2436695404 0.0053537223
10299940.0 -0.2418429209 0.018353307 0.4762596165 0.0070473363 0.4759119572 0.0074921437 -0.2402943306 0.0181263121
15299910.0 -0.2368904173 0.0283489255 0.479253869 0.0085760239 0.4795389398 0.0082232862 -0.2362438002 0.0273745681
20299880.0 -0.2317482131 0.0362786936 0.484168896 0.0081513039 0.4845478695 0.0086294572 -0.2313236127 0.0354907985
25299850.0 -0.2256695382 0.0427419956 0.4896501747 0.0081719443 0.4897360613 0.0077696312 -0.2264064644 0.0417570358
30299820.0 -0.2204386541 0.0478038972 0.4950874103 0.005144452 0.4954020192 0.0054032294 -0.2208130449 0.0470359631
35299790.0 -0.2143620825 0.0516701984 0.5001554108 0.0022757962 0.5005185983 0.0027947216 -0.216085904 0.0513918191
40299760.0 -0.2092885392 0.0548457597 0.5056969973 -0.001663648 0.5061169283 -0.0020171603 -0.2106124029 0.0547090796
45299730.0 -0.2042090394 0.0570948993 0.5103216705 -0.0059788644 0.5106424373 -0.0064507982 -0.2059304671 0.0575746075
50299700.0 -0.1991131385 0.0588886743 0.5144154137 -0.0117239188 0.5146745801 -0.0119965096 -0.2012544925 0.059966679
55299670.0 -0.1948947595 0.0603346117 0.5184719213 -0.01744538 0.5184910822 -0.0177641484 -0.197848616 0.0618204525
60299640.0 -0.1908644738 0.0619209342 0.5219129946 -0.0240328482 0.5221426215 -0.0240257833 -0.193884221 0.0633251358
65299610.0 -0.1872099667 0.0625918043 0.525099756 -0.0302844434 0.5248183144 -0.0304306648 -0.1902145035 0.0649038263
70299580.0 -0.1838971698 0.0632574751 0.5271745019 -0.0370905559 0.5273030785 -0.0368499189 -0.1875933751 0.0660104536
75299550.0 -0.1812753519 0.0637417235 0.5290755147 -0.043983208 0.5293299216 -0.043856854 -0.184342865 0.067164492
80299520.0 -0.1784926125 0.0644835489 0.5313039967 -0.0509488801 0.531480801 -0.0505316664 -0.1816999637 0.068062801
85299490.0 -0.1757777536 0.0648641204 0.5323198043 -0.0579872598 0.5325224054 -0.0576360357 -0.1794615003 0.068726563
90299460.0 -0.1736076599 0.0655582745 0.53304124 -0.0644349771 0.5333659807 -0.0645179749 -0.1770872303 0.0697146262
95299430.0 -0.171368278 0.065479466 0.5344399751 -0.0715521838 0.5345771325 -0.0720594193 -0.175174608 0.0706406738
100299400.0 -0.1690716994 0.0661544522 0.5343840119 -0.0781398581 0.5348556517 -0.0786579571 -0.1733695588 0.0717083053
105299370.0 -0.1674335482 0.0663384064 0.5346641783 -0.0853667799 0.5353171453 -0.0853541232 -0.1710187842 0.0722286268
110299340.0 -0.165965206 0.0669074224 0.5351103077 -0.0919117075 0.5359008331 -0.0916746346 -0.1700095491 0.0729982169
115299310.0 -0.1646765694 0.067512295 0.5353272131 -0.0984752759 0.5354762529 -0.0988903733 -0.1685335391 0.0740759332
120299280.0 -0.1632620834 0.0683987798 0.535277276 -0.1061195473 0.5349626588 -0.1059287161 -0.1667880511 0.0747605736
125299250.0 -0.1618972242 0.0684191394 0.5344810715 -0.1125026396 0.5348152724 -0.1123904414 -0.1655014626 0.0758679215
130299220.0 -0.160781517 0.0691975216 0.5339057841 -0.1191943872 0.5342331774 -0.1199779257 -0.1641944057 0.0770234135
135299190.0 -0.1596951623 0.0702286362 0.5337713299 -0.1259313408 0.5339195861 -0.1260698896 -0.1631185667 0.0778138018
140299160.0 -0.1584702686 0.0708715975 0.5330963272 -0.1328605658 0.5329089099 -0.1322072136 -0.1626369362 0.0784448426
145299130.0 -0.1578341125 0.071433116 0.5314799347 -0.1391458005 0.5318260717 -0.1390470974 -0.1608793469 0.0800994871
150299100.0 -0.1566304795 0.0723105897 0.5306510506 -0.1457954427 0.5308622238 -0.1458411292 -0.1599441076 0.0811328409
155299070.0 -0.1554323693 0.0734398089 0.5289903943 -0.1522350753 0.529644363 -0.1521161978 -0.1589200328 0.0820929025
160299040.0 -0.1547092501 0.0744121474 0.5278884093 -0.1586851317 0.527847848 -0.1586063239 -0.1582697149 0.0833481512
165299010.0 -0.1536699357 0.0754909606 0.5265281838 -0.164817354 0.5264872124 -0.1654589403 -0.1569198362 0.084455903
170298980.0 -0.1530875952 0.0762503152 0.5248932853 -0.1717253152 0.5249935359 -0.171562241 -0.1562818826 0.0856016713
175298950.0 -0.1520671909 0.0774405685 0.5235390468 -0.1777448276 0.5238251374 -0.1784063103 -0.1551584089 0.0872288493
180298920.0 -0.1516608316 0.0783117164 0.5220414917 -0.1844530931 0.5218873192 -0.1843376803 -0.1543427934 0.0882172665
185298890.0 -0.1504902266 0.079415524 0.5203643416 -0.1904536607 0.5199003593 -0.1902812358 -0.1530458809 0.0895137758
190298860.0 -0.1496806171 0.0807933569 0.5174083059 -0.1965979445 0.5182811278 -0.1963812203 -0.1522591061 0.0909816292
195298830.0 -0.1489610482 0.0820050325 0.5162725774 -0.2030141894 0.5162663665 -0.2026963565 -0.1512890458 0.0924855184
200298800.0 -0.1479570656 0.0827116848 0.5136699858 -0.2089476334 0.5134545916 -0.2088913893 -0.1503529018 0.0934812871
205298770.0 -0.1478373415 0.0837985571 0.511661163 -0.2146728474 0.5117697635 -0.2147040712 -0.1492372577 0.0948291116
210298740.0 -0.146943143 0.0854970013 0.5096765904 -0.2205976473 0.5091427064 -0.2207793255 -0.1487451435 0.0962597179
215298710.0 -0.1461118956 0.086686026 0.5072442311 -0.2264375651 0.5071949478 -0.2267510108 -0.1476616717 0.0975331858
220298680.0 -0.145017648 0.0880354696 0.5045555347 -0.2328447247 0.5044847345 -0.2330210326 -0.1466091412 0.0991584148
225298650.0 -0.1445353417 0.08917397 0.5016899358 -0.2382770587 0.5023515259 -0.2379773419 -0.1456397869 0.100448459
230298620.0 -0.1438856516 0.0906225778 0.5000359652 -0.244520587 0.5001759676 -0.2443226224 -0.1450064763 0.1018593063
235298590.0 -0.1432834559 0.0921167422 0.4973976359 -0.2504916467 0.4973979786 -0.2503832146 -0.1435436592 0.1033722007
240298560.0 -0.1420893804 0.0932119178 0.4939911726 -0.2557911716 0.4943537821 -0.2558280279 -0.1426550455 0.1047198923
245298530.0 -0.1415579942 0.0941944168 0.4915836928 -0.2612966482 0.4918153856 -0.2617568498 -0.1414350673 0.1061767379
250298500.0 -0.1409605951 0.0955115491 0.4892158659 -0.2670764738 0.4887577074 -0.2671394358 -0.1405948439 0.1077137443
255298470.0 -0.1398398695 0.0973245347 0.486357846 -0.2725269147 0.4863128722 -0.2728288439 -0.1396352828 0.1093166746
260298440.0 -0.1390570411 0.0984555397 0.4831311415 -0.2777979222 0.4834378572 -0.2779287427 -0.138658257 0.1103761988
265298410.0 -0.1384178194 0.0998201107 0.479703394 -0.283639693 0.4798422985 -0.2840896758 -0.1366736096 0.1118959969
270298380.0 -0.1376643406 0.1009201577 0.476778756 -0.2890743452 0.4773065384 -0.2892083252 -0.1359645976 0.1135640083
275298350.0 -0.1366620237 0.102639225 0.4733587649 -0.2941599025 0.4736768132 -0.2944866885 -0.1348574149 0.1149778318
280298320.0 -0.1359933011 0.1039096729 0.4707780934 -0.299550916 0.4708399082 -0.3000703078 -0.1337971971 0.1163891925
285298290.0 -0.1351160808 0.1051319462 0.4669820148 -0.3051160796 0.4676797965 -0.3052599394 -0.1324877456 0.1179438982
290298260.0 -0.1343673143 0.1067016788 0.4647857572 -0.3108004543 0.4641629893 -0.3105321973 -0.1313223079 0.1191556052
295298230.0 -0.1334257562 0.1076589402 0.4607786735 -0.3161732731 0.4609481501 -0.3160589471 -0.1301115065 0.1204958359
300298200.0 -0.132382895 0.1093999938 0.4577780761 -0.3214935433 0.4573570003 -0.3207781406 -0.1289255738 0.1216079465
305298170.0 -0.1316298459 0.1101607131 0.4541711343 -0.3267262036 0.4542049934 -0.3263826216 -0.1275621379 0.1228095561
310298140.0 -0.130415302 0.1112859289 0.4506634352 -0.3315151406 0.4505238959 -0.331222976 -0.1259106198 0.1244808679
315298110.0 -0.1298164868 0.1124243693 0.4469574187 -0.3370117067 0.4466244071 -0.3371259476 -0.1247011707 0.1256546348
320298080.0 -0.1286366785 0.1137114622 0.4422871258 -0.3418084365 0.4434046336 -0.3424108307 -0.1238520154 0.1271722185
325298050.0 -0.1281140809 0.1147388796 0.4385467806 -0.3467377401 0.4396124462 -0.3468634085 -0.1222719849 0.1281199982
330298020.0 -0.1277542407 0.1164143652 0.4350634301 -0.3517993929 0.4356916258 -0.3519273308 -0.1214826307 0.1295125366
335297990.0 -0.1264687578 0.1173800715 0.4310720105 -0.3566019044 0.4311425838 -0.3566921357 -0.1198228924 0.1310078076
340297960.0 -0.1258447081 0.1189731607 0.4269223625 -0.3614290966 0.426890625 -0.3616460127 -0.1186988955 0.1325891581
345297930.0 -0.1251243894 0.1197811455 0.4232979743 -0.3664107818 0.4232471558 -0.3664906444 -0.1173589348 0.1333916504
350297900.0 -0.1240444983 0.1213217287 0.4190301214 -0.3710062505 0.4194772197 -0.3704540297 -0.1164759072 0.1349226222
355297870.0 -0.1231990833 0.1226497288 0.4147720321 -0.3749552507 0.4148285039 -0.3752615449 -0.1145238588 0.1366011546
360297840.0 -0.1220705029 0.12419841 0.4104814251 -0.3804343908 0.4109572875 -0.3802325104 -0.1135805787 0.1379262965
365297810.0 -0.1212844705 0.1253635861 0.4063516239 -0.3843708417 0.4064843643 -0.3842887638 -0.1123965423 0.1391258787
370297780.0 -0.120084861 0.1266982147 0.4019022184 -0.3889315868 0.4023088416 -0.3888779301 -0.110451576 0.1408407383
375297750.0 -0.1190580559 0.1277796543 0.3980637155 -0.3929869377 0.3979383092 -0.3932679373 -0.1088399488 0.141996668
380297720.0 -0.1182810838 0.1294232097 0.393832159 -0.398095011 0.3932173274 -0.3975756443 -0.1074202643 0.1435971923
385297690.0 -0.1169799779 0.1300794235 0.3891850009 -0.4020150388 0.3894592986 -0.4024301985 -0.106114476 0.1450027318
390297660.0 -0.1155326856 0.1315812462 0.3845783835 -0.4058537059 0.3852022164 -0.4060693919 -0.104411259 0.1458674171
395297630.0 -0.1144060561 0.1327461946 0.3807029679 -0.4098553886 0.3801384639 -0.4102400667 -0.1029648438 0.1472312441
400297600.0 -0.113868052 0.1338934306 0.3760730109 -0.4146770526 0.3761274597 -0.4145773506 -0.1011017823 0.1488217588
405297570.0 -0.1121492194 0.1346742985 0.371492558 -0.418420107 0.3715959896 -0.4187031338 -0.0993249101 0.1501667952
410297540.0 -0.1110677892 0.1363066428 0.3669185373 -0.4229497115 0.3669827106 -0.4222981204 -0.0979582386 0.1514639594
415297510.0 -0.1099663101 0.1372831777 0.3622729248 -0.4267576192 0.3625471468 -0.4269409758 -0.0959674831 0.1524513246
420297480.0 -0.1086290201 0.1381333153 0.3574350841 -0.4306232955 0.3576521242 -0.4308606462 -0.0942455249 0.1541053968
425297450.0 -0.1071394093 0.1396251633 0.3528894851 -0.4343052412 0.3524316756 -0.4344749862 -0.0929464767 0.154662468
430297420.0 -0.1059523507 0.1406746654 0.3483768568 -0.4382817753 0.3483514551 -0.4380954168 -0.0910746253 0.1561308877
435297390.0 -0.104942874 0.141487479 0.3427392708 -0.4429376575 0.3430648785 -0.4425397733 -0.0899565532 0.1577035481
440297360.0 -0.1033939433 0.1424838268 0.3382238074 -0.4458426596 0.3382271411 -0.4461326332 -0.0880580031 0.1583663626
445297330.0 -0.1017795642 0.1435436 0.3336205393 -0.4494010386 0.3335065003 -0.449540842 -0.0858501581 0.1598910619
450297300.0 -0.1004988833 0.1447942969 0.3286210294 -0.452944776 0.3289879009 -0.453149391 -0.0842695366 0.1610091805
455297270.0 -0.0996120478 0.1458541871 0.3236253848 -0.4567131575 0.3239868789 -0.4567789433 -0.0824694727 0.1617464533
460297240.0 -0.0978236574 0.1470513983 0.3187042714 -0.460760424 0.3185953925 -0.4603848449 -0.0806724771 0.162563153
465297210.0 -0.0964225149 0.1479111703 0.313147631 -0.4638962851 0.3132152028 -0.4639936272 -0.0784895855 0.1643228779
470297180.0 -0.0954807189 0.1489090643 0.3081866544 -0.4670372389 0.3085731304 -0.4669461613 -0.0767807133 0.1647371125
475297150.0 -0.0937582731 0.1502141043 0.3032899054 -0.4703584216 0.3029448647 -0.4704903609 -0.0746937823 0.1658505596
480297120.0 -0.0918252905 0.1513666782 0.2980192428 -0.4743749802 0.2980713348 -0.4736019758 -0.0735765094 0.1668183572
485297090.0 -0.0904630279 0.151836129 0.2924084385 -0.4771644998 0.2929005724 -0.4769498025 -0.0714683388 0.1678699571
490297060.0 -0.0889484796 0.1531838828 0.287166874 -0.4805827054 0.2872774958 -0.4802586274 -0.0693053939 0.1685023323
495297030.0 -0.0876396685 0.1535866425 0.2826960734 -0.4835030675 0.282298475 -0.4834064752 -0.0672425945 0.1697628721
500297000.0 -0.0859002179 0.1548208626 0.2769786882 -0.486204407 0.2770434896 -0.4865734001 -0.0653541401 0.1707588395
505296970.0 -0.0841658647 0.1560491332 0.2716558286 -0.489633339 0.2714799128 -0.4892177106 -0.0635460224 0.1711400487
510296940.0 -0.0829327711 0.1567952822 0.2664058635 -0.4929441931 0.2664685605 -0.4927541216 -0.0613567616 0.1724698226
515296910.0 -0.081398422 0.1578577502 0.2607252974 -0.4952090078 0.2605590929 -0.4950406662 -0.0598328715 0.1726949397
520296880.0 -0.0795234776 0.158640525 0.2555234062 -0.4980442059 0.2552418156 -0.4976902869 -0.0571858597 0.1743241963
525296850.0 -0.0779073062 0.1594760594 0.2496397121 -0.5006767713 0.2496469711 -0.5005155912 -0.0555438696 0.1750132091
530296820.0 -0.0765638423 0.1603014984 0.2443033514 -0.5037296483 0.2444417355 -0.5029826442 -0.0536623562 0.1750089077
535296790.0 -0.0743354912 0.1613053007 0.2390910796 -0.5058213779 0.2391600131 -0.5057896298 -0.0515644477 0.1763037777
540296760.0 -0.0729980517 0.1621966239 0.2330677717 -0.508221311 0.2334240344 -0.5083960074 -0.0497554094 0.1767872047
545296730.0 -0.0719145864 0.1636125597 0.2278113853 -0.5107863718 0.2276983898 -0.5104314214 -0.0476088661 0.1773390688
550296700.0 -0.0693677165 0.164131198 0.2222300076 -0.5133634635 0.2219771034 -0.5135325356 -0.0455062476 0.1780096854
555296670.0 -0.0677973797 0.1649058439 0.2164036079 -0.5160080845 0.2170154078 -0.5153796495 -0.0438824917 0.1780000014
560296640.0 -0.0659166797 0.1655860102 0.2107983649 -0.518208271 0.2113810427 -0.5179876898 -0.0416283467 0.1794162148
565296610.0 -0.0646396876 0.1663094057 0.2057103268 -0.5198251483 0.2058206961 -0.5195812444 -0.0393209241 0.1801244235
570296580.0 -0.0628697011 0.1674202486 0.1996149041 -0.5220363466 0.1996251316 -0.5223916651 -0.0374679264 0.1803674783
575296550.0 -0.0608950444 0.1679847725 0.1941547661 -0.524772532 0.1939134751 -0.5242667668 -0.0354090049 0.1807876274
580296520.0 -0.0594680896 0.1693514811 0.1884742407 -0.5266256003 0.1881148376 -0.5263857984 -0.0337605687 0.1812010585
585296490.0 -0.05742957 0.1697328244 0.1826671431 -0.5283465818 0.1823574944 -0.5285353767 -0.0311129928 0.1820999854
590296460.0 -0.0552896998 0.1704666833 0.1769939177 -0.5300463622 0.1767409582 -0.5307879124 -0.0298605233 0.1826504677
595296430.0 -0.0540757886 0.1711712471 0.1707738148 -0.5322433246 0.1708791741 -0.5323024629 -0.0273732686 0.1826392161
600296400.0 -0.0518960553 0.1723583799 0.1647916218 -0.5338681016 0.16482649 -0.5339819828 -0.0253846725 0.183242868
605296370.0 -0.0505465235 0.1728882837 0.160096416 -0.535546082 0.15934382 -0.5358771023 -0.0231179929 0.1839721812
610296340.0 -0.0484228569 0.1738224752 0.1536508587 -0.5368579364 0.1539099229 -0.5373606634 -0.0214721795 0.1841296392
615296310.0 -0.0464945062 0.174401357 0.1475405768 -0.5395441802 0.1474306103 -0.5389181221 -0.0188974935 0.1847019071
620296280.0 -0.0452720594 0.1753984322 0.141598599 -0.5407914509 0.1419154828 -0.5405619496 -0.0175245193 0.185083628
625296250.0 -0.0437993838 0.1756306614 0.1357677636 -0.5421225764 0.1361304684 -0.5423597421 -0.0153886245 0.1852723267
630296220.0 -0.041486731 0.1768610123 0.1300123253 -0.5440790824 0.1298475003 -0.5431557252 -0.0127738472 0.1854325427
635296190.0 -0.0401611735 0.1774210693 0.1247168507 -0.5448215709 0.124135457 -0.5450223908 -0.0109823675 0.1857038195
640296160.0 -0.0382570475 0.1779506273 0.1183829675 -0.5460253024 0.118146166 -0.5461874922 -0.0088596612 0.1860551156
645296130.0 -0.0363934232 0.1786270196 0.1123838724 -0.5473694743 0.1119725645 -0.5468490669 -0.007021848 0.1856646349
650296100.0 -0.0346180915 0.1790658574 0.1064698067 -0.5485692055 0.1062318852 -0.5486652478 -0.0042323326 0.1863531556
655296070.0 -0.032938823 0.1799096675 0.1001071617 -0.5495752351 0.100243388 -0.5494040544 -0.0027262816 0.1867392933
660296040.0 -0.0312893179 0.1803262 0.0947115018 -0.5502886627 0.094442536 -0.5505782934 -0.0006260094 0.1863557515
665296010.0 -0.029240417 0.1809371165 0.0878863924 -0.5508181688 0.088337715 -0.5513783718 0.0013753738 0.1868613978
670295980.0 -0.0276108676 0.1818545993 0.082383235 -0.5520555816 0.0821915119 -0.5518985155 0.0033170788 0.1868474291
675295950.0 -0.0259089306 0.1821986946 0.0767174566 -0.5529802119 0.0769682019 -0.5532999367 0.005471381 0.1871198087
680295920.0 -0.024040312 0.1827836071 0.0708088797 -0.553848582 0.0706243268 -0.5536702485 0.0078355626 0.1868569284
685295890.0 -0.022097922 0.1833723402 0.064053437 -0.5546488406 0.0645480412 -0.554662962 0.0098314031 0.1873880661
690295860.0 -0.0208777703 0.1839040135 0.058608204 -0.5555600047 0.0584297411 -0.5553827766 0.0117190537 0.1872584572
695295830.0 -0.0187370759 0.1841356016 0.0527907422 -0.5559345058 0.0523580082 -0.5556664185 0.0138128083 0.1875716294
700295800.0 -0.0168081453 0.1845268343 0.047113575 -0.5561604753 0.046727232 -0.5561450628 0.0160189585 0.1871724997
705295770.0 -0.0153547739 0.1851352587 0.0407138117 -0.5570761037 0.0409071213 -0.5569780547 0.0179537227 0.1877352466
710295740.0 -0.0135487913 0.1852835929 0.0348180549 -0.5571675159 0.03466274 -0.5575680113 0.0202576534 0.18744378
715295710.0 -0.0116727512 0.1862171938 0.028668582 -0.5576307973 0.0288499349 -0.557569625 0.0218704502 0.1870327668
720295680.0 -0.0096035248 0.1863597007 0.022767476 -0.5579989233 0.0223825168 -0.5577911002 0.0240561242 0.1870190293
725295650.0 -0.008462567 0.1870517665 0.0171892174 -0.5582074166 0.0168209846 -0.557963385 0.0260128862 0.1875677785
730295620.0 -0.0071201856 0.18667775 0.0111156905 -0.55767604 0.0108153933 -0.55758238 0.0280502825 0.18734766
735295590.0 -0.0049541193 0.1874207993 0.0046940431 -0.5580725261 0.0045723702 -0.55816639 0.0302808154 0.1866545235
740295560.0 -0.0033852158 0.187557489 -0.0010868332 -0.5578983459 -0.0008877528 -0.5582267106 0.0321236143 0.1868820441
745295530.0 -0.0017375081 0.1877356486 -0.0068348312 -0.5572605701 -0.0066206495 -0.5579773451 0.0336209703 0.1867318942
750295500.0 -0.0001873831 0.1881142813 -0.0129103352 -0.5574818364 -0.0133893225 -0.5580113842 0.0359453014 0.1863781092
755295470.0 0.0014991738 0.188567433 -0.0187464371 -0.5581426282 -0.0191924422 -0.558011402 0.0381488253 0.1865183655
760295440.0 0.0034368721 0.1891470157 -0.0255273697 -0.5576801244 -0.0252633108 -0.5570970947 0.0404286473 0.1851850211
765295410.0 0.0056443204 0.1887319365 -0.0310477198 -0.55678611 -0.0308909492 -0.5572928543 0.0422789205 0.18530818
770295380.0 0.0069892227 0.1895419936 -0.0367962056 -0.5564241873 -0.0369183034 -0.5568609583 0.0439883804 0.185407272
775295350.0 0.0086765761 0.1892886626 -0.0427922176 -0.5563768736 -0.0430828485 -0.5555991811 0.0468359231 0.1850207334
780295320.0 0.0102852928 0.1896732027 -0.0488418157 -0.5553535322 -0.0489097461 -0.5556141071 0.0487775379 0.1847474668
785295290.0 0.0122420519 0.1894268713 -0.0551673985 -0.5550684852 -0.0547422505 -0.5552509581 0.0500527515 0.1847281697
790295260.0 0.0140192056 0.1894243474 -0.0606010461 -0.5546084978 -0.0607553668 -0.5549035996 0.052192895 0.1842368731
795295230.0 0.0157051715 0.1896879786 -0.0667766281 -0.553907014 -0.066776012 -0.5540227271 0.0542514128 0.1830441636
800295200.0 0.0171762939 0.1898054833 -0.0721529339 -0.5526298209 -0.0728866887 -0.55325648 0.0561070608 0.1830928157
805295170.0 0.0188416902 0.1897630775 -0.0786728484 -0.5520238808 -0.0783600166 -0.5524199968 0.058766282 0.1824841142
810295140.0 0.0209380461 0.1899428663 -0.0843978487 -0.5509327799 -0.0845587443 -0.5514253015 0.0605743676 0.1819393233
815295110.0 0.0224174313 0.1898879131 -0.0900576108 -0.5501695503 -0.0900336615 -0.5505807351 0.0625101141 0.1816147617
820295080.0 0.0242684188 0.1899028329 -0.0959416268 -0.5486765258 -0.0960077518 -0.5495328949 0.0638376485 0.1814901133
825295050.0 0.0256352529 0.1896155616 -0.1020275983 -0.5484440148 -0.1022226852 -0.5486043564 0.0666478258 0.1810735029
830295020.0 0.0275568321 0.1895772247 -0.1079399335 -0.5468201344 -0.1083144217 -0.5470043133 0.0682988111 0.1799033579
