!Created with skrf (http://scikit-rf.org).
# Hz S RI R 50.0 
!freq ReS11 ImS11 ReS21 ImS21 ReS12 ImS12 ReS22 ImS22
300000.0 -0.0954055429 -0.1008324757 0.6230494917 0.0931052839 0.6213230057 0.0929427573 -0.0942590676 -0.1041814878
5299970.0 -0.1013493681 0.0116943216 0.6302426181 0.0107897492 0.6307778186 0.0112523136 -0.1016528459 0.0113086501
10299940.0 -0.0970225831 0.028646263 0.6348390148 0.0162723186 0.6343255576 0.0165853413 -0.0964809218 0.0283249495
15299910.0 -0.0891843183 0.0424480172 0.6404563259 0.0209541043 0.6409122819 0.0211243444 -0.0898815909 0.0418048691
20299880.0 -0.0804769999 0.0534761703 0.6488420871 0.024061516 0.6489847423 0.0243732857 -0.080941056 0.0528849559
25299850.0 -0.0701427309 0.0623059391 0.6580442336 0.0259686298 0.6581904725 0.0253824636 -0.0716075029 0.0617199197
30299820.0 -0.0607582932 0.0686894656 0.6677961661 0.0246497042 0.6677831475 0.0245487978 -0.0618358612 0.068484179
35299790.0 -0.0504414398 0.0734232798 0.6770269757 0.0220789512 0.6772443365 0.0222311492 -0.0522796074 0.0736444573
40299760.0 -0.0411755218 0.0762066308 0.6866527997 0.0172371134 0.6872442404 0.0177098187 -0.0427450537 0.0770956505
45299730.0 -0.0318496458 0.0781597742 0.6959224178 0.0123112762 0.6962961189 0.0122365871 -0.0331230481 0.0793417866
50299700.0 -0.0228580319 0.0788874175 0.703513348 0.005159371 0.7039918999 0.0047946024 -0.0244836025 0.0803764369
55299670.0 -0.0152180598 0.0790058145 0.7113500073 -0.0023149606 0.7109626642 -0.0028254062 -0.0173307067 0.0806023075
60299640.0 -0.0075708588 0.0787036915 0.7186094455 -0.0111517707 0.71778542 -0.0111294233 -0.0096052567 0.0796108891
65299610.0 -0.0012193822 0.0772921652 0.7242534862 -0.0197267344 0.7241410471 -0.0199075434 -0.0025465694 0.0786986892
70299580.0 0.0055038248 0.075183141 0.7294786136 -0.0288455869 0.7293604963 -0.0290651592 0.0030991683 0.0771791644
75299550.0 0.0102241887 0.0733810946 0.7330949849 -0.0392158823 0.7335007166 -0.0391582122 0.008762915 0.0753223852
80299520.0 0.0153196877 0.0714928452 0.7378960183 -0.048238572 0.738161572 -0.0485076664 0.0137626235 0.0735123592
85299490.0 0.0201379768 0.0690788638 0.7408837815 -0.0589902165 0.7408675647 -0.0584080957 0.0180687833 0.0710863358
90299460.0 0.0239398402 0.0664380853 0.743319205 -0.0686848677 0.7436603979 -0.0683695248 0.022705112 0.0690480154
95299430.0 0.0279854315 0.0643583727 0.745941682 -0.0787256754 0.7461700511 -0.0793535588 0.026078949 0.0663118565
100299400.0 0.0312754293 0.0613895242 0.7478147713 -0.0886993251 0.748211286 -0.0887408849 0.0293510645 0.0646756075
105299370.0 0.0342312089 0.0589364585 0.748851178 -0.0987052818 0.7497379594 -0.0986673265 0.0328123847 0.0616876806
110299340.0 0.037112984 0.0564835863 0.7502417303 -0.1086092515 0.7507136457 -0.108374546 0.0349705271 0.0593515791
115299310.0 0.039500194 0.0544772994 0.751326553 -0.1187032334 0.751048542 -0.1189508911 0.037294603 0.0574933306
120299280.0 0.0414216762 0.0520954343 0.7519976151 -0.1298830028 0.7518373277 -0.1293694548 0.039784405 0.0543527044
125299250.0 0.0438942773 0.0495626482 0.7519680868 -0.1392403261 0.7522064819 -0.1387681674 0.0422229032 0.0526193293
130299220.0 0.045636353 0.0470844053 0.7523549088 -0.1491307174 0.752070761 -0.1493505937 0.0438365497 0.0508513592
135299190.0 0.0471136595 0.0453403949 0.751869433 -0.1582170985 0.7517704189 -0.1587310629 0.0454444901 0.0478477569
140299160.0 0.0488871975 0.043189901 0.7515730621 -0.168891547 0.7509304434 -0.1683880091 0.0464906843 0.045412783
145299130.0 0.0491980865 0.0412421733 0.7507633802 -0.1775925527 0.750361974 -0.1782294892 0.0479878778 0.0436092556
150299100.0 0.0507724376 0.0392156542 0.7489618074 -0.1880132506 0.7496152467 -0.1878240712 0.0491622387 0.0421539169
155299070.0 0.0524441143 0.0371534624 0.7476012218 -0.1977970173 0.7484000805 -0.1975343183 0.0506937695 0.0395712257
160299040.0 0.0534125611 0.0356415745 0.7468941079 -0.2071791853 0.7467268937 -0.20722689 0.0510041238 0.0380119042
165299010.0 0.0543003927 0.03341635 0.7456895311 -0.2165616817 0.7449706914 -0.2164030704 0.0522514707 0.0358433852
170298980.0 0.0551793562 0.0316524167 0.7427775014 -0.2263236178 0.7432759902 -0.2257253507 0.0528224402 0.0340560116
175298950.0 0.0559183948 0.0302754059 0.7418643208 -0.2350482925 0.741654355 -0.2359682133 0.0533715256 0.032626471
180298920.0 0.0562836951 0.0285647475 0.7395166389 -0.2446587847 0.7392529159 -0.2445398391 0.0541685881 0.0306876792
185298890.0 0.0566865548 0.0270191265 0.7378864369 -0.2536522652 0.7370571861 -0.2533392947 0.0549943645 0.028862654
190298860.0 0.057863047 0.0258653887 0.7345874483 -0.2628913563 0.7347771669 -0.2624974323 0.0553756356 0.0272060123
195298830.0 0.0577221145 0.0239985037 0.7327139778 -0.2714923836 0.73286675 -0.2715248467 0.055408902 0.0259610301
200298800.0 0.0583555008 0.0222871199 0.7298594115 -0.2813094143 0.730028018 -0.2810519524 0.0562526225 0.0238624294
205298770.0 0.0581221653 0.0207020501 0.7268492458 -0.2894752132 0.7271412491 -0.2891624713 0.0567669556 0.0226776802
210298740.0 0.0590923702 0.0199517238 0.7241489263 -0.2984719 0.7234738687 -0.2984648451 0.0564864424 0.0209206594
215298710.0 0.0595517884 0.0184285318 0.7208135724 -0.3071461681 0.7209312679 -0.3070005064 0.0572216726 0.0196816858
220298680.0 0.0598270756 0.0175011716 0.7175935957 -0.3155376196 0.7175181172 -0.3159459629 0.0573009772 0.01804481
225298650.0 0.059606843 0.0160784766 0.7139299048 -0.3238691506 0.714338385 -0.3237249783 0.0576523582 0.0163520861
230298620.0 0.0601262427 0.0149430489 0.7116916067 -0.3325515427 0.7112081876 -0.3331696065 0.0572899541 0.0152145163
235298590.0 0.0599958437 0.0137011568 0.7079377842 -0.3420695842 0.7081229686 -0.3415932824 0.0576342794 0.0140944655
240298560.0 0.0603050011 0.0127226053 0.7043548017 -0.3492636365 0.7042379545 -0.3494439469 0.0574367318 0.0128796042
245298530.0 0.0602709071 0.0111573093 0.7000444016 -0.3581914419 0.6999680655 -0.3581460464 0.0578822812 0.011764667
250298500.0 0.0600970295 0.0100539235 0.6964523393 -0.3661240111 0.6963074054 -0.3659947391 0.0579097999 0.0103251411
255298470.0 0.0603635241 0.009653081 0.6929037401 -0.3740293522 0.6933097 -0.3743721312 0.0578516671 0.0097900895
260298440.0 0.0605476527 0.0081195691 0.6894063639 -0.3817908734 0.6889365859 -0.3823778343 0.0577026962 0.0078940466
265298410.0 0.0599820618 0.0074256473 0.6846217561 -0.3911353287 0.6842360627 -0.3909131881 0.058552231 0.0066286979
270298380.0 0.0598166935 0.0060506207 0.6805326091 -0.3983180526 0.680266155 -0.3979046644 0.058204838 0.005666906
275298350.0 0.0603408369 0.0058248632 0.6756657617 -0.4058940048 0.6755552483 -0.4063431401 0.0578598583 0.0048551921
280298320.0 0.0596329028 0.0045826735 0.6718257495 -0.4139999177 0.6722031299 -0.4141641255 0.0582915974 0.003797299
285298290.0 0.0600539017 0.0035528893 0.6675826857 -0.4220190219 0.6674150524 -0.4216454869 0.0578293065 0.002845711
290298260.0 0.0597833933 0.0027286365 0.6634775658 -0.4300423213 0.6631652029 -0.4295992756 0.0582482179 0.0017503856
295298230.0 0.0596858747 0.0010035046 0.6580924155 -0.4376630943 0.6584659032 -0.4375940554 0.0579579678 0.0002416675
300298200.0 0.0601140652 0.0008434398 0.6534116447 -0.4451432387 0.6536512622 -0.4452168423 0.0576819803 -0.0007082763
305298170.0 0.0600427272 -0.000921697 0.6491285123 -0.4532723934 0.6486906116 -0.453473901 0.0578678154 -0.0023838978
310298140.0 0.060277831 -0.0015174068 0.6443775255 -0.4605126067 0.6442914639 -0.4604726258 0.0580768267 -0.0036952816
315298110.0 0.059934369 -0.0032537067 0.6392083551 -0.4690732195 0.639260392 -0.4685672031 0.0577637297 -0.004399463
320298080.0 0.0594559686 -0.0038768023 0.6331096135 -0.4760497695 0.6335910979 -0.4762578098 0.0572382285 -0.0059149044
325298050.0 0.0585418277 -0.0054489843 0.6280723175 -0.4832725735 0.6288442687 -0.4831548539 0.056889927 -0.0067313091
330298020.0 0.0574073537 -0.0060731376 0.6221671205 -0.4905992151 0.6231134961 -0.4908682115 0.0561027499 -0.0080225556
335297990.0 0.0576749928 -0.006722696 0.6175833505 -0.4974251728 0.6171810055 -0.4978037435 0.0557184171 -0.0088788202
340297960.0 0.0566476515 -0.0079214714 0.6109990656 -0.5050240618 0.6109687008 -0.5047378284 0.055213217 -0.0094639596
345297930.0 0.056283831 -0.0084127471 0.6052676776 -0.512100574 0.6055006273 -0.5117213164 0.0550085133 -0.0106053298
350297900.0 0.0558919725 -0.0090222951 0.6001155444 -0.5176915012 0.6006445375 -0.5184182028 0.0547123513 -0.0114853877
355297870.0 0.0557235534 -0.0097743778 0.5943557851 -0.5245764555 0.5944409944 -0.5245540404 0.054421445 -0.0120829407
360297840.0 0.0550948794 -0.0103553573 0.5879216122 -0.5313424273 0.588294271 -0.5318440133 0.0533336322 -0.0123294638
365297810.0 0.0546730138 -0.0108614941 0.5820235763 -0.5379282289 0.5823056303 -0.5381562675 0.0527992865 -0.0134335031
370297780.0 0.0545832462 -0.0113693835 0.5759030641 -0.5448856168 0.5762661224 -0.5445523976 0.0528700173 -0.0141317773
375297750.0 0.0543213087 -0.0122290396 0.57080068 -0.550549225 0.570529338 -0.5512225306 0.052751385 -0.01493098
380297720.0 0.0531571365 -0.0127497733 0.564194717 -0.5580572692 0.5640306017 -0.557422075 0.0519840455 -0.0150739566
385297690.0 0.0529368861 -0.0136741232 0.5577959418 -0.5635945719 0.5579154213 -0.5639207763 0.0520232741 -0.0158344124
390297660.0 0.0527927106 -0.0143122688 0.5520947973 -0.5695852767 0.5522567232 -0.5700230211 0.0521419621 -0.0170470016
395297630.0 0.0527851548 -0.0150173257 0.5458029396 -0.5749064667 0.5455907746 -0.5758266605 0.0513802735 -0.0172254562
400297600.0 0.0521882832 -0.0157733568 0.5394593638 -0.5825880635 0.5396098339 -0.5819081796 0.0515877091 -0.0175214212
405297570.0 0.0522953817 -0.0167311449 0.5335242571 -0.5878154147 0.5331448975 -0.5878015498 0.0509235565 -0.0177426705
410297540.0 0.0514498633 -0.016572532 0.5269064088 -0.5939422349 0.5265113042 -0.5938745804 0.0507267619 -0.0191006034
415297510.0 0.0508612299 -0.0173104137 0.5198004081 -0.5994927776 0.5204746856 -0.5998063171 0.0503905823 -0.0193225364
420297480.0 0.0504998387 -0.0185235585 0.5129642462 -0.6054376576 0.5137016922 -0.6055918555 0.0503478652 -0.0196323746
425297450.0 0.0507670056 -0.0189239252 0.5069059413 -0.6108496151 0.5065778619 -0.610745864 0.049692488 -0.0211378331
430297420.0 0.0499188301 -0.0194628884 0.5007153121 -0.616969581 0.5006848849 -0.6164852835 0.0497259343 -0.0212077034
435297390.0 0.0499440807 -0.0203497016 0.4926510295 -0.6228126622 0.4934422276 -0.6223386783 0.0486921886 -0.0213815312
440297360.0 0.0496857677 -0.0210834465 0.4861794355 -0.6279241842 0.4860069568 -0.6279158524 0.0485558876 -0.0217650591
445297330.0 0.0492327365 -0.0219126341 0.4797242488 -0.6326446057 0.4793909948 -0.6331083534 0.0483397604 -0.0222843965
450297300.0 0.0489708978 -0.0220147374 0.4727382049 -0.6381451821 0.4733269681 -0.6380320512 0.047817129 -0.0232462266
455297270.0 0.0479193086 -0.0230396141 0.4658871698 -0.6434313312 0.4658878076 -0.6433628932 0.0477323277 -0.0234940555
460297240.0 0.0480056458 -0.0231761524 0.458659529 -0.6496073891 0.4588327568 -0.6491180744 0.0473881081 -0.0243501677
465297210.0 0.0475010489 -0.0239412782 0.45097157 -0.6537262801 0.450742308 -0.65403972 0.0475785279 -0.0240818031
470297180.0 0.0473611831 -0.024981777 0.4436832996 -0.6585772302 0.4446367762 -0.6585730857 0.0470345117 -0.0249803414
475297150.0 0.0462753702 -0.0248835681 0.4364611689 -0.6632826222 0.4368682636 -0.663526978 0.046691922 -0.0256638476
480297120.0 0.04679649 -0.0250420549 0.4293266831 -0.6683209356 0.4298693016 -0.66827327 0.0459205091 -0.0264667307
485297090.0 0.0459131168 -0.026445245 0.4221417565 -0.6733618156 0.4221962583 -0.6728574915 0.0455755929 -0.0267332962
490297060.0 0.0463425298 -0.0266292933 0.4142239614 -0.6782684993 0.4144986145 -0.6779683776 0.0450445576 -0.0271481648
495297030.0 0.0450213417 -0.027697152 0.4075717466 -0.682401085 0.4071310467 -0.6828443999 0.0454591829 -0.0278990715
500297000.0 0.0447237614 -0.0275683805 0.4004335367 -0.6862277573 0.3999811554 -0.6869303604 0.044847659 -0.028134012
505296970.0 0.0450240634 -0.0281178696 0.3920739075 -0.691652357 0.3927138621 -0.6910781015 0.0444600352 -0.0292435052
510296940.0 0.0442172217 -0.0288987517 0.3848262949 -0.6963547178 0.3846787545 -0.6962364247 0.0444528361 -0.0290297189
515296910.0 0.0437559175 -0.0289615948 0.3764638876 -0.6999270166 0.3766448102 -0.6999266504 0.0436777391 -0.0303832554
520296880.0 0.0434306321 -0.0293523312 0.3693274427 -0.7034300754 0.3689009508 -0.7035760001 0.0437788038 -0.0299406884
525296850.0 0.0432538995 -0.0302200172 0.3613863405 -0.7076374126 0.3612258111 -0.7081859359 0.0434980232 -0.0306306692
530296820.0 0.0424274369 -0.0310546916 0.3534384226 -0.7118745709 0.3538930873 -0.7120297922 0.0431786639 -0.0313741488
535296790.0 0.0428435186 -0.0311805154 0.3460517794 -0.7155471666 0.346503532 -0.7157878519 0.0427582331 -0.0314630399
540296760.0 0.0420463058 -0.0312820223 0.3379869632 -0.7197192335 0.3378179949 -0.7191984162 0.0421833481 -0.0327370201
545296730.0 0.0408729805 -0.0317548044 0.3301641713 -0.723030705 0.3300434319 -0.7223756181 0.0419603389 -0.0326504783
550296700.0 0.0415752796 -0.0320561329 0.3222618347 -0.7267308496 0.3221657673 -0.7272625799 0.0417404817 -0.0330728252
555296670.0 0.040702432 -0.0327058693 0.3139898447 -0.7306396789 0.3147367031 -0.7302410983 0.0408966198 -0.0342930204
560296640.0 0.0409983456 -0.0332600058 0.3064448521 -0.7335815538 0.3066398162 -0.7336177496 0.0404847243 -0.0337775811
565296610.0 0.0397537693 -0.0332735534 0.2988515447 -0.7376111693 0.2988254165 -0.7368511792 0.0401628772 -0.0342971994
570296580.0 0.0390714026 -0.033533301 0.2899746254 -0.7401553619 0.2903117637 -0.7405455706 0.0395576261 -0.0352455601
575296550.0 0.0389681013 -0.0342722097 0.2819730209 -0.7433348934 0.2819835983 -0.7433886709 0.0390168533 -0.0354327692
580296520.0 0.038775414 -0.0340806639 0.2741472624 -0.7465959606 0.2737774822 -0.7466696898 0.0383080644 -0.0357039602
585296490.0 0.0382667251 -0.0343079617 0.2661065523 -0.7490455296 0.2654103495 -0.7487340693 0.038805424 -0.0360763193
590296460.0 0.0386302108 -0.0350691792 0.2576384259 -0.7521352557 0.2577423907 -0.7522293586 0.0375436984 -0.0362893149
595296430.0 0.0375794496 -0.0354601193 0.2483116679 -0.7548131012 0.2489656636 -0.755194264 0.0373349056 -0.0373497965
600296400.0 0.0374110418 -0.035510738 0.240513391 -0.7580616875 0.2407970482 -0.7578100662 0.0369663812 -0.0375769854
605296370.0 0.0361146146 -0.0357981456 0.2326537436 -0.7602097375 0.2323749809 -0.7601377394 0.0365328095 -0.0376111098
610296340.0 0.0362713186 -0.0355996863 0.2243386215 -0.7621548795 0.2248058364 -0.7624467921 0.035586829 -0.037759576
615296310.0 0.0361603583 -0.0363187485 0.2161360932 -0.7655083865 0.2155603606 -0.7650770752 0.035412087 -0.0382489561
620296280.0 0.0347811329 -0.0360426208 0.2073369548 -0.767744913 0.2073089428 -0.7673511839 0.0345612209 -0.0382390949
625296250.0 0.0344751081 -0.0366761983 0.1991094373 -0.7702340697 0.1994199506 -0.7697693313 0.0334373105 -0.0386967098
630296220.0 0.0338491939 -0.0367093722 0.1901795055 -0.7723367496 0.1908467274 -0.7718594346 0.0333761869 -0.0392279533
635296190.0 0.0333384347 -0.0365435027 0.1822556073 -0.7736500804 0.1825991673 -0.773949715 0.0331440539 -0.0393319917
640296160.0 0.0328059266 -0.0367406618 0.1735106816 -0.7762076288 0.1736174058 -0.7758494017 0.031843852 -0.0398557835
645296130.0 0.0326414707 -0.036498679 0.164888218 -0.7775702427 0.1656640217 -0.777152614 0.0313299904 -0.0406606682
650296100.0 0.0320479209 -0.0370869933 0.15650585 -0.7800034229 0.1569086078 -0.7796849642 0.0318065732 -0.0405039613
655296070.0 0.031476841 -0.0374893202 0.1475947453 -0.7814160637 0.1483591785 -0.7805743596 0.0301513425 -0.0406813837
660296040.0 0.0309661719 -0.0373648578 0.139781384 -0.7826379443 0.139389828 -0.7831148273 0.0297860542 -0.0412872868
665296010.0 0.0304029146 -0.0378349855 0.1302704636 -0.7836547969 0.1309402988 -0.7840282609 0.0293995557 -0.0410581123
670295980.0 0.0303050671 -0.0377398128 0.1220723056 -0.785731844 0.1223265785 -0.7848019715 0.0282335989 -0.0418082631
675295950.0 0.0291834463 -0.037892057 0.1135332664 -0.7866802684 0.1144424314 -0.7868885879 0.02775615 -0.0415701611
680295920.0 0.0285905321 -0.037952264 0.1056343234 -0.7878060743 0.1058990941 -0.7877545534 0.0275706398 -0.042191511
685295890.0 0.0285360842 -0.0376282589 0.0967221093 -0.7889803369 0.0971619129 -0.7888767516 0.0269805363 -0.0417781302
690295860.0 0.0271888503 -0.0378214744 0.08821699 -0.7900637946 0.0878592904 -0.7899815199 0.0262949886 -0.0425482004
695295830.0 0.0272509035 -0.0384906937 0.0799161229 -0.7908228637 0.0796804038 -0.7908994245 0.0256595222 -0.0422541328
700295800.0 0.0265810924 -0.0381808228 0.0713466926 -0.7921471835 0.0712707008 -0.7915082927 0.0248778424 -0.0426231265
705295770.0 0.0258037063 -0.0384174977 0.062273569 -0.7930984844 0.0625970614 -0.7921412771 0.024207607 -0.0423793442
710295740.0 0.025484252 -0.0385340647 0.0540098573 -0.7928032835 0.0538388773 -0.7934758395 0.0238375995 -0.0423970539
715295710.0 0.0246823196 -0.0379122833 0.0450729745 -0.794228211 0.0452942008 -0.7934080882 0.0232002066 -0.0428081235
720295680.0 0.0247285017 -0.038160424 0.0364755995 -0.7938014915 0.0369599058 -0.7946437537 0.0223921454 -0.0431850832
725295650.0 0.0230277838 -0.0379895904 0.0277784692 -0.7943275783 0.0283527379 -0.7944634475 0.0213936798 -0.042347912
730295620.0 0.0220899739 -0.0385692933 0.0193170871 -0.7939359299 0.0194428276 -0.7936052128 0.0210312935 -0.0422967672
735295590.0 0.0224294442 -0.0384238695 0.0105854621 -0.7948420176 0.0107254551 -0.7946978553 0.0202188718 -0.0432775857
740295560.0 0.021714215 -0.0384537513 0.0020591738 -0.7946107237 0.0021834861 -0.7948562212 0.0190514959 -0.042749087
745295530.0 0.0209113469 -0.0384740769 -0.0066028115 -0.7939706774 -0.0057159142 -0.7948020902 0.0179662982 -0.0432084708
750295500.0 0.0198966224 -0.0382516395 -0.0148402248 -0.7946354495 -0.0153844077 -0.794335629 0.0180145516 -0.0431022261
755295470.0 0.0194379344 -0.0383153438 -0.0235766341 -0.794439801 -0.0232542767 -0.7945542872 0.0174370903 -0.04263644
760295440.0 0.0190632661 -0.0378340701 -0.032877341 -0.7942182985 -0.0322111619 -0.7935325491 0.0167380061 -0.0439452496
765295410.0 0.0189033563 -0.0385424607 -0.0407916923 -0.7941081658 -0.040145453 -0.7932060511 0.0160891617 -0.0432411184
770295380.0 0.0178373835 -0.0379438551 -0.049286841 -0.792812171 -0.0488642383 -0.7930515896 0.0149161996 -0.0427847399
775295350.0 0.0170407921 -0.0385082733 -0.0577170639 -0.7929958223 -0.0574906571 -0.7919078645 0.0153474332 -0.0428677054
780295320.0 0.0164149252 -0.0379749843 -0.0665096084 -0.7918181723 -0.0661188274 -0.7916494144 0.0146457119 -0.0434067204
785295290.0 0.0158208505 -0.0381763483 -0.0747916997 -0.7909204004 -0.0750880824 -0.7909610735 0.0130718105 -0.0424826579
790295260.0 0.0155454354 -0.0384956788 -0.0835439808 -0.7902279711 -0.0832015082 -0.7903273776 0.0123855743 -0.0420597019
795295230.0 0.0146928628 -0.0384379968 -0.0925613721 -0.7895523588 -0.0923655429 -0.7896569951 0.0121358183 -0.0434149043
800295200.0 0.0131408549 -0.0378488487 -0.1001136815 -0.7876328626 -0.1008810533 -0.7879440322 0.0110483066 -0.0423493414
805295170.0 0.0128498971 -0.0379167289 -0.1092034201 -0.7875964724 -0.1091195684 -0.7868991302 0.0113584163 -0.0423599395
810295140.0 0.0127439051 -0.03772842 -0.1182122957 -0.7855308151 -0.1177547727 -0.7856244941 0.0102633881 -0.0424604981
815295110.0 0.0119469338 -0.037710149 -0.1267883827 -0.7847346022 -0.1256089357 -0.7846449455 0.0095459286 -0.0423236859
820295080.0 0.0115810911 -0.037836817 -0.1345796756 -0.7824756327 -0.1342963396 -0.783218043 0.0080627469 -0.0415328941
825295050.0 0.0104143783 -0.0375633178 -0.1433235029 -0.7816093084 -0.1430325875 -0.7810856217 0.0085080509 -0.0411796423
830295020.0 0.0096710007 -0.0376577965 -0.1518581474 -0.7802510543 -0.151528294 -0.7796625387 0.00770961 -0.0421834723
