!Created with skrf (http://scikit-rf.org).
# Hz S RI R 50.0 
!freq ReS11 ImS11 ReS21 ImS21 ReS12 ImS12 ReS22 ImS22
300000.0 -0.2407395006 -0.079861271 0.4733205352 0.0551638579 0.4689537007 0.0521976118 -0.2430140205 -0.0934304889
5299970.0 -0.2443455648 0.0070140251 0.4737100296 0.0052449265 0.4734928375 0.0050925336 -0.2441100218 0.0073941668
10299940.0 -0.2411378981 0.018855613 0.4749572311 0.0059749342 0.4754078168 0.006367689 -0.2406222621 0.0205179098
15299910.0 -0.2368125539 0.0279009333 0.4789553062 0.0076578983 0.4793632319 0.0077145241 -0.2360536332 0.0299066042
20299880.0 -0.2321206457 0.0357582231 0.4839686663 0.0083518422 0.483802816 0.0081409578 -0.2307909189 0.0375271794
25299850.0 -0.2268334021 0.0421055425 0.4888884223 0.0073745648 0.4888944316 0.0076079809 -0.2249557228 0.0439930705
30299820.0 -0.22134535 0.0470465028 0.4944092365 0.0054420916 0.4946750144 0.0052454722 -0.2190382167 0.0494235022
35299790.0 -0.2163183195 0.051550671 0.5000466684 0.0021601485 0.499799245 0.0020207663 -0.2135679727 0.0534787041
40299760.0 -0.2113455692 0.0549643908 0.5051238428 -0.0019744547 0.5050945362 -0.0018856407 -0.2080733271 0.0564852912
45299730.0 -0.2065194735 0.057707243 0.5096626931 -0.0068206663 0.5098789995 -0.0065239598 -0.2030814174 0.0587289486
50299700.0 -0.2023825745 0.0600869797 0.5141582428 -0.0121998657 0.5141322412 -0.0117882694 -0.198716883 0.0606587513
55299670.0 -0.198340475 0.0618339129 0.5182569999 -0.0185486305 0.5178421719 -0.0178537539 -0.1942605831 0.0624691192
60299640.0 -0.1942285526 0.0636396711 0.5210605486 -0.0245993302 0.5215414522 -0.0239170646 -0.1903470861 0.0633061964
65299610.0 -0.1912299353 0.0645500222 0.5240189874 -0.0304979803 0.5241939058 -0.0305657549 -0.1871997944 0.0643678864
70299580.0 -0.1879295307 0.0662108245 0.526833457 -0.0375108764 0.526484023 -0.0373276325 -0.1839625018 0.0651348173
75299550.0 -0.1850714595 0.0672465178 0.5285483819 -0.0438423196 0.5284697633 -0.0442380903 -0.1811077615 0.0655826984
80299520.0 -0.1825110738 0.0680987083 0.5306106835 -0.0512012149 0.530452519 -0.0512274451 -0.1783463163 0.0658926532
85299490.0 -0.1800382462 0.0689114843 0.5313356376 -0.0578639748 0.531683571 -0.0573365705 -0.176053589 0.06612395
90299460.0 -0.1778162912 0.0699105499 0.5324440205 -0.064848323 0.5329943497 -0.0647740111 -0.1735890454 0.0667127045
95299430.0 -0.1755179295 0.0705098742 0.533864699 -0.0715899163 0.5336731941 -0.072118656 -0.171660012 0.067604778
100299400.0 -0.1736676992 0.0715124336 0.5336168437 -0.0783235168 0.5337220964 -0.0786508536 -0.1696591917 0.067244812
105299370.0 -0.1721161903 0.0724555527 0.5340508031 -0.085521684 0.5345906034 -0.0857719728 -0.1675741507 0.0679451611
110299340.0 -0.1704586997 0.0733753905 0.5347514029 -0.0923379116 0.5344058788 -0.0921918972 -0.1667285364 0.0682678843
115299310.0 -0.1689024533 0.073973304 0.5348207185 -0.0991365321 0.5345095374 -0.0989311671 -0.1649276236 0.0688800061
120299280.0 -0.1674502427 0.0747272333 0.5341484062 -0.1061188691 0.5343380147 -0.106137049 -0.1633989166 0.069507975
125299250.0 -0.1660642216 0.0752235457 0.5336781412 -0.1123698837 0.5340136584 -0.112369679 -0.1623873426 0.0694419635
130299220.0 -0.1649462605 0.0767499872 0.5333249309 -0.1195599174 0.5330729342 -0.1194342202 -0.1612353674 0.0704361829
135299190.0 -0.1635213171 0.0778676056 0.5328023055 -0.1260437519 0.5324016459 -0.1256849745 -0.1597075259 0.0708754246
140299160.0 -0.1624986629 0.079093883 0.5318656499 -0.1327206997 0.5319261729 -0.1328215284 -0.1587217362 0.0721032359
145299130.0 -0.1613592613 0.0799869194 0.5312260509 -0.1396713171 0.5307841999 -0.1390560169 -0.157783325 0.0726443783
150299100.0 -0.1601963771 0.0809882175 0.5297977931 -0.145334537 0.5296237963 -0.1457091316 -0.1566394996 0.0736584248
155299070.0 -0.1593285959 0.0821006061 0.5285793999 -0.1529101938 0.5283286658 -0.1526276271 -0.1558601959 0.0747724933
160299040.0 -0.1582067156 0.0834740572 0.527250697 -0.1589124133 0.5268688227 -0.1591199368 -0.1553392537 0.0755426723
165299010.0 -0.1570422614 0.0844964208 0.5252928933 -0.1657115114 0.5257845508 -0.1655366143 -0.1541749197 0.0765734758
170298980.0 -0.1564832466 0.0858464235 0.5237006014 -0.1716909841 0.5240532072 -0.1720335114 -0.1533033672 0.0776451286
175298950.0 -0.1555666267 0.0870586789 0.523407833 -0.1776696659 0.5221432319 -0.1778614587 -0.1526710419 0.0784407431
180298920.0 -0.1545651462 0.0882453271 0.5207217034 -0.1840495828 0.520521828 -0.1837705551 -0.1520111731 0.0799568064
185298890.0 -0.1531289989 0.0894726977 0.5186257297 -0.1904611932 0.5191577895 -0.1905366662 -0.1510823749 0.0809717423
190298860.0 -0.1526803415 0.0910530808 0.5172658528 -0.1964887252 0.5173980523 -0.1965782754 -0.1506094166 0.0818783519
195298830.0 -0.1515768496 0.091838379 0.514910954 -0.2025893814 0.5155284721 -0.202816698 -0.1496456848 0.0829747319
200298800.0 -0.150456049 0.0935346089 0.5124837179 -0.2089425073 0.5130666514 -0.2089045603 -0.1492958145 0.0843368491
205298770.0 -0.1497210614 0.0951495125 0.5105658729 -0.2151912141 0.5106182488 -0.2147739043 -0.1482094334 0.0847357863
210298740.0 -0.1488494029 0.0963227683 0.5086112244 -0.2206539901 0.508243597 -0.2203596149 -0.1476418334 0.0865720277
215298710.0 -0.1483131671 0.0977448819 0.5062574682 -0.2271926988 0.5059721843 -0.2271131258 -0.1470583008 0.0877258258
220298680.0 -0.1470394597 0.0988733001 0.5034408906 -0.2328691248 0.5037852993 -0.2325824254 -0.1467320285 0.0885463209
225298650.0 -0.1462485401 0.1000363459 0.5008856848 -0.2384695226 0.5014186222 -0.2383048849 -0.1460802637 0.0894699057
230298620.0 -0.1452661567 0.1021755293 0.4992535873 -0.2441026173 0.4991116712 -0.2444106689 -0.1456366638 0.0908979501
235298590.0 -0.144301462 0.1036915162 0.4961652277 -0.2500216851 0.4962620035 -0.2499119718 -0.144385579 0.0923291957
240298560.0 -0.1431938633 0.1050357594 0.493809735 -0.2561434152 0.4931930179 -0.2558908037 -0.1440248964 0.0937517182
245298530.0 -0.141906144 0.106548409 0.4908371226 -0.2619668577 0.4910066492 -0.2619726661 -0.1427370367 0.0943392426
250298500.0 -0.1407735911 0.1081223368 0.4870218389 -0.2675183284 0.4874381812 -0.2671499587 -0.1427669157 0.0958502829
255298470.0 -0.1401711817 0.1090658999 0.4842043465 -0.272612491 0.4847964603 -0.272749564 -0.141577762 0.096757632
260298440.0 -0.1390719616 0.1106116891 0.4815673511 -0.2789281847 0.4821896158 -0.2784346329 -0.1405118616 0.0983490737
265298410.0 -0.1374044771 0.1126049138 0.478714642 -0.28422564 0.4789649062 -0.2837427175 -0.1396382977 0.0994954998
270298380.0 -0.1367403256 0.1135971053 0.4759180414 -0.289242356 0.4758635585 -0.2892514955 -0.1389141961 0.1009309338
275298350.0 -0.1351262789 0.1154255042 0.4725295237 -0.2949805972 0.4725356334 -0.2946893335 -0.1379727801 0.1016551017
280298320.0 -0.1339964661 0.116754411 0.470120786 -0.3002178214 0.4695431249 -0.2997621946 -0.1366388279 0.102802328
285298290.0 -0.132977669 0.1182479269 0.4663699628 -0.305454056 0.4659576408 -0.3055765792 -0.1359255301 0.104255507
290298260.0 -0.1314016835 0.1195653253 0.4625589665 -0.3108473575 0.4630018737 -0.3107178678 -0.134978747 0.1058350489
295298230.0 -0.1301107733 0.1209016342 0.4595586348 -0.3156774888 0.4594500818 -0.3160459927 -0.1335848782 0.1064554511
300298200.0 -0.1293173301 0.1223915177 0.4563445151 -0.3207882018 0.4563038773 -0.3216326036 -0.1329218224 0.107731518
305298170.0 -0.1278566891 0.1234546971 0.4525563814 -0.3267813449 0.4524339834 -0.3261186077 -0.1311439455 0.1087328075
310298140.0 -0.126327739 0.1251593085 0.4489409104 -0.3318182262 0.4489804916 -0.3315582102 -0.1305578404 0.1104722812
315298110.0 -0.125047943 0.1263405617 0.4453682174 -0.3367758914 0.4453527246 -0.3369487657 -0.1298955675 0.1111881679
320298080.0 -0.1238082163 0.1275397606 0.4410417752 -0.3424291509 0.4416603724 -0.3419554428 -0.1284010787 0.112465455
325298050.0 -0.1224986672 0.1289344138 0.4375853016 -0.3474099931 0.4375861103 -0.3469779994 -0.1277655221 0.1138486486
330298020.0 -0.1212857814 0.1298230727 0.433565501 -0.352182422 0.4336085651 -0.3518441249 -0.1271525623 0.1148237818
335297990.0 -0.1200395263 0.1311552563 0.4291126329 -0.3565590387 0.4294302822 -0.3569404073 -0.1262014986 0.1167101052
340297960.0 -0.1192089857 0.1325816683 0.4253551816 -0.361521733 0.4250873047 -0.3618518587 -0.1246990059 0.1181556147
345297930.0 -0.1180917579 0.1345208258 0.4213736537 -0.36654175 0.4213078092 -0.3666198256 -0.1240117703 0.1191372081
350297900.0 -0.1162682505 0.1357347148 0.4166152397 -0.3716436618 0.4168738644 -0.370878936 -0.1233716392 0.1209592819
355297870.0 -0.114817056 0.137403521 0.4128260171 -0.3757111785 0.41329679 -0.3754919374 -0.1224220026 0.1221592363
360297840.0 -0.1136213642 0.1387449457 0.4091839662 -0.3799733611 0.4091746368 -0.3798548684 -0.1212306347 0.123442045
365297810.0 -0.1124573271 0.1403445972 0.4047345441 -0.3846582532 0.4047679927 -0.384714017 -0.1199704005 0.1247212898
370297780.0 -0.1106708898 0.1415244707 0.4002606853 -0.3886866584 0.4008240146 -0.3889277606 -0.1189059969 0.1264613827
375297750.0 -0.1088333335 0.1426312766 0.3962574284 -0.3934392161 0.3965251092 -0.3936335356 -0.1176695571 0.1276647087
380297720.0 -0.1078862745 0.1443038939 0.3914687888 -0.3981104804 0.3920255599 -0.3971750926 -0.1171868644 0.1287867286
385297690.0 -0.1063817345 0.145561395 0.3870705439 -0.402173831 0.3874430921 -0.4019961032 -0.1157174881 0.130245451
390297660.0 -0.1049541456 0.1469520044 0.3831455844 -0.4061591655 0.3830144316 -0.40584486 -0.1149387628 0.1314707666
395297630.0 -0.1033307121 0.148443419 0.3786529568 -0.4105926182 0.3782860018 -0.4108618884 -0.1129024953 0.1328551558
400297600.0 -0.1016326517 0.1497174558 0.3735859585 -0.4148438736 0.3739580956 -0.4148409965 -0.1122171836 0.1337184753
405297570.0 -0.100372994 0.1509271201 0.3693618093 -0.4188359735 0.3693838183 -0.4182505921 -0.1110724906 0.1348704021
410297540.0 -0.0984945633 0.1519786483 0.3647913739 -0.4226607757 0.3651161017 -0.4227970508 -0.1101147879 0.136351046
415297510.0 -0.0965498092 0.1528444591 0.3601563662 -0.4268262364 0.3604994701 -0.4269171425 -0.1086754976 0.1375160706
420297480.0 -0.095242812 0.1547115135 0.3553142883 -0.4305805612 0.3551869708 -0.4307047062 -0.1078473825 0.138388719
425297450.0 -0.09352423 0.1553074901 0.3509423 -0.4344312175 0.3509789283 -0.4346646596 -0.1064774605 0.1400904333
430297420.0 -0.0918964211 0.1567659896 0.345823024 -0.4377995703 0.3458451099 -0.4380597831 -0.1051554067 0.1410129621
435297390.0 -0.090289066 0.1578499269 0.3407011857 -0.4418404318 0.3408494092 -0.4421651234 -0.1035503539 0.1420042397
440297360.0 -0.0880746069 0.1591408268 0.3360403668 -0.4457974679 0.3363871993 -0.4458215086 -0.1023111325 0.1428319439
445297330.0 -0.0867101013 0.1599220638 0.3317454823 -0.4492958588 0.3316363619 -0.4490862837 -0.1010098138 0.143501852
450297300.0 -0.0850040565 0.1610092485 0.3266842783 -0.4528761401 0.3263569153 -0.4531900544 -0.0996722846 0.1448831457
455297270.0 -0.0832921067 0.1620266705 0.321382829 -0.4562631816 0.321335199 -0.4566574172 -0.0983481781 0.1456856277
460297240.0 -0.0816306166 0.1629213299 0.3158629469 -0.4595094578 0.3161803979 -0.4602780552 -0.0967712387 0.1472747785
465297210.0 -0.0794757855 0.1642086924 0.3117415496 -0.4633491775 0.3111507836 -0.4635486867 -0.095209193 0.1480158884
470297180.0 -0.0778114882 0.1652463421 0.306010169 -0.4666039602 0.3061393673 -0.4669517353 -0.0936020139 0.1490468021
475297150.0 -0.0759635534 0.1657159453 0.3007582929 -0.4695827178 0.3009951077 -0.4698552629 -0.0919977788 0.1495321207
480297120.0 -0.0741354921 0.167137331 0.2957406408 -0.4733510271 0.2958985517 -0.4734337349 -0.0902582642 0.1511965742
485297090.0 -0.072619224 0.1681162999 0.2906638629 -0.4762999056 0.2907422892 -0.4760451546 -0.0888862523 0.1520611917
490297060.0 -0.0709952105 0.168902238 0.2857216292 -0.4798550978 0.2856436357 -0.4791228655 -0.0872309199 0.1533151282
495297030.0 -0.0687739976 0.1698926232 0.2802690079 -0.4826315752 0.2807781245 -0.4822715649 -0.0860681657 0.1541938566
500297000.0 -0.0670156806 0.1706317195 0.2748906984 -0.4852052866 0.2744766862 -0.4850023814 -0.0841810858 0.1558980952
505296970.0 -0.0649270731 0.1717734292 0.2698457451 -0.488425046 0.2694837621 -0.488306699 -0.0830656125 0.1561269839
510296940.0 -0.0630431628 0.1725354316 0.2640375136 -0.4911943735 0.2642279738 -0.4913787802 -0.0815086319 0.1573741108
515296910.0 -0.0611620646 0.1733891368 0.258802206 -0.4940436091 0.2589023686 -0.4938443412 -0.0798639487 0.1585262416
520296880.0 -0.0596428788 0.1739175952 0.2540588141 -0.4971878951 0.2536847026 -0.4968809889 -0.0785548441 0.159250217
525296850.0 -0.0572920566 0.1746118567 0.2476842571 -0.4996430847 0.2481775192 -0.4995759675 -0.0771886272 0.1605386582
530296820.0 -0.0553542547 0.1757309265 0.2425990429 -0.5024059511 0.2427811441 -0.5023682938 -0.0752186357 0.1613945779
535296790.0 -0.0538829312 0.1766050081 0.2373625681 -0.5051312853 0.2373408537 -0.504323601 -0.0742356669 0.1616526276
540296760.0 -0.0518121179 0.1773032508 0.2317293093 -0.5079025836 0.2317109602 -0.5074695865 -0.0724628212 0.1633003406
545296730.0 -0.0498083643 0.1781292397 0.2260282899 -0.5098965636 0.2260453668 -0.5099084137 -0.0711334722 0.1641073122
550296700.0 -0.0475796802 0.1787859507 0.2201502751 -0.5128186143 0.2204417715 -0.5123587952 -0.0695820862 0.1649298436
555296670.0 -0.0457878864 0.1791165154 0.2148885694 -0.5147174933 0.2152125362 -0.5144427996 -0.0679736719 0.1659447977
560296640.0 -0.0433349672 0.1802317172 0.2094453946 -0.5174778343 0.2094652681 -0.5169911808 -0.0662827629 0.1665851984
565296610.0 -0.0419458527 0.180546129 0.2035542681 -0.5193345764 0.2042257943 -0.519251467 -0.0652137568 0.1673826236
570296580.0 -0.0400576894 0.1816253146 0.1982687467 -0.522069453 0.1974425456 -0.5212584993 -0.0633819023 0.1685463667
575296550.0 -0.0378015271 0.1822475091 0.1923754472 -0.5238262009 0.192637511 -0.5235286979 -0.0617829882 0.1686014292
580296520.0 -0.0356885965 0.1826113167 0.1866608128 -0.5260521787 0.1867703698 -0.5257829545 -0.060165439 0.1698041138
585296490.0 -0.0340707966 0.1825645032 0.1815850718 -0.5274733231 0.1812027617 -0.5278612448 -0.0585021672 0.1704286232
590296460.0 -0.0318050659 0.1837221045 0.1753465472 -0.5292651611 0.1752730065 -0.5292243276 -0.0574397126 0.1711780348
595296430.0 -0.0296255957 0.183925235 0.1689167086 -0.5316051923 0.1692655126 -0.531000893 -0.0553684988 0.1712329785
600296400.0 -0.0280980493 0.184544826 0.1635139361 -0.533041505 0.1637659064 -0.5326610393 -0.0541132724 0.172245175
605296370.0 -0.0257188858 0.1848345662 0.1580368519 -0.5344448524 0.1578235832 -0.5347034962 -0.0519640415 0.1730671463
610296340.0 -0.0237515693 0.1850939101 0.1516195851 -0.5361408042 0.1523048673 -0.5363207886 -0.0504629512 0.1733227329
615296310.0 -0.0214405761 0.1855818626 0.1459799532 -0.5373004383 0.1460748494 -0.5383561615 -0.0483125134 0.1739879991
620296280.0 -0.0195274127 0.1857880032 0.1400424031 -0.539394335 0.1403093164 -0.5389722132 -0.0471191719 0.174425383
625296250.0 -0.0179502982 0.1858888695 0.1351759888 -0.5406976319 0.1344492382 -0.5411608529 -0.0447183778 0.1748638597
630296220.0 -0.0150225322 0.1865529457 0.128020699 -0.5423366173 0.1285103028 -0.5421743895 -0.0433774904 0.17574596
635296190.0 -0.013830555 0.1863366312 0.1235101026 -0.543403774 0.1229508126 -0.5437867392 -0.0415221611 0.1760511335
640296160.0 -0.0118048523 0.187111626 0.1167289131 -0.5448172661 0.1170163251 -0.5447975971 -0.0398517432 0.1766417329
645296130.0 -0.0093230127 0.1873685808 0.1106521673 -0.5456742532 0.111317132 -0.5458548189 -0.0381743871 0.1772809748
650296100.0 -0.0074324818 0.1873891192 0.1051687286 -0.5470420594 0.1052315831 -0.5474116746 -0.0360792497 0.1773633263
655296070.0 -0.0053724132 0.1876702334 0.0992820052 -0.5482843977 0.0992490677 -0.5482442219 -0.0342512719 0.1780732567
660296040.0 -0.0035098936 0.187588655 0.0934322346 -0.5493909006 0.0935783744 -0.5493817229 -0.0322751104 0.1785225248
665296010.0 -0.0008915169 0.187921932 0.0873504686 -0.5500821764 0.0869184547 -0.5501150496 -0.0307728576 0.1795130431
670295980.0 7.57301e-05 0.1883291611 0.0815414934 -0.5507172105 0.08150812 -0.5507785815 -0.0290555414 0.1798200906
675295950.0 0.0026931336 0.1883374667 0.0755212632 -0.5515068939 0.075662067 -0.5514094125 -0.0274322901 0.180299333
680295920.0 0.0046748928 0.1884009404 0.0691976394 -0.5521762777 0.069151947 -0.5527665683 -0.025759436 0.1813866285
685295890.0 0.0072653073 0.1889541491 0.0632944702 -0.5533599986 0.0632017221 -0.5536497499 -0.0236922765 0.1815996872
690295860.0 0.0093352245 0.1886451589 0.0571995822 -0.5537727606 0.0572605048 -0.5538829056 -0.0221266966 0.1824361652
695295830.0 0.0111174087 0.1887306881 0.0517432523 -0.5543611574 0.0513480785 -0.5544605007 -0.0203993023 0.1826781563
700295800.0 0.0135557725 0.1884232001 0.0452791513 -0.5547518973 0.0450430688 -0.554443407 -0.0188943871 0.1833455816
705295770.0 0.015170876 0.1891367249 0.0391422277 -0.5553437493 0.0397670499 -0.5554155945 -0.0169913124 0.183743914
710295740.0 0.0173731429 0.1888772239 0.0336959433 -0.5561311143 0.033814212 -0.5560122503 -0.0148180724 0.1835745362
715295710.0 0.0190923029 0.1886316679 0.0279259714 -0.5560111344 0.0270252372 -0.5560414251 -0.0132356103 0.1839298333
720295680.0 0.0212146736 0.1884521279 0.0212869653 -0.5562117183 0.0214730091 -0.5562347225 -0.0113723817 0.1847770417
725295650.0 0.0235916118 0.1886895276 0.0156101933 -0.5565543536 0.0155898018 -0.556684038 -0.0100729497 0.1856073641
730295620.0 0.0260126238 0.1885597364 0.0093198831 -0.5565032045 0.0097410253 -0.5564391203 -0.00878111 0.1847138302
735295590.0 0.0279379524 0.1883881328 0.0035740005 -0.556888014 0.0034246641 -0.556607759 -0.0070165067 0.1852455383
740295560.0 0.0296876037 0.1883613809 -0.0025820444 -0.5562328728 -0.0023676392 -0.5564976831 -0.0044936981 0.1856982354
745295530.0 0.0316853345 0.1880558638 -0.0090000316 -0.5560637216 -0.0086659541 -0.5562235616 -0.0029147772 0.1850302842
750295500.0 0.0342904268 0.1875842425 -0.0145536239 -0.5559110477 -0.0144050789 -0.5561000016 -0.000924247 0.1858177463
755295470.0 0.0361880452 0.1873074655 -0.0202605986 -0.5561787219 -0.0204225302 -0.556353773 0.0008549355 0.1855632811
760295440.0 0.0380660425 0.1874050322 -0.0261668151 -0.5558797766 -0.026496812 -0.5561053315 0.0022787667 0.1856924202
765295410.0 0.0402412793 0.1871717325 -0.0327405979 -0.5553321335 -0.0330532912 -0.5555843859 0.0044321868 0.1859445773
770295380.0 0.0419672679 0.1866224132 -0.0385154623 -0.5550298153 -0.03861697 -0.5549264251 0.0056776418 0.1856657803
775295350.0 0.0438775928 0.1858215977 -0.0451192494 -0.5542483702 -0.0440124518 -0.5544278456 0.0072153842 0.1861630917
780295320.0 0.0463209904 0.1857928338 -0.0507271983 -0.5537073496 -0.0498662736 -0.5537014719 0.0092613855 0.1853978656
785295290.0 0.0479997562 0.1848635871 -0.0564724024 -0.5528333977 -0.0564503132 -0.5533568428 0.011569506 0.1860281378
790295260.0 0.0505986733 0.185116627 -0.0618982067 -0.5529599702 -0.0616313166 -0.5523947526 0.0134327602 0.1858845149
795295230.0 0.0523009647 0.1842614153 -0.0683020165 -0.5514930563 -0.0678837669 -0.5516933321 0.0154712955 0.1860400587
800295200.0 0.0540050784 0.1841577882 -0.0748357979 -0.5507470857 -0.0743066297 -0.551182676 0.0170663707 0.1857834168
805295170.0 0.0566079079 0.1832956716 -0.0802849721 -0.5499941961 -0.0802046587 -0.5505182237 0.0190149549 0.1858896771
810295140.0 0.0580081447 0.1824613179 -0.0860160972 -0.5489999932 -0.0859870564 -0.5493266687 0.0212369764 0.1858413079
815295110.0 0.0601711349 0.1821400258 -0.0920179615 -0.5480788219 -0.0916328676 -0.548388423 0.0224336531 0.1857482819
820295080.0 0.0623813263 0.1821613086 -0.0977667482 -0.5465250416 -0.097251416 -0.5470608336 0.0245149503 0.1858416556
825295050.0 0.0646697387 0.1813222308 -0.1034137551 -0.5457881776 -0.1035043283 -0.5461743943 0.0267571461 0.1858693957
830295020.0 0.0664475668 0.1808293777 -0.1096726713 -0.5440175985 -0.109533022 -0.5444978256 0.0291984859 0.1857539574
