!Created with skrf (http://scikit-rf.org).
# Hz S RI R 50.0 
!freq ReS11 ImS11 ReS21 ImS21 ReS12 ImS12 ReS22 ImS22
300000.0 -0.0481427373 -0.0704464029 -0.0008509699 0.0030790449 0.0013007469 0.0008648384 -0.7681551477 -0.188260558
5299970.0 -0.0501930019 0.0146045672 -5.74901e-05 -4.09797e-05 7.53874e-05 0.0001117153 -0.7849493777 -0.009326098
10299940.0 -0.0446638836 0.0327622798 -6.12489e-05 0.0001681275 7.10406e-05 -0.0001603497 -0.7873694253 -0.0052297013
15299910.0 -0.0357592638 0.0471202668 -0.0001881774 -6.50515e-05 -3.94522e-05 3.00505e-05 -0.792523705 -0.0025495836
20299880.0 -0.0257581972 0.0593295497 0.0002901725 0.0003156693 2.18334e-05 8.12836e-05 -0.7996289468 0.0016323649
25299850.0 -0.0140557521 0.06870634 -6.23425e-05 -0.0001832853 -9.2859e-06 -6.62398e-05 -0.8058369296 0.0081371942
30299820.0 -0.0028055539 0.075333403 -3.88505e-05 -0.000123251 -3.49968e-05 -2.10911e-05 -0.8118183291 0.0154922179
35299790.0 0.0090003938 0.0799161916 7.47174e-05 6.05237e-05 0.0001208636 -0.0001174455 -0.8169858889 0.024684249
40299760.0 0.0207904141 0.0827136712 -0.0001128262 -1.91643e-05 -6.5814e-06 0.0002260862 -0.8211419701 0.0341642597
45299730.0 0.0313360622 0.0836196195 -8.04487e-05 -6.42394e-05 3.45199e-05 0.0001829261 -0.824048823 0.0440148735
50299700.0 0.0415752495 0.0836785625 -2.23317e-05 -0.0001583635 0.0001338907 -9.57391e-05 -0.8266266092 0.0537708464
55299670.0 0.0507627302 0.0826341163 -0.0001238502 0.0001128492 0.0001010643 9.14838e-05 -0.8286299752 0.0633748668
60299640.0 0.0599007947 0.0806301844 8.2475e-05 5.34907e-05 -7.65726e-05 -5.56918e-05 -0.8295155688 0.0738021022
65299610.0 0.0678240226 0.0780734795 -0.0001034413 -1.0064e-06 7.27791e-05 -9.4764e-06 -0.8304630665 0.0838397021
70299580.0 0.0744563865 0.0751009512 -2.0274e-05 0.0001086869 -3.71965e-05 3.87475e-05 -0.8312008478 0.0934501916
75299550.0 0.0810319741 0.0715568971 0.0001443659 0.0001937166 -0.0001041663 0.0001478844 -0.8308730416 0.1042141384
80299520.0 0.0866994162 0.0678200706 8.20023e-05 1.8543e-05 2.6551e-05 0.0002329913 -0.8312940769 0.1138140165
85299490.0 0.0918718739 0.0638529258 0.0002181534 -1.44319e-05 -2.53519e-05 7.7231e-05 -0.8303076444 0.1233903607
90299460.0 0.0969589586 0.0600584966 0.0001538443 -2.47066e-05 7.81676e-05 4.83842e-05 -0.8291204389 0.1328009496
95299430.0 0.1008326751 0.0560041491 -9.09199e-05 -7.42367e-05 -1.00889e-05 -0.0001233673 -0.828089763 0.142535746
100299400.0 0.1046106395 0.0519550605 9.26963e-05 0.0001031303 0.0001065185 -4.74431e-05 -0.827415159 0.1521106137
105299370.0 0.1078578409 0.047627001 -6.89011e-05 0.0002169284 8.35244e-05 2.81537e-05 -0.8258856457 0.1609206462
110299340.0 0.1111541502 0.0436949362 0.0001703633 0.0001306069 7.52896e-05 -6.46654e-05 -0.8245278169 0.1697481191
115299310.0 0.1133562292 0.0399661074 1.5043e-05 0.0002778754 0.0001125446 -6.75566e-05 -0.8232041266 0.1792914386
120299280.0 0.115778187 0.0359729231 0.0001057996 -4.74076e-05 0.0002374579 6.69482e-05 -0.8214525128 0.1881887439
125299250.0 0.1176188145 0.0320275057 -6.60076e-05 -0.0002620181 -7.29982e-05 0.0001696003 -0.8199188759 0.1974345996
130299220.0 0.1193679721 0.0282413004 5.02881e-05 0.0001352862 0.0001429298 7.35938e-05 -0.8175353867 0.2059137368
135299190.0 0.1210387503 0.0244481292 -9.4851e-05 1.75154e-05 -7.18096e-05 -0.000139974 -0.8154800181 0.2152093939
140299160.0 0.1222047712 0.0209252465 -0.0001691247 -0.0001802499 0.0001330037 0.0003326502 -0.8137629447 0.2237495965
145299130.0 0.1234088231 0.0172581026 5.57218e-05 0.0001441829 5.5931e-05 2.9148e-05 -0.8117086708 0.2323004386
150299100.0 0.1244560614 0.0138153267 8.88079e-05 2.69481e-05 1.32775e-05 8.94476e-05 -0.8092654838 0.2414060379
155299070.0 0.1249611401 0.0106488507 -0.0001289369 -3.70281e-05 0.0002024213 4.74384e-05 -0.8067758328 0.2506370884
160299040.0 0.1257246005 0.0073581347 6.00499e-05 -5.52578e-05 -9.29447e-05 -1.9715e-05 -0.804743298 0.2592619331
165299010.0 0.126193472 0.0040509909 -9.32832e-05 -2.54433e-05 -7.20968e-05 -2.59595e-05 -0.8016559345 0.267098161
170298980.0 0.1265396038 0.0009007168 8.32182e-05 -1.03822e-05 -3.00251e-05 7.08679e-05 -0.7997049451 0.2753919507
175298950.0 0.1267401007 -0.0022472389 0.0001290029 -0.000133391 0.0001194583 0.0001215884 -0.7964473751 0.2851588908
180298920.0 0.1269144407 -0.0052198922 0.0001311914 -8.7273e-06 3.7481e-05 7.74005e-05 -0.7930237506 0.2930650004
185298890.0 0.1267951249 -0.008434933 -3.50355e-05 9.78509e-05 0.0003938639 5.38673e-05 -0.7901432093 0.3017682791
190298860.0 0.1271220208 -0.0109832038 0.0001126195 5.53654e-05 0.0001106823 -0.0001061972 -0.7874064411 0.3099437738
195298830.0 0.1270706456 -0.0135957719 -2.81506e-05 9.21041e-05 7.3207e-06 2.88821e-05 -0.7844246452 0.3184174679
200298800.0 0.1269803444 -0.016775094 -0.0001458965 5.44333e-05 0.0001434224 0.0001375926 -0.7813908224 0.326832885
205298770.0 0.1262163521 -0.0193134186 6.38217e-05 8.2935e-06 0.0001418763 2.07851e-05 -0.7780070787 0.3346568396
210298740.0 0.1260966722 -0.0217347518 2.20948e-05 -0.000156788 -4.33571e-05 0.0001112909 -0.7742562439 0.3434357418
215298710.0 0.1256422023 -0.0244910387 0.000168785 -6.8536e-06 0.0001978997 9.27334e-05 -0.7700778532 0.351361292
220298680.0 0.1255051416 -0.0268978394 7.35452e-05 1.87091e-05 -4.42733e-05 -6.40095e-05 -0.7664930601 0.3595946524
225298650.0 0.1248903157 -0.0294181929 0.0002312797 -0.0001620898 0.0001835652 -0.0001512997 -0.7630219441 0.367406117
230298620.0 0.1239792696 -0.0314605474 -0.0001396819 9.12993e-05 -8.77601e-05 -5.77204e-05 -0.7593273637 0.3752514729
235298590.0 0.1233383793 -0.0339466469 9.64935e-05 -4.88936e-05 0.0002568465 0.0003068303 -0.7549388771 0.3836536397
240298560.0 0.1226008747 -0.036173689 1.28455e-05 0.000125869 4.49427e-05 0.0001798356 -0.7513902146 0.3905925497
245298530.0 0.1221091341 -0.038385092 4.568e-07 -0.0002354297 -0.0001102083 3.35078e-05 -0.7472834379 0.3992797385
250298500.0 0.1213570118 -0.0406213352 2.0718e-05 -7.80877e-05 -0.0001501141 3.84117e-05 -0.7430330194 0.407114711
255298470.0 0.1206183182 -0.0424530811 -1.50359e-05 0.000110203 -6.48857e-05 -6.37638e-05 -0.7389682666 0.4148436579
260298440.0 0.1197732113 -0.0450533859 -0.0001014483 -1.69111e-05 0.0001779438 0.0001335534 -0.7342338601 0.4219969168
265298410.0 0.118741593 -0.047019278 -0.0001470649 3.9107e-05 0.0001268782 -2.79256e-05 -0.7298096446 0.4302900036
270298380.0 0.1176937297 -0.0489639057 6.0464e-05 6.88256e-05 9.15803e-05 4.4091e-05 -0.7251159658 0.4380698539
275298350.0 0.1168941516 -0.0507664864 -9.0666e-06 0.0003326654 7.82695e-05 0.0001541836 -0.7204190007 0.445439608
280298320.0 0.1158842386 -0.0528162963 0.0001125908 0.000161901 5.32775e-05 -7.11001e-05 -0.7158870215 0.4527522036
285298290.0 0.114994619 -0.054508851 -0.0002846648 0.000112175 3.0724e-06 2.27743e-05 -0.7116065678 0.4606649782
290298260.0 0.1138944734 -0.0568402098 -2.58162e-05 -5.4725e-05 3.04562e-05 -1.78341e-05 -0.7068334204 0.4677039866
295298230.0 0.1129620763 -0.0585241548 0.0001266591 1.96185e-05 0.0001462713 -0.0001531196 -0.7017038189 0.4750791111
300298200.0 0.1116635405 -0.0604527963 0.0001842046 5.5672e-05 0.0001639926 0.000131445 -0.6968947963 0.4825547211
305298170.0 0.1109180469 -0.0623027031 0.00026151 -4.33362e-05 0.0001785991 -0.0001546489 -0.6914680599 0.489669474
310298140.0 0.1098092303 -0.0644706897 0.0001171541 0.0002642478 5.75235e-05 0.0001641664 -0.6864326893 0.496732657
315298110.0 0.108397806 -0.0665688662 0.0001929528 0.0001921894 3.50655e-05 0.0003052409 -0.6813020055 0.5037473402
320298080.0 0.1070358284 -0.0681915074 9.02715e-05 0.0001462603 5.09273e-05 3.4687e-05 -0.6766731533 0.5106675825
325298050.0 0.1052539595 -0.0705080641 2.87663e-05 3.68267e-05 -4.13163e-05 -7.47824e-05 -0.6702519797 0.5174869153
330298020.0 0.103975705 -0.0715859687 1.94412e-05 -0.0001099549 0.0001332339 2.11859e-05 -0.6648479692 0.5247255851
335297990.0 0.102410119 -0.073059032 0.0003047682 -8.2404e-05 6.39347e-05 -2.02541e-05 -0.6596442956 0.5317948654
340297960.0 0.1008009119 -0.0743976016 -3.57809e-05 0.0001671698 0.000136453 0.0001658919 -0.6542374181 0.5382585229
345297930.0 0.0994459608 -0.0759535639 0.0001676819 0.0002012966 0.0001689434 0.0002489745 -0.6489037515 0.5453047611
350297900.0 0.0983227428 -0.0774310196 0.0002021097 0.0001939173 0.0002191988 4.10532e-05 -0.6438638542 0.5514720041
355297870.0 0.0967990739 -0.0789284726 0.0001538671 -1.26856e-05 0.000171672 9.72505e-05 -0.6370223385 0.5586957822
360297840.0 0.0952664011 -0.08023639 0.0001242872 -2.5459e-06 7.63378e-05 9.92121e-05 -0.6309372921 0.5647644904
365297810.0 0.0939599584 -0.0816637484 -4.84361e-05 0.0001174226 0.0001794357 0.000315285 -0.6261337966 0.5709394368
370297780.0 0.0925832012 -0.0831592671 0.0001154599 -8.74098e-05 8.57944e-05 -5.57396e-05 -0.6196925522 0.5779039972
375297750.0 0.0910599185 -0.084218654 6.93837e-05 6.584e-06 -6.27881e-05 4.15553e-05 -0.6133340959 0.5834957735
380297720.0 0.0897264743 -0.0849836094 0.0003341241 -8.8392e-06 7.83676e-05 6.55167e-05 -0.6068368018 0.590693376
385297690.0 0.0881292543 -0.0866270505 6.56822e-05 6.49617e-05 -0.0001392199 -1.04053e-05 -0.6012984252 0.5965998742
390297660.0 0.0868383847 -0.0882989225 0.0001058852 0.0001531281 0.0001346791 -7.59419e-05 -0.5942798252 0.6019243745
395297630.0 0.0854747345 -0.0893022812 0.0003033745 0.0001273549 -0.0001091877 -4.0049e-06 -0.5882206265 0.6080828677
400297600.0 0.083727425 -0.0904715795 0.0002493803 2.94304e-05 9.86148e-05 -1.13525e-05 -0.5826057106 0.6144374275
405297570.0 0.0821659727 -0.0919617611 0.0002082565 -1.17651e-05 -1.30359e-05 0.0002602978 -0.5749591156 0.6205966827
410297540.0 0.0811712153 -0.0928885458 0.0002449012 -0.0001142206 0.0001243497 -7.68837e-05 -0.5694965089 0.6261640086
415297510.0 0.079151011 -0.0940767389 3.49045e-05 9.67394e-05 1.10246e-05 0.0001273767 -0.5629245677 0.6320872952
420297480.0 0.077623452 -0.0954427037 0.0002466866 5.98199e-05 -0.0001717784 8.28403e-05 -0.5565688184 0.6378307082
425297450.0 0.0764551833 -0.0963737733 -9.759e-06 -1.7295e-06 -0.0001787048 0.0002400032 -0.5491654402 0.6425078708
430297420.0 0.0748830499 -0.0973967592 3.34988e-05 4.9335e-05 0.0001743944 -8.99639e-05 -0.5428094122 0.6484048719
435297390.0 0.07332986 -0.0986042532 0.0001034053 -9.12955e-05 -9.21913e-05 0.000164334 -0.5361397111 0.6544016271
440297360.0 0.071973102 -0.0995965467 6.19659e-05 0.0002497238 2.66938e-05 0.0001607578 -0.5302932471 0.6595863045
445297330.0 0.0705721619 -0.100788925 9.12533e-05 -3.9584e-06 0.0001815738 0.0001742074 -0.5229733684 0.6648807126
450297300.0 0.0687038808 -0.1017236147 3.09232e-05 9.1994e-05 -1.37461e-05 9.30611e-05 -0.5155379242 0.6702086117
455297270.0 0.0670967929 -0.1024359694 0.0002676986 9.07566e-05 0.0001403919 1.56115e-05 -0.5093458586 0.6750240342
460297240.0 0.0659631766 -0.1033150866 -6.2714e-06 7.98489e-05 0.000180767 2.98718e-05 -0.5024707102 0.6799467622
465297210.0 0.0645005065 -0.1042463522 -0.0001721229 -0.000176362 0.0002570053 -0.0001470544 -0.4949794656 0.6860421815
470297180.0 0.0627430989 -0.1051532129 0.0001459147 4.43747e-05 3.2351e-05 0.0001746643 -0.488296667 0.6901190925
475297150.0 0.0608210583 -0.1059237959 3.86087e-05 4.83547e-05 -4.85738e-05 1.90047e-05 -0.4809746959 0.6952103666
480297120.0 0.0595429064 -0.1070323203 -2.2913e-05 9.79361e-05 0.0002206219 -0.0001299432 -0.4745205792 0.7002702513
485297090.0 0.0581267681 -0.107750799 0.0002439094 1.633e-07 0.0001493253 -3.83336e-05 -0.4670171187 0.7043769503
490297060.0 0.0569302683 -0.1085137407 0.0001367692 -1.3972e-06 9.29514e-05 8.83526e-05 -0.4598699586 0.7091295562
495297030.0 0.0549539158 -0.1093267854 0.0001462604 -0.0001259078 5.02058e-05 0.0004306256 -0.4523280602 0.7135719926
500297000.0 0.0534711222 -0.1095575211 0.0001888077 -2.81295e-05 0.0001130791 0.0001306263 -0.4448521442 0.7183896983
505296970.0 0.0520591132 -0.1108426256 0.0002583888 4.64464e-05 0.0001282216 0.0001808517 -0.4369744522 0.7223058508
510296940.0 0.0504495722 -0.1110998237 2.31755e-05 -4.0296e-06 9.41639e-05 -2.58494e-05 -0.4299177023 0.7273166663
515296910.0 0.0485120004 -0.1117223714 -3.53381e-05 3.52407e-05 4.23771e-05 -6.79924e-05 -0.422903805 0.7310957649
520296880.0 0.0473984325 -0.112551432 4.20744e-05 -8.52457e-05 0.0001201397 1.74919e-05 -0.4152956904 0.7357088857
525296850.0 0.0456558399 -0.1132978934 4.20244e-05 -8.11067e-05 0.0002205989 0.0002315817 -0.4083182242 0.7396381156
530296820.0 0.0441730328 -0.113609981 0.0001161485 0.000147993 6.86334e-05 0.0001729443 -0.4003440824 0.7432728835
535296790.0 0.0428404238 -0.1141180358 0.0001938978 7.65037e-05 0.0001683634 2.02737e-05 -0.3930826472 0.7481875741
540296760.0 0.0412377692 -0.1143524132 7.65706e-05 -0.0001448931 0.0002144632 -0.0001155528 -0.3852849108 0.7515721876
545296730.0 0.0392526635 -0.114560817 0.0001092741 -1.91894e-05 0.000111663 4.37892e-05 -0.377600421 0.7553960558
550296700.0 0.0379354589 -0.1151641807 0.000148157 8.07609e-05 0.0001967204 0.0001694506 -0.3702777415 0.7590534527
555296670.0 0.0361837336 -0.1155665528 0.0003333094 3.27134e-05 0.000259313 7.74114e-05 -0.3625318528 0.7619182944
560296640.0 0.0347529248 -0.1158668749 8.84676e-05 -5.39443e-05 0.0001946388 8.69431e-05 -0.3537882846 0.7663572203
565296610.0 0.0328385915 -0.1163664032 8.8801e-06 3.99067e-05 0.0002790956 3.05283e-05 -0.3463150304 0.7694321681
570296580.0 0.0312097212 -0.1165025924 -5.3747e-05 -0.000164386 0.0001956425 1.37941e-05 -0.3387277126 0.7728955788
575296550.0 0.0299185637 -0.1168805784 0.0002500902 0.0002349123 0.0001514518 0.0001872247 -0.3309199224 0.7762862325
580296520.0 0.0285832981 -0.1168578736 0.0001212675 -1.25724e-05 -1.69886e-05 5.55753e-05 -0.3231758073 0.7797442034
585296490.0 0.0266634253 -0.1169793287 0.000349138 -2.74943e-05 1.26217e-05 8.49603e-05 -0.315210878 0.7833504866
590296460.0 0.0253585916 -0.1173372134 0.0001691381 -7.40937e-05 0.0003500418 0.0001040233 -0.3075149835 0.7858485249
595296430.0 0.0234093393 -0.1173850692 2.42871e-05 2.2042e-06 -3.65928e-05 -1.14903e-05 -0.3001053156 0.7889912841
600296400.0 0.0219464612 -0.1174668856 2.461e-05 2.62122e-05 -2.9421e-05 -8.49568e-05 -0.2914586861 0.791635617
605296370.0 0.0199393482 -0.117456985 0.0002272259 0.0001364826 1.65376e-05 -5.4449e-06 -0.2837253213 0.7957094098
610296340.0 0.0187515586 -0.1176434084 0.0001415647 -7.43388e-05 -5.3482e-06 5.75728e-05 -0.2762269169 0.7982572241
615296310.0 0.0170953315 -0.1176171874 0.0001387761 0.0001687669 8.46823e-05 2.76488e-05 -0.2675789644 0.8007890439
620296280.0 0.0152239051 -0.117447629 1.4037e-06 -5.6552e-05 0.0002480941 1.847e-06 -0.2598369259 0.8032022273
625296250.0 0.0134775087 -0.1175351121 0.000196342 0.0001093501 0.0001227499 0.0002215376 -0.2516889323 0.8053785762
630296220.0 0.0119036878 -0.1174929211 0.0002634572 5.13523e-05 0.0001705589 7.1593e-06 -0.2435386414 0.8079250621
635296190.0 0.0104113002 -0.1173388325 0.0001370647 4.949e-06 0.0001428502 6.61996e-05 -0.235345183 0.809780326
640296160.0 0.0086150587 -0.1172787644 5.22809e-05 0.0001979953 0.0002547421 1.18231e-05 -0.2270936453 0.8126364946
645296130.0 0.0073171117 -0.1170060093 -6.68302e-05 0.0001371285 -5.43355e-05 3.32461e-05 -0.2193233202 0.8149706249
650296100.0 0.0054995833 -0.1169888834 0.000229438 7.0684e-06 0.0001878435 7.20891e-05 -0.2111499081 0.8167476814
655296070.0 0.0038564524 -0.1166430331 -6.1748e-06 9.72664e-05 0.0001233893 -3.37792e-05 -0.2030569749 0.8196190275
660296040.0 0.0018730613 -0.1164115417 3.49465e-05 0.000115865 0.0002092193 -2.88388e-05 -0.1942204021 0.8208648747
665296010.0 0.000224041 -0.1163680282 2.94276e-05 -2.35211e-05 0.000135197 1.72467e-05 -0.1865258078 0.8225019974
670295980.0 -0.0014783111 -0.1161014474 0.0001735752 -6.663e-06 0.0001600696 5.06378e-05 -0.1783498563 0.8247532504
675295950.0 -0.0032275093 -0.1160174898 0.0001278311 -0.0003090402 5.71578e-05 3.05695e-05 -0.1698750705 0.826361938
680295920.0 -0.0048641702 -0.1152317715 0.0003661689 -4.88087e-05 0.0001293537 -0.0001060411 -0.1611861455 0.8281599167
685295890.0 -0.0063608753 -0.114786049 1.04336e-05 -6.15152e-05 0.0001393171 0.0001394306 -0.1535102953 0.8294275733
690295860.0 -0.0082101207 -0.114670153 0.0003191093 -3.68405e-05 0.0001140561 2.3893e-05 -0.1451880366 0.8312056422
695295830.0 -0.0097491515 -0.1144869954 0.0003590394 -3.51911e-05 3.025e-05 0.0001675656 -0.1364525678 0.8328148751
700295800.0 -0.011292228 -0.1138768051 0.0002899136 6.84847e-05 0.0001981577 -8.29751e-05 -0.1285833993 0.8331812608
705295770.0 -0.0131998208 -0.1133564851 8.05068e-05 -4.46662e-05 1.685e-06 -0.0001766287 -0.1199712781 0.8352123241
710295740.0 -0.0149731543 -0.1129218965 0.0001268588 -0.0002207513 0.0001483838 8.29116e-05 -0.1117738839 0.836557904
715295710.0 -0.0161829825 -0.1124365952 0.0003378242 2.3341e-06 0.0001532945 3.54678e-05 -0.1032447328 0.8366540765
720295680.0 -0.017886625 -0.112022606 6.31137e-05 -3.63375e-05 -0.0001032546 3.2749e-05 -0.09489994 0.8375784012
725295650.0 -0.0199837892 -0.1115599149 0.0001615672 -0.0001049278 0.0001765261 -1.18949e-05 -0.0871201497 0.8393774188
730295620.0 -0.0217410968 -0.1111583383 2.99699e-05 9.59337e-05 0.0002350606 -9.32348e-05 -0.0789625941 0.8403505056
735295590.0 -0.0234210207 -0.1103734291 0.0002211558 -0.0001166794 0.0002854838 5.11257e-05 -0.0700945381 0.8403265779
740295560.0 -0.0249289339 -0.1097926287 0.0001681348 2.3718e-05 0.0001211393 -6.23309e-05 -0.061275249 0.8415382932
745295530.0 -0.0264639279 -0.1093439852 -2.4021e-06 2.22146e-05 0.0002558799 0.0001523088 -0.05348081 0.8420125303
750295500.0 -0.0286688655 -0.1087381887 7.41389e-05 -7.71831e-05 0.0002994305 -0.0001378845 -0.0446908043 0.8425070085
755295470.0 -0.0300365439 -0.1081131095 0.0002795554 -0.0001912518 0.0001914575 -0.000137245 -0.0365259574 0.8430989183
760295440.0 -0.0316365996 -0.1073507442 0.0002051321 0.0001485523 0.0002071475 5.0816e-06 -0.0278788184 0.8428968526
765295410.0 -0.033079446 -0.1069931752 0.0002218416 -0.0002310378 0.0001842976 -1.22037e-05 -0.0196006173 0.8434019054
770295380.0 -0.0348132501 -0.1059622592 0.0001979054 -9.93604e-05 0.0001565693 5.26416e-05 -0.0114136272 0.8436438904
775295350.0 -0.0364378177 -0.1053418628 0.0001427351 -0.0002442753 5.73355e-05 7.48496e-05 -0.0033010351 0.8430652938
780295320.0 -0.0381207904 -0.1044624782 -0.0001132994 -0.0002230749 5.38443e-05 9.49366e-05 0.0056901564 0.8435812058
785295290.0 -0.0397564037 -0.1041731643 0.0001488076 -4.628e-07 0.0001080607 -0.000142938 0.0133245049 0.8436673976
790295260.0 -0.0415307817 -0.1035783149 0.0002578049 -0.0001398589 0.0001575117 2.8264e-05 0.0223278854 0.8433814375
795295230.0 -0.0430460156 -0.1027522221 0.0002515448 1.82141e-05 0.000162198 -0.0001889763 0.0301283269 0.8424467951
800295200.0 -0.044602348 -0.101949174 -1.9451e-05 -0.0002067773 0.0003284993 -3.11318e-05 0.0384010026 0.8422854189
805295170.0 -0.046283378 -0.101259532 0.0002229258 -0.0001154421 0.000175165 -0.0001304003 0.0479300992 0.8420753825
810295140.0 -0.0476027904 -0.1001832259 3.27309e-05 2.98763e-05 0.0002093321 -0.0001014411 0.0555664809 0.8412029586
815295110.0 -0.0493511616 -0.0997020553 0.0001655046 -6.46568e-05 9.26008e-05 -0.000132428 0.0631815889 0.8411021666
820295080.0 -0.0510718152 -0.0990333906 0.0002974047 -0.0002577353 0.0003781436 -0.0001677249 0.0713148814 0.8406268059
825295050.0 -0.0525780861 -0.0982088857 3.3298e-06 0.0002231387 0.0001373487 8.53647e-05 0.0803268619 0.8397969521
830295020.0 -0.054139489 -0.0971140952 0.0001598614 -0.0002906283 6.10175e-05 -0.0001592527 0.0880971744 0.8382981205
835294990.0 -0.0554706536 -0.0966188794 9.92791e-05 0.0001670342 0.0001889498 -0.0001811311 0.096795744 0.8377283683
840294960.0 -0.0568728222 -0.0958844732 0.0002184462 -6.9328e-06 6.2256e-05 -0.0002242622 0.1057426073 0.8369968957
845294930.0 -0.0584350396 -0.0943933413 0.0003373913 -8.45063e-05 7.34311e-05 -1.05349e-05 0.1138061255 0.8354899474
850294900.0 -0.0597991985 -0.0938679647 0.0001750101 -2.0903e-05 0.0001435146 1.49242e-05 0.121566712 0.8347985503
