!Created with skrf (http://scikit-rf.org).
# Hz S RI R 50.0 
!freq ReS11 ImS11 ReS21 ImS21 ReS12 ImS12 ReS22 ImS22
300000.0 -0.0971546176 -0.0847063739 0.6226550066 0.0797913493 0.6244754794 0.0844906665 -0.0952387302 -0.0948906535
5299970.0 -0.1005706516 0.0128298063 0.63122373 0.0103429982 0.6305841775 0.0109962608 -0.1020991958 0.0119699457
10299940.0 -0.0953676879 0.0298202567 0.6345902536 0.0155966908 0.6343126262 0.0161721596 -0.0971473495 0.0287915178
15299910.0 -0.0883524665 0.0428466888 0.6405744296 0.0209754296 0.6401211709 0.0210436699 -0.0902583179 0.042075378
20299880.0 -0.0792766636 0.0542464721 0.6483751825 0.0240969488 0.6487348787 0.0241259418 -0.0817581858 0.0534331872
25299850.0 -0.0696740097 0.0626586764 0.6578213983 0.0246095695 0.6579849389 0.0251909969 -0.0723057568 0.0619948372
30299820.0 -0.0595824254 0.069181872 0.6680103862 0.0246119935 0.6675056677 0.0246508181 -0.0623732175 0.0688397122
35299790.0 -0.0493030102 0.0741161472 0.6773826897 0.02149285 0.6770537722 0.0217696228 -0.0523261777 0.073376146
40299760.0 -0.039626069 0.0770656811 0.6863713719 0.0176387023 0.6868000113 0.017379888 -0.0433956096 0.0772025261
45299730.0 -0.0301612573 0.0794307559 0.6955724471 0.0117763564 0.6959727876 0.0119952306 -0.0341765301 0.0790095991
50299700.0 -0.0218161448 0.0798085469 0.7033398809 0.0044656629 0.7036869276 0.0049530143 -0.0256388485 0.0802026407
55299670.0 -0.0143083547 0.0799670847 0.7104141587 -0.0030722212 0.7111522312 -0.0027617508 -0.0179610169 0.0798465772
60299640.0 -0.0068592539 0.0787157436 0.7174175451 -0.0112522581 0.7175135817 -0.0112748537 -0.0104252768 0.0797552417
65299610.0 -0.0003473893 0.0780076244 0.7234286372 -0.0197307864 0.7238677707 -0.0195809698 -0.0038487398 0.0784991891
70299580.0 0.0060394139 0.075932825 0.7285049835 -0.0286285552 0.728881752 -0.0289758358 0.0022679124 0.0773225716
75299550.0 0.0116090422 0.074422095 0.7330133009 -0.038472557 0.733145952 -0.0390160394 0.0083404385 0.0756722524
80299520.0 0.016284814 0.0719616832 0.7379579488 -0.0494461865 0.737624424 -0.0488631444 0.013051863 0.0728748318
85299490.0 0.0209674738 0.0696399794 0.7407195736 -0.0592266333 0.7405755548 -0.0585801404 0.0172724402 0.0707520262
90299460.0 0.0245985485 0.0671676241 0.7430825892 -0.068675211 0.7438007038 -0.0687921898 0.0219492484 0.069011768
95299430.0 0.0280922709 0.0653926262 0.7459929361 -0.0794911009 0.7465598587 -0.0788863188 0.0252757969 0.0663425829
100299400.0 0.0313674693 0.0627741058 0.7479278297 -0.0893056305 0.7476424734 -0.0891726022 0.0284477241 0.0640034476
105299370.0 0.0346286067 0.0601584063 0.7487384325 -0.0990724392 0.7487512895 -0.0994051637 0.0320035388 0.0616442299
110299340.0 0.0370782328 0.0578341358 0.749832814 -0.1088319242 0.7501491864 -0.109502824 0.0349357806 0.0592673443
115299310.0 0.0396922626 0.0549061432 0.7509914971 -0.1191280804 0.7509459247 -0.1193710874 0.0372388116 0.0561491338
120299280.0 0.0415881987 0.0525819793 0.751799009 -0.1297566153 0.7516104679 -0.1299349546 0.0388941166 0.0543053442
125299250.0 0.0433726395 0.0504429874 0.7522235976 -0.1390570724 0.7518316787 -0.1395404854 0.0414078868 0.051349599
130299220.0 0.0451805732 0.0480401836 0.7517266726 -0.1484436106 0.7518445177 -0.1493634858 0.043348746 0.0496566137
135299190.0 0.0467823393 0.0456311474 0.7514081607 -0.1587536066 0.7510414459 -0.1591032093 0.044538562 0.0476451723
140299160.0 0.047647508 0.0441527912 0.7506477773 -0.1688200868 0.750742452 -0.1686387775 0.046302516 0.0454570156
145299130.0 0.0493568795 0.0419713648 0.750296705 -0.1784934049 0.7498488571 -0.1781867851 0.0470153232 0.0426015715
150299100.0 0.0508056833 0.0398851134 0.7497017557 -0.1884245672 0.7489785225 -0.1882088169 0.0485184572 0.0408011657
155299070.0 0.0512324468 0.0384061911 0.7477442032 -0.1982727018 0.7477597234 -0.1982119578 0.0494953466 0.0390092717
160299040.0 0.0523377762 0.0360150536 0.7463870247 -0.2064689597 0.7464916293 -0.2073949572 0.050649457 0.0373235291
165299010.0 0.0529054062 0.0341213798 0.7450519487 -0.2172784197 0.7451812676 -0.2168466339 0.0516848338 0.0347338613
170298980.0 0.0533852948 0.0326195681 0.7419633288 -0.2262844557 0.7431125125 -0.2260190104 0.0526920612 0.033028759
175298950.0 0.0545383188 0.030684651 0.7417505973 -0.2353519596 0.7412760353 -0.2349261276 0.0532075501 0.0311684563
180298920.0 0.0553630701 0.0291774997 0.7392539771 -0.2446990101 0.7390754417 -0.2441830402 0.0537408606 0.0297922331
185298890.0 0.0559598265 0.0273547681 0.736358066 -0.2537041081 0.736889477 -0.2536754077 0.0541644055 0.0279026877
190298860.0 0.0563151035 0.0258496313 0.7340277017 -0.2630369993 0.7345011666 -0.2627538702 0.0554676239 0.026122403
195298830.0 0.0563895989 0.0237919136 0.7319179923 -0.2712096804 0.7321262204 -0.2720701529 0.0558170569 0.0240678546
200298800.0 0.0571652653 0.0227908542 0.7294787222 -0.2802797638 0.7291625252 -0.2806496091 0.0561803226 0.0232958429
205298770.0 0.0572148599 0.0213479977 0.727081387 -0.2892727532 0.7266790518 -0.289465821 0.0566976613 0.0210460399
210298740.0 0.0572841472 0.0199446167 0.7239005767 -0.2987932403 0.7235422784 -0.299052644 0.0568759112 0.0198729639
215298710.0 0.0578319788 0.0187461852 0.7209080974 -0.3067293709 0.7207621515 -0.306979213 0.057302818 0.0184682166
220298680.0 0.0583092039 0.0173202128 0.7171876443 -0.3155905543 0.7175059872 -0.3156130784 0.0576500571 0.0171708096
225298650.0 0.0586800438 0.0160635335 0.7138808232 -0.3237768804 0.7137106171 -0.3242053643 0.0574935533 0.0158568865
230298620.0 0.0581198086 0.0149637341 0.7112806798 -0.3330873056 0.7109702334 -0.332680827 0.0577541803 0.0142409901
235298590.0 0.0585926504 0.0132474296 0.7074700763 -0.3409330082 0.7076120012 -0.341831095 0.0579694722 0.0128762939
240298560.0 0.0584026295 0.0122346877 0.7043068037 -0.3494456866 0.704054825 -0.3492363058 0.0583546199 0.0118646041
245298530.0 0.0589260963 0.0112510513 0.6992991446 -0.3578132162 0.6999835173 -0.357858813 0.0584695881 0.0109457553
250298500.0 0.0584671264 0.0098013569 0.6961116491 -0.3655886923 0.6964050314 -0.3653857361 0.058943983 0.0089280955
255298470.0 0.0583470553 0.0090727661 0.6921041012 -0.3741381914 0.6922250038 -0.3745180504 0.0585569976 0.0077602217
260298440.0 0.0584092447 0.0078809983 0.6880839372 -0.3820246615 0.6880124218 -0.382260207 0.0593851699 0.0069810818
265298410.0 0.0590488627 0.0067789306 0.683884993 -0.3911151313 0.6838236444 -0.3905381549 0.0588720382 0.0054039372
270298380.0 0.059277265 0.0055842393 0.6791727441 -0.3981656593 0.6801740618 -0.3984888159 0.0591870109 0.0049821369
275298350.0 0.058484534 0.0047298436 0.6755462808 -0.4068033333 0.6759988759 -0.4068371958 0.0588773117 0.0036000178
280298320.0 0.0587221427 0.0040988584 0.671150708 -0.4135929407 0.6710324208 -0.4144301519 0.0595285034 0.0026701313
285298290.0 0.0589050228 0.0030604134 0.6666140776 -0.4216139091 0.6666895557 -0.4219672829 0.0588306439 0.0018675318
290298260.0 0.0588095238 0.0017796908 0.66223195 -0.4299804465 0.6628424117 -0.4296464789 0.0595246922 0.000689669
295298230.0 0.0587438588 0.0009745375 0.6576818625 -0.4374175699 0.6577546549 -0.4374235006 0.0598382773 -0.0003229469
300298200.0 0.0594351318 -1.09414e-05 0.6529084199 -0.4449347649 0.6528745006 -0.4449953309 0.0592215059 -0.0011726499
305298170.0 0.0590716183 -0.0013608406 0.6483948703 -0.4527304597 0.6487852101 -0.4528733318 0.0597933348 -0.0023667377
310298140.0 0.0594248267 -0.0023626878 0.6436779361 -0.460128426 0.6439609709 -0.4604482461 0.0595465849 -0.0029224072
315298110.0 0.0587748872 -0.0035990048 0.6382337332 -0.4683561366 0.6385276095 -0.4686121799 0.0600220823 -0.004594969
320298080.0 0.0588535424 -0.0042377226 0.6324072202 -0.4755552554 0.6335072058 -0.4756819056 0.0594789506 -0.0058037152
325298050.0 0.0582939228 -0.0058962177 0.6284461276 -0.4835113832 0.6282379226 -0.4837562911 0.059125256 -0.0070237263
330298020.0 0.0579890907 -0.0064635896 0.6216597358 -0.4906375194 0.6220843805 -0.4906493519 0.0586053866 -0.0080143092
335297990.0 0.0575262465 -0.007743645 0.6165970364 -0.4977513818 0.6165848668 -0.497238264 0.057959714 -0.0088364225
340297960.0 0.0567324218 -0.0082114513 0.6105646441 -0.5050794048 0.6110089137 -0.5042247542 0.0574007067 -0.0092618408
345297930.0 0.0560654919 -0.0084886519 0.6052532322 -0.5106231907 0.604811234 -0.5109695991 0.0577213351 -0.0107968888
350297900.0 0.056513444 -0.0092600583 0.5990050099 -0.5175930717 0.5992804085 -0.5181906025 0.0567213956 -0.0107047628
355297870.0 0.0558691169 -0.0102038797 0.5930168518 -0.524259307 0.5932995851 -0.5246198477 0.05630766 -0.0114437722
360297840.0 0.0562256731 -0.0107409475 0.5876835398 -0.5320531997 0.5876465366 -0.5315643305 0.0564869127 -0.0114868691
365297810.0 0.0556598993 -0.0115267658 0.5814644985 -0.5378237478 0.5817058235 -0.5378126085 0.0557892592 -0.0122576208
370297780.0 0.05579568 -0.0122208551 0.575637241 -0.544266105 0.5757659169 -0.5451341932 0.0561773816 -0.012948713
375297750.0 0.0550734308 -0.0126463514 0.5701890109 -0.5511032438 0.5692596824 -0.5512130402 0.0558598578 -0.0136134281
380297720.0 0.0551435309 -0.0138676756 0.5637550215 -0.5567282925 0.563560432 -0.5569723914 0.0553418126 -0.0143011001
385297690.0 0.0551294433 -0.0139303497 0.5575058425 -0.5628910978 0.5571617541 -0.5633230515 0.054900432 -0.0148032332
390297660.0 0.0542786282 -0.0147795692 0.5512754641 -0.569818179 0.5510603577 -0.5702542621 0.055247996 -0.015858942
395297630.0 0.054588652 -0.0157760881 0.5455533786 -0.5755573616 0.5448558048 -0.5757731119 0.0544987768 -0.0155936533
400297600.0 0.0536632195 -0.0160254505 0.5380083379 -0.5818858627 0.5386374499 -0.5824625294 0.0533045687 -0.0167061884
405297570.0 0.0540421473 -0.0165691386 0.5322919791 -0.5876707953 0.5321099851 -0.5883047666 0.0536124293 -0.0168578388
410297540.0 0.0537204343 -0.017380583 0.5250947897 -0.5935057528 0.5248951181 -0.5940271301 0.0532031282 -0.0178104097
415297510.0 0.0532349118 -0.0175012356 0.518576563 -0.5990100229 0.5191431865 -0.5998007343 0.0527702682 -0.0179413873
420297480.0 0.0529981316 -0.0190732759 0.512353094 -0.6057391011 0.5128837446 -0.6055771373 0.0529149579 -0.019169074
425297450.0 0.0531459645 -0.0196188459 0.5056099997 -0.6107348187 0.5060486375 -0.6109787279 0.052086938 -0.0190212189
430297420.0 0.0526635533 -0.0196776829 0.4984572738 -0.6166904923 0.4990395263 -0.6173103526 0.0515797607 -0.0202250198
435297390.0 0.0524652969 -0.0207546963 0.4921887105 -0.6215567566 0.4922067031 -0.6221965358 0.0511938681 -0.0198119124
440297360.0 0.0520161199 -0.0213919776 0.4854609491 -0.6274381239 0.4850502821 -0.6277320482 0.0513438061 -0.0213537251
445297330.0 0.052533938 -0.0221119842 0.4782022629 -0.6329804201 0.4784392958 -0.6331582654 0.0509089605 -0.0217204863
450297300.0 0.0517071098 -0.0226465865 0.4710578704 -0.6380103012 0.47168572 -0.6385467893 0.0502597801 -0.0221317146
455297270.0 0.0511888504 -0.0233287575 0.464366557 -0.643362367 0.4651451395 -0.6437747911 0.0504106376 -0.022703536
460297240.0 0.0504373568 -0.0238258014 0.4573186251 -0.6478167087 0.4569221925 -0.6486268283 0.049674805 -0.0224228648
465297210.0 0.0507601898 -0.0245884778 0.4504921701 -0.6534421293 0.4504761665 -0.6540096817 0.0487974481 -0.0235804431
470297180.0 0.0500032859 -0.0251699541 0.443091815 -0.6585356576 0.4432528437 -0.6589284275 0.0481913513 -0.0239801676
475297150.0 0.0495777637 -0.026485058 0.4356073884 -0.6634127703 0.4362958189 -0.6629626079 0.0483070572 -0.0247355155
480297120.0 0.0498719565 -0.0268911601 0.4283200302 -0.6680523193 0.4288367959 -0.6682728837 0.0475569811 -0.0245544476
485297090.0 0.0494496624 -0.0271732679 0.4210388237 -0.6727986018 0.4214495166 -0.6730048664 0.0469728082 -0.0254434129
490297060.0 0.0488077701 -0.0280604844 0.4137273812 -0.6774990317 0.4140071004 -0.6781736012 0.0467836984 -0.0254872625
495297030.0 0.0479535639 -0.0280896291 0.405890233 -0.6824837369 0.4063279054 -0.6820561225 0.0466995527 -0.0263588208
500297000.0 0.0480351893 -0.0292147245 0.398749614 -0.6867363174 0.3988590567 -0.6867571621 0.0453642568 -0.0269255065
505296970.0 0.046915708 -0.029619918 0.3906811392 -0.690267437 0.3913311719 -0.6911308035 0.0449257868 -0.0271604755
510296940.0 0.0469010028 -0.0302825151 0.3833546835 -0.6954920887 0.3836920764 -0.6953823627 0.0451331904 -0.0273225152
515296910.0 0.0461911173 -0.0304555992 0.3754996276 -0.698833277 0.3759576977 -0.6995129837 0.0440768947 -0.0279992104
520296880.0 0.0459739195 -0.0315058076 0.3676794184 -0.7039153512 0.3687350305 -0.7035103507 0.0440644782 -0.0281909172
525296850.0 0.0453754654 -0.0322711214 0.3608802689 -0.7078328862 0.3608310908 -0.7076399566 0.0438702514 -0.0288217424
530296820.0 0.0449550373 -0.032416422 0.3532435155 -0.7108154909 0.352366272 -0.7114832896 0.0429410141 -0.0299346179
535296790.0 0.0442232157 -0.0330608602 0.3445839449 -0.714505941 0.3453230536 -0.7150969181 0.0426372387 -0.0301642295
540296760.0 0.0439157264 -0.0338698607 0.3371779351 -0.7190898311 0.3366951115 -0.7192818977 0.0415375444 -0.0302190055
545296730.0 0.0434337079 -0.0334428093 0.3292381533 -0.7222487926 0.3292164776 -0.7230150764 0.0412744139 -0.0308589414
550296700.0 0.0427500159 -0.0345801306 0.3215163802 -0.7262594771 0.3221153948 -0.7264115466 0.0406971741 -0.0305625123
555296670.0 0.0426326015 -0.0351539323 0.3135654777 -0.7301937226 0.31345203 -0.7303788522 0.0401101019 -0.0313577848
560296640.0 0.0420115776 -0.0355819168 0.3058331963 -0.7331023003 0.3052850468 -0.733140847 0.0395855078 -0.0316556556
565296610.0 0.0408007018 -0.0363469782 0.2971799316 -0.7367491908 0.2971895961 -0.7367404576 0.0389693384 -0.0322540694
570296580.0 0.0411707642 -0.036718495 0.2893879114 -0.7397863838 0.289686263 -0.7398716906 0.0386346154 -0.0316007301
575296550.0 0.0401922166 -0.0362524658 0.2812948214 -0.7419584209 0.2818096005 -0.7425304403 0.0384771696 -0.0326132893
580296520.0 0.0395335522 -0.0372149103 0.2731931645 -0.7457249641 0.2725503194 -0.7462878849 0.0374714622 -0.0335297688
585296490.0 0.0394440745 -0.0377672058 0.265628405 -0.7488062186 0.2650045248 -0.7486033053 0.0368282715 -0.0338968573
590296460.0 0.0381685967 -0.038688576 0.2570395976 -0.7518851076 0.2561896338 -0.7518763504 0.0368426013 -0.0333689748
595296430.0 0.0376134503 -0.0383814263 0.2492401827 -0.7546725043 0.2486361009 -0.7546383356 0.0362756435 -0.0341215138
600296400.0 0.0372940168 -0.0385540687 0.2405815027 -0.7574601644 0.2405400567 -0.7569506943 0.0354568014 -0.0341154966
605296370.0 0.03668136 -0.0387955715 0.2323067642 -0.7597437056 0.2323718911 -0.7596525395 0.0352063334 -0.0350632464
610296340.0 0.0361110675 -0.0393825385 0.2243800581 -0.762567467 0.223832851 -0.7624179951 0.0345293011 -0.0342503026
615296310.0 0.0353210713 -0.0395527707 0.2153108703 -0.7641299761 0.2155935345 -0.7647609066 0.033984183 -0.0353908483
620296280.0 0.0346620281 -0.0401197897 0.2072973949 -0.7667745881 0.2069115024 -0.7670230412 0.0333548497 -0.0358682004
625296250.0 0.0343276019 -0.0404060057 0.1986583633 -0.769349026 0.1987427674 -0.7689502023 0.0329347623 -0.0355207128
630296220.0 0.0338580757 -0.0405745465 0.1901625415 -0.7718558672 0.190627838 -0.7715854992 0.0319738294 -0.0358268193
635296190.0 0.0331775834 -0.0409207624 0.1824684878 -0.7731766087 0.1814857857 -0.7727198918 0.0315949441 -0.0364257691
640296160.0 0.0322486201 -0.0411246727 0.1734970821 -0.774789265 0.1737176575 -0.7751034215 0.0315534611 -0.0367366276
645296130.0 0.0319514745 -0.0412818743 0.165176637 -0.7773300817 0.1647603549 -0.7771110768 0.029624188 -0.0375765909
650296100.0 0.030935112 -0.041095472 0.1568094163 -0.7780568768 0.156715095 -0.7786664787 0.0297932647 -0.0372736429
655296070.0 0.0305318791 -0.0419469945 0.148360228 -0.7802581197 0.1478398214 -0.780279171 0.0300244286 -0.0369553192
660296040.0 0.029193839 -0.0417073536 0.1392866282 -0.7817114527 0.1397691281 -0.7817720352 0.028840935 -0.0381320919
665296010.0 0.0294466562 -0.0423851824 0.1313976533 -0.7830960137 0.1318678655 -0.7832334292 0.0277421055 -0.0374282854
670295980.0 0.0294237558 -0.042147449 0.122957654 -0.784452316 0.1227374931 -0.7847449626 0.0272183035 -0.0381735496
675295950.0 0.0285133467 -0.0425733328 0.1141218284 -0.7858482809 0.1143360029 -0.7865162449 0.0270242174 -0.0379193677
680295920.0 0.0274445703 -0.0427106319 0.1054324635 -0.7874534976 0.1050497361 -0.7877328226 0.026750327 -0.0385650946
685295890.0 0.0267446936 -0.0428568685 0.0970177251 -0.7881287895 0.0968631515 -0.7882795558 0.0258829173 -0.0382904548
690295860.0 0.0265523456 -0.0430621142 0.0883856213 -0.7887780925 0.0878232678 -0.7889783125 0.0255541515 -0.0380758671
695295830.0 0.0264764457 -0.0434429122 0.0786554086 -0.7899947454 0.079157273 -0.7905076086 0.0243488251 -0.0383272293
700295800.0 0.0258521131 -0.0433440693 0.0709506891 -0.7910970959 0.0703299661 -0.7914549373 0.023752743 -0.0392406279
705295770.0 0.0246456395 -0.0434828482 0.0619870632 -0.791477131 0.0623368036 -0.792097513 0.0230903134 -0.039172559
710295740.0 0.0239885786 -0.0432040737 0.0537239256 -0.7919797284 0.0533599874 -0.7919272439 0.0217295111 -0.0392356661
715295710.0 0.0236353028 -0.043859804 0.0448535272 -0.7927755404 0.0453413928 -0.793163479 0.0219248285 -0.0401180671
720295680.0 0.0227519388 -0.0444121575 0.0361146884 -0.7932524653 0.036545731 -0.7938523851 0.0217229018 -0.0393478412
725295650.0 0.0225774749 -0.0442410819 0.0275908848 -0.7931799335 0.0275485404 -0.7939207783 0.0210353551 -0.0391259405
730295620.0 0.0212779786 -0.0446135248 0.0188370997 -0.7939786519 0.0189257306 -0.7937989004 0.0204437996 -0.0403873861
735295590.0 0.0213046011 -0.0444093782 0.0111784478 -0.7938450379 0.0108451522 -0.7942310236 0.0196204912 -0.0394776966
740295560.0 0.0203505445 -0.0442297138 0.0020081018 -0.7935623356 0.0015738221 -0.7938352775 0.0193738199 -0.0398662527
745295530.0 0.0200055253 -0.044786146 -0.0064600102 -0.7943602032 -0.006884224 -0.7940884943 0.018291996 -0.0398017826
750295500.0 0.0191459565 -0.0446914803 -0.0150840672 -0.793365321 -0.0149649327 -0.7934097899 0.0183099361 -0.0406179621
755295470.0 0.0189931165 -0.0445998917 -0.0242234695 -0.7934917346 -0.0235761734 -0.7939826783 0.0170028197 -0.0402247564
760295440.0 0.0180217483 -0.0446538833 -0.0328198478 -0.7934068569 -0.0330595185 -0.7934513657 0.0158828279 -0.040423049
765295410.0 0.0169318179 -0.0452462979 -0.0405187864 -0.792643329 -0.0407105405 -0.7927097761 0.0166538208 -0.0397570479
770295380.0 0.0170154789 -0.0449657848 -0.0496131778 -0.7921188401 -0.049809889 -0.7921632698 0.0157576987 -0.0397749496
775295350.0 0.016068665 -0.0450679287 -0.0583689454 -0.7912862499 -0.0582065137 -0.7916237302 0.0144811398 -0.0407787078
780295320.0 0.0157338142 -0.0449404693 -0.0668427597 -0.7909612431 -0.0669003307 -0.7909006098 0.0143608454 -0.0399856135
785295290.0 0.0145960156 -0.0444763798 -0.0755192614 -0.7894795178 -0.0757924083 -0.7904057846 0.0130367619 -0.0399391449
790295260.0 0.0139304538 -0.0444848956 -0.0840161283 -0.7891816548 -0.0842819979 -0.7899257526 0.0130714056 -0.0401867746
795295230.0 0.0134282516 -0.0448758738 -0.0924441355 -0.7878596972 -0.0923888357 -0.7882628705 0.0124275364 -0.0392975256
800295200.0 0.0130311502 -0.0445153171 -0.1016282966 -0.7877459821 -0.1019074488 -0.7878815634 0.0120504602 -0.0399452623
805295170.0 0.0116456562 -0.0446415584 -0.1100061854 -0.7856535974 -0.1100757275 -0.7862352307 0.0109643418 -0.0404826028
810295140.0 0.0113994001 -0.0448093944 -0.1179169481 -0.7852415372 -0.1178741462 -0.7854475127 0.0109545322 -0.0396439521
815295110.0 0.0108765989 -0.0445250747 -0.1273275371 -0.7830204932 -0.1273443077 -0.7835623126 0.0097341722 -0.0402592494
820295080.0 0.0102854602 -0.0448714404 -0.1354149758 -0.7819706167 -0.1351986168 -0.7824948481 0.0089489834 -0.0399823397
825295050.0 0.0095153 -0.0447068316 -0.1435266011 -0.780363309 -0.1434456072 -0.7802095072 0.0092157081 -0.0397143691
830295020.0 0.0088467202 -0.0441900673 -0.1524698843 -0.7782078232 -0.1528723923 -0.7791544218 0.0080632326 -0.039942822
