!Created with skrf (http://scikit-rf.org).
# Hz S RI R 50.0 
!freq ReS11 ImS11 ReS21 ImS21 ReS12 ImS12 ReS22 ImS22
300000.0 -0.3209505648 -0.0739909178 0.377986074 0.0377620955 0.3723287058 0.036317864 -0.3206637577 -0.08671809
5299970.0 -0.3270255639 0.0046073566 0.3784292188 0.0026038715 0.3784230364 0.0023156605 -0.3245175964 0.0050538049
10299940.0 -0.3245348832 0.0133015655 0.3795667734 0.0020187794 0.379727925 0.0023884232 -0.3221349424 0.016066243
15299910.0 -0.3217880225 0.0204495731 0.3819324673 0.0021145839 0.3820185112 0.0020268807 -0.3190008132 0.0237165055
20299880.0 -0.3188645636 0.0261386656 0.3846662838 0.0019600642 0.3849644406 0.0017702755 -0.315337718 0.030182013
25299850.0 -0.3159588033 0.0316434509 0.3881593245 0.0001436328 0.3881791203 1.3415e-05 -0.3112635714 0.0359112117
30299820.0 -0.3131798107 0.0355527378 0.3914782879 -0.0022123554 0.3919027409 -0.0023386094 -0.3074608003 0.0409149945
35299790.0 -0.3102752349 0.0398136614 0.3949076134 -0.0055091663 0.3950620926 -0.0051866866 -0.3041953027 0.0448634336
40299760.0 -0.3072191317 0.0437514431 0.3978591811 -0.0090197661 0.3983317155 -0.0086421883 -0.3006983671 0.0481122331
45299730.0 -0.3047237716 0.0464956934 0.4009530787 -0.0125581578 0.4010171982 -0.0127269977 -0.2974736737 0.0516404526
50299700.0 -0.3024436099 0.0494165254 0.4033687753 -0.0171847144 0.4034580609 -0.0169593621 -0.2942799417 0.0540783705
55299670.0 -0.3002704769 0.0519919532 0.4058360721 -0.0221757657 0.405639716 -0.0219517405 -0.291787737 0.0570686645
60299640.0 -0.2979093642 0.0548931211 0.4074869056 -0.0271159854 0.4076904272 -0.0267997688 -0.2890237008 0.059435689
65299610.0 -0.2962617522 0.0573934323 0.409176454 -0.0316938284 0.4093573127 -0.0319053491 -0.2872474149 0.0615943702
70299580.0 -0.2947627243 0.0601227797 0.410479234 -0.0368135213 0.4105400598 -0.0367388177 -0.2849094466 0.0637699765
75299550.0 -0.293070555 0.0626387424 0.4115218642 -0.0420831129 0.4113267198 -0.0421780246 -0.2826571035 0.0656879596
80299520.0 -0.2913461992 0.0645526337 0.4122687115 -0.0474441023 0.4127107566 -0.0475351551 -0.281419549 0.0680470062
85299490.0 -0.290211822 0.0668785834 0.413072956 -0.0523524423 0.4129453808 -0.0523452805 -0.2800559567 0.0700191122
90299460.0 -0.288714748 0.0693649694 0.4130416337 -0.0578668513 0.4135931057 -0.0577162724 -0.2783555484 0.0721917102
95299430.0 -0.2871745274 0.0715859669 0.4134400941 -0.0632564166 0.4133922868 -0.0632187234 -0.2763706252 0.0744631213
100299400.0 -0.286135792 0.0742754505 0.4131783916 -0.0682021754 0.4133770471 -0.0684035221 -0.2750812662 0.0763730647
105299370.0 -0.2852213232 0.0764484126 0.4131345339 -0.0736824945 0.4139327881 -0.0734242488 -0.2739144034 0.0784425634
110299340.0 -0.2839412591 0.0786726002 0.4133992762 -0.0783345171 0.4132041192 -0.0785039956 -0.2727850017 0.0806613467
115299310.0 -0.2826707746 0.0809282016 0.4129478334 -0.0835984336 0.4129204009 -0.0835673109 -0.2717777008 0.0826768013
120299280.0 -0.2819416714 0.0828091193 0.4125256332 -0.0886874288 0.4126149539 -0.0891385536 -0.2702934177 0.0848926402
125299250.0 -0.281112898 0.0854523006 0.4120389913 -0.0941126188 0.4123075202 -0.0935521626 -0.2699009394 0.0864257701
130299220.0 -0.2806504267 0.0882301088 0.4111237257 -0.098973733 0.4111105337 -0.0989378463 -0.2685032695 0.0886611148
135299190.0 -0.2794806983 0.0907323698 0.4106320288 -0.1041823631 0.4106442208 -0.1036860121 -0.2676480276 0.0914008714
140299160.0 -0.2785043033 0.0931260601 0.4097616107 -0.1091121176 0.4098728217 -0.1091269533 -0.2666670055 0.0936702117
145299130.0 -0.2773222392 0.095650775 0.4092550602 -0.1140875264 0.4086548779 -0.1137275947 -0.2654907867 0.0959251839
150299100.0 -0.2765298682 0.0981429878 0.4079592104 -0.1187883425 0.4080891986 -0.1186151994 -0.2649917659 0.098695592
155299070.0 -0.2757319299 0.1006229408 0.4070095381 -0.1242034349 0.4068608135 -0.1237234148 -0.2636320152 0.1009995317
160299040.0 -0.2747078228 0.1035406187 0.4054742904 -0.1287904116 0.4053855724 -0.1287140238 -0.2631753132 0.1033301256
165299010.0 -0.2737678035 0.1060758608 0.4040298317 -0.1338508265 0.4046485406 -0.1339821757 -0.2618423119 0.1058747307
170298980.0 -0.2732312153 0.1086197268 0.4030123452 -0.1380768569 0.4030029308 -0.1384349562 -0.2607379919 0.1079216197
175298950.0 -0.2718488333 0.1114046807 0.4016341109 -0.1430457067 0.4013563139 -0.1430699526 -0.2599929846 0.1108884768
180298920.0 -0.2711923739 0.1139621422 0.4002520303 -0.1480484195 0.3998442257 -0.1474917485 -0.2589129144 0.1133681917
185298890.0 -0.269678826 0.1165211247 0.3987016578 -0.1526070763 0.3985962438 -0.1522306746 -0.2578548952 0.1160375479
190298860.0 -0.2691231931 0.1191559587 0.3972118406 -0.1572861291 0.397306646 -0.1571358048 -0.2569081706 0.118304125
195298830.0 -0.2678713084 0.1219797354 0.3955548542 -0.1617779184 0.395655027 -0.1617687874 -0.2557002508 0.1206560882
200298800.0 -0.2667077965 0.1245199417 0.3936971458 -0.166811071 0.393287704 -0.1665005509 -0.2546991365 0.1229391305
205298770.0 -0.2655701495 0.1272967977 0.3919977853 -0.1712778808 0.3918109564 -0.171155062 -0.2532349046 0.125291157
210298740.0 -0.2647230118 0.1295046011 0.390089342 -0.1752811262 0.3900510478 -0.1752252952 -0.2521396102 0.1284920844
215298710.0 -0.2638166224 0.1324777853 0.3880566532 -0.1801848892 0.3879529554 -0.1802465966 -0.2510544358 0.1307730456
220298680.0 -0.2621335498 0.1348636325 0.3856077968 -0.1844097307 0.3861824117 -0.1845512208 -0.2502475909 0.1332291934
225298650.0 -0.2611535684 0.13774027 0.3839813287 -0.1890745024 0.3842199195 -0.1887640668 -0.2491803986 0.135762619
230298620.0 -0.2598422173 0.1406302602 0.3822153826 -0.193052786 0.3824936723 -0.1934002069 -0.2481708596 0.1381368605
235298590.0 -0.2585215342 0.1434446291 0.3800126047 -0.1977763505 0.3802304667 -0.1975245438 -0.2464054571 0.1410106435
240298560.0 -0.2570715405 0.1462148539 0.3783387349 -0.2022537843 0.3778118597 -0.2022452318 -0.2449440933 0.1438745922
245298530.0 -0.2558980512 0.1488452681 0.3758544987 -0.2065166958 0.3757183139 -0.2064866032 -0.2439195869 0.1453699024
250298500.0 -0.2541652952 0.1515953609 0.3728232725 -0.2110117376 0.3730695556 -0.2104114379 -0.242826088 0.1485501767
255298470.0 -0.2529848718 0.1537740303 0.3705735182 -0.2146513075 0.3707174437 -0.2150215949 -0.240803839 0.1507212451
260298440.0 -0.2517559417 0.1567966953 0.3685634157 -0.2190835131 0.3688333505 -0.2190773788 -0.2394430262 0.1536148678
265298410.0 -0.2499061024 0.1597250781 0.3659714822 -0.2233079986 0.3664992519 -0.2229755652 -0.2384347334 0.1562437077
270298380.0 -0.2487354239 0.1622907477 0.3638110783 -0.2275310654 0.3640281095 -0.2273087689 -0.2366738949 0.1587619201
275298350.0 -0.2469483955 0.1650968698 0.3610634529 -0.231689656 0.3615607495 -0.2315100314 -0.2349858035 0.1612635588
280298320.0 -0.2450719867 0.1677826362 0.3588099714 -0.2357688456 0.359072898 -0.2356241404 -0.2335474413 0.1637097451
285298290.0 -0.2436241491 0.1705578592 0.3562396487 -0.2398174452 0.3562494466 -0.239820143 -0.2319309433 0.1663745932
290298260.0 -0.2419175211 0.1731076816 0.3534475161 -0.2433871266 0.3534678411 -0.2440237081 -0.2303020041 0.1689020536
295298230.0 -0.2400530001 0.1757416911 0.3508635689 -0.2480887394 0.3510107926 -0.2476684025 -0.2280985631 0.1713162445
300298200.0 -0.2386078704 0.1784339037 0.3485502575 -0.2513575628 0.3483074236 -0.2517481092 -0.2268382611 0.1738522626
305298170.0 -0.2366289486 0.1806182756 0.3450778757 -0.2555348705 0.3453530724 -0.2554452695 -0.2249132694 0.1762147127
310298140.0 -0.2350816553 0.1835310944 0.3426604398 -0.2597253571 0.342654273 -0.2593751873 -0.2232371192 0.178685621
315298110.0 -0.2332310819 0.1859441444 0.339752571 -0.2633509973 0.3398007861 -0.2633203777 -0.2214702042 0.1809119516
320298080.0 -0.2315080012 0.1884536439 0.3362498484 -0.2674637365 0.3369631632 -0.2674294359 -0.2198232587 0.1835600363
325298050.0 -0.2295980972 0.1911249884 0.3335079369 -0.2719451183 0.3337033252 -0.2712598131 -0.2183757401 0.1858593249
330298020.0 -0.2279183504 0.1933018525 0.3305361191 -0.2752925113 0.3306955332 -0.2749326111 -0.2167611316 0.1881062263
335297990.0 -0.2257732841 0.1955612835 0.3273823056 -0.2784174994 0.3272149696 -0.2787749958 -0.2153778233 0.1908855745
340297960.0 -0.2242821652 0.1984450235 0.3240190642 -0.2821747692 0.3239678035 -0.2825357906 -0.2128082681 0.193236482
345297930.0 -0.2223700871 0.2012271038 0.3207620069 -0.2857881255 0.3208591224 -0.2858687245 -0.2112608661 0.1952617794
350297900.0 -0.220110686 0.2031683824 0.3170903125 -0.2890491135 0.3173478078 -0.2889822303 -0.2094775594 0.1981293071
355297870.0 -0.2183681623 0.2060597857 0.3142710594 -0.2929714307 0.3145690091 -0.2926655487 -0.207413528 0.2002212199
360297840.0 -0.2159191048 0.2083597013 0.3115125414 -0.2961030258 0.3118709423 -0.2960621544 -0.2056641194 0.2028565449
365297810.0 -0.2141148129 0.2110782301 0.3076783996 -0.2996725206 0.3080731439 -0.2998336788 -0.2033682808 0.2047860527
370297780.0 -0.2118767525 0.2132417904 0.3038762446 -0.3027221703 0.3046782736 -0.3028799728 -0.2011656129 0.2073406101
375297750.0 -0.2094150094 0.2155716265 0.3008506376 -0.3060881747 0.3014650493 -0.3064719509 -0.1992536591 0.2091620612
380297720.0 -0.2074453317 0.2178478508 0.2975144891 -0.3096869804 0.2978107141 -0.3091935343 -0.1976023323 0.2115395796
385297690.0 -0.2056683861 0.2203590143 0.2941246559 -0.3127427104 0.2940128467 -0.3126192299 -0.1948797352 0.2139929043
390297660.0 -0.2032414778 0.2226401033 0.2910719353 -0.3163494326 0.2906366711 -0.3158781066 -0.1928149772 0.2163630486
395297630.0 -0.2011197837 0.2251926236 0.2874187377 -0.3198033168 0.2874229126 -0.3192855146 -0.1902644698 0.2185523626
400297600.0 -0.1986524869 0.2274493801 0.2835911468 -0.3228867844 0.284008398 -0.3225562551 -0.1883264456 0.2206030011
405297570.0 -0.1966388015 0.2295026509 0.2800732903 -0.3255003279 0.2802966718 -0.3253718426 -0.1860887294 0.2229008529
410297540.0 -0.1935703241 0.2318030544 0.276305869 -0.3285905571 0.2768780911 -0.328761165 -0.1837997546 0.224970663
415297510.0 -0.191330257 0.2337823054 0.2728109825 -0.331887242 0.2732796626 -0.3314844426 -0.1818204997 0.2269245744
420297480.0 -0.189357276 0.2362312649 0.2694982508 -0.334593939 0.2694624314 -0.3348420639 -0.1791945359 0.2291129095
425297450.0 -0.186964708 0.2381203559 0.2658975615 -0.3369742948 0.2657854587 -0.3374851448 -0.1770114166 0.2313783953
430297420.0 -0.1843499547 0.2400751798 0.2615796099 -0.3398166436 0.2621776758 -0.3400525634 -0.1748003612 0.2331180451
435297390.0 -0.1819248333 0.2424051285 0.2576701609 -0.3429589906 0.2578879323 -0.3432896739 -0.1718509147 0.2354331881
440297360.0 -0.1794793662 0.2443832428 0.2543060647 -0.3455146887 0.2543244012 -0.3459020834 -0.1695203438 0.2373239897
445297330.0 -0.1767097095 0.2464217348 0.2507594709 -0.3484294828 0.250448253 -0.348395781 -0.1670069513 0.2387562857
450297300.0 -0.1743263165 0.248431445 0.2466914326 -0.3514033318 0.2468766893 -0.3515364564 -0.1647031212 0.2406658417
455297270.0 -0.1716210483 0.2504170256 0.2425641199 -0.3538228645 0.2427326963 -0.3541601254 -0.1620857002 0.2425930907
460297240.0 -0.1690999599 0.2523618765 0.2387916071 -0.3562825211 0.2389738055 -0.356526738 -0.1597690202 0.2446720997
465297210.0 -0.1664487414 0.2544164031 0.2351335132 -0.359027509 0.2351062074 -0.3596431593 -0.1570921159 0.2463538594
470297180.0 -0.1638907701 0.2561348451 0.2309349404 -0.3617103796 0.2307916754 -0.3619539049 -0.1544313468 0.2487690604
475297150.0 -0.161095909 0.2578919206 0.2266496841 -0.3636846537 0.2272157662 -0.3642638708 -0.1516606112 0.2499616592
480297120.0 -0.1582785968 0.2602421356 0.2226926085 -0.3669282867 0.2226308889 -0.366942904 -0.1488362043 0.2516737516
485297090.0 -0.1558718053 0.2620397687 0.2192575814 -0.3688327999 0.2191389694 -0.3686001803 -0.1465278194 0.2535499692
490297060.0 -0.1532690957 0.2638102037 0.2152279398 -0.371550101 0.2151403526 -0.3713607084 -0.1438757528 0.2553356359
495297030.0 -0.1502460994 0.2654254907 0.210622502 -0.3734286328 0.2112602033 -0.3736233436 -0.1416128606 0.2570361908
500297000.0 -0.1473194863 0.267262733 0.2067101823 -0.3757622834 0.2063861019 -0.3755401001 -0.138636844 0.2594203692
505296970.0 -0.1446392763 0.2688311065 0.2025745317 -0.3775011761 0.2024283982 -0.3782216562 -0.1361072079 0.2604460736
510296940.0 -0.1419195085 0.2704882696 0.1982836046 -0.3802807513 0.1985466887 -0.3803352481 -0.1333500768 0.2619247365
515296910.0 -0.1389207056 0.2719786925 0.1938224149 -0.3820004826 0.1940683342 -0.3822458203 -0.1304446405 0.2637190667
520296880.0 -0.1362401039 0.2739256489 0.1899320735 -0.3846305779 0.1899101905 -0.3839487559 -0.1280888158 0.2649580247
525296850.0 -0.1330772827 0.2749695655 0.1856020256 -0.3864122951 0.1858594717 -0.3864579551 -0.1250240179 0.2666636667
530296820.0 -0.1305677096 0.2768682867 0.1816198111 -0.3886011112 0.181581636 -0.3884625962 -0.1222600184 0.2679915014
535296790.0 -0.1276811599 0.2781982322 0.1773497661 -0.3900835626 0.1775583015 -0.389765557 -0.1197962185 0.2689793398
540296760.0 -0.1248717857 0.279815859 0.1729342493 -0.3921553481 0.1729550026 -0.3922725896 -0.1167739586 0.2706767198
545296730.0 -0.1219014762 0.2814096928 0.1681615015 -0.3937357183 0.1689295084 -0.3941197881 -0.1139638627 0.2719674304
550296700.0 -0.118896777 0.2828995736 0.1644096831 -0.3957944008 0.1643350857 -0.3959223267 -0.1110104713 0.2735527543
555296670.0 -0.1161707837 0.2839671541 0.16015226 -0.3972386625 0.1600375257 -0.3973339131 -0.108388112 0.2749170035
560296640.0 -0.1125150955 0.2856892669 0.1554446383 -0.3994525326 0.1559589195 -0.3991304574 -0.1050249204 0.2761950671
565296610.0 -0.1099385815 0.2872187836 0.1511958051 -0.4011000485 0.1513180108 -0.4007558764 -0.1023650619 0.277404588
570296580.0 -0.1071210573 0.2880891934 0.1469726628 -0.4026307169 0.1464195442 -0.4026366475 -0.0995371701 0.2789811787
575296550.0 -0.1042412229 0.2896028523 0.1428578142 -0.4039468837 0.1426474683 -0.4038313016 -0.0964993424 0.2800644851
580296520.0 -0.1007912041 0.2906041338 0.1381722531 -0.4057656863 0.1380976038 -0.4057457759 -0.0936349433 0.2812648323
585296490.0 -0.097850474 0.291609289 0.1336053753 -0.4062060706 0.1339420098 -0.4070531831 -0.0905198778 0.2823263777
590296460.0 -0.0946504145 0.2928830081 0.1293146017 -0.4077536158 0.1294618718 -0.4081231418 -0.0879425589 0.2834149887
595296430.0 -0.091862893 0.2938782443 0.1245740806 -0.4095706262 0.1246874754 -0.4095769081 -0.0846004003 0.2840825371
600296400.0 -0.0888691307 0.2953806045 0.1205577943 -0.4109264631 0.1201587552 -0.4105557045 -0.0818614125 0.2852202444
605296370.0 -0.085974936 0.2962620672 0.1158286761 -0.4123109025 0.1157285735 -0.4123145766 -0.0787192035 0.2866520654
610296340.0 -0.0826050681 0.2974930997 0.1107682799 -0.413598992 0.1114460572 -0.4134667493 -0.0754154957 0.2872737634
615296310.0 -0.0792694031 0.2980845942 0.1064186495 -0.4143582421 0.1066783679 -0.4149686015 -0.0722579868 0.2881407136
620296280.0 -0.076262115 0.2988705619 0.1020614145 -0.41554816 0.1023991974 -0.4153877656 -0.0697851831 0.2893191349
625296250.0 -0.073170764 0.2999384282 0.0982276084 -0.4165143596 0.0977319283 -0.4169484364 -0.0661418363 0.289959358
630296220.0 -0.0694204853 0.3009768975 0.0927463996 -0.4176647348 0.0929576321 -0.4176014386 -0.0632349316 0.2912973128
635296190.0 -0.0668870146 0.3018690479 0.088519551 -0.4182014508 0.0885442012 -0.4187055189 -0.0602323956 0.292034853
640296160.0 -0.0638684981 0.3028428668 0.0841502517 -0.4194717258 0.0842505601 -0.4195221371 -0.0571772179 0.2926382705
645296130.0 -0.0604941882 0.3038359327 0.0791355549 -0.4201353339 0.0795827773 -0.4203602134 -0.0539729902 0.2936025257
650296100.0 -0.0571667633 0.3040431393 0.0748757639 -0.4206839861 0.0751932011 -0.4210499258 -0.0509807867 0.2939034511
655296070.0 -0.0542362156 0.3049335887 0.0703046898 -0.4219369444 0.0705169319 -0.4220206957 -0.0478421304 0.2947418176
660296040.0 -0.0511677941 0.3055027191 0.0657667353 -0.422302814 0.0657146394 -0.4226744405 -0.0443131791 0.2955515534
665296010.0 -0.0474876683 0.305981314 0.0609209275 -0.4229950388 0.061118698 -0.4230529818 -0.0415196927 0.2963709388
670295980.0 -0.0452449049 0.3069111877 0.056935863 -0.4235161955 0.0567267382 -0.4238082227 -0.0387010498 0.296866883
675295950.0 -0.041684508 0.3076503636 0.0520238132 -0.4240513523 0.0521939483 -0.4241040905 -0.0358825246 0.2975524479
680295920.0 -0.0383857714 0.3082112123 0.0474408353 -0.4245208525 0.0471671455 -0.4249109312 -0.0326243461 0.2983644999
685295890.0 -0.0348549301 0.3092648337 0.0427614447 -0.425362934 0.0427605817 -0.4252745515 -0.0292691859 0.2983769449
690295860.0 -0.0314156578 0.30951919 0.0382449589 -0.4255932189 0.0384529227 -0.4258381341 -0.0264287179 0.2990835251
695295830.0 -0.0287172852 0.3096125308 0.0337509937 -0.4257716182 0.0333264274 -0.4259013182 -0.0227489213 0.2994470598
700295800.0 -0.0251994963 0.3100352663 0.0284665461 -0.4262754466 0.0289715763 -0.4261393351 -0.0202118632 0.3001794503
705295770.0 -0.0223563283 0.3108068489 0.0242785273 -0.4265815365 0.0245824244 -0.426591935 -0.0168186862 0.3006438267
710295740.0 -0.0186745296 0.3110632736 0.0196310737 -0.4269638042 0.0199221843 -0.4270836861 -0.0136730997 0.3004887869
715295710.0 -0.0159780833 0.3113151368 0.0153304546 -0.4271113037 0.0150363683 -0.426766624 -0.0104526855 0.3008733018
720295680.0 -0.0125155166 0.3115180012 0.0104508673 -0.4270337169 0.010758952 -0.4271505792 -0.0071218054 0.3012902601
725295650.0 -0.0090383741 0.3118500822 0.0058087719 -0.4269604012 0.0060136291 -0.4273578739 -0.0045052579 0.3016282992
730295620.0 -0.0055556987 0.3124217757 0.0010969937 -0.4265277708 0.0013053259 -0.4271755472 -0.0014331152 0.3014951912
735295590.0 -0.0026912594 0.3122812428 -0.0030378037 -0.4271694213 -0.0032173579 -0.4269505261 0.0012601585 0.3013169482
740295560.0 0.0005305214 0.3124762495 -0.0079463798 -0.426895652 -0.0079629726 -0.4269280445 0.0053668774 0.3018017926
745295530.0 0.0035979734 0.3127078806 -0.0125022422 -0.4263736543 -0.0128002955 -0.4268042094 0.0083972092 0.301613773
750295500.0 0.0073185871 0.3126661805 -0.017339309 -0.4262820587 -0.0171352155 -0.4265570408 0.0115884131 0.3016311202
755295470.0 0.0103090677 0.3126052855 -0.0213419153 -0.4263940117 -0.021552359 -0.4260651765 0.0150964489 0.3013438585
760295440.0 0.0135327403 0.3129237479 -0.0262662474 -0.4262225011 -0.0261459003 -0.4261990712 0.0182007918 0.3014233677
765295410.0 0.017198379 0.3126329564 -0.0313335403 -0.4256915449 -0.0312489122 -0.4258897609 0.0212896327 0.3018166487
770295380.0 0.0198490579 0.3124879624 -0.0355901865 -0.4250674447 -0.0357256376 -0.425357804 0.0241236123 0.3015452596
775295350.0 0.0230294302 0.3122458209 -0.0405633174 -0.424523625 -0.0396545133 -0.4246292003 0.0270094653 0.3015522847
780295320.0 0.0267288522 0.3122257294 -0.0448416406 -0.4236456951 -0.0442019399 -0.4242197872 0.030449507 0.3008879881
785295290.0 0.0294860514 0.3116019715 -0.0494857301 -0.4231336356 -0.0491247439 -0.4239636826 0.0341476432 0.301363642
790295260.0 0.0336166996 0.3121684708 -0.0539344945 -0.4230016105 -0.0533221164 -0.423067119 0.037021397 0.301180359
795295230.0 0.0363899202 0.3117000801 -0.0585394192 -0.4221477176 -0.0581594876 -0.4222688745 0.0405358907 0.3008220603
800295200.0 0.0394232456 0.3115361412 -0.0633134147 -0.4214651293 -0.0626344163 -0.4213701743 0.0437709909 0.3003781576
805295170.0 0.0430077492 0.3108577607 -0.067660275 -0.4207394486 -0.0675045053 -0.421426254 0.0467170075 0.3004694496
810295140.0 0.0461054443 0.3103033438 -0.0716847259 -0.4199480059 -0.0720007647 -0.4204238965 0.0499891981 0.3000662075
815295110.0 0.0492875993 0.310138173 -0.07672519 -0.4187225279 -0.0766476031 -0.4194563283 0.0529829618 0.2994007415
820295080.0 0.0523830446 0.310342435 -0.0811483716 -0.4183890807 -0.0805990813 -0.4184178828 0.0560071186 0.2992356321
825295050.0 0.0562889068 0.3093969405 -0.0854069474 -0.4171172705 -0.0851268298 -0.4176965006 0.0594664205 0.2986350688
