!Created with skrf (http://scikit-rf.org).
# Hz S RI R 50.0 
!freq ReS11 ImS11 ReS21 ImS21 ReS12 ImS12 ReS22 ImS22
300000.0 -0.7751311678 -0.1513888846 -0.0005609423 0.0001310876 -0.0003817034 0.0002418984 0.8598782147 -0.0022281721
5299970.0 -0.785440061 -0.0076930277 -0.0001100628 4.72643e-05 -4.81987e-05 0.0002238319 0.859326362 -0.0107042588
10299940.0 -0.7874875483 -0.0041148062 -5.87324e-05 5.75553e-05 3.12261e-05 0.0001176126 0.8588422684 -0.0188603814
15299910.0 -0.7933113146 -0.0019825611 -0.0001204513 2.99052e-05 -4.9679e-06 1.86228e-05 0.8571241479 -0.0273156885
20299880.0 -0.7996763683 0.0023791055 0.0001734895 4.61561e-05 -1.4401e-05 2.07802e-05 0.8569056684 -0.0360892268
25299850.0 -0.80666742 0.0079632511 -0.0001216804 -3.30693e-05 3.99476e-05 2.04976e-05 0.8555849338 -0.0438331512
30299820.0 -0.812257111 0.0164167649 -0.0002921046 5.5979e-05 0.0002268049 -2.55899e-05 0.8549886335 -0.0524077297
35299790.0 -0.8170692754 0.0250827592 2.34055e-05 -0.0002091757 9.00183e-05 -0.0001963305 0.853969832 -0.0605916483
40299760.0 -0.8210787787 0.0341285715 0.0002110512 2.31838e-05 8.56204e-05 0.0001281669 0.8538451933 -0.0690351624
45299730.0 -0.8250594565 0.0439996055 8.83791e-05 -5.3813e-06 7.72001e-05 0.0001222962 0.852492009 -0.0766092647
50299700.0 -0.8268995609 0.0538259944 -9.6594e-05 -5.02474e-05 -3.1082e-06 -6.70652e-05 0.8515762485 -0.0854765072
55299670.0 -0.8292981051 0.0645021552 -8.59473e-05 0.0001229808 4.80271e-05 0.0001608582 0.8507287503 -0.0933794931
60299640.0 -0.8301572341 0.0745164457 4.92901e-05 0.0001251607 8.11118e-05 8.09028e-05 0.8494741952 -0.1023605701
65299610.0 -0.8314858034 0.0848448374 7.73785e-05 5.10149e-05 6.0595e-06 4.32436e-05 0.8487561925 -0.1106224912
70299580.0 -0.831427447 0.094941039 5.24891e-05 6.94225e-05 8.26091e-05 3.6182e-06 0.8471050822 -0.1185865224
75299550.0 -0.8316657689 0.104384642 -7.75892e-05 -0.0001996166 -0.0001711495 0.0001779341 0.8471302266 -0.1260477463
80299520.0 -0.8315819769 0.1147744049 -3.99807e-05 9.62402e-05 3.14286e-05 4.56013e-05 0.8445784514 -0.1345260894
85299490.0 -0.8304247063 0.1239058827 -5.87602e-05 -4.44486e-05 4.14221e-05 -7.35613e-05 0.8435740853 -0.1432438053
90299460.0 -0.8298130155 0.1339480506 -0.0001104745 0.0002009148 -0.00011664 4.85133e-05 0.8416068176 -0.1518327081
95299430.0 -0.828669303 0.1432873268 0.0001446722 -6.10017e-05 -0.0001069485 -0.0002155556 0.8402594716 -0.1590204936
100299400.0 -0.8278942898 0.1531300312 6.9601e-06 -0.0001133051 -0.0001827233 6.42297e-05 0.838346592 -0.1673877195
105299370.0 -0.8263507514 0.1621065886 1.59909e-05 0.0001393659 3.16537e-05 6.56801e-05 0.8369383349 -0.1758468869
110299340.0 -0.8255528624 0.1713220348 0.0001219095 0.0001103653 0.000113684 7.39407e-05 0.8350494309 -0.1835854676
115299310.0 -0.8235109554 0.1807163274 -5.13023e-05 -0.0001449921 3.75904e-05 0.0001076144 0.832732236 -0.1925770263
120299280.0 -0.822224727 0.1896953936 -8.32219e-05 6.13202e-05 -4.18296e-05 -0.0001521902 0.8310078708 -0.1999605645
125299250.0 -0.8203929067 0.1986273328 0.0001235668 -2.19595e-05 0.0001061407 -3.48262e-05 0.8289866124 -0.2082223819
130299220.0 -0.8184446798 0.2075240494 -0.000283311 -3.16282e-05 2.50215e-05 5.9613e-05 0.8270650884 -0.2167224083
135299190.0 -0.8165222324 0.2169555181 -0.0001164811 6.1826e-06 -5.02433e-05 9.44535e-05 0.8248819311 -0.2243291649
140299160.0 -0.8145616714 0.225834427 -0.0001722773 -1.02508e-05 -6.69571e-05 7.0492e-05 0.8225816799 -0.2325963308
145299130.0 -0.8122581188 0.2344836393 -0.0001342915 1.8342e-05 -0.0001741237 0.0001956365 0.8200146158 -0.2408719806
150299100.0 -0.8102808405 0.2432552514 6.89215e-05 -8.04216e-05 -3.58548e-05 -0.0001257887 0.8176573008 -0.2487789138
155299070.0 -0.8080216177 0.2528223547 -4.73902e-05 1.30713e-05 6.20568e-05 6.74977e-05 0.8152876645 -0.2562271577
160299040.0 -0.8051668586 0.261512832 -9.098e-06 -3.59763e-05 6.4596e-06 -0.0001705677 0.8128286348 -0.2645139918
165299010.0 -0.8020665221 0.2691538523 -0.000162123 5.42835e-05 -5.16024e-05 6.51132e-05 0.8105375954 -0.2724264255
170298980.0 -0.7999673989 0.2777842292 3.52681e-05 0.000139929 0.0001857735 8.10117e-05 0.80769555 -0.2803377605
175298950.0 -0.7969859506 0.2872519629 5.71112e-05 -4.69165e-05 -0.0001449046 -5.38813e-05 0.8048676718 -0.2884584879
180298920.0 -0.7939632524 0.2948887232 -1.01222e-05 -0.0002016653 5.18541e-05 -3.99835e-05 0.8017845902 -0.2961078221
185298890.0 -0.7906626765 0.3041708461 2.11239e-05 4.46445e-05 -2.96697e-05 8.09203e-05 0.7991526473 -0.3046398043
190298860.0 -0.7879351731 0.312289244 -4.26875e-05 9.33082e-05 5.40923e-05 8.15763e-05 0.7960792199 -0.3112171339
195298830.0 -0.7839106316 0.3210796708 0.0001280771 -0.0001836383 -0.0001399596 9.076e-06 0.7928497289 -0.3192549151
200298800.0 -0.7810968123 0.3292958076 5.11356e-05 -0.0001067056 0.0001888505 -8.54078e-05 0.7902248493 -0.3273221801
205298770.0 -0.7775698542 0.3374378887 -0.0002261517 4.9571e-06 8.61149e-05 -6.73644e-05 0.7867463021 -0.3349917925
210298740.0 -0.7734946235 0.3458123822 -3.3184e-05 0.0001721534 -6.38926e-05 7.49048e-05 0.7834183011 -0.3426034283
215298710.0 -0.7707083421 0.3548130839 -4.0786e-06 -8.53809e-05 -3.35787e-05 -6.83973e-05 0.7791997175 -0.3498690908
220298680.0 -0.7670648293 0.3623765045 -9.33557e-05 0.0001374935 7.82123e-05 -3.1651e-06 0.776880222 -0.3576843343
225298650.0 -0.7627699814 0.3709094342 5.56142e-05 0.0002027014 0.0001169567 0.0001183927 0.7728445041 -0.3647797328
230298620.0 -0.7587118829 0.3789618594 8.99662e-05 -7.65544e-05 6.01645e-05 -7.26523e-05 0.7694880604 -0.372678347
235298590.0 -0.7548095234 0.3873221076 6.74805e-05 -0.000175575 0.0002289025 3.83466e-05 0.7662110453 -0.3798792277
240298560.0 -0.7506732995 0.3949629184 -0.0003126851 4.8426e-05 0.0002803825 0.0001347466 0.7619017115 -0.3877019572
245298530.0 -0.7467830478 0.4032517609 0.0003105544 -7.62016e-05 0.0001928844 -0.0001030031 0.7575219676 -0.3948772227
250298500.0 -0.7425921136 0.4108354566 8.04576e-05 0.0001413002 0.000204947 -9.93608e-05 0.754545129 -0.4024228028
255298470.0 -0.737822974 0.418764916 0.000101134 -7.4187e-05 8.17082e-05 0.000125287 0.7511531053 -0.4095124102
260298440.0 -0.7338242172 0.4261555172 -1.62883e-05 -7.11481e-05 9.44466e-05 -0.0001912703 0.746811634 -0.4169228765
265298410.0 -0.7290469347 0.4342189106 -5.81027e-05 2.75374e-05 0.0001272419 -4.87651e-05 0.7430233338 -0.4243375262
270298380.0 -0.7245120557 0.4418589374 -4.86999e-05 -2.7417e-06 3.49029e-05 3.72006e-05 0.7392373141 -0.430525494
275298350.0 -0.7193075 0.4495971531 -5.4971e-05 0.0001322848 0.0001554105 7.73588e-05 0.7348126163 -0.4376461518
280298320.0 -0.7155192506 0.4569782734 6.48356e-05 1.1814e-05 -5.79408e-05 -5.17501e-05 0.7309330834 -0.4454958378
285298290.0 -0.7104145847 0.4650960331 -4.79662e-05 -0.0001956688 -1.17502e-05 -8.5742e-05 0.7262112424 -0.4522319852
290298260.0 -0.705613891 0.4720183337 8.39208e-05 -0.0001040012 -9.7781e-06 -0.000179275 0.722280488 -0.4591868313
295298230.0 -0.7008838869 0.4794877991 0.0001043071 0.0001456946 -0.0001328043 -3.9475e-06 0.7179550822 -0.4658778239
300298200.0 -0.6949329977 0.4864065177 -3.68527e-05 7.52077e-05 6.19685e-05 7.24081e-05 0.7134766928 -0.4734119873
305298170.0 -0.6899662831 0.4941571404 6.59481e-05 -7.54273e-05 1.49053e-05 4.0564e-06 0.7100258973 -0.4798327434
310298140.0 -0.6842726454 0.5011259523 0.0001900541 -4.17403e-05 7.88399e-05 1.52782e-05 0.7051894872 -0.4872309007
315298110.0 -0.6794889706 0.508458903 0.0001463973 1.65293e-05 -4.80571e-05 -3.74702e-05 0.7004636669 -0.494550755
320298080.0 -0.6744238665 0.5156541487 -6.3774e-06 3.91973e-05 1.73914e-05 0.0002180703 0.6964033048 -0.5018335115
325298050.0 -0.6683219229 0.5223280304 -6.59768e-05 -7.82953e-05 -9.96826e-05 -9.92592e-05 0.6906878196 -0.5097537831
330298020.0 -0.6626108995 0.5288589372 8.92723e-05 0.0001513422 7.37117e-05 -0.0001716791 0.6856845398 -0.516774463
335297990.0 -0.6572087695 0.5356980228 -0.000245436 -0.0002049823 7.66976e-05 4.95161e-05 0.6800186411 -0.5233732656
340297960.0 -0.6521635409 0.5426156504 -0.0001335789 -0.0001585701 4.89595e-05 -0.0001101687 0.6739602273 -0.5296963565
345297930.0 -0.6464784644 0.5493487341 0.0001398984 1.13768e-05 -0.0001981626 5.60171e-05 0.6684841033 -0.5358202298
350297900.0 -0.6402819326 0.5560823928 0.0001548785 8.83802e-05 -7.16594e-05 -1.3324e-05 0.6631600603 -0.5412084022
355297870.0 -0.6343221752 0.5628459558 0.0001825719 0.0001276357 -5.21865e-05 -7.40644e-05 0.6571606831 -0.5483675066
360297840.0 -0.6282191043 0.5694902558 0.0001605736 -0.0002905938 -0.0001329067 5.0942e-06 0.6519176406 -0.5538187688
365297810.0 -0.6223657565 0.5759143399 5.63543e-05 -4.1705e-05 -1.3126e-05 -7.0118e-05 0.6465495408 -0.5603937644
370297780.0 -0.6165680798 0.5814599109 4.9176e-05 -0.0001955988 -8.5751e-06 -3.39499e-05 0.6407506143 -0.5658553996
375297750.0 -0.6103387431 0.5885543385 3.00768e-05 -0.0001439257 1.35511e-05 -2.50376e-05 0.6350068762 -0.5720638589
380297720.0 -0.6040926731 0.594655038 -0.000122598 -2.33904e-05 -4.06274e-05 -0.0001753971 0.6299295206 -0.5778111055
385297690.0 -0.5978187369 0.6013081529 0.0001917615 0.0001263594 -9.21704e-05 -8.12093e-05 0.6240041417 -0.5833859375
390297660.0 -0.5909764675 0.6067157498 9.35058e-05 -4.21872e-05 -5.51702e-05 -0.0002241104 0.6185576908 -0.5901922279
395297630.0 -0.5851024538 0.6133218279 -6.42242e-05 4.27023e-05 -0.0001049278 7.58547e-05 0.6125931035 -0.5954185268
400297600.0 -0.5790835544 0.6191290152 -1.31917e-05 0.0002210965 -7.86944e-05 2.73645e-05 0.6064734633 -0.6013766725
405297570.0 -0.5725264446 0.6253547247 -0.0002320103 -1.71809e-05 -8.57197e-05 -1.93643e-05 0.6012291674 -0.6070579281
410297540.0 -0.5655684325 0.6313628913 0.0001219177 -0.0002668317 -1.50347e-05 0.0001349068 0.5950577948 -0.612664923
415297510.0 -0.5592813126 0.6364449155 -9.11577e-05 -8.4044e-05 1.47399e-05 7.18604e-05 0.5884412347 -0.6180255009
420297480.0 -0.5516486384 0.6418507971 3.72324e-05 5.93499e-05 -6.52057e-05 -1.49797e-05 0.5823512755 -0.6240795092
425297450.0 -0.5450185888 0.6476835521 -4.38565e-05 -4.3548e-06 -2.64013e-05 -8.20006e-05 0.5768190459 -0.6293971777
430297420.0 -0.5391260559 0.653845892 0.0001954067 -0.0002053837 -0.0001248342 4.29754e-05 0.5705791235 -0.6351704677
435297390.0 -0.5319373925 0.6593298892 3.68361e-05 0.0002298626 3.98916e-05 -0.0001584818 0.5641222362 -0.6402040731
440297360.0 -0.5250964493 0.6645945316 -3.05723e-05 4.99129e-05 -0.0001257553 9.45557e-05 0.5578121936 -0.6459573286
445297330.0 -0.5188559807 0.6699181586 0.0001201973 -0.0001737908 0.0001099903 -8.16352e-05 0.5518000143 -0.6511106062
450297300.0 -0.5109799407 0.6747989511 7.895e-05 3.66556e-05 -6.2153e-05 -6.169e-05 0.5445976962 -0.6567929549
455297270.0 -0.5045276541 0.680065657 3.18534e-05 -7.88541e-05 -5.45785e-05 -0.0001532465 0.5385515486 -0.6618590788
460297240.0 -0.4972955383 0.6855081689 0.000118613 -0.0001350936 -4.77056e-05 -3.80519e-05 0.5323071641 -0.6666512326
465297210.0 -0.4899971234 0.690618812 -8.8431e-06 -6.39168e-05 4.8042e-05 0.000268553 0.5252088594 -0.6720105553
470297180.0 -0.4826586122 0.6947360738 5.02382e-05 -0.0001188859 2.35548e-05 -0.0002586405 0.5185247618 -0.677263386
475297150.0 -0.4755865933 0.7007604934 1.37996e-05 0.0001468987 0.0002465086 1.4136e-06 0.512089499 -0.6822995236
480297120.0 -0.4688093256 0.7045100531 0.000105916 0.0001078071 -0.0001484688 7.3685e-06 0.50536042 -0.6868450576
485297090.0 -0.4611100232 0.7095135458 -8.65108e-05 3.46726e-05 4.2832e-06 -0.0001382551 0.4979191428 -0.6918291021
490297060.0 -0.4543765448 0.7144182868 3.4921e-05 -9.24568e-05 -7.6681e-05 -0.0001688044 0.4916866174 -0.6967630153
495297030.0 -0.4472055383 0.7193084634 0.0001786241 2.15654e-05 0.0001576437 -4.45963e-05 0.4848476302 -0.7013493378
500297000.0 -0.4390885837 0.7234118892 5.38784e-05 0.0001901122 -7.25563e-05 1.96166e-05 0.4775617746 -0.7063657722
505296970.0 -0.4312065486 0.7274974555 -8.79508e-05 0.0003505456 -3.83806e-05 0.0002032687 0.4707670454 -0.7109505307
510296940.0 -0.4236319912 0.7320976453 -9.40018e-05 0.0001063088 -3.72576e-05 0.0001591313 0.4633035132 -0.7146029415
515296910.0 -0.4168371293 0.7364248409 -8.71355e-05 2.74748e-05 0.000114244 -4.45399e-05 0.4553831336 -0.7193812813
520296880.0 -0.4094603722 0.7410652396 0.0001216015 9.7572e-05 -2.25585e-05 5.7468e-06 0.4490004472 -0.7244050897
525296850.0 -0.4016508734 0.7451047426 0.000223239 0.0001065932 -6.87719e-05 -6.6171e-06 0.4420980766 -0.7283483313
530296820.0 -0.394433797 0.7480821883 -5.41927e-05 -9.52824e-05 3.68547e-05 -0.000231251 0.4340707349 -0.7326141674
535296790.0 -0.3861910933 0.7524017354 -0.0002356534 -4.6462e-05 -1.88595e-05 -7.22618e-05 0.4272990386 -0.7378456114
540296760.0 -0.3778668848 0.7560279379 2.79226e-05 -2.21878e-05 2.76035e-05 0.0001559489 0.4196803487 -0.7407727067
545296730.0 -0.3711630809 0.759918728 -9.05368e-05 0.0001259587 4.496e-05 -0.0001133381 0.4121033203 -0.7454019031
550296700.0 -0.3630129478 0.7640925015 0.0001728729 -0.0001087025 4.48648e-05 0.0001994284 0.4050188828 -0.7492324096
555296670.0 -0.3545291291 0.7672416339 -5.45911e-05 0.0001555354 1.58769e-05 -0.0001701067 0.3971238345 -0.7525877344
560296640.0 -0.3467610907 0.7710374547 6.19223e-05 1.36036e-05 -2.57639e-05 9.76205e-05 0.3895390448 -0.7572079225
565296610.0 -0.3394355043 0.7740931885 5.03997e-05 2.94072e-05 2.50305e-05 -2.93792e-05 0.3822743087 -0.7604233223
570296580.0 -0.3316865262 0.7773775011 -9.61378e-05 0.0001582676 9.51384e-05 -4.9334e-06 0.3740768804 -0.7640852588
575296550.0 -0.3235247145 0.7806420885 -0.0001067885 0.0001266665 0.0001195256 4.84259e-05 0.366301704 -0.7677618693
580296520.0 -0.315529796 0.7843496344 -3.11805e-05 0.0003589175 -5.4512e-06 8.2635e-05 0.3586175267 -0.7711026174
585296490.0 -0.3078427527 0.7868964582 0.0002201261 -4.33568e-05 -4.70837e-05 -8.42359e-05 0.3514747831 -0.7755620268
590296460.0 -0.2999146343 0.7901131006 -7.07217e-05 0.0003852864 4.09651e-05 7.38167e-05 0.3436449824 -0.777629508
595296430.0 -0.2913568259 0.7932049347 -2.57485e-05 2.196e-05 -9.26855e-05 -0.0001222105 0.3350305519 -0.7810185744
600296400.0 -0.2831840364 0.7959727489 3.15984e-05 7.96035e-05 -0.0001099687 4.89934e-05 0.3283603951 -0.7840451883
605296370.0 -0.2757436533 0.7990442207 0.0001793334 5.36434e-05 6.05929e-05 0.0001413787 0.3197049315 -0.7877804598
610296340.0 -0.2672064502 0.8012235765 0.0001642469 1.70561e-05 -9.06942e-05 7.6226e-06 0.3117416636 -0.7900674445
615296310.0 -0.2588103361 0.804309263 0.0001818164 2.83299e-05 4.40843e-05 2.93571e-05 0.3046152019 -0.7940493967
620296280.0 -0.2506821483 0.8061329952 1.26544e-05 0.000238517 0.0001797275 -5.71489e-05 0.2965031193 -0.796648166
625296250.0 -0.2424991439 0.8091978369 -0.0001577517 -1.3516e-06 -6.5478e-05 -4.73117e-05 0.2876711238 -0.7987506254
630296220.0 -0.2345920265 0.8117236832 -0.0002223846 0.0003814777 -0.0001326852 -7.4379e-05 0.2797521868 -0.8010320769
635296190.0 -0.2265879621 0.8142387748 6.21232e-05 0.0001393079 0.0001509347 0.0001044471 0.2721044817 -0.8040185838
640296160.0 -0.2178780112 0.8154988 -2.0457e-06 -5.37378e-05 0.0003278603 -0.0001983599 0.2640897011 -0.8063156316
645296130.0 -0.2097071172 0.8181957317 0.0002006302 0.0003168813 8.8198e-05 0.0002424252 0.2559708392 -0.8091454703
650296100.0 -0.2016852523 0.820479086 -0.0001564938 0.0001617594 -2.38881e-05 -0.0001179828 0.2475500926 -0.8115817276
655296070.0 -0.1931657849 0.8218941715 -5.19976e-05 0.0001703723 5.39719e-05 -1.3581e-06 0.2394862038 -0.813571004
660296040.0 -0.1849253478 0.8243384344 -3.60365e-05 -0.0001918629 7.64357e-05 2.138e-06 0.2312291361 -0.8156248831
665296010.0 -0.1767267962 0.8258671151 -9.9325e-06 -2.01449e-05 -5.05803e-05 -0.0001500468 0.2237310522 -0.8179465855
670295980.0 -0.1674425348 0.8278776368 2.5756e-06 6.1946e-06 -0.0001380928 9.17699e-05 0.2154907225 -0.8198005221
675295950.0 -0.1598570572 0.8288388884 -0.0001139103 2.34191e-05 -1.92587e-05 -1.4697e-06 0.2074703245 -0.8218243575
680295920.0 -0.1515320568 0.8307003529 2.32026e-05 3.80829e-05 -5.34585e-05 5.03586e-05 0.1985036532 -0.8239063736
685295890.0 -0.1431002182 0.8316694714 -2.2344e-06 -2.79969e-05 7.35487e-05 1.33559e-05 0.1906773139 -0.8258184063
690295860.0 -0.1344207545 0.83386112 -7.5994e-05 8.59625e-05 -1.2926e-06 -0.0001887068 0.1823563625 -0.8269858651
695295830.0 -0.1256124865 0.8342374602 4.97908e-05 -0.000123348 -0.0001286072 -4.44725e-05 0.1733657552 -0.8286465228
700295800.0 -0.1180141282 0.8358356499 -0.0001682439 -1.06545e-05 0.000121636 -0.0001963775 0.1651857275 -0.8305957636
705295770.0 -0.108665969 0.8376160438 0.00018159 6.72e-05 -0.0001618678 -4.8063e-05 0.1568565249 -0.831249962
710295740.0 -0.1012426505 0.8382113027 0.0002062022 -0.0001377346 -5.28586e-05 4.7594e-05 0.1482088835 -0.8326754069
715295710.0 -0.0927579372 0.8390147184 1.45228e-05 6.36683e-05 6.36059e-05 0.0001796522 0.1407476633 -0.8345979503
720295680.0 -0.0842445089 0.8396076652 2.9342e-05 -1.31876e-05 -1.27243e-05 -4.92535e-05 0.1328201448 -0.8356898611
725295650.0 -0.0751199552 0.8410937541 -0.0001703426 -5.767e-07 -1.88616e-05 1.737e-06 0.124442059 -0.8364762257
730295620.0 -0.0669739558 0.8413676218 -2.86731e-05 -4.28173e-05 0.0001931357 -9.11873e-05 0.1156130635 -0.8376620394
735295590.0 -0.0577168064 0.8417290589 4.87058e-05 -3.56847e-05 0.0002692722 0.0002529059 0.1074870151 -0.8386663587
740295560.0 -0.049952114 0.8429037295 -0.000109127 -3.72392e-05 0.0001190044 -0.0002349108 0.0988938255 -0.8404436303
745295530.0 -0.0420626095 0.8426617375 -9.28823e-05 -0.0001123221 -1.40471e-05 -4.70661e-05 0.0900909233 -0.840286271
750295500.0 -0.0334855004 0.8431638743 2.24214e-05 -0.0001833589 -0.0002322146 -0.0001035332 0.0820845922 -0.8411640595
755295470.0 -0.02426157 0.8431336463 5.49529e-05 -0.0001169509 -0.0002495705 6.55119e-05 0.0735104281 -0.8411178914
760295440.0 -0.015335512 0.8434600135 -4.01629e-05 2.75342e-05 -2.1754e-05 0.0001683297 0.064541307 -0.8427544768
765295410.0 -0.007843477 0.8436885968 -4.17125e-05 -3.41031e-05 5.18404e-05 -0.000109226 0.0571395945 -0.8421579898
770295380.0 0.0007344463 0.8445296843 -1.56673e-05 0.0001151913 -1.64453e-05 -0.0001579594 0.0489503453 -0.8434288933
775295350.0 0.0091803256 0.8439586888 5.9563e-05 2.15442e-05 -1.65299e-05 1.76619e-05 0.0402706834 -0.8445009159
780295320.0 0.0182924707 0.8432245493 -4.4912e-05 -2.77627e-05 7.3504e-06 6.98284e-05 0.0312755182 -0.8432554279
785295290.0 0.0263409238 0.8437466289 -3.84499e-05 -4.54394e-05 -0.0001799379 0.0001277173 0.0227664614 -0.8436090436
790295260.0 0.03458615 0.8430001245 -0.0001605809 9.3114e-06 -2.81331e-05 7.27347e-05 0.0153133524 -0.8439320521
795295230.0 0.042825717 0.8434444047 3.52596e-05 9.3489e-06 -1.5072e-06 -3.07476e-05 0.0062854044 -0.8441567177
800295200.0 0.0518365243 0.842866636 -4.88591e-05 0.0001059312 -0.0001268135 0.0001116443 -0.0024472663 -0.844295451
805295170.0 0.0599386182 0.8421826354 0.0001130902 -5.0588e-06 -5.39922e-05 -3.88937e-05 -0.010527502 -0.843638362
810295140.0 0.0682617705 0.8410079497 2.17247e-05 2.19492e-05 9.35723e-05 4.56261e-05 -0.0192406911 -0.8431439845
815295110.0 0.077080082 0.8403422061 7.71397e-05 -4.5692e-05 -0.0002204497 -1.90517e-05 -0.0278480092 -0.8431985953
820295080.0 0.0855840982 0.8391622213 -2.54682e-05 -0.0001133565 -3.43867e-05 -0.0001120572 -0.0366746364 -0.8426219212
825295050.0 0.0940173951 0.8387234463 1.59931e-05 -2.71111e-05 -0.0001428652 9.431e-07 -0.0442000058 -0.8420106784
830295020.0 0.1020686812 0.8377614677 0.0002550723 -4.69437e-05 -4.99918e-05 -5.88348e-05 -0.0531035024 -0.8415853404
835294990.0 0.1105309795 0.8366781017 8.55688e-05 -0.0001406757 -0.0001311747 -0.0001126468 -0.0610217967 -0.8407999259
840294960.0 0.1186262452 0.8352075459 0.0001142147 4.6643e-06 8.03136e-05 -0.0001145997 -0.0703986491 -0.8397510426
845294930.0 0.1274240494 0.8347532254 1.12542e-05 4.8736e-06 -2.90636e-05 2.35495e-05 -0.0776634231 -0.8385119514
850294900.0 0.1352433936 0.8329742988 -3.2907e-05 -8.61621e-05 0.0001844823 3.24335e-05 -0.0861274959 -0.8377511623
