!Created with skrf (http://scikit-rf.org).
# Hz S RI R 50.0 
!freq ReS11 ImS11 ReS21 ImS21 ReS12 ImS12 ReS22 ImS22
300000.0 -0.2326892412 -0.1321382217 0.4648166572 0.0855443199 0.4672166483 0.0865550947 -0.2342302775 -0.1302411068
5299970.0 -0.241928403 0.0051435898 0.4748641574 0.0059524636 0.4753644823 0.0059601708 -0.2442493498 0.0045998795
10299940.0 -0.2387209387 0.0187606522 0.4772396087 0.0071947013 0.4772365591 0.0071257671 -0.2407468167 0.0175064671
15299910.0 -0.2336537718 0.02878808 0.4803884486 0.007867823 0.4806995121 0.0079981118 -0.2369018293 0.026355005
20299880.0 -0.2284346777 0.0368972896 0.4853535927 0.0079139658 0.4856778207 0.0082423218 -0.231883935 0.0338294891
25299850.0 -0.2223410791 0.0437671952 0.4905703819 0.0075401015 0.4910289225 0.0072397902 -0.2269567256 0.0401951535
30299820.0 -0.2173475443 0.048819222 0.4961703494 0.0048700831 0.496166386 0.0048621374 -0.221595822 0.0448930886
35299790.0 -0.2113079881 0.0528146201 0.5009699711 0.0020161666 0.5013541978 0.0018351952 -0.216874429 0.0491016773
40299760.0 -0.206173098 0.0562937965 0.5066356629 -0.0022093393 0.5067608152 -0.002107348 -0.2118409601 0.0519578495
45299730.0 -0.2009915573 0.0588248008 0.5111040675 -0.0068545955 0.5114170694 -0.0068229544 -0.2069907669 0.0548307498
50299700.0 -0.1959362461 0.0607177514 0.5152328757 -0.0124422019 0.5152273914 -0.0124849077 -0.2023496775 0.057269738
55299670.0 -0.1920926158 0.0626031757 0.5192073018 -0.0178632473 0.5189552739 -0.0183767675 -0.1992034689 0.058451836
60299640.0 -0.1879011385 0.0641263597 0.5222098956 -0.0243840359 0.5225732809 -0.0247414017 -0.195082756 0.059797453
65299610.0 -0.1843087896 0.0650829706 0.5257287789 -0.0303171322 0.5252514739 -0.0309966742 -0.1917767905 0.0609998828
70299580.0 -0.1808914159 0.0659205032 0.5274034655 -0.037150568 0.527881794 -0.0375736072 -0.1890594785 0.0618086512
75299550.0 -0.1778645744 0.0669152291 0.5291237472 -0.0442967971 0.5296300714 -0.04437917 -0.1864003362 0.0628267289
80299520.0 -0.1754032163 0.0677062961 0.5317920034 -0.0514575532 0.5319350368 -0.051459186 -0.1836734401 0.0635075051
85299490.0 -0.1724705696 0.0680796405 0.5324021013 -0.0580662112 0.5327986619 -0.0583062895 -0.1813240183 0.0638946944
90299460.0 -0.1701304431 0.0690992584 0.5334630763 -0.0648753742 0.5334545762 -0.0652677787 -0.1791722718 0.0647357342
95299430.0 -0.168193105 0.0698093077 0.5343950369 -0.0719878137 0.53470573 -0.0725028446 -0.1773722162 0.0656494385
100299400.0 -0.1659980225 0.0702196894 0.5348813342 -0.0784861601 0.5352294952 -0.0790316626 -0.1759051898 0.0665362313
105299370.0 -0.1642321414 0.0707804881 0.5351642311 -0.0858461536 0.5355912866 -0.085862921 -0.1738861289 0.0667872309
110299340.0 -0.1620863738 0.0715022134 0.5355014154 -0.0921019219 0.5356723617 -0.0924226409 -0.1727274339 0.0674557044
115299310.0 -0.1609301523 0.0723261803 0.5353291374 -0.0991912161 0.5354454964 -0.0990618763 -0.1714040481 0.0684444212
120299280.0 -0.1594774322 0.0734928084 0.5354411386 -0.1064247006 0.5352822364 -0.1065034715 -0.1699841189 0.0686362518
125299250.0 -0.1581657186 0.0739650648 0.5347239058 -0.1128536985 0.5347732953 -0.1128834545 -0.1686485024 0.0695662429
130299220.0 -0.1567948531 0.0747153006 0.5342367304 -0.1197516671 0.5345849825 -0.1199104643 -0.1677915457 0.0704189225
135299190.0 -0.1556746019 0.0758863731 0.5339873353 -0.1264256028 0.5340478828 -0.1263937531 -0.1666539474 0.0709352239
140299160.0 -0.1544972271 0.0768622532 0.5334200526 -0.1328384081 0.5328342766 -0.1326542504 -0.1660828719 0.0718274304
145299130.0 -0.1534249818 0.0778879729 0.5319267003 -0.1393941023 0.5319715483 -0.1394218816 -0.1651631765 0.0727923796
150299100.0 -0.1521367409 0.0790307368 0.5303283249 -0.1459148884 0.5307891629 -0.1460656153 -0.1640238259 0.0740221118
155299070.0 -0.1508499421 0.0802543678 0.5292845304 -0.152530571 0.5297043159 -0.1525336917 -0.1632607113 0.0748955187
160299040.0 -0.1501774303 0.0813039541 0.528169594 -0.1589875337 0.5280888786 -0.1592165287 -0.1624890419 0.0761371659
165299010.0 -0.1489234844 0.0820700009 0.5267169445 -0.1649582152 0.5263308212 -0.1655580453 -0.1611798932 0.0767240587
170298980.0 -0.1478133302 0.083350307 0.5246041727 -0.1719215297 0.5251228376 -0.1715817275 -0.1611023037 0.0778939098
175298950.0 -0.1468533444 0.0848052515 0.5237082347 -0.1776835411 0.5242649242 -0.1786306229 -0.1602094945 0.079420274
180298920.0 -0.1459904545 0.0861712481 0.5218154441 -0.1847444192 0.5215895188 -0.1845284548 -0.1591961419 0.0800524576
185298890.0 -0.1450093473 0.0871535754 0.5201910707 -0.1902280352 0.5199590649 -0.1903529109 -0.1585865874 0.0812526255
190298860.0 -0.1436491251 0.0886521636 0.5173531005 -0.1966011764 0.5183407883 -0.1968066601 -0.1577015027 0.08257296
195298830.0 -0.1428983087 0.0899184001 0.5161581724 -0.2026228737 0.5163044455 -0.2029585417 -0.1571024605 0.0834472933
200298800.0 -0.142081684 0.0910565427 0.5141568923 -0.2093663133 0.5140778402 -0.209220521 -0.1564336351 0.084572167
205298770.0 -0.1412694286 0.0924196761 0.5118822447 -0.2147394338 0.5118062664 -0.2146993244 -0.1556151422 0.0856887198
210298740.0 -0.1402460501 0.0940606955 0.5094206357 -0.2210345553 0.5092530159 -0.2207178231 -0.1553769588 0.0869343759
215298710.0 -0.1392425503 0.0954864843 0.5071521236 -0.2266740843 0.5072936838 -0.2272831061 -0.1542617554 0.088570646
220298680.0 -0.138172103 0.0969213893 0.5048788139 -0.2327413556 0.5044748225 -0.2330308441 -0.153273533 0.0895393199
225298650.0 -0.1371165842 0.0984938561 0.5019639216 -0.2387833805 0.5025739501 -0.2381663334 -0.1526520269 0.0910006668
230298620.0 -0.1362279294 0.0997716221 0.4997787334 -0.2443642735 0.499974773 -0.244312797 -0.1520907431 0.091960467
235298590.0 -0.135517402 0.1013775948 0.4974543102 -0.25060696 0.4970755791 -0.2503514926 -0.1508269521 0.0933947979
240298560.0 -0.1341927107 0.1027092101 0.494531226 -0.2555479417 0.494283538 -0.25593855 -0.1502434203 0.0943909925
245298530.0 -0.1331036074 0.1038151326 0.4915361008 -0.2613622121 0.4917996523 -0.2614298973 -0.1497087712 0.0958307023
250298500.0 -0.1323453947 0.1053692913 0.4890243936 -0.2668440958 0.489288104 -0.267085633 -0.1488142742 0.0977177736
255298470.0 -0.1310753534 0.1072480299 0.4862723786 -0.2720636182 0.4866069826 -0.2729423285 -0.1479231737 0.0989026542
260298440.0 -0.1302008468 0.1083213598 0.4831634496 -0.2773346918 0.4832465368 -0.2779200139 -0.1473956165 0.0999403506
265298410.0 -0.1292977636 0.1098435911 0.4798198357 -0.2840063904 0.4798536507 -0.2838722837 -0.1458643454 0.1010213573
270298380.0 -0.1282742685 0.1111964061 0.4768294781 -0.2892361781 0.4769869731 -0.2892477161 -0.1449290342 0.102794456
275298350.0 -0.1269608323 0.1130288375 0.4730029806 -0.2941864705 0.4737704589 -0.2945301892 -0.1445132722 0.1041012643
280298320.0 -0.1263417461 0.1142668261 0.4710152961 -0.2995876786 0.4710088416 -0.299833307 -0.1432894351 0.1053133973
285298290.0 -0.1247954866 0.1159295699 0.4674199402 -0.3050463008 0.4681041742 -0.3047850585 -0.1427617604 0.1069796768
290298260.0 -0.1238013008 0.1174008729 0.4643467505 -0.3105863515 0.4643287686 -0.3102100465 -0.1416631625 0.107994606
295298230.0 -0.1226515806 0.1184546954 0.4612086982 -0.3160224196 0.4610773194 -0.316007878 -0.1406234062 0.1093660574
300298200.0 -0.1213819723 0.1202613328 0.4575122113 -0.3207733571 0.4579462733 -0.3210362492 -0.1398711822 0.1108437281
305298170.0 -0.1199638098 0.1210664796 0.4539886659 -0.3259264444 0.4542505663 -0.3263240853 -0.1385986261 0.1117417745
310298140.0 -0.1185879595 0.1223258715 0.4507230173 -0.3312817168 0.4508432495 -0.3312725231 -0.1374793817 0.1131409514
315298110.0 -0.1176320258 0.123690557 0.4469764652 -0.3369632366 0.4469701742 -0.3368334508 -0.1364463945 0.1142870417
320298080.0 -0.1164864923 0.1250225769 0.4427261153 -0.3421325148 0.4436576456 -0.3417380176 -0.1358545986 0.1152212791
325298050.0 -0.1155105513 0.126044308 0.4391607501 -0.3465008071 0.4396423916 -0.3468395521 -0.1345051862 0.1166142581
330298020.0 -0.1148710029 0.1275257468 0.4353534948 -0.3518339806 0.4355343416 -0.3518258812 -0.1339581831 0.117951371
335297990.0 -0.1135545413 0.1289995929 0.4313501728 -0.3563617114 0.4318168423 -0.3564366422 -0.1330521979 0.1191493445
340297960.0 -0.1123205155 0.1301764825 0.4269860223 -0.3616285607 0.4272100871 -0.3615863383 -0.1318310659 0.1211969524
345297930.0 -0.1109722369 0.1315864461 0.4227189876 -0.366383394 0.4232639461 -0.3662827964 -0.1309613143 0.1220448891
350297900.0 -0.1098802236 0.1328788824 0.4192008931 -0.3704359524 0.4194140129 -0.3706872267 -0.1298183208 0.1230327702
355297870.0 -0.1085378116 0.1341761992 0.4150350427 -0.3751052251 0.4152481437 -0.374869439 -0.1286565907 0.1248022204
360297840.0 -0.1072921455 0.1355043761 0.4106661407 -0.3797030763 0.4112846473 -0.3802436188 -0.1280304946 0.126358937
365297810.0 -0.106265784 0.1370393513 0.4068994056 -0.3838097529 0.4067987835 -0.3843306987 -0.1270815386 0.1274449296
370297780.0 -0.1047970981 0.1383813668 0.4021909545 -0.3886617322 0.402564108 -0.3885216976 -0.1256969548 0.1289009523
375297750.0 -0.1034511796 0.1397453291 0.3982817253 -0.3933369682 0.3984335071 -0.3935029445 -0.1241696537 0.1302289846
380297720.0 -0.102382694 0.1410923837 0.3939675408 -0.3977621112 0.3939940152 -0.3978090477 -0.1231753971 0.1317874089
385297690.0 -0.1010023046 0.1421014122 0.3893521418 -0.4017960169 0.3894678135 -0.4020803493 -0.1217958078 0.1330878988
390297660.0 -0.0993905573 0.1432837296 0.3851687923 -0.4055799458 0.3852637364 -0.4060088289 -0.1204148229 0.1341176935
395297630.0 -0.0973575358 0.1446539097 0.3805130569 -0.4098638016 0.3804045853 -0.410032106 -0.1192429922 0.1352922762
400297600.0 -0.0962676148 0.1455378551 0.3761648578 -0.4143519705 0.376495272 -0.4146453678 -0.1181736022 0.1368786703
405297570.0 -0.0948854493 0.146626535 0.3715935398 -0.4181661688 0.3717930073 -0.4186810668 -0.1164728977 0.1383996446
410297540.0 -0.093203435 0.1480284725 0.3670115587 -0.4227674032 0.3672802622 -0.4225277462 -0.1156900616 0.1395180909
415297510.0 -0.0918222609 0.1492461272 0.3623419909 -0.426728193 0.3627043933 -0.426842875 -0.1141637963 0.1408029246
420297480.0 -0.0902005576 0.1501092704 0.3574803593 -0.4303213528 0.3579923908 -0.4305656293 -0.1125606167 0.1423010137
425297450.0 -0.0881873664 0.1511338485 0.3529072162 -0.4345140973 0.3529175615 -0.4343351562 -0.1112016964 0.1428732319
430297420.0 -0.0870012975 0.1526823772 0.3485434917 -0.4382271161 0.3485778467 -0.4379613844 -0.1096935359 0.1445477289
435297390.0 -0.0852702309 0.153391521 0.3433883513 -0.4420978586 0.343472595 -0.4419816506 -0.1089222342 0.1460442327
440297360.0 -0.0834466785 0.1546107437 0.3383870675 -0.4460352147 0.3385969883 -0.4459210156 -0.1074855523 0.1470780731
445297330.0 -0.0816749573 0.1551710302 0.3335716462 -0.4487033397 0.3337052145 -0.449586989 -0.1058844288 0.1484154001
450297300.0 -0.0800466413 0.1561152662 0.3287325129 -0.4526693062 0.32901678 -0.4529039431 -0.1042631473 0.1494913962
455297270.0 -0.0789250678 0.1572504655 0.3242150326 -0.4560514274 0.3239604625 -0.4569869556 -0.102833113 0.150900678
460297240.0 -0.0765179471 0.1583372127 0.319190907 -0.4606366996 0.3190947158 -0.4605970443 -0.1013109014 0.1514334124
465297210.0 -0.0750169857 0.159195787 0.3137095071 -0.4635023846 0.3133071407 -0.4637666806 -0.0996111694 0.1531395047
470297180.0 -0.0733357273 0.160003782 0.3084590008 -0.4663487757 0.3089887156 -0.4667526983 -0.0985376822 0.1537157431
475297150.0 -0.0718191158 0.1611464122 0.3037915469 -0.4699652373 0.3037922177 -0.4703931906 -0.09695859 0.1553767359
480297120.0 -0.0692747585 0.162325976 0.2984856756 -0.473767825 0.2985480344 -0.4730687514 -0.0955142605 0.1561458391
485297090.0 -0.0676265184 0.1626261499 0.292902553 -0.4767038742 0.2933333314 -0.4770246337 -0.0942114808 0.1575675182
490297060.0 -0.06530522 0.1636287564 0.2874980416 -0.4798366707 0.2881078727 -0.4799393644 -0.092417908 0.1581208319
495297030.0 -0.0640247047 0.1641249807 0.2829804805 -0.4829678177 0.282861792 -0.4832140194 -0.090649863 0.1591108028
500297000.0 -0.0622185242 0.1652843072 0.2775417644 -0.4857126085 0.2776793844 -0.486323326 -0.089368401 0.1603304008
505296970.0 -0.0598782823 0.1663099872 0.2722370793 -0.4892686928 0.2722509779 -0.4887956312 -0.0877490308 0.1610722263
510296940.0 -0.0581697071 0.166903671 0.266817428 -0.492451856 0.2669745368 -0.4927796724 -0.0854610152 0.1625060651
515296910.0 -0.0563857503 0.1678558792 0.2615758407 -0.4949442909 0.2609204459 -0.494783022 -0.0842967606 0.1629405097
520296880.0 -0.0543520843 0.168555414 0.2557184419 -0.4976161639 0.2557197607 -0.4972211002 -0.0824482905 0.1643696082
525296850.0 -0.0523062556 0.1690674371 0.2505939805 -0.5003530782 0.2503331131 -0.500095451 -0.0809096235 0.1649537758
530296820.0 -0.0507623603 0.1698501416 0.2446115836 -0.5030595126 0.2450220944 -0.503032935 -0.0788960475 0.1657561617
535296790.0 -0.0478489792 0.1705506204 0.2395848471 -0.5053965088 0.2395702712 -0.5057383623 -0.0770101392 0.1668521131
540296760.0 -0.0461275414 0.1715570709 0.2338073057 -0.508252674 0.2337744581 -0.5082942085 -0.0757578163 0.167726236
545296730.0 -0.0446994774 0.1722281973 0.2285576574 -0.5104950711 0.2285807591 -0.5105841562 -0.0742233339 0.1686848993
550296700.0 -0.0421026208 0.172827187 0.2229403206 -0.513174054 0.223351696 -0.5132945115 -0.072564494 0.1695457647
555296670.0 -0.0403851719 0.1734713348 0.217519296 -0.5155281528 0.2173418222 -0.5154193387 -0.0711476849 0.1695204591
560296640.0 -0.03790616 0.1737918547 0.211288614 -0.517408614 0.2121423582 -0.5176544652 -0.0691562506 0.1710551218
565296610.0 -0.0367575194 0.1747532953 0.2064722911 -0.519704766 0.206243132 -0.5194811188 -0.0670861919 0.1719412028
570296580.0 -0.0344192121 0.1754421748 0.2002400794 -0.5219579598 0.2002655448 -0.5225055029 -0.0659373854 0.1726613908
575296550.0 -0.0321923534 0.1755605003 0.1950369134 -0.5244221845 0.1945173256 -0.524183298 -0.0638165722 0.1734288911
580296520.0 -0.0301569301 0.1764308477 0.1887571233 -0.5264159823 0.1889298352 -0.5266954209 -0.0626023765 0.1741425305
585296490.0 -0.0278430422 0.1769956501 0.1835043458 -0.5283223736 0.1828762269 -0.5280814602 -0.0603068668 0.1748167206
590296460.0 -0.025396711 0.1776094882 0.1778529882 -0.5303021884 0.1776876751 -0.5305355831 -0.0589437255 0.175545891
595296430.0 -0.0237269296 0.1778650293 0.1716184348 -0.5320600397 0.1712220034 -0.532036737 -0.0570447735 0.1758909283
600296400.0 -0.0214686833 0.1784562867 0.1655457927 -0.5334626382 0.1657328664 -0.5337671847 -0.0553608036 0.1765040785
605296370.0 -0.0200520152 0.178965367 0.1606777446 -0.5355490825 0.1596660249 -0.5357114064 -0.0535052626 0.1777453944
610296340.0 -0.0173302129 0.1794680036 0.1545437708 -0.536860172 0.1548783685 -0.537069816 -0.052266901 0.1780580796
615296310.0 -0.0152232242 0.1797278492 0.1486484954 -0.538967914 0.148322838 -0.5391480071 -0.049892802 0.1789196443
620296280.0 -0.0133998379 0.1806655086 0.142831438 -0.5403289029 0.142645183 -0.5403643428 -0.0484172901 0.1797035015
625296250.0 -0.0114892736 0.1807799175 0.1365716277 -0.5419004878 0.1367586065 -0.5422219486 -0.0469984295 0.1800872818
630296220.0 -0.0094063106 0.1812658891 0.1306188825 -0.5431148653 0.1306938854 -0.5430810665 -0.0450046014 0.180913239
635296190.0 -0.0076975696 0.1816990256 0.1250729256 -0.5442928441 0.1251337176 -0.5444927209 -0.0432360449 0.1814159658
640296160.0 -0.0053495951 0.1819825313 0.1192205393 -0.5462874997 0.1188206546 -0.5461428768 -0.0415797454 0.1817422025
645296130.0 -0.00307864 0.182538905 0.1129868919 -0.5470893651 0.1131718264 -0.5471098082 -0.0398727473 0.181974674
650296100.0 -0.0011694588 0.1825102368 0.1073319755 -0.5482102696 0.1068294107 -0.5485973225 -0.0371839358 0.1827041221
655296070.0 0.000785682 0.1828077376 0.1010602551 -0.5497488941 0.1012776855 -0.5492288928 -0.0365889547 0.1832717728
660296040.0 0.0030825816 0.1832669307 0.0953011989 -0.5504476942 0.0953882795 -0.5505967184 -0.0343608214 0.1833882673
665296010.0 0.0051046084 0.1835408464 0.089126194 -0.5509069072 0.0892522204 -0.5512596863 -0.0323590224 0.1843135526
670295980.0 0.0068718895 0.1834830523 0.0834938606 -0.5523479836 0.0833838589 -0.5518528473 -0.0309105674 0.1843710607
675295950.0 0.0091341259 0.1835797025 0.0773394484 -0.5526535853 0.0777312886 -0.5534000075 -0.0292022878 0.1853063281
680295920.0 0.010856835 0.1841413439 0.0714140098 -0.5535049756 0.0714142681 -0.5536215904 -0.02682266 0.1850931088
685295890.0 0.0132973639 0.1842717852 0.0651998332 -0.554500386 0.0653607728 -0.5544792796 -0.0252778196 0.1861213866
690295860.0 0.0149798934 0.1844847635 0.0597827326 -0.5548878955 0.0589377218 -0.5552953857 -0.023683836 0.1864642229
695295830.0 0.0173369765 0.1844677731 0.0542030024 -0.5559159479 0.0532974902 -0.5557806822 -0.021828646 0.1871053881
700295800.0 0.0194754529 0.1847699864 0.0478364008 -0.5562443433 0.0477197451 -0.5562905892 -0.0200204442 0.1872083044
705295770.0 0.021106654 0.1848796675 0.0416415708 -0.5571285825 0.0415771929 -0.5567628253 -0.0182229824 0.1875867138
710295740.0 0.0230688276 0.1845042142 0.0357416174 -0.5570274297 0.0356195091 -0.5575049728 -0.0163915009 0.1880495388
715295710.0 0.0252629147 0.1847626631 0.0295863308 -0.5575695746 0.0294154619 -0.5577308548 -0.0146590801 0.188118397
720295680.0 0.0276353661 0.184746114 0.0233669924 -0.5573349816 0.0234332547 -0.5577684554 -0.0127294768 0.188250745
725295650.0 0.029105127 0.1848257874 0.0180110563 -0.5578550637 0.017812991 -0.5581621181 -0.0112100287 0.1891405992
730295620.0 0.0306175531 0.18478471 0.0114959606 -0.5577968055 0.0117844437 -0.5577446914 -0.0091798094 0.1895940817
735295590.0 0.0331339535 0.1845008275 0.0057884132 -0.5583495317 0.0053740263 -0.5582970996 -0.0075290132 0.1892957807
740295560.0 0.0350599157 0.1842130047 -0.0003452365 -0.5581084645 -0.0002242954 -0.5586638252 -0.0058178248 0.1899070803
745295530.0 0.0367643583 0.1842597633 -0.0059800335 -0.5573729961 -0.0054707281 -0.5580158676 -0.004123632 0.1898031871
750295500.0 0.0386284515 0.1842459444 -0.0118878563 -0.5577536139 -0.012748857 -0.5578418893 -0.0019932343 0.1901404603
755295470.0 0.0406371303 0.1838243648 -0.0179302929 -0.5576813019 -0.0179315546 -0.5581101849 -0.0002394319 0.1905897672
760295440.0 0.0424097511 0.1843085969 -0.0246328992 -0.5575195721 -0.0240691766 -0.557208782 0.0020702712 0.1897311393
765295410.0 0.0448074388 0.1835484353 -0.0302176853 -0.5569476462 -0.0300116259 -0.5570666569 0.0035640384 0.1905388092
770295380.0 0.0463127843 0.1837684903 -0.0355558097 -0.5564372265 -0.0362355304 -0.5570485986 0.0051406639 0.1909355811
775295350.0 0.048403734 0.1831864695 -0.0419055498 -0.556186588 -0.0419657703 -0.5561617262 0.0074108052 0.1908624639
780295320.0 0.050457056 0.1829423681 -0.0478402418 -0.5554709375 -0.0480729938 -0.5557386425 0.0097243148 0.1907651539
785295290.0 0.0521848465 0.1825230162 -0.0537948635 -0.555084769 -0.0538341648 -0.5551476674 0.0106037823 0.1913905303
790295260.0 0.0541820695 0.1818472051 -0.0599013201 -0.5549096784 -0.0597106055 -0.555091586 0.0127076104 0.1914354708
795295230.0 0.0558248475 0.1814968164 -0.0658739769 -0.5544094581 -0.0660471804 -0.5544048377 0.014609352 0.1906779839
800295200.0 0.0575368066 0.1813068396 -0.0709458509 -0.5527014897 -0.0717490734 -0.5536077335 0.0163647724 0.1909369454
805295170.0 0.0595481738 0.180926489 -0.0773694715 -0.5524716148 -0.0777550167 -0.5527085234 0.0187254845 0.1910530433
810295140.0 0.061916524 0.180708552 -0.0834408415 -0.5519071172 -0.0837169429 -0.5514661129 0.0206225398 0.1909552
815295110.0 0.0633677104 0.1801926495 -0.0894607018 -0.5502891623 -0.0893879625 -0.5508596496 0.0219782566 0.1911001898
820295080.0 0.0656534345 0.1794443535 -0.0951712366 -0.5491604111 -0.0951213012 -0.5499474474 0.0232285522 0.1916801979
825295050.0 0.0669337277 0.1787667365 -0.1013877463 -0.548620451 -0.101333107 -0.5483869519 0.025834655 0.1913723423
830295020.0 0.0691072496 0.1783107492 -0.1069310472 -0.5474763701 -0.1072054855 -0.5473478856 0.0275026533 0.1906357266
