!Created with skrf (http://scikit-rf.org).
# Hz S RI R 50.0 
!freq ReS11 ImS11 ReS21 ImS21 ReS12 ImS12 ReS22 ImS22
300000.0 -0.3185809798 -0.0976861763 0.3717245028 0.0510630066 0.3744905027 0.0539140279 -0.3176175909 -0.1101605519
5299970.0 -0.3238280506 0.0052492348 0.3785728819 0.0027888532 0.3783652004 0.0031032093 -0.3261188566 0.0028767148
10299940.0 -0.320985211 0.0155963295 0.3796666703 0.0023510627 0.3798118098 0.0023266129 -0.3242212104 0.0129332779
15299910.0 -0.3182308124 0.0236859355 0.3819083133 0.0020157405 0.3819617689 0.002307187 -0.3213215457 0.0197435924
20299880.0 -0.3143779567 0.0305715111 0.3847547619 0.0013675755 0.3851764469 0.0016982022 -0.3185410467 0.0258643699
25299850.0 -0.3106790296 0.035804523 0.3885261737 -0.0006494717 0.3884474433 -3.16464e-05 -0.3157596479 0.0312592604
30299820.0 -0.3064236947 0.0403303589 0.3921436209 -0.0020861694 0.3914417071 -0.0021510892 -0.3127781113 0.0356259596
35299790.0 -0.3030891018 0.0447068811 0.395082591 -0.0053637003 0.3953875503 -0.0052106483 -0.3096594135 0.0396197058
40299760.0 -0.2995371038 0.0480334457 0.3984669177 -0.0086930315 0.3979471626 -0.0088597396 -0.3070583205 0.0430547748
45299730.0 -0.2964409072 0.0514794895 0.4011537073 -0.0130230771 0.4013953435 -0.0127158436 -0.3047969751 0.0460702557
50299700.0 -0.2929880257 0.0541605143 0.4035454377 -0.0175148115 0.4035789312 -0.0175285444 -0.3020160575 0.0490281785
55299670.0 -0.2908972667 0.0568986682 0.4055074489 -0.0220595659 0.4060160553 -0.0217564573 -0.3000783449 0.0518363527
60299640.0 -0.2879573645 0.0589600283 0.4072469392 -0.0271682127 0.4075404782 -0.0267250239 -0.2981782774 0.05450829
65299610.0 -0.286017491 0.0617647526 0.409199874 -0.0318303896 0.4093603597 -0.0316623499 -0.2962049201 0.057241769
70299580.0 -0.2838659655 0.0633447878 0.4105072859 -0.0368225616 0.410560921 -0.0369498566 -0.2945381557 0.0595762873
75299550.0 -0.2815530807 0.0657541085 0.4113853227 -0.0424371266 0.4114884163 -0.0423372688 -0.2928955785 0.0622132997
80299520.0 -0.2803669777 0.0681336176 0.4128542102 -0.0476444547 0.412651129 -0.0474775507 -0.2914437609 0.0639067323
85299490.0 -0.2785208188 0.0698067474 0.4130616985 -0.052837192 0.4130737124 -0.0527758976 -0.2903504768 0.0661556329
90299460.0 -0.2772241904 0.0723820679 0.4136553098 -0.0577111173 0.4136606584 -0.0578160439 -0.2886928729 0.0687532676
95299430.0 -0.2755466854 0.0740785193 0.4138175659 -0.0634974432 0.4141037211 -0.0630813357 -0.2875580106 0.0712317753
100299400.0 -0.2743903886 0.0764459701 0.413534601 -0.0683349347 0.4136558925 -0.0683180642 -0.2865517021 0.0731567211
105299370.0 -0.2730715211 0.0783850617 0.4136588078 -0.0734400515 0.4137210167 -0.0734678543 -0.2850473747 0.0757815022
110299340.0 -0.27189531 0.0802524536 0.4133413458 -0.078301545 0.4135446819 -0.0789890562 -0.2842948562 0.0783376524
115299310.0 -0.2706075467 0.0825118373 0.412975297 -0.0837376791 0.4134375757 -0.0836878618 -0.282916045 0.0800120982
120299280.0 -0.2699453943 0.0844486763 0.41300405 -0.0891099616 0.4128311025 -0.0888226722 -0.2819300624 0.0825002139
125299250.0 -0.268860005 0.0866495791 0.4122642907 -0.0939438594 0.4123822582 -0.0944064458 -0.2810548931 0.0849758259
130299220.0 -0.2679256593 0.0889637649 0.4116590521 -0.0985072383 0.4115358286 -0.0990482296 -0.2806135523 0.0874341192
135299190.0 -0.2664893573 0.0909997406 0.4105873338 -0.1037595214 0.4106445563 -0.1038054592 -0.279921808 0.0896767942
140299160.0 -0.2657643204 0.0935450895 0.4102427281 -0.1090390707 0.4102262443 -0.10902023 -0.2784927522 0.0923159437
145299130.0 -0.2646518406 0.0959143718 0.409067171 -0.1141254242 0.4088635169 -0.1140558483 -0.2778766072 0.0945235185
150299100.0 -0.2639803579 0.0980722208 0.408139054 -0.1190441019 0.4081435281 -0.1191695939 -0.2767863806 0.0970022238
155299070.0 -0.2629497732 0.1009271841 0.4069843289 -0.1243227535 0.4069746128 -0.1241955733 -0.2761337593 0.0994126329
160299040.0 -0.2618527975 0.1029563713 0.4054478695 -0.1283893346 0.4059134096 -0.1288730009 -0.2749967758 0.1023858779
165299010.0 -0.2608315317 0.105285638 0.4045021004 -0.1338206523 0.4046427062 -0.1337600673 -0.2742482957 0.104708887
170298980.0 -0.260158946 0.1077881961 0.4026460083 -0.1384228474 0.4034537406 -0.1383680864 -0.2732493207 0.107103899
175298950.0 -0.2588440635 0.1103283813 0.40224042 -0.1430755717 0.4021488067 -0.1431108558 -0.272119633 0.1099344063
180298920.0 -0.2580572381 0.1127133644 0.4003380941 -0.1482244418 0.4002978108 -0.1480269836 -0.2708753809 0.1125244106
185298890.0 -0.2568302981 0.1152950683 0.3987081595 -0.152673516 0.3990877329 -0.1527127375 -0.2705474204 0.1149276442
190298860.0 -0.2557988359 0.1177634622 0.3968980969 -0.1574548386 0.3972643134 -0.1573723865 -0.2687386974 0.1179229298
195298830.0 -0.2543853259 0.1198295463 0.3954534228 -0.161766374 0.3955450536 -0.1625169781 -0.2681085071 0.1202310459
200298800.0 -0.253659137 0.1227971196 0.3940582797 -0.1662378177 0.3941037998 -0.1666347484 -0.2665668723 0.1232312657
205298770.0 -0.2529161591 0.1255692119 0.3926689538 -0.1712051564 0.3922841512 -0.1712375943 -0.265920005 0.1253876717
210298740.0 -0.2511890859 0.1276162528 0.390372372 -0.175782852 0.3904745548 -0.1760202104 -0.2647376366 0.1283994157
215298710.0 -0.2505891258 0.1303417105 0.3884989821 -0.1801946931 0.3886148273 -0.1802751277 -0.2638178725 0.1309861878
220298680.0 -0.2493033056 0.1327440506 0.3862857379 -0.1848937626 0.3865191823 -0.1847238648 -0.2622680882 0.134021994
225298650.0 -0.2478883116 0.1354408104 0.3843533097 -0.1889898503 0.3844323322 -0.1890373615 -0.2613268626 0.1361933254
230298620.0 -0.2466322525 0.1379526149 0.382605168 -0.1935071509 0.3826349139 -0.1936613852 -0.2595884967 0.1390990324
235298590.0 -0.2452903061 0.1404782588 0.3802463 -0.1980892091 0.3804793281 -0.1983983971 -0.2584441164 0.1414294221
240298560.0 -0.244147654 0.1432991109 0.3782337655 -0.2023695387 0.3783782493 -0.2020106381 -0.2570018973 0.1443181471
245298530.0 -0.2421271857 0.1454308748 0.3754398469 -0.2066435477 0.3759931048 -0.2064795882 -0.2555757633 0.1472909212
250298500.0 -0.2415622892 0.1481054787 0.3736133295 -0.2107550203 0.3735691208 -0.2103217627 -0.2539647538 0.1499859128
255298470.0 -0.2399621452 0.1510760142 0.3709471817 -0.2155815968 0.3712692836 -0.2151535002 -0.2525294406 0.1523264301
260298440.0 -0.2383528155 0.1534229581 0.3691769998 -0.2193741125 0.3686265473 -0.2195302169 -0.2511732354 0.1554312133
265298410.0 -0.2370643733 0.1562511858 0.366439986 -0.2240744144 0.3666054125 -0.2236779185 -0.2497853341 0.1577224743
270298380.0 -0.2355901951 0.1585063112 0.3636877213 -0.2274104888 0.3642590725 -0.2276818715 -0.2479062931 0.1603391572
275298350.0 -0.2341023219 0.161207553 0.3615057731 -0.2321930251 0.3618233004 -0.2319487154 -0.2465658732 0.1630277762
280298320.0 -0.2326704781 0.1637911426 0.3589276777 -0.2357095371 0.3587980447 -0.2361141534 -0.2450693306 0.1661709436
285298290.0 -0.2309899264 0.1664211844 0.3562270506 -0.2399264503 0.35621786 -0.2400024616 -0.243249025 0.1687230873
290298260.0 -0.2295264228 0.168837714 0.3541187593 -0.2438363721 0.3539055551 -0.2440148959 -0.2415151239 0.1711016421
295298230.0 -0.2276734627 0.1713266016 0.3512963346 -0.2478917222 0.3508787956 -0.2480938779 -0.2394026745 0.1738492662
300298200.0 -0.2256714073 0.1735036876 0.3483289665 -0.2519387492 0.3486501422 -0.2519965347 -0.238083143 0.1765813036
305298170.0 -0.2237950279 0.1760262782 0.345685938 -0.2559349967 0.3459579131 -0.2561659989 -0.2357176871 0.1794258052
310298140.0 -0.222204754 0.178291718 0.3429417557 -0.2600334035 0.3431079277 -0.2603692568 -0.2342503487 0.1818854402
315298110.0 -0.2207221412 0.1806815292 0.3399182291 -0.2640255309 0.3399982084 -0.2640510235 -0.2322159289 0.1840618494
320298080.0 -0.2188617788 0.1833955869 0.3369932312 -0.2679183916 0.3370533615 -0.2676591054 -0.2303843621 0.1867455259
325298050.0 -0.2170862795 0.185362944 0.3339883336 -0.2717246555 0.334081847 -0.2716412611 -0.2286694781 0.1890353199
330298020.0 -0.2153140745 0.187868891 0.3307435039 -0.2753341387 0.3306838392 -0.2753200817 -0.2266239261 0.1915675129
335297990.0 -0.2133511856 0.1900984592 0.3276497169 -0.2792327376 0.3274315571 -0.2791049536 -0.2248295495 0.194290453
340297960.0 -0.2119597731 0.1927165414 0.3244037536 -0.2829579999 0.3245835939 -0.2823387625 -0.2228533536 0.196503415
345297930.0 -0.2102057279 0.1952199798 0.3212603874 -0.28607118 0.3208222723 -0.285970504 -0.2207727226 0.1993611057
350297900.0 -0.2075528241 0.1977571128 0.3175204338 -0.2897505479 0.318286357 -0.2897957807 -0.2189195837 0.2021439504
355297870.0 -0.205973545 0.200021699 0.314876981 -0.2931667184 0.31464755 -0.2934488027 -0.2166438246 0.2046459904
360297840.0 -0.2035921553 0.2023437223 0.3110507071 -0.2969592662 0.3112560877 -0.2967195361 -0.2144541836 0.2071702648
365297810.0 -0.2018612728 0.2043615549 0.3078272361 -0.2998423505 0.3080067837 -0.3000723941 -0.2122918069 0.2096779169
370297780.0 -0.1996871818 0.2065874929 0.3045287014 -0.3033044136 0.3046583877 -0.3036314399 -0.2101801631 0.212066324
375297750.0 -0.1976803961 0.2092087428 0.3015743277 -0.3067116039 0.3012247705 -0.3068361937 -0.2080612926 0.2147707915
380297720.0 -0.1954984109 0.211480961 0.2980403376 -0.3101618467 0.2979483966 -0.3101871432 -0.2056757363 0.2171807336
385297690.0 -0.1931377775 0.2136382322 0.2945036364 -0.3130628539 0.2942823511 -0.3133949011 -0.2037381987 0.2196418587
390297660.0 -0.1913188541 0.2157727018 0.2908907782 -0.316371968 0.2908922067 -0.3169675319 -0.201279772 0.2220085511
395297630.0 -0.188713582 0.2178850043 0.2873902533 -0.319250964 0.287398574 -0.3198029207 -0.1990483321 0.2242205216
400297600.0 -0.1865186859 0.2202455336 0.2837525303 -0.3231044902 0.2840205834 -0.323167911 -0.1970999519 0.2261222809
405297570.0 -0.1842361617 0.222470976 0.280254978 -0.32608215 0.2803229784 -0.3262204944 -0.1948066013 0.2289470014
410297540.0 -0.1816630237 0.2243902005 0.2762822236 -0.328804508 0.2765450159 -0.3289901651 -0.192314002 0.2315382738
415297510.0 -0.1797378026 0.2267328997 0.2730398058 -0.3321221443 0.2729557391 -0.3318552516 -0.189696751 0.233830888
420297480.0 -0.1771701852 0.2281017641 0.2693550462 -0.3351709666 0.2694668835 -0.3352251343 -0.1870777836 0.2355312617
425297450.0 -0.1748548734 0.2303593213 0.26558829 -0.3379383869 0.2655044181 -0.3380766741 -0.1844242815 0.2379766879
430297420.0 -0.17249253 0.2324914996 0.2620518105 -0.3409768882 0.2618334583 -0.3406694178 -0.1824271683 0.2400263024
435297390.0 -0.1698592985 0.2346273977 0.2578923207 -0.3436320239 0.2580405557 -0.3434813767 -0.1798546622 0.2423845651
440297360.0 -0.1672995052 0.2364256686 0.2537172143 -0.3462908562 0.2537814834 -0.3461539614 -0.1773796773 0.2442303334
445297330.0 -0.1649737003 0.2383406084 0.2501453609 -0.3492243426 0.2502506877 -0.3492121729 -0.1748258104 0.2463585174
450297300.0 -0.1624674247 0.2400784574 0.2464386555 -0.3519011521 0.2465684109 -0.3516050211 -0.1725673896 0.2486375608
455297270.0 -0.1598952514 0.2424150425 0.2423993348 -0.3546373995 0.2430099809 -0.3544938231 -0.1698942889 0.2509380235
460297240.0 -0.1578370097 0.2440713249 0.2386675918 -0.3568128585 0.2382866778 -0.3570328278 -0.1672209073 0.2532012907
465297210.0 -0.1546756032 0.2456372096 0.2350873893 -0.3596487814 0.2350238918 -0.35985209 -0.1649382109 0.254504071
470297180.0 -0.1521594425 0.247413259 0.2306518203 -0.3620627181 0.2309580593 -0.3618004283 -0.1623391452 0.2567710518
475297150.0 -0.1495416121 0.2494562108 0.2266551814 -0.3644090827 0.2269987198 -0.3643503891 -0.1593208694 0.2586471345
480297120.0 -0.1472062603 0.2506554384 0.2226368874 -0.3666769753 0.2228296813 -0.3670135267 -0.156876513 0.2607627638
485297090.0 -0.1443854051 0.2525196897 0.2190652105 -0.369387348 0.2185981485 -0.3692326663 -0.1540240645 0.2622599116
490297060.0 -0.1414723031 0.2543611283 0.2142708608 -0.3716841154 0.2145439317 -0.3716704745 -0.1512518013 0.2638640288
495297030.0 -0.1392340208 0.2560200389 0.2106626933 -0.3739752847 0.2103128569 -0.3737472182 -0.1486805608 0.265550526
500297000.0 -0.1360283441 0.2572060541 0.2059747506 -0.3760238176 0.2065497054 -0.3760861185 -0.1460387066 0.2676385499
505296970.0 -0.1335841451 0.2589170648 0.2021364994 -0.3781149667 0.2022193812 -0.3783307503 -0.14383172 0.2696848408
510296940.0 -0.1308015155 0.2607593818 0.1980107815 -0.3808206067 0.1982066925 -0.3807082823 -0.1405526494 0.271235204
515296910.0 -0.1282001942 0.2623494353 0.1936896052 -0.3822860923 0.1940729538 -0.382671239 -0.1377971788 0.2729152959
520296880.0 -0.1252016842 0.2638489471 0.1894480182 -0.3846282726 0.1898299363 -0.3847629093 -0.1348493854 0.2743018093
525296850.0 -0.1224634536 0.265290759 0.1853825758 -0.3867749075 0.185252438 -0.3872081671 -0.1318130789 0.2764459613
530296820.0 -0.1196607825 0.2665521188 0.1815152904 -0.3881897258 0.18117887 -0.3886001661 -0.1294429629 0.2776589136
535296790.0 -0.1168222523 0.2681151794 0.1769224328 -0.3903756007 0.1770198748 -0.3904362149 -0.1266178829 0.2792273861
540296760.0 -0.1142117122 0.269149467 0.1725741474 -0.39243103 0.1726603292 -0.392380822 -0.1239405047 0.2807415327
545296730.0 -0.1114993806 0.2707820289 0.1681743543 -0.3939117569 0.168548774 -0.3943421623 -0.1210949043 0.2820355491
550296700.0 -0.1087961524 0.2719995688 0.1639641643 -0.3958897639 0.164700751 -0.396388777 -0.1179510106 0.2837400994
555296670.0 -0.1052513099 0.2732437182 0.1595269589 -0.3975045577 0.1597778431 -0.3976962877 -0.1152668217 0.2849891607
560296640.0 -0.1025290531 0.27463299 0.1551911581 -0.3993421172 0.1556080715 -0.3990957659 -0.1121278754 0.2863698509
565296610.0 -0.1001520001 0.2757386492 0.1509990086 -0.4007809765 0.1509520057 -0.4007443324 -0.1095195788 0.28754662
570296580.0 -0.0970282231 0.2771821409 0.1463577962 -0.4024540214 0.1469975577 -0.4027293529 -0.1063886136 0.2894856672
575296550.0 -0.0942402392 0.2783932513 0.14244496 -0.4035595282 0.1427742232 -0.4041845989 -0.1032930929 0.2905510373
580296520.0 -0.0910715749 0.2793273425 0.137984145 -0.4054672094 0.1377636484 -0.4053974244 -0.1004818022 0.2916962079
585296490.0 -0.0882749754 0.2798770445 0.1337650643 -0.4066781758 0.1332360589 -0.406634041 -0.0974656545 0.2922364614
590296460.0 -0.0852155145 0.2814560866 0.1289703301 -0.4083555957 0.1289293016 -0.4085980098 -0.0943447836 0.2937607002
595296430.0 -0.0821472724 0.2825706594 0.1248193911 -0.4095583923 0.1243958575 -0.4099234639 -0.0913465592 0.2946263835
600296400.0 -0.0791892016 0.2836093364 0.1203345394 -0.4109320694 0.1206075832 -0.410904657 -0.0881446462 0.29611177
605296370.0 -0.0761292976 0.2845253836 0.1156472398 -0.4123209032 0.1158808915 -0.4118713292 -0.0852972495 0.2975303178
610296340.0 -0.0730799748 0.2856419854 0.1116262189 -0.4134009282 0.1112261569 -0.4137222914 -0.0821359679 0.2985220298
615296310.0 -0.0701001573 0.2864553753 0.1064791671 -0.4142795111 0.1067207474 -0.4143485769 -0.0791854484 0.2992505049
620296280.0 -0.0671764126 0.2871153743 0.1023326713 -0.4152118246 0.1021451338 -0.4155805616 -0.076226129 0.2998899378
625296250.0 -0.0640065208 0.2880685203 0.0972672899 -0.4168687478 0.0977000286 -0.4170526716 -0.0731138835 0.3011489866
630296220.0 -0.0609532797 0.2889687914 0.0928021004 -0.4177785858 0.0935572469 -0.417690969 -0.0700455136 0.3021807086
635296190.0 -0.0583601787 0.2899054317 0.0883615882 -0.41860918 0.0883960986 -0.4183758344 -0.0671205041 0.3029288908
640296160.0 -0.0552093229 0.2903031723 0.0843683366 -0.4193622114 0.0840930333 -0.4194645413 -0.0636238551 0.3036993478
645296130.0 -0.0519588069 0.2914004085 0.0792881443 -0.4206267742 0.0795423848 -0.4202634135 -0.0610633727 0.3042086016
650296100.0 -0.0491063017 0.2921137673 0.0754214241 -0.4210853687 0.0750847019 -0.4211032067 -0.0574900265 0.3053496195
655296070.0 -0.0460326564 0.292538596 0.0704467825 -0.4219008487 0.0702950759 -0.4220772306 -0.0539053581 0.3062577435
660296040.0 -0.0430320529 0.2931666353 0.0657758859 -0.4220017708 0.0660075164 -0.4224444656 -0.0514593799 0.3066144661
665296010.0 -0.0395101393 0.293716024 0.0615808965 -0.4232790213 0.0618185696 -0.4230879208 -0.0484605791 0.307701379
670295980.0 -0.0363178406 0.2944816339 0.0567085722 -0.4236028977 0.0570137699 -0.4238602864 -0.0451885594 0.3077430683
675295950.0 -0.0332810086 0.2951357594 0.0519636228 -0.424325085 0.0522430628 -0.4245092334 -0.0416051621 0.3086222909
680295920.0 -0.0303388116 0.2955932566 0.0472144611 -0.4249591935 0.0473290247 -0.4248743312 -0.0384482167 0.3090206224
685295890.0 -0.0271368168 0.2960347813 0.0430504677 -0.4250405843 0.042664907 -0.425861869 -0.0349703283 0.3097780445
690295860.0 -0.0238812644 0.2966055478 0.0382291043 -0.425630381 0.0381630809 -0.4257972821 -0.0318549993 0.3104849496
695295830.0 -0.0208418477 0.2967279921 0.03331889 -0.4256878375 0.0332161473 -0.4260643109 -0.0290419175 0.3108636265
700295800.0 -0.0173556387 0.297137736 0.028651867 -0.4264140996 0.0289993788 -0.4265506151 -0.025760945 0.3108787129
705295770.0 -0.014235494 0.2975968196 0.0242962182 -0.4264969686 0.0244886931 -0.4268010849 -0.0226160011 0.3116034058
710295740.0 -0.0111868876 0.2977384455 0.0195652181 -0.4267610355 0.0198321467 -0.4267299128 -0.0197360902 0.3120603944
715295710.0 -0.0081781992 0.2981286271 0.01493057 -0.4269409483 0.0153128129 -0.4267828691 -0.0162474626 0.3119352748
720295680.0 -0.0051768199 0.2982959293 0.0103469872 -0.4269046193 0.0105142507 -0.4275398112 -0.0125274141 0.3127423772
725295650.0 -0.0018515042 0.2986499448 0.0058010975 -0.4270231683 0.0055622232 -0.4270308278 -0.0092020782 0.3127773175
730295620.0 0.0010637161 0.2984389978 0.0012507331 -0.426954335 0.0011037917 -0.4271722923 -0.0061182743 0.3127197888
735295590.0 0.0047753718 0.2987214095 -0.0031414848 -0.4267398207 -0.0034032359 -0.4271187683 -0.0028059857 0.3129350447
740295560.0 0.0078690612 0.2987956508 -0.0081081857 -0.4262645361 -0.0082230071 -0.4268093785 0.0005918128 0.3129490329
745295530.0 0.0106854963 0.2987142435 -0.0125000709 -0.4267838719 -0.012268916 -0.4270235274 0.0034813861 0.3134234257
750295500.0 0.0137489403 0.2989631881 -0.017054879 -0.426262748 -0.0174891725 -0.4263053639 0.0071537103 0.3129772301
755295470.0 0.0172935847 0.2989860927 -0.0216491477 -0.4264195153 -0.021558656 -0.4265722098 0.0096982831 0.313418181
760295440.0 0.020512217 0.2989678515 -0.0265389786 -0.4259561624 -0.026519004 -0.4258204422 0.0128520551 0.3133126249
765295410.0 0.0235899053 0.2988408022 -0.0308384039 -0.4253765043 -0.0309853357 -0.4258629999 0.0168913828 0.3136245624
770295380.0 0.0270814693 0.2990595491 -0.0359344296 -0.4253102503 -0.0355766038 -0.4256895749 0.020071444 0.3134118869
775295350.0 0.0297771988 0.2985162746 -0.0398820751 -0.424511478 -0.0401111313 -0.4246096425 0.0229373255 0.3128965567
780295320.0 0.0333716678 0.2982849856 -0.0449108625 -0.4242441223 -0.044740231 -0.4242020788 0.0264439228 0.3133384557
785295290.0 0.0362075375 0.2985015887 -0.0491852642 -0.423552287 -0.0495626826 -0.4239094662 0.0291332058 0.3132529902
790295260.0 0.0394702791 0.2978551228 -0.0538889931 -0.4232650759 -0.0542070859 -0.4237559395 0.0331060546 0.3129351457
795295230.0 0.0425449771 0.2980056512 -0.0581551914 -0.4225091733 -0.0582738791 -0.4226325341 0.0363920271 0.313160088
800295200.0 0.0458907932 0.2976994188 -0.0633147488 -0.4220881312 -0.063268802 -0.4218314096 0.0395021511 0.3125917697
805295170.0 0.0487122558 0.2971468254 -0.0674450842 -0.4208055399 -0.0676765272 -0.4208310663 0.0423396598 0.3122453578
810295140.0 0.052103549 0.2967259272 -0.071779133 -0.4201963759 -0.0722308665 -0.4208722979 0.0460079675 0.3123631494
815295110.0 0.055522104 0.2962581158 -0.0770506224 -0.4193168012 -0.0767816168 -0.4194114644 0.0490104895 0.3116117843
820295080.0 0.0583848716 0.2955264785 -0.0812979906 -0.4184986899 -0.0811104602 -0.4185711948 0.0521978773 0.3111674653
825295050.0 0.0617033557 0.2955025175 -0.0856307819 -0.4176513438 -0.0858277385 -0.4175104289 0.0558200494 0.3108613096
830295020.0 0.0646525724 0.2950034789 -0.0901408703 -0.4165364301 -0.0907059034 -0.4167519217 0.0587043941 0.3106148057
