!Created with skrf (http://scikit-rf.org).
# Hz S RI R 50.0 
!freq ReS11 ImS11 ReS21 ImS21 ReS12 ImS12 ReS22 ImS22
300000.0 -0.2123250998 -0.0611240998 -0.0009472211 0.0002635517 -0.0001471504 0.001547631 -0.7705878402 -0.1396684674
5299970.0 -0.2167740369 0.0081943717 -2.10859e-05 8.08312e-05 0.0001082816 0.0001547428 -0.7843386505 -0.0073477423
10299940.0 -0.2135378358 0.0191943366 0.0001015403 0.0001703268 -2.7306e-05 1.52656e-05 -0.7874103762 -0.0035315509
15299910.0 -0.2085758285 0.0283567823 -8.61033e-05 -9.46851e-05 -9.75503e-05 -8.7476e-06 -0.7931416889 -0.0014118573
20299880.0 -0.2034924163 0.0358880689 -1.46741e-05 9.3445e-05 8.58904e-05 5.30294e-05 -0.7998573219 0.0022028841
25299850.0 -0.1977496486 0.0421872658 -7.4242e-06 7.4026e-05 0.0001585477 4.03107e-05 -0.8062944706 0.0080277406
30299820.0 -0.1921424511 0.0468668372 -7.77793e-05 0.0001768332 0.0001723083 5.47619e-05 -0.8120049507 0.0167876233
35299790.0 -0.1863008798 0.0504578377 -0.0001072429 0.0001716686 3.79343e-05 3.88684e-05 -0.8173425431 0.0252027707
40299760.0 -0.1807446596 0.0534849743 1.62858e-05 6.48807e-05 -1.45395e-05 0.0001164092 -0.8206856875 0.0347007477
45299730.0 -0.1756703384 0.055337982 -9.47206e-05 0.0002627031 0.0001529381 8.42661e-05 -0.8251671221 0.0440954912
50299700.0 -0.1707923418 0.0572057098 -3.90737e-05 0.0001846336 7.28782e-05 0.0001859308 -0.8271075792 0.0540168296
55299670.0 -0.1665545734 0.057667556 9.99577e-05 9.84466e-05 0.0001894656 -1.42578e-05 -0.8292537497 0.064612583
60299640.0 -0.1623399465 0.0589840494 -0.0001828072 -6.59269e-05 2.97383e-05 1.21546e-05 -0.8303498832 0.0739096647
65299610.0 -0.1587173649 0.0589345992 0.0001924453 2.18235e-05 -2.1221e-06 7.77648e-05 -0.831946417 0.0839887681
70299580.0 -0.1557147505 0.0597477559 -4.07606e-05 1.85016e-05 -4.1076e-05 -0.0001713165 -0.83194904 0.0946778556
75299550.0 -0.1527905857 0.0601242215 4.87534e-05 0.0001087854 0.0001017969 -8.66208e-05 -0.8322861355 0.1038036398
80299520.0 -0.1498105177 0.0601293508 0.0001527087 4.0846e-06 0.0001739232 -0.0001329706 -0.8321892225 0.1140245861
85299490.0 -0.1475405976 0.0596984559 8.89907e-05 0.0002027056 -1.34589e-05 0.0003123282 -0.8318301125 0.1240510966
90299460.0 -0.1454854283 0.0599823959 6.16209e-05 -9.82873e-05 0.0002454849 -3.1178e-05 -0.8306857917 0.1327324468
95299430.0 -0.1431295299 0.0599431928 -0.0001047549 0.000203898 5.98515e-05 7.05326e-05 -0.8294470006 0.1432359063
100299400.0 -0.1415788122 0.0599890124 -7.93e-07 9.76794e-05 2.59182e-05 4.52873e-05 -0.8288830319 0.1522379844
105299370.0 -0.1400734856 0.0598916632 -0.0001056036 -3.15497e-05 0.0001125323 1.66476e-05 -0.8265298744 0.1611080951
110299340.0 -0.1384594951 0.0600052478 2.19537e-05 9.33907e-05 5.11116e-05 -5.29871e-05 -0.825354943 0.1710495536
115299310.0 -0.1370419443 0.0597979294 0.0001336393 4.2829e-05 -4.14998e-05 -4.81519e-05 -0.8244907514 0.1795660456
120299280.0 -0.1359708474 0.0600227731 -0.0001176398 0.0003084935 4.66903e-05 -4.53104e-05 -0.8217533551 0.1889763723
125299250.0 -0.1350014643 0.059876821 0.0001623058 0.0001460847 0.000153952 0.0001183989 -0.8205166347 0.1981225927
130299220.0 -0.1342506656 0.0603373787 6.79329e-05 1.09581e-05 -7.79183e-05 9.19798e-05 -0.8185757517 0.2067013772
135299190.0 -0.1331043562 0.0607203854 -4.94854e-05 0.0003600094 8.66249e-05 4.67622e-05 -0.8164971722 0.2160155072
140299160.0 -0.1324743269 0.0609264633 0.0001864055 -7.2992e-05 -0.0001108248 -0.0001752144 -0.8140682704 0.224797891
145299130.0 -0.1314375621 0.0611456168 -6.7126e-06 0.0001755274 8.10717e-05 5.3056e-05 -0.8121015307 0.2343110319
150299100.0 -0.1304547631 0.0612948233 0.0002170163 7.93244e-05 3.43836e-05 -2.8479e-05 -0.8100053507 0.2425434126
155299070.0 -0.1300229069 0.0618617433 0.0001612367 2.3508e-05 0.0003323956 0.0001262 -0.8069604411 0.2514477808
160299040.0 -0.1295155637 0.0624998963 0.0001164545 -0.0001135089 -0.0001145094 2.87648e-05 -0.8044592303 0.2603880618
165299010.0 -0.128658659 0.0626172386 0.0001497417 -0.0001533694 0.0001097809 3.2184e-05 -0.8020233252 0.2692395358
170298980.0 -0.1285411244 0.0635297546 0.0001501572 -4.66004e-05 -6.57293e-05 -3.72281e-05 -0.7994128926 0.2780528148
175298950.0 -0.1278598056 0.0641913777 0.0002742483 -3.76357e-05 7.38373e-05 0.0001224568 -0.7964921486 0.2864307525
180298920.0 -0.1272061172 0.0647120753 9.12029e-05 0.0001351617 0.0002770708 -9.92137e-05 -0.7935821149 0.2948677702
185298890.0 -0.1266682029 0.0649517939 0.0001011109 0.0001563491 5.7467e-05 0.0001622961 -0.7901389252 0.3041863773
190298860.0 -0.1259870729 0.0658625877 0.0001962662 -3.5213e-05 -1.75398e-05 9.39639e-05 -0.7879239044 0.3123846676
195298830.0 -0.1260241471 0.0666591042 -0.0002255592 0.0001023731 0.000241186 -9.19489e-05 -0.7847955943 0.3210647535
200298800.0 -0.1251559801 0.0673384983 -0.0001610267 0.0002948655 -3.40371e-05 7.2061e-05 -0.7816592343 0.3294108598
205298770.0 -0.1248259701 0.0682179539 -0.0001013968 9.24573e-05 -0.000100707 0.0001633652 -0.7772609853 0.337542089
210298740.0 -0.1245594754 0.0689096077 -9.7447e-05 0.000262166 0.0002102373 6.48145e-05 -0.7745412665 0.3462348185
215298710.0 -0.1242375198 0.069819687 -3.57315e-05 -3.9483e-05 0.0002413556 3.19329e-05 -0.7708572431 0.3537568456
220298680.0 -0.1236455692 0.0704979015 9.41669e-05 1.7108e-05 0.0001305454 0.0001822256 -0.7673418657 0.3620029411
225298650.0 -0.1234611691 0.0711704938 0.0002962673 5.87111e-05 0.0002354331 7.58868e-05 -0.7634429593 0.3699908688
230298620.0 -0.1228035066 0.0722549933 8.72472e-05 -4.62519e-05 4.89374e-05 0.0001710232 -0.7594274384 0.3782808362
235298590.0 -0.1221325602 0.0734055334 0.0001175716 3.35935e-05 0.0001121212 0.0001280089 -0.7553694575 0.3866942179
240298560.0 -0.1215904393 0.0740685204 0.0001434211 -0.0001200508 1.72409e-05 9.14719e-05 -0.7514057023 0.3953760563
245298530.0 -0.1210628417 0.0749028845 -5.84508e-05 3.70054e-05 0.0001390943 -0.0001276752 -0.7479663 0.4025057098
250298500.0 -0.1207958145 0.0760296926 4.28437e-05 0.000151148 -0.0001044599 0.0001617874 -0.7436795263 0.4102532453
255298470.0 -0.1204565042 0.0767027664 -9.48513e-05 0.0001449732 -1.9219e-05 0.0001828974 -0.738899243 0.4176157447
260298440.0 -0.119922218 0.0777724612 -0.0001433813 0.0002168877 0.0001258432 -4.8379e-06 -0.7347558092 0.4260145689
265298410.0 -0.1194153761 0.0787173996 0.0002510791 0.0001850347 -6.666e-05 0.0001990633 -0.7300066934 0.4336261135
270298380.0 -0.11914669 0.079734054 6.17899e-05 -4.25632e-05 0.0002322209 -7.07208e-05 -0.7252720596 0.4414262931
275298350.0 -0.118729145 0.0807833866 0.0001062849 9.50336e-05 8.8019e-06 -3.92807e-05 -0.7207154649 0.4485918381
280298320.0 -0.1175610039 0.0818791294 -5.532e-06 0.00018451 -7.78356e-05 0.0001012114 -0.7157173009 0.4556687846
285298290.0 -0.1169433384 0.0831541328 -0.0001592004 6.07366e-05 9.98031e-05 9.75102e-05 -0.7104210832 0.4633810865
290298260.0 -0.116675215 0.0839021807 -6.9467e-06 -0.000204199 8.36036e-05 0.0001378722 -0.7057900679 0.4708890854
295298230.0 -0.1160275949 0.0844767299 0.0003563186 0.0002042727 7.26468e-05 0.0001079272 -0.7012084952 0.4777613201
300298200.0 -0.1151970002 0.0857868917 0.0002775197 -2.02642e-05 -9.60005e-05 0.0001570818 -0.6958241051 0.48490151
305298170.0 -0.1147612326 0.08653017 -0.0002739022 0.0002729827 -7.30684e-05 3.4678e-05 -0.6900898343 0.492913397
310298140.0 -0.1140980044 0.0879563528 0.0002506283 -2.03432e-05 0.0001729333 1.44001e-05 -0.6852929709 0.4998610966
315298110.0 -0.1131893486 0.089037099 -9.9971e-06 0.0002635293 8.95085e-05 1.45904e-05 -0.6798337279 0.5067314967
320298080.0 -0.1126013538 0.0897377418 0.0001326905 0.0001639926 0.0001110953 0.0001825893 -0.6745849966 0.5142464716
325298050.0 -0.1118950569 0.0906761642 0.0003520844 0.0001413471 -7.3358e-06 0.0003240687 -0.6685541068 0.5209559075
330298020.0 -0.1114617747 0.0914652301 -0.0001053641 0.0002072453 0.0001438337 7.19697e-05 -0.6635673376 0.5282136842
335297990.0 -0.11089286 0.0924811416 0.0001848693 0.0001653398 1.61462e-05 7.79741e-05 -0.6585288084 0.5353212642
340297960.0 -0.1105737241 0.0939407767 2.22758e-05 0.0002186923 -0.0001396855 7.96033e-05 -0.6525382827 0.5419329612
345297930.0 -0.1099286457 0.0945871599 0.000302207 -1.01747e-05 0.0002304552 0.0001522515 -0.6464988701 0.5483646689
350297900.0 -0.1093181965 0.096091165 0.0001319552 -6.89979e-05 0.0002291297 6.734e-05 -0.6411802898 0.5554941174
355297870.0 -0.1082078339 0.0972636197 0.0002338108 -3.16788e-05 -8.102e-05 5.4262e-05 -0.6353824462 0.5620405746
360297840.0 -0.107924744 0.098317952 0.0001744956 6.8838e-05 -3.63491e-05 -0.0001109957 -0.6289664516 0.5687051035
365297810.0 -0.1069465933 0.0997605426 0.0002013045 -8.81408e-05 -3.28324e-05 0.000113399 -0.622988341 0.5749304103
370297780.0 -0.1062986249 0.1006027817 0.0002754927 0.0002513351 -4.13901e-05 4.75777e-05 -0.617764973 0.5818705161
375297750.0 -0.1054985711 0.1017425606 0.0003008354 0.0001205218 0.0001403083 0.0001370131 -0.6116779608 0.5874765979
380297720.0 -0.1046461277 0.102380024 -3.1248e-06 0.0003730804 0.0002012296 4.94184e-05 -0.6055512255 0.5939061365
385297690.0 -0.1043615314 0.1038783967 -2.12577e-05 0.0001494934 0.0001766134 0.0001610259 -0.5996835963 0.6003457096
390297660.0 -0.1034815886 0.1050998902 0.0001447891 4.19484e-05 1.95234e-05 0.0001015853 -0.5931340799 0.606244645
395297630.0 -0.1023638573 0.1061839328 4.7982e-06 3.68493e-05 0.0001007643 -3.75933e-05 -0.5865213659 0.6130040051
400297600.0 -0.1014084051 0.1073062822 0.0002038067 -8.49593e-05 0.0002562362 0.0002379196 -0.5804247176 0.6188088559
405297570.0 -0.1007859443 0.1082299476 0.0001837766 4.19299e-05 0.0002443832 0.000164552 -0.5741719302 0.6246391628
410297540.0 -0.099930617 0.1093142747 2.85187e-05 -4.1469e-06 0.0001445634 2.01747e-05 -0.5671644531 0.6306540327
415297510.0 -0.0989517312 0.1102027722 -1.41782e-05 -1.6687e-05 0.0001556757 0.0002846879 -0.5614518241 0.6364668935
420297480.0 -0.0983571385 0.1117228183 0.0001496235 0.0002473452 0.0002858301 0.000212666 -0.5545091077 0.6420491947
425297450.0 -0.0971218712 0.1126371279 0.0003184646 9.39871e-05 0.0001554266 0.0001355739 -0.5477323166 0.6478781319
430297420.0 -0.0962975092 0.113528389 0.0003936389 4.09734e-05 0.0002430405 0.0002057606 -0.541203932 0.6528528963
435297390.0 -0.0954638457 0.1146851561 -0.0002134066 0.0001300063 0.00025956 9.40553e-05 -0.5342870617 0.6583914723
440297360.0 -0.0944045362 0.1157209053 0.0002534229 0.0001795739 0.0003703954 8.2263e-05 -0.5277255992 0.6638263925
445297330.0 -0.0934956044 0.1166481863 0.0002788148 -7.48391e-05 0.0001205496 -2.7872e-05 -0.5204937923 0.668684519
450297300.0 -0.0923748767 0.1175787619 -2.46517e-05 -0.0001339253 0.0001963935 -1.59514e-05 -0.5131060774 0.6738375824
455297270.0 -0.0914447871 0.1186507345 -3.783e-06 -3.46392e-05 0.0002109929 -6.3601e-05 -0.5061864824 0.6785914313
460297240.0 -0.0909093049 0.1197378709 0.0002352009 0.0001245754 -6.81745e-05 -4.44242e-05 -0.4996809189 0.6841242202
465297210.0 -0.089410471 0.1208606943 0.0001577114 0.0001503728 4.73351e-05 -2.0911e-05 -0.4915812288 0.6887539741
470297180.0 -0.0886551471 0.1217251925 0.0004583318 -6.3413e-05 0.0001100396 -3.00687e-05 -0.4846540486 0.6941770091
475297150.0 -0.087573022 0.1223611815 0.0001952005 0.0002057338 0.000129872 -1.56605e-05 -0.4775445313 0.6982727058
480297120.0 -0.0864655974 0.1236451005 0.0001737931 0.0001651315 3.82739e-05 0.0001230161 -0.4698480217 0.7034377572
485297090.0 -0.0853197721 0.1246473969 9.83089e-05 0.0002905877 0.000209683 5.9806e-05 -0.463051412 0.7081519045
490297060.0 -0.0843891734 0.1258425869 0.0001358565 0.0001146397 5.10811e-05 -1.97832e-05 -0.4558080674 0.7124402672
495297030.0 -0.0832941831 0.1265943069 9.29577e-05 5.18778e-05 0.0002441246 -0.0002115692 -0.4485479695 0.7173488115
500297000.0 -0.0820129457 0.1276416169 0.0001066467 3.57979e-05 0.0003226704 4.41219e-05 -0.4409407452 0.7223860667
505296970.0 -0.0807667453 0.128354313 7.96305e-05 4.38156e-05 0.0001760781 0.0002741041 -0.4336487009 0.7263716732
510296940.0 -0.0797525632 0.1294192676 0.0001795108 -0.0001853428 0.0001594889 -3.787e-06 -0.4257405626 0.7306245459
515296910.0 -0.0786144367 0.1300843697 0.0001985061 9.12189e-05 0.0001364731 0.0001459499 -0.4186061326 0.7353251943
520296880.0 -0.0775471763 0.1312203205 0.0003351916 -8.03191e-05 0.0004302391 9.30666e-05 -0.4115762716 0.7388968839
525296850.0 -0.076344317 0.1318092036 0.000434909 0.0002162166 0.0004090565 0.0001851708 -0.4039723861 0.743844886
530296820.0 -0.0751952536 0.1332275352 0.000164643 6.96115e-05 0.0002169578 -5.10277e-05 -0.3964329124 0.7472263645
535296790.0 -0.0741686755 0.1339286668 0.0001487417 -6.93144e-05 0.0002087805 0.0002491922 -0.3892255805 0.7515157337
540296760.0 -0.0728451417 0.134645967 0.000181748 6.403e-05 0.0002419363 2.9924e-05 -0.3811424376 0.7559299784
545296730.0 -0.0718986272 0.1358859197 5.71887e-05 2.6501e-05 0.0002772266 1.84771e-05 -0.3734380043 0.759068776
550296700.0 -0.0702399047 0.1363612888 0.000222648 0.0001712202 0.0003107961 8.56497e-05 -0.3657511509 0.7631437662
555296670.0 -0.0693785525 0.1374868822 1.68715e-05 4.90225e-05 0.0002127431 -5.94694e-05 -0.3583492211 0.7674437417
560296640.0 -0.0677471415 0.1383364318 0.0001221994 3.04157e-05 0.0001070031 8.89449e-05 -0.3503973923 0.7713497077
565296610.0 -0.067000288 0.1391912685 0.0001539659 8.33554e-05 0.0003125761 -0.0001191155 -0.3421788673 0.7739342445
570296580.0 -0.0657404224 0.139780785 0.0002119421 -1.58048e-05 0.0001953613 0.0001460992 -0.3350343184 0.7777020474
575296550.0 -0.0646414489 0.1408919302 9.93088e-05 -1.69395e-05 0.0001263879 1.74272e-05 -0.3269117769 0.7808895143
580296520.0 -0.0631983208 0.1414699023 0.0001910571 -1.18097e-05 0.000308314 -5.48638e-05 -0.3183172279 0.7841641275
585296490.0 -0.0619538276 0.1419665461 0.0001566085 7.68003e-05 0.0001696408 4.24632e-05 -0.3100617462 0.7873581792
590296460.0 -0.0603011523 0.1430758942 0.0003801023 -5.74896e-05 0.000141163 2.63362e-05 -0.3028933695 0.7901166338
595296430.0 -0.0594032409 0.1437131293 0.0001144045 -2.80887e-05 0.0002010993 9.08571e-05 -0.29503663 0.792455518
600296400.0 -0.0584091865 0.1446222445 0.0001431697 -0.0001470018 0.0002568499 0.0001784174 -0.2866165049 0.7953961032
605296370.0 -0.0571251974 0.1451715597 0.0004439922 2.7989e-06 6.01673e-05 5.74449e-05 -0.2786022394 0.7983094707
610296340.0 -0.0554367798 0.1458002168 0.0003204184 4.49868e-05 0.0002251023 -0.0001085673 -0.2705513774 0.8008489721
615296310.0 -0.0540320601 0.1465209627 0.0001563728 0.0002163134 0.0002541434 2.37092e-05 -0.2619431405 0.8031559705
620296280.0 -0.0529435371 0.147273985 0.0002039647 1.47967e-05 0.000124138 1.7475e-05 -0.2543671348 0.8061101718
625296250.0 -0.051421915 0.1478619305 0.000270309 2.53433e-05 0.0003867928 -2.51772e-05 -0.245237884 0.8076898686
630296220.0 -0.0497610456 0.1483567312 0.0001682057 8.54717e-05 0.0002821028 0.0001897073 -0.237359949 0.810713659
635296190.0 -0.048728246 0.1493455826 0.0002647359 -2.36385e-05 -4.16837e-05 0.0001806329 -0.2291155298 0.8124155713
640296160.0 -0.0475496389 0.1498368971 -6.6485e-05 -6.10983e-05 0.0002559658 8.2849e-05 -0.2215855855 0.8149309134
645296130.0 -0.0461393407 0.1507062711 0.0002530166 -5.40807e-05 0.0002743306 -4.48207e-05 -0.213139456 0.8174851165
650296100.0 -0.044918387 0.1513290116 0.0003441923 0.0001404894 0.0003640953 -0.0001356063 -0.204294973 0.8188849435
655296070.0 -0.0432629399 0.1518840505 0.0005202707 1.95e-06 0.0003970265 6.66202e-05 -0.1960533563 0.8206505656
660296040.0 -0.0421336279 0.1524096019 0.0003709852 -1.09094e-05 0.0002308247 -0.0001907147 -0.187657346 0.823187121
665296010.0 -0.0402209135 0.1526964769 0.0001157728 -6.42002e-05 0.0003402808 0.0001034165 -0.1790556286 0.8251495151
670295980.0 -0.0392514067 0.1538806935 0.0002951693 1.44627e-05 0.0002917187 0.0001312707 -0.1718864923 0.8269653512
675295950.0 -0.0378424869 0.1542091169 0.0004818714 -7.63869e-05 0.0004516764 6.72506e-05 -0.1638637211 0.8288221673
680295920.0 -0.0362669993 0.1547514587 8.03826e-05 -4.50503e-05 5.4772e-05 0.0001175499 -0.1547403942 0.8307161053
685295890.0 -0.0347415338 0.1554712529 0.0003053451 7.80127e-05 0.0003440454 0.0002154548 -0.1466129626 0.8320774759
690295860.0 -0.0334061508 0.1559360351 0.0003430315 4.17535e-05 0.000135001 -8.33354e-05 -0.1384164434 0.8335531663
695295830.0 -0.0321639183 0.1564771569 0.000425109 5.33513e-05 0.0002843559 9.27622e-05 -0.1291171786 0.8349099685
700295800.0 -0.0307110721 0.1566132907 0.0003040615 -0.0001220106 0.0003024378 -0.0001293629 -0.1220886255 0.835910625
705295770.0 -0.0292375265 0.1575643301 0.0004068061 -0.0002728392 0.0001652275 -1.63186e-05 -0.1134246894 0.8380665313
710295740.0 -0.0276233881 0.1580310781 0.0001601207 0.0001701389 0.0002812239 -0.0002021748 -0.1048010501 0.8385271817
715295710.0 -0.0261452985 0.1583515382 8.50254e-05 -9.0821e-06 0.0001948292 -6.9804e-05 -0.0965705581 0.8393564553
720295680.0 -0.0245344225 0.158756207 0.0002833873 2.35002e-05 0.000508561 -0.0001064686 -0.0880399728 0.8408607172
725295650.0 -0.0231413892 0.1593202452 0.0001555382 3.52603e-05 0.0004869031 -8.23313e-05 -0.0800896988 0.8420248669
730295620.0 -0.0218290248 0.1598017788 0.0002997313 -8.15998e-05 0.0001433653 6.76641e-05 -0.072007019 0.8420131546
735295590.0 -0.0204848123 0.1602717942 0.000526519 -0.0001864439 0.0003447308 4.42123e-05 -0.0635098403 0.8425191196
740295560.0 -0.0190095073 0.1607919872 0.0001928961 -4.83185e-05 0.0002704069 -0.0001108578 -0.0541542746 0.8437325417
745295530.0 -0.017412727 0.161123532 0.0002856419 1.88694e-05 0.000280019 -2.49033e-05 -0.0454511491 0.8441402168
750295500.0 -0.0156923129 0.1614544514 0.0002643303 3.93821e-05 0.0002006314 -2.67545e-05 -0.0378169144 0.8443308572
755295470.0 -0.0143847142 0.1613942812 0.0001186418 -0.0001718822 0.0002811372 6.3426e-06 -0.02917618 0.8438604594
760295440.0 -0.0129469387 0.1619767909 0.0004542844 -7.29613e-05 0.000383326 -0.0002641572 -0.0210166429 0.8445405875
765295410.0 -0.011352239 0.1621665965 0.0003099314 -0.0002767788 0.0001093077 -0.0001521722 -0.0123195959 0.8449883657
770295380.0 -0.0102057147 0.1624239149 0.0003561637 -6.96704e-05 0.0003235457 -4.87534e-05 -0.0046160635 0.8443474939
775295350.0 -0.0086031763 0.162657094 0.0002775804 -6.77268e-05 0.0002625724 9.1871e-05 0.0036026658 0.8436835981
780295320.0 -0.006944146 0.1631372846 0.0005285664 -8.59084e-05 0.0002940257 -8.18071e-05 0.012321484 0.8440847878
785295290.0 -0.0058142906 0.1630543767 0.0003050054 7.2114e-05 0.0002816835 -5.49536e-05 0.0208223971 0.8440700027
790295260.0 -0.0038719326 0.163765671 0.0001387326 4.38893e-05 3.6192e-06 -0.0001539056 0.0299205004 0.8438560093
795295230.0 -0.0024667238 0.1639392156 0.0004140629 4.27247e-05 2.98432e-05 5.58958e-05 0.0387849173 0.8426595514
800295200.0 -0.001015707 0.1640222184 0.000222229 -0.0004142211 0.0001765417 6.60869e-05 0.0469884488 0.842603489
805295170.0 0.0008810455 0.1642251051 0.0003043513 -4.87365e-05 0.0002204792 -0.0001147187 0.0548959598 0.8424568551
810295140.0 0.0021605281 0.1644540714 0.0001595113 -6.66853e-05 0.0002711353 -0.0001031012 0.0632291979 0.8415001873
815295110.0 0.0036885438 0.1645850386 0.0001069705 -1.9535e-06 0.0002447954 4.6429e-06 0.0722389007 0.8405835688
820295080.0 0.0051243549 0.1648118528 0.0003375152 -0.0001266646 0.000382486 0.0001058025 0.0801959442 0.8402946929
825295050.0 0.0070911056 0.1646911524 0.0003383175 -6.92827e-05 0.0003077845 -0.0001489123 0.088793763 0.8394516346
830295020.0 0.008354889 0.1651434132 0.0005224268 -5.50313e-05 0.0003590247 -0.0001358885 0.0977247621 0.8381945609
835294990.0 0.0095989511 0.1651231726 0.0004402244 4.348e-05 0.0001648293 -7.88981e-05 0.1050337387 0.8377715177
840294960.0 0.0115058681 0.1652831199 0.0003601389 -3.80567e-05 0.0002067081 -8.02656e-05 0.1140135809 0.8367016223
845294930.0 0.0129214501 0.1653197884 0.0002488698 -1.13717e-05 0.00031395 -0.0002232724 0.1214795353 0.8344539764
850294900.0 0.0145913815 0.165538705 0.0002934658 -0.0002652362 0.0001983134 -0.000199117 0.1299929331 0.8340913595
