!Created with skrf (http://scikit-rf.org).
# Hz S RI R 50.0 
!freq ReS11 ImS11 ReS21 ImS21 ReS12 ImS12 ReS22 ImS22
300000.0 -0.2416296438 -0.0799670261 0.4713669079 0.0539155584 0.4714679491 0.0510863516 -0.2405533887 -0.0885429542
5299970.0 -0.2450586201 0.0067180089 0.4750278404 0.0053956033 0.4748793251 0.004712537 -0.2410755483 0.0077594291
10299940.0 -0.241928229 0.0181889365 0.4765823572 0.0060060328 0.476934833 0.0062977378 -0.2381389825 0.0206371534
15299910.0 -0.2377124492 0.0270619795 0.4803283797 0.00731462 0.4805420285 0.0075360402 -0.2336576223 0.0301095009
20299880.0 -0.2328911181 0.0340794416 0.4853585076 0.0083493275 0.4853182044 0.0081689533 -0.2281798838 0.0379355889
25299850.0 -0.2279738678 0.0402645388 0.4903422334 0.0069351684 0.4902982602 0.0071622513 -0.2221922447 0.0445120548
30299820.0 -0.222708449 0.0450312196 0.4959782205 0.0049692421 0.4957445732 0.005160972 -0.216450765 0.0499352602
35299790.0 -0.217527326 0.0488254687 0.5011627386 0.0013403962 0.5008956184 0.0014819215 -0.2108979717 0.0542455832
40299760.0 -0.2127926229 0.0524970024 0.5060773459 -0.0024403545 0.5059989055 -0.0021496059 -0.2055347464 0.0571192006
45299730.0 -0.2080874753 0.054921359 0.5104929885 -0.0071052858 0.5106478096 -0.0068871888 -0.2004171737 0.0603197726
50299700.0 -0.2039477519 0.0564403809 0.5151394271 -0.0123285318 0.51479899 -0.0122310881 -0.1956302244 0.061922297
55299670.0 -0.1997746223 0.0583202375 0.5184049361 -0.0189559726 0.518762136 -0.0183218466 -0.1916637795 0.0640431513
60299640.0 -0.1960631673 0.0599208505 0.5217691905 -0.0248608366 0.521980852 -0.0244718752 -0.1872701681 0.0649607454
65299610.0 -0.1929908987 0.060760696 0.5250241957 -0.0313281874 0.5249909509 -0.0311119639 -0.1841691433 0.0663061474
70299580.0 -0.1898737917 0.0619690794 0.5275055177 -0.037850969 0.5273757157 -0.0376188314 -0.1806532647 0.0672324155
75299550.0 -0.1870607818 0.0630089788 0.528950769 -0.0445987687 0.5288648572 -0.0446997328 -0.1777742115 0.068284231
80299520.0 -0.1845105565 0.0634762363 0.530924426 -0.0515076765 0.5310781162 -0.0512892898 -0.1750088828 0.0692000231
85299490.0 -0.18222576 0.0643233435 0.5322287628 -0.0581447627 0.5320502245 -0.0577415898 -0.1725540149 0.0694579448
90299460.0 -0.1802912237 0.0647232382 0.5328704799 -0.0654171015 0.5338639802 -0.0650907501 -0.1702750544 0.0706311223
95299430.0 -0.1780127643 0.0652317257 0.5344261835 -0.0719694983 0.534326817 -0.071962191 -0.1681246529 0.0712004486
100299400.0 -0.1763726966 0.0662924082 0.5342112511 -0.0786300307 0.5342512018 -0.0788416685 -0.16588002 0.0716140504
105299370.0 -0.1750228118 0.0666988786 0.5350707199 -0.0857883487 0.5348270529 -0.0859896677 -0.1641667445 0.0725526618
110299340.0 -0.1732369527 0.0674405298 0.5347840074 -0.0926076357 0.5349782108 -0.0924918638 -0.1628975432 0.0730615701
115299310.0 -0.1719212031 0.0682104628 0.5350975383 -0.0994351575 0.5348980801 -0.0994378238 -0.1613194248 0.0740755331
120299280.0 -0.1707863756 0.0685399944 0.534572718 -0.1062430446 0.5349857627 -0.1063561468 -0.1595408075 0.074675717
125299250.0 -0.1695573811 0.0691071544 0.534371841 -0.1128744631 0.5346599787 -0.1128016496 -0.1589624016 0.0755252819
130299220.0 -0.1684857839 0.0702028346 0.5334917469 -0.1199142905 0.5334292887 -0.1197188505 -0.1571714928 0.0760999464
135299190.0 -0.167520497 0.0711852968 0.53346993 -0.1260811892 0.532953137 -0.1259980807 -0.1558576405 0.0770528617
140299160.0 -0.1665785304 0.0720291634 0.53221355 -0.1329212627 0.5325976889 -0.1332085396 -0.1548862253 0.0784177416
145299130.0 -0.1659477705 0.0730065147 0.5318003933 -0.139693987 0.5310500303 -0.139341122 -0.1541662385 0.079141294
150299100.0 -0.1646702896 0.0737560778 0.5301551421 -0.1455269516 0.5304114311 -0.1453465007 -0.1529570985 0.0803903278
155299070.0 -0.1641311517 0.0748961778 0.5291209251 -0.1529031587 0.5288699571 -0.1527585488 -0.1516620234 0.0815572108
160299040.0 -0.1631477953 0.0759394693 0.5277600433 -0.1588360768 0.5271135602 -0.1591649479 -0.1511291811 0.0823618351
165299010.0 -0.1623316188 0.0772139798 0.526234243 -0.165684215 0.5262033994 -0.165464895 -0.1496049415 0.0838176309
170298980.0 -0.1614209569 0.0777078612 0.5245900658 -0.1716278201 0.5248388919 -0.1717283582 -0.148843623 0.0849053005
175298950.0 -0.1608947012 0.078969163 0.5235377382 -0.1780175174 0.5226207319 -0.1783050015 -0.1480952919 0.0859628547
180298920.0 -0.1604094033 0.0801138714 0.5215305521 -0.1846806383 0.5212593045 -0.1841316251 -0.1468477796 0.0874982004
185298890.0 -0.1589753532 0.0810458355 0.5190260522 -0.1902382923 0.5191951885 -0.1900338381 -0.1459774689 0.0884521593
190298860.0 -0.1586029754 0.0824055499 0.5177392487 -0.1967643041 0.5180571062 -0.196348748 -0.145286596 0.0897064783
195298830.0 -0.1578602397 0.0831319699 0.5156315304 -0.2026406969 0.5155782557 -0.2024221477 -0.1441830683 0.0910065629
200298800.0 -0.1571284506 0.0846823625 0.5128387202 -0.2088322802 0.5133070882 -0.2092391297 -0.1434243333 0.0922689366
205298770.0 -0.1562360151 0.0858202229 0.5107147975 -0.2151494476 0.5110456972 -0.2150091893 -0.1422474277 0.0929763505
210298740.0 -0.1555482831 0.0870254077 0.5086490052 -0.2205077311 0.5088305156 -0.2205893752 -0.1412132488 0.0947955719
215298710.0 -0.155378092 0.0882460673 0.5065537306 -0.227071066 0.5066945353 -0.2271190941 -0.1407328002 0.0963033492
220298680.0 -0.1539578471 0.0892143835 0.503693628 -0.2324963279 0.504158194 -0.2326649953 -0.1398790876 0.0972258085
225298650.0 -0.1537900205 0.090467967 0.5016773303 -0.2386410454 0.5018679339 -0.2385212157 -0.1389630972 0.09865227
230298620.0 -0.1528855198 0.0921684334 0.4992084135 -0.244074249 0.499512484 -0.244195688 -0.1376071537 0.0994658964
235298590.0 -0.1516674713 0.0936302053 0.4962531748 -0.250213647 0.4963923112 -0.2496666262 -0.1367464311 0.1013889335
240298560.0 -0.150925028 0.0947178868 0.4939740206 -0.2561771876 0.494058575 -0.2560860341 -0.1358716154 0.103191797
245298530.0 -0.1504773954 0.0962795177 0.4915257403 -0.261393234 0.4912981659 -0.2615553121 -0.1347414403 0.1038699451
250298500.0 -0.1492259593 0.0975278678 0.4872456336 -0.2672991022 0.4878096667 -0.2670735904 -0.1338652261 0.1055443952
255298470.0 -0.1483397459 0.0983871127 0.4849710508 -0.272498568 0.4851656002 -0.2721912464 -0.1327496118 0.1067873673
260298440.0 -0.1478321704 0.0997324738 0.4823915714 -0.2781070798 0.4824608315 -0.2778474168 -0.1312799782 0.1082550192
265298410.0 -0.1465250884 0.101783632 0.478946883 -0.2839275545 0.4797827003 -0.2833617886 -0.1305818251 0.1098051014
270298380.0 -0.1460425655 0.1030986792 0.4762094912 -0.289126826 0.4765588394 -0.2892212452 -0.1296542633 0.1111493924
275298350.0 -0.1449811259 0.1041267841 0.473321418 -0.2944445192 0.4736424026 -0.2945617449 -0.1281650283 0.1124885318
280298320.0 -0.143971265 0.1057719015 0.4702566444 -0.3001024176 0.4700987002 -0.2999030002 -0.1266464737 0.1139687781
285298290.0 -0.143299713 0.1071496037 0.4669520282 -0.3052716448 0.4667823505 -0.3053314805 -0.125698905 0.1152551154
290298260.0 -0.1419889552 0.1086251047 0.4633523413 -0.3102031497 0.4633520054 -0.3109463524 -0.1243259643 0.1171225498
295298230.0 -0.1409802325 0.1095464156 0.4603652738 -0.3155401759 0.459893472 -0.3153717287 -0.1228304729 0.1180454635
300298200.0 -0.140445966 0.1110518152 0.4566864396 -0.3206705313 0.4572999185 -0.3212788728 -0.1219318208 0.1193432097
305298170.0 -0.1390991635 0.1121883946 0.4531368881 -0.3267165924 0.4531395005 -0.3262711421 -0.1201625043 0.1204927401
310298140.0 -0.138173945 0.1135416947 0.4495675907 -0.3313750638 0.4497676921 -0.3313527224 -0.1191995822 0.1221729525
315298110.0 -0.1370841797 0.1146602604 0.4461376946 -0.3362203594 0.4459638283 -0.336587572 -0.1179419864 0.1228780254
320298080.0 -0.1359943854 0.1160578438 0.4417708678 -0.3424094407 0.4423090651 -0.3419341457 -0.1168320701 0.1246342836
325298050.0 -0.1351715141 0.1173148954 0.4383777105 -0.3470054695 0.4381183634 -0.3471002201 -0.1159256527 0.125778755
330298020.0 -0.1341264882 0.1184524242 0.43400425 -0.35206449 0.434303198 -0.3519160532 -0.1146797865 0.1268316039
335297990.0 -0.1331061638 0.1197382442 0.430287962 -0.3562340046 0.4301012852 -0.3568038125 -0.1139109599 0.128563646
340297960.0 -0.1328846892 0.1212246639 0.4256940373 -0.3614331899 0.4261719771 -0.3614058453 -0.1117868046 0.1299669837
345297930.0 -0.1317268129 0.1230285433 0.4219515942 -0.3665026671 0.4218198898 -0.3662077708 -0.1109104759 0.1308301592
350297900.0 -0.1307563553 0.1238148676 0.4174497185 -0.3705955487 0.4176641747 -0.370948058 -0.1098486572 0.132965806
355297870.0 -0.1291247656 0.1258544503 0.4135000145 -0.375423931 0.4140663088 -0.3752779125 -0.1085647384 0.1337145561
360297840.0 -0.1282766072 0.1271192703 0.4101162989 -0.3795845391 0.41013622 -0.3798420165 -0.1069353173 0.1353439528
365297810.0 -0.1273026357 0.1284091725 0.4054375855 -0.3846794803 0.4057730265 -0.384595683 -0.1056642011 0.1368983529
370297780.0 -0.1256826376 0.1295272193 0.4011125015 -0.3884732482 0.4016470807 -0.3884815576 -0.1042173767 0.1381137693
375297750.0 -0.1248121366 0.1308871677 0.397219882 -0.3930856522 0.3973683063 -0.3932096457 -0.1027608787 0.1392681257
380297720.0 -0.1235011891 0.1322383513 0.3923652044 -0.3975550663 0.3926877987 -0.3969657865 -0.1016305828 0.1406927798
385297690.0 -0.1224639883 0.1335523242 0.3878994448 -0.4017103552 0.3880344121 -0.4016375063 -0.0995991281 0.1417711173
390297660.0 -0.1210971049 0.1344380088 0.3838652955 -0.4058519604 0.3838311269 -0.4058599779 -0.0984542605 0.1427208594
395297630.0 -0.1199861656 0.1362129283 0.379154282 -0.410113344 0.3794296595 -0.4105050879 -0.0965282839 0.144161491
400297600.0 -0.1187445216 0.1377444352 0.3745772951 -0.4146328387 0.3749240495 -0.4143363561 -0.094974308 0.1454102849
405297570.0 -0.1176648703 0.1388280365 0.3699964873 -0.4182697972 0.3703717758 -0.4180756207 -0.0939235266 0.1466520607
410297540.0 -0.1161997789 0.1399783367 0.3655895612 -0.422323777 0.3657393368 -0.4224215343 -0.091914878 0.1479564692
415297510.0 -0.1143675352 0.1412533596 0.3609839926 -0.4265757791 0.3613379919 -0.4265374272 -0.0902843556 0.1492435767
420297480.0 -0.1134268591 0.1426769221 0.3559605963 -0.4303299419 0.3562179779 -0.430623375 -0.0889378965 0.1501191028
425297450.0 -0.1122724789 0.1433378999 0.3520086707 -0.4341833855 0.3518089443 -0.4343682734 -0.0873780471 0.151607057
430297420.0 -0.1108509092 0.1445360756 0.3470179129 -0.4377373292 0.3470134003 -0.4377840835 -0.0860290058 0.1524264232
435297390.0 -0.1096286258 0.1462159976 0.3415418833 -0.441820676 0.3416970436 -0.4418045726 -0.0835548671 0.1536395723
440297360.0 -0.1080215169 0.1473669529 0.3370382193 -0.4453289491 0.3372663127 -0.4457121136 -0.082512946 0.1545286222
445297330.0 -0.1067270041 0.1483768607 0.3328214651 -0.4490609676 0.3325612276 -0.4486139142 -0.0806760601 0.1550416966
450297300.0 -0.1052953267 0.1494633039 0.3269866652 -0.4526970045 0.3271622573 -0.4529172395 -0.0790520785 0.1562125199
455297270.0 -0.1038874121 0.1508372634 0.3223359953 -0.4565681145 0.3227369153 -0.4562711825 -0.0770957049 0.1574800603
460297240.0 -0.1025624361 0.1520419093 0.3173723603 -0.4597891087 0.3176361631 -0.4598549077 -0.0756961033 0.1588904816
465297210.0 -0.1009557051 0.1531480074 0.312536104 -0.463194939 0.312374123 -0.4635192072 -0.0737236003 0.1594120031
470297180.0 -0.0994194237 0.1538953775 0.3066920935 -0.46641596 0.3076573765 -0.4664890799 -0.0718848925 0.1608116347
475297150.0 -0.0980080723 0.1547470523 0.3020646968 -0.4691860061 0.3024187113 -0.4695740406 -0.0699692771 0.1612116647
480297120.0 -0.0963521051 0.1562599498 0.2969427958 -0.4729748539 0.2970938226 -0.4736326979 -0.0678119608 0.1627170889
485297090.0 -0.0951201377 0.1574723194 0.2920027626 -0.4756080373 0.291802535 -0.4758767244 -0.0663232597 0.1632969764
490297060.0 -0.0936053011 0.1586657943 0.2867073534 -0.4795670074 0.2870410649 -0.4792169921 -0.0646410686 0.1644571734
495297030.0 -0.0921248245 0.1595333684 0.2811723841 -0.4826228796 0.2820521949 -0.4822995048 -0.0629348127 0.1653185194
500297000.0 -0.0903915047 0.1604846773 0.2758132042 -0.4853586789 0.2757662721 -0.4850277096 -0.0610446101 0.1664253486
505296970.0 -0.0887429619 0.1614852621 0.2704911952 -0.488338295 0.2703633435 -0.4881939743 -0.0592464906 0.1666583565
510296940.0 -0.0874086235 0.1626904113 0.2650006574 -0.4911455545 0.2654478248 -0.4916567411 -0.0571418232 0.1680862437
515296910.0 -0.085820204 0.1635959611 0.2598383532 -0.4941433228 0.2600608369 -0.4940457842 -0.0553157499 0.1686005402
520296880.0 -0.0842982335 0.1646014238 0.2544975294 -0.4973701509 0.2546279186 -0.4969320857 -0.0536338215 0.1690217817
525296850.0 -0.0826057218 0.1651093414 0.2490416294 -0.4994186268 0.2496468505 -0.4995787676 -0.0519455891 0.1699103362
530296820.0 -0.0809183976 0.1664655176 0.2436248534 -0.5024336381 0.2440658419 -0.5021227631 -0.0502318072 0.1708027194
535296790.0 -0.0795960539 0.1673561472 0.2384947713 -0.5045898416 0.2384311038 -0.5041469358 -0.0483743834 0.1713055213
540296760.0 -0.0781118022 0.1684216427 0.2327522045 -0.5079074311 0.2329284113 -0.5075678351 -0.046546212 0.1722087147
545296730.0 -0.0762052311 0.1692246731 0.226883933 -0.5095412789 0.2273053383 -0.5097913147 -0.0446380214 0.1727930349
550296700.0 -0.0744614835 0.1700282935 0.2217670837 -0.5120180206 0.221811966 -0.5125168997 -0.0426048337 0.1737256777
555296670.0 -0.0729681291 0.1706305776 0.216165948 -0.5147222638 0.2163615361 -0.5142150405 -0.0406903187 0.1740717719
560296640.0 -0.0709589607 0.1720912488 0.2106999004 -0.5166990818 0.2104953247 -0.5168694959 -0.0384784007 0.1745497977
565296610.0 -0.0698812574 0.1724180558 0.2044468751 -0.5190838586 0.205107836 -0.5189097389 -0.0367861219 0.1748683958
570296580.0 -0.0683441561 0.1734819695 0.1991625076 -0.5217283437 0.1988066277 -0.521556351 -0.0349880043 0.1761647522
575296550.0 -0.0666935286 0.1743017177 0.1936034539 -0.5235772699 0.1936191091 -0.5234568112 -0.0326379785 0.1762115465
580296520.0 -0.064721773 0.1749807353 0.1877356712 -0.5258398646 0.1880079317 -0.5258483041 -0.0309943209 0.176338732
585296490.0 -0.063121497 0.1751969446 0.1825344955 -0.5268264305 0.1824066481 -0.5278730425 -0.0288198118 0.1773366778
590296460.0 -0.0609270813 0.176411348 0.1766257305 -0.5287040587 0.1767425457 -0.5294469416 -0.0275428306 0.1780180075
595296430.0 -0.0593568816 0.1770027312 0.1701996722 -0.5312657085 0.1704446025 -0.5309978058 -0.0251178207 0.1780808812
600296400.0 -0.0579343909 0.1778372091 0.1648572457 -0.5332223543 0.1650127958 -0.5327065637 -0.0235566295 0.1784532346
605296370.0 -0.0564878526 0.1784928023 0.159163155 -0.5346071052 0.1594754828 -0.5349654376 -0.0210596156 0.1789756623
610296340.0 -0.0545080759 0.1790205115 0.153134483 -0.5359520645 0.1535350573 -0.5362479205 -0.0189376811 0.1791750473
615296310.0 -0.0523996461 0.1796318307 0.147160232 -0.5379149938 0.1473797681 -0.5383335138 -0.0169609599 0.1797302685
620296280.0 -0.0509614662 0.1800763428 0.1418681055 -0.5392472196 0.1420991683 -0.5392530607 -0.0153686451 0.1801340789
625296250.0 -0.0493981384 0.1808879263 0.1359656628 -0.5411154616 0.1358482917 -0.5411996315 -0.0125819645 0.1806791749
630296220.0 -0.0470936028 0.1817584068 0.1295908554 -0.5427279813 0.1299453848 -0.5423564303 -0.0108948631 0.1809766408
635296190.0 -0.0462160786 0.1822502659 0.1241240198 -0.5434832499 0.1241845091 -0.5437083888 -0.0091205038 0.1810824808
640296160.0 -0.0439728515 0.1828370876 0.118273198 -0.5448510468 0.1187689571 -0.5452555184 -0.0067484176 0.1812014081
645296130.0 -0.0418723726 0.1838111116 0.112108447 -0.5460313788 0.1128650494 -0.545994959 -0.0049303785 0.1817826827
650296100.0 -0.0402114332 0.1839407056 0.1063859471 -0.5471162319 0.1060730491 -0.5473463429 -0.0025797662 0.1815734445
655296070.0 -0.038825248 0.1846026705 0.100475894 -0.5486151837 0.1006911179 -0.5482415787 -0.0008006848 0.1820702829
660296040.0 -0.0370844155 0.1846425272 0.0946284609 -0.5493808969 0.0947049842 -0.5495664672 0.0014970279 0.1820149828
665296010.0 -0.03492861 0.1852468767 0.0883163269 -0.5500121259 0.0885867538 -0.5506239949 0.0037225743 0.1826262571
670295980.0 -0.0338975374 0.1859771733 0.0826702674 -0.5508889299 0.0826331202 -0.5514965314 0.0051988387 0.1822867383
675295950.0 -0.0317120913 0.1866572398 0.0769484336 -0.5517898343 0.0769698537 -0.5517177705 0.0070747029 0.1827390609
680295920.0 -0.0299125664 0.1866352153 0.0705852124 -0.5523146563 0.070346419 -0.5530609509 0.0092878279 0.1833717697
685295890.0 -0.0279370915 0.1878699483 0.0644932999 -0.5537697206 0.0647829657 -0.553592631 0.0112731026 0.1827568639
690295860.0 -0.0258479396 0.1877541127 0.0590239105 -0.5536090198 0.0590371554 -0.5543943212 0.0131727537 0.1836881005
695295830.0 -0.0244436163 0.1881817269 0.0529957313 -0.5545530139 0.0526382768 -0.5544305666 0.0151784425 0.183044232
700295800.0 -0.0224772553 0.1879983188 0.0462116149 -0.555133704 0.0463605581 -0.5548947083 0.0170595146 0.1832815416
705295770.0 -0.0208051494 0.1892684018 0.0406430897 -0.5555158326 0.0414270765 -0.5556874742 0.0190254726 0.1831647058
710295740.0 -0.0188005895 0.1891285137 0.0349332709 -0.5563027272 0.0351843506 -0.5565865817 0.0212186966 0.1827994183
715295710.0 -0.0174595225 0.1894300747 0.0291956495 -0.5565290257 0.0287997408 -0.556582621 0.023426522 0.1827631641
720295680.0 -0.0151941831 0.1896743625 0.02307766 -0.5568169577 0.0234494198 -0.5566533453 0.0253432536 0.1831064026
725295650.0 -0.0132744525 0.1899349003 0.0168611828 -0.5563541357 0.0171822242 -0.5569053644 0.0267545558 0.1827331491
730295620.0 -0.0114496717 0.1906132418 0.0109212511 -0.5563894017 0.0112667663 -0.557117251 0.0288669098 0.1822523276
735295590.0 -0.0094937662 0.1907235641 0.0051261757 -0.5572723053 0.0050259647 -0.5570382643 0.0310502112 0.1819337257
740295560.0 -0.0079897875 0.1909463141 -0.0011155032 -0.556540748 -0.0009058628 -0.5571918012 0.0338918102 0.1820977538
745295530.0 -0.0060497608 0.1914690011 -0.0072976608 -0.5568818782 -0.0073842734 -0.556851396 0.0353480872 0.1817555502
750295500.0 -0.0041978409 0.1914680247 -0.0129983258 -0.5564275962 -0.0128794306 -0.5570011185 0.0372133453 0.1814711968
755295470.0 -0.002180271 0.1914199708 -0.0191255915 -0.5565486715 -0.019007846 -0.5570039053 0.0398463262 0.1808508424
760295440.0 -0.0005609276 0.1917307196 -0.0250497143 -0.5565007085 -0.0251107361 -0.5568163289 0.0416570204 0.1808629443
765295410.0 0.0013831715 0.1921041256 -0.0310365307 -0.5561032162 -0.0317449388 -0.5559106049 0.0438265206 0.1809547988
770295380.0 0.0029865275 0.1919389616 -0.0372831765 -0.5555213563 -0.0370225125 -0.5555361578 0.0455767165 0.180320375
775295350.0 0.0047916858 0.1917415231 -0.0432057498 -0.5548915591 -0.0426122679 -0.5549685534 0.0470300986 0.1801823086
780295320.0 0.0069324587 0.19207732 -0.0487967905 -0.5539170832 -0.0482800959 -0.5543616231 0.0490760227 0.1791277582
785295290.0 0.0083481757 0.1917168104 -0.0548942899 -0.5537958609 -0.054754481 -0.554096597 0.0518045902 0.1793385565
790295260.0 0.0107843286 0.1923011463 -0.0608018219 -0.5532502861 -0.0599363083 -0.5527310539 0.0538504051 0.1785748852
795295230.0 0.0125612407 0.1921731643 -0.0664352459 -0.5526313262 -0.0666598268 -0.5527372445 0.055832392 0.1783662977
800295200.0 0.0142590395 0.1924761711 -0.0730421238 -0.5512693038 -0.0728880506 -0.5518032247 0.0578834088 0.177995201
805295170.0 0.0163664639 0.1919850879 -0.0786110112 -0.5505248936 -0.0787435388 -0.551222799 0.0596148157 0.17756993
810295140.0 0.0180460551 0.1920722488 -0.0841458978 -0.5497339681 -0.0844747415 -0.5503193791 0.0619783795 0.17736371
815295110.0 0.0201383382 0.1917612574 -0.0903535673 -0.5488578372 -0.0900553245 -0.5490961855 0.063638164 0.1767178133
820295080.0 0.0217119508 0.1923976223 -0.0965405777 -0.5478854893 -0.0957600445 -0.5478438124 0.0654136161 0.1757362294
825295050.0 0.0241333608 0.191700824 -0.1017838782 -0.5466345555 -0.1020439358 -0.5470175319 0.0679135459 0.1757450666
830295020.0 0.0257537192 0.1919997907 -0.1086247335 -0.545330986 -0.1080274956 -0.5455112098 0.0700336131 0.1748643491
