!Created with skrf (http://scikit-rf.org).
# Hz S RI R 50.0 
!freq ReS11 ImS11 ReS21 ImS21 ReS12 ImS12 ReS22 ImS22
300000.0 -0.2362510354 -0.1142120717 0.4668582238 0.0754515202 0.4707639293 0.0776783733 -0.2370263962 -0.1196872032
5299970.0 -0.2407224382 0.0067139087 0.4752947289 0.0056606868 0.4751854798 0.0057214472 -0.2443297661 0.0051668119
10299940.0 -0.2372532881 0.0199239439 0.4770261593 0.0064405353 0.4770685983 0.0063283039 -0.2416376324 0.0175185833
15299910.0 -0.2327680167 0.0297615568 0.4803702541 0.0077922839 0.4802471263 0.0078324082 -0.237337681 0.0261923203
20299880.0 -0.2275241038 0.0377196644 0.4852681605 0.0079525402 0.4853256019 0.0083152965 -0.2326421091 0.0340511344
25299850.0 -0.221664931 0.0444683296 0.4903827628 0.0069353754 0.4904104168 0.0070681954 -0.2274780688 0.0399664853
30299820.0 -0.2160605983 0.0495110453 0.4960816678 0.0050697694 0.4957720487 0.0050475938 -0.2224674648 0.0449602633
35299790.0 -0.2098673446 0.0540807692 0.5010267946 0.0014492755 0.5008758119 0.0020631257 -0.2170597599 0.0486417702
40299760.0 -0.2045717603 0.0569661607 0.5064753694 -0.0019722449 0.5061314834 -0.0022017159 -0.2124661943 0.052113463
45299730.0 -0.1994751522 0.0601839333 0.5111277897 -0.0072664344 0.5110292709 -0.0070415849 -0.2078375225 0.0545230788
50299700.0 -0.1945317258 0.062175827 0.5150759495 -0.0127957607 0.5151582537 -0.0127315412 -0.2033236511 0.0568579431
55299670.0 -0.1904860609 0.0639446917 0.5184570396 -0.0188210971 0.519089839 -0.018591024 -0.1998678502 0.0581710941
60299640.0 -0.1862932268 0.0648217381 0.5214933455 -0.0250113168 0.5219614163 -0.0247280389 -0.195963618 0.0596250488
65299610.0 -0.1830108485 0.0665556985 0.5251139969 -0.0309269409 0.5253127587 -0.0311947753 -0.192804344 0.0610375143
70299580.0 -0.1796235132 0.0670639947 0.5271953503 -0.0375993189 0.5272164717 -0.0376198692 -0.1899730836 0.0616924048
75299550.0 -0.1765856762 0.0681025676 0.5293292112 -0.0444850864 0.5292389061 -0.0442924471 -0.1872375892 0.062740986
80299520.0 -0.1740736371 0.0692349686 0.5311708037 -0.051615662 0.5313540425 -0.0512300201 -0.1847971362 0.0629925215
85299490.0 -0.171478686 0.0692257084 0.5326509579 -0.0584461758 0.5323782614 -0.0583131364 -0.1827495071 0.063851824
90299460.0 -0.1692819731 0.0703936967 0.5334896026 -0.0653173201 0.5335947752 -0.0654659686 -0.1801086911 0.064585627
95299430.0 -0.1669407766 0.0712655714 0.5344448075 -0.0725430936 0.5344802152 -0.0722458612 -0.178350532 0.0653421712
100299400.0 -0.1652553692 0.0716156417 0.5347423314 -0.0793595591 0.5345950164 -0.0792885312 -0.1769569593 0.0657376458
105299370.0 -0.1632791695 0.0725882728 0.5347639986 -0.0857825294 0.5350534534 -0.0863230358 -0.1751235528 0.0665334912
110299340.0 -0.1618108932 0.0729092076 0.5348041403 -0.0924569101 0.5353317181 -0.092828798 -0.1739980425 0.0671471545
115299310.0 -0.1602959375 0.0735341281 0.5350117404 -0.0993755791 0.5352126578 -0.0995238376 -0.1721799666 0.0671569536
120299280.0 -0.1592561386 0.0744717456 0.53514021 -0.1064594562 0.5346432661 -0.1068248677 -0.1708615853 0.0679879235
125299250.0 -0.1578815178 0.0752109642 0.5341860198 -0.1130132926 0.5345122158 -0.1133379452 -0.170063747 0.0686721122
130299220.0 -0.156322059 0.0759774267 0.5334025963 -0.1193608622 0.5337914112 -0.1199123944 -0.1688740353 0.0696848697
135299190.0 -0.1549342636 0.0766691839 0.532710687 -0.1261765012 0.5328102374 -0.1263690708 -0.1680332437 0.0705009896
140299160.0 -0.1544722709 0.0781891537 0.5323425539 -0.1330865789 0.5326230372 -0.1331107279 -0.1668674 0.0711558387
145299130.0 -0.1531357208 0.0790808722 0.5315533084 -0.1397447534 0.531236679 -0.1392390635 -0.1663742587 0.0716172824
150299100.0 -0.1519096734 0.0799444905 0.5303679423 -0.1462637125 0.5301231607 -0.1462035859 -0.1651268824 0.0723453524
155299070.0 -0.151042895 0.0811878046 0.5292572529 -0.1534124176 0.5295448056 -0.1529873737 -0.1647731184 0.0733014541
160299040.0 -0.1499678929 0.0821701745 0.5273851612 -0.1589354796 0.5278179541 -0.1590196642 -0.1635591977 0.0747274907
165299010.0 -0.1491652731 0.0831482656 0.5263118486 -0.1655839247 0.5267074704 -0.1656231538 -0.1630985009 0.0752961715
170298980.0 -0.1482485732 0.0844371018 0.5240493848 -0.1719194953 0.524457391 -0.1718740286 -0.1619635651 0.0764726534
175298950.0 -0.1472274776 0.0855124618 0.5232660247 -0.1780302486 0.5233790714 -0.178387453 -0.1611381256 0.0777273723
180298920.0 -0.1460931162 0.0866856862 0.5216181343 -0.1849065317 0.5217414474 -0.1841582996 -0.1603561091 0.0787822625
185298890.0 -0.1451088393 0.0881256914 0.5192699857 -0.1910762433 0.5196687239 -0.1905741098 -0.1598898109 0.0796612432
190298860.0 -0.1443231284 0.0893023154 0.5175809799 -0.1970037312 0.5180836695 -0.1966026686 -0.1585665746 0.0804203823
195298830.0 -0.1433273536 0.0900088777 0.5156193237 -0.2027553937 0.5157189134 -0.2033746514 -0.1580960461 0.0815758104
200298800.0 -0.1424934412 0.0917154544 0.5137960733 -0.2083742863 0.5135034993 -0.2088613725 -0.1572813131 0.0832298677
205298770.0 -0.1416281832 0.0931000036 0.5117756064 -0.2148656942 0.5115390485 -0.2149644253 -0.1563129702 0.0841240719
210298740.0 -0.140546285 0.0942228232 0.5092808339 -0.2214924758 0.5093574862 -0.2213328096 -0.1556551003 0.0853254058
215298710.0 -0.1396664466 0.0958538206 0.5071343333 -0.2269184384 0.5069715787 -0.2270424832 -0.1552593651 0.0865804993
220298680.0 -0.1385698806 0.0969510245 0.5042792738 -0.2331770213 0.5044731354 -0.2330571504 -0.1542083618 0.0880090903
225298650.0 -0.1375740318 0.0983775093 0.5020144403 -0.2384939969 0.5019926663 -0.2384175158 -0.153422604 0.0891736991
230298620.0 -0.1369288714 0.0998890396 0.4997498406 -0.2447175662 0.4997252189 -0.2445376338 -0.1527182782 0.0903689414
235298590.0 -0.1357347156 0.1009413064 0.4969475257 -0.2501037746 0.4969762985 -0.250636129 -0.1518645899 0.0913648538
240298560.0 -0.1349346684 0.1025368696 0.4942695506 -0.2558494292 0.494389723 -0.2556131908 -0.1507136745 0.0927639396
245298530.0 -0.1334532211 0.1041427282 0.4904452244 -0.2617933533 0.491279498 -0.2615483942 -0.1501559031 0.0944546897
250298500.0 -0.1328848889 0.1050071099 0.4885914241 -0.2667924776 0.4887066173 -0.2667410648 -0.1487154721 0.0954659693
255298470.0 -0.1317550903 0.1067826937 0.4853616234 -0.2728809954 0.4857785773 -0.2727042138 -0.1478734834 0.0965046575
260298440.0 -0.1308523428 0.1079374915 0.4828357387 -0.2779710875 0.4827521401 -0.2782543693 -0.1466177965 0.0982665806
265298410.0 -0.1293583759 0.1099690282 0.4794354967 -0.2840971737 0.4796701836 -0.2840480938 -0.1465020676 0.0994243056
270298380.0 -0.128213987 0.1108703464 0.4762998129 -0.2890599363 0.476597384 -0.2892675749 -0.1453511622 0.1010456099
275298350.0 -0.1273127048 0.1123139339 0.4731441903 -0.2948049921 0.4737334433 -0.295022621 -0.1440465888 0.1023373196
280298320.0 -0.1261738149 0.1137090779 0.4699833557 -0.2993491404 0.4700946244 -0.3001209349 -0.1431510221 0.1036173918
285298290.0 -0.1248884024 0.1154443186 0.4668547029 -0.3049312612 0.4667408566 -0.3051321718 -0.1425262588 0.1050475684
290298260.0 -0.1237075655 0.11674132 0.4639610944 -0.31058389 0.4636270242 -0.3103552405 -0.1409926591 0.1066234776
295298230.0 -0.1223667047 0.1181472713 0.4606286388 -0.3160221414 0.4599284409 -0.3160880345 -0.1399247006 0.1076411568
300298200.0 -0.1209715591 0.1196092732 0.4568373532 -0.3210153472 0.4568820273 -0.3211132787 -0.1392689591 0.1092760576
305298170.0 -0.119440001 0.1206249147 0.45361529 -0.3264883001 0.4536033205 -0.3268029854 -0.1374784663 0.1110546549
310298140.0 -0.1179443603 0.1215936282 0.4498484377 -0.3319361095 0.4499922159 -0.3318976557 -0.1368925418 0.1125270719
315298110.0 -0.1172410148 0.1230771866 0.4460616419 -0.3368209796 0.4463199001 -0.336914444 -0.135524409 0.113406148
320298080.0 -0.1159566741 0.1246029229 0.4423932436 -0.3423735157 0.4429060014 -0.3420066506 -0.1349400317 0.1147431257
325298050.0 -0.114708111 0.1255594231 0.4392893526 -0.3472814996 0.4389689567 -0.3473006395 -0.1335549366 0.1162008125
330298020.0 -0.1134544122 0.126877706 0.4339877291 -0.3523601452 0.4346189782 -0.3520788576 -0.1329793531 0.116850435
335297990.0 -0.11207886 0.1281129261 0.4304914153 -0.3572380762 0.4307412892 -0.3570493736 -0.131893504 0.1186062291
340297960.0 -0.1112988925 0.1297979288 0.4261390399 -0.3618469375 0.4268306226 -0.3613553189 -0.1310186273 0.1199590853
345297930.0 -0.1101647045 0.1311660363 0.4225292056 -0.3661433682 0.4221402472 -0.36605846 -0.1298525337 0.1211322294
350297900.0 -0.1083791756 0.1324417331 0.418089208 -0.3704030581 0.4186603794 -0.3711705695 -0.1289569783 0.1230760657
355297870.0 -0.1071727927 0.1337739032 0.4141089085 -0.3753625269 0.4141414936 -0.3758276903 -0.1278499556 0.1244432981
360297840.0 -0.1055673222 0.1349952982 0.4097469633 -0.3801367271 0.4099557696 -0.3803077242 -0.1264872985 0.125952344
365297810.0 -0.1040113402 0.1361854227 0.4054482445 -0.3847737931 0.405943946 -0.384747798 -0.125566 0.1274612479
370297780.0 -0.1027841331 0.1376282233 0.4013982051 -0.3888202358 0.4015804809 -0.3896381224 -0.1239161111 0.1288985071
375297750.0 -0.1013551596 0.1393608464 0.3975843096 -0.3933199378 0.3970245281 -0.3938134919 -0.1229055438 0.1303970714
380297720.0 -0.0996170454 0.1402426243 0.3927996692 -0.397458982 0.392865619 -0.3978129953 -0.1218964861 0.1321350515
385297690.0 -0.0981906441 0.141659764 0.3885204951 -0.4016326683 0.3884451747 -0.4018650543 -0.1208396259 0.1335129932
390297660.0 -0.0967644778 0.1429101325 0.3839263158 -0.4063023756 0.3841799014 -0.406593549 -0.1193308768 0.1342380785
395297630.0 -0.0947136847 0.1440187765 0.3799232984 -0.4107476073 0.3796346203 -0.4102518673 -0.1179007006 0.1360070281
400297600.0 -0.0932468892 0.1455060847 0.374760076 -0.415038148 0.3754020567 -0.4149211605 -0.1171696769 0.1369033301
405297570.0 -0.0917818735 0.1465358034 0.3701615157 -0.4186655897 0.3705866251 -0.4187418542 -0.115808115 0.1387722408
410297540.0 -0.0897923664 0.1474030515 0.3650240147 -0.4227042482 0.3655678638 -0.4229927033 -0.1145393541 0.1399852486
415297510.0 -0.0884815318 0.1490389749 0.3610102857 -0.4265131367 0.3614781359 -0.4267514812 -0.1132202079 0.1415492092
420297480.0 -0.0867957837 0.1497389257 0.3565505014 -0.4309286986 0.3565481618 -0.4306079669 -0.1116740296 0.1421627449
425297450.0 -0.0850352508 0.1507490865 0.3516663561 -0.4343630732 0.3519597168 -0.4344080217 -0.1103811507 0.1438732481
430297420.0 -0.0835969905 0.1521753494 0.346969583 -0.4386508591 0.3471825471 -0.4383098381 -0.1093580457 0.1451014562
435297390.0 -0.0813712408 0.1530141433 0.3420469155 -0.4421160486 0.342366313 -0.4419203676 -0.1076713702 0.1467179195
440297360.0 -0.0796155114 0.1539530159 0.3367439442 -0.4458683734 0.3369665105 -0.4459271771 -0.1067199595 0.1472935302
445297330.0 -0.0780210914 0.1549639648 0.332078048 -0.4496292042 0.3321659778 -0.4495030567 -0.1051697981 0.1486383507
450297300.0 -0.0762516576 0.1560173579 0.3267467026 -0.4531063472 0.3274083921 -0.4532906397 -0.1038106727 0.1500592241
455297270.0 -0.0749067411 0.1570377751 0.322637725 -0.4564196451 0.3226675171 -0.456365432 -0.1019715405 0.1511619322
460297240.0 -0.0733472354 0.1581233607 0.3175761758 -0.4598997187 0.317143539 -0.4600083917 -0.1005136148 0.1526886928
465297210.0 -0.0711542494 0.1589537484 0.3123823906 -0.4632025386 0.3126218448 -0.4634611556 -0.099830848 0.1533856315
470297180.0 -0.0695404424 0.1599957296 0.307485975 -0.4670476536 0.3076606931 -0.4668102384 -0.0984205346 0.1545676903
475297150.0 -0.067801246 0.1604676093 0.3022340298 -0.4700336732 0.3022739635 -0.4699052478 -0.0964081123 0.1560112822
480297120.0 -0.0659412647 0.1613130698 0.2972589276 -0.4732749199 0.2972550594 -0.4730618613 -0.0950395302 0.1573055417
485297090.0 -0.0638343708 0.1622993758 0.291827209 -0.4765062869 0.2922698446 -0.4764210778 -0.0937494472 0.1578407067
490297060.0 -0.0620683467 0.1627726292 0.286362234 -0.4796667645 0.2869197738 -0.4794177412 -0.0922975666 0.1591614863
495297030.0 -0.0606989863 0.1642280182 0.2813914553 -0.4829421932 0.2808132843 -0.4828318065 -0.0905845606 0.1599968172
500297000.0 -0.0581983023 0.1645679725 0.2757493987 -0.4857686221 0.2761146432 -0.4854797011 -0.0892974212 0.1610076834
505296970.0 -0.0566493816 0.1654307858 0.2704867286 -0.4884336068 0.2702780075 -0.4887100882 -0.0883626126 0.1623825512
510296940.0 -0.0549597377 0.1663957478 0.2655471137 -0.4919370179 0.2655953728 -0.4918086641 -0.0859962282 0.1635029746
515296910.0 -0.0532889027 0.1672024298 0.2600233253 -0.4941232888 0.2601663416 -0.4942783578 -0.0846657277 0.1643160596
520296880.0 -0.0510769164 0.1677394769 0.2543631896 -0.496937533 0.254841076 -0.4966439415 -0.0830149599 0.1655281415
525296850.0 -0.0494284871 0.1681980002 0.2491540046 -0.4998396995 0.2494191344 -0.5000386387 -0.0813185636 0.1664459536
530296820.0 -0.0473654648 0.1689940236 0.2437567679 -0.5018863872 0.2437561437 -0.5026917375 -0.0803803397 0.1669798341
535296790.0 -0.0457318434 0.1697811296 0.2386358343 -0.5046177256 0.2386530665 -0.5046634393 -0.078645598 0.1680829217
540296760.0 -0.0438082053 0.1698764627 0.2324345874 -0.5079095173 0.2327306405 -0.5077460921 -0.077177697 0.1691904576
545296730.0 -0.0417320397 0.1710459175 0.2268209853 -0.5096791251 0.2275533881 -0.5101671552 -0.0755779129 0.1696302786
550296700.0 -0.0401009336 0.171450062 0.2216757493 -0.5120624324 0.2221928315 -0.5123593061 -0.0739619709 0.1709795199
555296670.0 -0.0379673692 0.1719003184 0.2167102231 -0.5145358632 0.216709396 -0.5146434182 -0.0725046718 0.1717910144
560296640.0 -0.0363082679 0.1724647869 0.2107790911 -0.516806289 0.2106563908 -0.5166069756 -0.0704909704 0.1725601347
565296610.0 -0.0344894167 0.1731054082 0.2047657892 -0.5187663646 0.2047964378 -0.5193159252 -0.0690951874 0.1731934001
570296580.0 -0.0323061023 0.1733353997 0.1993214911 -0.5208536782 0.1995871249 -0.5217438704 -0.0674066079 0.1746827352
575296550.0 -0.0304094409 0.1743603825 0.1937858743 -0.52280249 0.1938604642 -0.5230349589 -0.0651218824 0.1751270861
580296520.0 -0.0284978865 0.1744985579 0.1885475604 -0.5254099766 0.1881343279 -0.5255798853 -0.0639668609 0.1758422675
585296490.0 -0.0266931053 0.1749945315 0.1830357913 -0.5275797239 0.1824778126 -0.5274019607 -0.0625624752 0.17624253
590296460.0 -0.0249907791 0.1749082356 0.1765422639 -0.5291947019 0.1764419599 -0.5296145697 -0.0602964786 0.1774645412
595296430.0 -0.0228140463 0.1759998618 0.1710862551 -0.531459483 0.1710032557 -0.5314570759 -0.0585725718 0.1780564586
600296400.0 -0.0207659095 0.1762396743 0.1652466421 -0.5330079216 0.1656827248 -0.5333576556 -0.0570137354 0.1791929077
605296370.0 -0.0185645209 0.1768856275 0.1594299957 -0.5346305368 0.1597100944 -0.5347039056 -0.0556014301 0.1796283612
610296340.0 -0.0167929579 0.1772550761 0.1539173177 -0.5362305388 0.1539414456 -0.5367728206 -0.0534924018 0.1808844388
615296310.0 -0.0149309557 0.177725511 0.1478894049 -0.5377640185 0.1476973402 -0.5382400967 -0.0519497864 0.1808564912
620296280.0 -0.0128655755 0.1777092995 0.1423692074 -0.5393569446 0.1419921686 -0.5398437514 -0.0504028216 0.1815212579
625296250.0 -0.0106690876 0.1780294141 0.1360250052 -0.54128352 0.1359684135 -0.5413420594 -0.0484299548 0.1824838143
630296220.0 -0.0089692123 0.1783218204 0.1299101348 -0.5426575745 0.1307247363 -0.5427394483 -0.0470602716 0.1830118259
635296190.0 -0.0069322766 0.1786542339 0.1244342499 -0.5434597361 0.1242711722 -0.5432398618 -0.0455742251 0.1835143495
640296160.0 -0.0048402794 0.1785591791 0.1185548132 -0.5451042872 0.1186784261 -0.5454682497 -0.0429603539 0.1842100331
645296130.0 -0.0030338927 0.1789731549 0.1123343469 -0.546429052 0.1129591396 -0.546586074 -0.0422195051 0.184474149
650296100.0 -0.0011538785 0.1794176563 0.1069500615 -0.5473686504 0.1071884328 -0.547228595 -0.0402470153 0.185456877
655296070.0 0.0009239623 0.1791993022 0.100987815 -0.5483406793 0.1007709215 -0.5483050275 -0.0377434924 0.1859359133
660296040.0 0.0024011522 0.1796832734 0.0954507515 -0.5488593826 0.095222171 -0.5494590117 -0.0365905916 0.1862142678
665296010.0 0.0048007355 0.1795635843 0.0891392936 -0.5503973517 0.0894393332 -0.5503019612 -0.0350093962 0.1872262062
670295980.0 0.0074284839 0.1797009369 0.0834668261 -0.5513421302 0.0834398382 -0.5514464665 -0.033383464 0.1871047807
675295950.0 0.0092401174 0.1798879979 0.0772810156 -0.5521483754 0.0776811543 -0.5525849356 -0.0313151758 0.1881820805
680295920.0 0.0110645997 0.1801605902 0.0712474715 -0.5527559379 0.0711791173 -0.5532387564 -0.0294133415 0.1882616721
685295890.0 0.0131403961 0.1799142399 0.0659000781 -0.5532724347 0.0650256517 -0.5541681074 -0.0275294657 0.1889032593
690295860.0 0.015098429 0.1801022698 0.059533035 -0.5538955866 0.0588787169 -0.5542745661 -0.0256652708 0.1894514841
695295830.0 0.0175868616 0.1798015335 0.0525399856 -0.5547568609 0.0529157104 -0.5551782751 -0.0241774613 0.1898943228
700295800.0 0.019559264 0.1798090429 0.0468075581 -0.5553967816 0.0473081774 -0.5554181293 -0.0220559999 0.1897522397
705295770.0 0.0215101518 0.1799035919 0.040867642 -0.5556473728 0.0416210893 -0.5557460932 -0.0207476464 0.1903052177
710295740.0 0.0235006045 0.1800352321 0.0351471023 -0.5559443564 0.0354469969 -0.5559507018 -0.0191886683 0.1911214324
715295710.0 0.0252830734 0.1797181787 0.0292477904 -0.5566044678 0.0296401325 -0.5567608472 -0.0170866604 0.1909113987
720295680.0 0.0274433312 0.1791269087 0.0231257756 -0.5563897218 0.0232934012 -0.5575304948 -0.0148053335 0.1915090006
725295650.0 0.0294648367 0.1793115558 0.0171035696 -0.5567080342 0.0174813136 -0.556942378 -0.0133531158 0.1918145101
730295620.0 0.0311097421 0.178960535 0.0113723137 -0.5574245437 0.0112450552 -0.5570095527 -0.0110851253 0.1916068566
735295590.0 0.0337356222 0.1790514847 0.0054563366 -0.5570898086 0.0055215061 -0.5574266704 -0.0094981899 0.1920976724
740295560.0 0.0355417564 0.1789180599 -0.0008376594 -0.5567442845 -0.000853598 -0.5567795572 -0.0074960736 0.1921239434
745295530.0 0.0375083864 0.1784791093 -0.0066309035 -0.5569758965 -0.0064760073 -0.5572254132 -0.0061042697 0.1927720189
750295500.0 0.0393615257 0.1782739189 -0.012811209 -0.5565206776 -0.0127336629 -0.5570000058 -0.0041971811 0.1926152926
755295470.0 0.0417423314 0.1780820238 -0.018863323 -0.5564240954 -0.0183870457 -0.5569544667 -0.0023437425 0.1929630265
760295440.0 0.0432523833 0.1776869242 -0.0246094407 -0.5560222823 -0.0249590994 -0.5561428702 -0.0008256614 0.1929618909
765295410.0 0.0454601515 0.1772574774 -0.0302877186 -0.5556818143 -0.0304884488 -0.5565606039 0.0018318518 0.1936100749
770295380.0 0.0477115622 0.1770676035 -0.0363623232 -0.5554204194 -0.0367709415 -0.5557920388 0.0037460303 0.1934895025
775295350.0 0.0493933489 0.1767381127 -0.0425799142 -0.5549116603 -0.0425481291 -0.5550759728 0.0047179634 0.1931742226
780295320.0 0.0517833964 0.1759047322 -0.0483789896 -0.5544942493 -0.0482315643 -0.5547842255 0.007117314 0.1936831386
785295290.0 0.053331213 0.1759550131 -0.0541731258 -0.5536564089 -0.0540881467 -0.5541158357 0.0085391574 0.1936724415
790295260.0 0.0551950522 0.1753667687 -0.0603229783 -0.553529389 -0.0602385925 -0.5536867172 0.0109302764 0.1939570691
795295230.0 0.0572044178 0.1751036152 -0.0658202318 -0.5524565865 -0.0661246337 -0.5523353762 0.01263195 0.1942955355
800295200.0 0.0593488298 0.1745331733 -0.0725621355 -0.552231389 -0.0726002465 -0.5523363317 0.0146927754 0.1937208845
805295170.0 0.0608561849 0.1738003307 -0.078114686 -0.5507841297 -0.0784532015 -0.5511619061 0.015855459 0.193663029
810295140.0 0.0632332126 0.1733805124 -0.0839436185 -0.5503336167 -0.0837775142 -0.5508413136 0.018184357 0.1941048866
815295110.0 0.0650625014 0.1728403738 -0.0902478678 -0.5490688623 -0.0900989817 -0.5493553285 0.0197938797 0.1936085521
820295080.0 0.06702578 0.1721546667 -0.0958384465 -0.5482456219 -0.0961138502 -0.548514872 0.0218656375 0.1937151728
825295050.0 0.0691375806 0.1714807006 -0.1019807477 -0.5465563775 -0.1018600605 -0.5467251127 0.023798598 0.1937601163
830295020.0 0.0709406165 0.1710579985 -0.1078989321 -0.5457135869 -0.108083876 -0.5461058793 0.025401582 0.1935126348
