!Created with skrf (http://scikit-rf.org).
# Hz S RI R 50.0 
!freq ReS11 ImS11 ReS21 ImS21 ReS12 ImS12 ReS22 ImS22
300000.0 -0.0957691518 -0.0848123671 0.6239872444 0.0776405997 0.6233890064 0.0822008625 -0.0964396998 -0.0905693652
5299970.0 -0.1004133889 0.0129015906 0.6307279692 0.0103637209 0.6304900952 0.0110936568 -0.102060742 0.0120430563
10299940.0 -0.0953161136 0.0298273875 0.6346113423 0.0153558322 0.634404272 0.0160438448 -0.0971728819 0.0290936058
15299910.0 -0.0886392685 0.0431627512 0.6401630491 0.0203066545 0.6402010113 0.0209698302 -0.0902063384 0.0422264352
20299880.0 -0.0794760058 0.0542751522 0.649061096 0.0240655233 0.6490615902 0.0242297099 -0.0816332917 0.0532729433
25299850.0 -0.0697571732 0.0627946883 0.6579444353 0.0251016312 0.6579058021 0.0250746997 -0.0726369583 0.0617784279
30299820.0 -0.0594668677 0.0691352935 0.6680951292 0.0249506316 0.6673615136 0.0245756087 -0.0626432077 0.0687791772
35299790.0 -0.0494959658 0.0743512775 0.6771777753 0.0219409413 0.6775312337 0.021917437 -0.0523993787 0.0734712751
40299760.0 -0.0397381512 0.0772202657 0.6867854541 0.0175702827 0.6866246957 0.0175958621 -0.0436684629 0.0770845633
45299730.0 -0.03044195 0.0793519468 0.6957867579 0.011555874 0.6955412264 0.0119774631 -0.0340018472 0.0791516277
50299700.0 -0.0216645087 0.079777957 0.7032673632 0.0046314851 0.7037822952 0.0044541605 -0.0256217667 0.0803599007
55299670.0 -0.0140145727 0.0800143758 0.7101860159 -0.0031931392 0.7111308155 -0.0025230374 -0.0175552783 0.080051385
60299640.0 -0.0066010769 0.0789080056 0.7172697072 -0.0115959722 0.717250003 -0.0112060181 -0.0102600585 0.0797502774
65299610.0 -0.0001045394 0.0782284552 0.7233837896 -0.0197231641 0.724089109 -0.0198414281 -0.0037418825 0.0786445425
70299580.0 0.0059251774 0.0757913489 0.7286518175 -0.029079234 0.728616646 -0.0295248709 0.0024034938 0.077184813
75299550.0 0.0115891137 0.0743005711 0.7325618334 -0.0387131934 0.7329988562 -0.0393540114 0.0081199869 0.0757423588
80299520.0 0.0160615044 0.0719724483 0.7374877486 -0.0488150749 0.7377223351 -0.0483843683 0.0127531621 0.0730886224
85299490.0 0.0208254853 0.0696048549 0.7409146373 -0.0591531266 0.7404230068 -0.0590290679 0.0175242079 0.0708434456
90299460.0 0.0246210745 0.0675907045 0.7435044402 -0.0685229134 0.7440278371 -0.0689248607 0.0221218732 0.068676983
95299430.0 0.0282931003 0.0652833486 0.7458057501 -0.0790766709 0.7459912294 -0.0789060894 0.0253886612 0.0662844517
100299400.0 0.0315019375 0.062695127 0.7474119075 -0.0895075057 0.7474344547 -0.0893827742 0.0287582322 0.0638616304
105299370.0 0.0344978155 0.0600967048 0.7489856918 -0.0990217408 0.7491210404 -0.0994522456 0.0320604963 0.0619055287
110299340.0 0.0370921582 0.0575051664 0.7494178002 -0.1088599096 0.7500973842 -0.1096391827 0.034590454 0.0591644616
115299310.0 0.0396197685 0.054874621 0.7503328096 -0.1193988626 0.7510677968 -0.119083995 0.037193796 0.0563187473
120299280.0 0.0413076607 0.0525943973 0.751441288 -0.1295114476 0.751311279 -0.1297610981 0.0388416252 0.0541749529
125299250.0 0.0431636813 0.0504008668 0.7521412362 -0.1393240617 0.7518127502 -0.1392992647 0.0414052295 0.0514221202
130299220.0 0.0451658599 0.047898657 0.7514667249 -0.1488179892 0.7515620336 -0.1494572828 0.043208383 0.0493241139
135299190.0 0.046843205 0.0453092912 0.7512554413 -0.1585389589 0.7506637756 -0.1591117235 0.0446354845 0.0476894421
140299160.0 0.0476870571 0.0440248257 0.7507891227 -0.1688929886 0.7511857592 -0.1691229317 0.0462954355 0.0453191183
145299130.0 0.0491231384 0.0417102739 0.7505696752 -0.1785173595 0.7496512721 -0.1784085727 0.0472312794 0.0426627703
150299100.0 0.0507926127 0.0397809773 0.7490501625 -0.188048049 0.7489293836 -0.188167429 0.0487421439 0.0407478712
155299070.0 0.051098901 0.0384202018 0.7478199089 -0.1979931765 0.7477600828 -0.1983248178 0.0496018701 0.038669248
160299040.0 0.0525154847 0.036036053 0.7463958996 -0.2065965916 0.7464017765 -0.2070596156 0.0508028175 0.0371706867
165299010.0 0.0529686303 0.0341987208 0.7450000825 -0.2168044658 0.7450090183 -0.2167538057 0.0515002432 0.0348546824
170298980.0 0.0534477119 0.0327321444 0.7423812637 -0.225626443 0.7427096452 -0.2260616578 0.0526362584 0.0326840833
175298950.0 0.054350532 0.0305952114 0.7413541457 -0.2352666535 0.7413027976 -0.2352609351 0.0533439012 0.0310190759
180298920.0 0.0551785735 0.0290748248 0.7391841912 -0.2445581251 0.7393975146 -0.2444828043 0.0536839391 0.0299259427
185298890.0 0.0558413931 0.0271601839 0.7365283813 -0.2543502697 0.7369811944 -0.25336799 0.05438492 0.0276667941
190298860.0 0.0561313 0.0257488096 0.734243525 -0.2631823015 0.7344679476 -0.2630616337 0.0555324171 0.0261123859
195298830.0 0.0564312035 0.0238139872 0.7317642014 -0.2714581377 0.7320092488 -0.272801212 0.0558993995 0.0245581863
200298800.0 0.057028501 0.0225784537 0.7295656986 -0.280421503 0.7289434303 -0.2801691142 0.0565347239 0.0230928131
205298770.0 0.0569204291 0.0212349904 0.7268443788 -0.2898057419 0.726890925 -0.29000429 0.0565769854 0.0209409704
210298740.0 0.0572182549 0.0197010784 0.723919578 -0.2986156754 0.723450926 -0.2984435787 0.056795622 0.0201643207
215298710.0 0.0578002241 0.0186824511 0.7207941753 -0.3070415151 0.7208506515 -0.3069215971 0.0568137824 0.0182170164
220298680.0 0.0581434143 0.0171537911 0.7174438985 -0.3160308908 0.7175316069 -0.3157030583 0.0574258661 0.0175098823
225298650.0 0.0585494053 0.0160409209 0.7136985766 -0.3238826722 0.7139283339 -0.3239011163 0.057608051 0.0156720788
230298620.0 0.0579635515 0.0149722956 0.7112108393 -0.3329310043 0.71122717 -0.3327432047 0.0579541768 0.0144095726
235298590.0 0.0585921258 0.0129859187 0.7074162164 -0.3407448073 0.707689191 -0.3417732945 0.0579877256 0.0128500352
240298560.0 0.0581622576 0.0120031063 0.7037704299 -0.3491357162 0.7037787725 -0.3492028513 0.0582059194 0.0115822131
245298530.0 0.0588066121 0.011092935 0.6994772752 -0.3577894286 0.6995903508 -0.3574454485 0.0581507339 0.0107292322
250298500.0 0.0583720138 0.0096516895 0.6960254553 -0.3656579838 0.6963863433 -0.3658912604 0.0586690336 0.0089006799
255298470.0 0.0583081477 0.0088555282 0.6916149722 -0.3744284685 0.6920127767 -0.3744858788 0.0585983876 0.0074819745
260298440.0 0.0583327745 0.0075863142 0.6885389357 -0.3820063041 0.6885945143 -0.38236502 0.0592730782 0.0070937047
265298410.0 0.059190514 0.0070224599 0.6840256426 -0.391249377 0.6837070887 -0.3907572659 0.0587193867 0.0055254841
270298380.0 0.0591788856 0.0057277039 0.6797096034 -0.3980636658 0.6798153015 -0.3984378253 0.0588129517 0.0050068121
275298350.0 0.0584511538 0.0047401512 0.6750556168 -0.4065980503 0.6760219755 -0.4064714762 0.058723773 0.0036556014
280298320.0 0.0584721465 0.0039704108 0.6708541505 -0.4137489972 0.6708846933 -0.41448239 0.0592519591 0.0027729136
285298290.0 0.0587341558 0.0032236274 0.6668131278 -0.4217358648 0.6665564438 -0.4223340281 0.0587110599 0.0016583941
290298260.0 0.058914932 0.0017957946 0.662340456 -0.4301763611 0.6624152007 -0.4298148972 0.059380665 0.0008853781
295298230.0 0.0587552116 0.0006922502 0.6579841783 -0.4374726348 0.6574786045 -0.4372103543 0.0595745827 -0.0002850916
300298200.0 0.0591124121 -4.79349e-05 0.6531136502 -0.4450259207 0.6531590544 -0.4454039608 0.0592487081 -0.0013630893
305298170.0 0.0589732077 -0.0014312996 0.6481911306 -0.4530506489 0.6487152381 -0.4530683217 0.0597228428 -0.0020602803
310298140.0 0.0594954415 -0.0023751846 0.6437607739 -0.4604837515 0.6435712761 -0.4609598224 0.0596344692 -0.0027072925
315298110.0 0.0587449392 -0.0033014172 0.6381301228 -0.4682051313 0.6383752618 -0.4684740881 0.0597744796 -0.004662724
320298080.0 0.0586311447 -0.0043569509 0.6332898957 -0.4757963144 0.6332103377 -0.4759379585 0.0593708685 -0.0059611857
325298050.0 0.0581457406 -0.0058470469 0.6283568596 -0.4832529033 0.6281374538 -0.4837922928 0.0593110082 -0.0070754106
330298020.0 0.0578612467 -0.006430337 0.6215258504 -0.490623346 0.6221818192 -0.4907854925 0.0583758745 -0.0081024265
335297990.0 0.0575347823 -0.0077722298 0.6161758684 -0.4979689277 0.6165539491 -0.4978981023 0.0582099459 -0.009053726
340297960.0 0.0565828827 -0.0080060428 0.6103036333 -0.5047828916 0.6110274558 -0.5044203443 0.0570507161 -0.0095173703
345297930.0 0.0561776353 -0.0086351068 0.6051986908 -0.5107231594 0.6046746324 -0.5113660285 0.0573878366 -0.0107918822
350297900.0 0.0565682522 -0.0092795753 0.598546703 -0.5175308192 0.5995533862 -0.5181375022 0.0569573977 -0.0106054214
355297870.0 0.0561594216 -0.0101746579 0.5934529604 -0.524834911 0.5937958808 -0.524765889 0.0563313118 -0.0112231786
360297840.0 0.0559639931 -0.010876006 0.5878140677 -0.5316126818 0.5870159849 -0.5316634369 0.0563383121 -0.0118482184
365297810.0 0.0558520609 -0.0115709548 0.5813889944 -0.5376978143 0.5813689349 -0.5384750278 0.0558998596 -0.0123901915
370297780.0 0.0556499466 -0.0122010584 0.5756191269 -0.5441650457 0.5761873314 -0.5451320392 0.0561197458 -0.0127982032
375297750.0 0.0548999477 -0.0124758376 0.5702461894 -0.5505733165 0.5695937191 -0.5515506706 0.0556835679 -0.013864775
380297720.0 0.0550681638 -0.0140331259 0.563882893 -0.5569641099 0.5632903001 -0.5569173389 0.0553103718 -0.0141801687
385297690.0 0.0548714476 -0.0139300033 0.5575913542 -0.5631951906 0.5573085027 -0.5634474536 0.0549397308 -0.0148242274
390297660.0 0.0544904998 -0.0147909833 0.551360142 -0.5697867091 0.5514246653 -0.570579374 0.0551649785 -0.0156099303
395297630.0 0.054592525 -0.0158761469 0.5450124275 -0.5758125361 0.5451083143 -0.5756667689 0.054312809 -0.0157614641
400297600.0 0.0537374884 -0.015944576 0.5381622616 -0.5817182335 0.5386640316 -0.5821234852 0.0533228511 -0.0170858035
405297570.0 0.0542134463 -0.0167396372 0.5319374123 -0.5881848461 0.5322952703 -0.5883263475 0.0538193521 -0.0170062797
410297540.0 0.0537233095 -0.0174379267 0.5250739626 -0.5937958782 0.5254114184 -0.5941302327 0.0532596371 -0.0177612256
415297510.0 0.0533664671 -0.0170412863 0.5189906265 -0.5993343973 0.5193986013 -0.5995057228 0.0526791847 -0.018010651
420297480.0 0.053180778 -0.018966686 0.5125547866 -0.6054778685 0.5123106234 -0.6054511099 0.0530010854 -0.0192109227
425297450.0 0.0531969677 -0.0195869906 0.506120843 -0.6110510359 0.5059750646 -0.6110154866 0.0520518873 -0.0191983752
430297420.0 0.0523143011 -0.0196566507 0.4987313184 -0.6167499402 0.4994636255 -0.6169927158 0.0514635835 -0.0204404614
435297390.0 0.0524745377 -0.020911348 0.492168322 -0.6215474638 0.4924936986 -0.6217529895 0.0511236609 -0.0199147963
440297360.0 0.0521511294 -0.0216643388 0.4847859251 -0.6276898343 0.4845859446 -0.6275942939 0.0511091395 -0.0214681831
445297330.0 0.052196894 -0.0220112245 0.4779352108 -0.6334041247 0.4782217174 -0.6330994527 0.0509247868 -0.0214864746
450297300.0 0.0517569749 -0.0226986193 0.4722353961 -0.638472161 0.4716183165 -0.6385362814 0.0503414534 -0.0220167516
455297270.0 0.0510313419 -0.0233126102 0.4646219682 -0.6435793159 0.4650986603 -0.6436137005 0.050382689 -0.0224427014
460297240.0 0.0505466051 -0.0239753357 0.4571000963 -0.6484945529 0.4570925199 -0.6488343583 0.0498521408 -0.0226584514
465297210.0 0.0504108143 -0.02453986 0.4498683825 -0.6536739815 0.4504751797 -0.6542069016 0.0488602974 -0.0236084065
470297180.0 0.0498730595 -0.0251503964 0.4425876427 -0.6587526586 0.4434403919 -0.6590985106 0.0481326396 -0.0242536807
475297150.0 0.0493298196 -0.0263572024 0.4351401388 -0.6633249026 0.4360007042 -0.6631512058 0.0483888224 -0.0246892092
480297120.0 0.0498230192 -0.0268495491 0.4283586856 -0.6680511068 0.4288921866 -0.6681135424 0.0477590894 -0.0245876313
485297090.0 0.0493148987 -0.0273254417 0.4214151865 -0.6731871643 0.4213383337 -0.6729036449 0.0472879966 -0.0255992795
490297060.0 0.0490089426 -0.0283043467 0.4140448329 -0.6778052571 0.414021602 -0.6779803751 0.0470617519 -0.0256197184
495297030.0 0.0479480485 -0.0280802999 0.4059034989 -0.6823775077 0.4062346052 -0.6826353577 0.0465679971 -0.0263567208
500297000.0 0.0481084347 -0.0292364822 0.398575365 -0.6863588045 0.3986663035 -0.6865152082 0.0454018911 -0.0269730098
505296970.0 0.0469197212 -0.0296771045 0.3906335013 -0.6906265791 0.390632023 -0.6910630865 0.0447944139 -0.0271966751
510296940.0 0.0468403931 -0.0301250294 0.3836545958 -0.695317922 0.383516569 -0.6954324458 0.0451855194 -0.0270652014
515296910.0 0.0461236064 -0.0305378158 0.3754674967 -0.6992223985 0.3759228758 -0.69964715 0.0439682089 -0.0280728894
520296880.0 0.0458183617 -0.0314584857 0.3683540408 -0.703410812 0.3687744523 -0.7036412809 0.0444032485 -0.0282957094
525296850.0 0.0452104589 -0.0322354137 0.3610735432 -0.7076193158 0.3608086122 -0.7077224815 0.0438382286 -0.0287595315
530296820.0 0.0450023926 -0.0325339221 0.3530426692 -0.710296471 0.3529372782 -0.7117968216 0.0429454795 -0.0299327141
535296790.0 0.0442837592 -0.0328171095 0.3449189852 -0.7147430298 0.3453946225 -0.7154705935 0.0424505191 -0.0301669636
540296760.0 0.0438115871 -0.0335894501 0.3374227457 -0.718947798 0.3368209361 -0.7194651435 0.0416016121 -0.0302325749
545296730.0 0.0434105522 -0.0335831758 0.3290966441 -0.722347361 0.3291623375 -0.7229236916 0.0413262033 -0.0309685158
550296700.0 0.0425108026 -0.0345422555 0.3213157961 -0.7266094184 0.3221849456 -0.7261482797 0.0405288447 -0.0304247083
555296670.0 0.0426145319 -0.035181584 0.3137837235 -0.7301916454 0.3134081969 -0.7299858048 0.039870556 -0.0312972139
560296640.0 0.0418219481 -0.0355057021 0.3056691452 -0.7330430581 0.3060660101 -0.7330249991 0.039622956 -0.0314134568
565296610.0 0.0405488096 -0.0362240367 0.2973776242 -0.7366699225 0.2970090666 -0.7369900007 0.0389014923 -0.0323476059
570296580.0 0.0411657381 -0.0367359528 0.289156121 -0.7395766286 0.2897204871 -0.7396665248 0.0388392619 -0.0316007118
575296550.0 0.0402759417 -0.0361260775 0.2812380263 -0.7422838027 0.281435178 -0.7427444619 0.0385149999 -0.0326832159
580296520.0 0.0394187465 -0.0372285508 0.2731639132 -0.7455941974 0.2729326527 -0.7461076114 0.0376745124 -0.0333394762
585296490.0 0.0393144678 -0.037979191 0.2655184987 -0.7487550272 0.2648267346 -0.7486963271 0.0368952297 -0.0336139082
590296460.0 0.0380741629 -0.0385503556 0.2567115853 -0.7516657297 0.2563868999 -0.7517554749 0.0365679769 -0.0333809912
595296430.0 0.0375362587 -0.0383906032 0.2490252061 -0.7543568953 0.2484415405 -0.7545135765 0.0363604037 -0.0339887161
600296400.0 0.0372509154 -0.0386301575 0.2407852323 -0.7573008814 0.2406655223 -0.7571736958 0.0355479314 -0.0342979807
605296370.0 0.036804786 -0.0385552162 0.2321191703 -0.7598375606 0.2322760525 -0.7596518804 0.0348124537 -0.0348409772
610296340.0 0.0359539945 -0.0394996639 0.2242378451 -0.7621200817 0.2241082284 -0.7625926318 0.0345201828 -0.0344628561
615296310.0 0.0354486664 -0.0394373019 0.2153078441 -0.7643952223 0.215810692 -0.7646379854 0.0341306711 -0.0352437422
620296280.0 0.0344848919 -0.0400530679 0.2070481176 -0.7668985194 0.207373664 -0.7668129173 0.0333695511 -0.035773888
625296250.0 0.0345048021 -0.0404328419 0.1980876755 -0.7695330943 0.1982351152 -0.7694486962 0.0330800571 -0.0355964988
630296220.0 0.0338134363 -0.0407907459 0.1898696889 -0.7716072799 0.19040719 -0.7711747076 0.0315853689 -0.0361393922
635296190.0 0.0330168753 -0.0409735606 0.1815020153 -0.7726480874 0.1813457889 -0.772847867 0.0313820043 -0.036430593
640296160.0 0.0323957349 -0.0411877903 0.173450403 -0.7747664839 0.1734608342 -0.7753606309 0.0313940564 -0.0366897941
645296130.0 0.0318915347 -0.0412080586 0.1645757797 -0.777451344 0.1646932548 -0.7768030413 0.029694759 -0.0372426114
650296100.0 0.0309212864 -0.0410458965 0.1568176854 -0.7785558949 0.1570923172 -0.7785732884 0.0298402181 -0.0372981165
655296070.0 0.0302263706 -0.0420001976 0.1479040653 -0.7800965787 0.1480414096 -0.7803818882 0.0299606645 -0.0367946043
660296040.0 0.0294291175 -0.0418299625 0.1396469374 -0.7816076261 0.1395502799 -0.7819135804 0.0285051198 -0.0381189158
665296010.0 0.0293107768 -0.0423160533 0.131060945 -0.7833018507 0.1317776784 -0.7833048977 0.0276763674 -0.0374283816
670295980.0 0.0290218404 -0.0422891827 0.1225656405 -0.78490388 0.122333059 -0.7846480384 0.0269942374 -0.0381925452
675295950.0 0.0283700495 -0.0424756811 0.1138647703 -0.7857503065 0.1140775159 -0.7862638727 0.027131701 -0.0377900149
680295920.0 0.0272886626 -0.042631048 0.1049068547 -0.7871156632 0.105043043 -0.7875908678 0.0264779075 -0.0385578412
685295890.0 0.0267643144 -0.0429709275 0.0971007428 -0.788409057 0.0964714932 -0.7886801305 0.02578587 -0.0382953152
690295860.0 0.0266213066 -0.043158073 0.0881063199 -0.7890004212 0.0876024068 -0.7883532516 0.0255332995 -0.0383549421
695295830.0 0.0262094114 -0.0434921737 0.0787236158 -0.7903205132 0.0788079601 -0.7902894446 0.0244704891 -0.0387059629
700295800.0 0.0258277965 -0.0433376984 0.070531618 -0.7912562393 0.0706921425 -0.7913320096 0.0236415079 -0.039532759
705295770.0 0.0245904346 -0.043451087 0.0620508398 -0.7917769415 0.062539133 -0.7916027278 0.0229188419 -0.0392167279
710295740.0 0.0241705117 -0.0433574195 0.0534260092 -0.7921888957 0.0534816212 -0.7916399 0.0217174952 -0.0389919749
715295710.0 0.0237181183 -0.0437072357 0.0451275032 -0.7923404468 0.0451614883 -0.7931392877 0.0219876051 -0.0402468186
720295680.0 0.0227583144 -0.0442293661 0.0362858953 -0.7932211826 0.0366116072 -0.7938736786 0.0215291151 -0.0392811553
725295650.0 0.022513879 -0.0442943923 0.0274884873 -0.793914168 0.0278007938 -0.793405882 0.0207131252 -0.0390428003
730295620.0 0.0212250875 -0.0444805531 0.0190050826 -0.7940330048 0.0190290226 -0.7940653968 0.020690904 -0.0403649539
735295590.0 0.0212460388 -0.0444854571 0.0106187243 -0.7936673961 0.0107045232 -0.7935662439 0.0196869553 -0.0394661487
740295560.0 0.0202357091 -0.0442536083 0.0017617947 -0.7935088005 0.0016830126 -0.7938001147 0.0196192523 -0.039917246
745295530.0 0.0199168979 -0.0448109026 -0.0068452817 -0.7941580294 -0.006671712 -0.7943512736 0.0182034512 -0.0398366092
750295500.0 0.0193481328 -0.0448671429 -0.0148960579 -0.7934313164 -0.0150345413 -0.7939682216 0.0182091865 -0.0405505997
755295470.0 0.0187354699 -0.0445849794 -0.0246168662 -0.7935869657 -0.0237937497 -0.7937669487 0.0167290525 -0.0400728502
760295440.0 0.0177224036 -0.0444629877 -0.033021674 -0.7929640247 -0.0329298985 -0.7935053296 0.0157542374 -0.0405090261
765295410.0 0.0168539448 -0.0449874959 -0.0404222368 -0.7924861511 -0.0407121542 -0.7932049619 0.0167646445 -0.0397979677
770295380.0 0.0168933651 -0.0447691398 -0.0501068649 -0.7921559014 -0.0495772737 -0.7924912687 0.0158407096 -0.0398556284
775295350.0 0.0161465338 -0.0447091246 -0.0580339128 -0.7911684309 -0.0580191561 -0.7916725495 0.0147887154 -0.0410912307
780295320.0 0.0157420784 -0.0450193137 -0.0669528582 -0.7909937688 -0.0668634307 -0.7912762536 0.0143333216 -0.0399536803
785295290.0 0.0147320745 -0.0444361898 -0.0757298091 -0.7896266121 -0.0755533902 -0.7906790773 0.0132300262 -0.0404725011
790295260.0 0.0140587079 -0.0447096526 -0.0843168312 -0.7895258868 -0.0842958988 -0.7895932109 0.0132048042 -0.0402769647
795295230.0 0.0136000505 -0.0447370073 -0.0918886143 -0.7877268428 -0.0922397386 -0.7882761518 0.012387257 -0.0394918928
800295200.0 0.0128791284 -0.0444743405 -0.1018246868 -0.7874817519 -0.101744345 -0.7874598641 0.0119539525 -0.0401408585
805295170.0 0.0117655066 -0.0446461306 -0.1099014512 -0.7853274067 -0.1099861241 -0.7862236139 0.0110311766 -0.0403849845
810295140.0 0.011649681 -0.0446778609 -0.118197081 -0.7848911094 -0.1177159326 -0.7853145444 0.0110530059 -0.0397047713
815295110.0 0.0107151467 -0.0444139211 -0.1273605821 -0.7828831151 -0.1275838397 -0.7834953791 0.0096106564 -0.0403009633
820295080.0 0.0102585121 -0.0447991196 -0.1350047556 -0.7822970249 -0.1355646153 -0.7826881979 0.0092536518 -0.039836227
825295050.0 0.0094901485 -0.0446824715 -0.1434597792 -0.7803450893 -0.1438556432 -0.7804407923 0.0089839962 -0.039540601
830295020.0 0.0089190614 -0.0440855401 -0.1523273733 -0.7782456765 -0.1533343112 -0.7792880482 0.0079036827 -0.039966347
