!Created with skrf (http://scikit-rf.org).
# Hz S RI R 50.0 
!freq ReS11 ImS11 ReS21 ImS21 ReS12 ImS12 ReS22 ImS22
300000.0 -0.2374794793 -0.0989751729 0.4653327607 0.0653284598 0.4680394894 0.0709693814 -0.2356265666 -0.1127870482
5299970.0 -0.2438230538 0.0069640478 0.4738531693 0.0053059719 0.4739546052 0.0062254482 -0.2440816706 0.0056565363
10299940.0 -0.2400873929 0.019832375 0.4755706081 0.0061575114 0.4757487885 0.0068649344 -0.2410646716 0.0182689192
15299910.0 -0.2361190192 0.0292762906 0.4793113602 0.0078107572 0.4794066935 0.0080052099 -0.2367022178 0.0273614909
20299880.0 -0.2306542124 0.037293662 0.4845937592 0.0082145559 0.4840822073 0.0086808138 -0.2320248486 0.0354084378
25299850.0 -0.2248850928 0.0435152444 0.4895050106 0.0074508232 0.4894425769 0.0075182524 -0.2268973458 0.0416008692
30299820.0 -0.2188234428 0.0483272564 0.494980243 0.0056187018 0.4947056156 0.0054180715 -0.2215861048 0.0469027702
35299790.0 -0.2130923561 0.05294079 0.5002131041 0.0019765674 0.5001276694 0.0022968474 -0.2161408507 0.0509112157
40299760.0 -0.2076325795 0.055703307 0.5055002976 -0.0012292491 0.5053518053 -0.0019937992 -0.2112556097 0.0547062962
45299730.0 -0.2025774825 0.0585091799 0.5103970905 -0.006807535 0.5103151907 -0.0062943897 -0.2066858735 0.0572120771
50299700.0 -0.19762832 0.0602090421 0.5143624719 -0.0118793061 0.5142251969 -0.012036082 -0.202252162 0.0597418412
55299670.0 -0.1935537917 0.0617255557 0.5179619887 -0.0179125335 0.5180187159 -0.0177054478 -0.1983426486 0.061283316
60299640.0 -0.1894335194 0.0627154718 0.5209339262 -0.0243980394 0.5216344664 -0.0241797594 -0.1944444206 0.0633713746
65299610.0 -0.1862837865 0.0638222153 0.5243001259 -0.0299388536 0.5243134658 -0.0303796298 -0.1911015745 0.0646244708
70299580.0 -0.1827397821 0.0644288768 0.5266616868 -0.0369220773 0.5271866432 -0.0372113574 -0.1880077105 0.0656441017
75299550.0 -0.1794471297 0.0649304703 0.5284854301 -0.0438938246 0.5285311305 -0.0440995198 -0.1851074623 0.0666640504
80299520.0 -0.1772429373 0.0657926 0.5310511807 -0.0509348327 0.5309848187 -0.0509874025 -0.1825344125 0.0669752842
85299490.0 -0.1744892222 0.0659386273 0.5321595936 -0.0576191166 0.5320677234 -0.057651026 -0.1802065213 0.0681866993
90299460.0 -0.1725320668 0.0664083498 0.5326513841 -0.064360036 0.5331928569 -0.0647376935 -0.1777787265 0.0693772999
95299430.0 -0.1705038341 0.067277158 0.5341024932 -0.0723347208 0.5341092716 -0.0715137179 -0.1758540528 0.0701701635
100299400.0 -0.1686432515 0.0677631144 0.5343625954 -0.0785973807 0.5344215887 -0.0787345944 -0.1742474554 0.0709501891
105299370.0 -0.1667369493 0.06794108 0.534640848 -0.0852730398 0.5347416523 -0.0855829468 -0.1720136278 0.0716456794
110299340.0 -0.1655955979 0.0684014852 0.534776849 -0.0919017309 0.5348226436 -0.0922621241 -0.1708546812 0.0725739406
115299310.0 -0.1638203543 0.068518659 0.5346911155 -0.0985729845 0.5350920984 -0.0990051806 -0.1691013102 0.0731138805
120299280.0 -0.1628047695 0.069395353 0.5345853406 -0.1060677023 0.5344911552 -0.1060841315 -0.1675667688 0.0742502657
125299250.0 -0.1616661364 0.0699517798 0.5344420763 -0.1127314547 0.5344511426 -0.1128569274 -0.1665421615 0.0747715601
130299220.0 -0.160490318 0.0706473522 0.5335903042 -0.118789836 0.533521458 -0.1194972617 -0.1650882609 0.0759030088
135299190.0 -0.1593094229 0.0709077087 0.5331044195 -0.1255171779 0.5328425378 -0.1258686401 -0.1642531131 0.0769565514
140299160.0 -0.1584761516 0.072176747 0.5325643758 -0.1325721159 0.5323529548 -0.1327967025 -0.1626237725 0.0779502142
145299130.0 -0.1574484641 0.072652796 0.5316869777 -0.1394459481 0.5310181545 -0.1390087768 -0.1622794995 0.0787109658
150299100.0 -0.1565241518 0.0733093383 0.5302875614 -0.1457867255 0.5301396955 -0.145735811 -0.1609558423 0.0797970286
155299070.0 -0.1557589376 0.0748692509 0.5289739904 -0.1528174201 0.5290912093 -0.1527821453 -0.1602419 0.0808557271
160299040.0 -0.1547688148 0.0753613096 0.5274176298 -0.158636009 0.5278599138 -0.1588746126 -0.1588558397 0.0825944203
165299010.0 -0.1541904308 0.0764051122 0.5261454932 -0.1656250583 0.5262754575 -0.1651143039 -0.1581955115 0.0831155969
170298980.0 -0.1535553593 0.0771878734 0.5241650666 -0.1716506809 0.5244473591 -0.1715232211 -0.1568330509 0.0843551676
175298950.0 -0.152595434 0.078372445 0.5234038062 -0.1777890896 0.5231055492 -0.1777960811 -0.1559064133 0.085511346
180298920.0 -0.1515969198 0.0793088627 0.5214028697 -0.1842776494 0.5215432123 -0.1839863372 -0.1549551267 0.0870937742
185298890.0 -0.1509070658 0.0800797456 0.5192664802 -0.1908238658 0.5200429853 -0.1903433411 -0.154436158 0.0880013185
190298860.0 -0.1502837061 0.0813431253 0.5176801108 -0.1966904159 0.5177653722 -0.1967655551 -0.152794677 0.0895025554
195298830.0 -0.1494582067 0.0820610359 0.5157387732 -0.2027045911 0.5155932258 -0.2027413184 -0.1519257273 0.0906510678
200298800.0 -0.1487767011 0.0834285203 0.5134439669 -0.2082246169 0.5132670826 -0.208613806 -0.1507306241 0.0923101559
205298770.0 -0.1483072346 0.0844190319 0.5114947813 -0.2146644498 0.5115401407 -0.2145685899 -0.149774417 0.0929624801
210298740.0 -0.1478800855 0.0856686407 0.5096289135 -0.2210589446 0.5093720775 -0.2210162714 -0.1490299137 0.0948855633
215298710.0 -0.1468313685 0.0869230403 0.506774837 -0.2266935229 0.5068654692 -0.2266410661 -0.148439371 0.0961677896
220298680.0 -0.1458529121 0.0880633326 0.5039923769 -0.2328028702 0.5045797471 -0.2327190955 -0.1471464592 0.0975800136
225298650.0 -0.1449914723 0.089171819 0.5019151753 -0.238577852 0.5018145527 -0.2383839958 -0.1463518618 0.0989301263
230298620.0 -0.1444856598 0.090665726 0.4995733578 -0.2443777061 0.4997347172 -0.2445861341 -0.1450865855 0.100258158
235298590.0 -0.1436366223 0.0915899124 0.4967487216 -0.2497421315 0.4969543337 -0.2501087439 -0.1439386512 0.1013746291
240298560.0 -0.1430070728 0.0927075042 0.4942704802 -0.2556126481 0.4943951438 -0.2556543146 -0.1430481876 0.1031754828
245298530.0 -0.1417435566 0.094093223 0.490840087 -0.26152916 0.4912341314 -0.2616935627 -0.1420000551 0.1047440684
250298500.0 -0.1415087552 0.0953777718 0.4879519177 -0.2669861876 0.4886963515 -0.2665690545 -0.1405078806 0.1058634123
255298470.0 -0.1406359893 0.0968309856 0.4851624652 -0.2727171793 0.4854867978 -0.2725830562 -0.1395192892 0.1070930918
260298440.0 -0.1398463008 0.0981748444 0.4828148524 -0.2777263049 0.4828010834 -0.2784393145 -0.1380820198 0.1088538946
265298410.0 -0.1386869631 0.0993824617 0.4794789747 -0.2839016896 0.4792279229 -0.2835887517 -0.137209845 0.1102274518
270298380.0 -0.1376977332 0.1006044335 0.476030678 -0.2889895636 0.476456644 -0.2892960721 -0.1358711688 0.111919725
275298350.0 -0.1371760149 0.1019533987 0.4731705508 -0.2946729826 0.4735875453 -0.2947288657 -0.134860078 0.1131604832
280298320.0 -0.1361401046 0.1033588534 0.4700286844 -0.2997451732 0.4701689249 -0.3000671796 -0.1334564698 0.1149056198
285298290.0 -0.1352532677 0.1047589712 0.4669097061 -0.3051308804 0.4667241764 -0.3054859238 -0.1322377226 0.1162495673
290298260.0 -0.1341195763 0.1057621315 0.4635384955 -0.3106654164 0.4637310798 -0.310808557 -0.1306763786 0.1178102832
295298230.0 -0.1331329275 0.1070506467 0.4602220929 -0.3160158604 0.459900113 -0.3159083688 -0.1293255009 0.1192703231
300298200.0 -0.1320656923 0.1084786427 0.4565807464 -0.3212775541 0.4568679353 -0.3214892381 -0.1282098794 0.1208898054
305298170.0 -0.1308278549 0.1094984511 0.4530026988 -0.3265332614 0.4535971388 -0.326908212 -0.1265349989 0.1223157349
310298140.0 -0.12970791 0.1105964927 0.4501169913 -0.3315298869 0.4495850669 -0.3320384278 -0.1253897595 0.1237401109
315298110.0 -0.1291855335 0.111788853 0.4460362456 -0.3370529785 0.4460000534 -0.337149718 -0.1238831901 0.1247241024
320298080.0 -0.1280244716 0.1132421773 0.442573124 -0.3419684508 0.4425283678 -0.341911092 -0.1225984137 0.1261376896
325298050.0 -0.1271465756 0.1138699825 0.4381816369 -0.3471410998 0.4386183285 -0.3473986835 -0.1213289014 0.1274785735
330298020.0 -0.1265468805 0.1154630234 0.4342647474 -0.3524354346 0.4343749513 -0.3521391271 -0.1204248532 0.1286215497
335297990.0 -0.1253788585 0.116542682 0.4302929869 -0.3571767476 0.4306219355 -0.3569997144 -0.1191454622 0.1305933454
340297960.0 -0.1247931903 0.1179814354 0.4258157979 -0.3618527876 0.4263923762 -0.3615701389 -0.1177215392 0.131732402
345297930.0 -0.1238474173 0.1193095484 0.4222816206 -0.3660218525 0.4216021781 -0.3663455462 -0.1161835384 0.1330928004
350297900.0 -0.1223226257 0.1209027107 0.4179794864 -0.3706649523 0.4180477207 -0.3713287149 -0.1150602731 0.1349534586
355297870.0 -0.1214838111 0.122063095 0.4138864197 -0.3754461336 0.4138970853 -0.3757310213 -0.1136553416 0.1363694249
360297840.0 -0.1204160845 0.1233708246 0.409829589 -0.3805535666 0.4097370299 -0.3805874648 -0.1122234928 0.1383857541
365297810.0 -0.1188818705 0.1246476029 0.405082925 -0.3847795174 0.4054745288 -0.3848957248 -0.1105739643 0.1394543725
370297780.0 -0.1181153706 0.1257551238 0.4009923819 -0.3890101215 0.4013126244 -0.3892528391 -0.1091791366 0.1410133581
375297750.0 -0.1168849724 0.1276655116 0.3972402187 -0.3937966454 0.3968190106 -0.3938713922 -0.1076312621 0.1422338119
380297720.0 -0.1154231883 0.1283942187 0.3926388876 -0.3975021096 0.3927787321 -0.3977804179 -0.1061375053 0.1439271351
385297690.0 -0.1140154157 0.1297516701 0.3880034635 -0.4015106271 0.3880701872 -0.4022620223 -0.1047337536 0.1453480092
390297660.0 -0.1133886283 0.1309781209 0.3838618235 -0.4067288124 0.3837475981 -0.406989143 -0.1027895958 0.1463063492
395297630.0 -0.1118783598 0.132317163 0.3793115578 -0.4103396782 0.379215771 -0.4103405554 -0.1013123661 0.1478879289
400297600.0 -0.1108598177 0.1335031742 0.3740740963 -0.4149011064 0.3748931783 -0.4148542619 -0.1004712249 0.1489352788
405297570.0 -0.109377006 0.1346986584 0.3703586811 -0.4189793528 0.3701741005 -0.4190896302 -0.0982451695 0.1506266888
410297540.0 -0.1080472323 0.1359126662 0.36497672 -0.4230750965 0.3654316301 -0.422608545 -0.0970041345 0.1517791756
415297510.0 -0.1068251004 0.1373386923 0.3607811233 -0.4269074415 0.3609021803 -0.4268371392 -0.0950339132 0.1533714995
420297480.0 -0.1050670173 0.1378808398 0.3558662823 -0.4310114477 0.3562722739 -0.4309871901 -0.0934050008 0.1539911759
425297450.0 -0.1037403443 0.1391959539 0.351334738 -0.4344023829 0.3517984005 -0.4349441129 -0.0920380191 0.1560891533
430297420.0 -0.1027277625 0.1408802186 0.3467898573 -0.4390070912 0.3466635733 -0.4384347433 -0.0905859196 0.1567199319
435297390.0 -0.1012839106 0.1414844397 0.3419707445 -0.4423089032 0.3420289964 -0.4419868101 -0.0884297726 0.1582623751
440297360.0 -0.0995422695 0.1427300615 0.3364911302 -0.4460401108 0.3367625819 -0.4461286009 -0.086948882 0.1589741186
445297330.0 -0.0983182249 0.1438710016 0.3319691656 -0.4499348502 0.3315465977 -0.4499655176 -0.0851502079 0.1603754053
450297300.0 -0.0967755045 0.14483669 0.3270536345 -0.4531984577 0.3271037423 -0.4533751176 -0.0833837656 0.1615273313
455297270.0 -0.0956770386 0.1458967262 0.3221190043 -0.4569578547 0.3220588861 -0.4567803567 -0.081408673 0.1626817514
460297240.0 -0.0944079653 0.1468934779 0.3169238724 -0.459797952 0.3165166747 -0.4604596449 -0.0796782939 0.1639914057
465297210.0 -0.0925696485 0.1478559544 0.3122291158 -0.4635683028 0.3121371731 -0.4638853432 -0.0784543004 0.1649052532
470297180.0 -0.0914611914 0.1487234799 0.3071568418 -0.4667747527 0.3071283203 -0.4669568188 -0.0766905097 0.1658811631
475297150.0 -0.0903164259 0.1495305945 0.3015248763 -0.4697384848 0.3020083755 -0.4698876061 -0.0747015712 0.1667393007
480297120.0 -0.0883263776 0.1504519318 0.2967732842 -0.4733592683 0.2969194491 -0.4733183094 -0.0729010444 0.1682443454
485297090.0 -0.0869382866 0.1514326968 0.2915744546 -0.4765991944 0.2915499833 -0.4765798584 -0.0714549482 0.1687532573
490297060.0 -0.0853858289 0.1524211063 0.2864816376 -0.4797880716 0.2862266855 -0.4797783139 -0.0693933443 0.1700291066
495297030.0 -0.0843669282 0.1538189206 0.2808009313 -0.4829252059 0.2810376921 -0.4826004292 -0.0674637784 0.1706093951
500297000.0 -0.0822476082 0.1542814316 0.2752525328 -0.4858821078 0.2760513038 -0.4854218408 -0.0661473343 0.1718651653
505296970.0 -0.0811562109 0.1554688931 0.2698227226 -0.4885327686 0.2702410609 -0.4884891734 -0.0641958249 0.1728146298
510296940.0 -0.079489496 0.1563192226 0.265078124 -0.4919464998 0.2653514768 -0.4918451215 -0.0619219645 0.1739615607
515296910.0 -0.0781867039 0.157284476 0.259598927 -0.494142978 0.2597560305 -0.4945029289 -0.0604194381 0.1745405647
520296880.0 -0.0765396424 0.158104078 0.2541521527 -0.4972997924 0.2546029081 -0.4973285821 -0.0582334136 0.1753983824
525296850.0 -0.0751307083 0.1588834709 0.2489606247 -0.4998859793 0.2488013349 -0.4999208535 -0.0556185962 0.1763822728
530296820.0 -0.0734736295 0.1597245043 0.2437431166 -0.5020759051 0.2430209291 -0.5021903483 -0.054586126 0.176853149
535296790.0 -0.0721516201 0.1604737945 0.237791145 -0.5047004691 0.2381311949 -0.5046759413 -0.0527409446 0.1772337243
540296760.0 -0.070251689 0.1611616556 0.2323098477 -0.5076897709 0.2321426637 -0.5077149916 -0.0511951412 0.17843302
545296730.0 -0.0687622081 0.1622839114 0.2266215768 -0.5098416728 0.2268138689 -0.5104193757 -0.0490800038 0.1789847189
550296700.0 -0.0675553357 0.1630583831 0.2213457764 -0.5127084498 0.2217449679 -0.51275322 -0.0471376403 0.1804072904
555296670.0 -0.0654963684 0.1636282636 0.2160007564 -0.5149409096 0.2159030002 -0.514774021 -0.0454228387 0.1808009418
560296640.0 -0.0639322087 0.1643224066 0.2101408757 -0.5171199112 0.2104639071 -0.5167786595 -0.0431354874 0.1813627534
565296610.0 -0.0628602876 0.1651933274 0.2043759933 -0.5194511138 0.2041634518 -0.5193915401 -0.0414459712 0.181823416
570296580.0 -0.0608590191 0.1659198508 0.1988683935 -0.5215150489 0.1989333311 -0.5215164318 -0.0392914407 0.1827866276
575296550.0 -0.0592220491 0.1668445663 0.1932005605 -0.5230967381 0.1934538176 -0.5231002594 -0.0373885923 0.1831161536
580296520.0 -0.0574787365 0.1672360875 0.1876215844 -0.5254782212 0.1872200375 -0.5256733742 -0.0355590383 0.1836351835
585296490.0 -0.0559440193 0.1676467134 0.1820494827 -0.5275355333 0.1817246038 -0.5274274901 -0.0337543914 0.1839399966
590296460.0 -0.0548546152 0.1683671741 0.1762606638 -0.5295240244 0.1758978752 -0.5295136134 -0.0311207825 0.1848457997
595296430.0 -0.0527741038 0.169364118 0.170769309 -0.531264894 0.1703201232 -0.5316405073 -0.0292134238 0.1852193842
600296400.0 -0.0510781373 0.1700054431 0.1646718894 -0.5328467579 0.1651130196 -0.5332383476 -0.0273959907 0.185930681
605296370.0 -0.0494420634 0.1708382758 0.1591725944 -0.5352206914 0.1591627185 -0.5346939103 -0.0252850903 0.1862242563
610296340.0 -0.0480734235 0.1713674413 0.1533252765 -0.5364794434 0.1535724599 -0.5363790589 -0.0234341499 0.1872875172
615296310.0 -0.0461934563 0.17213239 0.1469440353 -0.5379546738 0.147158014 -0.5383089867 -0.021155786 0.1871428138
620296280.0 -0.0444700909 0.1723758373 0.141584289 -0.5394890403 0.1415246803 -0.539475759 -0.019463493 0.1869992717
625296250.0 -0.042611425 0.1732553371 0.1352651576 -0.5413336969 0.1353313025 -0.5411457707 -0.0169226219 0.1877219844
630296220.0 -0.041078041 0.1737142189 0.1293808798 -0.5426654373 0.1302645833 -0.5425910307 -0.0154644405 0.1883971984
635296190.0 -0.039542792 0.1742189903 0.1237327391 -0.5434095263 0.1236939517 -0.5434846771 -0.0132853948 0.1885975372
640296160.0 -0.0379269823 0.1744669292 0.1180700227 -0.5448259523 0.1179197616 -0.5448617697 -0.010957238 0.188685447
645296130.0 -0.0360031175 0.1754374924 0.111860113 -0.5467540708 0.1121296607 -0.5463274311 -0.0093622772 0.188816557
650296100.0 -0.0345585581 0.176223565 0.106646031 -0.5473236753 0.106238187 -0.5472029985 -0.0072448883 0.1891871977
655296070.0 -0.0328838749 0.1761699302 0.1003181425 -0.5485414576 0.1001316848 -0.5484948564 -0.0047118593 0.1895035951
660296040.0 -0.0314280798 0.1771171665 0.0940759228 -0.5491789966 0.0945635148 -0.5493618744 -0.0032038632 0.1894189193
665296010.0 -0.0293220837 0.1768665964 0.088403782 -0.5501114947 0.0889769199 -0.5502789737 -0.0013737138 0.190140806
670295980.0 -0.027354768 0.1778564211 0.0826990025 -0.5509988723 0.0829237388 -0.5512415495 0.0003655021 0.1899025898
675295950.0 -0.0258267616 0.1780339685 0.0765375905 -0.5523773956 0.0768758043 -0.5523145175 0.0032241883 0.190414663
680295920.0 -0.0239608602 0.1786849702 0.0700818782 -0.5530554534 0.0706316305 -0.5528958298 0.0052737378 0.1900704093
685295890.0 -0.0225726204 0.1789970472 0.0649664172 -0.5538270137 0.0643252729 -0.5539532961 0.0073631965 0.1906298913
690295860.0 -0.0203167168 0.1795728172 0.0587162908 -0.5537744692 0.0581941265 -0.5543116128 0.0097844153 0.1905849663
695295830.0 -0.0183486391 0.1795572327 0.0519592905 -0.5547689185 0.0522420956 -0.5549388766 0.0112647755 0.1910687136
700295800.0 -0.0166821085 0.1801188092 0.0464188249 -0.5553117167 0.0466827956 -0.5556768781 0.0133083065 0.1900785159
705295770.0 -0.0151183312 0.1802571674 0.0404566682 -0.5559221134 0.0408829681 -0.5559269582 0.0150934784 0.1905429452
710295740.0 -0.0131546045 0.1810522927 0.0344997955 -0.5562014759 0.0345530757 -0.5559403397 0.0170314608 0.1906239344
715295710.0 -0.0117700775 0.1807974302 0.0284121256 -0.5562753549 0.029080251 -0.5562645832 0.0194142675 0.1900455601
720295680.0 -0.0097994545 0.1810596425 0.0223014761 -0.5563689964 0.0227287539 -0.5569683154 0.0217715743 0.1907469064
725295650.0 -0.0076355832 0.1812663772 0.0159366874 -0.5564625581 0.0166642494 -0.5568389541 0.0236923517 0.1903261032
730295620.0 -0.0064936559 0.1817151624 0.01034657 -0.5568443225 0.0103249978 -0.5573313408 0.0260537784 0.1898195593
735295590.0 -0.0041102806 0.1816656388 0.0048695005 -0.5568744591 0.0048973181 -0.5570050249 0.0279062931 0.1899891479
740295560.0 -0.0025917511 0.1821717103 -0.0016874508 -0.5563105104 -0.0016317401 -0.5569066373 0.0302295538 0.1896735379
745295530.0 -0.0009897933 0.1818915573 -0.0073618809 -0.5567281832 -0.0071681338 -0.5575279767 0.0318479155 0.1898171871
750295500.0 0.0007783239 0.1822339158 -0.0135593524 -0.5563545726 -0.0135699157 -0.5567262349 0.0342872391 0.189131399
755295470.0 0.0032264658 0.1826146607 -0.01939179 -0.5566822774 -0.0190699118 -0.5567161217 0.0357320124 0.1891716295
760295440.0 0.0046602541 0.182754551 -0.0252349588 -0.5562125467 -0.0254709041 -0.5563316915 0.037804569 0.1889437923
765295410.0 0.0061913199 0.1825419729 -0.0310852019 -0.5557107507 -0.0313121225 -0.5560216726 0.0406481552 0.1888417512
770295380.0 0.0083674117 0.1829718482 -0.0373460271 -0.5554142677 -0.0373548426 -0.5558049684 0.0425986741 0.1885482154
775295350.0 0.0098432331 0.1830318316 -0.0431299137 -0.5545826865 -0.0431836841 -0.5549631498 0.043968099 0.1875594213
780295320.0 0.0120660955 0.1827452463 -0.0490897883 -0.5544082221 -0.0493030171 -0.554481389 0.0462005407 0.188202998
785295290.0 0.0134920878 0.1832257213 -0.0551155855 -0.5532378049 -0.0553280401 -0.5540583798 0.0480488882 0.1875993474
790295260.0 0.0152975882 0.1831637613 -0.0611369799 -0.5529914984 -0.0610285312 -0.5534273764 0.0506216807 0.1867872754
795295230.0 0.0170917064 0.183217016 -0.0669736833 -0.5524126493 -0.0667977596 -0.5523451413 0.0523679148 0.1870360224
800295200.0 0.0191505484 0.183156626 -0.073615081 -0.5516546275 -0.0732935223 -0.5517607933 0.0543032027 0.1862317773
805295170.0 0.0207128817 0.1829872517 -0.0789075006 -0.5505558587 -0.078756901 -0.5505671704 0.0560428948 0.1856334455
810295140.0 0.0226974372 0.183043722 -0.0846176401 -0.5500054879 -0.0846187603 -0.5504981696 0.0581773596 0.1857385676
815295110.0 0.0243405077 0.1830201296 -0.0913134917 -0.5488210067 -0.0909117758 -0.5490018577 0.0604737279 0.184695946
820295080.0 0.0262185092 0.182515675 -0.0965862818 -0.5478255777 -0.0964568518 -0.5480436001 0.0623267435 0.184455371
825295050.0 0.0279517216 0.182707969 -0.1024359379 -0.5466032082 -0.1025367431 -0.5467004566 0.0645272706 0.1837654749
830295020.0 0.0296075281 0.1828229753 -0.1084843576 -0.5456441453 -0.1086230846 -0.5458155444 0.0661724965 0.1832585624
