!Created with skrf (http://scikit-rf.org).
# Hz S RI R 50.0 
!freq ReS11 ImS11 ReS21 ImS21 ReS12 ImS12 ReS22 ImS22
300000.0 -0.7771760603 -0.1270672657 -0.0005846289 0.0006495576 0.0001156166 0.000561402 0.8592530911 -0.0027309296
5299970.0 -0.785094262 -0.0061645789 -3.23827e-05 -0.0001097734 -0.0001197106 -6.55128e-05 0.858993536 -0.0103865606
10299940.0 -0.7875869684 -0.0036002542 0.0001953379 -0.000125687 -2.01736e-05 0.0001621552 0.8586639019 -0.0187824303
15299910.0 -0.793442544 -0.0024885686 1.06731e-05 -7.5389e-05 5.22807e-05 -0.000173918 0.8578890807 -0.0270907839
20299880.0 -0.8002635856 0.0022756246 -0.0001085157 -1.28416e-05 -0.0001490622 -0.0001526687 0.8572378735 -0.0356849322
25299850.0 -0.805950567 0.0077190991 5.91708e-05 8.46666e-05 0.0001165258 -1.56242e-05 0.8562026627 -0.0436459254
30299820.0 -0.8122506049 0.0150505548 -4.23218e-05 -3.71463e-05 3.79472e-05 5.12972e-05 0.8550455602 -0.0521008371
35299790.0 -0.8171895581 0.0245990015 6.01468e-05 -7.87943e-05 -7.38407e-05 2.60364e-05 0.8545610738 -0.059678072
40299760.0 -0.8208416834 0.0337626494 -0.0001555629 0.0002080002 -0.0001373882 0.000163261 0.8532720224 -0.0679922902
45299730.0 -0.8250187228 0.0428266981 -0.0001322763 4.84594e-05 0.0001629487 7.93812e-05 0.852369991 -0.076194216
50299700.0 -0.8273458945 0.0532249336 0.0001903337 -0.000110565 2.96162e-05 0.0001947605 0.8518462083 -0.0843893551
55299670.0 -0.8294959141 0.0630273743 0.0001062013 -0.0001628521 -0.0001009741 5.46766e-05 0.8506356992 -0.0928391465
60299640.0 -0.8301362641 0.0738984168 4.7761e-05 2.94436e-05 4.30866e-05 0.0002076583 0.8497403246 -0.1011786239
65299610.0 -0.8311625182 0.0834654925 0.0002324635 9.34408e-05 1.64573e-05 -7.76548e-05 0.8488096977 -0.1086707932
70299580.0 -0.8316923583 0.093407053 7.12219e-05 0.0002251404 0.0001410495 -7.63202e-05 0.8473402012 -0.1173900565
75299550.0 -0.83158059 0.1036409047 -2.01889e-05 -0.0001265176 0.0001009515 0.0002400996 0.8461842498 -0.1259710045
80299520.0 -0.8319710025 0.1133651772 6.82187e-05 -0.0001427566 -6.76301e-05 9.51562e-05 0.8450557195 -0.1339421839
85299490.0 -0.8308959145 0.1228660039 -8.0683e-06 -0.0005351507 -0.000138431 6.19747e-05 0.8436155964 -0.1422499779
90299460.0 -0.8302738429 0.1327261061 -0.0001685783 6.0017e-05 0.0002175716 -0.0001277146 0.8419224412 -0.1500943742
95299430.0 -0.8289165672 0.1421944919 -7.89082e-05 -0.0001996041 0.0001114857 -0.0001381803 0.840185718 -0.1583071016
100299400.0 -0.8281480885 0.151340761 -6.06437e-05 1.81167e-05 0.0001308683 0.0001432932 0.839152849 -0.1670347825
105299370.0 -0.8270703875 0.1602133287 0.0001316033 4.15983e-05 -6.7371e-06 9.30514e-05 0.8370170063 -0.1749766054
110299340.0 -0.8258261455 0.1700489676 0.0002499577 0.0001406013 -2.67559e-05 0.0001221708 0.8358051945 -0.1826780658
115299310.0 -0.8241699852 0.1788302113 8.73165e-05 -0.0001138136 -4.55738e-05 -0.0001368397 0.8338640277 -0.1909009728
120299280.0 -0.8221405966 0.1872419727 -0.0001824961 -0.0002786495 4.10293e-05 -0.0001161251 0.8319918066 -0.1989382733
125299250.0 -0.8202366674 0.1964954396 0.000130649 7.18968e-05 9.50356e-05 -0.0001002846 0.8302332335 -0.2072679018
130299220.0 -0.8188392225 0.2054116781 -4.38844e-05 1.12761e-05 9.95192e-05 0.0002154851 0.8289433299 -0.2150866926
135299190.0 -0.8168406236 0.2142696149 5.5473e-06 8.55047e-05 -0.000131297 -1.39876e-05 0.8263858957 -0.2229371198
140299160.0 -0.814877638 0.2233148906 -0.000220749 -0.0001333784 -7.21112e-05 -0.0001635999 0.8238651368 -0.2315392489
145299130.0 -0.8129872744 0.2324860523 2.94223e-05 -6.1178e-06 -1.55404e-05 -3.21591e-05 0.8215710348 -0.2391659009
150299100.0 -0.8100470434 0.2411357938 0.0001372183 0.0001160601 -5.08216e-05 -2.3718e-05 0.8195037277 -0.2474264916
155299070.0 -0.8077029835 0.2496437425 -6.95977e-05 -1.19753e-05 7.67494e-05 -5.08834e-05 0.8174223976 -0.2549536316
160299040.0 -0.8052867518 0.2577386362 -2.35047e-05 -0.000176725 -6.69925e-05 0.0002581609 0.8143430192 -0.2622275543
165299010.0 -0.8029047545 0.2671544188 1.25942e-05 0.0001137895 -3.01575e-05 4.28627e-05 0.8115108036 -0.2706021834
170298980.0 -0.8001856528 0.2755514353 3.99705e-05 -3.52304e-05 -8.84766e-05 -8.7388e-05 0.8086664283 -0.2782847528
175298950.0 -0.7972264776 0.2840837057 -2.36324e-05 -1.15005e-05 0.0001037284 4.96202e-05 0.8062315479 -0.2859544688
180298920.0 -0.7943010317 0.2927776706 3.2379e-06 -2.52635e-05 -3.0116e-05 0.0001327428 0.8034649668 -0.2945653338
185298890.0 -0.7914994255 0.301073684 -8.17157e-05 3.80723e-05 -7.59419e-05 4.20737e-05 0.800543071 -0.3018471623
190298860.0 -0.7883397337 0.3099234313 3.2168e-06 -0.0001461312 0.0001764234 0.0002903808 0.7975837683 -0.3089293608
195298830.0 -0.7850648425 0.3183549843 -0.0001340563 0.0001024256 0.0001814713 -0.000306239 0.7945809675 -0.3171780468
200298800.0 -0.7815995968 0.3259192457 -0.0001913955 -0.0002332594 3.58992e-05 0.0001097247 0.7914892491 -0.3246286775
205298770.0 -0.778837844 0.3344550558 -0.0001051794 -0.0001774475 0.0002074799 -7.59316e-05 0.7879404548 -0.3320513641
210298740.0 -0.7745235063 0.3422279677 4.08907e-05 -0.0001378535 7.7419e-05 -6.47474e-05 0.784587688 -0.3395270769
215298710.0 -0.7713898389 0.3510948964 7.49891e-05 0.0001291581 -4.20979e-05 -4.77864e-05 0.7813939533 -0.3476040285
220298680.0 -0.7672109452 0.3588576652 3.32375e-05 0.0001267678 -3.37839e-05 -2.5395e-06 0.7776152109 -0.3544051129
225298650.0 -0.7642582217 0.3667083153 0.0002085915 5.04001e-05 0.0002684079 -0.0001281022 0.7737111351 -0.3618533748
230298620.0 -0.7598324614 0.3747122317 4.67177e-05 -0.0001074332 -0.0001563214 1.95501e-05 0.7705461942 -0.3693676993
235298590.0 -0.7560752651 0.3837676696 3.84903e-05 -8.1102e-06 3.70549e-05 1.7563e-05 0.7659993906 -0.3769136557
240298560.0 -0.7524558138 0.3914095708 -8.90207e-05 1.9156e-06 7.18859e-05 0.0001715024 0.7631915991 -0.3853523478
245298530.0 -0.7484635053 0.3990112565 3.79161e-05 6.88847e-05 -9.04895e-05 -0.000232884 0.759400299 -0.3924934851
250298500.0 -0.7443389038 0.4071687753 0.0001689401 -8.94213e-05 0.0001221573 -9.83243e-05 0.7553621859 -0.3991496778
255298470.0 -0.7396470452 0.4140213658 -1.89802e-05 -0.0002252664 4.19686e-05 3.84381e-05 0.7511131038 -0.406614884
260298440.0 -0.7355979217 0.4219248659 6.38507e-05 -8.03803e-05 -0.0001087479 2.7964e-05 0.7471475991 -0.4139110944
265298410.0 -0.7311806865 0.4299850358 -0.0002103143 0.0001928238 0.0001352212 -0.0001981682 0.7439258124 -0.4211889141
270298380.0 -0.7264749853 0.4373464735 0.0002922622 4.2995e-06 6.14438e-05 8.55362e-05 0.7396218091 -0.4284258899
275298350.0 -0.7220362328 0.4451849502 1.3255e-05 -0.0001925773 0.0001942087 0.0001460154 0.7355709879 -0.4355772822
280298320.0 -0.7169297481 0.4524330888 2.34486e-05 -0.0001181107 -5.7891e-06 -5.74169e-05 0.7316531084 -0.4430653314
285298290.0 -0.7132176134 0.4600636448 4.4163e-06 4.1004e-05 0.0001531128 9.57282e-05 0.7276306457 -0.450357089
290298260.0 -0.7078388652 0.4675616497 -0.0001245324 -0.0001198462 6.35751e-05 -1.7362e-05 0.7235943904 -0.4569638073
295298230.0 -0.7028503242 0.4746879489 0.0001828701 -0.0001400601 -0.0001419836 9.67048e-05 0.7195120868 -0.4642960004
300298200.0 -0.697453316 0.48188265 -0.0001028565 -0.0001281349 -6.31879e-05 -4.29785e-05 0.7152097666 -0.4716775526
305298170.0 -0.6922157444 0.4881463379 -4.3745e-05 -8.57075e-05 5.46267e-05 -8.2542e-05 0.7113436454 -0.4795355524
310298140.0 -0.6870996549 0.4964421632 -7.06337e-05 2.07955e-05 7.51873e-05 -4.09378e-05 0.705727001 -0.487068884
315298110.0 -0.6827978218 0.5036477637 -0.0001572593 6.8641e-06 8.55561e-05 0.0002484624 0.7008733297 -0.4944665169
320298080.0 -0.6773280663 0.5106091402 -6.33223e-05 -0.0001287385 2.12303e-05 -5.08623e-05 0.6955203652 -0.5016107636
325298050.0 -0.6718314341 0.517814336 8.30592e-05 -6.20616e-05 -0.000202516 -8.58689e-05 0.6904214582 -0.5089081222
330298020.0 -0.6663188934 0.5242166684 -0.000261825 -1.75673e-05 -4.82597e-05 4.2126e-05 0.6838873468 -0.5151326547
335297990.0 -0.6606544848 0.5308952882 6.42997e-05 -4.98525e-05 4.92732e-05 -0.0001386916 0.6784978359 -0.5212182728
340297960.0 -0.6556008318 0.5377506128 0.0001194154 4.21992e-05 8.19409e-05 -0.0001115587 0.6735454976 -0.5274913349
345297930.0 -0.6504132142 0.5443481262 -8.15815e-05 -2.12769e-05 5.15889e-05 5.66762e-05 0.6679067251 -0.5342424866
350297900.0 -0.6446037459 0.5507900024 -1.92206e-05 -0.0001214305 -0.000160886 -0.0002468469 0.66164808 -0.5397519861
355297870.0 -0.6379598662 0.5580384714 -2.15359e-05 5.3331e-06 3.4401e-05 -5.91999e-05 0.6561220469 -0.5463523685
360297840.0 -0.6326051204 0.5637166635 9.6663e-05 -0.0002015103 0.000101056 2.79948e-05 0.6511549736 -0.552939698
365297810.0 -0.6267172295 0.5706187676 -7.43851e-05 3.50713e-05 0.0001318425 0.0001276969 0.6457000163 -0.5589618049
370297780.0 -0.6204948081 0.5764681219 0.0003350592 0.000120607 1.27963e-05 8.293e-07 0.6401209004 -0.5646148636
375297750.0 -0.6148386677 0.5834857377 -5.07595e-05 0.0001249803 8.13099e-05 -3.19618e-05 0.6344738362 -0.5706003287
380297720.0 -0.608861591 0.5887908181 -5.31602e-05 -3.3356e-06 -0.000106073 -2.81168e-05 0.6280419094 -0.5765713604
385297690.0 -0.6033167416 0.5953769873 5.21901e-05 3.56027e-05 -0.0001348246 -3.4267e-06 0.6229477144 -0.582424199
390297660.0 -0.5964857418 0.6016338088 0.000142934 -9.31162e-05 -5.95293e-05 -7.21452e-05 0.6165978193 -0.5881218023
395297630.0 -0.5901849191 0.6079179506 1.87913e-05 -5.54648e-05 0.000367609 1.21417e-05 0.6111488655 -0.5937906831
400297600.0 -0.5839532339 0.6143412205 9.39346e-05 0.0001455326 -0.0001641913 -5.775e-07 0.6049322902 -0.5994100897
405297570.0 -0.5778806203 0.6198435062 6.82434e-05 0.0001533185 0.0001206853 9.28111e-05 0.5994383963 -0.6059096148
410297540.0 -0.5710443127 0.6252403195 0.0003640668 -9.05993e-05 4.00393e-05 0.0003015684 0.5934112138 -0.6117449813
415297510.0 -0.5643849179 0.6314267341 6.93246e-05 8.44771e-05 0.0001384877 0.0001685093 0.5870552789 -0.6173743181
420297480.0 -0.5588471718 0.6373214108 1.90064e-05 0.0001204476 7.86142e-05 -0.0001019666 0.5812437657 -0.6226244427
425297450.0 -0.5511856316 0.6424668669 -5.32847e-05 0.0002467482 -2.31279e-05 0.0001415993 0.5753201221 -0.6286177437
430297420.0 -0.5455565609 0.6485466954 -0.0001024236 -0.0001749855 6.1919e-05 -0.0001231773 0.5684316668 -0.6344627973
435297390.0 -0.5384223412 0.6533459022 0.0001062621 -6.32002e-05 0.0002064241 0.0002282747 0.5625182884 -0.6396958561
440297360.0 -0.5314469343 0.6592041869 -1.9441e-06 2.80154e-05 -0.0001080315 3.80071e-05 0.556176367 -0.6452962578
445297330.0 -0.5247109814 0.6646999538 -4.51565e-05 5.71451e-05 -7.30737e-05 3.67409e-05 0.5503620163 -0.6514226929
450297300.0 -0.5183681376 0.6692735067 0.0001766329 -1.5185e-06 0.0001847011 -6.85997e-05 0.5435580354 -0.6558683901
455297270.0 -0.5111514657 0.6745686252 6.06317e-05 -8.89579e-05 3.06784e-05 0.0001317377 0.5371353454 -0.6612963765
460297240.0 -0.5046335452 0.6800410498 5.17546e-05 7.52801e-05 5.46439e-05 0.0002952299 0.5302321451 -0.6662552068
465297210.0 -0.4978735763 0.6851872738 -0.0001676674 -0.0001341856 -4.431e-05 -1.57798e-05 0.5238520865 -0.6714656477
470297180.0 -0.4900908555 0.689983111 0.0001287837 -2.9305e-05 8.22888e-05 -0.0003080618 0.5172737887 -0.6763593323
475297150.0 -0.4831652965 0.6945876931 2.0789e-06 -0.0001862004 2.02506e-05 8.29327e-05 0.5106233612 -0.6816348612
480297120.0 -0.476420229 0.6994058825 -0.0001280505 0.0001363429 -4.77913e-05 3.66263e-05 0.5043090395 -0.6859631766
485297090.0 -0.468816417 0.704418923 -6.15549e-05 -8.13661e-05 -3.3078e-06 0.0001028708 0.4978593134 -0.6910443147
490297060.0 -0.4618393632 0.7084462795 -8.85271e-05 1.32834e-05 1.5849e-06 -1.07623e-05 0.4907002288 -0.6960507484
495297030.0 -0.4544084959 0.7127818649 4.95889e-05 4.126e-07 -6.23442e-05 0.0001332743 0.4833533525 -0.7004269054
500297000.0 -0.4469198575 0.7180000759 1.9958e-06 5.64979e-05 2.73237e-05 -0.0001462671 0.4764375261 -0.7050000684
505296970.0 -0.4396707395 0.7225008443 5.25741e-05 2.97757e-05 -2.5731e-06 0.0001369293 0.4695249573 -0.7097814174
510296940.0 -0.432936134 0.7266663454 7.6197e-05 8.97852e-05 0.0001048371 -0.0002087647 0.4629506672 -0.7148053091
515296910.0 -0.4245269794 0.7302711021 -9.99543e-05 0.0002184992 -1.25873e-05 -0.000295245 0.4562513787 -0.7183694691
520296880.0 -0.4176771741 0.7355451304 0.000268863 -7.68069e-05 -5.36729e-05 -0.0001084866 0.44897928 -0.7230040605
525296850.0 -0.4099259207 0.7391464196 -0.0001051602 0.0001725129 -7.08286e-05 0.000108876 0.441937194 -0.7266431059
530296820.0 -0.402504743 0.7439923615 0.0002739485 -7.84525e-05 -8.84363e-05 -0.0002585903 0.43442945 -0.730724528
535296790.0 -0.3956326601 0.7469820008 -0.0001190206 5.09922e-05 0.0002073197 -3.91941e-05 0.4267234866 -0.7357862411
540296760.0 -0.3881840404 0.750636393 -7.14219e-05 0.0002769869 -9.96928e-05 5.91267e-05 0.4191858088 -0.7387616492
545296730.0 -0.3800977714 0.7555597081 -0.0001489982 -0.0001764477 0.0001435853 -2.56342e-05 0.4125025808 -0.7433279151
550296700.0 -0.3731026841 0.7586169569 -0.0002291445 -0.0002296126 -0.0001619513 -9.26084e-05 0.4046877864 -0.7480841701
555296670.0 -0.3642450755 0.7616810916 0.0001078013 0.000222932 1.1976e-06 0.0001441023 0.3971895547 -0.7506066365
560296640.0 -0.3568844256 0.7660399572 -4.33904e-05 0.0002003095 0.0001108717 -2.05393e-05 0.3892861353 -0.7544424483
565296610.0 -0.3495373772 0.7697783335 1.68851e-05 -0.0001574573 -3.59919e-05 -0.0001150542 0.3821588627 -0.7584695364
570296580.0 -0.3419725385 0.7724386088 -8.52921e-05 -0.0002886748 0.0003372699 0.0001887706 0.3747137235 -0.7620034425
575296550.0 -0.3342133037 0.7767885348 -1.55773e-05 -2.40548e-05 -8.9353e-05 -5.27254e-05 0.3669805667 -0.7656608442
580296520.0 -0.3261040759 0.7799746718 -5.50044e-05 2.33068e-05 0.000208487 -8.13604e-05 0.3595108097 -0.7691068455
585296490.0 -0.3184430621 0.7824053001 -0.000142916 6.25111e-05 -1.98956e-05 4.65408e-05 0.3523194574 -0.7725424197
590296460.0 -0.3103259793 0.7860580107 -0.0001451081 8.286e-05 -3.37322e-05 5.38148e-05 0.3436658635 -0.7754993676
595296430.0 -0.3023103895 0.7885247561 0.0001539758 0.0001538314 -9.97274e-05 -5.49337e-05 0.3369560155 -0.7790732406
600296400.0 -0.294529789 0.7916876466 0.0001691199 0.0001189955 0.0001284454 0.0001380004 0.3295228282 -0.7827644716
605296370.0 -0.2870003078 0.7948757347 0.0001372274 0.0001661489 5.04103e-05 -0.0002565454 0.3215299131 -0.785741913
610296340.0 -0.2788665987 0.7973079367 3.01674e-05 0.000115932 6.95815e-05 2.92554e-05 0.3135881919 -0.7888095687
615296310.0 -0.2701243398 0.8002355116 0.0001366293 -9.89815e-05 0.0002656247 -0.0001209084 0.3056208186 -0.7912456757
620296280.0 -0.2624854773 0.8020839148 -2.32662e-05 -0.0001824564 6.90056e-05 -0.0001666915 0.2983154557 -0.794537631
625296250.0 -0.2546328791 0.8053958012 0.000126846 -2.73432e-05 -6.91518e-05 0.000129763 0.2904175833 -0.7975060404
630296220.0 -0.245776273 0.8077984051 -7.4483e-05 -0.0001071372 0.0001378228 -8.58245e-05 0.2820949084 -0.7999281868
635296190.0 -0.2380329326 0.8101065667 5.2879e-05 -3.14978e-05 0.0001790548 0.0001025211 0.2751162434 -0.8029070149
640296160.0 -0.2305551189 0.8124501444 0.0001883013 -0.0001136113 -5.57575e-05 -1.2263e-05 0.26585833 -0.8052296941
645296130.0 -0.2224164458 0.8152641014 0.0001311914 0.000136712 0.0001334343 4.78234e-05 0.2585814317 -0.8077092727
650296100.0 -0.2137504075 0.8169701439 0.0001886253 2.36154e-05 1.41506e-05 0.0001766321 0.2512446207 -0.8107340536
655296070.0 -0.2056820869 0.8189099292 -0.0001256052 3.1721e-06 -0.0001233281 -0.0002340102 0.2430887588 -0.8121229272
660296040.0 -0.1977757712 0.8205088237 8.15238e-05 7.3989e-05 6.15059e-05 -5.66963e-05 0.235188038 -0.8147034319
665296010.0 -0.1892018818 0.8221207444 0.0002131879 -0.0002490307 -3.53283e-05 -3.5007e-06 0.2265977929 -0.8170149481
670295980.0 -0.1816053772 0.8242835811 -0.0001275424 -0.0001697626 0.0002497647 3.6842e-05 0.2188329229 -0.8189303704
675295950.0 -0.1726670982 0.8259985091 -2.68778e-05 -4.96772e-05 9.30641e-05 9.90791e-05 0.2107261473 -0.8204937276
680295920.0 -0.1645402533 0.8278003104 6.08223e-05 -0.0002243353 0.0002054791 -8.96197e-05 0.2026843172 -0.8225580916
685295890.0 -0.1557060017 0.8305570282 -0.0001152628 2.82328e-05 3.16349e-05 -5.88117e-05 0.1943517991 -0.8240634007
690295860.0 -0.1481995151 0.8309435923 -9.1196e-05 3.84006e-05 0.0002960273 -0.0001173593 0.1857309776 -0.8252028034
695295830.0 -0.1397731994 0.8317859776 -5.67447e-05 -0.0001352058 0.0001452561 2.05669e-05 0.1775906949 -0.8274037883
700295800.0 -0.1311774371 0.8333144188 -8.15973e-05 -0.0003654468 0.0001617392 0.0001345663 0.1700600546 -0.8294347387
705295770.0 -0.12349456 0.8348304903 -0.0001339693 6.37218e-05 -0.0001191844 -0.0001863651 0.1608405412 -0.8295883637
710295740.0 -0.1150409783 0.8360609446 -9.44699e-05 0.0001410452 -0.0003118757 5.73052e-05 0.1527580382 -0.8316421336
715295710.0 -0.106839881 0.8377160367 -0.0002260122 5.3389e-05 2.83191e-05 0.000220766 0.1446851467 -0.8330904403
720295680.0 -0.0985843107 0.8381996794 0.0003189066 0.0003620208 5.5543e-06 -4.85074e-05 0.1367302057 -0.8342748322
725295650.0 -0.0905680716 0.8393874084 -2.90201e-05 -7.19564e-05 0.0001999446 -2.8288e-05 0.1279709082 -0.8352032309
730295620.0 -0.0818172622 0.8400063892 4.26282e-05 0.0002446695 2.35733e-05 7.41495e-05 0.1199445857 -0.836702667
735295590.0 -0.0736365626 0.8412873542 -0.0002374622 0.0001103984 2.27504e-05 0.0001349327 0.1113916104 -0.8377540639
740295560.0 -0.0654320087 0.8419077261 -7.17674e-05 -1.9143e-05 7.26255e-05 0.0001502392 0.1030046719 -0.838161539
745295530.0 -0.0567769119 0.8424230404 -1.77906e-05 -9.35915e-05 -0.0001528892 -6.90172e-05 0.0951705221 -0.838790503
750295500.0 -0.0480681332 0.842480995 -5.1504e-05 -9.99235e-05 0.0001261774 0.0001291699 0.0861283261 -0.8398065245
755295470.0 -0.0401509377 0.8435160799 -0.0001189229 4.82855e-05 3.05125e-05 0.0001914937 0.0784473781 -0.8411852036
760295440.0 -0.031787364 0.8429165263 7.15107e-05 6.2809e-05 6.211e-05 0.0002952285 0.0697579042 -0.8420885629
765295410.0 -0.0234481506 0.8435917206 4.47571e-05 3.19421e-05 0.0001325374 0.0003067393 0.0618892522 -0.8421999206
770295380.0 -0.0150743202 0.8436781313 -0.0001093276 0.0002273418 -0.0001618067 -0.0001514102 0.0530794544 -0.8429878778
775295350.0 -0.0068383612 0.8436441244 1.17767e-05 -0.0001932492 -0.0001160054 0.0001590743 0.0441852816 -0.8433788944
780295320.0 0.0016506117 0.8442296969 -0.0001343983 0.0001455573 -1.50886e-05 -0.0001327815 0.0367157942 -0.8431186409
785295290.0 0.0097791041 0.8431935146 -0.0002904176 3.19889e-05 2.84855e-05 -8.52418e-05 0.0284449443 -0.8433527751
790295260.0 0.0185480259 0.8432533759 8.65001e-05 -1.23646e-05 1.01697e-05 -4.9537e-06 0.0210650515 -0.8438208696
795295230.0 0.026233721 0.843306483 0.0001332982 6.55301e-05 -4.81246e-05 7.04266e-05 0.0116410067 -0.8445406168
800295200.0 0.0345892942 0.8429209991 -6.43925e-05 0.0002033146 -9.89971e-05 -4.19866e-05 0.0028475696 -0.8435367615
805295170.0 0.043280247 0.8428752265 -3.5368e-06 0.0001887189 -0.0001050616 0.0001052205 -0.0051449293 -0.8431041977
810295140.0 0.0518029736 0.8420466404 3.19254e-05 5.66637e-05 1.4707e-05 -0.000158576 -0.0122911044 -0.8438674034
815295110.0 0.0596434385 0.8413474527 0.0001483086 -0.0001783298 0.000111366 -0.0001269908 -0.0220160277 -0.8432186488
820295080.0 0.0677705392 0.8409863201 -4.42628e-05 1.13747e-05 5.7947e-06 8.42906e-05 -0.029707999 -0.8427629606
825295050.0 0.0772881011 0.8405283397 -0.0001726607 0.000245281 -0.0001613877 -9.72994e-05 -0.0380334414 -0.8426062332
830295020.0 0.0848179252 0.8400313527 -0.0002732712 -0.0002755573 -8.30798e-05 -0.0003372142 -0.0464122574 -0.8418642833
835294990.0 0.0927908218 0.8389589494 0.000109425 0.0002690298 -1.8685e-06 -9.66031e-05 -0.0550561211 -0.8410634154
840294960.0 0.1013188505 0.838203824 0.0001144714 0.0001193047 1.6691e-05 0.0001517655 -0.0636587533 -0.8404443669
845294930.0 0.1092237508 0.8370936706 0.0001244641 0.0001848702 0.0001170728 2.56404e-05 -0.0714692919 -0.8390141562
