!Created with skrf (http://scikit-rf.org).
# Hz S RI R 50.0 
!freq ReS11 ImS11 ReS21 ImS21 ReS12 ImS12 ReS22 ImS22
300000.0 -0.3238791432 -0.0788367628 0.3776776999 0.0430050643 0.3749045056 0.0406612505 -0.3201608283 -0.0988952665
5299970.0 -0.326600009 0.0042653789 0.378341157 0.0025109194 0.3780308897 0.0024963254 -0.323956902 0.0047990848
10299940.0 -0.3241968178 0.0134688807 0.3794931826 0.0019376922 0.379466196 0.0021101607 -0.3215383568 0.0160711819
15299910.0 -0.3214122549 0.0207653619 0.382119524 0.0022089612 0.3819094159 0.0019197668 -0.3181424359 0.0237543953
20299880.0 -0.3186749559 0.0261489051 0.3848145308 0.0017573346 0.3847714918 0.0014143779 -0.3146760033 0.0303326286
25299850.0 -0.3155279698 0.0315526349 0.3880484161 -6.76706e-05 0.3879151116 0.0001645734 -0.3108274669 0.0359277296
30299820.0 -0.3127921588 0.0358695893 0.3915635699 -0.0024878265 0.3913760105 -0.002223493 -0.3070770205 0.0412494779
35299790.0 -0.3098838255 0.0400456003 0.3950141171 -0.0055108245 0.394859622 -0.005632232 -0.3035470199 0.0453130941
40299760.0 -0.3072948307 0.0436279783 0.3978113834 -0.0087701753 0.3980249823 -0.0086820169 -0.3001649011 0.0483889201
45299730.0 -0.3046358868 0.0465754735 0.4008470603 -0.012761856 0.4007382862 -0.0129536936 -0.2971695294 0.0519710255
50299700.0 -0.3022914177 0.0496176595 0.4034177121 -0.0172423824 0.4033648092 -0.0170552675 -0.294020856 0.0546156453
55299670.0 -0.3003355936 0.0523790934 0.4056681407 -0.0223293092 0.4054187431 -0.0219981275 -0.2916590537 0.0573674138
60299640.0 -0.2979682427 0.0551109108 0.407423939 -0.0269983737 0.4078477068 -0.0270419224 -0.2888597239 0.0594776224
65299610.0 -0.2963201508 0.0572065519 0.4091634162 -0.0320788666 0.4089859893 -0.0320562524 -0.2868576507 0.0615871229
70299580.0 -0.2949000841 0.0600027904 0.4104434431 -0.0369198223 0.4103595309 -0.0371859831 -0.2846622142 0.0641364246
75299550.0 -0.2932334204 0.0625806449 0.4110954998 -0.0423019917 0.4112310078 -0.0427083034 -0.2831780819 0.066129021
80299520.0 -0.2915115892 0.0648285952 0.4123337885 -0.0476715724 0.4125045861 -0.0476140342 -0.2817741428 0.0682931722
85299490.0 -0.2902992929 0.0670858952 0.4129169252 -0.0523416505 0.4128785013 -0.0522621563 -0.2800220773 0.0699847605
90299460.0 -0.2887076648 0.069359226 0.4125557592 -0.0580304956 0.413523514 -0.0578101152 -0.2787094736 0.0719297579
95299430.0 -0.2873201274 0.0715825081 0.4136449351 -0.0633658793 0.413647608 -0.0634303562 -0.2767478437 0.0745282535
100299400.0 -0.2862306973 0.0739255883 0.4128642147 -0.0683883522 0.4131553913 -0.0684609358 -0.2753604513 0.0759551327
105299370.0 -0.2852456369 0.0763956492 0.4131354494 -0.0735949244 0.4134134541 -0.073770846 -0.2738099092 0.0782868704
110299340.0 -0.2841906826 0.078728128 0.4132840846 -0.0787423262 0.4132163863 -0.0786662632 -0.2730323748 0.0802948951
115299310.0 -0.2828037898 0.0815468069 0.4129598726 -0.0839425261 0.4128973938 -0.0837728907 -0.2717068471 0.0822737733
120299280.0 -0.2818674911 0.0830756408 0.4124236609 -0.0890898975 0.4123365081 -0.0893451357 -0.2702408876 0.0845618171
125299250.0 -0.2810053757 0.0856268921 0.4119335177 -0.0941186045 0.4119400817 -0.0939747204 -0.2695452589 0.0863631133
130299220.0 -0.2803667921 0.0881291413 0.4108175764 -0.0991928205 0.4110875866 -0.0993041436 -0.2684634921 0.0884368664
135299190.0 -0.2793359358 0.0907243132 0.4103853501 -0.1042651722 0.4105227514 -0.1040156587 -0.2672419645 0.0912052796
140299160.0 -0.27864235 0.0934564354 0.4097109708 -0.1093484576 0.4095498283 -0.1093266331 -0.2660507409 0.0933572234
145299130.0 -0.2773095014 0.0958378726 0.4088552063 -0.1143955506 0.4085685617 -0.1139830781 -0.2652067889 0.0956185633
150299100.0 -0.2762629675 0.0984012193 0.40756753 -0.1187916827 0.4077204307 -0.1186830184 -0.264406574 0.0983272199
155299070.0 -0.2755932232 0.1008801813 0.4068810479 -0.1241505322 0.4064226583 -0.1242793189 -0.263081235 0.1006696151
160299040.0 -0.2745459563 0.1034635199 0.4055249334 -0.1286484652 0.4050817403 -0.1288460849 -0.2625201148 0.1033379522
165299010.0 -0.2735676406 0.1063581925 0.4043800833 -0.1340655118 0.4040940997 -0.1341252199 -0.2608049633 0.1059386179
170298980.0 -0.2727644236 0.1087866622 0.4021043209 -0.1386917101 0.4027863777 -0.1386620303 -0.2600542364 0.1082751682
175298950.0 -0.2718599512 0.1113537854 0.4017549567 -0.1433362174 0.4010223449 -0.1434441843 -0.2592182675 0.1109578039
180298920.0 -0.2710866796 0.1141656644 0.4001220339 -0.1477144841 0.3997277991 -0.1479917436 -0.2583021079 0.1134555936
185298890.0 -0.2694729551 0.1165031307 0.3982134189 -0.1524570807 0.398109342 -0.1527229113 -0.2570032186 0.1160415988
190298860.0 -0.2686185167 0.1193839055 0.3967885396 -0.1574933349 0.3970739186 -0.157747914 -0.2558472683 0.1185021122
195298830.0 -0.2677704067 0.1218042122 0.3954602879 -0.1619514542 0.3951373013 -0.1620413521 -0.2551404084 0.12083748
200298800.0 -0.266433948 0.1246858742 0.3934369134 -0.1669279096 0.3936018996 -0.1668356356 -0.2543333077 0.1234943068
205298770.0 -0.2656820407 0.1272886713 0.3914729953 -0.1714691206 0.3915072576 -0.1713076812 -0.2529139857 0.1258894403
210298740.0 -0.2642540085 0.1299009398 0.3896242514 -0.1754222246 0.3900076817 -0.1757168172 -0.2520307374 0.1289258756
215298710.0 -0.263326038 0.1325839914 0.3878815595 -0.1801371743 0.3877532206 -0.1807129905 -0.2510809148 0.1314399608
220298680.0 -0.2621030638 0.1351418873 0.3857773131 -0.1845160537 0.3859149208 -0.184796891 -0.2501235211 0.1335587936
225298650.0 -0.2606738422 0.1380591416 0.3838929528 -0.1893554418 0.3843358547 -0.1890685391 -0.2491434579 0.1359728566
230298620.0 -0.2596885059 0.140924662 0.3819141478 -0.1934507874 0.3821610924 -0.1935984597 -0.247767334 0.1385778694
235298590.0 -0.2583458798 0.1436441501 0.3795519351 -0.1980901592 0.3799399122 -0.1977350671 -0.2463863638 0.1411117171
240298560.0 -0.2568320118 0.1462415721 0.3777373967 -0.2026690874 0.3778556099 -0.2028288884 -0.2455430967 0.1441188
245298530.0 -0.2558299274 0.1490946987 0.3757144768 -0.2065840516 0.3754514953 -0.2068861851 -0.2438555049 0.1459908342
250298500.0 -0.2540988378 0.1519825057 0.372708513 -0.2114077735 0.3726483944 -0.210680561 -0.2426341244 0.1486858978
255298470.0 -0.2528717275 0.1542806657 0.3703418651 -0.2152231571 0.370735211 -0.2152085895 -0.2412728922 0.1512432173
260298440.0 -0.2515914202 0.1570422871 0.3680603853 -0.2198329723 0.3685061831 -0.2193773454 -0.2396850377 0.1536133519
265298410.0 -0.2500067938 0.1600260518 0.3658083645 -0.2237694433 0.3661594392 -0.2234021354 -0.2385496606 0.1559459415
270298380.0 -0.2485690574 0.1625962308 0.3636147027 -0.2276671259 0.3635337149 -0.2276845616 -0.2369270727 0.1586750344
275298350.0 -0.2467941828 0.1651699755 0.3607857141 -0.2320628087 0.3610520988 -0.2319294293 -0.2351352763 0.1610404048
280298320.0 -0.2452055128 0.1680487139 0.3584950219 -0.2362091768 0.3584663311 -0.2360539833 -0.2334257305 0.1636366728
285298290.0 -0.2435996613 0.1709390994 0.3557217361 -0.2404285262 0.3558241887 -0.2402858679 -0.2319764545 0.165974866
290298260.0 -0.241941686 0.1731986772 0.3534544625 -0.2437431987 0.3531475577 -0.2441381899 -0.230066219 0.1687301449
295298230.0 -0.2397132982 0.1754942178 0.3502657714 -0.247849865 0.3503824947 -0.2479766954 -0.2282917651 0.1708120702
300298200.0 -0.238575935 0.1783983194 0.3477830164 -0.2515472451 0.3479616282 -0.2520992194 -0.2266504931 0.1732003504
305298170.0 -0.2365606177 0.1804536205 0.344816941 -0.255801345 0.3451185892 -0.2557800314 -0.224688822 0.1754657364
310298140.0 -0.2349134041 0.1834713077 0.3420084606 -0.2597624823 0.3420298811 -0.2599682563 -0.2230570816 0.1778806357
315298110.0 -0.2331911699 0.1858590042 0.3392892486 -0.2635718837 0.339381545 -0.2636323251 -0.2212185789 0.1806097554
320298080.0 -0.2313156927 0.1884175024 0.3360074049 -0.2679184983 0.3364078227 -0.267665996 -0.2191126096 0.1829486996
325298050.0 -0.2295540002 0.1908125252 0.3336146047 -0.271958132 0.3329486456 -0.2713190937 -0.2178212578 0.1851336983
330298020.0 -0.2274967234 0.1931239082 0.3301723254 -0.275244583 0.3302228436 -0.2751420308 -0.2161384461 0.1875744842
335297990.0 -0.2255520479 0.1955997016 0.326717055 -0.2787326928 0.3264981956 -0.2789301062 -0.2145170489 0.1903675257
340297960.0 -0.2242448537 0.1984681918 0.3238893879 -0.2826939296 0.3234210828 -0.2828607907 -0.2120363995 0.1929882308
345297930.0 -0.2221983606 0.2009335713 0.3207078824 -0.2863173348 0.3205502437 -0.2861889513 -0.2106594095 0.1951286404
350297900.0 -0.2199908546 0.202965515 0.3166916835 -0.2894355779 0.3172291255 -0.2896593278 -0.2087701524 0.197977349
355297870.0 -0.2178358038 0.2061354567 0.3139219782 -0.2931857468 0.3138773767 -0.2928700492 -0.2067350656 0.2001479175
360297840.0 -0.2161137704 0.2084160343 0.3112936663 -0.2963829116 0.3111833724 -0.296297645 -0.2050774837 0.2028878364
365297810.0 -0.2140953051 0.2109005712 0.3074853759 -0.3001948401 0.3080182366 -0.3001221322 -0.2028333158 0.205167774
370297780.0 -0.2115718877 0.2130674212 0.3040804398 -0.303313978 0.3044786899 -0.3028405141 -0.2007697896 0.2076151911
375297750.0 -0.209582897 0.2157360642 0.3010673275 -0.3067673684 0.3010978558 -0.306586469 -0.1986665115 0.2094099733
380297720.0 -0.2074442175 0.2176329512 0.2970863271 -0.3094941516 0.2974962692 -0.3093609517 -0.1969888467 0.2120355481
385297690.0 -0.2054923511 0.2207110414 0.2937462829 -0.3130994579 0.2938692173 -0.3129190031 -0.1947794037 0.2144964115
390297660.0 -0.2031924069 0.2226437622 0.2904348921 -0.3164144572 0.2904121295 -0.3161001363 -0.1926558198 0.2167118614
395297630.0 -0.2003902691 0.225147222 0.2867602307 -0.3193586637 0.2867972031 -0.3195835515 -0.189906407 0.2186859866
400297600.0 -0.1984840126 0.2277580274 0.2830678264 -0.3228012338 0.2835334541 -0.3224907181 -0.1881266476 0.2209869972
405297570.0 -0.1964055249 0.2292652269 0.27976962 -0.3256476082 0.2796840221 -0.3257153102 -0.1859410156 0.2229434924
410297540.0 -0.1936121019 0.2318056185 0.2761275979 -0.3288330006 0.2763359881 -0.3289320181 -0.183635888 0.22548644
415297510.0 -0.1907563481 0.2336915911 0.2722044208 -0.3321084528 0.2725859242 -0.3319263943 -0.1815638885 0.2273079424
420297480.0 -0.1893781515 0.2364965072 0.268922597 -0.3345029128 0.2686863817 -0.3346998954 -0.1790829496 0.2294393886
425297450.0 -0.1865194032 0.2383267945 0.2654132799 -0.3376773235 0.2654701872 -0.3378919887 -0.177128584 0.2316847467
430297420.0 -0.1841405025 0.2403054626 0.2613085573 -0.340098563 0.2614786493 -0.3401562084 -0.1748054283 0.233005205
435297390.0 -0.1817691709 0.2426096433 0.2571942842 -0.3434972945 0.2572393361 -0.3433705362 -0.1716452881 0.2351948744
440297360.0 -0.1791393758 0.2445162704 0.2537531021 -0.3457940474 0.2538776732 -0.3459959648 -0.1696465094 0.2371589575
445297330.0 -0.1766152237 0.2462409322 0.2500709143 -0.3485150116 0.2502158722 -0.3486545818 -0.1671034655 0.2385271523
450297300.0 -0.1737768453 0.2482178391 0.2462026018 -0.3513873426 0.2458277974 -0.3515705414 -0.1644627858 0.2402576094
455297270.0 -0.1713612165 0.2506309316 0.2421250059 -0.3539411127 0.242306649 -0.3542783892 -0.1622442072 0.2423756314
460297240.0 -0.1691833672 0.2523157517 0.238114726 -0.3567118282 0.2383593379 -0.3566451082 -0.1595491505 0.2442657569
465297210.0 -0.1662044523 0.2544754465 0.2346448999 -0.3592218074 0.2345544182 -0.3594586987 -0.1570252584 0.245818536
470297180.0 -0.1632821505 0.2562465166 0.2299278411 -0.3617873391 0.2303419275 -0.3620034682 -0.1542707078 0.2479089378
475297150.0 -0.1609141852 0.257925543 0.2261341631 -0.3637792534 0.2263499686 -0.3639048656 -0.1511886981 0.249302219
480297120.0 -0.1583019703 0.2602196204 0.2223901071 -0.3668692256 0.2219507304 -0.3672494002 -0.1486489191 0.2512677479
485297090.0 -0.1556585988 0.2617801573 0.2184668377 -0.3691598993 0.218518683 -0.3687967769 -0.1462966402 0.2532918595
490297060.0 -0.1529216997 0.2634964275 0.214281595 -0.3714196087 0.2141837968 -0.3713778211 -0.1433959501 0.2547741904
495297030.0 -0.1502338454 0.2651582085 0.2101915089 -0.3734325168 0.2105495455 -0.3737739987 -0.1407104599 0.2566459551
500297000.0 -0.1474393536 0.2667633916 0.2059978233 -0.3755340536 0.2059149098 -0.3755767773 -0.1381003509 0.2585960931
505296970.0 -0.1444873963 0.2685200268 0.2020812826 -0.3777184854 0.2014247361 -0.3780798945 -0.1354406063 0.2599637496
510296940.0 -0.141873702 0.2702310022 0.1977113931 -0.3801161779 0.1977523302 -0.3803140119 -0.1324899548 0.2613830635
515296910.0 -0.1387187225 0.272051174 0.1937556951 -0.3828468382 0.1934424281 -0.3822841647 -0.1299515324 0.263362658
520296880.0 -0.1363161984 0.2738819754 0.1896796945 -0.3848322168 0.1894727922 -0.3841841389 -0.1270565281 0.2645977127
525296850.0 -0.1329807294 0.2748457578 0.1849381852 -0.3863565348 0.1853691981 -0.3865720528 -0.1244055625 0.2665347137
530296820.0 -0.1299983849 0.2767225491 0.1808751254 -0.3886247806 0.1808514488 -0.3883395711 -0.1215234677 0.2676924936
535296790.0 -0.1278033766 0.2782034708 0.1771469392 -0.390166728 0.1767408041 -0.3899394364 -0.1186854494 0.2689378831
540296760.0 -0.1243420146 0.2797480542 0.1723566332 -0.392486315 0.172531104 -0.3922795466 -0.1163864758 0.2706771007
545296730.0 -0.1217316401 0.2814524312 0.168022905 -0.3939112462 0.1679879446 -0.3939313904 -0.1133236465 0.2722078264
550296700.0 -0.1184115445 0.2826883499 0.1636153975 -0.3961834199 0.1636840477 -0.3960411995 -0.1105832943 0.273803831
555296670.0 -0.1158741896 0.2839471499 0.1599820924 -0.3975375448 0.1596377294 -0.3974913015 -0.1078320167 0.2752525172
560296640.0 -0.1124448075 0.2855135723 0.1550937991 -0.3993733406 0.1551386425 -0.3992867409 -0.1049851601 0.2765228099
565296610.0 -0.1098311614 0.2866627277 0.1506069871 -0.4009956249 0.1511214098 -0.4010126884 -0.1021389454 0.2776742461
570296580.0 -0.1067641752 0.2880992004 0.1463753225 -0.4027695574 0.1458241173 -0.402486029 -0.0992358754 0.2792604105
575296550.0 -0.1039467218 0.2897422914 0.1420807777 -0.404579684 0.1416396689 -0.4041543831 -0.0962767122 0.2804469642
580296520.0 -0.1003759275 0.2905462154 0.1371350694 -0.4056886739 0.1373608527 -0.4057787755 -0.0931739891 0.2816096414
585296490.0 -0.0979826448 0.2914828846 0.1332166942 -0.4067146081 0.1332333595 -0.4071295226 -0.0904259476 0.2822799526
590296460.0 -0.0945354304 0.2927520346 0.1287886114 -0.4080464207 0.1286452016 -0.4082707797 -0.0879859494 0.2835599143
595296430.0 -0.0909309412 0.2938437117 0.1237496164 -0.4098841621 0.1240366783 -0.4098703901 -0.0850433052 0.2841713193
600296400.0 -0.0883511035 0.295100636 0.1193985713 -0.4110292475 0.1198100954 -0.4106385229 -0.0818686511 0.2850302989
605296370.0 -0.085781675 0.2962573214 0.1148681863 -0.412350793 0.1151074207 -0.4121967306 -0.0786545595 0.2864712093
610296340.0 -0.082287122 0.2971375581 0.1106800654 -0.4134533406 0.1106466429 -0.4128848921 -0.0756697141 0.2871306572
615296310.0 -0.0787775751 0.2977600224 0.1059315592 -0.4143650595 0.1057234073 -0.4147189912 -0.0725516422 0.2879244117
620296280.0 -0.0759660373 0.2987901608 0.1013722521 -0.4152657749 0.1014289167 -0.4155401743 -0.0697880581 0.288722298
625296250.0 -0.0730976684 0.2997876313 0.0976249346 -0.416584769 0.0969672014 -0.4167758355 -0.0661533009 0.289446432
630296220.0 -0.0692275364 0.3007254354 0.0922252367 -0.4177986659 0.0921875193 -0.4174836711 -0.0634855436 0.2906482895
635296190.0 -0.0668453262 0.3015738836 0.0877652142 -0.4186670791 0.0876312309 -0.4184133293 -0.0602729052 0.2911207067
640296160.0 -0.0637116765 0.3024108816 0.0834017932 -0.419299306 0.0835679967 -0.4196080945 -0.0572104259 0.2920422997
645296130.0 -0.0602199704 0.3032163182 0.0786248958 -0.4198523706 0.078790275 -0.4197620741 -0.0540906775 0.2927442594
650296100.0 -0.0570979158 0.3041047875 0.0742512512 -0.4208891439 0.074413714 -0.4210449568 -0.050724941 0.292959047
655296070.0 -0.0540268389 0.3045045848 0.0696755584 -0.4220832773 0.0696074394 -0.4217782992 -0.0475448907 0.293910877
660296040.0 -0.0511633124 0.3051470001 0.0654153462 -0.4222505798 0.0650886225 -0.4224075361 -0.0439760696 0.2947778751
665296010.0 -0.0473188571 0.3058125829 0.0604499591 -0.422967299 0.0603901298 -0.4229363264 -0.0409699457 0.2959760368
670295980.0 -0.0450361982 0.306655615 0.0558738259 -0.4234208425 0.0559799151 -0.4236003345 -0.0383781962 0.2960846624
675295950.0 -0.041532319 0.3070108823 0.0519578998 -0.4240107692 0.0515381247 -0.423601096 -0.0353184451 0.2967477886
680295920.0 -0.0382200949 0.3079240887 0.0468561225 -0.4245540815 0.0463363999 -0.4249939036 -0.0317804932 0.2980099132
685295890.0 -0.0346024757 0.308659347 0.041879449 -0.4250662713 0.0417068553 -0.4253530338 -0.0286040769 0.2978922024
690295860.0 -0.0312240419 0.3089322475 0.0376903217 -0.4252152366 0.0378015904 -0.4258567341 -0.0258379329 0.2987812313
695295830.0 -0.0278933969 0.3089557818 0.0329478201 -0.4256822225 0.0324045388 -0.4255314375 -0.0224456507 0.2991256733
700295800.0 -0.0249598254 0.3093413375 0.0281122268 -0.4258754805 0.0280819289 -0.4260066262 -0.0194201379 0.2999230344
705295770.0 -0.0219847294 0.3104526277 0.023678611 -0.4264597843 0.0238914554 -0.4262823438 -0.0164781843 0.3002613706
710295740.0 -0.0184858315 0.3108264731 0.0192858749 -0.4270129116 0.0191057263 -0.4266068292 -0.0128407107 0.3000337303
715295710.0 -0.015509206 0.3108095721 0.0148679512 -0.4268508743 0.0146249043 -0.4265680588 -0.01013393 0.3004729778
720295680.0 -0.011906678 0.3110289238 0.0099451739 -0.4271352019 0.0099814262 -0.4268856161 -0.007057368 0.301276286
725295650.0 -0.0086709765 0.3115153425 0.0050312858 -0.4273749764 0.0052043974 -0.4270174157 -0.0041539669 0.3016577
730295620.0 -0.0052810934 0.3117357247 0.0005409742 -0.4266392136 0.0006693828 -0.426993492 -0.0009737155 0.3015678252
735295590.0 -0.0023066513 0.3120552338 -0.0039693207 -0.427005009 -0.0038770966 -0.4267890672 0.0020157318 0.3016046985
740295560.0 0.000852134 0.3121872401 -0.0083594642 -0.4267474287 -0.0085951525 -0.4265838883 0.0057660886 0.3018458668
745295530.0 0.0039393768 0.3125807681 -0.0129247303 -0.4262500219 -0.0134005808 -0.4265802075 0.0086088174 0.3018273745
750295500.0 0.0078588251 0.3123396392 -0.0177464538 -0.4260022491 -0.0176060484 -0.4266541521 0.0115958938 0.3021082134
755295470.0 0.0107480916 0.3123601636 -0.0225450334 -0.4262032241 -0.0225155483 -0.426005826 0.0149066809 0.3015478406
760295440.0 0.0137630434 0.3123833088 -0.02679365 -0.4259248581 -0.0272685509 -0.4262321427 0.0180539524 0.3016124454
765295410.0 0.0171781402 0.3123687251 -0.0316214092 -0.4255425984 -0.0318677228 -0.4254705175 0.0212150557 0.3015076275
770295380.0 0.0205592588 0.3120934949 -0.0365543035 -0.4252335923 -0.0365023616 -0.4248239742 0.0240241322 0.3013988342
775295350.0 0.0234200264 0.3119646259 -0.0410462956 -0.4244065324 -0.0403968705 -0.4244902037 0.0266882551 0.3010271343
780295320.0 0.0270966081 0.3120061927 -0.0455988916 -0.4238995781 -0.0448083456 -0.4237276171 0.0301677815 0.3008408619
785295290.0 0.0299030237 0.3115968646 -0.0502130314 -0.4231141139 -0.0500322877 -0.4235248712 0.0340132986 0.3007353756
790295260.0 0.0338448372 0.3118478938 -0.0543706041 -0.4227732787 -0.0539479649 -0.4227138182 0.0370410983 0.3004762097
795295230.0 0.0365513784 0.3112134797 -0.0591322493 -0.4221894522 -0.0590444892 -0.422237247 0.0403882871 0.3003811685
800295200.0 0.0397133329 0.31103464 -0.0640013026 -0.4211276082 -0.0638205631 -0.4212631741 0.0436285702 0.2997927643
805295170.0 0.0434026863 0.3103764804 -0.0683026415 -0.4206016334 -0.0684306806 -0.4209136899 0.0468295992 0.2995230584
810295140.0 0.0463327568 0.3100915216 -0.0723717058 -0.4194828557 -0.0728391291 -0.4199281545 0.0499587212 0.2994063205
815295110.0 0.0498022791 0.3098625583 -0.0772152886 -0.4188980499 -0.0771177485 -0.4188820963 0.0531085555 0.2987525846
820295080.0 0.0527335714 0.3095139753 -0.0815560377 -0.4179410667 -0.0815166607 -0.4180384289 0.0562631318 0.2985112081
825295050.0 0.056509624 0.3089028085 -0.086169903 -0.417129628 -0.0859255738 -0.4171939487 0.0597069932 0.2981813585
830295020.0 0.0593232809 0.3085824303 -0.0909338048 -0.4159929065 -0.0907149935 -0.4162892386 0.0634147583 0.297676766
