!Created with skrf (http://scikit-rf.org).
# Hz S RI R 50.0 
!freq ReS11 ImS11 ReS21 ImS21 ReS12 ImS12 ReS22 ImS22
300000.0 -0.316326567 -0.1232962909 0.3709736151 0.0614406797 0.3717884201 0.0632020534 -0.3144915356 -0.1280591652
5299970.0 -0.3250283352 0.002910967 0.3783868237 0.0028116076 0.3788704111 0.0034316282 -0.3260751635 0.0024449657
10299940.0 -0.3224031941 0.0145489292 0.3800884624 0.0026681339 0.3798765479 0.003206161 -0.32375187 0.0128073245
15299910.0 -0.3190198894 0.0224685915 0.3820885798 0.0025199931 0.3824516651 0.0027186382 -0.3209560921 0.0197345098
20299880.0 -0.3157068636 0.029019999 0.3849816195 0.0017541604 0.3854153214 0.0017990922 -0.318143745 0.0260445213
25299850.0 -0.3116618746 0.0351115085 0.3885957928 0.000457507 0.3886747996 6.33112e-05 -0.3149622477 0.0313752666
30299820.0 -0.3082331083 0.0392260003 0.3917037898 -0.0020381215 0.3919777383 -0.0022105038 -0.3122191558 0.0355510849
35299790.0 -0.3044661243 0.0435082309 0.3951825287 -0.0052627072 0.3955294145 -0.0053985531 -0.3092355051 0.0399356917
40299760.0 -0.301408234 0.0467901067 0.3986300607 -0.0086768266 0.3984252742 -0.0088870457 -0.3065902238 0.0434395678
45299730.0 -0.2982560643 0.0500792769 0.40115534 -0.0123252514 0.4015709436 -0.0125199255 -0.3038690259 0.0464886121
50299700.0 -0.2947358905 0.0526066957 0.4035805456 -0.0172741967 0.4038969851 -0.0171520413 -0.3013142031 0.0497631276
55299670.0 -0.2922814716 0.0554965366 0.4062913306 -0.0216120979 0.4059850845 -0.0223051947 -0.2994114483 0.0522331053
60299640.0 -0.2894409621 0.0576980999 0.4078341771 -0.0266820586 0.4080841753 -0.0268581495 -0.2973907695 0.0546721432
65299610.0 -0.2872156912 0.0603877373 0.4099813022 -0.0313494216 0.4099761579 -0.0318301994 -0.2953984534 0.0575036852
70299580.0 -0.2853140244 0.0622663927 0.4104893028 -0.0368802677 0.4111546798 -0.0369160535 -0.2939770451 0.0598585656
75299550.0 -0.2835418336 0.0643470043 0.4117106125 -0.0419710161 0.4122792715 -0.042223759 -0.2922407397 0.0623258934
80299520.0 -0.2819203574 0.0665102375 0.4128756512 -0.047451095 0.4129566218 -0.0475697507 -0.2907040014 0.0647023199
85299490.0 -0.2798312161 0.0684154415 0.4133586865 -0.0524785413 0.4136668913 -0.0525085423 -0.2892236466 0.0670027308
90299460.0 -0.2785328453 0.0706595477 0.413689473 -0.0576930519 0.4139307154 -0.0578185486 -0.2878192739 0.0694260644
95299430.0 -0.2769512575 0.0727429192 0.414082658 -0.063034616 0.4144169663 -0.063628292 -0.2866036805 0.0716858766
100299400.0 -0.2752414704 0.074815711 0.414022033 -0.0678536975 0.4141895191 -0.0681762157 -0.2855050306 0.0743502041
105299370.0 -0.2740108632 0.0766386687 0.4138177858 -0.0730185249 0.4141167165 -0.0735358733 -0.2839993429 0.0761925688
110299340.0 -0.2726972043 0.0789567442 0.4136960214 -0.0781773664 0.4142901122 -0.0781730363 -0.2837253603 0.0784717483
115299310.0 -0.2716989311 0.0809051081 0.4134096022 -0.0835349174 0.4134815869 -0.0836368072 -0.2823223735 0.0813891657
120299280.0 -0.2707179028 0.0830638152 0.4132577619 -0.0888295519 0.4131070926 -0.0892349844 -0.2813260815 0.0832756114
125299250.0 -0.2693106594 0.0851164454 0.4125467849 -0.0936303644 0.4129125131 -0.0939130065 -0.2800754945 0.0859884313
130299220.0 -0.2684607771 0.0875970272 0.412014849 -0.0989012461 0.4120086383 -0.0994684634 -0.2790797142 0.0883557068
135299190.0 -0.2672346892 0.0902180809 0.4113846956 -0.1038710199 0.4114514024 -0.1043488212 -0.2782779889 0.0904585058
140299160.0 -0.2662138048 0.0921532124 0.4105383634 -0.109255758 0.4103985718 -0.1087093036 -0.2779200894 0.0928133124
145299130.0 -0.2652888098 0.0948292953 0.4095247492 -0.1140337894 0.4095262049 -0.1140171823 -0.2766073472 0.0960128009
150299100.0 -0.2640392338 0.0970486712 0.4083964006 -0.1191331678 0.4081440825 -0.1190115762 -0.2759283589 0.098231743
155299070.0 -0.2631226045 0.0994678444 0.4068339939 -0.1235711161 0.4076043846 -0.123843318 -0.2744684384 0.1010765661
160299040.0 -0.2623677716 0.1019604723 0.4063687535 -0.1285661831 0.406035004 -0.1291135073 -0.2740829016 0.1034479766
165299010.0 -0.2614661042 0.1042091807 0.4052866947 -0.1333255038 0.4047984302 -0.1336271739 -0.2730420552 0.1057643298
170298980.0 -0.2600262691 0.1070479335 0.4034493929 -0.1382584851 0.4035128524 -0.1384169746 -0.2724120845 0.1086652096
175298950.0 -0.2593061598 0.1091903285 0.4024587847 -0.1429022601 0.4024150337 -0.1435021376 -0.2711342679 0.1116725574
180298920.0 -0.2583229117 0.1120139995 0.4006370203 -0.1483122517 0.40053695 -0.1478696678 -0.26996222 0.1135566081
185298890.0 -0.2571521057 0.114367565 0.3993173181 -0.1527372747 0.3992617958 -0.152755407 -0.2688799663 0.1167266684
190298860.0 -0.2557503634 0.117325066 0.397268444 -0.1573435719 0.3976698567 -0.1575519927 -0.268132665 0.1193684525
195298830.0 -0.2548634372 0.1196995072 0.3962180996 -0.161841617 0.3961462947 -0.161855657 -0.2670557646 0.1218069038
200298800.0 -0.2535013222 0.1220527997 0.3942641911 -0.1668815842 0.3944417047 -0.166981163 -0.2659120156 0.1244476943
205298770.0 -0.2527077432 0.1246997021 0.3923556237 -0.1706417457 0.392566862 -0.1713201702 -0.2647779701 0.1272948387
210298740.0 -0.2517031657 0.127245679 0.3906851426 -0.1755779198 0.3906058644 -0.1755799064 -0.2639210719 0.1298228659
215298710.0 -0.2502847052 0.1302700625 0.3882633764 -0.1799473275 0.3886277431 -0.1804128205 -0.2624144682 0.1325162414
220298680.0 -0.2489213248 0.1325564728 0.3866499961 -0.1845752926 0.3867726373 -0.1851442637 -0.261193058 0.135186189
225298650.0 -0.2477356965 0.1353442897 0.3844913229 -0.1888339015 0.3848442878 -0.1886346878 -0.2600997764 0.1379563808
230298620.0 -0.2467005272 0.1380461373 0.3826064695 -0.1932786128 0.3831032026 -0.1936051327 -0.2588150623 0.1406426606
235298590.0 -0.2455839833 0.1406405008 0.3808577598 -0.1981332171 0.3807319261 -0.198143634 -0.2572265548 0.14342873
240298560.0 -0.2439085197 0.1431743004 0.3780674385 -0.2022613298 0.378645257 -0.2021411979 -0.2562458608 0.1457571525
245298530.0 -0.2427814721 0.1456642785 0.376234749 -0.2065826084 0.3763588967 -0.2067966307 -0.2549068173 0.1487453972
250298500.0 -0.2414910481 0.1481212031 0.3738239398 -0.2105547705 0.3740486509 -0.2108400645 -0.2536079669 0.1515578131
255298470.0 -0.2400578468 0.1511064576 0.3717480021 -0.2146325093 0.3722464151 -0.2152371159 -0.2521251034 0.1541889075
260298440.0 -0.2386012991 0.1536070936 0.3696123242 -0.218699311 0.3697083456 -0.2192210178 -0.2508654221 0.1565952885
265298410.0 -0.2375118268 0.156125843 0.3669411448 -0.2233645305 0.3666776518 -0.223634111 -0.2490120223 0.1591155522
270298380.0 -0.2360034035 0.158730549 0.3644078112 -0.2275035133 0.3645507269 -0.2275246797 -0.2476837415 0.1621548307
275298350.0 -0.2344915426 0.1616657328 0.3615920312 -0.2313607167 0.3621487456 -0.2312230897 -0.2458404151 0.1647852982
280298320.0 -0.2330989715 0.1640583846 0.3593854914 -0.2352862182 0.35955038 -0.2356444721 -0.2445639144 0.1675009893
285298290.0 -0.231635707 0.1668180341 0.356802714 -0.2396469699 0.3571069686 -0.2395791734 -0.2431851327 0.170300859
290298260.0 -0.229837434 0.1695576973 0.3545476899 -0.2434788123 0.3544115439 -0.2437917705 -0.2412976649 0.172898556
295298230.0 -0.2283785177 0.1715930771 0.3517139581 -0.2480000468 0.3516833139 -0.2481878162 -0.2394667548 0.1752720454
300298200.0 -0.2268905327 0.1744495119 0.3488877928 -0.2514649957 0.3490807037 -0.2517656401 -0.2376938162 0.1782025067
305298170.0 -0.2254892557 0.1766210512 0.346391535 -0.2556140577 0.3463369718 -0.255767219 -0.2356275778 0.180366346
310298140.0 -0.2232804843 0.1788696104 0.3432036213 -0.2595958208 0.3436682481 -0.2593354099 -0.234218044 0.1828646757
315298110.0 -0.2219023102 0.1812511825 0.3403562514 -0.2636552328 0.340755691 -0.2640302921 -0.232281965 0.1853265052
320298080.0 -0.2202122402 0.1835525314 0.3370188718 -0.2674379798 0.3379999578 -0.2673968675 -0.2307363607 0.187844471
325298050.0 -0.2187046068 0.1856896851 0.3342556753 -0.2709224688 0.3350332004 -0.2711912249 -0.2283296698 0.1901204245
330298020.0 -0.2173711144 0.1885950548 0.3316712701 -0.274724499 0.3318103092 -0.2749738067 -0.2269364975 0.1927474139
335297990.0 -0.215446864 0.1909218724 0.3282506919 -0.2785900976 0.3283908488 -0.2787577685 -0.2247954058 0.1950696501
340297960.0 -0.2137637997 0.1932416103 0.3248071139 -0.282298908 0.3249573047 -0.2825551598 -0.2232282598 0.1980584868
345297930.0 -0.2120608174 0.1956813863 0.3218801031 -0.2859105272 0.321720842 -0.285916496 -0.2209773877 0.2001950481
350297900.0 -0.210212061 0.1977413657 0.3190021199 -0.2890791418 0.3189677437 -0.2892897889 -0.2196398858 0.2027962999
355297870.0 -0.2081213201 0.2001399754 0.3155239229 -0.2925518426 0.3154512518 -0.2927302284 -0.2172940009 0.2054410045
360297840.0 -0.2063000615 0.202872535 0.3117757109 -0.2964606506 0.3123794418 -0.2965811152 -0.2148988347 0.2077054403
365297810.0 -0.2045303756 0.2052364169 0.3092697289 -0.2996679601 0.3092501921 -0.3002050026 -0.2136840521 0.2103121164
370297780.0 -0.2024278841 0.2074868023 0.3053616303 -0.3030038304 0.3056744042 -0.3032027627 -0.2110341108 0.2125894344
375297750.0 -0.2006468044 0.2098064159 0.3023564609 -0.3063799799 0.3024753148 -0.3064030754 -0.2088410566 0.2151034507
380297720.0 -0.1986569966 0.2119138518 0.2992376746 -0.3098326747 0.2989541852 -0.3100064802 -0.2068114275 0.2173126147
385297690.0 -0.1966038812 0.214015299 0.2954062336 -0.3127608179 0.2953739304 -0.3137149823 -0.2043756691 0.2200835797
390297660.0 -0.1940441527 0.2161938471 0.2917548543 -0.3160307758 0.2919745121 -0.3162778752 -0.2021609977 0.2217912093
395297630.0 -0.1919067418 0.2186264131 0.2881536622 -0.319112418 0.2887243434 -0.3192354962 -0.2000347628 0.224201579
400297600.0 -0.1899520235 0.2204794928 0.2845916812 -0.3226843546 0.2850962739 -0.3226800453 -0.1977393565 0.2267985974
405297570.0 -0.187913228 0.222161765 0.2813658961 -0.3252381297 0.2815312935 -0.3255639941 -0.1948435926 0.2289905465
410297540.0 -0.1854948767 0.2248507168 0.27776061 -0.3287755476 0.277845224 -0.3284663582 -0.1928487879 0.2311319689
415297510.0 -0.1833610394 0.2267173048 0.2741380888 -0.3316140697 0.2746749077 -0.3319712142 -0.190535106 0.2330948754
420297480.0 -0.1810673869 0.2285267861 0.2703785229 -0.3348518951 0.2705232933 -0.3349246762 -0.1876005958 0.2357045519
425297450.0 -0.1785755588 0.2308421187 0.2668972474 -0.3375839421 0.2664253158 -0.3374965779 -0.1854046503 0.2370460157
430297420.0 -0.1763583744 0.2329665939 0.2635290819 -0.3404336972 0.2633412816 -0.3403439852 -0.183131243 0.2399372724
435297390.0 -0.1739603496 0.2344741345 0.2591614321 -0.3437943693 0.2595238277 -0.3433210319 -0.1811312936 0.2421423902
440297360.0 -0.171282257 0.2366994889 0.2552916432 -0.3461763511 0.2555532287 -0.3462982353 -0.1783022052 0.2440653465
445297330.0 -0.1690110288 0.238059095 0.2519103937 -0.3488187524 0.2515346327 -0.3493669546 -0.1754323552 0.2462143432
450297300.0 -0.166484545 0.2403908215 0.2480495281 -0.3514051467 0.2483879045 -0.3518506528 -0.17288459 0.2482770787
455297270.0 -0.1643507086 0.2422621776 0.2441830402 -0.354394111 0.2445570483 -0.3542654033 -0.1703975894 0.2498705414
460297240.0 -0.1611965763 0.244340129 0.2401894951 -0.3575776071 0.2402741402 -0.3571439664 -0.1678465586 0.2520045598
465297210.0 -0.158935362 0.2460089854 0.235691216 -0.359857134 0.2359698265 -0.3599254094 -0.164770788 0.2543739506
470297180.0 -0.1563510315 0.2477721384 0.2319800276 -0.3617773081 0.2323871119 -0.3620194053 -0.1620742878 0.2559260741
475297150.0 -0.1541499249 0.2494663054 0.2281875265 -0.3647334362 0.2283682207 -0.3646025535 -0.1596063475 0.2577063426
480297120.0 -0.1509419628 0.2514246182 0.2241454699 -0.3673252437 0.2241665652 -0.3669265096 -0.1569706764 0.2596722186
485297090.0 -0.148582372 0.2526416504 0.2198835985 -0.3695151057 0.2202581601 -0.3693213709 -0.1543602626 0.2616113751
490297060.0 -0.1450457994 0.2546654927 0.2152907987 -0.3721235794 0.215637175 -0.3722324284 -0.1512703089 0.2631183537
495297030.0 -0.1429123545 0.2559826899 0.2120389341 -0.3741951708 0.2118752865 -0.3744230221 -0.1482045079 0.2648768054
500297000.0 -0.1403609471 0.2576645738 0.2079038187 -0.3761234634 0.2076126552 -0.3765726445 -0.1457959282 0.2665651251
505296970.0 -0.1370789944 0.2595332026 0.2036204026 -0.3790573368 0.203584946 -0.3785689333 -0.1429385987 0.2677066581
510296940.0 -0.1345964362 0.2610852491 0.1996996194 -0.3814769122 0.199463141 -0.3813959898 -0.1393648492 0.2701184757
515296910.0 -0.1317614739 0.2629215208 0.1951199356 -0.38312156 0.1950135774 -0.3830416435 -0.1374694648 0.2712616347
520296880.0 -0.1288078609 0.2644202384 0.190856016 -0.3853228785 0.1904752347 -0.3852886401 -0.1338423674 0.2734932253
525296850.0 -0.1260914213 0.2658773456 0.1866391643 -0.3872773971 0.1861880446 -0.3873474416 -0.1312889823 0.2750036755
530296820.0 -0.1233009597 0.2670532813 0.1823502796 -0.3890500371 0.1825579302 -0.3891820544 -0.1281055749 0.2759575951
535296790.0 -0.1198221137 0.2687246165 0.1779532955 -0.3911960354 0.1778960946 -0.3911972413 -0.1251415226 0.2778271793
540296760.0 -0.1174551305 0.270183281 0.1738265275 -0.3930343059 0.1736334804 -0.3927555153 -0.1225402475 0.2787567395
545296730.0 -0.114594339 0.2718674307 0.1695416018 -0.3947778503 0.16931756 -0.3948073188 -0.119391047 0.2808794277
550296700.0 -0.110852196 0.2727332165 0.1648271886 -0.3964826997 0.1650140064 -0.3967657627 -0.1163985309 0.2818558375
555296670.0 -0.1085194894 0.2741603529 0.1607517469 -0.398561247 0.1607935284 -0.3983445765 -0.1139081756 0.2829808929
560296640.0 -0.1049267874 0.2756716979 0.1561749073 -0.3999868739 0.1564078782 -0.40012813 -0.1104011787 0.2847376958
565296610.0 -0.1027160114 0.2767361589 0.1521447934 -0.4015494815 0.1517708934 -0.4014728678 -0.1072971261 0.2859414063
570296580.0 -0.0996580304 0.2782914309 0.1476186874 -0.402966447 0.1474997691 -0.4033635476 -0.1044860371 0.2871325356
575296550.0 -0.0961797243 0.2794450436 0.1434997655 -0.4050604421 0.1430850741 -0.4049064024 -0.1015734016 0.2883567962
580296520.0 -0.0933610493 0.2810406098 0.1389427496 -0.4062619967 0.1388472589 -0.406291983 -0.098513194 0.2894400792
585296490.0 -0.0901603081 0.2818986572 0.1346679254 -0.4075491675 0.1339526987 -0.4076625973 -0.0951953426 0.2908709218
590296460.0 -0.0867482271 0.2829805717 0.1301747877 -0.4091123149 0.1297422567 -0.4093747847 -0.0923649373 0.2918565701
595296430.0 -0.08409197 0.2840972146 0.1251909681 -0.4106375504 0.1248591989 -0.410386561 -0.0891462876 0.2929881476
600296400.0 -0.0807866357 0.2851912115 0.1204533857 -0.4115001565 0.1208402997 -0.4115663361 -0.0862971629 0.2934850822
605296370.0 -0.0777991197 0.2865238104 0.1165887578 -0.4129101136 0.1162117178 -0.4132373672 -0.0829565134 0.2950741672
610296340.0 -0.0745291704 0.2878494685 0.11205158 -0.4138304473 0.1119067437 -0.4140615716 -0.0800617948 0.2960357912
615296310.0 -0.0711348913 0.2888580819 0.1072757985 -0.4153838833 0.1069800251 -0.4156763547 -0.0764285909 0.2970646619
620296280.0 -0.0685770728 0.2898761896 0.1025386526 -0.4165380061 0.1025681931 -0.4164949987 -0.0737466321 0.2984503994
625296250.0 -0.0656785501 0.2902838413 0.0983564604 -0.4175507691 0.0983134562 -0.4176312284 -0.0707938146 0.2989359197
630296220.0 -0.0623410753 0.2917365288 0.0936238798 -0.4187313534 0.0932433909 -0.4185310149 -0.067071248 0.2998912825
635296190.0 -0.0591972369 0.2927888228 0.0892058941 -0.4192063611 0.0891175034 -0.4193089921 -0.0642442135 0.3006740266
640296160.0 -0.0559181942 0.2932203017 0.084566281 -0.4203877803 0.0843626937 -0.4205726775 -0.0612138323 0.301567925
645296130.0 -0.0524837564 0.2942582024 0.0796197468 -0.4209653372 0.079708773 -0.4210692317 -0.0580765103 0.3017490807
650296100.0 -0.0496162113 0.2951596831 0.0752974382 -0.4222175844 0.075166732 -0.4222229107 -0.0546079971 0.3030920492
655296070.0 -0.0468378264 0.2958800692 0.0706020236 -0.4228409807 0.070723141 -0.4226791327 -0.0518914058 0.3035143948
660296040.0 -0.0432664399 0.2966249528 0.0661252666 -0.4235232524 0.0659919311 -0.4235024584 -0.0483656981 0.3042471243
665296010.0 -0.0400997846 0.2974393639 0.0612088517 -0.4236902024 0.061408067 -0.4239555964 -0.0450641506 0.3046793054
670295980.0 -0.0373480054 0.2979925331 0.0571501406 -0.4246162788 0.0568599895 -0.4241399332 -0.0419932729 0.3055766335
675295950.0 -0.0342536089 0.2986697804 0.0521451818 -0.4249809105 0.0521828973 -0.4252837704 -0.0387474867 0.3061981982
680295920.0 -0.0316734233 0.299434353 0.0480057468 -0.4257894163 0.0478795948 -0.4255995605 -0.035219995 0.3064279601
685295890.0 -0.0279091574 0.3000031593 0.0432210417 -0.4263139891 0.0428337186 -0.4261747232 -0.0323656717 0.3072882578
690295860.0 -0.0249631021 0.3005683117 0.0383832109 -0.4264602206 0.0380788541 -0.4265864517 -0.0291428823 0.3078258366
695295830.0 -0.0215919704 0.3011470243 0.0341928221 -0.4272333163 0.0336281002 -0.4267752295 -0.0256603309 0.3083785108
700295800.0 -0.0183333785 0.3016179477 0.0292300614 -0.4270944515 0.0293787207 -0.4271968764 -0.0224592264 0.3082995547
705295770.0 -0.0155823247 0.3021852814 0.0248796504 -0.4277048629 0.0247771288 -0.4274345379 -0.0195009459 0.3094821484
710295740.0 -0.0126942855 0.3022160474 0.0202363872 -0.4276170762 0.0197019855 -0.4280540472 -0.0160490262 0.3093448221
715295710.0 -0.0090760995 0.3027746548 0.0156419305 -0.428070778 0.0153505314 -0.4279328771 -0.0127143807 0.3092874259
720295680.0 -0.0054181363 0.3033378025 0.0107775361 -0.4281507783 0.0104924568 -0.4283049482 -0.0097124119 0.30975116
725295650.0 -0.0028818138 0.3036727654 0.0063977391 -0.4278172108 0.0059627499 -0.4283169658 -0.006425558 0.3102540858
730295620.0 -0.0005213188 0.3040048992 0.0012600772 -0.4278798818 0.0015289792 -0.4277330332 -0.0032591591 0.3106907022
735295590.0 0.0029509071 0.3043692671 -0.0028007581 -0.4280448537 -0.0031754224 -0.4280833157 -6.34715e-05 0.3103303966
740295560.0 0.0058102383 0.3040357909 -0.0072055699 -0.4276945508 -0.0072950852 -0.4281735791 0.00322307 0.3110857413
745295530.0 0.0095974303 0.3045466708 -0.0119729129 -0.4273083444 -0.0117476605 -0.4277072725 0.0062466653 0.3106097203
750295500.0 0.0121809463 0.3047698007 -0.0164211464 -0.4273894522 -0.0168229598 -0.4276992135 0.0097476017 0.3109921268
755295470.0 0.0153243423 0.3048319122 -0.020996571 -0.4276706169 -0.0211073587 -0.4279352901 0.012817132 0.311517901
760295440.0 0.0183125628 0.3052717166 -0.0263289963 -0.4270464387 -0.026066911 -0.4268704565 0.0164339504 0.3106261848
765295410.0 0.0218598351 0.304808352 -0.0304776671 -0.4267162133 -0.0305638518 -0.426669322 0.0198308885 0.3111379741
770295380.0 0.0245436499 0.3052491153 -0.0348907059 -0.4262174228 -0.0351657582 -0.4266298014 0.0226960621 0.3107928327
775295350.0 0.0277066478 0.3048534274 -0.0397491913 -0.4257608434 -0.0398528726 -0.425696749 0.0261399895 0.3108061512
780295320.0 0.0308801024 0.3051836717 -0.0438453565 -0.4253450092 -0.0440257882 -0.4250708419 0.0293652269 0.310531159
785295290.0 0.033873186 0.3045612829 -0.0486701549 -0.4247833856 -0.0487456951 -0.4252652024 0.0323407416 0.310701154
790295260.0 0.0367447824 0.3045683977 -0.0534078491 -0.4244515991 -0.0533862033 -0.4250982691 0.0357179405 0.3106687601
795295230.0 0.0400972297 0.3046719245 -0.0583443822 -0.4239900381 -0.0582077248 -0.4240642871 0.0390086487 0.3096217604
800295200.0 0.0426428424 0.3040366074 -0.0619782511 -0.4226040872 -0.0626286917 -0.4233321563 0.0420603456 0.3099247771
805295170.0 0.0455425208 0.304139448 -0.0668622067 -0.4224428462 -0.0674370225 -0.4228290674 0.0460474586 0.3092929765
810295140.0 0.0489961851 0.303911259 -0.0714175578 -0.4215628505 -0.0718514007 -0.4216319764 0.0488782622 0.3088945976
815295110.0 0.0518470568 0.3038157551 -0.0759731845 -0.4207901458 -0.0761806177 -0.4209903592 0.0521607249 0.3087691226
820295080.0 0.054753703 0.3029832108 -0.0799492719 -0.4198192908 -0.0805474346 -0.4202569546 0.0548033224 0.3088074187
825295050.0 0.0578067253 0.3025118665 -0.0850357696 -0.4190878258 -0.0850537663 -0.4191648811 0.0586549614 0.3084183973
830295020.0 0.0611012743 0.3021980277 -0.0892531722 -0.4176374715 -0.0895608417 -0.4183194782 0.0614846738 0.3073499444
