!Created with skrf (http://scikit-rf.org).
# Hz S RI R 50.0 
!freq ReS11 ImS11 ReS21 ImS21 ReS12 ImS12 ReS22 ImS22
300000.0 -0.0482657757 -0.067850999 0.000714385 0.001370524 0.0009206849 0.000459319 -0.7680635126 -0.1778144919
5299970.0 -0.0503403003 0.0145964876 3.31943e-05 -0.0001220294 2.07005e-05 6.56362e-05 -0.7854014566 -0.0092050276
10299940.0 -0.044593176 0.0326884358 3.55431e-05 0.0001193436 8.2387e-06 -8.1753e-06 -0.7880015631 -0.004962545
15299910.0 -0.0357785161 0.0475294385 0.0001394769 -6.47143e-05 -6.24193e-05 0.0001864382 -0.7931225493 -0.0027053383
20299880.0 -0.0257726813 0.0591883429 8.45355e-05 7.9143e-06 5.91073e-05 -2.28562e-05 -0.8001583898 0.0016190832
25299850.0 -0.0140382525 0.0686134553 3.87708e-05 4.20714e-05 -8.36294e-05 3.47558e-05 -0.8066395588 0.0082023229
30299820.0 -0.0027400461 0.0754494035 0.0001148142 4.59606e-05 8.7019e-06 2.70918e-05 -0.8125965718 0.0156804385
35299790.0 0.0090028962 0.0799618721 -0.0001034324 -0.0001994026 7.28633e-05 9.0364e-06 -0.8174426247 0.0247427449
40299760.0 0.0204383846 0.0825449777 0.0001755323 -8.02991e-05 -0.0001104383 -0.0001340507 -0.8217236971 0.0343448518
45299730.0 0.0311868193 0.083860967 0.0001902664 0.0001945427 -0.0001418057 -0.000131711 -0.824210956 0.0438350364
50299700.0 0.0414761522 0.0837405054 0.0002163989 -0.0001733113 3.2625e-05 -2.76559e-05 -0.8267468534 0.0538931511
55299670.0 0.0510342078 0.0827577847 9.44403e-05 -2.59136e-05 0.0002072779 -4.96421e-05 -0.8292659296 0.0634513641
60299640.0 0.0598018251 0.0803144582 1.6158e-05 0.0002778691 -7.37007e-05 0.0001997568 -0.8295533548 0.074196362
65299610.0 0.0677818784 0.0781156466 -6.722e-06 8.3706e-06 7.26938e-05 8.32173e-05 -0.8305402075 0.0838836902
70299580.0 0.0745288724 0.0750642247 2.37605e-05 0.0001531827 0.0001068747 0.0001730487 -0.8318001229 0.0937311682
75299550.0 0.080898853 0.0716869554 2.24309e-05 1.28337e-05 -6.99851e-05 -8.56251e-05 -0.8310737428 0.1041525297
80299520.0 0.0868245897 0.0680441927 -9.0686e-05 -4.0139e-06 -8.8386e-06 0.0001298667 -0.8315011914 0.1142211774
85299490.0 0.0917467265 0.0639261884 0.0002593116 0.0001109669 -0.0001020931 -3.02214e-05 -0.8304931127 0.1237000253
90299460.0 0.0968371349 0.0601477195 3.1288e-05 6.44918e-05 2.51128e-05 0.0001411164 -0.8291037742 0.132558007
95299430.0 0.1007955837 0.0560000318 0.0002325072 6.77124e-05 0.0001045606 7.84394e-05 -0.8287773249 0.1423144654
100299400.0 0.1046026351 0.0522609935 -5.53671e-05 0.0001638147 4.13664e-05 -4.56563e-05 -0.8271496147 0.1517552719
105299370.0 0.1080528182 0.0477931667 0.0001194608 5.20008e-05 2.74084e-05 -5.63895e-05 -0.8261972355 0.1606574901
110299340.0 0.1109806146 0.0437296569 2.31736e-05 0.0001316747 -4.61524e-05 -6.1595e-06 -0.824622045 0.1695759231
115299310.0 0.1133200305 0.0400351245 0.0002881448 6.5419e-05 -9.58155e-05 -0.0001277193 -0.8236812626 0.1789776293
120299280.0 0.1157571682 0.036070085 -9.05225e-05 3.2131e-06 -0.000108766 0.0001024768 -0.8214298676 0.1879851967
125299250.0 0.1174399298 0.0320863305 0.0002406185 0.0001102443 -2.8288e-05 -0.0001932099 -0.8203782675 0.1974979343
130299220.0 0.1193293696 0.0280127421 5.16659e-05 0.0001481173 0.0001618102 1.9746e-05 -0.8181684386 0.2058657367
135299190.0 0.1211449611 0.0244559332 4.85615e-05 2.49655e-05 6.17845e-05 2.54432e-05 -0.8167505579 0.2153307711
140299160.0 0.1221944291 0.0209681052 -0.0002256277 7.77336e-05 -4.0944e-05 0.0001996456 -0.8145939312 0.2231433117
145299130.0 0.1235765115 0.0173780941 -7.99891e-05 8.76326e-05 -2.37765e-05 -7.1229e-06 -0.8124965441 0.2322941611
150299100.0 0.1241553937 0.014035742 0.0001265098 -7.59202e-05 0.0002201494 8.46658e-05 -0.8099478219 0.2415763336
155299070.0 0.1249981059 0.0104884172 -4.02577e-05 0.0002074909 -0.0001094168 -2.60531e-05 -0.8073656171 0.250471175
160299040.0 0.1254508409 0.0071258253 -0.000198144 7.21113e-05 6.10657e-05 -0.0001740481 -0.8048776406 0.2592997055
165299010.0 0.1262334547 0.0043272743 0.000157403 0.0001399919 0.0001375734 -9.90627e-05 -0.8022089751 0.2673958887
170298980.0 0.1262218526 0.0009865581 -0.0001230067 0.0001743608 -8.68363e-05 0.0002107733 -0.7996910292 0.2753424592
175298950.0 0.1269713115 -0.0023662385 -8.78355e-05 8.8257e-05 0.0001556469 -0.0002153396 -0.7966052263 0.2849775884
180298920.0 0.1268095044 -0.0052533185 3.66606e-05 0.0003904349 0.0001840722 -8.4144e-06 -0.7935603845 0.2930440867
185298890.0 0.1269902617 -0.0082311848 0.0001801246 0.0001430153 0.0002519482 -0.0001185056 -0.7906786739 0.3016391559
190298860.0 0.1269418607 -0.0109629293 -1.24733e-05 0.0002573801 0.000153174 8.24233e-05 -0.7872078332 0.3101553065
195298830.0 0.1272214094 -0.0134901699 2.3069e-06 2.9005e-05 0.0001016637 3.74988e-05 -0.7843156163 0.3182848697
200298800.0 0.126895716 -0.0165898072 -0.0001894188 -0.000256746 1.20617e-05 0.0001892111 -0.7820483479 0.3268527436
205298770.0 0.1261027333 -0.0193111991 -0.0001471913 0.0003579977 3.4541e-05 -2.4772e-06 -0.7777822262 0.3354230217
210298740.0 0.1262110312 -0.0217208409 -8.06191e-05 7.29318e-05 8.20828e-05 9.11379e-05 -0.7742001487 0.3434089795
215298710.0 0.1254172838 -0.0243886225 2.34468e-05 5.46428e-05 -3.5887e-05 0.0001091638 -0.7705096852 0.3511811491
220298680.0 0.1252626789 -0.0269608607 0.0001587432 -0.0001256337 6.62852e-05 -0.0001239582 -0.7671604578 0.3594428434
225298650.0 0.1249252719 -0.0293729548 0.000154185 -3.59475e-05 0.0001506493 6.49732e-05 -0.7634470267 0.3680461284
230298620.0 0.124220925 -0.0313596642 0.0001127418 -8.69029e-05 -5.12401e-05 -5.81385e-05 -0.7591700386 0.3759804842
235298590.0 0.1234411603 -0.0340499227 -0.0001264326 -0.0002099002 -2.25803e-05 8.91624e-05 -0.7555307917 0.3830838984
240298560.0 0.1227769345 -0.0361090858 1.75e-05 0.000127372 -2.87232e-05 8.62002e-05 -0.7510105969 0.3905069585
245298530.0 0.1218861039 -0.0383258517 0.0002151731 -1.33264e-05 -1.69563e-05 -5.1953e-06 -0.7476352462 0.3993898028
250298500.0 0.1213750403 -0.0406909878 0.0001304235 0.0004213177 -3.35939e-05 -5.43523e-05 -0.7429607498 0.4069383564
255298470.0 0.1204605458 -0.0425912008 6.58192e-05 0.0001052186 2.26309e-05 -5.05223e-05 -0.7387766272 0.4150621006
260298440.0 0.1198805567 -0.0448453944 4.0792e-05 -0.0001075873 -2.77768e-05 -0.0001223744 -0.7343419419 0.4221294593
265298410.0 0.1185284837 -0.0468522255 8.41046e-05 0.0001534323 -9.97733e-05 0.0002030971 -0.7300854875 0.4306172648
270298380.0 0.1177548718 -0.0491161312 0.0001311793 4.66606e-05 1.09124e-05 0.0002222503 -0.7254534495 0.4383599998
275298350.0 0.1167879105 -0.05087423 6.31033e-05 1.30684e-05 0.0001100687 2.37549e-05 -0.7208565908 0.445380251
280298320.0 0.1158818924 -0.0525575984 7.07446e-05 3.49013e-05 3.98144e-05 -5.89175e-05 -0.716258581 0.452805166
285298290.0 0.1148324427 -0.0545854139 9.735e-05 0.0001710909 -1.80613e-05 -0.0001031206 -0.7120900402 0.4606646461
290298260.0 0.1137176695 -0.0565192392 -0.0001189271 0.0001884659 6.44614e-05 0.0001513263 -0.7067316278 0.4671748006
295298230.0 0.1126942266 -0.0584605061 4.41843e-05 0.0001599791 7.50836e-05 0.0001056583 -0.7015078559 0.4750595758
300298200.0 0.1119016808 -0.0601815817 0.000101202 -0.0002056993 7.22073e-05 -0.0001007514 -0.6967859841 0.482718684
305298170.0 0.1107656492 -0.0623642453 6.3823e-05 0.0001973214 7.31178e-05 7.43641e-05 -0.6913892949 0.4897800046
310298140.0 0.1096478429 -0.0646840208 8.79986e-05 0.0001860682 0.0002988013 -3.64001e-05 -0.6864536221 0.4968368032
315298110.0 0.1082769377 -0.0661136002 0.0001355477 0.0001425278 7.6272e-05 0.0001041036 -0.6813602637 0.5036246322
320298080.0 0.1070165507 -0.0681848216 -0.0001166979 4.8433e-06 -0.0001657613 -9.13797e-05 -0.6761429003 0.5102041913
325298050.0 0.1052329626 -0.070138347 -0.0001406278 0.0001249863 0.0003141643 0.0001236685 -0.6704352428 0.5176479362
330298020.0 0.1037489759 -0.071559226 8.32919e-05 0.0001046512 1.9222e-05 5.66619e-05 -0.6655233576 0.5243894576
335297990.0 0.1023333715 -0.0727651635 0.0002334173 -3.67148e-05 2.5714e-05 -8.86219e-05 -0.65984653 0.5312724465
340297960.0 0.1007827495 -0.0742623496 -2.92198e-05 -3.91402e-05 -0.0001622614 6.20068e-05 -0.6542613911 0.5385418904
345297930.0 0.0994648233 -0.076000581 4.8326e-06 0.0002152349 0.0001053945 0.0001000011 -0.6487365561 0.5448137551
350297900.0 0.098321789 -0.0772147594 -0.0001748408 -0.000183528 0.0001505146 -1.2714e-06 -0.6431447543 0.5514713818
355297870.0 0.0966414054 -0.0789655607 0.0001185674 -3.5833e-06 0.0001037524 -4.36837e-05 -0.6368947717 0.5588424343
360297840.0 0.0953396172 -0.0802337304 0.0001164313 3.1576e-06 0.0003378349 0.0002405686 -0.6308362858 0.5645431696
365297810.0 0.0938268384 -0.0814428518 -3.30913e-05 -6.69473e-05 -2.38992e-05 0.0002095296 -0.6263260263 0.5707543246
370297780.0 0.0923907492 -0.0829249211 0.0002043264 0.0001465541 9.91844e-05 5.29257e-05 -0.6195915199 0.5779965429
375297750.0 0.0910126264 -0.0840679704 0.0001151416 9.87109e-05 0.0002115634 -0.0002952017 -0.6132686628 0.5840336256
380297720.0 0.0895296181 -0.0851956929 0.0001070563 0.0001161801 0.0001004414 -6.53997e-05 -0.6070272394 0.590291912
385297690.0 0.0881639162 -0.0864711159 1.95106e-05 -1.2493e-05 1.954e-06 -6.29169e-05 -0.6019244757 0.5965425978
390297660.0 0.086897261 -0.0882625311 2.53869e-05 -2.71191e-05 -0.000126417 0.0001426745 -0.5946594323 0.602043462
395297630.0 0.0853590758 -0.0892604943 0.0002255282 4.83948e-05 1.02526e-05 0.0001058375 -0.5882662343 0.6079093024
400297600.0 0.083594017 -0.0904236085 0.0002419154 0.0001605716 0.0001388998 0.0001127732 -0.5827160468 0.6145872277
405297570.0 0.082216497 -0.0917922573 7.0753e-06 1.96571e-05 0.0001801561 0.0001002027 -0.5752140753 0.6203720561
410297540.0 0.081129959 -0.0929010644 9.24527e-05 0.0001562344 1.89233e-05 2.80144e-05 -0.5695412463 0.6263527076
415297510.0 0.0792989323 -0.0938529938 0.0001738576 -8.98606e-05 -6.03605e-05 0.0001344534 -0.5627984846 0.6312456084
420297480.0 0.0777894676 -0.095598471 3.31513e-05 5.48088e-05 1.29781e-05 6.83387e-05 -0.5562883474 0.6377814831
425297450.0 0.076733428 -0.0963081359 -5.64302e-05 -5.05224e-05 6.2223e-05 -8.93099e-05 -0.5497902684 0.6429470925
430297420.0 0.0746978954 -0.0974865628 0.0001194962 -7.03419e-05 8.55734e-05 -1.8581e-06 -0.5436765101 0.6486039686
435297390.0 0.0731452994 -0.0984258137 0.0001018837 -0.0002021599 0.0002983745 1.59538e-05 -0.5367796958 0.6540953854
440297360.0 0.0718521483 -0.0996299628 0.0003009649 -0.0001590875 0.000137823 -5.01042e-05 -0.5305473379 0.6596468077
445297330.0 0.0702572272 -0.1005590022 -1.13673e-05 -9.9643e-05 0.0002798606 -2.28763e-05 -0.5227470062 0.664737066
450297300.0 0.0687947354 -0.1018083068 0.0001112959 -0.0001108002 6.29503e-05 5.46259e-05 -0.5161735529 0.6696118088
455297270.0 0.0672043429 -0.1024243759 4.99807e-05 7.72536e-05 1.73371e-05 0.000208159 -0.5090095493 0.6755463768
460297240.0 0.0656275546 -0.103725076 0.000106798 0.0001035541 0.0001260194 -4.05083e-05 -0.5024447721 0.6798261834
465297210.0 0.0643478221 -0.1042015518 0.0001238934 -1.991e-07 0.0001742634 6.37895e-05 -0.4951676214 0.6855007008
470297180.0 0.0626246418 -0.1051294569 -0.0001487576 9.2123e-05 0.0001256192 2.75189e-05 -0.4882422195 0.6904775938
475297150.0 0.0609482248 -0.1058134146 0.0001105859 7.00344e-05 -8.69203e-05 0.0001226268 -0.4812839465 0.6952810296
480297120.0 0.0597201761 -0.1066849762 0.0001264165 8.90835e-05 0.0001794083 9.1518e-06 -0.4746016078 0.7002958589
485297090.0 0.0579176228 -0.1077402749 2.79394e-05 -1.57464e-05 0.0002238555 2.96464e-05 -0.4673369014 0.7047080594
490297060.0 0.0568813722 -0.1084240655 0.0002595157 9.61705e-05 8.94842e-05 2.51592e-05 -0.4594686397 0.7090736438
495297030.0 0.055126919 -0.1090735593 6.91118e-05 5.52379e-05 0.000239911 0.0001375506 -0.4525741493 0.7138576584
500297000.0 0.0533321751 -0.109800612 0.0001376586 -3.17554e-05 7.51786e-05 1.39579e-05 -0.4451936214 0.7183294912
505296970.0 0.0520029907 -0.1107440445 0.0002587915 1.2e-05 5.7013e-05 -4.16391e-05 -0.4370806871 0.7224611763
510296940.0 0.0503734649 -0.1110207604 0.0001561963 -5.09291e-05 0.0001424003 -3.24664e-05 -0.430241761 0.7271817107
515296910.0 0.048818727 -0.1115538745 -8.83302e-05 -0.0001387783 0.0002090042 3.50219e-05 -0.4232228496 0.7308268443
520296880.0 0.0473561751 -0.1124274946 5.55921e-05 0.0001215425 7.95159e-05 0.0001682041 -0.4152640895 0.7359346453
525296850.0 0.0456237085 -0.1130897597 0.0001069667 -0.0001211736 1.88668e-05 1.97449e-05 -0.4082129579 0.7395694073
530296820.0 0.0438539395 -0.1134872873 -4.7865e-06 4.50294e-05 0.0002107521 -0.0001187928 -0.400868051 0.7433874866
535296790.0 0.0427849906 -0.1140322865 0.0002723492 -7.554e-06 0.0001992173 3.2057e-06 -0.3935330661 0.7478448276
540296760.0 0.0411509781 -0.114515 0.0001248807 9.8242e-05 7.3929e-06 0.0001129839 -0.3853088502 0.7510593495
545296730.0 0.0393204599 -0.114763127 0.0001059759 5.85456e-05 0.0001803875 -8.76338e-05 -0.3777520034 0.7556505722
550296700.0 0.0379341508 -0.1153277239 0.0001752956 9.19643e-05 0.0002888814 8.12113e-05 -0.370024461 0.7592556106
555296670.0 0.0360527741 -0.1155559219 6.2888e-06 1.22614e-05 0.0001742042 0.0002321057 -0.3627112724 0.7620115776
560296640.0 0.0350166956 -0.1158035636 7.77856e-05 0.0001858607 0.0002266416 0.000134838 -0.3545972623 0.7663137702
565296610.0 0.0329387571 -0.115894567 8.39058e-05 3.68902e-05 9.35848e-05 0.0002249662 -0.3464934549 0.7701353376
570296580.0 0.0313248581 -0.1164461784 8.76206e-05 0.000107302 5.06015e-05 0.0002159258 -0.3389738504 0.7727678925
575296550.0 0.0298913594 -0.1170579112 6.59142e-05 0.0001551497 0.0001242999 7.8387e-06 -0.3314560428 0.7764367612
580296520.0 0.0281402262 -0.1169562438 0.0001350796 -3.84408e-05 5.19077e-05 4.18738e-05 -0.3236161265 0.7791990908
585296490.0 0.0267123617 -0.116894692 0.0001521405 6.32796e-05 -1.8777e-06 4.65693e-05 -0.3156795739 0.7832857632
590296460.0 0.025233354 -0.1170308846 5.24006e-05 -0.0001338331 0.0001996894 -0.0001021971 -0.3074912209 0.7859472303
595296430.0 0.0234452764 -0.1172645795 6.05866e-05 0.0001211661 6.76791e-05 -0.0001852674 -0.299753676 0.7890098098
600296400.0 0.0219341751 -0.1175710394 0.0001348611 0.0001722699 0.0002054268 -6.95794e-05 -0.2919289715 0.7917112816
605296370.0 0.0199862034 -0.1177299716 0.0001402494 0.0001464456 0.0002454063 -5.6195e-06 -0.2838173149 0.7954579281
610296340.0 0.0186907992 -0.1173819941 0.0002663225 5.21948e-05 0.0001278832 7.30525e-05 -0.2759516123 0.7983626242
615296310.0 0.0170745295 -0.1175014973 0.0002039033 -1.49128e-05 0.0001441863 -0.0001321426 -0.267318781 0.8004511187
620296280.0 0.0151311376 -0.1173614552 0.0002073022 -0.0001212388 5.78606e-05 -3.21114e-05 -0.2600028691 0.8033501787
625296250.0 0.0135407419 -0.1177218847 0.0001697824 -0.0001401006 0.0001673156 -0.0002306038 -0.2517514262 0.8053461642
630296220.0 0.0119655286 -0.1171983466 0.0001272193 -0.0001805063 7.74515e-05 -7.97279e-05 -0.2431866678 0.8081438361
635296190.0 0.0100926454 -0.1170891748 -3.22066e-05 3.90117e-05 0.0001352567 -1.10447e-05 -0.2356390279 0.810001759
640296160.0 0.0084873979 -0.1172045575 9.03947e-05 -0.0001131263 0.0001499195 2.67148e-05 -0.2272378885 0.8129165886
645296130.0 0.0074141235 -0.1172118556 4.57401e-05 0.0001338882 0.000299128 -0.0001956979 -0.2190953487 0.814300573
650296100.0 0.0053023654 -0.116851247 0.0002586259 -9.5886e-06 0.0003011514 0.0001653652 -0.2108048818 0.8167566839
655296070.0 0.0036786735 -0.116853925 0.0001981325 -6.19197e-05 8.11337e-05 -3.2023e-05 -0.203062198 0.8188122925
660296040.0 0.0018278273 -0.1163436231 0.0002318515 -5.32711e-05 5.9787e-06 -3.45021e-05 -0.1942760882 0.8209009974
665296010.0 0.0003240204 -0.1163382937 1.93978e-05 4.96021e-05 0.0002077047 0.0001724319 -0.1865811339 0.8223986291
670295980.0 -0.0013371457 -0.1160147082 0.000159523 -0.0001048848 3.54234e-05 7.12985e-05 -0.1784047146 0.8247765833
675295950.0 -0.0030340258 -0.1156632762 9.80731e-05 -7.27713e-05 -7.94489e-05 -0.0001225688 -0.1696911295 0.826853417
680295920.0 -0.004857707 -0.1151518229 0.0001115714 -0.0002247 9.99139e-05 -0.0001353965 -0.1615584277 0.8279311892
685295890.0 -0.0063321587 -0.1147244995 0.0002507411 -5.0208e-06 0.0001805477 -9.55677e-05 -0.1529992906 0.829661906
690295860.0 -0.007952563 -0.1146570854 0.0001699253 -0.0002119264 0.0002043349 -0.0002392693 -0.1449725229 0.831305447
695295830.0 -0.0097576075 -0.1143192992 0.0001884315 -0.0001117668 2.24451e-05 -0.0001629976 -0.1369242209 0.8327561719
700295800.0 -0.0114007384 -0.1137308768 0.0001822384 3.1075e-05 0.000332648 0.0001640674 -0.1286415067 0.8337544974
705295770.0 -0.0132192454 -0.1131644704 1.6843e-06 -0.0001224937 7.51123e-05 2.52161e-05 -0.1198553404 0.8352253209
710295740.0 -0.0146763264 -0.1129838134 3.56083e-05 -0.0001775331 0.0001339379 -8.03667e-05 -0.1116690658 0.8359492548
715295710.0 -0.016273744 -0.1124818427 0.0002774552 1.97535e-05 -6.93511e-05 0.000208998 -0.1029653007 0.8369181839
720295680.0 -0.0180146553 -0.1119915011 0.0002062944 7.004e-05 0.00026499 -0.0001517992 -0.0946424584 0.8378505035
725295650.0 -0.019955277 -0.1114689287 0.0001710567 0.0002696974 0.0001742486 -6.79844e-05 -0.0870071741 0.8395922295
730295620.0 -0.0214790272 -0.1109289239 0.0001218783 0.0001552141 0.0001450666 1.10953e-05 -0.0790317243 0.8406813048
735295590.0 -0.0230580714 -0.1103622946 0.0002561526 -0.0001648171 0.0001179823 3.11992e-05 -0.0696580382 0.8403416245
740295560.0 -0.0251520932 -0.1098094458 0.0001061887 -0.0002350144 0.000352949 -0.0001087628 -0.0609842462 0.8414430458
745295530.0 -0.0267009633 -0.1093093723 5.90225e-05 -0.0001194347 -0.0001085926 -0.0001751077 -0.0531572911 0.841740788
750295500.0 -0.028329415 -0.1085370457 0.0001315713 -0.0002130414 0.000134733 0.000225028 -0.0446748112 0.8427704453
755295470.0 -0.0299402629 -0.1080705191 0.0001008378 -5.45103e-05 0.0001069673 -5.46896e-05 -0.0368284022 0.8426656556
760295440.0 -0.0314082153 -0.1071628343 -6.999e-07 0.0001215204 0.0001572369 -4.75765e-05 -0.0277021807 0.8429200522
765295410.0 -0.0331490717 -0.1070318866 7.91118e-05 -0.0001077074 0.0001882482 -0.0001573737 -0.0194220517 0.8435224558
770295380.0 -0.0350130788 -0.1059813063 0.0001284738 -0.0001131732 0.0001862531 -0.0001165943 -0.0113212738 0.8433028173
775295350.0 -0.0364459613 -0.1054327068 4.78979e-05 -5.36011e-05 0.0001097093 -0.0002240914 -0.0030848287 0.8432313503
780295320.0 -0.0380963874 -0.1047556095 -0.0001484536 7.10727e-05 5.71215e-05 4.81647e-05 0.0058279534 0.8438931872
785295290.0 -0.0398602524 -0.1039538956 0.0001738776 -2.0346e-06 0.0002432062 -4.96864e-05 0.0135380582 0.8437364034
790295260.0 -0.0416270169 -0.1035192277 7.49802e-05 0.0001075514 0.0001313798 -8.24838e-05 0.0222716782 0.8433082541
795295230.0 -0.0430364193 -0.1026782249 0.0002669375 -0.0001229828 0.000217621 -2.60081e-05 0.0301888729 0.8423957721
800295200.0 -0.0444221746 -0.1020326079 3.01207e-05 0.0002069721 0.0002271424 6.7625e-06 0.0386056538 0.8423203354
805295170.0 -0.0459296548 -0.1012276516 0.0001748847 -2.64519e-05 0.0002550984 8.31187e-05 0.0476570174 0.8421615944
810295140.0 -0.0477117128 -0.1004052946 5.39042e-05 5.47893e-05 0.0001522802 -2.75285e-05 0.0559216737 0.8416564447
815295110.0 -0.0493566486 -0.0994841156 0.0002309 2.41713e-05 0.000156401 -0.0001747149 0.0630753158 0.841029294
820295080.0 -0.051113962 -0.0989672534 -9.81978e-05 -0.0001749834 0.0002110495 -1.54337e-05 0.071682801 0.8404429375
825295050.0 -0.0529115387 -0.098019473 3.01293e-05 -0.000135599 0.0001511541 0.0001070683 0.0801082546 0.8395659805
830295020.0 -0.0540504807 -0.0972924045 -1.20215e-05 -0.0002579381 0.0002577431 4.86021e-05 0.0883788554 0.8377414551
835294990.0 -0.0555158633 -0.0963629995 0.0002926441 -3.79851e-05 0.0001734838 1.69649e-05 0.0973044876 0.8379611243
840294960.0 -0.0568501917 -0.0956825738 0.0001196987 -0.0002043436 8.80236e-05 9.12417e-05 0.1059137902 0.8369797181
845294930.0 -0.0584810435 -0.0944215119 6.23333e-05 -1.08254e-05 0.0001280663 -0.0001711414 0.1140431064 0.835390907
850294900.0 -0.0597317875 -0.0938364269 0.0001147833 -0.0003791637 0.0001528929 0.0001665109 0.1219524706 0.8348770177
