!Created with skrf (http://scikit-rf.org).
# Hz S RI R 50.0 
!freq ReS11 ImS11 ReS21 ImS21 ReS12 ImS12 ReS22 ImS22
300000.0 -0.0504893219 -0.0404379005 -0.0004415512 0.0011004962 -0.0009591198 0.0010358811 -0.7762119703 -0.1295328491
5299970.0 -0.0499519074 0.0159978318 1.0862e-05 -8.63892e-05 6.83522e-05 7.33859e-05 -0.7847118451 -0.0071679086
10299940.0 -0.0442390918 0.032615835 -0.000211259 8.27374e-05 -9.81239e-05 -3.43598e-05 -0.7880347726 -0.0037550269
15299910.0 -0.0360540483 0.0471937221 4.84033e-05 0.0003144879 -3.8965e-06 -7.8031e-05 -0.7936898653 -0.0014630384
20299880.0 -0.0262345628 0.0587488305 -3.16067e-05 4.77281e-05 5.26556e-05 4.53436e-05 -0.8000628593 0.0023216162
25299850.0 -0.0154588084 0.0681394073 0.0002291208 -6.19538e-05 -3.7227e-05 1.36617e-05 -0.8060716729 0.0082082587
30299820.0 -0.0039434983 0.0747649312 2.97683e-05 -8.46047e-05 -0.0002613311 -7.28264e-05 -0.812177933 0.0164489852
35299790.0 0.0072535939 0.0798575918 -8.9163e-06 5.2769e-06 -5.52478e-05 -6.55336e-05 -0.8171490364 0.0250416803
40299760.0 0.0185073673 0.0830187423 5.02844e-05 9.94113e-05 -5.36067e-05 -0.0001093556 -0.8213886998 0.0345331088
45299730.0 0.0291578533 0.0842605736 -1.56971e-05 0.0001460923 0.0001049354 5.26324e-05 -0.8253971513 0.04369447
50299700.0 0.0390297483 0.0844000911 6.72493e-05 0.0001222445 -0.000136055 2.57404e-05 -0.8273632512 0.0540855978
55299670.0 0.0482296259 0.083610948 -5.31813e-05 -0.0001889435 0.0001040366 1.47929e-05 -0.8291039389 0.064556738
60299640.0 0.0570503833 0.0818087824 9.27593e-05 0.0001546378 1.77177e-05 2.99186e-05 -0.8304383833 0.0740955404
65299610.0 0.0646985878 0.0796108146 8.91117e-05 0.0001795248 3.03652e-05 0.0002095793 -0.8318198836 0.0838973604
70299580.0 0.0715776187 0.0772078611 -3.52934e-05 1.77318e-05 0.0001586626 4.66822e-05 -0.8319334431 0.094393337
75299550.0 0.077829869 0.07386072 0.000142848 2.01953e-05 -0.0001770868 -6.80209e-05 -0.8324045299 0.1035803368
80299520.0 0.0838800935 0.0707883018 0.0001029035 0.0002243452 -0.0001406783 0.0001259768 -0.8317811873 0.1133138456
85299490.0 0.0885624353 0.06677521 -8.2092e-06 0.0001392779 1.04595e-05 -4.96225e-05 -0.8318179783 0.1233252032
90299460.0 0.0933413128 0.0633206442 -9.75561e-05 0.000136885 6.16133e-05 -1.78122e-05 -0.83049074 0.1331771251
95299430.0 0.0976749801 0.0590415017 0.0001256803 -9.27494e-05 5.34325e-05 0.0001257367 -0.8290471963 0.1430571564
100299400.0 0.1010388067 0.0556907664 0.0001359147 -5.73215e-05 4.35853e-05 -6.42315e-05 -0.8286608434 0.1522432048
105299370.0 0.1044723785 0.0521122291 5.71638e-05 4.44151e-05 -9.1023e-06 -4.29472e-05 -0.8267090291 0.1609232429
110299340.0 0.1075139346 0.0479285241 0.0001635506 0.0001214212 0.0002767265 0.0001783203 -0.8255954271 0.1708507152
115299310.0 0.1103580353 0.04429486 4.25078e-05 6.67185e-05 0.0001551838 6.06394e-05 -0.8239945597 0.1796711122
120299280.0 0.1122012271 0.0401807918 9.88751e-05 0.0001761182 -3.59114e-05 3.84672e-05 -0.8225034743 0.189391476
125299250.0 0.1141424368 0.0363818398 3.39651e-05 0.0003038795 0.0001037271 8.59103e-05 -0.8209737638 0.1974981167
130299220.0 0.1158274345 0.0331830825 -3.77096e-05 0.0002434397 2.03861e-05 -2.6094e-06 -0.8188995138 0.2065654557
135299190.0 0.1175942984 0.0296144406 -0.0001310103 0.0001881253 -2.64159e-05 9.34181e-05 -0.8166277443 0.2158536695
140299160.0 0.1189022587 0.0260645517 5.76396e-05 0.0002598824 -0.0002163533 0.000235792 -0.8146902571 0.2249156759
145299130.0 0.1199305009 0.0226847806 -8.29123e-05 0.0001921108 -5.78812e-05 3.97081e-05 -0.8128115189 0.2341311813
150299100.0 0.1208752764 0.0194779789 -0.0001190082 0.0002619701 6.55633e-05 0.0002812487 -0.8108868652 0.2431882427
155299070.0 0.1215775246 0.0161539073 0.0002780227 -5.64817e-05 -5.32477e-05 5.28032e-05 -0.8077241141 0.2517416787
160299040.0 0.1223669912 0.0132652527 0.0003363685 0.0002630603 7.08084e-05 0.0001142001 -0.8056256094 0.2606350257
165299010.0 0.1229765518 0.0099162577 5.39928e-05 0.0001238753 -2.62078e-05 0.0002042298 -0.8031518417 0.2694701952
170298980.0 0.1231668274 0.0070236933 0.0003646587 0.0002185973 0.0001194315 -0.0001605016 -0.8001855076 0.277907073
175298950.0 0.1236438884 0.0038932578 -6.48508e-05 0.0001579388 -7.2198e-06 3.13842e-05 -0.7975759448 0.2864212228
180298920.0 0.1239909856 0.0009604107 0.0002353229 4.82795e-05 -9.70815e-05 3.89269e-05 -0.7943457021 0.2950994745
185298890.0 0.1242643338 -0.0017404995 0.000128401 8.61021e-05 3.67663e-05 -6.933e-07 -0.7906495379 0.3038482137
190298860.0 0.1245060311 -0.0042547839 -0.0001536142 6.89664e-05 0.0003621377 2.51512e-05 -0.7882389011 0.3117906976
195298830.0 0.1239220271 -0.0070421412 -3.19094e-05 3.46211e-05 0.0001766271 0.0001505828 -0.7847860529 0.3205870073
200298800.0 0.1238528294 -0.0095278126 0.000128292 8.18748e-05 0.0002390692 0.000101683 -0.7819036835 0.3293729103
205298770.0 0.1238122089 -0.0122931922 0.0001705603 0.0001921852 0.000156122 -3.5571e-06 -0.7780324104 0.33735235
210298740.0 0.1235027446 -0.0148493087 4.82053e-05 0.0002489874 0.0001480011 -4.03329e-05 -0.7747212158 0.3455525641
215298710.0 0.1231669978 -0.0171876174 4.51674e-05 3.79526e-05 0.0002017825 0.0002674658 -0.7709649899 0.3537762997
220298680.0 0.1228648723 -0.0198573518 0.0002664182 0.000160224 0.0001234325 9.94339e-05 -0.7675846781 0.3616619556
225298650.0 0.1221850361 -0.0222487486 0.000142475 9.48e-07 0.0002432945 9.98993e-05 -0.7634888465 0.3697808447
230298620.0 0.1217654631 -0.0242444586 0.0002175607 0.0001563576 3.68529e-05 0.0001531524 -0.7602737589 0.3778434414
235298590.0 0.1216174974 -0.0263721521 0.0003135285 8.09003e-05 6.96303e-05 -8.00288e-05 -0.7557765982 0.3866242219
240298560.0 0.1209979731 -0.0290069789 9.0548e-06 5.76863e-05 -2.02039e-05 -7.32398e-05 -0.751633931 0.395100847
245298530.0 0.1202189712 -0.0312072794 8.46543e-05 0.0001455135 0.0002193847 0.000210743 -0.7477075646 0.4020927649
250298500.0 0.1197409031 -0.0331705047 -2.5043e-06 0.0001565496 0.0001189409 0.0001311539 -0.7435572178 0.4101196546
255298470.0 0.1187683018 -0.0356225671 1.68213e-05 0.0001599095 -3.19555e-05 9.03553e-05 -0.7387686232 0.4177922244
260298440.0 0.1181407897 -0.0373890319 8.36009e-05 0.0001032067 -8.12206e-05 -0.0001182668 -0.734971965 0.4262144338
265298410.0 0.117676956 -0.0390231938 0.0002068023 0.0002603195 0.0001977533 0.000228987 -0.7300409631 0.433175091
270298380.0 0.1168342982 -0.0409523734 4.17459e-05 0.0002812606 5.69781e-05 0.0001465006 -0.7255737066 0.440849108
275298350.0 0.1159815734 -0.0427396441 0.0002049169 0.0002252238 -1.86453e-05 2.55324e-05 -0.7208523494 0.4488767969
280298320.0 0.1154782846 -0.0449716311 0.0002059864 0.0001022401 2.37097e-05 0.0001995136 -0.7159237715 0.4555631839
285298290.0 0.1147275861 -0.0463256199 0.0002128668 0.0002298028 9.66154e-05 0.0001644551 -0.7108480743 0.4637563707
290298260.0 0.1138938775 -0.0485234633 0.0002117898 0.0002172496 0.0001167278 0.0001635089 -0.7065909188 0.4708594836
295298230.0 0.1129819675 -0.0502614085 0.0002279937 0.0003095063 0.0001380318 0.0003362834 -0.7011557954 0.4779315921
300298200.0 0.112250554 -0.052017461 2.18985e-05 4.99697e-05 0.0003305276 0.0002261785 -0.6964340178 0.4856236681
305298170.0 0.1113946395 -0.053839057 0.0001450425 6.90543e-05 1.11638e-05 0.0001208898 -0.6904959509 0.4928063211
310298140.0 0.1103131444 -0.0557757677 0.0001122997 0.0002876824 0.000242662 8.00412e-05 -0.6861473747 0.4999586855
315298110.0 0.1096927672 -0.057263678 4.59214e-05 0.0002113432 0.0002044229 0.0001685043 -0.6804710822 0.5066241926
320298080.0 0.1089659528 -0.0592346282 5.9111e-05 0.0001622548 -2.36724e-05 2.36203e-05 -0.6751211036 0.5142337981
325298050.0 0.107691461 -0.0610827128 0.0002960175 -1.6851e-05 3.41133e-05 0.0001342835 -0.6695621105 0.5210336764
330298020.0 0.1063934539 -0.0631155218 0.000462563 0.0001194121 0.0001811841 0.0001454752 -0.6641981899 0.528648291
335297990.0 0.1049924913 -0.0644527008 0.0002380501 0.0003899171 0.0001329262 6.59669e-05 -0.6592385085 0.5351934027
340297960.0 0.1035010691 -0.0657494561 0.0001376026 0.0001097122 0.000240853 0.0002258999 -0.6530804761 0.5422873571
345297930.0 0.1024409255 -0.0669987269 0.0002084243 0.0002946566 0.000385121 2.68591e-05 -0.6474074895 0.548212744
350297900.0 0.1011668363 -0.0684546506 0.0002095975 0.000167438 0.0002556489 0.0001453454 -0.6416170885 0.5555185772
355297870.0 0.1000714641 -0.0697118021 0.0004536822 0.0002389842 9.50896e-05 0.0001088075 -0.6357947008 0.5616673996
360297840.0 0.0988640872 -0.0710396483 8.57268e-05 3.0499e-05 0.0002665166 -5.8259e-06 -0.6298219842 0.5687444943
365297810.0 0.097490144 -0.0720562543 0.0002834867 0.0002995887 0.0003593681 6.52072e-05 -0.6235126151 0.5749456785
370297780.0 0.0966494309 -0.0733086115 0.0002056032 5.90673e-05 0.000122371 0.000257104 -0.617933842 0.581816367
375297750.0 0.095211829 -0.0747127883 -9.6363e-06 7.0381e-06 0.0002071582 -2.83852e-05 -0.6122113865 0.5878329351
380297720.0 0.0942187309 -0.0760967114 0.0001592682 5.65549e-05 3.26167e-05 0.000238747 -0.6059149692 0.5941393095
385297690.0 0.0928101468 -0.0772219745 0.0002663154 0.0001684251 0.0002312219 0.0001209378 -0.5995830815 0.6003752561
390297660.0 0.0916409175 -0.0779598397 0.0003703973 -2.53461e-05 0.0003079637 4.92937e-05 -0.5936237874 0.6061393897
395297630.0 0.0907192217 -0.079391484 0.0005161274 -8.64145e-05 0.0001570779 0.0001653884 -0.5863696373 0.6129028272
400297600.0 0.0892676045 -0.080564848 9.85665e-05 5.253e-07 0.0001842097 0.0001187607 -0.5805488043 0.6186767703
405297570.0 0.087847604 -0.0815926579 0.0002319483 -4.33929e-05 0.0002297643 0.0001855781 -0.5745014297 0.6243465675
410297540.0 0.0867148526 -0.082763937 0.0002105435 0.0001559506 0.000227419 8.09086e-05 -0.5675350461 0.6307262458
415297510.0 0.0854702669 -0.0840069879 0.000319468 0.0001225388 0.0001951162 0.0002551322 -0.5616934854 0.6358857795
420297480.0 0.0841268936 -0.0847774885 0.0001375678 0.0001342876 0.0001413407 0.000266168 -0.5541380867 0.64219959
425297450.0 0.0830061098 -0.0855524168 0.0001657946 0.0001903361 0.0002600791 4.05159e-05 -0.5482156446 0.6478681683
430297420.0 0.0815413822 -0.0865995162 0.0001017224 0.0001327534 0.0002570635 9.66994e-05 -0.5415126034 0.6525760616
435297390.0 0.0802534687 -0.087569937 0.0003024229 0.0003453558 0.0002837698 8.04989e-05 -0.5337868758 0.6584530358
440297360.0 0.0788993411 -0.088619359 0.0004262316 0.0002356033 0.0004094461 -9.054e-06 -0.5273696736 0.663467847
445297330.0 0.0774811635 -0.0895054937 6.89523e-05 0.0001853716 0.0002143757 4.3585e-06 -0.5202775864 0.6685468511
450297300.0 0.0764674824 -0.0904962946 0.0002715857 0.0005737456 0.0002306346 -1.40363e-05 -0.5137660635 0.6741512074
455297270.0 0.0747578019 -0.0910060689 0.0003245323 -6.3238e-06 0.000134411 -3.71358e-05 -0.5065076883 0.6787456994
460297240.0 0.0734754468 -0.0921827242 6.76798e-05 0.0001518333 0.0002807172 0.00036685 -0.5000099399 0.6843249637
465297210.0 0.0726021454 -0.0926629881 0.0002649596 -2.28509e-05 0.0002341636 0.000266588 -0.4922932068 0.6891477085
470297180.0 0.070797834 -0.0936056106 0.0002782066 0.0001450021 0.0001894863 2.59315e-05 -0.4847485752 0.694499747
475297150.0 0.069633874 -0.0947199396 0.000305763 0.000129545 0.0002339435 -7.8519e-05 -0.4778667332 0.6986295692
480297120.0 0.0681080479 -0.0953150321 0.0004262108 0.0003508693 0.0002684612 0.0001575266 -0.4705882487 0.704084321
485297090.0 0.0669462645 -0.095892989 0.0003125735 -0.0001596644 0.0004784384 0.0002540671 -0.4636576032 0.7083685671
490297060.0 0.0652747117 -0.0963227541 0.0003418783 0.000141639 6.93998e-05 -0.0001005791 -0.4561827165 0.7129269813
495297030.0 0.0640862618 -0.0971691037 0.000242563 8.01952e-05 0.00025692 0.0001646803 -0.4489272771 0.7180677833
500297000.0 0.0625667986 -0.0980441091 0.0001576252 0.0002189514 0.000363475 9.76493e-05 -0.4412212036 0.7223951983
505296970.0 0.0614161531 -0.098655288 0.0002714898 0.0002013753 0.0004054464 2.20962e-05 -0.4343423015 0.7266696498
510296940.0 0.0600537144 -0.0994674495 0.0003091526 9.75648e-05 0.000189436 8.60363e-05 -0.4266201718 0.7304714313
515296910.0 0.0585945654 -0.0998604134 0.0003370694 0.0002315709 0.0003908137 -9.44267e-05 -0.4193550987 0.7354173113
520296880.0 0.0570458262 -0.1004428283 0.0003218198 -7.75188e-05 0.0003452237 0.0001155682 -0.4116568128 0.7392775842
525296850.0 0.0557940216 -0.1012737907 0.0002052829 5.59957e-05 0.0003352151 0.0002020483 -0.4043486814 0.7441876969
530296820.0 0.0543689607 -0.1015383371 0.0001768329 0.0001327894 0.0003044752 -0.0001548325 -0.3966340217 0.7477228487
535296790.0 0.0530462087 -0.1020229721 0.0002976261 0.0003127229 0.0002473591 0.0001379995 -0.389116386 0.7512626655
540296760.0 0.0514350621 -0.1025296227 0.0003009985 2.19039e-05 0.0003090625 -3.59404e-05 -0.3815478232 0.755496543
545296730.0 0.0499295123 -0.1030867483 0.0003428256 7.262e-05 0.0001493245 0.000195828 -0.3740980835 0.7589804926
550296700.0 0.0489907184 -0.1036226872 0.0003613993 0.0003400653 0.0003643612 8.14831e-05 -0.3658725426 0.7627668326
555296670.0 0.0471844515 -0.1040217942 0.0002156993 3.92107e-05 0.0002788702 0.0001524609 -0.3582389674 0.7669055707
560296640.0 0.045946949 -0.1044684702 0.0003740183 9.07513e-05 0.0002387322 5.65921e-05 -0.3506789275 0.7705465181
565296610.0 0.0444041875 -0.1047579056 0.0002840169 3.17551e-05 0.0003537033 0.0001363201 -0.3427323724 0.773563878
570296580.0 0.0427363719 -0.1050502044 0.0002863877 0.0003436809 0.0004556662 0.0002097862 -0.3351250617 0.7776327036
575296550.0 0.0414930688 -0.1052674464 0.0003143759 2.89099e-05 0.0002218678 -5.2288e-05 -0.3265312764 0.7807190627
580296520.0 0.0401533758 -0.1059629218 0.0002203546 -8.4266e-05 0.0002514812 4.7358e-05 -0.3182877201 0.7835737002
585296490.0 0.038321092 -0.1062920612 0.0003267327 0.0003046206 0.0002826053 0.0001531637 -0.3108213126 0.7871875632
590296460.0 0.0372641564 -0.1063330936 0.0004014209 7.15838e-05 0.0002863219 7.3126e-05 -0.3032007202 0.7899029385
595296430.0 0.0358143243 -0.1065632233 0.0003965319 0.0001287206 0.0002821868 -2.65594e-05 -0.2947951494 0.7922587937
600296400.0 0.0339812417 -0.107095615 0.0003910904 -8.15945e-05 0.0003622747 1.6875e-06 -0.2868019964 0.7955674961
605296370.0 0.0325874222 -0.1072867695 0.0001824098 -0.000156843 0.0004106159 0.0001945438 -0.2783306072 0.7983768928
610296340.0 0.0310802196 -0.1076255031 0.0005452272 0.0001361747 0.0002633508 0.0001748844 -0.2705602787 0.8011303401
615296310.0 0.0297473091 -0.1078011625 0.0004255953 -5.95252e-05 0.0002672207 -7.11858e-05 -0.2621169605 0.8032114271
620296280.0 0.0283623608 -0.1081031915 0.0007071652 5.32656e-05 6.03143e-05 -2.25586e-05 -0.2541594935 0.8063709794
625296250.0 0.0268671538 -0.1084063329 0.0002628273 -0.0001061949 0.0002655307 -5.27653e-05 -0.2456346233 0.8080695576
630296220.0 0.0255452307 -0.1087082285 0.0004851883 7.4658e-06 0.0004205836 7.52704e-05 -0.237532397 0.8113015231
635296190.0 0.0238165744 -0.1084897211 0.0004212038 0.0001013684 0.000105169 -0.0001134408 -0.2296940553 0.8128025935
640296160.0 0.0225404378 -0.1085094168 4.61643e-05 4.92056e-05 0.0002234293 5.82799e-05 -0.2213468602 0.8158152479
645296130.0 0.0211059541 -0.1084617685 0.00026154 -5.01518e-05 0.000311744 3.34289e-05 -0.2135030488 0.8175373375
650296100.0 0.0197974303 -0.1084742146 0.0004276323 -5.725e-05 0.0004642268 -4.38885e-05 -0.2053955969 0.8192597075
655296070.0 0.0181561908 -0.1086136641 0.0004731509 -5.60947e-05 0.0003415912 0.0001568393 -0.1966243108 0.8212914293
660296040.0 0.016740556 -0.1086511116 0.0002418422 0.0001053409 0.0006576095 4.32954e-05 -0.1878252127 0.8234311851
665296010.0 0.015736989 -0.1088397373 0.00028622 3.46044e-05 0.0003654477 -0.0002046958 -0.1795656091 0.8255393006
670295980.0 0.0136911372 -0.1086822067 0.0003780847 1.09909e-05 0.0001780967 0.000253619 -0.172355729 0.82717406
675295950.0 0.0122827116 -0.1087079395 0.0005161377 0.0001967688 0.0001288082 -1.04731e-05 -0.1641504067 0.8288487804
680295920.0 0.010834767 -0.1084319033 0.0003005259 0.0001248606 0.0004637957 4.4484e-05 -0.1555290294 0.8316343552
685295890.0 0.0093522172 -0.1081644497 0.0004674795 -3.00582e-05 0.0004197205 -0.0002647605 -0.1466118355 0.8317098798
690295860.0 0.0081634708 -0.1082071783 0.0002572419 7.63837e-05 0.0003954932 -4.1416e-06 -0.138669116 0.8342423504
695295830.0 0.006613588 -0.1080370774 0.0003432816 -5.799e-06 0.0002927374 9.80931e-05 -0.1303519607 0.8349101637
700295800.0 0.0052451883 -0.1082401286 0.0005385025 -2.7424e-06 0.0003992913 0.0003446164 -0.1221614907 0.8363367579
705295770.0 0.0033665114 -0.1077143439 0.0004149983 3.0317e-06 0.0003989682 -0.000212158 -0.1139329217 0.8383943648
710295740.0 0.002311232 -0.1075080116 0.0004605195 4.03257e-05 0.0005605441 -9.39794e-05 -0.104937501 0.8385955281
715295710.0 0.0006669128 -0.1076745274 0.0005046261 -2.45431e-05 0.0003547808 -4.32132e-05 -0.0964563263 0.8395251925
720295680.0 -0.000654701 -0.1076886832 0.0004547643 1.31521e-05 0.0004072682 9.26509e-05 -0.088193018 0.8406503763
725295650.0 -0.0019680364 -0.1071236184 0.0004527725 4.0107e-06 0.0003354354 0.0001453161 -0.0801113706 0.842019032
730295620.0 -0.0034653755 -0.1068778735 0.0002251064 -0.000186036 0.0003943311 -7.51886e-05 -0.0721476671 0.8416046358
735295590.0 -0.004851166 -0.1065674934 0.0004586507 -2.95961e-05 0.0003969234 -8.61653e-05 -0.063377514 0.8423413269
740295560.0 -0.0063465368 -0.1061140272 0.0003947302 -0.0001297115 0.0003489756 -0.0001336369 -0.0549249984 0.8437719843
745295530.0 -0.0076363641 -0.1060196165 0.0005708083 -6.58356e-05 0.0005582884 -0.0001151946 -0.0463131593 0.8436344686
750295500.0 -0.0089287483 -0.1055865341 0.0003478745 4.64164e-05 0.0003327209 7.8071e-06 -0.0385106521 0.8444018658
755295470.0 -0.0104133505 -0.1054960121 0.0004740019 -0.0001249965 0.0004760556 -8.6774e-05 -0.0297425566 0.8437456876
760295440.0 -0.0116924748 -0.1052579722 0.0005113081 -0.0002293613 0.0004601456 -0.0001124516 -0.0214298514 0.8444895908
765295410.0 -0.0129597551 -0.1047089292 0.0005723503 9.4061e-05 0.0003629766 -4.11521e-05 -0.0125876123 0.8451372837
770295380.0 -0.0146210092 -0.1041398656 0.000261282 -0.0001973488 0.000433296 6.0761e-06 -0.0042617313 0.8448791635
775295350.0 -0.0163996415 -0.1040661557 0.0005431868 -8.27446e-05 0.0004352708 -0.0001103395 0.0037616688 0.8442344612
780295320.0 -0.0173081657 -0.1035534259 0.000413622 2.1073e-05 0.0003148555 7.48608e-05 0.0119777159 0.8442594155
785295290.0 -0.0190705662 -0.1035157177 0.0007642629 -0.0001540401 0.0003837944 -0.0001802236 0.0208109061 0.8441562043
790295260.0 -0.0197205719 -0.1025142074 0.0004415475 -0.0001959003 0.0006644728 -0.0002034635 0.029936344 0.8440106657
795295230.0 -0.0213828695 -0.1019740613 0.0004535256 0.0002701444 0.0002774701 2.92658e-05 0.0383856582 0.8433487906
800295200.0 -0.0227906723 -0.1017440986 0.0004015215 7.17202e-05 0.0002624953 1.01283e-05 0.0467909026 0.8430483465
805295170.0 -0.024223202 -0.1013074716 0.0004087806 -0.0001878221 0.0004573783 -0.000168228 0.0543788611 0.8429278338
810295140.0 -0.0249775524 -0.100805424 0.0004485509 -1.99471e-05 0.0002738994 -0.0001656332 0.0632016221 0.8417692002
815295110.0 -0.0267992096 -0.1003192252 0.0004506747 8.80156e-05 0.0004078266 -0.0001166391 0.0717882062 0.8413678389
820295080.0 -0.0282210208 -0.099735751 0.0004451025 -0.0001203124 0.0004889101 -0.0002179619 0.0796728277 0.8406516966
825295050.0 -0.0292506777 -0.0991061768 0.0004428704 -0.0002500228 0.0004458907 -6.13838e-05 0.0886633729 0.8401444217
830295020.0 -0.0306290823 -0.0985548521 0.0004481474 -0.0002064021 0.0004035393 6.64376e-05 0.0973521685 0.8393127929
835294990.0 -0.0318572624 -0.0976571336 0.0005358448 -0.0003189463 0.0004481962 -3.37737e-05 0.1050327041 0.8384064487
840294960.0 -0.0332017313 -0.0971066316 0.0006784846 -0.000342621 0.0002424773 -0.0002096497 0.1132046328 0.8367864701
845294930.0 -0.0343680628 -0.0964304076 0.0003336202 -0.0002215575 0.0004959705 5.83312e-05 0.1214539709 0.8356852079
850294900.0 -0.03514125 -0.0955409419 0.000394075 0.0001072832 0.0004058514 -0.0002369367 0.1296243047 0.8345772469
