!Created with skrf (http://scikit-rf.org).
# Hz S RI R 50.0 
!freq ReS11 ImS11 ReS21 ImS21 ReS12 ImS12 ReS22 ImS22
300000.0 -0.2333860392 -0.1348405592 0.467284588 0.0878982207 0.4691558817 0.0868718389 -0.2379812213 -0.132928273
5299970.0 -0.2419015496 0.0050296312 0.4749043088 0.0058565283 0.4754374694 0.0061355217 -0.2440995648 0.004629286
10299940.0 -0.2387063253 0.0185859546 0.4773641429 0.006679571 0.4772549744 0.0070302285 -0.2407401577 0.0172254303
15299910.0 -0.233802466 0.0287684767 0.4804144007 0.0081416403 0.4809084726 0.0083091769 -0.2366997719 0.0265317728
20299880.0 -0.2286146273 0.0368384233 0.4853383021 0.0080892603 0.4855898616 0.0084303999 -0.2319807107 0.0337659758
25299850.0 -0.2224751428 0.0435754435 0.490363011 0.0074307047 0.490942074 0.0071454861 -0.2269936378 0.0401040503
30299820.0 -0.2172718642 0.048732989 0.4960024176 0.0050334795 0.4961385358 0.0049539513 -0.2215554601 0.0447505207
35299790.0 -0.211376687 0.0529731542 0.5010625542 0.0020879309 0.5016474675 0.0019629713 -0.2168846194 0.0493129467
40299760.0 -0.206326232 0.0560499554 0.5063407236 -0.0018347026 0.5067016907 -0.0022319974 -0.2119349522 0.0520650981
45299730.0 -0.2012220239 0.0587432947 0.5111307212 -0.0065955185 0.5112612733 -0.0069286455 -0.2071458632 0.0546834575
50299700.0 -0.1959759752 0.0608343025 0.5152782896 -0.0125392364 0.5154288536 -0.0128463025 -0.2026007944 0.0569758131
55299670.0 -0.1916817485 0.0623858769 0.5188767666 -0.0178141738 0.5189461323 -0.018568656 -0.1991825332 0.0583731163
60299640.0 -0.1874452834 0.0641585875 0.5223976901 -0.0244885986 0.5223185296 -0.0249356781 -0.1950917245 0.0597554338
65299610.0 -0.1842623017 0.0651897971 0.5255984466 -0.0305976003 0.5254227627 -0.0309858894 -0.1917643973 0.0608932909
70299580.0 -0.1810002201 0.0656097529 0.5273972121 -0.037080139 0.5278384311 -0.0373310942 -0.1892305997 0.0620481151
75299550.0 -0.178003295 0.0670701155 0.5297599176 -0.0448855174 0.5299614656 -0.0444822863 -0.1860450992 0.0629579952
80299520.0 -0.175061601 0.0676640109 0.5314345383 -0.0513798057 0.5316388063 -0.0514612688 -0.1836081277 0.0635652288
85299490.0 -0.172346055 0.0681702392 0.5325615245 -0.0582847103 0.5328141483 -0.0579199127 -0.1816150486 0.0641186231
90299460.0 -0.1701151058 0.0690538567 0.533558966 -0.0651314725 0.5332974926 -0.0649503476 -0.179247685 0.0648323925
95299430.0 -0.1680026659 0.0697615573 0.5341093377 -0.0717840742 0.5351196707 -0.0723795968 -0.1774486278 0.065698137
100299400.0 -0.1660758915 0.0703312704 0.535179944 -0.078926761 0.5348871323 -0.0790945655 -0.1757612484 0.0664210436
105299370.0 -0.1641390361 0.0709863557 0.5353329109 -0.0856236224 0.5357503965 -0.0857351628 -0.1738324515 0.0669752836
110299340.0 -0.1624902421 0.0715325626 0.535724392 -0.0920442934 0.5359197821 -0.0924033317 -0.1726957407 0.0675274513
115299310.0 -0.160842561 0.0723944836 0.535571852 -0.0993746213 0.5353194016 -0.0992555781 -0.1713720065 0.0683539731
120299280.0 -0.1594591581 0.0736765287 0.5355381656 -0.1064589972 0.5349998935 -0.1062647347 -0.1698556685 0.0686125394
125299250.0 -0.1578213687 0.0738463433 0.534565816 -0.1128267223 0.5348639495 -0.1128540355 -0.1684939804 0.069789942
130299220.0 -0.1567078741 0.0745997005 0.5343660242 -0.1195714699 0.5342798737 -0.120045896 -0.1676348818 0.0705944365
135299190.0 -0.1556426146 0.0758200643 0.53376963 -0.1258652002 0.5338410938 -0.1263851543 -0.1666285398 0.0711671163
140299160.0 -0.1542473322 0.0768178476 0.5331447343 -0.1327238368 0.5328832462 -0.1326007325 -0.1661357473 0.0719219223
145299130.0 -0.1533784208 0.0779100203 0.5318136675 -0.1392406985 0.5320577046 -0.1392518424 -0.1650148927 0.0730341211
150299100.0 -0.1520320903 0.0787391727 0.5307068145 -0.1462045049 0.530781281 -0.1460153209 -0.1641264848 0.0741190759
155299070.0 -0.1507103747 0.0799365823 0.5290367677 -0.1526120106 0.5297413655 -0.1525685765 -0.1630230554 0.0750347347
160299040.0 -0.1498729754 0.0813654295 0.5285570686 -0.1594195628 0.5281354515 -0.1591395181 -0.1626706722 0.0761679724
165299010.0 -0.148803095 0.0821337632 0.5267430492 -0.1653700662 0.5263460326 -0.1654358608 -0.1615695619 0.0765410884
170298980.0 -0.1481058903 0.0833498254 0.5248956573 -0.1718181144 0.5251086809 -0.1717379262 -0.1611027241 0.0780588163
175298950.0 -0.1467621315 0.0848030819 0.5236860678 -0.1778569018 0.5240244715 -0.1782590087 -0.1602719874 0.0792386353
180298920.0 -0.1460686087 0.0858865563 0.5215800432 -0.1843812833 0.5219759172 -0.1845005177 -0.1592759032 0.0800348869
185298890.0 -0.1451234464 0.0874231818 0.5199133008 -0.1904598627 0.519903434 -0.1908434551 -0.1579579817 0.0811284468
190298860.0 -0.143840663 0.0888181061 0.5175528965 -0.1966345563 0.5182116312 -0.196928293 -0.1575960175 0.0823613743
195298830.0 -0.1432337517 0.0899404759 0.5162129784 -0.2025330031 0.5162368387 -0.2028680175 -0.1571548174 0.0837529818
200298800.0 -0.1419372346 0.0910480698 0.5143029593 -0.2091116752 0.5142522007 -0.2090027751 -0.1563248057 0.0845424722
205298770.0 -0.1413381384 0.0925308272 0.5115745328 -0.2145769667 0.5123407546 -0.2146299993 -0.1553814735 0.0858356034
210298740.0 -0.1402771157 0.0940091464 0.5101191472 -0.2211487702 0.5094053595 -0.2209136129 -0.1552179538 0.0870869512
215298710.0 -0.1391759367 0.0954158802 0.506733027 -0.2261767548 0.5073765438 -0.2269992775 -0.1540381021 0.0884711045
220298680.0 -0.1379876495 0.0969425699 0.5046615245 -0.2328514993 0.5043918053 -0.2327544627 -0.1533726423 0.0894522549
225298650.0 -0.1373424125 0.0983603504 0.5021416254 -0.238320611 0.5024285927 -0.2382183791 -0.1526106494 0.0907424767
230298620.0 -0.1361744924 0.0997861471 0.4994717558 -0.2444863688 0.5005827013 -0.2445750235 -0.1519505116 0.0919417189
235298590.0 -0.1353510002 0.1013847385 0.4974325277 -0.250608542 0.4970663019 -0.2505159087 -0.1508468759 0.093472969
240298560.0 -0.1341386029 0.1026916283 0.4942871541 -0.2554356999 0.4942339791 -0.2557733732 -0.1503458736 0.0944604041
245298530.0 -0.1332651132 0.1038359358 0.4915334385 -0.2615269127 0.4918514283 -0.2617199442 -0.1495612767 0.09605097
250298500.0 -0.1323628425 0.1055398667 0.4887999068 -0.2670769694 0.4892499534 -0.2670493934 -0.1490903804 0.0976769521
255298470.0 -0.1312377132 0.1073208157 0.4864975054 -0.2725962005 0.4865736539 -0.2727132954 -0.1478696991 0.0989522953
260298440.0 -0.1301869076 0.1082948595 0.4829950605 -0.2776636916 0.4832817788 -0.2781227973 -0.1470387364 0.0999271714
265298410.0 -0.12914499 0.1100303859 0.479752788 -0.2839786797 0.4800456284 -0.2842848722 -0.1459700916 0.1009928974
270298380.0 -0.1281088443 0.1113273846 0.4766228093 -0.2890247711 0.4769523523 -0.2892878057 -0.1451921366 0.1026828299
275298350.0 -0.1269751838 0.1131845549 0.4733537803 -0.2942891389 0.4739040578 -0.2943684654 -0.1443053117 0.1041158604
280298320.0 -0.1261528164 0.1142955604 0.4710257925 -0.2993027765 0.4711274703 -0.2997645004 -0.1433691503 0.1056126847
285298290.0 -0.1249876143 0.1158524463 0.4673390181 -0.3051893376 0.4675310843 -0.3050135657 -0.1426301105 0.1069138176
290298260.0 -0.1236325527 0.1175061604 0.4645938271 -0.3103516987 0.4643428476 -0.3102601709 -0.1416913019 0.1080363634
295298230.0 -0.122524548 0.1183974029 0.4611726271 -0.3161722223 0.460977988 -0.3160650023 -0.1404995624 0.1091722901
300298200.0 -0.1210529158 0.120200491 0.4571367037 -0.3209689046 0.4576385539 -0.3210213084 -0.1395062327 0.110730109
305298170.0 -0.1201312859 0.1210661556 0.454176229 -0.3263617109 0.4543782282 -0.3267001435 -0.1385684258 0.1118478752
310298140.0 -0.1186885363 0.1223039733 0.4506482691 -0.3310982499 0.4505692672 -0.3310424901 -0.1372361692 0.1129641407
315298110.0 -0.1174456736 0.1238281593 0.4468148231 -0.3370956045 0.4472290244 -0.3367736986 -0.136509154 0.114405293
320298080.0 -0.1166401547 0.1252485525 0.4426885185 -0.3420907355 0.4435583043 -0.341930909 -0.1358363459 0.1156189061
325298050.0 -0.1156674511 0.1259496547 0.4388222985 -0.3467111033 0.4400256075 -0.3466248926 -0.1345453761 0.1167465309
330298020.0 -0.1146537531 0.127588939 0.435333186 -0.3520123519 0.4358755751 -0.3517524487 -0.1340484622 0.1178252383
335297990.0 -0.1133294962 0.129002808 0.4315329793 -0.3566941639 0.4315658489 -0.3566488915 -0.1330954156 0.1193519078
340297960.0 -0.1122924116 0.1304166713 0.4270510893 -0.3615972339 0.4268740111 -0.361480185 -0.1319073593 0.1208266431
345297930.0 -0.1113474601 0.1315139661 0.4231249392 -0.366096094 0.4232777208 -0.3663560081 -0.1307841262 0.1221188109
350297900.0 -0.1100606256 0.1329242003 0.4191690324 -0.3702732114 0.4197222475 -0.3703564937 -0.1300796177 0.1231277724
355297870.0 -0.1087051607 0.1344295513 0.415273628 -0.3749471605 0.4150676214 -0.3751101464 -0.1288443649 0.1249610862
360297840.0 -0.1071953904 0.1357738777 0.4106876862 -0.3797387817 0.4114596885 -0.380011079 -0.1279761872 0.1263812916
365297810.0 -0.1063511777 0.1373132625 0.4063000342 -0.3843075064 0.4071600453 -0.3842770363 -0.1271216513 0.1275969239
370297780.0 -0.1046776437 0.1383759135 0.4020608919 -0.3886586758 0.4025440292 -0.3888126348 -0.1256271957 0.128832987
375297750.0 -0.1033020172 0.1395571793 0.3981556806 -0.3932374541 0.398490094 -0.3930658761 -0.1243585629 0.1301793184
380297720.0 -0.1021827398 0.1410496427 0.3943757572 -0.3977383364 0.3939460468 -0.3978128871 -0.1233060892 0.1316445089
385297690.0 -0.1007278154 0.1422052824 0.3894041142 -0.4017884408 0.3896276532 -0.4025524977 -0.1219530066 0.1331546607
390297660.0 -0.0990272055 0.1431371854 0.3851418082 -0.4055752683 0.3849998864 -0.4061014177 -0.1204962521 0.1340257657
395297630.0 -0.097270725 0.1446151154 0.3807285483 -0.409846417 0.3808168876 -0.4101911681 -0.1197993503 0.1353364371
400297600.0 -0.0963379982 0.1458298037 0.3762981147 -0.414486441 0.3762316897 -0.4145762865 -0.1179226788 0.1371844851
405297570.0 -0.0948127565 0.1464362783 0.3718790866 -0.4181981704 0.3718674718 -0.4184085565 -0.1167425101 0.1383164781
410297540.0 -0.0932393283 0.1481717708 0.3670028434 -0.4222219649 0.3672524284 -0.4224480417 -0.1156566243 0.1394795865
415297510.0 -0.0918501519 0.1491946779 0.362354666 -0.4264337296 0.3628605638 -0.4267930254 -0.1140707427 0.1409751924
420297480.0 -0.0902515497 0.1501317552 0.357504749 -0.4303334444 0.3578692393 -0.4306770334 -0.1124777971 0.1424448843
425297450.0 -0.0880772059 0.1512029442 0.3531251278 -0.4341649483 0.3528212552 -0.4346287849 -0.1112451003 0.1433064773
430297420.0 -0.0868954773 0.1524977296 0.348738245 -0.4384468723 0.3485701084 -0.4377466367 -0.1098340643 0.1445194077
435297390.0 -0.0852532901 0.1532322785 0.3433170486 -0.4423652463 0.343531213 -0.4418211743 -0.108975843 0.1460314726
440297360.0 -0.0836159534 0.1542042505 0.338177464 -0.4460277821 0.3384997667 -0.4456910354 -0.107396778 0.1471453298
445297330.0 -0.081808609 0.1550452528 0.3338411601 -0.4490183999 0.3342774932 -0.4497512079 -0.105969948 0.1482729349
450297300.0 -0.0799926115 0.1562094577 0.3291250545 -0.4527115009 0.3292987042 -0.4524794573 -0.1041759005 0.149565231
455297270.0 -0.0787312726 0.157180711 0.3240506625 -0.4561895353 0.3239408101 -0.4565796786 -0.1029869745 0.1504206936
460297240.0 -0.0767599953 0.1582313719 0.3189168203 -0.4603866511 0.3187907982 -0.4599581146 -0.1015478035 0.1514396597
465297210.0 -0.0750469231 0.1589082783 0.3135170921 -0.4638155265 0.3133879229 -0.4637975278 -0.0994242665 0.1533068318
470297180.0 -0.0729962471 0.1597389941 0.3085108475 -0.4663867109 0.308977375 -0.4670072633 -0.0981997036 0.1541734793
475297150.0 -0.0717702552 0.1609505717 0.3036552049 -0.4699573649 0.3038179132 -0.4702051083 -0.0968364386 0.1550219744
480297120.0 -0.0693771419 0.162242247 0.2982596551 -0.473274016 0.2988170786 -0.4735573222 -0.0955033393 0.1561912636
485297090.0 -0.0677280451 0.1625507965 0.2930711495 -0.4767194388 0.2931315124 -0.4766139693 -0.0939352111 0.157354579
490297060.0 -0.0653718112 0.1638578935 0.2875556869 -0.4799539953 0.2879418486 -0.4797738305 -0.0920320981 0.1582158468
495297030.0 -0.0641395821 0.164408975 0.2833725807 -0.4831382207 0.2829696241 -0.482789038 -0.090698455 0.1588863795
500297000.0 -0.0623295772 0.1653846483 0.2778474532 -0.485990727 0.277659841 -0.4865132846 -0.0890197318 0.1604333232
505296970.0 -0.0598153443 0.1662815528 0.2725311442 -0.4894070862 0.2722025668 -0.4887739342 -0.0876517903 0.161117483
510296940.0 -0.0583443408 0.1670358097 0.2669253829 -0.4926591891 0.2671592745 -0.4923405818 -0.0857059183 0.1626615837
515296910.0 -0.0564966306 0.1679522874 0.2613868254 -0.4952201718 0.2612443394 -0.4947679601 -0.0842627297 0.1628429986
520296880.0 -0.0541672633 0.1684931279 0.2562458482 -0.4975887361 0.2561734416 -0.4976987306 -0.082436681 0.1645356065
525296850.0 -0.0524050278 0.1691671387 0.2505263988 -0.5000888354 0.2501509208 -0.5000787992 -0.0806737805 0.165030326
530296820.0 -0.0506860998 0.169807338 0.2448761198 -0.503106178 0.2453216934 -0.5026893164 -0.0790347306 0.1659068929
535296790.0 -0.0480688676 0.1705312176 0.2397963956 -0.5053704554 0.2395517658 -0.5060187306 -0.0771618075 0.1671260053
540296760.0 -0.0462528925 0.171512569 0.234083026 -0.5082987391 0.2339626833 -0.50811636 -0.0758757182 0.1677270771
545296730.0 -0.0447173319 0.1722311606 0.2286800791 -0.5100083419 0.2283291801 -0.5105295119 -0.0741221289 0.1684593561
550296700.0 -0.042285115 0.1727471021 0.2228341691 -0.5130045572 0.222718449 -0.5132615617 -0.0725370334 0.1694438714
555296670.0 -0.0403979431 0.1732898122 0.217170343 -0.5156370302 0.2174589265 -0.5154012511 -0.0706857436 0.1698431708
560296640.0 -0.0378901511 0.1737815678 0.2114172916 -0.517416833 0.2120655852 -0.5175220922 -0.0693699458 0.1711006884
565296610.0 -0.0363513963 0.174542122 0.2064199481 -0.5199165753 0.2062862251 -0.5195140345 -0.0673689789 0.1718432634
570296580.0 -0.0346513187 0.1752527273 0.2002180141 -0.5221102827 0.2004079286 -0.522175188 -0.0658872915 0.1725991713
575296550.0 -0.032110572 0.1756006366 0.1950153597 -0.5242751482 0.194824819 -0.5243453818 -0.064175442 0.1731369786
580296520.0 -0.0300599992 0.1763382885 0.1892799546 -0.5260673357 0.1891805042 -0.526698997 -0.0623565779 0.1740810994
585296490.0 -0.028109212 0.1767555046 0.1840605519 -0.5278904971 0.1829809588 -0.5285407483 -0.0601456318 0.175447985
590296460.0 -0.0254203007 0.1774514745 0.1777930145 -0.5298980224 0.1776110477 -0.5304569474 -0.0589689391 0.175624876
595296430.0 -0.0236782046 0.1779368262 0.1713012881 -0.5316650761 0.171475527 -0.5319141337 -0.0570447469 0.1759619236
600296400.0 -0.0213429173 0.1784632453 0.1657280056 -0.5336091976 0.1655699692 -0.5338088501 -0.0552430569 0.176826131
605296370.0 -0.0201584798 0.1788627312 0.1605351717 -0.53503938 0.1602652696 -0.5357839735 -0.053687229 0.1775508288
610296340.0 -0.0173220939 0.1797747261 0.154256334 -0.5368029931 0.1546373579 -0.5373543799 -0.052150212 0.1784561577
615296310.0 -0.0150968922 0.179940804 0.1484872268 -0.5391154014 0.1482375272 -0.5390546251 -0.0498849607 0.1790893325
620296280.0 -0.0135908912 0.1805274399 0.1423879359 -0.5403336814 0.1421712426 -0.5403805482 -0.0482904577 0.1800971664
625296250.0 -0.0116692091 0.1805884141 0.1368006391 -0.5417946047 0.1367626956 -0.5421864085 -0.046821512 0.1802467859
630296220.0 -0.0094200569 0.1812851355 0.1307823906 -0.5434040676 0.1308588521 -0.5430754723 -0.0449562038 0.1809054144
635296190.0 -0.0075299235 0.1818310844 0.1253216603 -0.5444815483 0.1247459452 -0.5443836615 -0.0432459683 0.1814671633
640296160.0 -0.0052099285 0.1820328409 0.1189892973 -0.5461392872 0.118979812 -0.5459387041 -0.0414055716 0.1816128015
645296130.0 -0.0030223219 0.1826864757 0.1133982781 -0.5469653125 0.1135103848 -0.5470331478 -0.0398753979 0.1818320608
650296100.0 -0.0010114038 0.182473281 0.107237098 -0.5484210016 0.1069793435 -0.5483969717 -0.037328669 0.1824776269
655296070.0 0.0007013793 0.1827724624 0.1011268387 -0.549380956 0.1013877112 -0.5490596428 -0.0363429042 0.1835144317
660296040.0 0.0030851537 0.1832482217 0.0955458851 -0.5503970261 0.0954158661 -0.5504805276 -0.0342632263 0.1835469254
665296010.0 0.0050274302 0.1834546108 0.0888424887 -0.5512154712 0.0892140557 -0.5510809643 -0.0325484094 0.1841412216
670295980.0 0.0070723936 0.1837604479 0.0832468206 -0.5523362653 0.0833294344 -0.5519394164 -0.0310688811 0.1845745689
675295950.0 0.0091448726 0.1837880045 0.0775919637 -0.5532396037 0.0774494735 -0.5531549363 -0.0288957076 0.1852499865
680295920.0 0.0108134577 0.1841037621 0.0720175367 -0.5535647094 0.0715014904 -0.5534776131 -0.0269853111 0.1853831125
685295890.0 0.0133735468 0.1845699883 0.0654089178 -0.5545965045 0.0655877531 -0.5548467591 -0.025653644 0.1861250174
690295860.0 0.0149578481 0.1840191925 0.0596098695 -0.5550764605 0.0592944494 -0.5553739377 -0.0236700193 0.1863574726
695295830.0 0.0174084491 0.1841960194 0.0539570553 -0.5557671134 0.0535569411 -0.5557775404 -0.021818353 0.1870189889
700295800.0 0.0193327244 0.1846691184 0.0479091711 -0.5561323834 0.0479227535 -0.5561948922 -0.0196706934 0.1871020083
705295770.0 0.0210429082 0.1846577066 0.0416542599 -0.5571448151 0.0417725124 -0.5565393112 -0.0180100392 0.1877627607
710295740.0 0.0232966051 0.1843355546 0.0360484468 -0.5570250397 0.0355568153 -0.5573634873 -0.0162565626 0.18789715
715295710.0 0.0252164136 0.1846438954 0.0298167506 -0.5573318804 0.029418345 -0.5574686455 -0.0142552677 0.1878299787
720295680.0 0.0275608859 0.1848553585 0.0236418984 -0.5579591648 0.0233949608 -0.5579466078 -0.0125642465 0.188145776
725295650.0 0.0288745311 0.184770407 0.0180279539 -0.558028661 0.0176895997 -0.558290593 -0.0111965427 0.1889730012
730295620.0 0.0304592099 0.1845605003 0.0117780103 -0.5577365909 0.0120347207 -0.5577183861 -0.009439449 0.1895640019
735295590.0 0.0330147661 0.1846453508 0.0060998116 -0.5582104989 0.0056204625 -0.5578692133 -0.0072753326 0.1890813539
740295560.0 0.0347882141 0.1841046434 -0.0001164673 -0.5585893289 6.05763e-05 -0.5583351339 -0.0058452207 0.1898321163
745295530.0 0.0368497871 0.1840406691 -0.0060243373 -0.5573684329 -0.0056839835 -0.5583083936 -0.0041622741 0.1897331514
750295500.0 0.0384908676 0.1843278235 -0.0118106495 -0.5575931856 -0.0123477671 -0.5577093261 -0.0020187856 0.1901444315
755295470.0 0.040537872 0.1840056931 -0.0177178067 -0.5581719202 -0.018032307 -0.5584452111 0.0001694154 0.1905725896
760295440.0 0.042617786 0.1841818791 -0.0246438923 -0.5576703938 -0.0239968554 -0.5570886845 0.0018392055 0.1897550214
765295410.0 0.0448567032 0.1835040342 -0.0303660206 -0.557116125 -0.0300119309 -0.5569969101 0.0037570306 0.1905523022
770295380.0 0.0465191338 0.1836590061 -0.0359053914 -0.5566872652 -0.0359628082 -0.5570388231 0.0050678627 0.1906310451
775295350.0 0.0483878685 0.1830423701 -0.0419610746 -0.5562996284 -0.0417425515 -0.5561034569 0.0072736531 0.1907158685
780295320.0 0.0503599483 0.1828957888 -0.0476423983 -0.5555569702 -0.0477003596 -0.5557798578 0.0092447445 0.1908173454
785295290.0 0.0522454251 0.1821185708 -0.0536526164 -0.5551379921 -0.0537704701 -0.5554253826 0.0107318069 0.1915543904
790295260.0 0.054261597 0.181835642 -0.0596857395 -0.5544487378 -0.0596067332 -0.5551796006 0.012338195 0.1913449384
795295230.0 0.0558159325 0.1813715174 -0.0653959445 -0.5539463154 -0.0656620722 -0.5543382824 0.0144689828 0.1907306517
800295200.0 0.0575563669 0.1815336993 -0.0712288411 -0.5529521583 -0.0717844942 -0.5537192671 0.0161231989 0.1911092127
805295170.0 0.0595080565 0.1809122302 -0.0773795246 -0.5522859627 -0.0775035398 -0.5527038497 0.0187354791 0.190954304
810295140.0 0.0616936145 0.1804599061 -0.0834335315 -0.5513472989 -0.0835353144 -0.5514601395 0.0205785992 0.1911507811
815295110.0 0.0634853881 0.1799536638 -0.0893617983 -0.5505238048 -0.0888609235 -0.5507860096 0.0219257704 0.191192782
820295080.0 0.0653077192 0.1793985596 -0.0944610924 -0.5492271718 -0.0950505776 -0.5496343411 0.0233893321 0.1913912534
825295050.0 0.0670888659 0.1784184107 -0.1010233115 -0.548314043 -0.1011016364 -0.5485938874 0.0261777133 0.1914988037
830295020.0 0.0689994677 0.1782242577 -0.1068797859 -0.5472969772 -0.1068228715 -0.547533297 0.0275503614 0.190613674
