!Created with skrf (http://scikit-rf.org).
# Hz S RI R 50.0 
!freq ReS11 ImS11 ReS21 ImS21 ReS12 ImS12 ReS22 ImS22
300000.0 -0.2337754368 -0.1142657607 0.4667885421 0.0737882207 0.4700671913 0.0772463814 -0.2378054811 -0.1161319798
5299970.0 -0.240710777 0.0070254869 0.4752315377 0.0054857986 0.4749259128 0.0058852468 -0.2449608404 0.0054158317
10299940.0 -0.2373361701 0.0197657142 0.4771216085 0.0060392996 0.4769815432 0.0064212373 -0.241854034 0.0175958103
15299910.0 -0.2330663544 0.0298591028 0.4804195258 0.0076350232 0.4803967744 0.0077619393 -0.2375770618 0.0262804558
20299880.0 -0.2272366675 0.0378631924 0.4851755105 0.0078379378 0.4852801907 0.007993755 -0.2330713159 0.0340557413
25299850.0 -0.221787743 0.0443841247 0.4905879122 0.0065285208 0.4906692446 0.0069066908 -0.2277444919 0.0400375011
30299820.0 -0.2159065063 0.0494607804 0.4962709079 0.0050546847 0.4956917433 0.0049111709 -0.2226644503 0.0447456951
35299790.0 -0.2099591585 0.0539841949 0.5013703629 0.0021278294 0.5011800232 0.0017336328 -0.2173458215 0.0484794126
40299760.0 -0.2046026785 0.0570363691 0.5066292535 -0.0020756039 0.5064500953 -0.0023441264 -0.2125326556 0.051922294
45299730.0 -0.1995061287 0.059971576 0.511084866 -0.0073985645 0.5111605201 -0.0069128666 -0.2081808679 0.0545276641
50299700.0 -0.1946406947 0.0620318131 0.5150665152 -0.0127511047 0.5154796114 -0.0126914724 -0.2039203663 0.0564899465
55299670.0 -0.1906471491 0.0638404792 0.518511264 -0.0186686997 0.5187757012 -0.0184614064 -0.2000502037 0.0582282475
60299640.0 -0.1862775888 0.064790563 0.5217463995 -0.0247019875 0.522168938 -0.0245807988 -0.1963057345 0.0596380196
65299610.0 -0.1831522123 0.06645857 0.5252423997 -0.0308086531 0.5251578867 -0.0312026733 -0.1930145906 0.0604834472
70299580.0 -0.1794779871 0.0670852083 0.5273609964 -0.0376360092 0.5276266674 -0.0376897117 -0.1899654693 0.0616972932
75299550.0 -0.1764073094 0.0678729831 0.5289506369 -0.0443045452 0.5292275706 -0.0448194349 -0.1871152146 0.0626659319
80299520.0 -0.1742694674 0.0689473216 0.5315725865 -0.0511972759 0.5314277276 -0.0513967394 -0.184797923 0.0630274571
85299490.0 -0.1713915033 0.0694658902 0.5326173579 -0.0582124745 0.5323479871 -0.0586789982 -0.1826618155 0.0635255213
90299460.0 -0.1690844376 0.0704451513 0.5333528026 -0.0652875407 0.5337504467 -0.0652971827 -0.1804226615 0.0643260401
95299430.0 -0.1670710785 0.0712594894 0.5345054305 -0.0725523474 0.5345177109 -0.0722326653 -0.1783892232 0.0650162913
100299400.0 -0.1654541439 0.0719730899 0.5343596072 -0.079100778 0.5348015487 -0.0793172235 -0.1766880711 0.0654112066
105299370.0 -0.1633169197 0.0723976505 0.5343598606 -0.0855805433 0.5347722724 -0.086249077 -0.1749469358 0.0664114105
110299340.0 -0.1617525303 0.0731081189 0.5349602218 -0.0921605907 0.5350697987 -0.0929715663 -0.1736208422 0.0669607949
115299310.0 -0.16028075 0.0735649545 0.5349004628 -0.0993563491 0.5353073243 -0.0994094719 -0.1724118273 0.0673927556
120299280.0 -0.1590080909 0.0742560083 0.5352201296 -0.1061269318 0.5349505019 -0.1067162394 -0.1714303842 0.0679137152
125299250.0 -0.1578854946 0.0750736879 0.5345754347 -0.1127437278 0.5346631286 -0.113323951 -0.1697567702 0.0682918818
130299220.0 -0.1567740396 0.0759645097 0.5337081087 -0.1191340256 0.5341815859 -0.1198150161 -0.1689279457 0.0693999484
135299190.0 -0.1551797933 0.0767504136 0.5333119202 -0.1261943955 0.5329994364 -0.1264054932 -0.1678506272 0.0702701932
140299160.0 -0.1542272701 0.0782545675 0.5323002837 -0.132961024 0.5327723587 -0.1330323971 -0.1665606395 0.0709387716
145299130.0 -0.1531211825 0.0787309703 0.5319263771 -0.1396347742 0.5315851538 -0.1391485771 -0.1661771417 0.0715959282
150299100.0 -0.1519026859 0.0798906717 0.5301857117 -0.1462909301 0.5305812666 -0.1462404692 -0.1651353539 0.0726754987
155299070.0 -0.1510155096 0.0813727012 0.5293708145 -0.1527990044 0.5290534204 -0.1528675755 -0.1645981696 0.0736428442
160299040.0 -0.1499433616 0.0822773673 0.527659618 -0.1589268032 0.5277603831 -0.1588389474 -0.1633994203 0.0748425128
165299010.0 -0.1492349804 0.0829989459 0.5266213628 -0.1653848397 0.52658192 -0.165635604 -0.1626812501 0.0755655927
170298980.0 -0.1483736566 0.0843433416 0.5241451817 -0.1715932454 0.5249162265 -0.1717128449 -0.1617220365 0.0762996119
175298950.0 -0.1472147436 0.08551004 0.5236585393 -0.1778315712 0.5234897659 -0.1781995691 -0.1610340369 0.0776218456
180298920.0 -0.1459420491 0.0866418278 0.5213828539 -0.1843786239 0.5217145743 -0.1842483186 -0.1605257382 0.0788259979
185298890.0 -0.1452622903 0.0878857692 0.5194027003 -0.190781448 0.5196037534 -0.1907135165 -0.1600397168 0.0798358493
190298860.0 -0.1442731642 0.0893016556 0.5177046432 -0.1966389108 0.5179874167 -0.1968355199 -0.1581959116 0.0808699639
195298830.0 -0.1434212294 0.0901955362 0.5152967267 -0.2021210186 0.5156857516 -0.2030123683 -0.1576523799 0.0819739328
200298800.0 -0.142431683 0.0915641086 0.5140135116 -0.2079585786 0.5139049835 -0.2085520439 -0.156893681 0.083479346
205298770.0 -0.1418429694 0.0930795114 0.5117666974 -0.2149191962 0.5116340843 -0.2147050484 -0.1561429781 0.0838807812
210298740.0 -0.1407654331 0.0943077238 0.5093711818 -0.2211419814 0.5096180911 -0.2214749689 -0.1557761584 0.0857721111
215298710.0 -0.1394823991 0.0957601873 0.5070355325 -0.2268052248 0.5072160252 -0.2266047455 -0.1552415728 0.0867442475
220298680.0 -0.1388575487 0.097077429 0.5044086232 -0.2327661901 0.5047707433 -0.2328130807 -0.1541282571 0.0882126777
225298650.0 -0.1375350124 0.0983971024 0.5019000067 -0.2382021198 0.5020987885 -0.2384792151 -0.153595702 0.0895352744
230298620.0 -0.1371349322 0.0995898989 0.4998798466 -0.2443282712 0.4998049967 -0.244554144 -0.152512514 0.0906906183
235298590.0 -0.1356070853 0.1010230031 0.4968239246 -0.2498772408 0.4974630776 -0.2505046081 -0.1517606811 0.0915005171
240298560.0 -0.134768594 0.1024807566 0.4946843424 -0.2554635883 0.4943367503 -0.2556630977 -0.1509643263 0.0931777605
245298530.0 -0.1336159857 0.1038685129 0.4910454375 -0.261463711 0.4915357825 -0.2615099482 -0.1500147544 0.0945449262
250298500.0 -0.1329533265 0.105173979 0.4887945671 -0.2667727438 0.4889800863 -0.2665024927 -0.1490384969 0.09570335
255298470.0 -0.1318603297 0.1066995835 0.4857044874 -0.2725458155 0.4858516511 -0.2727799073 -0.1484464091 0.097025374
260298440.0 -0.1307446683 0.1082329791 0.4830591655 -0.2783151034 0.4828565811 -0.2781841637 -0.1471718438 0.0984489612
265298410.0 -0.1294354489 0.1097938899 0.4796427112 -0.284076358 0.4796000983 -0.2838285513 -0.1466116788 0.0995365413
270298380.0 -0.128137124 0.1110396758 0.4759484671 -0.2892881803 0.4767140742 -0.289271443 -0.1454142093 0.1014863455
275298350.0 -0.1272622563 0.1126348905 0.473331826 -0.2950223193 0.4738531651 -0.2947787439 -0.1445866493 0.1025943601
280298320.0 -0.1261953508 0.1140757117 0.4706315157 -0.2996521108 0.4699714203 -0.2999013056 -0.1434789677 0.1039445956
285298290.0 -0.1251080206 0.115581364 0.4666085431 -0.3050920449 0.4670935922 -0.3052736245 -0.142833843 0.1054570552
290298260.0 -0.1235458543 0.1168633011 0.4640935476 -0.3108542408 0.463835065 -0.3104934621 -0.1413335005 0.1068638775
295298230.0 -0.1224261846 0.1182475773 0.4605734612 -0.3158298135 0.4600678818 -0.316127151 -0.140198261 0.1081723751
300298200.0 -0.1209973158 0.1195004347 0.4567097042 -0.3209926576 0.4571529041 -0.3209632589 -0.1394316848 0.1091840484
305298170.0 -0.1195180831 0.1206800943 0.4534894631 -0.3266252267 0.4536394343 -0.3264083296 -0.1379658803 0.1111178052
310298140.0 -0.1181018393 0.1218144146 0.4499716254 -0.3317159857 0.4497568282 -0.3321855459 -0.1369499388 0.1126073538
315298110.0 -0.1173477131 0.1232800898 0.4464354355 -0.336680494 0.4465869691 -0.3369460084 -0.1359583259 0.1133938726
320298080.0 -0.1158946253 0.1245300051 0.4428370728 -0.3419709844 0.4428834218 -0.3420941322 -0.1348295923 0.1145851684
325298050.0 -0.1146798938 0.1255961634 0.4390177112 -0.3473563445 0.4391606769 -0.3475267641 -0.1341154802 0.1159378262
330298020.0 -0.113310975 0.127104117 0.4343086033 -0.3516838524 0.4346955628 -0.3520028175 -0.1330271321 0.1170449276
335297990.0 -0.1122297224 0.128170616 0.4307443289 -0.3569779553 0.4309583031 -0.3567851788 -0.1322189758 0.118388168
340297960.0 -0.1113511324 0.1300080284 0.4265204614 -0.3618909376 0.4268501551 -0.3613065893 -0.1313358897 0.1200293263
345297930.0 -0.1098781925 0.1310494089 0.4225668943 -0.3659363192 0.4219269105 -0.365881673 -0.1300026448 0.121183316
350297900.0 -0.1080570705 0.1325941809 0.4182720498 -0.3703965358 0.4184959012 -0.3709769165 -0.1290444756 0.1228073016
355297870.0 -0.1073423097 0.1336292101 0.4142675174 -0.3751687536 0.4143135284 -0.3756907326 -0.1280789821 0.1245687233
360297840.0 -0.1056030807 0.1351980596 0.4099409821 -0.3801892114 0.4102980821 -0.380160394 -0.1266356736 0.1258537767
365297810.0 -0.1040416619 0.1366226716 0.4059614556 -0.3842962529 0.4061788046 -0.384504829 -0.125897283 0.1275571568
370297780.0 -0.1025357336 0.137547874 0.4012928102 -0.3889341992 0.4019272574 -0.3893006749 -0.124531581 0.1287974122
375297750.0 -0.1011664748 0.1395005085 0.3980132195 -0.3936190074 0.3973691205 -0.3938208115 -0.1231591972 0.1304144038
380297720.0 -0.0994403118 0.1401854617 0.3929279315 -0.3978113439 0.3929588627 -0.3976835745 -0.1219199525 0.1317695094
385297690.0 -0.0980685232 0.1418958133 0.3884019367 -0.401828541 0.3883458805 -0.4020704437 -0.1206652569 0.1331268313
390297660.0 -0.0968206884 0.1427400605 0.3839537671 -0.4065866167 0.3842892698 -0.4064295447 -0.1194810358 0.1340397901
395297630.0 -0.0947993626 0.1439829484 0.3799050532 -0.4102277637 0.3797804445 -0.4102213527 -0.1181260431 0.1358613106
400297600.0 -0.0934407238 0.1454405186 0.375148686 -0.4143862764 0.3758977826 -0.4149195167 -0.1172943423 0.136953726
405297570.0 -0.0917590136 0.1465904493 0.3706274288 -0.4184666286 0.3709418375 -0.4189034302 -0.1156595821 0.1384750844
410297540.0 -0.0898003692 0.1476902143 0.3654208054 -0.4227061837 0.3660511859 -0.4226140309 -0.1146448501 0.1394952081
415297510.0 -0.0884862603 0.1492504571 0.361480887 -0.4269676473 0.3613360323 -0.4266758222 -0.1131692249 0.1415804342
420297480.0 -0.086848678 0.1495385391 0.3564243439 -0.4308102007 0.3567065497 -0.4306919623 -0.1116785041 0.1424278649
425297450.0 -0.0850752939 0.150790176 0.3519316411 -0.4346386741 0.3522258487 -0.4344026349 -0.1103971667 0.1439344993
430297420.0 -0.0833929807 0.15211165 0.3470752799 -0.4390364348 0.347341046 -0.4384016707 -0.109126993 0.1447749697
435297390.0 -0.0815187097 0.1530614923 0.3423295095 -0.4416434929 0.3427131031 -0.4420472591 -0.1077974363 0.146392605
440297360.0 -0.0798932375 0.1540551375 0.3370362171 -0.4459734811 0.3371154367 -0.4458362022 -0.1062864165 0.1472393605
445297330.0 -0.0782061834 0.1549552411 0.3323249904 -0.4496082277 0.3321729646 -0.4491904242 -0.1050792842 0.1486850951
450297300.0 -0.076252329 0.1559844161 0.3273879665 -0.4528470512 0.3279361403 -0.4532110253 -0.1036560582 0.1499848654
455297270.0 -0.0748285029 0.156859357 0.3227212364 -0.4565993918 0.3229193231 -0.4562942844 -0.1017652079 0.1513052908
460297240.0 -0.0734945559 0.1582709024 0.3177671103 -0.4601022819 0.3171194511 -0.4599520494 -0.1005247897 0.152765483
465297210.0 -0.071186462 0.1589197271 0.3125733182 -0.4637756414 0.3128023976 -0.4635558872 -0.0995698281 0.1532323537
470297180.0 -0.069669649 0.1598009198 0.3075134565 -0.4665507086 0.3077903762 -0.4665616453 -0.0983506672 0.154508857
475297150.0 -0.0678378669 0.1606718711 0.3020834725 -0.4699582569 0.3026111718 -0.4695846329 -0.0965896543 0.155860994
480297120.0 -0.065763737 0.1613538238 0.2970987934 -0.473407411 0.2977171461 -0.4732280499 -0.0953272329 0.1574498515
485297090.0 -0.0638232886 0.162251277 0.2921745254 -0.4763664699 0.2922327624 -0.476615708 -0.0938516898 0.1580743087
490297060.0 -0.062090691 0.1628490302 0.2866770583 -0.479384445 0.2871002968 -0.4798432054 -0.092214513 0.1594259076
495297030.0 -0.0605262298 0.1643573364 0.281566061 -0.4826169606 0.281429373 -0.4828431687 -0.0907340861 0.1600377058
500297000.0 -0.0585318509 0.1647012434 0.2763768028 -0.4853863299 0.2762727451 -0.4855330243 -0.0894677029 0.1614759246
505296970.0 -0.0570116527 0.1656582788 0.2710491633 -0.4880462568 0.2712035238 -0.4886448144 -0.0883797225 0.1627510109
510296940.0 -0.0548211335 0.1662482871 0.2657305372 -0.4918943913 0.2656723753 -0.4916557709 -0.0861252759 0.1637907268
515296910.0 -0.0533360011 0.1673010644 0.2601510377 -0.4941579417 0.2606528367 -0.4944840991 -0.0849269974 0.1646421566
520296880.0 -0.0511882324 0.1676484038 0.2549348464 -0.4969579106 0.2548719437 -0.4969876947 -0.0831252579 0.1658004487
525296850.0 -0.0493953327 0.1683957558 0.2494547099 -0.4998931146 0.2497942563 -0.4999137596 -0.0814406064 0.1667342439
530296820.0 -0.0474218851 0.1693463771 0.2441269139 -0.5017720984 0.2439912202 -0.5023516729 -0.0803410402 0.1671272851
535296790.0 -0.0458205659 0.1696297454 0.2383228728 -0.5045296162 0.2389948647 -0.504649719 -0.0785648599 0.1680861035
540296760.0 -0.0435491792 0.1701507529 0.2328073372 -0.5079487439 0.233238122 -0.5078870996 -0.0772111248 0.169598821
545296730.0 -0.0420897331 0.1710740635 0.227746778 -0.509785112 0.2277798213 -0.5101798544 -0.0756242394 0.1698460872
550296700.0 -0.0402435689 0.171761674 0.2222912487 -0.5124268577 0.2224305104 -0.5126899564 -0.0737728319 0.1712483106
555296670.0 -0.0378302799 0.1721068476 0.2164929107 -0.5143728577 0.2164374061 -0.5148671192 -0.0725650212 0.1721632456
560296640.0 -0.0361042124 0.1727469978 0.2110540109 -0.5170692941 0.2112772644 -0.5169586444 -0.0708569447 0.1732821923
565296610.0 -0.0346980473 0.1729662444 0.205317606 -0.519141341 0.204967894 -0.5189924004 -0.0692254376 0.1735657512
570296580.0 -0.032147993 0.1735110774 0.1992525871 -0.5212490697 0.2001595248 -0.5214457067 -0.0675102511 0.1750429541
575296550.0 -0.0304011641 0.1745367977 0.1939146422 -0.5235636157 0.1945106789 -0.52350483 -0.0655035071 0.1754285755
580296520.0 -0.0284046397 0.1748470619 0.1884529703 -0.5254747796 0.1882705944 -0.525525694 -0.0644149838 0.1763654382
585296490.0 -0.0262165188 0.1747817085 0.1828145477 -0.5270965162 0.1826582904 -0.5272711872 -0.0625808719 0.1766276182
590296460.0 -0.0247500735 0.175375339 0.1768316173 -0.5294386323 0.1768766309 -0.5296429395 -0.0608054702 0.1776975316
595296430.0 -0.0228335991 0.1759336221 0.1715934533 -0.5313080047 0.1708934187 -0.5315964587 -0.0589154928 0.1783561006
600296400.0 -0.0206742191 0.1765370741 0.1654388904 -0.5330618356 0.1659159006 -0.5332414312 -0.0573042662 0.1794646648
605296370.0 -0.0186255547 0.1768425258 0.1595762561 -0.5349649749 0.1598218171 -0.5345810161 -0.0556530977 0.1796240018
610296340.0 -0.0165916636 0.1771145692 0.1542159773 -0.5365556375 0.1540235624 -0.5368673167 -0.0539728951 0.1807851883
615296310.0 -0.0147183743 0.1776690717 0.1477426638 -0.5379271558 0.148099087 -0.5377796528 -0.0522666467 0.1810903851
620296280.0 -0.0127796624 0.1777521667 0.1422369634 -0.5394552307 0.142443842 -0.5398866163 -0.0506234297 0.1816489866
625296250.0 -0.0106409284 0.1779013391 0.1359555053 -0.5414699586 0.1362998286 -0.5413047921 -0.0488440066 0.1825479807
630296220.0 -0.008778647 0.1785905171 0.1302791313 -0.5431753641 0.1309782567 -0.54261825 -0.0473850293 0.1832259625
635296190.0 -0.00679303 0.178535249 0.124540225 -0.5436859311 0.1245768979 -0.5433391615 -0.045751986 0.1835618927
640296160.0 -0.0049111043 0.1784529628 0.1191152477 -0.5449397846 0.1191667022 -0.5448512571 -0.0434061833 0.1843768639
645296130.0 -0.0030540937 0.1791627251 0.1129287869 -0.5462877581 0.1130220475 -0.546486231 -0.0425340659 0.1845215723
650296100.0 -0.0010943762 0.1795463681 0.1075248285 -0.5470459322 0.107074711 -0.5472662592 -0.0406259566 0.1852357854
655296070.0 0.0010202782 0.1790451787 0.1008473239 -0.5483822748 0.1010903105 -0.5485239948 -0.0382037779 0.1859771048
660296040.0 0.002692931 0.1798270392 0.0952075274 -0.548888585 0.0955804519 -0.549207827 -0.0365884009 0.1862118744
665296010.0 0.0050089289 0.1795290568 0.0895947052 -0.5504997922 0.0900606813 -0.5504010432 -0.0353580123 0.1871034773
670295980.0 0.0072645813 0.1796972752 0.0836558837 -0.5513972621 0.0838979135 -0.5511785165 -0.0336625124 0.1871327001
675295950.0 0.0094109155 0.179781007 0.0775527941 -0.5520764561 0.0776076319 -0.552775612 -0.0312587306 0.188034551
680295920.0 0.0110400388 0.180113568 0.0711690412 -0.5529963991 0.0715846566 -0.5532782551 -0.0294071933 0.188235917
685295890.0 0.0129793449 0.1797329533 0.0659177169 -0.5533320972 0.065317682 -0.5540622493 -0.0276802779 0.188910837
690295860.0 0.0154827347 0.1800359985 0.0596589813 -0.5538015163 0.0591567609 -0.5541498089 -0.0256115664 0.1893606041
695295830.0 0.0175533506 0.1797867631 0.0529949163 -0.5549333328 0.0533115346 -0.5549686116 -0.0241269714 0.1897121611
700295800.0 0.0194462607 0.1797355422 0.0469706863 -0.5550484638 0.0475279051 -0.5555392261 -0.0222385219 0.1895823485
705295770.0 0.0215483781 0.1799277302 0.0414676089 -0.5559262129 0.0417084915 -0.5559069881 -0.0206486416 0.1905508268
710295740.0 0.0232541989 0.1800355161 0.035506722 -0.5562906457 0.0354705151 -0.5561443722 -0.0191494409 0.1908402184
715295710.0 0.025242465 0.1796348398 0.0295680332 -0.5565091033 0.0298338669 -0.5565459078 -0.0169915959 0.190588914
720295680.0 0.0273160757 0.1794359601 0.0231180512 -0.5566263201 0.0236869864 -0.556979703 -0.0146393869 0.1913443109
725295650.0 0.0298570108 0.1794227347 0.01704471 -0.5567297099 0.0174951781 -0.5570190383 -0.0131366258 0.19187718
730295620.0 0.0310478478 0.1790675215 0.011634726 -0.5570983018 0.0116703013 -0.5570487931 -0.0113961372 0.191616166
735295590.0 0.0335580142 0.178825973 0.0056570246 -0.55734182 0.0059146546 -0.5572288347 -0.0093404313 0.1921410824
740295560.0 0.0353886334 0.1790493255 -0.0006457552 -0.5567440348 -0.0004718583 -0.5569504084 -0.0075167751 0.1920526669
745295530.0 0.0374820968 0.1784618957 -0.006480544 -0.5574046249 -0.0061206682 -0.557199518 -0.0059924746 0.1926390924
750295500.0 0.0393700461 0.1781278366 -0.0122275857 -0.5565470823 -0.0121351373 -0.5567022394 -0.0039597614 0.1924130032
755295470.0 0.0417691679 0.177847745 -0.0186010035 -0.5565417623 -0.0180425421 -0.5567740299 -0.0025492366 0.1928014364
760295440.0 0.0435355408 0.1776000234 -0.0247915093 -0.5561771655 -0.0242991973 -0.5565612302 -0.0006642616 0.1928836312
765295410.0 0.0452742927 0.1771093933 -0.0299539537 -0.5559640859 -0.0299370327 -0.556088278 0.0018730411 0.1933335186
770295380.0 0.0472701186 0.1771856052 -0.0363261423 -0.5555785748 -0.036348287 -0.5561363287 0.0035385302 0.1934498605
775295350.0 0.0494103216 0.1766471046 -0.0421807823 -0.5550381408 -0.0421752612 -0.5551790309 0.0052539513 0.19302543
780295320.0 0.0514474414 0.1760552053 -0.0483207315 -0.5548266882 -0.0480112818 -0.5551114847 0.0071024137 0.1939012097
785295290.0 0.053292253 0.1760702239 -0.0542945256 -0.5533619428 -0.0543909934 -0.5544411177 0.0086801094 0.1937033965
790295260.0 0.0553320309 0.1755703107 -0.060023778 -0.5534679424 -0.0600412797 -0.5539322754 0.0110895898 0.1937309506
795295230.0 0.0573855467 0.1751337254 -0.0657508274 -0.5526807548 -0.066026241 -0.55280262 0.0129021718 0.194393523
800295200.0 0.0592747501 0.1746536746 -0.0724899282 -0.5520833243 -0.072272338 -0.552236792 0.0146454385 0.1940575979
805295170.0 0.0610427355 0.1740277642 -0.0777609553 -0.551201295 -0.0781352598 -0.5511678955 0.016229342 0.1939954044
810295140.0 0.0633300336 0.1735327085 -0.0839167919 -0.5503546993 -0.0835928731 -0.5509812052 0.0183336973 0.1942943125
815295110.0 0.0651537955 0.1730616218 -0.0900251358 -0.5491453601 -0.0901093178 -0.5492095597 0.019813962 0.1938632657
820295080.0 0.0669150289 0.1721539694 -0.0955169044 -0.5484962473 -0.0952634412 -0.5484714143 0.0216009021 0.1938514131
825295050.0 0.0690201145 0.1714373223 -0.10124938 -0.5467510431 -0.1014690415 -0.5473930903 0.024095393 0.193618042
830295020.0 0.0710799182 0.1714226092 -0.1076384033 -0.5459444248 -0.1078148892 -0.5459897386 0.0257680345 0.19380479
