!Created with skrf (http://scikit-rf.org).
# Hz S RI R 50.0 
!freq ReS11 ImS11 ReS21 ImS21 ReS12 ImS12 ReS22 ImS22
300000.0 -0.0972445059 -0.0796025901 0.6225141949 0.0766464786 0.6240888675 0.0799301215 -0.0956039059 -0.0893375204
5299970.0 -0.1002769187 0.0128048306 0.6305129973 0.0102278286 0.6303351487 0.0111125721 -0.1020949649 0.0118999076
10299940.0 -0.0953807884 0.0297931127 0.6344598835 0.0153880139 0.6344373622 0.0157016871 -0.0970779727 0.0290902745
15299910.0 -0.0882562461 0.0431513068 0.6402983942 0.0203881051 0.6406167029 0.0209162333 -0.0898800039 0.0419871373
20299880.0 -0.0794150224 0.0542661744 0.6486847348 0.0242685176 0.6487865666 0.024077625 -0.0818422681 0.0533285693
25299850.0 -0.0697169171 0.0628585194 0.6580746186 0.0248393373 0.6577809007 0.0251263474 -0.0724427408 0.061986326
30299820.0 -0.0595567908 0.0691389535 0.6681241718 0.024366865 0.6673828113 0.0243804507 -0.0628859231 0.0687355668
35299790.0 -0.0490440501 0.0743084217 0.6774698148 0.0217259567 0.6774425956 0.0216066174 -0.0524358935 0.0733616795
40299760.0 -0.0397800277 0.0771086678 0.6864458692 0.0176229028 0.6865422506 0.0176143656 -0.043448624 0.0769293694
45299730.0 -0.0304816881 0.0795469261 0.695700756 0.0112602073 0.6959464349 0.0121959202 -0.0340422691 0.0789933579
50299700.0 -0.0216738454 0.0797983397 0.7034453341 0.0044070133 0.7035000476 0.0045796008 -0.025467767 0.0798750888
55299670.0 -0.0142313438 0.0797200126 0.710617481 -0.0028413752 0.7109760256 -0.0029091835 -0.0176404641 0.0796768492
60299640.0 -0.0065100832 0.078891598 0.7168567277 -0.0115859798 0.7171348127 -0.0113459904 -0.0103459377 0.0796249548
65299610.0 -0.0002459078 0.0780973334 0.7235917682 -0.0197671419 0.7239752045 -0.0201641596 -0.0036315476 0.0785163613
70299580.0 0.0060401269 0.0760532892 0.728826961 -0.02945972 0.7284223765 -0.0288640204 0.0024237146 0.0769198029
75299550.0 0.0116399517 0.0743761239 0.7329759213 -0.038929819 0.7331260678 -0.0388555882 0.0080184938 0.0755368901
80299520.0 0.0161791464 0.0721770155 0.7377630002 -0.0490857998 0.7374441249 -0.048624601 0.0130547495 0.0728157691
85299490.0 0.020781114 0.0694752829 0.7408878162 -0.059005259 0.7404513867 -0.0588641553 0.0173417122 0.0706964731
90299460.0 0.0246939832 0.0673878226 0.7432402885 -0.0687729408 0.7435409804 -0.0686737547 0.022090489 0.0686984591
95299430.0 0.0281022626 0.0654085807 0.7461826563 -0.0796334874 0.7457848429 -0.0789704652 0.0255197824 0.066168927
100299400.0 0.0314066034 0.0629368401 0.7475060523 -0.089366526 0.7476373601 -0.0895524481 0.0287949799 0.0639919619
105299370.0 0.0346970245 0.060020245 0.7486958292 -0.0990428677 0.7490957579 -0.0991440546 0.031862272 0.0618225591
110299340.0 0.0370357027 0.0577653727 0.749749106 -0.1093074573 0.7498885766 -0.1096793171 0.0347655725 0.0592960509
115299310.0 0.0395048791 0.0548078129 0.7507166366 -0.1187961846 0.7509165316 -0.1192063285 0.0374671431 0.0561299303
120299280.0 0.0415072632 0.0526886326 0.7518624661 -0.1295969058 0.7516302295 -0.1299501234 0.0392073281 0.0540570511
125299250.0 0.0434295557 0.0503323558 0.751716715 -0.1394096564 0.7521512232 -0.1395913242 0.0411727935 0.051386459
130299220.0 0.0451913753 0.047789287 0.7515141935 -0.1493503842 0.7517415619 -0.1497481902 0.0434276365 0.0494325939
135299190.0 0.0468159511 0.0453483805 0.7511416253 -0.1589905704 0.7508983391 -0.1590595839 0.0445538795 0.0475121557
140299160.0 0.0478590867 0.0440451326 0.7509081964 -0.1687568463 0.7508488966 -0.1687952584 0.0462277526 0.0454092363
145299130.0 0.0491532208 0.0415707697 0.7500120505 -0.1791268198 0.7496685151 -0.1785797158 0.0474876574 0.0426006817
150299100.0 0.0507070316 0.0396628252 0.7495040488 -0.1883741512 0.7488862317 -0.1882499025 0.0487638689 0.0408424356
155299070.0 0.051064775 0.0383447838 0.7474310416 -0.1981342048 0.7473602089 -0.1982234747 0.0496921537 0.0387526189
160299040.0 0.0522348902 0.0359775258 0.7458430617 -0.2068750661 0.7464178714 -0.2073503657 0.0506387943 0.0370777434
165299010.0 0.053095216 0.034292431 0.7452033202 -0.2172337847 0.7449157429 -0.2170380929 0.0515534058 0.0350201815
170298980.0 0.053544446 0.0326525759 0.7422154236 -0.2258891262 0.7429718564 -0.225941447 0.052835185 0.0329593991
175298950.0 0.0545218778 0.0305250183 0.7415314088 -0.2359819476 0.7414182784 -0.2351572385 0.053066829 0.0310835637
180298920.0 0.055061169 0.0291303791 0.7393196129 -0.2447767504 0.739039169 -0.2443634065 0.0537417723 0.0297831526
185298890.0 0.056006536 0.0272322476 0.7364146064 -0.2538895574 0.7367506291 -0.2540802234 0.054212806 0.0275890309
190298860.0 0.0562390166 0.0260126435 0.7341913292 -0.2629379579 0.7343088065 -0.2629339531 0.0554363678 0.0260751711
195298830.0 0.0562737805 0.0238602001 0.7314724752 -0.2711502418 0.7320255481 -0.272289156 0.0558857262 0.0242180042
200298800.0 0.0570788569 0.0225727705 0.7294089801 -0.2801980753 0.7287418563 -0.2804165601 0.0562903413 0.0231725543
205298770.0 0.0572423529 0.0213839199 0.7265206438 -0.2897578212 0.7267140478 -0.2896981944 0.0563081382 0.0209298736
210298740.0 0.057064911 0.0197672764 0.7235922181 -0.2989572456 0.7240298558 -0.2987600055 0.0568884972 0.0199428014
215298710.0 0.0577162494 0.0186772685 0.7206098838 -0.3069245894 0.7205462438 -0.3073138823 0.0569390674 0.0183392301
220298680.0 0.0580555988 0.0172368322 0.7174286601 -0.3159892628 0.717100653 -0.3158848653 0.0574664731 0.0172674559
225298650.0 0.0587102432 0.0159497315 0.7137870876 -0.3242781072 0.7137554037 -0.3243169592 0.057425264 0.015502748
230298620.0 0.0583062506 0.0148058724 0.7109060021 -0.3330555998 0.7109836234 -0.3330342528 0.0574002122 0.014349119
235298590.0 0.0585938884 0.0131693937 0.7078038619 -0.3410353681 0.7073735164 -0.3415239978 0.0581084473 0.0126287813
240298560.0 0.0581113144 0.0120097747 0.7037612081 -0.3491682979 0.7038181836 -0.3490035936 0.0580437852 0.0118223676
245298530.0 0.058732769 0.0110430595 0.6993338734 -0.3582895269 0.6994124565 -0.3583111431 0.0583142472 0.0105255525
250298500.0 0.0583643724 0.009580276 0.6962021821 -0.3657485057 0.6962857423 -0.3657073433 0.0584433103 0.0086906663
255298470.0 0.0581930565 0.008826505 0.6915749758 -0.3746064073 0.6919899743 -0.3740902904 0.0586517868 0.0074491418
260298440.0 0.0582532698 0.0076564673 0.6881001407 -0.3819250676 0.6882694195 -0.3828647341 0.0591561148 0.0068811132
265298410.0 0.059119978 0.0068920475 0.6838015525 -0.3909763143 0.6837605062 -0.3905795918 0.0587543006 0.0054355952
270298380.0 0.0589840895 0.0055773183 0.6793339682 -0.3984109158 0.6798109001 -0.398511461 0.0587077567 0.0052599138
275298350.0 0.0584158854 0.0049191226 0.6758238734 -0.4067874693 0.6757837648 -0.4069880708 0.0588441027 0.0033692532
280298320.0 0.0585939976 0.0038335678 0.6709364739 -0.4138119627 0.6709330419 -0.4147324682 0.059519037 0.0025713594
285298290.0 0.0589939907 0.0031307329 0.6665754195 -0.4223158111 0.6663628916 -0.4222329767 0.058805709 0.0015838838
290298260.0 0.0586930504 0.0016788502 0.6622133222 -0.4298533825 0.662024074 -0.4301374306 0.0593682775 0.0004568169
295298230.0 0.058666706 0.0007278161 0.6576630502 -0.4376275144 0.6576607501 -0.4373633443 0.0593570373 -0.0003614525
300298200.0 0.0592992367 -0.0001756092 0.6529537943 -0.4451549104 0.6528269784 -0.4456393348 0.0590039376 -0.0014396741
305298170.0 0.0588917672 -0.0012992751 0.6483150863 -0.4533941331 0.6486747565 -0.4529998593 0.0592067644 -0.002314917
310298140.0 0.0594276968 -0.0025230715 0.643824534 -0.4607525794 0.6437159322 -0.4609897383 0.0596914004 -0.0029117039
315298110.0 0.0584758005 -0.0035732957 0.6378147293 -0.4683993384 0.6384713411 -0.4682060399 0.0598239122 -0.0046218965
320298080.0 0.0585393629 -0.0045426689 0.6327965911 -0.4756376598 0.6334997533 -0.4759123701 0.0592905256 -0.0059571067
325298050.0 0.0582696179 -0.0059525637 0.6282970015 -0.4834979322 0.6279647512 -0.4837778027 0.0590453585 -0.0068778223
330298020.0 0.0577851876 -0.0066834609 0.6211996565 -0.4907724406 0.6217596649 -0.4906920558 0.0580932088 -0.0083055554
335297990.0 0.057482395 -0.0077357041 0.6167177221 -0.4978916908 0.6163668344 -0.4980187291 0.0578411382 -0.0092779275
340297960.0 0.0564457793 -0.0081345133 0.6100465358 -0.5047538318 0.6106011098 -0.5045651598 0.0572465225 -0.0097812388
345297930.0 0.0560179407 -0.0086679538 0.60449736 -0.5106204518 0.6043203998 -0.5114056386 0.0575857899 -0.0110278633
350297900.0 0.0562515087 -0.0094116587 0.5988297699 -0.517925625 0.5991819274 -0.5179787293 0.0566532592 -0.0108566923
355297870.0 0.0557959097 -0.0103619041 0.592922799 -0.5245913035 0.5931189228 -0.5248350216 0.0560527762 -0.0112865324
360297840.0 0.0560951165 -0.0110124112 0.5870380285 -0.5318485312 0.5869890488 -0.5318341 0.0563563081 -0.0120778605
365297810.0 0.0558222662 -0.0117271586 0.5811201481 -0.5376243691 0.5811008347 -0.5377208205 0.0558343875 -0.0126777173
370297780.0 0.0557871174 -0.0123513992 0.5757911453 -0.5445397542 0.5754046978 -0.5448416889 0.0559896987 -0.0130089322
375297750.0 0.0549568424 -0.0123828735 0.5703049372 -0.5511819828 0.5698058327 -0.5512759521 0.0555984409 -0.0137610424
380297720.0 0.0550465792 -0.0136694616 0.5634171276 -0.5571957358 0.5634705406 -0.557465401 0.0553334099 -0.0144965722
385297690.0 0.0548648439 -0.014300833 0.5571068641 -0.5633510726 0.5567430732 -0.5636146623 0.0549924469 -0.0150490165
390297660.0 0.0540733494 -0.0146813781 0.5501176465 -0.5699451287 0.5507754911 -0.570064688 0.0550539268 -0.0161906712
395297630.0 0.0544396407 -0.0156963888 0.5449664875 -0.5753161878 0.5449476712 -0.576132315 0.0542780366 -0.0159687512
400297600.0 0.053649739 -0.0159241905 0.5383139968 -0.5822947376 0.5386866428 -0.5823193996 0.0533155264 -0.0171761027
405297570.0 0.0535632756 -0.016683454 0.532112831 -0.5879033996 0.5319405611 -0.5883225274 0.053663174 -0.0171227467
410297540.0 0.053663157 -0.017408117 0.524617629 -0.5937715279 0.5254883623 -0.5937389574 0.0529102041 -0.0179734271
415297510.0 0.0530158461 -0.0173745059 0.5189476237 -0.5991350128 0.5186828588 -0.5998497412 0.0526576456 -0.0183281473
420297480.0 0.0529456038 -0.0191408853 0.5119171143 -0.6061547187 0.5119980451 -0.605613462 0.0526883494 -0.0196185909
425297450.0 0.0531804349 -0.0197772667 0.5059963339 -0.6113765433 0.5058317144 -0.610949858 0.0520963422 -0.0192234586
430297420.0 0.0523006607 -0.0196750807 0.4988896773 -0.6169549476 0.4988359581 -0.6172712574 0.0515834586 -0.0206511824
435297390.0 0.052499003 -0.0205886746 0.4921496852 -0.6223387149 0.4921516113 -0.6220040676 0.0512001159 -0.020198546
440297360.0 0.0521631501 -0.0214508327 0.4848434985 -0.6279030546 0.4848813827 -0.6280427927 0.0511271475 -0.021768911
445297330.0 0.0520990898 -0.021965328 0.4776507823 -0.6336490023 0.4778892045 -0.6334319375 0.0505483219 -0.0218918735
450297300.0 0.0517245376 -0.0226573095 0.4712096372 -0.6384999585 0.4714269835 -0.6387235529 0.0503047892 -0.0222921275
455297270.0 0.0508626632 -0.0233479454 0.464561753 -0.643796382 0.4649970303 -0.6439296879 0.0502013257 -0.0227958384
460297240.0 0.0502881343 -0.0239439155 0.4571298728 -0.6483535574 0.4570686135 -0.6488464461 0.0496853688 -0.0226134264
465297210.0 0.05054488 -0.0247865754 0.4497728578 -0.6539468583 0.4502909489 -0.6540946939 0.0488247266 -0.0239757964
470297180.0 0.0497179724 -0.0252151627 0.4425249129 -0.6587251679 0.4426536374 -0.658863258 0.0482030125 -0.0242493621
475297150.0 0.0492752174 -0.0265893043 0.4348547338 -0.6638383059 0.4358692216 -0.6629363778 0.0483890552 -0.0245303818
480297120.0 0.0498393956 -0.0269048001 0.4283202008 -0.6681588747 0.428497402 -0.6683302104 0.0475620594 -0.024787674
485297090.0 0.0495216834 -0.0271375957 0.4212028069 -0.6728978824 0.4209488517 -0.6733397324 0.0469031183 -0.0257146212
490297060.0 0.0487505475 -0.0280791116 0.4137020642 -0.6778572285 0.4134570542 -0.6779991379 0.047069496 -0.0255162231
495297030.0 0.0478890114 -0.0282335002 0.4058727926 -0.6822095073 0.4060466763 -0.682108801 0.0464874662 -0.0266738789
500297000.0 0.0478304909 -0.0291382414 0.398731357 -0.6869931708 0.3981680814 -0.6869581548 0.0454916962 -0.0267255042
505296970.0 0.0469601904 -0.029774142 0.3905068582 -0.6904842135 0.390318692 -0.6912512618 0.0445271984 -0.0273369343
510296940.0 0.0466151503 -0.0301476379 0.3833942201 -0.6958933052 0.3831185231 -0.6957736518 0.0450953407 -0.0272890522
515296910.0 0.0459929381 -0.0305191732 0.3754794804 -0.6988296551 0.3758296738 -0.6997962976 0.043858294 -0.0280231361
520296880.0 0.045919081 -0.0315797147 0.3679841718 -0.7034791413 0.3681795776 -0.703266273 0.0443367274 -0.0282623379
525296850.0 0.0452089191 -0.0323278395 0.3603668451 -0.7079485016 0.3602055567 -0.7076590696 0.0438555538 -0.0288310687
530296820.0 0.0446823042 -0.0322690149 0.3531491874 -0.7106405185 0.3525443263 -0.7118852901 0.0427834139 -0.0299213919
535296790.0 0.0441093281 -0.033144805 0.3444921429 -0.7149894565 0.3449369077 -0.7150482002 0.042612388 -0.0300483076
540296760.0 0.043826022 -0.0336439754 0.3368754881 -0.7193372392 0.336242025 -0.7195602237 0.0412819459 -0.0303124154
545296730.0 0.0432616743 -0.0334777593 0.3289211204 -0.7222964163 0.3290088055 -0.7230598431 0.0413238384 -0.030872196
550296700.0 0.0424724708 -0.0344744173 0.3214636351 -0.7263101706 0.3216356131 -0.726659126 0.0405051758 -0.030641957
555296670.0 0.0424067487 -0.0352982228 0.3130898225 -0.729591136 0.3133471559 -0.7299926827 0.0401248678 -0.0310896487
560296640.0 0.0418481257 -0.035641308 0.3056850648 -0.7329263448 0.3050529208 -0.7330594571 0.039486427 -0.0315744316
565296610.0 0.040771234 -0.0360897206 0.2970697855 -0.7367845856 0.296893899 -0.7365600629 0.0388997055 -0.0324469607
570296580.0 0.0410791958 -0.0365436859 0.2889761876 -0.739411813 0.2888495158 -0.740146385 0.0385315276 -0.0318131553
575296550.0 0.0399626157 -0.0361655976 0.2809079132 -0.7427122792 0.2810993898 -0.7425767523 0.0382226136 -0.0325518522
580296520.0 0.0393111261 -0.0371887315 0.2734610476 -0.7459718624 0.2724618754 -0.7462088007 0.037538833 -0.0333899967
585296490.0 0.0391543906 -0.0379965459 0.2647531631 -0.7489422227 0.2645521238 -0.7487451223 0.0367399247 -0.033876558
590296460.0 0.0381922906 -0.0385483717 0.2567865219 -0.7520622872 0.2561672924 -0.7520860712 0.0366433933 -0.0333962266
595296430.0 0.0377022302 -0.0384809327 0.2481991848 -0.75459261 0.2476095018 -0.7549808393 0.0362315219 -0.0340124179
600296400.0 0.0370676196 -0.0386711846 0.2401800153 -0.7573183252 0.2404391414 -0.7575906634 0.0354814946 -0.0340769904
605296370.0 0.0368054037 -0.0385735148 0.2318509758 -0.7601347801 0.2318160658 -0.7600116901 0.0351472384 -0.0351057276
610296340.0 0.0356554755 -0.039513166 0.2233289399 -0.7624966065 0.2234794251 -0.7624462055 0.0343427605 -0.0344470433
615296310.0 0.0353225043 -0.039478865 0.2149867353 -0.7644112569 0.2149310393 -0.7647434576 0.033888666 -0.0351212654
620296280.0 0.0345010329 -0.0401508373 0.2068556296 -0.7666881633 0.2066456581 -0.7668415258 0.0333630479 -0.035770426
625296250.0 0.0345334439 -0.0404885196 0.1978448009 -0.7695880285 0.198145871 -0.7694034623 0.0329019235 -0.0354821412
630296220.0 0.0337577945 -0.0407712128 0.1897164217 -0.7716841499 0.1901423895 -0.771426484 0.0314288776 -0.0358829274
635296190.0 0.0331755736 -0.0409944273 0.1812760518 -0.7729974734 0.1812782937 -0.7724336316 0.0312222184 -0.0365667648
640296160.0 0.032260038 -0.0411506755 0.1732300637 -0.7747329019 0.1730642754 -0.7754864142 0.031394125 -0.0364942176
645296130.0 0.0318672866 -0.0412535517 0.1638382489 -0.7773180299 0.1645677353 -0.776975296 0.0293369909 -0.0373397522
650296100.0 0.0310707216 -0.040945056 0.1564024838 -0.7785898585 0.1562716756 -0.7785380497 0.0296279508 -0.0375058844
655296070.0 0.0301679442 -0.0420071862 0.1471630979 -0.7802842478 0.1472416437 -0.7802137936 0.0297357825 -0.0369602676
660296040.0 0.0291526237 -0.041559565 0.1388834544 -0.7815857692 0.1391641322 -0.7818000608 0.0284803809 -0.0380289648
665296010.0 0.0292397237 -0.0423284396 0.1311802224 -0.7830111125 0.1312172507 -0.7831207752 0.027536178 -0.0374860768
670295980.0 0.0290088318 -0.0423916483 0.1219012857 -0.7848149962 0.1222078109 -0.7848548696 0.0267119776 -0.038112385
675295950.0 0.0282114623 -0.0424733815 0.1132666476 -0.7854198378 0.1141656927 -0.7860443814 0.0267569936 -0.0379984594
680295920.0 0.0273976757 -0.0425642151 0.1050699651 -0.7870074167 0.104627121 -0.7875694273 0.0263429542 -0.0385954231
685295890.0 0.0264917216 -0.0428879152 0.0970225014 -0.7880872326 0.0961379671 -0.7885005157 0.0256429002 -0.038218418
690295860.0 0.0263942779 -0.0430081839 0.0880343345 -0.788425996 0.0873534424 -0.7887616173 0.0252760242 -0.0379345307
695295830.0 0.0262724602 -0.0434073063 0.0787400069 -0.7903695141 0.0786181352 -0.7899446338 0.0242162547 -0.0388670526
700295800.0 0.0257355645 -0.0435041623 0.0703517632 -0.7908987977 0.070091277 -0.7911623545 0.0232257157 -0.039505526
705295770.0 0.0246302948 -0.0436562001 0.0625512518 -0.791631668 0.0616988849 -0.7915894659 0.0228277387 -0.0392729746
710295740.0 0.0239731171 -0.0434077051 0.0530620295 -0.792274103 0.0529622467 -0.7915962555 0.0214672105 -0.0388556373
715295710.0 0.0235625298 -0.0437396367 0.0445798017 -0.7928357647 0.0448993722 -0.7927600874 0.0215517504 -0.0401994346
720295680.0 0.0226370057 -0.0441219139 0.035657296 -0.7928319255 0.0358573915 -0.7938284081 0.0213310873 -0.0393969073
725295650.0 0.022395056 -0.044054326 0.0272052311 -0.7929658816 0.0269940941 -0.7933049935 0.0206465635 -0.0391041741
730295620.0 0.021133494 -0.0444835677 0.0182504237 -0.7940907518 0.0184649089 -0.7938814971 0.0204062825 -0.0404381013
735295590.0 0.0212537541 -0.0441882548 0.0106797188 -0.7938171624 0.0101593683 -0.7938088208 0.0192886679 -0.0396244374
740295560.0 0.0201760581 -0.04428825 0.0015729703 -0.7935368354 0.0012391751 -0.7938484273 0.0192292271 -0.0401689131
745295530.0 0.0197058646 -0.0446562274 -0.0072122167 -0.7936857915 -0.0071234705 -0.7939165394 0.0179331682 -0.0398776546
750295500.0 0.0190420899 -0.0446149671 -0.0150293146 -0.7937195332 -0.0156703633 -0.7932658644 0.0182391532 -0.0403401639
755295470.0 0.0189620454 -0.0442915588 -0.0245454551 -0.7939430178 -0.0243265977 -0.7937155348 0.0165737339 -0.0401390212
760295440.0 0.0178456444 -0.0442535818 -0.0335418732 -0.7924752608 -0.0334340249 -0.7934010863 0.0158908517 -0.0408970526
765295410.0 0.0170798051 -0.0448991171 -0.0411867967 -0.7924443929 -0.0410792455 -0.7928792721 0.0164677675 -0.0398974796
770295380.0 0.0166521044 -0.0448452212 -0.0497345806 -0.7919094127 -0.0503686717 -0.7924045781 0.0157294814 -0.040045957
775295350.0 0.016248339 -0.0445620754 -0.0590378724 -0.7909989116 -0.0585946668 -0.7915486529 0.014525532 -0.0410880412
780295320.0 0.0155303605 -0.044747287 -0.0672137793 -0.7912277916 -0.0665405835 -0.7909327748 0.0142010944 -0.0402251769
785295290.0 0.0147113081 -0.0445039121 -0.0757585976 -0.7893706831 -0.0758290402 -0.7903502885 0.0130253929 -0.040601908
790295260.0 0.0140237465 -0.044509357 -0.0841439109 -0.789351051 -0.0846024282 -0.7894518365 0.0130010266 -0.0406376718
795295230.0 0.0133705235 -0.0445775598 -0.0923800272 -0.787861141 -0.0928708136 -0.7883091486 0.0121904536 -0.0397151048
800295200.0 0.0128726334 -0.044328068 -0.102020225 -0.7872259936 -0.1024668381 -0.7873354022 0.0117813001 -0.0402957001
805295170.0 0.0119030376 -0.0446727336 -0.1097181714 -0.7855652971 -0.1106639964 -0.7859798039 0.0106277905 -0.040425578
810295140.0 0.011613814 -0.0446634993 -0.1191055955 -0.7845851532 -0.118551206 -0.785128784 0.0107237734 -0.0401952197
815295110.0 0.0108729384 -0.0441681879 -0.1273362379 -0.7830817926 -0.1275327007 -0.7832310664 0.0098069304 -0.040440616
820295080.0 0.0102946133 -0.0449831877 -0.135219018 -0.7820844653 -0.1358773439 -0.7820127853 0.0089917364 -0.0401687084
825295050.0 0.0096212494 -0.0446407962 -0.1443297101 -0.779799901 -0.1441721803 -0.7802525553 0.0090825156 -0.0397495177
830295020.0 0.0086620612 -0.0442657666 -0.1529224328 -0.7783611664 -0.1534260144 -0.7794102518 0.0081204938 -0.0401107438
