!Created with skrf (http://scikit-rf.org).
# Hz S RI R 50.0 
!freq ReS11 ImS11 ReS21 ImS21 ReS12 ImS12 ReS22 ImS22
300000.0 -0.2417096855 -0.072693466 0.4727425432 0.0486200401 0.4681337831 0.0483932408 -0.2405888525 -0.085469524
5299970.0 -0.2440688121 0.0074041063 0.4735234357 0.0049344055 0.4737090083 0.0048657615 -0.2441576556 0.007400077
10299940.0 -0.2410810413 0.0191058123 0.4755546992 0.0062314985 0.4755789796 0.0065942322 -0.2412135396 0.0201975578
15299910.0 -0.2370087168 0.0281716316 0.479117095 0.007569842 0.4794522006 0.0075744065 -0.2367557421 0.0295011456
20299880.0 -0.2323587681 0.0354252306 0.4838940106 0.0087881492 0.4840918813 0.0082255209 -0.231414131 0.0374942328
25299850.0 -0.2271024552 0.0420553372 0.4889400016 0.0072503207 0.4890917783 0.0077779177 -0.2252313763 0.0435818459
30299820.0 -0.2216201934 0.0471470522 0.4947879437 0.0051770495 0.4945815739 0.0053749678 -0.219438552 0.0490455459
35299790.0 -0.2163567436 0.051539116 0.5000225616 0.0018270632 0.5001942358 0.0020544577 -0.2137281515 0.0532704721
40299760.0 -0.2115963711 0.0549478095 0.5047577225 -0.0016600569 0.5052916678 -0.0017980894 -0.2084343449 0.0559160459
45299730.0 -0.2065414722 0.0574807859 0.5095280064 -0.0066583137 0.5098815189 -0.006475541 -0.2033616759 0.0585135172
50299700.0 -0.2022805454 0.0599676556 0.5142509763 -0.0121141287 0.5144654863 -0.0116575398 -0.1987931696 0.0603123156
55299670.0 -0.1983987669 0.061749475 0.5179260355 -0.0184308278 0.5177838803 -0.0180042083 -0.1943349893 0.0619917711
60299640.0 -0.1943761634 0.0635822351 0.5213459127 -0.0241096434 0.5217795612 -0.0241109366 -0.1904178116 0.0629208969
65299610.0 -0.1911066171 0.0647067028 0.5241975982 -0.0306855868 0.5241809419 -0.0307515294 -0.1869821496 0.0640139794
70299580.0 -0.1879106344 0.0660844327 0.526742794 -0.0371042058 0.5264218645 -0.0372926792 -0.1837153257 0.0646768279
75299550.0 -0.1848370199 0.0671167231 0.528573875 -0.0438290644 0.5287988073 -0.0442792509 -0.1810693068 0.0652043025
80299520.0 -0.1823128413 0.0680727989 0.5304554407 -0.0509506865 0.5305538755 -0.0509920458 -0.1781225712 0.0660018898
85299490.0 -0.1800973349 0.0687202935 0.531744691 -0.0574632493 0.5318286656 -0.057208767 -0.17584031 0.0659074695
90299460.0 -0.1778888337 0.0699690654 0.5327111655 -0.0647514876 0.5331605623 -0.064607311 -0.1737203088 0.0667457005
95299430.0 -0.1754658856 0.0704442956 0.5335561931 -0.0717860096 0.533982668 -0.0719065372 -0.1713912506 0.0674527783
100299400.0 -0.1737048097 0.0717193068 0.5335880458 -0.0782999399 0.53367103 -0.0786692541 -0.1693399471 0.0676330392
105299370.0 -0.1720125491 0.0723661509 0.5342685977 -0.085736608 0.5347549152 -0.0852615853 -0.1675730193 0.0680040435
110299340.0 -0.1700936544 0.073080268 0.5349131821 -0.0920996658 0.5343208632 -0.0918139627 -0.1664645414 0.068614508
115299310.0 -0.1686162871 0.0739745771 0.5345824408 -0.0990140532 0.5347406274 -0.0987101839 -0.16487525 0.0691482058
120299280.0 -0.1675336608 0.074376652 0.5342168562 -0.1057520179 0.5344088225 -0.1057567683 -0.1635399386 0.0693165543
125299250.0 -0.1662677941 0.0754999461 0.5339628227 -0.1124846426 0.5342784039 -0.1122842156 -0.1624721609 0.0698669211
130299220.0 -0.1652802439 0.0765770802 0.5334523513 -0.1192638847 0.5334741758 -0.1194882091 -0.1613101762 0.0705674581
135299190.0 -0.1636745087 0.0777418341 0.5328602417 -0.1262862168 0.5330364597 -0.1258963508 -0.159957531 0.0714825395
140299160.0 -0.1628366847 0.0790216002 0.5321986311 -0.1330012949 0.5322006078 -0.1327700832 -0.1590034798 0.072523409
145299130.0 -0.1614189352 0.0798228358 0.5310198451 -0.1393465112 0.5306994904 -0.1393862239 -0.1580699368 0.0731818873
150299100.0 -0.1602351209 0.0812164734 0.5296030523 -0.1453884342 0.5301032914 -0.145356842 -0.1572878833 0.0740610342
155299070.0 -0.1595323067 0.0821510283 0.5289463928 -0.1523263307 0.5286848747 -0.1523048649 -0.1563007522 0.074811031
160299040.0 -0.1585048801 0.0835299117 0.5274239416 -0.1586414741 0.5270886832 -0.1586423676 -0.1559620971 0.0755155945
165299010.0 -0.157430329 0.0848688457 0.5263086218 -0.1656249048 0.5261479912 -0.1655031034 -0.154652511 0.0768199413
170298980.0 -0.1565318833 0.0858841026 0.5241621532 -0.1714306526 0.5247012456 -0.171495721 -0.1538315088 0.0776771543
175298950.0 -0.1556008924 0.087191179 0.5231025438 -0.1780374184 0.5223874799 -0.177789726 -0.1531062958 0.0787013518
180298920.0 -0.1545980308 0.088346837 0.5210243649 -0.1841536229 0.5208022355 -0.1837713091 -0.1526608261 0.0796418789
185298890.0 -0.1534229992 0.089527847 0.519188148 -0.1905576528 0.5192342109 -0.1904126293 -0.1515462897 0.0810686753
190298860.0 -0.1525702575 0.0911806062 0.5170779403 -0.1965479238 0.5177801482 -0.1963662628 -0.1510378132 0.0812807837
195298830.0 -0.1518270408 0.0921809438 0.5154094367 -0.2028951231 0.5153377982 -0.2026731464 -0.14968872 0.0827347353
200298800.0 -0.1506704744 0.0935743235 0.5128231512 -0.2087533046 0.5128930045 -0.209088412 -0.1495419283 0.0837723586
205298770.0 -0.1497996759 0.0951722768 0.5107914282 -0.2154845036 0.5109496868 -0.2149662747 -0.1487879822 0.0845704634
210298740.0 -0.1486522405 0.0960911783 0.5085173595 -0.2205436078 0.508523927 -0.2204750345 -0.1477351843 0.0863433454
215298710.0 -0.1482465131 0.0978016879 0.5066644505 -0.2269373202 0.506136104 -0.2269059489 -0.1473433559 0.087280263
220298680.0 -0.1471059018 0.0988106527 0.5034770562 -0.2326857764 0.5038456789 -0.2327110917 -0.1465044724 0.0884412876
225298650.0 -0.1461596224 0.1001697943 0.5014793018 -0.2385250395 0.5017638745 -0.238676626 -0.1462995859 0.0895823405
230298620.0 -0.1450955025 0.1022226457 0.4992447608 -0.2442844423 0.499439378 -0.244222877 -0.1454318378 0.090417593
235298590.0 -0.1441293047 0.1038125119 0.4961984783 -0.2500301825 0.4966285794 -0.2497610888 -0.1445779867 0.0917691321
240298560.0 -0.1432051369 0.104916626 0.4939954683 -0.2560012729 0.4938258143 -0.2557883789 -0.1437066509 0.0935798067
245298530.0 -0.1421996365 0.1063028273 0.49137307 -0.2613997413 0.4911673846 -0.2617473171 -0.1428037962 0.0941315886
250298500.0 -0.1408332777 0.1078485908 0.4873873549 -0.2671636981 0.4876598165 -0.266929946 -0.1421792799 0.0958615901
255298470.0 -0.1398193304 0.1087362463 0.4844418848 -0.2722644436 0.4851174955 -0.2725874654 -0.1412495149 0.0968625658
260298440.0 -0.1390297246 0.1104231512 0.4820102597 -0.2785317958 0.4819197082 -0.278200291 -0.1403468648 0.0982608909
265298410.0 -0.1376068739 0.1124036763 0.4790946812 -0.2838661881 0.4795984746 -0.2837563895 -0.1398095813 0.0995783154
270298380.0 -0.1367251335 0.1138568957 0.4763544541 -0.2888598853 0.4761156502 -0.289055351 -0.1390134086 0.1007726235
275298350.0 -0.1353145156 0.1152450462 0.4727681413 -0.2951740325 0.4734314786 -0.2944311912 -0.1376696018 0.1022136533
280298320.0 -0.1341701564 0.1168618715 0.4696669711 -0.3002892264 0.4700290336 -0.3000613652 -0.1367746246 0.1031576572
285298290.0 -0.133022706 0.118212512 0.4668795463 -0.3051012151 0.4665435842 -0.3053586677 -0.1358789091 0.1047554787
290298260.0 -0.1312815029 0.1196801312 0.4628766413 -0.3104540745 0.4633859414 -0.3104786498 -0.1348998638 0.1060681291
295298230.0 -0.130342859 0.1208962419 0.4599544689 -0.3158864261 0.4599396875 -0.315977707 -0.1334595556 0.1066814394
300298200.0 -0.129359955 0.1223798643 0.4568618072 -0.320682658 0.4566670571 -0.3213026149 -0.1331840011 0.1083663287
305298170.0 -0.1279859777 0.1234219172 0.4525220716 -0.3263099294 0.4527163837 -0.3261488911 -0.1314985859 0.1095470658
310298140.0 -0.1266699437 0.1253225946 0.4491884437 -0.331699419 0.4496344083 -0.3316100193 -0.1308451311 0.1106942521
315298110.0 -0.1253291343 0.1261263867 0.4460283022 -0.3366841141 0.4458239162 -0.3367033778 -0.1299754475 0.1116783475
320298080.0 -0.1239351144 0.127563967 0.4414471557 -0.3419252059 0.4419261574 -0.3414401706 -0.1288609447 0.113113888
325298050.0 -0.1227130025 0.1289003773 0.4379208482 -0.3471663022 0.4382501355 -0.3467764114 -0.12839815 0.1139863918
330298020.0 -0.1217480495 0.1301237902 0.4338633538 -0.3520624115 0.4340216027 -0.3522524859 -0.1275220597 0.1152572334
335297990.0 -0.1201156999 0.1311293196 0.429632291 -0.3566660082 0.4299086536 -0.3570824595 -0.1269398561 0.1171691263
340297960.0 -0.1194520776 0.1326341593 0.4257336227 -0.3616121619 0.4258843321 -0.3616559589 -0.1252428681 0.118306285
345297930.0 -0.1180475304 0.1347068559 0.4216857333 -0.3665646453 0.4215394603 -0.3663236503 -0.1246243724 0.1191933375
350297900.0 -0.1166121712 0.1356111649 0.4171581632 -0.3708880488 0.4174993076 -0.3706693254 -0.1239058268 0.121093877
355297870.0 -0.1151234628 0.137752796 0.4131572831 -0.3753261615 0.4139446972 -0.3753847291 -0.1226834753 0.1220853164
360297840.0 -0.1136635091 0.1388644653 0.4097487374 -0.3799326902 0.4099548028 -0.3796101552 -0.1217819509 0.1231618584
365297810.0 -0.1124382558 0.1403814124 0.4050618097 -0.3845192998 0.4054196697 -0.3848169743 -0.1201372313 0.1248232458
370297780.0 -0.1108086334 0.1414158882 0.4004195185 -0.3889378356 0.4013540229 -0.3885612612 -0.1194180711 0.1263016031
375297750.0 -0.1091420173 0.1429776336 0.3964187261 -0.393522741 0.3967367281 -0.3932473374 -0.1182525512 0.1273468735
380297720.0 -0.1076080267 0.1440799887 0.3919020853 -0.3981024171 0.3925666698 -0.3971248397 -0.1176130753 0.1283511758
385297690.0 -0.1064795185 0.1456336479 0.3876402311 -0.4019937447 0.3877040539 -0.4018609617 -0.1156947428 0.1298817866
390297660.0 -0.1049212271 0.1470458696 0.3834976807 -0.4060301921 0.3835431103 -0.4059328422 -0.1149392722 0.1309211507
395297630.0 -0.1031606654 0.1482252654 0.3790025124 -0.4103521771 0.3791307918 -0.4106110867 -0.1132294326 0.1324229979
400297600.0 -0.1016110917 0.1494363846 0.3738883567 -0.4142393131 0.3744785665 -0.414420123 -0.1123652814 0.1334597042
405297570.0 -0.1001783017 0.1505440691 0.369399948 -0.4181378468 0.3699171017 -0.4183227564 -0.1110687369 0.1349989391
410297540.0 -0.0980238554 0.1516871443 0.365061089 -0.42260681 0.3655597487 -0.4228289465 -0.1098915678 0.1362133943
415297510.0 -0.0966501622 0.1529550319 0.3601183207 -0.4268345508 0.3603886293 -0.4266281351 -0.1087460758 0.1376103649
420297480.0 -0.0952796432 0.1547624504 0.3557377587 -0.4307973581 0.3555887804 -0.4308766418 -0.107583544 0.1386122186
425297450.0 -0.0934949828 0.1553290386 0.3512917047 -0.4344839379 0.3515194661 -0.4346829519 -0.1065440822 0.1397857173
430297420.0 -0.0918886999 0.1564806435 0.3463445908 -0.4376667443 0.3464542084 -0.4380518651 -0.1051397247 0.1408653606
435297390.0 -0.0902535482 0.1578787633 0.3413502347 -0.4416178751 0.341221285 -0.4418712382 -0.1030719054 0.1419939322
440297360.0 -0.0882938907 0.1589258175 0.3366184336 -0.4454388634 0.3367004542 -0.4456869614 -0.1024839173 0.1432048489
445297330.0 -0.0868731807 0.1597399977 0.3317492339 -0.449454587 0.3318027821 -0.4492898901 -0.1005681711 0.1439254592
450297300.0 -0.0850223718 0.1607619966 0.3268141395 -0.4528499625 0.3268478859 -0.4529163274 -0.0995021916 0.1451275629
455297270.0 -0.0832504713 0.1619618244 0.3217659517 -0.4561515926 0.3223327342 -0.4563771624 -0.0981913197 0.1461567256
460297240.0 -0.0816910969 0.1632677319 0.3168741441 -0.4597386604 0.3168249921 -0.4598530593 -0.0967305516 0.1477760983
465297210.0 -0.0794635894 0.1643066129 0.3119898467 -0.4632781069 0.3119239068 -0.4636828318 -0.0951013381 0.1481365064
470297180.0 -0.07760024 0.165213297 0.3063034192 -0.4665423298 0.3064635783 -0.4668111946 -0.0934467846 0.1498481121
475297150.0 -0.0761939081 0.166049964 0.3013857093 -0.4693167534 0.301887175 -0.4696700071 -0.091964136 0.1500547395
480297120.0 -0.0743332049 0.1673068827 0.2964370088 -0.4734614985 0.2961301603 -0.47346027 -0.0902646358 0.1514240868
485297090.0 -0.0723675437 0.1683522571 0.2913284998 -0.4763630159 0.2916426654 -0.4760363711 -0.0891585505 0.1523750898
490297060.0 -0.0712546923 0.169213081 0.2862505627 -0.4797946513 0.2862982662 -0.4792041987 -0.0876885466 0.153868196
495297030.0 -0.0691640405 0.1700088898 0.2805858662 -0.4824743725 0.2813169226 -0.4826577185 -0.0862227087 0.1548657633
500297000.0 -0.0669234512 0.1709064446 0.2752018142 -0.4853438184 0.2752589034 -0.485422406 -0.0847938635 0.1561436451
505296970.0 -0.0649517585 0.1716179072 0.2700262331 -0.4880179131 0.2700837024 -0.4883802086 -0.0836413605 0.1566276395
510296940.0 -0.0631304317 0.1727371791 0.2645917459 -0.4910478922 0.2646990389 -0.4918634758 -0.0818290533 0.1576825039
515296910.0 -0.0612550181 0.1735253972 0.259199845 -0.4943154794 0.2595166294 -0.4939811238 -0.0804821056 0.1585414503
520296880.0 -0.0595380235 0.174350862 0.2541131645 -0.4973514551 0.2539889372 -0.496706612 -0.0790936034 0.1593973487
525296850.0 -0.057614563 0.17479475 0.2481823482 -0.4994608035 0.2489282165 -0.4995798713 -0.0774429845 0.1606780908
530296820.0 -0.0553203216 0.1757892093 0.2429100947 -0.5028319723 0.2432977271 -0.5022923903 -0.0758122762 0.1613544598
535296790.0 -0.053899319 0.1767359414 0.2380478524 -0.5048749017 0.2376941811 -0.5046773306 -0.0744993347 0.1617715378
540296760.0 -0.0519782796 0.177329803 0.2319932475 -0.5078386188 0.232061438 -0.5075575517 -0.0729204823 0.1630628895
545296730.0 -0.0496491612 0.178031575 0.2258327705 -0.509738586 0.2261216164 -0.5100488034 -0.07139299 0.163804753
550296700.0 -0.0474876358 0.178767948 0.2206612822 -0.5122913124 0.2210875859 -0.5125910766 -0.0701177987 0.1649559569
555296670.0 -0.0459188401 0.1793701169 0.215458635 -0.5148220887 0.2158862416 -0.514581457 -0.0682362883 0.1659677201
560296640.0 -0.0435300799 0.1802726046 0.209443584 -0.517047236 0.2098116509 -0.5172443255 -0.0665385314 0.1664811692
565296610.0 -0.0419106117 0.1808822706 0.2043291765 -0.5194485794 0.2045537207 -0.5190615705 -0.0652627659 0.1668378061
570296580.0 -0.0400102496 0.1811670461 0.1984442605 -0.5220512602 0.1979253066 -0.5212954627 -0.0635429884 0.1682918729
575296550.0 -0.0381655693 0.1820489754 0.1926829089 -0.5235333442 0.1926188109 -0.5237305444 -0.0616213974 0.1688096809
580296520.0 -0.035942452 0.1824536173 0.1869896944 -0.5259151755 0.1872392809 -0.525534781 -0.0600094438 0.1694235722
585296490.0 -0.0340652831 0.1827827495 0.1815065379 -0.5274824689 0.1816878601 -0.5277549275 -0.0584712383 0.1701170163
590296460.0 -0.0315913202 0.1836126875 0.1758085913 -0.5288863122 0.1757510628 -0.5290894657 -0.0572798802 0.1711244605
595296430.0 -0.0298160706 0.1839265888 0.1696514152 -0.5315800826 0.1697126847 -0.5314039381 -0.0553213503 0.1714417412
600296400.0 -0.0281007204 0.1843330545 0.1642237148 -0.5330095377 0.1643805445 -0.5328036147 -0.0538881939 0.1720508901
605296370.0 -0.0261280852 0.1849739553 0.1586050708 -0.5348020459 0.1585242166 -0.5348782311 -0.0515560604 0.1730238526
610296340.0 -0.0239117834 0.185291252 0.1524031532 -0.5365390106 0.152738326 -0.5360586888 -0.0499061833 0.1732485433
615296310.0 -0.0215328727 0.1853057747 0.1465589903 -0.5377010268 0.1465470711 -0.5381002821 -0.0481002336 0.1741708628
620296280.0 -0.0194905328 0.1856448693 0.1408444262 -0.5392313622 0.1406047149 -0.5392785964 -0.0468868211 0.1747467722
625296250.0 -0.0180493305 0.1861621842 0.1357522105 -0.5410415931 0.1351199945 -0.5410010605 -0.0447129119 0.1753644116
630296220.0 -0.014864118 0.1864403377 0.1283550697 -0.5422797184 0.129353038 -0.5421612349 -0.0429987535 0.1762922565
635296190.0 -0.013747192 0.1868090742 0.12363 -0.5435030387 0.1232950963 -0.5440263388 -0.0413600505 0.176775805
640296160.0 -0.0116592568 0.1872228439 0.1174823995 -0.5446973278 0.1176290373 -0.5450926374 -0.0395870721 0.1771381204
645296130.0 -0.0093167988 0.1877824248 0.1112263696 -0.5458373869 0.1117588403 -0.5460636167 -0.0380240937 0.1776972629
650296100.0 -0.0073581363 0.1877499458 0.1052217443 -0.5471333658 0.1058474121 -0.5472831861 -0.0361061615 0.1780229662
655296070.0 -0.0054994678 0.187819404 0.0998009651 -0.548220121 0.099555951 -0.5484172348 -0.0341887651 0.1786324216
660296040.0 -0.0036161566 0.1877399215 0.0936294355 -0.5490861527 0.0938105293 -0.5495558881 -0.0325965181 0.179133109
665296010.0 -0.0011605291 0.1878659015 0.0875431156 -0.5501148291 0.087671139 -0.5502731662 -0.0309371162 0.1800863606
670295980.0 0.0002996836 0.1883876511 0.0820327679 -0.5508375751 0.0819214596 -0.551142222 -0.029668212 0.1801791723
675295950.0 0.0026936757 0.1885683778 0.0758299923 -0.5519138638 0.0760558233 -0.5515501688 -0.027925521 0.1805844776
680295920.0 0.0046034544 0.1887290061 0.0698353736 -0.5522419126 0.069428468 -0.5530358547 -0.0258259718 0.1817529122
685295890.0 0.0070566495 0.1891279208 0.0635664731 -0.5533838342 0.0638225931 -0.5531424079 -0.0243465083 0.1816033225
690295860.0 0.0092771855 0.1889944611 0.0575658591 -0.5534011751 0.0579967742 -0.5543672606 -0.0225371445 0.1825883578
695295830.0 0.0110300975 0.1887698887 0.0521705303 -0.5544816084 0.0517254993 -0.5544440641 -0.020733207 0.1825762761
700295800.0 0.0131901471 0.1887058781 0.0455748087 -0.5550125387 0.0456797825 -0.5548561861 -0.0192267258 0.1832190298
705295770.0 0.0150657689 0.1892382947 0.0392570061 -0.5552395506 0.0405621119 -0.5554116278 -0.0176165621 0.1839142059
710295740.0 0.0174644453 0.1886964856 0.0341428158 -0.5562830345 0.0342752854 -0.5564772369 -0.0156864602 0.1835119796
715295710.0 0.0190413517 0.1886976722 0.028297874 -0.5561335069 0.0279703075 -0.5560919851 -0.0136147587 0.1840064663
720295680.0 0.0213730709 0.1885346808 0.0220010737 -0.5565182269 0.0219934402 -0.5565949088 -0.0117448193 0.1845032811
725295650.0 0.023722618 0.188594656 0.0156320208 -0.5569424208 0.0162784616 -0.5569135831 -0.0104455725 0.1847600006
730295620.0 0.025706735 0.1888514886 0.0100727297 -0.5565390709 0.0102141737 -0.5566645957 -0.0086994626 0.1849343911
735295590.0 0.0273539231 0.1884640202 0.0043376633 -0.5567701138 0.0038403987 -0.5567123001 -0.0069529801 0.1847151686
740295560.0 0.029575254 0.1882956855 -0.0016329083 -0.5567309583 -0.0022777816 -0.5568444238 -0.0047805056 0.1854339363
745295530.0 0.0316356057 0.1883051274 -0.0079705989 -0.5558017928 -0.0081546297 -0.5563426765 -0.0028318326 0.1850377122
750295500.0 0.0337710226 0.1880238726 -0.0139057807 -0.5562803492 -0.0137766943 -0.5565000632 -0.0012041135 0.1856247919
755295470.0 0.0359607578 0.1872306059 -0.0197177127 -0.5557858149 -0.0198378946 -0.5563506807 0.0008199849 0.1852231842
760295440.0 0.0378780893 0.1871954601 -0.025794964 -0.5561121581 -0.0258310067 -0.5565967713 0.0021440052 0.1857756327
765295410.0 0.0398546923 0.1872119918 -0.0323074244 -0.555549981 -0.032719402 -0.5559272185 0.0044970265 0.1861101774
770295380.0 0.0417234197 0.1867832605 -0.0381563279 -0.555295048 -0.0378368541 -0.5553421593 0.0060766924 0.1858035397
775295350.0 0.04388184 0.1861576148 -0.0444948308 -0.5543735257 -0.0438777546 -0.5547191222 0.007304981 0.1861850122
780295320.0 0.0461198969 0.1860410071 -0.0498480761 -0.5539316248 -0.0493444418 -0.5543757228 0.0094472125 0.1858128777
785295290.0 0.0478994596 0.1851971468 -0.0563488943 -0.5527632526 -0.0555842649 -0.5535196028 0.0119588014 0.186168421
790295260.0 0.0505433125 0.1853671993 -0.0617252904 -0.5528135747 -0.0609332544 -0.5527563543 0.0132491991 0.1864012196
795295230.0 0.0523924545 0.1845650249 -0.0679405107 -0.5517561003 -0.0676067246 -0.552609954 0.0155001336 0.186351803
800295200.0 0.0540786398 0.1842851635 -0.074102025 -0.5513608417 -0.0736761416 -0.5511232068 0.0171647752 0.1865485093
805295170.0 0.0563822389 0.1834487148 -0.0795514611 -0.5503042833 -0.0797463803 -0.5507248314 0.0191699154 0.1863516112
810295140.0 0.0582025657 0.1829984059 -0.085510688 -0.5490906492 -0.0857956886 -0.5497709662 0.0211257035 0.1864993373
815295110.0 0.0603804114 0.1823843128 -0.0916599905 -0.5481115492 -0.0910738749 -0.5485541014 0.0227255093 0.1863488802
820295080.0 0.0619907642 0.1825739337 -0.0974322035 -0.5469627369 -0.0966598598 -0.547673148 0.0247313422 0.1866384518
825295050.0 0.0647915343 0.1815939962 -0.102850272 -0.5460970367 -0.1031923156 -0.5466645906 0.0266293383 0.1862979002
830295020.0 0.0663245962 0.1811682123 -0.1093494063 -0.5445419595 -0.1093149112 -0.5448807564 0.0288269409 0.1862974045
