!Created with skrf (http://scikit-rf.org).
# Hz S RI R 50.0 
!freq ReS11 ImS11 ReS21 ImS21 ReS12 ImS12 ReS22 ImS22
300000.0 -0.2356400866 -0.1243663193 0.4699416003 0.0815822465 0.4694348755 0.0817549703 -0.2391882441 -0.1283282848
5299970.0 -0.2421386854 0.0056454977 0.4751736911 0.0061962278 0.4753033976 0.0055699982 -0.2443642169 0.0049873728
10299940.0 -0.2387593944 0.0187922334 0.4774336555 0.0067779943 0.4774197947 0.0069411171 -0.240958964 0.017219958
15299910.0 -0.2334455669 0.0288470696 0.4804914091 0.0080285462 0.4807837137 0.0080304715 -0.2370644818 0.0263613366
20299880.0 -0.2285215563 0.0370426666 0.4851360633 0.0081828421 0.4857544234 0.0080390586 -0.2323161287 0.0338472684
25299850.0 -0.2225365769 0.0436541878 0.4909515426 0.0077705041 0.4909174119 0.0069592494 -0.2272900959 0.0401070515
30299820.0 -0.2172461593 0.0488355506 0.4961924587 0.0049521577 0.4960743912 0.005116633 -0.2218453657 0.0449999875
35299790.0 -0.2114300064 0.052942767 0.5012438843 0.0021824356 0.5016146006 0.0018207036 -0.2170907685 0.0491548568
40299760.0 -0.2060636801 0.0561422139 0.5061776153 -0.0020663667 0.5064947541 -0.0024237189 -0.2119278189 0.0523520277
45299730.0 -0.2011932429 0.0589007824 0.5110044445 -0.0067960189 0.5111861701 -0.0067015925 -0.2071576625 0.0546649785
50299700.0 -0.1957929662 0.0609353297 0.515243209 -0.0124757748 0.5155396138 -0.012510297 -0.2028048944 0.0567946167
55299670.0 -0.1919905592 0.0625576443 0.5190394546 -0.0179121215 0.5189099222 -0.0186221403 -0.1991994966 0.0585163088
60299640.0 -0.1878465627 0.0641812259 0.5226384551 -0.0244423453 0.52254503 -0.0245787948 -0.1954880999 0.0595704711
65299610.0 -0.1841809723 0.0652153924 0.5254474493 -0.030856981 0.5255632341 -0.0312516176 -0.1921275452 0.060897924
70299580.0 -0.1807513984 0.0658237344 0.5276133262 -0.0374028144 0.5278233133 -0.0378256698 -0.1891802373 0.0618431697
75299550.0 -0.1778096666 0.0669710937 0.5294280792 -0.0450535365 0.5299081123 -0.0446745754 -0.1864762941 0.0629569164
80299520.0 -0.1750457776 0.0677965756 0.5311792055 -0.0512839618 0.531930849 -0.0515507871 -0.1838912669 0.0635547919
85299490.0 -0.1723573031 0.068578626 0.5327010459 -0.0582004527 0.5329514245 -0.0580920582 -0.1817704627 0.0638007929
90299460.0 -0.1703530686 0.0691239792 0.533869455 -0.0649168286 0.5333376528 -0.0650590101 -0.1796618674 0.0649316782
95299430.0 -0.1679975542 0.0697012072 0.5343498317 -0.0719288584 0.5351916237 -0.0723442918 -0.1779273359 0.0654759986
100299400.0 -0.1659168526 0.070327171 0.5348969386 -0.0790431994 0.5354861267 -0.0791810588 -0.1761738889 0.0666045102
105299370.0 -0.1641059166 0.071134553 0.5355253296 -0.0857741984 0.535538379 -0.0858239291 -0.1739753115 0.0665811859
110299340.0 -0.1624447042 0.0715568398 0.5354943694 -0.0922588057 0.5358702479 -0.092331351 -0.1729323813 0.0673099975
115299310.0 -0.1608812414 0.0724209622 0.5357444511 -0.0992720834 0.5355982444 -0.0992775343 -0.1717314856 0.0684029021
120299280.0 -0.1594043414 0.0733925851 0.5354800083 -0.1066970229 0.5350971261 -0.1065117721 -0.1702534152 0.068598022
125299250.0 -0.1579972304 0.0739665735 0.5347295467 -0.1130512589 0.5347917035 -0.1127397815 -0.1688789268 0.0696677908
130299220.0 -0.1569228318 0.0746573383 0.534599669 -0.1197525274 0.5341498294 -0.1201393605 -0.168015601 0.0704708062
135299190.0 -0.1556150611 0.0759782041 0.5338031601 -0.1262029851 0.5338323796 -0.1265492717 -0.166707064 0.0709172537
140299160.0 -0.1542715307 0.0768335766 0.533193587 -0.1332568171 0.5328838877 -0.1325953833 -0.1662450466 0.0716416762
145299130.0 -0.1534651779 0.0778081572 0.5318390076 -0.1392305023 0.5318844886 -0.1394278018 -0.1653629089 0.0728664233
150299100.0 -0.1522097619 0.0788976949 0.530580633 -0.1460991356 0.5306371426 -0.1462210978 -0.1643868789 0.073894725
155299070.0 -0.1509589102 0.0801636782 0.5295046035 -0.1526054833 0.5297130443 -0.1524769509 -0.1634283789 0.0749467055
160299040.0 -0.150060222 0.0813238767 0.5281647663 -0.1590299169 0.5280997439 -0.159180073 -0.1629334773 0.0758650763
165299010.0 -0.1487711027 0.0822524 0.5267994208 -0.1655485759 0.5263741889 -0.1652083578 -0.1616332513 0.0765814725
170298980.0 -0.1478895764 0.0837495233 0.5246447095 -0.1720541104 0.5251751526 -0.1720111731 -0.1611224164 0.0776153703
175298950.0 -0.1468914545 0.0850857444 0.5233540491 -0.1781873046 0.523888464 -0.1782930736 -0.160214181 0.0791542362
180298920.0 -0.1460876076 0.0859961334 0.5216020218 -0.1844943262 0.5219673787 -0.1845176713 -0.1595282021 0.0800583761
185298890.0 -0.1450734844 0.0872990389 0.5202317077 -0.1905806826 0.5198837885 -0.1906724458 -0.1586767502 0.0811868395
190298860.0 -0.1438945715 0.0888027693 0.5175429306 -0.1968176583 0.5180680186 -0.1968617447 -0.157750637 0.0822958006
195298830.0 -0.1432078863 0.0903025103 0.5167647788 -0.2028075093 0.5163146673 -0.2029264288 -0.157297571 0.0834880795
200298800.0 -0.1420244003 0.091133341 0.51429389 -0.2091333595 0.5141949225 -0.2093421408 -0.1567167074 0.0844580353
205298770.0 -0.1412847879 0.0924632897 0.5115459863 -0.2150362565 0.5119141143 -0.2148576896 -0.1558372301 0.0859774125
210298740.0 -0.1404649055 0.0941060373 0.5099625487 -0.2211232475 0.509137271 -0.2211558539 -0.1552612798 0.0869898025
215298710.0 -0.1394850199 0.0955123957 0.5068667217 -0.2265808089 0.5069412618 -0.2270322874 -0.1543020655 0.0881845446
220298680.0 -0.1382307975 0.0968149593 0.5045162429 -0.2325432444 0.5044971589 -0.2331534823 -0.1535919463 0.0895360519
225298650.0 -0.1373996245 0.098449803 0.5019679069 -0.2386177276 0.5022118146 -0.2385134161 -0.1529829262 0.0904154322
230298620.0 -0.1361594845 0.100070368 0.4998332841 -0.244675529 0.4997952126 -0.2448734321 -0.1521058184 0.0916534501
235298590.0 -0.1356903062 0.1011955994 0.4977430865 -0.2505333702 0.4976061536 -0.2503202837 -0.1512785336 0.093436685
240298560.0 -0.1341707573 0.1029659009 0.4944556481 -0.2560531571 0.4946494596 -0.2559490739 -0.1505751182 0.094351477
245298530.0 -0.1334574594 0.1039295031 0.4916019032 -0.261521556 0.4915109638 -0.2616935551 -0.1498879756 0.0956274795
250298500.0 -0.1325113175 0.1055843548 0.4890812904 -0.2672095518 0.4888562062 -0.2672941714 -0.1489877502 0.0973091897
255298470.0 -0.1312374107 0.1074058357 0.4861345046 -0.2724531547 0.4866723283 -0.2731538108 -0.1482626883 0.0987065463
260298440.0 -0.1300005664 0.1083136587 0.4831284166 -0.2778249209 0.4831714647 -0.2779207067 -0.1477591132 0.0995534311
265298410.0 -0.1292965093 0.1100258969 0.4796550039 -0.2837226607 0.4801207963 -0.284156481 -0.1458235069 0.1009536095
270298380.0 -0.1284512927 0.1113747518 0.4770066435 -0.2891103398 0.4770246556 -0.2894309579 -0.1451995587 0.1025968984
275298350.0 -0.1267906714 0.1132860913 0.4729197221 -0.2945234982 0.4734544927 -0.2944823621 -0.144699965 0.1042277377
280298320.0 -0.1262510747 0.1143479336 0.4709101539 -0.2992980557 0.4710289811 -0.2998107073 -0.1435278151 0.1052526157
285298290.0 -0.1247502097 0.1157614665 0.4672263771 -0.305238086 0.4675815604 -0.3049960823 -0.1428442027 0.106733791
290298260.0 -0.123975304 0.1174410665 0.4648780431 -0.3105024169 0.4642311364 -0.3108697077 -0.1418536473 0.1078290512
295298230.0 -0.1228314515 0.1184498376 0.4609065364 -0.3159997803 0.4610107 -0.3161985238 -0.1409238753 0.1090763505
300298200.0 -0.1212871931 0.120311649 0.4575556559 -0.3213573214 0.457672146 -0.3212483107 -0.1399876643 0.1106017917
305298170.0 -0.1199614058 0.1212471433 0.4540133814 -0.3264756285 0.4543958985 -0.3262255669 -0.1388971806 0.1115871742
310298140.0 -0.1186564931 0.1223877426 0.4505885636 -0.3315056132 0.4506072553 -0.3311326547 -0.137451351 0.1129264459
315298110.0 -0.1176988619 0.1238691834 0.4468158163 -0.3375354337 0.4467874532 -0.3371365834 -0.1365989943 0.1143542112
320298080.0 -0.1162046134 0.1250684237 0.4427400362 -0.3420965857 0.4435230513 -0.3423742153 -0.1357335019 0.1156274592
325298050.0 -0.1157446173 0.126141379 0.4389358152 -0.3467583748 0.4395353441 -0.3471722045 -0.1346276488 0.1165570587
330298020.0 -0.114923058 0.1276653656 0.43541525 -0.3519282575 0.4355296954 -0.3523836753 -0.134264851 0.1178799289
335297990.0 -0.113518923 0.1290491237 0.4311858303 -0.3566313525 0.4317494731 -0.356616952 -0.1333141116 0.1189986569
340297960.0 -0.1125356372 0.13036582 0.4268199024 -0.3616709274 0.4268759049 -0.3616119022 -0.131836917 0.1209329022
345297930.0 -0.1112315736 0.1315666314 0.4229830318 -0.366148663 0.423235009 -0.3662742903 -0.1308412563 0.1217542741
350297900.0 -0.1102238742 0.1331181325 0.4191534699 -0.3708289112 0.4193314275 -0.370445255 -0.1303206076 0.122786291
355297870.0 -0.1088594554 0.1343556786 0.4148105717 -0.3751047471 0.4150716589 -0.3749484233 -0.1287031382 0.1243728222
360297840.0 -0.1073080874 0.1359616016 0.4105296841 -0.3802549701 0.4109793625 -0.3806610051 -0.1281479668 0.1262559821
365297810.0 -0.1062998959 0.1372807653 0.4067760933 -0.3842075221 0.4069223223 -0.3845958272 -0.1271676272 0.1273202213
370297780.0 -0.1045932174 0.1382739287 0.4017575755 -0.3892075336 0.4027169905 -0.388654872 -0.1259886194 0.12863479
375297750.0 -0.1035995593 0.1398208401 0.3979456802 -0.3930881845 0.3982319181 -0.3933770423 -0.1245405294 0.130179117
380297720.0 -0.1022639022 0.1411377091 0.39404399 -0.3978917782 0.3939637018 -0.3978696512 -0.1232110053 0.1312960402
385297690.0 -0.100741852 0.142026788 0.3893164925 -0.4018844551 0.3897644122 -0.4024091753 -0.1221166461 0.1331888161
390297660.0 -0.0991481915 0.1433531233 0.3850888821 -0.4058344155 0.385188395 -0.4062407583 -0.1204109554 0.1339230916
395297630.0 -0.0976584325 0.1446845006 0.3807318554 -0.4095679811 0.380349098 -0.4099762392 -0.1193718909 0.1353073734
400297600.0 -0.0966307763 0.1458594522 0.3762627376 -0.4146074799 0.3764065836 -0.4147511099 -0.1183530249 0.1368258325
405297570.0 -0.0947417052 0.1467028552 0.3715535169 -0.4182969641 0.3718220026 -0.4188695839 -0.1167801799 0.1382413925
410297540.0 -0.0930234581 0.1481446994 0.3671038667 -0.4228504982 0.3671116763 -0.42242455 -0.1157802987 0.1393766903
415297510.0 -0.0919642461 0.1493281713 0.362500647 -0.4263779882 0.3626673289 -0.4267843994 -0.1142185285 0.140495473
420297480.0 -0.090210839 0.1502996038 0.3577398429 -0.4303934868 0.3578883425 -0.4308404771 -0.1126662986 0.1422873112
425297450.0 -0.0881741003 0.1516260353 0.3530164262 -0.4340794434 0.353078831 -0.4344604897 -0.1117031564 0.1429384576
430297420.0 -0.0867827784 0.1525155267 0.3485946527 -0.4383914307 0.3483667715 -0.4378268578 -0.1097758113 0.1443082525
435297390.0 -0.0850122211 0.1534542063 0.3429047129 -0.4427270472 0.3433999465 -0.4419260249 -0.1089660293 0.1458464092
440297360.0 -0.0833574296 0.1544663274 0.3382669022 -0.4460661334 0.3382652116 -0.4459252431 -0.1073216714 0.1469081758
445297330.0 -0.0817119165 0.1550423805 0.3335541217 -0.4490728473 0.3335218171 -0.4497129217 -0.1057586095 0.1482293081
450297300.0 -0.0800457571 0.1562041585 0.3287678379 -0.4528473632 0.3292224661 -0.4527783363 -0.104054575 0.1491937394
455297270.0 -0.078797884 0.1571121618 0.3241565095 -0.4564815381 0.3239892356 -0.4567917083 -0.1027680555 0.1505847275
460297240.0 -0.0766777417 0.1584576023 0.3190199139 -0.4606359793 0.3188505408 -0.460382609 -0.1014151651 0.1513274185
465297210.0 -0.0748758203 0.1592027678 0.3137750665 -0.4636942378 0.3132145551 -0.4638195696 -0.0999800077 0.1530114743
470297180.0 -0.0733453751 0.1599378462 0.3084112659 -0.4665664816 0.3085456903 -0.4669676059 -0.0982067765 0.1537944582
475297150.0 -0.0716031885 0.1613776172 0.3034458819 -0.4701730501 0.3036338196 -0.4703017147 -0.0969568659 0.1548563363
480297120.0 -0.0694025887 0.1623752058 0.2980741293 -0.4735317385 0.2983212482 -0.4737036514 -0.0955233584 0.1559800359
485297090.0 -0.0674649638 0.1627950677 0.2928862502 -0.4769412678 0.2931157199 -0.4765939637 -0.0942317922 0.1570104382
490297060.0 -0.0652593998 0.1638278244 0.2875294462 -0.4803065144 0.2878725358 -0.4801667825 -0.0923280786 0.1576703877
495297030.0 -0.0641406313 0.1643968946 0.282930218 -0.4828379323 0.2828352256 -0.4831357758 -0.0906673453 0.1587652452
500297000.0 -0.0622109492 0.1656033764 0.2775496559 -0.4858724585 0.277490923 -0.486282629 -0.0893401673 0.1601636896
505296970.0 -0.0597492182 0.1660788652 0.272085363 -0.4893634157 0.2721023561 -0.488677675 -0.0875837346 0.1605912465
510296940.0 -0.0581150026 0.166975916 0.2670047305 -0.4927930025 0.2666287344 -0.4924460277 -0.0854041598 0.161944761
515296910.0 -0.0562947008 0.167947324 0.2612574379 -0.4945900669 0.2613123863 -0.4951128258 -0.0844600575 0.162718316
520296880.0 -0.0543134415 0.1684544412 0.2560963422 -0.4977028318 0.2557127066 -0.4975674012 -0.0824455012 0.1641428393
525296850.0 -0.0522871779 0.1692201192 0.2502814284 -0.5002730133 0.2500462047 -0.5003182551 -0.0805916398 0.1645828466
530296820.0 -0.0506777103 0.1701051914 0.2446779607 -0.5030798742 0.2447663482 -0.5032294793 -0.0790509085 0.1653117648
535296790.0 -0.0481605252 0.1706789518 0.239381967 -0.5054749194 0.2394966927 -0.5058773738 -0.0775473372 0.1669320997
540296760.0 -0.0461772283 0.1716719019 0.2336639142 -0.5081332425 0.2336506909 -0.5081922001 -0.0757982429 0.1670341057
545296730.0 -0.0448014711 0.1724355759 0.2287611741 -0.5104666755 0.2283225867 -0.5103739846 -0.0740718495 0.1682146174
550296700.0 -0.0421212376 0.1728840795 0.2226880712 -0.513340253 0.2224504676 -0.5132431494 -0.0724791371 0.169042438
555296670.0 -0.0403423785 0.1735248461 0.21702137 -0.5156485563 0.2174624496 -0.5155553392 -0.0708522076 0.1695238196
560296640.0 -0.0380227435 0.1740909848 0.211287716 -0.5179723072 0.2117897234 -0.5177984788 -0.0693329546 0.1708130732
565296610.0 -0.0366877139 0.1747808097 0.2062208792 -0.5200745182 0.2060708964 -0.5194459811 -0.0671971466 0.1716934696
570296580.0 -0.0343192774 0.1754829004 0.2002840338 -0.52217787 0.2000079553 -0.5223911817 -0.0658354002 0.1720782327
575296550.0 -0.0323509566 0.1759167484 0.1949614294 -0.5242881422 0.1945042651 -0.5243663195 -0.0639723529 0.173110175
580296520.0 -0.0301323669 0.1764966427 0.1889578249 -0.5262639857 0.1889378115 -0.5267588042 -0.062553226 0.173657917
585296490.0 -0.0280927137 0.1772465456 0.1835155896 -0.5281511701 0.1830133499 -0.5285761228 -0.0604176475 0.1747959084
590296460.0 -0.0256681447 0.1776915051 0.1773495439 -0.5304640001 0.1773915545 -0.5303373672 -0.0590775069 0.1751814844
595296430.0 -0.0239067568 0.1777071524 0.1715007084 -0.5324176595 0.1711819046 -0.5322388554 -0.0570328916 0.175855981
600296400.0 -0.0216008199 0.1784002665 0.1655554153 -0.5336145766 0.1655064394 -0.533715115 -0.0553822642 0.1764623921
605296370.0 -0.0201662213 0.1791507278 0.1602061228 -0.5354699624 0.1599406102 -0.5360028596 -0.0535985452 0.1774347668
610296340.0 -0.0172847388 0.1796871976 0.1543666112 -0.5366704465 0.1545639978 -0.5370374187 -0.0521691655 0.1778260759
615296310.0 -0.0152982327 0.1797971429 0.1483062268 -0.5388528897 0.1476056874 -0.5391123146 -0.0499531505 0.1787975621
620296280.0 -0.0134899196 0.1807409748 0.1425488314 -0.5405820205 0.1422010626 -0.540389599 -0.0485494057 0.1794927112
625296250.0 -0.011726443 0.1808291323 0.1367318252 -0.5419070898 0.1366405338 -0.5421091601 -0.0468874016 0.1798609459
630296220.0 -0.0093088961 0.1813223291 0.1303718705 -0.5434904643 0.130377741 -0.5433621353 -0.0448737745 0.1803460568
635296190.0 -0.0074996364 0.1819763675 0.1249171597 -0.5447285726 0.1248228639 -0.5444565678 -0.0432715031 0.1809824658
640296160.0 -0.0052815089 0.1818952273 0.1189658156 -0.5459973981 0.1185171204 -0.5460491702 -0.0415915773 0.1813735952
645296130.0 -0.0030640355 0.1826024412 0.1129339628 -0.5466857164 0.1127962515 -0.5470196024 -0.0399546347 0.1819825225
650296100.0 -0.0012215862 0.1825849299 0.107487665 -0.5483426845 0.1066123542 -0.5488093669 -0.0371799043 0.182471083
655296070.0 0.000721578 0.1830918824 0.1011938057 -0.5494151674 0.1007641319 -0.5492460518 -0.0361422162 0.1833737054
660296040.0 0.002959709 0.1833208915 0.0952585347 -0.5508208597 0.0951700757 -0.550726965 -0.0342553593 0.1832129808
665296010.0 0.0053185999 0.1836256638 0.0888471209 -0.5512325936 0.0890831078 -0.5513493973 -0.032606504 0.1839171232
670295980.0 0.0070084332 0.1837735401 0.0833359956 -0.5520956115 0.0830027245 -0.5519246685 -0.0309286847 0.1841418575
675295950.0 0.0090443528 0.1837110643 0.0769054505 -0.5531558998 0.0772547986 -0.552985355 -0.0290593344 0.1849382838
680295920.0 0.010705767 0.1843142208 0.0719451735 -0.5535642512 0.0712764311 -0.5537392435 -0.0270439893 0.1849517288
685295890.0 0.0134747362 0.1843690411 0.0651342801 -0.5545408725 0.0654108727 -0.5545872083 -0.0252418903 0.1858087903
690295860.0 0.0149512556 0.184609874 0.0593295432 -0.555284293 0.0589487049 -0.5552524853 -0.0235044254 0.1860003282
695295830.0 0.0174038224 0.1844160387 0.0538563571 -0.5556182462 0.053120622 -0.5554752968 -0.021553926 0.1864612299
700295800.0 0.0192650372 0.1848412156 0.0479202136 -0.5564315647 0.0473003648 -0.5563678512 -0.0199491991 0.1868053746
705295770.0 0.0211883318 0.1848431103 0.0414099374 -0.5570460695 0.0414089462 -0.5565471433 -0.0180752224 0.1875144127
710295740.0 0.0231311145 0.1846490042 0.0355556449 -0.5570373844 0.0348741589 -0.5574346677 -0.0158524393 0.18781974
715295710.0 0.0253428446 0.1849569293 0.0298082069 -0.557556098 0.0295204393 -0.557269299 -0.0142493199 0.1875467393
720295680.0 0.0276660909 0.184677442 0.0232962124 -0.557285793 0.0230213185 -0.5580370528 -0.0126145845 0.1882242111
725295650.0 0.0290311216 0.1851062781 0.0176858705 -0.5582203379 0.0173282097 -0.5578556756 -0.0109755488 0.1888593082
730295620.0 0.0306671755 0.18467729 0.0115954923 -0.5577395246 0.0112142824 -0.5576578825 -0.0093472643 0.1892038254
735295590.0 0.0331875767 0.1846480638 0.0055313627 -0.5581333082 0.0054185988 -0.5580733345 -0.0071152783 0.1889259997
740295560.0 0.0347601499 0.1844145823 -0.0005701007 -0.5582851486 -0.0001675238 -0.5583579857 -0.0055044265 0.1895575406
745295530.0 0.036970331 0.1844103739 -0.0064210867 -0.5574195587 -0.0058209851 -0.5580011436 -0.0040251832 0.1894322284
750295500.0 0.0384848613 0.184579169 -0.0120517654 -0.5582998833 -0.0127336271 -0.558169342 -0.0019033497 0.1898801784
755295470.0 0.0404549503 0.1840605965 -0.0176678994 -0.5577826554 -0.0182425569 -0.5580229286 -1.9885e-05 0.1904388867
760295440.0 0.0425960983 0.1846158732 -0.0250122127 -0.5575982455 -0.0249367665 -0.5573300566 0.001874695 0.1896703687
765295410.0 0.0448863451 0.1835755603 -0.0303291578 -0.5569704662 -0.0303509229 -0.5572024704 0.003656671 0.1901998297
770295380.0 0.0464573623 0.1837933878 -0.0361255559 -0.5563578493 -0.0364839561 -0.5573726327 0.00547668 0.1904273773
775295350.0 0.0482477644 0.1832294035 -0.0419614055 -0.5564483959 -0.0422804256 -0.556208149 0.0074459897 0.19058471
780295320.0 0.0504294545 0.183177629 -0.0482009461 -0.555599732 -0.0480803612 -0.5556144108 0.0094733431 0.1905292602
785295290.0 0.0523014518 0.1824865365 -0.0542353827 -0.5551573319 -0.0540043705 -0.5554193701 0.0106735988 0.1909438365
790295260.0 0.0544516329 0.1819203124 -0.0601765312 -0.5544267848 -0.0594825021 -0.5552523333 0.0126315402 0.1910347068
795295230.0 0.0561339853 0.1816444304 -0.0660844517 -0.5537481778 -0.0664017543 -0.554220242 0.0146437514 0.1906011336
800295200.0 0.0577909085 0.1814365832 -0.0713916947 -0.5528385629 -0.0719464175 -0.5533847628 0.0162715872 0.1907432377
805295170.0 0.0597485258 0.1809268286 -0.077653936 -0.5524054009 -0.0775806821 -0.5526172475 0.0186574593 0.1904760425
810295140.0 0.0617624041 0.1808436303 -0.0839614521 -0.5512281187 -0.0840788493 -0.5515639372 0.0205072385 0.1907997028
815295110.0 0.0636233527 0.1800670888 -0.0894709817 -0.550233151 -0.0893778692 -0.5506053638 0.0220126551 0.1908632206
820295080.0 0.06551719 0.1795502684 -0.0951115141 -0.5490265961 -0.0952133012 -0.5499339547 0.0233263384 0.1913731195
825295050.0 0.0671315727 0.1789017668 -0.101266669 -0.5486248797 -0.1014458467 -0.54856983 0.0260359293 0.1912018476
830295020.0 0.0690537287 0.1783688621 -0.1069364911 -0.5473060913 -0.107294254 -0.5474045853 0.0275899389 0.190438864
