!Created with skrf (http://scikit-rf.org).
# Hz S RI R 50.0 
!freq ReS11 ImS11 ReS21 ImS21 ReS12 ImS12 ReS22 ImS22
300000.0 0.8606561735 -0.0020574259 -0.0002430936 -0.000317487 -0.0005043053 0.0001429403 -0.7701864151 -0.1680363827
5299970.0 0.8597738176 -0.00995581 -0.0001531111 0.0002617514 -5.91108e-05 2.01791e-05 -0.7850595428 -0.0085958869
10299940.0 0.8586092588 -0.0189396837 -1.55105e-05 -0.0001012617 -0.0001063114 -9.29402e-05 -0.7885447074 -0.0050259821
15299910.0 0.8583287343 -0.0277377623 0.0001091464 0.0001914044 -7.239e-05 0.0001033039 -0.7941541789 -0.0028290062
20299880.0 0.8573849831 -0.0358907749 0.0001712528 -8.74879e-05 6.04879e-05 0.0001516155 -0.8005780142 0.0012727724
25299850.0 0.8571869227 -0.0441103332 0.0002998096 0.0002795919 -6.18834e-05 -0.0001282736 -0.8066437053 0.0072341576
30299820.0 0.8561727311 -0.0524925305 -9.32513e-05 -3.98632e-05 0.0001155031 -0.0002279825 -0.8127010896 0.0150566729
35299790.0 0.8551217358 -0.0599973951 -0.0001351919 3.24132e-05 2.81999e-05 0.0001740225 -0.8181568744 0.0237219488
40299760.0 0.8543684472 -0.0680626338 -0.0001511713 0.0001390457 -4.03711e-05 -0.0001342402 -0.8216153383 0.0332303259
45299730.0 0.8536739249 -0.0763035114 -8.54902e-05 2.58635e-05 -0.0001019879 -3.43897e-05 -0.8255381944 0.0417772493
50299700.0 0.8524336679 -0.0855703044 -4.08696e-05 -5.16469e-05 -8.06988e-05 9.21986e-05 -0.8278743045 0.0525048317
55299670.0 0.8516007653 -0.0933519309 0.0001421964 -5.67522e-05 -0.000297351 -6.03918e-05 -0.8297068796 0.0629784438
60299640.0 0.8506885197 -0.1012818129 1.85771e-05 -5.28218e-05 4.63081e-05 -0.0001267185 -0.830854331 0.0729196869
65299610.0 0.8497197177 -0.1091287896 -4.03281e-05 -0.0002290518 5.40848e-05 9.56668e-05 -0.8310594637 0.0832367066
70299580.0 0.8481820087 -0.1177983342 -0.0001567719 0.0002241288 2.03502e-05 3.97672e-05 -0.8322854319 0.0926896379
75299550.0 0.8471713091 -0.1260767492 -7.63172e-05 -0.0001335259 3.58789e-05 -1.23731e-05 -0.8325602707 0.1024039896
80299520.0 0.8457587926 -0.1342032973 -0.0001115373 4.66527e-05 -4.82687e-05 -0.0001884534 -0.8322164216 0.1120470535
85299490.0 0.8444584879 -0.1417876347 -0.0001948742 8.4779e-05 -0.0001927843 9.79463e-05 -0.8318024342 0.1218054411
90299460.0 0.84318703 -0.1505663174 5.10141e-05 -2.18109e-05 -2.56032e-05 -6.05803e-05 -0.8306149909 0.1309518255
95299430.0 0.8416181812 -0.1586745778 -0.000202517 0.0001454501 0.0001193621 5.63003e-05 -0.8297656599 0.141053135
100299400.0 0.8395790467 -0.1668118925 0.0001285054 -1.93763e-05 4.50754e-05 -0.0002052399 -0.8289809838 0.1498939532
105299370.0 0.8381539761 -0.1756985172 -0.0002079914 0.0001811802 -8.39257e-05 -1.69866e-05 -0.8279104363 0.159206293
110299340.0 0.8366749179 -0.1827031755 8.67333e-05 -0.0001581264 -2.494e-06 9.08896e-05 -0.826747421 0.1683905142
115299310.0 0.8342085042 -0.1916475003 8.4566e-06 -0.0001540867 -9.63593e-05 -8.44251e-05 -0.824444714 0.1766024067
120299280.0 0.8325717724 -0.1991462239 5.80605e-05 -6.6428e-06 -5.24848e-05 0.0001134916 -0.8235140763 0.1863469207
125299250.0 0.8308715859 -0.2078332498 -0.000172827 -0.0002578495 4.60917e-05 7.94643e-05 -0.8216801793 0.195560664
130299220.0 0.8286014563 -0.2152659905 -9.29038e-05 -3.30533e-05 -0.0001248795 -4.77485e-05 -0.8201097451 0.2042350546
135299190.0 0.8261709228 -0.2234057466 -0.000125773 5.42741e-05 9.1608e-06 -0.0001012897 -0.8176073437 0.2125756523
140299160.0 0.8251599126 -0.2321700173 5.01778e-05 -8.97781e-05 -8.66166e-05 8.0385e-06 -0.8159253947 0.2214211902
145299130.0 0.8218349597 -0.239634017 4.98212e-05 0.00019574 4.99788e-05 0.0001403507 -0.8131308053 0.2297378411
150299100.0 0.8200135986 -0.2473210325 3.97034e-05 4.36735e-05 7.259e-06 -7.3537e-05 -0.8114377124 0.2383044632
155299070.0 0.8166451253 -0.25548327 -0.0001376539 8.52843e-05 2.58422e-05 0.0001205706 -0.8091752534 0.2475742983
160299040.0 0.81411106 -0.2635846304 4.06803e-05 -1.67496e-05 -8.9175e-05 -4.84759e-05 -0.8075404799 0.256606828
165299010.0 0.811495859 -0.2708948884 -0.0001865703 1.88092e-05 -1.16381e-05 3.23743e-05 -0.8045095929 0.2655223792
170298980.0 0.8089295363 -0.2790848237 -0.0001297846 -0.0001320391 2.66523e-05 5.20024e-05 -0.8017956147 0.2730363904
175298950.0 0.8062866575 -0.2865240948 -9.50243e-05 -8.76564e-05 -0.0001791169 1.45716e-05 -0.7990220931 0.2816529706
180298920.0 0.8028355084 -0.2942807187 -7.48969e-05 -0.0001610107 0.0001417632 6.53686e-05 -0.795667479 0.2904347493
185298890.0 0.8000953025 -0.3027030973 -0.0001414813 -0.0001601238 -0.0001071582 -0.0002093723 -0.7930556233 0.2982446193
190298860.0 0.7975920941 -0.3103001846 0.0001337176 -7.7139e-06 2.64569e-05 8.23405e-05 -0.7894737319 0.3070437832
195298830.0 0.7946571256 -0.3181205107 9.3121e-06 -0.0002151606 0.0001965355 4.9389e-06 -0.7863696791 0.3157655136
200298800.0 0.7909298935 -0.3261267578 -8.94215e-05 -0.0001249062 7.75649e-05 8.54178e-05 -0.7836545975 0.3240106367
205298770.0 0.7880973711 -0.3333164561 -0.0002156907 -1.32746e-05 -4.82872e-05 -8.62508e-05 -0.7800107592 0.3320985347
210298740.0 0.7854431157 -0.3405646312 -5.95042e-05 2.27008e-05 9.4014e-06 5.00103e-05 -0.7764390546 0.3405780498
215298710.0 0.7816490419 -0.34865164 -5.00999e-05 -2.22362e-05 -7.47887e-05 -5.37874e-05 -0.7736094547 0.3485182558
220298680.0 0.7780782328 -0.356603453 0.0001731515 6.81423e-05 -9.46e-05 -2.77473e-05 -0.7694422711 0.3569343635
225298650.0 0.7739114753 -0.363873669 -5.51219e-05 -0.0001133253 0.0001027934 1.3434e-06 -0.7660587305 0.3647319335
230298620.0 0.7707659798 -0.3714674717 3.35511e-05 0.0002214427 -1.60682e-05 0.0001696217 -0.7621545196 0.3725701059
235298590.0 0.7672023688 -0.3784415917 -6.09835e-05 -0.0001893661 6.4335e-06 1.48456e-05 -0.7578089923 0.3806418749
240298560.0 0.7630198601 -0.386433693 -3.71121e-05 -0.0001349953 3.1612e-05 2.34239e-05 -0.75409022 0.3884412665
245298530.0 0.7594466523 -0.3932593034 4.96486e-05 -0.0001291501 -7.56304e-05 0.0002695398 -0.7502972726 0.3966849531
250298500.0 0.755942556 -0.4014462101 -0.0001785864 -0.0002279825 -7.88779e-05 6.98123e-05 -0.7459509144 0.4047873229
255298470.0 0.7522684844 -0.4081296585 -5.3322e-05 1.60904e-05 0.0001364811 7.21946e-05 -0.7417810879 0.412591811
260298440.0 0.747370935 -0.4156474107 -0.0001934591 9.4893e-06 -0.000204782 -0.0001126186 -0.7370056634 0.4201978356
265298410.0 0.7441048253 -0.4225413011 -4.7252e-05 6.88022e-05 0.0001461538 -5.45728e-05 -0.7325040988 0.4272447553
270298380.0 0.7401158126 -0.4295893042 5.39587e-05 -1.58475e-05 0.0001634915 -0.000152616 -0.727717258 0.4353244477
275298350.0 0.7356717394 -0.4368197306 0.0001400497 -6.74042e-05 -0.0001139841 -6.60977e-05 -0.7228742088 0.442872793
280298320.0 0.7315126264 -0.4439090294 0.000121868 -0.0001838656 -0.00019919 -6.27066e-05 -0.7189293287 0.4502226619
285298290.0 0.7267450361 -0.4512663951 5.3172e-05 0.0001679935 7.70101e-05 5.05906e-05 -0.7132010776 0.4576322502
290298260.0 0.7233557906 -0.4584492375 -0.0001689959 0.000110791 -1.95467e-05 9.0957e-05 -0.7088241524 0.4661571469
295298230.0 0.7188355472 -0.4660367365 -9.87823e-05 -0.0001145367 0.0001494764 -1.52054e-05 -0.7039771409 0.4730905093
300298200.0 0.7146163433 -0.4735625505 6.56499e-05 -0.0001803846 0.0002249344 0.0002220244 -0.6991181283 0.4800097263
305298170.0 0.7102285781 -0.4796641867 -0.0001290633 -9.11098e-05 6.79199e-05 -6.85361e-05 -0.6933932202 0.4878868378
310298140.0 0.7059922159 -0.4881779515 -0.0001502095 8.42322e-05 -7.73388e-05 0.000174911 -0.6890109811 0.494813314
315298110.0 0.700383903 -0.4958343709 0.0001006021 9.32723e-05 5.53576e-05 -0.0001407327 -0.6831087251 0.5020423617
320298080.0 0.6950528253 -0.5025562321 0.0001803983 -5.27185e-05 0.0001509566 0.0001056408 -0.6777826797 0.5094373684
325298050.0 0.689909807 -0.5102228922 -2.89862e-05 1.59638e-05 6.574e-07 -3.56166e-05 -0.6726337286 0.5163243985
330298020.0 0.6838179208 -0.5162858692 0.0001043734 0.0001073913 -7.02499e-05 0.0002177701 -0.6666889893 0.5230316517
335297990.0 0.678125759 -0.5225421092 -2.3671e-05 -7.64967e-05 3.63162e-05 0.0001132123 -0.6616761686 0.530053569
340297960.0 0.6721982179 -0.5293347554 9.61073e-05 2.73136e-05 7.46428e-05 -3.0413e-06 -0.655090656 0.5370087849
345297930.0 0.6668696441 -0.5358096796 -0.0001162415 4.0972e-06 -0.0001229512 0.0001732884 -0.650127992 0.5440650426
350297900.0 0.6618609634 -0.541909119 5.6464e-05 0.0001184782 1.44274e-05 -0.0001648633 -0.6446411948 0.5509790537
355297870.0 0.655994513 -0.5483880004 7.42071e-05 -1.13031e-05 3.9629e-05 3.98425e-05 -0.6383230212 0.5570431061
360297840.0 0.6507986695 -0.5544623214 2.16317e-05 9.97097e-05 0.0002959319 -4.33714e-05 -0.6325692697 0.5634618137
365297810.0 0.6456405246 -0.5606911692 6.05916e-05 -3.41515e-05 9.99067e-05 -0.000142059 -0.6265227019 0.570549265
370297780.0 0.6397196366 -0.566184029 -5.44778e-05 9.47704e-05 0.0001910156 -8.4527e-05 -0.620889762 0.576277929
375297750.0 0.6341111491 -0.5722117059 -9.54378e-05 8.16576e-05 -0.0001560692 3.49319e-05 -0.6147762041 0.583026185
380297720.0 0.6293173408 -0.5783120024 6.39717e-05 -9.82345e-05 -0.0002134818 6.6739e-05 -0.6077717378 0.590071952
385297690.0 0.6222410967 -0.5845611934 -0.0001344266 -1.07486e-05 2.38506e-05 3.73527e-05 -0.6024294221 0.5957156527
390297660.0 0.6172175366 -0.5899249115 3.37258e-05 -2.58907e-05 5.43279e-05 -1.42207e-05 -0.595504585 0.6013220721
395297630.0 0.6110737049 -0.5961580953 -0.0001474972 -2.25682e-05 -2.54185e-05 -0.0001940219 -0.5892228599 0.6080402475
400297600.0 0.6047030189 -0.6020860416 5.44253e-05 -4.73546e-05 1.19455e-05 -0.0001860184 -0.5832802833 0.6135858947
405297570.0 0.5994692749 -0.6079634473 5.6686e-06 0.0001606027 7.5248e-06 -6.29537e-05 -0.5772216766 0.6198847184
410297540.0 0.5931950564 -0.6131992518 -0.0001185942 -3.56203e-05 -1.6327e-05 0.0001518427 -0.5700684434 0.6256587772
415297510.0 0.5872778043 -0.618942039 0.0001329867 9.0845e-06 -0.0001508996 3.1507e-05 -0.5639774551 0.631592966
420297480.0 0.5811216959 -0.6253873845 3.05879e-05 -4.58597e-05 -4.76365e-05 0.0001144632 -0.55744615 0.6367203625
425297450.0 0.5750409794 -0.6301631254 9.84553e-05 5.46288e-05 -0.0001791667 7.21838e-05 -0.5504887392 0.6427715237
430297420.0 0.5681313266 -0.6356890923 -0.0001083122 4.65861e-05 -8.86307e-05 -2.95331e-05 -0.5440780476 0.6483219672
435297390.0 0.5624609974 -0.6416295854 -0.0001236392 3.4838e-05 -0.0001115972 0.0001372376 -0.5369172952 0.6535242725
440297360.0 0.5561426967 -0.6471402771 -0.0001452008 0.0002744176 0.0001249656 -0.0001009548 -0.530212987 0.6587763764
445297330.0 0.5496191904 -0.651857319 -3.3196e-06 1.554e-07 -1.04459e-05 -1.86075e-05 -0.5235031143 0.6643836194
450297300.0 0.5430667297 -0.6575384545 9.50688e-05 4.84127e-05 1.92354e-05 0.0001131955 -0.5169363233 0.6692834753
455297270.0 0.5360464851 -0.6628486038 2.80146e-05 -0.0001061975 -0.0001090179 -2.75827e-05 -0.5103240907 0.6748378874
460297240.0 0.5299660352 -0.6675276435 0.0001778504 -0.0001465533 -0.0001119086 -0.0001177519 -0.5027972838 0.6799610175
465297210.0 0.5236755948 -0.6729762696 0.0001325922 -5.93004e-05 -6.93365e-05 0.0001666595 -0.4965518211 0.6846826218
470297180.0 0.5165160619 -0.6779283549 -6.3773e-05 6.24087e-05 -0.0001144566 6.8744e-06 -0.4894619806 0.6897625751
475297150.0 0.5101503085 -0.6828625654 -0.0002148394 7.6567e-06 -3.269e-05 -2.82585e-05 -0.4821416819 0.6948776335
480297120.0 0.5037002585 -0.6876128514 0.0002550134 -0.0001039115 -6.25572e-05 -5.8895e-05 -0.4754217031 0.6997978378
485297090.0 0.4965469875 -0.692316367 -0.0001629301 5.792e-07 1.92526e-05 -9.0147e-06 -0.4680233733 0.7043714827
490297060.0 0.4900465092 -0.6970336958 -4.48121e-05 -0.0001085724 5.1212e-06 2.41935e-05 -0.4610969671 0.7089551227
495297030.0 0.4830830911 -0.7024194879 0.0001578153 4.8823e-06 -0.0001739784 -5.21531e-05 -0.4533566319 0.7130337549
500297000.0 0.4765405941 -0.7065525082 2.06267e-05 0.0001023004 -0.0001912335 5.1924e-06 -0.4466048504 0.7179468546
505296970.0 0.4684756191 -0.7110251926 -0.0001349713 -9.68334e-05 0.0001264702 -5.27974e-05 -0.4404321622 0.7216411863
510296940.0 0.4617013359 -0.7153125071 -5.20836e-05 -0.0003399771 9.70942e-05 6.51805e-05 -0.4319618884 0.7266724876
515296910.0 0.4547879936 -0.7200513349 -8.11317e-05 1.64864e-05 0.0001793868 -8.0277e-05 -0.4248512115 0.7308690792
520296880.0 0.4479806619 -0.7241700252 3.09234e-05 8.72252e-05 -6.97376e-05 0.0001703486 -0.4173107743 0.7348715388
525296850.0 0.4410290241 -0.7284660062 9.72442e-05 -3.7803e-06 8.54519e-05 -0.0001301646 -0.4098840974 0.7395469047
530296820.0 0.4330638014 -0.7325127206 -4.7271e-06 -7.97765e-05 0.0001027197 9.40943e-05 -0.4032371208 0.7428123211
535296790.0 0.4261516285 -0.7363253989 0.0001852329 -2.41293e-05 -0.0001941631 -8.41008e-05 -0.3957920561 0.7465151623
540296760.0 0.4184354594 -0.7413088756 1.33469e-05 -0.0001191556 -1.13799e-05 7.32592e-05 -0.3880174929 0.7511274211
545296730.0 0.4117536523 -0.7445114576 -9.82391e-05 2.76944e-05 0.0001920963 4.0431e-06 -0.3808575018 0.7542118117
550296700.0 0.4042717445 -0.7488375928 0.0002471008 0.0001383619 -1.27937e-05 0.0001865427 -0.3734237224 0.7580135694
555296670.0 0.3965680235 -0.752945339 7.31332e-05 -6.2456e-06 -6.1217e-05 5.78932e-05 -0.3654915208 0.7619948864
560296640.0 0.3895307778 -0.7565003588 0.0001076164 -9.7268e-06 1.55414e-05 -0.0001510971 -0.3577988215 0.7658043035
565296610.0 0.3814074355 -0.7605472787 -2.28783e-05 0.0001495414 -6.26683e-05 0.0002008817 -0.3506659828 0.7690837791
570296580.0 0.3745314473 -0.7644631697 -0.0001795738 -4.80241e-05 -0.0002774437 -2.73975e-05 -0.3430148976 0.7726152124
575296550.0 0.3666352741 -0.7672661628 -7.927e-05 3.08377e-05 -0.0002788336 -0.0001114963 -0.3347443295 0.7754990797
580296520.0 0.3595136869 -0.7703869924 -0.0002699995 2.5046e-06 1.50444e-05 -0.0001839725 -0.3274416665 0.7791562035
585296490.0 0.3511031958 -0.7742665638 4.23989e-05 5.2252e-06 3.4915e-06 -9.10503e-05 -0.319479255 0.7820892714
590296460.0 0.3433490112 -0.7774631723 -7.75027e-05 -7.84214e-05 8.11634e-05 0.000141369 -0.3119671203 0.7849802041
595296430.0 0.3363581026 -0.7805395419 -0.0001206154 -3.15499e-05 -2.64602e-05 -0.0001488321 -0.3037843191 0.7873357679
600296400.0 0.3281034389 -0.7834815157 -7.1725e-06 0.0001802374 -0.0001261762 -6.44459e-05 -0.296439636 0.7908499314
605296370.0 0.3210139523 -0.7867059035 1.69646e-05 0.0001780843 -0.0002267631 -7.1486e-06 -0.2884485032 0.7944675497
610296340.0 0.3132011426 -0.7901484883 9.11081e-05 -0.0001053236 5.23369e-05 0.0001525738 -0.2804283153 0.7970424643
615296310.0 0.3053548006 -0.7925638337 -3.38763e-05 2.66729e-05 0.0001415507 -0.0001152902 -0.2726531168 0.7990808315
620296280.0 0.2968834553 -0.7952752114 5.16041e-05 -0.0001966379 -0.0002458567 -0.0001429922 -0.2646633068 0.8017330578
625296250.0 0.2896023479 -0.7981180265 -6.67462e-05 -1.24355e-05 -2.24073e-05 0.0001411628 -0.2565744263 0.8046855014
630296220.0 0.2816545836 -0.8012340425 -4.80712e-05 4.49021e-05 -3.31738e-05 -1.06227e-05 -0.248680044 0.8076495276
635296190.0 0.27331259 -0.8042171606 0.000152587 -5.81177e-05 -0.00014034 -6.00279e-05 -0.240852262 0.8091715784
640296160.0 0.2656187353 -0.8063130249 0.0002072754 -1.73923e-05 4.18149e-05 0.000146236 -0.2324444365 0.8117251474
645296130.0 0.2575403295 -0.8089319308 -0.0001671755 7.30038e-05 0.0001008779 7.34212e-05 -0.2250412599 0.8140431894
650296100.0 0.2496211006 -0.8110984581 -9.7841e-06 -4.9532e-05 0.0001044426 0.0002082918 -0.2167980802 0.8168874595
655296070.0 0.2418686672 -0.8129773648 0.0001122665 -3.9009e-06 9.98208e-05 0.000152407 -0.2087638426 0.817917693
660296040.0 0.232777413 -0.8153910403 0.000114016 0.0001115573 9.80385e-05 -7.90539e-05 -0.2004793727 0.8204846058
665296010.0 0.2255378303 -0.8173807131 1.25418e-05 -0.0001302831 -5.1088e-05 -0.000161312 -0.1929374136 0.8221508472
670295980.0 0.2180730006 -0.8200301785 0.0001388386 -9.00257e-05 5.8631e-05 0.000270047 -0.1852396432 0.8240823209
675295950.0 0.2097632714 -0.8216843005 -0.0001220917 1.1451e-05 0.0001938755 9.87922e-05 -0.1763123229 0.8256139814
680295920.0 0.2010028701 -0.8234118951 -0.0001395753 6.62809e-05 1.10722e-05 0.0003285354 -0.1679242283 0.8273912559
685295890.0 0.1928718129 -0.8245255589 -0.0003652249 -1.97119e-05 4.2975e-05 0.0001691908 -0.1604638229 0.8293575484
690295860.0 0.1852867718 -0.8272567432 -0.0002062159 6.38346e-05 -5.44843e-05 0.0001032453 -0.1520873519 0.8303551662
695295830.0 0.1766381412 -0.8286958028 1.76689e-05 -0.0001804103 -0.0001270113 0.0001432053 -0.1435782434 0.8325430651
700295800.0 0.1685709465 -0.8300616198 2.18764e-05 1.73264e-05 -0.0001015303 -0.000210608 -0.1353210274 0.8329385439
705295770.0 0.1609456805 -0.8320138209 -0.0001179637 0.0001306076 0.0001415176 0.0001532624 -0.1272833756 0.8347851216
710295740.0 0.1520761788 -0.8332433783 6.39373e-05 -0.0001149637 -2.18206e-05 -2.39488e-05 -0.1194294856 0.8365705189
715295710.0 0.1437744245 -0.8343101844 0.0001446721 -1.80981e-05 2.21244e-05 0.0001350602 -0.1108032902 0.8373444275
720295680.0 0.1357860135 -0.8356538553 0.0001157121 -0.0002287754 -5.70124e-05 0.0001179715 -0.1023499909 0.8384833932
725295650.0 0.127387833 -0.8369032586 4.22024e-05 -1.10012e-05 -4.24688e-05 2.78235e-05 -0.0941922253 0.8392531111
730295620.0 0.1192289477 -0.8391024235 -5.97479e-05 -0.0001537099 6.98093e-05 -9.582e-07 -0.0854146465 0.8401546988
735295590.0 0.1109045254 -0.8389328789 -0.0001155248 0.0001506118 -0.0001099206 -0.000139633 -0.0768198404 0.840335605
740295560.0 0.1031907951 -0.8397464048 2.79652e-05 1.18021e-05 -9.42631e-05 2.47641e-05 -0.0689741463 0.8414594819
745295530.0 0.0944945686 -0.8412143975 -0.000110028 -0.000127974 -0.0001346566 0.0001244202 -0.0607887027 0.8420130529
750295500.0 0.0857630665 -0.8416970678 0.0002160498 -1.73117e-05 -4.10867e-05 -0.000164808 -0.0525746897 0.8426051988
755295470.0 0.0779114169 -0.8427014971 7.43532e-05 -3.50198e-05 0.000165587 2.96731e-05 -0.0447039403 0.8431204845
760295440.0 0.0690893737 -0.842566413 5.51533e-05 -5.81633e-05 3.65082e-05 -6.10966e-05 -0.0363366032 0.8434661145
765295410.0 0.0610535514 -0.8434118845 -9.7052e-05 -4.04218e-05 -3.7163e-06 -3.74573e-05 -0.0271351675 0.8447261047
770295380.0 0.0525417035 -0.8443508824 3.25264e-05 -2.96795e-05 -1.95632e-05 -9.08011e-05 -0.0191744782 0.8442585882
775295350.0 0.044017545 -0.8438183342 -3.10036e-05 -0.0001266809 6.27942e-05 0.0002713383 -0.0117709579 0.8436763459
780295320.0 0.0353015703 -0.8445341381 -1.55661e-05 -8.8459e-05 7.4809e-05 4.15859e-05 -0.002491574 0.844771733
785295290.0 0.0273079025 -0.8442941235 0.0002616831 7.65526e-05 -3.77174e-05 -8.94561e-05 0.0049732605 0.8446303465
790295260.0 0.019145754 -0.8448810729 -0.0002031399 0.0001499416 -8.12585e-05 -8.03679e-05 0.014364567 0.84464221
795295230.0 0.0109755676 -0.8444287772 -0.0001096544 8.02702e-05 -0.0001556737 3.01659e-05 0.0220970963 0.8443591358
800295200.0 0.0027469413 -0.8443998894 -0.0001767473 0.0001284798 3.0751e-05 7.46871e-05 0.0302829261 0.8440872342
805295170.0 -0.0063167099 -0.8442960233 0.0002043035 0.000146566 -6.08581e-05 -7.73599e-05 0.0383329983 0.8432880639
810295140.0 -0.0140600269 -0.8440509342 0.0002026503 -1.5397e-05 -2.50571e-05 -4.9381e-05 0.046939627 0.8437451037
815295110.0 -0.0222173566 -0.8436592646 8.49992e-05 -0.0001148454 0.0001793246 1.1939e-05 0.0553032833 0.8429803995
820295080.0 -0.030979535 -0.843214522 -0.000180934 -8.21611e-05 2.7943e-06 -7.81051e-05 0.0632722086 0.8424632334
825295050.0 -0.0392187004 -0.8434821299 5.84641e-05 -0.0001101604 -6.62235e-05 -9.54702e-05 0.0715243378 0.8419807539
830295020.0 -0.0472869257 -0.8423665303 0.0001563692 -6.80502e-05 -4.8597e-05 0.0001899507 0.0798958013 0.8409464987
835294990.0 -0.0552715785 -0.8415449683 -1.6176e-06 0.0001734275 -7.66376e-05 -0.0001001643 0.0880066359 0.8398057555
840294960.0 -0.0634641575 -0.841063359 8.1769e-05 -7.69585e-05 -0.0001633523 -3.8766e-06 0.095823168 0.8392906656
845294930.0 -0.0724668788 -0.8405073778 7.66981e-05 -0.000224864 0.0001284563 -0.0001925615 0.1044881014 0.8385534589
