!Created with skrf (http://scikit-rf.org).
# Hz S RI R 50.0 
!freq ReS11 ImS11 ReS21 ImS21 ReS12 ImS12 ReS22 ImS22
300000.0 -0.2414436804 -0.1002540966 0.4690000133 0.0656218852 0.4704740492 0.0696299089 -0.2400174856 -0.111311696
5299970.0 -0.2440049719 0.0071657355 0.4740811729 0.0050207563 0.4740112489 0.0056754502 -0.2440146008 0.0061281415
10299940.0 -0.2401219556 0.0200093234 0.4760438174 0.0065044434 0.4757384155 0.0063060437 -0.2411333337 0.0183309454
15299910.0 -0.2361074631 0.0295212032 0.4795031809 0.0076350648 0.4794769098 0.0078042195 -0.2367995189 0.0277453211
20299880.0 -0.2306187129 0.0371431618 0.4840806101 0.0081636067 0.4843587222 0.008630498 -0.2321532071 0.0354385187
25299850.0 -0.2249380047 0.0434913598 0.4894870699 0.0073435006 0.4897307874 0.0073359178 -0.2268908349 0.0415392481
30299820.0 -0.2188246946 0.0484800827 0.4949465836 0.0056732902 0.4947459748 0.0055563687 -0.22172317 0.0468316294
35299790.0 -0.2130466949 0.0529234832 0.5003860061 0.0021100415 0.5003551054 0.0025701806 -0.2162162848 0.0508003154
40299760.0 -0.2076013236 0.0556195617 0.5052392195 -0.0012390003 0.5054096427 -0.0013594971 -0.2116622876 0.0546832732
45299730.0 -0.2025501028 0.0586197222 0.5103552646 -0.006822472 0.5104513129 -0.0064136918 -0.2066590263 0.0573910731
50299700.0 -0.1975814577 0.0600145952 0.5138605547 -0.0119755074 0.5147994363 -0.0123298468 -0.2019812861 0.0599960256
55299670.0 -0.1934541568 0.0618405853 0.5177524662 -0.0180979633 0.5184231244 -0.0180866057 -0.1985497361 0.0614964971
60299640.0 -0.1896254234 0.0627629617 0.5211037865 -0.0243196307 0.5212950311 -0.0240530728 -0.1944732734 0.063131224
65299610.0 -0.1861437952 0.0638602443 0.5243231555 -0.030086557 0.5245810353 -0.0302480171 -0.1912044738 0.0645288307
70299580.0 -0.1827219496 0.0645145352 0.5267683115 -0.0371347424 0.5268835507 -0.0373610867 -0.1882613727 0.0656903558
75299550.0 -0.1793841062 0.0650531206 0.5286351956 -0.0439601175 0.5288236069 -0.0441560096 -0.1848762407 0.06675582
80299520.0 -0.177151843 0.0658340838 0.5311611973 -0.0507514188 0.5309955673 -0.0507598536 -0.1823986164 0.0674255661
85299490.0 -0.1745491015 0.0660276696 0.532184624 -0.0579396169 0.5322174754 -0.0578863319 -0.1804207441 0.0683966667
90299460.0 -0.1725029579 0.0667766199 0.5331412744 -0.0644524399 0.533073845 -0.064628711 -0.1778222846 0.0691695469
95299430.0 -0.170403313 0.0671756979 0.5341095845 -0.07194023 0.5341975594 -0.0718366679 -0.1757802558 0.0704909193
100299400.0 -0.1686811575 0.0674947035 0.5340531951 -0.0783898457 0.5343559662 -0.0782348956 -0.1743183606 0.0708221173
105299370.0 -0.1667949367 0.0680046406 0.534541176 -0.0853655435 0.534889208 -0.0855200764 -0.1722039315 0.0718651449
110299340.0 -0.1656898101 0.0686739284 0.5348733347 -0.0919866615 0.5347263596 -0.092518165 -0.1706573268 0.072483761
115299310.0 -0.1639621346 0.0687514425 0.5347047542 -0.0988360152 0.5351345597 -0.098910007 -0.1691080255 0.0731668354
120299280.0 -0.1630512168 0.069532618 0.53498835 -0.1059714719 0.5349151033 -0.106015699 -0.1679969098 0.0741115123
125299250.0 -0.1619218374 0.070026104 0.53440166 -0.1126732574 0.5344994133 -0.1128277019 -0.1663129827 0.0748134799
130299220.0 -0.160418611 0.0706658924 0.5339329371 -0.118915862 0.5337572156 -0.119451076 -0.1652198006 0.0760368109
135299190.0 -0.1592525294 0.0710114685 0.5331308347 -0.1255104112 0.5326698834 -0.1260787826 -0.1642453114 0.0769093112
140299160.0 -0.1586262797 0.0724444362 0.5324648565 -0.1325027913 0.532634304 -0.1326245037 -0.1629695423 0.0782274646
145299130.0 -0.1575269526 0.0729573043 0.5316042662 -0.1389789832 0.5312983212 -0.1387766831 -0.1619165462 0.0787515453
150299100.0 -0.1565344582 0.0734801596 0.5302115721 -0.1459916652 0.5304746093 -0.1459708381 -0.1606302461 0.0800327136
155299070.0 -0.1559284699 0.0747896974 0.5290086259 -0.1527317377 0.5292611047 -0.1525451844 -0.1600909453 0.0809307242
160299040.0 -0.1549262306 0.0753739587 0.5275146421 -0.1583845434 0.5279795779 -0.1588662798 -0.1588261818 0.0825684954
165299010.0 -0.1543160991 0.0763057534 0.5265024961 -0.1653067746 0.5266046043 -0.1652825098 -0.1580390176 0.0831172424
170298980.0 -0.153729073 0.0772200905 0.5240857828 -0.1715640202 0.524718435 -0.1713993519 -0.1569636354 0.0841576554
175298950.0 -0.1527520916 0.0780791469 0.523275507 -0.1774374165 0.5233483938 -0.1781695501 -0.1558203657 0.0857414921
180298920.0 -0.1518844114 0.0790351889 0.5212358506 -0.184049861 0.5216261291 -0.1839488509 -0.1548133446 0.0873634714
185298890.0 -0.1509437865 0.0802055319 0.5192254246 -0.1906798235 0.5196625819 -0.1902794513 -0.1540841639 0.0878704956
190298860.0 -0.1500833619 0.0811544242 0.5172971454 -0.1966044201 0.5178203695 -0.1966514938 -0.1527233568 0.0894014879
195298830.0 -0.1496358087 0.0820973548 0.5158340267 -0.2025778266 0.5157881079 -0.2031324568 -0.1520252544 0.0904206037
200298800.0 -0.1492417704 0.0833283061 0.5138168855 -0.2083178864 0.5137718028 -0.2087754302 -0.1505316303 0.0923315823
205298770.0 -0.1483489083 0.084549014 0.5117120108 -0.2145313982 0.511632263 -0.2149594881 -0.1501599997 0.0933254452
210298740.0 -0.1477324809 0.085542796 0.5095565763 -0.2211828315 0.509389018 -0.2214264162 -0.1490568679 0.0949850446
215298710.0 -0.1465952086 0.0869806907 0.5071100952 -0.2266977527 0.5069127581 -0.226685732 -0.1483959955 0.0961200141
220298680.0 -0.1459332542 0.0881420607 0.5044099154 -0.2326223882 0.5045722179 -0.2327325737 -0.1471482064 0.0977798967
225298650.0 -0.1449926526 0.0892073484 0.502158435 -0.2381947726 0.5021052114 -0.2381431574 -0.1463336622 0.0991355306
230298620.0 -0.1448269057 0.090615066 0.4995522774 -0.2444641223 0.4997799144 -0.244721104 -0.1452735615 0.10025622
235298590.0 -0.1438580892 0.0916964161 0.4967967139 -0.249417228 0.4969621576 -0.2505056842 -0.1441590261 0.1015737204
240298560.0 -0.143282308 0.0932017182 0.4944224011 -0.2554190043 0.4944107233 -0.2552812143 -0.1432163664 0.1034286667
245298530.0 -0.141971736 0.0941699612 0.4907403819 -0.2615454082 0.4913376022 -0.2615284109 -0.1419425157 0.1050461766
250298500.0 -0.1415316854 0.0953705059 0.4887206965 -0.266790188 0.4889947891 -0.2664242552 -0.1405186248 0.1060033779
255298470.0 -0.1408352427 0.0968914055 0.4855121805 -0.2728884314 0.4856204365 -0.272592763 -0.1396807951 0.1074993314
260298440.0 -0.1396937322 0.0981105298 0.4826319238 -0.2777284739 0.4828529868 -0.2784125068 -0.1384439281 0.1091673137
265298410.0 -0.1386311585 0.0996010154 0.4795620507 -0.2840806717 0.4794157611 -0.2838167004 -0.1372891094 0.1102767367
270298380.0 -0.1378001438 0.1006734043 0.4764505086 -0.2891032272 0.4770157107 -0.2892252094 -0.136045572 0.112243043
275298350.0 -0.1371329355 0.1018828206 0.4733734462 -0.2947116694 0.4736227263 -0.2944846063 -0.1349728787 0.1135732777
280298320.0 -0.1361192915 0.1032371248 0.4698685929 -0.2994549763 0.4704821026 -0.3002774608 -0.1335545242 0.114901632
285298290.0 -0.1353896592 0.1048187065 0.466895869 -0.3051966464 0.4668849722 -0.3053603943 -0.1325395745 0.1164402764
290298260.0 -0.1342124812 0.1060287275 0.4637624204 -0.3107142895 0.4639110202 -0.3106038576 -0.1309305176 0.1178693266
295298230.0 -0.1333894523 0.1074296213 0.4606019216 -0.3160957042 0.4601006718 -0.315932338 -0.1295392137 0.119565562
300298200.0 -0.1320043422 0.1085491066 0.4566063095 -0.3211033432 0.4570417684 -0.3214359199 -0.1285458531 0.1208880492
305298170.0 -0.1311515959 0.1095335347 0.4536478599 -0.3268682624 0.4535682657 -0.3264720211 -0.1265238723 0.1226043546
310298140.0 -0.1297541108 0.1107831821 0.449968397 -0.3320118239 0.4499579117 -0.3317379718 -0.125702243 0.1239214559
315298110.0 -0.1292803492 0.1121681019 0.4463952943 -0.3369330043 0.446489696 -0.3371919808 -0.1240353489 0.1251441523
320298080.0 -0.128170899 0.1132143398 0.4424520312 -0.3419896939 0.4428933775 -0.3420999976 -0.1227572142 0.126380312
325298050.0 -0.1272306185 0.1142466071 0.4386599222 -0.3473471039 0.4389618399 -0.3470373862 -0.1216642189 0.1277636479
330298020.0 -0.1263802284 0.1157102901 0.4338719224 -0.3524493449 0.4341766198 -0.3522823609 -0.1204110172 0.1286990628
335297990.0 -0.1253075735 0.1167487307 0.4303608174 -0.3568576164 0.4307463739 -0.3571890753 -0.1190860251 0.1302309562
340297960.0 -0.1246852454 0.118237781 0.4259136847 -0.3618230187 0.4265318735 -0.3615029091 -0.118078987 0.1317646458
345297930.0 -0.1237230059 0.1195358199 0.4225307169 -0.3656490464 0.4221392646 -0.3663298416 -0.1163229366 0.1330458184
350297900.0 -0.1221977612 0.1209341062 0.4178003361 -0.3707659406 0.4187580788 -0.3710449447 -0.115266091 0.1349220149
355297870.0 -0.1213853656 0.1220105185 0.4139866085 -0.3755120454 0.4136860186 -0.3758909349 -0.1138193517 0.1365435751
360297840.0 -0.1203390478 0.1234651078 0.4100952054 -0.3802745197 0.4098316287 -0.3804862191 -0.1121950076 0.1381309653
365297810.0 -0.118920064 0.1249327179 0.4050576612 -0.3847012337 0.4056058496 -0.3845785548 -0.1108029117 0.1394930458
370297780.0 -0.1177054666 0.1258678301 0.4008797953 -0.3887383821 0.4017418515 -0.3893306919 -0.1092511331 0.1407443655
375297750.0 -0.1169110607 0.1274366884 0.3977277983 -0.3935420909 0.3970497084 -0.3939339072 -0.1076265321 0.1423030011
380297720.0 -0.1154855302 0.12820808 0.392615503 -0.3975145073 0.3929905211 -0.3978693563 -0.1060198742 0.1438897841
385297690.0 -0.1143031851 0.1300565492 0.3882337654 -0.4019700113 0.3878840473 -0.4021444803 -0.1043875642 0.1450056872
390297660.0 -0.1132949499 0.1311084189 0.3836251753 -0.4069044445 0.3838761107 -0.4069735119 -0.1027280212 0.1462899538
395297630.0 -0.1117697975 0.1323075195 0.379642607 -0.410568499 0.3793696281 -0.4107462947 -0.1014762934 0.1481157689
400297600.0 -0.1107498303 0.1335977135 0.3747957879 -0.4149550869 0.3747608766 -0.4151910436 -0.1001813327 0.1489266254
405297570.0 -0.1091116244 0.1347165461 0.3703175482 -0.4185629308 0.3702558498 -0.4188752159 -0.0980852843 0.1505296198
410297540.0 -0.1078788451 0.1356344419 0.3647932166 -0.4224802209 0.3655138653 -0.4228636803 -0.0967418196 0.1518334666
415297510.0 -0.1067123848 0.1373621371 0.3608009979 -0.4268200694 0.3611084977 -0.4267448159 -0.0953464625 0.1534925565
420297480.0 -0.105350148 0.1381923127 0.3561157315 -0.430893095 0.3562035119 -0.4306845192 -0.0933936685 0.1542017896
425297450.0 -0.1037910627 0.1392620181 0.3514755562 -0.4346260824 0.3518294255 -0.4346704126 -0.0916308816 0.1559416786
430297420.0 -0.1028317717 0.1405183278 0.3466079297 -0.4388329003 0.3469784174 -0.4389381714 -0.0901087007 0.1570122141
435297390.0 -0.1011342146 0.141402113 0.3419510003 -0.4418018344 0.3422222236 -0.4422784295 -0.0886168531 0.1582585663
440297360.0 -0.0996937452 0.1425774454 0.336861147 -0.4458712044 0.3368788512 -0.4461293763 -0.0867783112 0.1589333194
445297330.0 -0.098181855 0.1436499988 0.3319601965 -0.4497172267 0.3320583133 -0.4495025039 -0.0848434321 0.1602079108
450297300.0 -0.0969464418 0.1446486904 0.3270518409 -0.4534603957 0.3270812349 -0.4534991768 -0.0835206312 0.1617847458
455297270.0 -0.0958057436 0.145742149 0.3223336063 -0.4567181167 0.3223388533 -0.4565813655 -0.0812380843 0.1628471983
460297240.0 -0.0946724963 0.1467044528 0.3172591699 -0.4597586643 0.3166912518 -0.4601456056 -0.0796391302 0.1641547309
465297210.0 -0.0927575721 0.1477836185 0.3124391525 -0.4635947379 0.3125068649 -0.4636199518 -0.0783539148 0.1648831729
470297180.0 -0.0916470938 0.1490049874 0.3074855962 -0.4670202869 0.3077789234 -0.4671897187 -0.0768091653 0.165989944
475297150.0 -0.0901924635 0.1498394447 0.3017525024 -0.4702317276 0.3022598793 -0.4696168647 -0.0744587755 0.1669957261
480297120.0 -0.088348683 0.1503153871 0.2967250959 -0.4730815006 0.2969268143 -0.4734313873 -0.0730143279 0.1685437595
485297090.0 -0.0868230817 0.1517529922 0.2916269368 -0.4764051342 0.2918090538 -0.4766006479 -0.0715628818 0.1691616499
490297060.0 -0.0855335019 0.1525572956 0.2866960213 -0.4795037247 0.2865935204 -0.4798846179 -0.0693021043 0.1704769927
495297030.0 -0.0840942661 0.1538103153 0.2808742993 -0.4826731202 0.2807864278 -0.4828572284 -0.067357318 0.170884975
500297000.0 -0.082283984 0.1543543856 0.2756660962 -0.4856928907 0.2760039749 -0.4857985312 -0.0657007426 0.1719783072
505296970.0 -0.0810645517 0.1552604123 0.2698120446 -0.4885380481 0.2703898489 -0.4884416982 -0.0642659302 0.1730298645
510296940.0 -0.0793765713 0.1564562972 0.2646661447 -0.4915082637 0.2651939468 -0.49137833 -0.061788255 0.1742010067
515296910.0 -0.0782421017 0.1574469759 0.25889799 -0.4945276133 0.2598711249 -0.4948868027 -0.0603762707 0.1747669683
520296880.0 -0.0766102562 0.1580314953 0.2544709775 -0.4971101874 0.2544972046 -0.4968483786 -0.0584405358 0.1755598279
525296850.0 -0.0752130578 0.1588591121 0.248886031 -0.4998103762 0.2492346209 -0.5002854176 -0.0561042017 0.1764323052
530296820.0 -0.0734474396 0.159923627 0.2436488998 -0.5022875441 0.2438148346 -0.50240121 -0.0549174756 0.1766525951
535296790.0 -0.0719826524 0.1603967865 0.2377898258 -0.5047760222 0.2385159244 -0.5047807111 -0.0527650469 0.177818193
540296760.0 -0.070515142 0.1613158196 0.23257579 -0.5078813358 0.2323692026 -0.5080705927 -0.0509418574 0.1789414567
545296730.0 -0.0688433374 0.1624614292 0.2266978074 -0.5097318322 0.226974752 -0.5106471147 -0.0491504718 0.1792514615
550296700.0 -0.0674708016 0.1630255581 0.2215149824 -0.5124041609 0.2221051719 -0.5127759575 -0.0472814343 0.1805989554
555296670.0 -0.0652492341 0.1634282219 0.2154667353 -0.5150556564 0.2161332725 -0.5146523103 -0.0453472942 0.180975983
560296640.0 -0.0641620909 0.1643456367 0.2105036968 -0.516800847 0.2104452491 -0.5169188955 -0.0433136297 0.1815708045
565296610.0 -0.0629207332 0.1651699891 0.2049500816 -0.5193788968 0.2044624231 -0.5191819807 -0.0417199254 0.1820918826
570296580.0 -0.0604537811 0.1656664434 0.1990788533 -0.521021839 0.1990168195 -0.5216754804 -0.0394594575 0.1830018626
575296550.0 -0.0595689766 0.1671253185 0.1931808889 -0.523352802 0.1937524508 -0.5233656282 -0.0371917487 0.1833426964
580296520.0 -0.0578806708 0.1674990931 0.1880038576 -0.5256336328 0.187829746 -0.5256433163 -0.0355782244 0.1840971177
585296490.0 -0.0559784149 0.1676258223 0.1824911186 -0.5271253872 0.1818817263 -0.527521465 -0.0335904398 0.1840312924
590296460.0 -0.0547824206 0.1683222586 0.1765141588 -0.5291979346 0.1759400091 -0.5296668977 -0.0311178 0.1849370986
595296430.0 -0.0530084235 0.1695388348 0.1709674941 -0.5311126866 0.1702385324 -0.5317911654 -0.0292001338 0.1852139125
600296400.0 -0.0512514535 0.1701066627 0.164652043 -0.5329833593 0.1651593735 -0.5335787138 -0.0272602158 0.1859590217
605296370.0 -0.0492066567 0.1708377372 0.159147986 -0.5349637264 0.1592443635 -0.5349705792 -0.0254593276 0.1863111561
610296340.0 -0.0478592872 0.1714804204 0.1533687624 -0.536701545 0.1535190052 -0.5367069279 -0.0233085635 0.1871206028
615296310.0 -0.0462626913 0.1720668037 0.1472169612 -0.5379648445 0.1475614441 -0.5383190696 -0.0213275181 0.1875144161
620296280.0 -0.044566338 0.1723134803 0.1419914724 -0.5395661994 0.1414860647 -0.5394927766 -0.0193635369 0.1873397998
625296250.0 -0.0426807625 0.1730950912 0.1352747584 -0.5414202334 0.1358108812 -0.5414755043 -0.0174098143 0.1882807714
630296220.0 -0.0411301316 0.1739215392 0.1295188761 -0.5427656789 0.1300958822 -0.5424891158 -0.0155551012 0.1881674404
635296190.0 -0.0396212647 0.1742114593 0.1240302046 -0.5433620217 0.1238408877 -0.5434918015 -0.0136202419 0.1886527202
640296160.0 -0.0379101225 0.1745499756 0.1181335493 -0.544663695 0.11799598 -0.5454542642 -0.01102476 0.1888840696
645296130.0 -0.0361787647 0.1752953373 0.1122589358 -0.5458741971 0.1124743175 -0.5465421403 -0.009986201 0.1889403741
650296100.0 -0.0346096078 0.1762273541 0.1072857012 -0.5470565649 0.1067499215 -0.5473984276 -0.0071037377 0.1894279581
655296070.0 -0.0328492872 0.1760899867 0.1007243342 -0.5483110758 0.1004394841 -0.5484261844 -0.0046548776 0.1897092559
660296040.0 -0.0313114397 0.1773706318 0.0948151913 -0.5493363267 0.0949874809 -0.5492512963 -0.0033109123 0.1897395815
665296010.0 -0.029152568 0.1768746914 0.0887609981 -0.5506049461 0.0893892483 -0.5506494073 -0.0010874385 0.1901511442
670295980.0 -0.0273669286 0.1777497935 0.0827218792 -0.551014921 0.0829299354 -0.5511653767 0.0006296884 0.1900844986
675295950.0 -0.0255666883 0.1779704744 0.0764150063 -0.5522403375 0.0771797747 -0.5526778778 0.0030650979 0.1905218646
680295920.0 -0.0241802978 0.1787714393 0.0707255569 -0.5528295645 0.0707439978 -0.5532709404 0.0053358728 0.1905210766
685295890.0 -0.022438777 0.1789415713 0.0651269261 -0.5534830168 0.0646472577 -0.5541519183 0.0073082938 0.1906407747
690295860.0 -0.0203736581 0.179404711 0.0586694022 -0.5538970908 0.0586343941 -0.5541690171 0.0097324501 0.1907002428
695295830.0 -0.01860238 0.179396468 0.0523711637 -0.5547414135 0.0525357026 -0.5548974204 0.0110563025 0.1906668491
700295800.0 -0.016751791 0.1798697754 0.0466502215 -0.5548721806 0.0470198627 -0.5555446761 0.0132291412 0.1904083034
705295770.0 -0.0150627579 0.1805654358 0.0407322483 -0.5557729741 0.0412247182 -0.5559298198 0.0149708577 0.1908725648
710295740.0 -0.0132234977 0.1809186792 0.0346104852 -0.5560026636 0.0349211334 -0.5559699414 0.016728429 0.1909161321
715295710.0 -0.0115909565 0.1809663465 0.0285475883 -0.5561490276 0.0292877355 -0.5568519867 0.019249188 0.1905364919
720295680.0 -0.0100957975 0.1808718867 0.0229769518 -0.5564789717 0.0228166163 -0.5572437677 0.0217125654 0.1905799193
725295650.0 -0.0078184231 0.1815522029 0.0165440281 -0.5564674657 0.0167537066 -0.5570771129 0.023673882 0.1905672317
730295620.0 -0.0065136114 0.1815144337 0.010727128 -0.5568558785 0.0108984878 -0.5570227535 0.0260542414 0.189764598
735295590.0 -0.0042766065 0.1818672983 0.0051488268 -0.5570743638 0.0051010931 -0.5571527747 0.0281199507 0.1903266014
740295560.0 -0.0026792384 0.1821791748 -0.0011632034 -0.5565313005 -0.0010917492 -0.5570821111 0.0302456061 0.1898629849
745295530.0 -0.0006951399 0.1819973623 -0.0073386045 -0.5564855494 -0.0071517324 -0.5574333542 0.0319632911 0.1899128462
750295500.0 0.0009617874 0.1824806677 -0.013063609 -0.5565387692 -0.0133910884 -0.5564706066 0.0343962571 0.1891922818
755295470.0 0.0029807886 0.1825776956 -0.018926104 -0.5563906005 -0.0186756307 -0.5566673354 0.0357930889 0.1895042301
760295440.0 0.004596948 0.1827023389 -0.0251933393 -0.5563338877 -0.0252776771 -0.5563168466 0.0376979979 0.1890856954
765295410.0 0.0063036825 0.1824796435 -0.030887365 -0.5556833112 -0.0309549229 -0.5563137355 0.0405401636 0.1889032196
770295380.0 0.0081501256 0.1829633057 -0.0373865814 -0.5552996546 -0.0369524626 -0.5561278906 0.0429266692 0.1885302357
775295350.0 0.0098658089 0.1832252806 -0.0430315343 -0.5548325574 -0.043069079 -0.5553162148 0.0441143315 0.1880609405
780295320.0 0.0119243545 0.1829283362 -0.0488335927 -0.5543457628 -0.0488131095 -0.554978935 0.0463505843 0.1880457606
785295290.0 0.0135309433 0.1832166776 -0.0550218024 -0.5535868649 -0.0549208926 -0.5540166336 0.0480577666 0.1875892294
790295260.0 0.0153752109 0.183157347 -0.060690872 -0.5532361431 -0.0605792082 -0.5534942442 0.0506480639 0.1871926844
795295230.0 0.0170642863 0.1834911608 -0.0669606358 -0.5522114991 -0.0669009179 -0.5526835079 0.0525450173 0.1876371834
800295200.0 0.0189296951 0.1832223491 -0.0733198173 -0.5516085675 -0.0732692201 -0.5523297174 0.0546520786 0.1865949071
805295170.0 0.0205924797 0.1832694242 -0.0789462364 -0.550628617 -0.0789160549 -0.5508358671 0.0563913195 0.1857203024
810295140.0 0.0225977316 0.1831704194 -0.0847513719 -0.5498640732 -0.0844154477 -0.5506758688 0.0589407678 0.1857920481
815295110.0 0.0243618405 0.1831228789 -0.0910035343 -0.5486853084 -0.0910266982 -0.5491191331 0.0601905786 0.1852315854
820295080.0 0.0261553166 0.1826457835 -0.0962796861 -0.5481126868 -0.0964987371 -0.5484617052 0.0626339096 0.1845423768
825295050.0 0.0279029821 0.1826125558 -0.1023249965 -0.5462232088 -0.1023620291 -0.5468469219 0.0647328949 0.1844612983
830295020.0 0.0299295001 0.1828902754 -0.1084811313 -0.5459231207 -0.1086825921 -0.5457408387 0.0662680672 0.1835915034
