!Created with skrf (http://scikit-rf.org).
# Hz S RI R 50.0 
!freq ReS11 ImS11 ReS21 ImS21 ReS12 ImS12 ReS22 ImS22
300000.0 -0.7691139543 -0.1718193061 0.0010182691 0.0012144771 0.001041268 0.0004680666 -0.7658700942 -0.1919900935
5299970.0 -0.7860494064 -0.009128005 8.94419e-05 0.0001293421 0.0001502065 0.0001833113 -0.7850488386 -0.0094703884
10299940.0 -0.7895523152 -0.0057842563 -0.0001170279 4.8721e-06 0.0001871112 9.23504e-05 -0.7875054713 -0.0055747336
15299910.0 -0.7940829168 -0.002818213 -9.95507e-05 0.0001722679 0.0001411103 8.10726e-05 -0.7927777841 -0.0024890809
20299880.0 -0.8011160992 0.0005917805 3.05495e-05 -0.0001235079 -4.18129e-05 8.27841e-05 -0.7994734103 0.0018560651
25299850.0 -0.8076591444 0.0068543256 -7.50401e-05 0.000173967 7.29773e-05 -6.6471e-06 -0.8059713017 0.0079775255
30299820.0 -0.8136409612 0.0137862842 -0.0001765969 0.0002664875 0.0001658243 0.0003406747 -0.8119642313 0.0154533264
35299790.0 -0.8187176995 0.0229158156 3.85789e-05 -0.0001108472 -0.0001514181 8.51457e-05 -0.8170027989 0.0248146823
40299760.0 -0.82389246 0.0314548291 6.692e-06 -3.82329e-05 5.53606e-05 0.0001016578 -0.8212734566 0.0336445667
45299730.0 -0.8269764429 0.0419939188 -7.4756e-06 6.33275e-05 -0.0001037019 7.81445e-05 -0.8236488007 0.0435711897
50299700.0 -0.8296593832 0.0517186585 -0.0001900136 -1.47063e-05 -7.40108e-05 5.38972e-05 -0.826591796 0.0539645287
55299670.0 -0.8314130233 0.0613478434 -6.79068e-05 0.0001334027 0.0001478112 -4.99239e-05 -0.8289009105 0.0637518783
60299640.0 -0.832110418 0.0717731214 -6.08137e-05 2.9075e-06 0.0002157907 0.0001763317 -0.8301081421 0.0743785335
65299610.0 -0.8335440137 0.0815207869 1.86757e-05 7.9696e-05 -0.0001614993 0.0001119908 -0.830507287 0.0840053662
70299580.0 -0.8335149328 0.0915715172 4.3622e-05 1.0967e-06 5.90363e-05 8.34416e-05 -0.8312001836 0.0937226751
75299550.0 -0.8341058438 0.1015580393 -7.02225e-05 3.81658e-05 4.70982e-05 -2.10242e-05 -0.8309060317 0.1040873984
80299520.0 -0.8336739265 0.1117566367 -4.25694e-05 7.82596e-05 -0.0001140606 4.22764e-05 -0.8308143429 0.1137437729
85299490.0 -0.8325846517 0.1211065744 -6.28899e-05 -0.0001353957 2.33972e-05 -3.05197e-05 -0.8303755461 0.1233793172
90299460.0 -0.8320974434 0.1314744532 9.62675e-05 0.00011119 -0.0002550339 -3.142e-05 -0.8286846585 0.1325268207
95299430.0 -0.8315409125 0.1402782812 -8.67347e-05 2.74564e-05 -0.0002066716 -3.08803e-05 -0.8280866692 0.1424794173
100299400.0 -0.8300906937 0.1498802682 -7.00799e-05 -8.66851e-05 -4.82537e-05 0.0001720768 -0.8277359112 0.1520410513
105299370.0 -0.8286573002 0.1594297906 0.0001206747 2.85097e-05 -0.0002242488 -0.000120071 -0.8259589776 0.1607765408
110299340.0 -0.8272415819 0.1684191137 -3.76913e-05 -0.0002589298 -5.038e-06 -0.0001064697 -0.8244194702 0.1696656317
115299310.0 -0.8261763466 0.1775933865 -6.70008e-05 6.82698e-05 -0.0001447196 9.7003e-06 -0.823256386 0.1791199848
120299280.0 -0.8250607364 0.1866951976 -0.0001127928 0.0001500804 -0.0002782871 -0.0001162942 -0.8206833885 0.1879225718
125299250.0 -0.8223003472 0.1953891354 0.0001063441 5.48794e-05 -4.52644e-05 -0.0001348508 -0.8199026341 0.1970766104
130299220.0 -0.8210205232 0.2050703171 -0.0001495167 2.10827e-05 -8.59459e-05 8.9007e-06 -0.8178745916 0.205816759
135299190.0 -0.8184746295 0.2145270942 -5.4788e-06 -0.0001715142 -8.05574e-05 -2.7618e-06 -0.8161531025 0.2150667609
140299160.0 -0.8169869724 0.2233654942 0.0001831731 -0.0001452379 -2.07811e-05 6.9844e-05 -0.8142635068 0.2231649159
145299130.0 -0.8147850192 0.2319684751 -7.26211e-05 0.0001916373 0.0001719745 -4.81653e-05 -0.8120374724 0.2322706881
150299100.0 -0.812182374 0.2411765839 -6.87583e-05 -1.41257e-05 0.0001134282 -0.0001233042 -0.8098005844 0.241284649
155299070.0 -0.810332233 0.2498025096 -0.0003336723 0.0001281498 -8.13819e-05 5.0086e-05 -0.8071098153 0.2507856448
160299040.0 -0.8078287444 0.2588771838 0.0003109424 -5.6833e-06 -2.01615e-05 -0.0003183082 -0.8047122609 0.2591397023
165299010.0 -0.804469796 0.2675652483 0.0001244812 0.0001827296 3.13431e-05 -9.50407e-05 -0.8015879007 0.2669666193
170298980.0 -0.8015755305 0.2762254567 9.84439e-05 1.89118e-05 -1.8761e-06 -0.0002585947 -0.7993750681 0.2755324698
175298950.0 -0.7989129373 0.2844929316 6.4679e-05 -4.75327e-05 1.25137e-05 0.0001901583 -0.796482992 0.2845762419
180298920.0 -0.7960947784 0.29288252 -0.0001539376 2.30774e-05 3.15781e-05 9.70029e-05 -0.7931232176 0.293258578
185298890.0 -0.7923125994 0.3021279958 0.0001738033 7.73845e-05 -0.0001372286 -0.0001132242 -0.7904158303 0.3014385977
190298860.0 -0.7895044213 0.3109395987 1.97709e-05 -0.0001851927 0.0002303449 2.74515e-05 -0.7870206835 0.3099835982
195298830.0 -0.7858924872 0.319575 -1.2192e-06 -0.000121572 4.79124e-05 0.0001474744 -0.7838491852 0.3180158328
200298800.0 -0.7829153172 0.3278741874 5.7229e-06 -0.0002105309 -9.39109e-05 0.0001016371 -0.7809364126 0.3265408129
205298770.0 -0.7795669379 0.3364423145 2.48451e-05 5.8532e-05 6.66886e-05 -2.69699e-05 -0.7775630208 0.3352582447
210298740.0 -0.7754800326 0.3442608815 0.0001064637 -0.0001425841 0.0002147579 5.74505e-05 -0.7742837016 0.3428456477
215298710.0 -0.7724444048 0.353136587 0.0001400229 3.73576e-05 8.36443e-05 2.22948e-05 -0.770438214 0.3512204697
220298680.0 -0.768574088 0.3604660466 0.0001297229 0.000218816 9.12378e-05 -3.76579e-05 -0.7667232992 0.3598225094
225298650.0 -0.7646266696 0.3696489094 9.97092e-05 0.0001801723 -8.71399e-05 -0.0001083129 -0.7632016215 0.3678487586
230298620.0 -0.7610896969 0.3775923259 8.90571e-05 6.888e-07 9.39425e-05 -0.0002086906 -0.7591813822 0.3752655857
235298590.0 -0.7573487178 0.3863728292 -8.32479e-05 1.24493e-05 0.0001586263 1.47018e-05 -0.7549902521 0.3833193259
240298560.0 -0.7534920708 0.3935545119 0.000272831 -0.0001251023 7.60147e-05 0.0001895023 -0.7511097553 0.390995524
245298530.0 -0.7487202174 0.4017008117 -3.17945e-05 8.64013e-05 -8.84043e-05 0.0001286405 -0.7475740438 0.3991496258
250298500.0 -0.7446987384 0.4093181329 -7.59664e-05 0.0001596424 1.59581e-05 -9.72332e-05 -0.7431245414 0.4070460266
255298470.0 -0.7406389101 0.4175555701 -6.14584e-05 -0.0001730952 8.41968e-05 7.05263e-05 -0.7394454588 0.4143503532
260298440.0 -0.7362096948 0.4249220303 -9.86091e-05 -7.14199e-05 8.54051e-05 3.29692e-05 -0.733906624 0.4223013445
265298410.0 -0.7319820205 0.4326151279 -8.93041e-05 -7.59498e-05 8.78611e-05 0.0002431303 -0.7300987608 0.4302875858
270298380.0 -0.7271624693 0.4408640316 -3.14649e-05 0.0002062135 -3.10067e-05 -2.3458e-05 -0.7248885512 0.4382411415
275298350.0 -0.7236182654 0.4482110877 1.41e-07 0.0001702157 -5.95504e-05 5.91971e-05 -0.7206085252 0.4455595532
280298320.0 -0.7182702748 0.4555702667 2.0048e-06 3.07643e-05 5.91103e-05 3.826e-05 -0.7160759071 0.4529315847
285298290.0 -0.7135352669 0.4636358999 6.58371e-05 -4.20574e-05 0.0001444055 9.88188e-05 -0.7119114208 0.4605712925
290298260.0 -0.7084421035 0.4709090878 -0.00012046 -4.28243e-05 -0.0002385445 0.0001068417 -0.7063588883 0.4675631065
295298230.0 -0.7039811791 0.4781525866 -0.0001159474 -5.37396e-05 -9.05154e-05 -0.0001429901 -0.7015798381 0.4747206594
300298200.0 -0.6991129556 0.4855822964 -8.9148e-06 0.0001698078 -2.83164e-05 -7.57125e-05 -0.6963666053 0.4821824048
305298170.0 -0.6946278319 0.4918632069 8.80633e-05 3.61842e-05 -0.0001215831 5.98273e-05 -0.6915468688 0.4892823259
310298140.0 -0.688935225 0.4995131052 0.0002420394 8.6676e-05 4.2696e-05 -7.43982e-05 -0.6862887851 0.4967459476
315298110.0 -0.6845877383 0.5071261382 0.0001426908 -6.73737e-05 0.0001429241 -0.0001130854 -0.6810825802 0.503711691
320298080.0 -0.6789809393 0.5146355059 7.91178e-05 -0.0001177984 -8.53673e-05 0.0001225589 -0.676231601 0.5104695677
325298050.0 -0.6734684252 0.5206679486 3.90919e-05 0.0001561987 3.32387e-05 -1.13778e-05 -0.6701540561 0.5177243858
330298020.0 -0.6679889209 0.5275022275 -4.52633e-05 -0.0001075309 -7.67142e-05 -4.64461e-05 -0.6650679759 0.5249069675
335297990.0 -0.6628664117 0.5347269804 -0.0001717741 5.48364e-05 0.0002937417 -4.24569e-05 -0.6597166356 0.5311509527
340297960.0 -0.6573412175 0.5418059384 -7.18669e-05 -5.93375e-05 3.2942e-05 -0.0001712863 -0.6539671865 0.5382624759
345297930.0 -0.6523852881 0.5481596456 -9.01875e-05 -7.24863e-05 -0.0003521327 0.000111169 -0.6484964255 0.5448509886
350297900.0 -0.6462719368 0.5545110971 0.0001234728 -7.4463e-05 -7.00071e-05 -4.40679e-05 -0.643480696 0.5504931018
355297870.0 -0.64090001 0.5613465343 2.10874e-05 -9.41532e-05 -0.0001158495 -0.0001525663 -0.6369141748 0.5582301313
360297840.0 -0.6343639816 0.567989663 -0.0001981182 3.45084e-05 -4.1976e-06 -9.18039e-05 -0.6306018134 0.5648411607
365297810.0 -0.6292241621 0.5747614976 0.0002186872 6.71957e-05 -3.00202e-05 1.10908e-05 -0.6254440252 0.5707828814
370297780.0 -0.6233761018 0.5807589021 5.1609e-06 3.8241e-06 -0.0001534487 2.37408e-05 -0.6195107867 0.5778654165
375297750.0 -0.6182219878 0.5874245644 -1.79308e-05 4.32269e-05 0.0003447561 -0.0001819988 -0.6131336799 0.5837351454
380297720.0 -0.611602163 0.5931652354 -0.0001155736 -0.0001708911 -5.59919e-05 2.2921e-05 -0.6066359885 0.5906184526
385297690.0 -0.6060693455 0.5990261352 1.50883e-05 -5.2155e-06 8.71015e-05 4.0085e-06 -0.6014363022 0.5966140384
390297660.0 -0.5989410958 0.6053610144 -7.63237e-05 -8.6561e-06 7.36507e-05 -1.10451e-05 -0.5940596438 0.6020765496
395297630.0 -0.5927338841 0.6122216601 -7.51876e-05 7.3192e-06 0.0001473957 -8.6796e-05 -0.5880615348 0.6077568646
400297600.0 -0.5869168425 0.6182646387 -0.0001865717 -0.0001727665 -0.0001114145 -0.000117693 -0.5826495753 0.6139471255
405297570.0 -0.5808202071 0.6233567921 -6.39147e-05 0.0002714983 6.26023e-05 -5.9055e-05 -0.5756844868 0.6199572296
410297540.0 -0.5736958189 0.6298006018 0.0001408932 -4.45902e-05 -1.58521e-05 -7.73843e-05 -0.5691365947 0.6259842827
415297510.0 -0.5679010321 0.6358140726 6.73465e-05 9.87797e-05 -2.41232e-05 2.07432e-05 -0.5630669554 0.6313883038
420297480.0 -0.560875075 0.6409754319 -7.891e-06 -0.0001597202 -2.34865e-05 5.40774e-05 -0.5562154809 0.6379154085
425297450.0 -0.55410749 0.646577147 0.0004758139 -6.33645e-05 9.386e-07 -4.2442e-06 -0.549248981 0.6424578434
430297420.0 -0.5483464668 0.6519114831 -7.81042e-05 -0.0001239079 2.39573e-05 9.91927e-05 -0.5430820247 0.648789185
435297390.0 -0.5410042054 0.6571958549 9.05229e-05 4.70989e-05 2.33224e-05 -0.0001853 -0.5363809557 0.6539618636
440297360.0 -0.5340843935 0.6627223922 4.47918e-05 0.0001271264 -0.0001794824 0.0002231693 -0.5303659099 0.6591975742
445297330.0 -0.5272853087 0.6676782667 -1.19836e-05 -4.34192e-05 -2.58107e-05 0.0001108062 -0.5226701358 0.6647939678
450297300.0 -0.5198821807 0.6733747481 -9.4066e-06 0.0001509409 -4.29576e-05 0.0001462461 -0.5161783473 0.6697449951
455297270.0 -0.5139106842 0.678795143 -6.1956e-06 -6.35716e-05 9.90722e-05 7.13391e-05 -0.5093233977 0.6753701218
460297240.0 -0.5063090054 0.6843499442 -6.03624e-05 7.06725e-05 -1.28256e-05 -0.0001173343 -0.5022847665 0.6796177824
465297210.0 -0.4994929142 0.6890932446 -2.93084e-05 0.0001358621 -8.1134e-05 0.000138556 -0.495831332 0.6861149856
470297180.0 -0.491743059 0.6942944825 -1.80164e-05 -3.18604e-05 -7.97665e-05 -5.9292e-06 -0.4881068289 0.6901368792
475297150.0 -0.485129527 0.6989375546 4.02781e-05 -2.76553e-05 -0.0001264536 -0.0002340913 -0.4808811104 0.6950512062
480297120.0 -0.4767092033 0.7043527912 9.68084e-05 0.0001045611 2.67047e-05 -0.0001881105 -0.4744980478 0.6999184405
485297090.0 -0.4700651631 0.7086306983 4.7286e-06 1.5984e-05 -5.9736e-05 -9.36412e-05 -0.4675268567 0.7046211473
490297060.0 -0.462084417 0.7134665153 0.0001531369 -2.02987e-05 2.62476e-05 -6.3685e-06 -0.4594803114 0.7087492435
495297030.0 -0.4548864813 0.7183730719 1.8053e-05 5.34526e-05 2.50645e-05 -0.000128704 -0.4526559848 0.7138871886
500297000.0 -0.4476887258 0.7222040833 4.156e-05 -3.86873e-05 3.99478e-05 0.0002424026 -0.4450938388 0.718324514
505296970.0 -0.4394562908 0.7274730618 5.81779e-05 7.06159e-05 -2.27843e-05 0.0001187243 -0.4373393985 0.7227510466
510296940.0 -0.431745398 0.731479095 6.36696e-05 -0.0001476464 6.15784e-05 2.79507e-05 -0.4298388559 0.7274127954
515296910.0 -0.4246292086 0.7356400064 -0.0001271799 -7.45354e-05 7.58725e-05 1.39976e-05 -0.4230413446 0.7312347225
520296880.0 -0.4162889761 0.7398373005 -2.07063e-05 5.62229e-05 0.000283833 -8.05766e-05 -0.415478606 0.7359493201
525296850.0 -0.408619865 0.7444344929 0.0001881923 -9.44257e-05 9.91696e-05 0.0001251992 -0.4081858117 0.7397199371
530296820.0 -0.4016607474 0.7476011251 -7.21909e-05 0.0001364322 -3.608e-05 -9.35035e-05 -0.4007490041 0.7434238587
535296790.0 -0.3931646214 0.7519304375 -8.1124e-06 0.0001272406 -4.66893e-05 -0.0001970392 -0.393013903 0.7479821105
540296760.0 -0.3848964096 0.7557276978 -8.05844e-05 -2.79171e-05 -9.4355e-06 -4.49083e-05 -0.3852711814 0.7516221078
545296730.0 -0.377526312 0.7604820389 -2.80128e-05 -4.46408e-05 0.0001472284 7.24109e-05 -0.3779929395 0.7551936132
550296700.0 -0.3694003975 0.7638932555 -1.25386e-05 -0.0001368621 1.60365e-05 3.50297e-05 -0.3699033324 0.7593929333
555296670.0 -0.3618929423 0.7672369161 -9.06891e-05 0.0001501449 0.0002233906 2.4201e-05 -0.3625627033 0.762425586
560296640.0 -0.3534704967 0.770778582 7.79579e-05 1.26227e-05 0.0001008186 0.0001070377 -0.3545752901 0.7665538953
565296610.0 -0.346010886 0.774567529 -8.93747e-05 9.95898e-05 6.46143e-05 -0.0001804755 -0.346489518 0.7701244863
570296580.0 -0.3373576138 0.7779317975 0.0001730969 -8.17718e-05 -4.5891e-05 0.0001639567 -0.3390467038 0.7728897336
575296550.0 -0.32824202 0.7810552931 0.0002406819 0.0001650299 0.0001123995 -5.88226e-05 -0.3308547335 0.7763270604
580296520.0 -0.3212861073 0.7844646264 -9.05662e-05 0.0001226576 0.0002703975 -0.0001169328 -0.3236763563 0.7793974613
585296490.0 -0.3129811799 0.7875718584 -5.40698e-05 -1.57684e-05 9.5366e-05 -0.0001451639 -0.315634678 0.7829135843
590296460.0 -0.3041726905 0.7910559564 9.33726e-05 8.48922e-05 -0.0001744744 -2.17763e-05 -0.3075663787 0.7857559963
595296430.0 -0.2959417218 0.7937120342 0.0001238553 -0.0001440674 -4.85421e-05 -4.7951e-05 -0.3001560583 0.7888249944
600296400.0 -0.2883738867 0.7964378852 -7.64994e-05 5.7142e-05 -3.94142e-05 -2.95513e-05 -0.291621782 0.7919722201
605296370.0 -0.2796005059 0.7994885977 -4.24292e-05 7.64801e-05 0.0001462151 1.06602e-05 -0.2836331953 0.7952452649
610296340.0 -0.2714048316 0.8024284486 -2.61062e-05 2.39596e-05 0.0001060146 -3.73911e-05 -0.2759326148 0.7976285113
615296310.0 -0.2629279582 0.8062035738 -4.65961e-05 9.69378e-05 -2.2562e-06 -1.92448e-05 -0.2678220156 0.8005674608
620296280.0 -0.255350195 0.8083103595 -4.55722e-05 7.64866e-05 8.551e-05 6.8005e-05 -0.2598769413 0.8030075782
625296250.0 -0.247345206 0.8098753669 8.04194e-05 4.0013e-05 -6.73816e-05 -2.44686e-05 -0.251784818 0.8050728591
630296220.0 -0.2389092388 0.8129299804 4.11212e-05 0.0001572946 2.14415e-05 -0.0002523033 -0.2432753382 0.8080837364
635296190.0 -0.2306229235 0.815677359 -0.0001068114 -6.84024e-05 4.46464e-05 -1.25234e-05 -0.2358023847 0.8100838357
640296160.0 -0.2216656332 0.8179100913 0.0001304645 -2.24156e-05 0.0001708028 -0.0002045108 -0.2274964292 0.8124658681
645296130.0 -0.2133829556 0.8202586039 -8.4437e-05 -0.0002261091 1.24907e-05 -1.54255e-05 -0.2196987688 0.8143544957
650296100.0 -0.2051966823 0.822327757 -8.02988e-05 2.40261e-05 -9.82373e-05 -3.59739e-05 -0.2109448719 0.8164144786
655296070.0 -0.1977262746 0.8242056647 4.45078e-05 0.0001268584 -0.0001492926 -5.32893e-05 -0.2031634283 0.8193921397
660296040.0 -0.1888864209 0.8264151581 6.13286e-05 -1.8324e-06 3.18825e-05 -0.0001519967 -0.194263929 0.8215209488
665296010.0 -0.181073587 0.8278898319 -9.63853e-05 5.19192e-05 3.8065e-05 9.15375e-05 -0.1862832863 0.8223908479
670295980.0 -0.1725046637 0.8308771342 -2.81555e-05 9.33517e-05 0.0001461181 0.0001086423 -0.1787148905 0.8244270141
675295950.0 -0.1645186941 0.832449756 -0.0001473514 -0.0002265891 -0.0001247236 3.7841e-06 -0.1700532394 0.8266752705
680295920.0 -0.1565972659 0.8335280329 -6.7519e-06 1.59413e-05 0.0001008691 3.88294e-05 -0.1611434842 0.8277332564
685295890.0 -0.1477446043 0.8359530867 -0.0001170038 0.0001034554 1.0339e-06 -6.10157e-05 -0.1529902493 0.8298534736
690295860.0 -0.1392041206 0.8373069662 0.0002448252 -5.63156e-05 -0.0001884383 -2.87118e-05 -0.1453935698 0.8308615785
695295830.0 -0.1309762145 0.8382661358 0.0001196426 1.17436e-05 6.24878e-05 9.4304e-05 -0.1368913836 0.8329909723
700295800.0 -0.122523783 0.8400064296 0.0001889153 0.0001687828 0.0001812978 0.0002744867 -0.1283686891 0.8333078868
705295770.0 -0.1143111923 0.8410624292 0.0001415553 2.33382e-05 0.0001886836 -9.99109e-05 -0.1202602083 0.8353109767
710295740.0 -0.1066127024 0.8422699001 1.76288e-05 -0.0002525714 0.0001014043 -0.0001685298 -0.1117682723 0.8363499672
715295710.0 -0.0978947911 0.8435335 -1.03453e-05 8.40733e-05 0.0001239076 -0.0002949312 -0.102945861 0.8365482916
720295680.0 -0.0891939698 0.8443596709 -8.38087e-05 -2.89855e-05 0.0001133621 8.70465e-05 -0.0944803587 0.8375065241
725295650.0 -0.081535214 0.8454378561 0.0001720879 -0.0001397177 -3.29057e-05 -1.68961e-05 -0.0871878034 0.8394188635
730295620.0 -0.0735153289 0.846433479 0.0001216049 -0.0001291244 -0.0002286796 5.62002e-05 -0.0791527219 0.8402247473
735295590.0 -0.0658585179 0.8476219761 -2.5593e-05 3.45214e-05 -0.000205607 4.90267e-05 -0.0697150118 0.8405478888
740295560.0 -0.0578158535 0.8476359446 -0.0001167684 -2.64727e-05 -6.47954e-05 -0.000113589 -0.0615563324 0.8414959287
745295530.0 -0.0489297718 0.849478991 -0.0001478254 0.0001199849 -0.0002097643 -3.83654e-05 -0.0535448784 0.84163929
750295500.0 -0.0409256861 0.8491137735 0.0001967597 0.0002038489 -0.0001544816 -2.51279e-05 -0.0451381888 0.8422669867
755295470.0 -0.0319411974 0.8501254971 -2.9411e-06 8.38486e-05 7.49393e-05 -3.55307e-05 -0.0370323966 0.8425370657
760295440.0 -0.0242591163 0.850673042 -6.75535e-05 -4.09117e-05 3.48526e-05 9.65084e-05 -0.0277420055 0.8429675877
765295410.0 -0.0159579482 0.8507360284 4.37255e-05 0.0002537203 2.93819e-05 4.35185e-05 -0.0199656664 0.8437433278
770295380.0 -0.0084893881 0.8507572127 2.3291e-05 4.35959e-05 8.02611e-05 -0.0002241019 -0.0115740329 0.8434102935
775295350.0 0.0001950302 0.8511355476 -0.000205828 -5.37867e-05 -7.83879e-05 -1.73341e-05 -0.003276115 0.8432549499
780295320.0 0.0086445826 0.85198221 0.0001519427 -6.66309e-05 0.0001499349 6.54109e-05 0.0055726271 0.8436115524
785295290.0 0.0167204095 0.8511707458 6.4483e-06 0.0001485154 0.000193896 0.0001487444 0.0134957123 0.843639398
790295260.0 0.0251167352 0.8508127386 2.5802e-05 -0.0001367057 2.15801e-05 0.0001949193 0.0220325737 0.843260611
795295230.0 0.0332706606 0.8507278976 -0.0001898755 5.989e-05 -3.45092e-05 -2.29429e-05 0.0300766971 0.8421103426
800295200.0 0.0413494349 0.8507428831 -7.652e-07 -7.0455e-05 -4.65041e-05 1.6076e-05 0.0381755146 0.8423569772
805295170.0 0.0491108772 0.850585322 9.43836e-05 -0.0002430267 0.0001790597 -6.57602e-05 0.0475045465 0.8422507635
810295140.0 0.0577414014 0.8504671456 0.0002977793 -1.85755e-05 9.61078e-05 -0.0002231598 0.0553726359 0.8412751628
815295110.0 0.0652996299 0.8495026416 0.0001323535 -4.33598e-05 0.0001219858 4.44497e-05 0.0632816797 0.8407907621
820295080.0 0.0734575739 0.8488058268 -8.73819e-05 -0.0001322457 2.77059e-05 -9.9461e-06 0.0715049364 0.8405253098
825295050.0 0.0815483576 0.8479148232 6.82263e-05 3.61375e-05 5.4378e-05 -0.0001875697 0.0800099504 0.8395619307
830295020.0 0.0906288168 0.8475205617 -1.52352e-05 0.0001901847 0.0001374779 0.0001437683 0.0879249313 0.8382445958
835294990.0 0.0978490519 0.8468882592 -0.0001679636 -0.0001069304 1.14421e-05 -8.41942e-05 0.0968853108 0.8380643009
840294960.0 0.1066308339 0.8453938379 0.0001011782 5.52167e-05 -0.0001648664 -1.48404e-05 0.1052357148 0.8369796507
845294930.0 0.11448415 0.8442052423 -0.0002099341 5.70855e-05 -4.16685e-05 -0.0002181248 0.1134214583 0.8356247705
850294900.0 0.1241426175 0.8430255952 -0.0001180372 4.13768e-05 -0.0001075418 3.98467e-05 0.1213894049 0.8345168936
