!Created with skrf (http://scikit-rf.org).
# Hz S RI R 50.0 
!freq ReS11 ImS11 ReS21 ImS21 ReS12 ImS12 ReS22 ImS22
300000.0 -0.2322787553 -0.1368358779 0.4656485414 0.0883231092 0.4665684717 0.0880386073 -0.2343350965 -0.1334223518
5299970.0 -0.2416692768 0.0050495273 0.4746245413 0.0062470601 0.4751996753 0.0060575925 -0.2440742571 0.0043552195
10299940.0 -0.2386098627 0.0186334598 0.4773646132 0.0066317734 0.4770044116 0.0070165139 -0.240636196 0.0173449466
15299910.0 -0.233607104 0.0286615605 0.4803648806 0.0080557159 0.4806081419 0.0083847447 -0.2366449556 0.0263922798
20299880.0 -0.2285971967 0.0368982402 0.4853165606 0.0079909056 0.4854778593 0.0083538859 -0.2316591459 0.0338056097
25299850.0 -0.2225286903 0.043749473 0.4908463306 0.0075404895 0.4908944159 0.0072148215 -0.2265636171 0.0398849489
30299820.0 -0.2171830466 0.0487464951 0.4963353098 0.0050954862 0.496268513 0.0048713999 -0.2215636871 0.0449571947
35299790.0 -0.211162745 0.0527109139 0.5010927623 0.00218933 0.5016595325 0.0016652148 -0.2167173039 0.0491873817
40299760.0 -0.205919303 0.0560000734 0.5061028958 -0.0021422291 0.5065114341 -0.0019938119 -0.2117557187 0.0521860128
45299730.0 -0.2008957174 0.0588227871 0.5109069077 -0.0066160516 0.5115680495 -0.0069219904 -0.2067996631 0.0547599827
50299700.0 -0.1960325876 0.0607148989 0.5152059728 -0.0122370728 0.5153499943 -0.012625586 -0.2024821078 0.0569686202
55299670.0 -0.1917812705 0.062568433 0.518920156 -0.0180025263 0.5190172622 -0.0186004481 -0.1985892367 0.0584562955
60299640.0 -0.187713312 0.0641496219 0.5223339142 -0.0246444037 0.5223571921 -0.0248572395 -0.1949103885 0.059596746
65299610.0 -0.184005052 0.0650177494 0.5252480541 -0.0310476577 0.5251280401 -0.0310424835 -0.19155809 0.0610796146
70299580.0 -0.1807682748 0.0657790388 0.5273946729 -0.0371281891 0.5276209846 -0.0375292954 -0.1885819745 0.061844713
75299550.0 -0.1779331425 0.0669348466 0.5291492642 -0.0447118676 0.5300449252 -0.0446995733 -0.1860907161 0.0629198402
80299520.0 -0.1750358532 0.0677972928 0.5314691925 -0.0513821782 0.531578171 -0.0515224012 -0.1835346725 0.0635441898
85299490.0 -0.1723007274 0.0683240217 0.5325314815 -0.0581705078 0.5331170626 -0.0580077014 -0.1812684944 0.0640516547
90299460.0 -0.170307455 0.0692136104 0.5337459748 -0.0652274991 0.5337239374 -0.0649264869 -0.1791940891 0.0648303863
95299430.0 -0.168123779 0.0697332391 0.5348361735 -0.071966447 0.5346256594 -0.0724004282 -0.1771610486 0.0656821014
100299400.0 -0.1660209471 0.0700684233 0.5347722145 -0.0787610186 0.5349464946 -0.0787788389 -0.175667499 0.0664354095
105299370.0 -0.1638417521 0.0707907548 0.5350928782 -0.0857287783 0.5353135621 -0.0856080788 -0.1736167183 0.0668913808
110299340.0 -0.1623664182 0.0714807701 0.5355448073 -0.0921493442 0.5354354521 -0.0920833765 -0.1725311089 0.0673126532
115299310.0 -0.1607788555 0.0725009598 0.5352323562 -0.0991384675 0.5357170103 -0.0988786437 -0.1712099022 0.0683125766
120299280.0 -0.1596461283 0.0734946207 0.5355149745 -0.1065363446 0.5350960378 -0.1064726294 -0.1700587318 0.0685916162
125299250.0 -0.1581165453 0.0740070442 0.5346865273 -0.1130191137 0.5347384369 -0.1126958544 -0.1685130697 0.069604044
130299220.0 -0.1565090373 0.0746686933 0.5341418271 -0.1197908531 0.5340776742 -0.1202471623 -0.1675124591 0.0706458486
135299190.0 -0.155484966 0.0761063406 0.5336590463 -0.1260455955 0.534036289 -0.1264095216 -0.1663122851 0.0711947913
140299160.0 -0.1543476636 0.0766325972 0.5332373798 -0.1330549059 0.5328526311 -0.1328649491 -0.1657284012 0.0719284336
145299130.0 -0.1534609941 0.0778086256 0.5317285936 -0.1395380911 0.53207768 -0.1392777969 -0.1649258848 0.0727107226
150299100.0 -0.1518316417 0.0790326136 0.5308226726 -0.1462916455 0.5305919985 -0.1461448625 -0.1639037258 0.0741080628
155299070.0 -0.1507514846 0.0800384344 0.5290535372 -0.1526474376 0.5296407699 -0.1523919004 -0.1630347043 0.0747572044
160299040.0 -0.1500300747 0.0811511272 0.5281383071 -0.1589577574 0.5278625503 -0.1590513327 -0.1621452405 0.0760192478
165299010.0 -0.1488529153 0.0820809748 0.5268582652 -0.1652179466 0.5268041492 -0.1654853057 -0.1613874245 0.0768055351
170298980.0 -0.1479031296 0.0836350724 0.5246925005 -0.1718804296 0.5250038143 -0.1718926261 -0.1606850254 0.0779399763
175298950.0 -0.1466530797 0.0847419605 0.523268957 -0.1782691583 0.5239536049 -0.1782855361 -0.1599947244 0.0792590161
180298920.0 -0.1460723379 0.0856483562 0.5216624113 -0.1846117415 0.5218229788 -0.184808443 -0.1591614118 0.0801957288
185298890.0 -0.1450812516 0.0871576115 0.5202919107 -0.1906090671 0.5202221271 -0.1907103931 -0.158111141 0.0815157626
190298860.0 -0.1439315533 0.0887733479 0.5179840028 -0.1966150613 0.5182296662 -0.1968686703 -0.1574614871 0.0824598809
195298830.0 -0.1431057602 0.0898285664 0.5161508067 -0.2025660043 0.5162920175 -0.2027340067 -0.156987286 0.0839368451
200298800.0 -0.1418528282 0.090951285 0.5142612273 -0.2090125081 0.5141938949 -0.2091206362 -0.1563052918 0.0848823494
205298770.0 -0.1414669085 0.0925701785 0.511843978 -0.214820236 0.5116841969 -0.2146879149 -0.1550970618 0.0858302085
210298740.0 -0.1403521053 0.0939967391 0.5100324982 -0.2209936016 0.5096383097 -0.2211562356 -0.1548976537 0.0871329909
215298710.0 -0.1394903455 0.0952943974 0.5070924321 -0.2263711701 0.5071651999 -0.227125841 -0.1537552571 0.0886128388
220298680.0 -0.1381735703 0.0968235672 0.5043812117 -0.2325661189 0.5043787848 -0.2328624476 -0.1530623286 0.0896464931
225298650.0 -0.1370593568 0.0985905758 0.5019919796 -0.2383750146 0.5023726338 -0.2382555263 -0.1523988849 0.090707897
230298620.0 -0.1362318769 0.0998803534 0.5000399017 -0.2444235332 0.5000767427 -0.2448198277 -0.1521247906 0.0920950801
235298590.0 -0.1355479655 0.1012403124 0.49739777 -0.2504637795 0.4971843812 -0.2503315014 -0.150757047 0.0935379798
240298560.0 -0.1343241936 0.1027953495 0.4941515398 -0.256117146 0.4943186409 -0.2557490709 -0.1504852148 0.0946619176
245298530.0 -0.1332311121 0.103810152 0.4911602607 -0.2615048787 0.4918242811 -0.2614282257 -0.1495705387 0.0958727846
250298500.0 -0.132286389 0.1053788303 0.4887725573 -0.2669468219 0.4886996737 -0.2671729988 -0.1487391226 0.0975577838
255298470.0 -0.1310978664 0.1073146999 0.4858241607 -0.2723432061 0.4865731664 -0.2728204629 -0.147996204 0.0990164802
260298440.0 -0.1301634229 0.1083662267 0.4833606865 -0.2777673918 0.4834283245 -0.2780220137 -0.1471755561 0.0997984524
265298410.0 -0.129160237 0.1100811214 0.4800985216 -0.2842669509 0.4799939675 -0.2840087648 -0.1456424684 0.1012794625
270298380.0 -0.1282655735 0.1112694369 0.4769172979 -0.2890551002 0.4768280991 -0.2893357856 -0.1449887788 0.102963626
275298350.0 -0.1270679424 0.1129924691 0.4734150245 -0.2944098209 0.4734631698 -0.2944423768 -0.144450474 0.1042412279
280298320.0 -0.126005104 0.11446515 0.4705020503 -0.2993725573 0.4712150794 -0.2998524104 -0.1433244398 0.10555206
285298290.0 -0.1248479152 0.1157857685 0.4670225886 -0.3051300624 0.4676394772 -0.3048991974 -0.1429495642 0.1071408486
290298260.0 -0.1236912629 0.1173581058 0.4644301269 -0.3105641173 0.4644569317 -0.3103077498 -0.141313282 0.1082175773
295298230.0 -0.1226558291 0.118472305 0.4604916708 -0.3158992137 0.4612527959 -0.3160929201 -0.1407279311 0.1094722576
300298200.0 -0.1213971458 0.120155223 0.4573287135 -0.3207099491 0.4577066395 -0.320865534 -0.1395054601 0.1108671276
305298170.0 -0.1203242234 0.1211697681 0.4541825309 -0.3263328617 0.4540840769 -0.3263685862 -0.1384644993 0.1118269751
310298140.0 -0.1183880826 0.122264101 0.4504668216 -0.3310817546 0.4508599686 -0.3312545531 -0.1373518429 0.1129409889
315298110.0 -0.1177656155 0.1237690541 0.4472598063 -0.336695213 0.4471663408 -0.3370533513 -0.1363707118 0.1144679444
320298080.0 -0.1165023515 0.1250099703 0.4426864321 -0.3416418849 0.4438789275 -0.3416148606 -0.1358407192 0.1156414779
325298050.0 -0.1156731004 0.1258097468 0.4392683316 -0.3465653092 0.4397374087 -0.3469403868 -0.1346763726 0.1166397158
330298020.0 -0.1149364736 0.1277141709 0.4351241723 -0.3520768343 0.4357977006 -0.351957159 -0.1339389107 0.118189485
335297990.0 -0.1135812288 0.1289050738 0.4313195187 -0.3564392069 0.4313583972 -0.3565813687 -0.1327186207 0.1194661445
340297960.0 -0.1125009126 0.1300951328 0.4268154906 -0.3617185261 0.4272881474 -0.3614350744 -0.1320218068 0.1209918997
345297930.0 -0.111185264 0.131663707 0.4234067586 -0.3665257739 0.4232835061 -0.3661881967 -0.1308518088 0.1220025038
350297900.0 -0.1101791077 0.1330591843 0.419320771 -0.370540975 0.419603485 -0.3703365603 -0.1299188339 0.1232177563
355297870.0 -0.1089434541 0.1343576595 0.4151287631 -0.3747467794 0.4148657617 -0.3749944726 -0.1284323999 0.124960523
360297840.0 -0.107229442 0.1355617421 0.4103425334 -0.3796949066 0.4112965848 -0.3800550156 -0.1275914804 0.1264719712
365297810.0 -0.1063391247 0.1370719946 0.406885367 -0.3841856085 0.4068549485 -0.3845993399 -0.1268583331 0.1276766584
370297780.0 -0.1047248071 0.1384808336 0.4018030286 -0.3887544255 0.402622666 -0.3887804513 -0.1257789924 0.1288482808
375297750.0 -0.1033000599 0.1397225589 0.3980479584 -0.3930058884 0.3983996145 -0.393321304 -0.1241195914 0.1302792818
380297720.0 -0.1021313087 0.1411910576 0.3941974515 -0.3980365242 0.3938393113 -0.3979250657 -0.1232099426 0.1318555285
385297690.0 -0.1005574532 0.1420166979 0.3890590878 -0.4016249152 0.3894539094 -0.40208067 -0.1218675731 0.1331648239
390297660.0 -0.099042672 0.1432490045 0.3848142411 -0.4055048106 0.385343556 -0.4059746185 -0.1206811358 0.1340277799
395297630.0 -0.0973310142 0.1444551196 0.380772909 -0.4095584754 0.3806067989 -0.409681386 -0.1195288588 0.1354205651
400297600.0 -0.0962638685 0.145498768 0.3759991364 -0.4145114855 0.3765026173 -0.4145546329 -0.1178814724 0.1373064904
405297570.0 -0.0946614904 0.1465292629 0.371429173 -0.4183045727 0.3714496713 -0.4186627297 -0.1166446215 0.1385321553
410297540.0 -0.0931583491 0.1484529886 0.3668299905 -0.4230387768 0.3673470015 -0.4225834162 -0.1155059603 0.139745611
415297510.0 -0.0917187185 0.1491952937 0.3621978278 -0.4266467193 0.3628892317 -0.4267250452 -0.114116415 0.1409639527
420297480.0 -0.0903800571 0.1500205848 0.3576824565 -0.4301795374 0.3578909329 -0.4306182886 -0.1124449248 0.1423640671
425297450.0 -0.0883450467 0.1511756605 0.3532140545 -0.4341088325 0.3526853745 -0.4343915456 -0.1111624884 0.1430055311
430297420.0 -0.0870098709 0.1523733701 0.3487432426 -0.4380694569 0.3485243927 -0.4378772577 -0.1098144208 0.1447859734
435297390.0 -0.0852772261 0.153488939 0.3430319075 -0.4426356468 0.3432140618 -0.441879781 -0.1088321043 0.1463649209
440297360.0 -0.0834070759 0.1541546071 0.3382816095 -0.4455297005 0.3382180009 -0.4460178724 -0.1072493683 0.1472366871
445297330.0 -0.0819765218 0.1549353857 0.3338089139 -0.4487166006 0.3337467517 -0.4495912542 -0.1058780935 0.1485183725
450297300.0 -0.079913081 0.1564599855 0.3287386865 -0.4527144428 0.3290812202 -0.4529923993 -0.1042399732 0.1497726989
455297270.0 -0.0787868214 0.1573504956 0.3239837458 -0.4563576502 0.3239663322 -0.4565851409 -0.102924278 0.150750337
460297240.0 -0.0766107614 0.1583854963 0.318648182 -0.4604591957 0.318889039 -0.4603198466 -0.1014989418 0.1516784689
465297210.0 -0.0748357852 0.1591877963 0.3133895697 -0.463480872 0.3134542098 -0.4640542852 -0.0995676513 0.1536942195
470297180.0 -0.0733746608 0.1600840782 0.3085304121 -0.4666407909 0.3091381297 -0.4665218716 -0.0982321235 0.1538916664
475297150.0 -0.0716357197 0.1612506022 0.3033731165 -0.4701981921 0.3037018834 -0.4707389109 -0.0967496703 0.1555713655
480297120.0 -0.0692766614 0.1621576729 0.2980053454 -0.4734880277 0.2982442919 -0.4732837197 -0.0954395658 0.1562007078
485297090.0 -0.0675741406 0.1626593074 0.2933318018 -0.4764649405 0.2934070857 -0.4766001321 -0.0940211908 0.1571865744
490297060.0 -0.0652226251 0.1639542133 0.2872297815 -0.4800866388 0.2883118362 -0.4801836229 -0.092356651 0.1582845706
495297030.0 -0.0641897687 0.1641767656 0.2829299587 -0.4829095924 0.2826258847 -0.4831322604 -0.0902232173 0.1593158184
500297000.0 -0.0622828965 0.1655606503 0.2776324152 -0.4859218414 0.2772961928 -0.4859744343 -0.0888463568 0.1604509308
505296970.0 -0.0599174404 0.1662811261 0.2721158152 -0.4891334478 0.2720866486 -0.4889813944 -0.0873899283 0.1613343511
510296940.0 -0.0582839174 0.1668983115 0.2672168697 -0.492662197 0.2671844035 -0.4925826138 -0.0857437434 0.1626099474
515296910.0 -0.0562359667 0.1680509834 0.2614178988 -0.4945344479 0.2610811306 -0.4948554627 -0.0843468191 0.1631908945
520296880.0 -0.0542819625 0.1685877693 0.2561800505 -0.4974991609 0.2558545498 -0.4977003881 -0.0823348587 0.1646246218
525296850.0 -0.0521743512 0.1690253032 0.2504065589 -0.5000466474 0.2502953553 -0.5003620561 -0.0804794871 0.1652729926
530296820.0 -0.0506475321 0.16979172 0.2447204301 -0.5029030732 0.2451244615 -0.5029700705 -0.0792531766 0.1658600263
535296790.0 -0.0480784008 0.1707114017 0.2393309431 -0.5054395951 0.2397176173 -0.5053706036 -0.0774191763 0.1668923302
540296760.0 -0.0462932013 0.1714239308 0.2339149273 -0.5080873932 0.2335053141 -0.5076737801 -0.0757080002 0.1676369461
545296730.0 -0.0447839856 0.1723696191 0.2286013941 -0.5104836406 0.2286108901 -0.5101479875 -0.0742776621 0.1684621036
550296700.0 -0.0421294308 0.1727308446 0.2225318045 -0.5132269034 0.2227747162 -0.5131794472 -0.0724979166 0.1694081299
555296670.0 -0.0404418754 0.1735003604 0.217318465 -0.5158792333 0.2169673511 -0.5152804989 -0.0708362408 0.1699248502
560296640.0 -0.0376591911 0.1737345719 0.2112927244 -0.5174998154 0.2119291301 -0.517688342 -0.069178405 0.1711421252
565296610.0 -0.0365956602 0.1747243342 0.206371087 -0.5199862148 0.2061551277 -0.5195431258 -0.0673149876 0.1720979746
570296580.0 -0.0343799223 0.1751558703 0.2002997679 -0.5220969144 0.2003390451 -0.5224368825 -0.0657883808 0.1723772502
575296550.0 -0.0320525681 0.175496196 0.1950307683 -0.5240392301 0.1947113843 -0.5241005039 -0.0640891223 0.1734187685
580296520.0 -0.030086227 0.1766284888 0.1891810959 -0.5263019569 0.1887517633 -0.5264360373 -0.0626085166 0.1741080438
585296490.0 -0.0281696653 0.1769762382 0.1837902061 -0.5278023869 0.1828839934 -0.5286195838 -0.060547987 0.1751005787
590296460.0 -0.0253393071 0.1773487468 0.1776196028 -0.5301627054 0.1774139006 -0.5302036581 -0.0591809151 0.1757749565
595296430.0 -0.0236897836 0.1779358355 0.1717227909 -0.532007908 0.1715978752 -0.5320380855 -0.057155588 0.1761566762
600296400.0 -0.0216378328 0.1784200346 0.1657130419 -0.5335576587 0.1656144753 -0.5337844077 -0.0554440295 0.1767634698
605296370.0 -0.0199544894 0.1789477793 0.1604276724 -0.5350964173 0.1597416243 -0.5358536555 -0.0537412084 0.177783066
610296340.0 -0.0173908495 0.1795083939 0.1545873856 -0.5368990456 0.1546370939 -0.5373525949 -0.0521302865 0.178401041
615296310.0 -0.0150161924 0.1798798689 0.1486325076 -0.5392146555 0.1481243561 -0.5391117593 -0.0498858021 0.1791344143
620296280.0 -0.0135254056 0.1806794639 0.1421699677 -0.5405659521 0.1421921422 -0.5401306715 -0.0486673644 0.1795813124
625296250.0 -0.01150127 0.1805309317 0.1366845676 -0.5419260593 0.1367296486 -0.5421295199 -0.0469504142 0.1800872397
630296220.0 -0.0093764771 0.1815499131 0.1303539123 -0.5437678543 0.1305980162 -0.543227225 -0.0448256752 0.1808179098
635296190.0 -0.0074124915 0.1817076679 0.1253856813 -0.5445708372 0.1246754705 -0.544369477 -0.0430953369 0.1811891636
640296160.0 -0.0052529373 0.1818820819 0.1191192046 -0.5461899062 0.1188922599 -0.5460401779 -0.0414401569 0.1818305027
645296130.0 -0.0028535371 0.1826555345 0.1132879597 -0.5472791598 0.1129867148 -0.5470039527 -0.0399128121 0.181966327
650296100.0 -0.0009497087 0.1825816354 0.1073199685 -0.5484540001 0.107067546 -0.5486541122 -0.0371016698 0.1826605053
655296070.0 0.000959168 0.1830109774 0.1011725578 -0.5495094567 0.1011090721 -0.5491748222 -0.0364568471 0.183472559
660296040.0 0.0031281176 0.1832305925 0.0953570194 -0.5504474283 0.0955311837 -0.5505030082 -0.034413169 0.1835122571
665296010.0 0.0050523652 0.1832935986 0.0887306221 -0.5511530286 0.0891899927 -0.551026789 -0.032441906 0.1839881137
670295980.0 0.007142149 0.1836131947 0.0833841759 -0.5523710598 0.0833054307 -0.5517765552 -0.0312493739 0.1843424782
675295950.0 0.0093255027 0.1837808439 0.0773642298 -0.5531078385 0.0775257721 -0.5530962741 -0.029157287 0.1850366427
680295920.0 0.0109100183 0.1842325035 0.0715058739 -0.5535517791 0.0715427223 -0.5534953899 -0.0269393249 0.1852264172
685295890.0 0.0133146361 0.1845167393 0.0650226 -0.5547056689 0.0653161594 -0.5548345762 -0.0251648475 0.1863461715
690295860.0 0.0151762658 0.1842818189 0.0594599039 -0.5552509185 0.0594334169 -0.5553798604 -0.0236944572 0.1862677878
695295830.0 0.0171694745 0.1842431026 0.0538860308 -0.5559494959 0.0533966787 -0.5553824439 -0.0215985453 0.1868233239
700295800.0 0.0194524107 0.1845702897 0.0480332605 -0.5562927845 0.0477916083 -0.5562029438 -0.0198404575 0.1871418668
705295770.0 0.0212024746 0.1848373347 0.0417405814 -0.5572974634 0.0414655366 -0.5565748671 -0.0181211582 0.187923481
710295740.0 0.0231249714 0.184647751 0.035917853 -0.5570807285 0.0356636281 -0.5573192776 -0.0162367681 0.1880073883
715295710.0 0.0255599254 0.1847968478 0.0298152083 -0.5574563395 0.0293979037 -0.5573129228 -0.0142633647 0.1880061559
720295680.0 0.0275528084 0.1846480823 0.0234069194 -0.557766982 0.0234065573 -0.5578937957 -0.0126044617 0.1882369713
725295650.0 0.0291837597 0.1845060958 0.01767654 -0.5577295177 0.0177347045 -0.5582990161 -0.0112379957 0.1890125606
730295620.0 0.0307360406 0.1844379549 0.0119041712 -0.5577158853 0.0113054289 -0.5577221669 -0.0094468537 0.189535154
735295590.0 0.0329753428 0.184438618 0.0058767827 -0.5581174653 0.0056585199 -0.5584548748 -0.0072710926 0.1890995439
740295560.0 0.0347581774 0.1842718239 -0.0002491744 -0.5580072031 -0.0001208354 -0.5582078697 -0.0054833383 0.1896934011
745295530.0 0.0368789302 0.1842979437 -0.00608998 -0.5574238775 -0.0055765029 -0.5576005293 -0.0042177385 0.1897099567
750295500.0 0.0386780644 0.1844054148 -0.0120839915 -0.5578274801 -0.0125695491 -0.5577676721 -0.002138829 0.1902095608
755295470.0 0.0405371566 0.1839107846 -0.0180596465 -0.5581355143 -0.0181190822 -0.5580286421 -4.20426e-05 0.1908706014
760295440.0 0.0424012977 0.1842850213 -0.0246005378 -0.557201292 -0.0244251967 -0.5571230825 0.0019877691 0.1899268186
765295410.0 0.0447485012 0.1836026308 -0.030400028 -0.5569703342 -0.029996485 -0.5573332764 0.0038304923 0.1905608206
770295380.0 0.046332975 0.1834519291 -0.0359068038 -0.5563551815 -0.0359099305 -0.5572369404 0.0050795508 0.1906712363
775295350.0 0.0482549955 0.1828039536 -0.0421983544 -0.5561258314 -0.041905263 -0.556090674 0.0075389794 0.1908385406
780295320.0 0.0504953364 0.1830234503 -0.0481752322 -0.5553929399 -0.0481500188 -0.5553511448 0.0091769504 0.190689092
785295290.0 0.0524691739 0.1821949306 -0.0541907962 -0.5550273794 -0.0538994307 -0.5554516642 0.0106843668 0.1912628676
790295260.0 0.0542351109 0.1816576233 -0.0597806548 -0.5544933383 -0.0598268926 -0.5548379663 0.0128075765 0.1916073105
795295230.0 0.0559770163 0.1815001903 -0.0659322005 -0.5539785466 -0.0660448004 -0.5540026735 0.0142950163 0.1907055236
800295200.0 0.057796095 0.1814634045 -0.0712267343 -0.5528200009 -0.0716888201 -0.5534776432 0.0162713481 0.1911975256
805295170.0 0.0595994026 0.1808735313 -0.0774282259 -0.5523670649 -0.0778037231 -0.5527136188 0.0185859366 0.1909511043
810295140.0 0.0618722619 0.1805152825 -0.0834772764 -0.5512266603 -0.0835453165 -0.5514890352 0.0203540781 0.1907854966
815295110.0 0.0632618263 0.1799974863 -0.0891817701 -0.5501965689 -0.0892938493 -0.5506996505 0.0218829996 0.1910706573
820295080.0 0.0655608224 0.1795622504 -0.0950344008 -0.5493078842 -0.0948366379 -0.5499037376 0.0232661749 0.1912304751
825295050.0 0.0671408552 0.1788829001 -0.1009631411 -0.5485377689 -0.101402307 -0.548659724 0.0257619637 0.1912726659
830295020.0 0.0690093023 0.1781369399 -0.1070923158 -0.5474340938 -0.1070881148 -0.5475429127 0.0275782373 0.1908660178
