!Created with skrf (http://scikit-rf.org).
# Hz S RI R 50.0 
!freq ReS11 ImS11 ReS21 ImS21 ReS12 ImS12 ReS22 ImS22
300000.0 -0.2335691536 -0.1287030445 0.4665348977 0.0843006869 0.4683399881 0.0841540358 -0.2337885445 -0.1283603902
5299970.0 -0.2416319137 0.0057034704 0.4747752088 0.005934866 0.4754447318 0.0056821137 -0.2443168077 0.0046225233
10299940.0 -0.2387485605 0.0189333713 0.4776554664 0.0065393541 0.4771826749 0.0072138959 -0.2409153817 0.0174675673
15299910.0 -0.2338290372 0.0288889883 0.4808264141 0.0079126657 0.4808601904 0.0081033998 -0.2367297895 0.0262459799
20299880.0 -0.2284050215 0.0369333675 0.4854163303 0.0079994096 0.4857806111 0.0084702281 -0.2320506253 0.0337221056
25299850.0 -0.2224416702 0.043362875 0.4906177964 0.0076202389 0.4909641806 0.0074782482 -0.2269938001 0.0402098271
30299820.0 -0.2170390441 0.0488937169 0.4960191565 0.0050886429 0.4964509256 0.004917199 -0.2219360948 0.0449788411
35299790.0 -0.2112418077 0.0529944653 0.5008088826 0.0020213475 0.5014421163 0.0017386435 -0.2169030359 0.0491806201
40299760.0 -0.206153614 0.056327067 0.5064456219 -0.0021958918 0.506703705 -0.0022657764 -0.2121065156 0.0519583807
45299730.0 -0.2011536191 0.0589020755 0.5113432064 -0.0069693817 0.5117152523 -0.0070442196 -0.2070278083 0.0548472663
50299700.0 -0.1960024777 0.0607714248 0.5154760461 -0.0126825163 0.5155445045 -0.0128354615 -0.2028188678 0.0572410054
55299670.0 -0.1921560224 0.062433531 0.5189624608 -0.0180909119 0.5187693927 -0.0185952812 -0.1990877848 0.0587429664
60299640.0 -0.1877758766 0.0640378504 0.5225167398 -0.0245729642 0.5222416413 -0.0246195336 -0.1954303768 0.0598459883
65299610.0 -0.1842751527 0.0651727006 0.5258738166 -0.0307528337 0.5254745487 -0.0310446489 -0.1919516199 0.0610373229
70299580.0 -0.1807333271 0.0658986446 0.5277630524 -0.0372306783 0.5276973943 -0.0375686316 -0.1892465377 0.0617868169
75299550.0 -0.177808639 0.0667654259 0.5294955402 -0.0446058777 0.52939608 -0.0444668635 -0.1861425654 0.0627319294
80299520.0 -0.1751669857 0.0677013413 0.5312424878 -0.0513253472 0.5316586965 -0.0513857785 -0.1838727198 0.0634895296
85299490.0 -0.1724853087 0.0683203687 0.5327641869 -0.05816057 0.5329659168 -0.0581044818 -0.1815900175 0.0641165555
90299460.0 -0.1703605251 0.0691266067 0.5335995135 -0.0652100532 0.5335330626 -0.064999601 -0.1790892566 0.065034791
95299430.0 -0.1679287049 0.0697183 0.5347553164 -0.0719934904 0.5352144159 -0.0726493895 -0.1774343627 0.0657428147
100299400.0 -0.1658722568 0.0702078015 0.534988384 -0.0788779253 0.5350357848 -0.0788493599 -0.1758971325 0.0666162735
105299370.0 -0.1641173976 0.0707979091 0.5351153478 -0.0855721114 0.5358008318 -0.0855890731 -0.1740185685 0.0665749273
110299340.0 -0.162181969 0.071786116 0.5353142176 -0.0921554036 0.5358235679 -0.09248952 -0.1729385601 0.0670398512
115299310.0 -0.1608833109 0.0724114379 0.5357539793 -0.0993019362 0.5353197071 -0.0996080324 -0.1711405737 0.0683786852
120299280.0 -0.1593220915 0.0734867729 0.5351625034 -0.1065630295 0.534990259 -0.1064340725 -0.1701584635 0.0684750236
125299250.0 -0.15788067 0.0739365787 0.5345290601 -0.1129111235 0.5347545194 -0.1129642301 -0.1688820836 0.069727564
130299220.0 -0.1564937982 0.0746517539 0.5344683538 -0.1199268028 0.5343408124 -0.1200278114 -0.1677826782 0.0703816626
135299190.0 -0.155595965 0.0759254868 0.5339176999 -0.1261778641 0.5339654281 -0.1267663695 -0.1667629952 0.0709914058
140299160.0 -0.1543237173 0.0767853787 0.5329024127 -0.1332457619 0.5328441735 -0.1327087998 -0.1663134716 0.0716403098
145299130.0 -0.1534384603 0.0778195446 0.5318499478 -0.1395305839 0.5318899008 -0.1390242982 -0.1651109547 0.0726577573
150299100.0 -0.1521294591 0.0787268801 0.5306765659 -0.1464319982 0.5306584525 -0.1462181047 -0.1641678864 0.07396209
155299070.0 -0.1509193401 0.0801338328 0.5290967866 -0.1526033763 0.5298918979 -0.1526823495 -0.1632276762 0.0746858073
160299040.0 -0.1499264914 0.0813001428 0.528218828 -0.1591659164 0.5279503716 -0.1591927497 -0.1626812661 0.0759265897
165299010.0 -0.148897693 0.0825183818 0.5269866991 -0.1655259015 0.5262803552 -0.1652457169 -0.161933989 0.0764826339
170298980.0 -0.1476459305 0.0835179898 0.5244264358 -0.1718170228 0.5252368542 -0.1718873499 -0.1611974686 0.0778200104
175298950.0 -0.1468582672 0.0845296521 0.5235311866 -0.1779428788 0.5239307624 -0.1782143679 -0.1601336454 0.0790072303
180298920.0 -0.1458682277 0.0859900063 0.5215165607 -0.1847688144 0.5219152156 -0.1847199129 -0.1595226563 0.0800202287
185298890.0 -0.1450674057 0.0874353276 0.5201559093 -0.1906240525 0.5202626267 -0.1907282247 -0.1585231945 0.0810655537
190298860.0 -0.1436104992 0.0887714166 0.5175667515 -0.1967288913 0.5182225398 -0.1966260502 -0.1579064099 0.0822381711
195298830.0 -0.1430298632 0.0902493688 0.5162377267 -0.2029070276 0.5162445786 -0.2029718386 -0.1573586347 0.0833872582
200298800.0 -0.1420932764 0.0910445104 0.5141954526 -0.2091738956 0.5139649916 -0.2090130019 -0.156481551 0.0846088153
205298770.0 -0.1415082996 0.0924491086 0.5119018212 -0.2145276845 0.5119054413 -0.2149518872 -0.1554344553 0.0858770663
210298740.0 -0.1403171159 0.0941816001 0.5096006641 -0.2210648121 0.5091904574 -0.2209142556 -0.1552235112 0.0869342733
215298710.0 -0.1393535998 0.0956995599 0.5069632434 -0.2265109502 0.5072580677 -0.2273582533 -0.1542428628 0.088194217
220298680.0 -0.1382369884 0.0968187628 0.5047004201 -0.2326494233 0.5047733592 -0.2330010636 -0.153523043 0.0893531267
225298650.0 -0.1371855741 0.0982121224 0.5020872119 -0.2386154077 0.502555535 -0.2384345806 -0.1528408388 0.0907211049
230298620.0 -0.1360290899 0.1000012434 0.499658347 -0.244295699 0.5000417171 -0.2441906785 -0.1520773369 0.0917676599
235298590.0 -0.135523287 0.1013822912 0.4973070132 -0.2508687 0.4975085155 -0.2502538929 -0.1511027003 0.0933240524
240298560.0 -0.1341793143 0.1027947142 0.493952454 -0.2555925379 0.4942006404 -0.256118027 -0.1506311419 0.0946575845
245298530.0 -0.133339008 0.1040204121 0.4916514683 -0.2616666285 0.4917691392 -0.2616764284 -0.1498558212 0.0957662449
250298500.0 -0.132410049 0.1055272082 0.4890517901 -0.2670860979 0.4886502621 -0.2670045375 -0.1486921581 0.0972832579
255298470.0 -0.13103558 0.1074197993 0.4860146366 -0.2725937772 0.4865672784 -0.2729540669 -0.1482091038 0.0987033403
260298440.0 -0.1300876273 0.1084121146 0.4832007199 -0.2776988397 0.4834649534 -0.2783086335 -0.1474471253 0.0997489904
265298410.0 -0.12936135 0.1098732819 0.479934944 -0.2841395472 0.4798877949 -0.2837457955 -0.1459724746 0.1008194643
270298380.0 -0.1283803262 0.1111156774 0.476714452 -0.2886502046 0.4772032798 -0.2889855201 -0.1454729658 0.1026050615
275298350.0 -0.1268449707 0.1130769715 0.4731857699 -0.2946201462 0.4738429093 -0.294404772 -0.1446813958 0.1039621347
280298320.0 -0.126115474 0.1143767755 0.470835722 -0.2995188323 0.4710342847 -0.3002367202 -0.1435220697 0.1053246825
285298290.0 -0.1249593864 0.1159247551 0.467060281 -0.3050944013 0.4677451087 -0.3053697431 -0.1426764713 0.1067645467
290298260.0 -0.1239733982 0.1172689412 0.464573633 -0.310521022 0.4644312179 -0.3106272068 -0.1416376141 0.1079331354
295298230.0 -0.1225830363 0.1182773463 0.460769354 -0.3155237469 0.4609456534 -0.3161497555 -0.140695522 0.1091630144
300298200.0 -0.1213252145 0.1199329903 0.4572813567 -0.3208496463 0.4577542649 -0.3210797171 -0.1397142054 0.1109161755
305298170.0 -0.1202715364 0.1211948757 0.4538937954 -0.3261149268 0.4546342048 -0.3264046297 -0.1386491648 0.1116885119
310298140.0 -0.1188045782 0.1224275037 0.4504955764 -0.3313854334 0.4508769605 -0.3311624476 -0.1376290609 0.1127859079
315298110.0 -0.1177254559 0.1235899845 0.4470779229 -0.3367436715 0.4467627008 -0.3370472272 -0.1365556528 0.1141729018
320298080.0 -0.1162608339 0.1251462674 0.442480648 -0.3418482013 0.4435913801 -0.3418998516 -0.1361030739 0.115541644
325298050.0 -0.1156761061 0.1259655814 0.4392904572 -0.3466564466 0.439678338 -0.3468576669 -0.134443651 0.1164659593
330298020.0 -0.1149487693 0.1275218118 0.435247401 -0.3519461576 0.4357051936 -0.3521845065 -0.1341681108 0.1177170643
335297990.0 -0.1133631952 0.1289482194 0.4313418065 -0.3566665679 0.431642019 -0.3566556174 -0.1329513675 0.1191852749
340297960.0 -0.1122087245 0.1301726432 0.4269028203 -0.3617207038 0.4270919509 -0.3617456277 -0.1320760775 0.1207289985
345297930.0 -0.1112663691 0.1314173402 0.4230951331 -0.3662507895 0.4228058003 -0.3664253822 -0.1308314328 0.1217704241
350297900.0 -0.1101570481 0.132726459 0.4192579447 -0.3705262236 0.4195622136 -0.370856895 -0.130208664 0.1233429494
355297870.0 -0.1088315599 0.1342425215 0.4151776724 -0.3746712528 0.4150707471 -0.3748704597 -0.1286641362 0.1247386477
360297840.0 -0.1075798659 0.1356495786 0.4106565939 -0.3799230274 0.410878679 -0.3801406072 -0.1280204995 0.1260374209
365297810.0 -0.1062517408 0.1372119911 0.4069483568 -0.3843976364 0.4068451167 -0.3844633616 -0.1273018354 0.1274524177
370297780.0 -0.1048512646 0.138487143 0.4021870421 -0.3889342208 0.4026066205 -0.3885027239 -0.1259875577 0.1288865142
375297750.0 -0.1031571105 0.1396548508 0.3979065313 -0.3932589579 0.39818936 -0.3933779021 -0.1244477704 0.129858639
380297720.0 -0.1021176327 0.1412687549 0.3941171995 -0.3980659724 0.3937908851 -0.3979321928 -0.1232696364 0.1315974212
385297690.0 -0.1006156378 0.1421648662 0.3891575075 -0.4018195901 0.3898507967 -0.4026979519 -0.1220579795 0.1331032741
390297660.0 -0.0989786935 0.1430630746 0.3844400445 -0.4056804566 0.3848833944 -0.4059820363 -0.1207167104 0.1337371673
395297630.0 -0.0973956593 0.1444210761 0.380525791 -0.4097795669 0.3807022094 -0.4102040282 -0.1196861057 0.1353083875
400297600.0 -0.0964867228 0.1460334226 0.3761162258 -0.4145140517 0.3763245083 -0.4143219871 -0.1181292868 0.1367991806
405297570.0 -0.0950274605 0.1463172466 0.3717663116 -0.4181023797 0.3714823785 -0.4182904541 -0.1165702004 0.1380673238
410297540.0 -0.0932284916 0.148190168 0.3670752235 -0.4229073524 0.3669895914 -0.4224257365 -0.1156009976 0.1394602796
415297510.0 -0.0919449793 0.1495019719 0.3621920068 -0.426720634 0.3629150029 -0.4268778082 -0.1142940167 0.1406362325
420297480.0 -0.0902787545 0.1499428892 0.3574053689 -0.4304554985 0.3579412505 -0.4307143446 -0.1124921126 0.1421962887
425297450.0 -0.0881818545 0.1514286464 0.3528622167 -0.4342304734 0.3527548602 -0.4345956383 -0.1116336246 0.1428754343
430297420.0 -0.0869348033 0.1524135177 0.3487147232 -0.4382157732 0.3485866027 -0.4377610215 -0.1097861482 0.1443718135
435297390.0 -0.0850973036 0.1534572135 0.3432204769 -0.4428157783 0.3434232706 -0.4422710352 -0.1090595376 0.1459472225
440297360.0 -0.083517575 0.1542862085 0.3384485588 -0.4456292885 0.338109524 -0.4457955811 -0.1075863041 0.1469269726
445297330.0 -0.0818064518 0.1551590454 0.3336496744 -0.4490495367 0.3336480881 -0.4495954425 -0.1060579159 0.1481543018
450297300.0 -0.0801131564 0.1563169984 0.3285361777 -0.4530180589 0.3291126738 -0.4529081315 -0.1043527909 0.1492740282
455297270.0 -0.0785899266 0.1571370704 0.3236471652 -0.4565871579 0.3239283694 -0.4569299694 -0.1030114546 0.1505451533
460297240.0 -0.0768399591 0.1584426141 0.3192802914 -0.4608111696 0.3188326439 -0.4603652892 -0.1013763489 0.1512206521
465297210.0 -0.0748120266 0.159187967 0.3133341867 -0.4635279553 0.3132225182 -0.4639266786 -0.0996756107 0.1531354381
470297180.0 -0.0729934124 0.1599703234 0.3084678921 -0.4664871256 0.3087224227 -0.4669451157 -0.0984030647 0.1536194143
475297150.0 -0.0718873239 0.1611386008 0.3036743975 -0.4704568303 0.3034106071 -0.4704550341 -0.0967020029 0.1548274148
480297120.0 -0.0694215177 0.1623511417 0.2982069429 -0.4737311618 0.2983818255 -0.4733801147 -0.0957660755 0.1558088555
485297090.0 -0.0678188015 0.1626561761 0.2928835173 -0.4767279116 0.2928694825 -0.4765084249 -0.0941160488 0.1573273405
490297060.0 -0.0653355968 0.1638894454 0.2873128705 -0.4801255397 0.2877714073 -0.480065196 -0.092602878 0.1578473816
495297030.0 -0.0641648973 0.1643259684 0.2826618559 -0.4833177979 0.2825267325 -0.4834275998 -0.0905676945 0.1589523591
500297000.0 -0.0623079894 0.1654566993 0.277803465 -0.4858895263 0.2773050125 -0.4863750122 -0.0889558871 0.1603023332
505296970.0 -0.0599047852 0.1664080276 0.2724983425 -0.4893778962 0.2722532978 -0.4889016104 -0.0873809162 0.1607883841
510296940.0 -0.0582175295 0.1669583702 0.2668646782 -0.4925385042 0.2666661235 -0.492300794 -0.085928773 0.162226109
515296910.0 -0.0563683687 0.1679693122 0.2612844491 -0.4947997809 0.2611103046 -0.4948346159 -0.0844340768 0.1626376675
520296880.0 -0.0542303215 0.1687891695 0.2560145145 -0.4974416513 0.2556810209 -0.4973437273 -0.0820638188 0.1641105634
525296850.0 -0.0523133515 0.1691809659 0.2509265918 -0.5002330103 0.2498016838 -0.5000855591 -0.0805854701 0.1647724476
530296820.0 -0.0504857377 0.1696514658 0.2447334366 -0.5030052053 0.2448478943 -0.5030979697 -0.0791119698 0.1656920612
535296790.0 -0.0479320395 0.1706494946 0.2393410226 -0.5053454767 0.2396549245 -0.5055646529 -0.0773943093 0.1669034112
540296760.0 -0.0462830617 0.1717109481 0.2335479607 -0.5082702844 0.23375071 -0.5081143603 -0.0759849536 0.1673508927
545296730.0 -0.0449747494 0.1722865955 0.2283410031 -0.510344385 0.2281422222 -0.5104015143 -0.0740986708 0.1685656143
550296700.0 -0.0420150448 0.1729329436 0.2227665899 -0.5132025264 0.2225781568 -0.5133052584 -0.0722742083 0.1691695417
555296670.0 -0.0405403413 0.1734540236 0.2173857569 -0.5159870955 0.2170817366 -0.5155435589 -0.0710085077 0.1694764246
560296640.0 -0.0379278253 0.1739263371 0.2112151789 -0.5178622418 0.2116857737 -0.5178190101 -0.0691875851 0.1709526632
565296610.0 -0.0364185173 0.1744971053 0.2059609169 -0.5197907942 0.205893554 -0.5197736356 -0.0672100625 0.1717085272
570296580.0 -0.0344772638 0.1752933799 0.2003220051 -0.5222496531 0.2000587891 -0.5221250691 -0.065981299 0.1721359602
575296550.0 -0.0320301963 0.1756162815 0.1948399761 -0.5244021007 0.1945030005 -0.5241045629 -0.063991592 0.1730849014
580296520.0 -0.0300423262 0.1764405631 0.1886355522 -0.5262827148 0.1887709947 -0.5265757819 -0.0627511561 0.1737859418
585296490.0 -0.0284077176 0.1771917321 0.1834212281 -0.5281836777 0.1827991076 -0.5284245202 -0.0605452417 0.1750999639
590296460.0 -0.0253232931 0.1775999711 0.177687297 -0.5302036486 0.177279032 -0.530383349 -0.0591029009 0.1752056968
595296430.0 -0.0237091949 0.1779910618 0.1714173938 -0.5321256257 0.1711018993 -0.5319165726 -0.0573213567 0.1757858715
600296400.0 -0.0216842232 0.1785440312 0.1655253231 -0.5336692975 0.1654570846 -0.5338388592 -0.0553503337 0.1763572929
605296370.0 -0.0199063451 0.1790733894 0.1602122974 -0.5352261703 0.159632174 -0.5356102771 -0.0537199643 0.1773683854
610296340.0 -0.0173059101 0.1796623555 0.1543930992 -0.536983106 0.1545008608 -0.5370786229 -0.0522072114 0.1778943235
615296310.0 -0.0152445033 0.1801378025 0.1485768276 -0.538999492 0.1479492701 -0.5390461902 -0.049832022 0.1786682721
620296280.0 -0.0134045179 0.1808200036 0.1423230569 -0.5406893119 0.142101952 -0.5402119669 -0.0487016337 0.1790559364
625296250.0 -0.0115050255 0.1808429623 0.1366574652 -0.5420260613 0.1365310926 -0.5419481401 -0.0466667121 0.1796742985
630296220.0 -0.0092958131 0.1812609656 0.130406032 -0.5436343416 0.1304664056 -0.5433248957 -0.0447695747 0.1804705435
635296190.0 -0.0075518317 0.1817504791 0.1246608285 -0.5445496367 0.1248727555 -0.5443469541 -0.0431622841 0.1810023562
640296160.0 -0.0053229531 0.1821800979 0.119026375 -0.5460291074 0.1184241911 -0.5460122119 -0.0415299096 0.1817284009
645296130.0 -0.0026686517 0.1828830494 0.1126043611 -0.5471038805 0.1129538018 -0.5467044455 -0.0398087232 0.1819341415
650296100.0 -0.0010286651 0.1826515945 0.1072389183 -0.5488091292 0.1065703342 -0.5485445262 -0.0373343773 0.1825713517
655296070.0 0.0009730938 0.1830869022 0.1007794297 -0.5495994477 0.1010259288 -0.5492892168 -0.0361538161 0.1832343511
660296040.0 0.0031058509 0.1833446248 0.095054985 -0.550827898 0.0950371406 -0.5507845491 -0.0344985395 0.1832177418
665296010.0 0.0053767348 0.1837109355 0.0885963733 -0.5511099316 0.0891501528 -0.5514587538 -0.0323884638 0.1838085046
670295980.0 0.0069202995 0.1841275051 0.0830902805 -0.5526036213 0.0830563881 -0.5519363071 -0.0308714754 0.1844397724
675295950.0 0.0091577736 0.1837505542 0.0770757674 -0.5525415984 0.0772303614 -0.5531688101 -0.0291636423 0.1847894735
680295920.0 0.0109075687 0.1842047783 0.0712346577 -0.55342558 0.0713718303 -0.5539852946 -0.0270297675 0.1850028051
685295890.0 0.0135060287 0.1845232313 0.0649279413 -0.5545041163 0.0654868544 -0.5546701707 -0.0251979258 0.1858575243
690295860.0 0.0151815903 0.1846005792 0.0595174884 -0.5551731306 0.0588989553 -0.5555148451 -0.023524142 0.1862662563
695295830.0 0.0173819215 0.1844829085 0.0535089613 -0.5557812066 0.0534573394 -0.5557689869 -0.0216656384 0.1868973021
700295800.0 0.019498554 0.1848707165 0.0475653238 -0.5561194458 0.0476142562 -0.5561797628 -0.0199625701 0.1867723548
705295770.0 0.0211106025 0.1848582588 0.0416443611 -0.5568597946 0.0412851242 -0.5565951833 -0.0181393443 0.1873419986
710295740.0 0.0232707422 0.1845766866 0.0354727401 -0.5570065724 0.0351215753 -0.5572533365 -0.0163210498 0.1877090372
715295710.0 0.0252264896 0.1848673531 0.0295183304 -0.5575408413 0.0288902506 -0.5574115152 -0.0142557907 0.1877787927
720295680.0 0.0275864897 0.1848569206 0.0231935457 -0.557712174 0.0231653115 -0.5578525838 -0.012592964 0.1880230935
725295650.0 0.0290120634 0.1849759704 0.0179446123 -0.5580365634 0.0174809735 -0.5577625727 -0.0107899151 0.1888438062
730295620.0 0.0306759068 0.1846384704 0.0115261161 -0.5578604364 0.0113888854 -0.557217666 -0.0090663783 0.1890951972
735295590.0 0.0331655838 0.184940469 0.0056554794 -0.5583517357 0.0053672591 -0.558207955 -0.0071106266 0.1890944992
740295560.0 0.0349232223 0.1843643787 -0.0007750154 -0.5583335215 -0.0002589056 -0.5583182509 -0.0057560462 0.1893683691
745295530.0 0.0369977577 0.1843348647 -0.0060977859 -0.5573637335 -0.0059884918 -0.557989346 -0.0041695295 0.1897443428
750295500.0 0.0385886602 0.1842577249 -0.0118792608 -0.5580239076 -0.0128000643 -0.5578624595 -0.0019454913 0.1896828762
755295470.0 0.0404303698 0.1839953068 -0.018034269 -0.5581084216 -0.0181436054 -0.5579485428 0.0001035807 0.1905089992
760295440.0 0.0424830853 0.1842635698 -0.0247126754 -0.5576471084 -0.0244631044 -0.5574937336 0.0018985236 0.1893809033
765295410.0 0.0448918969 0.1833342594 -0.0302457251 -0.5567210929 -0.029992639 -0.5569960251 0.0034324445 0.1900633021
770295380.0 0.0464095606 0.1838076135 -0.0360866125 -0.556606776 -0.0362892578 -0.5572949383 0.0050935439 0.1903593289
775295350.0 0.0485574023 0.1833839677 -0.0422385786 -0.5565284968 -0.0420918314 -0.5558177186 0.007554993 0.1903212338
780295320.0 0.0505500763 0.1831385121 -0.0481160882 -0.5557084449 -0.048220407 -0.5559030863 0.009176036 0.1904352381
785295290.0 0.0521862625 0.1825530143 -0.0543729653 -0.5551392842 -0.0541289341 -0.5552209995 0.0107958854 0.1909963617
790295260.0 0.0543661706 0.1819769105 -0.0601395233 -0.5545392158 -0.0599360813 -0.5549093542 0.0126085023 0.1912964293
795295230.0 0.0560968451 0.1815288011 -0.0660548405 -0.5538255764 -0.0659504589 -0.5541210134 0.0145479697 0.1902968362
800295200.0 0.0576311967 0.1816261956 -0.0716703045 -0.5529726955 -0.0720984171 -0.5532364711 0.0163037003 0.190815947
805295170.0 0.0596657984 0.1809310352 -0.0778560072 -0.5522271706 -0.0778522017 -0.5527113801 0.0186071162 0.1908744777
810295140.0 0.0617127916 0.1806821843 -0.0835439517 -0.5512428666 -0.0838453633 -0.5513740583 0.0204617156 0.1908395762
815295110.0 0.0635788021 0.1803746357 -0.0892570122 -0.5506610693 -0.0895870891 -0.5506391461 0.0220372251 0.190629677
820295080.0 0.0654188468 0.1795440759 -0.094836957 -0.5493817591 -0.0955119184 -0.5496597792 0.0234408359 0.1911186957
825295050.0 0.067183689 0.1789107366 -0.1013426183 -0.5486169352 -0.1012983939 -0.5483957231 0.0261290491 0.1909588787
830295020.0 0.0690872329 0.1786043628 -0.1073420611 -0.5476175718 -0.1075816844 -0.5473922405 0.027658112 0.1904263079
