!Created with skrf (http://scikit-rf.org).
# Hz S RI R 50.0 
!freq ReS11 ImS11 ReS21 ImS21 ReS12 ImS12 ReS22 ImS22
300000.0 -0.2321771853 -0.128982013 0.4648768333 0.0856867904 0.466755029 0.0830704972 -0.2345068292 -0.1289132111
5299970.0 -0.2420532381 0.005369435 0.4749205413 0.005549059 0.475201547 0.0058610287 -0.2445295884 0.0049118556
10299940.0 -0.2387458805 0.0187633087 0.4773674836 0.0067948015 0.4769679554 0.0072317533 -0.2405799075 0.0171459255
15299910.0 -0.2338612447 0.0288944885 0.480590771 0.0079179138 0.4808926406 0.007856499 -0.2368132435 0.0265439829
20299880.0 -0.228631568 0.0369032246 0.4851356097 0.0075858495 0.4855325179 0.0080990135 -0.2320632743 0.0338994812
25299850.0 -0.2225158117 0.0435277632 0.4905303433 0.0077816625 0.4910043587 0.0072488087 -0.227014274 0.0400473659
30299820.0 -0.2171945783 0.048644114 0.4959634327 0.0053068714 0.4959647361 0.0048107552 -0.2218235092 0.0449183557
35299790.0 -0.2114289321 0.0528569605 0.5008077397 0.0019214963 0.5012632353 0.0016999983 -0.2166552893 0.0491773272
40299760.0 -0.2062156642 0.0562143112 0.5065457323 -0.002063985 0.5065664213 -0.0021453511 -0.2119554033 0.0522617381
45299730.0 -0.2010412666 0.058619043 0.5111250041 -0.006643554 0.5113859366 -0.0068116229 -0.2071249601 0.05473061
50299700.0 -0.195862524 0.060580749 0.5149830473 -0.012834806 0.5151891679 -0.0127164707 -0.2026628455 0.0569881262
55299670.0 -0.1918418486 0.0626917305 0.5191150449 -0.0180935663 0.5189225316 -0.0182280935 -0.1991563244 0.0586072477
60299640.0 -0.1878800877 0.0641050113 0.5224883458 -0.0245188905 0.5223839318 -0.0248165854 -0.1950767216 0.0598575353
65299610.0 -0.1843083789 0.0649538138 0.5257620714 -0.0307883808 0.5252588159 -0.031066503 -0.1916060981 0.0608501564
70299580.0 -0.1809895032 0.0659396809 0.5275374563 -0.0371976877 0.5276980057 -0.0377878146 -0.1891214601 0.0616940206
75299550.0 -0.1780981025 0.0669092728 0.529376132 -0.0445240619 0.5298575015 -0.0444927453 -0.1863412389 0.0627325251
80299520.0 -0.1751926276 0.067793447 0.5314777539 -0.0515099862 0.531684527 -0.0516450088 -0.183682697 0.0636238383
85299490.0 -0.1726370167 0.0682521792 0.5327104865 -0.0584284251 0.5327201669 -0.0581773138 -0.1815526738 0.0638397632
90299460.0 -0.1702183777 0.0689101798 0.533432109 -0.0648624039 0.533617057 -0.0648419767 -0.1793758545 0.0648505572
95299430.0 -0.1679856069 0.069544428 0.5346182582 -0.0721867166 0.534582974 -0.0723021762 -0.1774152391 0.065385874
100299400.0 -0.1659850606 0.0702480633 0.5348089856 -0.0786861916 0.5352820552 -0.0789512075 -0.1759952378 0.0665768227
105299370.0 -0.1642522838 0.0709845364 0.5353184973 -0.085483782 0.5355151495 -0.0859279234 -0.1738680093 0.0666502913
110299340.0 -0.1621667567 0.0714922329 0.5351069526 -0.0920676734 0.5357613029 -0.0921871153 -0.1727262638 0.0674185027
115299310.0 -0.1607300071 0.0722927636 0.5351093353 -0.0992625235 0.535465647 -0.0995772573 -0.1712009794 0.0686719182
120299280.0 -0.1594822014 0.0731629177 0.535453517 -0.1068388307 0.5348286785 -0.106035937 -0.1700888597 0.0685776735
125299250.0 -0.1579744741 0.0740314312 0.534964316 -0.1129376691 0.5347050639 -0.112748703 -0.1687051587 0.0697501213
130299220.0 -0.1565408899 0.0746260352 0.5341527966 -0.1200509714 0.5341419958 -0.120278025 -0.1676700217 0.0707278694
135299190.0 -0.1554481953 0.0760130164 0.5334628492 -0.1261109065 0.5339140931 -0.1263080385 -0.1665941629 0.0713100527
140299160.0 -0.1542585896 0.0769228391 0.5332106239 -0.1330244783 0.5326926146 -0.1325448274 -0.1661689546 0.0715689657
145299130.0 -0.1535924102 0.0778543392 0.5320933051 -0.139421446 0.5317235956 -0.1390457098 -0.1652935618 0.0725948792
150299100.0 -0.152104799 0.0787284905 0.530725782 -0.1461855872 0.5307069425 -0.1460998253 -0.1639957553 0.0741164687
155299070.0 -0.1508026182 0.0798593042 0.5289424788 -0.1524158015 0.5297925034 -0.1525141915 -0.1632228623 0.0747468449
160299040.0 -0.1501287376 0.0811071319 0.5280501146 -0.1588420495 0.5278197865 -0.1590770507 -0.1628215584 0.0758997497
165299010.0 -0.1489458665 0.0824390538 0.5269500915 -0.1652248411 0.5266540759 -0.1655003639 -0.1615665184 0.0767441024
170298980.0 -0.1478263533 0.0835767768 0.5246885849 -0.1714457923 0.5252026603 -0.1719263575 -0.1609356352 0.0778918894
175298950.0 -0.1469090959 0.0847444062 0.5238269871 -0.1784390139 0.523795786 -0.1783820761 -0.1601970843 0.0792258736
180298920.0 -0.1458636894 0.0859681555 0.5216781488 -0.1846655202 0.5218948678 -0.1848417362 -0.1590780534 0.080075827
185298890.0 -0.144933013 0.0872176071 0.5200597605 -0.1904369245 0.5201189973 -0.1904444222 -0.1584432199 0.0811837589
190298860.0 -0.143771058 0.0889262052 0.5176218197 -0.1969731142 0.5182277921 -0.1967979976 -0.1578480054 0.0824263389
195298830.0 -0.1428320399 0.0901102548 0.5160778188 -0.2028792852 0.5161884711 -0.2026455777 -0.1574825624 0.0837428035
200298800.0 -0.1418403202 0.0910130249 0.5139319543 -0.2095955143 0.5136328117 -0.2091981207 -0.1561430853 0.0844555245
205298770.0 -0.1413694205 0.0926975974 0.5116536541 -0.2150134389 0.5122999718 -0.2148567215 -0.1558696934 0.0857072579
210298740.0 -0.140359468 0.0940914331 0.5095086442 -0.2211847284 0.5091605352 -0.2209852128 -0.1549960613 0.087066484
215298710.0 -0.1394301977 0.095399717 0.5070036588 -0.2266584264 0.506807937 -0.2272210183 -0.1539196967 0.088197729
220298680.0 -0.1381137832 0.0967231548 0.5045274273 -0.2328753957 0.5045856233 -0.23284445 -0.1534454442 0.0893576633
225298650.0 -0.1372185747 0.0981541821 0.5020298418 -0.2384406192 0.5022788312 -0.2386024793 -0.1526395307 0.0906171633
230298620.0 -0.1361580512 0.0999792938 0.4997258169 -0.2446054519 0.4997811857 -0.2443511625 -0.1520716928 0.0916084728
235298590.0 -0.135684276 0.1012056379 0.4971178259 -0.2504143661 0.4973842767 -0.2501087355 -0.151348136 0.0932739808
240298560.0 -0.1340654527 0.1028432346 0.4939117801 -0.2554998348 0.494462131 -0.2554600414 -0.1506896971 0.094502924
245298530.0 -0.1333537759 0.103861191 0.4914832245 -0.2617378053 0.4916352572 -0.261401668 -0.1498019751 0.0958210462
250298500.0 -0.1324384781 0.1053537751 0.4889153267 -0.2667817065 0.4889161871 -0.2668438229 -0.1489769517 0.0973116037
255298470.0 -0.1310791264 0.1072535727 0.4863440591 -0.272447862 0.4863456488 -0.2727759283 -0.1479546748 0.0987764705
260298440.0 -0.1301189985 0.1083371709 0.4832303403 -0.2779790362 0.4833454719 -0.2779436963 -0.1473552352 0.0999379192
265298410.0 -0.129360439 0.1103162882 0.4801247792 -0.2840908253 0.4799081325 -0.2842051174 -0.1457202924 0.1008735473
270298380.0 -0.1283921117 0.1112079235 0.4767099083 -0.288913594 0.4771947007 -0.289285483 -0.1456347643 0.1028842379
275298350.0 -0.1270565961 0.1128208493 0.4731605091 -0.2943181635 0.4736368336 -0.294542349 -0.1445775734 0.1038126459
280298320.0 -0.1261024836 0.1143387135 0.4707450594 -0.2995566861 0.4710672971 -0.3001799758 -0.1434220688 0.1057935534
285298290.0 -0.1249297983 0.1157710426 0.4674462215 -0.3049594818 0.4675897662 -0.3046495707 -0.1426829282 0.1068387318
290298260.0 -0.1238158624 0.1173314678 0.4646378026 -0.3101238006 0.4645857042 -0.3104498267 -0.1418165782 0.1079072877
295298230.0 -0.1226447255 0.1184012033 0.4610110992 -0.3155805483 0.460897764 -0.316184781 -0.1404098825 0.1094574083
300298200.0 -0.1213365099 0.1203938296 0.4575483374 -0.3212642194 0.4573283626 -0.3207195315 -0.1397566182 0.1104554311
305298170.0 -0.1200789604 0.1213336669 0.4544486711 -0.3261809712 0.4543955413 -0.3266841827 -0.1385029893 0.1115091563
310298140.0 -0.1186818416 0.1223893231 0.4506294921 -0.3312514761 0.4507349633 -0.3309275063 -0.1375464879 0.1131210455
315298110.0 -0.1175134159 0.1235831697 0.4469173605 -0.3372878613 0.446918744 -0.3367838358 -0.1365400865 0.1144195289
320298080.0 -0.1165043108 0.1253245635 0.4430672764 -0.3418792701 0.44379571 -0.3418146761 -0.1358386077 0.1156108545
325298050.0 -0.1157864835 0.1261401882 0.439220207 -0.3465659362 0.4398787953 -0.3469429479 -0.1347380872 0.1164862219
330298020.0 -0.1148771196 0.128006872 0.435464597 -0.3521688611 0.4357556483 -0.3522535421 -0.1339006461 0.1178899809
335297990.0 -0.1134442985 0.1293591316 0.4313647842 -0.3567236543 0.431440552 -0.3568765367 -0.1328374371 0.1194668982
340297960.0 -0.112515622 0.1303721733 0.426880348 -0.3619933881 0.4270224233 -0.3615254195 -0.1319796484 0.1208851934
345297930.0 -0.1114037623 0.1316508433 0.423309986 -0.3665715159 0.4230113224 -0.3664443309 -0.1309612251 0.1219090559
350297900.0 -0.1102478783 0.1330975937 0.4194399852 -0.3702986067 0.4196525041 -0.3706018763 -0.1301324172 0.1231760725
355297870.0 -0.1089298098 0.1341909839 0.4150778577 -0.3745911492 0.415108818 -0.374910427 -0.1286799539 0.1246481283
360297840.0 -0.1074612399 0.1358212085 0.4106606981 -0.3796547538 0.4111618731 -0.3801339512 -0.1279556824 0.1258580517
365297810.0 -0.1062203226 0.1373632326 0.4065136101 -0.3841654241 0.4067863581 -0.3844994234 -0.1267948908 0.127646533
370297780.0 -0.1046776668 0.1384121884 0.4020383183 -0.3889512765 0.4022237026 -0.3886368876 -0.1255606251 0.1286974418
375297750.0 -0.1033762503 0.1397373707 0.3979748903 -0.393270575 0.3980708297 -0.3932737537 -0.124317815 0.1303869263
380297720.0 -0.1021491683 0.1411892573 0.3942963333 -0.3980142995 0.3938559543 -0.3976579951 -0.1234888097 0.1315818295
385297690.0 -0.1006633143 0.1421913902 0.3896550172 -0.4020575075 0.3896719374 -0.4021681995 -0.1220585809 0.1330678745
390297660.0 -0.0991265471 0.1433153381 0.384994356 -0.4056317816 0.3851389387 -0.4058556052 -0.1208145335 0.1342380811
395297630.0 -0.0973846984 0.144657045 0.3807195167 -0.4093426439 0.3807290394 -0.4103012588 -0.1194838816 0.1353902921
400297600.0 -0.0964699864 0.1457680032 0.3764469693 -0.4144134072 0.376403695 -0.4142349528 -0.1184548493 0.1369091011
405297570.0 -0.0949323957 0.1467267273 0.3716633439 -0.4182758337 0.3719768421 -0.4186964019 -0.1168521855 0.1382323348
410297540.0 -0.093241016 0.1482078399 0.3668338084 -0.422574238 0.3672215329 -0.4223103895 -0.1153732871 0.1398007355
415297510.0 -0.0920441581 0.1493012801 0.3624397226 -0.4264247415 0.3628047184 -0.4267046451 -0.1140230373 0.1407286776
420297480.0 -0.0899392034 0.1502563473 0.3576514776 -0.4307061179 0.3579103961 -0.4304195547 -0.1125317806 0.1423556222
425297450.0 -0.0881862133 0.1513324634 0.3529918809 -0.4344288122 0.3527525718 -0.4343831605 -0.1113449976 0.14310153
430297420.0 -0.0869510233 0.1524263778 0.3486817478 -0.4382023551 0.3486051273 -0.4377644127 -0.1095878061 0.1442190746
435297390.0 -0.0851490442 0.1531139882 0.3431402999 -0.4423238789 0.3434921184 -0.4420332745 -0.1089787922 0.1460402116
440297360.0 -0.0835097783 0.1543383562 0.3384653769 -0.4459084155 0.3385651743 -0.4458930136 -0.1073591022 0.1470546154
445297330.0 -0.0818763782 0.1550512812 0.3338050204 -0.4492459952 0.3335117776 -0.4493083933 -0.1059579449 0.1481406203
450297300.0 -0.0799305526 0.1562772433 0.329035756 -0.4525865205 0.3290744175 -0.4528318926 -0.1041999583 0.1495012184
455297270.0 -0.0787231134 0.1572872748 0.3240094621 -0.456436185 0.3239846095 -0.4564348337 -0.1028676395 0.1505884843
460297240.0 -0.0765379539 0.1582631748 0.3185702657 -0.4606840073 0.3189979562 -0.4602701883 -0.1016362207 0.1515487586
465297210.0 -0.0750583491 0.1593055488 0.3136269735 -0.4638143587 0.3132989273 -0.4635107635 -0.0998609211 0.1531487365
470297180.0 -0.0731998688 0.1600087689 0.3087671363 -0.4665834581 0.3090666886 -0.4667468371 -0.0982966768 0.1537181555
475297150.0 -0.0719736504 0.1613565657 0.3034994629 -0.470180761 0.3035591035 -0.4702770079 -0.0967984064 0.1547030876
480297120.0 -0.0695049101 0.1624425522 0.2984766264 -0.4738577578 0.2987266535 -0.4734273286 -0.0954647772 0.155946566
485297090.0 -0.067649683 0.1625440227 0.2929788116 -0.4767088009 0.2932044687 -0.4767543186 -0.0940934254 0.1575147919
490297060.0 -0.0653722795 0.1637049417 0.2876789342 -0.4800199995 0.288159633 -0.4801941502 -0.0925778762 0.1577051075
495297030.0 -0.0639374853 0.1642213666 0.2829203678 -0.4833110496 0.2825788583 -0.4831521478 -0.0905614733 0.1590729667
500297000.0 -0.0623695247 0.165173072 0.277630297 -0.4857718229 0.2774808301 -0.4864817664 -0.0891087731 0.1604679871
505296970.0 -0.0600263227 0.1662510713 0.2723083913 -0.4892603959 0.2721808137 -0.4886574439 -0.0873880061 0.1607153063
510296940.0 -0.058029818 0.1666865499 0.2667743814 -0.4925140275 0.2673182525 -0.4926212321 -0.0856476964 0.1624907165
515296910.0 -0.0563025203 0.1678070024 0.2610666568 -0.4949898299 0.2610110927 -0.4947675263 -0.0844034861 0.1628553868
520296880.0 -0.0542149032 0.1685299153 0.2562092913 -0.4975427362 0.2558377762 -0.4976416853 -0.0825736819 0.1645209553
525296850.0 -0.0523955874 0.1690718402 0.250498169 -0.5002633524 0.2501824867 -0.5002203256 -0.0805727903 0.1648169497
530296820.0 -0.0507326372 0.1698717716 0.2451133579 -0.5031187898 0.2448246052 -0.5027885396 -0.0792522864 0.1654472637
535296790.0 -0.0481386686 0.170635651 0.2395060101 -0.5055382225 0.2396875433 -0.5056549688 -0.0772474364 0.1670361852
540296760.0 -0.0463792948 0.1714986274 0.2338061182 -0.5081629671 0.2337907781 -0.5081013827 -0.0758809116 0.1673180903
545296730.0 -0.0449139466 0.1723214798 0.2282270415 -0.5104609759 0.2281065701 -0.5104482739 -0.0740403556 0.168385562
550296700.0 -0.0420950373 0.1727679146 0.2227143525 -0.5130844993 0.222644198 -0.5134001858 -0.0722462172 0.1691862811
555296670.0 -0.0404082543 0.1734445562 0.2171931857 -0.515496051 0.2175873246 -0.5155371985 -0.0710980641 0.1697673904
560296640.0 -0.0380236327 0.1738601013 0.2111737179 -0.517740402 0.2118091019 -0.5178718234 -0.0692573397 0.1710842628
565296610.0 -0.0366263776 0.1744854442 0.2061791008 -0.5200288117 0.2063422499 -0.5197387379 -0.0670446818 0.1717648396
570296580.0 -0.0344502745 0.1753689681 0.1999655889 -0.5221272713 0.2003460685 -0.5219854065 -0.0658363309 0.1722775362
575296550.0 -0.0320877122 0.1758106378 0.1946485667 -0.5243611309 0.194704613 -0.5237087361 -0.0639367181 0.1728762817
580296520.0 -0.0301524629 0.1766581339 0.1890586461 -0.5266250804 0.1888296513 -0.52622531 -0.0623558007 0.1738904074
585296490.0 -0.0279938011 0.1770570146 0.1837282137 -0.5286507663 0.1832348712 -0.5282281635 -0.0601003076 0.1748998457
590296460.0 -0.0254575317 0.1774920284 0.1775031741 -0.5302157975 0.1773968767 -0.5306553861 -0.0593161082 0.1755435343
595296430.0 -0.0237005481 0.1777353057 0.1708709143 -0.5321331155 0.1713916151 -0.5322537448 -0.0569439071 0.1760636616
600296400.0 -0.021345226 0.1783560461 0.1653902206 -0.533761788 0.1654675744 -0.5337368173 -0.0552195579 0.1764068183
605296370.0 -0.0200241907 0.1790748636 0.1608822457 -0.5354966904 0.1594950912 -0.5356699004 -0.0535175334 0.1774762141
610296340.0 -0.0173575759 0.1798423259 0.1542639022 -0.5367210745 0.1545615057 -0.5371019874 -0.0521492067 0.1781387379
615296310.0 -0.0150213484 0.1799245364 0.148452016 -0.5392211861 0.1482165985 -0.5389135526 -0.0497230015 0.1788727624
620296280.0 -0.0135798575 0.1810214506 0.1423463005 -0.5404064985 0.1425723139 -0.5403506349 -0.0488369923 0.1795559069
625296250.0 -0.0116187289 0.1807530941 0.1367120464 -0.5416902316 0.1363151594 -0.5423827913 -0.0471667228 0.1801009924
630296220.0 -0.0093571775 0.1813044955 0.1304939228 -0.5436594287 0.1306462554 -0.5433097726 -0.0447000668 0.1807672712
635296190.0 -0.0073343407 0.1817986384 0.1252012211 -0.5446659927 0.1248288993 -0.5444395089 -0.0432156497 0.1809745548
640296160.0 -0.005325949 0.1818103819 0.1192383639 -0.545961038 0.1186604634 -0.5463151159 -0.0414814927 0.1815840353
645296130.0 -0.0028789049 0.1826758883 0.1131012093 -0.5469851494 0.1129946451 -0.5469586205 -0.0400098424 0.1819546855
650296100.0 -0.00103758 0.182726091 0.1073989447 -0.5485806474 0.1068461088 -0.5482312415 -0.037580772 0.1826276818
655296070.0 0.0008844365 0.1826143885 0.1012174739 -0.5494463666 0.1010748553 -0.5492138022 -0.0362515888 0.1833833814
660296040.0 0.0026757483 0.1834194143 0.0957995953 -0.5508042454 0.0951994303 -0.550710787 -0.0342804698 0.1835800742
665296010.0 0.0049596143 0.1834443876 0.0889486006 -0.551567837 0.0891334499 -0.551397214 -0.0324826933 0.1842414424
670295980.0 0.0071297144 0.1837518301 0.0833411785 -0.5523878235 0.0828260961 -0.5517212335 -0.0310385444 0.1844974726
675295950.0 0.0091419686 0.1837967218 0.0772174432 -0.5532105949 0.077400017 -0.5532880558 -0.0292765187 0.1849753607
680295920.0 0.010963845 0.1839968513 0.071250025 -0.5533360329 0.0715799254 -0.553544466 -0.0269266271 0.1852702952
685295890.0 0.013338914 0.1843710429 0.0651007137 -0.5548855257 0.0653055244 -0.5549468105 -0.0253112812 0.1862090551
690295860.0 0.0150141867 0.184472441 0.0594684913 -0.5551689712 0.0591134958 -0.5552048844 -0.0232887014 0.1860160509
695295830.0 0.0172815093 0.1845627909 0.0538613586 -0.5561363435 0.0531674074 -0.5559166483 -0.0220259435 0.186901654
700295800.0 0.0197423878 0.1845805548 0.0476401665 -0.5562279246 0.0476354508 -0.5565467236 -0.0197396479 0.1870786757
705295770.0 0.0209174069 0.1848609275 0.0419173117 -0.5571013368 0.0416781758 -0.556527341 -0.0180216972 0.1876522817
710295740.0 0.0231194803 0.1845591959 0.035477626 -0.557473454 0.0355328151 -0.5575292885 -0.016214658 0.1876222775
715295710.0 0.0253696782 0.1848908008 0.0299841028 -0.5574372412 0.0293940541 -0.5575760699 -0.0144204905 0.1880057313
720295680.0 0.0277207541 0.1847181452 0.0232764933 -0.5579385905 0.0231853665 -0.5580682259 -0.0126758977 0.188180145
725295650.0 0.0286745672 0.1849858287 0.0179037155 -0.5578401593 0.0174879145 -0.5578902623 -0.0108949087 0.1885276374
730295620.0 0.030450998 0.1844480895 0.0119671539 -0.5577043303 0.0111500393 -0.5576725996 -0.0092140541 0.1895920653
735295590.0 0.0332657341 0.1847584187 0.0058095399 -0.5580479381 0.0053171219 -0.5583510175 -0.0070909157 0.1890949495
740295560.0 0.0348100245 0.1844245055 -0.0001449442 -0.5581328763 -0.0004441588 -0.5582354624 -0.0054254306 0.1896854831
745295530.0 0.0370356738 0.1841707807 -0.0059532626 -0.5573986872 -0.0056821299 -0.5579930058 -0.0042606038 0.1896110703
750295500.0 0.0386119532 0.1843934013 -0.0119354418 -0.5576908875 -0.0126803762 -0.5579510863 -0.0020451575 0.1898467156
755295470.0 0.0406733651 0.1841320257 -0.0181597302 -0.5581403538 -0.0182089274 -0.5581864635 -0.0001112373 0.1905483126
760295440.0 0.0426097684 0.1842357376 -0.0245692093 -0.5576749689 -0.0245510393 -0.5572581383 0.0021103763 0.1896493986
765295410.0 0.0447273203 0.1833394159 -0.0302621263 -0.5569000315 -0.0297573422 -0.5574141614 0.0035965527 0.1902719152
770295380.0 0.0465873775 0.1838195564 -0.0358527254 -0.5563428111 -0.0360096443 -0.5572613696 0.0052373846 0.1903277388
775295350.0 0.0480671742 0.1831598714 -0.0418842099 -0.5566501279 -0.0420310336 -0.5559419438 0.0074324552 0.190537635
780295320.0 0.0503897249 0.1829065974 -0.0478387685 -0.5555082456 -0.047856871 -0.5557668968 0.0092266361 0.1905080655
785295290.0 0.05218216 0.1826146789 -0.0538595614 -0.5551921603 -0.0539109163 -0.5553530541 0.0108513619 0.1908612847
790295260.0 0.054068363 0.1821667542 -0.059967329 -0.5548372356 -0.0598992141 -0.5548462108 0.0125737305 0.1913877892
795295230.0 0.0560095557 0.1815929829 -0.0661414461 -0.5539574165 -0.0659869934 -0.5539966993 0.0147025833 0.1904337133
800295200.0 0.057701565 0.1813546346 -0.0711826492 -0.5523835693 -0.0719432859 -0.5531489342 0.0160452259 0.1909740214
805295170.0 0.0595278138 0.1809866576 -0.0780781183 -0.5524608598 -0.077491886 -0.5525424784 0.0187482347 0.1908269773
810295140.0 0.0615861451 0.1805588304 -0.0837704541 -0.5513775401 -0.084011276 -0.5517064587 0.0204677178 0.1907475938
815295110.0 0.0633663244 0.1802040409 -0.0890740669 -0.5504382495 -0.0893489507 -0.550623722 0.0219374988 0.1907384423
820295080.0 0.0654988688 0.17953237 -0.0951227571 -0.5491242786 -0.0951207446 -0.5495772938 0.0231516896 0.1911783417
825295050.0 0.0672362625 0.1790381163 -0.1014384808 -0.5485174507 -0.1014824238 -0.5485562103 0.0260419074 0.1913265876
830295020.0 0.0689619254 0.1784254592 -0.1072512976 -0.5470709218 -0.1070235653 -0.5473133288 0.0273988844 0.1903986514
