!Created with skrf (http://scikit-rf.org).
# Hz S RI R 50.0 
!freq ReS11 ImS11 ReS21 ImS21 ReS12 ImS12 ReS22 ImS22
300000.0 0.8604544145 -0.0013523388 -0.0001593027 0.0007349823 -0.0002237733 0.0006654595 -0.7677483339 -0.157315127
5299970.0 0.8594585555 -0.0105366075 -0.0001289654 0.0001394314 -0.0001909793 0.0002391046 -0.7845404752 -0.0081941984
10299940.0 0.8583817205 -0.0191627457 5.35486e-05 0.0002181251 0.0001791559 0.0001314988 -0.7882651497 -0.0047998178
15299910.0 0.8576966969 -0.0272405139 -0.0002175094 1.4127e-06 0.0001053521 0.000185296 -0.7935691708 -0.003030163
20299880.0 0.8571230456 -0.0359800942 -0.0001509409 -1.34704e-05 -0.000156426 -7.9846e-05 -0.800113946 0.0017443192
25299850.0 0.8567620697 -0.0436077877 0.0003328183 5.66524e-05 -6.88914e-05 4.12056e-05 -0.8067753947 0.0071457099
30299820.0 0.8558711823 -0.0519361515 8.61307e-05 6.3192e-05 1.19985e-05 -2.75446e-05 -0.812547624 0.0148687328
35299790.0 0.8555245024 -0.0602700415 -2.0061e-05 9.14841e-05 -6.7715e-05 -7.25073e-05 -0.8178002679 0.02398204
40299760.0 0.8538216509 -0.0684618036 2.69413e-05 1.37983e-05 9.98979e-05 4.90434e-05 -0.8217134632 0.0333524786
45299730.0 0.8532953336 -0.0765306476 -2.752e-05 4.82821e-05 2.32869e-05 0.0001133819 -0.8252678859 0.042638058
50299700.0 0.8526497662 -0.0852980591 0.000161527 -9.17855e-05 -0.0001507811 0.0001250601 -0.8276044814 0.0524233408
55299670.0 0.8515798377 -0.0930933658 -0.0001519931 0.0002183106 0.0001501488 6.44475e-05 -0.8299395012 0.0631156074
60299640.0 0.850330595 -0.1010421414 0.0001256058 -3.64033e-05 -0.0002443097 5.55128e-05 -0.830807893 0.0729316424
65299610.0 0.849687901 -0.1090631285 -0.0002020525 -0.0002702658 -2.96225e-05 1.46928e-05 -0.8308344639 0.08293735
70299580.0 0.8481979538 -0.1176501488 2.88357e-05 2.85575e-05 4.7532e-06 -0.0002407192 -0.83184415 0.0931301112
75299550.0 0.8474665952 -0.1265243482 -0.0001947721 2.18473e-05 -6.03973e-05 -0.0001344492 -0.8322772995 0.1025450326
80299520.0 0.8458045419 -0.1341571784 -9.66432e-05 3.83997e-05 3.97368e-05 5.65683e-05 -0.8317282813 0.1125860038
85299490.0 0.8446353454 -0.1426492251 -0.0003974834 -0.0001838709 -3.4326e-06 0.0001187395 -0.8313292173 0.1220987575
90299460.0 0.8433216135 -0.1504937744 -1.47456e-05 -9.00548e-05 -0.0002120555 -6.38395e-05 -0.8307496347 0.1310998973
95299430.0 0.8416267261 -0.1593011976 0.0002973916 -6.18549e-05 7.16274e-05 -1.69592e-05 -0.8295671064 0.1412646146
100299400.0 0.8396662934 -0.1668386113 2.38911e-05 -9.8937e-05 -5.93734e-05 9.35123e-05 -0.8291269179 0.1497910342
105299370.0 0.8383037339 -0.1753060312 -0.0001303045 8.7195e-05 0.0001629091 -6.78601e-05 -0.8270476893 0.1594571152
110299340.0 0.8367575577 -0.1832208512 0.0001996775 3.22986e-05 3.42308e-05 -1.06506e-05 -0.8268356672 0.1680047763
115299310.0 0.8348199268 -0.1924132693 0.0001408609 7.4746e-06 -2.05952e-05 -0.0001404885 -0.8243907181 0.1775907197
120299280.0 0.8325923437 -0.199558433 -8.23872e-05 -0.0001630745 0.0001412925 -1.9708e-05 -0.8232057506 0.1862594183
125299250.0 0.8301438072 -0.2079065448 -0.0001134173 0.0001338413 -5.47365e-05 0.0001373176 -0.821523794 0.1958591824
130299220.0 0.828688613 -0.2156877875 2.34912e-05 -9.48855e-05 -2.5177e-06 -1.05405e-05 -0.8200990461 0.2044845465
135299190.0 0.8268571189 -0.2236151168 -0.0001525997 -3.9817e-06 0.0001861871 8.70074e-05 -0.8178661835 0.2128968147
140299160.0 0.8250466876 -0.2315625623 0.0002107788 -0.0001052582 0.0001330183 -9.3087e-05 -0.8161978668 0.222019041
145299130.0 0.8222136546 -0.2396697791 -6.21006e-05 -8.30118e-05 -1.17356e-05 -0.0001702456 -0.8137268335 0.2306493398
150299100.0 0.819500004 -0.2471446198 4.78817e-05 6.35334e-05 -6.19002e-05 2.25474e-05 -0.8115415114 0.2386278525
155299070.0 0.8169452253 -0.2559865197 -5.76118e-05 2.07507e-05 5.93828e-05 -8.53611e-05 -0.8088801917 0.247789652
160299040.0 0.8144974855 -0.2639763822 -4.60593e-05 -0.0001400319 -7.75391e-05 -4.35401e-05 -0.8075223696 0.2571163968
165299010.0 0.8122319311 -0.270969495 2.72925e-05 6.29959e-05 3.08137e-05 -0.0001090631 -0.8039875014 0.2649711094
170298980.0 0.8090649953 -0.2791633655 -0.0001082964 -0.0001220386 2.40314e-05 0.0001234367 -0.8018557223 0.2737251215
175298950.0 0.8063473357 -0.2870388003 9.30441e-05 -2.74887e-05 -9.95721e-05 -5.21616e-05 -0.798594825 0.2821314125
180298920.0 0.8033244088 -0.2945388762 -0.0001146466 -4.37546e-05 -6.65872e-05 0.0001374989 -0.7956781627 0.2908926324
185298890.0 0.8002637429 -0.3025789878 6.59159e-05 -3.8445e-06 1.48023e-05 1.3749e-05 -0.7929174205 0.2985707899
190298860.0 0.7975576059 -0.3103159812 -2.29578e-05 9.97337e-05 5.69983e-05 -0.0001816412 -0.7899277395 0.3077274315
195298830.0 0.7944952344 -0.3179746706 -0.0001320571 -1.70244e-05 8.54461e-05 5.78333e-05 -0.7870047906 0.3158248218
200298800.0 0.7913534078 -0.3261451762 6.2214e-05 -6.15947e-05 0.0001230032 5.25202e-05 -0.7832648226 0.323782496
205298770.0 0.7877078341 -0.3343227033 0.0002066436 -8.90639e-05 -9.85477e-05 -8.9982e-05 -0.7801186322 0.3320011524
210298740.0 0.7849568398 -0.3411648699 2.24904e-05 -2.0533e-06 1.75295e-05 -0.0001008577 -0.7765927812 0.3404613819
215298710.0 0.7813294282 -0.3487068081 4.7862e-05 6.03518e-05 -0.0001037603 4.46217e-05 -0.7732517466 0.3490338222
220298680.0 0.7780551075 -0.3563091775 -0.0001004388 -0.000309363 -9.20561e-05 -1.947e-05 -0.7697691189 0.3573055422
225298650.0 0.774066031 -0.3637234487 7.78455e-05 7.44642e-05 -0.0001791261 -2.35872e-05 -0.7654705731 0.3650028048
230298620.0 0.770554099 -0.3717073026 0.0001702645 -4.21678e-05 9.26947e-05 7.41098e-05 -0.7615230518 0.3728959761
235298590.0 0.7673779784 -0.3789071313 -1.4063e-06 -3.17363e-05 0.0001688236 2.88131e-05 -0.7577191274 0.3806962152
240298560.0 0.7635681407 -0.3871764525 -7.4426e-06 -3.77071e-05 -1.0967e-06 -4.09386e-05 -0.7538206011 0.3889406798
245298530.0 0.7594418349 -0.3934489354 0.0001222018 0.0002926893 0.0001350512 -5.9148e-06 -0.7499150683 0.3969686908
250298500.0 0.7556995333 -0.4012307183 8.45459e-05 -0.0002155831 -0.0001300207 -6.45715e-05 -0.7455360938 0.4051983831
255298470.0 0.7515490267 -0.4085923024 2.61222e-05 -0.0001139641 8.45621e-05 -8.81703e-05 -0.7412781568 0.4126025425
260298440.0 0.7472785778 -0.4158569897 2.05885e-05 -0.0001437573 -1.85712e-05 -0.0001540542 -0.7365546126 0.4199490789
265298410.0 0.7436526562 -0.4230088455 9.51543e-05 0.0001186245 -0.0002581391 -2.85295e-05 -0.7323439407 0.4279040136
270298380.0 0.7396922727 -0.4295658573 7.2692e-06 -5.63252e-05 0.0001294601 8.73943e-05 -0.7275625513 0.4354563124
275298350.0 0.7356963893 -0.437094672 0.0001637804 -0.0001159131 -0.0002248694 7.47833e-05 -0.7227406452 0.4432452497
280298320.0 0.7315087728 -0.4439743028 -7.797e-07 0.0002411158 0.0001797887 -3.1488e-05 -0.7183045924 0.4502088886
285298290.0 0.7271520304 -0.4509037956 -3.66998e-05 -4.9848e-06 0.0001594497 8.55098e-05 -0.7135129366 0.4578211845
290298260.0 0.7236665726 -0.458499212 -0.000229979 0.0001135447 -8.01294e-05 0.0001045012 -0.7084562581 0.4658172509
295298230.0 0.7185566625 -0.4664568466 4.1229e-05 -0.0002822134 -0.0001852923 8.07573e-05 -0.7035820971 0.4729730436
300298200.0 0.7148359523 -0.4732816324 -0.0003087651 -5.94256e-05 0.0001910739 -3.05925e-05 -0.6987024864 0.4801921409
305298170.0 0.7099730231 -0.4800562464 9.1929e-06 6.45729e-05 9.6882e-05 5.21329e-05 -0.6929318258 0.4878025903
310298140.0 0.705317327 -0.4881845776 0.0002987605 0.0001543945 -2.5116e-05 0.0001159767 -0.6887810189 0.4952812651
315298110.0 0.700200896 -0.4961030247 -6.66849e-05 4.85905e-05 0.0001528772 -0.0001149634 -0.6830475124 0.501919814
320298080.0 0.6947978618 -0.5028790577 0.0001462005 9.57191e-05 -5.02973e-05 0.0001080098 -0.6779846861 0.5092822566
325298050.0 0.6896886809 -0.5102523402 -0.0003142453 2.5796e-05 -9.28622e-05 7.64579e-05 -0.672051982 0.5167272184
330298020.0 0.6835027992 -0.5166305777 0.0001108145 -1.09988e-05 0.0002253693 -0.0003092634 -0.6665747878 0.5232415595
335297990.0 0.6775402308 -0.5228710734 -1.20654e-05 0.0001176836 -1.96888e-05 -5.72728e-05 -0.6608133609 0.5302329004
340297960.0 0.6724395584 -0.5292925127 9.73749e-05 2.66828e-05 8.32753e-05 -0.0001350368 -0.6554280329 0.5371915559
345297930.0 0.6669588343 -0.535705795 0.0001618265 -2.8228e-05 4.99765e-05 -6.60373e-05 -0.6496296734 0.5440973965
350297900.0 0.6617853352 -0.5421093133 -4.17975e-05 -0.0001577839 0.0001910455 0.0001339952 -0.6437907861 0.5513239827
355297870.0 0.655972941 -0.5480121486 0.0001261406 0.0001460509 5.17134e-05 0.0002723193 -0.6383941716 0.5573867454
360297840.0 0.650495893 -0.5547728348 -6.51006e-05 4.18952e-05 8.40727e-05 -9.69257e-05 -0.6323453242 0.5635700492
365297810.0 0.6452569566 -0.5611400234 -0.0001056034 -2.16e-07 0.0001806197 9.87028e-05 -0.6259962993 0.5708604445
370297780.0 0.6396564632 -0.5662724035 -0.0001893723 0.0003789104 -0.0001306121 -5.4701e-06 -0.6205233484 0.5766266239
375297750.0 0.6335567218 -0.5730155609 3.31061e-05 0.0001910355 -0.0001401175 -0.0001688705 -0.6141885864 0.5829511267
380297720.0 0.6288725748 -0.5787550781 2.44353e-05 -2.68298e-05 7.932e-05 -0.0001333699 -0.6077812875 0.5902499397
385297690.0 0.6220983675 -0.5845224141 -8.23375e-05 -4.29561e-05 2.6334e-06 -0.0001733077 -0.6017982326 0.5959526091
390297660.0 0.6169336451 -0.5905360315 -2.09309e-05 5.41947e-05 3.16068e-05 7.40214e-05 -0.5949850713 0.6016041849
395297630.0 0.6111848031 -0.5969809795 -0.0001783183 1.80334e-05 -0.0002071603 -6.68775e-05 -0.5887528344 0.6084390085
400297600.0 0.6045315738 -0.6019048814 0.0001203313 -3.95943e-05 3.35997e-05 -6.08565e-05 -0.5831838222 0.6136412605
405297570.0 0.5990288026 -0.6076933913 4.54641e-05 -1.721e-05 -0.0001004272 -1.16752e-05 -0.5769087876 0.6203095701
410297540.0 0.5931939951 -0.6137990042 0.0001566604 -0.0001180612 2.77877e-05 -0.0002168111 -0.5694624502 0.6255750766
415297510.0 0.5873965282 -0.6190389406 0.0001708624 -7.30321e-05 -4.15404e-05 -7.56636e-05 -0.5633791062 0.6319644881
420297480.0 0.580547288 -0.625593035 6.26612e-05 0.0001294062 0.0001159154 9.394e-06 -0.5569233106 0.6368124139
425297450.0 0.5746019312 -0.6303445917 4.60463e-05 -3.5994e-05 -6.36229e-05 4.84577e-05 -0.5499821323 0.6432824523
430297420.0 0.5682043446 -0.6358191483 -3.10933e-05 0.000126423 -0.000168348 0.0001136193 -0.5437674443 0.6487319442
435297390.0 0.5622329455 -0.6413252138 0.0001125552 3.77463e-05 0.0002438904 -0.0001579175 -0.5366356048 0.6532752204
440297360.0 0.556161126 -0.6476856463 -3.55759e-05 1.71595e-05 -0.0002596931 -0.0001739648 -0.5301725296 0.659233584
445297330.0 0.5497050616 -0.6515286693 -7.46126e-05 3.52273e-05 -0.0001691353 -6.46324e-05 -0.5235419489 0.6642907638
450297300.0 0.5428495997 -0.6576402311 -2.18803e-05 4.63268e-05 1.51301e-05 -8.98463e-05 -0.516880988 0.6696773887
455297270.0 0.5363302898 -0.6624671595 -3.3937e-05 -2.25199e-05 5.12574e-05 -8.62167e-05 -0.5093192821 0.6752882038
460297240.0 0.5300242535 -0.6674638087 4.81402e-05 -0.0001472466 1.47431e-05 -3.62219e-05 -0.5025342363 0.6803048239
465297210.0 0.5229803167 -0.6734126196 5.57915e-05 2.52271e-05 0.0002108527 9.53947e-05 -0.495978222 0.6851208643
470297180.0 0.5161648091 -0.678417506 -6.54123e-05 -5.0886e-06 -0.0001869353 -0.0001047272 -0.4889595485 0.6897417145
475297150.0 0.5098506468 -0.6829142464 -0.0001302056 -9.75392e-05 -0.0001407918 6.61962e-05 -0.4816118273 0.6947434568
480297120.0 0.50278534 -0.6883867827 -8.906e-06 2.596e-07 -0.0001294015 -0.0001019807 -0.4746480075 0.6999773827
485297090.0 0.4965631275 -0.6921330756 0.0001646234 8.3424e-06 7.579e-06 0.0001599114 -0.4674824902 0.7042060162
490297060.0 0.4900028532 -0.6972420517 -1.34511e-05 -0.0002256619 8.44267e-05 -6.70597e-05 -0.4604811918 0.708614557
495297030.0 0.4829060838 -0.7027089625 -0.0001086619 1.60704e-05 -8.56663e-05 -1.03028e-05 -0.45305862 0.7129744887
500297000.0 0.4758425428 -0.7068211861 5.1221e-05 4.30081e-05 9.70845e-05 3.67214e-05 -0.4461383668 0.7177304109
505296970.0 0.4680730397 -0.7115575724 6.14363e-05 -7.00683e-05 6.5794e-06 0.0001262942 -0.4393744557 0.7221042006
510296940.0 0.4618448465 -0.7156234556 7.12589e-05 -0.000189667 -0.0001490701 0.0001004329 -0.4313764769 0.7264218342
515296910.0 0.4545154774 -0.7203894513 6.3967e-06 -5.99535e-05 -9.66474e-05 -3.02919e-05 -0.4243488618 0.7307487089
520296880.0 0.4472956489 -0.7243810222 0.0001114375 2.1969e-06 -8.18312e-05 -0.0002143084 -0.4168845144 0.7346181775
525296850.0 0.4404299056 -0.7286128149 7.19199e-05 -9.9309e-06 8.961e-07 -0.0001183646 -0.4088934893 0.7396383065
530296820.0 0.432698705 -0.7330351384 -7.60823e-05 8.51472e-05 -2.13889e-05 -2.35171e-05 -0.4025343315 0.7430070274
535296790.0 0.4254510902 -0.7362610135 7.95882e-05 -5.19747e-05 -3.39356e-05 -1.5416e-05 -0.3950951015 0.7466838657
540296760.0 0.4187550351 -0.7411560555 2.72909e-05 -0.0001224549 -4.41576e-05 -7.52295e-05 -0.3876101478 0.7509051402
545296730.0 0.4111683035 -0.7447809325 -0.0003430146 -8.2754e-06 -2.827e-06 1.57636e-05 -0.3799170802 0.7543314283
550296700.0 0.4036910037 -0.7490589028 0.0001039874 5.83929e-05 7.62701e-05 2.01295e-05 -0.3722471189 0.7582188257
555296670.0 0.3962891866 -0.7530033575 -3.25515e-05 0.0001082169 -0.0001540226 -2.29389e-05 -0.3646826362 0.761970447
560296640.0 0.3892285704 -0.7568256331 0.0001139335 2.97827e-05 -7.5696e-06 0.0001379865 -0.3569835902 0.7658631145
565296610.0 0.3812781172 -0.7608033572 1.0932e-06 1.57366e-05 4.11803e-05 -0.0001070389 -0.3496143475 0.7689720803
570296580.0 0.3740497298 -0.764490119 9.83836e-05 -2.2367e-06 -9.6809e-05 0.0001181573 -0.3426508301 0.7724958724
575296550.0 0.3666515752 -0.7673198252 -0.0001044551 6.97576e-05 7.81897e-05 6.71222e-05 -0.3343899049 0.7755603181
580296520.0 0.3593778852 -0.7704165259 0.000110296 4.29579e-05 0.000175025 -0.0002547371 -0.3265315197 0.7794826835
585296490.0 0.3506779068 -0.7742065317 3.51869e-05 -9.16218e-05 0.000177758 -8.1622e-05 -0.3190149353 0.7817880909
590296460.0 0.3429639037 -0.7778797269 5.16904e-05 -5.1568e-06 0.0001137207 0.0001448578 -0.3112852867 0.7847352568
595296430.0 0.3358848386 -0.7806296242 -2.92952e-05 -1.96274e-05 -6.6303e-05 0.0002430053 -0.3031924824 0.787520633
600296400.0 0.3278527836 -0.783899407 -8.49757e-05 -0.0001292897 4.57723e-05 2.08587e-05 -0.2956612633 0.7913550292
605296370.0 0.3204678783 -0.7863698271 -7.64528e-05 0.0001590647 0.0001682996 9.63135e-05 -0.288063485 0.7946826173
610296340.0 0.3129129261 -0.7906217525 3.51803e-05 7.27271e-05 7.18695e-05 -0.0001621704 -0.279823109 0.7970853087
615296310.0 0.3044165201 -0.7927445871 -7.7349e-05 5.47174e-05 -5.09638e-05 9.5792e-05 -0.2717044415 0.7991852854
620296280.0 0.2966280134 -0.7961118419 4.0427e-05 0.0001241244 3.2819e-05 0.0001670848 -0.2642693465 0.801880147
625296250.0 0.2891727125 -0.7984444785 -5.33445e-05 0.0001379555 7.98584e-05 -2.72136e-05 -0.2565184035 0.8048712887
630296220.0 0.2817500319 -0.8013041821 -7.69008e-05 -9.21582e-05 3.37332e-05 0.0001516117 -0.248595965 0.8077247825
635296190.0 0.2734169444 -0.8042103553 -0.0001227604 2.06347e-05 -4.8729e-06 0.0001288244 -0.2400948882 0.8095923845
640296160.0 0.2654142629 -0.8065029335 0.000200472 -1.43906e-05 -3.36949e-05 -0.0001912496 -0.232082754 0.8118840902
645296130.0 0.2571323138 -0.8092887445 0.0002669934 -0.0002257735 8.32096e-05 1.89613e-05 -0.2244157467 0.8138720166
650296100.0 0.2491425277 -0.8109580622 -9.76065e-05 -0.0001136359 -0.0001239663 -2.55627e-05 -0.2163463381 0.8167430493
655296070.0 0.2412883248 -0.8135384548 -2.16133e-05 0.0001278923 5.86734e-05 -0.000116635 -0.2072461511 0.818022018
660296040.0 0.2326119691 -0.8156963864 -0.0001370654 -0.0004396464 2.53255e-05 6.35906e-05 -0.2000245479 0.8201907351
665296010.0 0.2249492744 -0.8174099138 9.81399e-05 1.84586e-05 -0.0001075779 1.86942e-05 -0.1923292661 0.8222259042
670295980.0 0.2174795582 -0.8202198792 -0.0001680974 0.0002052261 7.86905e-05 1.31903e-05 -0.1845145247 0.823912351
675295950.0 0.2092395535 -0.8217046004 -0.0002021751 -1.20936e-05 0.000129188 8.70525e-05 -0.1757489974 0.8258601684
680295920.0 0.2000955007 -0.8239005826 -7.38943e-05 -0.0002006686 1.20714e-05 -7.6572e-06 -0.1679576696 0.8277532941
685295890.0 0.192212679 -0.8254901216 1.42875e-05 9.71501e-05 -0.0001134197 0.0002002296 -0.1594051879 0.829249343
690295860.0 0.1854906569 -0.8274315045 0.0002496598 -0.0001838208 -0.0002316909 2.3776e-06 -0.1512197967 0.8307852733
695295830.0 0.1762708479 -0.8290074038 -1.601e-05 -3.5175e-05 -0.0002002905 6.28896e-05 -0.1431360112 0.8324730807
700295800.0 0.1683231048 -0.8303040242 4.29137e-05 3.6295e-05 -0.0001386248 -9.084e-07 -0.1343719175 0.8329860575
705295770.0 0.1600659213 -0.8322166071 -0.0001282828 8.10058e-05 1.40948e-05 -7.16427e-05 -0.1268047498 0.8351484231
710295740.0 0.1519107976 -0.8332440627 5.52342e-05 0.000113896 1.06148e-05 -1.64746e-05 -0.1184233746 0.8362665826
715295710.0 0.1437726995 -0.8346352425 0.000127151 -3.42464e-05 -0.0001983216 -0.000145853 -0.1102290364 0.8371579679
720295680.0 0.1359439916 -0.8362568037 -4.4107e-06 -8.87208e-05 -0.0001553719 1.34497e-05 -0.1017580085 0.8388886278
725295650.0 0.1270125967 -0.8365695012 -2.06462e-05 -4.97706e-05 0.0001417921 0.0002130196 -0.0933866317 0.8393014126
730295620.0 0.118761695 -0.8387851619 4.37954e-05 -5.83399e-05 -0.0001862632 -0.0001738586 -0.085290162 0.840105537
735295590.0 0.1107862335 -0.8386546998 0.0001938595 0.000165693 1.78294e-05 -5.93655e-05 -0.0762234468 0.8408742336
740295560.0 0.1022731635 -0.8402044886 3.25697e-05 4.06182e-05 -0.0002825561 3.41462e-05 -0.0684973861 0.841247503
745295530.0 0.0933641083 -0.8409267542 0.0001194531 -0.0001081123 4.86078e-05 0.0001682245 -0.0601676116 0.8424634899
750295500.0 0.0855796159 -0.8415319084 0.0001689318 -1.55305e-05 9.29053e-05 -2.61851e-05 -0.0516323801 0.8420246633
755295470.0 0.0775130125 -0.8429383005 5.9918e-06 -0.0002519848 4.92067e-05 0.0001945149 -0.0436587433 0.8430353012
760295440.0 0.0686461069 -0.8426780812 0.0001311031 -0.0001027834 -0.0001581896 4.52243e-05 -0.035468127 0.8431973709
765295410.0 0.0604011297 -0.8436281534 -0.0003115312 -8.53419e-05 5.49388e-05 3.11996e-05 -0.026465516 0.8442048425
770295380.0 0.0523647879 -0.8437728453 0.0001808968 9.24121e-05 -7.65124e-05 -6.37181e-05 -0.0180440398 0.8439117497
775295350.0 0.0439814932 -0.8438994405 -7.32149e-05 -7.06712e-05 -0.0001673788 9.30941e-05 -0.0106219863 0.8442391713
780295320.0 0.0348102236 -0.8447727782 9.75677e-05 0.0001183672 -1.67871e-05 -6.18619e-05 -0.0022202695 0.8441630528
785295290.0 0.0265581845 -0.8445901122 -9.07103e-05 -8.58026e-05 0.0001787794 0.0001251034 0.0060655756 0.844408974
790295260.0 0.0191499094 -0.8448029063 4.52848e-05 -2.11554e-05 -0.0001541894 5.84604e-05 0.015468843 0.8442696523
795295230.0 0.0102476362 -0.8443493756 -8.35319e-05 -6.56558e-05 3.3963e-05 -0.0001831241 0.0231852036 0.8443058413
800295200.0 0.0023400409 -0.8441334278 -6.32514e-05 -5.9386e-05 4.99221e-05 -0.0001152008 0.0312576232 0.8434316983
805295170.0 -0.0057167452 -0.8444392935 -0.0002938779 0.000112832 -0.0001415341 5.38172e-05 0.0393546959 0.8428782543
810295140.0 -0.0145516088 -0.8439405141 4.44801e-05 0.0002612493 4.32896e-05 0.0001047216 0.0478992494 0.8436187133
815295110.0 -0.0227593749 -0.8438349566 5.10056e-05 -0.0001978455 -3.11677e-05 4.515e-05 0.0559208344 0.8424985081
820295080.0 -0.031202439 -0.8434399344 -0.0001474998 -0.0001406635 8.4497e-06 7.41314e-05 0.0644432634 0.8417648242
825295050.0 -0.0392459704 -0.8433295496 0.0001773488 9.08993e-05 -1.4909e-06 7.27625e-05 0.0727766677 0.8414371563
830295020.0 -0.0478119645 -0.8423772117 0.0001216696 0.0003327299 -6.99698e-05 -8.03159e-05 0.0809231049 0.8402950302
835294990.0 -0.0555625725 -0.8420846481 -5.90163e-05 0.0001011227 -8.97243e-05 9.5617e-06 0.0889243868 0.8394382534
840294960.0 -0.0640896749 -0.8406539242 7.55234e-05 0.0001589738 -0.000117541 0.0001139582 0.0973954187 0.83890813
845294930.0 -0.0725093219 -0.8406740614 0.000114472 0.000157875 -4.57691e-05 0.0001920191 0.1055305675 0.8375822419
850294900.0 -0.0808400253 -0.8390369597 -0.0001310025 -0.0001271169 6.23602e-05 -7.23877e-05 0.1135440285 0.836517328
