!Created with skrf (http://scikit-rf.org).
# Hz S RI R 50.0 
!freq ReS11 ImS11 ReS21 ImS21 ReS12 ImS12 ReS22 ImS22
300000.0 -0.2403124021 -0.0856706208 0.4713638619 0.0567655566 0.4701491255 0.0543786265 -0.2396505008 -0.0923471905
5299970.0 -0.2451841954 0.0066623561 0.4748922199 0.0053645658 0.4750535476 0.0049993183 -0.241426438 0.0074625471
10299940.0 -0.2417249401 0.0182030362 0.4764714949 0.0056441389 0.4773061593 0.0061990672 -0.2381695079 0.0205307869
15299910.0 -0.2377848005 0.0269974965 0.4805600725 0.0073072347 0.4805009351 0.0074316587 -0.2334132964 0.0300193002
20299880.0 -0.2328106811 0.0340887623 0.4849183557 0.0082119469 0.4854408364 0.0082003607 -0.2282087553 0.0379562643
25299850.0 -0.2278197264 0.0402190142 0.4900899251 0.0071087657 0.4900464749 0.0070887982 -0.2220486018 0.0445775026
30299820.0 -0.2223870666 0.0451777473 0.4956487982 0.0048110669 0.4957398911 0.0050484742 -0.216334564 0.050047631
35299790.0 -0.2174364197 0.0489911277 0.5010712242 0.0016129179 0.5010188084 0.0015270414 -0.2107554923 0.0544466769
40299760.0 -0.2125376707 0.0526121024 0.505827985 -0.0023735894 0.5060520366 -0.0023804175 -0.2052185402 0.0571692881
45299730.0 -0.2079852714 0.0549537767 0.51017372 -0.0072551344 0.5107413923 -0.0073612811 -0.2005038027 0.0603552115
50299700.0 -0.2038092519 0.0569405959 0.514800981 -0.0125294736 0.5149578014 -0.0121214263 -0.1958159816 0.0624054214
55299670.0 -0.2000252864 0.05833484 0.5186611012 -0.0189517064 0.5185914296 -0.0182751556 -0.1914208058 0.0640081902
60299640.0 -0.1960640072 0.060064339 0.52196188 -0.0247553766 0.5219161415 -0.024334302 -0.187510416 0.0650469888
65299610.0 -0.1927338219 0.0610326647 0.5245812769 -0.0312595535 0.5248961486 -0.030940815 -0.1842804254 0.0661450599
70299580.0 -0.1898463642 0.062152461 0.5271656637 -0.0378851599 0.5270095774 -0.0374005989 -0.1807336636 0.0674060688
75299550.0 -0.187216543 0.0629787249 0.5289314638 -0.04452003 0.5288218549 -0.0448400268 -0.1779379485 0.0681625048
80299520.0 -0.1847067716 0.0635606326 0.5308594631 -0.0515120008 0.531247668 -0.0515460809 -0.1751932248 0.0689641065
85299490.0 -0.182356636 0.0640643661 0.5318724013 -0.0583086569 0.5321017987 -0.0581501369 -0.1728493148 0.0697529214
90299460.0 -0.1802819247 0.0647735343 0.5329100699 -0.0651529722 0.5334550547 -0.0652118543 -0.1702825813 0.0703953281
95299430.0 -0.1779907577 0.0652031385 0.5338357503 -0.0717317961 0.5340167333 -0.0720413422 -0.1681090949 0.0713051217
100299400.0 -0.1765863923 0.0662024923 0.533801199 -0.0787095056 0.5342713946 -0.0792633959 -0.1659955631 0.0716266074
105299370.0 -0.1747738086 0.0668065828 0.5344332265 -0.0861237663 0.5349909461 -0.08615322 -0.1637235732 0.0727826106
110299340.0 -0.173449166 0.0674047138 0.5348594808 -0.092638854 0.5347051678 -0.0922911844 -0.1628922605 0.0731315527
115299310.0 -0.1720788282 0.0680755759 0.5351257778 -0.099699109 0.534744686 -0.0993291164 -0.1610504896 0.0739297324
120299280.0 -0.1706653109 0.0683098716 0.5344622679 -0.1059957444 0.5348808866 -0.10625749 -0.1597746324 0.0746534039
125299250.0 -0.1696311453 0.0691733604 0.5339035291 -0.1128080315 0.5344814756 -0.1126003342 -0.1586263678 0.0750733464
130299220.0 -0.1683873796 0.0701146547 0.533289223 -0.1197429992 0.5335485617 -0.1195273477 -0.1571232253 0.0760832336
135299190.0 -0.1673454164 0.0711670816 0.5329699831 -0.126381135 0.5329242695 -0.1262778491 -0.1557410541 0.0770068641
140299160.0 -0.1667427751 0.0719728294 0.5319747994 -0.1330562333 0.5323424212 -0.1330413701 -0.1544983545 0.0782336567
145299130.0 -0.1655366311 0.0729875149 0.5314291876 -0.1398634816 0.530913257 -0.1394038086 -0.1535159532 0.0789929568
150299100.0 -0.1645301711 0.0740666654 0.5299045391 -0.1456736545 0.5302664934 -0.1456051739 -0.1527197975 0.080281935
155299070.0 -0.1639973016 0.0747391573 0.5291687648 -0.1529738019 0.5288370902 -0.1525633502 -0.151325949 0.0813650997
160299040.0 -0.1627666315 0.0757293869 0.5272988781 -0.1589333033 0.5269469004 -0.158892754 -0.1511808343 0.0822880729
165299010.0 -0.1622124299 0.0768852589 0.5258837337 -0.165736862 0.5259330907 -0.1658201681 -0.1494997646 0.0836428529
170298980.0 -0.1613550778 0.0778919306 0.5239666241 -0.1720204436 0.5248025775 -0.1720608456 -0.1484100908 0.0846743154
175298950.0 -0.1609519785 0.0788468992 0.5231424579 -0.1777667636 0.5229356279 -0.1779102491 -0.1476147635 0.0859612219
180298920.0 -0.1600183613 0.0801958014 0.5209900675 -0.1842630611 0.5210014774 -0.1843036356 -0.1468591895 0.0871579289
185298890.0 -0.1589783106 0.0808838594 0.5192258612 -0.1901753554 0.5189030563 -0.1906208077 -0.1458578326 0.0884611467
190298860.0 -0.1585251653 0.0822640003 0.5174973798 -0.196659101 0.5178937435 -0.1968405627 -0.1448208402 0.0897389609
195298830.0 -0.1576630706 0.0834432336 0.5154590704 -0.2028100832 0.5152909245 -0.2027958538 -0.1438540083 0.0909766679
200298800.0 -0.1568712018 0.084655311 0.513052923 -0.2091983637 0.5136017472 -0.2091125381 -0.1435013258 0.0923549661
205298770.0 -0.1561875993 0.085854101 0.5109767216 -0.2153426849 0.511103275 -0.2148318154 -0.1421372089 0.0929604218
210298740.0 -0.1556650718 0.0868882634 0.5086699043 -0.2203502331 0.5086873317 -0.2204506451 -0.1410303303 0.0948753552
215298710.0 -0.1549876698 0.0882796051 0.5065395765 -0.2268244538 0.5066048106 -0.2271045742 -0.1404290562 0.0963122848
220298680.0 -0.1540822218 0.0893915669 0.5034967338 -0.2326407911 0.5038593887 -0.2326343272 -0.1395601885 0.0973335032
225298650.0 -0.1533922402 0.090620728 0.5015731451 -0.2386629002 0.5015941033 -0.238438964 -0.1388658004 0.0986810295
230298620.0 -0.152561569 0.0923667408 0.4988564803 -0.2440847872 0.4994244729 -0.2442801393 -0.1379925279 0.0997382574
235298590.0 -0.1515859206 0.0936512345 0.4964286892 -0.2501718609 0.4964540218 -0.2496726091 -0.1368999575 0.101398445
240298560.0 -0.150942375 0.0950635049 0.4936192071 -0.2560696107 0.4938918244 -0.2560273854 -0.1359064381 0.1030480907
245298530.0 -0.1501476774 0.0962092766 0.4913425727 -0.2616256948 0.4911600391 -0.2614576897 -0.1346519536 0.103732903
250298500.0 -0.1493629531 0.0974095486 0.4877445973 -0.2671266698 0.4873679063 -0.2666908967 -0.1337463981 0.1054516952
255298470.0 -0.1486621516 0.0985379828 0.4845766144 -0.2726624087 0.4853139387 -0.2726137978 -0.1326112663 0.1069057809
260298440.0 -0.1479778389 0.0999422752 0.4820562801 -0.2786311453 0.4824330559 -0.2779799132 -0.1312700579 0.1082061148
265298410.0 -0.1463624011 0.1019016731 0.4790430251 -0.2838618837 0.4798169611 -0.283679165 -0.1301672513 0.1097686886
270298380.0 -0.1457947902 0.1029136902 0.4763291225 -0.2887634536 0.4764388816 -0.2890653591 -0.1295012852 0.1111171829
275298350.0 -0.1449431517 0.1040570681 0.4726965639 -0.2946975284 0.4732328829 -0.2945111603 -0.1280610599 0.112457228
280298320.0 -0.1439129682 0.1058032622 0.470104284 -0.2998062739 0.4700747274 -0.2995388718 -0.126617245 0.1139386676
285298290.0 -0.1431086761 0.1069672769 0.466928904 -0.3049487263 0.4665117421 -0.3051196254 -0.1256105116 0.1152372619
290298260.0 -0.1420436626 0.108352956 0.4634315734 -0.3103571222 0.463258425 -0.310340314 -0.1243943612 0.1167136493
295298230.0 -0.1411705965 0.1094797868 0.4600442548 -0.3158018302 0.4597226418 -0.3158329134 -0.1226774649 0.1180131732
300298200.0 -0.1403301468 0.1108762777 0.4567549786 -0.3208346211 0.4568824339 -0.3211766201 -0.1219503961 0.1194438902
305298170.0 -0.139011725 0.1120267206 0.4524766604 -0.3265691399 0.4530559508 -0.3261230016 -0.1199795661 0.1206341647
310298140.0 -0.1379735304 0.1136967322 0.4494503608 -0.3315364671 0.4493618832 -0.3312458213 -0.1189486536 0.1217549245
315298110.0 -0.1370659791 0.1147416141 0.4458470584 -0.3363808432 0.4458427074 -0.3366111386 -0.1177014228 0.1231441901
320298080.0 -0.1357788784 0.1160370194 0.4414005156 -0.3417771824 0.4420488642 -0.3417449874 -0.1169190353 0.1244820108
325298050.0 -0.1352439621 0.1171370335 0.4382034063 -0.3465247672 0.4381031908 -0.3467103944 -0.1157537542 0.1254145836
330298020.0 -0.1344466422 0.1184522693 0.4338342777 -0.3520543408 0.4345743629 -0.3518254043 -0.1143844162 0.1266951208
335297990.0 -0.1330739943 0.1193863796 0.4303514048 -0.3563155172 0.43011781 -0.3565171563 -0.1137668506 0.1285762691
340297960.0 -0.1327942994 0.1211603033 0.4260834539 -0.3614034775 0.4257245232 -0.361347798 -0.1118391471 0.1298278158
345297930.0 -0.1313783198 0.1228578269 0.421722084 -0.3664861013 0.4218094612 -0.365997539 -0.1106416111 0.1311672904
350297900.0 -0.1303168323 0.1236868499 0.4171647213 -0.3706515676 0.4173964656 -0.3712589864 -0.1096387542 0.1326804944
355297870.0 -0.1291663052 0.1257866477 0.4134125451 -0.3755891221 0.4138227311 -0.3749782466 -0.1085935838 0.1338846243
360297840.0 -0.1283177504 0.126739716 0.4100223524 -0.3794788847 0.4102961683 -0.3794435405 -0.1074393857 0.1354221588
365297810.0 -0.1271310992 0.1282057607 0.4052719069 -0.3843971277 0.4055273686 -0.3847439045 -0.105354665 0.1366714698
370297780.0 -0.1258398737 0.1294790748 0.4007772037 -0.3886722703 0.4012999586 -0.3882781136 -0.1041637816 0.1381376755
375297750.0 -0.1246569552 0.1306033438 0.397136726 -0.3932394436 0.3970457334 -0.3931263374 -0.1025616802 0.1389947826
380297720.0 -0.1234401727 0.1320284126 0.3920572817 -0.3975492606 0.392564833 -0.3968834631 -0.1015054227 0.1403519915
385297690.0 -0.1226603998 0.1334544847 0.3877565524 -0.4017193332 0.3880346119 -0.4016398606 -0.099553306 0.1419222212
390297660.0 -0.1211472523 0.1349444093 0.3836709057 -0.4059546121 0.383566307 -0.4054648495 -0.0984617829 0.1428043341
395297630.0 -0.119738677 0.136255865 0.3792323974 -0.4103333496 0.3792837307 -0.4100886049 -0.0964622183 0.1442542608
400297600.0 -0.1186648555 0.1372823873 0.3741459055 -0.4146790346 0.3746032797 -0.4142940332 -0.0945892483 0.1455750901
405297570.0 -0.1175602964 0.1386331112 0.3698100887 -0.4182276877 0.3702918506 -0.4181486396 -0.0939784728 0.1466068353
410297540.0 -0.1161685386 0.1399229378 0.3657049449 -0.4227074407 0.3659092901 -0.4225602317 -0.0922340764 0.1480918472
415297510.0 -0.1145358241 0.1407826736 0.3606220467 -0.4265928711 0.3611144819 -0.4264983709 -0.0905700512 0.149211661
420297480.0 -0.1134859537 0.1428136464 0.3560388 -0.4306803746 0.3558178426 -0.4305624201 -0.0887219822 0.1502850252
425297450.0 -0.1119467993 0.1434798843 0.3513930942 -0.4341027989 0.3518942591 -0.4342442161 -0.087645333 0.1514339355
430297420.0 -0.1106996889 0.1445125946 0.3466334235 -0.4373989188 0.3468161919 -0.4378119676 -0.0859715124 0.1523927356
435297390.0 -0.1098076559 0.1462579549 0.3417759635 -0.4416913825 0.3414699413 -0.4416745488 -0.0836378704 0.1535151823
440297360.0 -0.1080143357 0.1472836366 0.3368562452 -0.4455647535 0.3370277274 -0.4449580682 -0.0823822333 0.1545132869
445297330.0 -0.1067075228 0.1480686879 0.3324161762 -0.4491269843 0.3321472008 -0.4486576347 -0.0802062452 0.1553821803
450297300.0 -0.1050391248 0.1490905251 0.3270990741 -0.4526184305 0.3272122618 -0.4527105161 -0.0788320762 0.1563544169
455297270.0 -0.1038345597 0.1505937985 0.3222716168 -0.4561328241 0.3224903173 -0.4563561954 -0.0773178231 0.1575109675
460297240.0 -0.1025282321 0.1517535461 0.3170087272 -0.4597351344 0.3172467297 -0.4596561557 -0.075428538 0.1585158911
465297210.0 -0.1007553447 0.153049444 0.3125514045 -0.4630131131 0.3121987361 -0.4633514591 -0.073584806 0.1593902553
470297180.0 -0.0992781142 0.1538638323 0.3068329646 -0.4664858405 0.3071811006 -0.4666937542 -0.0718719896 0.1607350113
475297150.0 -0.0979404381 0.1547531599 0.3018850171 -0.4691146743 0.3023521086 -0.4692657441 -0.0697582297 0.161015519
480297120.0 -0.0963758931 0.1564022602 0.2964695856 -0.4733006611 0.2964365148 -0.4734311216 -0.0677358094 0.1624933651
485297090.0 -0.094915444 0.1573426689 0.2918299175 -0.4756730059 0.2918120924 -0.4757427313 -0.066187281 0.1630773105
490297060.0 -0.0938953617 0.1583233387 0.2864555009 -0.4792852799 0.2868729856 -0.4791611462 -0.064573541 0.164093996
495297030.0 -0.0918353 0.1597159988 0.2807367745 -0.4825564718 0.2816009852 -0.4824259768 -0.0631073182 0.1649662814
500297000.0 -0.0904635976 0.1606434758 0.2758457894 -0.4851626832 0.2758560872 -0.4851246859 -0.0609087259 0.1663313423
505296970.0 -0.0887935071 0.1613131353 0.2704168516 -0.4879014385 0.2706397054 -0.4882177095 -0.0593123184 0.1668272007
510296940.0 -0.0872522188 0.1623939625 0.2652017932 -0.4913254545 0.2650546921 -0.491480213 -0.0575787737 0.1677157032
515296910.0 -0.0855593987 0.1634440122 0.2594474901 -0.494080535 0.2597920004 -0.4942473509 -0.0551022174 0.1684753629
520296880.0 -0.0841271371 0.1644008344 0.25442023 -0.49726654 0.2546972529 -0.4967291544 -0.0534961132 0.1690711304
525296850.0 -0.0823955857 0.1647279539 0.2485526439 -0.4994054829 0.2494774478 -0.4993705827 -0.0520611506 0.1698696129
530296820.0 -0.0807173691 0.1662674744 0.2435784183 -0.5023893405 0.2436678371 -0.5025198761 -0.0498587766 0.1705934312
535296790.0 -0.0796488444 0.1671398729 0.2382473715 -0.5045521994 0.2382865598 -0.5040310171 -0.0482478848 0.1708900757
540296760.0 -0.0779388085 0.1680880022 0.2326923774 -0.507536587 0.2328422218 -0.5071870748 -0.0463238191 0.1721574328
545296730.0 -0.0763947772 0.1688716752 0.22689207 -0.509695321 0.2274502201 -0.5098399993 -0.0448234127 0.1727099461
550296700.0 -0.0743279228 0.1698683661 0.2215039926 -0.5120699036 0.2215991328 -0.5123171533 -0.0426704413 0.1735318793
555296670.0 -0.0731749902 0.1706151685 0.2163068508 -0.5145541917 0.2159770209 -0.5144868097 -0.0403309102 0.1741452505
560296640.0 -0.071431338 0.1720415727 0.2104947252 -0.517348919 0.210574694 -0.5170096796 -0.0386620845 0.1747469024
565296610.0 -0.0696474078 0.1722876469 0.2044793891 -0.5190636809 0.2051365668 -0.5190852049 -0.0370731147 0.174810016
570296580.0 -0.0679876302 0.1733318012 0.1989977325 -0.5218066203 0.1987618323 -0.5213583418 -0.0349282567 0.1759724106
575296550.0 -0.066531976 0.1742320408 0.1933852065 -0.5238673896 0.1933995904 -0.5234277295 -0.0328021209 0.1765113054
580296520.0 -0.0646903155 0.174874628 0.1877237094 -0.5255113657 0.1878160325 -0.5257419384 -0.0309498238 0.1768074987
585296490.0 -0.0633307611 0.1752635593 0.1821483789 -0.5273069674 0.1825662315 -0.5274844862 -0.0289211759 0.1773609267
590296460.0 -0.0609589542 0.1763323931 0.1762745113 -0.5288190582 0.1763942746 -0.5292703484 -0.0274356821 0.1778673909
595296430.0 -0.0594270077 0.1771285855 0.1702154848 -0.5313888501 0.1705553991 -0.5311218096 -0.025226785 0.1778902408
600296400.0 -0.0580678582 0.1776671594 0.1649910607 -0.5328999722 0.1647453436 -0.5327247337 -0.0235140383 0.1782495411
605296370.0 -0.0561324599 0.1785947788 0.1588583049 -0.5345792903 0.1593126549 -0.534582779 -0.0209086236 0.1790247257
610296340.0 -0.0542531225 0.1790334212 0.1529066018 -0.5361280547 0.1532926326 -0.536288708 -0.0189240522 0.1793249416
615296310.0 -0.052143082 0.1793321308 0.147234219 -0.5375073428 0.1470980662 -0.5379708321 -0.0168772724 0.179812056
620296280.0 -0.050743771 0.1802284544 0.1413601521 -0.5395121686 0.1417636183 -0.5393178621 -0.0151272738 0.1797787242
625296250.0 -0.0492312131 0.1806023835 0.1360675882 -0.5408894268 0.1359408382 -0.5407975049 -0.0125814884 0.1799504186
630296220.0 -0.0465637248 0.1814752663 0.1291350611 -0.5422515733 0.1296961225 -0.5416738951 -0.0109518603 0.1807518106
635296190.0 -0.0457365811 0.1819914103 0.1239317713 -0.5435370112 0.1240724215 -0.543479238 -0.0087718045 0.1808994444
640296160.0 -0.044094558 0.1828397573 0.1183958292 -0.5447579216 0.1183932733 -0.5448273558 -0.006901471 0.1811928299
645296130.0 -0.0420391587 0.183492236 0.112079292 -0.5458323862 0.1126416648 -0.5460992113 -0.0051236968 0.1817727352
650296100.0 -0.0402911656 0.18373313 0.1060183479 -0.5469587615 0.1065792333 -0.5472519858 -0.0022550711 0.1810596727
655296070.0 -0.0387110591 0.1842366683 0.1004078964 -0.548322356 0.1005610922 -0.5484553476 -0.0006557594 0.1815995708
660296040.0 -0.0372740124 0.184137949 0.0947749164 -0.5492552112 0.09445458 -0.5495611915 0.0016499249 0.1821605572
665296010.0 -0.0346682033 0.1849127248 0.0881036307 -0.5502774243 0.0885687833 -0.5501982601 0.0034683692 0.1823975657
670295980.0 -0.0338997179 0.1858920229 0.0826089391 -0.5509853241 0.083102658 -0.5508802248 0.0049984757 0.1824871118
675295950.0 -0.0318832122 0.1862440239 0.0766119572 -0.5515339153 0.0767054638 -0.551466983 0.0069207813 0.1824179806
680295920.0 -0.0298670222 0.1865789896 0.0703417749 -0.5524158686 0.0705770243 -0.5530286887 0.0092540575 0.183029799
685295890.0 -0.0280896422 0.1876472308 0.064650734 -0.553769096 0.0648071483 -0.5534467163 0.0110960631 0.1827958654
690295860.0 -0.0257178524 0.1878312506 0.0585340457 -0.5537981921 0.0587975205 -0.5542205548 0.0130843509 0.1834696042
695295830.0 -0.0244845734 0.1878847381 0.0526671445 -0.5544832104 0.052321218 -0.5543038622 0.0152095916 0.1828894088
700295800.0 -0.0223387558 0.1879312299 0.0466418748 -0.5546865257 0.0465030127 -0.5549668913 0.0172258074 0.1834367809
705295770.0 -0.0208763082 0.1889600382 0.0407861564 -0.5553778286 0.0410701673 -0.5556528327 0.0192012625 0.1835202982
710295740.0 -0.0190953122 0.1890272242 0.0348129452 -0.5563995836 0.0350598226 -0.5560703523 0.0213192397 0.1824781672
715295710.0 -0.0174245655 0.1892636793 0.0289079274 -0.5558210971 0.0285576168 -0.5563171419 0.0233534929 0.1826680896
720295680.0 -0.0153911643 0.1894819766 0.0228309947 -0.5565914881 0.0227648119 -0.5568314923 0.0256663833 0.1832305128
725295650.0 -0.0133176414 0.1900222643 0.0167718121 -0.5568199159 0.0170405454 -0.5571256346 0.0269232885 0.1830863981
730295620.0 -0.0113674422 0.1906148024 0.0106942791 -0.5564416969 0.0110966615 -0.556726713 0.028607309 0.1824687092
735295590.0 -0.0096935795 0.1906254369 0.0051129738 -0.5571121452 0.0050781023 -0.5570016892 0.0308327367 0.1822213756
740295560.0 -0.0083309772 0.1909107624 -0.0012171014 -0.5567737207 -0.0011914529 -0.5567963624 0.0334792062 0.1820614631
745295530.0 -0.0061368903 0.1913338506 -0.0073533065 -0.5564616701 -0.0074299223 -0.5567445555 0.0353246861 0.1814549219
750295500.0 -0.0041807104 0.1911906432 -0.012839455 -0.5560658951 -0.0129147734 -0.5568240712 0.036979339 0.1813591288
755295470.0 -0.0020520127 0.1912364301 -0.0190249388 -0.5563214026 -0.0190903287 -0.5567012436 0.0395452444 0.1809155923
760295440.0 -0.0006003722 0.1915715752 -0.0249510534 -0.5563173775 -0.0249900571 -0.5566479177 0.0415729282 0.1808892927
765295410.0 0.0011490575 0.1917257915 -0.0312485359 -0.5560125212 -0.0317795972 -0.556222232 0.0436829517 0.1807819666
770295380.0 0.0031155869 0.1917304537 -0.0372968358 -0.5555688475 -0.0370626786 -0.5552470349 0.0451253356 0.1800735727
775295350.0 0.004722726 0.1913993525 -0.0430841528 -0.5545927499 -0.0426705513 -0.5548031043 0.0471228139 0.1798476634
780295320.0 0.007154533 0.1921230073 -0.049265835 -0.5540702074 -0.0486033574 -0.5541025414 0.0491540843 0.1790712645
785295290.0 0.008747506 0.1915482156 -0.0554851851 -0.5533960151 -0.0548392624 -0.5539674161 0.0517224829 0.1790492264
790295260.0 0.0107940627 0.1923502001 -0.0606239942 -0.5532219005 -0.0600308334 -0.5527952179 0.0534438627 0.1787112196
795295230.0 0.0125105032 0.1919100374 -0.0666623724 -0.5524090854 -0.0660559956 -0.5525596647 0.0557796156 0.1783612842
800295200.0 0.0140162223 0.1921528284 -0.0729761969 -0.5513482689 -0.0726151728 -0.5512795674 0.0575960349 0.1777489911
805295170.0 0.0163766735 0.1917002721 -0.0786829228 -0.5506773224 -0.0786800948 -0.5508149889 0.059718292 0.1776308467
810295140.0 0.0179680941 0.191671386 -0.0847259056 -0.5494689958 -0.0844862352 -0.5500104332 0.0616907253 0.1768963841
815295110.0 0.0200144107 0.1917168902 -0.0905372547 -0.5483734445 -0.0899482325 -0.5486439688 0.0635933993 0.1762243238
820295080.0 0.0215824799 0.1923498964 -0.096449058 -0.5476847794 -0.0959625093 -0.5477315842 0.0655656257 0.1757454703
825295050.0 0.0241887858 0.1916898888 -0.1019951755 -0.5462055126 -0.1023491293 -0.5466258819 0.0675307467 0.1752486815
830295020.0 0.0255572398 0.1916201435 -0.1081973908 -0.5450715132 -0.1080948599 -0.5451000618 0.0701316693 0.1747786537
