!Created with skrf (http://scikit-rf.org).
# Hz S RI R 50.0 
!freq ReS11 ImS11 ReS21 ImS21 ReS12 ImS12 ReS22 ImS22
300000.0 -0.7765641532 -0.144890696 0.0008431679 -0.0004594183 -2.56288e-05 0.0010908762 -0.0461458 -0.0699846265
5299970.0 -0.7853840557 -0.0073399626 0.0001279058 0.0002815448 -2.35462e-05 -8.37738e-05 -0.0484994084 0.0145216679
10299940.0 -0.7877936165 -0.0039533504 -0.0001246452 -0.0003160393 2.37719e-05 1.53561e-05 -0.0428076934 0.0314412161
15299910.0 -0.7935086409 -0.0019411959 -2.61146e-05 -0.0001499849 -4.63953e-05 8.57788e-05 -0.0344759097 0.0454829918
20299880.0 -0.7996383107 0.0022865785 3.6131e-06 3.47812e-05 0.0002022453 8.17837e-05 -0.0247024071 0.0570808276
25299850.0 -0.8059976558 0.0083892867 0.0001528108 0.0001953672 0.0001201433 5.37608e-05 -0.0143114002 0.0661090819
30299820.0 -0.8115595004 0.0161346137 1.09417e-05 1.9626e-05 -5.81471e-05 1.65951e-05 -0.0029687697 0.0725661846
35299790.0 -0.817000805 0.0252858028 -8.26337e-05 2.4158e-06 8.10498e-05 0.0001802575 0.0082275193 0.0773158839
40299760.0 -0.8212274765 0.034072596 -9.58995e-05 9.50978e-05 3.4927e-05 -1.4791e-06 0.019329044 0.0798917704
45299730.0 -0.8249584029 0.0439205426 0.0001822793 8.90451e-05 6.95874e-05 6.48875e-05 0.0293212117 0.0814077475
50299700.0 -0.8269369166 0.0542080259 -0.0001210185 -5.263e-05 0.0002100171 0.0001513609 0.0395708974 0.0812152073
55299670.0 -0.8285412847 0.0640123102 4.31755e-05 4.5556e-05 5.01869e-05 9.55443e-05 0.0484039504 0.0805841522
60299640.0 -0.8299920677 0.0745966889 5.19988e-05 -7.4066e-06 -0.0001030862 3.82186e-05 0.0569639174 0.0785018549
65299610.0 -0.8312892878 0.0848901198 -2.14958e-05 1.1379e-05 0.0001144162 2.40668e-05 0.0644168865 0.0761612794
70299580.0 -0.8309029941 0.0948900607 -2.82355e-05 2.753e-06 0.0002087082 0.0001105058 0.0711532359 0.0729429507
75299550.0 -0.8317357123 0.1053517866 -0.0001669005 -0.0001787588 -3.11987e-05 0.0001011321 0.0774588022 0.0699044753
80299520.0 -0.8309857397 0.1147203719 -3.97116e-05 1.97352e-05 -0.0001106573 -4.83741e-05 0.0826656668 0.0664633463
85299490.0 -0.8305147867 0.1243490298 6.1123e-06 -7.75665e-05 8.26599e-05 0.0002352486 0.0876238638 0.0625247733
90299460.0 -0.8299679504 0.1342498915 -9.8716e-06 -4.73088e-05 0.0001188435 2.05792e-05 0.0924300112 0.0585164268
95299430.0 -0.8288591688 0.143273134 0.0001154494 -2.40193e-05 -0.000104305 0.0001268287 0.0965507811 0.0546278793
100299400.0 -0.8280235032 0.1527861321 -1.28893e-05 -0.0001023776 -5.95665e-05 7.28251e-05 0.0994866092 0.0508034262
105299370.0 -0.8269671411 0.1619523161 -6.70386e-05 5.59717e-05 -6.88503e-05 0.0001339591 0.1033028025 0.0469307737
110299340.0 -0.8252387335 0.1711066305 6.69714e-05 -0.000112035 -9.41326e-05 -1.48954e-05 0.1057270553 0.0427628625
115299310.0 -0.8236982772 0.1805473567 -9.62731e-05 5.20911e-05 0.0001468729 2.04637e-05 0.1082251482 0.0389123795
120299280.0 -0.8217978963 0.1892181785 0.0002180765 -0.0001337174 -4.99535e-05 -8.14166e-05 0.1104957513 0.0350357172
125299250.0 -0.8209152188 0.1984601525 4.8452e-06 -0.0001669607 3.08953e-05 -1.92671e-05 0.1124488473 0.0309108917
130299220.0 -0.8185462683 0.2078678702 -9.84875e-05 -2.86719e-05 0.0002296548 -0.0001699046 0.1135197105 0.0275717729
135299190.0 -0.8162446317 0.2168328736 -0.0002109706 7.42405e-05 7.6e-08 6.1062e-05 0.1151002094 0.023403211
140299160.0 -0.8143308752 0.2256525455 2.27272e-05 -3.2403e-05 0.0001085491 8.25447e-05 0.1165704731 0.019877935
145299130.0 -0.8119613939 0.2339021531 -8.30207e-05 9.47484e-05 4.54455e-05 -6.24601e-05 0.1170372406 0.0164104134
150299100.0 -0.8101151574 0.243087952 6.57432e-05 6.93162e-05 3.42795e-05 7.58224e-05 0.1181087884 0.0127594689
155299070.0 -0.8076090882 0.2524755729 6.20037e-05 -0.0001055877 -1.42496e-05 0.0001251528 0.1185634397 0.0095864174
160299040.0 -0.804840301 0.2613020564 -4.57779e-05 1.0157e-05 9.25942e-05 -0.0001001179 0.1195380168 0.0062313796
165299010.0 -0.8023834672 0.2692725569 -3.7035e-06 -0.0002706593 -1.27882e-05 -3.72935e-05 0.1199043912 0.002906227
170298980.0 -0.799632557 0.2782150774 1.45603e-05 -5.31681e-05 4.91e-05 8.32423e-05 0.1203316987 -0.000129513
175298950.0 -0.7970477605 0.2873359027 0.0001095214 -2.27919e-05 1.81748e-05 -2.91542e-05 0.1203441287 -0.0031829897
180298920.0 -0.7938413342 0.2953041829 -0.0001600301 -6.22662e-05 0.0002425342 4.02507e-05 0.1205491423 -0.0065119977
185298890.0 -0.7904819787 0.3046861223 -9.87141e-05 4.85268e-05 0.0001183114 2.10301e-05 0.1204448953 -0.0094155986
190298860.0 -0.7872723336 0.3123551943 -0.0002115744 -3.92566e-05 -1.99851e-05 -0.0001639225 0.1206653337 -0.0123988272
195298830.0 -0.7841615711 0.3205863505 0.0001868342 -1.07339e-05 -0.000191322 5.8365e-05 0.1203736486 -0.0149696146
200298800.0 -0.7808286058 0.3295859463 -9.69079e-05 5.54971e-05 5.92053e-05 -2.04449e-05 0.120756159 -0.0177034996
205298770.0 -0.7776739578 0.3373209106 0.0001194357 0.0001497531 0.0001521389 5.69078e-05 0.119884078 -0.0204161543
210298740.0 -0.7736191661 0.3461212168 0.0001747933 9.58707e-05 9.34604e-05 -1.05092e-05 0.1197882826 -0.0232933135
215298710.0 -0.7706804277 0.3540212571 -0.0001618046 0.0001454204 8.21818e-05 5.7872e-05 0.1190878165 -0.0259199862
220298680.0 -0.7671564611 0.3625421239 4.16476e-05 0.0002176057 6.26458e-05 4.71951e-05 0.1191076433 -0.0282181104
225298650.0 -0.7625801723 0.3706484014 0.0001039059 0.00010177 0.0002124251 0.0001266099 0.1183369809 -0.0302960569
230298620.0 -0.7582386069 0.3788132777 -0.0001744246 6.43364e-05 0.0002496429 7.64311e-05 0.1178397962 -0.0331694924
235298590.0 -0.7545716721 0.3877566253 3.08939e-05 0.0001729377 -3.41693e-05 -7.29377e-05 0.1174328548 -0.0357916481
240298560.0 -0.7509775728 0.3954898356 -9.01133e-05 0.0001645665 8.71074e-05 -3.76091e-05 0.1166245364 -0.0376085308
245298530.0 -0.7462089227 0.4030120116 0.0001875134 -2.37762e-05 0.000105865 5.09565e-05 0.1158259819 -0.0400278082
250298500.0 -0.7422758849 0.410767392 -1.897e-05 -3.9793e-05 -4.0464e-05 -2.33618e-05 0.1155443725 -0.0419973891
255298470.0 -0.7375475426 0.4189437664 0.0001230923 0.0001283287 -4.27539e-05 0.0002247069 0.1143248154 -0.0445219041
260298440.0 -0.7335884865 0.4262317246 0.0001692866 0.0002344669 -0.0003502469 8.36398e-05 0.1136435047 -0.0466128928
265298410.0 -0.729073549 0.4342809396 0.0001262792 0.0001099449 0.0001053883 5.18646e-05 0.1128173182 -0.048628903
270298380.0 -0.7245444867 0.4415896249 -1.42829e-05 -4.20004e-05 1.92388e-05 0.000165598 0.1122133924 -0.0506116807
275298350.0 -0.719526656 0.4490434902 3.27069e-05 0.000211768 -0.0001446463 -3.65979e-05 0.1113221601 -0.0523418691
280298320.0 -0.7149668094 0.456753054 -3.47321e-05 -0.0002956798 0.0001568961 0.0001219087 0.1107303518 -0.0546495223
285298290.0 -0.7103234533 0.464564761 -6.32302e-05 -2.26455e-05 -5.08188e-05 0.0001293154 0.1095929691 -0.0562660928
290298260.0 -0.7055042319 0.4715813208 0.0001303722 -7.34531e-05 2.39112e-05 -1.53467e-05 0.1088957363 -0.0581200767
295298230.0 -0.7000990275 0.4794689882 0.000158106 5.5326e-06 0.0001118378 -0.000106793 0.1077713142 -0.0600754641
300298200.0 -0.6950222795 0.487003554 2.04663e-05 -8.9205e-06 6.3105e-06 9.75043e-05 0.1068435385 -0.0615623355
305298170.0 -0.6900643413 0.4942973067 0.0001534148 -2.93302e-05 1.6411e-06 0.0001973172 0.106166529 -0.0634220846
310298140.0 -0.6845880552 0.5010115817 8.92804e-05 -7.90034e-05 -1.123e-06 7.27419e-05 0.1049877019 -0.0650485965
315298110.0 -0.6798215947 0.508026533 0.0001473187 6.10487e-05 7.7421e-05 0.0001123705 0.1040505865 -0.0670452822
320298080.0 -0.6744409511 0.5157405584 -1.81955e-05 -0.0001847984 0.0001635848 8.92591e-05 0.1029758179 -0.0690537295
325298050.0 -0.6686749544 0.52210561 -1.32502e-05 0.0001015589 0.0002576091 0.0001475115 0.1014445661 -0.0708495763
330298020.0 -0.6627655142 0.528993473 5.1307e-05 8.13778e-05 8.99713e-05 4.07796e-05 0.1004008125 -0.0724542894
335297990.0 -0.6573267918 0.5361391318 3.88052e-05 0.0002223985 -0.00010146 0.0002748719 0.0988031077 -0.0741339141
340297960.0 -0.6518818232 0.5431393817 7.4985e-05 -0.0002232472 -1.05062e-05 9.24947e-05 0.0979029714 -0.0755035868
345297930.0 -0.6464897483 0.5489668703 6.83079e-05 0.0001378415 0.0002357524 0.0001315213 0.0958630876 -0.0765841472
350297900.0 -0.6406704922 0.5562343417 0.0001272631 -0.0002550633 0.0002125819 0.0001833533 0.0950570899 -0.0781196326
355297870.0 -0.6339694384 0.5629814388 0.0001219311 -8.73966e-05 -5.92273e-05 2.41172e-05 0.0934057683 -0.0793358583
360297840.0 -0.6286335951 0.5691014453 0.0001115732 7.00166e-05 8.8928e-06 0.0002123314 0.0922275808 -0.0806950576
365297810.0 -0.6222382086 0.5757481868 9.82545e-05 -0.0001311222 0.0001074169 0.0001239498 0.0907114912 -0.0819250821
370297780.0 -0.6164135818 0.5822208652 0.0002090868 9.79587e-05 0.0002552753 9.22376e-05 0.0890465372 -0.0831024182
375297750.0 -0.6102033459 0.5884558093 6.47594e-05 0.0002750646 0.0002142046 0.000130384 0.087960148 -0.0840488797
380297720.0 -0.6039193126 0.5951382932 -8.49006e-05 -1.54046e-05 9.27361e-05 -7.52091e-05 0.0866117571 -0.0852102261
385297690.0 -0.5975981199 0.601050625 0.000382723 -0.0001229984 0.0001688234 -8.971e-06 0.0853248009 -0.0861872225
390297660.0 -0.5914612427 0.6076349709 4.06543e-05 0.0001685589 1.80003e-05 5.21591e-05 0.0839793418 -0.0879641801
395297630.0 -0.5849127941 0.6133624836 0.0001267088 -7.47478e-05 0.0001299465 5.54844e-05 0.082304675 -0.0887279205
400297600.0 -0.5788341293 0.619549282 -2.60417e-05 6.77162e-05 -8.51055e-05 7.50971e-05 0.0809683292 -0.0896811685
405297570.0 -0.5723300375 0.6251629812 0.0002292795 -6.47929e-05 0.0002018812 6.3989e-06 0.0794708483 -0.0908529024
410297540.0 -0.5655362508 0.6309822978 2.94854e-05 0.0001060277 0.0001204003 8.20804e-05 0.0780539003 -0.0915384608
415297510.0 -0.5590593047 0.6365467337 6.13863e-05 5.65255e-05 -3.0902e-06 5.18437e-05 0.0763657446 -0.0922691105
420297480.0 -0.5525839372 0.6423822454 -4.37016e-05 -9.74775e-05 0.000209812 0.0001877359 0.0749401349 -0.0936048819
425297450.0 -0.5455122538 0.6478696818 0.0002248629 3.52683e-05 9.93811e-05 5.64396e-05 0.073697839 -0.0947288223
430297420.0 -0.5394890084 0.6537064624 7.34108e-05 -0.0002578567 2.63324e-05 -3.50173e-05 0.071757691 -0.0956690535
435297390.0 -0.5326269548 0.6590339078 0.000127611 0.0001605119 0.0001010593 6.76073e-05 0.070744846 -0.0960793409
440297360.0 -0.5251004683 0.6640945285 3.01814e-05 7.7684e-06 -5.08271e-05 -0.0004070607 0.0688350536 -0.0973182372
445297330.0 -0.5184134009 0.6698572156 0.0001957318 -9.4415e-05 0.0001610661 7.63915e-05 0.0674702129 -0.0981064833
450297300.0 -0.5116249515 0.6749216812 2.94346e-05 0.000281737 -2.50346e-05 0.0001531704 0.0657291069 -0.0989033703
455297270.0 -0.5044410882 0.6804261793 -0.0001545085 -0.0001215701 0.0002068162 -4.54251e-05 0.0645225132 -0.0995880473
460297240.0 -0.4979872002 0.6848928468 0.0002319188 -2.5048e-06 9.8871e-06 -4.19366e-05 0.0628784325 -0.1003103688
465297210.0 -0.4901152842 0.6902752904 0.0003733763 4.85177e-05 0.0001216797 2.12383e-05 0.0607670564 -0.1014458862
470297180.0 -0.4829729058 0.6949363588 0.0001108276 0.0003124145 -2.03025e-05 -3.79513e-05 0.0591497101 -0.1018836547
475297150.0 -0.4759098994 0.7002761946 2.90881e-05 -0.0001150853 0.0002556764 3.13907e-05 0.0576833306 -0.1026091978
480297120.0 -0.4695597671 0.7048541386 0.0002568337 -5.90729e-05 0.0001319517 -5.86732e-05 0.0564541803 -0.102739228
485297090.0 -0.4607382732 0.7094804204 0.0001625752 -0.0001039303 0.0002262812 -7.53647e-05 0.0544143235 -0.1038958903
490297060.0 -0.4536266527 0.7137319368 6.95475e-05 0.0001411419 0.0001106931 8.18576e-05 0.0530582116 -0.1046252176
495297030.0 -0.4471468204 0.7186712704 0.0001302545 1.43605e-05 0.0002329046 9.79688e-05 0.0513467539 -0.1054419149
500297000.0 -0.4389858106 0.7232227609 8.53293e-05 0.0001778661 8.66918e-05 -8.36496e-05 0.0496747258 -0.1060074209
505296970.0 -0.4310436909 0.7273926294 0.0002202949 3.786e-06 -3.78149e-05 6.06174e-05 0.0479708707 -0.1060523507
510296940.0 -0.4243535312 0.7322553523 3.6617e-06 -4.59616e-05 0.0001010287 0.0002032895 0.0464997856 -0.1066156016
515296910.0 -0.4167599841 0.7363563993 0.000272107 0.0002196653 8.88628e-05 4.9691e-05 0.0447928174 -0.1070888275
520296880.0 -0.4090001748 0.7406641323 8.21035e-05 5.88121e-05 0.0001741402 3.2784e-05 0.0433060306 -0.1077726591
525296850.0 -0.4014684568 0.7445572038 7.26191e-05 -2.59792e-05 0.0002505364 -1.70241e-05 0.0416307645 -0.1083901025
530296820.0 -0.3939987309 0.7480121277 0.000197046 0.0001388926 -4.4629e-06 -5.14833e-05 0.0395195333 -0.1087251114
535296790.0 -0.3860892656 0.7525275109 -8.5172e-05 0.0001522904 -5.02825e-05 2.07457e-05 0.0379413918 -0.1096260212
540296760.0 -0.3781723177 0.7564904208 0.0001168216 -5.39637e-05 0.0002489546 1.24145e-05 0.0361345602 -0.1097310232
545296730.0 -0.3716088795 0.7596872682 0.000151495 0.0001405882 7.11926e-05 -1.61948e-05 0.0345562669 -0.1103910306
550296700.0 -0.3629578998 0.7636935972 0.0001125641 -8.51731e-05 0.0001227788 -0.000163589 0.032803307 -0.1105049835
555296670.0 -0.3547515003 0.767229162 0.0001472129 -0.0001268675 0.0002357022 -0.0001395373 0.0312276522 -0.1108086427
560296640.0 -0.3472370719 0.7707935709 -4.9568e-05 0.0001113901 3.59925e-05 0.0003561697 0.02958845 -0.1111797627
565296610.0 -0.3397673657 0.7741513597 7.93991e-05 4.61317e-05 -8.0508e-06 -5.53909e-05 0.0277717558 -0.1114521221
570296580.0 -0.3320151295 0.7773588909 0.0001176847 1.07981e-05 5.95982e-05 -0.0001580821 0.0263858972 -0.1114074085
575296550.0 -0.3237173689 0.7809136965 3.39899e-05 3.90488e-05 0.000337751 -5.33666e-05 0.024773248 -0.1117616405
580296520.0 -0.3155055022 0.7844462516 0.0001947986 0.0001373498 3.0626e-05 -3.78603e-05 0.0228260302 -0.1120877269
585296490.0 -0.3080263348 0.7865528991 0.0001632778 -8.64645e-05 -3.13882e-05 -0.0002415225 0.0209362709 -0.1127200037
590296460.0 -0.2998986775 0.7899918177 9.39261e-05 -2.73967e-05 0.0001306209 0.0001556403 0.0197206093 -0.112540746
595296430.0 -0.2913398529 0.7932517569 0.0001924253 -4.06089e-05 2.29289e-05 0.0002001385 0.0173885809 -0.1127780169
600296400.0 -0.2839107078 0.7953359981 0.000293156 0.0002945813 6.40455e-05 0.0001108428 0.0163152363 -0.1125858022
605296370.0 -0.2754029088 0.7989081472 0.0001029687 4.39185e-05 0.0001025981 -0.0001286979 0.0142472659 -0.1131135542
610296340.0 -0.2674971909 0.8016383234 0.0002552498 -1.34617e-05 4.83557e-05 -0.0002149375 0.0126821481 -0.1127463091
615296310.0 -0.259097549 0.8039727852 0.0003032115 -0.0001087789 0.0001313113 -7.1577e-06 0.0112107477 -0.1131271947
620296280.0 -0.2505566037 0.8063355722 0.0002052978 -5.42223e-05 0.0001147207 7.91398e-05 0.0090879231 -0.1135980621
625296250.0 -0.2424405866 0.8090305054 0.0001108271 -0.0002262112 0.0002998802 -4.74501e-05 0.0076821894 -0.1128954078
630296220.0 -0.2340001402 0.8122357972 0.0002069666 9.22517e-05 5.65134e-05 6.74986e-05 0.0059832737 -0.1129273454
635296190.0 -0.2268827306 0.8140336267 0.0001011363 -2.54257e-05 9.32226e-05 -0.0001402046 0.0043581911 -0.1127659166
640296160.0 -0.2177673647 0.8153792786 0.0001483951 -0.0001851792 2.2922e-06 4.43546e-05 0.0026020167 -0.1130441803
645296130.0 -0.2102774304 0.8181096242 0.0001630933 9.70227e-05 1.82135e-05 -7.79138e-05 0.00060676 -0.1132591617
650296100.0 -0.20168717 0.8204509616 0.0003649237 -3.04859e-05 0.000193598 3.18492e-05 -0.0011722668 -0.1126750592
655296070.0 -0.1930795063 0.8221254596 8.69755e-05 8.56232e-05 0.0002428571 0.0001257312 -0.0028393341 -0.1123833192
660296040.0 -0.1854981458 0.8243784056 0.0001917294 -8.4623e-05 0.0001464544 -1.4583e-05 -0.004264249 -0.1124762129
665296010.0 -0.1765280255 0.8258813186 0.0001133585 0.0003051615 0.0002381269 -0.0002774411 -0.0060762045 -0.1122485083
670295980.0 -0.1676347347 0.8274464632 9.99475e-05 9.7214e-06 0.000254995 1.73553e-05 -0.0078160497 -0.1122879827
675295950.0 -0.1599851696 0.8287869764 0.0001148319 -6.70617e-05 2.99341e-05 -0.000142175 -0.0094220556 -0.1119600895
680295920.0 -0.1513662988 0.830866691 4.65645e-05 3.36598e-05 2.83941e-05 -0.000196653 -0.0113136784 -0.1116849676
685295890.0 -0.1429105509 0.8322411947 3.71831e-05 -0.0001198749 0.0001611554 0.000109974 -0.0128233043 -0.1113731603
690295860.0 -0.1343082472 0.8340105006 0.0002493905 -0.0001717336 3.29856e-05 -4.68931e-05 -0.0142313678 -0.1111323785
695295830.0 -0.1260589982 0.8340882189 0.0002867162 7.88465e-05 0.0002191605 4.8488e-06 -0.0162229438 -0.1107993159
700295800.0 -0.1175750863 0.8355558428 -0.0001373443 -5.34973e-05 0.0003017577 3.75082e-05 -0.0178239289 -0.1106612845
705295770.0 -0.1087425863 0.8372539101 0.0001455943 0.0002069496 0.000189058 1.17498e-05 -0.0195996183 -0.1100450289
710295740.0 -0.1007301551 0.837999279 0.0002613853 -1.35501e-05 8.28146e-05 -0.0001882603 -0.021372335 -0.1097338244
715295710.0 -0.0929759817 0.8397392353 0.0003253119 0.0001917791 -4.4848e-06 2.21399e-05 -0.0227341524 -0.1093740836
720295680.0 -0.0842897649 0.839559532 0.0001518994 2.80996e-05 1.85254e-05 0.0001191116 -0.0242114941 -0.1086895411
725295650.0 -0.0748491238 0.8406076248 2.08022e-05 0.0003020897 0.0001721876 0.000194575 -0.0259073797 -0.1083340294
730295620.0 -0.0670840492 0.8414017767 0.0001222689 -9.91521e-05 0.0001764461 0.0001359332 -0.0273868851 -0.108227346
735295590.0 -0.0578383127 0.8417059976 0.0003127179 6.0644e-06 7.3102e-05 7.19963e-05 -0.0292595191 -0.1077188967
740295560.0 -0.0496999 0.8427944645 7.95786e-05 -4.93045e-05 0.0001352145 4.35335e-05 -0.0308683529 -0.1073599418
745295530.0 -0.0420101522 0.8424004932 6.13568e-05 -9.63484e-05 0.0001092486 -7.21938e-05 -0.0324596472 -0.1067785684
750295500.0 -0.0339066167 0.8436568796 0.0001540214 9.02114e-05 0.0004028471 -1.04184e-05 -0.0342683616 -0.1063332764
755295470.0 -0.0242492544 0.8434987162 0.0002181461 3.77518e-05 0.0004221458 -0.0001182732 -0.0359782929 -0.1051234449
760295440.0 -0.0161878369 0.84400782 0.000146227 -8.18003e-05 0.0001612644 -4.83958e-05 -0.0373940591 -0.1048251327
765295410.0 -0.0080346735 0.8435063992 0.0002780751 0.0001468274 0.000162302 0.0001529025 -0.0385820166 -0.1039557311
770295380.0 0.0006999294 0.8440392844 4.83441e-05 0.000158645 0.0002338889 4.13696e-05 -0.0399953657 -0.1035986942
775295350.0 0.0090649322 0.8440245663 0.000282885 -2.19834e-05 6.96339e-05 9.74291e-05 -0.0423017919 -0.1034313979
780295320.0 0.0179640652 0.8431268007 0.000114846 -1.66197e-05 0.0001119232 -1.49355e-05 -0.0435966057 -0.1024114587
785295290.0 0.0263912939 0.8441056984 0.0004171807 8.57459e-05 0.0001039227 -5.06779e-05 -0.0449908597 -0.1013592899
790295260.0 0.0345604614 0.842561428 1.48926e-05 6.04943e-05 7.31482e-05 9.13608e-05 -0.0466353412 -0.1009695031
795295230.0 0.0428412346 0.8433234868 0.0001992765 -0.0002098198 -4.97201e-05 -3.98356e-05 -0.0478294414 -0.0998858562
800295200.0 0.0515579793 0.8428433815 0.0001708557 1.27286e-05 0.0002766915 -7.07756e-05 -0.04930147 -0.0995151657
805295170.0 0.0600340696 0.8418983371 6.37012e-05 -4.7954e-06 0.0001520489 -2.09343e-05 -0.051409787 -0.0983398683
810295140.0 0.0680842877 0.8412652885 0.0003011162 2.85838e-05 0.0002709372 -0.0002434121 -0.0524835431 -0.0976136724
815295110.0 0.0769884607 0.8404443494 8.33942e-05 -7.7747e-06 0.0001626792 -0.0002301993 -0.0538857152 -0.0967024699
820295080.0 0.0852321915 0.8389468961 -0.0001077067 0.0001143429 0.0003242126 -0.0001388917 -0.0556811324 -0.0962562756
825295050.0 0.0938551264 0.8384164774 0.000505488 -5.24306e-05 0.0001310822 -9.85001e-05 -0.056816504 -0.0950340984
830295020.0 0.102433918 0.8374279411 0.000127857 -5.20215e-05 0.0002489779 -5.34573e-05 -0.0585507939 -0.0940825474
835294990.0 0.1102121874 0.8368416508 0.0002532576 -0.0001936181 0.0002403263 -0.0002872646 -0.0597304088 -0.0936206688
840294960.0 0.1188063541 0.8350008258 0.0001661569 -0.0001344901 -5.2478e-06 -1.12654e-05 -0.061110424 -0.09198999
845294930.0 0.1268899234 0.8340351857 0.0002176738 -0.0001069703 0.0001439617 7.31611e-05 -0.0625935085 -0.0916082891
850294900.0 0.1352533206 0.8328963342 0.0001453368 -9.65368e-05 0.0001008703 -0.0001510157 -0.0640174631 -0.0903793317
