!Created with skrf (http://scikit-rf.org).
# Hz S RI R 50.0 
!freq ReS11 ImS11 ReS21 ImS21 ReS12 ImS12 ReS22 ImS22
300000.0 -0.7695092357 -0.1737082401 -0.000608936 -0.0002525024 0.0001995955 0.0001479935 0.8599867269 -0.0024481207
5299970.0 -0.7858254328 -0.0096857098 9.14417e-05 -6.30278e-05 8.68256e-05 -6.34333e-05 0.8588186388 -0.0102133135
10299940.0 -0.7891594728 -0.0056350159 1.72079e-05 -0.0001708409 -0.00023048 -7.54556e-05 0.8581772235 -0.0186582788
15299910.0 -0.7939904636 -0.0033342975 8.29341e-05 9.539e-06 -0.0001606898 3.0131e-05 0.8573733664 -0.0274184868
20299880.0 -0.8005707746 0.0002747939 -4.16059e-05 0.0001115123 0.0001781251 6.5309e-05 0.8561583423 -0.0354933753
25299850.0 -0.8078480601 0.0068196047 -0.0001025235 -6.89366e-05 0.0001186468 -0.0001859701 0.8552584771 -0.0438427881
30299820.0 -0.8139316614 0.01370156 -9.03463e-05 5.63321e-05 -2.27005e-05 -2.3629e-06 0.8553375219 -0.0525858946
35299790.0 -0.8184996124 0.0234240952 -3.55672e-05 0.0001832263 -6.78374e-05 5.71633e-05 0.8542614279 -0.061063377
40299760.0 -0.8233708807 0.0320769641 1.26138e-05 -2.33661e-05 -0.0001490397 4.0209e-06 0.8537909883 -0.0688647708
45299730.0 -0.826424805 0.0418111306 3.93e-08 -6.30503e-05 5.27784e-05 9.41619e-05 0.8525720541 -0.0776451052
50299700.0 -0.8293867062 0.0518405846 0.000126949 -0.0002156153 0.0002529599 -0.0001058993 0.8520445097 -0.0855106147
55299670.0 -0.8314919147 0.0613387787 -5.82868e-05 -2.54364e-05 1.12327e-05 0.0001138747 0.8508408844 -0.0933110488
60299640.0 -0.832534055 0.0719301504 -7.659e-07 3.89207e-05 0.0001068053 6.54571e-05 0.8496373853 -0.1022685581
65299610.0 -0.8334007825 0.0816344186 0.0001303915 0.0001208193 -8.46908e-05 -0.0001211576 0.8490727539 -0.110370428
70299580.0 -0.8336350989 0.0916659855 -0.0001755961 8.62151e-05 -0.0001163035 9.8438e-06 0.8470778218 -0.1187772372
75299550.0 -0.833747396 0.1014713058 0.0001278137 -0.000136463 -4.32961e-05 1.98134e-05 0.8459772802 -0.1267567364
80299520.0 -0.8336345828 0.1121994972 -0.0001246427 -0.0001403376 0.0001012933 6.0562e-05 0.8450708081 -0.1355740037
85299490.0 -0.8327861113 0.1214965772 0.0001430109 5.61726e-05 -6.70314e-05 2.14969e-05 0.8434610605 -0.1436943283
90299460.0 -0.8320489435 0.1318660557 0.0001614932 -0.0002435013 -2.96477e-05 0.0001201982 0.8421950254 -0.151739162
95299430.0 -0.8313211466 0.1408511195 -0.0001256832 -6.8116e-06 -2.23228e-05 0.0001555306 0.8405110436 -0.1600036893
100299400.0 -0.8303624279 0.1502582376 1.99599e-05 2.7599e-05 0.0001221731 -8.43868e-05 0.8393797055 -0.1678634553
105299370.0 -0.8285535933 0.1594811976 -0.0001361812 -0.0001383104 -0.000149861 -5.08532e-05 0.8372407782 -0.1763583865
110299340.0 -0.8271983416 0.1688346933 0.0001871937 -1.32646e-05 -6.01221e-05 1.72538e-05 0.8356354392 -0.1847702147
115299310.0 -0.8261065885 0.1774535364 -0.0001534229 -2.59121e-05 0.0002244852 -3.68149e-05 0.833561107 -0.192895136
120299280.0 -0.8246779429 0.1868074212 -0.0001217535 1.49861e-05 -7.84442e-05 -7.59651e-05 0.8316027484 -0.2008501979
125299250.0 -0.8222675405 0.1952578411 -8.5335e-06 -1.17405e-05 0.0001563294 5.29087e-05 0.829505773 -0.2097566465
130299220.0 -0.8212505616 0.2053070584 -0.0001252404 -7.83331e-05 6.20811e-05 -1.54237e-05 0.8279290431 -0.2168547251
135299190.0 -0.8186555392 0.2140944108 -0.0002550824 -1.5842e-05 0.0002281227 3.28009e-05 0.8254575926 -0.2252367792
140299160.0 -0.8172113602 0.223308929 -6.0725e-05 -3.97495e-05 0.0001643263 3.2549e-06 0.8226971479 -0.233497726
145299130.0 -0.8149019204 0.2319670983 -0.0001472772 -0.0001419081 -0.0001638616 0.0001410367 0.8205763622 -0.2414665223
150299100.0 -0.8120083758 0.2412334054 0.0001129943 -8.88667e-05 -4.37593e-05 0.0001246977 0.8182818363 -0.2492390591
155299070.0 -0.8097794217 0.2504031789 0.0001390339 -2.56598e-05 -3.01735e-05 4.57805e-05 0.8157017452 -0.257415872
160299040.0 -0.807587063 0.259241799 -0.0001502059 9.83986e-05 -0.0001093198 0.0001035506 0.8128371607 -0.2655488506
165299010.0 -0.8045020939 0.2674985052 -6.97773e-05 -6.6799e-06 4.229e-07 -0.0001169103 0.8105883514 -0.2737515192
170298980.0 -0.8016926865 0.2763947933 -0.0001591446 0.000104872 0.0002287499 1.53137e-05 0.8068998447 -0.2811741859
175298950.0 -0.7986432513 0.2840668609 -0.0003326898 5.58037e-05 -5.11052e-05 -9.37804e-05 0.8047174299 -0.2892550332
180298920.0 -0.7960719281 0.2934663891 0.0001020301 0.0001138252 0.0001150387 3.20437e-05 0.8015871008 -0.2969924016
185298890.0 -0.7928390102 0.3018354277 4.21656e-05 8.80168e-05 0.0002342921 -7.99901e-05 0.7989732285 -0.3045149984
190298860.0 -0.7891618798 0.3107903268 0.0002396526 7.05453e-05 -6.34784e-05 7.227e-05 0.7958898144 -0.312910181
195298830.0 -0.7864718607 0.3193828656 -9.48699e-05 0.0001792859 0.0002466405 5.602e-07 0.7927459245 -0.3209062014
200298800.0 -0.782848323 0.3279968496 5.6901e-06 7.99374e-05 -6.68807e-05 0.0001409864 0.7893986383 -0.3277144438
205298770.0 -0.7795634055 0.3360871401 5.86839e-05 -2.6478e-06 -0.0001151325 6.41109e-05 0.7867455966 -0.3363172676
210298740.0 -0.7767070336 0.3446419546 -2.12533e-05 4.8448e-06 8.07362e-05 -4.20642e-05 0.7828196577 -0.3433238718
215298710.0 -0.7720639342 0.3531132828 7.46515e-05 8.07089e-05 -7.89321e-05 -8.41402e-05 0.7790484789 -0.3513130947
220298680.0 -0.768417693 0.3606516242 -0.0001719268 -3.59551e-05 7.30551e-05 2.81542e-05 0.7756459213 -0.358681053
225298650.0 -0.7646394106 0.3697886691 1.64525e-05 1.42805e-05 0.0001376436 1.42682e-05 0.7720328476 -0.366532637
230298620.0 -0.7608594429 0.3779064077 5.8589e-05 -8.30165e-05 3.06495e-05 0.0002070091 0.7684166426 -0.3736826
235298590.0 -0.7569656391 0.3860253515 -6.20933e-05 3.03381e-05 4.1119e-05 1.47382e-05 0.7645713673 -0.3813354591
240298560.0 -0.752386642 0.3937799243 -0.0001099276 7.88325e-05 -3.1786e-05 -5.6517e-06 0.761360145 -0.3889245543
245298530.0 -0.7488564529 0.4018828857 -6.03544e-05 -0.0001576988 0.0001143114 -0.0002338455 0.7571957039 -0.3957180776
250298500.0 -0.7448894172 0.409008743 -0.0001424613 1.5914e-06 2.34325e-05 2.34347e-05 0.7534260814 -0.4037207107
255298470.0 -0.7402975135 0.417751432 -0.000170354 -1.69112e-05 0.0001739475 1.83676e-05 0.7491532011 -0.410870007
260298440.0 -0.7362589518 0.4252624963 -6.7933e-06 -0.000115751 3.4512e-05 -0.0001178423 0.7449180436 -0.4190068957
265298410.0 -0.7317492662 0.4328223715 -0.0002083788 0.0002128633 0.0001371658 -3.72506e-05 0.7410955131 -0.4254595319
270298380.0 -0.7271031086 0.4403757406 -0.0002229978 -3.734e-05 0.0001754639 -0.0002366275 0.7378090971 -0.4329332439
275298350.0 -0.7227605813 0.4482945264 0.0001070604 8.54468e-05 8.63857e-05 0.0001058883 0.7329688554 -0.4403912128
280298320.0 -0.7181708403 0.455682248 9.0287e-05 -6.99607e-05 -4.33445e-05 5.5263e-06 0.7284394739 -0.4469556585
285298290.0 -0.7137684475 0.463649026 -2.57618e-05 5.26432e-05 3.95606e-05 0.0002008514 0.7243058648 -0.454518122
290298260.0 -0.7084772094 0.4709907786 1.82602e-05 -9.297e-06 8.65338e-05 3.805e-05 0.7197798004 -0.4611346038
295298230.0 -0.7040064413 0.4784065759 -8.77576e-05 -8.76156e-05 0.0001066515 9.95651e-05 0.71498213 -0.4681435406
300298200.0 -0.6990374681 0.4855022844 4.4805e-06 1.56376e-05 7.48661e-05 0.0001471934 0.7109397531 -0.475040089
305298170.0 -0.6946652857 0.492404597 0.0002994516 0.0001155155 -9.41334e-05 1.42137e-05 0.7062026925 -0.4821546718
310298140.0 -0.6885167305 0.4994591202 -0.0001322831 -3.99729e-05 -9.0498e-06 8.7146e-06 0.7024347738 -0.4895580553
315298110.0 -0.6844597442 0.506551086 9.27376e-05 -3.3218e-05 -7.67878e-05 -7.75969e-05 0.6974081539 -0.4970054087
320298080.0 -0.6789043843 0.5144715756 0.0001295808 -9.79083e-05 -7.95949e-05 -6.65573e-05 0.6920018678 -0.5045368618
325298050.0 -0.6737118219 0.5209563022 2.9494e-06 6.40118e-05 4.64806e-05 0.0001173724 0.6872302169 -0.5121445016
330298020.0 -0.6683179601 0.5281783344 -2.06759e-05 -1.57201e-05 -0.0001544601 9.09479e-05 0.6819063338 -0.5196252076
335297990.0 -0.6627048887 0.53455904 8.65729e-05 -5.41166e-05 -0.0002346587 8.12564e-05 0.6760567905 -0.5263778035
340297960.0 -0.657630086 0.5414851254 0.0001234595 -5.92449e-05 8.00087e-05 1.67953e-05 0.6694096951 -0.5324198047
345297930.0 -0.6520373619 0.5485893563 -4.04487e-05 -8.00753e-05 -6.14666e-05 5.25742e-05 0.6640701505 -0.5390896544
350297900.0 -0.6460457841 0.5549675437 -0.0002549388 9.89142e-05 7.30257e-05 0.0002412895 0.6578766248 -0.545687097
355297870.0 -0.640441724 0.561731262 -2.42427e-05 -0.0001604901 -2.78065e-05 0.0001106367 0.652616455 -0.5517594561
360297840.0 -0.6345249299 0.568156522 -0.0001638327 5.45366e-05 -3.25537e-05 -1.86364e-05 0.647196074 -0.5572968854
365297810.0 -0.6292934037 0.5746135324 0.0002167729 0.0001378723 -0.0001354091 0.0002275691 0.6410310399 -0.5641403162
370297780.0 -0.6232418061 0.5805924018 6.66969e-05 -8.67e-08 -1.02417e-05 9.54506e-05 0.6355390267 -0.5699285071
375297750.0 -0.6174376921 0.5869962879 4.53306e-05 -2.86059e-05 9.62331e-05 -0.0002245915 0.6294613372 -0.5761660321
380297720.0 -0.6117680985 0.5938666506 0.0001326791 5.00912e-05 -7.98519e-05 -3.16385e-05 0.6240219696 -0.5817295478
385297690.0 -0.605334739 0.5995347753 0.0001025544 0.0001131001 3.7049e-06 0.0001003448 0.6179575817 -0.5877575416
390297660.0 -0.5981611367 0.6054332176 -0.0001344499 -5.50387e-05 -0.000140634 8.3923e-06 0.6119159977 -0.5936862467
395297630.0 -0.5924596159 0.6120931342 0.0002619776 -0.0001317839 -0.0001868686 -3.7644e-05 0.606258648 -0.5993806869
400297600.0 -0.5867385725 0.61835198 -1.86851e-05 8.74016e-05 -0.0001120143 8.20832e-05 0.6000656129 -0.6049018945
405297570.0 -0.5805395799 0.6235997269 9.59873e-05 9.66624e-05 2.38395e-05 -0.0001526642 0.5940065529 -0.6114625177
410297540.0 -0.5738353477 0.6298330868 0.0001384727 -0.0001106366 -0.0001886317 0.0001723037 0.5883886903 -0.6171757311
415297510.0 -0.5671968477 0.6355366179 -4.71745e-05 -1.97811e-05 9.74582e-05 4.17358e-05 0.5816200681 -0.6222864183
420297480.0 -0.5604911936 0.6415327522 -0.0001208499 7.68719e-05 -8.00612e-05 6.2677e-06 0.5759110182 -0.6279584908
425297450.0 -0.553956136 0.6465775691 5.95691e-05 6.17752e-05 -1.05966e-05 0.0001858631 0.5696874858 -0.6344479565
430297420.0 -0.5475339667 0.6517718667 0.0001271641 6.30953e-05 4.10714e-05 -6.20555e-05 0.5631604006 -0.6396045088
435297390.0 -0.5406174782 0.6573379517 -0.0001504372 0.000171253 -0.000106237 0.0002129583 0.556538739 -0.6450271579
440297360.0 -0.5336453277 0.6634540901 4.32998e-05 0.0001410595 7.83368e-05 1.45884e-05 0.5501533316 -0.649980565
445297330.0 -0.5272380849 0.6682209491 7.40109e-05 0.000115418 -2.1717e-05 -4.69657e-05 0.5431892082 -0.6550431374
450297300.0 -0.5197075908 0.6736614996 -7.8442e-06 -0.0001894673 -5.15508e-05 -4.80729e-05 0.5370998263 -0.6604179408
455297270.0 -0.5131465363 0.6788371187 0.0001380007 -0.0001217817 -2.88794e-05 3.67144e-05 0.5310374394 -0.6654475324
460297240.0 -0.5059908932 0.6843959247 4.94857e-05 0.000119275 -4.24314e-05 5.93287e-05 0.5234396864 -0.6707856901
465297210.0 -0.4986663924 0.6890484009 3.368e-05 4.11078e-05 0.0001454223 -0.0001081146 0.5174067835 -0.6754173968
470297180.0 -0.491913702 0.6938932642 -8.75301e-05 1.71292e-05 -8.78161e-05 -9.24588e-05 0.5107463096 -0.6810642343
475297150.0 -0.4849498619 0.6988732189 -5.57302e-05 9.98802e-05 9.7868e-06 9.2801e-06 0.5043254942 -0.685763897
480297120.0 -0.4766340491 0.7039937791 0.0001777563 8.91828e-05 1.87795e-05 0.0001047966 0.496919784 -0.6903207449
485297090.0 -0.4698352399 0.7087319228 -2.4378e-06 -7.73089e-05 4.56288e-05 4.36773e-05 0.4901015636 -0.6961652358
490297060.0 -0.4612613098 0.713643924 -0.0001705216 -0.0001582153 -2.07044e-05 0.0001427509 0.4829948642 -0.6999294979
495297030.0 -0.4544058976 0.717644357 0.0001826281 -8.21667e-05 8.60801e-05 -7.89726e-05 0.4765370511 -0.7048024195
500297000.0 -0.4466409058 0.7222561332 -0.0001485062 -5.506e-07 8.3744e-06 0.0001885533 0.469291646 -0.708880138
505296970.0 -0.4392282936 0.7267221782 9.444e-05 -6.76294e-05 -4.55165e-05 -7.35382e-05 0.4619680542 -0.7136088786
510296940.0 -0.4316938378 0.7311942788 0.000141246 -2.63938e-05 -5.13162e-05 -6.11353e-05 0.4546000301 -0.7178161961
515296910.0 -0.4241949215 0.73586999 -0.0001265676 0.0001707792 -2.79633e-05 -5.18651e-05 0.4478440489 -0.722793048
520296880.0 -0.4158621012 0.7399983652 -0.0001508837 -0.0001529101 -6.6006e-06 -4.49154e-05 0.4408871845 -0.7268952433
525296850.0 -0.4083816267 0.7436687108 -2.87116e-05 -0.0001522889 2.34457e-05 8.23765e-05 0.4336962961 -0.7311229137
530296820.0 -0.4014230111 0.7479784268 -4.38872e-05 -0.0002348036 -1.1317e-05 1.45808e-05 0.426070568 -0.7354302967
535296790.0 -0.3932793722 0.7517633014 -1.61272e-05 1.07441e-05 -0.0002355442 2.80841e-05 0.4194359282 -0.7387455626
540296760.0 -0.384634945 0.7555182602 -3.6436e-06 -4.04529e-05 0.0001999615 0.0002013787 0.4114210958 -0.7432252964
545296730.0 -0.3771404632 0.7601776749 0.0001636083 0.0001304645 -0.0001450476 2.65292e-05 0.4039808407 -0.7476627423
550296700.0 -0.3686142346 0.7636517278 -1.71015e-05 -6.78208e-05 -2.76431e-05 -4.82398e-05 0.3965095258 -0.7507847791
555296670.0 -0.3616727385 0.7671239096 -0.0001292679 0.0002797857 -0.0001896646 1.22144e-05 0.3895061867 -0.7553170825
560296640.0 -0.3534205496 0.7706030493 -8.19533e-05 -7.95583e-05 -0.0002806274 -7.43663e-05 0.3811779406 -0.7589780339
565296610.0 -0.3451044758 0.7741472581 0.0001553642 -2.19646e-05 0.0002195606 -0.000103983 0.3743734512 -0.7619634299
570296580.0 -0.3368564513 0.7776664148 -2.26551e-05 0.0002618442 3.12321e-05 -0.0001275844 0.3660953977 -0.7660713496
575296550.0 -0.3276627453 0.7810488558 0.0001373375 -0.0001276401 -0.0001994202 -2.52814e-05 0.3590906211 -0.7697020195
580296520.0 -0.3212252808 0.7842879824 8.55375e-05 8.46332e-05 5.21765e-05 1.07766e-05 0.3513153988 -0.7727976575
585296490.0 -0.3123773099 0.787787651 -0.0003020419 -1.77987e-05 -9.0764e-05 -3.96715e-05 0.3435263824 -0.7754925712
590296460.0 -0.3040205723 0.7905758283 -4.83291e-05 9.4899e-05 -0.0002213793 0.0002144404 0.3353446934 -0.7796170689
595296430.0 -0.2956794874 0.7934923467 -0.0001057731 1.38973e-05 -2.09636e-05 -0.000207818 0.327326935 -0.7822470491
600296400.0 -0.2879820716 0.7968447502 2.863e-06 0.0001841677 -1.6997e-05 0.0001703162 0.3202946371 -0.7852599866
605296370.0 -0.2794764941 0.7994214697 0.0001982168 9.33988e-05 1.2138e-05 -2.91529e-05 0.311962727 -0.7881806462
610296340.0 -0.2710543953 0.8030706871 7.2299e-05 -0.000209208 9.14715e-05 -0.0001030563 0.3037670593 -0.7913974361
615296310.0 -0.2626343468 0.8053731529 0.0002081983 0.0002333874 -0.0001829802 -9.58032e-05 0.296102062 -0.7942949659
620296280.0 -0.2549276621 0.8082523195 -0.0003648354 0.0001317896 1.04678e-05 0.0001885669 0.2885177228 -0.7966136112
625296250.0 -0.2471999363 0.810012281 -0.0002466336 4.00404e-05 5.38166e-05 0.0001638096 0.2803501365 -0.8004240455
630296220.0 -0.2386427281 0.8133969871 4.61268e-05 -0.000147751 2.4196e-06 0.0001134895 0.2728585457 -0.8021303087
635296190.0 -0.2300905989 0.816014314 -1.9694e-05 0.0001631005 6.47497e-05 -0.0002276627 0.2643837669 -0.8048116866
640296160.0 -0.2217803725 0.8174943276 5.05787e-05 -6.3266e-06 0.0002766821 -4.86803e-05 0.2560384651 -0.8068008993
645296130.0 -0.2135172138 0.8202808943 0.0002355279 -1.00326e-05 0.0001444102 8.209e-05 0.247632883 -0.8096075943
650296100.0 -0.2054155764 0.8223216439 -2.32259e-05 0.0001136467 -5.9249e-05 -0.0001427558 0.2400252149 -0.8118025026
655296070.0 -0.1974888895 0.8240370217 -0.0001148001 -0.0004778289 0.0001691147 7.40724e-05 0.232096229 -0.8147904419
660296040.0 -0.1886192799 0.8263820132 0.0001882982 7.1696e-05 7.73872e-05 -5.92609e-05 0.2240483264 -0.8166596712
665296010.0 -0.180979042 0.8283029777 -7.462e-05 -7.86126e-05 -4.69616e-05 -8.98427e-05 0.2161865437 -0.8185735576
670295980.0 -0.1720745565 0.8303983264 0.0002027984 -0.0002045118 -0.0004454657 -0.0002848874 0.2075502164 -0.820319609
675295950.0 -0.1640626057 0.8318989134 4.68007e-05 3.34561e-05 8.19611e-05 0.0001464882 0.1991182674 -0.8220552031
680295920.0 -0.1558692295 0.8340188842 4.9887e-05 -6.26319e-05 -1.31885e-05 -8.67096e-05 0.1911495907 -0.8242144344
685295890.0 -0.1473159056 0.8352548073 -8.64606e-05 0.0001065017 -9.38222e-05 0.0001022972 0.1834305837 -0.8260355174
690295860.0 -0.1392436257 0.836512847 -2.60534e-05 7.0793e-06 0.0001582994 -1.62413e-05 0.1747798286 -0.8274623301
695295830.0 -0.1307180406 0.8385366641 -9.7229e-05 0.0001301057 -0.0001429689 -0.0001473813 0.1666095175 -0.8282953967
700295800.0 -0.1220564548 0.8399865485 0.0001360605 6.49583e-05 -7.46424e-05 0.0001112669 0.1586775834 -0.8307661038
705295770.0 -0.1145080229 0.8412196327 0.0001026578 9.41368e-05 -4.46928e-05 -0.0001763026 0.149461382 -0.8313499955
710295740.0 -0.1070367972 0.8422493636 3.3978e-05 -2.24366e-05 2.58933e-05 4.79303e-05 0.1421909831 -0.8330379457
715295710.0 -0.0976302306 0.8436560962 -9.84828e-05 8.79918e-05 -6.26286e-05 8.42642e-05 0.1336718779 -0.834745976
720295680.0 -0.089107598 0.8441112304 3.71587e-05 5.26591e-05 0.0001599994 -0.0001166826 0.1255093479 -0.8356478633
725295650.0 -0.0808689779 0.8457665531 3.43018e-05 6.5444e-06 -1.0775e-06 3.39142e-05 0.1163906754 -0.8364596941
730295620.0 -0.0736364731 0.8464156808 0.0003055705 1.62071e-05 -0.0001833128 0.0001582786 0.107941592 -0.8371049571
735295590.0 -0.0655005431 0.8475728259 -0.0001683288 -7.5416e-05 -0.000196621 0.0002192965 0.1007765978 -0.8382206314
740295560.0 -0.057291905 0.8479946596 -8.53055e-05 -0.0001221417 -0.0001892651 0.0001279807 0.0918442757 -0.8388399548
745295530.0 -0.0487442608 0.8479529132 -0.0001440032 0.0001186913 -4.68604e-05 0.0001860219 0.0828426047 -0.8396582487
750295500.0 -0.0409586937 0.8489802123 9.07306e-05 -1.916e-05 -3.8523e-05 -7.46852e-05 0.0747141211 -0.8403731581
755295470.0 -0.0320123721 0.8497217493 -0.0002244499 -0.0001896805 9.1988e-06 0.0002278765 0.0668619496 -0.8405646723
760295440.0 -0.0237170933 0.8509374285 -1.77003e-05 1.65505e-05 0.0002111385 0.0002511246 0.0584688321 -0.8416896338
765295410.0 -0.0156143281 0.850363577 3.92063e-05 -1.58461e-05 -1.53615e-05 -0.00010385 0.0494697061 -0.8419750447
770295380.0 -0.0082814704 0.8509222556 -7.89633e-05 3.423e-06 -6.58519e-05 0.0001679144 0.0419626817 -0.8414530519
775295350.0 0.0002341743 0.8508333668 -0.0001008274 0.0001432684 1.55198e-05 -3.51505e-05 0.0337021608 -0.8428050616
780295320.0 0.009435117 0.8512065538 -9.6405e-06 1.04499e-05 4.2733e-06 0.0001982931 0.0244364645 -0.8426170446
785295290.0 0.0170283287 0.8511480989 4.01904e-05 5.1531e-05 -1.80517e-05 2.80018e-05 0.0158971729 -0.842446259
790295260.0 0.0249053663 0.8506548131 -0.0001251283 0.000267551 0.0001649538 -7.26089e-05 0.0080026652 -0.8416666131
795295230.0 0.0336343913 0.8507407688 -3.32604e-05 6.00011e-05 0.0001111689 0.0003038369 -0.000652456 -0.8433233971
800295200.0 0.041427909 0.8505501813 -0.0002076932 6.69915e-05 6.29993e-05 -0.0001646796 -0.0090527711 -0.8421035855
805295170.0 0.0498232649 0.8505784202 -1.59498e-05 4.43777e-05 0.0001839778 -0.0001612158 -0.0165389912 -0.8420786459
810295140.0 0.0581354341 0.850172896 6.9099e-06 -0.0001942323 -0.0002730311 9.2004e-06 -0.0256378241 -0.8412602499
815295110.0 0.0654473031 0.8494477968 7.97894e-05 -1.663e-05 0.0001817233 4.44606e-05 -0.0349165643 -0.8417083766
820295080.0 0.0738021738 0.849195993 -0.0001317723 -4.77294e-05 -7.75391e-05 -7.18895e-05 -0.0425505631 -0.8404953568
825295050.0 0.0819374354 0.8479541258 -0.0001009156 -6.48507e-05 -9.44729e-05 6.89919e-05 -0.0507705512 -0.8398338451
830295020.0 0.0911076252 0.8475911823 -4.95663e-05 -0.000102983 -3.05051e-05 4.32756e-05 -0.0594272702 -0.8393791751
835294990.0 0.0983234842 0.8461533537 0.0002466315 -0.0001204836 -4.79134e-05 -5.40164e-05 -0.0679294266 -0.8380997408
840294960.0 0.1067304871 0.8452980276 -9.49362e-05 -0.0001401613 3.77719e-05 -7.4396e-06 -0.0758705601 -0.8371011311
845294930.0 0.1154983734 0.8444357412 -0.0001211767 6.79703e-05 -6.32272e-05 -9.83513e-05 -0.0841486395 -0.8363423871
850294900.0 0.12488694 0.8432842362 -0.0003018627 0.0002051037 -8.68927e-05 -6.79933e-05 -0.0925845996 -0.8354146163
