!Created with skrf (http://scikit-rf.org).
# Hz S RI R 50.0 
!freq ReS11 ImS11 ReS21 ImS21 ReS12 ImS12 ReS22 ImS22
300000.0 -0.2392566968 -0.084019535 0.4724563024 0.0559558517 0.4673532772 0.0543695526 -0.2408141326 -0.09572201
5299970.0 -0.244172322 0.007217914 0.4738103052 0.0049119386 0.473433322 0.0052437266 -0.2440196162 0.0069374228
10299940.0 -0.2408307314 0.0187202363 0.4752953623 0.005928765 0.4757780744 0.0063934255 -0.2408954848 0.0201843122
15299910.0 -0.2367333861 0.027688895 0.4794082339 0.0076021492 0.4796892879 0.0075626109 -0.2365018955 0.0295370902
20299880.0 -0.231955058 0.0352709263 0.4838490289 0.0085302675 0.4838805318 0.0083768974 -0.230795002 0.0373322518
25299850.0 -0.226827923 0.0420330804 0.488480641 0.0072306918 0.4894575461 0.0078093844 -0.2248611354 0.0438572508
30299820.0 -0.2215809355 0.0471881694 0.4944588436 0.0055633371 0.4945580506 0.0052611913 -0.2190844894 0.0491498279
35299790.0 -0.2162884946 0.0514787126 0.4999577217 0.0020348586 0.5001578353 0.0021363263 -0.2136642032 0.0535458453
40299760.0 -0.2115605857 0.0548732928 0.5049814214 -0.0016957516 0.5053705138 -0.0015393703 -0.2082891373 0.0561231555
45299730.0 -0.2066484353 0.0578541438 0.5096651179 -0.0066738825 0.5099888615 -0.0061505024 -0.203417589 0.0588310758
50299700.0 -0.2026208884 0.0599799207 0.5141473162 -0.0118100571 0.5141336198 -0.0114242186 -0.1983737537 0.0605892871
55299670.0 -0.1984604952 0.061748892 0.5182957678 -0.0185130182 0.5177436805 -0.0177627029 -0.1944126063 0.0618709926
60299640.0 -0.194322247 0.0635255564 0.5211808072 -0.0241600546 0.5214576066 -0.0238107713 -0.1903330543 0.0629965638
65299610.0 -0.1912353059 0.0649463824 0.5239436563 -0.0307181896 0.5242303462 -0.0307580283 -0.1870635389 0.0642073252
70299580.0 -0.1877969482 0.0661345655 0.526418333 -0.0370499181 0.5266215817 -0.036989939 -0.1839768445 0.0646382336
75299550.0 -0.1847987605 0.0671641052 0.5281468 -0.0440595057 0.528322922 -0.0439236722 -0.1811932584 0.0653362473
80299520.0 -0.1826513133 0.0683992015 0.5306029968 -0.0510796541 0.5306116689 -0.050767044 -0.1782948475 0.0658807675
85299490.0 -0.1800485766 0.068807131 0.5316959221 -0.0572427013 0.5317095345 -0.0572003296 -0.1762062389 0.0660334104
90299460.0 -0.1780412021 0.0696920075 0.5323583604 -0.0646295423 0.5328112474 -0.0646372597 -0.1736082125 0.0666229914
95299430.0 -0.1754402743 0.0705601066 0.5338641771 -0.071518905 0.5336027064 -0.0715706672 -0.1713047453 0.0673597698
100299400.0 -0.1737472749 0.0714174965 0.5336070988 -0.0784060929 0.5337790105 -0.0785739351 -0.1691741844 0.0676131214
105299370.0 -0.1719719955 0.072199343 0.5341431907 -0.0854718223 0.534485668 -0.0853797429 -0.1673772691 0.0682845335
110299340.0 -0.1704498188 0.073204988 0.5344185256 -0.0921425115 0.5343836862 -0.0920053811 -0.1666243221 0.0685017969
115299310.0 -0.1686082406 0.074157135 0.5345476332 -0.0993978372 0.5346083634 -0.0987805616 -0.1648069367 0.0689563099
120299280.0 -0.1673797542 0.07447708 0.5343540642 -0.1055632195 0.534492088 -0.1057244995 -0.1634198825 0.069406271
125299250.0 -0.165994525 0.0754870176 0.5342359696 -0.1120739222 0.5340783117 -0.1121369461 -0.1625537387 0.0697525138
130299220.0 -0.1649571047 0.076831953 0.5328388688 -0.1193095651 0.5332454222 -0.119259647 -0.1611779723 0.0702563492
135299190.0 -0.1637416537 0.0777824161 0.5326572453 -0.125974739 0.532878437 -0.1257221863 -0.1599258036 0.0711058249
140299160.0 -0.1626567626 0.0789296485 0.5319064788 -0.1328636648 0.5319445242 -0.1329770537 -0.1589380301 0.0721541407
145299130.0 -0.1614026011 0.0799908097 0.5308848303 -0.1393458667 0.5309294848 -0.1387414858 -0.1578395842 0.0727558785
150299100.0 -0.1603229672 0.0812311582 0.5298417898 -0.1455806795 0.5299944272 -0.1452168846 -0.1570152021 0.0740634337
155299070.0 -0.1592555443 0.0820988067 0.5289460462 -0.1527318196 0.5284450594 -0.1525080679 -0.1558098057 0.0748316166
160299040.0 -0.1582118434 0.0837274837 0.5272998479 -0.1586396355 0.5268918777 -0.1591201758 -0.1554008882 0.0754977846
165299010.0 -0.1573626348 0.0847097614 0.5258950859 -0.1652161124 0.525900891 -0.165404972 -0.1543551311 0.0765393713
170298980.0 -0.1562783723 0.0856060219 0.5246758444 -0.1717927741 0.5245542722 -0.1714259302 -0.1536724151 0.0774490775
175298950.0 -0.1556587742 0.0871647108 0.5229330494 -0.177916787 0.5227004821 -0.1778117741 -0.1528265487 0.078765419
180298920.0 -0.1546236079 0.0886681788 0.5211928325 -0.1842255952 0.5207434413 -0.18389124 -0.1518227811 0.0797512469
185298890.0 -0.1532932146 0.0894011593 0.5188121927 -0.1902055646 0.5190428825 -0.1900435148 -0.1515224882 0.0813083949
190298860.0 -0.1526450368 0.0911022581 0.5173836253 -0.1966085615 0.5176199325 -0.1966342071 -0.1504455854 0.0818811086
195298830.0 -0.1518272036 0.0921784652 0.5152834174 -0.2027510057 0.5153315699 -0.2025027523 -0.149724025 0.0830660538
200298800.0 -0.1507609421 0.0936936716 0.5129732496 -0.2087040087 0.5130249296 -0.2086321928 -0.1493795806 0.0842305673
205298770.0 -0.149669205 0.0950675211 0.5108872659 -0.2151878804 0.5109287268 -0.2145170128 -0.1486060892 0.0848286904
210298740.0 -0.148916602 0.0962802346 0.5084876222 -0.2202556573 0.5087619514 -0.2204794922 -0.1477207741 0.0867906085
215298710.0 -0.1481710095 0.0978479233 0.5065782286 -0.2268804215 0.506267624 -0.227153604 -0.1471353629 0.0875969645
220298680.0 -0.1470527286 0.0988302928 0.503776164 -0.2326306719 0.5036728344 -0.2323918606 -0.1467561489 0.0887358526
225298650.0 -0.1462403371 0.1002715666 0.5015745645 -0.2384219472 0.501456242 -0.238503769 -0.1462851434 0.0898364308
230298620.0 -0.1452911603 0.1023212011 0.4988275055 -0.2441786957 0.499226259 -0.2440135515 -0.1455204565 0.0906140486
235298590.0 -0.1439254752 0.103793039 0.4962973844 -0.2499390828 0.4966201099 -0.2498084924 -0.1446744012 0.0920594686
240298560.0 -0.1432224349 0.1049934806 0.4937911734 -0.2557361695 0.4935938813 -0.2558857166 -0.1438063233 0.0938369816
245298530.0 -0.1420173312 0.1065182043 0.4910289034 -0.2616521642 0.4908737505 -0.261355694 -0.143024642 0.0942173552
250298500.0 -0.1410305398 0.1079238954 0.4873494587 -0.2672437888 0.487682976 -0.2669902212 -0.14228974 0.0957041708
255298470.0 -0.1396534977 0.1089693479 0.4842637797 -0.2724462418 0.4849663429 -0.2724463246 -0.1413824376 0.0968370678
260298440.0 -0.1393017373 0.1107281005 0.4821707966 -0.2784695695 0.4824500415 -0.2780046596 -0.1404823325 0.0980773748
265298410.0 -0.1375261385 0.112443695 0.4787122697 -0.2840424752 0.4789725345 -0.2837660182 -0.1399172023 0.0994254147
270298380.0 -0.1365556582 0.1136346761 0.4759016164 -0.2889027759 0.4762263181 -0.2893036068 -0.1391270563 0.100663583
275298350.0 -0.1353021202 0.1152277904 0.4726209415 -0.2953726943 0.4729077728 -0.2946923629 -0.137884132 0.101765727
280298320.0 -0.1338112658 0.1168231275 0.4703114524 -0.3001661205 0.4696264596 -0.2998229915 -0.1368304941 0.1030775544
285298290.0 -0.1328626502 0.1184284989 0.4663605763 -0.3050765832 0.4664382381 -0.305461898 -0.1360735869 0.10408612
290298260.0 -0.1315597594 0.1197743636 0.4630392875 -0.3104976541 0.463197279 -0.3104137608 -0.135016619 0.1058101643
295298230.0 -0.1300990314 0.1209289342 0.460196528 -0.3160121442 0.4596922407 -0.3156952535 -0.1335157549 0.1065400399
300298200.0 -0.1292369503 0.1223982154 0.4563369682 -0.3206728594 0.4567696415 -0.3211839401 -0.132701355 0.1079900169
305298170.0 -0.1278413436 0.1234314304 0.4525193954 -0.3266206177 0.4527611516 -0.3261509359 -0.1312882759 0.1090001183
310298140.0 -0.1266209483 0.1252385859 0.4492163946 -0.3318877931 0.4494477202 -0.3314017343 -0.1304174736 0.1104332327
315298110.0 -0.1249409811 0.1263812296 0.4457558511 -0.3369784591 0.4456957609 -0.3367836751 -0.1293122951 0.1115203213
320298080.0 -0.1239459169 0.1276055369 0.4412145033 -0.3422248197 0.4416335038 -0.3419237316 -0.1286906472 0.1128285976
325298050.0 -0.1224809365 0.1288209144 0.4375970646 -0.3468506439 0.4380047421 -0.3468725483 -0.1279511872 0.1138859593
330298020.0 -0.1213115293 0.1301558991 0.4334553848 -0.3522117275 0.4341253967 -0.351882741 -0.1271451662 0.1152764256
335297990.0 -0.119771405 0.1312144642 0.4298697081 -0.3564309166 0.4297797796 -0.3569137506 -0.1261437004 0.1169521547
340297960.0 -0.1192894578 0.1329640884 0.4255024408 -0.3613859905 0.4256709395 -0.3616973362 -0.1250556248 0.1184160091
345297930.0 -0.1178575397 0.1348769591 0.4215673349 -0.3665460595 0.4215476268 -0.3662793003 -0.1242233629 0.1193487307
350297900.0 -0.1166655937 0.135747816 0.4170744359 -0.3709882069 0.4173725247 -0.370874011 -0.1233349252 0.1209095799
355297870.0 -0.1150246347 0.1377038816 0.4131012744 -0.3753453447 0.4137134083 -0.3752955541 -0.12265274 0.1221574974
360297840.0 -0.1134142755 0.1389816753 0.40939856 -0.3800525747 0.4096690192 -0.3793755968 -0.1213590858 0.1237091136
365297810.0 -0.1125102502 0.1402776836 0.4045781681 -0.3847040955 0.405340065 -0.3846345883 -0.1199816326 0.1249923855
370297780.0 -0.1105156007 0.1415223314 0.400521043 -0.3892589953 0.4012834093 -0.3884672391 -0.1194545618 0.1261378202
375297750.0 -0.1089841636 0.1427839435 0.3965211683 -0.3930170165 0.3969410804 -0.3933571274 -0.11792373 0.1273794049
380297720.0 -0.1074789997 0.1441890031 0.3921712452 -0.3978218634 0.3923505187 -0.3968437448 -0.1174308441 0.1287485923
385297690.0 -0.1066328671 0.1455966995 0.387475417 -0.4015941299 0.3877165497 -0.4017159683 -0.1158395502 0.1300979222
390297660.0 -0.1050027375 0.1470090445 0.3834624191 -0.4062026233 0.3832385513 -0.4053738579 -0.1150135525 0.1311327146
395297630.0 -0.1032407455 0.1485952013 0.3788572065 -0.4102994133 0.3788380442 -0.4103554203 -0.1133011398 0.1325080229
400297600.0 -0.1014957005 0.1496406907 0.3739502961 -0.4147342812 0.3743193632 -0.4146163965 -0.1122563225 0.1339713963
405297570.0 -0.1002631636 0.1506925572 0.3695955226 -0.418429837 0.3698085799 -0.4181476304 -0.1113134238 0.1349893107
410297540.0 -0.0981435592 0.1520280794 0.3650126671 -0.4227111424 0.3655936291 -0.4226620581 -0.1100231154 0.1365016148
415297510.0 -0.0966062623 0.15309751 0.3603103824 -0.4271092035 0.3609000602 -0.4269428409 -0.1086081718 0.1373505344
420297480.0 -0.0953643805 0.1547838533 0.3557113747 -0.4306138775 0.3557125342 -0.4305789529 -0.1077950061 0.1384096099
425297450.0 -0.093700204 0.1551244782 0.3510389441 -0.4341057633 0.3510800751 -0.4345800018 -0.1067691527 0.1400020198
430297420.0 -0.091841841 0.1566206732 0.3460781088 -0.4379373789 0.3463363231 -0.4377591159 -0.1050859859 0.1407221133
435297390.0 -0.0902612984 0.1579553801 0.3409573459 -0.4417213644 0.3412838881 -0.4415231101 -0.1031228156 0.1418817356
440297360.0 -0.0883765394 0.1589549828 0.3365575168 -0.4452678819 0.336848331 -0.4456533216 -0.102338657 0.1426726987
445297330.0 -0.0867359408 0.1601406118 0.3317638246 -0.4493891249 0.3317062978 -0.4490242105 -0.1006081062 0.1436719766
450297300.0 -0.0847302703 0.1611769454 0.3267833798 -0.4529784234 0.3266685608 -0.4531147414 -0.0995130756 0.1446639485
455297270.0 -0.0834382436 0.1623096206 0.3215441055 -0.4562638907 0.3219417059 -0.4564824955 -0.0981161361 0.1457892349
460297240.0 -0.0816930175 0.1631821175 0.3164670285 -0.4595203627 0.3167252176 -0.4599080539 -0.0966020142 0.1471567654
465297210.0 -0.0793509621 0.1641120518 0.3117529236 -0.4630690983 0.3116845895 -0.4632325287 -0.0950510566 0.1478821785
470297180.0 -0.0779811283 0.1651172296 0.30619114 -0.4667460947 0.3064274269 -0.4666495649 -0.0934122006 0.1493918362
475297150.0 -0.0757729221 0.1659340364 0.3013958482 -0.4692026555 0.301539057 -0.4691243745 -0.0918198817 0.1498183392
480297120.0 -0.0741137878 0.1673480578 0.2965640956 -0.4733855468 0.2959475184 -0.4730058616 -0.0904453938 0.15128833
485297090.0 -0.0725477277 0.1683042022 0.2910687333 -0.476156108 0.2911139343 -0.4760375367 -0.0889126023 0.1522246038
490297060.0 -0.0707968334 0.1691442259 0.2863730082 -0.4798449548 0.286111869 -0.479075937 -0.0874079532 0.1531976724
495297030.0 -0.0688782684 0.1699649438 0.2805750103 -0.482255596 0.2811821042 -0.4825558246 -0.0864148469 0.1544640821
500297000.0 -0.0668764028 0.170777507 0.2756096636 -0.4849451244 0.2750745681 -0.4855377456 -0.0843491279 0.1560717107
505296970.0 -0.0647500169 0.1715879465 0.2700618999 -0.4883675467 0.2698194341 -0.4888271926 -0.0828691311 0.1564450945
510296940.0 -0.0630321708 0.1725562968 0.2645478489 -0.4914189372 0.2648307999 -0.491143238 -0.0814236642 0.1576984887
515296910.0 -0.0611420751 0.1735231846 0.2590397022 -0.4939765933 0.2595744245 -0.4942069395 -0.0800123155 0.1587214316
520296880.0 -0.0593123859 0.1743752183 0.2538702294 -0.4972634438 0.2540411065 -0.4966398352 -0.078598998 0.1592021777
525296850.0 -0.0573771629 0.1746274278 0.2480075181 -0.4997180904 0.2487941304 -0.4994700038 -0.0770532781 0.1604290381
530296820.0 -0.0552712407 0.1756509456 0.2430622595 -0.5028505336 0.2430841832 -0.5022944257 -0.0755929917 0.1614263082
535296790.0 -0.0536278841 0.1766794349 0.2377780607 -0.5049467927 0.2378231255 -0.5044820329 -0.0741589221 0.161882178
540296760.0 -0.0518761214 0.177416449 0.2321284164 -0.5073916615 0.2319490465 -0.5076170692 -0.0728517063 0.1633656186
545296730.0 -0.0499486539 0.1783010994 0.2263040907 -0.5094983845 0.2262599907 -0.5097422483 -0.0710318285 0.1639374372
550296700.0 -0.0475535022 0.1789980698 0.2208092323 -0.512382522 0.2209664086 -0.5123182871 -0.0696603862 0.1648163063
555296670.0 -0.0458054982 0.1792214211 0.2155896557 -0.5147072206 0.2156724626 -0.514129808 -0.0681638816 0.1660169746
560296640.0 -0.0437257421 0.1805130555 0.2095656369 -0.5171668143 0.2099814318 -0.5167756408 -0.0665613612 0.1664564822
565296610.0 -0.0420767383 0.1809617002 0.2041537042 -0.5190880353 0.2044400805 -0.519188834 -0.0653122362 0.1671545365
570296580.0 -0.040059488 0.181703829 0.1984077708 -0.5217931402 0.1980300202 -0.5215308875 -0.063692443 0.1686892047
575296550.0 -0.0380310816 0.1821808908 0.1926900381 -0.5234481574 0.1927052005 -0.5237502654 -0.0618724614 0.1689720812
580296520.0 -0.035967577 0.182615673 0.1871173516 -0.5258717531 0.1869979395 -0.5255055416 -0.0602250548 0.1697389228
585296490.0 -0.0339645804 0.1827405175 0.1815650718 -0.5268928802 0.1815593175 -0.5274647122 -0.0584247754 0.1705255941
590296460.0 -0.03159773 0.1837423279 0.1755914299 -0.5289745477 0.1757830767 -0.5289251659 -0.0573044903 0.1709595121
595296430.0 -0.0299746481 0.1841767083 0.1697807985 -0.531498453 0.1697699102 -0.5310124909 -0.0554050737 0.1712506113
600296400.0 -0.0278837464 0.1844588089 0.1642780229 -0.5329745589 0.1641548565 -0.5325661686 -0.0539401013 0.1719081871
605296370.0 -0.0258255235 0.1850739255 0.1580297607 -0.534538246 0.1585669655 -0.5347674863 -0.0523265814 0.1730790562
610296340.0 -0.0238188569 0.1854318277 0.1523633837 -0.5361862224 0.1526327033 -0.5363283409 -0.050127593 0.1735801424
615296310.0 -0.0215458552 0.1853029067 0.1469433887 -0.537349752 0.1464820651 -0.5381601819 -0.0483861926 0.1738302684
620296280.0 -0.0198642106 0.1859463184 0.1411039637 -0.5392039571 0.1409553196 -0.5389992978 -0.0470331109 0.1745235171
625296250.0 -0.0178176619 0.1857642445 0.1356379453 -0.5411082776 0.135084986 -0.5409853577 -0.0447118017 0.1752754855
630296220.0 -0.0148931481 0.1865141168 0.1286121353 -0.5424963748 0.1287435288 -0.5422119341 -0.0434411427 0.1757518386
635296190.0 -0.013909634 0.1868933794 0.1231182354 -0.5435529327 0.1232756416 -0.5435165934 -0.0415741988 0.1761760447
640296160.0 -0.0116732946 0.1872982568 0.1171742943 -0.5446169384 0.1176609486 -0.5447929808 -0.0398455612 0.176793306
645296130.0 -0.0091685221 0.1876639848 0.1113946318 -0.5455727633 0.1115256525 -0.5459376166 -0.0381353363 0.1775159441
650296100.0 -0.0072415534 0.1875035903 0.1053683137 -0.5471953276 0.1057699405 -0.5469448787 -0.0362807936 0.1775236395
655296070.0 -0.005501687 0.1877534206 0.0997904704 -0.5482831875 0.0998149088 -0.547990698 -0.0342277757 0.1780267
660296040.0 -0.0036489342 0.1877055752 0.0939347544 -0.549050542 0.0940659043 -0.5493332122 -0.0324398379 0.1786964546
665296010.0 -0.0010292472 0.1877856313 0.0872232409 -0.5501077041 0.0877823796 -0.5502607154 -0.0304709208 0.1799965457
670295980.0 0.0003390642 0.1887120463 0.0819645684 -0.551016414 0.0820425225 -0.5507989123 -0.0296016042 0.1802147373
675295950.0 0.0026646475 0.1885392534 0.0759579525 -0.5515929417 0.0761536886 -0.5512237395 -0.027799671 0.1803700677
680295920.0 0.0046816163 0.1884673108 0.069830859 -0.552496913 0.0694394621 -0.5526465034 -0.0256221363 0.1815146136
685295890.0 0.0071110311 0.1891942009 0.0639066695 -0.5533191606 0.0637449011 -0.5531140658 -0.0241110584 0.1814468884
690295860.0 0.0092735206 0.1887874744 0.0579899212 -0.5534711022 0.05800435 -0.5542332026 -0.0225982408 0.1825799924
695295830.0 0.0111474063 0.1887145755 0.0525085466 -0.5540527574 0.0516474991 -0.5547220814 -0.0205092171 0.1825986475
700295800.0 0.0136283684 0.1888488728 0.0459027282 -0.5547045826 0.0460307309 -0.5548268069 -0.0190669896 0.1835415118
705295770.0 0.0150625544 0.1892591071 0.0395957226 -0.5550009038 0.0403766466 -0.5554153723 -0.0171044028 0.1838564183
710295740.0 0.0173719209 0.1893300332 0.0341009644 -0.556170022 0.0341725228 -0.5559696381 -0.0152787056 0.1834142229
715295710.0 0.0190873026 0.1888683667 0.0282148014 -0.5565944214 0.0280642913 -0.5562405594 -0.0131385917 0.1841259454
720295680.0 0.021509593 0.1887297498 0.0218858685 -0.5565912805 0.0220884062 -0.5565426291 -0.0114503773 0.1846342067
725295650.0 0.0237274719 0.188477558 0.0160244025 -0.5562172296 0.0160966868 -0.5566564326 -0.0104076293 0.1849995357
730295620.0 0.0259082634 0.1889225524 0.0096959944 -0.5563036566 0.0100369661 -0.5565382418 -0.0085467021 0.1849376389
735295590.0 0.0280403779 0.1887639378 0.0040408141 -0.557058397 0.0042476197 -0.5566258811 -0.007069398 0.1848122117
740295560.0 0.0298496776 0.1887074849 -0.0020279402 -0.5565708177 -0.0018574617 -0.5565175216 -0.0047683603 0.1853991365
745295530.0 0.0317498309 0.1884758385 -0.0080852157 -0.5561562907 -0.0076592678 -0.5565208998 -0.0029047849 0.185255537
750295500.0 0.0340933995 0.1880772066 -0.013932207 -0.556218359 -0.0139011591 -0.5565382162 -0.0015071948 0.1860138026
755295470.0 0.0362487033 0.1875950856 -0.0196938383 -0.5560363192 -0.0198997232 -0.5560294153 0.0009317125 0.1853445243
760295440.0 0.03795154 0.1873489841 -0.0259115032 -0.5560253408 -0.0257676415 -0.5560776562 0.002218557 0.1855731742
765295410.0 0.040302358 0.1872072639 -0.0323320205 -0.5558011326 -0.0323951348 -0.5553733467 0.0040733358 0.1859567849
770295380.0 0.0419323824 0.1867555833 -0.037683098 -0.5554566996 -0.0380436795 -0.5550147036 0.0059134386 0.1857390768
775295350.0 0.0438291912 0.18612409 -0.0441378428 -0.5542814319 -0.0433929399 -0.5544573045 0.0072886182 0.186148941
780295320.0 0.0461845341 0.1861879188 -0.0501086979 -0.5537142846 -0.0491220446 -0.5539537109 0.0092119687 0.1855664895
785295290.0 0.0476538271 0.1852672661 -0.0563836759 -0.553021805 -0.0554687449 -0.5535420994 0.0116987377 0.1860791852
790295260.0 0.0505547313 0.1856354635 -0.0618124253 -0.5527054311 -0.061201133 -0.5526398284 0.0132381634 0.1859675916
795295230.0 0.0522321648 0.1847102603 -0.0678757596 -0.5517502436 -0.0673406989 -0.5521722229 0.0156140004 0.1860447899
800295200.0 0.0542509237 0.184499839 -0.0741533501 -0.5508389418 -0.073723877 -0.5514091027 0.0172698261 0.1858837851
805295170.0 0.0565229193 0.1838639262 -0.0797933259 -0.5500981819 -0.0794872278 -0.5505719267 0.0187293136 0.1863736574
810295140.0 0.0581239697 0.1830938724 -0.0853719956 -0.5493612021 -0.0850897149 -0.5493882398 0.0212051239 0.1861392294
815295110.0 0.0604463077 0.1823561675 -0.0913407691 -0.5476700004 -0.0911216346 -0.5484451292 0.0226052154 0.1858587698
820295080.0 0.0621374648 0.1825460301 -0.0974236583 -0.5472956091 -0.0966294176 -0.5471204573 0.0245583133 0.1859188617
825295050.0 0.0648363957 0.1814259885 -0.103052998 -0.5461993599 -0.1027894889 -0.546222845 0.0266523293 0.1859025613
830295020.0 0.0661937317 0.1812930928 -0.109048652 -0.5447793318 -0.1090178139 -0.5448483763 0.028871992 0.1859612671
