!Created with skrf (http://scikit-rf.org).
# Hz S RI R 50.0 
!freq ReS11 ImS11 ReS21 ImS21 ReS12 ImS12 ReS22 ImS22
300000.0 -0.774205815 -0.1786613423 -0.000825396 -0.0006864099 -0.0002133815 0.0017742352 -0.045540296 -0.0788726286
5299970.0 -0.7863156495 -0.0093138753 -0.000104876 4.03433e-05 -7.8469e-05 -0.000107663 -0.0479770989 0.0137895367
10299940.0 -0.7896818608 -0.0059112773 -0.0001395567 -0.0002606271 -4.30154e-05 -1.53068e-05 -0.0419357659 0.0314459811
15299910.0 -0.7944387185 -0.0033740484 6.57808e-05 3.07714e-05 8.64778e-05 0.0002373263 -0.0338804005 0.0455679358
20299880.0 -0.8014252616 0.0006760151 0.0001814469 -1.32086e-05 3.33825e-05 -2.8714e-06 -0.0242702685 0.0573419647
25299850.0 -0.8076991836 0.0069343807 8.46723e-05 -1.78386e-05 -7.57017e-05 -2.38454e-05 -0.0136523805 0.0662674113
30299820.0 -0.8138454187 0.0136414967 5.04404e-05 3.23179e-05 2.35925e-05 -0.0001971582 -0.0020575585 0.0728972988
35299790.0 -0.8186825226 0.0230239659 2.3272e-05 6.49503e-05 6.47328e-05 -0.0002130054 0.0091514868 0.0774721484
40299760.0 -0.8236340651 0.0317235036 0.0001111285 0.0001358328 0.0001568524 2.56766e-05 0.0197478898 0.0800912073
45299730.0 -0.8263805721 0.0411479064 0.0003103911 0.0003130275 0.0001595698 9.45496e-05 0.0305682695 0.0812741049
50299700.0 -0.8292184995 0.051875968 -6.38044e-05 -4.12843e-05 5.08509e-05 2.17137e-05 0.0405572651 0.0813116302
55299670.0 -0.8311893644 0.0610493288 -3.12577e-05 0.0001637458 -8.2688e-06 -6.51668e-05 0.0491364156 0.0802897111
60299640.0 -0.832586069 0.0718512265 -4.73886e-05 0.0001673044 -9.57893e-05 -6.9165e-05 0.0575536025 0.0783427336
65299610.0 -0.8338130185 0.0818254201 2.68824e-05 5.20936e-05 4.59475e-05 -4.78411e-05 0.0654629901 0.075751118
70299580.0 -0.833409891 0.0915722572 1.61717e-05 3.16113e-05 9.93477e-05 -2.64203e-05 0.0719415613 0.0736464534
75299550.0 -0.8339525531 0.1011642864 4.44107e-05 0.0002945788 -8.52704e-05 -6.79562e-05 0.0786725709 0.0700624016
80299520.0 -0.8343447947 0.1118610505 0.0001426259 0.0001621078 0.0001771126 -6.87627e-05 0.0838468227 0.0661075527
85299490.0 -0.8325369664 0.1206465617 -6.48598e-05 1.8734e-06 -3.83e-07 -7.36229e-05 0.0886599624 0.0626896198
90299460.0 -0.8319769483 0.1314202551 5.79652e-05 -5.95704e-05 -0.000103419 8.4442e-06 0.0933497406 0.0587210737
95299430.0 -0.8316816304 0.1407270643 -0.0001537903 0.0002932183 1.91833e-05 -5.16114e-05 0.0974197998 0.0549658254
100299400.0 -0.8305708236 0.149555928 0.0001476414 -6.42232e-05 -2.28948e-05 -9.22153e-05 0.1011216846 0.0510683935
105299370.0 -0.829014799 0.1594247544 0.0001302694 -4.86788e-05 8.60051e-05 -3.5107e-06 0.1041632099 0.0467503293
110299340.0 -0.8272631186 0.1680000598 -0.0001079981 -7.88219e-05 -5.635e-05 7.31392e-05 0.1067379542 0.0424888377
115299310.0 -0.8262095612 0.1779213621 7.68877e-05 -6.13814e-05 0.000158799 4.29011e-05 0.1093205924 0.0390030854
120299280.0 -0.824285948 0.1867781778 -0.0001304833 -4.8474e-06 -3.05966e-05 7.61939e-05 0.1113900048 0.0351782181
125299250.0 -0.8222613969 0.1953006208 6.87321e-05 0.0002722662 0.0001741439 8.38471e-05 0.1134371876 0.0311827295
130299220.0 -0.8206263338 0.2047502785 -8.03754e-05 8.34096e-05 -7.32022e-05 -1.1607e-06 0.1150134531 0.0277015864
135299190.0 -0.8185802637 0.2135098785 4.3076e-05 -0.0003119809 2.05054e-05 6.68575e-05 0.1162666166 0.0235919556
140299160.0 -0.8173899202 0.2235148592 -7.00422e-05 0.0001199742 8.31893e-05 1.8981e-05 0.1172751281 0.0202373079
145299130.0 -0.8147756718 0.2320453445 5.48986e-05 7.8342e-06 -5.41202e-05 -0.0002103092 0.1184370489 0.0167129961
150299100.0 -0.8118981515 0.2411849071 6.46711e-05 0.0001094662 7.25213e-05 3.30991e-05 0.1190592853 0.0134907741
155299070.0 -0.8100357212 0.2501804196 0.0003650093 0.0001188329 9.61362e-05 5.63761e-05 0.1199880242 0.0100569744
160299040.0 -0.8079125156 0.2591790392 5.42547e-05 0.0001607254 -0.0001779729 0.0001208124 0.1201372326 0.0066163701
165299010.0 -0.8050920862 0.2679146406 0.0001767013 9.26198e-05 4.82379e-05 5.97305e-05 0.1207843978 0.0035763218
170298980.0 -0.8017821065 0.2759710558 0.0001320803 -7.23252e-05 5.30344e-05 0.0001023723 0.1209334485 0.0004908217
175298950.0 -0.7990840103 0.2846185854 -0.0002033547 9.54336e-05 2.12927e-05 8.35962e-05 0.121196122 -0.0023629266
180298920.0 -0.796066837 0.2933096803 -3.61868e-05 -0.0002015221 4.59824e-05 1.05432e-05 0.1214829473 -0.0056681764
185298890.0 -0.7929668057 0.3015735581 0.0001165746 1.4415e-06 7.05451e-05 0.0001720573 0.121556981 -0.008881534
190298860.0 -0.7896446303 0.3112526443 3.08743e-05 0.0001681575 -0.0001115381 -2.58769e-05 0.1213728948 -0.0115286823
195298830.0 -0.7864468612 0.3190913848 -6.99658e-05 -1.1907e-05 -6.76158e-05 -5.83236e-05 0.1209212597 -0.0142995535
200298800.0 -0.783216278 0.3280318254 0.0002634878 0.000129604 -3.37424e-05 -5.52502e-05 0.1209536671 -0.0171137445
205298770.0 -0.7789639858 0.3364950325 -2.8011e-06 7.7036e-06 1.8648e-06 7.41466e-05 0.1206810411 -0.0197171439
210298740.0 -0.7760596295 0.3442234505 -0.0002411923 8.54887e-05 0.0001165379 9.41588e-05 0.1201925051 -0.0225474119
215298710.0 -0.7718504868 0.3532530744 -0.0001496914 -0.0002160911 3.55491e-05 -9.77454e-05 0.1197569038 -0.0251858422
220298680.0 -0.7688675656 0.3608860306 0.0003305303 3.30699e-05 0.0001084718 4.75859e-05 0.1192461934 -0.0273545485
225298650.0 -0.7645236635 0.3692050929 -3.40644e-05 -5.36845e-05 0.0001874526 0.000207419 0.1184404507 -0.0296510357
230298620.0 -0.7611237613 0.3778608744 8.00844e-05 -3.26327e-05 8.35398e-05 8.5199e-06 0.1180095244 -0.0324384897
235298590.0 -0.7569591211 0.3859249461 -2.46848e-05 1.31236e-05 -3.07062e-05 -2.83652e-05 0.1174444625 -0.0344497024
240298560.0 -0.7525450949 0.3933549483 -6.4445e-05 -1.20937e-05 0.0001327798 6.65744e-05 0.116901103 -0.0370418315
245298530.0 -0.7487100399 0.4016225784 0.0001674545 7.27571e-05 -2.78683e-05 7.36457e-05 0.1160773929 -0.0392707308
250298500.0 -0.7442201179 0.4088182795 3.04319e-05 0.0001797008 -5.51797e-05 -3.66032e-05 0.1151146983 -0.0411569927
255298470.0 -0.7405093705 0.4173419042 8.25782e-05 0.000125502 2.99379e-05 0.000194863 0.1144700297 -0.0434814692
260298440.0 -0.7365574929 0.4250814848 -0.0001021575 -0.0001614295 -0.0001054068 0.0002314478 0.1134594939 -0.0454367784
265298410.0 -0.7320931232 0.4327481472 5.29814e-05 7.67233e-05 0.0001737779 7.84869e-05 0.1130128063 -0.0476757921
270298380.0 -0.7272234349 0.440317786 -9.46535e-05 6.8928e-06 8.93499e-05 -8.54284e-05 0.1121924144 -0.0498923741
275298350.0 -0.7232410791 0.4483676776 7.57606e-05 3.97446e-05 0.0001368561 -0.0002156945 0.1110035114 -0.0519453441
280298320.0 -0.7181159601 0.4554026923 0.0001941483 0.0001220024 4.19859e-05 0.0001511588 0.1098156714 -0.0536705321
285298290.0 -0.7132614053 0.4630750253 3.48811e-05 -6.50623e-05 7.20878e-05 5.96671e-05 0.1088740408 -0.0550534967
290298260.0 -0.7085124215 0.4711085978 0.0001050826 0.0001462293 -1.07139e-05 1.24483e-05 0.107754644 -0.0572824828
295298230.0 -0.7039200598 0.4782430555 4.78584e-05 2.0236e-06 8.03292e-05 2.71348e-05 0.1071080321 -0.0591434038
300298200.0 -0.6992038109 0.4856960568 5.31014e-05 6.69335e-05 -0.0001128293 -4.1937e-05 0.1062720191 -0.0611717531
305298170.0 -0.6945268628 0.4926572265 2.57923e-05 -0.0002002467 -0.0001301433 -9.41183e-05 0.1049099388 -0.0626691424
310298140.0 -0.6888535975 0.4994154859 0.0001978668 0.0001827926 6.08282e-05 7.4437e-05 0.1039251782 -0.0647048098
315298110.0 -0.6848347345 0.5070685278 0.0002278742 0.0001968124 8.36033e-05 0.0001010093 0.1029998693 -0.066630857
320298080.0 -0.6788857286 0.5143464101 0.0001754024 -0.0002081854 0.0001740348 -1.79696e-05 0.1013773824 -0.0682517325
325298050.0 -0.6736439347 0.5209766888 0.0002188036 8.4275e-06 2.40801e-05 -0.0001083686 0.1007610418 -0.0704499663
330298020.0 -0.6682965124 0.5280796318 8.3458e-05 0.0001305803 2.04444e-05 -0.0001724066 0.0990611139 -0.0722727149
335297990.0 -0.6628796168 0.5345298893 2.82548e-05 -3.15183e-05 0.0001758934 -4.50727e-05 0.0976396013 -0.0737945749
340297960.0 -0.6578282425 0.5412857147 7.20794e-05 0.0001358157 2.35926e-05 7.5025e-05 0.0963376851 -0.0751357531
345297930.0 -0.651889928 0.5482176655 0.0001709768 0.0002582415 6.77655e-05 0.0001698191 0.0947201031 -0.0768817688
350297900.0 -0.6463464948 0.5547391993 0.0003432335 6.8204e-05 9.06187e-05 5.20839e-05 0.0931878969 -0.0780137455
355297870.0 -0.6411585504 0.5616404296 5.63066e-05 0.0001190365 7.1985e-05 -3.97288e-05 0.0921521196 -0.0793042016
360297840.0 -0.6348543999 0.5678521502 -5.57887e-05 -5.29471e-05 0.0002135724 -0.0001100346 0.0904293522 -0.0808753673
365297810.0 -0.6293837853 0.5749270695 1.38352e-05 0.0002209796 5.14655e-05 -0.0001454517 0.0889515888 -0.0822146937
370297780.0 -0.623439375 0.5806726747 0.0001290839 1.91817e-05 8.71633e-05 7.94519e-05 0.0873980861 -0.0834400792
375297750.0 -0.6180860448 0.5872395038 -0.0001335154 -2.18572e-05 0.0001742198 2.3951e-05 0.0860026694 -0.0847428475
380297720.0 -0.6117952644 0.5932201909 -7.34274e-05 -6.7836e-06 -8.82066e-05 0.0001071213 0.0848892817 -0.0857288774
385297690.0 -0.6055218173 0.5994727403 0.0001371011 1.73844e-05 0.0001302575 0.0002012333 0.0835586859 -0.0868056473
390297660.0 -0.5985964254 0.6052193871 -0.0001364151 -2.56845e-05 0.0002133837 0.0001484282 0.081850293 -0.0886660727
395297630.0 -0.5934115916 0.611700461 5.212e-05 0.0001645247 -2.57752e-05 8.66937e-05 0.0803137747 -0.0896422354
400297600.0 -0.5869968538 0.6186582915 0.0002109994 -0.0001604999 1.38169e-05 0.0001098369 0.0790758365 -0.0905161351
405297570.0 -0.5808307342 0.6231836257 0.0001158765 2.38581e-05 0.0002471865 5.86262e-05 0.0779181246 -0.0916098868
410297540.0 -0.5743666645 0.6300799745 8.8695e-06 0.0001795107 0.0002371878 1.16384e-05 0.0760774788 -0.092740965
415297510.0 -0.5681855318 0.6354533936 8.45494e-05 5.853e-05 0.0003350205 -2.3345e-06 0.0747760873 -0.0939443693
420297480.0 -0.5608811993 0.6408106577 8.9825e-05 -0.0002097611 0.00012256 -6.59907e-05 0.0734851239 -0.0944625761
425297450.0 -0.5549264576 0.6463842537 0.0002168172 3.44787e-05 7.6635e-05 -9.98723e-05 0.0715580284 -0.0961171105
430297420.0 -0.5484820951 0.6520254827 8.99725e-05 -3.4544e-06 6.93374e-05 -3.63724e-05 0.0702585979 -0.0967227388
435297390.0 -0.5415412133 0.6572422455 4.78598e-05 -7.27312e-05 2.50648e-05 5.8756e-05 0.0685219984 -0.0974987658
440297360.0 -0.5341687708 0.6630082749 0.0004804293 -5.64071e-05 5.35884e-05 -7.1394e-05 0.0673027488 -0.0983232006
445297330.0 -0.5271674535 0.6680837322 7.49154e-05 0.0001248655 0.0002120756 -0.0001115247 0.065904299 -0.0994366309
450297300.0 -0.5201274731 0.6737925864 5.1825e-06 -5.30954e-05 8.90652e-05 -9.5991e-05 0.0639879549 -0.1003763769
455297270.0 -0.5136322581 0.6785320044 4.18007e-05 -0.000194966 7.8856e-06 -9.84182e-05 0.0626148672 -0.1011993115
460297240.0 -0.5056939131 0.6839727241 0.000179533 9.3661e-06 0.0001898466 -9.83344e-05 0.0609635951 -0.1020226038
465297210.0 -0.4991543591 0.688959311 0.0002290377 0.0002513189 0.0001172982 8.29388e-05 0.0594028733 -0.1026465668
470297180.0 -0.4920270065 0.6940283508 -4.55862e-05 -2.04479e-05 7.18983e-05 8.28988e-05 0.0577051127 -0.1036927989
475297150.0 -0.4845558706 0.6987562592 -2.32604e-05 8.47818e-05 0.0002928068 3.59511e-05 0.0567054642 -0.1041789541
480297120.0 -0.4769089185 0.7037912459 -0.0002079533 -8.05343e-05 0.0001118143 -8.8435e-05 0.0545536668 -0.104947605
485297090.0 -0.4702330222 0.7084917446 0.0001244714 0.0001953281 0.0001152661 0.0002673269 0.0528105266 -0.1056610569
490297060.0 -0.4623410437 0.7137068612 0.0001171157 -7.16591e-05 0.0003115882 8.98377e-05 0.051349272 -0.1064170759
495297030.0 -0.4548692601 0.7182376262 0.000124454 3.76637e-05 -0.0002220113 7.75934e-05 0.050034165 -0.1070886648
500297000.0 -0.4470220901 0.7220013471 0.000227725 0.0001321668 3.28304e-05 -5.74089e-05 0.0483723471 -0.1074747688
505296970.0 -0.4395154308 0.7272208 0.0001474161 -0.0001464858 7.27934e-05 0.0001178235 0.0466896917 -0.1083496496
510296940.0 -0.432270516 0.7313058264 0.000287117 0.0001361233 7.27952e-05 3.31539e-05 0.045309844 -0.1082323591
515296910.0 -0.4242404852 0.7356466449 8.94541e-05 -7.51111e-05 7.368e-07 -8.48279e-05 0.0432758569 -0.1094225068
520296880.0 -0.416196721 0.7398081529 0.0002473712 -7.5876e-06 0.0001447271 0.00010521 0.0420668103 -0.109916087
525296850.0 -0.4084339294 0.7436012883 6.53857e-05 0.0001167771 0.0002722128 -1.14095e-05 0.0401288036 -0.1102787
530296820.0 -0.4014866033 0.7479202824 7.30524e-05 2.98505e-05 0.0001585534 0.0001545259 0.038370071 -0.1109833402
535296790.0 -0.3930600332 0.7518021468 0.0004058937 0.0003776872 1.10339e-05 -7.1613e-06 0.0371662409 -0.111369833
540296760.0 -0.3850974147 0.75589218 5.24034e-05 -3.09782e-05 6.97707e-05 7.0244e-05 0.0348601996 -0.1116054364
545296730.0 -0.3772032245 0.7604023205 0.0002521995 -5.20402e-05 0.0001815981 -2.07425e-05 0.0334980724 -0.1120840107
550296700.0 -0.369020382 0.7639347424 0.000121976 5.1937e-05 -1.21757e-05 -0.0001318817 0.0318995744 -0.1127010918
555296670.0 -0.3613523162 0.7671257419 0.0001469325 5.5706e-06 0.0001256122 -3.2207e-05 0.0299724245 -0.1130022436
560296640.0 -0.3534834281 0.7703878807 0.0001450429 6.07853e-05 0.0001847451 3.01592e-05 0.0284045845 -0.1132806598
565296610.0 -0.3452502102 0.7743284823 0.0002991515 9.08226e-05 -7.38622e-05 -0.0001462745 0.0270523604 -0.1132093189
570296580.0 -0.3367664927 0.7781044794 0.0001866022 1.18058e-05 -2.25158e-05 -9.2741e-06 0.0251767655 -0.1137661164
575296550.0 -0.3282531819 0.7812735229 -4.08917e-05 2.38662e-05 7.00808e-05 -4.63875e-05 0.0234428769 -0.1140665413
580296520.0 -0.3213715059 0.7847606526 0.0002289761 0.0001334513 -1.6508e-06 -0.0003036442 0.0218632605 -0.1143688701
585296490.0 -0.3123467162 0.7878075008 5.37347e-05 -6.6173e-06 3.56285e-05 7.18542e-05 0.0202005833 -0.1141938928
590296460.0 -0.3037705123 0.7907485461 6.80269e-05 -7.29329e-05 -9.98671e-05 9.90039e-05 0.0183439644 -0.1146317873
595296430.0 -0.2963488744 0.7934800288 0.0001097754 -0.0001403801 7.10878e-05 5.97702e-05 0.0167973693 -0.1146254612
600296400.0 -0.2878201604 0.7967331934 0.0001232868 -0.0002509226 -6.73672e-05 -1.7458e-05 0.0152952532 -0.1148767679
605296370.0 -0.279754276 0.7993684354 0.0001276973 0.0001173335 2.86671e-05 9.86804e-05 0.0133615078 -0.1149410744
610296340.0 -0.2719401925 0.8032330118 6.20984e-05 0.0001805831 8.89362e-05 1.92163e-05 0.0114697329 -0.1150961559
615296310.0 -0.2631365587 0.8058328525 0.0002743697 -0.0001541031 0.0002013694 3.19523e-05 0.0100369166 -0.1149406796
620296280.0 -0.2553468176 0.8085982047 0.0001377006 7.31929e-05 0.000281105 0.0001019217 0.0084035479 -0.115058888
625296250.0 -0.2472906447 0.8101967383 -3.29298e-05 4.86167e-05 0.0002144287 -0.0002057184 0.0064332874 -0.1150407502
630296220.0 -0.2388516192 0.8134253452 0.0001734504 5.62085e-05 1.3371e-06 -7.64642e-05 0.0050824125 -0.1152399138
635296190.0 -0.2307151336 0.8156589571 0.0004344562 -6.643e-07 0.0002087438 -0.000138869 0.0031199386 -0.1150937524
640296160.0 -0.2219008214 0.8176829276 0.0001760554 0.0001914886 0.0001469305 7.7696e-06 0.0014847919 -0.1148881131
645296130.0 -0.2140155793 0.8202871141 0.0003548591 -0.0002485773 6.69611e-05 7.14184e-05 -0.000404116 -0.1149070093
650296100.0 -0.2056325214 0.8223807505 -0.0002986535 -0.0001126229 0.0001739948 -1.79534e-05 -0.0016537943 -0.1148487172
655296070.0 -0.1972871441 0.8242237839 0.0001687822 -1.79098e-05 -0.0001123108 5.4666e-05 -0.0035198916 -0.1148521719
660296040.0 -0.189500381 0.8263410817 0.0001506681 -6.54037e-05 0.000141533 -5.13359e-05 -0.0048786307 -0.1148930265
665296010.0 -0.1805771766 0.8288998721 0.0001099508 4.5544e-06 -1.13169e-05 -0.000159764 -0.0066309682 -0.1143553997
670295980.0 -0.1730834698 0.8307430601 -8.09895e-05 0.0001509552 3.43323e-05 -6.73041e-05 -0.0086499735 -0.1142536574
675295950.0 -0.1641796781 0.8320893572 -0.0002941036 -0.0001971866 0.0002105321 0.0001511028 -0.0101129878 -0.1136849849
680295920.0 -0.1567052547 0.8341576457 5.48442e-05 2.71909e-05 2.50163e-05 0.0001720174 -0.0116299014 -0.1139210844
685295890.0 -0.1476324662 0.8358524493 7.98537e-05 0.0001721338 4.98049e-05 -0.0002265801 -0.0132869692 -0.1134214155
690295860.0 -0.139119 0.8369081725 0.0001863204 -1.1174e-06 0.0001767618 -9.61427e-05 -0.0150146538 -0.1133593946
695295830.0 -0.1308825912 0.8391795346 4.24047e-05 9.226e-06 0.0001894389 2.33014e-05 -0.0166979881 -0.1126655153
700295800.0 -0.1223925823 0.8398097405 0.000196895 -0.0001110318 9.60583e-05 -7.3949e-06 -0.0180282583 -0.1126832921
705295770.0 -0.1149359001 0.8410037183 3.68444e-05 -0.0003549539 0.0001143624 0.0001787762 -0.0199848508 -0.1119977533
710295740.0 -0.1070767973 0.8420444674 0.0001214513 0.000125005 0.0001743248 8.17733e-05 -0.0213267752 -0.11176167
715295710.0 -0.0974491518 0.8432733331 5.63183e-05 -3.22874e-05 0.0002046595 0.0001357061 -0.0229217764 -0.1116882335
720295680.0 -0.0892504806 0.8445067202 0.0002520341 -4.35445e-05 0.0003052155 -7.81682e-05 -0.0249376873 -0.1108961866
725295650.0 -0.0819121036 0.8459735007 0.0001884975 0.0001835063 0.0001937332 -5.33135e-05 -0.026609685 -0.1102325195
730295620.0 -0.0736774671 0.8468990713 0.0001967603 8.15006e-05 0.0002998361 5.08065e-05 -0.0282620067 -0.1097523544
735295590.0 -0.06578673 0.848074383 0.0001635136 -0.0001514432 6.18287e-05 0.0001033225 -0.0293622793 -0.1093591953
740295560.0 -0.0574366219 0.8472837625 0.0001978821 -9.61048e-05 0.0004207408 0.0001621438 -0.0311673269 -0.1089193471
745295530.0 -0.0489759719 0.8489266901 0.000331899 -0.0003102011 1.42232e-05 1.3704e-06 -0.032977811 -0.1083526522
750295500.0 -0.041200957 0.8491233774 4.62881e-05 -7.22053e-05 3.34703e-05 6.4319e-05 -0.0345310215 -0.1077753999
755295470.0 -0.0322652236 0.849608638 0.0003159035 3.76698e-05 0.000294864 -0.0001182898 -0.0360720787 -0.1072140901
760295440.0 -0.024333899 0.851106264 0.0002011143 -1.87941e-05 9.64415e-05 1.20596e-05 -0.03743918 -0.1069324516
765295410.0 -0.0159915585 0.8502831261 5.66286e-05 -0.0001482007 0.0005048152 -0.0002631219 -0.0388966103 -0.1060127362
770295380.0 -0.0086611065 0.8512324404 -4.67727e-05 -0.0001745128 0.0002408854 -8.00596e-05 -0.0407178556 -0.1053821525
775295350.0 -9.7715e-06 0.8513224485 0.0001985324 0.0001403346 0.0002806437 -0.0001026269 -0.0419166908 -0.105102151
780295320.0 0.0085574054 0.8512397182 0.0002690264 -5.7279e-06 7.31007e-05 -4.37213e-05 -0.0433679818 -0.1041944956
785295290.0 0.0167973071 0.8509391999 0.0002142421 -2.32974e-05 0.0002434999 0.0001530197 -0.0454655 -0.1033010864
790295260.0 0.0248636812 0.8510946987 4.69908e-05 0.0001727446 0.0002102774 -0.000138481 -0.0467687875 -0.1025371661
795295230.0 0.0329636809 0.8507913821 -1.67251e-05 0.0001715124 9.78093e-05 -3.229e-06 -0.0485883209 -0.102242267
800295200.0 0.0412320494 0.8509050564 4.24302e-05 0.000117643 0.0002501089 6.3095e-05 -0.0498064521 -0.1014753517
805295170.0 0.0490663474 0.8510038295 -9.32076e-05 -0.0001310325 0.000192947 -0.0002941361 -0.0510382154 -0.1008557536
810295140.0 0.0575517333 0.8503487462 0.0002230087 9.10722e-05 -7.66459e-05 -4.36238e-05 -0.0527033365 -0.0997018011
815295110.0 0.0651072456 0.8495959908 1.14595e-05 -0.0002070647 0.000330779 -0.0001880291 -0.0542567506 -0.0988278001
820295080.0 0.0737160196 0.849307783 2.95305e-05 -0.0001992914 -5.20388e-05 0.0001607627 -0.0562509906 -0.0975964983
825295050.0 0.0818424909 0.8483133899 8.4546e-06 3.26406e-05 0.0002199168 -8.46589e-05 -0.0567891344 -0.0973064445
830295020.0 0.0902294558 0.8476052614 0.0001499903 -8.81877e-05 0.0003459442 -9.57335e-05 -0.0587454868 -0.096641907
835294990.0 0.0981087992 0.8464839179 0.0001310141 6.18206e-05 0.000254886 -0.0001467424 -0.0598037571 -0.0950540576
840294960.0 0.1065993733 0.8456259373 9.78154e-05 3.37104e-05 0.0002585474 -3.294e-07 -0.0614047528 -0.0942544249
845294930.0 0.1145392568 0.8443917003 0.0002435365 -0.0001794037 0.0002117583 2.8747e-06 -0.0627899782 -0.0932840845
850294900.0 0.1244320159 0.8434172441 0.0002006227 0.0001406469 5.04881e-05 0.000195633 -0.0642240854 -0.0923878337
