!Created with skrf (http://scikit-rf.org).
# Hz S RI R 50.0 
!freq ReS11 ImS11 ReS21 ImS21 ReS12 ImS12 ReS22 ImS22
300000.0 -0.7787279854 -0.0915865459 -0.0024553061 0.0024922454 -0.0009082091 0.0011976167 -0.0448513285 -0.0587164277
5299970.0 -0.7849170866 -0.0052309541 5.126e-05 -0.0001715623 1.42141e-05 -0.0001256226 -0.0456282665 0.015988224
10299940.0 -0.7875117335 -0.0036113003 -3.45454e-05 4.90516e-05 1.61788e-05 -4.17429e-05 -0.0396718681 0.0340527689
15299910.0 -0.7933890836 -0.0017740537 -0.0001260474 -2.20157e-05 -4.69332e-05 0.0001117526 -0.0314581377 0.0481908834
20299880.0 -0.7999794452 0.0020866918 -8.997e-05 0.0003105151 -0.0002023072 6.2918e-06 -0.0209551319 0.0603422881
25299850.0 -0.8063566529 0.0077093486 0.0001101774 -0.0002248042 6.67117e-05 0.000110927 -0.0098597367 0.0696561748
30299820.0 -0.8122846495 0.0153417662 -5.40782e-05 8.59906e-05 -7.41662e-05 -9.99696e-05 0.0020828424 0.0762982759
35299790.0 -0.817302229 0.0249910458 6.84498e-05 -0.0001063527 -0.0001782029 0.0001038109 0.0132651519 0.0814032069
40299760.0 -0.8213111721 0.0341684758 2.40391e-05 -5.32884e-05 4.78841e-05 0.0001636352 0.0247024195 0.0838677198
45299730.0 -0.8245944228 0.0436440013 0.0002327683 -4.62721e-05 -3.20892e-05 0.0001103326 0.0352669947 0.0854061927
50299700.0 -0.8272153776 0.053527206 0.0001149208 -0.000130757 -8.51512e-05 -0.0001287174 0.0451751743 0.0854795638
55299670.0 -0.8294197805 0.0632695833 0.0001125106 0.0001104119 -9.12724e-05 2.67423e-05 0.0546420306 0.0844234485
60299640.0 -0.8303199756 0.0737949896 -2.55167e-05 4.78913e-05 0.0002375362 8.85778e-05 0.0631381359 0.0824333257
65299610.0 -0.831236201 0.0834479533 0.0002470296 2.00109e-05 0.0001087808 0.0001400221 0.0707747823 0.0802016456
70299580.0 -0.8318636994 0.0940325192 0.0001066476 9.60489e-05 0.0001298906 3.2399e-05 0.0775389877 0.0771057657
75299550.0 -0.8318281984 0.1042832342 2.37095e-05 2.8036e-06 -0.0001034328 -3.79068e-05 0.0838007549 0.0736541351
80299520.0 -0.8319450489 0.1130386991 -5.9552e-06 -2.78622e-05 -6.0372e-06 9.17308e-05 0.0893718252 0.0703665804
85299490.0 -0.8313501373 0.1230603981 9.16134e-05 9.6088e-06 -8.8831e-06 4.87064e-05 0.0943476152 0.0666844663
90299460.0 -0.8303576412 0.1324581558 0.0001321186 -0.0001427901 6.54479e-05 0.0001814624 0.0990880984 0.0628714753
95299430.0 -0.8290110272 0.1420385831 -9.00004e-05 1.03424e-05 -8.47177e-05 0.0001856002 0.1031611064 0.0591126568
100299400.0 -0.8280373096 0.1512072638 4.42831e-05 0.0001438427 -1.5058e-06 2.24715e-05 0.1071571999 0.0551131613
105299370.0 -0.8269478073 0.1607779455 5.98034e-05 0.0003505168 6.70538e-05 0.0002743159 0.1104167039 0.0510326182
110299340.0 -0.8253631795 0.1696048784 0.0002462208 0.0001716887 0.0001532405 -2.25641e-05 0.1131495107 0.047326127
115299310.0 -0.8240624005 0.1789944116 -0.0001094514 4.96825e-05 4.59304e-05 -2.63375e-05 0.1160654337 0.0434506347
120299280.0 -0.8220246746 0.1873111584 1.27926e-05 -8.34668e-05 0.0001061922 -8.061e-05 0.1178699338 0.0395401351
125299250.0 -0.8201946675 0.195984958 7.1464e-05 4.8509e-06 0.0001237377 6.05922e-05 0.1200118407 0.0355525854
130299220.0 -0.8189656226 0.2053438713 0.0001164369 0.0001418331 9.63327e-05 -3.74978e-05 0.12201277 0.0318998147
135299190.0 -0.8169557767 0.2144849592 -3.43182e-05 0.0001035852 2.82654e-05 0.000303045 0.1237678444 0.0282767717
140299160.0 -0.8151019947 0.2233041882 -4.63045e-05 -5.6493e-06 0.000205886 0.0001995818 0.1247356925 0.0251454496
145299130.0 -0.8122233447 0.2327338927 1.39347e-05 1.81596e-05 -0.000256893 0.0001624475 0.1259199198 0.0216413245
150299100.0 -0.8102808114 0.2409247082 6.45549e-05 4.18905e-05 -6.8201e-06 9.9625e-05 0.1270181466 0.0186692769
155299070.0 -0.8075081211 0.2496795041 0.0002271399 9.9644e-05 9.2029e-06 0.0003137594 0.1278881712 0.0151279624
160299040.0 -0.8050509136 0.2583638219 0.0002003499 5.69371e-05 7.92922e-05 0.0001591136 0.1286153303 0.0123321255
165299010.0 -0.802941986 0.2669509848 0.000204633 3.72084e-05 0.0001009788 9.85043e-05 0.1290813857 0.0091609265
170298980.0 -0.8002338552 0.2756242514 0.0001165908 0.0001190421 -7.83717e-05 0.0001505097 0.1293905266 0.0060245068
175298950.0 -0.7971540838 0.284435984 -0.0001605017 8.84581e-05 5.37271e-05 2.75592e-05 0.1296920339 0.0032428648
180298920.0 -0.7943700986 0.2930445239 -0.0001146072 -6.13444e-05 0.0002053289 0.0001228681 0.1299751499 0.0005909097
185298890.0 -0.791113962 0.3010613716 8.0998e-06 6.68811e-05 0.0001682578 -7.8647e-06 0.1303072111 -0.0023655429
190298860.0 -0.788194866 0.3097180984 -6.03469e-05 0.0001901407 4.11698e-05 -4.7123e-06 0.1304133008 -0.0047481461
195298830.0 -0.7849872398 0.3179452423 0.0001061841 9.20602e-05 4.57463e-05 -5.1511e-06 0.1300841909 -0.007666001
200298800.0 -0.7814000724 0.3262877768 3.56009e-05 -8.6951e-05 9.74728e-05 0.0001775465 0.1299459998 -0.0104127959
205298770.0 -0.7785825343 0.3344599884 0.0001091241 4.26064e-05 0.0002121391 8.19784e-05 0.1296392973 -0.0133087368
210298740.0 -0.7753227522 0.3421577112 1.57746e-05 2.35544e-05 0.000169173 0.0002462759 0.129325793 -0.0151683088
215298710.0 -0.7714545569 0.3510657685 -0.0001325413 9.75525e-05 0.0001113072 0.0002347569 0.1288038037 -0.0179413233
220298680.0 -0.7675919805 0.3591061346 -6.69264e-05 -4.742e-06 0.0002241163 0.0002076335 0.1283354871 -0.0204438332
225298650.0 -0.7640509355 0.3668014989 -0.0001168298 0.0003370964 0.0002389505 0.0002670655 0.1277942306 -0.0227434993
230298620.0 -0.7601481944 0.375297405 2.31069e-05 -8.32676e-05 -9.80384e-05 0.0001198295 0.127466643 -0.0250284355
235298590.0 -0.7558541066 0.3832832365 -1.75037e-05 -6.72542e-05 8.86345e-05 0.0001758617 0.1273060762 -0.0273818516
240298560.0 -0.752582129 0.3915820928 0.0001000568 7.58168e-05 6.35622e-05 0.0001994494 0.126621905 -0.0296545705
245298530.0 -0.748653355 0.3992444466 0.0002015555 0.0001620432 0.0002804718 6.8291e-05 0.1258762088 -0.0317185428
250298500.0 -0.744186295 0.4072465823 0.0002537885 0.0002702961 -6.2102e-06 -1.9976e-06 0.1249980884 -0.0338974378
255298470.0 -0.7391212241 0.4143773652 0.0002321062 0.0002390984 2.36959e-05 0.0001142572 0.1245622139 -0.0362936114
260298440.0 -0.7351803509 0.4221601153 0.0001122529 5.28585e-05 -2.20115e-05 0.0002364961 0.1239607442 -0.0383567325
265298410.0 -0.7310165457 0.4303261985 0.0002033402 0.0003916091 2.24243e-05 0.0001624897 0.1233606215 -0.0402033841
270298380.0 -0.727024945 0.4376975647 3.88035e-05 -3.46928e-05 8.75188e-05 0.0003002429 0.122908239 -0.0422879539
275298350.0 -0.7222269587 0.4448896925 7.7336e-06 0.0002283954 1.78118e-05 -5.49224e-05 0.1220872351 -0.0443614376
280298320.0 -0.7167240623 0.4523762241 -3.64349e-05 5.86626e-05 0.0001292614 0.0002876812 0.1215953134 -0.0462560658
285298290.0 -0.7127170757 0.460114541 9.53286e-05 0.0001065227 5.2787e-06 0.0001447995 0.1208142084 -0.0482461815
290298260.0 -0.7074511723 0.4678692874 6.78233e-05 9.57368e-05 0.000154801 0.0003145159 0.1200915306 -0.0499261864
295298230.0 -0.7022731775 0.474707872 0.0001509621 0.0002551258 3.79133e-05 0.0001930533 0.1192036461 -0.052297445
300298200.0 -0.6976696156 0.4816146847 1.74069e-05 0.0002206447 0.000209958 1.3757e-05 0.1186793136 -0.0537039063
305298170.0 -0.6920475235 0.4885845146 7.87619e-05 6.42374e-05 3.76018e-05 -3.2683e-06 0.1183258031 -0.0557607415
310298140.0 -0.6869944751 0.4960259941 0.000105703 0.0003686133 0.0001178259 0.000234742 0.1168519022 -0.0576210588
315298110.0 -0.6821736554 0.5036500694 0.0001335622 -9.24123e-05 -1.04799e-05 0.0001896714 0.1158180619 -0.0595602852
320298080.0 -0.6771520944 0.5107506981 9.07798e-05 3.56447e-05 0.0002198938 6.28329e-05 0.1150119959 -0.0612838523
325298050.0 -0.6713489523 0.5175478314 -8.83366e-05 0.0001314744 -9.06131e-05 2.88634e-05 0.1135657076 -0.062918884
330298020.0 -0.6663067032 0.524044348 0.0001854761 0.0001843141 0.000213573 0.0001310879 0.1123682555 -0.0646154779
335297990.0 -0.6605231645 0.5307379314 0.0001422443 -3.35942e-05 8.11308e-05 3.45396e-05 0.1108172194 -0.0655401753
340297960.0 -0.6554898338 0.5381503445 0.0002679615 4.13584e-05 9.31298e-05 0.0001549678 0.1105006943 -0.0669058181
345297930.0 -0.6501855735 0.5444087697 0.0001677537 -0.0002391033 0.0001176608 0.0002695204 0.1086474996 -0.0686259765
350297900.0 -0.6437171667 0.5511108978 0.0001295006 0.0001258609 8.3247e-05 -8.40439e-05 0.1075557158 -0.0694108418
355297870.0 -0.6378841987 0.558130139 -2.64866e-05 5.31765e-05 0.0002512713 0.0001078795 0.1064187899 -0.0707375316
360297840.0 -0.6323421689 0.5641993016 0.0002644333 6.71721e-05 6.37214e-05 -0.0001148627 0.105204004 -0.07221879
365297810.0 -0.627039647 0.5709196222 0.0001880976 6.66504e-05 0.0001131758 0.0003244105 0.1042244864 -0.0735437984
370297780.0 -0.6202579105 0.5769939341 9.738e-05 0.0002050405 0.0001242445 0.0003727119 0.1034356154 -0.0748357426
375297750.0 -0.6145821541 0.5836121846 0.0002202232 0.0002739632 0.00023711 -0.0003110551 0.1019348523 -0.0762702285
380297720.0 -0.6083069123 0.589841019 0.0001879904 0.0001264298 0.0004909276 1.38529e-05 0.0999904282 -0.0770723644
385297690.0 -0.603019116 0.5953947688 7.76612e-05 0.000198309 0.0002280975 0.0001542659 0.0991288097 -0.0786805978
390297660.0 -0.5963948998 0.6014502236 0.000311276 0.0002081954 0.0001699494 0.0001074561 0.0977718295 -0.0795910121
395297630.0 -0.5899884984 0.6081707648 0.0001453963 0.0002828032 7.72349e-05 9.71953e-05 0.0967593516 -0.080576228
400297600.0 -0.583669778 0.6139395444 2.0271e-06 0.0002098877 0.0001176584 1.93113e-05 0.0956648664 -0.0820896467
405297570.0 -0.5780732685 0.6196710035 0.0002124322 3.98094e-05 0.0003046029 -6.71263e-05 0.0941861015 -0.0830300859
410297540.0 -0.5707313765 0.6258265598 0.0002695752 0.0002017249 0.0001925876 7.46304e-05 0.0927455938 -0.0839540513
415297510.0 -0.5643499888 0.631170796 0.0004105853 1.84396e-05 0.0002057185 0.0001698446 0.0917957955 -0.0853863823
420297480.0 -0.5585472226 0.6376173853 9.3079e-06 0.0001406133 1.50994e-05 8.65492e-05 0.0903111703 -0.0863729086
425297450.0 -0.5510124018 0.6428825642 -2.33108e-05 0.0001370313 7.95186e-05 9.26099e-05 0.0888779925 -0.0876967359
430297420.0 -0.5451956783 0.648251871 0.0002443792 0.0001327981 0.0002050608 9.83391e-05 0.087673362 -0.0885901291
435297390.0 -0.5385432191 0.6534574599 0.000483862 0.0001246304 0.000159356 0.0001400251 0.0864076773 -0.0900414114
440297360.0 -0.5311750978 0.6591900873 4.3967e-06 0.0001694825 0.000349861 7.37727e-05 0.0853647346 -0.090773161
445297330.0 -0.5245955811 0.6645214995 0.0003488997 3.51571e-05 0.0004300046 0.0003429162 0.0840692967 -0.0922008674
450297300.0 -0.517677056 0.6688674863 4.22348e-05 0.0001624984 0.0001714839 2.56463e-05 0.0826762088 -0.0925833467
455297270.0 -0.5109904926 0.6743544217 0.0001519926 0.000210119 0.0003192793 1.49327e-05 0.0811389636 -0.0936323324
460297240.0 -0.5044337586 0.6796769196 -4.25044e-05 4.194e-06 0.0001463563 0.0001092662 0.0798648041 -0.094344286
465297210.0 -0.4976054259 0.6851975783 0.0001574059 0.0001188842 0.0003455768 0.0002697878 0.0789219543 -0.0954122521
470297180.0 -0.4898981498 0.6901964022 0.0001810351 1.80347e-05 7.2492e-06 0.0002450125 0.077594288 -0.096230518
475297150.0 -0.483035925 0.6946420898 0.0003821489 -0.0001776932 0.0004473953 1.41165e-05 0.0763706472 -0.0974818902
480297120.0 -0.4761587575 0.6999314168 0.0001940433 0.0001954717 0.0001495593 0.0001195139 0.0750990868 -0.0981914244
485297090.0 -0.4689435352 0.7039745137 0.0001440153 0.0002100464 0.000212627 -2.018e-06 0.0736263652 -0.0987193631
490297060.0 -0.4618911452 0.7083800564 0.0004807416 -4.76212e-05 0.0002258507 0.0001261927 0.072412937 -0.0996867551
495297030.0 -0.4545803809 0.7129990521 0.0001414688 -0.0001598314 0.0003060111 -0.0001097867 0.0708300924 -0.1004281126
500297000.0 -0.4475061472 0.7180672747 0.0002704488 0.0001728545 0.0002856616 0.0001711151 0.0696418226 -0.1004384797
505296970.0 -0.4400205444 0.7222165738 6.27942e-05 2.72207e-05 0.0001922794 0.0002816605 0.0682252995 -0.1016968961
510296940.0 -0.4324934077 0.7269860932 0.0002402341 0.0002604531 0.0001908638 -0.0001168223 0.0671047189 -0.1020673443
515296910.0 -0.4242752418 0.7307221833 0.0002787412 3.88306e-05 0.0001977378 0.0002573694 0.0656106917 -0.1029143563
520296880.0 -0.4180206841 0.7353152111 0.0002505822 7.06096e-05 0.0001659372 0.0001211723 0.0639122878 -0.1033840774
525296850.0 -0.4097203924 0.7391968629 0.0002395381 -0.0001429091 4.9565e-05 0.0002905393 0.0628492001 -0.1037001609
530296820.0 -0.4021363329 0.7437378791 0.0002871453 0.000217708 0.0002582933 -0.0002649998 0.0616125708 -0.1045383909
535296790.0 -0.3948956225 0.7471475358 0.0003262132 -4.57703e-05 0.0001613537 -8.0523e-06 0.0597324873 -0.1051326028
540296760.0 -0.3873465283 0.7509428057 6.95838e-05 0.0001929185 0.0004582589 0.0001165941 0.0583678814 -0.105188606
545296730.0 -0.3804513852 0.7552131596 0.0004381034 2.12108e-05 0.0001324938 6.05874e-05 0.0571487582 -0.1060296208
550296700.0 -0.3730103084 0.7591390343 0.0003699525 0.0002632754 0.0001413865 9.07883e-05 0.0552353665 -0.1066532925
555296670.0 -0.3646390587 0.7617049351 -7.63198e-05 8.92072e-05 0.0002529272 0.0001239963 0.0539062893 -0.1066568975
560296640.0 -0.3570370136 0.7661212466 0.0004314795 -0.0001121207 0.0002070169 0.0002367345 0.0526896581 -0.107270878
565296610.0 -0.3495141462 0.7695054957 0.000414557 0.0001798483 0.0002016482 8.50932e-05 0.0510154872 -0.1081000744
570296580.0 -0.3418810541 0.7725396028 0.0003962931 8.95381e-05 0.0003604076 0.0001247096 0.0492385681 -0.1083729861
575296550.0 -0.3344101261 0.7772597478 0.0004865763 -6.93048e-05 0.0003282397 2.89798e-05 0.0478981954 -0.1088132136
580296520.0 -0.325490139 0.7793339052 0.0003064472 -2.89384e-05 0.0003698564 -2.74809e-05 0.0464953065 -0.1090070103
585296490.0 -0.3181308178 0.7830807812 0.0004116421 0.0003329588 0.0005826671 0.000120321 0.0451049115 -0.110138649
590296460.0 -0.3099569019 0.7860563083 0.0002950186 0.000112311 0.0005570209 8.47442e-05 0.0430754978 -0.1099185501
595296430.0 -0.3021663116 0.7881928869 0.0002895139 0.000128727 0.0003030844 -0.0001480088 0.0421600452 -0.1107477062
600296400.0 -0.2941431152 0.79190561 0.0003818004 -5.63663e-05 0.0003680993 9.08547e-05 0.0405394708 -0.1109705247
605296370.0 -0.287042491 0.7944064085 0.0002841948 -2.9076e-05 0.0003473098 -7.24669e-05 0.0393201649 -0.1114478687
610296340.0 -0.2778898118 0.7974859217 0.0003975816 5.91636e-05 0.0002769134 8.62515e-05 0.0375010667 -0.1115673914
615296310.0 -0.2699156401 0.8002242883 0.0004438393 -4.77534e-05 0.0001490127 0.0001269942 0.0364671885 -0.1123820595
620296280.0 -0.2624270336 0.8019132147 0.0004683192 0.0002571399 0.0004778471 9.19829e-05 0.0349726071 -0.1121035829
625296250.0 -0.2543603459 0.8052378617 0.0001733444 -2.5242e-06 0.0003784262 5.39725e-05 0.0336183628 -0.1127417985
630296220.0 -0.245754916 0.8079798993 0.000235806 6.06199e-05 0.0003283958 0.0001117617 0.0322741976 -0.1124288037
635296190.0 -0.2380454665 0.8101036975 0.0003207813 7.47816e-05 0.0002311158 0.0001093828 0.0308298413 -0.1128862505
640296160.0 -0.2302969464 0.8124050437 0.0003241834 -2.9715e-06 0.0002344807 -0.0001260927 0.0294418874 -0.1135752818
645296130.0 -0.2221417198 0.8152750777 0.0003308398 -0.0001340615 0.0002670233 -0.0001149171 0.0281521946 -0.1132083082
650296100.0 -0.2135169906 0.8163265852 0.0003516039 3.01563e-05 0.000481069 7.85653e-05 0.0266784701 -0.1134758478
655296070.0 -0.205972838 0.8183094975 0.0002122182 -9.89542e-05 0.000196976 7.62329e-05 0.0255369635 -0.1134632741
660296040.0 -0.1972442818 0.8205353694 0.0003653867 0.000143144 0.0002121293 0.0001827627 0.0239445899 -0.1136547112
665296010.0 -0.1890232549 0.8226721411 0.0004428653 0.0001132775 0.0003535521 0.0001262455 0.0223943807 -0.1132946992
670295980.0 -0.1816374808 0.8243554556 0.000101759 1.00676e-05 0.0001737818 -7.8494e-06 0.0209864506 -0.1134691643
675295950.0 -0.1730850628 0.8261107814 0.0005501609 -0.000141122 0.000256338 7.38091e-05 0.0192015885 -0.1132935481
680295920.0 -0.164256911 0.8279833977 0.0003625 -0.0002558271 0.0002164542 -0.0001279344 0.0183235491 -0.1131380106
685295890.0 -0.1561772106 0.829975035 0.000436294 -0.0001146989 0.0003447061 4.2035e-05 0.0166545983 -0.1133874261
690295860.0 -0.1481069413 0.8310717894 0.0002683213 0.0001789164 0.0004612457 -0.0001577421 0.0150721106 -0.1128457863
695295830.0 -0.1400574879 0.8317624682 0.0004202808 -0.0001726036 0.0002715906 -2.63867e-05 0.0134858195 -0.1128884327
700295800.0 -0.1312878721 0.8337372446 0.000302455 0.0001095925 0.0002288995 0.0001063321 0.0122016659 -0.1129672594
705295770.0 -0.1232584974 0.8351906174 0.000434155 1.58779e-05 0.0003076056 -9.6793e-05 0.0107348025 -0.112192875
710295740.0 -0.1149247071 0.8363696468 0.0003453713 4.69284e-05 7.57882e-05 -0.0001496567 0.0089896162 -0.1124710937
715295710.0 -0.106680833 0.8371526598 0.0003859609 -3.0325e-06 0.000357003 0.0002251207 0.0079040917 -0.1126680468
720295680.0 -0.0984961784 0.8386664709 0.000576247 0.0001223314 0.0004054256 -4.16877e-05 0.0061815459 -0.1122451629
725295650.0 -0.090584729 0.8385192914 0.0002972067 -1.96143e-05 0.0004873166 -0.0002514654 0.0047696338 -0.1118736165
730295620.0 -0.0813084062 0.8399499505 0.0001929898 -0.000143837 0.0002570997 -0.0001427812 0.0031455446 -0.1118801968
735295590.0 -0.0737816775 0.8415170335 0.0005374277 0.0001499529 0.0003497325 6.009e-05 0.0014695229 -0.1119426406
740295560.0 -0.065478269 0.8421615166 0.0003757446 -0.0002525733 0.0004147878 -0.0001944558 0.0004605203 -0.1114419349
745295530.0 -0.0569827961 0.842181735 0.0002896286 9.1625e-05 0.0003879171 -0.0001651883 -0.0012472585 -0.1113356306
750295500.0 -0.0480045884 0.8429850907 0.0005109037 -0.0002678515 0.0001990142 -0.0001342902 -0.0027651314 -0.1111258732
755295470.0 -0.0394541578 0.8429119326 0.0002452019 -8.87803e-05 0.0004476789 -0.0001116476 -0.0039949103 -0.1112016417
760295440.0 -0.0318902863 0.8427189219 0.0003221614 0.000102758 0.0003825054 0.0001323013 -0.0053913031 -0.1107271464
765295410.0 -0.0238808191 0.8433757633 0.0004248629 -1.43896e-05 0.0003278616 7.13842e-05 -0.0067934637 -0.1105189575
770295380.0 -0.0150181476 0.844376401 0.0005565804 0.0001596175 0.0003276743 -0.0001962257 -0.0086285913 -0.1105298516
775295350.0 -0.0067740999 0.8435770641 0.0004269826 3.79016e-05 0.0001529165 7.13645e-05 -0.009981858 -0.1097956399
780295320.0 0.0014756239 0.8437264284 0.000472437 -0.0001529648 0.000305765 -0.000244821 -0.0111749212 -0.1097309382
785295290.0 0.0099328505 0.8431049068 0.0003813925 -9.41783e-05 0.0003001353 0.0001506153 -0.0121601759 -0.1095277334
790295260.0 0.0185932329 0.8432992326 0.0005266093 -0.0001864331 0.0002921566 6.7113e-05 -0.0134164014 -0.1091287169
795295230.0 0.0261813042 0.8432888914 0.0005249769 -6.92536e-05 0.0003859823 -0.0001352303 -0.014885643 -0.1085278106
800295200.0 0.0346119432 0.8427843787 0.0005522401 8.7251e-05 0.0003259289 -5.7934e-05 -0.0161859255 -0.1080133382
805295170.0 0.0437289296 0.8427370607 0.000360126 -0.0002746114 0.0002383562 -9.59588e-05 -0.0174773255 -0.1077918424
810295140.0 0.0516406193 0.8417263388 0.0002265322 -8.79242e-05 0.000363721 -3.89621e-05 -0.0185844416 -0.1076444753
815295110.0 0.0595889983 0.841803203 0.0004251882 -0.0002124044 0.0004554862 -0.000169025 -0.0200705242 -0.1069822024
820295080.0 0.0683340813 0.8408619214 0.0004581853 -0.0002616774 0.0004919296 -0.00015787 -0.0214824774 -0.1061798123
825295050.0 0.07750297 0.84023256 1.5305e-05 -8.55077e-05 0.0004886968 -0.0003074299 -0.0223757856 -0.105961427
830295020.0 0.084952851 0.8400042925 0.0002787534 -8.95416e-05 0.000353727 -0.0002549467 -0.0234067593 -0.1052155066
835294990.0 0.092895442 0.8388634468 0.0003676362 -6.23855e-05 0.0003111566 -0.0001046005 -0.0252055362 -0.1048879469
840294960.0 0.100750494 0.8380546439 0.000239351 -0.0002766838 0.0004247364 -0.0001153326 -0.0263523442 -0.1041917702
845294930.0 0.1093510225 0.8360120532 0.0004534005 4.38083e-05 0.0003647437 1.78018e-05 -0.0279256339 -0.1036978094
850294900.0 0.1174323529 0.8357656326 0.0003592765 -0.00027926 0.0003817042 4.4936e-06 -0.0291560262 -0.1027434867
