!Created with skrf (http://scikit-rf.org).
# Hz S RI R 50.0 
!freq ReS11 ImS11 ReS21 ImS21 ReS12 ImS12 ReS22 ImS22
300000.0 -0.2406502611 -0.0957605188 0.4719238973 0.0656574058 0.4694554013 0.0590080432 -0.238025266 -0.1003019332
5299970.0 -0.2448436939 0.0064921008 0.4747561192 0.005355877 0.4746623455 0.0052133682 -0.2412377133 0.0071657444
10299940.0 -0.2416923201 0.0180975971 0.4769032499 0.0059501332 0.4767005868 0.0063023741 -0.2373584934 0.0204856754
15299910.0 -0.2377047816 0.0268341463 0.4805907454 0.0073959623 0.480629589 0.0073145113 -0.232768695 0.0299663534
20299880.0 -0.2330223552 0.0339583372 0.4850872622 0.0084331559 0.4853025031 0.0082833273 -0.2275694943 0.0380231396
25299850.0 -0.2277077567 0.0401556629 0.4901058258 0.0072181119 0.4901777916 0.0072503871 -0.2219039611 0.0448210206
30299820.0 -0.2223930464 0.0452940039 0.4955894509 0.004497133 0.495594027 0.004826915 -0.2159842889 0.0503765615
35299790.0 -0.217243818 0.0490036469 0.5008302884 0.0014866074 0.500837209 0.0016107826 -0.2105589421 0.0546169755
40299760.0 -0.212585986 0.0524677315 0.5055745342 -0.0018470277 0.5059862796 -0.0022111876 -0.205141782 0.0574508963
45299730.0 -0.2078897277 0.0546722554 0.510238248 -0.0072917344 0.5106183118 -0.0067964768 -0.2003807675 0.0605225484
50299700.0 -0.2040250379 0.0567575767 0.5149303594 -0.0126580571 0.5146788564 -0.0122406448 -0.1953621518 0.0621954064
55299670.0 -0.1999733285 0.0585575263 0.5187246086 -0.0191439063 0.5185589941 -0.0183236522 -0.1913705628 0.0642490457
60299640.0 -0.1959125543 0.0601683108 0.521817478 -0.0253634757 0.5220419941 -0.0246116767 -0.1873620844 0.0653656602
65299610.0 -0.1928437406 0.0609808029 0.5244816808 -0.03143631 0.5247392175 -0.0311639985 -0.1842723611 0.0664778085
70299580.0 -0.1900848172 0.0621872408 0.5272598126 -0.0380986484 0.5273024543 -0.0378137039 -0.180930574 0.0675923638
75299550.0 -0.1871416419 0.0629032817 0.5288691877 -0.0443794799 0.5289496664 -0.0444365999 -0.1782411962 0.0683404119
80299520.0 -0.1845935143 0.0635420519 0.5309632716 -0.0515276658 0.5307062113 -0.0517723521 -0.1752394875 0.0693367958
85299490.0 -0.182456295 0.0640075203 0.5320931234 -0.0581429394 0.5319425415 -0.0581408618 -0.1728583332 0.0696514402
90299460.0 -0.1801531812 0.0648388261 0.5329083668 -0.0655107726 0.5333552147 -0.0652806985 -0.1705018351 0.0706226459
95299430.0 -0.1783028597 0.065230703 0.5343364014 -0.0722632895 0.5340928404 -0.0721597392 -0.1681516749 0.0712783623
100299400.0 -0.176557806 0.0663938031 0.5336923596 -0.0791595061 0.5343030833 -0.0792263088 -0.1661896651 0.0715744898
105299370.0 -0.174860077 0.0668634012 0.5345125913 -0.0862067688 0.5348737185 -0.0861540847 -0.1644320543 0.0723177021
110299340.0 -0.1735126989 0.0673663339 0.5348048807 -0.0925452822 0.534741712 -0.0924363729 -0.1629615328 0.0729566538
115299310.0 -0.1718251853 0.068125977 0.5347547139 -0.0994328949 0.5347120355 -0.0994821069 -0.1610619833 0.0737222972
120299280.0 -0.1706351441 0.0683803543 0.5345726256 -0.1060948487 0.5347495611 -0.1061915597 -0.1596281044 0.0744373181
125299250.0 -0.1696870896 0.0692531791 0.5342668136 -0.112928699 0.5343407674 -0.1126912157 -0.158482623 0.0746557291
130299220.0 -0.1685709033 0.0702070828 0.5335727329 -0.1198827906 0.5333651569 -0.1198568235 -0.1570312607 0.0756672458
135299190.0 -0.1674756747 0.07125896 0.5329237239 -0.1268219858 0.5329783924 -0.1259534625 -0.1555786224 0.0766327467
140299160.0 -0.1666023399 0.0721205667 0.532192609 -0.1330815346 0.5321372826 -0.1333904002 -0.1544978202 0.0779056338
145299130.0 -0.1654073092 0.0730576278 0.5311812136 -0.1397732169 0.5308814191 -0.1392796998 -0.1533694474 0.0787839018
150299100.0 -0.1644614476 0.0737640065 0.5296299464 -0.145625448 0.5300853025 -0.1455961538 -0.1520374377 0.0803885433
155299070.0 -0.1639991672 0.074671746 0.5293581642 -0.1532611926 0.5286582962 -0.1524881774 -0.1509557948 0.0813808872
160299040.0 -0.1628619391 0.0757924204 0.5271784515 -0.1591453151 0.5270178113 -0.1590287667 -0.1506835463 0.0821624991
165299010.0 -0.1620362477 0.0768526562 0.5258365742 -0.1659452743 0.5259089709 -0.1658319046 -0.1490347475 0.0838615395
170298980.0 -0.161510415 0.0776704141 0.5243693092 -0.1716896797 0.5245452288 -0.1716438686 -0.1483412839 0.0847925355
175298950.0 -0.1607213596 0.0790238166 0.5230495634 -0.1781666479 0.5223180044 -0.1781017352 -0.1472816459 0.0860586336
180298920.0 -0.1601353361 0.0798419291 0.521402479 -0.1843521159 0.5208784681 -0.1838184076 -0.1466020733 0.0875066793
185298890.0 -0.1589068173 0.0808441858 0.5195051347 -0.1902944241 0.5191634947 -0.1903522354 -0.1455952095 0.0890448449
190298860.0 -0.1582956296 0.0824123837 0.5169682918 -0.1970139919 0.5175478243 -0.197009284 -0.1444613196 0.0901385107
195298830.0 -0.1577908005 0.0832971017 0.5153045801 -0.2027907912 0.5153049783 -0.2026324148 -0.1434535372 0.0910532079
200298800.0 -0.1568193461 0.0845480775 0.5130042171 -0.2093242189 0.5134685006 -0.2092306214 -0.1430292804 0.0927299987
205298770.0 -0.155935383 0.0859229904 0.5105184589 -0.2152470144 0.510823468 -0.2152121489 -0.1419392526 0.0934348477
210298740.0 -0.1553989801 0.0868699063 0.5085316831 -0.2208003052 0.5082923817 -0.2204368571 -0.1410467913 0.0954668457
215298710.0 -0.1550638807 0.088445638 0.5060410684 -0.2269889916 0.5062997892 -0.2271708512 -0.1404332422 0.0965999707
220298680.0 -0.1541103604 0.0892488878 0.5037750433 -0.232458493 0.5036801357 -0.2328217606 -0.1394154478 0.097803036
225298650.0 -0.1533471827 0.0906841164 0.501478331 -0.2386044853 0.5017097538 -0.2386250794 -0.1389679016 0.0988954599
230298620.0 -0.15242093 0.0922304194 0.4991052741 -0.2443341293 0.4993336563 -0.2446483139 -0.1381245836 0.1003463769
235298590.0 -0.151767767 0.0938335693 0.4961313381 -0.250134263 0.4963897748 -0.2496492019 -0.136947023 0.1018057324
240298560.0 -0.1510304084 0.094853947 0.4938640259 -0.2559987887 0.4934764774 -0.2561784732 -0.1358946567 0.103298623
245298530.0 -0.1504377638 0.0962816564 0.4913548726 -0.2618111968 0.4909174333 -0.2618927422 -0.1348861407 0.1040352603
250298500.0 -0.1492767879 0.0975685971 0.4876660406 -0.2672528118 0.4875358898 -0.2668060818 -0.1341962768 0.1057898359
255298470.0 -0.1482892656 0.0986940811 0.4846406662 -0.2727429077 0.4850353034 -0.2725895206 -0.1327710035 0.1069197482
260298440.0 -0.1479826209 0.1000162007 0.4822594662 -0.2784967222 0.4823400507 -0.2782624101 -0.1317124904 0.1085174584
265298410.0 -0.1466292874 0.1017220977 0.4787425753 -0.2842843321 0.4792897983 -0.2835910976 -0.130558427 0.1098351407
270298380.0 -0.1459990707 0.1029373856 0.4761684078 -0.2890856153 0.4760764241 -0.2890022756 -0.129680599 0.1109497015
275298350.0 -0.1447028654 0.1044628083 0.4726912342 -0.2947411694 0.4732614585 -0.2944282422 -0.1277589212 0.1122530314
280298320.0 -0.1439042126 0.1058443906 0.470156577 -0.3002410048 0.4700500194 -0.2997665695 -0.126701237 0.1138188876
285298290.0 -0.1429697799 0.1073464225 0.4664959873 -0.3054252746 0.4662379627 -0.3054662752 -0.1257677033 0.1147981917
290298260.0 -0.1418842858 0.1085940052 0.4632838803 -0.3103118397 0.4631591313 -0.3106501286 -0.1245681007 0.1165780063
295298230.0 -0.140989559 0.1097141307 0.4599137225 -0.315435943 0.4596930158 -0.3156790825 -0.122617233 0.1176372891
300298200.0 -0.1403293543 0.1109482875 0.4569899439 -0.3206587409 0.4567124464 -0.3212564046 -0.1215555244 0.1189833139
305298170.0 -0.1388769685 0.1120961615 0.4523152508 -0.3265486556 0.4525386184 -0.3261629649 -0.1198992085 0.1203331856
310298140.0 -0.1380141024 0.1137739754 0.4492792519 -0.3313830358 0.4498197191 -0.3312847957 -0.1189439081 0.1216515188
315298110.0 -0.1367169085 0.114502623 0.4456952978 -0.3366120226 0.4459919288 -0.3367419601 -0.1176826199 0.1227625101
320298080.0 -0.1361707064 0.1159203797 0.4414796271 -0.3422928978 0.4420351398 -0.3417509118 -0.1163178372 0.123923761
325298050.0 -0.1350597508 0.116957833 0.4383458416 -0.3473290491 0.4383666583 -0.3472369287 -0.1154226438 0.1253889455
330298020.0 -0.1343640032 0.1183070195 0.4341165027 -0.3521281719 0.433924692 -0.3518776182 -0.1141261587 0.1266160197
335297990.0 -0.1331900135 0.1193200304 0.4301045977 -0.3562944083 0.4298086834 -0.3569251938 -0.1130795077 0.1284271608
340297960.0 -0.132398732 0.1211164507 0.4259751225 -0.3614622457 0.4254323086 -0.3614466903 -0.1112705264 0.129767409
345297930.0 -0.1313084433 0.1229770273 0.4217598388 -0.3662364143 0.4217420808 -0.3663440032 -0.1103405872 0.1309280859
350297900.0 -0.1305880047 0.1238148291 0.4172992 -0.3707919854 0.4175120432 -0.370816899 -0.1093504788 0.1329201028
355297870.0 -0.1289992423 0.1255325415 0.4130212247 -0.375694875 0.4135967661 -0.3753103933 -0.1081655516 0.1337565162
360297840.0 -0.1281709919 0.1269978152 0.4098843476 -0.3800525244 0.4100423573 -0.3793799546 -0.1064684727 0.13549463
365297810.0 -0.1273579227 0.1282881918 0.4053434079 -0.384361881 0.4055847845 -0.3843910792 -0.1052041919 0.1368861622
370297780.0 -0.125971164 0.1294126648 0.4005827357 -0.3885996094 0.4013201025 -0.3882633163 -0.1039313809 0.1382429324
375297750.0 -0.1249140944 0.1307173017 0.3966512241 -0.393382004 0.397145172 -0.3931483913 -0.1022999826 0.139225968
380297720.0 -0.1237033529 0.1321412823 0.3921416635 -0.3976787888 0.392198554 -0.396615612 -0.1014760545 0.1403734213
385297690.0 -0.1225242516 0.1336906259 0.3877822104 -0.4014946662 0.3875708887 -0.4018624926 -0.0995048252 0.1420345429
390297660.0 -0.1212383416 0.1350359522 0.3839085899 -0.4063069629 0.383638774 -0.4056561347 -0.0985239407 0.1433260353
395297630.0 -0.119896043 0.1361241261 0.3792784214 -0.4101284412 0.3790179825 -0.4102619703 -0.0963684446 0.1445874974
400297600.0 -0.1186461636 0.1377940853 0.3739582305 -0.4149417448 0.3745343971 -0.4146737624 -0.0949763589 0.1458627679
405297570.0 -0.117742311 0.1387999849 0.369888116 -0.4183828017 0.3701478387 -0.418367955 -0.093556446 0.1469911487
410297540.0 -0.1161081906 0.14022311 0.3651976308 -0.422203082 0.3657875055 -0.4226158015 -0.0920113472 0.1485710538
415297510.0 -0.1146510507 0.1411394277 0.3603424574 -0.4266768369 0.3610808012 -0.4265900856 -0.0906707815 0.149407486
420297480.0 -0.1132313766 0.1427152555 0.3556054437 -0.4304604001 0.3561900438 -0.4304058957 -0.0892515083 0.1500459692
425297450.0 -0.1119539724 0.1435015239 0.3511465603 -0.4339905166 0.3515727562 -0.4344995064 -0.0877045313 0.1517533902
430297420.0 -0.110733635 0.1448044384 0.3465997313 -0.4376887732 0.3466640319 -0.437887803 -0.0859913984 0.1525901514
435297390.0 -0.1095985686 0.146230063 0.3413195887 -0.4418411556 0.3413890592 -0.4413858388 -0.0833517748 0.1535787325
440297360.0 -0.1079885942 0.1476434388 0.3369671902 -0.4450848821 0.3368068569 -0.4453892566 -0.0826036913 0.1544483783
445297330.0 -0.1067453515 0.1481483055 0.3320097708 -0.4489056334 0.3321586086 -0.4485092366 -0.0808179169 0.1546820704
450297300.0 -0.104829783 0.1494041742 0.3271027994 -0.4524917528 0.3268504039 -0.4530965927 -0.0789912444 0.1561320871
455297270.0 -0.1037006028 0.1507591679 0.3215016609 -0.4564134886 0.3224841163 -0.4564457299 -0.0773615426 0.1570685118
460297240.0 -0.1022589294 0.1518111312 0.3168973652 -0.4597461156 0.317092693 -0.4596742465 -0.0757068514 0.158334035
465297210.0 -0.1006744917 0.1531643666 0.3120641935 -0.4634049354 0.312001149 -0.4635137121 -0.0737130828 0.15900488
470297180.0 -0.0993014415 0.1541080394 0.3067242212 -0.4666275613 0.3072148896 -0.4663081073 -0.0718056209 0.1601189052
475297150.0 -0.0979352187 0.1548378047 0.3018228098 -0.4689948414 0.301875646 -0.4693618158 -0.0696802028 0.160680649
480297120.0 -0.0960516099 0.1566371817 0.2963513178 -0.4732746358 0.2963445069 -0.4732062135 -0.0680438192 0.1622010389
485297090.0 -0.0949069513 0.1571825879 0.2914735705 -0.4759566396 0.2913876707 -0.4755938713 -0.0660252031 0.1631200741
490297060.0 -0.0934796026 0.1583594145 0.28652058 -0.4791523047 0.2867475642 -0.4789355194 -0.0643033301 0.1639319169
495297030.0 -0.0920011405 0.1594591016 0.2809432604 -0.482295516 0.281764657 -0.4821648971 -0.06273899 0.1649255123
500297000.0 -0.0907255106 0.1604777824 0.2761322573 -0.4849635745 0.2757606913 -0.4849860116 -0.0606822953 0.1663809928
505296970.0 -0.0888266181 0.1613282791 0.2705537601 -0.487991881 0.2704888135 -0.4883084748 -0.0592180692 0.1666065035
510296940.0 -0.0873026457 0.1623677077 0.2649078881 -0.4915158435 0.2652685756 -0.4914697632 -0.0566843016 0.1676003975
515296910.0 -0.0858355245 0.1632110742 0.2594912968 -0.4937341687 0.259504236 -0.4939014845 -0.0550658057 0.1680411906
520296880.0 -0.0843240104 0.1643596111 0.2544657042 -0.4973277691 0.2545623118 -0.4965904848 -0.0533377912 0.1688920303
525296850.0 -0.0823179241 0.1649612954 0.2485160249 -0.4995222661 0.2494480631 -0.4995116985 -0.0516084573 0.1704079186
530296820.0 -0.0808037131 0.1661936316 0.2435155978 -0.5025512746 0.2434117446 -0.5020027948 -0.0495944181 0.1706849415
535296790.0 -0.0794913701 0.167196544 0.2383595217 -0.5048262434 0.2381963085 -0.5043103988 -0.048018837 0.171292923
540296760.0 -0.0780156783 0.1682484774 0.2324518891 -0.5074960216 0.2325692024 -0.506935667 -0.0462664406 0.1724868906
545296730.0 -0.0761483332 0.1688722063 0.2262889272 -0.5098381925 0.2268887546 -0.5098595582 -0.0443789182 0.1726256228
550296700.0 -0.0740915884 0.1696562347 0.2210289061 -0.5117398956 0.2215064437 -0.5121223356 -0.0425210082 0.1735759933
555296670.0 -0.0729989526 0.1707266615 0.2157965509 -0.5145564352 0.2161064217 -0.5142091818 -0.0405667754 0.1744239446
560296640.0 -0.0709692254 0.1717705319 0.2100042898 -0.5172527095 0.210206036 -0.5167372476 -0.0383915702 0.174773885
565296610.0 -0.0698601917 0.1725419335 0.2045735636 -0.5189938663 0.2048274731 -0.5191396733 -0.036904657 0.1752032575
570296580.0 -0.0681061481 0.1733492929 0.1990535361 -0.5215328687 0.1986033546 -0.5213536363 -0.0348953643 0.1761220118
575296550.0 -0.066416975 0.1743316649 0.1933827508 -0.523316511 0.1931524536 -0.5233892276 -0.0330214435 0.1764538195
580296520.0 -0.064784154 0.174867309 0.1879934211 -0.5256164418 0.1878676524 -0.5255197613 -0.0311763468 0.1766935979
585296490.0 -0.0630965355 0.1753648535 0.1818647111 -0.5270761421 0.1821366406 -0.5274293526 -0.0290161857 0.1776633738
590296460.0 -0.060871364 0.1764474229 0.1763594519 -0.5287926246 0.1766636272 -0.5291219859 -0.0278924062 0.1778157427
595296430.0 -0.0593788965 0.1774519664 0.1702086878 -0.5312221577 0.1700035849 -0.5309914437 -0.0251835695 0.1780188274
600296400.0 -0.0576474853 0.1778772958 0.1644498144 -0.5331329277 0.1649742859 -0.5327098366 -0.0236311371 0.1785795187
605296370.0 -0.0560759745 0.1786955737 0.1587943051 -0.5346136096 0.1591117809 -0.5346828201 -0.0213241653 0.179038074
610296340.0 -0.0542865833 0.1790612154 0.1527779515 -0.5360296092 0.1529189583 -0.5361973218 -0.0192376811 0.1789770336
615296310.0 -0.0525370185 0.179516041 0.1470702984 -0.5375955774 0.1471724404 -0.5383668955 -0.0167327812 0.1793931221
620296280.0 -0.050671273 0.1800221484 0.1411974778 -0.5391476357 0.1416929883 -0.539055174 -0.015247622 0.179913191
625296250.0 -0.0493295387 0.1804757781 0.136492238 -0.5409258122 0.1356760879 -0.5409551238 -0.0127978414 0.180226537
630296220.0 -0.0467234978 0.181275557 0.1293183626 -0.542279694 0.1294519702 -0.5416805677 -0.0109691498 0.1806758541
635296190.0 -0.0460642671 0.1819252987 0.1239113737 -0.5434212929 0.1239551376 -0.5435713527 -0.0089989836 0.1804801189
640296160.0 -0.0440903795 0.1823780812 0.1177916502 -0.5443213281 0.1182393774 -0.5448615703 -0.0068850649 0.1809260699
645296130.0 -0.0422746802 0.1832603691 0.1115602008 -0.546070493 0.1122332524 -0.5459838031 -0.0045908876 0.1810106574
650296100.0 -0.0401438681 0.1838370465 0.1057977887 -0.5469580831 0.1066536785 -0.5470749476 -0.0024190213 0.1809843582
655296070.0 -0.0387369585 0.1838913216 0.1006657394 -0.5480688177 0.1005524018 -0.5481415248 -0.0004993097 0.1815189403
660296040.0 -0.0373209517 0.1843254905 0.0944123884 -0.5490098358 0.0944865263 -0.5490507705 0.0018102328 0.1814433517
665296010.0 -0.0348205593 0.184968994 0.0880595874 -0.550039239 0.0885418516 -0.5502957718 0.0038435454 0.1822179824
670295980.0 -0.0338741509 0.185819668 0.0823991779 -0.5510199068 0.0824410782 -0.5509322367 0.0054314006 0.1821481493
675295950.0 -0.0317179969 0.1862926305 0.076985412 -0.5518629533 0.0766169923 -0.5512847523 0.0072620184 0.1823728433
680295920.0 -0.0300385468 0.1865066992 0.0704950107 -0.552376442 0.0703030258 -0.5530068062 0.009466829 0.1827509141
685295890.0 -0.0278224294 0.1872559214 0.064032348 -0.553424229 0.0643595237 -0.5532051134 0.0115775103 0.1828927202
690295860.0 -0.0258901827 0.1874586825 0.0587018163 -0.5532904869 0.0586545632 -0.5540046006 0.0134917983 0.1828230282
695295830.0 -0.0244662813 0.1879788518 0.0528138459 -0.5541109848 0.0525642044 -0.5547505087 0.015622682 0.1830641922
700295800.0 -0.0225109044 0.1882641525 0.0462192013 -0.5549834008 0.0463826283 -0.554717437 0.0172544114 0.1834829112
705295770.0 -0.0206690122 0.1889129815 0.0402202716 -0.5553830288 0.0411236907 -0.5556097794 0.0192820004 0.1834689432
710295740.0 -0.018454555 0.1891744464 0.0346383607 -0.556013912 0.0349736198 -0.5560503719 0.021281553 0.1827930341
715295710.0 -0.0174761652 0.1893319074 0.0293050668 -0.5559049607 0.028295065 -0.5562130686 0.0238306169 0.1827032562
720295680.0 -0.015043484 0.189602622 0.0225676251 -0.5564208844 0.0229247296 -0.5565677914 0.0255746285 0.1833414352
725295650.0 -0.0130594872 0.1900045977 0.0163329182 -0.5564521204 0.0168301327 -0.5566252774 0.027270285 0.1831949098
730295620.0 -0.0113509364 0.1906433307 0.0107294724 -0.5565442914 0.0110338461 -0.5567259241 0.0289539504 0.1827543105
735295590.0 -0.0095514232 0.1907729549 0.004770499 -0.55692187 0.004500389 -0.5567233459 0.0310126847 0.1820263891
740295560.0 -0.0080533442 0.1909962786 -0.0009172818 -0.5565635728 -0.001448349 -0.5569139677 0.0337181444 0.1826012748
745295530.0 -0.006054387 0.1914533577 -0.0075186455 -0.5560370299 -0.007555539 -0.5566639626 0.035268034 0.1818269092
750295500.0 -0.0038705006 0.1913377818 -0.0133473818 -0.5560088348 -0.0132296117 -0.5569130852 0.0370924384 0.1818295902
755295470.0 -0.0020994079 0.1912769656 -0.0188340649 -0.5564672156 -0.0192653285 -0.5560638235 0.0397806189 0.1807863064
760295440.0 -0.0005941628 0.1916382967 -0.0254154524 -0.5561668852 -0.0253578894 -0.5563469449 0.0413418287 0.1807888015
765295410.0 0.0014401863 0.1917349665 -0.031394108 -0.5558158408 -0.0315970195 -0.5559492781 0.0435410454 0.1804891512
770295380.0 0.0029439143 0.1918425054 -0.0377374655 -0.5552823747 -0.0375439712 -0.554952815 0.0449465149 0.1802925035
775295350.0 0.0047932303 0.1916539863 -0.0436351621 -0.5549355826 -0.0425927479 -0.5546387425 0.0465786113 0.1797818205
780295320.0 0.0070943337 0.1919862337 -0.0494109177 -0.5543096975 -0.0486179519 -0.5540677658 0.049099119 0.1789486078
785295290.0 0.0085601246 0.1914680322 -0.0555631375 -0.5530858466 -0.0549585649 -0.5538747708 0.0515618345 0.1789192837
790295260.0 0.0111198285 0.1920971871 -0.0611577377 -0.5528120465 -0.0603815864 -0.5529760139 0.0533755945 0.1782530107
795295230.0 0.0124687831 0.1920460097 -0.0670532891 -0.5520364074 -0.0663980771 -0.5523208386 0.0554603036 0.177939638
800295200.0 0.0143156849 0.1922597104 -0.0732838112 -0.5515965437 -0.0728271073 -0.5513901192 0.0575993673 0.1773569247
805295170.0 0.0161997108 0.1921044617 -0.0791174908 -0.5503898857 -0.078749155 -0.5511148905 0.0594872546 0.1771237094
810295140.0 0.017818987 0.1916430004 -0.0844279587 -0.5494757042 -0.0846834458 -0.5496504197 0.0617542516 0.1766876082
815295110.0 0.0199371363 0.1916663836 -0.091023404 -0.5485459697 -0.0903639981 -0.5488808987 0.0634145887 0.1760143529
820295080.0 0.0212942795 0.1921276773 -0.096521414 -0.5474242004 -0.096216499 -0.5478587873 0.0657017938 0.1757065779
825295050.0 0.024118758 0.1917229512 -0.1020054563 -0.5463056093 -0.1025001183 -0.5463150027 0.0675639816 0.1749633976
830295020.0 0.0255363622 0.1916968997 -0.1082498352 -0.5451771103 -0.108096234 -0.545068931 0.0701524473 0.1746501521
