!Created with skrf (http://scikit-rf.org).
# Hz S RI R 50.0 
!freq ReS11 ImS11 ReS21 ImS21 ReS12 ImS12 ReS22 ImS22
300000.0 -0.7788870977 -0.0986205973 -0.000729565 -5.17275e-05 0.0007808772 -0.0004244379 -0.0512446218 -0.0603597634
5299970.0 -0.7848982563 -0.0060430143 9.47216e-05 -7.11085e-05 -9.84192e-05 -1.1933e-06 -0.0500791521 0.0158581983
10299940.0 -0.7878596993 -0.0039642999 0.0001641158 0.000159473 -3.31153e-05 -5.7153e-06 -0.044137788 0.0337127036
15299910.0 -0.7935105514 -0.0025213249 0.0002494415 0.0001147512 0.0001037383 -6.6692e-05 -0.0359706643 0.0479693381
20299880.0 -0.8002373045 0.002013953 -0.0001560867 6.75417e-05 0.0001801725 -0.0001145789 -0.0255996967 0.0597522555
25299850.0 -0.8062784488 0.0079195493 5.30529e-05 1.42916e-05 9.48769e-05 -3.91783e-05 -0.0141180253 0.0692702432
30299820.0 -0.8122042606 0.0150238736 -7.46368e-05 -6.3977e-05 -6.81739e-05 -0.0001061892 -0.0023733921 0.0758864057
35299790.0 -0.8171336576 0.0245162786 -5.0345e-05 8.73316e-05 9.34041e-05 -0.0001569843 0.0092064904 0.0809887222
40299760.0 -0.8208312507 0.034150248 0.0001111259 0.0001142528 3.86697e-05 -2.46464e-05 0.0204849218 0.0835242879
45299730.0 -0.8243970019 0.0424433361 -4.08307e-05 -4.07725e-05 9.86242e-05 0.0001992905 0.0313770733 0.0851621309
50299700.0 -0.8266453604 0.0526792956 0.0001512887 9.43682e-05 -0.0001901074 -1.75797e-05 0.0416040264 0.0847670543
55299670.0 -0.8290357943 0.0624535452 -0.0001323581 -7.88509e-05 3.40959e-05 0.000136511 0.0507503891 0.0833257344
60299640.0 -0.8303705494 0.0733544261 1.29284e-05 0.0002112892 8.36904e-05 4.53977e-05 0.0594904656 0.0815594352
65299610.0 -0.831606855 0.0833587603 -1.95842e-05 -1.46825e-05 9.1108e-06 0.0001960788 0.0672908278 0.0787018622
70299580.0 -0.831795839 0.093026823 -0.0001897101 -0.0001033131 0.0001866731 9.4954e-06 0.0739721329 0.0760201425
75299550.0 -0.8317013429 0.1038971542 1.54689e-05 -0.0001283613 9.4484e-06 8.01446e-05 0.0805349481 0.0722748473
80299520.0 -0.8317719756 0.1136631564 -0.0001312932 0.0001114161 -4.65129e-05 9.58605e-05 0.0863623037 0.069180092
85299490.0 -0.8311828489 0.1223683431 2.07336e-05 9.12149e-05 -0.0001326339 8.41818e-05 0.0911084606 0.0651277264
90299460.0 -0.8303502697 0.1319636782 -0.0001302245 6.70193e-05 -5.14283e-05 0.000153532 0.0960084828 0.0611340321
95299430.0 -0.8297921131 0.1418853251 0.0001450906 -0.0002045089 0.0001203232 7.49068e-05 0.0999731807 0.0570941563
100299400.0 -0.8280850686 0.1504620875 0.0001139304 4.57527e-05 -8.66883e-05 5.63588e-05 0.1039970532 0.0526416687
105299370.0 -0.826985355 0.160425293 0.0003146712 3.44354e-05 2.93525e-05 1.39481e-05 0.1070855018 0.0490224257
110299340.0 -0.8253818716 0.1695360724 3.91759e-05 -7.49189e-05 -4.64795e-05 -0.000129751 0.1097317171 0.0449214253
115299310.0 -0.8237990662 0.1784199007 -0.0001341936 -0.0001720341 0.0001049263 3.97016e-05 0.1122946757 0.0409762542
120299280.0 -0.8223145486 0.1866903118 8.27464e-05 -1.54172e-05 6.15619e-05 0.0001004041 0.114604221 0.0368346186
125299250.0 -0.8197063387 0.1956225297 -2.41488e-05 2.5573e-05 -6.13239e-05 -0.0001398747 0.1163496414 0.0329297059
130299220.0 -0.8186315923 0.2052491546 3.02296e-05 7.75183e-05 6.93506e-05 2.7309e-05 0.1182822855 0.0288437618
135299190.0 -0.8169311732 0.2137466574 -5.32632e-05 -6.23484e-05 5.42444e-05 -6.02736e-05 0.1196598444 0.0253927244
140299160.0 -0.8145948135 0.2231422794 0.000149505 0.0001425389 -0.0001034518 1.0781e-06 0.1210066827 0.0217310365
145299130.0 -0.813065502 0.2322166247 0.0002811725 -8.32175e-05 0.0001002564 7.07308e-05 0.1218558011 0.0182740456
150299100.0 -0.8099306322 0.2409114314 2.29642e-05 0.0001054144 3.61548e-05 0.0001201768 0.1229568187 0.0152500086
155299070.0 -0.8080984032 0.2492994923 0.000118863 0.0001169026 7.32813e-05 0.0001037569 0.1236444342 0.0117608142
160299040.0 -0.8048168973 0.2579179733 -4.96156e-05 0.0001036341 0.0001452751 -3.12882e-05 0.123794079 0.0081387773
165299010.0 -0.8025632053 0.266715295 0.0001412424 8.39566e-05 0.0001387341 -0.0001419424 0.1246597185 0.0049372479
170298980.0 -0.7998550321 0.2752815917 -4.86117e-05 -5.97672e-05 -6.28633e-05 0.0002183918 0.1249089907 0.0018761514
175298950.0 -0.7974603988 0.2840698654 3.024e-06 4.06849e-05 -5.67251e-05 7.55245e-05 0.1249359096 -0.0016775834
180298920.0 -0.7946098445 0.2925770545 4.24254e-05 -0.0001720294 7.2738e-05 -2.79393e-05 0.125054818 -0.0042242298
185298890.0 -0.7910685514 0.3004898278 0.0001759941 -5.96559e-05 0.0002081011 -0.0001497126 0.1251255455 -0.0073213226
190298860.0 -0.7882327334 0.3091686897 -0.000134006 3.7279e-06 -0.0001194193 -1.83672e-05 0.1255871185 -0.0100182128
195298830.0 -0.785306738 0.317746681 0.0001237479 -0.0001248507 2.92759e-05 0.0001090794 0.1252340743 -0.0129566375
200298800.0 -0.781447763 0.3256922096 8.46496e-05 3.24248e-05 0.0001632522 1.18649e-05 0.1247977204 -0.0159872673
205298770.0 -0.7785264423 0.3337082961 -6.66265e-05 5.90063e-05 -5.60671e-05 0.0001347176 0.1244120983 -0.0187023544
210298740.0 -0.7750766245 0.342085407 0.0001371427 -1.955e-05 0.000151472 0.0001365802 0.1243933164 -0.021001897
215298710.0 -0.7712160227 0.3503227322 -0.0001833733 0.0001146038 -5.6218e-06 7.04032e-05 0.1235400058 -0.0239262823
220298680.0 -0.767601214 0.3589529261 7.02921e-05 2.24162e-05 0.0001957485 2.38436e-05 0.1230106706 -0.0263683425
225298650.0 -0.7641199334 0.3657875576 -7.00552e-05 0.000213023 9.21786e-05 -7.97206e-05 0.1224140519 -0.0290590277
230298620.0 -0.7601039069 0.3746518148 0.0002252903 -0.0003203762 -2.42908e-05 7.56835e-05 0.1217152671 -0.0314038217
235298590.0 -0.7563230301 0.3832510666 6.5741e-05 0.0001021482 -3.5381e-05 -0.0001198285 0.1214519216 -0.0337241637
240298560.0 -0.7524620411 0.3909803526 0.0001671804 0.0001043631 0.0001309623 3.82115e-05 0.1207679967 -0.0361925329
245298530.0 -0.7485192065 0.3990265021 0.0002691984 -0.0002398275 -3.2621e-06 0.0001196985 0.1198520783 -0.0384119048
250298500.0 -0.7442034635 0.4067348388 0.0003729742 0.0001524191 -6.01498e-05 -5.74522e-05 0.1186420049 -0.0407217556
255298470.0 -0.7395234938 0.4138373924 -5.55892e-05 0.0001889372 4.44769e-05 7.00401e-05 0.1182405615 -0.0434261214
260298440.0 -0.7350846875 0.4213496851 0.0002403874 0.0001002235 -9.39725e-05 5.68603e-05 0.1174299144 -0.0452658176
265298410.0 -0.7312557233 0.4295093723 0.0002297531 5.08966e-05 0.0001258019 2.07174e-05 0.1167169577 -0.0471547689
270298380.0 -0.7273720262 0.4370942656 0.0001308902 1.08939e-05 0.0002537192 0.0001993655 0.1158292686 -0.0491871154
275298350.0 -0.7217340343 0.4446716926 0.0001180068 2.60569e-05 -1.8271e-06 0.0002804442 0.1148494366 -0.0513491246
280298320.0 -0.7171431589 0.4520729975 0.0001471093 -2.11103e-05 0.0002381257 5.13229e-05 0.114182381 -0.053207112
285298290.0 -0.7126753614 0.4600767767 0.0003092982 0.0001257423 1.14093e-05 0.0002739188 0.113292014 -0.0553142321
290298260.0 -0.7083001563 0.4675262619 -0.0001235699 -0.0001045504 1.09626e-05 -4.80445e-05 0.1125357166 -0.0570355731
295298230.0 -0.7026820037 0.4741345717 6.55619e-05 1.6882e-06 6.63924e-05 -3.2452e-05 0.1116225517 -0.0594299994
300298200.0 -0.6978156929 0.4817974614 0.0002264069 0.0001500331 0.0001533235 0.0001690537 0.1106640611 -0.0610329184
305298170.0 -0.6925337796 0.4882735681 -5.48936e-05 5.80517e-05 7.3936e-05 -5.83712e-05 0.1097611322 -0.0632150791
310298140.0 -0.6872577837 0.4957020481 0.0002409208 0.0001595935 9.71362e-05 -1.62311e-05 0.108130872 -0.0652880925
315298110.0 -0.6828937741 0.5028864125 0.0002478632 7.45707e-05 7.7422e-05 0.0001885813 0.1064872161 -0.0668989519
320298080.0 -0.6779282869 0.5096852458 -0.0001003948 -4.95644e-05 1.42358e-05 0.0001048926 0.1058066069 -0.0689259725
325298050.0 -0.6718892797 0.5173419796 0.0001969449 0.0001423044 -3.3998e-05 0.0001828595 0.103991389 -0.0708771382
330298020.0 -0.6664585357 0.523974773 0.0001714275 0.0002610078 5.29665e-05 0.0001814035 0.1025324294 -0.0723948227
335297990.0 -0.6608851565 0.5309337205 7.2486e-06 0.00012917 -0.0002375732 -2.61358e-05 0.1012136562 -0.0735465321
340297960.0 -0.6561329174 0.5375002696 0.0002304759 6.77907e-05 -5.25319e-05 0.0001596055 0.1003755271 -0.0751628212
345297930.0 -0.6501446388 0.5442640393 1.54585e-05 0.0001140552 0.0001526306 0.000266365 0.0986654149 -0.0767181106
350297900.0 -0.6445533903 0.5506587438 -2.2777e-05 0.0001305607 0.0001605218 3.85211e-05 0.0968627519 -0.0776881274
355297870.0 -0.6383733374 0.5577420739 4.60437e-05 -0.0001207854 0.0003295361 0.0001485477 0.0957630208 -0.078950948
360297840.0 -0.6321467959 0.5641328954 0.000392657 7.76001e-05 5.59431e-05 -0.0001776533 0.094398953 -0.0807686249
365297810.0 -0.6273480637 0.5702919229 7.60941e-05 -0.0002005746 0.0003835129 0.0001049965 0.0928756991 -0.0820119061
370297780.0 -0.6210245234 0.5764809103 -0.0001252659 5.76407e-05 0.0002937401 0.0001699927 0.0918418577 -0.0834461115
375297750.0 -0.6145688462 0.5826266619 8.04672e-05 0.0001834291 0.0001001627 -0.0001180219 0.0900362554 -0.0846946526
380297720.0 -0.6084678171 0.5886859823 -0.0001931169 0.0001517788 3.9222e-06 9.42463e-05 0.0883597169 -0.0857553652
385297690.0 -0.603421937 0.5954224214 0.0001853377 0.0002099749 5.6531e-06 -0.0001067394 0.0871412922 -0.0871451763
390297660.0 -0.5970764607 0.6011167435 0.0001303554 6.72878e-05 -0.0002184499 -2.16266e-05 0.0855732528 -0.0881133427
395297630.0 -0.590363318 0.6079929147 0.0001928494 -0.0001767986 4.34181e-05 0.0001315221 0.0843798885 -0.089488912
400297600.0 -0.5841689346 0.6133478393 0.0001274403 5.3179e-06 0.0002476175 0.0001931927 0.0831406568 -0.0906277365
405297570.0 -0.5782604292 0.6198161083 5.32392e-05 0.0004593721 0.0002060799 -4.04076e-05 0.0812277472 -0.0919077608
410297540.0 -0.571230755 0.6247013435 0.0002736671 -0.0001434782 0.0002593364 0.0001200669 0.080226488 -0.0928562313
415297510.0 -0.5647183185 0.6305487709 0.0001477342 -0.0001054327 1.71443e-05 -4.17716e-05 0.0784684802 -0.0940153202
420297480.0 -0.5593933402 0.6371272732 -0.0001173546 0.000207635 0.0001283186 -6.01113e-05 0.0770093434 -0.0948270398
425297450.0 -0.5519067454 0.6423664177 -0.0001527968 0.0001261366 -8.22772e-05 0.0001532452 0.0754102879 -0.0961168243
430297420.0 -0.5451419916 0.6481016565 0.0005060193 0.0002076079 4.57373e-05 -0.0001337827 0.0737269116 -0.0973256403
435297390.0 -0.5390780721 0.6531945512 0.0001465214 -0.0001062162 0.0003707202 -8.67832e-05 0.072700353 -0.0983187999
440297360.0 -0.5316766513 0.658821978 7.84805e-05 7.27046e-05 8.50695e-05 -0.0002032681 0.0709025256 -0.0990109026
445297330.0 -0.5247900568 0.6641016593 4.28974e-05 -9.2339e-06 1.59233e-05 0.0002008498 0.0696272035 -0.1003939297
450297300.0 -0.5184145126 0.6688966203 5.85351e-05 -4.8344e-06 5.77771e-05 1.2986e-05 0.0677976709 -0.1010525652
455297270.0 -0.511182624 0.6741383524 0.0001057485 4.04849e-05 0.0002109668 7.93456e-05 0.0661625999 -0.1019326473
460297240.0 -0.5049918762 0.67970824 -0.000116143 1.71573e-05 8.85409e-05 3.63495e-05 0.0646739758 -0.1025809548
465297210.0 -0.4979685019 0.6847914986 4.23475e-05 5.64124e-05 0.0002112809 -5.09194e-05 0.0631061268 -0.1034916582
470297180.0 -0.4905060948 0.6894226715 -1.14038e-05 4.32654e-05 0.0001707283 0.0001178764 0.0617796249 -0.1039649522
475297150.0 -0.4835825263 0.6943694056 0.0002245415 0.0001008855 5.55378e-05 0.0001343218 0.0602946308 -0.1053812297
480297120.0 -0.4766771433 0.6994416857 3.57299e-05 -3.89483e-05 0.0002162678 2.50639e-05 0.0586538215 -0.1057999112
485297090.0 -0.4693799903 0.7045267967 0.0001904363 0.0001175341 -2.60988e-05 -0.0001434015 0.057303667 -0.1063694136
490297060.0 -0.461976025 0.7088623074 6.29762e-05 4.3624e-05 6.29314e-05 0.0001795547 0.0554763274 -0.1073747802
495297030.0 -0.4554726292 0.7131003602 0.0001771864 -2.32183e-05 -1.39998e-05 -2.30539e-05 0.0536053181 -0.1078183946
500297000.0 -0.4476852011 0.7178506978 0.0001346167 0.0001139374 0.0001197122 2.50044e-05 0.0522640113 -0.1082541917
505296970.0 -0.4405477839 0.7221050637 0.0001898635 0.0001006439 7.3823e-05 -5.97362e-05 0.0503487683 -0.1092682901
510296940.0 -0.4333074722 0.7261652089 9.045e-07 0.0001217136 5.52591e-05 -8.247e-07 0.0488220658 -0.1098581795
515296910.0 -0.424662428 0.7307072734 8.44789e-05 5.30552e-05 0.0002098597 5.96883e-05 0.0473820775 -0.1102595639
520296880.0 -0.4184323533 0.7348798026 0.0001239239 -8.54574e-05 0.0001579088 0.0001039868 0.0451682503 -0.1107560513
525296850.0 -0.4103729413 0.7384941816 0.000162677 3.20995e-05 0.0001596666 6.02948e-05 0.0442315484 -0.1109080577
530296820.0 -0.4029576769 0.7432067704 7.5586e-05 -3.90915e-05 -4.91888e-05 0.0002226359 0.0423858463 -0.1115808452
535296790.0 -0.3954880933 0.7465976919 0.0002235472 0.0001388182 -3.66003e-05 0.000109333 0.0400853096 -0.1119547191
540296760.0 -0.3884376893 0.7503808538 0.0002460349 5.433e-07 -0.0001252611 -0.0001288872 0.0386423346 -0.1125801249
545296730.0 -0.3808222287 0.7544491954 -0.000118929 2.54728e-05 0.0001815334 0.0001496295 0.0372300407 -0.1132615989
550296700.0 -0.3731912578 0.7585824496 0.0001258807 -0.0001297326 6.17076e-05 8.50309e-05 0.0354996342 -0.1136551079
555296670.0 -0.3652873351 0.7613018959 0.0001080959 -5.6131e-05 9.09737e-05 0.0001484357 0.0337328719 -0.1134447888
560296640.0 -0.357403555 0.7660212855 9.80486e-05 -6.44746e-05 0.0002387427 -7.65558e-05 0.0320348275 -0.1142026338
565296610.0 -0.3499403193 0.7692706955 4.4853e-06 -0.0001708039 0.0001799449 1.34446e-05 0.030498518 -0.1146158738
570296580.0 -0.3427213071 0.7721442654 6.3513e-05 -0.0001162538 0.0002554136 0.0001187691 0.028532018 -0.1149892334
575296550.0 -0.3349151396 0.7768414498 4.70654e-05 9.1503e-06 0.0003174379 0.0001580476 0.0270039327 -0.1148201496
580296520.0 -0.3264618428 0.7792633947 -4.8419e-06 -1.78666e-05 2.21104e-05 0.0001067077 0.0251887139 -0.1153015593
585296490.0 -0.3186172063 0.7824715675 0.0002209942 -1.42317e-05 0.0001505574 5.32682e-05 0.0237243279 -0.1158903931
590296460.0 -0.3106146423 0.7856624153 0.0001758433 -0.000102002 -5.31108e-05 -0.0003323585 0.0216715727 -0.1157807636
595296430.0 -0.3034975725 0.7884017908 0.0002015264 0.0002342857 0.0001238865 -2.0091e-05 0.0200712977 -0.1163042516
600296400.0 -0.2950208072 0.7919274716 0.0001598925 4.68702e-05 -1.5913e-05 5.49903e-05 0.0182807898 -0.116545662
605296370.0 -0.2874781097 0.7946710844 0.0001434988 0.0002196503 0.0002728914 -2.38039e-05 0.0168600807 -0.1165083057
610296340.0 -0.2792496825 0.7973229681 0.0001801374 -9.3172e-05 0.0001246 -6.45775e-05 0.0152191797 -0.1164396228
615296310.0 -0.2703623042 0.8001133408 0.0003866097 0.0001510961 0.0002620425 -0.0001468313 0.0135710037 -0.1167976983
620296280.0 -0.2631923268 0.8017511066 -4.35204e-05 0.0001704998 0.000127151 -0.0001112444 0.0117936278 -0.1166787489
625296250.0 -0.2551270624 0.8053037671 1.43558e-05 0.0002863785 0.0001770207 -5.61811e-05 0.0104877906 -0.1169681968
630296220.0 -0.2460999647 0.8074664671 7.80406e-05 0.0002268869 -3.36148e-05 0.000171937 0.0085269899 -0.1165724989
635296190.0 -0.2385178578 0.8098185263 0.0002047828 6.01352e-05 0.0001347331 0.000240382 0.0073798065 -0.116520227
640296160.0 -0.2308641632 0.8121907742 0.0002861916 -0.0001003063 5.82772e-05 6.1001e-06 0.0054329378 -0.1169686053
645296130.0 -0.2228870976 0.8150541743 0.0001809723 1.77163e-05 0.0002412659 1.3581e-06 0.0036563013 -0.1164281653
650296100.0 -0.2144576899 0.8166470158 7.06245e-05 0.0001755049 5.43563e-05 6.079e-07 0.0019444902 -0.1167539093
655296070.0 -0.2063030868 0.819328874 7.15682e-05 -0.0002812149 9.44461e-05 1.5887e-05 0.0005973781 -0.1165061683
660296040.0 -0.197915816 0.8206058636 0.0001312267 -0.0001047582 0.0001252359 -2.37686e-05 -0.0009800956 -0.1161479177
665296010.0 -0.1895897877 0.8222389518 7.85853e-05 -0.0001966947 7.06084e-05 2.25307e-05 -0.0028720602 -0.1159901772
670295980.0 -0.1816602481 0.824298466 3.83717e-05 3.43544e-05 0.0001274422 8.07323e-05 -0.0045914365 -0.1159070977
675295950.0 -0.1738928929 0.8260881429 5.36658e-05 -1.8338e-05 0.0002250735 8.54269e-05 -0.0063557864 -0.1156016525
680295920.0 -0.1648868374 0.8278578107 -2.21377e-05 4.63543e-05 0.0002456122 9.00564e-05 -0.0078340247 -0.1152749077
685295890.0 -0.156673512 0.8303965815 0.0003116632 -2.13696e-05 0.0001021088 -7.5561e-05 -0.0097860523 -0.1149229914
690295860.0 -0.149012385 0.8309858861 0.0003454784 -1.3548e-05 0.0002167189 -3.44111e-05 -0.0114380325 -0.114485342
695295830.0 -0.1409518871 0.8322587105 9.85162e-05 -7.15809e-05 0.0003715759 6.28057e-05 -0.0131311522 -0.1141877405
700295800.0 -0.1318514722 0.8336323235 -4.58061e-05 -5.65831e-05 0.0001049385 6.69277e-05 -0.0150201397 -0.1139837034
705295770.0 -0.1244095475 0.8351453654 0.0002059311 -0.0001789956 -4.15075e-05 0.0001603532 -0.0163128349 -0.1132866368
710295740.0 -0.1158410772 0.8362778908 -5.82211e-05 7.75944e-05 0.0002065386 -3.64171e-05 -0.0182771158 -0.1133676356
715295710.0 -0.1082328265 0.8372671227 0.000164831 -0.0001753905 0.0001759127 8.83853e-05 -0.0198394745 -0.1129577295
720295680.0 -0.099232013 0.8381805795 0.0002411541 -0.0001024946 0.0001481794 0.0001155341 -0.0211896402 -0.1125130876
725295650.0 -0.0909562802 0.8397856918 0.0002491751 3.90164e-05 8.10223e-05 7.59072e-05 -0.0232641433 -0.111933497
730295620.0 -0.0819629131 0.8399111865 3.44755e-05 4.90039e-05 1.64869e-05 5.90842e-05 -0.0247637361 -0.1117968402
735295590.0 -0.0744799331 0.8405478454 0.0002361537 2.0534e-05 0.0001434692 -7.7305e-06 -0.0267643143 -0.1115813498
740295560.0 -0.0660807551 0.8420021835 9.70106e-05 -0.0002708309 0.0003455726 -6.95613e-05 -0.0278465671 -0.1106177753
745295530.0 -0.0579134992 0.8421983766 7.59676e-05 6.48533e-05 0.0001800521 3.78266e-05 -0.0297272333 -0.1103589234
750295500.0 -0.0495598563 0.8424820946 0.0001840723 -9.03207e-05 0.0002881455 -1.41044e-05 -0.0310248616 -0.1094706795
755295470.0 -0.0406731785 0.8435160424 0.0002189492 -8.05315e-05 0.0001862029 0.0002391515 -0.0328196062 -0.1095837982
760295440.0 -0.0323208795 0.8429433196 0.0001356951 -0.0003161158 0.0002397975 -0.0001214267 -0.0340952291 -0.1090897406
765295410.0 -0.0246692996 0.8434897446 0.0003631418 -0.0003310428 0.0003716984 2.04281e-05 -0.0356828601 -0.1082109875
770295380.0 -0.0163936336 0.8439674026 -0.000131762 7.37403e-05 0.000159214 -6.46453e-05 -0.037578138 -0.1079062792
775295350.0 -0.0076607666 0.843620063 0.0001144625 -3.5302e-06 0.0002770147 -5.07659e-05 -0.0393030569 -0.106646125
780295320.0 0.0008940652 0.8439739134 0.0001695812 7.8332e-05 0.0002545579 -0.0001010448 -0.0405409817 -0.1062319887
785295290.0 0.0087074154 0.8435531805 0.0002872262 -0.0001408249 -3.26388e-05 -0.0002456313 -0.04182713 -0.1058858956
790295260.0 0.0178844474 0.8434603949 0.0001372189 7.16544e-05 0.0002522903 -7.48361e-05 -0.0432710657 -0.1049748393
795295230.0 0.0256799289 0.8430311857 9.50845e-05 -0.0001050667 0.0001571594 -0.0001369433 -0.044745519 -0.1043468804
800295200.0 0.0337679023 0.8429731806 0.0001910583 4.99919e-05 9.95752e-05 -1.42227e-05 -0.0466882476 -0.1031381072
805295170.0 0.0428151549 0.8428865622 0.0001727346 -3.81549e-05 0.0001316063 -0.0001400169 -0.0479801555 -0.1025971304
810295140.0 0.0510041108 0.8424725587 0.0001738839 -0.0001173037 0.0002873031 -0.0001548588 -0.0491559678 -0.1018713713
815295110.0 0.0593527427 0.8419039264 4.90363e-05 2.03745e-05 0.0001972336 1.78886e-05 -0.0508821162 -0.1010951556
820295080.0 0.067400267 0.8408002375 0.0002180294 -0.0002142747 6.40507e-05 6.14981e-05 -0.0519791259 -0.1002514488
825295050.0 0.0767570446 0.8406348668 0.0001114074 8.85243e-05 0.0001921857 -0.0002067388 -0.0533319676 -0.0993366502
830295020.0 0.0837874786 0.8396980194 5.2974e-06 6.16025e-05 0.0001936562 1.42669e-05 -0.0546718615 -0.0985531509
835294990.0 0.0922474535 0.8390002627 0.0001710614 -0.0002391054 0.0002732292 -6.02248e-05 -0.05634408 -0.0974320389
840294960.0 0.1001724426 0.8380695568 0.0001926886 0.0001963535 -7.34548e-05 -0.0002912938 -0.0577669719 -0.0966825417
845294930.0 0.1078123258 0.8365034353 0.0003073404 -6.69073e-05 1.77877e-05 -5.2785e-05 -0.0592655581 -0.0957553068
850294900.0 0.1168256087 0.8363509694 0.0002116066 -0.0002020213 0.0001675454 -0.0001493625 -0.0605787396 -0.094585639
