!Created with skrf (http://scikit-rf.org).
# Hz S RI R 50.0 
!freq ReS11 ImS11 ReS21 ImS21 ReS12 ImS12 ReS22 ImS22
300000.0 -0.2308391341 -0.1205685728 0.4628937771 0.0779111666 0.4618031349 0.0787705558 -0.230511936 -0.120404276
5299970.0 -0.2448678112 0.005239365 0.4735925594 0.0058254339 0.4741500706 0.0059949073 -0.2436390181 0.0052092055
10299940.0 -0.241594374 0.0185786969 0.4757866209 0.0071558835 0.4758408911 0.0070916526 -0.240179453 0.0181253164
15299910.0 -0.2368571101 0.0284762647 0.479614322 0.0084094101 0.4799313291 0.0083634138 -0.2360559187 0.0274559914
20299880.0 -0.2313603138 0.0361627862 0.4841984272 0.0083371945 0.4846363674 0.00832084 -0.2310581384 0.0353333532
25299850.0 -0.2256617381 0.0428325507 0.489716223 0.0077244081 0.4899082164 0.0076260567 -0.2263539848 0.0417125772
30299820.0 -0.2204065826 0.0477846528 0.4954318272 0.0057268178 0.4950632071 0.005652984 -0.220825274 0.0469239072
35299790.0 -0.214536014 0.0517505213 0.5001131039 0.0021564667 0.5006701179 0.0024767708 -0.2159819346 0.0515920787
40299760.0 -0.2092313122 0.0547834426 0.505509787 -0.001471577 0.5057758524 -0.0015340593 -0.2107664293 0.0545161383
45299730.0 -0.2040747705 0.0569788595 0.5100543985 -0.0059643858 0.5106013167 -0.0062465865 -0.2057429607 0.0575190253
50299700.0 -0.1991404544 0.0589525105 0.5146838313 -0.0116005523 0.5145991591 -0.0120777846 -0.2011740717 0.0601214539
55299670.0 -0.1947818988 0.0606025028 0.5183060276 -0.0172321452 0.5182789 -0.017592875 -0.1976697635 0.0620706336
60299640.0 -0.1908281023 0.0616870954 0.5218978701 -0.0240771766 0.5217804786 -0.0241549751 -0.1937639895 0.0633123947
65299610.0 -0.1873246277 0.0627400642 0.5252777879 -0.0303900831 0.5250958105 -0.0304556331 -0.1899063814 0.0648704239
70299580.0 -0.1840293736 0.0630566759 0.5266414902 -0.036643805 0.5274602202 -0.0368724118 -0.1872004776 0.065856282
75299550.0 -0.1812794082 0.0636335631 0.5291470223 -0.0440818616 0.529339601 -0.0439841107 -0.1841423779 0.0670489217
80299520.0 -0.1787564383 0.0644475064 0.5310313469 -0.0505606538 0.5311494649 -0.0512328331 -0.1816376943 0.0681286545
85299490.0 -0.1758234525 0.0647147154 0.5326199941 -0.0577638986 0.5325122071 -0.0573726254 -0.1793139135 0.0688626013
90299460.0 -0.1735418272 0.0653806963 0.5331215225 -0.0645628925 0.533300979 -0.0645816472 -0.1768920346 0.0697091269
95299430.0 -0.1714041691 0.0657457113 0.5339954981 -0.0711769234 0.5345823232 -0.0715057615 -0.1751480452 0.0708290004
100299400.0 -0.1694126148 0.0661301655 0.5344853073 -0.0780784233 0.5350600485 -0.0786359784 -0.1732736354 0.0720199959
105299370.0 -0.1675841644 0.0665668926 0.535386604 -0.0851593272 0.53540387 -0.0851299324 -0.1712579986 0.072105781
110299340.0 -0.1659587 0.0668761886 0.5352048093 -0.0917487118 0.5357609424 -0.0920692623 -0.1699525884 0.0729126737
115299310.0 -0.1647591189 0.0676662304 0.5351736685 -0.0986242834 0.5353271994 -0.0991051884 -0.1682358751 0.0746348458
120299280.0 -0.1633267005 0.0683038037 0.5353351875 -0.1060904815 0.5348016335 -0.1059478548 -0.1668789306 0.0748704655
125299250.0 -0.1618265678 0.068561008 0.5343957545 -0.1122028142 0.5348275946 -0.1120231276 -0.1655478441 0.0760058797
130299220.0 -0.160631097 0.0693179692 0.5342419024 -0.1193294748 0.5341881147 -0.1197172426 -0.1642511383 0.0770623255
135299190.0 -0.1598189531 0.0701001895 0.5338515417 -0.1257162917 0.5336031017 -0.1263320596 -0.1632556457 0.0777846096
140299160.0 -0.1585490304 0.0707825894 0.5328067461 -0.1325872113 0.5330279546 -0.1323021669 -0.1624554653 0.0788612312
145299130.0 -0.1580195152 0.0719553887 0.5319088128 -0.1392136179 0.5316563167 -0.1394141717 -0.1609011965 0.0799337083
150299100.0 -0.1567134768 0.0725198053 0.5304003961 -0.1456300692 0.5308082871 -0.1457265973 -0.1599875403 0.0812449089
155299070.0 -0.1557501511 0.0735305566 0.5290963612 -0.1521927487 0.5293085463 -0.1523348759 -0.1584251548 0.0822114767
160299040.0 -0.1547906635 0.0746347385 0.5281407539 -0.1584890185 0.5279374976 -0.1587429007 -0.1583909307 0.0834450238
165299010.0 -0.1540011583 0.075265645 0.5267179204 -0.1648982709 0.5265160359 -0.1652420683 -0.1567986918 0.0845871859
170298980.0 -0.1531447034 0.0765038509 0.5247447942 -0.1713787312 0.5249234842 -0.171684901 -0.1561663277 0.0856279006
175298950.0 -0.1523236787 0.0773387503 0.523919334 -0.1776942527 0.523799763 -0.1782955295 -0.155041838 0.0873206762
180298920.0 -0.1517162273 0.0785060856 0.5217782926 -0.1844641531 0.5218473419 -0.1842574135 -0.1542791002 0.0885494462
185298890.0 -0.1507025086 0.0793247295 0.5203915971 -0.1904052381 0.5198119707 -0.1901526472 -0.1529546232 0.0894344497
190298860.0 -0.1495717253 0.0809342841 0.5171615639 -0.1965725822 0.518191835 -0.1962751115 -0.1522611709 0.0910692457
195298830.0 -0.1493355209 0.0818488359 0.5160186901 -0.2023353168 0.5164809096 -0.2025703962 -0.1512371988 0.0925329333
200298800.0 -0.1481979372 0.0825796203 0.5140064667 -0.2088488229 0.5143465171 -0.2089943318 -0.1504153195 0.0937320975
205298770.0 -0.147821331 0.0842086276 0.5114681559 -0.2149895155 0.5121120264 -0.2145110877 -0.1491446598 0.0950366243
210298740.0 -0.1469414848 0.0852270596 0.5098412432 -0.2205773512 0.509456999 -0.2210035632 -0.1488386949 0.0964340582
215298710.0 -0.1461696057 0.0866965491 0.5066578331 -0.226384555 0.5070684606 -0.2269147221 -0.1473741502 0.097814196
220298680.0 -0.1451259579 0.088096892 0.5046358124 -0.2327922666 0.5046571937 -0.2326433383 -0.1465540508 0.0990481654
225298650.0 -0.144739451 0.0891551355 0.5021276142 -0.2385093814 0.5023856183 -0.2382666632 -0.1453955568 0.1003394335
230298620.0 -0.1439008308 0.0903724122 0.4999484959 -0.2441086382 0.4999885911 -0.244351492 -0.1449197859 0.1018508382
235298590.0 -0.1430889471 0.0920665382 0.4973199588 -0.2507557354 0.4974667908 -0.2501980108 -0.1433674584 0.1033032089
240298560.0 -0.1421751433 0.0931628888 0.4943903874 -0.2555088315 0.4944691938 -0.2558838525 -0.1426936728 0.1044152674
245298530.0 -0.1416255827 0.0942457327 0.4915248598 -0.2615821831 0.4918133202 -0.2615199641 -0.1418548378 0.1059815667
250298500.0 -0.1407691053 0.095498016 0.488854266 -0.2669385553 0.4891058561 -0.2671047473 -0.1406679194 0.1078190888
255298470.0 -0.1398900912 0.0971315996 0.486409946 -0.2723384038 0.4864513871 -0.2729325667 -0.1392837594 0.1093115516
260298440.0 -0.1391190694 0.0983686151 0.4830426296 -0.2779517912 0.4830426147 -0.2778416989 -0.1386940118 0.1103141302
265298410.0 -0.1384672495 0.099563803 0.4800472766 -0.2837868656 0.4800633646 -0.2838612093 -0.1368100325 0.1116045783
270298380.0 -0.1378883015 0.1010045224 0.4767649672 -0.288868476 0.4773248389 -0.2891824769 -0.1359676128 0.1137423742
275298350.0 -0.136703694 0.1025025058 0.4734562187 -0.2941180979 0.4734873262 -0.2942597212 -0.1349606137 0.1149355924
280298320.0 -0.1362137559 0.1036693231 0.4709936843 -0.2992556792 0.4708785815 -0.2998603377 -0.1335545311 0.1163799902
285298290.0 -0.1351252857 0.1053186347 0.4670680309 -0.3052035157 0.4677750193 -0.3049695238 -0.1326620223 0.1179955747
290298260.0 -0.1343110284 0.1065836189 0.4645307715 -0.310405682 0.4642003778 -0.3103562217 -0.1311152051 0.1191170288
295298230.0 -0.1333170888 0.107313407 0.4606117691 -0.3158238069 0.4612616752 -0.316137885 -0.1301853452 0.1207653819
300298200.0 -0.1322529419 0.109070023 0.4573818847 -0.3211658557 0.4572698285 -0.3207654624 -0.1287171294 0.122044382
305298170.0 -0.1314705612 0.1099416089 0.4540480344 -0.3262046476 0.454242464 -0.3264105411 -0.127230858 0.1231267675
310298140.0 -0.1300645088 0.1111624389 0.4504098442 -0.3316007683 0.4506569765 -0.331315583 -0.1260392919 0.1243522765
315298110.0 -0.1297428482 0.1123295362 0.4469598105 -0.3369642531 0.4468895023 -0.3366662864 -0.1248150515 0.1259321149
320298080.0 -0.1286718237 0.1135002591 0.4426600835 -0.3419574196 0.4432829028 -0.3421711361 -0.1234117858 0.1270216779
325298050.0 -0.1282554434 0.1145252598 0.4389083732 -0.3467353166 0.4396232762 -0.3468997095 -0.122230956 0.1284301524
330298020.0 -0.1277604765 0.1162047694 0.435132591 -0.3520573322 0.4357610209 -0.3520585505 -0.121321829 0.129490322
335297990.0 -0.1265292873 0.1171096051 0.430959659 -0.3566288326 0.4314768104 -0.3567316872 -0.1200877084 0.1309039079
340297960.0 -0.1258084585 0.1185205394 0.4270313636 -0.3616433392 0.426846204 -0.3615413874 -0.1186783994 0.1326312871
345297930.0 -0.1250897852 0.1198724724 0.4231291909 -0.366550539 0.4229602018 -0.3663629351 -0.1171664481 0.1339840313
350297900.0 -0.123968745 0.1211806868 0.4190224407 -0.3705806502 0.4195995647 -0.3708108311 -0.1162745859 0.1350910976
355297870.0 -0.1231654079 0.1227012445 0.4150612674 -0.3750846194 0.4149254765 -0.3748324447 -0.1145327716 0.1367871474
360297840.0 -0.1220093225 0.1240126238 0.4105911174 -0.3799424678 0.4106732475 -0.3803150998 -0.1132467765 0.1384101926
365297810.0 -0.1213899633 0.1250902046 0.4066853893 -0.3844583358 0.4066086896 -0.384464158 -0.1122853475 0.1393001896
370297780.0 -0.1200545499 0.1265474519 0.4018092558 -0.388832736 0.4021303998 -0.3886254433 -0.1107180361 0.1407416668
375297750.0 -0.1189179859 0.1277793661 0.3980014902 -0.3931142511 0.3980617573 -0.3933318447 -0.1089944852 0.1420782722
380297720.0 -0.1182333566 0.1292687115 0.393800928 -0.3979530984 0.3939283301 -0.3978722983 -0.1077519612 0.1436606668
385297690.0 -0.1169550352 0.1302980181 0.388918111 -0.4018220612 0.3894009905 -0.4025612679 -0.1060778026 0.1451166344
390297660.0 -0.1154031018 0.1312627742 0.3844146861 -0.4057586496 0.3849787223 -0.4059968647 -0.1044586422 0.1460890238
395297630.0 -0.1142913068 0.1327391569 0.3805374744 -0.4095569738 0.3804212096 -0.4100043069 -0.102859694 0.1471842235
400297600.0 -0.1134106522 0.134051364 0.3760677269 -0.4147414529 0.3762013179 -0.4142912313 -0.1011776687 0.1488144859
405297570.0 -0.1120613774 0.1346627056 0.3714319797 -0.4185415943 0.3715709062 -0.4185273296 -0.0995623267 0.1501268792
410297540.0 -0.1110731623 0.1364285272 0.3666900839 -0.4230297662 0.3669487547 -0.422580069 -0.0979719414 0.1513517203
415297510.0 -0.1099876242 0.1374450052 0.3619628441 -0.4264025833 0.3626823769 -0.4266550269 -0.0962163936 0.1526003929
420297480.0 -0.1087039553 0.1382292057 0.357432482 -0.430856727 0.3576445306 -0.4308067404 -0.0943739219 0.1539813978
425297450.0 -0.1071846066 0.139226787 0.3529386218 -0.4341000215 0.352703183 -0.4345151605 -0.0930246902 0.1549420752
430297420.0 -0.1060509705 0.1408115554 0.3483029091 -0.4385696235 0.3483292544 -0.4381525953 -0.0908437698 0.1563918846
435297390.0 -0.1046762357 0.1416826122 0.3430454441 -0.4425261835 0.3432187037 -0.4423552207 -0.0898524147 0.1576245057
440297360.0 -0.1030741441 0.1426139848 0.3377748864 -0.4458553266 0.3383707803 -0.4459808148 -0.0878092373 0.1586591454
445297330.0 -0.1022273125 0.1434169526 0.3335305603 -0.4491530863 0.3337773111 -0.4494378952 -0.0859354915 0.1596516888
450297300.0 -0.1006655502 0.1447690249 0.3286259389 -0.4531558322 0.3287595143 -0.452983501 -0.0840520451 0.1609640175
455297270.0 -0.0995788806 0.1458033255 0.3235065575 -0.4565183115 0.3235931744 -0.4569825476 -0.082210825 0.1621041652
460297240.0 -0.0977080558 0.147002985 0.3187034011 -0.4606844651 0.3184781793 -0.4604382884 -0.080412704 0.1628976098
465297210.0 -0.0966196756 0.1478259452 0.3133960784 -0.4636799639 0.3130179182 -0.4639407894 -0.0784722823 0.1645007028
470297180.0 -0.0949614912 0.1487966398 0.3084193231 -0.4668266252 0.3086592896 -0.4671774899 -0.0768608085 0.1650237434
475297150.0 -0.0937865006 0.1501650531 0.3031338358 -0.4701405044 0.303314528 -0.4706196679 -0.0748720015 0.1662535871
480297120.0 -0.09183138 0.1514666679 0.2978438233 -0.4739371077 0.2981423627 -0.4730863407 -0.0733956647 0.1666847091
485297090.0 -0.0906433232 0.1516537616 0.2927555839 -0.4767826848 0.2928939702 -0.4768096712 -0.0714961299 0.1681162308
490297060.0 -0.0888401065 0.1530841574 0.287485704 -0.4802310122 0.2876729511 -0.4803787599 -0.0694330692 0.1686099876
495297030.0 -0.0877437582 0.1537700018 0.2825642687 -0.4830896403 0.2823512333 -0.4832250041 -0.0672807226 0.1696613217
500297000.0 -0.0860296353 0.1549520185 0.2770043595 -0.4860058232 0.2769728938 -0.4861986411 -0.065404801 0.1709005445
505296970.0 -0.0841162956 0.1557088428 0.2718380583 -0.48940346 0.2717147776 -0.4888414472 -0.0637801657 0.1711510724
510296940.0 -0.0827161914 0.1565732087 0.2667353635 -0.4927514918 0.2666283628 -0.4927408192 -0.0615171387 0.1725114089
515296910.0 -0.0812850129 0.1578006953 0.2608316554 -0.494767162 0.2605856887 -0.4951870141 -0.0596983069 0.1729415719
520296880.0 -0.0797296595 0.1586896346 0.255695656 -0.4975808486 0.2555421949 -0.4977817452 -0.0573426123 0.1741279832
525296850.0 -0.0780151404 0.159485411 0.2499845046 -0.5004351581 0.2498714923 -0.5003913895 -0.055553284 0.1747496296
530296820.0 -0.0765382963 0.1602630697 0.244409959 -0.5033083907 0.2446714433 -0.5029925681 -0.0537787256 0.1751554517
535296790.0 -0.0742474903 0.1612676849 0.2388718925 -0.5056778427 0.2391638181 -0.5056701274 -0.0513203676 0.176285788
540296760.0 -0.0729800641 0.1622201021 0.2334784216 -0.5081753293 0.233295944 -0.5079412037 -0.0495482522 0.1765413829
545296730.0 -0.0717201339 0.1635292201 0.2281762785 -0.5108336637 0.2278463796 -0.5104883323 -0.0476114365 0.1773121314
550296700.0 -0.0693750441 0.1639875812 0.2227266028 -0.513148029 0.2220779997 -0.5138296766 -0.0456840052 0.1783738166
555296670.0 -0.0682355517 0.1648769756 0.2169644578 -0.5159442743 0.2167393232 -0.5154921975 -0.0435830491 0.1782659316
560296640.0 -0.0657880418 0.1653784053 0.210914722 -0.5175754256 0.2115485567 -0.5176687178 -0.0414863899 0.1796929855
565296610.0 -0.0648382533 0.1665560523 0.2057432304 -0.5202277263 0.2052584598 -0.5199231049 -0.0391004017 0.18024459
570296580.0 -0.0627462456 0.1673341301 0.1994440094 -0.5223965025 0.1999483672 -0.5224061189 -0.0377416243 0.1802959039
575296550.0 -0.0609354507 0.167961031 0.194083818 -0.5244960204 0.1943230894 -0.5243410361 -0.0356143444 0.1810775638
580296520.0 -0.0594565639 0.1691201449 0.1884117692 -0.5265938856 0.1887034429 -0.5268140267 -0.0340695803 0.1814037883
585296490.0 -0.0575932342 0.1697038241 0.1829349903 -0.5281658061 0.1825385368 -0.5284455421 -0.0313743196 0.1822571801
590296460.0 -0.05540296 0.1705248037 0.1770492972 -0.5303677812 0.1768022489 -0.5307137067 -0.0296884637 0.1827776152
595296430.0 -0.0539429789 0.1713667785 0.1707323933 -0.5320180988 0.1705456837 -0.5320460532 -0.0273881564 0.1828223437
600296400.0 -0.0521293349 0.1720134687 0.1650488169 -0.5338609216 0.1648382243 -0.5338810762 -0.0250710564 0.1833742568
605296370.0 -0.0507979552 0.1729610398 0.1597927493 -0.535838837 0.1592894201 -0.5357849778 -0.0232464703 0.1837045624
610296340.0 -0.0486906482 0.1739263267 0.1536782611 -0.5369310161 0.154144041 -0.5371136653 -0.0214425445 0.1843723897
615296310.0 -0.0465108667 0.1741429117 0.1479315842 -0.5393571031 0.1477617808 -0.5389351363 -0.0190575052 0.1845731352
620296280.0 -0.045460719 0.1752766087 0.1416297215 -0.5406885016 0.1419377583 -0.5401020081 -0.0171805572 0.1852355168
625296250.0 -0.0437675016 0.1757234856 0.1361277889 -0.5422360202 0.1361372963 -0.5420861985 -0.0151052905 0.185236483
630296220.0 -0.0418607241 0.1765922499 0.1300438837 -0.5432646729 0.1297680651 -0.5435387301 -0.0128897259 0.18549829
635296190.0 -0.0402527008 0.1771907265 0.1243400956 -0.5443771576 0.1239717841 -0.5447356314 -0.010844928 0.1861033559
640296160.0 -0.0383739962 0.1778144006 0.1182711627 -0.5463003999 0.1182413472 -0.5459603691 -0.0091089893 0.1861371392
645296130.0 -0.0363467092 0.1787926562 0.1124493576 -0.5475014988 0.1122766303 -0.5472427308 -0.0071140215 0.1860606991
650296100.0 -0.0347202856 0.1788576351 0.1067817718 -0.5479961659 0.1060744473 -0.5485289439 -0.0041958326 0.186448553
655296070.0 -0.0328419994 0.1794911367 0.1003341488 -0.5494807807 0.1003309587 -0.5493546655 -0.0029646486 0.1868501907
660296040.0 -0.031390288 0.1802545726 0.0946767068 -0.5507600573 0.0944284578 -0.5505281989 -0.0004994314 0.1866468249
665296010.0 -0.0294846793 0.1808402925 0.0884081164 -0.5511588427 0.0887082281 -0.5510923937 0.0012517608 0.1867808098
670295980.0 -0.0275445962 0.1814307682 0.0824506854 -0.5524721037 0.0826735958 -0.5518507191 0.0029580262 0.1867056252
675295950.0 -0.0260231452 0.1817901852 0.0767629564 -0.5527834922 0.076791984 -0.5530668973 0.0052758235 0.1874873423
680295920.0 -0.0245264068 0.1825232584 0.0709267419 -0.5537617604 0.0711272302 -0.5536350853 0.0077128278 0.1869856799
685295890.0 -0.0223739364 0.1833044938 0.0645604245 -0.5550087669 0.0649447924 -0.5544576217 0.0096559573 0.1874835285
690295860.0 -0.0208584568 0.1835853718 0.0591425463 -0.5551302217 0.0585581862 -0.5553886996 0.0119320382 0.1875193723
695295830.0 -0.0189715187 0.1838699978 0.053165476 -0.555935792 0.0524927469 -0.5555474715 0.0138774181 0.187514587
700295800.0 -0.0170898581 0.1847052908 0.0472474412 -0.5562132734 0.0471686001 -0.5563006479 0.0158373294 0.1875749174
705295770.0 -0.0152915378 0.1848668798 0.0408575096 -0.5567911096 0.0407042419 -0.5566397854 0.0178618844 0.1878562185
710295740.0 -0.0138991704 0.185370399 0.0350363511 -0.5570173191 0.034768813 -0.5571726901 0.0202354891 0.1875157093
715295710.0 -0.0117724955 0.1857936763 0.0289995248 -0.5575022925 0.0286955809 -0.5574483674 0.0221092892 0.1871798351
720295680.0 -0.0097760751 0.1862266292 0.022566507 -0.5575891211 0.0227367971 -0.557718783 0.0241167144 0.1870112248
725295650.0 -0.0085949136 0.1866187665 0.0172036055 -0.5574729316 0.0169232422 -0.5580400076 0.0259348571 0.1872847765
730295620.0 -0.0072248018 0.1867960714 0.0107564338 -0.5578172264 0.0107875778 -0.5574337961 0.0279060617 0.1877567358
735295590.0 -0.0050807021 0.1873705818 0.0050784434 -0.5580496368 0.0046832864 -0.5580910455 0.0302021115 0.1870349125
740295560.0 -0.003472652 0.1872517577 -0.0009749454 -0.5579134634 -0.0009502956 -0.5584486619 0.0321282908 0.1870477793
745295530.0 -0.0017924736 0.1880511299 -0.0068965099 -0.5571535258 -0.0062134865 -0.5575373915 0.0338135809 0.1867086872
750295500.0 -0.0001310931 0.1880678381 -0.0129014224 -0.5575820333 -0.013013736 -0.5575580138 0.0361198663 0.1866924768
755295470.0 0.001689826 0.1883345177 -0.018589936 -0.5578628789 -0.018812589 -0.5581051094 0.0384287846 0.1863983317
760295440.0 0.0034028946 0.1888924563 -0.0256363213 -0.5570786128 -0.0251069464 -0.557088867 0.0406945948 0.1853679759
765295410.0 0.0056232329 0.1885418883 -0.0312410693 -0.5568605782 -0.0305694491 -0.5569957212 0.0423104442 0.1856844814
770295380.0 0.0068906141 0.1891959442 -0.0366276572 -0.5564264947 -0.0366033222 -0.5568285938 0.0441710679 0.1852903129
775295350.0 0.0085647745 0.1891595479 -0.0427620755 -0.5565084578 -0.0428524515 -0.556105714 0.0467012501 0.1852626838
780295320.0 0.0103363738 0.1893285626 -0.0483815106 -0.555298017 -0.0488153008 -0.555469874 0.0487361228 0.1848322545
785295290.0 0.0121562159 0.1892661162 -0.0543815007 -0.555084532 -0.0544114943 -0.5550175773 0.0500712261 0.1847242884
790295260.0 0.0139185181 0.1892386053 -0.0605144139 -0.5547298286 -0.0603404631 -0.5550893217 0.0524001788 0.1847090396
795295230.0 0.0156756704 0.1893352606 -0.0667596279 -0.5539834808 -0.0668046372 -0.5539923849 0.0544802235 0.1831460503
800295200.0 0.0169414742 0.1895372642 -0.071958273 -0.5525416683 -0.0725178351 -0.5533174698 0.0564009883 0.1832562927
805295170.0 0.0188374188 0.1895387024 -0.0783779687 -0.5521452866 -0.0783653865 -0.5524351358 0.0589942533 0.1826129164
810295140.0 0.0208745974 0.1895929873 -0.084592745 -0.5511797121 -0.0842834927 -0.5512422898 0.0607975099 0.182161218
815295110.0 0.0221910809 0.1897251702 -0.0899758181 -0.5500222925 -0.0898666337 -0.5506334921 0.0624873359 0.1816995722
820295080.0 0.0241490418 0.1896200071 -0.0956617478 -0.5490287149 -0.0955898631 -0.549714644 0.0637777813 0.1816660013
825295050.0 0.0254608881 0.1893286074 -0.1016246313 -0.5484795821 -0.1021060838 -0.548560514 0.0666228654 0.1809587901
830295020.0 0.0275731205 0.1893935301 -0.1078094475 -0.5468815286 -0.1079355602 -0.5471887374 0.0683123452 0.1802462997
