!Created with skrf (http://scikit-rf.org).
# Hz S RI R 50.0 
!freq ReS11 ImS11 ReS21 ImS21 ReS12 ImS12 ReS22 ImS22
300000.0 -0.7720762503 -0.1845589351 0.0007332142 0.0020338331 -0.0012804691 0.0014877561 -0.0453974497 -0.0816698582
5299970.0 -0.7861451458 -0.0093515491 0.0001303908 -0.0001170942 -3.6618e-05 -2.12478e-05 -0.0474797298 0.014055935
10299940.0 -0.7894220366 -0.0057861364 9.31164e-05 -8.59436e-05 -0.0001465049 -5.33332e-05 -0.0418093177 0.0316266668
15299910.0 -0.7941733188 -0.0033470711 -7.31767e-05 -6.88986e-05 0.0001990912 -0.0001173802 -0.0335238817 0.0456464579
20299880.0 -0.8010653697 0.0005627625 5.49415e-05 -1.97681e-05 -0.0001658369 0.0001092279 -0.0243533033 0.0570044405
25299850.0 -0.8076753183 0.0066780422 -4.32222e-05 -1.58916e-05 5.48095e-05 0.000190491 -0.0134233529 0.0663671276
30299820.0 -0.8140367036 0.0136267145 4.57064e-05 -5.64878e-05 0.0002023485 -0.0001920312 -0.0021044009 0.072639723
35299790.0 -0.8188997655 0.0226721852 -3.43174e-05 2.96271e-05 0.0001219439 -4.64355e-05 0.0091925061 0.0774050344
40299760.0 -0.8237764492 0.0318184563 9.98824e-05 -9.36783e-05 4.00836e-05 0.0001466752 0.0201106915 0.0802352467
45299730.0 -0.8267186652 0.042118708 -0.0001562745 -1.50728e-05 -0.0001272181 -9.25561e-05 0.030648723 0.0815802223
50299700.0 -0.8292215301 0.0518972412 -0.0001487908 2.81347e-05 6.68409e-05 -8.066e-05 0.0405737375 0.0815084131
55299670.0 -0.8310482116 0.0613965616 2.07677e-05 1.86629e-05 -0.0001031812 -0.0001040714 0.0494268611 0.08028803
60299640.0 -0.8325121503 0.0719407329 -0.0001176541 2.0571e-05 0.0001372635 -7.00307e-05 0.0576103674 0.0786147681
65299610.0 -0.833518523 0.0816777831 -0.0001182935 -0.0001866176 6.4702e-05 2.63268e-05 0.0654668402 0.0762740873
70299580.0 -0.8339079077 0.0912313173 -2.76535e-05 -2.15373e-05 0.0001669385 -9.86389e-05 0.0719489502 0.0730615873
75299550.0 -0.834006627 0.1014407893 -3.236e-07 -2.29384e-05 2.00239e-05 0.0002092555 0.0786319805 0.0698936968
80299520.0 -0.8339888554 0.112191555 7.96616e-05 0.0001675019 -0.0001422538 1.99146e-05 0.084216218 0.066514273
85299490.0 -0.8326326289 0.1216645916 -0.0001288369 4.5944e-05 -3.44664e-05 7.20549e-05 0.0890297684 0.0627569565
90299460.0 -0.8323845512 0.1319495548 4.49594e-05 -1.33823e-05 -8.4899e-05 0.0001323375 0.0935437228 0.0587542743
95299430.0 -0.8315374899 0.1406198125 -0.0001282768 -0.0001192257 3.90178e-05 -4.69223e-05 0.0975234119 0.0549176866
100299400.0 -0.8303595109 0.1499417298 0.0001224688 4.17431e-05 7.78308e-05 3.203e-06 0.1010707267 0.0511181444
105299370.0 -0.8291291792 0.1590358647 6.35477e-05 -5.90717e-05 -0.0001100531 0.0002583289 0.104408231 0.0470679053
110299340.0 -0.82744154 0.1682882546 0.0002650192 0.0002084651 5.43465e-05 6.60632e-05 0.1070717205 0.0427901004
115299310.0 -0.8264503518 0.177752142 0.0002054513 0.0002157084 -0.0001429989 -1.2949e-05 0.1093701088 0.0390982092
120299280.0 -0.8248954736 0.1864692783 1.5881e-05 0.0001428966 -8.318e-07 1.62864e-05 0.1113738325 0.0350917492
125299250.0 -0.8227366988 0.1961593464 9.45595e-05 0.0003336102 1.8348e-05 -0.000272913 0.1134446488 0.031190539
130299220.0 -0.8212818315 0.205031444 0.0001593688 -0.0001222306 8.47248e-05 -2.77703e-05 0.114988196 0.0277439868
135299190.0 -0.8189912342 0.2138613675 4.9306e-06 7.31763e-05 9.70766e-05 7.86509e-05 0.1162753422 0.0239429702
140299160.0 -0.817637967 0.2237597309 -1.73802e-05 0.000136952 -0.0002726331 2.96864e-05 0.1176908356 0.0201226395
145299130.0 -0.8149663388 0.2324200469 -3.90415e-05 -2.5344e-05 -0.0001133632 0.0001602509 0.1186820151 0.0169069039
150299100.0 -0.8123921309 0.2414224248 -3.84034e-05 0.0001031632 0.000183947 1.05997e-05 0.1191331478 0.0135080798
155299070.0 -0.8101923486 0.2504192247 -3.65242e-05 -0.0001629426 6.60388e-05 -0.0001673672 0.119933587 0.0100720693
160299040.0 -0.8073923352 0.2592215502 -0.0001602051 -0.0001263684 -0.0001037799 5.89696e-05 0.1201933289 0.0068167363
165299010.0 -0.805209117 0.2674140575 2.34484e-05 8.02332e-05 5.89716e-05 7.27427e-05 0.1211213643 0.0033877737
170298980.0 -0.8013357578 0.2761434238 0.0002082348 -9.27033e-05 -6.3396e-06 9.6023e-05 0.1211956334 0.0007575698
175298950.0 -0.7994223761 0.2845899993 0.0001442579 8.55323e-05 0.000219376 2.04465e-05 0.1215582447 -0.0023900868
180298920.0 -0.7960618758 0.2935334736 -0.0001250414 -3.23343e-05 0.000127355 9.54057e-05 0.1217102859 -0.0057286082
185298890.0 -0.7922010678 0.3021704971 2.9814e-06 0.0001493854 5.82131e-05 -1.13825e-05 0.1217429626 -0.0087127791
190298860.0 -0.7899469002 0.3110829433 0.0001215652 -0.0001242206 5.25941e-05 0.0001672008 0.1215901099 -0.0114174204
195298830.0 -0.7867079536 0.3193383095 -9.49366e-05 3.76583e-05 3.73354e-05 0.0001318376 0.1212078369 -0.0142138278
200298800.0 -0.7830404535 0.327783301 -4.99616e-05 0.0002308902 0.000192126 -5.13194e-05 0.1209192874 -0.0168327243
205298770.0 -0.7794155912 0.3369016142 -2.24252e-05 0.0001162815 0.0001116603 0.0001773436 0.120851936 -0.019590622
210298740.0 -0.7762057812 0.3448391367 6.11687e-05 -7.77571e-05 7.25335e-05 7.2942e-05 0.1200631584 -0.022388474
215298710.0 -0.772211084 0.3532696547 0.0001359024 5.06009e-05 7.12496e-05 8.34918e-05 0.1197574708 -0.0250099126
220298680.0 -0.7688945898 0.3609077047 -3.19424e-05 9.4966e-06 -0.0001275851 0.0001816762 0.1194482427 -0.0269253083
225298650.0 -0.7650669808 0.3697333282 -1.85609e-05 2.26468e-05 4.83726e-05 -0.0001155202 0.1186431855 -0.0299423853
230298620.0 -0.76096329 0.3770376242 1.05286e-05 0.000100529 -7.00993e-05 0.0001366817 0.1181624807 -0.0320155507
235298590.0 -0.7571647412 0.3858769468 8.44751e-05 2.41702e-05 6.86553e-05 4.87996e-05 0.1173295797 -0.0343985071
240298560.0 -0.7525632308 0.3936778433 -6.4438e-06 -5.68791e-05 -4.40061e-05 -0.0001119025 0.1169641551 -0.0371782837
245298530.0 -0.7487446347 0.4021125975 0.0001372457 0.0001385842 8.0675e-05 3.9868e-05 0.116207699 -0.0391098017
250298500.0 -0.7444958945 0.4091737853 -0.0001017947 -8.33672e-05 -1.72512e-05 -4.42823e-05 0.1151135377 -0.0409980426
255298470.0 -0.7410650439 0.4177638008 0.0001660372 -1.25735e-05 0.0001002531 -0.0001293518 0.1145323711 -0.0434238094
260298440.0 -0.7363264118 0.424966717 0.0001685828 -8.84231e-05 8.9953e-06 5.55952e-05 0.1133423009 -0.0455996063
265298410.0 -0.732372653 0.4328347235 7.68731e-05 7.42671e-05 0.0001412328 0.0001214588 0.1129985645 -0.0476457627
270298380.0 -0.7277990458 0.4402258911 0.0001937634 2.69236e-05 -6.17e-05 -0.0001150358 0.1120256952 -0.0494728584
275298350.0 -0.7231469687 0.4479857122 -7.46563e-05 0.0001156934 0.0001490949 -9.12806e-05 0.1108988642 -0.0515176269
280298320.0 -0.7183592291 0.4554765154 0.0001436744 0.0001326671 -6.78017e-05 0.0001507807 0.110280856 -0.0535672794
285298290.0 -0.713657323 0.4634167088 4.01038e-05 0.0001227906 4.9928e-06 0.000155934 0.1088147711 -0.0552367926
290298260.0 -0.7090038619 0.4707760182 0.0002522317 6.71836e-05 -0.0001261653 -0.0001599813 0.1078842095 -0.0570765681
295298230.0 -0.7040217959 0.4778743984 6.1582e-06 0.0002389411 0.0001066275 3.49329e-05 0.1070585597 -0.0591166542
300298200.0 -0.6994323323 0.4854375458 0.0001936338 5.45149e-05 0.0001456509 9.66637e-05 0.1061052157 -0.0608076562
305298170.0 -0.6946642033 0.493065209 0.000172095 0.000288546 4.2725e-05 -1.43414e-05 0.1049965698 -0.0628600845
310298140.0 -0.6892014686 0.4995603883 0.000152266 0.000182365 1.74749e-05 0.0001436422 0.1041621737 -0.0646585071
315298110.0 -0.6846736647 0.507190904 -7.2962e-05 0.0002896319 -4.02471e-05 0.0001270338 0.1032354702 -0.0663993615
320298080.0 -0.6789242346 0.5143885123 -5.47795e-05 3.92736e-05 0.0001019282 -5.31016e-05 0.1016582196 -0.0681874189
325298050.0 -0.6732624827 0.5208301345 -2.14739e-05 -2.74199e-05 0.000272869 0.0001390961 0.1008326331 -0.0701928207
330298020.0 -0.6677554453 0.5278261485 -0.0002183465 -0.0001083987 5.43732e-05 4.49209e-05 0.0990871969 -0.0720675312
335297990.0 -0.6629336108 0.5350722807 5.3075e-05 -9.3574e-05 8.84261e-05 0.0001384881 0.0978492268 -0.0736940372
340297960.0 -0.6578808969 0.5413363468 7.68368e-05 4.44873e-05 0.0002364565 -2.37941e-05 0.0963732603 -0.0749978215
345297930.0 -0.6520136862 0.5478510446 0.0001400961 2.70424e-05 7.56843e-05 -5.66926e-05 0.0949948909 -0.0765468546
350297900.0 -0.646258671 0.5551384309 0.0002639413 0.0001710473 0.0002136326 9.56268e-05 0.0930930349 -0.0779637624
355297870.0 -0.641395683 0.5609260183 1.18948e-05 -3.45567e-05 -2.56953e-05 0.0002069731 0.0917153772 -0.0792090084
360297840.0 -0.6350408096 0.5682369617 0.0001137595 0.0001375936 6.77521e-05 0.0001192485 0.0905105291 -0.0808551412
365297810.0 -0.629790953 0.5751259723 9.69466e-05 -0.0001352035 0.000168048 -3.5748e-05 0.0891469464 -0.0819198075
370297780.0 -0.6233937081 0.5806255498 0.0001067219 0.0001208347 0.0001510114 1.94514e-05 0.0873768122 -0.0829703057
375297750.0 -0.6179680668 0.5868524156 6.45684e-05 -0.0001366645 -0.0002219512 -5.18482e-05 0.0860969938 -0.084546873
380297720.0 -0.6124615001 0.5935700188 0.0002245277 -0.0001145686 9.28338e-05 4.21285e-05 0.0847318919 -0.0858189781
385297690.0 -0.6060050894 0.5999989034 0.0001979992 0.000190528 0.0001111086 6.1588e-05 0.083533731 -0.0864876171
390297660.0 -0.5988413865 0.6053937646 6.15225e-05 0.0001219509 0.0001008427 0.0002128817 0.0818955112 -0.0880264798
395297630.0 -0.592816506 0.612010359 0.0001227426 4.46019e-05 0.0002179663 0.0001028251 0.0804483203 -0.089274483
400297600.0 -0.5867951011 0.6182492252 0.0002353234 0.0001420514 0.0001338044 -3.50247e-05 0.0790101622 -0.0903759791
405297570.0 -0.5810693352 0.6233213148 5.00579e-05 -6.72517e-05 0.0002051497 -9.53337e-05 0.0776277168 -0.0913432125
410297540.0 -0.5744513887 0.6296491209 9.23477e-05 -8.2838e-05 4.85405e-05 7.07572e-05 0.0759538921 -0.092118711
415297510.0 -0.5680552059 0.6354558431 -8.0567e-05 5.91788e-05 0.0001978817 0.0001135647 0.0747977085 -0.0935216068
420297480.0 -0.5611242982 0.6417553214 0.0001750619 -0.0001408785 0.0001154012 -2.65388e-05 0.0733640736 -0.0943007598
425297450.0 -0.5546230383 0.6467102966 -3.3539e-06 -0.0001340291 8.16915e-05 -7.18295e-05 0.0718057853 -0.0956655774
430297420.0 -0.5475759508 0.6520762739 0.0001598933 4.82025e-05 5.9506e-06 -3.3681e-06 0.0700997688 -0.0965503982
435297390.0 -0.5414021642 0.6576072747 -8.7377e-06 0.0001346684 0.0001733684 0.0001411066 0.0683576161 -0.0972509709
440297360.0 -0.5339558742 0.6632373379 0.0002351255 0.0002537884 -3.95244e-05 -6.26254e-05 0.0672683305 -0.0983971143
445297330.0 -0.5273425353 0.668507273 5.46511e-05 0.0001864713 2.68494e-05 -0.00016355 0.0657142467 -0.0991720528
450297300.0 -0.5203064908 0.6734868295 0.0003038363 9.7473e-06 0.0001321997 -0.0002427251 0.0641704086 -0.0998434152
455297270.0 -0.5136832054 0.6794572478 0.0001950179 -0.0002568659 -3.53531e-05 2.26056e-05 0.0624862695 -0.1009035105
460297240.0 -0.506507069 0.6842394143 0.0002109025 -3.43577e-05 -3.59539e-05 0.0001011366 0.0608810282 -0.1018752632
465297210.0 -0.4990761957 0.689271723 -3.2431e-05 1.957e-06 0.000123939 5.32596e-05 0.0596290363 -0.1025324603
470297180.0 -0.492068183 0.6942662729 -5.76019e-05 2.01883e-05 -7.2057e-06 6.26805e-05 0.0578610941 -0.1033425203
475297150.0 -0.4853093601 0.699188295 -1.52467e-05 0.0001182735 2.97776e-05 -1.04842e-05 0.05652479 -0.1039046481
480297120.0 -0.4771540444 0.7044513933 0.0001720478 0.0002305769 6.78106e-05 4.72712e-05 0.0547676329 -0.1045988285
485297090.0 -0.4702564052 0.7090549534 0.0001166569 -0.0001513917 0.0002053666 0.000138927 0.052978389 -0.1055793955
490297060.0 -0.4620319872 0.7137961782 0.0001851914 0.0001264799 3.1876e-06 -0.0001449122 0.0515911515 -0.1062229406
495297030.0 -0.4545176399 0.7181696375 -4.55156e-05 -2.88731e-05 0.0001183896 1.69602e-05 0.0498542531 -0.1067481272
500297000.0 -0.4471650867 0.7222352664 0.0001231407 -5.8906e-06 9.35518e-05 9.86746e-05 0.0483124645 -0.1073048347
505296970.0 -0.439563163 0.7269542059 -4.80217e-05 0.0001506198 0.0001902304 -7.57727e-05 0.0465964284 -0.1080635527
510296940.0 -0.4321365483 0.7312556094 0.0001679717 0.0001739362 9.68086e-05 0.0002271106 0.0450503742 -0.1082603827
515296910.0 -0.4242751215 0.735764184 2.11733e-05 -0.0001189442 -5.75977e-05 -6.568e-06 0.0432103339 -0.1091169382
520296880.0 -0.4162616139 0.7400563542 5.18947e-05 5.3446e-05 0.0003144786 0.0001597436 0.0417097244 -0.1097348514
525296850.0 -0.408224771 0.7441218657 -0.0001448583 0.00010304 9.76718e-05 -1.39338e-05 0.0401588213 -0.1099633046
530296820.0 -0.4017127656 0.748348257 0.000197778 -0.0001316538 0.0001619985 -4.23404e-05 0.0382672112 -0.1108001205
535296790.0 -0.3931253665 0.7515151037 6.97676e-05 -2.54139e-05 -8.48623e-05 -7.14067e-05 0.0370507251 -0.1111423927
540296760.0 -0.3850182952 0.755700392 8.964e-07 5.14742e-05 -5.6557e-05 -0.0002465294 0.0351749992 -0.1115490035
545296730.0 -0.3773897788 0.760294178 2.686e-07 8.92626e-05 0.0002479886 0.000265514 0.0336410258 -0.1119402894
550296700.0 -0.369210598 0.7638823154 -0.0001248274 -4.74886e-05 -1.84361e-05 1.75011e-05 0.0317709892 -0.1124589679
555296670.0 -0.3615878872 0.7672052812 -1.98685e-05 3.27137e-05 0.0003654814 -5.9917e-06 0.0299244636 -0.1125386131
560296640.0 -0.3530800374 0.7709147604 0.0001028086 -5.828e-05 0.0001119883 0.0002181132 0.0285055749 -0.1129969227
565296610.0 -0.345974042 0.7742235817 -5.0002e-05 -1.81602e-05 9.61211e-05 0.0001234794 0.0268966095 -0.1131454673
570296580.0 -0.3370673111 0.7780820851 2.3724e-06 5.75666e-05 0.00012745 5.52774e-05 0.0248910965 -0.1135659911
575296550.0 -0.3285887391 0.7813032248 0.0001729154 -0.0001417634 9.32378e-05 -0.0001054835 0.0234063471 -0.1139549289
580296520.0 -0.3209818367 0.7845529457 0.0001578491 -0.0001430948 9.8845e-05 0.0001940955 0.0216291507 -0.1140749771
585296490.0 -0.3122237382 0.7877542574 6.64256e-05 4.45528e-05 0.0002624663 9.7952e-05 0.0199904705 -0.1141196027
590296460.0 -0.3039006161 0.7914035659 0.0002127774 5.51367e-05 0.0004877714 -3.20401e-05 0.018336924 -0.1145188988
595296430.0 -0.296129832 0.7941123554 0.0001699089 -3.3766e-05 -5.9266e-06 6.29331e-05 0.0165554449 -0.1146087666
600296400.0 -0.2883045559 0.7970116818 -0.0001750533 5.27708e-05 0.0001856081 -0.0001019653 0.0148468029 -0.114650418
605296370.0 -0.2800999255 0.7991737616 0.0002598587 -0.0001611381 0.0001515462 -0.0001068711 0.0134379163 -0.1150164598
610296340.0 -0.2712899846 0.8031122369 -4.35664e-05 -8.56397e-05 0.0002976329 0.0002545621 0.0117985568 -0.1150522366
615296310.0 -0.2630749241 0.8054296798 -7.87275e-05 9.1831e-05 4.18362e-05 -1.44745e-05 0.0100360811 -0.1148431742
620296280.0 -0.2555668461 0.8086700334 0.0002252545 -1.79937e-05 0.0002044605 0.0001483195 0.0083575116 -0.1148290953
625296250.0 -0.247321295 0.8103819207 0.0001904536 -3.64815e-05 2.0608e-05 -0.0001246189 0.0064236064 -0.1149551104
630296220.0 -0.2387749859 0.8136451373 7.98805e-05 9.42081e-05 0.0001199191 6.795e-05 0.0047492411 -0.1148921877
635296190.0 -0.2306834303 0.8160262309 0.0002186175 4.09178e-05 0.0001474973 -9.68207e-05 0.0030902665 -0.1147778573
640296160.0 -0.2215322825 0.8174396803 0.0002153651 -8.58314e-05 -2.54294e-05 9.10362e-05 0.0015931971 -0.1148350078
645296130.0 -0.2137075571 0.8202572349 0.0003650395 -0.0001471653 0.0002281122 -0.0001939057 -0.0004550574 -0.1148142902
650296100.0 -0.2052811095 0.8223068598 2.02766e-05 1.44571e-05 6.98856e-05 7.34515e-05 -0.0018691113 -0.1145435453
655296070.0 -0.1977634257 0.8240287533 -0.0001109505 -4.82939e-05 0.0001372917 -9.31278e-05 -0.0036682449 -0.1145100217
660296040.0 -0.1893136133 0.8269248119 0.0002496083 -4.41685e-05 0.000175926 -8.01299e-05 -0.0051059803 -0.1145562363
665296010.0 -0.1813816034 0.8281750023 0.0002105007 0.0001623761 6.91718e-05 -6.79374e-05 -0.0069023806 -0.1143588378
670295980.0 -0.1728018917 0.8308135837 -2.8012e-06 -2.58353e-05 6.14577e-05 8.56287e-05 -0.0084602259 -0.1139054226
675295950.0 -0.1641025797 0.8320674666 2.02658e-05 -8.21135e-05 9.34116e-05 8.40505e-05 -0.0101506304 -0.1140433146
680295920.0 -0.1566821223 0.8338774414 0.0002040439 -8.29557e-05 0.0001937535 1.0322e-05 -0.0120528607 -0.1136665559
685295890.0 -0.1475441648 0.8361125861 -1.07415e-05 5.93264e-05 0.0001153055 -4.075e-07 -0.0134876535 -0.1131914867
690295860.0 -0.1392254359 0.8373158631 0.0003643435 0.0001445957 0.0001109947 -0.0001958131 -0.0151059025 -0.1131333385
695295830.0 -0.1310761061 0.8387235063 0.0002431125 0.0001603006 0.0001156232 -1.15195e-05 -0.0168856451 -0.1128505048
700295800.0 -0.1219718519 0.8400948881 -5.62256e-05 0.0001388921 0.0002478941 0.0002623042 -0.0180922541 -0.1126764037
705295770.0 -0.1145919653 0.8410562433 0.0002914765 -1.2284e-06 0.0001657016 -0.0001641998 -0.0199750782 -0.1118895139
710295740.0 -0.1071943195 0.8424308716 0.0002476198 -0.0001012506 5.9699e-05 1.57828e-05 -0.0213006298 -0.1117057429
715295710.0 -0.097389344 0.8435261689 3.04952e-05 9.76927e-05 0.0001674227 3.78272e-05 -0.0229809426 -0.111426783
720295680.0 -0.0888570337 0.8444880563 0.0002369803 -1.45675e-05 0.0001219412 -0.0001311931 -0.0249025607 -0.1107954561
725295650.0 -0.0815070689 0.8460709942 0.0001955696 2.24924e-05 3.48969e-05 -5.13408e-05 -0.0265122243 -0.1101892975
730295620.0 -0.0737150273 0.8468212637 0.0001330903 0.0001540589 0.0001873479 -0.000116937 -0.0282169715 -0.1099664518
735295590.0 -0.0653657654 0.8477135432 0.0003815198 -0.0002275097 0.000210293 0.0001505983 -0.0295738319 -0.1095582138
740295560.0 -0.0574255258 0.8477022547 0.0003213114 0.0001696426 0.0003229428 -0.0001189835 -0.0312866286 -0.108920231
745295530.0 -0.0487898649 0.8489209072 0.0002459901 -4.4403e-05 0.0001175087 6.7485e-05 -0.0330073983 -0.1085002905
750295500.0 -0.0412274016 0.8493904773 0.0002361116 -0.0001373332 0.0001711998 2.25246e-05 -0.0347113397 -0.1077266272
755295470.0 -0.0321291953 0.8503189452 0.0002471385 4.79813e-05 0.0002342111 -4.38658e-05 -0.0358507408 -0.1068163227
760295440.0 -0.0241232202 0.8507514756 -2.54045e-05 -8.91297e-05 9.37746e-05 -3.88864e-05 -0.0376125269 -0.1067703049
765295410.0 -0.0157575623 0.8511464435 0.0001466995 0.0001648895 0.0002309168 -0.0001663037 -0.0390860739 -0.1058759726
770295380.0 -0.0082406651 0.8508516209 0.0002431778 4.64348e-05 0.0002496532 5.26139e-05 -0.0406328767 -0.1053130191
775295350.0 -0.0001951009 0.8515019173 0.0002458678 -0.0001501608 0.0002824182 3.05018e-05 -0.0420374798 -0.104882501
780295320.0 0.0084847906 0.8519854351 9.80532e-05 0.0001163879 0.0001697309 -1.71493e-05 -0.0434722386 -0.1042025788
785295290.0 0.0172167755 0.8512526239 0.0001690158 0.0001027833 -7.38887e-05 -0.0001747215 -0.0455216858 -0.103106423
790295260.0 0.0247865899 0.8509791155 0.0001486884 7.30927e-05 0.0001582385 -6.94271e-05 -0.0466990373 -0.1022166551
795295230.0 0.0328640019 0.850576045 5.86176e-05 -0.0001082076 -0.0001254981 0.0001371489 -0.0484342614 -0.1022160876
800295200.0 0.0411923739 0.8507554402 0.0001631214 -0.0001758939 0.0001390899 -2.2623e-05 -0.0499565714 -0.1013362757
805295170.0 0.0497655594 0.8505657773 0.0001025078 -0.0002386107 0.0002658874 0.0001879223 -0.0509630472 -0.1004866631
810295140.0 0.0579588272 0.8502085736 2.3187e-06 -0.00018436 0.0001329284 4.56592e-05 -0.0527748539 -0.0994649892
815295110.0 0.0654919778 0.8499256516 0.0002180868 3.614e-07 5.72659e-05 -3.34312e-05 -0.0544470125 -0.0988074251
820295080.0 0.0737128104 0.8492790543 0.0001906861 -4.78248e-05 0.0001585632 -0.000119792 -0.0564121733 -0.0975322614
825295050.0 0.081820245 0.84785917 0.0001681885 -0.0003175147 0.0001797647 -0.000317438 -0.0569437133 -0.0970619065
830295020.0 0.0907963257 0.8473837792 0.0002288124 -2.28211e-05 1.30762e-05 3.87322e-05 -0.058490629 -0.0962663896
835294990.0 0.0977095047 0.8465227942 -3.63856e-05 -2.41976e-05 0.0002569348 -0.0001441315 -0.0600447927 -0.0952964799
840294960.0 0.1064929277 0.8454422264 0.0001333334 -2.27016e-05 0.0003542496 3.49323e-05 -0.0613784989 -0.0944055464
845294930.0 0.1149393075 0.8447852149 -6.06054e-05 -3.25062e-05 0.0001437983 -0.0001800412 -0.0628813674 -0.0933525785
850294900.0 0.1237128808 0.8435550278 7.64814e-05 -7.83869e-05 0.0002035582 -0.000142395 -0.0643077962 -0.0921588961
