!Created with skrf (http://scikit-rf.org).
# Hz S RI R 50.0 
!freq ReS11 ImS11 ReS21 ImS21 ReS12 ImS12 ReS22 ImS22
300000.0 -0.2388075834 -0.0815295178 0.4709641754 0.056237416 0.4669342192 0.0542663899 -0.2397860968 -0.0950787376
5299970.0 -0.2443898874 0.0070460626 0.4736365672 0.0048257541 0.4735995049 0.0053303458 -0.2442120402 0.007246093
10299940.0 -0.240921709 0.0188786751 0.4754605962 0.0063543847 0.4755531324 0.0068316292 -0.2407161798 0.0201304653
15299910.0 -0.2366811546 0.027867844 0.4789547254 0.0075547898 0.4794953026 0.0077688647 -0.2359318195 0.0294293253
20299880.0 -0.2320608091 0.0353657741 0.4839716078 0.0083872618 0.4837550793 0.008128462 -0.2310358443 0.0374131418
25299850.0 -0.2265833569 0.0419327173 0.4891013358 0.0071073649 0.489032283 0.007597884 -0.2250537656 0.0441269226
30299820.0 -0.2216347852 0.0472775801 0.4944691046 0.0053867173 0.4944698407 0.00534084 -0.2191506643 0.0492745733
35299790.0 -0.2164168386 0.0513979876 0.500205165 0.002200389 0.4999943488 0.0018527772 -0.2135553692 0.053649653
40299760.0 -0.2113875412 0.0549988592 0.5048712031 -0.0015552107 0.5053948919 -0.0015831549 -0.2081831245 0.0562971119
45299730.0 -0.2066536095 0.0576915663 0.509783958 -0.0063542532 0.5094524216 -0.0062883953 -0.2031777975 0.0587659923
50299700.0 -0.2025400845 0.0597817075 0.5142675703 -0.0121406493 0.514375914 -0.0117555201 -0.1986633647 0.0607344029
55299670.0 -0.1983998407 0.0618126906 0.5179306263 -0.0185062407 0.5177135705 -0.0177772637 -0.1943779034 0.0625146452
60299640.0 -0.1942822289 0.0640025865 0.5210597847 -0.0245643024 0.521530629 -0.0241336825 -0.1904234694 0.0633013237
65299610.0 -0.1912419625 0.0645703321 0.5241688711 -0.0306681273 0.5241498258 -0.0304701962 -0.1869390607 0.064147251
70299580.0 -0.1880141322 0.0662162123 0.5266162705 -0.0374834001 0.5263221197 -0.0370397299 -0.1839307771 0.064587817
75299550.0 -0.1850970392 0.067316991 0.5284481219 -0.0437137012 0.5283593594 -0.0439370438 -0.1807638832 0.0652852692
80299520.0 -0.182573268 0.0681626449 0.5305161706 -0.0510482718 0.5306791183 -0.051057422 -0.178631595 0.0659577213
85299490.0 -0.180409295 0.0687591658 0.531444166 -0.0574581238 0.5318155678 -0.057469309 -0.1759309995 0.0662822994
90299460.0 -0.1778708077 0.0693373829 0.5326334541 -0.064732264 0.5329787273 -0.0646764281 -0.17363187 0.0666944248
95299430.0 -0.1755241892 0.070398249 0.5341326164 -0.0715245806 0.5338058434 -0.0715198207 -0.171747246 0.0670249604
100299400.0 -0.1742003112 0.0716206866 0.533673365 -0.0784455564 0.5339401376 -0.0786631395 -0.1694260567 0.0673827185
105299370.0 -0.1720668138 0.0723469785 0.5346475119 -0.0856561776 0.5347246025 -0.0854388597 -0.1676612811 0.068092329
110299340.0 -0.170581766 0.073538857 0.5347869063 -0.0923644283 0.5345825281 -0.0920298454 -0.1665353119 0.0683848524
115299310.0 -0.1689554154 0.0740487431 0.5347747861 -0.0992401078 0.5344141858 -0.0990620944 -0.164896136 0.0689002157
120299280.0 -0.1674295924 0.0745067093 0.5339865484 -0.1056870503 0.5343109247 -0.1057839634 -0.1632907908 0.0692916553
125299250.0 -0.1660590454 0.0754376014 0.5338911289 -0.1120990153 0.5342351564 -0.1123748735 -0.1623491046 0.0695074648
130299220.0 -0.1647922187 0.0767319403 0.5328823285 -0.1191881549 0.533134299 -0.1195028799 -0.1611688819 0.0703314188
135299190.0 -0.1638932374 0.0778225752 0.5329978092 -0.1258708014 0.5326203115 -0.1258749639 -0.1599585103 0.0711233604
140299160.0 -0.1627110641 0.0790650576 0.5319313327 -0.1330180361 0.5320946417 -0.1328940285 -0.1587406752 0.0722643018
145299130.0 -0.1615322247 0.0800347543 0.5311618169 -0.1394649051 0.5311658321 -0.1389364458 -0.1577993843 0.0726188895
150299100.0 -0.160192003 0.0811459299 0.5296892578 -0.145459167 0.5299780667 -0.1452649491 -0.156952688 0.0738087233
155299070.0 -0.1594020838 0.0821644161 0.5289641074 -0.1529891862 0.5284213579 -0.1522729665 -0.1556197498 0.0747562218
160299040.0 -0.1582296094 0.0833892821 0.5272815686 -0.1589911529 0.526817533 -0.1589305285 -0.1554247918 0.0755211632
165299010.0 -0.1571742947 0.0845779586 0.525679709 -0.165282808 0.526192706 -0.1648201139 -0.1540881179 0.0768674248
170298980.0 -0.1563792447 0.0857032789 0.5240836422 -0.1715813474 0.5244419982 -0.1716663269 -0.1532608366 0.0778812949
175298950.0 -0.1555537404 0.0870301546 0.5231258225 -0.1781119474 0.5222820528 -0.1777896669 -0.1529316814 0.0789034223
180298920.0 -0.1546766552 0.088322965 0.5208668138 -0.1840567568 0.5209753061 -0.1839704001 -0.1518331279 0.0797287074
185298890.0 -0.1534576458 0.0892835683 0.5190314796 -0.1903551174 0.5190690009 -0.1902333952 -0.1514736939 0.08075057
190298860.0 -0.1525853548 0.0910749514 0.5172815141 -0.1968137723 0.5174523764 -0.1966841505 -0.1504188156 0.0821149073
195298830.0 -0.1518190373 0.0920184229 0.5148502369 -0.2028252433 0.5152638483 -0.2024369656 -0.1494445334 0.0828059553
200298800.0 -0.1507285702 0.0936014397 0.5130370448 -0.2090638501 0.5129695911 -0.2089847451 -0.1494043953 0.0839996621
205298770.0 -0.1498429532 0.0949153359 0.5108918161 -0.2152545668 0.5107768226 -0.2146534108 -0.1486021431 0.0848185603
210298740.0 -0.1488981696 0.0961167996 0.5088761754 -0.2204227394 0.5085360573 -0.2206250477 -0.147539232 0.0867554425
215298710.0 -0.1483564478 0.0979094206 0.5063555776 -0.2269217544 0.5062503139 -0.2271947736 -0.1473712152 0.0879281394
220298680.0 -0.1469425016 0.0987272776 0.5034200992 -0.232812334 0.5037642874 -0.2327326554 -0.1468478898 0.0886871147
225298650.0 -0.1461605943 0.1004104633 0.5014149374 -0.2386600389 0.5014403054 -0.2384990619 -0.1462934512 0.0895220347
230298620.0 -0.1453772026 0.1021072716 0.498757603 -0.2445363341 0.4993633796 -0.2440954672 -0.1454610887 0.090636895
235298590.0 -0.1441398362 0.1036188679 0.4960617747 -0.2499956014 0.4961733772 -0.2496156052 -0.1446701289 0.0923549638
240298560.0 -0.1432053495 0.1052231819 0.4936110272 -0.2558991661 0.4935691648 -0.2561644769 -0.1440523887 0.0933687849
245298530.0 -0.1422165906 0.1063539087 0.4908722542 -0.2615341846 0.4908246793 -0.2614609697 -0.1428693878 0.0941863251
250298500.0 -0.1408152963 0.108275046 0.4875435308 -0.2674367381 0.4875653601 -0.2665630507 -0.1425304775 0.0959291847
255298470.0 -0.1398777629 0.1093396518 0.484625661 -0.2725849832 0.4848440874 -0.2725106752 -0.1413761923 0.0969842947
260298440.0 -0.1390260699 0.1107819365 0.4817514036 -0.278778766 0.4818951674 -0.2781187325 -0.1405304582 0.0983050321
265298410.0 -0.1376340637 0.1127146682 0.4787201927 -0.2843448251 0.4792139554 -0.2834778449 -0.1400778937 0.0994028265
270298380.0 -0.1365963738 0.1138219714 0.4758938063 -0.2889313904 0.4760594167 -0.2893128689 -0.1391314416 0.1006407647
275298350.0 -0.1350389978 0.1152314548 0.4723218168 -0.2946629939 0.4727813475 -0.2944682984 -0.1377745984 0.1017997931
280298320.0 -0.1339007254 0.1168289137 0.4696246248 -0.3004778822 0.4697202408 -0.2997452594 -0.136913088 0.1031961657
285298290.0 -0.1330789558 0.1182633034 0.4667798917 -0.3053016423 0.4661248585 -0.3053934984 -0.1360268979 0.1042452241
290298260.0 -0.1313778315 0.1198623166 0.4628951753 -0.3104231954 0.4629320384 -0.3106379703 -0.1348921636 0.1055452666
295298230.0 -0.1303153317 0.1207619859 0.4598845502 -0.3156087604 0.4595597806 -0.3156753589 -0.1335962241 0.1065396536
300298200.0 -0.1292914941 0.1223660756 0.4565491919 -0.3208704451 0.4566836754 -0.3214365195 -0.1330021029 0.108079122
305298170.0 -0.1277000005 0.1235730621 0.4523030257 -0.3263798135 0.4525408585 -0.3265412582 -0.1314074878 0.1089678458
310298140.0 -0.1265001721 0.1251299187 0.4492625728 -0.3317357548 0.4494556488 -0.3313957011 -0.130522824 0.1101672786
315298110.0 -0.1251848411 0.1260509486 0.4454525008 -0.3366519751 0.4457328205 -0.3366111062 -0.1294485801 0.1112632929
320298080.0 -0.1237175974 0.127511408 0.441200376 -0.3421093939 0.4417497854 -0.3420608377 -0.1287453294 0.112734337
325298050.0 -0.1227683063 0.1290321082 0.4379675221 -0.3467103492 0.4380665092 -0.34698716 -0.128061775 0.1137101115
330298020.0 -0.1214421255 0.130129004 0.4335119823 -0.3520803301 0.4341127682 -0.3519929301 -0.1269898709 0.1149828906
335297990.0 -0.1199854875 0.1313027292 0.4298905847 -0.3569038223 0.4298753552 -0.3568315531 -0.1266060794 0.1169427994
340297960.0 -0.1191697267 0.1331807927 0.4256929129 -0.3618048839 0.4252839986 -0.3613098354 -0.1248080771 0.1179139936
345297930.0 -0.1179068195 0.1347760443 0.4211388959 -0.3667896529 0.4213656561 -0.3663511347 -0.1240530121 0.1191794225
350297900.0 -0.1167407791 0.1354619115 0.4169559828 -0.3706057439 0.4171703556 -0.3708548853 -0.1231381864 0.1209351141
355297870.0 -0.1150812348 0.1376111883 0.4129382109 -0.3756994457 0.4134730472 -0.3751827351 -0.1225082125 0.1220703389
360297840.0 -0.1138866973 0.1385117442 0.4097715614 -0.3797733562 0.4095023991 -0.3797845481 -0.1214287419 0.12362121
365297810.0 -0.1126306319 0.1405045557 0.4050585785 -0.3846973875 0.4051076933 -0.3845281213 -0.1199151412 0.1247521917
370297780.0 -0.1107453809 0.141437465 0.4005321055 -0.3887305244 0.4012504727 -0.3883992531 -0.119158646 0.1264476379
375297750.0 -0.1091348726 0.1426621558 0.3962206928 -0.3932378994 0.397148428 -0.3933906039 -0.1182784638 0.1276332055
380297720.0 -0.1075974667 0.1442426813 0.3917981127 -0.3979469348 0.3921697493 -0.397023848 -0.1172734465 0.128630136
385297690.0 -0.106729802 0.1455869245 0.3872956728 -0.4019484598 0.3873361679 -0.4018026109 -0.1156933405 0.1301209667
390297660.0 -0.1049530315 0.1471889393 0.3833123712 -0.4060621187 0.3830183593 -0.4058702238 -0.1148708344 0.1314301542
395297630.0 -0.1031603727 0.1484870806 0.3791943461 -0.410365743 0.3788775224 -0.4101953812 -0.1132917315 0.1326738453
400297600.0 -0.1016750517 0.1500867442 0.3739750015 -0.4148246163 0.3743023849 -0.4147394672 -0.112005787 0.1341343419
405297570.0 -0.1003028649 0.1508259793 0.3695059022 -0.4185696363 0.3697051121 -0.418343098 -0.1112560312 0.1351078529
410297540.0 -0.0983682765 0.1517876457 0.3653413587 -0.4226485754 0.3656958629 -0.4228256228 -0.1102114384 0.1365603998
415297510.0 -0.09669209 0.1529034953 0.3603898511 -0.4268692564 0.3604483627 -0.4269170703 -0.1085390156 0.1377497562
420297480.0 -0.0951350511 0.154894378 0.3557514962 -0.4305604084 0.3557188024 -0.4308707049 -0.1075752201 0.1383950516
425297450.0 -0.0934989556 0.1553895414 0.3511164261 -0.4343127903 0.3512055429 -0.4347925831 -0.1065977479 0.1402021288
430297420.0 -0.0916234035 0.1567415162 0.3459720655 -0.4378057128 0.3461289992 -0.43794254 -0.1053822685 0.1410376516
435297390.0 -0.0902319572 0.1579584123 0.3408051028 -0.4418395001 0.3410753477 -0.4419056278 -0.103365624 0.1417483892
440297360.0 -0.0882862215 0.1591826849 0.3362200433 -0.4455475672 0.3363210106 -0.4454839725 -0.1023689095 0.1427641714
445297330.0 -0.0868230521 0.1598061736 0.3317036996 -0.4492856199 0.3316539706 -0.4490922802 -0.1007591437 0.14353693
450297300.0 -0.0848165691 0.1609740701 0.3266158004 -0.4533279474 0.3265537577 -0.4531530056 -0.0993228156 0.1449141698
455297270.0 -0.0830084281 0.1620571569 0.321423513 -0.4566066544 0.3217806488 -0.4565028042 -0.0981071265 0.1457815054
460297240.0 -0.0816455867 0.1631931281 0.316519174 -0.4598846338 0.3168282338 -0.4595241596 -0.0968458187 0.1472780437
465297210.0 -0.0794877868 0.1642445006 0.3117107059 -0.4633083704 0.3115849798 -0.4638409357 -0.095127494 0.1480265879
470297180.0 -0.0775779076 0.1650306632 0.3059275932 -0.4665086783 0.3064138262 -0.4667103522 -0.0935283881 0.1494579288
475297150.0 -0.0760588276 0.1661160147 0.3010613277 -0.4692880179 0.3012286047 -0.4694884873 -0.0922336588 0.1500943134
480297120.0 -0.0741873984 0.1672034703 0.296186967 -0.4733621047 0.2961485372 -0.473306973 -0.0904445214 0.1512340273
485297090.0 -0.072506018 0.168025425 0.2910919665 -0.476167412 0.2913137138 -0.4758616476 -0.0889364359 0.1522326938
490297060.0 -0.0707389407 0.1691248274 0.2858204688 -0.4794576636 0.2861199772 -0.4794513227 -0.0875487977 0.1533462582
495297030.0 -0.0687555637 0.1698540439 0.2807501654 -0.4823530144 0.2809197997 -0.482137076 -0.0861920913 0.1542942793
500297000.0 -0.066761297 0.170808479 0.2750710588 -0.4851784987 0.2748427854 -0.4848416256 -0.0845935184 0.155911045
505296970.0 -0.0646421724 0.1717440571 0.2697853885 -0.4882544477 0.2700764126 -0.4883850514 -0.0832751515 0.1563851784
510296940.0 -0.0630305879 0.172516063 0.2644953431 -0.4914171315 0.2642304913 -0.4913742099 -0.0813796569 0.1575143066
515296910.0 -0.0611996743 0.1735540559 0.2589619374 -0.4943291587 0.2592556648 -0.4941198827 -0.0798634487 0.1587567204
520296880.0 -0.0595186187 0.1741537254 0.2535731008 -0.4972557634 0.2541076227 -0.4967442974 -0.0785597052 0.1594335923
525296850.0 -0.0570909691 0.1747262291 0.2478413841 -0.4996830055 0.2487999769 -0.4994058843 -0.0772030597 0.1603153997
530296820.0 -0.0555245968 0.175847701 0.2428563438 -0.5025022977 0.2430687322 -0.5021649035 -0.0758499118 0.1614547418
535296790.0 -0.0535515156 0.1764545517 0.237517126 -0.5047791143 0.2379080713 -0.5043129781 -0.0744075548 0.162094362
540296760.0 -0.051711227 0.1774170581 0.2318206715 -0.5076258482 0.2321823302 -0.5074157955 -0.0726625992 0.1635406749
545296730.0 -0.0496484473 0.1782245582 0.2262277413 -0.5098385697 0.226299933 -0.5099014944 -0.0710594195 0.1640802403
550296700.0 -0.0474348103 0.1789383344 0.2204960564 -0.5124743887 0.2206555156 -0.5123406402 -0.0697199227 0.1648025819
555296670.0 -0.0459087984 0.1793762231 0.2153635742 -0.5146264419 0.2155030119 -0.5146298999 -0.0681116454 0.1659275135
560296640.0 -0.0435107542 0.1804691283 0.2094648432 -0.5169183293 0.2095317068 -0.516560128 -0.0662572068 0.1665298898
565296610.0 -0.0420527282 0.1807132404 0.2039418674 -0.5190761814 0.2041425764 -0.5190135631 -0.0652417044 0.1670758496
570296580.0 -0.040124167 0.1813643373 0.1986835436 -0.5218441078 0.1979139934 -0.5213947647 -0.063579028 0.1685934181
575296550.0 -0.0379764798 0.1820418963 0.192881151 -0.5239122693 0.1924802934 -0.5236682115 -0.0618373104 0.1692192933
580296520.0 -0.0354978957 0.1826800822 0.1868094135 -0.5257490676 0.187077673 -0.5256193676 -0.0603596059 0.169552351
585296490.0 -0.0339996942 0.1827787635 0.1815667101 -0.5272364619 0.1816063842 -0.5276473953 -0.0588304192 0.1703102082
590296460.0 -0.0319119177 0.1833969902 0.1756582396 -0.5286530728 0.1757417462 -0.5293924401 -0.0574431658 0.171063004
595296430.0 -0.0296020104 0.1840411036 0.1692901765 -0.5314742784 0.1695383845 -0.5311798259 -0.055407633 0.1710074761
600296400.0 -0.0279352074 0.1844519252 0.1641022336 -0.5329202442 0.1643984658 -0.53285696 -0.0539562291 0.1719506943
605296370.0 -0.0261770781 0.1848495751 0.1579542647 -0.5343666688 0.1581474159 -0.5348031418 -0.0520848812 0.1731503803
610296340.0 -0.0236729692 0.1852257445 0.1520838383 -0.5362027177 0.1524549174 -0.536479543 -0.0503503644 0.1734030344
615296310.0 -0.0213874502 0.1856953836 0.1464605288 -0.5376903811 0.1462033382 -0.5379772341 -0.0485372442 0.1740199677
620296280.0 -0.0193704842 0.1858680774 0.1405785562 -0.5392487251 0.1407984084 -0.5390637399 -0.0470469977 0.1744645645
625296250.0 -0.0177998725 0.1857328739 0.1354063148 -0.5408518367 0.1351414015 -0.5410914929 -0.0446318191 0.1749040882
630296220.0 -0.015027009 0.1864168122 0.1283018674 -0.5423867527 0.1289452901 -0.5416445385 -0.0431980736 0.1755981444
635296190.0 -0.0138731961 0.1866266945 0.1232009006 -0.5437653394 0.1229970257 -0.5438291335 -0.0416666151 0.1762904035
640296160.0 -0.0117596458 0.1869077343 0.1169443063 -0.5442440405 0.1174647202 -0.5450397615 -0.0396548656 0.1767874684
645296130.0 -0.0093819738 0.1875463606 0.1108420531 -0.5457226517 0.111573772 -0.5458356845 -0.0380649528 0.1773345326
650296100.0 -0.0070858766 0.1876460325 0.1049737867 -0.5468783154 0.1054988645 -0.5471293146 -0.0358587149 0.1774990627
655296070.0 -0.0054156289 0.1877943817 0.0995275885 -0.5478257717 0.0997277312 -0.5483076988 -0.0340505106 0.1781614749
660296040.0 -0.0035974763 0.187717795 0.0936834656 -0.5491016383 0.0931869184 -0.5493047426 -0.0323145893 0.1787038824
665296010.0 -0.0010625757 0.187901326 0.0872782526 -0.5502310034 0.0871490792 -0.5498148044 -0.0305508717 0.1795067326
670295980.0 0.0001742365 0.1885750009 0.0816726175 -0.55121828 0.0817681093 -0.5505774394 -0.0292505499 0.1797437119
675295950.0 0.0028357155 0.1886550369 0.075735053 -0.5516469805 0.0760298734 -0.5514185074 -0.0280368569 0.1804116332
680295920.0 0.0046382292 0.1885221534 0.0697464452 -0.5524661023 0.069259748 -0.5532018111 -0.0255024375 0.1815178545
685295890.0 0.0069039926 0.1890216656 0.0637128447 -0.55290367 0.0636516478 -0.5531940246 -0.0237382988 0.1815625886
690295860.0 0.0092123695 0.1888034679 0.0578028622 -0.5538229066 0.0580388743 -0.5540469414 -0.0222092692 0.1825589951
695295830.0 0.011123228 0.1885872027 0.0521960422 -0.5542029223 0.0512727053 -0.5542398581 -0.0201162941 0.1828596033
700295800.0 0.0132024125 0.1885363024 0.0456877772 -0.5546753413 0.045427541 -0.5548191442 -0.0187397874 0.1836486875
705295770.0 0.0150295801 0.189278598 0.0397923977 -0.5553879785 0.0399560044 -0.5555034527 -0.0169409456 0.1835980499
710295740.0 0.0175698882 0.1890005456 0.0338647757 -0.5561743981 0.034210929 -0.5561723372 -0.0154117034 0.1834841178
715295710.0 0.0192606814 0.1886339214 0.0279459673 -0.5563165451 0.0275622783 -0.5561220748 -0.0133487023 0.1840065139
720295680.0 0.0212702771 0.1887797526 0.0217067644 -0.5565587301 0.0218083887 -0.5562446949 -0.0115355389 0.1850182788
725295650.0 0.0238153931 0.1887145232 0.0156806516 -0.5568320815 0.0156827896 -0.5567839624 -0.010117021 0.1849995732
730295620.0 0.025825487 0.1888678924 0.0095134141 -0.5570224736 0.0102671918 -0.5566928157 -0.0085795356 0.1849442884
735295590.0 0.0277024469 0.188449882 0.0040098747 -0.5566931498 0.0038347499 -0.5566409512 -0.0071749437 0.1850761773
740295560.0 0.0296488775 0.1883832827 -0.0022319989 -0.5562281123 -0.0021420333 -0.5566224758 -0.0043925272 0.1854743612
745295530.0 0.031836589 0.1880296489 -0.0083331122 -0.5560168315 -0.0083261358 -0.5562801935 -0.0029183002 0.1852214723
750295500.0 0.0341257332 0.1880254309 -0.0139338523 -0.556144913 -0.0137497606 -0.5565046041 -0.001454815 0.1857924511
755295470.0 0.0361861407 0.1875574794 -0.0199787983 -0.5557503997 -0.0201488995 -0.5561935399 0.0007129293 0.1852152058
760295440.0 0.0380481464 0.1876175158 -0.0259094664 -0.5563486094 -0.0260507992 -0.5564865132 0.0022549219 0.1856626192
765295410.0 0.0402469038 0.1871722614 -0.0323496357 -0.5556917838 -0.0325974332 -0.5554607657 0.0042119739 0.1859728422
770295380.0 0.0419680564 0.1869097776 -0.0384335376 -0.5551921174 -0.0383282891 -0.5551543212 0.0057921625 0.1856179453
775295350.0 0.0438238143 0.1859449517 -0.0438998825 -0.5540185391 -0.0435054685 -0.554450693 0.0072194021 0.1859520094
780295320.0 0.0464029659 0.1860235775 -0.0504161525 -0.5535751537 -0.0492054468 -0.5537939355 0.0090316102 0.1854974598
785295290.0 0.0478666225 0.1853063504 -0.0566483314 -0.5531425001 -0.0559764147 -0.5533684766 0.0120084989 0.1859436176
790295260.0 0.0505667073 0.185476777 -0.0617770863 -0.5526354472 -0.0615000752 -0.552718682 0.0134807131 0.1859452631
795295230.0 0.052333936 0.1847717339 -0.0679745138 -0.5520219646 -0.0671920943 -0.5521311694 0.015440236 0.186128156
800295200.0 0.0541162815 0.184276168 -0.0741461782 -0.550987223 -0.0740479334 -0.5507940246 0.0173256947 0.185815263
805295170.0 0.0564286476 0.1838279563 -0.0797140629 -0.5502389541 -0.0798535363 -0.5506270175 0.0191735753 0.186129159
810295140.0 0.0581513995 0.1829243487 -0.0853097912 -0.5488585189 -0.0857330177 -0.5493559622 0.0212896177 0.1858332858
815295110.0 0.0603028198 0.1821679534 -0.091508149 -0.5481107214 -0.0913663059 -0.5480781155 0.0226884973 0.1860249697
820295080.0 0.0618450839 0.1826113587 -0.097476744 -0.547221757 -0.0969738895 -0.5470466563 0.0248287305 0.1856947584
825295050.0 0.0647125527 0.1814802834 -0.103021084 -0.5457534524 -0.1028738984 -0.5462944537 0.0268889231 0.1857455202
830295020.0 0.0664495278 0.1812894663 -0.1092949685 -0.5447859936 -0.1092303314 -0.5449299468 0.0290993977 0.1859387535
