!Created with skrf (http://scikit-rf.org).
# Hz S RI R 50.0 
!freq ReS11 ImS11 ReS21 ImS21 ReS12 ImS12 ReS22 ImS22
300000.0 -0.2424917163 -0.0759562621 0.4727303512 0.0506673793 0.4689107868 0.0487340832 -0.2423275355 -0.0882874606
5299970.0 -0.2444171663 0.0072993557 0.4733886544 0.0048133883 0.4739241019 0.0050095111 -0.244291088 0.0075211948
10299940.0 -0.2408010155 0.0188583746 0.4752064004 0.0060949522 0.475507661 0.0063608046 -0.2408673404 0.0201226746
15299910.0 -0.2369078212 0.0280624381 0.4792082931 0.0075856142 0.4795110798 0.0077001376 -0.2363722682 0.0296912839
20299880.0 -0.2320500153 0.0355254828 0.4838239318 0.0082917044 0.4840709696 0.0085303218 -0.2311743612 0.0373837393
25299850.0 -0.2270821931 0.0422513922 0.4891863794 0.0072161052 0.4890859591 0.0077049974 -0.225027436 0.0438286529
30299820.0 -0.2217337457 0.0470040309 0.4942892325 0.0054985598 0.4944775058 0.0051740218 -0.2191382682 0.0492219651
35299790.0 -0.2163520402 0.0512561483 0.4997801218 0.0019884025 0.4998903255 0.0017861224 -0.2137339135 0.0532638259
40299760.0 -0.2112604688 0.0550405272 0.5047693621 -0.0017625708 0.5054611199 -0.0016910925 -0.2083486304 0.0561389374
45299730.0 -0.2067205163 0.057725433 0.5096345755 -0.0063155138 0.510226888 -0.0063990482 -0.2033822825 0.0587150269
50299700.0 -0.2023224105 0.0597157493 0.5143096309 -0.012164566 0.5141992245 -0.011734916 -0.1984733809 0.0604527749
55299670.0 -0.1984577573 0.0617617238 0.5183082345 -0.0183092234 0.5178299382 -0.0177604322 -0.1946606335 0.0620578903
60299640.0 -0.1943083741 0.0634461504 0.5212287672 -0.0246362718 0.5216278742 -0.0238230548 -0.1903822304 0.062967771
65299610.0 -0.1909498813 0.064857461 0.5238034429 -0.030911142 0.5243608178 -0.0307558973 -0.1872327495 0.0638231347
70299580.0 -0.1878706016 0.0662405919 0.526809373 -0.0373020924 0.526620621 -0.0373553702 -0.1839550236 0.0646900796
75299550.0 -0.1852822977 0.0671127519 0.5285240503 -0.0437928723 0.5281771239 -0.0442267908 -0.180850371 0.0652221798
80299520.0 -0.1827928639 0.0682853135 0.5305688672 -0.0509637706 0.5307619212 -0.0508038198 -0.178400642 0.0663192102
85299490.0 -0.1802420494 0.0687852106 0.5317185684 -0.0575285612 0.5319635153 -0.0573800208 -0.1763230279 0.0661360849
90299460.0 -0.1779490003 0.0696657896 0.5322972724 -0.065004027 0.5327782155 -0.0645524271 -0.1737150115 0.0665265934
95299430.0 -0.1754616127 0.0703778581 0.5340069276 -0.0717748226 0.5338287659 -0.0717073401 -0.1714874894 0.0672425095
100299400.0 -0.1740251621 0.0716533522 0.5337682971 -0.0785894392 0.5337969831 -0.0783720288 -0.1691538684 0.0675830422
105299370.0 -0.1718960518 0.0723440697 0.5343800553 -0.085540198 0.5348043085 -0.0855633257 -0.1678430298 0.0680797638
110299340.0 -0.170457969 0.0732327354 0.5345821493 -0.0917831898 0.5346851641 -0.0919799326 -0.1664632524 0.0685788203
115299310.0 -0.1686941359 0.0741972375 0.5344375327 -0.0991146363 0.5343669 -0.0991073966 -0.1647596642 0.0688738713
120299280.0 -0.1673800015 0.074488998 0.5340047245 -0.1059831929 0.5343517806 -0.1058430007 -0.1636028429 0.0696909315
125299250.0 -0.1660152701 0.0755080573 0.5339842684 -0.1126717206 0.5341084304 -0.1122929776 -0.1625344338 0.0697472588
130299220.0 -0.1650628413 0.0766382182 0.5333289306 -0.1196264064 0.533300767 -0.1195571207 -0.1613091885 0.0705705491
135299190.0 -0.1638551083 0.0778038006 0.533289996 -0.1256861608 0.5323633601 -0.1260187439 -0.1596426196 0.0714169416
140299160.0 -0.1627977474 0.0790509669 0.5320962246 -0.1327520593 0.5318919241 -0.1328870075 -0.1588946255 0.0723946413
145299130.0 -0.1615318559 0.0800384097 0.5310698546 -0.1393134771 0.5309508361 -0.1393125042 -0.1579133119 0.0728702453
150299100.0 -0.1603459642 0.0809334077 0.5297245384 -0.1452763708 0.5301732237 -0.14560598 -0.157251896 0.0737930794
155299070.0 -0.159488466 0.0821493884 0.5289806259 -0.1528785155 0.5287460845 -0.1524223675 -0.1559775413 0.0748296961
160299040.0 -0.1583341724 0.0835166007 0.5275420676 -0.1587191499 0.527020134 -0.1588517364 -0.1558294426 0.0754672155
165299010.0 -0.1572610566 0.0847545374 0.5259012969 -0.1655951671 0.5259502209 -0.1656701695 -0.1542429611 0.0769216249
170298980.0 -0.1567590059 0.0858740858 0.524434687 -0.171750714 0.5243481783 -0.1714297887 -0.1535902549 0.0776052321
175298950.0 -0.1557999574 0.0871282911 0.5230712702 -0.1773324508 0.5224465183 -0.1778872163 -0.153221808 0.0787486028
180298920.0 -0.1547392896 0.0883664001 0.5206926579 -0.1840443772 0.5209364055 -0.1837309494 -0.1522339967 0.07974549
185298890.0 -0.153545198 0.0895275101 0.5192773045 -0.1904246033 0.5191758985 -0.189891568 -0.1515417156 0.0808456042
190298860.0 -0.1528046077 0.0910121208 0.5176835142 -0.1971157062 0.5175670939 -0.1966519011 -0.1507025751 0.0818560931
195298830.0 -0.1520092691 0.091925178 0.5150386065 -0.2026804416 0.5151389055 -0.2024023239 -0.1500289088 0.0830095048
200298800.0 -0.1507024658 0.0936735769 0.5130624353 -0.2090729099 0.5134985724 -0.2090816315 -0.1495595516 0.0840392859
205298770.0 -0.1499997218 0.0950711756 0.5108500098 -0.215147034 0.5107480251 -0.2147497101 -0.1486015791 0.0846354559
210298740.0 -0.1487890095 0.0962996805 0.5083430236 -0.2207548235 0.5082545727 -0.2204465961 -0.1476527255 0.0865299115
215298710.0 -0.1482451406 0.0978241675 0.5063463911 -0.226863964 0.5063845306 -0.2271016698 -0.1473007315 0.0877477494
220298680.0 -0.1470767695 0.0990532432 0.5031022555 -0.2325385102 0.5036494849 -0.2323995953 -0.1466817736 0.0884317103
225298650.0 -0.1465483915 0.1003807283 0.5011158008 -0.2386129976 0.501506109 -0.2384485216 -0.1461938866 0.0897033959
230298620.0 -0.1451435301 0.1022471059 0.49895217 -0.2441641281 0.4991153674 -0.2443989016 -0.1454285465 0.0907053439
235298590.0 -0.1442921797 0.1040264379 0.4961690959 -0.2498708345 0.4964003084 -0.2496719487 -0.1446248066 0.0921094847
240298560.0 -0.1430864891 0.1050686613 0.4938692898 -0.2559173295 0.4935479723 -0.2558612882 -0.144059572 0.09332656
245298530.0 -0.1423044207 0.1064094159 0.4913052965 -0.2617740195 0.490819826 -0.2617319896 -0.1429795768 0.0943980839
250298500.0 -0.1408625203 0.1080751044 0.4877494727 -0.2670224653 0.487737459 -0.2671081021 -0.1422541868 0.0957564058
255298470.0 -0.1401063988 0.1090292012 0.4841833365 -0.2722970293 0.4848831829 -0.2727173866 -0.1413530419 0.0967132636
260298440.0 -0.1392983594 0.1104374445 0.4815988792 -0.2781681816 0.4822463125 -0.2783837612 -0.1403589872 0.0980438611
265298410.0 -0.1377106157 0.1125115773 0.4790792516 -0.2839609997 0.479352648 -0.2837940125 -0.1398352603 0.0995486804
270298380.0 -0.1365607825 0.1138219214 0.4761239018 -0.2888894989 0.4759698841 -0.2891970508 -0.139072219 0.100858523
275298350.0 -0.1351941986 0.1152069155 0.4729047889 -0.2948863416 0.4730367016 -0.2947374088 -0.1377797622 0.1018963625
280298320.0 -0.1340492133 0.1168791675 0.4696109364 -0.3002098161 0.4700448289 -0.2999972558 -0.1367502689 0.1031010635
285298290.0 -0.1329646378 0.1185007252 0.46634965 -0.3053077574 0.4660907542 -0.3056217698 -0.1358482661 0.1043619675
290298260.0 -0.1314795409 0.1197359132 0.4630170511 -0.31067208 0.4629891606 -0.3105547599 -0.1348819789 0.1058895355
295298230.0 -0.130284761 0.1208821073 0.4597610316 -0.3157191448 0.4598826416 -0.3159099216 -0.1337668899 0.1067310305
300298200.0 -0.1294710755 0.1224369872 0.4564787171 -0.3212229898 0.4568593008 -0.3214748457 -0.1328519935 0.1082925629
305298170.0 -0.1277464844 0.123653414 0.4524643581 -0.3263119144 0.4529035634 -0.3265086423 -0.1313808685 0.1093001275
310298140.0 -0.1266471959 0.1253650743 0.4491497554 -0.3318804061 0.4492845025 -0.3315902174 -0.1308292005 0.1101873758
315298110.0 -0.1253340182 0.1262905835 0.4457878909 -0.3367776682 0.4461276439 -0.3367202869 -0.1298471069 0.1116832883
320298080.0 -0.1236843261 0.1276163202 0.4414863011 -0.3421961379 0.4419640517 -0.3420506104 -0.1285541336 0.1130276975
325298050.0 -0.1227643467 0.128857527 0.4380575127 -0.3469675011 0.4379237187 -0.3467558125 -0.1282803708 0.1137818037
330298020.0 -0.1215406632 0.1300067668 0.4335528536 -0.3522136472 0.4341027015 -0.35183656 -0.1273665787 0.1153062196
335297990.0 -0.120159837 0.131431293 0.4301659272 -0.3567442135 0.429834716 -0.3568652668 -0.1264733127 0.1169564102
340297960.0 -0.1194231031 0.1330722686 0.4255890904 -0.3614522509 0.4252211808 -0.3618691682 -0.1252962018 0.1180847185
345297930.0 -0.1177427134 0.134639366 0.4217181591 -0.3666706501 0.4215224218 -0.3665788991 -0.1242270862 0.119084817
350297900.0 -0.1166587925 0.1356691524 0.4170784644 -0.3708434733 0.4173433783 -0.3710653628 -0.1237930345 0.1210878943
355297870.0 -0.11508575 0.1375068388 0.4130714515 -0.3757590981 0.4136721122 -0.3754069003 -0.1225745095 0.122050345
360297840.0 -0.1137112341 0.1387401865 0.4098364863 -0.3796442306 0.4095451752 -0.3799621371 -0.1213829895 0.1237163212
365297810.0 -0.1127549702 0.1404256221 0.4048566743 -0.3843017355 0.4053486867 -0.3845751029 -0.1199743214 0.125045797
370297780.0 -0.1106854332 0.1415581837 0.4006700426 -0.3888409571 0.4010456955 -0.388638076 -0.11937816 0.1262045963
375297750.0 -0.1092240567 0.1429434291 0.3962937078 -0.3934024691 0.3968681232 -0.3935658151 -0.1183208708 0.1276135252
380297720.0 -0.1078989602 0.1442647978 0.3920725525 -0.3978795028 0.3922727189 -0.3971661753 -0.1173358929 0.1287226038
385297690.0 -0.1064599169 0.1455644926 0.3875942518 -0.4018318814 0.3875092184 -0.4017180324 -0.1156682741 0.1300660891
390297660.0 -0.1049739627 0.1470039865 0.3831912982 -0.4063379776 0.3831327082 -0.4060575287 -0.1148031458 0.1315664459
395297630.0 -0.1031072505 0.1480867538 0.3784777227 -0.4104229795 0.3787659835 -0.4102868853 -0.113057857 0.1326943748
400297600.0 -0.1016789732 0.1496565341 0.3738440195 -0.4149074333 0.3743768418 -0.4147808303 -0.1122369513 0.1338849445
405297570.0 -0.1002755611 0.1505484761 0.3697824971 -0.4181893781 0.3698634656 -0.4185129085 -0.111173291 0.1351685756
410297540.0 -0.0987580697 0.1520978458 0.3648298183 -0.4230104466 0.3656096155 -0.4228589051 -0.1100582397 0.1362642962
415297510.0 -0.096668738 0.1531635288 0.3600231564 -0.426807771 0.3608712672 -0.4268791206 -0.1084837199 0.1373676711
420297480.0 -0.0952563055 0.1548607761 0.3558638296 -0.4307744598 0.355828423 -0.430799505 -0.1078863448 0.1383282574
425297450.0 -0.09337954 0.1552187535 0.3506716901 -0.4343989405 0.3512806595 -0.4345637425 -0.1066008086 0.139961636
430297420.0 -0.0916790865 0.1565974436 0.3462111961 -0.4379764767 0.3461662322 -0.4379529047 -0.105146993 0.1408007907
435297390.0 -0.0901234029 0.15806726 0.3408347715 -0.4417251027 0.3411073754 -0.4418563253 -0.1033310038 0.1417150785
440297360.0 -0.088356399 0.1589877016 0.336485422 -0.4454225293 0.3364925675 -0.4455700084 -0.1022518306 0.1432129286
445297330.0 -0.0869633841 0.1597075846 0.331969415 -0.4490175954 0.3318811876 -0.4488130207 -0.1006518376 0.1439778913
450297300.0 -0.0847672753 0.1609585382 0.3266100462 -0.4527576626 0.3267633531 -0.453150815 -0.0994872887 0.1448348863
455297270.0 -0.0833832485 0.1622343124 0.3214673514 -0.4563418322 0.3219739155 -0.4566726675 -0.0980112396 0.1459777053
460297240.0 -0.0815150668 0.1632416383 0.3162628852 -0.4592965093 0.3166035608 -0.4598476691 -0.0967478544 0.1471813141
465297210.0 -0.0794594829 0.164344285 0.3116446055 -0.4632203212 0.311394991 -0.4638789043 -0.0950597086 0.1481097132
470297180.0 -0.0775156364 0.1652014327 0.3060468491 -0.4671094514 0.3066462808 -0.4668910357 -0.0936463426 0.1495831695
475297150.0 -0.075916043 0.1660087861 0.3010236745 -0.4697091758 0.3011158132 -0.4699519266 -0.0920120051 0.1500125781
480297120.0 -0.0742380636 0.167473513 0.2962474759 -0.4733811318 0.2959378832 -0.4732481381 -0.0903696878 0.1512842285
485297090.0 -0.0726117229 0.1680609912 0.2913184587 -0.4760282875 0.2912365359 -0.4762278549 -0.0889893281 0.1523809659
490297060.0 -0.0709017318 0.1691537662 0.2862129557 -0.479594107 0.2858452893 -0.4790406657 -0.0875743274 0.1534171197
495297030.0 -0.0688797781 0.1701065725 0.280292628 -0.4825464698 0.2810227182 -0.4825604467 -0.0864265418 0.1546357251
500297000.0 -0.0668581249 0.1708502486 0.2752435832 -0.4850244619 0.274843509 -0.4852777093 -0.0848437581 0.1561869336
505296970.0 -0.0649221581 0.1718153749 0.2698206688 -0.4881650252 0.2699401208 -0.4883616074 -0.0833048361 0.1564589194
510296940.0 -0.0631072447 0.1728627877 0.2647229877 -0.4916116695 0.2645659875 -0.4916824139 -0.081723257 0.1578001472
515296910.0 -0.0610450341 0.1735560754 0.2590161257 -0.4938708807 0.2593039198 -0.4943108841 -0.0801430121 0.1586346765
520296880.0 -0.0595672845 0.1743232263 0.2538929801 -0.4971672725 0.2538775975 -0.4968321556 -0.0788257315 0.1591606463
525296850.0 -0.0571582323 0.1748228622 0.2480350282 -0.4996558929 0.2483870996 -0.4996670041 -0.0773333844 0.1605119252
530296820.0 -0.0554328599 0.1756670217 0.2429750656 -0.5024699708 0.2431587489 -0.5025572997 -0.0756352859 0.1613162753
535296790.0 -0.0539887543 0.1765690622 0.2379658483 -0.5049445058 0.2375062688 -0.504432694 -0.0743319391 0.1619152255
540296760.0 -0.0517552856 0.1775967368 0.2322081865 -0.5079799922 0.2319437159 -0.5075112687 -0.0729589592 0.1631594573
545296730.0 -0.0501212441 0.178050253 0.2265956269 -0.5099673084 0.226299152 -0.5098537606 -0.0714612812 0.1640560591
550296700.0 -0.0476117268 0.1790737098 0.2205904848 -0.5125178942 0.2207878996 -0.5124362316 -0.0697299197 0.1650224583
555296670.0 -0.0458740572 0.1793815426 0.2152361107 -0.5144938463 0.2155607122 -0.5145381287 -0.067996226 0.1660652585
560296640.0 -0.0435354421 0.1805311808 0.2094627627 -0.5171827355 0.2096595304 -0.5171414427 -0.066444264 0.1667396892
565296610.0 -0.0420045669 0.1808673707 0.2038552446 -0.5193711869 0.204398073 -0.5191038792 -0.0652705611 0.1668198116
570296580.0 -0.0400744019 0.1811760173 0.1985451262 -0.5219007178 0.1978172514 -0.5217381327 -0.0635119138 0.1687324658
575296550.0 -0.0378260414 0.1820990451 0.1926382589 -0.5238161465 0.1925477285 -0.5237671335 -0.0618307433 0.1687694174
580296520.0 -0.0357670359 0.1827521602 0.186716376 -0.5259782533 0.1867704485 -0.5254864828 -0.0599527236 0.1694602788
585296490.0 -0.0339497557 0.182826524 0.1813059548 -0.5271905101 0.1815544301 -0.5277402309 -0.0586266021 0.1703382494
590296460.0 -0.0317220987 0.1834863918 0.1758458368 -0.5287531457 0.1757118601 -0.5294154401 -0.0575505262 0.1711771917
595296430.0 -0.0296807665 0.1840289355 0.1694312235 -0.5311563414 0.1695584797 -0.5310782619 -0.0554244727 0.1713479718
600296400.0 -0.0278854161 0.1844680361 0.1637408909 -0.533076006 0.1641110556 -0.5326910088 -0.0540013926 0.1720233583
605296370.0 -0.0257115931 0.1848000026 0.1581074571 -0.5345693595 0.1587087275 -0.5345639311 -0.0521526845 0.1729535938
610296340.0 -0.0237127209 0.1852751055 0.1523045745 -0.5362380759 0.152452014 -0.536446543 -0.0501164816 0.1734417907
615296310.0 -0.0215654405 0.1856060312 0.1463200333 -0.5379084876 0.1462449763 -0.538309151 -0.0483899724 0.1737873744
620296280.0 -0.0195277215 0.1857374028 0.1407550687 -0.5391843504 0.1406619488 -0.5392273129 -0.0471190381 0.1746384114
625296250.0 -0.0179204776 0.185907525 0.1357366035 -0.5408639003 0.1347841996 -0.5411842896 -0.0449723754 0.1750544449
630296220.0 -0.0148695154 0.1867083188 0.1281663159 -0.542812717 0.1287374145 -0.5422634916 -0.0433428209 0.1758596001
635296190.0 -0.0140172315 0.1870010794 0.1230468834 -0.5437340797 0.1231626445 -0.5436382527 -0.0414161943 0.1764876909
640296160.0 -0.0115915956 0.1871968336 0.11733658 -0.5445899 0.1175160544 -0.5451177483 -0.0399450712 0.1771203791
645296130.0 -0.0093081005 0.187601447 0.1110142268 -0.5454576552 0.1117315323 -0.5459993457 -0.0380781462 0.1776666542
650296100.0 -0.0072632158 0.1875612572 0.1055658473 -0.5471924035 0.1056872701 -0.5470859839 -0.036148766 0.1776843682
655296070.0 -0.0055382483 0.1876830588 0.0999077887 -0.5480995468 0.0997846986 -0.5481207336 -0.03434265 0.1783179409
660296040.0 -0.0037332433 0.1876702982 0.0936193441 -0.5492570128 0.0934719044 -0.549384845 -0.0325001356 0.1789115225
665296010.0 -0.0009150148 0.1878390191 0.0870232201 -0.5504271134 0.0877163756 -0.5500965319 -0.0306603564 0.1798508285
670295980.0 0.0002655261 0.188715473 0.0817091845 -0.5511155801 0.0818122177 -0.5511410786 -0.0293776324 0.180030282
675295950.0 0.0026275396 0.1884335653 0.0755307179 -0.5517091234 0.0759582632 -0.5511584733 -0.0277081479 0.1805246146
680295920.0 0.0047195768 0.188310647 0.0694739419 -0.5528881502 0.0692799204 -0.5530070422 -0.0259944203 0.1815571951
685295890.0 0.006962791 0.1890353892 0.0638426716 -0.5535883796 0.0634543084 -0.5532034477 -0.0241673332 0.1816883969
690295860.0 0.0093393051 0.1889174532 0.0581011066 -0.5535704436 0.0574059068 -0.5543544568 -0.0222392496 0.1826572231
695295830.0 0.0111281094 0.1887824033 0.0521260349 -0.5544977645 0.0515970446 -0.5543800248 -0.020238041 0.1824424129
700295800.0 0.013332279 0.1885861579 0.0456843342 -0.554604166 0.0454156517 -0.5548579565 -0.019047072 0.1832919941
705295770.0 0.0150698964 0.1892141864 0.0398660732 -0.5554636543 0.0398395186 -0.5554221557 -0.0170877922 0.1835112857
710295740.0 0.0177940618 0.1887030957 0.0339086539 -0.5559666503 0.0343255828 -0.556384117 -0.0153883904 0.1836518928
715295710.0 0.0193376893 0.188758615 0.0283285888 -0.5561953215 0.0276611008 -0.5558697827 -0.0135458613 0.1838054202
720295680.0 0.0213615575 0.1887157533 0.0215488623 -0.5567309488 0.0220805594 -0.5565003517 -0.0114201651 0.1845304675
725295650.0 0.0238873595 0.188517253 0.0157333373 -0.5568926051 0.0161494902 -0.556902894 -0.0104135492 0.1848184368
730295620.0 0.0258279986 0.1885229826 0.0096127047 -0.556514632 0.009973256 -0.5566623952 -0.0085292788 0.1846350751
735295590.0 0.0278674856 0.1888552153 0.0039857908 -0.5568413818 0.0039277623 -0.5569004211 -0.0069156656 0.1849188969
740295560.0 0.0295979338 0.1881671029 -0.0021817889 -0.5566252379 -0.0023988497 -0.5565030792 -0.0046955675 0.185664598
745295530.0 0.0317308869 0.1884688837 -0.0080441882 -0.556347041 -0.0084745782 -0.5565012885 -0.0030870393 0.185464354
750295500.0 0.034036296 0.1878236332 -0.0137568247 -0.5556833546 -0.0140138892 -0.556735448 -0.0012055869 0.1859529179
755295470.0 0.0360941831 0.1874249847 -0.0198470588 -0.5561587931 -0.0201705766 -0.55620146 0.0007802211 0.1854814557
760295440.0 0.0378707279 0.1873519275 -0.0259667949 -0.5560225249 -0.026326785 -0.5563039932 0.0027786793 0.1856463183
765295410.0 0.0400811346 0.1872483243 -0.0322317516 -0.555509812 -0.0325507426 -0.5558171521 0.0044250148 0.1859130641
770295380.0 0.0418009695 0.1865677338 -0.0383107143 -0.5553661139 -0.0381204578 -0.5549810396 0.0060336304 0.1856766287
775295350.0 0.0439890049 0.1859469006 -0.0443311963 -0.5542092179 -0.0436938539 -0.5548627915 0.007434448 0.1862857096
780295320.0 0.0461331922 0.186001223 -0.0503241414 -0.5536943252 -0.0495192756 -0.5539721246 0.0094757801 0.1857671836
785295290.0 0.0479650406 0.1850999594 -0.0561504697 -0.5531128587 -0.0561237317 -0.5536830154 0.0118151984 0.1861503585
790295260.0 0.0507192721 0.1853361234 -0.061700085 -0.5525970033 -0.061321963 -0.5527170162 0.0134494972 0.1861162786
795295230.0 0.0523572093 0.1846069604 -0.0680390015 -0.5521357456 -0.0675408756 -0.5521219137 0.0156758346 0.1863236652
800295200.0 0.054205303 0.1845531543 -0.0744035516 -0.5511962506 -0.0739118638 -0.5512193726 0.0172487594 0.186016374
805295170.0 0.0564482408 0.1835809006 -0.0799209565 -0.5504093441 -0.079640669 -0.5508274862 0.0192618752 0.1859960799
810295140.0 0.0578862854 0.1831204484 -0.0852127668 -0.549288924 -0.0857196835 -0.5496206472 0.0213016127 0.1862140664
815295110.0 0.0605263152 0.1824687715 -0.0917232921 -0.5477653174 -0.0916537761 -0.5484135842 0.0226657479 0.186056423
820295080.0 0.0621116632 0.1823212198 -0.097470431 -0.5470662074 -0.0967633899 -0.5471804078 0.0247820185 0.1861564494
825295050.0 0.0647860604 0.1814461262 -0.1030673877 -0.5457447429 -0.1036028821 -0.5462506663 0.0268555593 0.1860931078
830295020.0 0.0662218733 0.1813119604 -0.1093063364 -0.5449062772 -0.1095089985 -0.5446793862 0.0291269605 0.1859644308
