!Created with skrf (http://scikit-rf.org).
# Hz S RI R 50.0 
!freq ReS11 ImS11 ReS21 ImS21 ReS12 ImS12 ReS22 ImS22
300000.0 -0.3143558969 -0.1277455795 0.371729256 0.0645814793 0.3719849124 0.0646985804 -0.3169057078 -0.1307350893
5299970.0 -0.324805884 0.003065896 0.3783023965 0.0031279593 0.3788875427 0.0033172391 -0.3259429986 0.0019093268
10299940.0 -0.3225626477 0.0142941105 0.3799983297 0.0025862089 0.3798833865 0.0030210812 -0.3232904233 0.0125247821
15299910.0 -0.3188219079 0.0221490178 0.3817970706 0.0026215625 0.3823977507 0.0024903937 -0.3206251935 0.0199522472
20299880.0 -0.315806468 0.0289684164 0.3851095506 0.0016776549 0.3851682542 0.0018748171 -0.3179635462 0.0260846716
25299850.0 -0.3116370643 0.0347937143 0.3887581256 0.0005073515 0.3887551851 0.0001927344 -0.3149485585 0.0314350633
30299820.0 -0.3082141797 0.0393277714 0.3921720048 -0.0020515537 0.392006825 -0.002088515 -0.311996467 0.0355373688
35299790.0 -0.3044581254 0.0435909815 0.3950410056 -0.0050623436 0.3953741965 -0.00533786 -0.3090347574 0.039980734
40299760.0 -0.3012962064 0.0469209317 0.3984756901 -0.0083035835 0.3986183866 -0.0086321641 -0.3063910366 0.0433913312
45299730.0 -0.2980192353 0.0499184069 0.4011450458 -0.0125353027 0.4013669991 -0.0128246159 -0.3036095882 0.0467137318
50299700.0 -0.2948151068 0.053004956 0.403736746 -0.0171928539 0.4038434471 -0.0172226785 -0.3011175637 0.0497024594
55299670.0 -0.2925358513 0.0553363988 0.4061831233 -0.0216068879 0.4060056817 -0.0219990723 -0.2992483809 0.0522914242
60299640.0 -0.2898176284 0.0579199125 0.4079597581 -0.0269118678 0.4078812731 -0.0265854801 -0.29709518 0.0547669059
65299610.0 -0.287463786 0.0599987742 0.4098673144 -0.0310954455 0.4099218801 -0.0318820121 -0.2951036293 0.0575020501
70299580.0 -0.2851985939 0.0618981933 0.4109132919 -0.0365025846 0.4108439802 -0.0367540814 -0.2937946097 0.0597216504
75299550.0 -0.2833774653 0.0646200286 0.4115808247 -0.0420636888 0.4120676685 -0.0418923947 -0.2919561509 0.0622178897
80299520.0 -0.2816334211 0.0666476392 0.412920151 -0.0474877877 0.4129636677 -0.0473567884 -0.2904803339 0.0647025554
85299490.0 -0.2799372182 0.0685070916 0.4135575015 -0.0526341136 0.4134651705 -0.0525184554 -0.289348204 0.0671372693
90299460.0 -0.2781545785 0.0708487567 0.4135862107 -0.0581642138 0.4138414019 -0.0577720859 -0.2878578411 0.0693607248
95299430.0 -0.2769928703 0.0726851778 0.4141524642 -0.0629877917 0.4145023708 -0.0632955188 -0.2866060742 0.0722115004
100299400.0 -0.2754455711 0.0746337997 0.4141745047 -0.0683248021 0.4141699584 -0.0681208976 -0.2855315131 0.0744593876
105299370.0 -0.2738637371 0.0769127566 0.4138822516 -0.0735086104 0.4141630584 -0.0732862229 -0.2841447078 0.0764062156
110299340.0 -0.2727448448 0.0787646146 0.4138419672 -0.0782719028 0.4141029519 -0.0784344086 -0.2831966337 0.0786316153
115299310.0 -0.271400762 0.0811833933 0.4133885746 -0.0835550724 0.4133503942 -0.0837725308 -0.282073288 0.081223335
120299280.0 -0.2702326144 0.0830804055 0.4130294399 -0.0886254433 0.4130175533 -0.089112947 -0.2810736311 0.0833914063
125299250.0 -0.2695160102 0.0852471815 0.4125926389 -0.093741928 0.4126832347 -0.0937447723 -0.2801155707 0.0861064293
130299220.0 -0.2682017584 0.0872105119 0.4115925348 -0.098891667 0.4119420722 -0.0996079118 -0.2791319668 0.0884654351
135299190.0 -0.2674565361 0.0899579775 0.4113755587 -0.1039090095 0.4115243264 -0.1040377529 -0.2782467593 0.0907791614
140299160.0 -0.2664627882 0.0921222423 0.4107534758 -0.1089960376 0.4104233724 -0.1089071636 -0.2777428867 0.0930549802
145299130.0 -0.2654057243 0.0945102326 0.4097128182 -0.1138057565 0.4095325689 -0.1138317268 -0.2764853943 0.0958850668
150299100.0 -0.2641612475 0.0968791697 0.4086009664 -0.1189593343 0.4086000825 -0.1191815486 -0.2757035006 0.0986585009
155299070.0 -0.2631563702 0.0994368378 0.4070471227 -0.1237191414 0.4075298039 -0.123952807 -0.274801361 0.1010226254
160299040.0 -0.2621731784 0.1021971517 0.4062234662 -0.1286565446 0.4061963945 -0.1288014227 -0.2739655099 0.1033884771
165299010.0 -0.2609987808 0.1043749309 0.4046914602 -0.1332853601 0.4048746012 -0.1338252689 -0.2727957769 0.1059175278
170298980.0 -0.2603230141 0.1070709433 0.4032779929 -0.138340697 0.4036516443 -0.1384280527 -0.2720095448 0.1086146013
175298950.0 -0.259139828 0.1094529963 0.4022244187 -0.1433234167 0.4022102894 -0.1433197456 -0.2708137511 0.1114621667
180298920.0 -0.2580678657 0.1120156354 0.4006195904 -0.1479344797 0.4009307562 -0.1482838839 -0.2698334005 0.1139921885
185298890.0 -0.2573940298 0.1143472938 0.3998051532 -0.1526956386 0.3992249189 -0.152519614 -0.2688849911 0.1165127053
190298860.0 -0.2560186468 0.117188225 0.3973191046 -0.1571168319 0.3979330807 -0.1572340807 -0.2678164227 0.1194680968
195298830.0 -0.254680961 0.1195415741 0.3960930755 -0.1614518829 0.3960537384 -0.162082065 -0.2668730215 0.1217560872
200298800.0 -0.2534643918 0.1220569251 0.3942902069 -0.1667039837 0.3942758258 -0.1668547628 -0.2656956882 0.1245097808
205298770.0 -0.2528843885 0.1246182792 0.392254462 -0.1711184706 0.392561611 -0.1710152129 -0.264362247 0.1274642669
210298740.0 -0.2515935088 0.1276405966 0.3908267258 -0.1757054729 0.3903319542 -0.1758598829 -0.2635984645 0.1301108469
215298710.0 -0.2503284551 0.1299266174 0.3882010691 -0.1798871897 0.3886364999 -0.1805544772 -0.2623787357 0.1327491593
220298680.0 -0.2492025779 0.1324571699 0.3866043915 -0.1846354482 0.3865742524 -0.1847967424 -0.2610435366 0.1353029341
225298650.0 -0.2478098505 0.1352723371 0.3846004339 -0.1888502845 0.3846815303 -0.1888689836 -0.2599827013 0.1380738515
230298620.0 -0.2465949486 0.138008657 0.3825310079 -0.1933886467 0.3827923346 -0.193439261 -0.2586414815 0.1403805185
235298590.0 -0.2455592862 0.1405627625 0.3807031825 -0.1983173226 0.380641819 -0.1980135209 -0.2571808557 0.1434057235
240298560.0 -0.2440026553 0.1432333683 0.3782470566 -0.2020117578 0.3787495095 -0.2022503582 -0.2561576529 0.145834263
245298530.0 -0.2427294466 0.1456595785 0.3760195505 -0.2064471798 0.3762367114 -0.206131452 -0.2549258256 0.1485530806
250298500.0 -0.2416646932 0.1484130749 0.3737338294 -0.2106805099 0.3737892789 -0.2105360619 -0.2536991358 0.1517330622
255298470.0 -0.2402053779 0.1511521598 0.3715274446 -0.2147004261 0.3721400375 -0.2153062571 -0.2520973743 0.1545547829
260298440.0 -0.2388708871 0.1536579349 0.3692705544 -0.2188748803 0.3694791593 -0.218932806 -0.250823156 0.1565447325
265298410.0 -0.2374852243 0.156274422 0.3668056697 -0.2236220196 0.3667426367 -0.2235837705 -0.2486590603 0.1590332743
270298380.0 -0.2360920362 0.1585280821 0.3642181391 -0.2276919913 0.3643793612 -0.2275329455 -0.2473965345 0.1623774034
275298350.0 -0.2345154367 0.1615192852 0.3616735106 -0.2312713821 0.3617513769 -0.2315723449 -0.2455997525 0.1651284702
280298320.0 -0.23317617 0.1637055241 0.3593702872 -0.2352473204 0.3597257122 -0.23577484 -0.2442361849 0.1676009276
285298290.0 -0.2315098716 0.166534776 0.356729233 -0.239610958 0.3570783467 -0.2395604876 -0.2430044327 0.1705635065
290298260.0 -0.229841568 0.1692318332 0.3545282874 -0.2437498343 0.3544603752 -0.2436312932 -0.2409861078 0.1728608855
295298230.0 -0.2284626072 0.1716845353 0.3516917379 -0.2478795653 0.3516952929 -0.247982418 -0.2394578358 0.1752944961
300298200.0 -0.2265169838 0.1740445642 0.348491848 -0.2514980979 0.3489507187 -0.2515477117 -0.237538802 0.1781743225
305298170.0 -0.2251192496 0.1764316412 0.3459973405 -0.2554854998 0.3464138582 -0.2558924836 -0.2359269737 0.1805310122
310298140.0 -0.2234523572 0.1789321604 0.343335779 -0.2594073406 0.3435692019 -0.2594659529 -0.2337314798 0.1832582915
315298110.0 -0.2217139491 0.1811360074 0.3405472809 -0.2638428405 0.3405444265 -0.2635273894 -0.2321412398 0.1854557631
320298080.0 -0.2199661591 0.1837695082 0.3369693816 -0.2674185084 0.3376987312 -0.2673460991 -0.2307106451 0.1879981158
325298050.0 -0.2185969244 0.1855919552 0.3342685983 -0.2710294859 0.3348980039 -0.2714413442 -0.2284162318 0.1904505706
330298020.0 -0.2171494767 0.1883002603 0.3311176624 -0.2750748692 0.3316856549 -0.2749282553 -0.2269633893 0.1928580428
335297990.0 -0.2151591372 0.1907569916 0.3283244527 -0.2786185505 0.3285119074 -0.278482787 -0.2248490647 0.1950992531
340297960.0 -0.2136946081 0.1931856559 0.3247454473 -0.282252484 0.3250791779 -0.2823136684 -0.222842777 0.1979308466
345297930.0 -0.2117983496 0.1955953634 0.321975285 -0.2859365212 0.3220013782 -0.2862615941 -0.220793364 0.2005617796
350297900.0 -0.2100390454 0.1979970658 0.3186432177 -0.2892057059 0.3189676824 -0.2894616371 -0.2194941382 0.2029841745
355297870.0 -0.208103815 0.2000214548 0.3159082943 -0.2922234309 0.3156583407 -0.2926001805 -0.2170078149 0.2054244511
360297840.0 -0.2064387671 0.2028201222 0.312235626 -0.2964667304 0.3124140537 -0.296614084 -0.2153087534 0.2079931107
365297810.0 -0.2044410781 0.2049698641 0.3091171852 -0.2996926456 0.3091385091 -0.2995541477 -0.2133946993 0.2099829871
370297780.0 -0.2023524165 0.2072891445 0.3053901149 -0.3030849421 0.3058304967 -0.3030854702 -0.2112706162 0.2125193606
375297750.0 -0.2004487553 0.2097174328 0.3023153322 -0.3064449336 0.3024505131 -0.3062679627 -0.2089008009 0.2148884862
380297720.0 -0.198572746 0.2119997873 0.2991030447 -0.3099686347 0.2985802708 -0.3099014279 -0.2064216488 0.2174953168
385297690.0 -0.1966607289 0.2141172839 0.2954546391 -0.3131161499 0.2954304506 -0.3133766129 -0.2042773413 0.2199130806
390297660.0 -0.194124765 0.2159365068 0.2920138513 -0.3159379131 0.2921825869 -0.3161972231 -0.201951935 0.2218761026
395297630.0 -0.1917078235 0.2184630271 0.2885112414 -0.3190409636 0.2884520806 -0.3192046882 -0.1996940905 0.224044247
400297600.0 -0.1898934902 0.2203925519 0.2848180399 -0.3222614722 0.2851965758 -0.322652401 -0.1976343178 0.2267283281
405297570.0 -0.1879617275 0.2223849353 0.2814629903 -0.3254704169 0.281680774 -0.3257645072 -0.195042036 0.2292777618
410297540.0 -0.1854565056 0.2247757251 0.2778784123 -0.3286746312 0.2779641262 -0.3286459265 -0.1928031477 0.2313722136
415297510.0 -0.183766521 0.2269945503 0.2744169401 -0.3317228766 0.2742998546 -0.3319301555 -0.1902418904 0.2334317675
420297480.0 -0.1809725067 0.2286590657 0.2701819357 -0.3346942493 0.2707016432 -0.3350316401 -0.1878752638 0.2358277807
425297450.0 -0.1789048226 0.2305786938 0.2670891298 -0.3374812236 0.2665668657 -0.3374733584 -0.1851550383 0.2376523375
430297420.0 -0.1765630689 0.2327553189 0.2635576476 -0.340499473 0.2631018364 -0.3400323287 -0.1824632613 0.2396237146
435297390.0 -0.1740693633 0.2348127004 0.2594346749 -0.3437695522 0.2590529448 -0.3437701018 -0.1808673887 0.2426799124
440297360.0 -0.1714259447 0.2364701196 0.2550095726 -0.3461818715 0.255346988 -0.3460672447 -0.1781013684 0.2441551193
445297330.0 -0.1690260998 0.2381316651 0.2515892848 -0.3486987024 0.2517645931 -0.3489967787 -0.1754703011 0.2462983539
450297300.0 -0.1666284241 0.2402895675 0.2478639716 -0.3514884585 0.2483960462 -0.3517296586 -0.1726830977 0.2481163372
455297270.0 -0.1643626391 0.2420487734 0.2441730534 -0.3543070568 0.244199985 -0.3546469183 -0.1702909962 0.2501751819
460297240.0 -0.1616510985 0.2441900219 0.240101847 -0.3574951934 0.2401348866 -0.3569946225 -0.1677108695 0.2517405975
465297210.0 -0.1587670569 0.2457899766 0.2356057652 -0.3598195595 0.2356043543 -0.3598472401 -0.1645919259 0.2543337979
470297180.0 -0.1565928094 0.2476512998 0.2321247035 -0.3619599556 0.2321473597 -0.3622038844 -0.1619764631 0.2558534498
475297150.0 -0.1538901357 0.2495676991 0.2280732909 -0.3646132948 0.2282676877 -0.3647576583 -0.1592591491 0.2580703904
480297120.0 -0.151083028 0.2513908668 0.2239871845 -0.3672018075 0.2243864297 -0.3668129187 -0.1573092684 0.259807703
485297090.0 -0.148456378 0.2527318749 0.2199344551 -0.3694710806 0.2198408071 -0.369448296 -0.154058945 0.2617529517
490297060.0 -0.145272021 0.2547055177 0.2156908235 -0.37196012 0.2158777462 -0.3719796895 -0.1510911195 0.2632005834
495297030.0 -0.1429916611 0.2559922613 0.2119069163 -0.374078375 0.2117145299 -0.374402022 -0.1481226374 0.2649817701
500297000.0 -0.1406280096 0.2578625514 0.2081228144 -0.3765876278 0.2078924201 -0.3769036971 -0.1456773371 0.2670752096
505296970.0 -0.1374757134 0.2592788961 0.2037953364 -0.3789836665 0.2036843678 -0.3785579523 -0.1428100293 0.2678405527
510296940.0 -0.1345546737 0.2610557589 0.1994467966 -0.3812635278 0.1995081576 -0.3813191527 -0.1395610169 0.2703461049
515296910.0 -0.1318728823 0.2628103183 0.1952637299 -0.3832684126 0.1948378469 -0.3831110199 -0.1373422871 0.2713092076
520296880.0 -0.1288367052 0.2641257589 0.1908157224 -0.3849537516 0.19086001 -0.3850157099 -0.1341206328 0.2732759272
525296850.0 -0.1259687653 0.2654927908 0.1867131622 -0.3871429822 0.1862744794 -0.3869718993 -0.1310597697 0.2745376985
530296820.0 -0.1234643613 0.2671187717 0.1821453911 -0.3892899096 0.1824766314 -0.389070122 -0.1285287528 0.2762014325
535296790.0 -0.1198865336 0.2686828706 0.1779021862 -0.3909558375 0.1780921911 -0.3913411698 -0.1252632113 0.2780264999
540296760.0 -0.1172223256 0.2699589149 0.1740249659 -0.3930274229 0.1733329617 -0.3927109435 -0.1226388115 0.2790824532
545296730.0 -0.1143209519 0.2719205795 0.1696110462 -0.3948675777 0.1690765397 -0.3946298778 -0.1191127403 0.2807581892
550296700.0 -0.1111424983 0.2730199973 0.1650980559 -0.3966841001 0.1647203493 -0.3967532131 -0.1164556073 0.2821475339
555296670.0 -0.1083780435 0.2742929607 0.160757605 -0.3987746526 0.1606747021 -0.3982747769 -0.1138071717 0.2831533839
560296640.0 -0.105122238 0.275346467 0.1561744277 -0.3998307357 0.1565718642 -0.4002130922 -0.1105264362 0.2846686318
565296610.0 -0.1027951327 0.277098079 0.1520328504 -0.4019898965 0.1523403828 -0.4013652466 -0.1075006548 0.285998908
570296580.0 -0.099420187 0.278161345 0.1476252382 -0.4029004577 0.1476957373 -0.4032103574 -0.1044575184 0.2870712726
575296550.0 -0.0961370634 0.2793040437 0.1432618164 -0.4045533709 0.1430611678 -0.4046411013 -0.1012416953 0.2883235106
580296520.0 -0.0935093752 0.2805593684 0.1388634417 -0.4063320003 0.1387407907 -0.406465961 -0.0985674881 0.289485172
585296490.0 -0.0903629977 0.2819596385 0.134493661 -0.4074136912 0.1344536189 -0.4077783651 -0.0952311482 0.290959012
590296460.0 -0.0867502531 0.2829293083 0.1301062472 -0.4093201535 0.1299408535 -0.4093943871 -0.0924206921 0.2919656249
595296430.0 -0.0839523514 0.2839103524 0.1254289593 -0.4102712538 0.1251972571 -0.4105487092 -0.0895038255 0.2930563987
600296400.0 -0.080643415 0.2851897157 0.1203126333 -0.4117097089 0.1206240275 -0.4116739392 -0.085987239 0.2939587315
605296370.0 -0.0779235138 0.2862847058 0.1166812709 -0.4129794422 0.11615776 -0.4133471938 -0.0828188705 0.2954953667
610296340.0 -0.0746091865 0.2877249582 0.1119769717 -0.4137429463 0.1120834366 -0.4141262937 -0.0801076481 0.2963763009
615296310.0 -0.0710572373 0.2886799973 0.1071039559 -0.4155190588 0.1069423072 -0.4156341806 -0.0765899621 0.2973626922
620296280.0 -0.0686822735 0.2896558061 0.102751975 -0.4165321482 0.1026881841 -0.41634759 -0.0737304909 0.2983265712
625296250.0 -0.0654816888 0.2902564598 0.0982894427 -0.4172960304 0.0984921758 -0.4176846656 -0.0708309615 0.2990036462
630296220.0 -0.0621578099 0.2914655034 0.0935136747 -0.4185936692 0.0932385887 -0.4187098331 -0.0673678019 0.300095816
635296190.0 -0.0592676267 0.292569927 0.0892954456 -0.4190470867 0.0889214117 -0.418943647 -0.064274555 0.3003070478
640296160.0 -0.0561082857 0.293299121 0.0846283432 -0.420529598 0.0843496799 -0.4202148373 -0.0613948078 0.3014349078
645296130.0 -0.0528792104 0.2945040056 0.0799010969 -0.4210359755 0.0798728787 -0.4212313114 -0.0580313928 0.3020356877
650296100.0 -0.0496185791 0.2948003425 0.0755798704 -0.42204462 0.0750904508 -0.4220141559 -0.05446655 0.3026494607
655296070.0 -0.0465467962 0.295900535 0.0706316113 -0.4226309116 0.0705236352 -0.4223982044 -0.0518236352 0.3038574307
660296040.0 -0.0435764932 0.2964257151 0.0664323635 -0.4235316481 0.0659835469 -0.4236419395 -0.048009684 0.304020421
665296010.0 -0.0404471677 0.2973537814 0.0612825342 -0.4238405671 0.0613552702 -0.4238646754 -0.0450168553 0.3050158136
670295980.0 -0.0372952498 0.2981361901 0.0569865416 -0.4244289916 0.056940619 -0.4244079163 -0.0422765135 0.3055718486
675295950.0 -0.0341837741 0.2989922419 0.052413309 -0.4251899222 0.0521976649 -0.4251314054 -0.0386421178 0.3061035506
680295920.0 -0.0314456697 0.2993896993 0.0477760148 -0.425320757 0.0476862784 -0.4256434192 -0.0352288968 0.3063061219
685295890.0 -0.0277984807 0.3003365172 0.0429113817 -0.4263776422 0.0426838571 -0.4262731052 -0.0320288449 0.3072889688
690295860.0 -0.0247889836 0.3006355424 0.0385999581 -0.4264506165 0.0383981924 -0.4265996652 -0.0292023164 0.3076801908
695295830.0 -0.0216889777 0.3010097859 0.0343063717 -0.4270614819 0.0337920773 -0.4267222456 -0.0258890686 0.3081200806
700295800.0 -0.0183410944 0.3015955238 0.0295003962 -0.426975537 0.0293490219 -0.4272924126 -0.0224141688 0.3085492585
705295770.0 -0.0155959882 0.3021186683 0.0247466257 -0.4273185558 0.0247242638 -0.4275376279 -0.0196494738 0.3091967007
710295740.0 -0.0125570206 0.3024392207 0.0200194256 -0.4277231678 0.0197602347 -0.4277391614 -0.0160241082 0.3093599487
715295710.0 -0.0090515446 0.3028106269 0.0157361674 -0.4278551368 0.0150646186 -0.4280639962 -0.0128440857 0.3095189263
720295680.0 -0.0056446153 0.303249152 0.0106996529 -0.4278298411 0.0105229036 -0.4282685042 -0.0091942571 0.3096525753
725295650.0 -0.0029815762 0.3036212131 0.0061622449 -0.427958901 0.0061111051 -0.4281843316 -0.0065324536 0.3104096686
730295620.0 -0.0002920848 0.304112695 0.0015976036 -0.4274792202 0.001422102 -0.4275524586 -0.0034699375 0.3108181809
735295590.0 0.0031431944 0.304167227 -0.0031691396 -0.4279326535 -0.0029665163 -0.4280585402 7.95322e-05 0.3102992302
740295560.0 0.0060301122 0.304077712 -0.0072928858 -0.4277391281 -0.0073439569 -0.4280874289 0.0033319308 0.3108522536
745295530.0 0.0094670935 0.304528492 -0.0122811065 -0.4267550171 -0.0116919059 -0.4278552146 0.0062165536 0.3107737819
750295500.0 0.0121017576 0.3049800379 -0.0166069994 -0.4273632035 -0.0168813976 -0.4277139517 0.0095569359 0.3108676984
755295470.0 0.0152201882 0.3048661176 -0.0209504913 -0.4273437713 -0.0211036091 -0.4278215313 0.0130540403 0.3113329477
760295440.0 0.0180801698 0.305294961 -0.0264903497 -0.4271056923 -0.0260989742 -0.4267831477 0.016540103 0.3105686643
765295410.0 0.02150956 0.304769336 -0.0306488538 -0.4264840135 -0.0302955712 -0.4268091024 0.0194057718 0.3110138117
770295380.0 0.0244147455 0.3051199233 -0.0349530139 -0.4261398189 -0.0350984227 -0.4264905142 0.0226951619 0.3106610449
775295350.0 0.0272341059 0.3050762489 -0.0392794033 -0.4261523141 -0.0397207349 -0.4259209949 0.0260658604 0.3107326345
780295320.0 0.0307655372 0.3049948973 -0.0439121262 -0.4250603216 -0.044391727 -0.4254232522 0.0296279347 0.3107422064
785295290.0 0.0335098712 0.3047766811 -0.0489449892 -0.4249612265 -0.0483789537 -0.42501687 0.0321002195 0.3107724725
790295260.0 0.0365738466 0.3043081816 -0.0533845162 -0.4242661209 -0.0531249845 -0.424624803 0.035626134 0.3107841563
795295230.0 0.0398894777 0.304220946 -0.058257314 -0.4237759183 -0.0581006472 -0.4238259883 0.0389790792 0.3097294094
800295200.0 0.0424298105 0.3044286665 -0.0619565409 -0.4230022646 -0.062733243 -0.4232081006 0.0419795446 0.3098087377
805295170.0 0.0455699624 0.3042174272 -0.0668960525 -0.4222613306 -0.0670761968 -0.422703329 0.0456691349 0.3090850662
810295140.0 0.0489822458 0.3040068709 -0.0714995938 -0.4211723093 -0.0713968688 -0.4215377353 0.0486186579 0.3090316777
815295110.0 0.0516404383 0.303617016 -0.0757490127 -0.4207585157 -0.076067633 -0.4209907204 0.0517695071 0.3090474759
820295080.0 0.0548287905 0.3031739533 -0.0802340308 -0.4194286677 -0.0802620642 -0.4202671278 0.054580284 0.3086483819
825295050.0 0.0575084728 0.3027065711 -0.0847867618 -0.4188293925 -0.0851403769 -0.4190040048 0.0585337549 0.3080887291
830295020.0 0.0611758313 0.3022745196 -0.0896370322 -0.4180816242 -0.0897221468 -0.4180088134 0.0614181316 0.3072943615
