!Created with skrf (http://scikit-rf.org).
# Hz S RI R 50.0 
!freq ReS11 ImS11 ReS21 ImS21 ReS12 ImS12 ReS22 ImS22
300000.0 -0.7721927959 -0.1517496682 -6.72495e-05 0.0001063345 -0.0001418926 1.61468e-05 0.8597384723 -0.001967393
5299970.0 -0.785549981 -0.0073347463 3.14016e-05 -4.04639e-05 0.0001130446 -4.68568e-05 0.8587695598 -0.0103940831
10299940.0 -0.7877425029 -0.004071679 -6.99767e-05 -3.51118e-05 0.0001349833 -6.9361e-06 0.8582727455 -0.0193124913
15299910.0 -0.7934908762 -0.0013051227 1.15528e-05 3.59227e-05 -7.79396e-05 -1.88713e-05 0.8571622848 -0.0274332188
20299880.0 -0.7998824392 0.0025065483 -5.65796e-05 -0.000178208 0.0001024081 -0.000173138 0.8568304591 -0.0357539645
25299850.0 -0.8062701075 0.0082834869 0.0001148778 -3.4927e-05 5.982e-06 -6.83925e-05 0.855439406 -0.0433521079
30299820.0 -0.8124570555 0.0163107138 8.8616e-06 -2.18601e-05 -6.16742e-05 9.17612e-05 0.8548925599 -0.0525053153
35299790.0 -0.8163194353 0.0249429104 5.01451e-05 1.52875e-05 -0.000145058 -2.73709e-05 0.8540556641 -0.0598478387
40299760.0 -0.8212818036 0.0339866571 -1.77606e-05 4.419e-06 0.0001677947 -0.000120175 0.8535332356 -0.068794624
45299730.0 -0.8248706671 0.0438967081 9.78567e-05 2.85409e-05 -5.07067e-05 -5.57092e-05 0.852676233 -0.0769645483
50299700.0 -0.8267207294 0.05385582 -4.82691e-05 -5.86082e-05 -0.0001285099 -7.6038e-05 0.8518051477 -0.0849466364
55299670.0 -0.8287301311 0.0639963207 -0.0002421377 -8.74482e-05 7.62795e-05 -9.96555e-05 0.8503069086 -0.0930997478
60299640.0 -0.8294899574 0.0742651926 4.61092e-05 5.45246e-05 0.0002461811 5.44312e-05 0.8498071652 -0.102061389
65299610.0 -0.8313480809 0.0847166362 6.42602e-05 -7.78318e-05 0.0001072227 -7.2314e-05 0.8486547453 -0.1100278478
70299580.0 -0.8309787983 0.0945452699 -9.21735e-05 2.15358e-05 9.41663e-05 7.79541e-05 0.8480256892 -0.1187160008
75299550.0 -0.8312001438 0.1046312307 0.0001376025 3.68842e-05 -0.0001081915 3.65949e-05 0.8472392803 -0.1265433208
80299520.0 -0.8309622383 0.1145777855 0.0001065452 -0.0001832922 -0.0001118563 5.12945e-05 0.8456168863 -0.1339960616
85299490.0 -0.8308368018 0.1239102406 3.49097e-05 -7.64822e-05 -3.31871e-05 -5.4549e-05 0.8442274238 -0.1428704588
90299460.0 -0.8297534945 0.1342693326 0.0001019848 -1.44019e-05 -4.94561e-05 0.0001505643 0.8423846217 -0.1509554711
95299430.0 -0.8290159183 0.1435398355 -0.0001091606 -0.0001354898 -4.11398e-05 -3.33701e-05 0.840322602 -0.15922936
100299400.0 -0.8278618016 0.1529742896 0.0001385067 -0.00010476 -0.000166486 -0.0001300081 0.8389844734 -0.1674505893
105299370.0 -0.8268210766 0.1620436064 -0.0001752164 4.92755e-05 0.0003083276 -9.84372e-05 0.8377534772 -0.1759338325
110299340.0 -0.8252196334 0.1716079222 7.15608e-05 4.88631e-05 5.6268e-06 9.84324e-05 0.8353192172 -0.1834505507
115299310.0 -0.8239956621 0.1800199897 -0.0001522682 -9.20123e-05 6.904e-06 0.0001678637 0.8337241168 -0.1919746376
120299280.0 -0.8222735237 0.1891782888 3.33722e-05 1.24956e-05 -0.0001394132 0.0001030949 0.8316123073 -0.1998731784
125299250.0 -0.820103451 0.1984754126 -3.45731e-05 6.82747e-05 -6.95087e-05 -0.0001069525 0.8297065323 -0.208256323
130299220.0 -0.8182524467 0.2074752326 -3.86852e-05 0.0002133893 -4.27052e-05 9.50584e-05 0.827214797 -0.2162010445
135299190.0 -0.8162921984 0.2161222884 -0.0002378114 -0.0001091481 8.23454e-05 -1.83238e-05 0.8255958818 -0.2243909306
140299160.0 -0.8147343064 0.2253666609 0.0001572865 0.0001983745 -6.60196e-05 0.0001357982 0.8233949217 -0.2325553467
145299130.0 -0.8122215144 0.2343628286 0.0001387937 -3.75462e-05 -5.9486e-05 -0.0002106542 0.8207377051 -0.2404542583
150299100.0 -0.8099674662 0.2432604408 -0.0002071946 -8.37597e-05 5.70797e-05 -0.0001401958 0.8185948955 -0.2488529518
155299070.0 -0.8075713469 0.252045956 -0.0001619769 0.0001187024 -0.0001049209 -5.97015e-05 0.8155644801 -0.256049468
160299040.0 -0.8048525062 0.2608572004 0.0001269242 6.98328e-05 3.37325e-05 -0.0001418956 0.8129517426 -0.2644182718
165299010.0 -0.8021244614 0.2689316816 -2.51823e-05 0.0002271686 -0.0001051495 -1.70025e-05 0.8111797889 -0.2725327443
170298980.0 -0.7994522621 0.2776424957 8.14689e-05 7.51332e-05 -6.70269e-05 0.00031435 0.8078467064 -0.2801161524
175298950.0 -0.7966024517 0.2871544056 3.86113e-05 6.64408e-05 4.284e-07 9.5477e-06 0.8052925807 -0.2878109304
180298920.0 -0.7937937263 0.2950014072 2.4457e-05 0.0001099689 8.7519e-06 -3.78565e-05 0.802513355 -0.2958684375
185298890.0 -0.7907448317 0.304383204 -0.0002500666 -0.0001857521 -1.73366e-05 -0.0003361758 0.7992729052 -0.3036045424
190298860.0 -0.7872899738 0.3118571629 -7.14755e-05 5.27255e-05 -0.0001411072 -2.38501e-05 0.796749035 -0.3108713661
195298830.0 -0.7838347362 0.3208101748 0.0001802812 -0.0001637014 0.0001118655 -8.34427e-05 0.7934867301 -0.3191822324
200298800.0 -0.7805060856 0.3293163537 -2.70591e-05 2.2009e-05 0.0001531764 -1.67667e-05 0.7908643747 -0.3272930603
205298770.0 -0.7774834442 0.3372907226 -8.88197e-05 -0.0001649125 -6.4472e-05 -0.0001074743 0.7869968072 -0.3339676718
210298740.0 -0.7737314131 0.3462547435 4.10421e-05 -6.05255e-05 -9.23449e-05 0.0001203196 0.7838525508 -0.3419162386
215298710.0 -0.7703649966 0.3539711865 0.0002623245 0.0001690113 2.7673e-06 -9.56788e-05 0.7802163121 -0.3502268174
220298680.0 -0.7671658016 0.3624223672 -7.7375e-05 0.0001210419 5.38842e-05 -2.9487e-06 0.7771966062 -0.3569369691
225298650.0 -0.7626537989 0.3710771604 -4.53164e-05 -5.74555e-05 -0.0001028405 7.6594e-06 0.7731549318 -0.3645102431
230298620.0 -0.758876736 0.378639301 -7.86517e-05 -7.51114e-05 -2.32416e-05 0.0001106104 0.7698570963 -0.3727835879
235298590.0 -0.754553857 0.3869753756 1.98479e-05 -4.199e-06 -1.21202e-05 8.21507e-05 0.7664572602 -0.3793528605
240298560.0 -0.7511937547 0.3948178534 5.29025e-05 -8.66065e-05 -0.0001689294 -0.0001068058 0.7625566447 -0.3870393588
245298530.0 -0.7464508994 0.4030577705 0.0001788095 -0.0002422619 -0.0002253133 -0.0001799416 0.7585274649 -0.3942604074
250298500.0 -0.7421498224 0.4106393202 -0.000218952 3.9862e-05 -7.71376e-05 0.0002050387 0.7551017447 -0.4016412527
255298470.0 -0.7378818562 0.4186561407 9.54892e-05 -8.90001e-05 1.28402e-05 0.000119835 0.7515595032 -0.4089625755
260298440.0 -0.7336452789 0.4256632715 5.48947e-05 -0.0001271159 8.13627e-05 4.56525e-05 0.7473820596 -0.4161765478
265298410.0 -0.7295230455 0.4343052778 2.18257e-05 9.21768e-05 3.5358e-05 -1.49995e-05 0.743722856 -0.423780375
270298380.0 -0.7242737792 0.4413978853 0.0001268955 5.83155e-05 -3.20985e-05 -1.13457e-05 0.7395607652 -0.4305777796
275298350.0 -0.7195765823 0.4495244 0.0001668967 -0.0001053041 4.69024e-05 -7.20841e-05 0.7351290832 -0.4365882201
280298320.0 -0.7151549342 0.4564053433 -5.63297e-05 2.31071e-05 -4.39319e-05 -0.0001167691 0.7315191048 -0.4446698713
285298290.0 -0.7101183531 0.4643730991 -4.9287e-06 -4.37456e-05 7.83798e-05 -5.25476e-05 0.7267166771 -0.451241093
290298260.0 -0.705670613 0.4715914489 -4.27317e-05 -8.74623e-05 -5.08272e-05 -1.16391e-05 0.7230984096 -0.4587572591
295298230.0 -0.7005857261 0.4794998195 -6.08591e-05 9.16756e-05 -4.6144e-06 -4.24655e-05 0.7183984541 -0.4654237078
300298200.0 -0.6944808826 0.4861828339 -0.000141777 -0.0001150721 -0.00015397 4.09756e-05 0.7142049673 -0.4731113846
305298170.0 -0.6897464202 0.4939767095 -5.50777e-05 9.85588e-05 -0.0001595506 5.33016e-05 0.7102703585 -0.4793382569
310298140.0 -0.6843891582 0.5008845602 0.0001909368 0.0001686761 9.35979e-05 7.76923e-05 0.7061716579 -0.4865585878
315298110.0 -0.6797317057 0.5072460659 -4.0883e-06 -5.05296e-05 0.0001842059 9.54544e-05 0.7012641585 -0.4941298021
320298080.0 -0.6746250143 0.5156339937 -1.09452e-05 2.62339e-05 3.34431e-05 -8.0853e-05 0.6968678279 -0.501489453
325298050.0 -0.6688430981 0.5221395359 6.00097e-05 -8.38923e-05 3.02578e-05 2.81726e-05 0.6916272334 -0.5092062767
330298020.0 -0.66305461 0.529324753 8.32548e-05 0.0001014119 1.10923e-05 -9.92484e-05 0.6858397796 -0.5162179681
335297990.0 -0.6572232403 0.5362763231 -0.0001069023 5.51129e-05 4.9659e-05 2.78482e-05 0.6805287865 -0.5230878206
340297960.0 -0.651876619 0.5423247349 0.0001702974 -0.0001555005 0.0001140731 -4.22679e-05 0.6745570007 -0.5295339629
345297930.0 -0.6462626744 0.5492515302 -0.0001724002 -0.0001372458 7.05334e-05 -8.26889e-05 0.6684952015 -0.5354535597
350297900.0 -0.640382241 0.5560478897 0.0001767079 4.19759e-05 2.35506e-05 4.3694e-05 0.66368248 -0.5411327737
355297870.0 -0.6341306042 0.562074431 -0.0002157748 0.0001074676 0.0001231399 4.5581e-05 0.657927206 -0.54753024
360297840.0 -0.6281683594 0.5692983223 -4.73299e-05 4.97953e-05 1.28162e-05 3.15337e-05 0.6525168451 -0.5536320786
365297810.0 -0.6224678152 0.5751191831 -3.04e-07 0.0001857718 0.000117856 5.64449e-05 0.6469638237 -0.5600188904
370297780.0 -0.6163310356 0.5809815172 -0.0001201505 -0.0001434517 -1.83544e-05 -0.0001886403 0.641805157 -0.5658999078
375297750.0 -0.6104727539 0.5884001583 -0.0001138483 0.0002691942 -0.0001470507 8.54888e-05 0.6356816642 -0.5718151536
380297720.0 -0.6039202724 0.5946556586 9.43271e-05 -0.000209987 8.15501e-05 0.0001905985 0.6308061158 -0.5775644956
385297690.0 -0.5975867044 0.600615144 -0.0001225587 7.42126e-05 5.3975e-06 -3.90575e-05 0.6243534725 -0.5835631011
390297660.0 -0.5917575361 0.6072682326 0.0001563893 6.52668e-05 -1.39773e-05 -0.0001145663 0.6193539918 -0.589778971
395297630.0 -0.5850660717 0.6130633291 -2.99225e-05 8.4841e-06 5.54018e-05 -5.23341e-05 0.6135150691 -0.5949057093
400297600.0 -0.5789659191 0.6188044628 3.77063e-05 -8.43228e-05 -0.000131538 -4.08044e-05 0.6073490886 -0.6011747152
405297570.0 -0.5723806075 0.6245502903 -0.0002579457 8.85109e-05 -0.0001076748 0.0002338218 0.601689248 -0.6068439493
410297540.0 -0.5659352379 0.6310964485 0.0001262899 8.31615e-05 0.0001431543 -6.90525e-05 0.5962898321 -0.6123731705
415297510.0 -0.5594268945 0.6361529773 1.7048e-05 -2.87002e-05 0.0001134082 -0.0003544095 0.5894985421 -0.6178176062
420297480.0 -0.55158243 0.6425373381 4.31668e-05 0.0001680712 0.0001307125 -6.086e-07 0.5836659835 -0.6238407454
425297450.0 -0.5457374595 0.6477313353 -0.0001896702 -0.0001405693 0.0001273038 -0.0001880422 0.5777496475 -0.6290463864
430297420.0 -0.5395350714 0.6530566859 0.0002579187 -5.78399e-05 5.75608e-05 0.0001866087 0.5718708484 -0.6348114374
435297390.0 -0.5318369948 0.6587671711 0.0001600606 9.70484e-05 5.89732e-05 -0.0001983811 0.5652937823 -0.6400409038
440297360.0 -0.5251081915 0.6640213758 3.61105e-05 7.88281e-05 -0.0001604638 -0.0002253821 0.5590886314 -0.645770321
445297330.0 -0.518502403 0.6694456636 -3.61725e-05 -0.0002763907 -0.0001867358 4.73237e-05 0.5522756547 -0.6512918237
450297300.0 -0.5114020482 0.6742962979 -6.32029e-05 -1.44751e-05 1.11524e-05 9.89606e-05 0.5460741367 -0.6566333723
455297270.0 -0.5045475949 0.6800201684 -1.23376e-05 -2.02387e-05 0.0002299077 -0.0001207599 0.5395965213 -0.6614462299
460297240.0 -0.497994238 0.6849901529 -0.0002420173 -5.83261e-05 0.0001443623 -2.45855e-05 0.5338519997 -0.6666118318
465297210.0 -0.4900740514 0.6898764137 1.63305e-05 6.89737e-05 -3.43862e-05 7.49739e-05 0.5261631297 -0.6721828787
470297180.0 -0.4829108727 0.6943568802 0.0001601526 6.01787e-05 -6.25642e-05 5.5463e-06 0.5189516379 -0.6771251207
475297150.0 -0.475514869 0.699795607 0.0001086729 -0.0002170387 -8.6303e-06 5.86516e-05 0.5134985231 -0.6813704731
480297120.0 -0.4690579811 0.7042871382 9.8052e-06 0.0001164286 1.94067e-05 -0.000286371 0.5062675768 -0.6866641398
485297090.0 -0.4614634412 0.708942243 9.28549e-05 0.0002168903 -4.11416e-05 0.0001314812 0.4996294877 -0.6918546642
490297060.0 -0.4536369521 0.713832885 3.69445e-05 -8.34127e-05 -6.05e-07 0.0001031175 0.4924163104 -0.6963922496
495297030.0 -0.4472397115 0.7186789493 -0.0002124571 -3.24831e-05 7.17911e-05 -0.0001888669 0.4861880705 -0.7014826703
500297000.0 -0.4386798895 0.7235767653 5.95029e-05 1.18777e-05 -2.94049e-05 -0.0001060021 0.4781266723 -0.7059334847
505296970.0 -0.4315825599 0.7267507492 -8.24214e-05 -0.0001578369 -2.23947e-05 0.0002533327 0.4709781293 -0.7100791188
510296940.0 -0.4239659444 0.7316004606 9.11537e-05 -7.1497e-06 -2.77961e-05 -0.0001863574 0.4641920722 -0.7140474507
515296910.0 -0.4171152777 0.7365502086 4.13555e-05 1.77458e-05 3.48039e-05 -0.0002011546 0.4564683364 -0.7187841766
520296880.0 -0.4094171973 0.7404225462 -8.21138e-05 0.0001651695 -8.7133e-06 0.0001052756 0.4507497872 -0.7237882616
525296850.0 -0.4017253484 0.743981399 3.89623e-05 -4.66027e-05 -9.39038e-05 -6.12277e-05 0.4429794231 -0.7275632319
530296820.0 -0.3943186207 0.7473931654 -1.6573e-06 -2.60774e-05 2.70805e-05 5.63628e-05 0.4354594417 -0.7321378954
535296790.0 -0.3857581616 0.7518550826 0.0002422996 -9.63128e-05 -0.0001918636 0.0001029392 0.4277428974 -0.73696544
540296760.0 -0.3782397687 0.7557169923 -7.8346e-05 -4.33135e-05 0.0002167982 3.148e-06 0.4201896618 -0.740677253
545296730.0 -0.3715685483 0.7596142066 0.0001510179 0.0001261034 -0.0001041087 -1.99765e-05 0.413491314 -0.7448839987
550296700.0 -0.3634581041 0.7631335226 -3.8318e-06 0.0001113739 -0.0001937426 0.0001054393 0.4060107914 -0.7493372071
555296670.0 -0.3551167449 0.7664870223 -3.56086e-05 -0.0001291907 8.92286e-05 5.27226e-05 0.3982120296 -0.7524650678
560296640.0 -0.3469762713 0.7708898816 0.0001942658 3.83856e-05 -8.73338e-05 -7.44743e-05 0.3905953799 -0.7565166358
565296610.0 -0.3400885681 0.7739516663 -0.0001040579 -7.95262e-05 -8.24753e-05 0.0001044499 0.3827160548 -0.7605042995
570296580.0 -0.332199334 0.7772841501 0.0001440055 0.0001526996 5.36997e-05 -0.0001047184 0.375532665 -0.7635469394
575296550.0 -0.3235606956 0.7800507031 6.48021e-05 3.03897e-05 -2.72919e-05 -4.4154e-05 0.3678588299 -0.7671726234
580296520.0 -0.3162372561 0.7842799045 -3.647e-07 -0.0001380137 1.54414e-05 0.0001197937 0.3601575135 -0.770518525
585296490.0 -0.3077069961 0.7863506055 0.0001357957 -0.0001021406 -6.49556e-05 -0.0001619298 0.3528192915 -0.7746032114
590296460.0 -0.3000223721 0.7894943355 -2.87193e-05 0.0001570384 -0.0001959085 -0.0001119306 0.344656971 -0.777435032
595296430.0 -0.2914400154 0.7932289535 -0.0001429482 -3.88113e-05 -7.57602e-05 2.02e-08 0.3363842824 -0.7810600366
600296400.0 -0.2836219517 0.7953931486 -7.38e-07 -4.69512e-05 1.51886e-05 -0.000182038 0.3287487545 -0.7839785139
605296370.0 -0.275585813 0.7986777556 0.0001829724 -2.16894e-05 1.64481e-05 -4.98806e-05 0.3209915928 -0.7875147919
610296340.0 -0.2675919888 0.8011294005 2.72649e-05 -0.0001421682 3.38431e-05 -6.03601e-05 0.3129050314 -0.7894183972
615296310.0 -0.2593788366 0.8041322939 -0.0002154804 -0.0001887188 9.52785e-05 0.0001719473 0.3053861872 -0.7938453492
620296280.0 -0.2508819349 0.8061214886 -6.22404e-05 -0.0001282589 -7.80202e-05 -0.0001663881 0.2979001515 -0.7967776547
625296250.0 -0.2428687348 0.8091901914 -6.66147e-05 0.0001040255 0.0001938702 -3.31977e-05 0.2891874489 -0.7982065763
630296220.0 -0.2339845307 0.8118636446 0.000211876 0.0002482811 1.83383e-05 0.0001111057 0.2811934124 -0.8012650628
635296190.0 -0.2264692478 0.8139954981 -6.26882e-05 7.2971e-05 0.0001486906 -0.0001260488 0.2732550462 -0.803689528
640296160.0 -0.2183550179 0.8155524357 -8.03478e-05 0.0001825653 0.0001011927 -2.85845e-05 0.2653508579 -0.8071044698
645296130.0 -0.2103435369 0.8181110562 -0.0001029434 0.0001366519 -1.33173e-05 -0.0001156609 0.257028592 -0.8093955904
650296100.0 -0.2019579139 0.820358473 6.96364e-05 3.1278e-05 -1.33988e-05 0.0001680883 0.2488336481 -0.8114517441
655296070.0 -0.1931589556 0.8220748322 -7.47872e-05 1.01306e-05 7.65713e-05 -2.64008e-05 0.2404319239 -0.8137772572
660296040.0 -0.1854266438 0.8242896206 -0.0001439222 -8.8654e-06 6.46837e-05 -0.0001755231 0.2326000979 -0.8161616164
665296010.0 -0.1775881874 0.8256317646 0.0001764574 0.0001316248 -3.48402e-05 -2.0088e-06 0.2243706628 -0.8180337801
670295980.0 -0.167436444 0.8271147063 7.39334e-05 0.00015691 6.49609e-05 0.0002510783 0.2168259001 -0.8199561727
675295950.0 -0.1599871678 0.8286801436 0.000218245 -0.0002272216 -0.0001342553 7.94283e-05 0.2087609138 -0.821712155
680295920.0 -0.1520215617 0.8310300604 -0.0001676682 -8.66229e-05 -1.23138e-05 -9.91831e-05 0.1997661421 -0.824182294
685295890.0 -0.1433871096 0.832298874 4.67939e-05 6.68663e-05 -0.0001390582 8.40508e-05 0.1921977417 -0.8258301925
690295860.0 -0.1346718094 0.8338654016 -8.69417e-05 -0.0002111424 0.0003173934 0.0001870383 0.1840763727 -0.8274796403
695295830.0 -0.126586846 0.8341738642 0.0001026854 0.0001385121 -2.20499e-05 1.90757e-05 0.1750263372 -0.8295026905
700295800.0 -0.1181173858 0.8354374216 -4.7944e-05 2.96608e-05 -0.0001845334 0.000121334 0.1670024424 -0.8310368188
705295770.0 -0.1092662311 0.8374150251 -8.98848e-05 9.73336e-05 4.75297e-05 8.7369e-05 0.1589926496 -0.8317476879
710295740.0 -0.1011105375 0.838287349 2.63832e-05 -2.00274e-05 -4.03502e-05 7.52998e-05 0.1499781061 -0.8326355757
715295710.0 -0.0932487406 0.8392552107 0.0001066941 6.22019e-05 -0.0001090438 8.88475e-05 0.1420408204 -0.8346705087
720295680.0 -0.0848150399 0.8396152655 -0.0001016268 7.45603e-05 -3.01231e-05 0.0001916018 0.1333236651 -0.8361294781
725295650.0 -0.0752625004 0.8404700792 7.27992e-05 -6.10538e-05 3.93586e-05 9.51146e-05 0.1254022105 -0.8369956892
730295620.0 -0.0678758852 0.8410586319 -0.0001174324 0.0001199762 0.0002593536 -0.0001161873 0.1170872222 -0.8383112846
735295590.0 -0.0582859121 0.8417960509 0.0002307089 -1.70655e-05 0.0001006859 -0.0001310879 0.1085556159 -0.8389784351
740295560.0 -0.0503095767 0.8425955208 0.0001334775 -2.1006e-06 -8.77699e-05 6.98593e-05 0.1003788057 -0.8403114408
745295530.0 -0.0419712003 0.8428324818 0.0001105332 4.36798e-05 -3.75802e-05 -4.19282e-05 0.091363866 -0.840913348
750295500.0 -0.0342649219 0.8431409804 -4.00851e-05 6.29048e-05 2.61327e-05 1.12816e-05 0.0836819314 -0.8418913761
755295470.0 -0.0243686023 0.8429456025 -0.0001056464 2.76431e-05 0.0002265512 2.35946e-05 0.074452351 -0.8419013638
760295440.0 -0.0165026713 0.8433470549 1.09637e-05 5.69709e-05 6.04751e-05 0.0001677179 0.0663435023 -0.8429796399
765295410.0 -0.0082611481 0.8436161367 -7.47493e-05 -5.46891e-05 7.61954e-05 -6.34082e-05 0.0585917871 -0.8435357409
770295380.0 0.0005206121 0.8441191508 6.59194e-05 -0.0001373541 -8.20288e-05 3.3234e-05 0.0502864364 -0.8430754764
775295350.0 0.0085217749 0.8439904791 -0.0002363822 0.0001423124 0.0001039119 8.6706e-05 0.0413235917 -0.8446747122
780295320.0 0.017927909 0.8433436319 -2.35569e-05 -8.50792e-05 8.94503e-05 2.18827e-05 0.0327994372 -0.8437529516
785295290.0 0.0259584726 0.8436885275 0.0003321573 0.0001840377 0.0002094485 8.38917e-05 0.024451802 -0.844098729
790295260.0 0.033968341 0.8428565543 5.95573e-05 -1.63187e-05 0.0002692471 -5.70336e-05 0.0167415117 -0.8439451333
795295230.0 0.0422414742 0.8434783101 -1.51843e-05 6.9367e-05 1.14793e-05 -4.60877e-05 0.0074926576 -0.8444318518
800295200.0 0.0510737445 0.8425518875 3.56536e-05 -7.52151e-05 -7.71506e-05 -9.61478e-05 -0.0010878091 -0.8442742308
805295170.0 0.0594606582 0.8419769741 0.0001370427 6.50962e-05 -1.57231e-05 -0.0001792196 -0.0095317699 -0.8443053353
810295140.0 0.0681740896 0.8415019008 -5.3995e-06 -8.19064e-05 0.0001327945 -3.54289e-05 -0.0181130737 -0.8432832411
815295110.0 0.0764961374 0.839921393 7.40891e-05 -0.000195632 -0.0001275468 6.83166e-05 -0.0267002477 -0.8429654572
820295080.0 0.0847041202 0.8388710499 -0.0002816589 -0.0002371214 -3.61159e-05 1.72781e-05 -0.0352642715 -0.8431010339
825295050.0 0.0939081276 0.8385756089 0.0001479906 6.40949e-05 0.0001596278 3.89567e-05 -0.0428669449 -0.8423799666
830295020.0 0.1022235785 0.8381783659 -3.93544e-05 -2.68448e-05 -0.0002026226 -0.0001780745 -0.0524659381 -0.8417661575
835294990.0 0.1095832829 0.8369872886 -2.11477e-05 1.42114e-05 -0.0002379314 -1.76607e-05 -0.0602978993 -0.8414392423
840294960.0 0.1184351197 0.835249156 5.84474e-05 6.72278e-05 -1.74389e-05 -6.93916e-05 -0.0687763447 -0.8392280258
845294930.0 0.1267065388 0.8345260071 5.32166e-05 7.24661e-05 -6.00019e-05 0.000182807 -0.0765977705 -0.839280841
850294900.0 0.1347476518 0.8327965819 0.0001170807 -4.53991e-05 7.349e-06 -6.07577e-05 -0.0853118856 -0.8380626996
