!Created with skrf (http://scikit-rf.org).
# Hz S RI R 50.0 
!freq ReS11 ImS11 ReS21 ImS21 ReS12 ImS12 ReS22 ImS22
300000.0 -0.7722142048 -0.1523471173 -0.0015056864 0.0005864457 -0.0017335505 0.0005281038 -0.046743516 -0.0713439035
5299970.0 -0.7850751366 -0.0078228765 4.95264e-05 0.000190406 -3.91014e-05 -7.69807e-05 -0.0494955707 0.0148388711
10299940.0 -0.7872343732 -0.0042744639 -6.13456e-05 5.86435e-05 -0.0001374227 0.0002458202 -0.0439136083 0.0323400085
15299910.0 -0.7932151438 -0.0013999068 -9.0091e-06 0.0001522958 -8.78018e-05 3.91772e-05 -0.0350943102 0.0461893738
20299880.0 -0.7997764543 0.0019970776 3.16121e-05 -6.0907e-05 -5.63611e-05 6.44297e-05 -0.0255430732 0.0584004171
25299850.0 -0.8064621171 0.0081917303 -2.48805e-05 8.12531e-05 1.0185e-05 0.0001888041 -0.0150533424 0.067749777
30299820.0 -0.8119036834 0.0160027064 -1.3147e-05 4.4827e-06 0.0001915679 6.34825e-05 -0.003737793 0.0746366825
35299790.0 -0.8169399639 0.0249694861 0.0001429424 -9.6152e-06 0.0001348846 1.10475e-05 0.0078794495 0.079347572
40299760.0 -0.8213467435 0.0343809134 3.66496e-05 0.0001300962 0.000111292 0.0001009197 0.0188746099 0.0823960423
45299730.0 -0.8249515618 0.044230078 9.74405e-05 5.31579e-05 -7.16636e-05 7.59066e-05 0.0292592402 0.0839368414
50299700.0 -0.8268878862 0.0538666797 -0.0001018785 0.0001072509 6.9203e-06 -0.0002104007 0.0397087075 0.0842334531
55299670.0 -0.8284301003 0.0644418976 2.686e-06 2.3349e-06 2.945e-05 0.0001020063 0.0486085873 0.0837057997
60299640.0 -0.8299389801 0.0744532865 0.0002943964 2.13966e-05 0.0001057664 9.73612e-05 0.056745417 0.0817394226
65299610.0 -0.8309182885 0.0845493672 -5.41511e-05 3.35547e-05 -1.08296e-05 6.44998e-05 0.064377547 0.0796441041
70299580.0 -0.8311401015 0.0946603527 0.0001031022 0.0001565501 0.0001239437 -0.0001515835 0.0718458659 0.076879985
75299550.0 -0.8315965443 0.1042480916 7.03421e-05 0.0001172099 0.0001475622 1.96838e-05 0.0782564332 0.0738740026
80299520.0 -0.8311480028 0.1146950638 7.81181e-05 0.0001207336 3.28811e-05 -2.1713e-05 0.0835721127 0.070411351
85299490.0 -0.8304977905 0.1244018689 -7.78755e-05 7.1913e-05 0.0001353301 -2.2839e-05 0.0884111388 0.0666575209
90299460.0 -0.8297629349 0.1339314554 -0.0002362774 8.70974e-05 0.0001828993 1.28582e-05 0.0936416461 0.0631838487
95299430.0 -0.8286668711 0.1431720138 7.65575e-05 -9.50157e-05 7.50839e-05 2.76739e-05 0.0973838892 0.0589583082
100299400.0 -0.8280072614 0.1528364729 0.0001179247 6.29084e-05 -2.92632e-05 -2.3247e-05 0.1010728598 0.0556590257
105299370.0 -0.8266200619 0.1626714033 0.0001929454 -1.0162e-06 0.0001440023 0.0002350375 0.104655039 0.0514251364
110299340.0 -0.8252951177 0.1708628562 0.0001593849 4.29471e-05 -0.0001261872 0.0001610942 0.1069871628 0.0477035078
115299310.0 -0.8235008663 0.1803482067 -0.0001078859 0.0001245384 0.0001121338 -1.66826e-05 0.1100622599 0.0437597053
120299280.0 -0.8219072452 0.1894361541 9.37507e-05 -8.5245e-06 7.66077e-05 -3.67765e-05 0.1121755398 0.0399186945
125299250.0 -0.8204896026 0.1984093646 0.0001938528 0.0001150941 1.3054e-05 0.0001143247 0.1142434736 0.0361637401
130299220.0 -0.8182846669 0.2079375097 -8.24535e-05 4.69607e-05 -0.0001022863 -3.45258e-05 0.1156021525 0.0326172737
135299190.0 -0.8165760869 0.21675288 9.67145e-05 -1.07801e-05 0.0001776064 0.000127147 0.1172559894 0.0290202175
140299160.0 -0.8144179665 0.2256219095 0.0001117981 0.0001759014 0.0001441988 -3.8913e-06 0.1187652309 0.0251138376
145299130.0 -0.8123935244 0.2344048443 4.0222e-05 0.0001195127 -2.9284e-05 4.68891e-05 0.1195092811 0.0220571555
150299100.0 -0.810001166 0.2429117409 0.000100051 0.0001673584 -5.96764e-05 0.0001436308 0.1207143923 0.0184274567
155299070.0 -0.8077262087 0.2525923167 0.0002468764 -6.38687e-05 5.39875e-05 7.66007e-05 0.1214284586 0.0156436853
160299040.0 -0.8052788302 0.2613407756 1.78989e-05 0.0002449293 0.0002313038 0.0001678879 0.122403971 0.0122272489
165299010.0 -0.8021534412 0.2694325521 -0.0001342226 -0.0001359047 0.0001374495 8.15882e-05 0.1227900921 0.008841614
170298980.0 -0.7995700658 0.2779533471 1.52385e-05 0.0002167302 -8.682e-07 0.0001312658 0.1235353746 0.0059053343
175298950.0 -0.7966342242 0.287258566 4.41907e-05 -3.27883e-05 1.08375e-05 6.03812e-05 0.1234074449 0.0027574106
180298920.0 -0.7938955734 0.2955989088 -8.99435e-05 -0.0001549105 0.0001793132 6.45862e-05 0.1243519462 0.0001813519
185298890.0 -0.7907817201 0.3045466757 0.000257211 0.0003188418 0.0001326953 -1.75979e-05 0.1238141797 -0.00309479
190298860.0 -0.7875283101 0.3126909173 0.0001087079 0.0002463466 -3.85348e-05 0.000101853 0.1244171245 -0.0056989002
195298830.0 -0.7838699372 0.3209559283 5.50085e-05 0.0002052248 0.0001105937 9.10352e-05 0.1244053891 -0.0085413343
200298800.0 -0.7807074403 0.3291896023 -3.8212e-06 0.0001760795 6.9226e-06 -0.0001149962 0.1245039154 -0.0113145857
205298770.0 -0.7775591533 0.337756809 0.0003118693 0.0003982781 5.02456e-05 0.0002224679 0.1239954672 -0.0138015312
210298740.0 -0.773682827 0.3457576983 0.000246163 2.18097e-05 5.81622e-05 0.0002236457 0.1240339767 -0.0163086572
215298710.0 -0.7703584984 0.3541404245 8.76418e-05 0.0002418855 5.7212e-05 0.0001177559 0.1232919684 -0.0186918968
220298680.0 -0.7671035208 0.362225796 5.562e-05 0.000108677 0.0001068353 6.73667e-05 0.123538438 -0.0211042045
225298650.0 -0.7628619246 0.3709505462 9.47387e-05 0.0001332494 1.65435e-05 0.0001837047 0.1227675381 -0.0230996862
230298620.0 -0.7585720548 0.3788946524 7.99045e-05 -7.9267e-06 0.0001463999 8.67029e-05 0.1228000548 -0.0259521357
235298590.0 -0.7545399338 0.3875132149 0.000233452 0.0001089831 3.4088e-06 1.81001e-05 0.1219635559 -0.0282490394
240298560.0 -0.7508712044 0.3952845289 4.21496e-05 0.0001115234 1.83099e-05 7.86802e-05 0.1218043842 -0.0300703354
245298530.0 -0.7462129975 0.4029240579 0.0002385487 0.0002749315 1.8267e-05 0.0002927912 0.1210992025 -0.0324229932
250298500.0 -0.7423139277 0.4104512002 0.0002695961 3.92236e-05 0.0001343967 7.0479e-05 0.1208706718 -0.0344262469
255298470.0 -0.7375703223 0.4187458987 0.0002315492 6.30191e-05 0.0001399142 0.0001138579 0.1201536448 -0.0366393618
260298440.0 -0.7340163548 0.4259815455 0.0002761659 -0.0001078739 0.0001546126 0.0003095039 0.1195829478 -0.038505788
265298410.0 -0.7291223535 0.434504754 5.48053e-05 0.0001847612 0.0002067826 0.0001206787 0.1190056175 -0.0408107838
270298380.0 -0.7245357463 0.4411754781 7.89552e-05 6.5872e-06 -5.36251e-05 0.0001249866 0.1186428128 -0.0429299443
275298350.0 -0.7193775413 0.4492846745 -7.021e-07 1.0678e-06 0.0001940058 0.0001125095 0.1177485509 -0.0443619574
280298320.0 -0.715398596 0.4568301918 -1.44409e-05 0.0001195322 -3.44528e-05 1.68465e-05 0.1171138266 -0.0462594176
285298290.0 -0.7101295992 0.4645687838 0.0003355772 0.0004284057 0.0001549718 0.0002142271 0.116226151 -0.048227566
290298260.0 -0.70536264 0.4717584754 0.0002411426 0.0001236818 0.0001977378 0.0001778389 0.1159548585 -0.0499390736
295298230.0 -0.7002399346 0.4794160748 0.0001417713 9.08777e-05 0.0003087257 4.51992e-05 0.114889298 -0.0515934499
300298200.0 -0.6950619073 0.4860858472 6.35805e-05 0.0003193366 7.65114e-05 0.0001764975 0.1139046623 -0.0535011893
305298170.0 -0.6896271719 0.4943882397 -0.000139941 0.0001363441 0.0001503034 7.26044e-05 0.113681856 -0.0549706413
310298140.0 -0.6844258488 0.5007971319 -1.19417e-05 -7.2233e-05 0.0002122449 3.27438e-05 0.1126636542 -0.0565566247
315298110.0 -0.6799266703 0.5084931693 8.7845e-05 -3.1041e-06 0.0001468976 9.44707e-05 0.112054996 -0.058550807
320298080.0 -0.6744708969 0.5156303562 -3.05083e-05 6.33519e-05 0.0001501213 8.74458e-05 0.1110124685 -0.0601536377
325298050.0 -0.6683554438 0.52241938 -1.62427e-05 -1.13472e-05 0.0001392391 0.0002622489 0.1098464948 -0.0621835456
330298020.0 -0.6628766861 0.528994569 0.0001180063 0.0001868734 0.0001990941 1.344e-06 0.1086216354 -0.0633666832
335297990.0 -0.6571955489 0.5365498546 0.0004105103 0.0001601189 0.0001357278 0.0001590164 0.1074802725 -0.0653834017
340297960.0 -0.6521125916 0.5426236362 6.71796e-05 8.65375e-05 0.0003092852 0.0001290222 0.1062245211 -0.0666277789
345297930.0 -0.6465461059 0.5490034891 0.0001467336 0.000211485 2.62705e-05 0.0001124226 0.1050730575 -0.067912339
350297900.0 -0.6396678831 0.5560286267 0.0001577745 0.0001799406 5.55561e-05 0.0001427124 0.1041305538 -0.0694509779
355297870.0 -0.634511001 0.5630082508 0.0001377132 0.0003017893 0.0002376146 0.0002298657 0.1025014011 -0.0706394057
360297840.0 -0.6283722442 0.5691112653 0.0002816926 0.0001735562 0.0002075101 0.0002831947 0.1016373622 -0.071701544
365297810.0 -0.6224105058 0.575713277 0.0004323014 0.0001692181 0.0002321558 0.0002642754 0.1006283071 -0.0726381623
370297780.0 -0.616312514 0.5819813046 9.66845e-05 0.0004480391 0.0004463874 2.92197e-05 0.099146168 -0.0741656691
375297750.0 -0.6102849836 0.5882474264 5.3902e-06 9.84063e-05 0.0003037248 0.0001257387 0.0979558567 -0.0752693141
380297720.0 -0.6037970855 0.5947120321 0.0003984099 -4.46029e-05 0.0001521528 0.0002243099 0.0971019196 -0.076074355
385297690.0 -0.5976004032 0.6006340038 9.16752e-05 0.0001516225 0.0002318048 7.20704e-05 0.0956569934 -0.0769032887
390297660.0 -0.5915005131 0.6074213232 0.0002700666 0.0002801021 0.0002684895 0.000116116 0.0945420395 -0.0786131273
395297630.0 -0.5851507932 0.6133382437 0.0001164605 0.0001208633 0.0002681635 0.0001374552 0.0934560029 -0.0796485555
400297600.0 -0.5789642108 0.6193136927 0.000149725 0.0002528332 0.0003160126 0.0001891389 0.0918786684 -0.0806236298
405297570.0 -0.5725316904 0.6250197554 0.0002759832 0.0001516292 0.000269239 0.0001143387 0.0907789269 -0.0816209205
410297540.0 -0.5656007885 0.6309215002 0.0002577138 0.0001027512 2.01226e-05 0.0001064422 0.0895508998 -0.0825927118
415297510.0 -0.5591706059 0.6364183201 0.0002291769 0.0004003128 0.0001540524 -5.948e-07 0.0880192794 -0.0831287319
420297480.0 -0.5514974094 0.6425399482 4.72421e-05 0.0001863337 0.0003111013 0.000169835 0.0868716655 -0.0842970655
425297450.0 -0.5454282104 0.6481446693 0.0001335805 -1.16298e-05 0.0001595927 0.0003967226 0.085853095 -0.0851916422
430297420.0 -0.5391163507 0.6535065471 0.0003672805 0.0002315798 0.0002330824 -0.0001022884 0.0844132195 -0.086527595
435297390.0 -0.5319261761 0.6590650207 0.0001748771 0.0001129256 0.0004902417 0.0001492934 0.083505872 -0.0869083458
440297360.0 -0.5252166818 0.6643169615 0.0002775002 0.0002562598 0.000177883 -4.07763e-05 0.081487996 -0.0881245792
445297330.0 -0.5183084899 0.669998053 0.0002532087 0.0002888363 0.0002026749 0.0001860908 0.0805457334 -0.0890136338
450297300.0 -0.5117097516 0.6749081847 0.0003450441 -3.49742e-05 0.0002512026 0.0003108649 0.0788818093 -0.0898874779
455297270.0 -0.5042358689 0.6800167917 0.0002499147 6.40638e-05 0.0001670726 0.0001907758 0.0775802918 -0.090531238
460297240.0 -0.4974551288 0.6851825956 0.0001615058 0.0001376549 0.0003542264 2.72444e-05 0.0766199111 -0.0912609706
465297210.0 -0.4898277738 0.6905326913 0.0004860632 0.0002862254 0.0003671591 0.0001507958 0.0750679415 -0.0923440085
470297180.0 -0.4833725248 0.6951231168 5.75689e-05 0.0001604162 0.000207181 -1.9886e-05 0.0732253114 -0.0928295543
475297150.0 -0.4756763621 0.6998174364 0.0003478735 6.73914e-05 0.0003190786 -3.25633e-05 0.0725138125 -0.0936584417
480297120.0 -0.4694661269 0.7047997131 0.0003432198 0.0001328802 0.0002298299 5.44498e-05 0.0709434666 -0.0941959054
485297090.0 -0.4610650875 0.7092832866 0.0004625436 -1.22e-06 0.0001480844 0.0001973492 0.0694005081 -0.0949349452
490297060.0 -0.454208037 0.7137415268 0.0003561215 -4.1132e-06 0.00023281 -3.22669e-05 0.0679975778 -0.0957377206
495297030.0 -0.4470588295 0.7187300682 0.0003047136 0.0001882029 0.0002060125 0.0001993212 0.0665658513 -0.0967017168
500297000.0 -0.4387454946 0.7234942171 8.93862e-05 1.12396e-05 0.0003256007 -9.5768e-05 0.0650997062 -0.0974226218
505296970.0 -0.4314553793 0.7268884576 3.60468e-05 1.5133e-05 0.0003193716 0.0001718155 0.0636888728 -0.0975268708
510296940.0 -0.4240029987 0.731800005 0.0002983973 0.0002814337 0.0001590252 0.0001161302 0.0624828192 -0.0980380632
515296910.0 -0.4175372934 0.7362572172 0.0002929999 0.0001222149 0.0003141121 0.0001465174 0.0612896677 -0.0989820276
520296880.0 -0.4094020866 0.7407531022 0.0004150932 9.04554e-05 0.0002692732 0.0001683236 0.060079129 -0.0995284901
525296850.0 -0.4015050403 0.7444188538 0.0002565556 0.0001875966 0.0005663652 -0.0001178767 0.0584203672 -0.0999127222
530296820.0 -0.3934833068 0.7477037895 0.0003181144 -4.74875e-05 0.0003186197 0.000140741 0.0565855006 -0.1005354806
535296790.0 -0.3860239038 0.752144092 0.0002743855 3.28259e-05 0.0002928046 0.0001180655 0.055268832 -0.1012375915
540296760.0 -0.3784496054 0.75627824 0.0005224768 -5.32207e-05 0.0002929766 2.85294e-05 0.0537743383 -0.1014592598
545296730.0 -0.3716366363 0.7596357333 0.0004140396 4.11475e-05 0.0003398178 1.18214e-05 0.0522853033 -0.1021107376
550296700.0 -0.3628955205 0.7636350517 0.0003050489 4.88394e-05 0.0002667738 0.0001642863 0.0510805035 -0.1027121113
555296670.0 -0.3548773804 0.7674363567 0.0005593497 0.0002288931 0.0003548274 9.0624e-06 0.0493372076 -0.1027619031
560296640.0 -0.34732148 0.7707996409 0.0005939034 -0.0001485617 0.0002491356 6.93956e-05 0.0478922131 -0.1035276386
565296610.0 -0.3389630716 0.7743707599 0.0003606836 2.17408e-05 0.0002977483 0.0001821497 0.0462549448 -0.1039287641
570296580.0 -0.3318253704 0.7772770417 0.0002491505 -0.0001402243 0.0004158282 4.99861e-05 0.0450132673 -0.1040416848
575296550.0 -0.3238200201 0.780769186 0.0004674052 0.0001344857 0.0001779396 6.74269e-05 0.0436450469 -0.1043349292
580296520.0 -0.3157704978 0.7838810689 6.38223e-05 -6.55763e-05 0.0003905275 0.000181813 0.0421252754 -0.1049295949
585296490.0 -0.3077127447 0.7866327912 0.000623244 0.0001869275 0.0003245239 -1.3398e-06 0.0407823756 -0.1055086812
590296460.0 -0.2993376338 0.7895671705 0.0006205779 2.35747e-05 0.0002980059 9.38203e-05 0.0395714694 -0.1053651162
595296430.0 -0.2917540658 0.7930458971 0.0004623588 0.0001889241 0.0003815915 0.0001242776 0.0375528595 -0.1058605006
600296400.0 -0.283615165 0.7956766622 0.0003331461 4.82772e-05 0.0001924501 0.0001399436 0.0363133001 -0.1061131151
605296370.0 -0.2756205025 0.7987688937 0.0003740684 0.0001553209 0.000258615 -6.88934e-05 0.0350950229 -0.1062046321
610296340.0 -0.267564193 0.8016055498 0.0002282773 7.76562e-05 0.0002900207 -6.18594e-05 0.033400959 -0.1062173314
615296310.0 -0.2592736595 0.80439288 0.0004265914 0.0001873727 0.0002444881 0.0001266858 0.0317358784 -0.1070138687
620296280.0 -0.2506236267 0.8061530843 0.0003901344 0.0001660829 2.621e-05 0.0001812949 0.0303903214 -0.1073211104
625296250.0 -0.2421692898 0.8091193921 0.0004426963 1.92238e-05 0.0005881705 -1.1479e-05 0.0289964398 -0.1069051374
630296220.0 -0.2344542839 0.8120022053 0.0003341623 4.38186e-05 0.0003527715 -0.0002207616 0.0274593975 -0.1072529693
635296190.0 -0.2263795751 0.8143608156 0.0004935785 -2.86727e-05 0.000194028 -1.39191e-05 0.0261427966 -0.1072126493
640296160.0 -0.2178449965 0.8152652057 0.0004182498 8.02527e-05 0.0001584055 -3.191e-07 0.0245525542 -0.1075483666
645296130.0 -0.2096602554 0.8177811078 0.0002969585 0.0001947267 0.0003329696 8.42748e-05 0.022954641 -0.1073481717
650296100.0 -0.2018774186 0.8201082474 0.0004836137 -0.0001123223 0.0002517725 0.0001832701 0.0211996726 -0.1075685122
655296070.0 -0.1930515232 0.8222275593 0.0002168456 -2.5938e-05 0.0002175648 -4.59844e-05 0.0202299057 -0.1074643509
660296040.0 -0.1853876104 0.8243341167 0.0002965148 4.13337e-05 0.0004643558 0.0001623615 0.0185604862 -0.1075840075
665296010.0 -0.1768402609 0.8262828372 0.000281818 0.0001199332 0.0001900578 9.68424e-05 0.0171580257 -0.1075274716
670295980.0 -0.1676004731 0.8277759826 0.0002986284 0.0001271814 0.0003776173 -3.1003e-06 0.0157915659 -0.1074785857
675295950.0 -0.1597440924 0.8283738942 0.0003400025 -1.7404e-05 0.0003784821 1.04088e-05 0.0142485085 -0.1074941642
680295920.0 -0.1517486882 0.8306255479 0.0004317163 1.92915e-05 0.0001598846 -0.0003023869 0.0129439978 -0.1075576492
685295890.0 -0.1427253859 0.8314775984 0.0003885909 2.00547e-05 0.0005339783 7.59693e-05 0.0115315291 -0.107488307
690295860.0 -0.1341624067 0.8337385716 0.0003285644 -3.50598e-05 0.0004002033 -5.76977e-05 0.0098348376 -0.1075206684
695295830.0 -0.1265470161 0.834351689 0.0003368175 -2.574e-05 0.0002113717 0.0003075554 0.0084862172 -0.1071004881
700295800.0 -0.1173635368 0.8357234334 0.0004952799 0.000344199 0.0003247803 -2.62303e-05 0.0068920911 -0.1069780063
705295770.0 -0.1089598524 0.8377698901 0.0004498224 2.72257e-05 0.0002379751 -0.0001281211 0.0053650703 -0.1067549739
710295740.0 -0.1011395357 0.838069802 0.0005186876 -0.0001045289 0.0004119895 -4.71746e-05 0.0035445379 -0.1066580285
715295710.0 -0.0928368284 0.8390860449 0.0006026579 2.5909e-05 0.0003798494 -1.42254e-05 0.0026971034 -0.1066888766
720295680.0 -0.0844544138 0.8391548828 0.0002306642 -0.0001889634 0.000509189 -0.0002142093 0.0011574114 -0.106365753
725295650.0 -0.0747440148 0.8411852265 0.000362369 -7.87719e-05 0.0004280071 -0.0001713854 -0.0002378252 -0.106222353
730295620.0 -0.0671284905 0.8416054711 0.0003322599 4.10492e-05 0.0003415495 0.000194601 -0.0017808786 -0.1062774091
735295590.0 -0.0579206097 0.841932913 0.0005815406 -8.30857e-05 0.0005834487 2.5048e-06 -0.0030641902 -0.1057719464
740295560.0 -0.0499043217 0.8429130232 0.0005862163 -8.70932e-05 0.0002342869 0.0001282266 -0.0047757737 -0.1057215248
745295530.0 -0.0418331938 0.8429267621 0.0005110967 1.13841e-05 0.0005125916 -0.0003065175 -0.0061387809 -0.1055318113
750295500.0 -0.033632726 0.8435592115 0.0001404656 2.79892e-05 0.0005053459 0.0001001627 -0.0074807676 -0.1053604851
755295470.0 -0.0241884879 0.8432937289 0.0003556199 6.0609e-06 0.0003908615 6.89517e-05 -0.0090620234 -0.1046161613
760295440.0 -0.0163542571 0.8435873019 0.0003010981 4.71282e-05 0.0004496525 -0.0001204567 -0.0105812655 -0.1044665599
765295410.0 -0.0075994218 0.843800092 0.0002205403 -0.0001225528 0.0003771637 0.0001729622 -0.0114813387 -0.1038293619
770295380.0 0.0008240543 0.8440911897 0.0004964964 -9.22675e-05 0.0004915657 -6.09088e-05 -0.012636506 -0.1036828049
775295350.0 0.0086682414 0.8442900979 0.0004070885 -6.97258e-05 0.0004105258 6.6197e-05 -0.0144808327 -0.1036941478
780295320.0 0.0179679838 0.8435905887 0.0004686515 -1.92301e-05 0.0004374218 -6.1958e-06 -0.0161344265 -0.1029348678
785295290.0 0.0261020762 0.8440824022 0.0003326104 2.8429e-06 0.0004019225 3.74539e-05 -0.0172464194 -0.102354933
790295260.0 0.0343032248 0.8423957933 0.0003437894 -0.0003347177 0.0005703506 1.44734e-05 -0.0183638824 -0.1019978263
795295230.0 0.0425189958 0.8432187696 0.0004070234 -5.5678e-05 0.0003801258 -0.0001969496 -0.0195569347 -0.1016605262
800295200.0 0.0514644151 0.8425908395 0.0006373921 7.7519e-06 0.0003917935 -2.7252e-06 -0.0210976864 -0.1010492418
805295170.0 0.0596199629 0.8414967589 0.0006293475 3.2764e-05 0.0004832511 -0.0001447855 -0.0227422727 -0.1004054895
810295140.0 0.0682350167 0.8411883322 0.000410295 -1.09734e-05 0.0003688736 -0.0003136568 -0.0235544581 -0.1000873429
815295110.0 0.0764910841 0.8402137602 0.0004331337 -0.0001457443 0.0004132971 -8.01034e-05 -0.0255720065 -0.099545652
820295080.0 0.0850209542 0.8393291515 0.0003537969 -0.0001560227 0.0003521505 1.15271e-05 -0.0265568715 -0.098925495
825295050.0 0.0937265313 0.8385381594 0.0003323536 -5.59288e-05 0.0003155147 -0.0001299594 -0.0276856828 -0.0982540136
830295020.0 0.1021358966 0.8377632337 0.0003191056 -0.0001552167 0.0005016654 0.000105831 -0.0294836549 -0.0976979754
835294990.0 0.1100374938 0.8371153285 0.0005371173 -6.13449e-05 0.0003147259 -0.0001237767 -0.0304940801 -0.0974701255
840294960.0 0.1186625238 0.8353556805 0.0004879182 -0.0001866468 0.0005837122 -3.5698e-05 -0.0317820918 -0.0964023831
845294930.0 0.1268680607 0.834471343 0.0002945826 -0.0002835949 0.0004435745 4.79665e-05 -0.0327703727 -0.0958685319
850294900.0 0.1352859596 0.8326479975 0.0004799608 -0.0002292525 0.0004287143 -0.0002269357 -0.0342480228 -0.0952794505
