!Created with skrf (http://scikit-rf.org).
# Hz S RI R 50.0 
!freq ReS11 ImS11 ReS21 ImS21 ReS12 ImS12 ReS22 ImS22
300000.0 -0.7674447669 -0.1736300715 -0.0020561143 0.0004754359 0.0003139894 0.0007041577 -0.043475256 -0.0761791108
5299970.0 -0.7863500542 -0.0093135785 -0.0001332536 -5.49264e-05 -0.00015011 -2.73387e-05 -0.0482544485 0.0139872093
10299940.0 -0.7895087196 -0.0059400697 -7.65807e-05 0.0001337108 -8.44293e-05 0.0001276717 -0.0420988292 0.0316124407
15299910.0 -0.7944677523 -0.0032825968 0.0001057905 8.83758e-05 3.15928e-05 -0.0002203238 -0.0338843524 0.0456876402
20299880.0 -0.8011932165 0.0010283197 -6.59325e-05 -1.56773e-05 1.41438e-05 1.19087e-05 -0.0245222869 0.0573024251
25299850.0 -0.8080092706 0.0070142824 -0.0001581828 -0.0001218925 -2.09654e-05 0.0001407645 -0.0135954407 0.06620871
30299820.0 -0.8137787543 0.0137966107 -6.67877e-05 -3.10117e-05 0.0001172468 -1.5801e-06 -0.0020120168 0.0728900148
35299790.0 -0.8189907538 0.0228866681 6.9682e-06 5.10375e-05 -0.0001419076 -4.06486e-05 0.0088975114 0.0774522615
40299760.0 -0.8235634495 0.0316025604 -0.0001586045 4.85339e-05 3.36049e-05 -0.0001186181 0.0201235045 0.0800176355
45299730.0 -0.8269129311 0.041780569 -3.83574e-05 0.0001021675 4.89052e-05 0.000131961 0.030419468 0.0813256741
50299700.0 -0.829112936 0.0517494453 3.08218e-05 0.0001151044 -7.08093e-05 -3.71345e-05 0.0404284587 0.0816902591
55299670.0 -0.8316698664 0.0611671586 -9.13533e-05 0.0001321577 3.06362e-05 4.27174e-05 0.0492366353 0.0801183994
60299640.0 -0.8322655262 0.0717573118 -0.000180353 -8.6527e-06 -4.08537e-05 0.000133332 0.0579004676 0.0783210039
65299610.0 -0.8337047743 0.0819346988 0.0001737594 -0.0001301101 3.00558e-05 0.0001270037 0.0654528077 0.0761515552
70299580.0 -0.8339039272 0.0914156823 3.82982e-05 -1.2016e-06 8.53878e-05 6.69221e-05 0.0719388626 0.0732392522
75299550.0 -0.8340902769 0.101352608 -0.0002652013 1.391e-07 -0.000135503 -9.08466e-05 0.078524346 0.070002644
80299520.0 -0.8339098319 0.1123139497 6.67971e-05 -2.8385e-06 2.45126e-05 -7.80218e-05 0.0839190484 0.066081534
85299490.0 -0.8330236492 0.1206949595 -0.0001915277 0.0001110918 9.93641e-05 -0.000163145 0.0889253417 0.062493045
90299460.0 -0.8324546943 0.1313915087 -2.17577e-05 9.07087e-05 0.0001428581 0.0001012136 0.0935445387 0.0587859154
95299430.0 -0.8319916108 0.140513228 -3.55699e-05 8.09602e-05 4.489e-07 -5.80173e-05 0.0973962173 0.0548845756
100299400.0 -0.8305286696 0.1495088135 -9.08574e-05 -8.0988e-06 -0.0001241582 -7.1275e-06 0.1008537705 0.0512356652
105299370.0 -0.8289618968 0.1592875215 -3.07863e-05 -1.67917e-05 1.71675e-05 -0.0001899554 0.1041233662 0.0468503226
110299340.0 -0.8275454494 0.1686463716 0.0001197176 -4.0711e-05 0.0001461114 5.24807e-05 0.1068113833 0.0427816166
115299310.0 -0.8265837522 0.1777506538 0.0001284521 -0.0001861671 -0.0001447392 0.0002428361 0.1093013463 0.0389274887
120299280.0 -0.8244981655 0.1861377412 0.0002856545 -5.38494e-05 4.37104e-05 7.08359e-05 0.1113394262 0.0348930483
125299250.0 -0.8229391841 0.1956123639 -6.62347e-05 -8.02177e-05 2.25106e-05 1.32595e-05 0.1133007796 0.0312146724
130299220.0 -0.8206946652 0.2047997006 6.00151e-05 8.98205e-05 -4.73567e-05 0.0002206147 0.1150714345 0.0275760305
135299190.0 -0.8188711458 0.2139259581 -1.3287e-05 -9.1265e-06 -1.7841e-05 4.68249e-05 0.1163355915 0.0237738719
140299160.0 -0.8175987122 0.2229323523 -0.0001056484 8.54919e-05 -6.24875e-05 0.0002044092 0.1172970355 0.020574399
145299130.0 -0.8149972607 0.2323359639 0.0001628022 6.59299e-05 9.23092e-05 -3.72981e-05 0.1184447608 0.0167751183
150299100.0 -0.8123873484 0.2405683206 5.07227e-05 0.0001407908 -1.64847e-05 0.0001346644 0.119335781 0.0132074971
155299070.0 -0.8105437211 0.2497750411 -8.3003e-05 -6.62315e-05 1.26688e-05 5.4846e-06 0.120022252 0.0098318336
160299040.0 -0.8079899576 0.2594606481 0.0002031482 5.34481e-05 -8.44738e-05 6.58694e-05 0.1202697004 0.0068232534
165299010.0 -0.8049092483 0.2676131252 0.0001139658 -8.98202e-05 3.04684e-05 0.0001074534 0.1210205044 0.0034811703
170298980.0 -0.8019110341 0.2763997251 0.0001892214 -0.0001423691 2.06527e-05 -4.33885e-05 0.1210319841 0.0003683052
175298950.0 -0.7997849019 0.2847271976 0.0001111481 -0.0001613448 0.0001106635 -6.0098e-06 0.1215121701 -0.0021970392
180298920.0 -0.7964019797 0.2937077647 4.14662e-05 -6.20889e-05 3.44476e-05 3.17524e-05 0.1215483943 -0.0057216735
185298890.0 -0.7927311381 0.3020651336 -6.60111e-05 -0.0001080914 0.0002611387 -5.47489e-05 0.1214948126 -0.0086384996
190298860.0 -0.789515591 0.3112520423 3.51239e-05 -8.9967e-05 9.96114e-05 -2.0145e-05 0.1212764551 -0.011627907
195298830.0 -0.7867343826 0.3192115647 2.36884e-05 6.98584e-05 0.0001873135 0.0001018523 0.1212197707 -0.0140780668
200298800.0 -0.7831697261 0.3279148155 6.91501e-05 -0.0001311188 0.0001386491 -5.64543e-05 0.1209987753 -0.0171246089
205298770.0 -0.7790898651 0.3368436617 3.96059e-05 1.74153e-05 5.73533e-05 0.0001268412 0.1206674608 -0.0197008722
210298740.0 -0.7761921702 0.3446417339 2.9929e-05 0.0001442711 0.0002108042 0.0001800195 0.1201306495 -0.0224713934
215298710.0 -0.7722836229 0.3531483521 1.26883e-05 -0.0002013543 0.0001455087 -0.0001271295 0.119550396 -0.0251093925
220298680.0 -0.769049625 0.36075964 -6.3713e-05 1.49291e-05 -0.0001013682 -0.000253226 0.1194631282 -0.0275606161
225298650.0 -0.7648071714 0.3698655288 6.91977e-05 -2.343e-06 -0.0001118481 -5.65197e-05 0.1183507173 -0.0298125974
230298620.0 -0.7613059487 0.3775626124 0.0001528611 -8.5339e-06 0.000170665 -1.31191e-05 0.1179025101 -0.032395703
235298590.0 -0.7572551849 0.3863188091 5.83669e-05 -0.0001413468 0.0001427996 5.14978e-05 0.1171233723 -0.0345019302
240298560.0 -0.7527734228 0.3941301722 8.94125e-05 1.83426e-05 0.0001876764 0.0002056757 0.11681113 -0.037084473
245298530.0 -0.7486518051 0.4017113694 9.0038e-06 8.65598e-05 -5.14128e-05 0.0001493111 0.115838311 -0.0391663161
250298500.0 -0.7449739307 0.408999191 4.41036e-05 0.0002225198 0.0002214625 0.000148107 0.1152829108 -0.0410537525
255298470.0 -0.7408884344 0.4173593102 0.0001154065 -0.0001436449 0.0001339988 -5.92912e-05 0.1144315074 -0.0436475595
260298440.0 -0.7364205148 0.425202169 0.0001085863 -3.99596e-05 8.38982e-05 -0.0001030826 0.1131992959 -0.0455530623
265298410.0 -0.7317965078 0.4329377353 0.0001125706 0.0003254812 4.25424e-05 0.0001951075 0.1131266833 -0.0477453762
270298380.0 -0.7273160071 0.4404369936 0.000268728 0.0002517152 0.0001865167 0.0001874361 0.1119930551 -0.050021346
275298350.0 -0.7234974568 0.448470903 0.000329173 1.36334e-05 0.0001146354 -2.42276e-05 0.110976586 -0.0518511078
280298320.0 -0.7183469986 0.4556858719 0.0002053215 2.41885e-05 0.0001326872 -4.59726e-05 0.1098104378 -0.0538073606
285298290.0 -0.7138589232 0.463649137 -0.0001103676 1.48959e-05 -2.75072e-05 0.0001431796 0.1088543583 -0.0555402217
290298260.0 -0.7086438074 0.4711914083 2.33998e-05 -0.000245285 -9.56404e-05 -1.97513e-05 0.1079423986 -0.0572325389
295298230.0 -0.7038596025 0.4782341785 2.34172e-05 0.0001799755 0.0003238087 6.53142e-05 0.1068029119 -0.0593994132
300298200.0 -0.699451885 0.485734229 -9.5528e-05 -0.0001173768 8.17171e-05 -0.000243582 0.1061641555 -0.0613255442
305298170.0 -0.6945225934 0.4929036642 -5.7524e-05 -7.79131e-05 1.54077e-05 0.0002061391 0.1047637256 -0.0629992485
310298140.0 -0.6886346799 0.499945298 0.0001672447 5.32046e-05 5.79324e-05 0.000200642 0.1040790626 -0.0648007318
315298110.0 -0.6846784637 0.5072006104 -0.0001384178 -3.16534e-05 8.6468e-05 -1.00302e-05 0.1030607618 -0.066678744
320298080.0 -0.679201431 0.5147143586 0.000192155 -1.64894e-05 1.0124e-05 0.0001101966 0.101654307 -0.0684933432
325298050.0 -0.6734279781 0.5207669135 3.35089e-05 -5.24543e-05 0.0002137613 6.52629e-05 0.1005958078 -0.0705086617
330298020.0 -0.6684505964 0.5282128238 -5.41969e-05 0.0001337825 7.50271e-05 -0.0001205493 0.0989342062 -0.072048517
335297990.0 -0.6631030119 0.5346848765 5.99624e-05 8.75103e-05 0.0001279378 4.5802e-05 0.0976352995 -0.0736403943
340297960.0 -0.6578328037 0.5416052953 -0.0001188816 5.70299e-05 -2.45595e-05 0.000151724 0.0961734515 -0.0752632851
345297930.0 -0.652219124 0.5479442676 -3.82614e-05 3.0348e-06 -2.36211e-05 8.71483e-05 0.0944102824 -0.0769173382
350297900.0 -0.6465956286 0.5554188158 -0.0001447779 0.0001123547 5.27388e-05 2.0051e-06 0.0930431787 -0.0781869208
355297870.0 -0.6407430922 0.5607759831 0.0001296614 -3.16505e-05 -5.4307e-05 -3.47744e-05 0.0919072499 -0.0793985743
360297840.0 -0.6350595088 0.5682512452 1.13758e-05 6.40078e-05 -0.0001164483 -5.93361e-05 0.0904290508 -0.0810135544
365297810.0 -0.6298520261 0.5747980139 0.0001838828 -8.155e-06 3.80611e-05 0.0001841797 0.0888510399 -0.0823778112
370297780.0 -0.623371407 0.5808132311 -7.97095e-05 3.2656e-06 9.73556e-05 -4.53738e-05 0.0876574343 -0.0834113976
375297750.0 -0.6179768799 0.5869046865 0.0001289465 0.0002064163 1.35296e-05 -6.08016e-05 0.0861670801 -0.0847097687
380297720.0 -0.612117699 0.5937147403 0.0001637289 0.0001128172 0.0003809765 0.0001595341 0.0847930045 -0.0859111383
385297690.0 -0.6059615326 0.5994376743 -2.33803e-05 0.0001092554 2.33672e-05 2.57231e-05 0.0833444424 -0.087159466
390297660.0 -0.5989304911 0.6059302374 8.65442e-05 -2.06038e-05 7.21533e-05 -2.26273e-05 0.0817590847 -0.0883222884
395297630.0 -0.5931547638 0.6119889832 -4.65977e-05 0.0002373627 0.000178536 0.0001549623 0.0803730346 -0.0894675661
400297600.0 -0.5873845173 0.6183430355 6.90213e-05 4.7675e-06 5.04438e-05 0.0001146827 0.0792465861 -0.0902520085
405297570.0 -0.5803556919 0.6233891316 7.05611e-05 -0.0002577317 -3.349e-05 0.0001017166 0.0776134476 -0.0919008228
410297540.0 -0.5742545531 0.6300090818 0.0001561568 0.0001963704 9.35582e-05 9.30346e-05 0.0761787908 -0.0924399888
415297510.0 -0.5682561965 0.6354948604 0.0001859429 2.90827e-05 0.0001023891 3.70549e-05 0.074564827 -0.0938757092
420297480.0 -0.5607437972 0.6408381955 8.65992e-05 9.05544e-05 0.0001115932 0.0001028162 0.0733498582 -0.0946917206
425297450.0 -0.5548452675 0.6465724148 -3.73805e-05 4.69448e-05 6.20527e-05 -6.63339e-05 0.0715548007 -0.095835036
430297420.0 -0.5483154959 0.6518860512 0.0001432538 0.0001311406 -2.59918e-05 1.4498e-05 0.0701566529 -0.0967809714
435297390.0 -0.5414916909 0.657663609 9.95322e-05 4.448e-05 6.00032e-05 6.91688e-05 0.0683407417 -0.0974644245
440297360.0 -0.5344788992 0.6631060218 0.0002226477 -4.28653e-05 0.0001326931 -3.86553e-05 0.0671196806 -0.0986899214
445297330.0 -0.5276076976 0.6681865822 1.35488e-05 5.41074e-05 0.0001511066 5.22776e-05 0.0658254138 -0.0991599716
450297300.0 -0.5204281729 0.673782246 -6.2503e-05 5.39933e-05 5.14073e-05 2.8662e-06 0.0641340539 -0.1001945997
455297270.0 -0.5139206581 0.6792591121 9.59026e-05 -8.10867e-05 -4.00473e-05 0.0001775616 0.0627747125 -0.1011172808
460297240.0 -0.5060612245 0.6844949625 0.0001861347 -0.0001413129 0.0001719662 0.0001323445 0.0609896585 -0.1021569101
465297210.0 -0.4992889714 0.6891940348 9.87035e-05 -1.22028e-05 7.68313e-05 2.7828e-06 0.0593295378 -0.1026334703
470297180.0 -0.4921789743 0.6940104469 -0.0001468344 0.0001740109 0.0001039554 3.81264e-05 0.0577509982 -0.1033876699
475297150.0 -0.4849956247 0.6991511983 8.61726e-05 -0.0001713322 5.4e-08 8.32885e-05 0.0567523746 -0.1041259517
480297120.0 -0.4768601548 0.7037882252 0.0002753408 -0.0001209878 0.0002293721 -5.5048e-06 0.0545935156 -0.1047928049
485297090.0 -0.4702824863 0.7086834243 9.06177e-05 2.73661e-05 5.77492e-05 -8.28819e-05 0.052943481 -0.1055751413
490297060.0 -0.4625732448 0.7137598058 0.0002601241 3.10129e-05 2.78466e-05 -0.0001061463 0.0513830672 -0.1064095035
495297030.0 -0.4552386436 0.7183717431 0.0002119066 -1.52644e-05 0.0003651211 -3.2712e-06 0.0498613055 -0.1070028464
500297000.0 -0.4471863152 0.7221564015 3.0213e-05 -0.0001690149 6.96079e-05 -8.51581e-05 0.0483031398 -0.10759344
505296970.0 -0.439187894 0.7268502141 7.58108e-05 -0.0001376659 0.000147554 -2.71006e-05 0.0465742037 -0.1081006309
510296940.0 -0.4323773018 0.731515506 8.41678e-05 -0.0001337276 -0.0001192066 8.50854e-05 0.0453096349 -0.1084923683
515296910.0 -0.4243634454 0.7361401659 1.62078e-05 -0.0001198259 2.13673e-05 3.03479e-05 0.0434536217 -0.1092655227
520296880.0 -0.4160609639 0.7400218946 0.0001976412 4.54376e-05 6.7972e-06 -2.09378e-05 0.0420753594 -0.1098913725
525296850.0 -0.4090597474 0.7442970773 1.05316e-05 1.0353e-06 7.50058e-05 -7.08e-07 0.0400795991 -0.1101221137
530296820.0 -0.4014946648 0.7485963239 7.25068e-05 -4.41941e-05 0.0002856234 0.0002100347 0.0383237723 -0.1109342956
535296790.0 -0.3928310411 0.7519939468 0.0002106569 -0.0001903791 0.0001420265 0.0001378264 0.0369080859 -0.1111994325
540296760.0 -0.384840985 0.7562113083 0.0001107599 6.30847e-05 0.0002096326 -2.67237e-05 0.0350398516 -0.1117323336
545296730.0 -0.3772678647 0.760282293 -6.96354e-05 -8.93151e-05 0.0001288284 0.0001722619 0.0333481263 -0.1121550258
550296700.0 -0.3689700179 0.7639492209 0.0001818077 9.99037e-05 -6.53746e-05 2.52717e-05 0.0320365253 -0.1128241807
555296670.0 -0.3615137777 0.767140939 0.0002391983 0.0002483488 0.0001015814 -0.0001418083 0.0299690611 -0.1128100461
560296640.0 -0.3529796984 0.7710473261 -1.5119e-05 -0.0001027037 8.46291e-05 -0.0001878059 0.0283321753 -0.1131331863
565296610.0 -0.3455564499 0.77426043 -1.39432e-05 -0.0001173711 0.0001662107 0.0001457334 0.0267809858 -0.1132600229
570296580.0 -0.3368521058 0.7786040976 0.0001003762 0.0001538929 0.0001330922 -4.92696e-05 0.0247664642 -0.1139452961
575296550.0 -0.3282374094 0.7813987452 -7.10213e-05 -2.33341e-05 1.00737e-05 -2.50628e-05 0.023542505 -0.1139498693
580296520.0 -0.321591732 0.7844743308 0.0001006102 5.28575e-05 0.0001814608 0.0001868309 0.0218136404 -0.1142678185
585296490.0 -0.3126098178 0.7877122448 9.48e-05 0.0004334505 0.0002864676 -0.0002339185 0.0200282369 -0.1142421304
590296460.0 -0.3042747316 0.7912067885 5.74663e-05 5.83736e-05 0.0001079245 2.30469e-05 0.0182277194 -0.1147327592
595296430.0 -0.2961435246 0.7938683369 -9.5006e-06 0.000167036 5.71679e-05 3.748e-07 0.0165663968 -0.1147244504
600296400.0 -0.2880133453 0.7971242549 0.0002464118 -4.55111e-05 0.0002330803 -9.79411e-05 0.0150829039 -0.1150107175
605296370.0 -0.2797234168 0.799405612 0.0002798025 1.05613e-05 0.0002567196 3.2744e-06 0.013479047 -0.1149362161
610296340.0 -0.2713193482 0.8030110304 0.0003877907 4.85804e-05 4.05212e-05 -7.14157e-05 0.0115082448 -0.1153416479
615296310.0 -0.2627874196 0.8058385371 -3.06345e-05 -5.21786e-05 0.0001344146 -1.00817e-05 0.0100806316 -0.115292614
620296280.0 -0.2551564181 0.8082926479 0.0002002568 0.0001256195 0.0001243705 -6.61087e-05 0.0082082087 -0.1151165901
625296250.0 -0.2474897136 0.8107361371 0.000224094 2.11198e-05 8.37537e-05 0.0001100263 0.0066143421 -0.1154407885
630296220.0 -0.2386382903 0.8135301382 0.0001768683 -0.0001100491 6.5407e-05 -9.8379e-06 0.0049038023 -0.1154337976
635296190.0 -0.230431531 0.8158995153 -0.0001162289 0.0001010321 0.0001743833 -0.0001186514 0.0030405461 -0.1153767621
640296160.0 -0.2216987009 0.8179646914 0.0001017371 6.02098e-05 0.0002244768 -0.0002381526 0.001374299 -0.1151020666
645296130.0 -0.2134170447 0.820594402 -1.13869e-05 2.31647e-05 0.0001087495 -6.44602e-05 -0.000309828 -0.1148592714
650296100.0 -0.2054939074 0.8219739277 0.0003137532 -0.0002841229 -6.49623e-05 -0.0001193358 -0.0015660289 -0.1147823776
655296070.0 -0.1971767784 0.8246696767 8.36733e-05 0.0001286519 8.44479e-05 0.000119946 -0.0034969581 -0.1147554522
660296040.0 -0.1888681952 0.8263930466 -7.58414e-05 0.000131909 0.0001049171 -8.28888e-05 -0.0051420725 -0.1147978906
665296010.0 -0.1803798613 0.82818541 -3.4442e-05 -4.57683e-05 0.0001764535 2.41154e-05 -0.0066814337 -0.1146158695
670295980.0 -0.1729755057 0.8308040636 0.0001653045 -8.402e-07 2.23135e-05 -7.68781e-05 -0.0085421484 -0.1141676819
675295950.0 -0.1639877097 0.8322254496 3.32049e-05 0.0001635796 4.5826e-05 6.7714e-05 -0.0103458564 -0.1140322155
680295920.0 -0.1568146981 0.8338502959 0.0001222896 -6.73449e-05 -7.3861e-05 0.000155356 -0.0117988726 -0.1138990764
685295890.0 -0.1478838894 0.8357377781 7.68695e-05 -5.8417e-05 4.0013e-06 -5.22969e-05 -0.013518145 -0.1135479844
690295860.0 -0.1392698078 0.837354565 -8.0935e-06 -0.0001333779 0.0002035489 -8.33852e-05 -0.0153285641 -0.1132194183
695295830.0 -0.1308628865 0.8387993108 7.89897e-05 6.43839e-05 3.68606e-05 -3.91663e-05 -0.0167234441 -0.112991814
700295800.0 -0.1225744635 0.8408929677 0.0002913361 -0.0002695159 0.0001899919 -3.48864e-05 -0.0180604907 -0.1126995755
705295770.0 -0.1146955427 0.8410209908 0.0003090819 -8.4662e-06 0.0001949336 -9.07338e-05 -0.0201503659 -0.1120279094
710295740.0 -0.1069691363 0.8423247104 0.0002039689 -0.0002579605 9.7917e-05 -2.36e-05 -0.0215446774 -0.1116189563
715295710.0 -0.0976449123 0.8439151326 0.0001840514 -0.0001233467 0.0001132766 6.39604e-05 -0.0232696616 -0.1113211382
720295680.0 -0.0889202388 0.8449111231 -2.66196e-05 -4.68904e-05 5.63034e-05 4.29503e-05 -0.0247235984 -0.1110002833
725295650.0 -0.0815683925 0.84584647 0.0002370804 -0.0002150497 0.0003996774 3.13607e-05 -0.026407439 -0.1105824944
730295620.0 -0.0739777179 0.8466469529 0.0003425535 -0.0001277879 3.21378e-05 -3.57809e-05 -0.0281761423 -0.1095701677
735295590.0 -0.0660205441 0.8475552338 0.0002309232 -0.0002551531 0.0003345004 -6.76759e-05 -0.0297353154 -0.1094690257
740295560.0 -0.0578523655 0.8478275631 0.0001368444 -0.0002644474 0.0002793083 -0.0001132329 -0.0312366976 -0.1091589974
745295530.0 -0.0489650109 0.8488083585 5.94919e-05 3.03713e-05 0.0001796774 0.0001653811 -0.032876182 -0.1084429885
750295500.0 -0.0404105916 0.8492014513 0.0001790273 -9.70936e-05 -2.07116e-05 -0.0001393291 -0.0345891224 -0.1080192874
755295470.0 -0.032452582 0.8499510387 0.0004278013 -0.0002733627 -6.3015e-06 -9.79542e-05 -0.0358976961 -0.1070858045
760295440.0 -0.0241918037 0.850662949 0.0001901287 -0.0001529368 0.0002765543 -3.7165e-06 -0.0376170683 -0.1070249304
765295410.0 -0.0163461621 0.8510077878 9.80964e-05 -3.27739e-05 0.0002219658 -7.1506e-06 -0.0390013076 -0.1061747226
770295380.0 -0.0081498637 0.8511261185 9.54251e-05 -9.87237e-05 0.0001806815 -0.0001219475 -0.0410398579 -0.1053875947
775295350.0 2.30662e-05 0.8515834652 7.48506e-05 -0.0001395307 9.32516e-05 -0.0002735838 -0.0422332695 -0.1051036619
780295320.0 0.0084511147 0.8516922692 -0.0001433796 -4.50487e-05 0.0001825294 -2.57233e-05 -0.0435472169 -0.1041763
785295290.0 0.0168428022 0.8514826794 2.10219e-05 -3.39776e-05 0.0001783256 2.45489e-05 -0.0455975979 -0.1035126646
790295260.0 0.0252337892 0.8510862864 0.0001951269 -0.0001098498 0.0001164904 -0.0002139657 -0.0467953731 -0.1027582372
795295230.0 0.0333709777 0.8508770476 9.21507e-05 -0.0002257616 0.000185294 -2.24958e-05 -0.0484398937 -0.1021926738
800295200.0 0.0414085931 0.8508167463 -3.17043e-05 5.42353e-05 2.5506e-06 5.4539e-05 -0.049941248 -0.1013973081
805295170.0 0.0489564398 0.8509053227 0.000116519 -0.0001209507 0.0002957556 -4.35215e-05 -0.0511606077 -0.1007753696
810295140.0 0.0576354275 0.8508770343 0.000282201 -6.33485e-05 9.60938e-05 7.57575e-05 -0.0525787429 -0.0996127243
815295110.0 0.0653038359 0.8499110542 9.52919e-05 -0.0001285003 0.0002324229 -5.79243e-05 -0.0544174621 -0.0988215451
820295080.0 0.0734231535 0.8492200206 0.0001283949 -0.0002576816 0.0002600089 5.58735e-05 -0.0559360461 -0.0978081679
825295050.0 0.0818365895 0.848425974 0.000108582 -5.76194e-05 9.30726e-05 0.0001175109 -0.0570753125 -0.0969639283
830295020.0 0.090532256 0.8478828062 0.0003401084 -5.00146e-05 0.0003805484 2.20462e-05 -0.0585769934 -0.0965260564
835294990.0 0.0981943298 0.8465115795 0.0001234132 -0.0001101385 8.867e-07 -7.10062e-05 -0.0598931858 -0.0952271356
840294960.0 0.1067468834 0.8454831038 0.0002499492 -9.78631e-05 0.0001971624 3.36234e-05 -0.0615088974 -0.0945050555
845294930.0 0.1142072189 0.8445968557 0.0002097493 -0.0001927561 9.80839e-05 -9.01252e-05 -0.0631262338 -0.093504319
850294900.0 0.1239373819 0.8437019463 4.24626e-05 -0.0001370044 0.0001869542 7.35319e-05 -0.064232934 -0.0928805568
