!Created with skrf (http://scikit-rf.org).
# Hz S RI R 50.0 
!freq ReS11 ImS11 ReS21 ImS21 ReS12 ImS12 ReS22 ImS22
300000.0 -0.2407761055 -0.072633302 0.4736934702 0.0486589533 0.4690403095 0.0476854682 -0.2446647216 -0.0859057618
5299970.0 -0.244310871 0.0075020248 0.4736951771 0.004755756 0.4735902526 0.0051158456 -0.2448575032 0.0077671262
10299940.0 -0.2411074743 0.0187281791 0.4756538923 0.0062227778 0.4756770184 0.0063613266 -0.2412008286 0.0203137683
15299910.0 -0.236870716 0.0281965116 0.4790376648 0.0072997901 0.4794237541 0.0075634105 -0.236821513 0.0297566621
20299880.0 -0.2321508625 0.0355405735 0.4839592728 0.0086171729 0.4841511396 0.0084909519 -0.2316529021 0.0372716434
25299850.0 -0.2271656299 0.0419287187 0.4891944813 0.0077201849 0.4892423764 0.0075962587 -0.2255545354 0.0438126776
30299820.0 -0.2217995859 0.0472085684 0.4946217056 0.005512309 0.4944886381 0.00535534 -0.2194302973 0.0488863142
35299790.0 -0.2165106164 0.0513305524 0.4998874563 0.0018518452 0.5001132 0.0017684855 -0.2137677908 0.0531179878
40299760.0 -0.2115786176 0.0551236107 0.5051970433 -0.0017957419 0.5051778424 -0.0017427206 -0.2085591853 0.0558446379
45299730.0 -0.2067899986 0.0576053451 0.5094980437 -0.006442096 0.5099717706 -0.0063042621 -0.2033660796 0.0585479803
50299700.0 -0.2026543809 0.059512674 0.5143167633 -0.0116005302 0.5142507756 -0.0120532857 -0.1984833924 0.0603654353
55299670.0 -0.198416621 0.0617072876 0.5180846895 -0.0184362578 0.51800562 -0.0176281692 -0.1943787047 0.061919029
60299640.0 -0.1942767137 0.0634934797 0.5210920627 -0.0243067982 0.5217798276 -0.0236174923 -0.1905881538 0.0626233054
65299610.0 -0.1910489876 0.0648283656 0.5241758643 -0.0307772648 0.52432695 -0.0303457321 -0.1869518551 0.0639435649
70299580.0 -0.1879304154 0.0660589844 0.5265237722 -0.0371508231 0.5266941114 -0.0370595182 -0.1836494732 0.064616858
75299550.0 -0.1848371279 0.067002549 0.5286055382 -0.0438240743 0.5283937569 -0.0439859432 -0.18094196 0.0651127258
80299520.0 -0.1825981143 0.0680911025 0.5307862916 -0.0510048861 0.5308858733 -0.0508071811 -0.1780412691 0.0659359246
85299490.0 -0.1801430212 0.0689080111 0.531816179 -0.057541145 0.5320884209 -0.0574889347 -0.1759150501 0.0662940103
90299460.0 -0.1778966842 0.0695362055 0.5327473408 -0.0644499034 0.5331912614 -0.0645113905 -0.1734805674 0.0669505414
95299430.0 -0.1753187167 0.0700548515 0.5336142038 -0.0714599518 0.5338636886 -0.0715030144 -0.1711162986 0.0674539596
100299400.0 -0.1737493275 0.0715706402 0.5339298894 -0.0785127648 0.533844056 -0.0783432484 -0.1692442273 0.0676433436
105299370.0 -0.1718197084 0.0724555578 0.5343830813 -0.0856227051 0.5348383394 -0.085307882 -0.1673943109 0.0684461425
110299340.0 -0.1705771535 0.073099739 0.5347317549 -0.0918799092 0.5344839583 -0.0916427101 -0.1663149322 0.0684723521
115299310.0 -0.1688013988 0.0739901448 0.5344644475 -0.099047013 0.5346924523 -0.0988026152 -0.1649417033 0.069153717
120299280.0 -0.1675011602 0.0745253956 0.534020874 -0.1057795682 0.5342078074 -0.1062435594 -0.1635330637 0.0697861498
125299250.0 -0.1662318053 0.0754656707 0.5343068722 -0.1125511761 0.534309324 -0.112018035 -0.1626757365 0.0697858335
130299220.0 -0.1651266642 0.0768224353 0.5329907493 -0.1193432669 0.5333275959 -0.1190449324 -0.1610868705 0.070719666
135299190.0 -0.1638525364 0.0779621518 0.5333218943 -0.1262629025 0.5331443836 -0.1256463281 -0.1602213948 0.0713856121
140299160.0 -0.162898691 0.079084852 0.5321040761 -0.1330130267 0.5323289467 -0.1328156203 -0.159199862 0.0726597136
145299130.0 -0.1614734777 0.0798238958 0.5313066192 -0.1388695671 0.5309064255 -0.1388947729 -0.158128352 0.0731773692
150299100.0 -0.1601746222 0.0811213042 0.5299175118 -0.1452577193 0.5302113948 -0.1453689862 -0.1573578989 0.0740922022
155299070.0 -0.1597218711 0.0819281353 0.5290157552 -0.1525393859 0.5287420753 -0.1518582363 -0.1564921061 0.074910017
160299040.0 -0.1582392894 0.0834094677 0.5274091415 -0.1585462773 0.5273466649 -0.1588091525 -0.1559134749 0.0757719963
165299010.0 -0.1573660507 0.0845970938 0.5258837254 -0.1655663218 0.5261864179 -0.1653383274 -0.1545271114 0.0769574139
170298980.0 -0.1565558031 0.0859181966 0.5240737959 -0.1716647045 0.5245914795 -0.1716174375 -0.1537585798 0.0777257977
175298950.0 -0.1555940701 0.0870050043 0.5231340222 -0.177789734 0.5229584656 -0.1777683443 -0.1534303894 0.0786759619
180298920.0 -0.1550132867 0.0884769708 0.5211974965 -0.1837144271 0.5210931967 -0.1838570743 -0.1525888653 0.0798509374
185298890.0 -0.1533999828 0.0894302546 0.5193739951 -0.1904278011 0.5190177 -0.1901904063 -0.1518573638 0.0809362333
190298860.0 -0.1527764892 0.0911132311 0.5178599451 -0.1966652067 0.5174955077 -0.196377524 -0.150776781 0.0816734631
195298830.0 -0.1519524441 0.0924215308 0.5156785915 -0.202727676 0.5152961352 -0.2023233201 -0.1501962923 0.0826275957
200298800.0 -0.1508531397 0.0939155535 0.5135527558 -0.2092222796 0.5136830075 -0.2088695478 -0.149893662 0.0839244001
205298770.0 -0.1497063809 0.0951358904 0.5107923805 -0.2149147995 0.5109713735 -0.2148507146 -0.1485481602 0.0847120457
210298740.0 -0.1490402418 0.0962506127 0.5087599384 -0.2205779124 0.5086981632 -0.2204259515 -0.1477861126 0.086316581
215298710.0 -0.1482593457 0.0977196353 0.506706565 -0.2266836844 0.5063865367 -0.2267412054 -0.1473069119 0.0872640409
220298680.0 -0.1469911215 0.0986029511 0.503738319 -0.2324491886 0.5040076372 -0.2326083827 -0.1467611194 0.0881257882
225298650.0 -0.1461600447 0.1001612233 0.5011864538 -0.238507995 0.5016920889 -0.2383337277 -0.1463175867 0.0892240833
230298620.0 -0.1451624232 0.1020904127 0.4991515321 -0.2444383762 0.4994562667 -0.243980228 -0.1453974091 0.0906453799
235298590.0 -0.1440488495 0.103772031 0.4966324065 -0.2504010464 0.4965250139 -0.2498277425 -0.1445783121 0.0919668624
240298560.0 -0.1429778948 0.104970675 0.493957575 -0.2559977802 0.4938209642 -0.2559925585 -0.1439108996 0.0932586862
245298530.0 -0.1422441362 0.1062975459 0.4908286659 -0.2612462891 0.4912828502 -0.2613213439 -0.1428955556 0.0936857391
250298500.0 -0.1408627505 0.1079851904 0.4877241505 -0.2671539824 0.487576481 -0.2665440646 -0.1422294356 0.0955311246
255298470.0 -0.1399325689 0.1090495892 0.4847408482 -0.2725612657 0.4851381502 -0.2723295144 -0.1413461806 0.0968072922
260298440.0 -0.1392308857 0.1106505155 0.4821064617 -0.2785738865 0.4824351804 -0.2779430775 -0.1399668495 0.0980673462
265298410.0 -0.1378035744 0.1126088373 0.4790653071 -0.2838034852 0.4794957623 -0.283244233 -0.1394966181 0.0994975339
270298380.0 -0.1366649039 0.1137619162 0.4763084924 -0.2888330347 0.4766082891 -0.2889229641 -0.1388388391 0.1007136436
275298350.0 -0.1353438722 0.1151942876 0.4726802173 -0.2945938847 0.4735489681 -0.294701651 -0.1378070479 0.1017636497
280298320.0 -0.1339989451 0.1168045481 0.4699161419 -0.3000615748 0.4700233226 -0.2999112112 -0.1367250462 0.1032317034
285298290.0 -0.1329034509 0.1186110482 0.4667125673 -0.3053994759 0.4664075283 -0.3052364209 -0.136058657 0.1045751577
290298260.0 -0.1314939946 0.1197857982 0.4630983382 -0.3104226715 0.463282643 -0.3105468029 -0.1348477947 0.1059942298
295298230.0 -0.1302430076 0.1207286555 0.4599649862 -0.3154893396 0.4599438624 -0.3159290128 -0.1337512693 0.1070189574
300298200.0 -0.1294091611 0.1224286248 0.456588817 -0.3207742089 0.4571456657 -0.3213496834 -0.1329569306 0.1084513659
305298170.0 -0.12794994 0.1236952027 0.4525276763 -0.3264688219 0.4531103095 -0.3262959174 -0.1314932166 0.109412437
310298140.0 -0.126734589 0.1252412508 0.4493535557 -0.3312627667 0.4497356678 -0.3314109414 -0.1307588711 0.1105263838
315298110.0 -0.1254696783 0.1261307594 0.4458248702 -0.3363561847 0.4460541837 -0.3364993391 -0.1301077623 0.1118803694
320298080.0 -0.1240879763 0.127920707 0.4414116763 -0.3419620568 0.4423306094 -0.341656873 -0.1287985636 0.1131485226
325298050.0 -0.1226789057 0.1288522676 0.4375919172 -0.3469520275 0.4380980734 -0.346880958 -0.1282540382 0.1141803145
330298020.0 -0.1215083208 0.1302017466 0.4336676917 -0.3520968037 0.4342753782 -0.3517145261 -0.1275153124 0.1154416313
335297990.0 -0.1201024238 0.1313841796 0.4300901745 -0.3564741779 0.4301513034 -0.3565167276 -0.127058313 0.1169711516
340297960.0 -0.1193068147 0.1331007741 0.4261441625 -0.3613057062 0.4255646902 -0.3616617624 -0.1252096446 0.1185559542
345297930.0 -0.1178972271 0.1349783748 0.4219541984 -0.366683189 0.4216787703 -0.3664175953 -0.1248712547 0.1191288425
350297900.0 -0.116750692 0.1357824823 0.4171080715 -0.3707749185 0.41756833 -0.3709165723 -0.1239788668 0.121127592
355297870.0 -0.1152107318 0.137776507 0.4134310615 -0.3751824801 0.4138288487 -0.3751993797 -0.1231412849 0.1220112337
360297840.0 -0.1136561605 0.1388535883 0.4097710596 -0.3794701318 0.4099533132 -0.3796627901 -0.1217059547 0.123711288
365297810.0 -0.1124515303 0.1405346139 0.4053737534 -0.3846830646 0.4055441424 -0.3845507824 -0.1204523336 0.1248084033
370297780.0 -0.1107214488 0.1415257166 0.4009791507 -0.3888148071 0.4014057374 -0.3884441393 -0.1194329067 0.1261549943
375297750.0 -0.1092354287 0.1429994065 0.3967969057 -0.3927206305 0.3971610919 -0.3931320006 -0.118340992 0.1272468904
380297720.0 -0.1076662703 0.1442679999 0.3922874285 -0.3977026874 0.3923587668 -0.3970900237 -0.1175985428 0.128114774
385297690.0 -0.1065700046 0.1456035591 0.3876592027 -0.401822841 0.3879503981 -0.4017104056 -0.1157935668 0.1298258659
390297660.0 -0.1048286406 0.1470021084 0.3834067089 -0.4061092345 0.3836885207 -0.4055881578 -0.1152028039 0.1309205659
395297630.0 -0.103123501 0.1484598579 0.3790447098 -0.4104726815 0.3792337324 -0.4103123837 -0.1131197826 0.1321622625
400297600.0 -0.1016929219 0.1495748135 0.374060641 -0.414656311 0.374266279 -0.4144362406 -0.1120586646 0.1337520961
405297570.0 -0.1002584349 0.150698332 0.3701138687 -0.4184185157 0.3701062467 -0.4181181126 -0.1111185888 0.1346520737
410297540.0 -0.098281571 0.1519040745 0.3653753367 -0.4226413485 0.3658136994 -0.4224814292 -0.1097882815 0.1363073968
415297510.0 -0.0966290215 0.1531004673 0.3602580379 -0.4266042606 0.3611148778 -0.4267539561 -0.108437387 0.1373781042
420297480.0 -0.0952015626 0.1547345411 0.3560430917 -0.4305318553 0.3558071618 -0.4307491033 -0.10763119 0.1382910061
425297450.0 -0.0934933952 0.1553713379 0.3514146659 -0.4344973832 0.3517159557 -0.4342600521 -0.1062042065 0.139736416
430297420.0 -0.0919282046 0.1566098481 0.3467040652 -0.4376399343 0.3466837786 -0.4377841573 -0.1049506564 0.1406312605
435297390.0 -0.0902468337 0.1578039404 0.3413714929 -0.4416911291 0.3411291367 -0.4416767335 -0.1029972545 0.1418316824
440297360.0 -0.0884653256 0.1593647311 0.3364615394 -0.4456131063 0.3368778072 -0.4456835447 -0.1020446402 0.142825763
445297330.0 -0.0869894429 0.160051606 0.3324631997 -0.4494747874 0.3324271171 -0.4487086899 -0.1006185173 0.1438060969
450297300.0 -0.0848775832 0.1608435068 0.3269512861 -0.4530065911 0.3271265179 -0.4530824999 -0.0995572798 0.1450054287
455297270.0 -0.0831558967 0.16230905 0.3214557089 -0.456539436 0.3223925862 -0.4562179235 -0.0979867715 0.1462145571
460297240.0 -0.0815403013 0.1633974362 0.3168633898 -0.4596703424 0.3172747895 -0.4599365834 -0.0970618145 0.1475488732
465297210.0 -0.0795076969 0.1644976406 0.3119011137 -0.4631776523 0.311924341 -0.4633475663 -0.0951487871 0.1483413875
470297180.0 -0.0779847682 0.1650517429 0.3067295897 -0.4666345885 0.3069699358 -0.4665757913 -0.0938347786 0.149749174
475297150.0 -0.0760593098 0.16608253 0.3015281618 -0.4697056299 0.3018413816 -0.4695263323 -0.0919040647 0.1502602591
480297120.0 -0.0743695151 0.1676499713 0.2964283792 -0.473490207 0.2962652781 -0.4735355919 -0.0905690382 0.1517340185
485297090.0 -0.0724951059 0.1682297747 0.2912643468 -0.4761391363 0.2915180245 -0.4760592627 -0.0891678134 0.1526425795
490297060.0 -0.0710351088 0.169205216 0.2865915436 -0.4795540065 0.2866263433 -0.4796830252 -0.0879095202 0.1538748411
495297030.0 -0.0688711819 0.1702302988 0.2808647778 -0.4825877122 0.2812628378 -0.4822354814 -0.0867073472 0.154888867
500297000.0 -0.066957671 0.1709306379 0.2753714709 -0.4852181666 0.2755434098 -0.4850512668 -0.0852157956 0.1562694701
505296970.0 -0.065099526 0.1719119701 0.2704152132 -0.4881527268 0.2703079811 -0.4884980008 -0.0838188955 0.1569623033
510296940.0 -0.0630629226 0.1731213246 0.2647451793 -0.49170451 0.2647184881 -0.491498281 -0.0819594288 0.1578808502
515296910.0 -0.0612973109 0.1738386048 0.2595329409 -0.4945772714 0.2597653827 -0.4940422037 -0.0803430762 0.158793007
520296880.0 -0.059576847 0.1745119979 0.2540799963 -0.4971396586 0.2543516487 -0.4971510947 -0.0789233928 0.1592855358
525296850.0 -0.0573937115 0.1748258817 0.2484068515 -0.4996418702 0.2488317355 -0.4996822427 -0.0777473612 0.160779814
530296820.0 -0.0553840002 0.1759020521 0.2433792048 -0.5023750504 0.2432049046 -0.5024484794 -0.0760061424 0.1611512196
535296790.0 -0.0538264235 0.1765542647 0.23802307 -0.5048298692 0.2379284777 -0.5044896607 -0.0743039675 0.1619501993
540296760.0 -0.051819413 0.1778457405 0.2324120651 -0.5077609173 0.2325151968 -0.507658798 -0.0729387246 0.1632424066
545296730.0 -0.0495783664 0.1782085605 0.2263794427 -0.5098890649 0.2266589001 -0.5100986987 -0.0715747288 0.163875058
550296700.0 -0.0476238549 0.1789531336 0.2209245249 -0.5119865553 0.2215018855 -0.5127450258 -0.0699745408 0.1646381765
555296670.0 -0.0456578419 0.1794050982 0.2155586453 -0.5147980528 0.2160635528 -0.5146316491 -0.0680354099 0.1660047952
560296640.0 -0.0437412862 0.1805181279 0.2099937208 -0.517358379 0.2100175381 -0.5169711324 -0.0666484761 0.1665008499
565296610.0 -0.042284057 0.1809102539 0.2043833574 -0.5192515219 0.2046296622 -0.5190918731 -0.0650655024 0.1668988606
570296580.0 -0.0401400257 0.1810403135 0.1986336203 -0.5218550287 0.198514032 -0.5216032538 -0.0636175111 0.1683207019
575296550.0 -0.0381582897 0.1824436621 0.1931527695 -0.5239489551 0.1930456241 -0.5235299091 -0.0614848911 0.1685940875
580296520.0 -0.0359316608 0.1827287786 0.1869543872 -0.5257524135 0.187235592 -0.5258405249 -0.0603126328 0.1694063303
585296490.0 -0.0341189799 0.1827819993 0.1821074859 -0.5273421247 0.1818099413 -0.5276894647 -0.0584045912 0.1703271417
590296460.0 -0.031732856 0.1836893852 0.1757319598 -0.5291590935 0.1759514339 -0.5292443265 -0.0569930489 0.1710255474
595296430.0 -0.0296642603 0.184111834 0.1696288287 -0.531467864 0.170015983 -0.531274931 -0.054985009 0.1713087399
600296400.0 -0.0280376536 0.1845029744 0.1645544172 -0.5329242695 0.1644167058 -0.533180582 -0.0538503122 0.1722882359
605296370.0 -0.0259427064 0.1850166615 0.1585058575 -0.5345890995 0.1587540256 -0.5346298066 -0.0517745839 0.1728216274
610296340.0 -0.0237617719 0.1854722438 0.1524768815 -0.5362911014 0.1530733853 -0.5363602777 -0.0500574135 0.1734643828
615296310.0 -0.0214425752 0.1856627827 0.1466355065 -0.537478174 0.1464586623 -0.5380851631 -0.0482104104 0.1740042595
620296280.0 -0.0198795858 0.1858704691 0.1407619547 -0.5394263063 0.1413913795 -0.5392673417 -0.0468215657 0.1748999614
625296250.0 -0.0178971618 0.1861045188 0.1358039111 -0.5410644988 0.1352797088 -0.5412399954 -0.0445066728 0.175511039
630296220.0 -0.0150328585 0.1868214736 0.1287862662 -0.5427484388 0.1288694694 -0.5422816191 -0.0432218726 0.1761183147
635296190.0 -0.013833942 0.186846831 0.123539009 -0.5434581834 0.1233565351 -0.5440545664 -0.0414452585 0.1768125804
640296160.0 -0.0115889483 0.1876076576 0.1178354254 -0.5446883149 0.1179165226 -0.5451017141 -0.0399084537 0.177097308
645296130.0 -0.0092391867 0.1877656215 0.1113037081 -0.5461178644 0.1118905515 -0.5462973817 -0.0380180766 0.1782181435
650296100.0 -0.0072323003 0.1877984805 0.105806773 -0.5471266417 0.1060136728 -0.547151048 -0.0360881622 0.1778756119
655296070.0 -0.0055664221 0.1880877487 0.0996039143 -0.5484445494 0.1001610717 -0.5482701092 -0.0344727491 0.1789780206
660296040.0 -0.0035746574 0.1878861955 0.0939275282 -0.5494619786 0.0939750097 -0.5497133147 -0.0324635257 0.1793432582
665296010.0 -0.0008763108 0.187973576 0.087647806 -0.5502616893 0.0877367703 -0.5501703225 -0.0308383146 0.1801112251
670295980.0 0.0001718877 0.1885895641 0.0823489291 -0.5507529074 0.0817696391 -0.551261372 -0.0295410095 0.1800763704
675295950.0 0.002792262 0.1888416021 0.0761201426 -0.5517356139 0.07622261 -0.5518010575 -0.0282329728 0.180845089
680295920.0 0.0046947575 0.1887040123 0.0697615893 -0.5525128831 0.069558019 -0.5532904394 -0.0260773787 0.1818308969
685295890.0 0.0071417735 0.189311018 0.0639604093 -0.5536652736 0.0639397024 -0.5533358881 -0.0241718166 0.1814563148
690295860.0 0.0092537174 0.1888637635 0.057799541 -0.5533884627 0.0581726657 -0.554356562 -0.0225660555 0.1827650421
695295830.0 0.011120381 0.1888762559 0.0523059196 -0.5539858923 0.0524322966 -0.5546291041 -0.0208578924 0.1829048212
700295800.0 0.0132082538 0.1887127531 0.0460210115 -0.5544968558 0.0459471885 -0.5549405897 -0.0193076757 0.1834358927
705295770.0 0.0150941894 0.1893565039 0.0398348656 -0.5552786141 0.0405648655 -0.5552795644 -0.0174123934 0.1832335136
710295740.0 0.0173350795 0.1889894016 0.0342812628 -0.5562605471 0.0345792255 -0.5559391924 -0.015576632 0.1830844438
715295710.0 0.0190328243 0.188616108 0.0285653263 -0.5561096296 0.0283210544 -0.5563382655 -0.013565012 0.1838055948
720295680.0 0.0212288325 0.188850853 0.0221764667 -0.5566797423 0.0228336254 -0.5565379077 -0.0119767396 0.1847093469
725295650.0 0.0235750164 0.1886612865 0.0160849971 -0.5569001674 0.0162688249 -0.5567698007 -0.0102771003 0.1850815875
730295620.0 0.0256774001 0.1888153971 0.0101410575 -0.556585808 0.0104331156 -0.5569058721 -0.0086603809 0.1846411865
735295590.0 0.0274875889 0.1887236293 0.0044917624 -0.5571725604 0.0042102797 -0.5567427705 -0.0066628468 0.1847915076
740295560.0 0.0294649938 0.1886240366 -0.0018761925 -0.556650955 -0.0018097892 -0.5566082381 -0.0045073515 0.1854561951
745295530.0 0.0315602828 0.188385269 -0.0078906856 -0.5564672246 -0.0078703237 -0.5565712337 -0.0028207973 0.1851098448
750295500.0 0.0338234994 0.1878448316 -0.0135425674 -0.5560129161 -0.0137589363 -0.5567335954 -0.0011409213 0.1854597394
755295470.0 0.0360401913 0.1875906889 -0.019733955 -0.5561656005 -0.0198101047 -0.5564188305 0.0012886056 0.1850526201
760295440.0 0.0378498536 0.1874088073 -0.0257429082 -0.5561796607 -0.0256269301 -0.5566318198 0.0027203206 0.185627317
765295410.0 0.0400007439 0.187256648 -0.0316771049 -0.5558302658 -0.0319317778 -0.5556888734 0.0045559397 0.1860796935
770295380.0 0.041655504 0.1870804445 -0.0378202678 -0.5554792908 -0.0380251794 -0.5553635552 0.0061238001 0.1856730228
775295350.0 0.0438271242 0.1863587189 -0.0442504477 -0.554443753 -0.04348368 -0.5546718332 0.0076902866 0.1861647431
780295320.0 0.0460288082 0.1863704199 -0.0498184233 -0.5539033455 -0.0492798689 -0.5544452604 0.0094656884 0.185947224
785295290.0 0.047949631 0.1852510713 -0.0560125395 -0.5530399083 -0.0556177201 -0.553624594 0.0118749844 0.1861216794
790295260.0 0.0506261993 0.1856367683 -0.0612288635 -0.552926334 -0.0609692817 -0.5528013837 0.013798131 0.1863294169
795295230.0 0.052189838 0.1846851859 -0.0676564523 -0.5519892344 -0.0674214813 -0.5525706313 0.0157142284 0.186270831
800295200.0 0.0540887604 0.1845610644 -0.0741891644 -0.5511736861 -0.0734172833 -0.5512999536 0.0172038311 0.1862903763
805295170.0 0.0565780897 0.1838236644 -0.0795888477 -0.5505408815 -0.0795918101 -0.5507086127 0.0191204366 0.1868043512
810295140.0 0.0582683562 0.1832368994 -0.0852180764 -0.5494085703 -0.085076984 -0.5494860068 0.0212355128 0.1865865062
815295110.0 0.0604241076 0.1825078733 -0.0908367358 -0.5483182529 -0.0908898188 -0.5485719239 0.0225436445 0.1863839489
820295080.0 0.0620066108 0.1824906959 -0.0970058676 -0.5470244314 -0.096533616 -0.5475070694 0.0246574089 0.1862666924
825295050.0 0.0647948499 0.1817105572 -0.1024105734 -0.5464904663 -0.1027147674 -0.5468950152 0.0267346173 0.1867382554
830295020.0 0.0664150086 0.1814912179 -0.1093107401 -0.5452023885 -0.1086827866 -0.5451673356 0.0290088709 0.1866857966
