!Created with skrf (http://scikit-rf.org).
# Hz S RI R 50.0 
!freq ReS11 ImS11 ReS21 ImS21 ReS12 ImS12 ReS22 ImS22
300000.0 -0.2393168522 -0.0884352674 0.4725100911 0.0579155307 0.4717462396 0.0550909419 -0.2419064756 -0.0938937562
5299970.0 -0.2447109119 0.0067472736 0.4746356888 0.0051689886 0.4747317516 0.0050461155 -0.2413122401 0.0074720699
10299940.0 -0.2417695863 0.0182005545 0.476775803 0.005897976 0.4766149124 0.0062055918 -0.2377178599 0.020570479
15299910.0 -0.2373387228 0.0266542541 0.4804666636 0.0072026121 0.480627433 0.0075471405 -0.2331137787 0.0301115328
20299880.0 -0.2326191614 0.0340926111 0.4849242677 0.0080223608 0.4849452217 0.007788871 -0.2276686083 0.0380964433
25299850.0 -0.2274338539 0.0402997626 0.4899799613 0.0069118523 0.4901396976 0.0070743501 -0.2219803059 0.0448070283
30299820.0 -0.2221845669 0.0450494896 0.4954486563 0.0047486014 0.495390775 0.0047222331 -0.2160335893 0.0501218547
35299790.0 -0.2173418924 0.0491821119 0.5009381445 0.0016605447 0.5010300582 0.0016447868 -0.2106024527 0.0544932022
40299760.0 -0.2126453616 0.0523743593 0.5057463409 -0.0022357526 0.505689364 -0.00251085 -0.2049025637 0.0574999096
45299730.0 -0.2081264468 0.0549265906 0.5106431168 -0.0070320817 0.5106416849 -0.0070158142 -0.2003769875 0.0606806083
50299700.0 -0.2038785857 0.0566640998 0.5148886638 -0.0125971672 0.5151235336 -0.0123119097 -0.1957131964 0.0623971922
55299670.0 -0.1997637779 0.0582421419 0.5182985615 -0.0188618689 0.5186113669 -0.0183995708 -0.1914347058 0.0643184695
60299640.0 -0.1959574976 0.060182723 0.5218368085 -0.0250486369 0.5221257706 -0.0247329899 -0.187509159 0.0653194145
65299610.0 -0.1929666546 0.0612011979 0.5245946639 -0.0313575669 0.5247727408 -0.0311608072 -0.1840738287 0.0663646794
70299580.0 -0.1901963911 0.0621670653 0.5270908252 -0.0378048639 0.5271968895 -0.0375911202 -0.1807485886 0.0676311676
75299550.0 -0.1870813294 0.0632171678 0.5291007547 -0.0446751851 0.5289269568 -0.0445634522 -0.1776045263 0.068515483
80299520.0 -0.1849308592 0.0637272042 0.5311338655 -0.0515014596 0.5310663175 -0.0515689458 -0.1750744584 0.0692246455
85299490.0 -0.1824202229 0.0641083557 0.5319146452 -0.0581069995 0.5319835812 -0.0582634631 -0.1729182857 0.0695013158
90299460.0 -0.180432455 0.0648317721 0.5328962845 -0.0653570206 0.5331367886 -0.0654751083 -0.1705549756 0.0704105134
95299430.0 -0.1782498539 0.0652510515 0.5342163048 -0.0720056495 0.5339273539 -0.0724586631 -0.1680725212 0.0713128478
100299400.0 -0.1765546749 0.0662816662 0.5341892975 -0.0787560452 0.5343266383 -0.0791391468 -0.1660671373 0.0713406231
105299370.0 -0.1751576847 0.0669647101 0.5347493421 -0.0862590434 0.5349385336 -0.0859637616 -0.1640366077 0.0722144766
110299340.0 -0.1736409827 0.067455743 0.5349450544 -0.0925485844 0.5347973847 -0.092561429 -0.162849066 0.072868446
115299310.0 -0.172099816 0.0680301092 0.5347657893 -0.0996548034 0.5347001845 -0.0995564805 -0.1612383894 0.0736633154
120299280.0 -0.1709266605 0.0686091069 0.5342902575 -0.1064186073 0.5344707297 -0.1062030389 -0.1595708514 0.07432379
125299250.0 -0.1695160257 0.0690420545 0.5341073525 -0.1127980911 0.5339487354 -0.1130795464 -0.1582900328 0.0749822753
130299220.0 -0.1686742352 0.0701274547 0.5331498774 -0.1196785331 0.5332183168 -0.1200100843 -0.1572669657 0.0755795352
135299190.0 -0.1675243077 0.0710328015 0.5333173404 -0.1266863023 0.5328634275 -0.1261588129 -0.1558439232 0.0769937295
140299160.0 -0.1665517669 0.0719868745 0.5318818288 -0.1332118368 0.5321155866 -0.1332488468 -0.1544515857 0.0780293528
145299130.0 -0.1655886729 0.0728669212 0.5315243623 -0.1397515927 0.5310094183 -0.1396969401 -0.1536735415 0.0788355501
150299100.0 -0.1645125739 0.074071672 0.5297579815 -0.1456670722 0.530052765 -0.1457224684 -0.152186006 0.0803151031
155299070.0 -0.1639018696 0.0748304149 0.5287350067 -0.1531741839 0.5287227344 -0.1532846047 -0.1510784532 0.0812634611
160299040.0 -0.162904317 0.0757920306 0.5273878259 -0.1592035108 0.5269942897 -0.1592970202 -0.1505633691 0.0822470231
165299010.0 -0.162456783 0.0769571676 0.5262902532 -0.1658948063 0.5258469487 -0.1657216983 -0.1494335841 0.0837225016
170298980.0 -0.1615739695 0.0776728317 0.524363181 -0.1716955817 0.5245460231 -0.171841317 -0.1484023285 0.0846005476
175298950.0 -0.1609233605 0.0787305922 0.5229966443 -0.1779646366 0.5223700913 -0.1780987179 -0.1476252195 0.086079541
180298920.0 -0.1603197049 0.0799445329 0.5212187225 -0.184436837 0.5208325175 -0.1842009689 -0.1467666995 0.0871639218
185298890.0 -0.1589861284 0.0808436087 0.518759966 -0.1905667173 0.5187662315 -0.1909088508 -0.1455925489 0.08842643
190298860.0 -0.1584335824 0.0822710653 0.5171827399 -0.19689797 0.517583025 -0.1968063531 -0.1447457566 0.0898123804
195298830.0 -0.1577708928 0.0833783022 0.5149927895 -0.2027989149 0.5154761512 -0.202870044 -0.1437275476 0.0911117777
200298800.0 -0.1568575251 0.0848037442 0.5130091267 -0.2092170802 0.5135128985 -0.2091476608 -0.1431533696 0.0922375348
205298770.0 -0.1560567751 0.0860289945 0.510497293 -0.215693412 0.5106925006 -0.2150103215 -0.1420095808 0.093201441
210298740.0 -0.1553519215 0.0867953075 0.5083739631 -0.2207828676 0.5088624789 -0.2206656 -0.1410624469 0.095302677
215298710.0 -0.1552590218 0.088299817 0.5067178049 -0.2270715227 0.5064460548 -0.2273371071 -0.1402148261 0.0963479043
220298680.0 -0.1539550133 0.089183146 0.5034599466 -0.2327006819 0.503919486 -0.2329253699 -0.1398532706 0.0976645294
225298650.0 -0.1534296912 0.0905803823 0.501423263 -0.2386821701 0.5016716724 -0.238706508 -0.1390838783 0.098816566
230298620.0 -0.1525872665 0.0924172055 0.4991897295 -0.244514442 0.4994112728 -0.2444226975 -0.1380762502 0.0999194649
235298590.0 -0.1517629556 0.0934507973 0.4962947346 -0.2502874345 0.4964362417 -0.2499121532 -0.1367522845 0.1014652166
240298560.0 -0.151113702 0.0949469964 0.4937872225 -0.2559946135 0.4934020717 -0.2562527906 -0.1358363261 0.1031666097
245298530.0 -0.1506680002 0.0961700061 0.4914367775 -0.2615944516 0.4910924682 -0.2616564941 -0.1345024543 0.1038705889
250298500.0 -0.1493097299 0.0975422169 0.4874773831 -0.2674605846 0.4875775902 -0.2671081096 -0.1342651791 0.1056297575
255298470.0 -0.1486813232 0.0987009818 0.4843624174 -0.2725554728 0.4851304745 -0.2726769724 -0.1328691539 0.1068334019
260298440.0 -0.1478721709 0.1000946049 0.4818780496 -0.2787185715 0.4821303372 -0.2781594894 -0.1314639179 0.108557361
265298410.0 -0.1466121066 0.1017447676 0.4787536047 -0.2840114775 0.4794502944 -0.283663906 -0.1305238612 0.1098150964
270298380.0 -0.1459637838 0.1029913034 0.4764632174 -0.2891611834 0.4762232466 -0.2892034881 -0.1296073143 0.1110551419
275298350.0 -0.1448091713 0.1042700365 0.4727167072 -0.2948954349 0.4730229927 -0.2949590927 -0.1283050648 0.1122564783
280298320.0 -0.1438170802 0.1057912425 0.4695126744 -0.3002753378 0.4695433397 -0.3000693829 -0.1269307884 0.1137332478
285298290.0 -0.143078607 0.1071611203 0.4667186357 -0.3053716934 0.4662554514 -0.3053236195 -0.1257169546 0.1149022705
290298260.0 -0.1420032127 0.1083831286 0.4634781995 -0.3101042059 0.4632560189 -0.3104951792 -0.1246251843 0.1166655612
295298230.0 -0.1407216764 0.1094192487 0.460017209 -0.3159499125 0.4596604239 -0.3156869779 -0.1227957798 0.1175294153
300298200.0 -0.1402964545 0.1110848087 0.4565077952 -0.3209343502 0.4566223376 -0.3216506342 -0.1215664574 0.1189414723
305298170.0 -0.1388716315 0.1122435304 0.4525734504 -0.3264767617 0.4527586557 -0.3264800636 -0.1200090108 0.1201052339
310298140.0 -0.1379148008 0.1136020815 0.4489520578 -0.3319053216 0.449220798 -0.3316872667 -0.1188174867 0.1214132168
315298110.0 -0.1369884521 0.1147018464 0.4455660751 -0.3364584708 0.4456786572 -0.3370332426 -0.1176672692 0.1227994568
320298080.0 -0.1359864096 0.1159929494 0.4413591635 -0.3420500044 0.4418037934 -0.3419819792 -0.1165399568 0.1242981497
325298050.0 -0.1351482793 0.117292412 0.4380034764 -0.3472566992 0.437789031 -0.3469624065 -0.1154697346 0.1253935914
330298020.0 -0.1340994672 0.118245961 0.4337505991 -0.3520439411 0.4341935768 -0.3518885866 -0.1143707783 0.1265714417
335297990.0 -0.1329903261 0.1195584439 0.4297587011 -0.3564143536 0.4299629602 -0.3566519173 -0.1136739443 0.1284441047
340297960.0 -0.1328125049 0.1210073679 0.4259906334 -0.3614565079 0.4254866082 -0.361652905 -0.1112334383 0.1296637979
345297930.0 -0.1312890984 0.1225292589 0.4213446094 -0.3663769603 0.4213238238 -0.366251883 -0.1106232385 0.1309887883
350297900.0 -0.1304659308 0.1235086091 0.4172323176 -0.3708686396 0.4172187043 -0.3708691771 -0.1095986242 0.1327302291
355297870.0 -0.1292858758 0.1255864966 0.4134714311 -0.3756006332 0.4136599297 -0.3751192961 -0.108126801 0.1336363534
360297840.0 -0.1281444566 0.1267891551 0.4095681497 -0.379599484 0.4097779922 -0.3797028343 -0.1066421521 0.1353638024
365297810.0 -0.1271963994 0.1284050743 0.4050141421 -0.3848750492 0.4054365998 -0.3849105853 -0.1053380479 0.1367140478
370297780.0 -0.1257834421 0.1291431645 0.4003218665 -0.3884648373 0.4011166416 -0.3883984348 -0.1040865369 0.138105855
375297750.0 -0.1244039298 0.1306923033 0.3968107894 -0.392967165 0.3969632425 -0.3931432375 -0.1024148145 0.139247116
380297720.0 -0.1234514048 0.1321637185 0.3919291217 -0.3980051518 0.392515275 -0.397165675 -0.1015048616 0.1404399888
385297690.0 -0.1224941136 0.1331532097 0.3876571082 -0.4017351327 0.3877814922 -0.4015274804 -0.0997774745 0.1419624413
390297660.0 -0.1211876203 0.134839439 0.3838293221 -0.4062409174 0.3832607345 -0.4058822535 -0.0982210873 0.1430488225
395297630.0 -0.1201043459 0.1363020247 0.379214084 -0.4104313889 0.37907461 -0.4104389013 -0.0963217773 0.1446744765
400297600.0 -0.1188631333 0.1373535999 0.374202243 -0.4147398842 0.3745342905 -0.4146461933 -0.0952901039 0.1457270008
405297570.0 -0.1177221115 0.138666599 0.3699862526 -0.4179496911 0.3697410596 -0.4183570247 -0.0937938475 0.1469069636
410297540.0 -0.11575459 0.1399903483 0.3648631848 -0.4226859364 0.3657225244 -0.4225149413 -0.0922561909 0.1482585581
415297510.0 -0.1148764416 0.1409990376 0.3603946532 -0.4266845253 0.3606797614 -0.4265301918 -0.0905529236 0.1494764864
420297480.0 -0.1133278029 0.1428344784 0.3559078305 -0.4303576573 0.3555948389 -0.4309198248 -0.0889262376 0.1501375676
425297450.0 -0.1120491824 0.1434721533 0.3515510401 -0.4342164686 0.3515233479 -0.4346262987 -0.087668843 0.1518286267
430297420.0 -0.1106618367 0.1445620744 0.3463392846 -0.4372513814 0.3462449912 -0.4376109231 -0.085929066 0.1524950159
435297390.0 -0.1092780552 0.1461864752 0.3412246194 -0.4418040159 0.341086469 -0.4420682935 -0.0837420146 0.1536289181
440297360.0 -0.1078273357 0.1475051272 0.3365852214 -0.4453409895 0.3370545294 -0.4457281318 -0.082704596 0.1542821103
445297330.0 -0.106707911 0.1481797004 0.3321757116 -0.4491971677 0.3320249489 -0.4488624498 -0.080693215 0.1550789894
450297300.0 -0.1049383181 0.1495425642 0.3267753689 -0.4529417099 0.3270593589 -0.4531418839 -0.0791240918 0.1560947187
455297270.0 -0.1037331099 0.1505688471 0.3218372018 -0.456434619 0.3220350858 -0.4564557822 -0.0771377159 0.1573084395
460297240.0 -0.102450008 0.151806877 0.3169061873 -0.4597673653 0.3163967015 -0.4596328297 -0.0757442741 0.1585848686
465297210.0 -0.1005946525 0.1528545915 0.3117595885 -0.463360014 0.3120448808 -0.4633928121 -0.0735258834 0.159379958
470297180.0 -0.0992857218 0.1540425098 0.3066627341 -0.4667611312 0.3066806691 -0.4667443939 -0.0717505689 0.1602545191
475297150.0 -0.0979645411 0.154710799 0.3011566539 -0.4697329481 0.301716312 -0.4693378793 -0.0695959249 0.1609761383
480297120.0 -0.0964173193 0.1561775335 0.2964292371 -0.4730164005 0.2963480493 -0.4733415798 -0.068140928 0.1621486942
485297090.0 -0.0951894153 0.1570719009 0.2916152433 -0.476017793 0.2917466327 -0.4760367192 -0.0660476945 0.1629604703
490297060.0 -0.093656685 0.1583070394 0.2862582088 -0.4798678651 0.2864013676 -0.4789100457 -0.0644701222 0.1641102488
495297030.0 -0.0919296967 0.159410715 0.2803620613 -0.4825263827 0.2810190043 -0.4822802749 -0.0627682663 0.1647735428
500297000.0 -0.0903678724 0.160248716 0.2753774438 -0.4853811869 0.2755062585 -0.4850051997 -0.0607423471 0.1663558288
505296970.0 -0.0890188363 0.1612453822 0.2707170349 -0.4881721002 0.2699306748 -0.4882782906 -0.059037625 0.1666299093
510296940.0 -0.0874079186 0.1622553444 0.2648346047 -0.491208875 0.2651137204 -0.4914616545 -0.0569593732 0.1677661356
515296910.0 -0.0857761689 0.1634429336 0.2591671327 -0.4942249589 0.2595839041 -0.493969134 -0.0551485045 0.1682277548
520296880.0 -0.0841943359 0.1643572486 0.2543871498 -0.4972391657 0.2540796932 -0.4968019784 -0.0533988231 0.1690453471
525296850.0 -0.0824363408 0.1647313844 0.2478851901 -0.4995388437 0.2489895034 -0.4992383695 -0.0516018344 0.1698533437
530296820.0 -0.0808309103 0.1660750653 0.2429374073 -0.5023253987 0.2432186011 -0.5022725039 -0.0496261234 0.1707287214
535296790.0 -0.0797025025 0.1670544613 0.2384820323 -0.5049180413 0.2381682404 -0.5043096982 -0.0480979684 0.1712305594
540296760.0 -0.0780057707 0.1679821225 0.2323334107 -0.5076943989 0.232281583 -0.507397129 -0.0460658121 0.1720748795
545296730.0 -0.0764931232 0.1689802268 0.2265374328 -0.5098517087 0.2265277446 -0.509451995 -0.044454659 0.172510252
550296700.0 -0.0744218502 0.1700199893 0.2212111923 -0.5123167221 0.2213498507 -0.5123048299 -0.0425973758 0.1736710121
555296670.0 -0.0728321753 0.170517642 0.2158229082 -0.5144870502 0.2158550018 -0.5146840193 -0.0403938326 0.1745061997
560296640.0 -0.0710275871 0.171903301 0.2100914617 -0.5170587682 0.2099106557 -0.517121842 -0.03849996 0.1748613453
565296610.0 -0.0697742887 0.1720573169 0.204127297 -0.5190053501 0.204310508 -0.5190699436 -0.0368641472 0.1749715382
570296580.0 -0.0683017862 0.173088487 0.1988062198 -0.5217537287 0.1984692423 -0.5215940742 -0.0351103801 0.1763760188
575296550.0 -0.0666953016 0.1742413734 0.1933317191 -0.5238556007 0.1925846362 -0.5235775568 -0.0325906408 0.176674379
580296520.0 -0.0643950484 0.174896284 0.1872730427 -0.5258411585 0.1876376479 -0.525658748 -0.0310896433 0.1768123088
585296490.0 -0.0630817967 0.1752016808 0.1820756327 -0.5271307015 0.1819114183 -0.5274427186 -0.0288383229 0.1773903008
590296460.0 -0.0607845719 0.1762233028 0.1760186655 -0.5287655637 0.1759891853 -0.529206472 -0.0277342794 0.177915329
595296430.0 -0.0595312382 0.1772782225 0.1699585259 -0.5314733452 0.169879143 -0.5309992939 -0.0251734993 0.1778762828
600296400.0 -0.0579156995 0.1775955629 0.1645448604 -0.5330120624 0.1644156224 -0.5330451394 -0.0233705216 0.1782696335
605296370.0 -0.0559881577 0.1785270164 0.1588424583 -0.534729 0.1588648821 -0.5345583193 -0.0212680968 0.1792758845
610296340.0 -0.0544311974 0.1788657086 0.1526623244 -0.5359591954 0.1531057247 -0.5363634311 -0.019221276 0.1791245316
615296310.0 -0.0525282957 0.1794593071 0.1469344734 -0.5375782911 0.1470424133 -0.5382018206 -0.0172423658 0.1796410859
620296280.0 -0.050660453 0.1800357487 0.1411686777 -0.5393281645 0.1411823257 -0.5389221599 -0.0150568166 0.1798074736
625296250.0 -0.0494041968 0.1805254414 0.1360054985 -0.5408473676 0.1354323127 -0.5411610752 -0.0128924877 0.1800027173
630296220.0 -0.0468787297 0.1813685374 0.1287614647 -0.5419717644 0.1295869092 -0.5421453726 -0.0109788812 0.1806110641
635296190.0 -0.0461058426 0.1816382357 0.1237517876 -0.5434837519 0.123777612 -0.5435829233 -0.0088006288 0.1804633084
640296160.0 -0.043915889 0.1824740105 0.1175975736 -0.5446123059 0.1180395021 -0.5448903621 -0.0067422969 0.1810634672
645296130.0 -0.0420802015 0.1834361233 0.1117197575 -0.5454901951 0.1121835901 -0.5460999192 -0.0050634131 0.1812438255
650296100.0 -0.0402472446 0.1838398945 0.1058811654 -0.5472418702 0.105828937 -0.5471976496 -0.0025526315 0.1810050625
655296070.0 -0.0385731841 0.1839510119 0.1001469504 -0.5482345439 0.1001121625 -0.5483400086 -0.0004693908 0.1815550423
660296040.0 -0.0372403497 0.1841096188 0.0942940956 -0.5491344503 0.0939516829 -0.5497329818 0.0016534374 0.1817199396
665296010.0 -0.0348809625 0.1845265499 0.0880506382 -0.5498704474 0.0881830722 -0.5500982233 0.0038526365 0.1821933791
670295980.0 -0.0337556346 0.1855398601 0.0822862994 -0.5508853424 0.0822297611 -0.5512538251 0.0052011146 0.1821806297
675295950.0 -0.0316268193 0.1863527246 0.0764110208 -0.5519705737 0.0764454349 -0.5511959853 0.0069895301 0.1824875701
680295920.0 -0.0299214683 0.1862353169 0.0701968338 -0.5524030472 0.0697768633 -0.5530102381 0.0095212759 0.1830391387
685295890.0 -0.0279221944 0.1872093005 0.0643395179 -0.5537896784 0.0641016039 -0.5533819206 0.0113444665 0.1826958448
690295860.0 -0.0261703061 0.1876979285 0.0582454094 -0.5536244447 0.0582526249 -0.5543434662 0.0130912489 0.183376038
695295830.0 -0.0244327155 0.1880198908 0.0525706313 -0.5543345999 0.0522985838 -0.5545610294 0.0154900721 0.1831497045
700295800.0 -0.0223048987 0.1879626197 0.0461075613 -0.5545482093 0.0462674446 -0.5549826222 0.0171799853 0.1834986022
705295770.0 -0.020998014 0.1888109741 0.0403000335 -0.5552973638 0.0406392985 -0.5556083811 0.01963681 0.1833591838
710295740.0 -0.0186085355 0.1890058238 0.0342743965 -0.5563518366 0.0343469816 -0.5560732191 0.0218158099 0.1823132422
715295710.0 -0.017174809 0.1891645005 0.0287097532 -0.5561005575 0.0281170288 -0.5562581302 0.0234156316 0.1831779951
720295680.0 -0.0150399416 0.1896492407 0.0224552107 -0.5565646502 0.0224964951 -0.5564098545 0.0257462003 0.1830142459
725295650.0 -0.0135224604 0.1900036259 0.0164884824 -0.5563274205 0.0161476076 -0.5568182096 0.0270451505 0.1829319888
730295620.0 -0.0110808604 0.1903168812 0.0105110872 -0.5561292987 0.0101879731 -0.5568065125 0.0291804916 0.1824681637
735295590.0 -0.0095515651 0.1904331862 0.004295482 -0.5569732863 0.0041618253 -0.5567244082 0.0309042103 0.1821496294
740295560.0 -0.0081140287 0.1909967434 -0.0015039434 -0.5564932255 -0.0016153452 -0.5566875539 0.0335975751 0.1823624831
745295530.0 -0.0060065636 0.1911210639 -0.0077568022 -0.5563074804 -0.0078533824 -0.5567972348 0.0355687157 0.1817661702
750295500.0 -0.0038960444 0.191326872 -0.0137306855 -0.5566213887 -0.0132786565 -0.5564582111 0.0372439467 0.1815903595
755295470.0 -0.0020859001 0.1913026337 -0.0192655504 -0.5563531102 -0.0193793458 -0.5566745549 0.0396655577 0.1810198776
760295440.0 -0.0004448825 0.1915357031 -0.0255932362 -0.5561973979 -0.0254542499 -0.5561277224 0.0416522306 0.18095629
765295410.0 0.0016589432 0.1916373177 -0.0313832255 -0.555676951 -0.0318770025 -0.5560737363 0.0433033835 0.1808567086
770295380.0 0.0029366164 0.1917079122 -0.0375854097 -0.55558734 -0.0377206049 -0.5549853827 0.0451829827 0.1800901773
775295350.0 0.0048951424 0.1913701789 -0.0436545759 -0.5544049974 -0.0431786263 -0.5547158155 0.0468545514 0.1798242377
780295320.0 0.0071746267 0.1917054845 -0.0498859869 -0.5539215693 -0.0493018698 -0.5539505687 0.0488374508 0.1793112988
785295290.0 0.0085206834 0.1914005508 -0.055553098 -0.5528644824 -0.0554746982 -0.5535885324 0.0516683911 0.1788505975
790295260.0 0.010825879 0.1921161106 -0.060870928 -0.5527275147 -0.0604762848 -0.5529774638 0.0534171876 0.1787566445
795295230.0 0.0124792345 0.1918544691 -0.0673019408 -0.5520174047 -0.0665450636 -0.5521128392 0.0554795955 0.1781825314
800295200.0 0.0140729574 0.192118354 -0.0736982694 -0.5509739278 -0.0738990105 -0.551156529 0.0575705823 0.1774121325
805295170.0 0.0164236359 0.1918196395 -0.0792826668 -0.5502984185 -0.0794480541 -0.5506103801 0.0593814372 0.1772502512
810295140.0 0.0179603078 0.1916562111 -0.0847305882 -0.5492505194 -0.0852523044 -0.5496981671 0.0618912979 0.1768583267
815295110.0 0.0198506817 0.1914657694 -0.0905570163 -0.5482192256 -0.0910971515 -0.5485764499 0.0636920799 0.1758393437
820295080.0 0.0216222228 0.1919497314 -0.0969536776 -0.5475335065 -0.0967384956 -0.5475931203 0.0654846315 0.1754376182
825295050.0 0.0241556486 0.1915515788 -0.1022251489 -0.5461103453 -0.1025059121 -0.546456553 0.0675522648 0.1750696185
830295020.0 0.0256129399 0.1917138441 -0.1087344219 -0.5451413378 -0.1086962737 -0.5450660298 0.070184422 0.1744760534
