!Created with skrf (http://scikit-rf.org).
# Hz S RI R 50.0 
!freq ReS11 ImS11 ReS21 ImS21 ReS12 ImS12 ReS22 ImS22
300000.0 -0.7772148584 -0.099985653 0.0006060881 0.0002610416 -0.0008112268 -8.23988e-05 -0.2155645267 -0.0828478061
5299970.0 -0.7849322141 -0.0056261716 6.6319e-06 -0.0001085781 0.0003596516 -5.54512e-05 -0.2145314302 0.0083291543
10299940.0 -0.7877968601 -0.003664536 0.000167698 1.55171e-05 0.0001189151 -0.0001047297 -0.2110208096 0.0216691856
15299910.0 -0.7930831975 -0.0019672385 7.73461e-05 0.000191176 -1.49823e-05 1.05878e-05 -0.2056210652 0.0313721318
20299880.0 -0.8002115306 0.0022852983 0.0001628308 -0.0001517093 1.11917e-05 -3.96269e-05 -0.2002182725 0.0393747909
25299850.0 -0.8062923089 0.0080044454 -0.0001520066 -9.08988e-05 3.65723e-05 -0.0001981121 -0.1938114511 0.045866638
30299820.0 -0.8126557685 0.0155913969 0.0001266045 0.0002747085 -0.0002171037 9.9353e-06 -0.1871325308 0.0510836746
35299790.0 -0.81755271 0.0250002254 5.17242e-05 9.58558e-05 -1.17353e-05 -5.66995e-05 -0.1808935537 0.055192285
40299760.0 -0.821371177 0.0338290299 6.3664e-05 5.18747e-05 -8.42401e-05 -0.0001898082 -0.1749131605 0.0575688526
45299730.0 -0.8249220447 0.0433500637 5.40581e-05 -0.0001945594 -0.000204025 6.92726e-05 -0.1693042039 0.0598841867
50299700.0 -0.8276541502 0.0528527456 -0.0001660023 5.93478e-05 -1.93243e-05 0.000125495 -0.1641441434 0.0607558978
55299670.0 -0.8293005296 0.0628089761 -0.0002549926 -0.0001411092 -4.8915e-05 4.79381e-05 -0.1595227471 0.0621250798
60299640.0 -0.8304058197 0.0738080774 3.45035e-05 1.2256e-05 3.74016e-05 -4.37865e-05 -0.1549148874 0.0622489302
65299610.0 -0.8310508958 0.0835470594 -7.59059e-05 -0.0001307654 1.32437e-05 7.3727e-06 -0.1514847289 0.0623421604
70299580.0 -0.831879446 0.0940876737 -6.73339e-05 0.0001469315 3.79942e-05 -8.42748e-05 -0.1477099209 0.0630403907
75299550.0 -0.83177873 0.1036080806 0.0001921394 -0.0001059593 -4.13207e-05 -1.95137e-05 -0.1447889032 0.0626093592
80299520.0 -0.8319376667 0.1138175881 9.78448e-05 0.0001681377 -3.85884e-05 2.06153e-05 -0.1420231401 0.0626743361
85299490.0 -0.8304951126 0.1233258692 -0.000131817 0.0001701908 -3.3363e-06 0.0002591964 -0.1393827694 0.0623538588
90299460.0 -0.8299873057 0.1327333706 0.0002077418 1.68166e-05 6.37708e-05 -0.0001054118 -0.1370288711 0.0622500441
95299430.0 -0.8291995944 0.1417074822 6.1396e-05 0.0001221223 8.82981e-05 8.27864e-05 -0.1348355661 0.0622976886
100299400.0 -0.8277011816 0.1509887187 6.92345e-05 2.16957e-05 5.38498e-05 0.0001845215 -0.1326534181 0.0618200898
105299370.0 -0.827081507 0.1598879136 -0.0002206911 -5.0791e-05 7.06774e-05 2.08114e-05 -0.1310135247 0.06139564
110299340.0 -0.8253635099 0.1691804451 -0.000231761 -0.0001128271 0.0001506998 7.0216e-06 -0.1296761627 0.0613416928
115299310.0 -0.8238377467 0.1783733738 8.96134e-05 -7.27887e-05 9.356e-05 -6.04812e-05 -0.1280138768 0.0611004229
120299280.0 -0.8220785008 0.1874284562 6.62232e-05 0.0001578628 -0.0001534031 0.000231384 -0.1266930651 0.0610277129
125299250.0 -0.8199642233 0.1958901516 -0.0001345949 1.495e-07 -0.0001959271 -7.90658e-05 -0.1258021409 0.0607491842
130299220.0 -0.8186032328 0.2054875541 0.0002430282 -2.59671e-05 9.81212e-05 1.75429e-05 -0.1245228105 0.0607164273
135299190.0 -0.8170873954 0.2138568683 8.46082e-05 -8.97454e-05 -8.763e-06 -3.71724e-05 -0.1233080536 0.0610443233
140299160.0 -0.8146534751 0.223375185 -8.1799e-05 0.0001727941 5.44729e-05 0.0002714182 -0.1223651928 0.0614106039
145299130.0 -0.8128384588 0.2325200534 -2.49797e-05 7.54122e-05 0.0001338153 -2.70402e-05 -0.1215026003 0.0616178953
150299100.0 -0.8101518051 0.2412648011 0.0001210054 3.66272e-05 -5.8694e-05 1.54311e-05 -0.1210552961 0.0618751734
155299070.0 -0.8078620345 0.249280373 0.0001071227 0.0002031618 -2.79099e-05 0.0002094089 -0.1200675726 0.0620579674
160299040.0 -0.8053382503 0.2581307064 4.31114e-05 -0.0001706564 6.1107e-05 5.73891e-05 -0.1195433479 0.062450084
165299010.0 -0.8028693267 0.2669318968 -4.065e-05 -2.36242e-05 0.0002422122 -7.6057e-05 -0.1186957724 0.0627580433
170298980.0 -0.7998491665 0.2754425545 1.90578e-05 1.66567e-05 -5.05815e-05 0.0002258682 -0.1180895098 0.0635949096
175298950.0 -0.7971606933 0.2836386135 0.0001907921 0.0003189346 8.69621e-05 -0.0001093387 -0.1175375951 0.0636894858
180298920.0 -0.7945413852 0.2930108861 0.0002041694 2.34343e-05 3.80404e-05 -5.24006e-05 -0.1171037942 0.0646987681
185298890.0 -0.7906789443 0.3009513397 -0.0002123489 0.0002907558 0.0001499911 0.00026479 -0.1163812779 0.0651643794
190298860.0 -0.7884256172 0.3095646017 1.94874e-05 0.0002156998 9.45192e-05 -0.0001667183 -0.1161052455 0.0657446446
195298830.0 -0.7849507144 0.3178442877 -1.1611e-06 0.0001053913 -0.0001170217 8.36255e-05 -0.1155024227 0.0661050319
200298800.0 -0.7815242034 0.3262652894 4.329e-06 -1.8001e-06 0.0001297636 0.0001198334 -0.1150717172 0.0667043544
205298770.0 -0.7782362309 0.3342909622 1.32857e-05 0.0001363827 -9.5917e-06 1.13275e-05 -0.1146199247 0.0675047061
210298740.0 -0.7747031612 0.3422632887 -2.80085e-05 -0.0001279559 0.0001368965 9.12325e-05 -0.1141894358 0.0681800082
215298710.0 -0.7719034235 0.3509839104 -4.423e-06 0.0001063987 -1.89842e-05 0.0001324366 -0.1139591791 0.0688550626
220298680.0 -0.7673810074 0.3591117238 -3.68411e-05 0.0001518301 0.0002123077 0.0001372631 -0.1138000304 0.0693891869
225298650.0 -0.7641183999 0.3670676071 -0.0002992319 -1.32538e-05 0.0002774629 0.0001728419 -0.1137481729 0.0703576522
230298620.0 -0.760182237 0.3749426321 4.26237e-05 -0.00011961 6.89098e-05 9.54783e-05 -0.1129563805 0.0706714934
235298590.0 -0.7568394857 0.3838052657 6.85161e-05 0.0001190157 -8.62057e-05 4.6199e-06 -0.1125227087 0.0715704215
240298560.0 -0.752239529 0.3912274627 -4.28223e-05 0.0002551984 0.0002054353 -5.66756e-05 -0.1121945422 0.0726869513
245298530.0 -0.7485395273 0.3991023278 0.0001245076 0.0002821539 1.10404e-05 7.0249e-06 -0.1117758901 0.0732479743
250298500.0 -0.7435570377 0.4069973149 7.48679e-05 0.0001223896 -1.11307e-05 1.10809e-05 -0.1113792525 0.0736425231
255298470.0 -0.739917558 0.4138587353 -0.0001208765 0.0001973717 8.03121e-05 0.0001790523 -0.1106591426 0.0745512936
260298440.0 -0.7350235185 0.4221148426 7.2812e-05 3.7694e-05 0.0001582763 3.94871e-05 -0.1100222025 0.0756178004
265298410.0 -0.7311982688 0.4301731666 7.2354e-06 0.0002135425 -2.42964e-05 -1.0568e-06 -0.1093120424 0.0764477375
270298380.0 -0.727314005 0.4376532461 5.53699e-05 -8.6375e-06 -6.1575e-06 0.0001797147 -0.1092227197 0.077216794
275298350.0 -0.7220986198 0.4452973424 7.37901e-05 -3.92702e-05 -0.0001276201 9.53313e-05 -0.1086633057 0.078353777
280298320.0 -0.7169834596 0.4522362472 0.0001208407 0.0002810518 6.14538e-05 0.0002136493 -0.107859346 0.0788659546
285298290.0 -0.7125236319 0.4601090185 2.35205e-05 0.0001702137 9.13072e-05 -4.07139e-05 -0.1073910488 0.0797928578
290298260.0 -0.707983338 0.467307758 0.0001967032 -1.62506e-05 1.12267e-05 0.0001918298 -0.1065434217 0.0806259453
295298230.0 -0.7025157839 0.4746106623 0.0002031301 0.0001726105 -2.3976e-05 -5.14921e-05 -0.105681892 0.08114657
300298200.0 -0.6978101446 0.4815322057 4.58755e-05 -4.07852e-05 0.0001222613 0.0001721812 -0.1052834729 0.0822914083
305298170.0 -0.6929108728 0.4882668323 0.0001537736 0.0001394419 -7.98471e-05 0.0001090854 -0.1043672839 0.0831815689
310298140.0 -0.687365411 0.4964884221 7.73555e-05 0.0001960094 -7.37582e-05 0.0002060341 -0.1040056115 0.0840204811
315298110.0 -0.682729276 0.5035147222 0.0001644603 0.0001391982 -3.55696e-05 -4.68299e-05 -0.103409648 0.0848146027
320298080.0 -0.6769869303 0.5103158808 2.27955e-05 -0.0001338636 -9.92094e-05 0.000237624 -0.1026517962 0.0859395052
325298050.0 -0.6717050039 0.5178579105 0.0001862194 -5.31854e-05 7.9732e-05 0.0001221284 -0.102524559 0.086574488
330298020.0 -0.6663396337 0.5241519091 0.0001184811 5.43055e-05 0.0003450982 0.0001584878 -0.1019356024 0.0879042448
335297990.0 -0.6605644408 0.5308877689 0.0001735567 4.74603e-05 -0.0001171177 0.0001410752 -0.1015968286 0.0892275076
340297960.0 -0.6557697046 0.5381683153 9.03141e-05 -0.0001941702 0.0001486774 3.02531e-05 -0.1000955174 0.0902048905
345297930.0 -0.6500897455 0.5444200255 0.0002389285 6.78178e-05 0.0001855893 0.0001444251 -0.099986253 0.0908875098
350297900.0 -0.6446682727 0.5511820856 0.0003164021 5.3535e-05 0.0004058426 5.4513e-06 -0.0995629381 0.0924247565
355297870.0 -0.6376704693 0.5583284851 0.0001411006 0.00015975 1.74265e-05 0.0002805858 -0.0988003762 0.0933271288
360297840.0 -0.6322192181 0.5639792712 0.0001139998 0.0001752878 0.000125706 -1.40574e-05 -0.0980791596 0.0944911757
365297810.0 -0.6272852992 0.5700797346 9.67259e-05 3.40007e-05 0.0001818091 -1.04376e-05 -0.0974786942 0.0952699661
370297780.0 -0.6207741703 0.5768381526 0.0001498897 0.0001173268 0.0002374977 0.0001458086 -0.0967653973 0.0966441781
375297750.0 -0.6144318402 0.5831854152 0.0001803654 4.7131e-06 9.19922e-05 0.0002476217 -0.0962090758 0.0973591699
380297720.0 -0.608665121 0.5893578505 2.18466e-05 0.000144062 0.0001255067 6.40774e-05 -0.0956714566 0.098648573
385297690.0 -0.6029201008 0.5953576471 2.35924e-05 0.0001447957 -3.30876e-05 9.10258e-05 -0.0950663976 0.0994093153
390297660.0 -0.5966862133 0.6013633763 0.0003392657 -0.0001122797 6.36685e-05 0.0001297456 -0.0940672992 0.1010229171
395297630.0 -0.5900302461 0.6080796635 -6.28926e-05 -3.7867e-06 2.87553e-05 2.97951e-05 -0.0931139502 0.1016518509
400297600.0 -0.5832455085 0.6147685441 4.15368e-05 -4.54361e-05 0.0002633784 8.49812e-05 -0.0923378752 0.1027353795
405297570.0 -0.5777087774 0.6199677799 0.0001604455 8.33869e-05 0.0001338784 2.84073e-05 -0.0918709146 0.103527858
410297540.0 -0.5708280053 0.6249846245 0.0001712722 -4.62082e-05 0.0001896974 0.0001218667 -0.090705114 0.1045008209
415297510.0 -0.5646275204 0.6313243771 -8.718e-06 -0.0002015973 0.0003246986 0.0001051383 -0.0901083086 0.1053539475
420297480.0 -0.5589507231 0.6374278135 0.000145086 0.0001637963 7.49923e-05 0.0002046105 -0.0892939549 0.106619677
425297450.0 -0.5512861944 0.6427141919 0.0001363706 0.000177643 -2.64971e-05 3.75774e-05 -0.0882803923 0.1073544648
430297420.0 -0.5448872304 0.648418687 0.0002789734 2.45604e-05 0.0003414323 0.0001257346 -0.0879132956 0.108129341
435297390.0 -0.5388590309 0.6534839777 -0.0001418843 0.0001241526 8.31293e-05 0.0002026243 -0.086767617 0.1094346626
440297360.0 -0.5315717568 0.6590516884 0.000176113 0.0001066731 0.0001211513 0.0001427733 -0.0859279297 0.1103269972
445297330.0 -0.524881136 0.6642642314 4.56412e-05 4.41028e-05 6.43281e-05 0.0001276286 -0.084806532 0.1107998418
450297300.0 -0.5180581876 0.6695257804 0.0001984418 -1.37984e-05 0.0003861471 0.000293264 -0.0840335128 0.1114361324
455297270.0 -0.5109554313 0.674356079 -0.0001103543 7.1178e-06 0.0003131643 0.0002261189 -0.0830274944 0.1124891588
460297240.0 -0.5047363438 0.679585656 9.17999e-05 2.15872e-05 2.28808e-05 0.0001638781 -0.0823012252 0.1137098201
465297210.0 -0.497162595 0.6847651194 0.0003908943 2.78082e-05 -5.84763e-05 0.000206709 -0.0808781282 0.1145460101
470297180.0 -0.4901671898 0.6898186497 0.0004275371 0.0004354965 0.0001329906 -5.39773e-05 -0.0799953136 0.1155485231
475297150.0 -0.4829215913 0.6946818773 0.0001849572 0.0002341274 5.47262e-05 -0.0001020973 -0.0787361208 0.116238757
480297120.0 -0.4764008097 0.6997421445 3.29541e-05 0.0001212444 0.0001747251 3.21474e-05 -0.0777030273 0.1173629922
485297090.0 -0.4684144899 0.7043739978 0.000171776 2.4845e-06 5.22647e-05 0.0001296246 -0.0766172125 0.1181353142
490297060.0 -0.4616486311 0.7086105384 0.0002758995 -9.85601e-05 0.0001153466 -0.0002212525 -0.0754954652 0.1188989636
495297030.0 -0.4549026833 0.7132859201 0.0002731571 -5.72501e-05 -0.0001011326 0.0003163238 -0.074444102 0.1200773326
500297000.0 -0.4471660295 0.7185240668 0.0001616275 0.0001042078 -6.0849e-06 0.0001710645 -0.073175698 0.1211341299
505296970.0 -0.4401806913 0.7228209517 0.000200745 4.39245e-05 0.0001213667 0.0002427231 -0.0725368345 0.1219671717
510296940.0 -0.4324714176 0.7261815942 0.0002123451 -2.62827e-05 0.0001212888 6.87752e-05 -0.0712334545 0.1224976908
515296910.0 -0.4242768847 0.7306149257 0.0003391034 0.0001840566 3.42519e-05 7.41516e-05 -0.0700663418 0.1234690585
520296880.0 -0.4180730618 0.735044328 0.0001974933 0.000141097 0.0001198507 0.000289881 -0.0693495357 0.1244794603
525296850.0 -0.4097557991 0.7394416702 8.18707e-05 0.0001893225 0.0001348894 8.94751e-05 -0.0681466145 0.1255801175
530296820.0 -0.4023416537 0.7434864726 0.0001264225 0.000295401 0.0001905969 -1.059e-07 -0.0668494121 0.1264916452
535296790.0 -0.3954855254 0.7469845533 0.000237369 2.96876e-05 0.0001143448 1.28733e-05 -0.0663395546 0.1272929574
540296760.0 -0.3876781631 0.7511416967 0.0002204435 0.000138084 0.0002141375 0.0003235626 -0.0648633633 0.1282633726
545296730.0 -0.3804537743 0.75537728 0.0003355006 0.0001718454 0.0002517799 0.0001445049 -0.0638508295 0.1287164353
550296700.0 -0.3727410515 0.7587150642 0.0001852004 0.0001745339 2.84755e-05 7.63935e-05 -0.0626660792 0.1292118295
555296670.0 -0.3644421336 0.7613287882 -5.18816e-05 -5.48727e-05 0.0003966504 -6.736e-06 -0.0614798701 0.1309875278
560296640.0 -0.3564621164 0.7664615485 0.0002193501 -0.0001113413 -4.93535e-05 0.0001734099 -0.060566252 0.1316013722
565296610.0 -0.3492599646 0.7700307523 0.000218993 -0.0001265223 0.0001040862 -4.92654e-05 -0.0594741389 0.1322170465
570296580.0 -0.3421794151 0.7718332183 -1.81623e-05 0.0002687561 0.0003258649 0.0002782421 -0.0584642424 0.1331171072
575296550.0 -0.3344152537 0.7766246186 5.99534e-05 9.05858e-05 -6.9026e-06 -3.93546e-05 -0.0570383108 0.1337682052
580296520.0 -0.3257853953 0.7795432661 0.0001023175 -1.9124e-06 8.08499e-05 0.0001411909 -0.0559606501 0.13417714
585296490.0 -0.3181075542 0.7827457707 0.0002394461 0.0001265925 0.0002954212 0.0001905561 -0.0546492821 0.1348333906
590296460.0 -0.3103557919 0.7861750221 0.0001914889 0.0001623953 0.0003836725 -5.70677e-05 -0.0538761606 0.1356973607
595296430.0 -0.3024885486 0.7881906616 0.0002089932 -9.56966e-05 0.0001262003 3.09709e-05 -0.052530215 0.1362357175
600296400.0 -0.2943247982 0.7916864233 0.0003663261 -2.39448e-05 0.000281333 7.12892e-05 -0.0512801435 0.1367230667
605296370.0 -0.287487363 0.7943586981 0.0001151764 9.06837e-05 0.0002482342 0.0001713918 -0.049675769 0.1373290403
610296340.0 -0.2783885738 0.7971146393 0.0001091001 -0.0001233265 0.0001311053 0.0001534107 -0.0484780107 0.1380965568
615296310.0 -0.2701669811 0.7998765908 0.0002460425 9.84891e-05 0.0004203902 7.0101e-06 -0.0469458913 0.13855803
620296280.0 -0.2624570197 0.8021594284 0.0001776677 3.39009e-05 0.0001768923 3.40711e-05 -0.0459619104 0.1391604024
625296250.0 -0.2546223119 0.8052693194 0.0003047908 3.58456e-05 0.0002904871 1.10034e-05 -0.0444449609 0.1397817161
630296220.0 -0.2457691107 0.8078807398 0.0004537513 0.0001220141 -5.99776e-05 -5.6461e-05 -0.0435494997 0.1406563265
635296190.0 -0.2385639354 0.8106464733 3.17e-07 0.0001946137 0.0002113841 6.03967e-05 -0.0420523061 0.1410952033
640296160.0 -0.2311253537 0.8123635541 0.0001407247 0.0001416429 -3.61871e-05 -1.16839e-05 -0.040712797 0.1416193257
645296130.0 -0.2225389482 0.8152747518 0.0001400774 -0.0001108544 0.0002057236 -0.0001091952 -0.0393630694 0.1424078155
650296100.0 -0.2141183299 0.8170005233 0.0004632658 1.35466e-05 0.0001390778 0.000152086 -0.0377083251 0.1425933361
655296070.0 -0.2060230143 0.8189394072 3.32399e-05 0.0002164815 0.0002230581 6.81565e-05 -0.0363662209 0.1432992297
660296040.0 -0.1975579219 0.8204188568 0.0002057743 -0.0001199767 0.0004366462 2.46448e-05 -0.0347376611 0.1439485468
665296010.0 -0.1890184839 0.82195691 0.0003320253 -9.16807e-05 0.0003945755 -6.43943e-05 -0.0338118589 0.1446203942
670295980.0 -0.1815429605 0.8244833909 0.0001614969 7.24933e-05 0.0003735023 -5.4948e-05 -0.0323424792 0.1448123554
675295950.0 -0.1727055534 0.8260903163 0.0002646652 2.07449e-05 8.32315e-05 -0.0001158729 -0.0311896161 0.1456641078
680295920.0 -0.1642107218 0.8280756535 0.0003254701 1.83506e-05 0.0002027416 -2.51258e-05 -0.0294434599 0.1465219489
685295890.0 -0.1559541922 0.830354236 0.0001833791 0.0001356922 0.000300411 -3.19259e-05 -0.0282904491 0.1467192082
690295860.0 -0.1481108694 0.8305114503 0.0002931138 -0.0001163114 0.0001639906 4.08354e-05 -0.0271021036 0.1476042434
695295830.0 -0.1398814304 0.8320424275 -0.0001484994 -1.8183e-06 0.0001603021 0.0001332832 -0.0253329239 0.1480546906
700295800.0 -0.131295024 0.8336599291 0.0003664226 2.41368e-05 0.0002545661 9.12679e-05 -0.0243964537 0.1486028277
705295770.0 -0.1236616855 0.8345613887 0.0004557078 0.0001791925 0.000312727 -0.0002140972 -0.022786193 0.1495297004
710295740.0 -0.1151311485 0.8360638312 0.0001854889 0.0001414929 0.0002860679 2.72378e-05 -0.0218397102 0.1495609949
715295710.0 -0.1067794439 0.8372075566 8.07174e-05 -2.3315e-05 0.0001214027 5.40712e-05 -0.0201468573 0.149973416
720295680.0 -0.0985704163 0.8389604414 0.0003620102 -0.0002492384 0.0003309985 2.57859e-05 -0.0187725435 0.1506095725
725295650.0 -0.0899383117 0.8392198029 0.0004257186 -8.59153e-05 0.0002383331 -5.10989e-05 -0.0175778819 0.1510513831
730295620.0 -0.0814303817 0.8401098418 0.0003425704 3.80565e-05 0.0003010378 -0.0001410531 -0.0162572223 0.1511805723
735295590.0 -0.0737985734 0.8410889421 0.0002610154 -4.08857e-05 0.0002318739 -0.0002428079 -0.0150806181 0.1515907763
740295560.0 -0.0647676195 0.8415226799 0.0003084097 -0.0001746757 0.0002071583 3.90763e-05 -0.0132551964 0.1520122545
745295530.0 -0.0569866397 0.8425035386 0.0003104412 -2.75412e-05 0.000209946 -0.0001056896 -0.0121323937 0.1520355491
750295500.0 -0.0483094857 0.8423465993 0.0004573466 0.0001336503 0.0003554814 -0.0001677638 -0.0103834428 0.1522429752
755295470.0 -0.0401069907 0.8427648409 0.000329732 -0.0001431618 5.7276e-05 0.000122662 -0.0092508548 0.1524829613
760295440.0 -0.0317084851 0.8429880779 0.0004218578 -0.0001313979 0.0002921143 -0.0001285314 -0.0078059084 0.152469805
765295410.0 -0.0233133126 0.8437341989 0.0001540646 -1.44235e-05 0.0002582872 -1.63918e-05 -0.0062785993 0.1533936682
770295380.0 -0.0153637758 0.8436155267 0.0002471316 0.0001309203 0.0002555655 -0.0001748232 -0.0052360519 0.1532195167
775295350.0 -0.0067020247 0.8440731493 0.0002674571 -4.62668e-05 0.0001564968 0.000182525 -0.0035647463 0.1534370755
780295320.0 0.0017263717 0.8444889953 0.0002003016 -9.20347e-05 0.0003156046 -1.08545e-05 -0.0024280136 0.1537143612
785295290.0 0.0096157943 0.84328332 0.0002508078 0.000136134 0.0002132263 6.46106e-05 -0.000452988 0.1536951751
790295260.0 0.0182090057 0.8436224783 0.0003476856 4.3927e-06 0.0002182052 -0.0002626633 0.00132697 0.1540196062
795295230.0 0.0261291699 0.8433563552 -3.79916e-05 2.011e-06 4.02549e-05 -3.9348e-06 0.0025092842 0.1540965986
800295200.0 0.0349414782 0.8430701252 0.0001701971 -9.96936e-05 5.99545e-05 -8.25103e-05 0.004071761 0.1548588797
805295170.0 0.0435739237 0.8427062656 0.0003989431 -0.0001100208 0.000263058 -0.000160618 0.0052867145 0.1547211991
810295140.0 0.05159024 0.8421527916 0.0003597386 -0.0002307906 -1.05683e-05 -0.0001509876 0.0070985768 0.1548174783
815295110.0 0.0600101015 0.8420915524 0.0003855831 0.0001746257 0.0003127527 -7.50638e-05 0.0086197719 0.15492225
820295080.0 0.0679130307 0.8410966479 0.0002750272 -0.000166415 0.0003367045 -4.12037e-05 0.0102363071 0.1548592297
825295050.0 0.07705638 0.8399772662 0.0003582981 -8.57474e-05 0.0002827174 -0.0001611879 0.0121048622 0.1550152972
830295020.0 0.0849009176 0.839771976 0.0004504977 -0.0002602799 0.0003130511 -8.26581e-05 0.0135201322 0.1550384082
835294990.0 0.0934276585 0.8387822607 0.0003639423 -0.0002218273 0.0002710513 0.0001085434 0.0146419012 0.1552924291
840294960.0 0.1004026214 0.838345463 0.0002857159 3.6322e-06 0.0002378062 4.02282e-05 0.0164229146 0.1554238862
845294930.0 0.1092120618 0.8364654421 0.0003121132 -0.0001081224 0.000243702 -0.000242604 0.0179832072 0.1553739056
850294900.0 0.117697815 0.8359548465 0.0002307815 -7.18e-06 0.0001858038 5.1413e-05 0.0193635967 0.1555937986
