!Created with skrf (http://scikit-rf.org).
# Hz S RI R 50.0 
!freq ReS11 ImS11 ReS21 ImS21 ReS12 ImS12 ReS22 ImS22
300000.0 -0.31603851 -0.0857007026 0.3748793255 0.0445505469 0.3715818551 0.0423097081 -0.3203971686 -0.0989104297
5299970.0 -0.3263935846 0.0042654007 0.378439385 0.0024052285 0.3785167156 0.0024864429 -0.3241651166 0.0047513753
10299940.0 -0.3244204836 0.0134145041 0.3795584288 0.0022238957 0.379372565 0.0021325911 -0.3214349788 0.016028205
15299910.0 -0.321460301 0.0201421012 0.3817660791 0.0022765122 0.3819858665 0.0020411196 -0.3180834052 0.0239468514
20299880.0 -0.3189060763 0.0258462366 0.384697031 0.0019989245 0.3847847263 0.0018049911 -0.3149310947 0.0304585887
25299850.0 -0.3158364033 0.0315646607 0.3883483542 -5.17744e-05 0.387836616 -2.12131e-05 -0.3105938938 0.0362407295
30299820.0 -0.3126325162 0.0357836376 0.391422317 -0.0024091219 0.3913849125 -0.0021926982 -0.3070308691 0.0409952693
35299790.0 -0.3098390896 0.0398804501 0.3950180932 -0.0054124666 0.3947231148 -0.0053879988 -0.3036937629 0.0448701097
40299760.0 -0.3072088986 0.0435256958 0.3979730636 -0.008494863 0.3980353052 -0.0088403964 -0.3002117853 0.0485422532
45299730.0 -0.304368593 0.0464399091 0.4006101723 -0.0128811473 0.4008345213 -0.0127200086 -0.2970795307 0.0518972462
50299700.0 -0.3026177002 0.0494095625 0.4036350303 -0.0172400739 0.4033473997 -0.0171388541 -0.2941200647 0.0547180282
55299670.0 -0.3003829066 0.0522138655 0.4056338284 -0.0221544976 0.4056319155 -0.0219173893 -0.291749707 0.0574968733
60299640.0 -0.2979948543 0.0551259713 0.4073220651 -0.0270503993 0.4076541218 -0.0267101877 -0.2891994773 0.0595991816
65299610.0 -0.2965611105 0.0575727716 0.4092288816 -0.0318647419 0.4090224608 -0.0316763737 -0.2873520407 0.0617429332
70299580.0 -0.2944524879 0.060121105 0.4104723602 -0.036882614 0.4103721212 -0.0368979156 -0.285197521 0.064006532
75299550.0 -0.2930828137 0.062269845 0.4112165967 -0.041916824 0.4112365532 -0.0424306795 -0.2831265046 0.06595352
80299520.0 -0.2917750536 0.0650069082 0.4124231863 -0.0477348072 0.4125289878 -0.0473366146 -0.2815234215 0.0681595572
85299490.0 -0.2902719554 0.0668433673 0.4127690824 -0.0524550677 0.4129248632 -0.0526156563 -0.280081048 0.070142298
90299460.0 -0.2887884901 0.0694424016 0.4130691877 -0.0581348984 0.413441569 -0.0577654799 -0.2782640044 0.0720972767
95299430.0 -0.2874272886 0.0715680829 0.4134303836 -0.0631221506 0.4135391332 -0.0634050686 -0.2767538787 0.0743929999
100299400.0 -0.2867581292 0.0742697359 0.4131629897 -0.0680194439 0.4132924062 -0.0682083858 -0.2754735593 0.0762879758
105299370.0 -0.2850877835 0.07659575 0.4132511288 -0.0738081928 0.4130377869 -0.0733764074 -0.2738400295 0.0782829341
110299340.0 -0.284004275 0.0788798419 0.413447253 -0.0787829217 0.4127765781 -0.0783769995 -0.272731696 0.0801501866
115299310.0 -0.2829663166 0.0810395114 0.4129423434 -0.0838611961 0.4125638719 -0.0838178657 -0.2715364445 0.0822849161
120299280.0 -0.2818316995 0.0832752347 0.4123613538 -0.0892145117 0.4122962963 -0.0889578054 -0.2702788634 0.0844919785
125299250.0 -0.2810118258 0.0855931349 0.4117911848 -0.0940211489 0.4121155831 -0.0938663938 -0.2695770669 0.0862761395
130299220.0 -0.2803508921 0.0881292288 0.4110958745 -0.0990904844 0.411059978 -0.0991244431 -0.2684137327 0.0885711497
135299190.0 -0.2793028183 0.0908940061 0.4105819285 -0.1042231477 0.4104757816 -0.1039401886 -0.2670233409 0.0907226857
140299160.0 -0.2785009304 0.0932250715 0.4095767047 -0.1091130113 0.4097365771 -0.1091937715 -0.2661595384 0.0935070878
145299130.0 -0.2773452994 0.095809013 0.4087510366 -0.114014106 0.4082506773 -0.1137931724 -0.2647896922 0.0957819531
150299100.0 -0.2763361856 0.0983627301 0.4075837935 -0.1189480854 0.4077754288 -0.1185859675 -0.2642903819 0.0984774828
155299070.0 -0.275542562 0.1006322857 0.4067009433 -0.1243106165 0.4064737633 -0.1237291888 -0.2629949697 0.1004448316
160299040.0 -0.2744592012 0.1034186364 0.4049201634 -0.1289107881 0.4049134824 -0.1288611821 -0.2625699088 0.1032335049
165299010.0 -0.2736598021 0.1059879239 0.4041394469 -0.1338475517 0.4040421451 -0.1336731052 -0.2610946059 0.1060106367
170298980.0 -0.2727232004 0.108597239 0.402675216 -0.1384421672 0.4027962353 -0.1383825647 -0.2601677429 0.1081142456
175298950.0 -0.271791037 0.111325077 0.4014549814 -0.1433441607 0.4010592007 -0.1432670247 -0.2593597564 0.1110485055
180298920.0 -0.2706249844 0.1138120321 0.399884988 -0.1478205975 0.3997788476 -0.1476867567 -0.2579673417 0.1131659098
185298890.0 -0.2696364121 0.1164739374 0.3983886121 -0.1526485996 0.3982651009 -0.1522328234 -0.2569244593 0.1159626232
190298860.0 -0.2686039624 0.1193291457 0.3968877564 -0.1571026076 0.3970245764 -0.1573265864 -0.2563882706 0.1181333073
195298830.0 -0.2678788985 0.1220081386 0.3951691865 -0.1619955279 0.3951473736 -0.1617596217 -0.2546814706 0.1212468008
200298800.0 -0.2662360889 0.1244636739 0.3935550936 -0.1665023937 0.3935437517 -0.1666301672 -0.2540416053 0.1232270573
205298770.0 -0.2656079137 0.1270777328 0.3915618012 -0.1710232953 0.3915893782 -0.1708861564 -0.2532857999 0.1253572214
210298740.0 -0.2643285106 0.1299326809 0.3895794792 -0.1752390324 0.3900689592 -0.1753827857 -0.2521115696 0.1287804524
215298710.0 -0.2635685106 0.1329803268 0.3877257329 -0.1801314902 0.3879552029 -0.1804149076 -0.2512875915 0.1310610032
220298680.0 -0.2619944255 0.1350523999 0.3855005077 -0.1842718316 0.3858430605 -0.1848972215 -0.2499614333 0.1335774767
225298650.0 -0.2610645948 0.1378729344 0.3841340882 -0.1891315204 0.3840054219 -0.1890461356 -0.24903643 0.13573657
230298620.0 -0.2597574173 0.1408089513 0.3822196511 -0.1935046875 0.3824604601 -0.1934385242 -0.2480672615 0.1385012681
235298590.0 -0.2581446707 0.1439364972 0.3796135187 -0.1979146372 0.3799486995 -0.1971036684 -0.2466580827 0.1412820996
240298560.0 -0.2571876421 0.1462081912 0.3778094324 -0.202622249 0.3773703182 -0.2025435708 -0.2451775988 0.1442778709
245298530.0 -0.2558409086 0.1489984202 0.3757968436 -0.2066382567 0.3754218053 -0.2067185123 -0.2439642615 0.1459397
250298500.0 -0.2541480906 0.151833683 0.372706126 -0.2107999138 0.3727518969 -0.2108460528 -0.2428129242 0.1485976685
255298470.0 -0.252915617 0.1540395771 0.3703413605 -0.2147781308 0.3706606431 -0.2148672594 -0.2412736531 0.1512863625
260298440.0 -0.2517651822 0.1568562124 0.3682278903 -0.2194024226 0.3683948172 -0.2191997176 -0.2395777602 0.1536171714
265298410.0 -0.2498487328 0.1599593085 0.3657502261 -0.2237074345 0.3660519173 -0.2232530456 -0.2383084568 0.1561859863
270298380.0 -0.2486255828 0.1624499059 0.3632885899 -0.2274856208 0.3634876279 -0.2274092932 -0.2368684792 0.1584859463
275298350.0 -0.2468995144 0.1653020143 0.3609759531 -0.2319031176 0.3613529119 -0.2314871154 -0.2351840731 0.1610517205
280298320.0 -0.2449846948 0.1679972349 0.3587385753 -0.2357752359 0.3587896631 -0.2354243038 -0.2334556626 0.1634078089
285298290.0 -0.2436573781 0.1709100843 0.355982879 -0.23980114 0.3558690412 -0.239746169 -0.2318807539 0.1655965613
290298260.0 -0.2419207818 0.1732167506 0.3531430164 -0.2437805566 0.3533101749 -0.2437810158 -0.2301588905 0.1685850217
295298230.0 -0.2401108948 0.1754511648 0.3508332381 -0.2478828949 0.3503365082 -0.2476171554 -0.2281785395 0.170836427
300298200.0 -0.2387299766 0.1783064209 0.3483923303 -0.2517542837 0.3482622434 -0.2517096394 -0.2268319298 0.1732832739
305298170.0 -0.2362393346 0.1805385894 0.344688864 -0.255803793 0.3447454288 -0.2556489321 -0.2243386797 0.175692294
310298140.0 -0.2350446057 0.1835278722 0.3423168841 -0.2596683833 0.3421159048 -0.259521078 -0.2233909242 0.1779587525
315298110.0 -0.2329998292 0.1857922514 0.3391221832 -0.2633649642 0.33956839 -0.2633944121 -0.2213795449 0.1802497354
320298080.0 -0.2309966716 0.1883169986 0.336277242 -0.2678001495 0.3365751863 -0.2674044739 -0.21903156 0.1829744481
325298050.0 -0.2295009704 0.1907937807 0.333262058 -0.2713766029 0.3334976813 -0.2712936712 -0.2176649871 0.1853028892
330298020.0 -0.2275657096 0.1929348712 0.3301728262 -0.2749411441 0.3303377469 -0.2749038015 -0.2159666468 0.1876326213
335297990.0 -0.2255571093 0.1954847794 0.3268725198 -0.2785449658 0.3269274789 -0.2788322801 -0.2147124483 0.1906690856
340297960.0 -0.2239550139 0.1983889878 0.3238296502 -0.2824039203 0.3238270471 -0.2823311063 -0.2122208132 0.192812806
345297930.0 -0.2219738594 0.2009924893 0.320393265 -0.2861390932 0.3204252153 -0.2857870785 -0.2103429242 0.1949432786
350297900.0 -0.2200214292 0.203090437 0.3170044161 -0.2892389169 0.3170665905 -0.2894285187 -0.208735121 0.1978767725
355297870.0 -0.2177963566 0.2060743501 0.3138277803 -0.2928816907 0.3144054741 -0.2925864628 -0.2069948176 0.2000273463
360297840.0 -0.2158009557 0.2082020667 0.3110278612 -0.2961404816 0.3111450874 -0.2960792443 -0.2048057935 0.2026369937
365297810.0 -0.2143276759 0.2109226933 0.3077846093 -0.2998866675 0.3079914247 -0.2997055161 -0.2027461481 0.2051796284
370297780.0 -0.2113666972 0.2132141937 0.3039530557 -0.3031057829 0.3047341956 -0.3026541188 -0.2004254973 0.2074966273
375297750.0 -0.2096406054 0.2158489426 0.3010548119 -0.3062674145 0.3011268618 -0.3065287366 -0.198582423 0.2094834348
380297720.0 -0.2077157845 0.2178497729 0.2975707553 -0.3096412635 0.2978026377 -0.30897622 -0.1968457354 0.211973219
385297690.0 -0.2056513933 0.2202740117 0.2939497856 -0.312666461 0.2936857327 -0.3129260684 -0.194507665 0.2141945777
390297660.0 -0.2031218485 0.2226551395 0.2906122695 -0.3159820754 0.2904788306 -0.3160180469 -0.1927480985 0.2164391121
395297630.0 -0.2009684816 0.2253160623 0.2870408775 -0.3194838058 0.2869594832 -0.3195665123 -0.1899563123 0.2185656235
400297600.0 -0.1984665979 0.2275117988 0.2831790395 -0.32255822 0.2836934682 -0.3227549255 -0.188374464 0.2209417159
405297570.0 -0.1961842379 0.2294393397 0.2798836664 -0.3253188492 0.2799213267 -0.3253325626 -0.1858748228 0.2229882984
410297540.0 -0.1940438947 0.2315695459 0.276497621 -0.3287936225 0.276768806 -0.328604671 -0.1838127435 0.225089354
415297510.0 -0.1911805054 0.2337602638 0.2722293231 -0.3316122372 0.2727053386 -0.3316748522 -0.1815096579 0.2273542846
420297480.0 -0.1891684584 0.2362638277 0.2688276548 -0.3346753221 0.2687732693 -0.334824547 -0.1793331195 0.2291908255
425297450.0 -0.1868784699 0.238306667 0.265869392 -0.3376249057 0.2657519512 -0.3375106933 -0.1770748095 0.2313936251
430297420.0 -0.184176062 0.2403001605 0.2615341065 -0.3401170108 0.2616687345 -0.3400020559 -0.1748512567 0.233030358
435297390.0 -0.1818142652 0.242563473 0.257467631 -0.3430125421 0.2574458043 -0.3430682759 -0.1716750105 0.2346260759
440297360.0 -0.1794218672 0.2446899929 0.2538509948 -0.3456971671 0.2542488282 -0.345947881 -0.1699180558 0.2368548875
445297330.0 -0.1764460851 0.2464506714 0.2503701205 -0.3485012149 0.2501608012 -0.3484712069 -0.1673126128 0.2385099112
450297300.0 -0.1740282904 0.2486813461 0.2463630222 -0.3512766983 0.2460654395 -0.3513116243 -0.164735687 0.240540556
455297270.0 -0.1717350629 0.250604755 0.2425457457 -0.3535136489 0.2425110776 -0.3539770422 -0.1621912161 0.2423508339
460297240.0 -0.1688627526 0.2524511661 0.2383254336 -0.356331601 0.2387599624 -0.3565305678 -0.1595420529 0.244420472
465297210.0 -0.1662074771 0.2543674493 0.2346864517 -0.3589672311 0.2346284482 -0.3593611822 -0.1569840152 0.2455760269
470297180.0 -0.1635826026 0.2560931398 0.2301785205 -0.3616151248 0.2306346251 -0.3616499284 -0.1542816408 0.2478040668
475297150.0 -0.1610345172 0.2576691277 0.2263126634 -0.3634090386 0.2263359713 -0.3637294254 -0.1514664844 0.249282089
480297120.0 -0.1582281508 0.2602834152 0.2226400397 -0.3669760018 0.2224474194 -0.3668679992 -0.1486678847 0.2513313575
485297090.0 -0.1553603228 0.2617972092 0.2186362714 -0.3687797924 0.2186704108 -0.3685264773 -0.1460099718 0.2530337206
490297060.0 -0.1531657839 0.2637324044 0.2148283116 -0.3712805958 0.2144097974 -0.3710839534 -0.1435918478 0.2544552739
495297030.0 -0.1501242693 0.2652006387 0.2104266554 -0.3733257918 0.2108111601 -0.3735672298 -0.1407490053 0.2567163356
500297000.0 -0.1472794718 0.2668422373 0.2061649067 -0.3754266522 0.2061685317 -0.3753105637 -0.138034247 0.2586177248
505296970.0 -0.1443899203 0.2688001169 0.2021252498 -0.3779308929 0.2018576506 -0.3782621345 -0.1351152751 0.2598972935
510296940.0 -0.1415171924 0.270374862 0.197852174 -0.3801634414 0.1979977882 -0.3804358547 -0.132515728 0.2617127133
515296910.0 -0.1385032863 0.2718285143 0.1936058633 -0.381961857 0.193620958 -0.3822499571 -0.1296733043 0.2634919123
520296880.0 -0.1363331552 0.2738297995 0.1897336561 -0.3847298156 0.1896471629 -0.3842236295 -0.1269320901 0.2646143151
525296850.0 -0.1329326289 0.2752042197 0.1849003088 -0.3863979765 0.185818382 -0.3860277547 -0.1245634496 0.2662640903
530296820.0 -0.1299904951 0.276908621 0.1809081201 -0.3883145156 0.1813760592 -0.3880972018 -0.1216189616 0.2681179103
535296790.0 -0.127673944 0.2783334755 0.1773934941 -0.3902728888 0.1771128852 -0.3897903936 -0.1192111555 0.2692846883
540296760.0 -0.1247104313 0.2801717656 0.1725573445 -0.3926032659 0.172895217 -0.3918837786 -0.1164832034 0.2708517293
545296730.0 -0.1219865439 0.2811236287 0.168059527 -0.3938859477 0.1684499807 -0.3940067383 -0.1137451574 0.2723794365
550296700.0 -0.1186575954 0.2825779591 0.1638404485 -0.3958842345 0.1640926534 -0.3958306143 -0.1106965108 0.273813213
555296670.0 -0.1157555935 0.2841754553 0.1596814479 -0.3976480212 0.1598751327 -0.3971776555 -0.1076789439 0.2751350693
560296640.0 -0.112807313 0.2855493186 0.1553092461 -0.3993292407 0.1555451255 -0.3992909652 -0.104965557 0.2765573067
565296610.0 -0.1097155133 0.2870353062 0.1507883918 -0.4008689112 0.1511100807 -0.400709317 -0.1022132248 0.2773176049
570296580.0 -0.106955736 0.2880296235 0.1467023484 -0.4029209834 0.146429506 -0.402468641 -0.0993871225 0.279217792
575296550.0 -0.1038267928 0.2899374912 0.1418982993 -0.4043646121 0.1420492336 -0.4040912951 -0.0964478624 0.2799782395
580296520.0 -0.1007477933 0.2907761133 0.1376475203 -0.4059196597 0.137679211 -0.4055509937 -0.0932695182 0.2810840552
585296490.0 -0.0978325243 0.2915797759 0.133349587 -0.4062236907 0.1333715492 -0.406763097 -0.0903924691 0.2822344417
590296460.0 -0.0943174738 0.2929697417 0.1289320406 -0.4079734473 0.1289432623 -0.4082221191 -0.088163149 0.283489966
595296430.0 -0.0916263901 0.2939734238 0.124295169 -0.4094918108 0.1241191289 -0.4094265132 -0.0848073966 0.2841279462
600296400.0 -0.0887532134 0.2950723417 0.1196700803 -0.4107057919 0.1201974342 -0.4107008218 -0.082065121 0.2852196334
605296370.0 -0.08551156 0.2962381983 0.1151826603 -0.4119647295 0.1153900898 -0.4119520133 -0.0784220324 0.286318406
610296340.0 -0.0822874365 0.2972471215 0.110529774 -0.4133335535 0.1108421194 -0.4133814819 -0.0755736456 0.2871174614
615296310.0 -0.078974763 0.2984759509 0.1061106306 -0.4142401423 0.1064406697 -0.4145852027 -0.0725567903 0.2876187584
620296280.0 -0.0763060752 0.2985290056 0.101994216 -0.4150407994 0.1020727726 -0.4152041976 -0.0697811662 0.2888679859
625296250.0 -0.0730596085 0.2997278135 0.0976530405 -0.4169267706 0.0974689792 -0.4167384588 -0.0662228842 0.2894518418
630296220.0 -0.0692838482 0.3008783046 0.0921851101 -0.4175141115 0.0925335745 -0.417379264 -0.0635126049 0.2908698244
635296190.0 -0.0669580246 0.3017504148 0.0884393568 -0.4184707719 0.0882085851 -0.4187018378 -0.0602208542 0.290993588
640296160.0 -0.0638389025 0.3023194708 0.0838264376 -0.4189699708 0.0840326643 -0.4192865782 -0.0569646859 0.2919158119
645296130.0 -0.060418297 0.3035306413 0.0789135423 -0.4197357614 0.0796302924 -0.4200508068 -0.054141166 0.2929183068
650296100.0 -0.0569862935 0.3041505457 0.0743257435 -0.4205625209 0.0746978156 -0.420390908 -0.0506836271 0.2930431969
655296070.0 -0.0542205612 0.3048888419 0.0702334754 -0.4216550822 0.0701698674 -0.4213921604 -0.047414625 0.2940208583
660296040.0 -0.0511186835 0.3050909227 0.0655908725 -0.4221122636 0.0654129953 -0.4226478419 -0.0441840688 0.2948907346
665296010.0 -0.047568609 0.305873606 0.0605992525 -0.4230476491 0.0608757734 -0.4230566833 -0.0409193656 0.2958859671
670295980.0 -0.0452512417 0.3068978866 0.0563748166 -0.4234697372 0.0564631909 -0.4234331777 -0.0385760277 0.2960143332
675295950.0 -0.0413010326 0.3074465277 0.0518798721 -0.4239973599 0.0519917098 -0.4238480903 -0.035251894 0.2971592074
680295920.0 -0.0385040916 0.3080666222 0.0473251142 -0.42435954 0.0470732409 -0.4249848385 -0.0316992183 0.2979615082
685295890.0 -0.0349294524 0.3088004343 0.0426112325 -0.4250338574 0.0423492627 -0.425014578 -0.0289856939 0.2978997331
690295860.0 -0.0316509788 0.3090549809 0.0379370285 -0.4250598317 0.0378620836 -0.425747879 -0.0258135608 0.2990827006
695295830.0 -0.0285765815 0.3093215641 0.0339277581 -0.4255108413 0.0327869222 -0.4259064379 -0.0221574758 0.2993478262
700295800.0 -0.0251511454 0.3096521388 0.0284639274 -0.4257228886 0.0284259926 -0.4258929277 -0.0196168234 0.3000824402
705295770.0 -0.0220231751 0.310847303 0.0238285923 -0.4261965727 0.0243782834 -0.4265366626 -0.0166098411 0.3002381173
710295740.0 -0.0184300187 0.3110615859 0.0194349149 -0.4267550479 0.0198101316 -0.4269287489 -0.0132252508 0.3004152612
715295710.0 -0.0155315776 0.3111286195 0.015149029 -0.4268374524 0.0148754037 -0.4269599134 -0.0101858802 0.3008129503
720295680.0 -0.0124106218 0.311320706 0.0101603529 -0.426880293 0.0103368349 -0.4269730168 -0.0068021777 0.30147496
725295650.0 -0.0090936318 0.3114612116 0.0053960296 -0.4265820401 0.0060208779 -0.4269822026 -0.0041998495 0.3013949817
730295620.0 -0.0056660059 0.31223496 0.0007585541 -0.4266874795 0.0011826253 -0.4270106104 -0.0012698956 0.3016833929
735295590.0 -0.0023088501 0.3124415147 -0.0037236401 -0.4269261034 -0.0036194873 -0.4264917665 0.0019070839 0.3013369132
740295560.0 0.0008739618 0.3123867181 -0.0082513764 -0.4265259403 -0.0082585059 -0.4269126385 0.0055395635 0.3021511264
745295530.0 0.0038539593 0.3127082179 -0.0129631605 -0.4265410849 -0.0130898766 -0.4266169808 0.0085856909 0.3017776378
750295500.0 0.0073218958 0.3124603323 -0.0174321626 -0.4259690975 -0.017399044 -0.4264710066 0.0116736567 0.3017963328
755295470.0 0.0105304217 0.3124984828 -0.0220397182 -0.4261797382 -0.0220664201 -0.4264130821 0.0147949871 0.3016199451
760295440.0 0.0138452278 0.3126521621 -0.0270412504 -0.4259121552 -0.0268884684 -0.4260677865 0.0177287137 0.3014269551
765295410.0 0.017211234 0.3125991398 -0.0312037716 -0.4256630271 -0.0316721346 -0.4251912721 0.0211493339 0.3015144245
770295380.0 0.0199149766 0.3123136566 -0.0360583402 -0.4253295854 -0.0357546609 -0.4250140267 0.0237220062 0.3011770625
775295350.0 0.0232130739 0.3120212552 -0.0408223262 -0.4243946844 -0.0405069644 -0.4244888006 0.026846216 0.3012922779
780295320.0 0.026726393 0.3120683354 -0.0451758182 -0.4238627415 -0.0444173121 -0.4236090824 0.0301787206 0.3005917878
785295290.0 0.0296051755 0.3116976514 -0.0500561278 -0.4229275099 -0.0495131232 -0.423522735 0.033767357 0.3006245224
790295260.0 0.0337931246 0.3117665308 -0.0541254231 -0.4228384741 -0.0535274573 -0.4225141027 0.0370841026 0.3004446854
795295230.0 0.0366163757 0.3115429152 -0.0587206671 -0.4220785334 -0.0582615767 -0.4222738667 0.0401801393 0.3000057908
800295200.0 0.0397137437 0.3112576366 -0.0637599154 -0.4212365673 -0.0634116387 -0.4214389599 0.0435811788 0.2998058678
805295170.0 0.0432225135 0.3106166075 -0.068099681 -0.4205978456 -0.0677589273 -0.420774077 0.0465442689 0.2994888799
810295140.0 0.0462798392 0.3100768471 -0.0721605608 -0.4197141772 -0.0724028358 -0.4200176285 0.0498356114 0.2993079942
815295110.0 0.0494246818 0.3100435942 -0.0772368355 -0.418820919 -0.076444654 -0.4187111416 0.0531287824 0.2985956654
820295080.0 0.0526359006 0.30972491 -0.0813455029 -0.4178865535 -0.081077612 -0.4179897904 0.0565672896 0.2986741552
825295050.0 0.0563642815 0.3090374283 -0.0856209849 -0.4170291822 -0.0861528165 -0.4172390457 0.0596564578 0.2978963493
830295020.0 0.0591332725 0.3087583099 -0.0901652736 -0.4157162088 -0.0902059758 -0.4160748967 0.0632247054 0.2975723234
