!Created with skrf (http://scikit-rf.org).
# Hz S RI R 50.0 
!freq ReS11 ImS11 ReS21 ImS21 ReS12 ImS12 ReS22 ImS22
300000.0 -0.0468861175 -0.07353527 -0.001589774 0.0005187329 -0.0004060309 0.0011978091 -0.7624390645 -0.1999103587
5299970.0 -0.0502518777 0.0142404218 -0.0002420223 5.62883e-05 -0.0001038661 -2.65838e-05 -0.784771109 -0.0101764266
10299940.0 -0.0446143634 0.0324614583 0.000190725 -3.0209e-06 -7.57719e-05 -2.13543e-05 -0.7874165667 -0.0053987112
15299910.0 -0.0359095044 0.0472112711 7.4565e-05 9.7206e-05 -5.56613e-05 1.37098e-05 -0.7927193026 -0.0026217046
20299880.0 -0.0257750832 0.0592995057 -0.0001924266 0.0001489107 9.33756e-05 0.0001138778 -0.7992642701 0.0015872166
25299850.0 -0.0141089866 0.0686074613 -2.06532e-05 -5.00194e-05 1.41071e-05 -4.952e-06 -0.8057387567 0.0079172692
30299820.0 -0.0029215915 0.0751636994 -8.92381e-05 2.6043e-06 0.0002526161 -0.0001113366 -0.8110849291 0.0156719192
35299790.0 0.0090632088 0.079676298 0.0001266533 -6.56113e-05 1.61525e-05 -5.11613e-05 -0.8165365388 0.0245131503
40299760.0 0.0204842495 0.0825891356 -0.0001153752 -0.0001000389 0.0001847604 -0.0001112314 -0.82116352 0.0338992027
45299730.0 0.0312810209 0.0838063263 0.0001280338 -9.71663e-05 -0.0001053836 4.24404e-05 -0.8238655123 0.043581488
50299700.0 0.041583164 0.0835858597 0.000102724 9.86264e-05 -0.000161885 0.0002167491 -0.8261292895 0.0536741539
55299670.0 0.0510514554 0.0824991907 0.000134593 0.0001349199 -0.0001550236 -3.15439e-05 -0.8283776636 0.0640633103
60299640.0 0.0595246419 0.0805057493 -0.0001811385 -9.60063e-05 0.0001304015 0.0001497351 -0.8293634811 0.073931764
65299610.0 0.0678078403 0.078117122 -0.0001002574 -0.0001553831 -8.02165e-05 0.0002745099 -0.8298244791 0.0842835484
70299580.0 0.0744160538 0.074834818 0.0001647713 0.0001300926 0.0001528067 -8.4732e-06 -0.8304117815 0.0938691291
75299550.0 0.081140601 0.0716209135 -0.000136511 -1.25765e-05 0.0001163445 -1.94718e-05 -0.8303954257 0.104000791
80299520.0 0.0866922729 0.0680522004 -0.0001063945 0.0002702294 -8.6495e-06 -0.0001415102 -0.8304318773 0.1140019391
85299490.0 0.0920422407 0.0640016054 9.07969e-05 2.67664e-05 -1.09111e-05 -8.4012e-06 -0.829779663 0.1233960587
90299460.0 0.0968142137 0.0601178525 -3.21759e-05 -2.1149e-06 -0.0001690549 8.20874e-05 -0.8286745291 0.1326871318
95299430.0 0.1007263192 0.0560686463 -0.0002816349 -5.87299e-05 -0.000158316 -0.0001008777 -0.8282406624 0.1428429652
100299400.0 0.1046772853 0.0519901161 3.31769e-05 0.0001895746 0.0001446505 -9.4646e-05 -0.8268910212 0.1517393968
105299370.0 0.1079162831 0.0477547374 -0.0001489329 -1.75022e-05 -5.66741e-05 2.81716e-05 -0.8251750936 0.160862063
110299340.0 0.1109527467 0.0437675772 -2.69673e-05 -6.70923e-05 0.0001099982 9.92079e-05 -0.8241706424 0.1695052742
115299310.0 0.1133487653 0.0399767964 8.09153e-05 -5.99672e-05 -0.000169477 -0.0002029304 -0.8231335637 0.1789137084
120299280.0 0.1157285613 0.0358817288 5.56893e-05 5.11548e-05 -2.92341e-05 -6.41556e-05 -0.8205748563 0.1877106434
125299250.0 0.1174045459 0.0319350069 -0.0002604623 0.0002168846 -1.01162e-05 -6.57606e-05 -0.8193936579 0.1969818337
130299220.0 0.1192064024 0.0279049898 0.0002588 5.55002e-05 -2.08901e-05 9.14969e-05 -0.8174510583 0.2058623926
135299190.0 0.1209745921 0.0245312801 -6.8655e-05 0.0001053542 0.0001437978 1.17812e-05 -0.8157474088 0.21502142
140299160.0 0.1222287817 0.0206939512 0.0001774977 -1.71877e-05 -0.0001022816 6.69861e-05 -0.8139571133 0.2231437286
145299130.0 0.1235977733 0.0173544161 0.0001053042 -9.3366e-05 4.82019e-05 8.79675e-05 -0.8119017002 0.2323057323
150299100.0 0.1242384516 0.0137984345 -0.0003413804 4.36929e-05 -4.98016e-05 -7.19859e-05 -0.8094133522 0.2413488737
155299070.0 0.1250142732 0.0106116977 0.0002169554 0.0001304073 0.0002779472 0.0001932027 -0.8068873457 0.2503519448
160299040.0 0.1255984255 0.0072877093 0.0001259112 9.02634e-05 -6.71735e-05 0.0001812564 -0.80455008 0.2587811085
165299010.0 0.1262641786 0.0042741183 7.61483e-05 -0.0001103102 0.0001001461 -8.97e-06 -0.8013422047 0.2675766688
170298980.0 0.1265790207 0.0007790781 -8.784e-07 1.83522e-05 0.000258595 -6.1619e-06 -0.7992346523 0.2755537143
175298950.0 0.126782133 -0.0023480693 -4.98254e-05 -3.5359e-05 5.20834e-05 -4.6384e-05 -0.7962611099 0.2848846632
180298920.0 0.1267898115 -0.0052978597 0.0002283638 0.0001160138 -0.0001220927 2.92013e-05 -0.7933111824 0.2934739038
185298890.0 0.1269143572 -0.0082692997 0.0001551419 -5.13511e-05 0.0002732462 -0.0001584262 -0.790271227 0.301696112
190298860.0 0.1269917915 -0.0109770667 6.8384e-06 -3.37139e-05 0.0001488424 0.0001389352 -0.7868333152 0.3098090194
195298830.0 0.1271929275 -0.0133516086 7.90488e-05 1.61016e-05 -6.6242e-06 5.61215e-05 -0.7833261622 0.3181140546
200298800.0 0.12709631 -0.0165979503 0.000176941 -0.0001339837 4.42734e-05 9.4674e-06 -0.7803653214 0.326900683
205298770.0 0.1263314729 -0.0193359928 0.0001845172 2.58398e-05 5.84525e-05 -6.15144e-05 -0.7771085859 0.3351961552
210298740.0 0.1262831834 -0.0216698026 0.0002027162 5.54012e-05 0.0001862168 -1.3871e-05 -0.7740793975 0.3430565257
215298710.0 0.1256922126 -0.0241237262 2.56176e-05 -2.03395e-05 0.0001502247 0.0002912017 -0.770387295 0.3514039847
220298680.0 0.1255129273 -0.0269141761 0.0002185532 6.78713e-05 -3.93313e-05 2.42064e-05 -0.766440271 0.359472626
225298650.0 0.1248406125 -0.0295214013 -2.37976e-05 1.55958e-05 7.0532e-06 8.12471e-05 -0.7629763182 0.3679354151
230298620.0 0.1239774031 -0.0316115078 3.10516e-05 2.27891e-05 9.10759e-05 -9.29587e-05 -0.7585135508 0.3755180225
235298590.0 0.1234280069 -0.0338625272 -2.32054e-05 0.0001914207 0.0001734625 0.0001480121 -0.7549855619 0.3830715191
240298560.0 0.1229558496 -0.0361938975 -0.0002481402 -9.11666e-05 9.2469e-05 0.0002994834 -0.7508885627 0.3911589496
245298530.0 0.1220027504 -0.0384430737 -5.04653e-05 0.0002198271 0.0001103035 2.43867e-05 -0.7470995279 0.3990400006
250298500.0 0.1214302595 -0.0405438865 0.0001322772 0.0001312122 0.0001550862 7.93685e-05 -0.7423768664 0.4069870173
255298470.0 0.1208372251 -0.0426760382 5.4217e-05 -8.4557e-05 0.0002143788 -2.33401e-05 -0.7384086793 0.4145041815
260298440.0 0.1198450516 -0.0447702803 0.0001353194 5.27913e-05 1.9118e-05 0.0002335912 -0.7339353919 0.422165872
265298410.0 0.1187605898 -0.0472243868 -5.0919e-05 -7.9704e-06 0.0001771064 0.0001304047 -0.7295322113 0.4305355242
270298380.0 0.1178313466 -0.0490015462 -0.0001190191 0.0001107238 -3.15822e-05 -2.69489e-05 -0.7249205692 0.4376628872
275298350.0 0.1169857219 -0.0507002712 0.0001635485 0.0001410471 2.46764e-05 -2.48714e-05 -0.7199655636 0.4455809917
280298320.0 0.1161516781 -0.0524822788 0.0003136611 -0.000161629 0.0001250284 8.84626e-05 -0.7157532634 0.4530111265
285298290.0 0.1149968813 -0.0546282049 1.50496e-05 4.04035e-05 -5.2644e-05 -0.0001152744 -0.7118716688 0.4608320507
290298260.0 0.1138596004 -0.056619588 4.83443e-05 8.82126e-05 8.4505e-05 0.0001751483 -0.7061406389 0.4675104399
295298230.0 0.1128972129 -0.058577984 -3.00587e-05 0.0001164191 -6.81638e-05 8.91747e-05 -0.7014036951 0.4748003284
300298200.0 0.1120559507 -0.0602711212 0.0004360667 9.6098e-06 0.0001644132 8.96258e-05 -0.6966709231 0.4828088336
305298170.0 0.1109360212 -0.0622673372 9.10176e-05 -5.8963e-05 6.84081e-05 0.0002116636 -0.6915321729 0.4894648007
310298140.0 0.1097485127 -0.0644046838 -0.0001009672 0.0001948734 0.0002450308 0.0001239163 -0.6859626786 0.4969476272
315298110.0 0.1084685582 -0.0663012108 0.0002996077 -4.4668e-06 0.0001616757 3.2125e-05 -0.6813937128 0.5041464103
320298080.0 0.1073038312 -0.0681383452 0.0002226993 7.25384e-05 0.0001216423 7.02197e-05 -0.6759334515 0.5107450889
325298050.0 0.1052813265 -0.0701839576 0.0001416382 -0.0001271439 -0.0001050207 9.36479e-05 -0.6699381519 0.5177335133
330298020.0 0.1037600342 -0.0715252908 -4.57368e-05 8.07323e-05 0.0002644725 -1.29294e-05 -0.6652218002 0.5247762997
335297990.0 0.1022244203 -0.0730161968 0.0001390771 0.0001351804 7.08166e-05 -3.37988e-05 -0.6594211078 0.5315961072
340297960.0 0.1006748106 -0.0742852611 -0.0001677365 -2.06967e-05 2.82594e-05 0.0002458722 -0.6538736562 0.538699264
345297930.0 0.0995835692 -0.0758562027 0.0001005112 2.45432e-05 3.25159e-05 -2.30437e-05 -0.6487309081 0.5448162118
350297900.0 0.0984695581 -0.0775245189 5.46046e-05 3.48368e-05 9.33432e-05 -4.33568e-05 -0.6428544895 0.551535037
355297870.0 0.0968177409 -0.0788909242 7.14144e-05 0.0001631325 -2.12637e-05 0.0002198411 -0.6364145065 0.5584406453
360297840.0 0.0953386345 -0.0801749067 0.0001823697 6.46985e-05 0.0001212867 0.0001073032 -0.630463135 0.5651562369
365297810.0 0.0940183889 -0.0814787075 -9.72494e-05 5.98196e-05 -3.08178e-05 0.0002623443 -0.6258955182 0.5707301337
370297780.0 0.0926321139 -0.0828874662 0.00016917 2.25484e-05 0.000230135 0.0001402716 -0.6194406864 0.5777425832
375297750.0 0.0914146993 -0.084244936 -6.19707e-05 9.84879e-05 3.18422e-05 0.0001151067 -0.6125967093 0.5840264568
380297720.0 0.0895747095 -0.085115604 0.0004751621 0.0001171638 -0.0002874289 4.68693e-05 -0.6064348136 0.5906226281
385297690.0 0.0881811339 -0.0868055917 2.99615e-05 -8.32721e-05 5.04722e-05 0.0001107529 -0.601132484 0.5964652996
390297660.0 0.0866699658 -0.0882400418 0.0001953119 8.98018e-05 0.0001693072 0.0001138301 -0.5943927262 0.6024399066
395297630.0 0.0854718704 -0.0893793624 5.39837e-05 -0.0001902175 -4.3489e-06 0.0001839656 -0.5880196433 0.6079129205
400297600.0 0.0835858032 -0.0904347727 -0.0001865705 0.0002280216 0.0001066603 4.76233e-05 -0.5828853995 0.6146753805
405297570.0 0.082199207 -0.0917357112 0.0002746304 -0.0001640576 0.0001142848 3.78297e-05 -0.5757170645 0.6201682551
410297540.0 0.0811359 -0.0928207358 0.0002555322 1.00006e-05 0.0001533924 -0.0001658806 -0.5689697541 0.6263864203
415297510.0 0.079322695 -0.0940918205 -8.9712e-06 -0.0001251184 5.1814e-05 0.0002161604 -0.5627608042 0.6313994179
420297480.0 0.0778786003 -0.0954255873 1.5804e-05 -0.0001383306 0.0001268527 6.32301e-05 -0.5561431301 0.6383280053
425297450.0 0.0766846344 -0.0962967386 7.03737e-05 -5.9077e-06 4.78802e-05 0.000205157 -0.5498359416 0.642667031
430297420.0 0.0748831834 -0.0975398687 0.000145071 3.7004e-05 0.0001204414 3.5533e-06 -0.5429156091 0.6489413207
435297390.0 0.0731653425 -0.0987547719 0.0002861292 9.0913e-05 2.30352e-05 9.46935e-05 -0.5368973295 0.6542943169
440297360.0 0.0717938761 -0.0995425367 7.3633e-05 0.0002856172 0.0001070955 0.0001798964 -0.5301170402 0.6596514146
445297330.0 0.0703361354 -0.1006769847 0.0002237515 -1.79345e-05 0.0003175556 6.6693e-05 -0.5228049356 0.6648275108
450297300.0 0.0688803877 -0.1017554941 0.0001703077 0.0001230697 0.0001005627 -0.0001001981 -0.5155313582 0.669970312
455297270.0 0.0671901961 -0.1027454752 5.29313e-05 8.67379e-05 4.00675e-05 6.81484e-05 -0.5093644429 0.6755451598
460297240.0 0.0658756336 -0.1035940643 -2.382e-05 9.5092e-05 2.05316e-05 0.0002047664 -0.502427247 0.6797599943
465297210.0 0.0643676827 -0.1043271626 8.12099e-05 2.56481e-05 -1.54701e-05 -6.64761e-05 -0.4950238081 0.6860053427
470297180.0 0.0628465113 -0.1053125968 0.0002160769 -3.92789e-05 8.26222e-05 -0.0001009529 -0.4883135135 0.690636658
475297150.0 0.0610369753 -0.1058995939 7.68065e-05 -0.0001020644 0.0002121383 0.0002236124 -0.4812535073 0.6954754974
480297120.0 0.0596988122 -0.1068293251 0.0001912045 0.0001375565 -0.0001031273 7.41421e-05 -0.4742819243 0.7000961622
485297090.0 0.0579854736 -0.1075416913 0.0001231255 0.0001146144 0.0001992407 0.0001002701 -0.4669521706 0.7052860736
490297060.0 0.0568384302 -0.1086402244 7.81468e-05 -4.24204e-05 9.49324e-05 -9.20736e-05 -0.4595864938 0.7089657327
495297030.0 0.0549914349 -0.1092387709 0.0002126501 0.0002330537 7.4658e-06 0.0003218241 -0.4524342224 0.7134072436
500297000.0 0.0534715978 -0.1100717271 3.82166e-05 3.34516e-05 3.70307e-05 0.0001061574 -0.4452194228 0.7188414959
505296970.0 0.0520467615 -0.1106833629 0.0002408198 -4.71953e-05 -7.15936e-05 1.28828e-05 -0.4375212735 0.7229884614
510296940.0 0.0503159216 -0.1112426812 -1.12905e-05 3.8766e-06 0.0001794294 8.5762e-06 -0.4297468652 0.7276769139
515296910.0 0.0487870508 -0.1119603952 0.0001212938 4.1861e-05 0.0002103779 5.60918e-05 -0.422889033 0.7310602775
520296880.0 0.0473085577 -0.1124904701 3.0776e-06 -0.0001006676 2.40243e-05 3.16273e-05 -0.415203707 0.735784193
525296850.0 0.0457104296 -0.1131829852 0.0002226318 6.6593e-05 8.60325e-05 -8.7497e-06 -0.4082855657 0.7399270812
530296820.0 0.0440443159 -0.1137938962 0.0002280527 0.000113858 0.0001002436 5.71533e-05 -0.4001444292 0.74351957
535296790.0 0.0426379119 -0.1140264853 0.0001644133 -0.0001070814 9.26079e-05 -9.41928e-05 -0.3932226668 0.7481666633
540296760.0 0.0410793074 -0.1146718021 0.0001500286 -8.89821e-05 0.0001193246 7.79569e-05 -0.3848900405 0.7513919373
545296730.0 0.0394122577 -0.1148469645 0.0001275418 9.52061e-05 0.0002201193 0.0001064155 -0.3774635988 0.7558083293
550296700.0 0.0379141398 -0.1151671074 0.0002330041 -0.000125636 0.0001629412 3.80562e-05 -0.3700474858 0.7592859328
555296670.0 0.0363040571 -0.1155680361 0.0001172034 -0.0001302129 8.94258e-05 -7.79876e-05 -0.3624251609 0.7624572526
560296640.0 0.035008217 -0.1161718009 0.0001960892 0.0001036571 7.44817e-05 -2.78456e-05 -0.3547084923 0.7667179509
565296610.0 0.0329303254 -0.1164510661 3.99977e-05 -9.21164e-05 4.75539e-05 -7.3292e-06 -0.3466370422 0.7698979233
570296580.0 0.031569948 -0.1165619455 0.000108411 -0.0001104945 0.0001906425 -6.31908e-05 -0.3390704984 0.7730711429
575296550.0 0.0298918473 -0.1169945715 0.0001536168 2.11407e-05 0.0002061379 -0.0001659025 -0.3308470363 0.7765920977
580296520.0 0.0278556487 -0.1172206969 0.0001199388 0.000174945 0.0003254931 -8.22709e-05 -0.3233367015 0.7794998994
585296490.0 0.0268662319 -0.1172123912 0.0001596292 0.000147518 -3.57067e-05 6.44725e-05 -0.3155459848 0.7833195642
590296460.0 0.0252181797 -0.1172744768 0.0002204771 -0.0001413532 9.0084e-05 -4.52242e-05 -0.3070967608 0.7861643506
595296430.0 0.0235216752 -0.1174707986 -0.0001316522 0.0001185777 0.00037975 -5.8009e-05 -0.2997650132 0.7895374609
600296400.0 0.0220186116 -0.1176442013 0.0002577469 -3.66164e-05 -1.45603e-05 -0.0001762226 -0.2917787285 0.7920578597
605296370.0 0.0200882029 -0.1174058639 3.59829e-05 -1.49256e-05 0.0002736854 -1.72426e-05 -0.2836627704 0.7956370602
610296340.0 0.0186634353 -0.1176120562 0.0002359029 2.08757e-05 0.0002386928 -1.58409e-05 -0.2762421239 0.7980905716
615296310.0 0.0172976233 -0.1177608201 0.0001120666 -2.1397e-05 0.0001127402 -7.16868e-05 -0.2669693859 0.8010734514
620296280.0 0.0154535726 -0.1173870889 -4.94565e-05 -0.000110229 -1.906e-05 2.94301e-05 -0.2602507917 0.80335179
625296250.0 0.0136559752 -0.1175530705 8.63019e-05 -0.0001736029 0.0001617889 -1.13281e-05 -0.2516037116 0.8054630065
630296220.0 0.0120060277 -0.1175713701 0.0002153841 -7.8588e-05 0.0001953039 -7.91152e-05 -0.2435541164 0.8082363399
635296190.0 0.0100281489 -0.1173819183 0.0003891357 -9.21621e-05 0.0001782267 1.24655e-05 -0.2356144908 0.8102429745
640296160.0 0.0085515282 -0.1173185859 0.0001994961 0.0001872034 0.0002692721 -0.0002131848 -0.2270880543 0.812741299
645296130.0 0.007429583 -0.1171909408 0.0001797254 -6.59683e-05 9.33733e-05 -2.23496e-05 -0.2191863215 0.8144745579
650296100.0 0.0056071831 -0.1169911252 9.11881e-05 -2.67047e-05 0.0003066498 6.35668e-05 -0.2106513155 0.8163788875
655296070.0 0.003994927 -0.1167120059 0.0001197591 -8.59315e-05 0.0001252064 -0.0001311803 -0.2030241689 0.8189866563
660296040.0 0.0020412961 -0.1165424072 0.0001870019 -9.94773e-05 0.0002376807 0.0001395295 -0.1937706335 0.8212236659
665296010.0 0.0003593081 -0.1161422229 0.000128233 2.34605e-05 0.0001903917 -5.6527e-05 -0.1866059916 0.8221407088
670295980.0 -0.0015355291 -0.1158876098 0.0002588367 -6.53065e-05 0.0001750688 -6.00609e-05 -0.1780859529 0.8239889003
675295950.0 -0.0031387403 -0.1155896135 6.70869e-05 0.0001342606 0.0001585309 -8.97432e-05 -0.1696873679 0.8264915488
680295920.0 -0.0048801691 -0.1152499907 0.0001151663 -9.50496e-05 0.0002374441 5.16345e-05 -0.1610747454 0.8282753492
685295890.0 -0.0062925326 -0.1149505194 9.14203e-05 4.37294e-05 7.04005e-05 7.58449e-05 -0.1529768145 0.8297050741
690295860.0 -0.0082421474 -0.1145738369 0.0001081422 0.0001337818 0.000164321 0.0001235552 -0.1452339395 0.8311776015
695295830.0 -0.0097560625 -0.1142871806 0.0001447352 -0.0001464071 0.0001349216 3.43719e-05 -0.1367999137 0.832827439
700295800.0 -0.011397919 -0.113801745 8.87878e-05 7.11459e-05 0.000156043 3.95853e-05 -0.1282363502 0.8334655757
705295770.0 -0.0130083654 -0.1133361318 0.0001472507 -3.05838e-05 -9.47608e-05 5.81441e-05 -0.1201156026 0.8355928489
710295740.0 -0.0147109781 -0.1131836221 7.31578e-05 0.0001249667 5.8655e-06 -0.0001417326 -0.1115731673 0.8366400415
715295710.0 -0.016197341 -0.1124424799 0.0001090338 6.14764e-05 0.0001365534 5.92581e-05 -0.1030426316 0.8367632983
720295680.0 -0.0180276747 -0.1119567425 7.41229e-05 -4.87223e-05 0.0002189674 2.70789e-05 -0.0946430061 0.8378896023
725295650.0 -0.0198848916 -0.1112723719 0.0001434163 -0.0001846639 0.0002313365 1.20961e-05 -0.0874731968 0.8394328007
730295620.0 -0.021953353 -0.1109930945 0.0002244833 9.6192e-06 0.0001650374 -4.71504e-05 -0.0782798595 0.8400389895
735295590.0 -0.0233249022 -0.1105311781 0.0002202164 0.0001010506 0.0002126192 -9.65161e-05 -0.0698310769 0.8403509366
740295560.0 -0.0249774177 -0.1098479307 0.000254605 -5.06129e-05 0.0001677889 -1.3255e-06 -0.0613368603 0.8412794443
745295530.0 -0.0265137638 -0.1092840283 0.0002085977 2.95391e-05 -2.505e-07 1.61082e-05 -0.053559576 0.841529207
750295500.0 -0.028549767 -0.1088964508 0.0003049728 -2.3338e-06 0.0001729338 -6.72436e-05 -0.0451882733 0.8423662442
755295470.0 -0.0298923018 -0.108352891 0.0001391621 -9.0626e-06 0.0001307445 6.95522e-05 -0.0367023551 0.8428520073
760295440.0 -0.0317305703 -0.1074255267 0.0002154613 0.0001211462 0.0001501477 -9.9429e-05 -0.0282524267 0.8424518495
765295410.0 -0.0330856585 -0.1071832459 5.59589e-05 2.97329e-05 0.0001473581 -1.70478e-05 -0.0199231048 0.8433533803
770295380.0 -0.035087278 -0.1062418163 0.0002156212 -9.93152e-05 9.85413e-05 9.4778e-06 -0.0116083518 0.8431309458
775295350.0 -0.036500225 -0.1053312174 0.0001645673 -0.0002321196 9.43011e-05 -8.8814e-06 -0.0029406347 0.8426464517
780295320.0 -0.0380367982 -0.1046126012 0.0001143002 -0.0001801301 0.0001058185 -1.03426e-05 0.0055637762 0.8437507498
785295290.0 -0.0399513421 -0.1041269353 5.62561e-05 9.02672e-05 0.0001670644 0.0001582312 0.0134733869 0.8436337954
790295260.0 -0.0414343578 -0.1036535545 0.0002366811 -4.66913e-05 8.56416e-05 -0.0001721862 0.0220096846 0.8431364932
795295230.0 -0.042954227 -0.1026469649 2.30453e-05 -5.88665e-05 5.37589e-05 1.03958e-05 0.0299873009 0.8424727513
800295200.0 -0.0446414723 -0.1018014426 0.0002182971 -4.26911e-05 0.0002251521 4.6276e-05 0.0383849825 0.8422020955
805295170.0 -0.0460746446 -0.1011925737 0.000223038 -7.85909e-05 0.0002034024 0.000117768 0.04740522 0.8415732165
810295140.0 -0.0476203807 -0.1000252188 -9.3872e-05 -0.0001417906 -2.61542e-05 -0.0003168233 0.055786726 0.8411432213
815295110.0 -0.0494508698 -0.099660135 3.55774e-05 -0.0001282094 0.000247208 0.0001311417 0.0631822888 0.8407858163
820295080.0 -0.051059784 -0.0988233379 0.0001451908 9.19204e-05 9.10412e-05 0.000158882 0.0715605886 0.8399646106
825295050.0 -0.0526927177 -0.0982437275 0.0002669007 -1.41394e-05 0.0002192571 -7.06839e-05 0.0805362639 0.8392649072
830295020.0 -0.0540918959 -0.0972697359 0.0001496942 -0.0001286524 0.0001348373 -0.0002472138 0.0881620258 0.8378612239
835294990.0 -0.0558037869 -0.0963811214 0.00021213 -0.0001849561 -4.92518e-05 0.0001343227 0.0965269236 0.8374025262
840294960.0 -0.0573707816 -0.0958530607 0.0001420427 2.45772e-05 9.612e-05 5.77964e-05 0.1058915497 0.8366670187
845294930.0 -0.0588737873 -0.0944679092 0.0002243596 -9.53485e-05 -7.68897e-05 5.06768e-05 0.1135606338 0.835186934
850294900.0 -0.0598117071 -0.0940435774 -3.71991e-05 -0.0001815061 0.0002313489 -3.24331e-05 0.1215289953 0.8341189691
