!Created with skrf (http://scikit-rf.org).
# Hz S RI R 50.0 
!freq ReS11 ImS11 ReS21 ImS21 ReS12 ImS12 ReS22 ImS22
300000.0 -0.092111556 -0.1043520395 0.6202514231 0.0963469837 0.6197530449 0.0986434686 -0.0927142955 -0.1098164936
5299970.0 -0.1011624655 0.0113442804 0.6302018944 0.0116414082 0.6308022678 0.011097497 -0.1015076413 0.0109871063
10299940.0 -0.0969696899 0.0284992974 0.6346719771 0.0161082067 0.6344957449 0.0168692979 -0.0961945221 0.0283367731
15299910.0 -0.0891364301 0.0425117775 0.6405333446 0.0210364076 0.6405499847 0.0211391085 -0.0894794905 0.0418889214
20299880.0 -0.0801904532 0.0534793674 0.649135178 0.0243561154 0.6491784239 0.0244746744 -0.0809713616 0.0529107464
25299850.0 -0.0703749928 0.0624187113 0.6585603829 0.0260147058 0.6582864784 0.0256909601 -0.071666967 0.0616972718
30299820.0 -0.060698264 0.0687117535 0.6682933226 0.0245688985 0.6679185721 0.0244822533 -0.0618659032 0.0683746069
35299790.0 -0.0502393664 0.0734643808 0.6771144308 0.0217734451 0.6774291245 0.0221548714 -0.0518889676 0.0737181359
40299760.0 -0.0410149588 0.0763828062 0.6869975038 0.0177855648 0.6872111475 0.0175673046 -0.0425072467 0.0769673658
45299730.0 -0.0317969396 0.0785309631 0.6958347621 0.0124372677 0.6957732421 0.0120671955 -0.0330710679 0.079307977
50299700.0 -0.0228823431 0.0790614619 0.7036881829 0.0050956113 0.7040632787 0.0052871235 -0.0243752847 0.0804637923
55299670.0 -0.0153269981 0.0787682729 0.7112652852 -0.0016918086 0.7110433929 -0.002385775 -0.0171993089 0.0806231487
60299640.0 -0.0078090592 0.0788856819 0.7180993531 -0.0113322627 0.7179850163 -0.0111162267 -0.0096280506 0.0796973683
65299610.0 -0.0009084345 0.0774646424 0.7240516282 -0.0192398589 0.7242436677 -0.019792438 -0.0022800247 0.0785432703
70299580.0 0.0053508062 0.0752042551 0.7288988595 -0.0284363441 0.7294518482 -0.0291689479 0.0032039516 0.0772238135
75299550.0 0.0105385593 0.0733053538 0.7334282835 -0.0394414569 0.7334598848 -0.0387711897 0.0086812538 0.0751919771
80299520.0 0.0156213714 0.0714808879 0.7378612053 -0.0485759264 0.7379574059 -0.0488899399 0.0139994473 0.0736858405
85299490.0 0.0200776527 0.0693462666 0.7409432706 -0.0584844604 0.7411114081 -0.0584093797 0.0182295234 0.0709753134
90299460.0 0.0241862929 0.0665807829 0.7433688871 -0.0684659414 0.7435740033 -0.0685658671 0.0226822779 0.0689969201
95299430.0 0.027894628 0.0643650918 0.7465637881 -0.0790501474 0.7467606784 -0.078962071 0.0260951571 0.0665651491
100299400.0 0.0313387526 0.0616686248 0.7478741654 -0.0886288586 0.747709838 -0.0890697246 0.029381471 0.0648378592
105299370.0 0.0344975379 0.0592047133 0.7493207017 -0.0991393236 0.7498920826 -0.0989351525 0.0328334892 0.0617689767
110299340.0 0.0374479202 0.0563971423 0.7503284902 -0.1086856516 0.7506381646 -0.1083671152 0.0349099278 0.0595100602
115299310.0 0.0396028166 0.0542778044 0.7515443532 -0.1186897798 0.7513539408 -0.118614801 0.0373468332 0.0577294614
120299280.0 0.0418294921 0.0521779366 0.7522068787 -0.1296590842 0.7516810804 -0.1294857429 0.0399997002 0.0545381345
125299250.0 0.0441414151 0.0495950307 0.752403498 -0.1390358913 0.7522371695 -0.1383143517 0.042356183 0.0528778732
130299220.0 0.0458613063 0.0469789404 0.7521102229 -0.1489658158 0.7521850084 -0.1493080934 0.0439428787 0.0509836193
135299190.0 0.0469646991 0.0453757662 0.7522767875 -0.1585006146 0.752188706 -0.1588519322 0.045660125 0.0480994685
140299160.0 0.0487860649 0.0431066153 0.7517334438 -0.1681893632 0.7511234022 -0.1681259171 0.0464974342 0.0457920254
145299130.0 0.0493226792 0.0410589805 0.7503659937 -0.1783315876 0.7502849976 -0.1779057887 0.0480927234 0.0439214511
150299100.0 0.0511628296 0.0392929885 0.7495982082 -0.1874735861 0.7490319512 -0.1879358916 0.0491990307 0.0420849092
155299070.0 0.0527999265 0.0369943167 0.7479118492 -0.1977572468 0.7488657306 -0.1974700649 0.0505896888 0.0397220104
160299040.0 0.0533638261 0.0354291751 0.7465775559 -0.2068354716 0.7466827351 -0.2070418941 0.0510841787 0.0381576922
165299010.0 0.0541923466 0.0334772265 0.7456394404 -0.2164014851 0.74531804 -0.216259234 0.0523052673 0.0360686455
170298980.0 0.0551447477 0.0319807664 0.7428642872 -0.2257748275 0.7432494959 -0.2258821069 0.0527448926 0.0339827192
175298950.0 0.056048329 0.0303255604 0.7417121814 -0.2354065181 0.7419660497 -0.2355715105 0.0534479891 0.0329076052
180298920.0 0.0562472707 0.0287342491 0.7394749889 -0.2444539992 0.7394655884 -0.2447599224 0.0541510119 0.0310077482
185298890.0 0.0567751968 0.0269532777 0.73761764 -0.2536956878 0.7371828719 -0.2534073983 0.055268581 0.0290606255
190298860.0 0.0579112885 0.0255893671 0.7349322063 -0.2626708074 0.7352283493 -0.2624401468 0.0554469378 0.0276047325
195298830.0 0.0577788492 0.0239622138 0.7330296426 -0.2711882945 0.7324413701 -0.2717378018 0.0557801047 0.0262195435
200298800.0 0.0584881718 0.0225214166 0.7300721197 -0.2807739421 0.7297754192 -0.2807301178 0.0564645832 0.0242874929
205298770.0 0.0583564715 0.0206651026 0.7267859029 -0.2893374149 0.7268775388 -0.2892477225 0.0573302601 0.0229871692
210298740.0 0.0588263298 0.0201232032 0.7243879797 -0.2982438013 0.7234413603 -0.2983833735 0.0567283533 0.0208830596
215298710.0 0.0594605076 0.0188211678 0.7206736787 -0.3064613599 0.7209395497 -0.307329593 0.0573925673 0.0201224846
220298680.0 0.0596178866 0.0175929547 0.7173198215 -0.3155148454 0.7174323576 -0.3156306163 0.0576996454 0.0183569608
225298650.0 0.0597825011 0.0160385554 0.7143520054 -0.3238753163 0.7145987282 -0.3236156619 0.0577139073 0.016683663
230298620.0 0.0604156774 0.0150754949 0.7112421862 -0.3327158151 0.7113533372 -0.3332732163 0.0577126401 0.015336599
235298590.0 0.0596362476 0.0134843533 0.7081161525 -0.3419370058 0.707744763 -0.3416083003 0.0579658556 0.0144547714
240298560.0 0.0604265168 0.0130061962 0.7045976471 -0.3490486661 0.7039810103 -0.3493999119 0.0579654969 0.0131231929
245298530.0 0.0604423401 0.0111741801 0.7004962554 -0.3578667823 0.7004224018 -0.3581915254 0.0581874991 0.0119502487
250298500.0 0.0601099193 0.0102881746 0.6969334289 -0.3661052478 0.6967110662 -0.366062138 0.0579071833 0.0107253884
255298470.0 0.0607293101 0.0095700936 0.6930679955 -0.3739012765 0.6929526164 -0.3746272839 0.0579368194 0.0099355469
260298440.0 0.0607125573 0.0080719273 0.6893563139 -0.3816832553 0.6892319377 -0.3820735077 0.0576995347 0.0081315753
265298410.0 0.059960932 0.0073713303 0.6844016861 -0.3904613232 0.684312736 -0.3908777535 0.0589066433 0.0067396458
270298380.0 0.0601342667 0.0064485769 0.6805409783 -0.3984485064 0.6805905731 -0.3985013366 0.058412863 0.0061253743
275298350.0 0.0604938787 0.0056083182 0.676085724 -0.4060737187 0.6752929411 -0.4064005121 0.0580589098 0.0050624567
280298320.0 0.0597934499 0.0044243812 0.6717286874 -0.4137545577 0.6720062461 -0.4142017487 0.0585914762 0.0040572197
285298290.0 0.0600677725 0.0035553706 0.6671624713 -0.4219679283 0.6676567274 -0.4216600434 0.0582558751 0.0028982076
290298260.0 0.0597039922 0.0026570185 0.6634067558 -0.4296774328 0.6634808648 -0.4292571414 0.0580652546 0.0018641587
295298230.0 0.059982823 0.0012518369 0.658471396 -0.4384352745 0.6587638658 -0.4377053561 0.0578376372 0.0005169059
300298200.0 0.0604400616 0.0009397951 0.6540878724 -0.4455632154 0.6536932197 -0.4448992931 0.0580036642 -0.0005418211
305298170.0 0.0601788519 -0.0007424818 0.6491769309 -0.4533259347 0.6490630056 -0.4532688661 0.0578035939 -0.0021406975
310298140.0 0.0603456686 -0.001670656 0.6442572006 -0.4605368604 0.644265807 -0.4603364422 0.0580995548 -0.0035684941
315298110.0 0.0596545153 -0.0030875909 0.6393597234 -0.4683728143 0.6390560973 -0.468497134 0.0576275339 -0.0043236611
320298080.0 0.0596782871 -0.0038857069 0.6328917871 -0.4759466925 0.6344922618 -0.4759244618 0.0574518714 -0.0055274057
325298050.0 0.0586335976 -0.0054740899 0.6287502743 -0.4827280197 0.6290121543 -0.4832248493 0.0570149859 -0.0066429983
330298020.0 0.0575866806 -0.0059087821 0.6225261884 -0.4908117902 0.6234283093 -0.4909728915 0.0562795182 -0.0076971975
335297990.0 0.0576544183 -0.0068016568 0.6173557228 -0.4974919309 0.6175899877 -0.4974310154 0.0559118695 -0.0086481816
340297960.0 0.0568963371 -0.0076102364 0.6116926826 -0.5049190459 0.6110535677 -0.5050145647 0.0555334005 -0.0089833499
345297930.0 0.0564721474 -0.0086021365 0.6060026761 -0.5122534244 0.6051313365 -0.5120624727 0.0552442 -0.0103245663
350297900.0 0.055874278 -0.0091483582 0.6002889037 -0.5178580623 0.6007775565 -0.5182935797 0.0547480256 -0.011122564
355297870.0 0.0558127487 -0.0097226788 0.5950354698 -0.5245203174 0.5944705129 -0.5245504801 0.0546926609 -0.0116452063
360297840.0 0.0554175302 -0.0102007753 0.5882152577 -0.5315291495 0.5888676096 -0.5315046884 0.0537355174 -0.0124338382
365297810.0 0.0546516649 -0.0108800224 0.5825563593 -0.5377575583 0.5823585191 -0.5381313676 0.0530574393 -0.0131895739
370297780.0 0.0548291754 -0.0114344553 0.5759949082 -0.544420005 0.5768490212 -0.5440638075 0.0528375854 -0.0137710211
375297750.0 0.0545675943 -0.0121376267 0.5704837299 -0.5510431947 0.5705357804 -0.5511041422 0.0530788625 -0.0147830415
380297720.0 0.0534213124 -0.0125281786 0.5651305966 -0.5578126176 0.564027234 -0.5574271695 0.0523968928 -0.0149540955
385297690.0 0.0532385857 -0.013756503 0.5583423852 -0.5636704003 0.5580774119 -0.5641731943 0.0522072793 -0.0154397435
390297660.0 0.053031334 -0.0144688234 0.5523035023 -0.5687763548 0.5523742966 -0.5700554372 0.052363264 -0.0165920296
395297630.0 0.0531126251 -0.0149080228 0.545916358 -0.5749481779 0.5455674326 -0.5757435031 0.0515369977 -0.0169492168
400297600.0 0.0520019866 -0.0156752279 0.5397669634 -0.5822059163 0.5398579976 -0.5817160366 0.0511577361 -0.0171153082
405297570.0 0.0520344932 -0.0167929896 0.5332309007 -0.5878043092 0.5330268095 -0.5878644821 0.0510359252 -0.017667957
410297540.0 0.0515059432 -0.0164885228 0.526874848 -0.5935589693 0.5269666705 -0.5934733979 0.0505851437 -0.0187844579
415297510.0 0.0507562477 -0.0174953595 0.5201311027 -0.599563951 0.5206242038 -0.5999967368 0.0506481837 -0.0189284952
420297480.0 0.050547074 -0.0184009188 0.5137176416 -0.6050634804 0.5136418711 -0.605408973 0.0504310155 -0.0193647431
425297450.0 0.0510022965 -0.0187824338 0.5073052127 -0.6112929654 0.5069602434 -0.6113605637 0.0498530956 -0.0204515117
430297420.0 0.0498964275 -0.0193160859 0.5005348333 -0.6164735758 0.500940435 -0.6164360079 0.04990808 -0.0209058164
435297390.0 0.0495783031 -0.0201477621 0.4928160415 -0.6232586764 0.4931152158 -0.6219944338 0.0489691998 -0.0212198661
440297360.0 0.0496443914 -0.0211749396 0.4866626687 -0.6274527922 0.4860299013 -0.627804908 0.0487852202 -0.0217506947
445297330.0 0.0494445452 -0.0219633995 0.4798838511 -0.6327097213 0.4795169678 -0.6332287193 0.0484246721 -0.0220462388
450297300.0 0.0488342724 -0.0222724458 0.4730201004 -0.6371811724 0.472975223 -0.6380768213 0.0482220067 -0.0223725328
455297270.0 0.0481002079 -0.022845472 0.4662151195 -0.6436303887 0.4662806844 -0.6431853463 0.0479139408 -0.0234574793
460297240.0 0.0481951655 -0.0231846212 0.4586224934 -0.649126094 0.4583058621 -0.6493322026 0.0474112257 -0.0235949395
465297210.0 0.0475557532 -0.0239614382 0.4510408286 -0.6536501411 0.4510610156 -0.6540173192 0.0477007558 -0.0236112042
470297180.0 0.0471847915 -0.0248094665 0.4439986909 -0.6588730473 0.4444957629 -0.6585654087 0.047250238 -0.0251150845
475297150.0 0.0466020882 -0.0250025088 0.437227358 -0.6638970731 0.4373761639 -0.6637523506 0.0466613898 -0.0252501444
480297120.0 0.0467118532 -0.024914956 0.4295058665 -0.6683024183 0.4297941547 -0.6683868077 0.0458939493 -0.0259201495
485297090.0 0.0461676865 -0.0264510608 0.4221246437 -0.6734176634 0.4221669125 -0.6729962733 0.0459508124 -0.0262549204
490297060.0 0.0463366343 -0.0267576114 0.414193816 -0.6775293536 0.4149203582 -0.6777378476 0.0452675798 -0.0269373629
495297030.0 0.0450991936 -0.0278314442 0.4076466872 -0.6826786216 0.4074907334 -0.6827742652 0.0453416304 -0.0275596705
500297000.0 0.0447388129 -0.0278569307 0.4002370222 -0.6862887779 0.3997084871 -0.6869697477 0.0448373531 -0.0275774056
505296970.0 0.0450553418 -0.0283688343 0.3927323847 -0.6911666074 0.392715358 -0.6911597551 0.0444310705 -0.028819378
510296940.0 0.044174273 -0.0290992109 0.3850770092 -0.6959893596 0.3850716625 -0.6961704834 0.044241612 -0.0288245065
515296910.0 0.0436896617 -0.0291812749 0.3766875573 -0.699929656 0.3764377211 -0.6997541013 0.0438573096 -0.0299560178
520296880.0 0.0433836395 -0.029619905 0.3693040135 -0.7032717635 0.3694270711 -0.703538034 0.0438557697 -0.0295505313
525296850.0 0.0430987834 -0.0302932212 0.361733723 -0.7081102884 0.3616296422 -0.7078048917 0.0434109111 -0.0302999015
530296820.0 0.042554589 -0.0311409722 0.3536899635 -0.7122658446 0.354308052 -0.7119757558 0.0430765958 -0.0312628131
535296790.0 0.0428868939 -0.0311861464 0.3459780875 -0.7154133369 0.3464473618 -0.7157226295 0.04310627 -0.0310683584
540296760.0 0.0421318349 -0.0314391214 0.3380156351 -0.719330342 0.337966884 -0.7193578377 0.0425412596 -0.0322660995
545296730.0 0.0408926596 -0.0316118802 0.3303390151 -0.7231003946 0.3304041124 -0.723045647 0.0419917139 -0.0325797346
550296700.0 0.0416828046 -0.0321425983 0.3226016799 -0.7263450321 0.3219983831 -0.7267577851 0.0417714685 -0.0326353423
555296670.0 0.0408515751 -0.032659926 0.3144999814 -0.730826858 0.314460991 -0.7304036081 0.0411821821 -0.0341730721
560296640.0 0.0411869615 -0.0330985644 0.3059658622 -0.7335258793 0.3071198173 -0.7334317142 0.040427054 -0.0335875605
565296610.0 0.0399428663 -0.0334418628 0.2992473336 -0.7370262331 0.2985705117 -0.7363946537 0.0403950324 -0.0341087465
570296580.0 0.0393054928 -0.0335425401 0.2902269158 -0.7402049741 0.2904054182 -0.7405140902 0.0395102478 -0.0348313739
575296550.0 0.039013185 -0.0345529097 0.2826325232 -0.7435231411 0.2823549367 -0.7436737795 0.0393607338 -0.0350133445
580296520.0 0.0388714631 -0.0343553901 0.2742009865 -0.7468005309 0.2746472177 -0.7465661899 0.0384047936 -0.0357007544
585296490.0 0.0382773836 -0.0345003286 0.2662207253 -0.7491365113 0.2659133146 -0.7491014072 0.0387042697 -0.0357783856
590296460.0 0.0386524451 -0.0350345775 0.258007612 -0.7518836283 0.2578571032 -0.7522258945 0.0373179373 -0.035960893
595296430.0 0.0378735316 -0.0354328226 0.2491430402 -0.7550249797 0.2493079477 -0.7551751114 0.0373786351 -0.0369519896
600296400.0 0.0377252246 -0.0355371099 0.2407446074 -0.7574340973 0.2411791671 -0.7577255068 0.0371174638 -0.0371157766
605296370.0 0.0362300141 -0.0361629276 0.2326225561 -0.7604833186 0.232721298 -0.7603719742 0.0362855523 -0.0374982342
610296340.0 0.0366863732 -0.0358345762 0.2247213176 -0.7622335307 0.2249417586 -0.7627218101 0.0355909348 -0.0374612016
615296310.0 0.0360715185 -0.0364201067 0.216190463 -0.7655710054 0.2156820796 -0.7652700652 0.0354261893 -0.0377074
620296280.0 0.034991351 -0.0362267448 0.2076400593 -0.7675250602 0.2076939264 -0.7670807391 0.0345954135 -0.0379765381
625296250.0 0.0346865076 -0.0369503814 0.1994664856 -0.7697312241 0.1994573409 -0.7702830813 0.0335950749 -0.0385990403
630296220.0 0.0343336364 -0.0367436565 0.1906296741 -0.7728340619 0.190483825 -0.7717940828 0.0336545592 -0.0387809511
635296190.0 0.0334661535 -0.0368500126 0.1826032404 -0.7744185761 0.1824917647 -0.7737834274 0.0330213542 -0.0392359529
640296160.0 0.0328807515 -0.0371488266 0.1736516117 -0.7762703859 0.1742602703 -0.7758604059 0.0321049309 -0.0395802761
645296130.0 0.0330485581 -0.0366807921 0.1655808334 -0.7777779211 0.1656166713 -0.7776190842 0.0313015959 -0.0404035316
650296100.0 0.0323212804 -0.0374175757 0.1570209085 -0.7798458069 0.1569346386 -0.7797398495 0.0319207476 -0.0403359643
655296070.0 0.0317385153 -0.0374786925 0.1479684128 -0.7815851766 0.1486241426 -0.7813374903 0.0304954911 -0.0403339515
660296040.0 0.0312867588 -0.0375696845 0.1400643488 -0.7829741349 0.1401289997 -0.7828690604 0.029922953 -0.041080302
665296010.0 0.0307354489 -0.0378966557 0.1302534821 -0.7836502269 0.1310657339 -0.7838307262 0.0295132908 -0.0409145151
670295980.0 0.0302049954 -0.0378643091 0.1226909696 -0.7854997761 0.1228373216 -0.7853284227 0.0284422574 -0.0417107839
675295950.0 0.0297600499 -0.0381713238 0.1140866629 -0.7868215642 0.1148688762 -0.7867630604 0.0280683589 -0.0412694334
680295920.0 0.0289919456 -0.0380182774 0.1056774457 -0.7875412119 0.1060410069 -0.787983476 0.0277305546 -0.042137693
685295890.0 0.028637846 -0.037908332 0.0968323829 -0.7894490484 0.0972568783 -0.7890124372 0.0272368849 -0.0412956236
690295860.0 0.0278083474 -0.037882212 0.0886016394 -0.7904398074 0.0879060092 -0.7903099593 0.0262114429 -0.0420692157
695295830.0 0.0273430966 -0.038495577 0.0804495824 -0.7913055758 0.0800860391 -0.7909561599 0.0259454205 -0.0420871313
700295800.0 0.0268462391 -0.0382312681 0.0718362167 -0.7917199295 0.0716474642 -0.7916551135 0.0251389442 -0.042033284
705295770.0 0.0260568219 -0.0383361172 0.062926657 -0.7924817175 0.0627273978 -0.7922582713 0.0244026701 -0.042204671
710295740.0 0.0255402147 -0.0387343067 0.0541943286 -0.7933091166 0.0541711925 -0.7934494895 0.0241947954 -0.0421663858
715295710.0 0.0249647688 -0.0381790426 0.0454141244 -0.7937453814 0.0453993424 -0.7941209888 0.0228667656 -0.0427601876
720295680.0 0.0247648594 -0.0386284842 0.0370597977 -0.7939754833 0.0369231838 -0.7945120485 0.0223506087 -0.0428142297
725295650.0 0.0235149449 -0.0384372247 0.0280874626 -0.7945549552 0.0280403983 -0.7944440453 0.0214946543 -0.0421136713
730295620.0 0.0223288136 -0.0390053758 0.0194696751 -0.7945698606 0.0197408916 -0.7938592544 0.0210598299 -0.0420531358
735295590.0 0.0225410018 -0.0387288999 0.0108816812 -0.7954408987 0.011156951 -0.794918993 0.020195873 -0.0430100338
740295560.0 0.0218629262 -0.0388820291 0.0026771335 -0.7948898924 0.0023471309 -0.7946777505 0.0192098776 -0.0422995097
745295530.0 0.0208629337 -0.0386453061 -0.0063686778 -0.7941172193 -0.0050601817 -0.7946409465 0.0182045305 -0.0429542979
750295500.0 0.0199299674 -0.0383937642 -0.0144652459 -0.7946530296 -0.0153171895 -0.7945097572 0.0177817044 -0.042654717
755295470.0 0.019499012 -0.0384529366 -0.0236250851 -0.7948406335 -0.0235678974 -0.7948352596 0.0175266418 -0.0421175406
760295440.0 0.0189728145 -0.0379096458 -0.0331617959 -0.7941692433 -0.032029889 -0.7935728312 0.0169054962 -0.0434713253
765295410.0 0.0188010831 -0.0388220356 -0.0404664555 -0.7937673963 -0.04010362 -0.7936832938 0.0161825283 -0.0429724917
770295380.0 0.0177969754 -0.0382641188 -0.0488491472 -0.7928602068 -0.0490752838 -0.7933899801 0.015187469 -0.0425030814
775295350.0 0.0173295199 -0.0383930235 -0.0580340635 -0.7926507526 -0.0578600783 -0.7922396713 0.0151608541 -0.0427258174
780295320.0 0.0164579166 -0.0381336948 -0.0664447841 -0.791153437 -0.0659009102 -0.7917390647 0.0144688873 -0.043025432
785295290.0 0.0156096221 -0.0384147467 -0.0748920967 -0.790747938 -0.0747755924 -0.7911298641 0.012963623 -0.0422384292
790295260.0 0.0155820349 -0.0386666888 -0.0829330419 -0.7907967309 -0.082985714 -0.7903928314 0.0125126579 -0.0418208248
795295230.0 0.0145576418 -0.0386435117 -0.0920389865 -0.7894993373 -0.0918795089 -0.7897431986 0.0121722554 -0.0432668876
800295200.0 0.0135093765 -0.0380745601 -0.1001977145 -0.7874571313 -0.1005225926 -0.7882462682 0.0112636586 -0.0422806342
805295170.0 0.0127276435 -0.0383535513 -0.1088506743 -0.7870807408 -0.108600951 -0.7871986157 0.0112649434 -0.0418215129
810295140.0 0.0127105012 -0.038005259 -0.1172964606 -0.7857130958 -0.1173981325 -0.7855038185 0.0106191063 -0.0420969422
815295110.0 0.012089223 -0.0378186754 -0.1254875232 -0.7840598001 -0.1256575649 -0.7842272875 0.0096857583 -0.0418751356
820295080.0 0.0113549485 -0.0381072858 -0.1339254025 -0.7825719579 -0.1337913941 -0.7832226425 0.0080857924 -0.0411072488
825295050.0 0.0102748368 -0.037950111 -0.1430289598 -0.7816267574 -0.142853998 -0.7811038799 0.0088107395 -0.0408563948
830295020.0 0.009939795 -0.0378132195 -0.1515463915 -0.7801546986 -0.1512880635 -0.7803236067 0.0077798991 -0.0416909489
