!Created with skrf (http://scikit-rf.org).
# Hz S RI R 50.0 
!freq ReS11 ImS11 ReS21 ImS21 ReS12 ImS12 ReS22 ImS22
300000.0 -0.7744027648 -0.1739341074 -0.0001281256 0.001261823 -0.0005726763 -0.000725684 -0.045805357 -0.079514881
5299970.0 -0.7863944459 -0.0098669376 7.251e-07 0.0001373066 0.0001155752 -7.5354e-06 -0.0489317083 0.0140823614
10299940.0 -0.7893099934 -0.0057206621 0.0001169881 0.0001860484 2.09125e-05 1.21536e-05 -0.0429446035 0.0324048841
15299910.0 -0.794495325 -0.0034709814 4.57989e-05 -0.0002348115 4.02107e-05 -0.0001485294 -0.0347524166 0.0467837501
20299880.0 -0.8011065309 0.0008589244 0.0001302175 0.0001113259 4.68613e-05 -0.0001469585 -0.0250273538 0.058418759
25299850.0 -0.8080528396 0.0067087002 2.38942e-05 -6.65741e-05 0.0001186961 -1.3005e-05 -0.0144734291 0.0678196134
30299820.0 -0.8139014647 0.0135701415 -0.0001439323 -5.30975e-05 -0.000215145 -0.0001178051 -0.0027663579 0.0746349846
35299790.0 -0.8188334393 0.023006826 -7.72018e-05 7.5532e-05 0.0001076235 -3.0581e-05 0.0084056172 0.0795776421
40299760.0 -0.8236308356 0.0319922632 4.3488e-06 -3.433e-05 2.1879e-05 -1.69483e-05 0.0195519654 0.0825327224
45299730.0 -0.8264216868 0.042218417 -8.9061e-05 3.45261e-05 1.39657e-05 4.03535e-05 0.0302425146 0.0839983902
50299700.0 -0.8290003887 0.0517309951 -0.0001112187 1.6649e-06 8.24854e-05 0.0002224624 0.0402184607 0.0843755372
55299670.0 -0.8313740467 0.0612114166 -4.306e-07 0.0002294825 3.73367e-05 -3.5247e-06 0.0491607222 0.0833039479
60299640.0 -0.8324177046 0.0715911109 5.45031e-05 -1.7822e-06 -0.0001382905 0.0001389407 0.0579331604 0.0818292689
65299610.0 -0.8333481743 0.0817329777 7.75715e-05 3.63327e-05 9.17567e-05 0.0001640691 0.0657243759 0.0794839334
70299580.0 -0.833731905 0.0917276593 -5.45265e-05 6.86719e-05 -2.87498e-05 -0.0001475388 0.0726423038 0.0765580762
75299550.0 -0.8341017868 0.1014757806 5.62719e-05 -6.55298e-05 6.39661e-05 5.11e-07 0.0791862757 0.07388894
80299520.0 -0.8339353914 0.1122563417 3.5075e-05 0.000175281 0.0002296153 -5.05058e-05 0.0849449693 0.0701356396
85299490.0 -0.8326574346 0.1207372593 0.0001659997 -8.30852e-05 0.0001530379 0.0001183065 0.0899043592 0.066345414
90299460.0 -0.8328174062 0.1313489538 0.0001704726 0.0001066964 -0.0002311551 1.60382e-05 0.094272223 0.0626973955
95299430.0 -0.8313042096 0.1400980005 7.00317e-05 -2.191e-07 2.02932e-05 9.86179e-05 0.0985887885 0.0592309682
100299400.0 -0.8302346329 0.1496481466 0.0001040044 0.0002351027 -2.44451e-05 9.6875e-05 0.1022775366 0.0556138022
105299370.0 -0.8289521943 0.1588389704 -2.21346e-05 8.75835e-05 0.0001405871 -7.47788e-05 0.1059018041 0.0515126448
110299340.0 -0.8273778684 0.1683517009 -4.79049e-05 0.0001009765 -0.0001946659 0.0002070067 0.108472462 0.0476539379
115299310.0 -0.8256908362 0.1773896242 -1.7523e-06 0.0001321557 8.45029e-05 -0.0001025411 0.1109702558 0.0441467751
120299280.0 -0.8249114376 0.1864881945 -0.0001454383 0.0002336235 -5.1653e-05 9.87121e-05 0.1133694232 0.0400523127
125299250.0 -0.8227615624 0.1960260633 6.34328e-05 0.0002986332 0.0001602609 5.06254e-05 0.1152939978 0.0364429096
130299220.0 -0.8214176925 0.2051224611 -3.76364e-05 -9.64075e-05 0.0003132468 0.0001633022 0.1169967465 0.0328745579
135299190.0 -0.8190075388 0.2139301701 3.30107e-05 0.0002193598 1.3855e-06 -9.22036e-05 0.1186787155 0.0292179302
140299160.0 -0.8168755737 0.2236339174 -0.0001108422 0.0002629985 7.85902e-05 0.0002218935 0.1194538151 0.0259710019
145299130.0 -0.8143770098 0.2317841722 -0.0001185323 0.0002166096 5.79248e-05 0.0001150379 0.1209401587 0.0223486151
150299100.0 -0.8119931118 0.2408931433 6.82419e-05 3.68993e-05 -2.19512e-05 -2.6606e-06 0.1220164374 0.0189762844
155299070.0 -0.8099192289 0.2501137978 -1.79198e-05 0.0001348291 4.50171e-05 -1.57313e-05 0.1226787838 0.0159242207
160299040.0 -0.8075940737 0.2588852904 -0.0001296914 1.47329e-05 -3.51594e-05 0.0002222979 0.1231069586 0.0127366724
165299010.0 -0.8049054773 0.267514846 3.46525e-05 0.0002644626 3.96071e-05 0.0002062416 0.1241529457 0.0092879942
170298980.0 -0.8016694772 0.2762623587 0.0002180332 0.0001549999 9.65104e-05 -2.6491e-06 0.1239696364 0.0067597842
175298950.0 -0.7989174222 0.2843016288 -0.000170048 9.53303e-05 0.0002150931 -3.84405e-05 0.1245307306 0.0040180817
180298920.0 -0.7954902483 0.293181124 0.0002619919 -0.0001334481 0.0001338559 1.19994e-05 0.1249198372 0.000585467
185298890.0 -0.792848033 0.3021099813 0.0002173804 1.02014e-05 0.0001661668 0.0002257943 0.1249085121 -0.0021022991
190298860.0 -0.7892760647 0.3108400125 0.000129419 0.0001923703 2.42557e-05 -2.25217e-05 0.125226053 -0.0048828325
195298830.0 -0.7862713917 0.3195343542 7.63537e-05 9.84478e-05 0.0002070037 -2.59624e-05 0.1248316938 -0.007559009
200298800.0 -0.7828493952 0.3279007802 0.0002172155 0.0001165386 0.0001593835 6.57574e-05 0.1246841063 -0.010185864
205298770.0 -0.7788829125 0.3365748123 8.09292e-05 0.0001944361 5.57632e-05 1.86915e-05 0.1245934852 -0.0128808764
210298740.0 -0.7764230779 0.3445400336 0.0001162466 0.0001460872 0.0001347802 0.0001023108 0.1242889346 -0.0153089732
215298710.0 -0.7723750651 0.3532693893 0.000183307 0.0002335704 2.91827e-05 6.2972e-06 0.1244713555 -0.018222498
220298680.0 -0.7689409151 0.3608165433 0.0001354114 -3.57651e-05 0.0001907051 -5.59524e-05 0.1238545447 -0.020001699
225298650.0 -0.7647366047 0.3694091632 0.0001380726 0.000388353 0.0002699632 -0.0001081904 0.1236101755 -0.0226175802
230298620.0 -0.760793294 0.3773277846 1.91081e-05 0.0002805446 0.000106354 9.39687e-05 0.1228833393 -0.0252521989
235298590.0 -0.757070641 0.3856933302 0.0001660601 0.0002805488 3.51089e-05 2.14606e-05 0.1224017534 -0.0269400108
240298560.0 -0.7529154842 0.3936372595 0.0001851826 0.0001383183 -0.0001229193 1.0702e-06 0.1219768281 -0.0293629956
245298530.0 -0.7488097309 0.4019113874 0.0002971361 4.35782e-05 -7.1685e-06 -2.5899e-06 0.1212018846 -0.0317650013
250298500.0 -0.7449355894 0.4089049085 0.0001593206 0.0001893695 0.0001105826 0.0001344523 0.12081882 -0.0338192039
255298470.0 -0.7406853762 0.4173170327 0.0001730842 0.0002565702 0.0001260907 6.51908e-05 0.120110909 -0.0359871906
260298440.0 -0.736338348 0.4249981696 0.0001879158 5.83669e-05 -3.141e-06 6.72967e-05 0.1189792224 -0.0377049501
265298410.0 -0.7318083302 0.4327755197 0.0002246483 9.5962e-06 0.0001652231 0.0002608922 0.1190207458 -0.0400340742
270298380.0 -0.7270545082 0.4403096849 7.84577e-05 -0.0001519401 -5.46355e-05 0.0002188981 0.1182552582 -0.0417791379
275298350.0 -0.7231820919 0.4480663126 0.0001505369 0.0002265303 0.0001332908 0.000121449 0.1173807458 -0.0440989677
280298320.0 -0.7181089225 0.4553284354 9.63078e-05 6.94298e-05 0.0003524635 0.0001495899 0.1163342614 -0.0457679307
285298290.0 -0.7130636336 0.4633114181 1.2208e-06 0.0001852187 0.0002973065 -4.81357e-05 0.1156190346 -0.0472675496
290298260.0 -0.7083892946 0.4708247357 0.000194563 0.0001220418 0.0001695445 8.2878e-06 0.1147515831 -0.0491225228
295298230.0 -0.7038155008 0.4781487476 0.0001856183 0.0002277424 0.0001620755 0.0001320516 0.1140606828 -0.0510516695
300298200.0 -0.6992313123 0.4853706952 2.71679e-05 0.0001564763 0.000167596 6.81716e-05 0.1131509813 -0.0525718107
305298170.0 -0.6947855285 0.4921681175 0.0003045676 0.0001836858 9.21182e-05 -1.96633e-05 0.1123095661 -0.0542403767
310298140.0 -0.6892659214 0.4995572597 0.0001491536 5.4176e-06 -3.38472e-05 8.26849e-05 0.1114758528 -0.05606001
315298110.0 -0.6843491331 0.5068488107 -9.4792e-05 -0.0001663812 0.000131879 0.0001526275 0.1108410301 -0.0582809224
320298080.0 -0.6789744426 0.5145759174 0.0001848443 5.74524e-05 0.000133542 0.0002211037 0.1096623896 -0.0599221273
325298050.0 -0.6732456647 0.5208601401 0.0001418868 4.08723e-05 0.0002026487 7.13738e-05 0.1089549363 -0.0619272514
330298020.0 -0.6683314844 0.5278599051 0.0001011933 -0.0001039614 0.0003573448 0.0002944482 0.1072929702 -0.0635930736
335297990.0 -0.6628795215 0.5350257234 0.0001529281 3.23375e-05 0.000102026 1.03113e-05 0.1063769998 -0.0650522864
340297960.0 -0.6582426315 0.5415758758 0.0001994858 0.0002423188 0.0001766116 9.63447e-05 0.1049820017 -0.0665721555
345297930.0 -0.651892145 0.5479322904 0.000190636 -6.7875e-06 0.0001178544 0.0001230799 0.1038578161 -0.0677693575
350297900.0 -0.6460298019 0.5550027442 0.0001694909 0.0002414769 -7.02841e-05 5.65664e-05 0.1019973821 -0.0693645237
355297870.0 -0.6406126314 0.5615168798 -1.07601e-05 -5.8775e-06 0.0003132552 0.0002824832 0.101129024 -0.0707623088
360297840.0 -0.6349403285 0.5686258146 9.08647e-05 4.74929e-05 0.00010358 0.0002557118 0.0998964198 -0.0720384828
365297810.0 -0.629478115 0.5746388766 0.0001701075 -2.1246e-06 0.0001404513 -0.0001329172 0.0985993841 -0.0729890319
370297780.0 -0.6233231742 0.5806101228 0.0002307753 0.0002509274 0.0001429663 0.0001275528 0.0974123278 -0.0744920323
375297750.0 -0.6181997854 0.5872649726 0.0001386661 4.71367e-05 0.0003212607 0.0001772619 0.0961728314 -0.0759235728
380297720.0 -0.6119780684 0.5932900165 0.000150093 -5.804e-05 0.0002189778 0.0002533889 0.0952322918 -0.0768647879
385297690.0 -0.6061997371 0.5995224904 8.27093e-05 0.0001816971 0.0002798775 0.0002223633 0.0938329157 -0.0779449076
390297660.0 -0.598503633 0.605401428 0.000184373 0.0001391727 0.0001999041 0.0001460472 0.0924481797 -0.0792369969
395297630.0 -0.5932499081 0.6121577983 0.0002108965 -0.0001022098 4.51291e-05 3.71525e-05 0.0913185975 -0.0804700872
400297600.0 -0.586935259 0.6182022179 5.48489e-05 0.0002578536 0.0001261693 0.0002471229 0.0902877563 -0.0813696622
405297570.0 -0.5805134573 0.6231141438 0.00034431 -4.0046e-05 0.0002509222 9.55813e-05 0.0889175272 -0.0826768263
410297540.0 -0.5732537759 0.6298100675 0.0001277843 -1.578e-05 5.2769e-05 0.0001565306 0.0874099165 -0.08352373
415297510.0 -0.5679336533 0.6352655686 0.0002912914 0.0001684636 0.0003043238 0.0001308128 0.0863515667 -0.0846999229
420297480.0 -0.5606246339 0.6409307679 6.42897e-05 -1.56365e-05 0.0001036416 0.0001767145 0.085465425 -0.0853790716
425297450.0 -0.5544713915 0.6465232655 0.0001551831 3.38723e-05 0.0003154871 0.000193146 0.0838607466 -0.0869200845
430297420.0 -0.5482964404 0.6522564746 0.0002411694 9.74956e-05 0.0002495222 0.0001429564 0.0824439931 -0.0876782983
435297390.0 -0.5413993697 0.6574351174 0.0001934171 -0.0001130743 3.21134e-05 7.17063e-05 0.0811842411 -0.0885712853
440297360.0 -0.5341838007 0.6632158196 5.7841e-06 -6.24519e-05 0.000399126 0.0001811648 0.0801372245 -0.0896626634
445297330.0 -0.5274835196 0.668010282 0.0002669902 0.0001789505 8.19198e-05 -2.32901e-05 0.0789329028 -0.090319189
450297300.0 -0.5200467217 0.6739583226 0.0003899464 0.0002619471 0.0003858326 0.0001224367 0.0775580226 -0.0912176846
455297270.0 -0.5134466066 0.67876829 0.0002549209 0.0001957446 0.0003528358 0.0001242638 0.0761545927 -0.0922625086
460297240.0 -0.5055865701 0.6844344834 0.0001235594 -5.98596e-05 0.000250415 9.92076e-05 0.0747559554 -0.0930610697
465297210.0 -0.4995067976 0.6893033763 0.0004048675 0.000442894 0.0005349485 -5.58318e-05 0.0734666719 -0.0936978173
470297180.0 -0.4917212306 0.6943011758 0.0003478236 -1.27419e-05 0.0002101088 -1.32057e-05 0.0720401237 -0.094563909
475297150.0 -0.4848496729 0.6988195424 0.0002201284 -0.0001880546 0.0005086551 -6.29165e-05 0.0708524812 -0.0953339762
480297120.0 -0.476689379 0.7038294994 0.0001801164 0.0001028963 0.00022387 -9.73929e-05 0.0691019501 -0.0961766199
485297090.0 -0.470310046 0.7083464343 0.0001706979 -9.486e-06 0.0002959443 0.0002256467 0.0677802528 -0.0970573621
490297060.0 -0.4624586493 0.7136824667 2.42903e-05 -8.67106e-05 0.0002975767 0.0003026333 0.0664493187 -0.0975502385
495297030.0 -0.4551478149 0.7179469813 0.0003710427 2.92063e-05 0.0003028887 0.0001276292 0.0650625974 -0.0986999117
500297000.0 -0.4473838643 0.7219943068 0.0003698784 0.0001553118 0.0001472112 7.65614e-05 0.0636089047 -0.0989262921
505296970.0 -0.439894884 0.7267409834 0.0003561341 0.0003462271 0.0003266702 5.63345e-05 0.062168464 -0.0997862033
510296940.0 -0.4321870985 0.7318075408 0.0002981896 3.97064e-05 -8.13519e-05 -3.33349e-05 0.0612889319 -0.1005800334
515296910.0 -0.4242751944 0.73586994 0.0001490199 3.0055e-05 0.0001872558 0.000104742 0.0592443293 -0.1011317608
520296880.0 -0.4165252425 0.7399837539 0.0002315035 0.0002261024 0.0001761345 8.10226e-05 0.058369834 -0.1013953132
525296850.0 -0.4085382352 0.7441323347 0.0001792797 -3.95087e-05 0.0002989241 5.05164e-05 0.056764464 -0.1019912328
530296820.0 -0.4011260237 0.7479237115 0.0003552827 0.0002079555 0.0003809755 0.0001028122 0.0552587151 -0.1027770176
535296790.0 -0.3926947651 0.7517478444 0.0003720564 4.06259e-05 0.0001731956 0.0001056188 0.0542506486 -0.103228099
540296760.0 -0.3849865756 0.7558892465 0.0002486653 -5.58678e-05 0.0003831849 0.0003398485 0.0522119569 -0.1037707886
545296730.0 -0.3777846435 0.7600951736 0.000158536 0.0001070676 0.0002581411 -0.000101063 0.0512989792 -0.1043971011
550296700.0 -0.3690810898 0.7636525598 0.0002148052 0.0001683125 0.0003380603 -0.0001313664 0.0494634514 -0.1048390688
555296670.0 -0.3614150304 0.7675340285 0.0002774939 3.94036e-05 0.000304891 -3.12314e-05 0.0483410042 -0.1053609347
560296640.0 -0.3532158821 0.7708401667 0.000316303 5.32747e-05 0.00055999 4.46326e-05 0.0466537281 -0.1059491024
565296610.0 -0.3457426389 0.7743573949 0.0005038144 -1.05476e-05 0.0003451966 0.0001023765 0.0454471724 -0.1060600233
570296580.0 -0.3373002659 0.7779161499 0.0003951953 -9.90438e-05 0.0002477394 8.0809e-05 0.0437147025 -0.1063912155
575296550.0 -0.3283172723 0.7811198684 0.0004477036 3.72965e-05 0.0004177966 0.0001846499 0.0425220983 -0.1069557432
580296520.0 -0.3213941052 0.7845897358 0.0003386207 8.58747e-05 0.0004396981 6.18122e-05 0.0409561541 -0.1073623135
585296490.0 -0.3124965417 0.7879269189 0.0003864365 -0.0001223379 0.0002584063 3.67459e-05 0.0395114312 -0.1074397554
590296460.0 -0.3043917359 0.7914930335 0.0002972643 0.0001676563 0.000368703 2.59842e-05 0.0377352842 -0.1078302773
595296430.0 -0.2964458447 0.7936851162 0.0003596091 5.45617e-05 0.0003257717 -0.0001434483 0.0366867164 -0.1079799934
600296400.0 -0.2882729179 0.7964209667 0.0005684528 5.12832e-05 0.0003027365 -0.0001443831 0.0351355847 -0.1083391836
605296370.0 -0.2797553852 0.7997078988 0.000208269 5.07452e-05 0.0006886624 -1.35939e-05 0.0338571717 -0.1087638914
610296340.0 -0.2713548282 0.8032940268 0.0007413064 1.11893e-05 0.0003044344 -3.72042e-05 0.0320475456 -0.108713351
615296310.0 -0.2630114696 0.8053963514 0.000336563 0.0002658755 0.0002970457 3.55396e-05 0.0308451052 -0.1089802408
620296280.0 -0.2558501168 0.8084959937 0.0003737957 3.81759e-05 0.0002958713 -1.95532e-05 0.0291154764 -0.1090228377
625296250.0 -0.2469802649 0.8099317597 0.0003464687 0.0001542525 0.0005195197 -0.0001709536 0.0276490187 -0.1093966135
630296220.0 -0.2385175786 0.8131457177 0.0005089306 0.0001026397 0.0004515469 0.0001604787 0.0263696521 -0.1093894513
635296190.0 -0.2302343665 0.8156967099 0.0002683561 0.00014375 0.0003426844 3.08496e-05 0.0249117379 -0.1096882985
640296160.0 -0.2215268658 0.8179726927 0.0003934722 8.63118e-05 0.0002629273 1.52157e-05 0.0235333158 -0.1096847516
645296130.0 -0.213623342 0.8205531164 0.0005470483 -9.07479e-05 0.0003474062 -6.07937e-05 0.0217668978 -0.1098212763
650296100.0 -0.2055678177 0.822119349 0.0002773209 -0.0001528736 0.0004187266 0.0002126932 0.0207012339 -0.109951867
655296070.0 -0.1970051166 0.8239685257 0.0002464114 8.09465e-05 0.0005090965 -5.53254e-05 0.0189074871 -0.1098868034
660296040.0 -0.189313806 0.826498169 0.0002424909 -0.0001188962 0.0003503816 1.65241e-05 0.0176936446 -0.1104175894
665296010.0 -0.18044118 0.8283095443 0.0003121981 3.10508e-05 0.0003917969 4.39725e-05 0.0163370923 -0.1097654486
670295980.0 -0.1724701721 0.8306102391 0.0004493899 1.2557e-06 0.0001876599 0.0001890205 0.0147742267 -0.110025112
675295950.0 -0.1640293425 0.831983809 0.0005078565 -0.0001503387 0.0003579053 9.5291e-05 0.0133148505 -0.1098471018
680295920.0 -0.1567108157 0.8340761037 0.0005403836 -5.73033e-05 0.0004209392 9.61567e-05 0.0117920175 -0.1099356764
685295890.0 -0.1476394205 0.8359350154 0.0006784473 6.22537e-05 0.0003092061 0.0001141592 0.0103315763 -0.1099976798
690295860.0 -0.1396144158 0.8365021367 0.0006395316 6.3852e-06 0.0001466829 1.26763e-05 0.0087653928 -0.1099474581
695295830.0 -0.1303553179 0.8379023101 0.0002893644 3.2277e-06 0.0004810604 -9.46303e-05 0.0076736714 -0.1095004216
700295800.0 -0.1225248807 0.8400651668 0.0004642975 0.0002090011 0.0001645354 -0.0001569961 0.0064517525 -0.1095386407
705295770.0 -0.1147365016 0.8412668574 0.0004500248 1.62664e-05 0.0003372826 0.0001129012 0.0046330271 -0.1092231306
710295740.0 -0.1069030929 0.8422560038 0.0003099757 -5.58084e-05 0.0005596222 -1.04367e-05 0.0035621258 -0.1091351908
715295710.0 -0.0977273763 0.8434379291 0.0003853542 0.0002603788 0.0002956356 -0.0001488508 0.0020109223 -0.1092578538
720295680.0 -0.0891338841 0.8442766819 0.0004722771 -3.1627e-06 0.0003777138 9.3645e-06 0.0004079293 -0.1088795454
725295650.0 -0.0819247703 0.8457500366 0.0003967378 0.0001762682 0.0002414119 -0.0001064218 -0.0010839621 -0.1084295052
730295620.0 -0.0739498008 0.8462159248 0.0003305864 2.96089e-05 0.0004497641 0.0001469771 -0.0026877425 -0.1083469532
735295590.0 -0.0658576073 0.8476399006 0.0002823432 -1.45923e-05 0.00045961 -3.4783e-06 -0.0037420801 -0.1080044286
740295560.0 -0.0576164902 0.8475719212 0.0005327727 2.78661e-05 0.0004770853 -0.0001246977 -0.0052419941 -0.1077931267
745295530.0 -0.0487075022 0.8485818884 0.0004773217 -2.48685e-05 0.0004043352 4.3184e-05 -0.0067067264 -0.1074693296
750295500.0 -0.0409522707 0.8495996294 0.0004903724 -0.0002226786 0.000479488 -5.69081e-05 -0.0079967063 -0.1073546235
755295470.0 -0.0321099207 0.8496505727 0.0003356026 -0.0002743192 0.000346545 -5.8233e-05 -0.0093193319 -0.1066756275
760295440.0 -0.0242890556 0.8506719933 0.0004349632 -3.57079e-05 0.0004199817 -0.0001795028 -0.0105751246 -0.1069026616
765295410.0 -0.0160215848 0.8502097996 0.0004739418 -7.22483e-05 0.0004652188 8.5636e-06 -0.0117750654 -0.1062628998
770295380.0 -0.0082398973 0.8512296841 0.0003828641 -0.0001181641 0.0004404007 -2.77792e-05 -0.013642287 -0.105899461
775295350.0 0.0001068528 0.8510410397 0.0002011368 -0.0003270863 0.0002581182 -1.17905e-05 -0.0147601526 -0.1057193227
780295320.0 0.0086305433 0.85155366 0.000303302 1.77316e-05 0.0004213665 -6.32577e-05 -0.0161110134 -0.105284179
785295290.0 0.0167802391 0.8512935868 0.0005516755 -0.0002534111 0.0002515443 -9.27788e-05 -0.0177056958 -0.104742761
790295260.0 0.0250580129 0.8509212637 0.0001422193 -0.0001200024 0.0003494856 6.25542e-05 -0.0188195617 -0.1040577609
795295230.0 0.0331287311 0.8502645214 0.0004359336 -4.26446e-05 0.0004153131 -0.0002094285 -0.0205569404 -0.1042224767
800295200.0 0.0410124765 0.8506682528 0.0003753396 -0.0001112168 0.0006220506 -3.74357e-05 -0.0216432706 -0.1035056768
805295170.0 0.049121211 0.8505228039 0.000457051 -7.16041e-05 0.0003400568 -0.000193824 -0.0228480324 -0.1031401822
810295140.0 0.058041997 0.8504457639 0.0002984057 -6.30347e-05 0.0005542061 -0.0002748415 -0.024222473 -0.1022200222
815295110.0 0.0651606656 0.849483105 0.0003777991 -9.15805e-05 0.0003445662 -0.0002020131 -0.0258247798 -0.1016392903
820295080.0 0.0738156152 0.8490456373 0.0005585039 -0.0001506525 0.0003497041 -4.76124e-05 -0.0270419063 -0.1009684083
825295050.0 0.0816698194 0.8484879079 0.0004259236 -0.0001510168 0.0006131755 -1.49297e-05 -0.0281514927 -0.1006053625
830295020.0 0.0903728752 0.8477383132 0.0003861549 -0.000376738 0.0002778603 -0.0002244713 -0.0295969488 -0.0999670371
835294990.0 0.0982475295 0.846816943 0.0005057728 -0.0001420023 0.0003112175 -0.000111412 -0.0307124166 -0.0993698439
840294960.0 0.1067705138 0.8455520492 0.0004168281 -0.0001408339 0.0005759879 3.75692e-05 -0.0318699813 -0.0990360149
845294930.0 0.1144554804 0.844360834 0.0003395896 -8.18118e-05 0.0004222964 -7.32514e-05 -0.0333760697 -0.097962958
850294900.0 0.124240194 0.8433847042 0.0004085739 -8.55826e-05 0.0005071936 -0.0001658296 -0.034620496 -0.0974688611
