!Created with skrf (http://scikit-rf.org).
# Hz S RI R 50.0 
!freq ReS11 ImS11 ReS21 ImS21 ReS12 ImS12 ReS22 ImS22
300000.0 -0.0957495443 -0.083700496 0.6230768073 0.0789188777 0.62334451 0.082985632 -0.0961502558 -0.0922816351
5299970.0 -0.1003283031 0.0130249954 0.6305149622 0.0102858799 0.6304424994 0.0105337554 -0.102252888 0.0118431923
10299940.0 -0.0952486132 0.0296652895 0.6344325695 0.0157137107 0.6343061829 0.0156899335 -0.0970640798 0.0289033784
15299910.0 -0.0885130749 0.0433465844 0.6405510702 0.0205593702 0.640472553 0.021064871 -0.0900188379 0.0422952172
20299880.0 -0.0792784803 0.0541289839 0.6487206827 0.0241918262 0.6487184588 0.0238417444 -0.0818033533 0.0531365272
25299850.0 -0.0696796848 0.0628814789 0.658359734 0.0247079881 0.6580256143 0.0252213212 -0.0724168451 0.0619097499
30299820.0 -0.0596052495 0.0692699528 0.6677961851 0.0241403288 0.6675645584 0.0246216812 -0.0627650029 0.0685552504
35299790.0 -0.0492790382 0.0743779958 0.6773534343 0.0217878099 0.6772683636 0.0215398549 -0.052480266 0.0732452998
40299760.0 -0.0396042346 0.0770686693 0.6867746093 0.0177749761 0.686706375 0.0176381876 -0.0436564779 0.0770747445
45299730.0 -0.0304080506 0.0794635186 0.6957475501 0.0114577315 0.6958948174 0.0120069261 -0.033951866 0.0791600297
50299700.0 -0.0217196425 0.079784201 0.7032812982 0.0048629508 0.7035783708 0.004665981 -0.0254296831 0.0800755419
55299670.0 -0.0143157303 0.0798118012 0.7104417751 -0.0027298958 0.7109802919 -0.002681955 -0.0179027639 0.0800246778
60299640.0 -0.0066064907 0.0787798254 0.7170571969 -0.011547788 0.7176005369 -0.0109750691 -0.0103168365 0.0797775773
65299610.0 -0.0003724628 0.0780338378 0.7236197388 -0.0195971662 0.7237742478 -0.0199688619 -0.003701659 0.0784518276
70299580.0 0.0059342719 0.0759015091 0.7283912516 -0.0293531912 0.7285714035 -0.0292155536 0.0024041293 0.0771439673
75299550.0 0.0115951933 0.0744498844 0.7328821499 -0.0390326617 0.7330479631 -0.0391218496 0.008143203 0.0756204393
80299520.0 0.0161867318 0.0719731187 0.7372940089 -0.0486524043 0.7378425383 -0.0486957077 0.0131958275 0.0729611232
85299490.0 0.0208123216 0.069608062 0.7407273335 -0.058708855 0.7406645344 -0.0586132857 0.0175795267 0.0708286888
90299460.0 0.0245184367 0.067453412 0.7431898299 -0.068563502 0.7438948115 -0.0687944965 0.0220959924 0.0687908758
95299430.0 0.0283989615 0.0654270474 0.7462827471 -0.0795852632 0.746131295 -0.0789059059 0.0253097225 0.0664401783
100299400.0 0.0314063536 0.062898748 0.7474278915 -0.0890084869 0.747353204 -0.0894005915 0.0285886334 0.0639641305
105299370.0 0.0346368078 0.0602563716 0.7485213376 -0.0988469921 0.748929674 -0.0990481653 0.0319668756 0.0619668816
110299340.0 0.0369781068 0.0577003656 0.7496667683 -0.1090141918 0.7503192997 -0.1098352439 0.0348723091 0.0592184926
115299310.0 0.0396978317 0.0549724714 0.7510444057 -0.1188251941 0.7514457808 -0.1189862393 0.0371421411 0.056114145
120299280.0 0.0415934232 0.0526589541 0.7518466328 -0.1292918142 0.7517237299 -0.1298306271 0.0390240354 0.0543877546
125299250.0 0.0435127049 0.0502092406 0.7520408356 -0.1392747012 0.7520678828 -0.1392987655 0.0413048453 0.0515217627
130299220.0 0.0451036001 0.048081274 0.7514845268 -0.1486745375 0.751766901 -0.1496823214 0.0434458732 0.0493390721
135299190.0 0.0468588653 0.0454192347 0.7513117499 -0.1588041516 0.7507753886 -0.1585955833 0.0445968713 0.0474299457
140299160.0 0.04796965 0.0442172446 0.7509693846 -0.1687113746 0.751005554 -0.1686471 0.0462454759 0.0451405839
145299130.0 0.0493695472 0.0419399087 0.7505390286 -0.1788414512 0.7500630075 -0.1781574662 0.0472910528 0.0426496061
150299100.0 0.0506647785 0.039699933 0.7492529392 -0.1878261144 0.7490237601 -0.18807791 0.0486478714 0.040800767
155299070.0 0.0513092572 0.0384744901 0.74822742 -0.1981173379 0.7480748096 -0.1981799826 0.0492903786 0.0388398684
160299040.0 0.0524326484 0.0360893789 0.7461210591 -0.2066953022 0.7464761384 -0.2073886378 0.0507055247 0.0372098875
165299010.0 0.0530151933 0.0343186043 0.7455568981 -0.2166515824 0.745058242 -0.216900261 0.0513935804 0.0348489183
170298980.0 0.0536157798 0.0325102704 0.7421343128 -0.2258727133 0.7427938949 -0.2261261411 0.0528458257 0.0329747233
175298950.0 0.0544625414 0.0306365715 0.7415424037 -0.2353259747 0.7416100037 -0.2355351798 0.0532106736 0.0310474486
180298920.0 0.0553705269 0.0291830463 0.73896579 -0.2450168188 0.7388243842 -0.2444632916 0.0536631623 0.0301235102
185298890.0 0.0560132024 0.0273025889 0.7369385596 -0.2537260537 0.7367610185 -0.254132813 0.0540016122 0.0277620265
190298860.0 0.0561245322 0.0259192782 0.7340778682 -0.2629824921 0.7344248579 -0.2629610399 0.0553522229 0.0263486198
195298830.0 0.0563833901 0.0239225783 0.7311989996 -0.2714498179 0.7320975259 -0.2723239066 0.0559274175 0.0242729668
200298800.0 0.056904224 0.0227781321 0.7296091936 -0.2800685959 0.729092875 -0.2807302706 0.0561408833 0.0232495022
205298770.0 0.0570071877 0.0216486286 0.7270016745 -0.2889417063 0.7266749335 -0.2899883298 0.0563345304 0.0209382847
210298740.0 0.0571972311 0.0196253793 0.7237467234 -0.2987650099 0.7233078952 -0.2987902475 0.0567300623 0.0200426368
215298710.0 0.0576671946 0.0184839849 0.7207703481 -0.3071733583 0.7205046825 -0.3066938521 0.0569277726 0.0184307334
220298680.0 0.0581700332 0.0170593589 0.7173538197 -0.3158283879 0.717429495 -0.3157174566 0.0576193659 0.01717721
225298650.0 0.0584962751 0.016172455 0.7137525662 -0.3240002903 0.7137466138 -0.324119975 0.0576516021 0.0156577389
230298620.0 0.0580459198 0.0147398948 0.7111416687 -0.3328037604 0.7113539715 -0.3329236244 0.0578015111 0.0143627811
235298590.0 0.058715972 0.0133277494 0.7077060321 -0.340877544 0.7072535303 -0.3416392582 0.0580107268 0.0129813279
240298560.0 0.0580938515 0.0120792701 0.7039493262 -0.3492928299 0.7040489179 -0.3490538942 0.0581049197 0.0117748583
245298530.0 0.058925682 0.011188703 0.6994235291 -0.3580558358 0.6998059417 -0.3578952258 0.0581909345 0.0108220399
250298500.0 0.0582855176 0.0094983713 0.6962387997 -0.3654198233 0.696730806 -0.3655313105 0.058906077 0.0090491048
255298470.0 0.0583527028 0.0089401498 0.691992019 -0.3746094495 0.6922604754 -0.3743727656 0.0587131424 0.0076850785
260298440.0 0.0581231614 0.0075855755 0.6878063603 -0.3817588735 0.6882953077 -0.382694103 0.0591613014 0.0069323591
265298410.0 0.0588348367 0.0068173036 0.6844988155 -0.3905883872 0.6838768853 -0.3907246412 0.0586754111 0.0056427765
270298380.0 0.0590292463 0.0054797895 0.6797978224 -0.3980635792 0.6800348144 -0.3981704905 0.0587772666 0.0051407023
275298350.0 0.0583615705 0.0051653723 0.6756281864 -0.4065889337 0.6758314789 -0.4068606888 0.0590586848 0.0038194038
280298320.0 0.0586939804 0.0038809832 0.6710371519 -0.4133204804 0.6712826594 -0.4142073441 0.0592626061 0.0027175262
285298290.0 0.058842221 0.0030864319 0.6669849513 -0.4216023136 0.6666322297 -0.4222224957 0.0586663776 0.0017484871
290298260.0 0.0587334339 0.0018895018 0.6626011182 -0.4294167132 0.66236375 -0.4298731812 0.0594794379 0.0006963509
295298230.0 0.0586096939 0.0005581427 0.6577659506 -0.4376196819 0.6576943634 -0.4370133237 0.0596067232 -0.0001144606
300298200.0 0.0592349839 -8.4732e-06 0.6525979509 -0.444991706 0.6528958188 -0.4453886767 0.0591917227 -0.0013711097
305298170.0 0.058884543 -0.0012939589 0.6478796201 -0.4530088839 0.6487937434 -0.4532313695 0.0598914503 -0.00222377
310298140.0 0.0595772762 -0.0023543796 0.6440159041 -0.4604142953 0.6438627948 -0.460943543 0.0594612988 -0.0027020756
315298110.0 0.0588855194 -0.0033536503 0.6385855575 -0.4681027079 0.6383337863 -0.4685179916 0.0600700384 -0.0044911833
320298080.0 0.0587009783 -0.0044242024 0.63331243 -0.4757850555 0.6331661393 -0.4757227472 0.0592898064 -0.0061358163
325298050.0 0.0582064093 -0.0059416321 0.6280474961 -0.4835929792 0.6280943634 -0.48371049 0.0591988881 -0.0069631876
330298020.0 0.0577645391 -0.0065927586 0.6215407888 -0.4907218524 0.6218496057 -0.4904217093 0.0582636252 -0.0082768309
335297990.0 0.0575096617 -0.0077082386 0.6164201414 -0.4978743559 0.6164851593 -0.4981203538 0.058147953 -0.0089022582
340297960.0 0.0567201818 -0.007904429 0.6101814382 -0.5049406411 0.610679184 -0.5046783469 0.0574718272 -0.0095141793
345297930.0 0.0562237026 -0.0086641574 0.6048691436 -0.5106497113 0.6038949751 -0.5107995211 0.057352021 -0.0110146829
350297900.0 0.0564047893 -0.0092247038 0.599067591 -0.5176103318 0.5994713598 -0.5183118609 0.0567157208 -0.0106133784
355297870.0 0.0560245116 -0.0101593326 0.5931092455 -0.5248133843 0.5931008923 -0.524807975 0.0565736489 -0.011508497
360297840.0 0.056238134 -0.0106611778 0.5877420874 -0.5313742306 0.5874405203 -0.5318603831 0.0565110516 -0.0117247219
365297810.0 0.055736822 -0.011347906 0.5816450279 -0.53800709 0.5817857249 -0.5381198141 0.0556216448 -0.0125641124
370297780.0 0.055677732 -0.0122847001 0.5755546281 -0.5439002612 0.5758768884 -0.5450170347 0.0558597405 -0.0128899138
375297750.0 0.0549995372 -0.0122508699 0.5701552533 -0.5510687448 0.569423517 -0.5515709142 0.0557767391 -0.0133148586
380297720.0 0.0550529243 -0.0135863724 0.5637575163 -0.5565928066 0.5638226013 -0.5567540769 0.0554455181 -0.0142944663
385297690.0 0.0548911018 -0.0139827915 0.5577086648 -0.562477883 0.5572059672 -0.5634094867 0.0550998354 -0.0148431526
390297660.0 0.0544797046 -0.0147810871 0.5510036406 -0.5700928486 0.551378831 -0.5706229294 0.0550135316 -0.0159133
395297630.0 0.0547304672 -0.0158282356 0.5450620599 -0.5756493882 0.5454032219 -0.575700486 0.0542302483 -0.0155088614
400297600.0 0.0536652306 -0.0157541287 0.538092639 -0.5823253733 0.5390779384 -0.5822697005 0.0536403099 -0.0172071176
405297570.0 0.0539975232 -0.0165559431 0.5321372872 -0.5877240193 0.5319950121 -0.5876426758 0.0537016053 -0.0170229756
410297540.0 0.0538321651 -0.017454224 0.5245721571 -0.5935116188 0.5253391174 -0.5940247592 0.0533414741 -0.0178660267
415297510.0 0.0532176296 -0.0174118353 0.5187381135 -0.5995520444 0.5196561809 -0.5998784698 0.0527070438 -0.0181427719
420297480.0 0.0528723541 -0.0189329072 0.5120345753 -0.6055723374 0.5123488777 -0.6055597609 0.05289194 -0.0191797103
425297450.0 0.0535461803 -0.0194662114 0.5061772278 -0.6109188107 0.505907111 -0.6105930369 0.0522372104 -0.0192603422
430297420.0 0.0524756968 -0.0196231051 0.4994865365 -0.6168156748 0.4990661252 -0.6170012609 0.0516703786 -0.0203918246
435297390.0 0.0524697838 -0.0206929957 0.4922754292 -0.6219433382 0.4921680279 -0.6218878426 0.051096671 -0.0200521212
440297360.0 0.0524418152 -0.0213943963 0.4851329383 -0.6276290617 0.4849218165 -0.627891992 0.0511156281 -0.0213743949
445297330.0 0.0524047756 -0.0222386171 0.4781541209 -0.6331677448 0.4784388031 -0.633474189 0.0506563357 -0.0215720129
450297300.0 0.0518939351 -0.0226522407 0.4712696487 -0.6383209097 0.4716920751 -0.6388111836 0.0504686831 -0.0220472165
455297270.0 0.051065925 -0.0232437263 0.4648152425 -0.6435217306 0.4649404693 -0.643360731 0.0504444063 -0.0225430325
460297240.0 0.0506164419 -0.0239478213 0.4571346439 -0.6486273723 0.4570806301 -0.6483973545 0.0497170291 -0.0226113548
465297210.0 0.0507454792 -0.0247868447 0.4504129208 -0.6536959356 0.4505993188 -0.6539813956 0.0487737173 -0.0236315243
470297180.0 0.0498205128 -0.025069674 0.4428670171 -0.6583307251 0.4431663511 -0.6588655762 0.048309166 -0.0241119769
475297150.0 0.0493921333 -0.0265517557 0.4356711311 -0.6635619577 0.4358845408 -0.6630585312 0.0484063034 -0.02446506
480297120.0 0.0499494821 -0.0268061053 0.4286658801 -0.6684773029 0.4289047109 -0.6681938052 0.0479256209 -0.0244820624
485297090.0 0.0495179234 -0.0273931162 0.4214932123 -0.6731751995 0.4217130741 -0.6729407087 0.0470315613 -0.0260449582
490297060.0 0.0487973494 -0.0281958236 0.4137731458 -0.677521801 0.4137947417 -0.6774959089 0.0471465792 -0.0255904805
495297030.0 0.0479723038 -0.0281778334 0.4065182195 -0.6819608264 0.4065215705 -0.6822030495 0.0468533973 -0.0266085739
500297000.0 0.0480123903 -0.0292948805 0.3987328613 -0.6866029083 0.3987917204 -0.6866101545 0.0454590774 -0.0269854236
505296970.0 0.0472135181 -0.0295936631 0.3910243972 -0.6905197361 0.3909021327 -0.6909543489 0.0447183239 -0.0271361509
510296940.0 0.0467260914 -0.0297235996 0.3838448326 -0.6953681493 0.3839278926 -0.6951414449 0.0451893395 -0.0270847717
515296910.0 0.0462434506 -0.0304976093 0.3754154515 -0.6989620947 0.3761043226 -0.6992098731 0.0441874187 -0.0280128449
520296880.0 0.0458238505 -0.031454297 0.3675072066 -0.7037101674 0.3684075334 -0.7034252063 0.0440406498 -0.0281487644
525296850.0 0.0451807337 -0.0318781013 0.3607335225 -0.7076194077 0.3604237312 -0.7079279687 0.043715415 -0.0288449768
530296820.0 0.0449117961 -0.0325780629 0.3527979676 -0.7103484513 0.3526759172 -0.7112952263 0.0426312392 -0.0296073951
535296790.0 0.0439733806 -0.0330084014 0.3447405618 -0.7148300559 0.3454780017 -0.7152933355 0.0424385728 -0.0301114135
540296760.0 0.0438660394 -0.033524897 0.3372396171 -0.7187619386 0.3367735718 -0.7190885577 0.0416187362 -0.0300360604
545296730.0 0.0435291318 -0.0333555238 0.328777453 -0.7221259944 0.3290726461 -0.7233568333 0.0412821259 -0.031010089
550296700.0 0.0425085148 -0.0344412523 0.3214349404 -0.7261603941 0.3220613954 -0.726758343 0.0406675578 -0.0305074538
555296670.0 0.042577878 -0.0354877157 0.3134461065 -0.7297325872 0.3137302614 -0.7299688257 0.040016466 -0.0312378148
560296640.0 0.041897927 -0.0354748691 0.3057956589 -0.733074216 0.3054955474 -0.7328042667 0.0394449885 -0.0314174008
565296610.0 0.0408173378 -0.0362691794 0.2971138858 -0.73631573 0.2970252267 -0.7366861415 0.0389562876 -0.0323220504
570296580.0 0.0412260476 -0.0366974914 0.2892642603 -0.7396004667 0.2893239692 -0.7402674498 0.0386308857 -0.0318175095
575296550.0 0.0400091116 -0.0363083404 0.2810752357 -0.7422401999 0.2816402759 -0.7427904192 0.0383889852 -0.0327405303
580296520.0 0.0393852858 -0.0369807795 0.273597566 -0.7458054139 0.2732362291 -0.7461653338 0.0376370463 -0.0333145826
585296490.0 0.0394089666 -0.037996735 0.2651473576 -0.7487874565 0.2648674171 -0.7492948571 0.037181832 -0.0337600088
590296460.0 0.0379379435 -0.0385074126 0.2568768935 -0.7516981272 0.2562442366 -0.7518881226 0.0368149898 -0.0332556466
595296430.0 0.0376193656 -0.0384550462 0.2487018146 -0.7544882105 0.2486867804 -0.7544696434 0.0361808822 -0.0339677701
600296400.0 0.0370872408 -0.0387001466 0.2402828221 -0.7571863199 0.2405273759 -0.756970043 0.0353435228 -0.0340787937
605296370.0 0.0369695962 -0.0387651547 0.232488743 -0.7595947843 0.2318831597 -0.7595510019 0.0348782545 -0.0349249686
610296340.0 0.0357999637 -0.039375464 0.2239928305 -0.7624746499 0.2238800895 -0.7624363145 0.0344628803 -0.0343860153
615296310.0 0.0355553535 -0.0396039409 0.2149434602 -0.7647167452 0.2151891161 -0.764506283 0.0339818404 -0.0350328475
620296280.0 0.0345344711 -0.0402739189 0.2074117629 -0.7666751043 0.2070421323 -0.7667787218 0.0335804572 -0.0356771124
625296250.0 0.0344583255 -0.0405168984 0.1983303804 -0.7690551426 0.1982913186 -0.7693511123 0.0329683213 -0.0356642244
630296220.0 0.0336192448 -0.0404674423 0.1898926477 -0.7714581192 0.1907641631 -0.7713821685 0.0320643633 -0.0358472817
635296190.0 0.0330484513 -0.0410269051 0.1819135406 -0.7725667546 0.1811037782 -0.7729581442 0.0314043526 -0.0365221028
640296160.0 0.0323444414 -0.0411844832 0.173577077 -0.7751883651 0.1737095068 -0.7757271617 0.0317687065 -0.0366724573
645296130.0 0.0317563062 -0.0410514125 0.1651132302 -0.7771628696 0.1650387162 -0.7771689296 0.0298104593 -0.0374102599
650296100.0 0.0309173321 -0.0409077193 0.1568722742 -0.7784783092 0.1565356997 -0.7786210043 0.029596741 -0.0372765408
655296070.0 0.0304896907 -0.0419302924 0.1483210243 -0.7804480379 0.1482963731 -0.7803417533 0.029863059 -0.036895189
660296040.0 0.0293933869 -0.0415196874 0.1394973473 -0.7815678956 0.1396977008 -0.781434705 0.028446629 -0.0377543407
665296010.0 0.0293630053 -0.0424851958 0.1313221272 -0.7833443982 0.1314370261 -0.7834888559 0.0273909424 -0.0375026424
670295980.0 0.0294476174 -0.0422532077 0.1224250485 -0.7842809118 0.1227291173 -0.7845082249 0.0269843449 -0.0380292582
675295950.0 0.0284799577 -0.0425535809 0.1138495419 -0.7856090415 0.1143484679 -0.7863632214 0.0267554571 -0.0378938724
680295920.0 0.0276240488 -0.0425470148 0.1052041545 -0.7871374128 0.1052988479 -0.7871068978 0.0264481645 -0.0386274628
685295890.0 0.0268917023 -0.042603651 0.0972701029 -0.7877248386 0.0970058588 -0.7884423177 0.0257644529 -0.0382177607
690295860.0 0.0267326554 -0.0432781802 0.0888427399 -0.7886832405 0.0876240147 -0.7887015401 0.0258455709 -0.0380857309
695295830.0 0.0262415545 -0.0434414172 0.078897918 -0.7899001299 0.0787531713 -0.7905316195 0.0243498945 -0.038689023
700295800.0 0.0256348632 -0.043528794 0.070906168 -0.7914517632 0.0705987478 -0.7909412319 0.023772632 -0.0394772028
705295770.0 0.0243937708 -0.0435281593 0.0619968552 -0.7919174374 0.0623638003 -0.7914609611 0.023001977 -0.0394361363
710295740.0 0.0240556305 -0.0435377031 0.0533334539 -0.7920540542 0.05326137 -0.7922412919 0.0215606218 -0.0390508932
715295710.0 0.0236421839 -0.04388137 0.0447291418 -0.7928852605 0.0453281138 -0.7932367303 0.0216201765 -0.0398056782
720295680.0 0.0226452684 -0.0442638787 0.0363664771 -0.7929982755 0.0366530912 -0.7937142972 0.0213165927 -0.0392382374
725295650.0 0.022424955 -0.0440334247 0.027059456 -0.7933344444 0.0278131653 -0.7930157913 0.020951629 -0.0393607405
730295620.0 0.0212991642 -0.0446799666 0.0186815094 -0.7935416156 0.0193581048 -0.7936682839 0.0203065723 -0.0406248117
735295590.0 0.0213573707 -0.0441479458 0.0108875006 -0.7937863229 0.0108008124 -0.7938524574 0.019656038 -0.0393701924
740295560.0 0.0204081051 -0.0443087982 0.0019449393 -0.7936706667 0.0017981734 -0.7938708272 0.0195032823 -0.0400555306
745295530.0 0.0200578712 -0.0447624119 -0.0065208268 -0.7942188417 -0.0065873358 -0.7940343831 0.0183148998 -0.0398105967
750295500.0 0.0190289575 -0.0447024035 -0.0150795675 -0.7933393749 -0.0152721441 -0.7935940393 0.0182903818 -0.0403869338
755295470.0 0.0190304516 -0.0445719211 -0.0235662347 -0.7936265982 -0.0238712694 -0.7938275732 0.0167525463 -0.0401399034
760295440.0 0.0178148787 -0.0445525688 -0.0327867046 -0.7931412247 -0.0330611236 -0.7933511732 0.0159740788 -0.0405212113
765295410.0 0.0167677537 -0.0452108106 -0.0406397479 -0.792749791 -0.0407393734 -0.7931675432 0.0168910205 -0.0398703733
770295380.0 0.0167875048 -0.044671105 -0.0499791329 -0.7921552237 -0.0496910257 -0.7927064827 0.0158408275 -0.0396646443
775295350.0 0.0161029328 -0.0447964383 -0.0579564314 -0.7913544424 -0.0587218488 -0.7917623488 0.0146115879 -0.04094249
780295320.0 0.0157116488 -0.0448098126 -0.0664509608 -0.7905504562 -0.0666234427 -0.7911251847 0.0143301306 -0.039946709
785295290.0 0.0146418108 -0.0443739188 -0.0757294023 -0.7889084484 -0.0757179712 -0.7902282227 0.0133885958 -0.0403897025
790295260.0 0.0141116659 -0.044568827 -0.0840452909 -0.7894466179 -0.0841611042 -0.7897843743 0.0132103075 -0.0401953132
795295230.0 0.0132846728 -0.044676229 -0.092148762 -0.787722982 -0.0923951069 -0.788154956 0.0122258393 -0.0394817114
800295200.0 0.0128325376 -0.0442880168 -0.1016800943 -0.7876539395 -0.1016002397 -0.7874846772 0.0121011733 -0.0400293873
805295170.0 0.011769726 -0.0446525973 -0.1096635666 -0.7853509435 -0.1099986601 -0.7857851098 0.010956016 -0.0402519279
810295140.0 0.0117105815 -0.0446731771 -0.1176183602 -0.7844670302 -0.1183580332 -0.7853140385 0.0106919637 -0.0395311293
815295110.0 0.0108136743 -0.044436293 -0.1271113883 -0.7833948279 -0.1269871736 -0.7833984511 0.0098436984 -0.0403240932
820295080.0 0.0102299269 -0.0446443799 -0.1352214552 -0.7823969639 -0.1355628448 -0.7822651464 0.0091113845 -0.0398892691
825295050.0 0.0096690051 -0.0445791029 -0.1437349134 -0.7800861776 -0.1440697493 -0.7802667689 0.0091608603 -0.0397844719
830295020.0 0.0089473351 -0.0441734882 -0.1525479894 -0.7784465983 -0.1528876756 -0.7789364426 0.0081950847 -0.0400952526
