!Created with skrf (http://scikit-rf.org).
# Hz S RI R 50.0 
!freq ReS11 ImS11 ReS21 ImS21 ReS12 ImS12 ReS22 ImS22
300000.0 -0.2389235689 -0.1007389983 0.4659263038 0.0666359593 0.4686162622 0.0709094645 -0.2370468082 -0.1117889715
5299970.0 -0.2438196559 0.0070122258 0.4736343443 0.0054979276 0.4741027866 0.0059558573 -0.2442710976 0.0057672215
10299940.0 -0.2402432153 0.0199217673 0.475673713 0.0064744163 0.4755818565 0.0066577724 -0.2411056616 0.0182938793
15299910.0 -0.2359938408 0.0292001243 0.479391774 0.0078541169 0.4792264989 0.0080226114 -0.2366566436 0.0273769263
20299880.0 -0.2307034705 0.0375271747 0.4843385505 0.0083121607 0.4841772101 0.0085058848 -0.232124362 0.0354798612
25299850.0 -0.2248237736 0.0433699281 0.4894873184 0.0073164884 0.4895580634 0.0076269187 -0.2271997747 0.0416129388
30299820.0 -0.2189483465 0.0484620263 0.4955305721 0.0056579813 0.4946557312 0.0051908417 -0.2216324319 0.0470964695
35299790.0 -0.2128822876 0.0526710754 0.5000477718 0.0022276013 0.5001044404 0.0020733359 -0.2163816197 0.0507677166
40299760.0 -0.2076191093 0.0557725906 0.5054464595 -0.0016203773 0.505277701 -0.0019530577 -0.2115121739 0.0545636149
45299730.0 -0.2023115243 0.0584895416 0.5102109832 -0.0065643348 0.5098928614 -0.0061744695 -0.2067220099 0.0573418845
50299700.0 -0.1975790918 0.0601586591 0.5142005418 -0.0120717652 0.5144274248 -0.012007065 -0.2022452107 0.0597161177
55299670.0 -0.1934817698 0.0616833008 0.5177931487 -0.0178730867 0.5183673 -0.0177206857 -0.1984086955 0.0614027679
60299640.0 -0.1894036923 0.0626737899 0.5210398303 -0.0241483703 0.5211473458 -0.0242414957 -0.1945452036 0.0632411517
65299610.0 -0.1861756848 0.0639609367 0.5245612138 -0.030484807 0.5246535773 -0.0302347385 -0.1912547606 0.0641677394
70299580.0 -0.1828745175 0.0645214956 0.5269269028 -0.0370770694 0.5268936018 -0.0371738265 -0.1879990512 0.0658594324
75299550.0 -0.1796212916 0.0651472327 0.5286519227 -0.0441415458 0.5285213975 -0.0443279489 -0.1848916456 0.0669634912
80299520.0 -0.1772105201 0.0658764298 0.5310272493 -0.0507655604 0.5311191914 -0.0505430288 -0.1827011835 0.0671699465
85299490.0 -0.174482801 0.065838234 0.5322935351 -0.0579720429 0.5321693384 -0.0579100866 -0.1803354419 0.0683503671
90299460.0 -0.1725963984 0.0665440858 0.5332173223 -0.0643819067 0.5334402472 -0.0647300035 -0.177855109 0.0690080617
95299430.0 -0.1704565732 0.0671599437 0.5341716384 -0.0717599533 0.5339002053 -0.0716853713 -0.175693914 0.0703003569
100299400.0 -0.168553231 0.0678495786 0.5341058019 -0.078596734 0.5342368253 -0.0788396672 -0.1741761408 0.0706622933
105299370.0 -0.1667314218 0.0679563069 0.5341459796 -0.0851923238 0.5348518541 -0.0852744356 -0.1722557925 0.0718482623
110299340.0 -0.1654548662 0.068391512 0.5344024006 -0.091918234 0.5347503076 -0.0924837473 -0.1706512149 0.0727134233
115299310.0 -0.1639393747 0.0688406428 0.5347521553 -0.0990082007 0.5350857617 -0.0988841347 -0.168905872 0.0733543532
120299280.0 -0.1627261163 0.069222781 0.5347652804 -0.1057604299 0.5348972309 -0.1058487711 -0.1677592955 0.0741771019
125299250.0 -0.1617935752 0.0697966549 0.5344148712 -0.1121877097 0.5347229984 -0.1127979929 -0.166487851 0.0748048639
130299220.0 -0.160382832 0.070441764 0.5336886047 -0.1190030067 0.5336695715 -0.1193552533 -0.1653895636 0.0758260188
135299190.0 -0.159195481 0.0708760781 0.5330218114 -0.125418871 0.5327359752 -0.1258778719 -0.1639794701 0.076955419
140299160.0 -0.1586054142 0.0725354523 0.5321381299 -0.1328543817 0.5323433724 -0.1327309397 -0.1628015819 0.0778833229
145299130.0 -0.1575927676 0.0727901876 0.531327863 -0.1391856776 0.5313222177 -0.1387977996 -0.1620447626 0.0787005255
150299100.0 -0.1566596742 0.0734258026 0.5302451587 -0.1460122372 0.5303689782 -0.1457933613 -0.1610035235 0.079756652
155299070.0 -0.1556983183 0.0748833162 0.5290034601 -0.1526557897 0.5293889723 -0.1525738656 -0.159955853 0.0811375184
160299040.0 -0.1549121767 0.0752968802 0.5275089083 -0.1584753985 0.5277669728 -0.158689831 -0.1588280762 0.0821525687
165299010.0 -0.1541007517 0.0760921366 0.5264640466 -0.1654357151 0.5264263558 -0.1652043457 -0.1580839809 0.0831942677
170298980.0 -0.1538573055 0.0771532169 0.5242979183 -0.1711401321 0.5245757507 -0.1716842816 -0.1565863595 0.0845006472
175298950.0 -0.1525552251 0.0779227693 0.5233939538 -0.1776322045 0.5233771255 -0.1779491997 -0.1561754038 0.085724331
180298920.0 -0.1518316826 0.0790174263 0.5213152426 -0.1840628459 0.5216099217 -0.184051661 -0.1546932661 0.0871985114
185298890.0 -0.1508948041 0.0802009215 0.5192327111 -0.1906540917 0.5198720829 -0.1903267049 -0.1543177126 0.0880246687
190298860.0 -0.1502459492 0.0811429212 0.5173479493 -0.1968943462 0.5178461829 -0.1967036495 -0.152635384 0.089492905
195298830.0 -0.1494253288 0.0822180769 0.5158909129 -0.2021281526 0.5157268941 -0.2027246182 -0.1521758129 0.0905781314
200298800.0 -0.1488372055 0.0834764408 0.5137745142 -0.2081171211 0.5136131137 -0.2085417713 -0.1508996975 0.0923148387
205298770.0 -0.1482083682 0.0847230064 0.5115197343 -0.2146499459 0.5115002973 -0.2144544872 -0.1500617296 0.0931074153
210298740.0 -0.1476786053 0.0855837052 0.5094351585 -0.221070105 0.5093548738 -0.2211648264 -0.1492786595 0.0947981219
215298710.0 -0.1466962441 0.0869068826 0.5071402638 -0.2266153368 0.507004145 -0.2264156826 -0.1482817786 0.0959810492
220298680.0 -0.1459200223 0.088066278 0.5043147054 -0.2326184015 0.5045799605 -0.2328348461 -0.1471992914 0.0978759874
225298650.0 -0.1448188754 0.0893975178 0.5017248968 -0.2383322238 0.5018283661 -0.238097284 -0.1461916727 0.0992461484
230298620.0 -0.1446562266 0.0906711773 0.4997033905 -0.2446829503 0.4995304659 -0.2443457752 -0.1449461293 0.1007166425
235298590.0 -0.1436991891 0.0914171255 0.4968365818 -0.2498124168 0.4969594775 -0.2504329089 -0.1442341712 0.1015091834
240298560.0 -0.1430976773 0.0929386106 0.4943197644 -0.2555093914 0.4945177355 -0.2554165996 -0.1429770766 0.1033886898
245298530.0 -0.1418490586 0.0943082607 0.4909560484 -0.2614591632 0.4912596977 -0.261556851 -0.1419486442 0.1046726827
250298500.0 -0.1416161153 0.0953188449 0.4886286552 -0.2668276952 0.488797963 -0.2665637375 -0.1406314027 0.1060857266
255298470.0 -0.1406677253 0.0967392811 0.4857963449 -0.2732199841 0.4859583677 -0.2724066269 -0.1394735348 0.1072769782
260298440.0 -0.1397506732 0.0979581213 0.4827399399 -0.277745626 0.4829496344 -0.2785305763 -0.1381237104 0.1091158137
265298410.0 -0.1386539616 0.0995241187 0.4796202328 -0.2842023829 0.4792469358 -0.283598344 -0.1372199172 0.1101900354
270298380.0 -0.1378667499 0.1006537398 0.4763426278 -0.2892992483 0.4770081959 -0.2893670103 -0.1357921132 0.1122266332
275298350.0 -0.1373342536 0.1019405475 0.4733590368 -0.2947825819 0.4735337011 -0.2948097723 -0.1349382612 0.1134160631
280298320.0 -0.136328002 0.1031930049 0.4701831559 -0.2992462364 0.4699377051 -0.3000621847 -0.1335438406 0.1149994761
285298290.0 -0.135229104 0.1048652981 0.4669721363 -0.3053452834 0.4672207506 -0.3053647818 -0.1326316549 0.116328625
290298260.0 -0.1342434018 0.1058255576 0.4640324314 -0.3106151095 0.4634499616 -0.3102618654 -0.1306765062 0.1181244977
295298230.0 -0.1332706016 0.1070281436 0.4604960721 -0.3158753062 0.460145268 -0.315886888 -0.1295861685 0.1193266278
300298200.0 -0.1320097347 0.1084001033 0.4569630732 -0.321361945 0.4567899477 -0.3211079017 -0.1287325178 0.1207138516
305298170.0 -0.1309177827 0.1096132458 0.4533745834 -0.3268371608 0.4536134122 -0.3265962885 -0.1265419784 0.1225628828
310298140.0 -0.1296785899 0.1104425153 0.4501335595 -0.3316259859 0.4499441542 -0.3323971082 -0.1253695034 0.1242292854
315298110.0 -0.1291875568 0.1119506726 0.446078839 -0.3366968495 0.4463524588 -0.3370794704 -0.1240080897 0.1248191214
320298080.0 -0.1280493259 0.1133306724 0.4425264291 -0.3421745079 0.4425484795 -0.3418862067 -0.1228536326 0.1263535403
325298050.0 -0.1270620836 0.1141218236 0.4383693741 -0.3475312925 0.4388956556 -0.3473504017 -0.1215031862 0.1277107561
330298020.0 -0.1264703027 0.1152075413 0.4344126056 -0.3522963925 0.434549015 -0.3520735184 -0.1203456658 0.1289413707
335297990.0 -0.1252922226 0.1166128233 0.430118172 -0.3572105747 0.4303714185 -0.3572477672 -0.1190881648 0.1301093366
340297960.0 -0.1247917513 0.1183635487 0.4261307071 -0.3621373617 0.4267920853 -0.3615289111 -0.1179507646 0.1318441055
345297930.0 -0.1236333774 0.1196024181 0.422085336 -0.3659102224 0.4222410205 -0.3659880781 -0.1161868768 0.1332352106
350297900.0 -0.1221897758 0.120791221 0.4179547491 -0.3708688442 0.4184049307 -0.3710727681 -0.1149980101 0.1347253557
355297870.0 -0.1213821717 0.1221990473 0.413611454 -0.3756284595 0.4137909618 -0.3757233495 -0.1136794802 0.1362299642
360297840.0 -0.120099511 0.1234223014 0.409681815 -0.3802720407 0.4098354206 -0.3803708074 -0.1121186356 0.1378977917
365297810.0 -0.1190038621 0.1244850356 0.4050581379 -0.38462821 0.4057810478 -0.3846027043 -0.110989685 0.1396657085
370297780.0 -0.1177475813 0.1259577811 0.4014795763 -0.389055729 0.4012627647 -0.3892418722 -0.1092163565 0.1406654327
375297750.0 -0.1168461472 0.1275428535 0.3975355069 -0.3938371376 0.3972254815 -0.3939407946 -0.1077192812 0.1425298842
380297720.0 -0.11538977 0.1285115036 0.3923497019 -0.3976943364 0.3928149486 -0.3979227595 -0.1060421154 0.1441721373
385297690.0 -0.1142182691 0.1298095899 0.3881678057 -0.4021804364 0.3881158865 -0.401892151 -0.1046300893 0.1452236902
390297660.0 -0.1131851925 0.1309499549 0.3836279535 -0.406464574 0.3836834812 -0.4068543239 -0.1030088562 0.1461409325
395297630.0 -0.1115988077 0.1321191008 0.3795345044 -0.4103007533 0.3796421022 -0.4106147996 -0.1016004015 0.1479230912
400297600.0 -0.1108296149 0.1335728364 0.3747708408 -0.4149277142 0.3752526804 -0.4148683589 -0.1004126489 0.1492193774
405297570.0 -0.1093796054 0.1348736468 0.3703046635 -0.4192700299 0.3703396444 -0.4191934271 -0.0986279038 0.1507632361
410297540.0 -0.1080265168 0.135874709 0.3653415651 -0.4229008478 0.3653636859 -0.4230171976 -0.0968415303 0.1518518404
415297510.0 -0.1066030584 0.1373476231 0.3611803974 -0.4267570904 0.3612043038 -0.4270038498 -0.0952846414 0.1534643923
420297480.0 -0.1052561588 0.1381763436 0.3559546918 -0.431234129 0.356063286 -0.430882598 -0.0934470884 0.1539326555
425297450.0 -0.1036391002 0.1391838567 0.3515535016 -0.434448165 0.3516639733 -0.4345905876 -0.0914275635 0.1557585588
430297420.0 -0.1026455141 0.1403168205 0.3467517621 -0.4386211037 0.3470715878 -0.4384997558 -0.0901653806 0.1564876425
435297390.0 -0.1010824287 0.1413393918 0.3415734551 -0.441928969 0.3418953993 -0.4420461595 -0.0884914598 0.1581816738
440297360.0 -0.099759027 0.1426339479 0.3365671601 -0.4459752083 0.3366637137 -0.4459152696 -0.0864754202 0.1589683378
445297330.0 -0.0981639486 0.1436146249 0.3316137958 -0.4496536161 0.3322084006 -0.4495295724 -0.0850428029 0.1603036345
450297300.0 -0.0968226679 0.1445324994 0.3271207182 -0.4529827572 0.3272598603 -0.4530755206 -0.0835523589 0.1615365842
455297270.0 -0.0957397326 0.1456131153 0.3224499537 -0.4565855931 0.3230221649 -0.4568243977 -0.0814165022 0.1626157447
460297240.0 -0.094520137 0.1470020661 0.3167453812 -0.4603175798 0.3167481942 -0.4601657971 -0.0794448212 0.1640397156
465297210.0 -0.0925809925 0.1477871319 0.3120396777 -0.4637898969 0.312528607 -0.4637784014 -0.0785323183 0.1647159962
470297180.0 -0.0914206281 0.1488621853 0.3071181632 -0.466528762 0.3074934906 -0.4670939284 -0.0769148864 0.1659461979
475297150.0 -0.090036684 0.1495549846 0.3016574721 -0.4698872734 0.3020163263 -0.4697809862 -0.0747694296 0.166960943
480297120.0 -0.0881253487 0.1504730489 0.2965626398 -0.4731056278 0.2971615285 -0.4732552407 -0.0728826659 0.1682965683
485297090.0 -0.0868789708 0.1516116125 0.2919429877 -0.476437758 0.2916488675 -0.476422314 -0.0710808603 0.1688764074
490297060.0 -0.0853820041 0.1523561625 0.2866193723 -0.4798527897 0.2866750908 -0.4796174844 -0.0691973116 0.1702245722
495297030.0 -0.084257396 0.1537861371 0.2809953858 -0.482140708 0.2807125309 -0.4832873124 -0.0672225822 0.1707824612
500297000.0 -0.0824805559 0.1543967572 0.2756717111 -0.4857872147 0.2757414869 -0.48615731 -0.0660612558 0.1720645969
505296970.0 -0.0810471575 0.1553993931 0.270118254 -0.4882627661 0.2703845186 -0.4886842524 -0.0644317394 0.1728303138
510296940.0 -0.079549928 0.1563080856 0.2648229231 -0.4915340633 0.265222479 -0.4914844358 -0.0621105996 0.174214611
515296910.0 -0.0783031941 0.1574889354 0.2594292981 -0.4943612766 0.2597391177 -0.494441262 -0.06015063 0.1747540869
520296880.0 -0.0763456086 0.1580381813 0.2539829257 -0.4971604063 0.2546801684 -0.4969535797 -0.0582875371 0.175368913
525296850.0 -0.0751284266 0.1587915168 0.2489552858 -0.5000384904 0.2492420073 -0.5002086478 -0.0561719486 0.1764137351
530296820.0 -0.0735444226 0.1599334256 0.2434707384 -0.50197369 0.2436505497 -0.502350717 -0.0548094881 0.1767623971
535296790.0 -0.0720117396 0.1606090172 0.2380011877 -0.5047791077 0.2383137485 -0.5047337284 -0.0527420689 0.1774086145
540296760.0 -0.0705550505 0.1610364562 0.2324243555 -0.5079552608 0.2321352663 -0.5077195119 -0.0510496973 0.1785233075
545296730.0 -0.0689486383 0.1621612287 0.2266626552 -0.5101096527 0.2271251524 -0.5103444911 -0.0493048505 0.1792080939
550296700.0 -0.0673635844 0.1630379915 0.2212057442 -0.5126107113 0.2220320692 -0.5128000951 -0.0473014422 0.180351559
555296670.0 -0.0653712903 0.1636264141 0.2159003718 -0.5148081567 0.2162215006 -0.51482028 -0.0452462525 0.1809426891
560296640.0 -0.0642257766 0.1645825818 0.210433859 -0.5167744425 0.2106264626 -0.516774981 -0.0432222147 0.1814090152
565296610.0 -0.0628703944 0.165166288 0.2048303105 -0.5195345638 0.2045067971 -0.5195654649 -0.0414579767 0.1820099257
570296580.0 -0.0606092303 0.1657704407 0.1989737039 -0.5212396647 0.1993704424 -0.5216162216 -0.0392323751 0.1832503162
575296550.0 -0.0592498042 0.166785981 0.193411586 -0.5231957717 0.1935355377 -0.5232234761 -0.0371644988 0.1832512993
580296520.0 -0.0577275092 0.1673148423 0.1878787977 -0.5254094596 0.1877699713 -0.5257815687 -0.035530631 0.1839736805
585296490.0 -0.0559166711 0.1676431375 0.1821965025 -0.5276852843 0.1820292562 -0.5275142776 -0.033739129 0.184311596
590296460.0 -0.0547786419 0.1684408078 0.1763240617 -0.5292844171 0.1760874648 -0.5293485546 -0.0315967359 0.1849656171
595296430.0 -0.052745774 0.1693997016 0.1706651919 -0.5314660402 0.1704996538 -0.5315806898 -0.0293316181 0.1851464621
600296400.0 -0.0514740394 0.1700621253 0.1651116473 -0.5330587326 0.1651360004 -0.5333079867 -0.0271554307 0.1861687184
605296370.0 -0.0496098115 0.1707884251 0.1591159189 -0.5347662603 0.1590991226 -0.5345388675 -0.0253027401 0.186126353
610296340.0 -0.048102479 0.1711072385 0.1534662126 -0.5361366361 0.1537946208 -0.5364883821 -0.0235085714 0.1870027866
615296310.0 -0.0464258213 0.1721917488 0.1473378659 -0.5379753656 0.147185657 -0.5378571082 -0.0211059155 0.1873290499
620296280.0 -0.0447061134 0.1723399896 0.1417269622 -0.5395155956 0.1417284919 -0.5396866037 -0.0193663231 0.187445817
625296250.0 -0.042701483 0.1729998074 0.1356834409 -0.5412527698 0.1355244942 -0.54131724 -0.0171714826 0.1879049358
630296220.0 -0.0412063069 0.1738535822 0.1296769494 -0.5425705949 0.1304602078 -0.5425564619 -0.0157133108 0.1881333814
635296190.0 -0.0395875583 0.1741967105 0.1239020551 -0.5433114142 0.1239989731 -0.5431402169 -0.0135021087 0.1885814512
640296160.0 -0.037913152 0.1746746769 0.1180719155 -0.5448780791 0.118013991 -0.5451501288 -0.0109853428 0.1888599926
645296130.0 -0.036231867 0.175256575 0.1118402511 -0.5462872573 0.1123670503 -0.5464236026 -0.0096967463 0.1885562823
650296100.0 -0.0346107473 0.1761458277 0.1066380369 -0.5472302185 0.1066420262 -0.5473899881 -0.0073061631 0.1892579536
655296070.0 -0.0326257122 0.1762965984 0.0999748079 -0.548328223 0.1000072758 -0.5484174819 -0.0047316631 0.1897605169
660296040.0 -0.0314291631 0.1769748817 0.0949036546 -0.5491298229 0.0949198191 -0.5488776554 -0.0033701397 0.1896006558
665296010.0 -0.0290755384 0.1771120415 0.0885212227 -0.5500829518 0.0894909537 -0.5505682437 -0.0016466462 0.1902745783
670295980.0 -0.0273012056 0.1778902841 0.0829489756 -0.5516341718 0.082809873 -0.5509551179 0.0006485122 0.190020244
675295950.0 -0.0257068015 0.178240175 0.0768520604 -0.5523655959 0.0771392904 -0.5525227246 0.0029596544 0.1902343472
680295920.0 -0.0242082488 0.178796067 0.0707012715 -0.5530497719 0.0707125114 -0.5527433346 0.0053227546 0.1901411682
685295890.0 -0.022235962 0.1790400894 0.0647688359 -0.5535571717 0.0648108922 -0.5542143869 0.0074775401 0.1907742846
690295860.0 -0.0203000152 0.1792071891 0.0585734501 -0.5537392231 0.0587760378 -0.5543967855 0.0095067462 0.190928416
695295830.0 -0.0184078751 0.1795201684 0.0520229477 -0.5546586851 0.0526001345 -0.554779906 0.0110408895 0.1907992419
700295800.0 -0.01679017 0.1799589699 0.0465570795 -0.5553713525 0.0467325136 -0.5555989313 0.0134644731 0.1904454944
705295770.0 -0.0148672091 0.1804851263 0.0406849642 -0.5554891179 0.0405831736 -0.5556228654 0.0152529427 0.1906370811
710295740.0 -0.0134531213 0.1806111475 0.0347117143 -0.5557875195 0.0347950828 -0.555827045 0.0170408849 0.1907938971
715295710.0 -0.0117516086 0.1808359079 0.0285486901 -0.5563318122 0.0290506089 -0.5564285741 0.0193577075 0.1901951461
720295680.0 -0.0100133533 0.1810506078 0.0223747886 -0.556297222 0.0228603868 -0.5569180383 0.0218615691 0.1905881885
725295650.0 -0.0078913881 0.1814770681 0.0166246404 -0.5568088732 0.0165892765 -0.5566713217 0.0236271596 0.1905369903
730295620.0 -0.0066062726 0.1814478531 0.0106291603 -0.5569291905 0.0106711289 -0.5569751758 0.0258301296 0.1898472384
735295590.0 -0.0041264516 0.1819670222 0.0049754276 -0.5570042468 0.0049872939 -0.5572342609 0.0280994898 0.1903426218
740295560.0 -0.0027660683 0.1820454968 -0.0015588019 -0.556406041 -0.0013410827 -0.5568204709 0.0300233428 0.1897887241
745295530.0 -0.0009721014 0.1819610467 -0.0070912202 -0.5566389905 -0.0070583653 -0.5575083711 0.0318413879 0.1900129047
750295500.0 0.0010116911 0.1820973216 -0.0129320536 -0.5564639153 -0.0130052085 -0.5568556478 0.0341042935 0.18927252
755295470.0 0.0031600273 0.1825573349 -0.0189380586 -0.5562788133 -0.0189091591 -0.5568800946 0.0359904143 0.1894711035
760295440.0 0.0043345702 0.1826760301 -0.0253654424 -0.5561325143 -0.0247461298 -0.5565917022 0.0376043819 0.1888777512
765295410.0 0.0061209911 0.1824210572 -0.0306120131 -0.5554710091 -0.0310957176 -0.5561557557 0.0407409199 0.1892596376
770295380.0 0.0082779528 0.1831351 -0.0373897521 -0.5554945777 -0.0367653183 -0.5557165058 0.0425266358 0.1886988646
775295350.0 0.0099407077 0.1830014843 -0.0429489163 -0.5546348594 -0.0429626435 -0.5549113377 0.0442598786 0.1880352344
780295320.0 0.0116045688 0.1829216749 -0.0488583322 -0.5545070594 -0.0483569647 -0.5543395595 0.0460683774 0.1882237265
785295290.0 0.0135288639 0.1835850669 -0.0552317147 -0.5533862689 -0.0552172115 -0.5537863588 0.048164202 0.18746915
790295260.0 0.0154046968 0.1831818006 -0.0608361173 -0.5530532969 -0.0612251236 -0.5537045916 0.0507744094 0.1872240586
795295230.0 0.01697207 0.1833527809 -0.0667397151 -0.5523061933 -0.0670378242 -0.5524025569 0.0524573102 0.1874566206
800295200.0 0.0188554752 0.1832097843 -0.0732532605 -0.5514988521 -0.0730337617 -0.5520543685 0.0544482513 0.1863534124
805295170.0 0.0204949672 0.1830346373 -0.0786078775 -0.5504380477 -0.0787398578 -0.5508847029 0.0561878662 0.1856951084
810295140.0 0.0222683726 0.1830608916 -0.0844481651 -0.550010445 -0.0843340315 -0.550455561 0.0587472435 0.1858698382
815295110.0 0.0243920672 0.1830993282 -0.0907985187 -0.5489161318 -0.0908810056 -0.5488713373 0.0601357647 0.1848968149
820295080.0 0.026172075 0.1826515779 -0.0962038599 -0.5477762968 -0.0962068153 -0.5483115693 0.0619988119 0.1843481974
825295050.0 0.0279497194 0.1828114529 -0.1025294361 -0.5466581747 -0.1026696789 -0.5467434386 0.064511292 0.1839969198
830295020.0 0.0298837779 0.1828646476 -0.1085667088 -0.5456556805 -0.108662359 -0.5458740951 0.066324698 0.1831106745
