!Created with skrf (http://scikit-rf.org).
# Hz S RI R 50.0 
!freq ReS11 ImS11 ReS21 ImS21 ReS12 ImS12 ReS22 ImS22
300000.0 -0.0471657282 -0.0413572148 -0.0008193595 0.0013863996 0.001405247 0.0004209473 -0.7705759509 -0.1268422937
5299970.0 -0.048796039 0.0156656359 3.23187e-05 -5.00765e-05 -0.0001566812 0.0001581572 -0.7841872687 -0.0069620488
10299940.0 -0.0433612971 0.0320500913 -2.77902e-05 -2.02691e-05 -8.5571e-06 2.0288e-05 -0.7879443671 -0.0034173861
15299910.0 -0.0350656842 0.0461427547 0.000142613 5.99243e-05 -0.0002153087 -2.409e-05 -0.7932278558 -0.0013032891
20299880.0 -0.0251990723 0.0572590015 0.0002284752 -0.0001637617 6.451e-07 0.0001235518 -0.799474309 0.0022514721
25299850.0 -0.0143607048 0.0666867463 0.0002388131 0.0001659717 -2.915e-07 0.0001514099 -0.8058167719 0.0084596785
30299820.0 -0.0035940814 0.0730256253 -8.8571e-05 -0.0001207622 5.22631e-05 4.35426e-05 -0.811745205 0.0163773964
35299790.0 0.0078104204 0.077647087 0.0001308217 3.91352e-05 8.75369e-05 4.88105e-05 -0.8170963327 0.0251981747
40299760.0 0.0191100988 0.0804873899 -4.02332e-05 2.21431e-05 -0.000211056 -0.0001493121 -0.8211286833 0.034668963
45299730.0 0.0294137988 0.0817211825 6.25708e-05 -1.31242e-05 -2.50067e-05 0.0001073473 -0.8253719972 0.0440962667
50299700.0 0.0392455573 0.0814808255 -0.0001062213 -7.58884e-05 -3.25596e-05 5.32087e-05 -0.8273086217 0.0543246921
55299670.0 0.0481368023 0.0803353799 -1.89442e-05 0.0002334484 -6.77946e-05 -0.0001116008 -0.8296995376 0.0642916948
60299640.0 0.0568542944 0.0786580322 -0.0002490377 -0.0001465328 0.0001960025 4.97944e-05 -0.8305047786 0.074159875
65299610.0 0.0643642385 0.0761164789 0.0002412256 4.70359e-05 6.25061e-05 0.0001663475 -0.8321048491 0.0846820024
70299580.0 0.0709548344 0.0734006867 1.00047e-05 5.97802e-05 -3.62628e-05 -4.9654e-05 -0.8320473767 0.0942411619
75299550.0 0.0775622558 0.0703215694 -2.7866e-05 3.94563e-05 2.48448e-05 -0.0001728677 -0.8330060153 0.1041447232
80299520.0 0.0829505988 0.0663149345 3.4075e-05 4.65634e-05 0.0001013198 1.44706e-05 -0.8326403889 0.1141331132
85299490.0 0.0878087185 0.0625595344 0.000153749 0.0001527292 6.48495e-05 -0.000156315 -0.8318239572 0.1238849068
90299460.0 0.0923039568 0.059030316 9.1698e-05 8.21532e-05 4.80978e-05 -6.41425e-05 -0.8302960384 0.1333866876
95299430.0 0.0964473676 0.0548142548 6.92884e-05 -0.0001144545 -8.59108e-05 1.27011e-05 -0.8294731044 0.1432800414
100299400.0 0.099651614 0.0510821554 0.0001814924 0.0001375025 -3.0391e-05 0.0001647403 -0.8286265962 0.1528658392
105299370.0 0.1030387931 0.0472056365 -5.54905e-05 1.83628e-05 0.0001389029 -0.0001145822 -0.8268189149 0.1610134215
110299340.0 0.1059143427 0.0432157116 -0.0001162248 0.0001044032 -0.0001262585 -4.83135e-05 -0.8254875479 0.170776039
115299310.0 0.1086858359 0.0392238623 6.34859e-05 -1.9656e-06 -9.12377e-05 -2.67063e-05 -0.8242444034 0.1803384412
120299280.0 0.1105302293 0.0352853047 0.0002700534 -0.0003382068 -6.2981e-05 6.82041e-05 -0.8227291194 0.1891386258
125299250.0 0.1121650738 0.0313810001 -4.33803e-05 -9.92232e-05 -5.90745e-05 -4.89633e-05 -0.8210223831 0.1977804156
130299220.0 0.1136681189 0.0277830972 3.42399e-05 4.45417e-05 0.0001610683 7.48235e-05 -0.8185570178 0.2069659265
135299190.0 0.1152386928 0.024086384 0.0001913462 8.4212e-06 0.0001287432 0.0001202927 -0.8164280896 0.2161398347
140299160.0 0.116143857 0.0205301792 0.0001882398 0.0001753102 -4.80509e-05 -7.05836e-05 -0.8143239489 0.2246360853
145299130.0 0.1173323551 0.0166387537 0.000118078 -6.90054e-05 0.0001341471 -0.0001069417 -0.812395416 0.234092018
150299100.0 0.1183059799 0.0135323472 0.000263548 0.000178015 9.91813e-05 6.7453e-05 -0.8105745583 0.2428758669
155299070.0 0.1187568884 0.0102852959 9.27406e-05 0.0001222308 0.0001734789 -4.3038e-06 -0.8070003622 0.2519099195
160299040.0 0.1192950775 0.0071745516 7.81533e-05 -9.6374e-05 3.22115e-05 -1.96052e-05 -0.8049758378 0.2607176625
165299010.0 0.1200746924 0.0037176425 -6.29922e-05 0.0001929569 0.0001778675 -5.89493e-05 -0.8022244967 0.2691359942
170298980.0 0.1199416255 0.0007621043 -3.25229e-05 8.93889e-05 9.89237e-05 -5.04504e-05 -0.7993922505 0.2781534815
175298950.0 0.1203940591 -0.0022697301 0.0002064952 0.0001442648 -0.0001085826 -6.2226e-05 -0.7969123534 0.2868577132
180298920.0 0.1207046617 -0.0050277345 -5.33658e-05 0.000203166 8.89957e-05 0.0002517222 -0.7935571663 0.295529448
185298890.0 0.1206963316 -0.0081808665 3.79928e-05 0.0002770507 -3.00981e-05 0.0002498665 -0.7902603895 0.3042484368
190298860.0 0.1205609437 -0.0110288021 1.2565e-05 0.0001473487 0.0001105764 0.0003260424 -0.7881300124 0.3124717827
195298830.0 0.1201714708 -0.0139736019 -0.0002521596 -0.0001675437 0.0001115109 8.55394e-05 -0.7845819126 0.3217065752
200298800.0 0.1199324044 -0.0165621929 -3.96069e-05 0.0001485988 -0.0001479368 5.55174e-05 -0.7817284673 0.3291174218
205298770.0 0.1197750979 -0.0191468024 0.000100334 0.0001272663 -0.0002592361 -1.93616e-05 -0.7774587638 0.3376803792
210298740.0 0.1190578385 -0.0219696885 6.16681e-05 7.7593e-06 -5.549e-06 0.0001634143 -0.77454741 0.3462138072
215298710.0 0.1186333964 -0.0244681721 -7.24226e-05 -3.24672e-05 -3.2118e-06 -0.000187501 -0.7708973241 0.3542696787
220298680.0 0.1181054176 -0.0271184436 8.465e-06 -4.40501e-05 8.09307e-05 -1.25185e-05 -0.7673446268 0.362116633
225298650.0 0.1173599362 -0.0294764095 4.49105e-05 2.54128e-05 4.94193e-05 0.0001694711 -0.7636466727 0.3705716402
230298620.0 0.116707283 -0.0317481553 5.32261e-05 -0.0001143034 0.0002612406 -3.81326e-05 -0.7597233802 0.3783013508
235298590.0 0.1164028372 -0.0340211763 0.0002048065 0.0002116793 -9.40423e-05 -6.24517e-05 -0.7559500487 0.3868902682
240298560.0 0.1154815635 -0.0365810199 3.00626e-05 5.89317e-05 0.0001296718 -5.40546e-05 -0.7513217024 0.3957534474
245298530.0 0.1148341594 -0.0386891492 8.79957e-05 5.44558e-05 3.5913e-06 -2.53297e-05 -0.7477277355 0.4029902175
250298500.0 0.1143363197 -0.0409404819 9.78017e-05 -1.91497e-05 0.0001324635 0.0001538925 -0.7441025428 0.4106044427
255298470.0 0.1130772259 -0.0433285291 0.0003021558 5.10825e-05 0.0001766151 -7.60696e-05 -0.739010358 0.4181672049
260298440.0 0.1123747825 -0.0452635761 -1.73386e-05 0.0001545918 -0.0001291956 0.0001116417 -0.7345939088 0.4266445609
265298410.0 0.1114188613 -0.0470231833 0.0001115347 7.58279e-05 0.0001153988 9.66109e-05 -0.7302669659 0.4339038358
270298380.0 0.1105530027 -0.0490889863 2.75371e-05 -2.48376e-05 0.0002277979 -2.81698e-05 -0.7258270838 0.4412277916
275298350.0 0.1097073433 -0.0512503604 0.0002227644 4.37425e-05 -8.23286e-05 -0.0001318193 -0.7215365948 0.4489461643
280298320.0 0.108904961 -0.0532517572 0.0001173893 4.1421e-06 -3.02545e-05 0.000119608 -0.7160492451 0.4559237917
285298290.0 0.1079783767 -0.054807695 0.0002447712 0.000271516 -0.0001218154 0.0001279963 -0.7112105943 0.4635803593
290298260.0 0.1071258288 -0.0569885623 -1.52313e-05 0.0001527694 -0.0001080644 -0.0001343289 -0.7061188383 0.4713210086
295298230.0 0.1059522872 -0.0589142854 -0.0001206718 0.0002227159 -5.17284e-05 -7.84556e-05 -0.7013527882 0.4779840618
300298200.0 0.1049671223 -0.0603489538 0.0001082623 -8.0432e-06 4.38253e-05 6.16894e-05 -0.6959586656 0.4856163987
305298170.0 0.1038553534 -0.0623437848 -7.4843e-06 5.67695e-05 0.000107451 3.0435e-06 -0.6902747403 0.493164066
310298140.0 0.1029155615 -0.0643772422 0.0001928826 -2.54351e-05 0.0001361835 -8.19138e-05 -0.6856003041 0.5002014623
315298110.0 0.1021007262 -0.0660847257 0.0001627874 -6.086e-05 7.97224e-05 7.0774e-06 -0.6802871051 0.5068517242
320298080.0 0.1006832785 -0.068172219 0.0001618383 0.0002190718 -9.9616e-06 -2.47777e-05 -0.6749026599 0.5144393882
325298050.0 0.0996099671 -0.0696652819 -0.0002120202 -3.90415e-05 0.0001862692 8.5392e-05 -0.6688867066 0.5213133264
330298020.0 0.0979796147 -0.0717371801 7.44722e-05 -7.35687e-05 -7.7833e-05 -9.50558e-05 -0.6637310375 0.5285798874
335297990.0 0.096555561 -0.073274135 6.8956e-06 -1.70556e-05 0.0001625893 0.0002143575 -0.658351397 0.5354235592
340297960.0 0.0947079563 -0.0748738318 -9.10276e-05 -7.67689e-05 0.0001187318 -9.47056e-05 -0.6522681461 0.5425895344
345297930.0 0.0934408021 -0.0761633094 0.0002393702 -3.90481e-05 4.58496e-05 7.95362e-05 -0.6466985994 0.5485313402
350297900.0 0.0919909137 -0.0774432164 -3.37567e-05 0.0001502918 0.0001481362 0.0001714795 -0.6409647778 0.555259497
355297870.0 0.0909613726 -0.0790187244 0.0002736369 -1.02424e-05 2.30243e-05 1.07375e-05 -0.6359132336 0.5622276577
360297840.0 0.0893783694 -0.08024366 4.81205e-05 0.000359049 -4.20275e-05 -6.81406e-05 -0.6291775554 0.5689109105
365297810.0 0.0875936304 -0.0812611417 8.13733e-05 4.00224e-05 3.93493e-05 9.279e-07 -0.623222426 0.5752741551
370297780.0 0.0866649046 -0.0825216301 0.0002198262 0.0001661225 0.0001208974 5.58927e-05 -0.6167869109 0.5819723188
375297750.0 0.0851484783 -0.084016594 -6.43393e-05 0.0001597543 -3.12469e-05 1.73488e-05 -0.6114873888 0.5883801671
380297720.0 0.0836897423 -0.0852105021 0.0001915483 0.0001295177 0.0001000542 -2.72489e-05 -0.6057174194 0.594290898
385297690.0 0.0821131188 -0.0862832173 0.0001670942 8.47619e-05 -7.18501e-05 4.01969e-05 -0.5991131494 0.6013458986
390297660.0 0.0807720763 -0.0874401123 0.0001054393 0.0001476329 6.37176e-05 -6.57281e-05 -0.5930690651 0.6073554381
395297630.0 0.0795412889 -0.0887070348 -0.000158475 4.9545e-06 3.47818e-05 -0.0001416782 -0.5860414912 0.6135452568
400297600.0 0.0782041176 -0.0894632943 0.0002864339 0.000101969 3.90801e-05 0.0001186648 -0.5807469368 0.6193234025
405297570.0 0.0764298042 -0.0908005711 -8.0244e-06 8.56614e-05 5.80613e-05 0.0003183424 -0.5738312132 0.6250144477
410297540.0 0.0747827901 -0.0916592103 9.66594e-05 0.0001965481 0.0001651872 3.80994e-05 -0.5671066046 0.6315430371
415297510.0 0.0734272759 -0.0930496235 8.78835e-05 6.95832e-05 0.0002329003 -0.0001199307 -0.5612600001 0.6366343775
420297480.0 0.0720115258 -0.0938103784 0.0002277055 0.000136482 -2.31698e-05 -8.33504e-05 -0.5544570111 0.6423741559
425297450.0 0.070408038 -0.095080992 0.0003790928 -2.29491e-05 0.0001738082 4.38382e-05 -0.5476799402 0.6480391286
430297420.0 0.0691225643 -0.0960645556 0.0002604367 1.6934e-06 -4.7515e-06 -0.0001220537 -0.5416213798 0.6529793327
435297390.0 0.067342642 -0.0965622818 0.0003534954 0.0001692537 -1.22812e-05 0.0001173429 -0.5341730683 0.6593770274
440297360.0 0.0658720893 -0.0977984284 -1.13528e-05 1.23054e-05 9.3608e-05 8.96936e-05 -0.5273992062 0.6638605017
445297330.0 0.0642478826 -0.0986990059 6.08482e-05 -1.6375e-05 0.0003273643 4.14026e-05 -0.5204791973 0.6687208316
450297300.0 0.0626860367 -0.0997144797 0.0001159833 1.6058e-05 -1.18372e-05 2.41399e-05 -0.5132201759 0.6742086514
455297270.0 0.0611810231 -0.1003569193 0.0001648842 1.33536e-05 7.11074e-05 -5.313e-06 -0.5062358304 0.6788815648
460297240.0 0.0597471252 -0.1012509946 0.000103172 5.97703e-05 3.28524e-05 -9.71989e-05 -0.499586416 0.6843927668
465297210.0 0.0582151714 -0.1018565971 0.0001385815 -0.000127904 0.0002619365 0.0001401349 -0.4916533869 0.689459141
470297180.0 0.0567113024 -0.102422806 0.0001313985 -9.24867e-05 -1.79297e-05 6.03273e-05 -0.4844491928 0.6944418806
475297150.0 0.0551129689 -0.1037453973 8.88272e-05 1.64808e-05 1.28849e-05 -0.0001363368 -0.4772462849 0.6987016127
480297120.0 0.0536821496 -0.1042330888 -9.03769e-05 -4.2027e-05 0.0003583291 0.0001539053 -0.469648595 0.7036868134
485297090.0 0.0518229762 -0.1049590353 0.000251368 -5.97041e-05 5.66939e-05 0.0001062013 -0.4629629546 0.7083560756
490297060.0 0.0499873004 -0.1053708583 0.0001350576 -0.0002851733 -5.59555e-05 3.48176e-05 -0.4554035648 0.712684719
495297030.0 0.0483927283 -0.1057858006 6.19093e-05 -7.9715e-06 5.99752e-05 -4.94469e-05 -0.4486411012 0.718267949
500297000.0 0.0470909171 -0.106579583 0.0001469698 2.40985e-05 -4.6181e-06 -0.0001005817 -0.4406341555 0.7229220201
505296970.0 0.0453093216 -0.1072674462 6.2103e-06 2.15987e-05 -3.16391e-05 -5.22424e-05 -0.4335458319 0.7267809567
510296940.0 0.0437863725 -0.1080914226 6.83113e-05 0.0003170284 -1.56224e-05 4.41112e-05 -0.4258200594 0.7311940191
515296910.0 0.0422479862 -0.1085237918 9.01021e-05 0.0002933971 9.2596e-06 0.0002244913 -0.4184811281 0.7348065363
520296880.0 0.0403605322 -0.1089733945 0.0001046221 8.86262e-05 0.0001921354 1.0226e-06 -0.4109838757 0.7393646877
525296850.0 0.0387426156 -0.1098308629 -5.80258e-05 0.0001330384 0.0001347771 -5.58941e-05 -0.4036719403 0.7441185915
530296820.0 0.0373375284 -0.1097749726 0.0001996787 -5.29249e-05 6.17484e-05 8.209e-07 -0.3962883838 0.7479680648
535296790.0 0.0355210333 -0.1103748827 0.0003896223 2.91409e-05 0.0002038113 0.0002133772 -0.3888343301 0.7512408637
540296760.0 0.0337891013 -0.1107764217 1.32284e-05 0.0001607157 0.0002871782 -0.0002079478 -0.3806965826 0.7558927175
545296730.0 0.0319329715 -0.1110441205 -0.000182839 -7.22529e-05 0.0001889366 5.66376e-05 -0.3732300342 0.7595489583
550296700.0 0.0308810276 -0.1114218105 0.0003437316 -6.79253e-05 0.0002129051 -0.0001304822 -0.3651724649 0.7634623993
555296670.0 0.0290222779 -0.1117165652 0.0003444508 -1.99999e-05 0.0002721571 -0.0001102113 -0.3576930155 0.7677273799
560296640.0 0.0276261619 -0.1121441425 0.0001966651 -1.81241e-05 0.0001923738 9.97486e-05 -0.3496276976 0.7712276654
565296610.0 0.0255517142 -0.1125331961 6.91986e-05 1.18737e-05 7.4301e-05 -3.04952e-05 -0.3420102929 0.7741209483
570296580.0 0.0237499343 -0.1125977022 0.0001659243 3.03951e-05 0.0003298216 -5.32266e-05 -0.3347812706 0.7780148658
575296550.0 0.0220833484 -0.1129200101 5.97297e-05 -9.2287e-05 0.0001057448 -9.65811e-05 -0.3264796252 0.7813901054
580296520.0 0.0204647642 -0.1130644905 5.88253e-05 -1.95782e-05 0.0002067166 0.0001920948 -0.318761757 0.7841233501
585296490.0 0.0186525936 -0.1134256197 6.91674e-05 -4.42875e-05 0.0001153246 -0.000110954 -0.310702792 0.7874758707
590296460.0 0.0173135954 -0.1135054868 0.0002206579 3.77764e-05 2.52261e-05 6.53074e-05 -0.3024449067 0.7908411537
595296430.0 0.0154500079 -0.1134321458 0.0002882108 2.31605e-05 -0.0001698744 9.951e-07 -0.2943850121 0.7926196118
600296400.0 0.0134671686 -0.1137964205 -3.48449e-05 -0.000199405 5.09707e-05 0.0001577012 -0.2864876098 0.7960846039
605296370.0 0.0118793217 -0.1139157521 -6.5485e-06 0.0002339417 8.02611e-05 0.0001458529 -0.2778368402 0.7986462887
610296340.0 0.0101510572 -0.1138931443 7.29381e-05 0.0001854594 0.0001288332 -9.98045e-05 -0.2705490095 0.8010682563
615296310.0 0.0087071486 -0.1140847725 0.000270343 -9.151e-05 2.82659e-05 7.9314e-05 -0.2611931673 0.8038608372
620296280.0 0.0067676037 -0.1142823843 0.0001602697 -0.0002100131 0.0001632292 -0.0001244113 -0.2541196496 0.8060314457
625296250.0 0.0054864894 -0.1144147418 -0.000116325 0.0001604523 6.80275e-05 -1.86354e-05 -0.2449075568 0.808184936
630296220.0 0.0038725221 -0.1142705319 0.0001064983 0.0001304515 0.0001001049 2.33484e-05 -0.2371629115 0.8110953001
635296190.0 0.0018702423 -0.1140227147 0.0001342959 -3.4139e-06 0.0002925132 2.82461e-05 -0.2292302017 0.8127714625
640296160.0 0.0002766376 -0.1142981213 0.0001623457 -5.42756e-05 0.0001295438 -0.0001273466 -0.2207434322 0.8156198985
645296130.0 -0.0016394896 -0.1137191423 0.0001477619 6.95345e-05 4.12942e-05 -2.01311e-05 -0.2127328627 0.8179946529
650296100.0 -0.0031284738 -0.1137375316 4.9068e-06 6.72028e-05 2.97166e-05 -0.0001161865 -0.2046340772 0.8188138422
655296070.0 -0.0048391961 -0.1134765558 0.0002464169 8.54909e-05 0.0001603382 -0.0001078838 -0.19628235 0.8208680667
660296040.0 -0.0066141105 -0.1136654682 6.35725e-05 0.0002156766 0.0001121985 0.0001157302 -0.1871755326 0.823096494
665296010.0 -0.0081008769 -0.1137994389 -4.07702e-05 -1.52105e-05 9.8143e-05 -4.60749e-05 -0.1791193082 0.825326461
670295980.0 -0.0098481444 -0.1127846503 0.0003326105 -5.59781e-05 -4.72352e-05 0.000239767 -0.1714452966 0.8267866406
675295950.0 -0.0114228342 -0.1130722822 0.000288215 -9.55718e-05 0.0002685989 2.91907e-05 -0.1631929574 0.8286420017
680295920.0 -0.0130059945 -0.1124867998 0.0001095139 -0.0001617703 8.01323e-05 -0.0001603371 -0.1544324837 0.8310493287
685295890.0 -0.014520579 -0.112085428 0.0001691648 0.0001720097 0.0002257259 -0.0002806917 -0.1459488528 0.8317357037
690295860.0 -0.0161275313 -0.112080511 0.0001514425 6.30601e-05 0.0003450756 -0.0001492875 -0.1383320222 0.8335088607
695295830.0 -0.0180223715 -0.1117589194 -9.73187e-05 7.4463e-05 8.7805e-06 0.0001659882 -0.1287926665 0.8345907456
700295800.0 -0.0197584126 -0.1115793393 0.0002306136 -2.11963e-05 0.0001437226 -0.000152106 -0.1222908218 0.8360351827
705295770.0 -0.021493684 -0.1106719345 0.0002837031 -3.79626e-05 -3.07492e-05 0.0002830726 -0.1131385385 0.8382363199
710295740.0 -0.0230118439 -0.1107319192 0.0001609927 -0.0001179658 0.0001102848 0.0001324135 -0.1041992825 0.83864347
715295710.0 -0.0247879929 -0.1104385321 0.0004485622 -1.93029e-05 3.06684e-05 8.47262e-05 -0.0958432541 0.8397411784
720295680.0 -0.026214669 -0.109948752 -0.000152422 -0.0001118746 -3.81276e-05 -6.16746e-05 -0.0874434679 0.8407806633
725295650.0 -0.0278096418 -0.109067133 1.77974e-05 -0.0001337179 0.0003215505 -8.33771e-05 -0.0796288854 0.8421677043
730295620.0 -0.0294128877 -0.1084700302 0.0001838857 -4.43098e-05 0.0001326263 -1.69367e-05 -0.0716886348 0.8423742609
735295590.0 -0.0308563267 -0.1084364604 7.83454e-05 8.79145e-05 0.000211835 -6.27979e-05 -0.0630450903 0.8427504673
740295560.0 -0.0327191451 -0.1076488848 0.0002561356 -8.25624e-05 3.41624e-05 -0.0001142145 -0.0539492213 0.8439607952
745295530.0 -0.0342633311 -0.1072836249 0.0003417245 -0.0002811024 0.0001286651 -0.0002314303 -0.045533589 0.8441119816
750295500.0 -0.0356447175 -0.1065412052 0.0001488212 3.20236e-05 -4.7762e-06 -9.10692e-05 -0.0376352946 0.8446940322
755295470.0 -0.0374098818 -0.1061031204 -2.37206e-05 -0.0002151005 7.52566e-05 -5.18651e-05 -0.0289248417 0.8440755275
760295440.0 -0.0390923317 -0.1056264333 5.42167e-05 -2.87051e-05 0.0002653624 0.0001478569 -0.0207713242 0.844445795
765295410.0 -0.0405782087 -0.1046861823 0.0002573472 5.16784e-05 0.0001486881 -6.5165e-06 -0.0116515336 0.8448453121
770295380.0 -0.0421476305 -0.1039068499 5.0166e-05 -0.0003081449 0.0001241218 -1.3225e-06 -0.0040331413 0.8448094361
775295350.0 -0.0439316954 -0.1036490759 0.0001506176 4.80192e-05 -9.2997e-05 0.0001215625 0.0041821426 0.8441573107
780295320.0 -0.0451057209 -0.102721179 0.0001206117 -0.0001133855 -0.0001189416 6.05771e-05 0.0127696472 0.8444262014
785295290.0 -0.0470490856 -0.1024696541 0.0002997225 0.0002062656 0.0001384348 3.04928e-05 0.0214760404 0.8440858055
790295260.0 -0.0481310477 -0.1013895852 0.0001700864 -0.0002852639 2.57748e-05 -0.0001127865 0.0305555628 0.8440815023
795295230.0 -0.0497042969 -0.100349158 0.0002046947 3.7829e-05 0.000190458 8.63406e-05 0.0393554291 0.8428929709
800295200.0 -0.0512785508 -0.0996031263 0.0001488166 0.0001125983 -8.27159e-05 -0.0002382548 0.0471444317 0.8427428323
805295170.0 -0.0528648917 -0.0992725224 0.0002163273 -8.73052e-05 6.61353e-05 -0.0002120704 0.0551269161 0.8427707676
810295140.0 -0.0540221912 -0.0983901401 0.0002404843 -0.0001406359 9.34993e-05 8.8448e-06 0.0639032361 0.8412725623
815295110.0 -0.0557528834 -0.0977163317 0.0003081651 -0.0001854944 0.0002823029 6.51219e-05 0.0725233229 0.8414508237
820295080.0 -0.0572357577 -0.0966301404 -0.0002060284 -7.14961e-05 0.000249041 9.56213e-05 0.0809826727 0.8402387226
825295050.0 -0.0586365905 -0.0959615461 -3.2404e-05 -0.0001564226 -9.76876e-05 -0.0001908591 0.0889740174 0.839060238
830295020.0 -0.0600684365 -0.0948735802 9.91291e-05 2.31555e-05 0.0001135711 -8.97932e-05 0.0984781273 0.8384425443
835294990.0 -0.0613135439 -0.0938517575 0.0005052081 0.0001236256 7.48012e-05 0.0002310777 0.1054646804 0.8374282155
840294960.0 -0.0629622694 -0.092740921 0.0002470073 -0.0001369282 0.0001367162 3.15666e-05 0.1147486152 0.8366061665
845294930.0 -0.0642700332 -0.0919933325 9.94769e-05 0.0003232927 8.71408e-05 -1.05889e-05 0.1225638735 0.8347844229
850294900.0 -0.0656226848 -0.0909590935 0.0002924424 -2.60867e-05 5.10024e-05 -4.4337e-06 0.1305784147 0.8336269247
