!Created with skrf (http://scikit-rf.org).
# Hz S RI R 50.0 
!freq ReS11 ImS11 ReS21 ImS21 ReS12 ImS12 ReS22 ImS22
300000.0 -0.7721335546 -0.1767373551 -0.0015179746 0.0013669578 0.0003938235 0.0016267381 -0.04502276 -0.0765512055
5299970.0 -0.7862538907 -0.0094024613 0.000181601 -3.14795e-05 -9.84788e-05 7.44879e-05 -0.0489659678 0.0143049085
10299940.0 -0.7897741642 -0.0056905709 -0.0002391622 -1.91965e-05 -0.0001869976 9.87301e-05 -0.0431948312 0.0323002023
15299910.0 -0.7943648003 -0.003369602 -1.55835e-05 -0.000195945 -5.60575e-05 -1.22219e-05 -0.0348823821 0.0467037307
20299880.0 -0.8008405686 0.0006796529 6.41233e-05 0.000140162 0.0001477436 -8.9941e-05 -0.0252360066 0.0585644055
25299850.0 -0.807807438 0.0068043577 4.73373e-05 2.59017e-05 -0.000118876 4.5299e-05 -0.0143618212 0.0679008313
30299820.0 -0.8138480675 0.0136197915 -4.4224e-06 6.5153e-06 7.75381e-05 9.2239e-05 -0.0028269133 0.0747626573
35299790.0 -0.8186835634 0.0229217957 -7.20269e-05 0.0002240275 -0.0001132886 -0.0001042993 0.0084319765 0.0795116906
40299760.0 -0.8236502332 0.0319243324 0.0002645109 0.0001578576 7.44714e-05 -4.0947e-06 0.0192630719 0.0824021713
45299730.0 -0.826515698 0.0416967847 5.0629e-05 1.12369e-05 2.25744e-05 9.31924e-05 0.0299896812 0.0840387162
50299700.0 -0.8295889084 0.0515973228 -5.89078e-05 -4.74608e-05 -0.0001145971 4.97671e-05 0.0402204533 0.0844466633
55299670.0 -0.8313568111 0.0614841727 0.0001174737 -7.40186e-05 -0.0001062079 3.00998e-05 0.0491182924 0.0833810342
60299640.0 -0.8326258392 0.071754513 0.000153855 -6.19181e-05 0.0001146475 4.57367e-05 0.0578714168 0.0814649764
65299610.0 -0.8337233881 0.0819917592 -1.49958e-05 3.45354e-05 0.0001085855 0.0001564066 0.065416854 0.0795035594
70299580.0 -0.833712116 0.0914204157 -0.0001753077 9.40616e-05 1.41156e-05 5.44382e-05 0.0724683255 0.0769818785
75299550.0 -0.8341079647 0.101710701 5.42212e-05 0.0001467674 0.0001170465 2.90118e-05 0.0792631578 0.073640291
80299520.0 -0.8335485248 0.1115119566 0.0001073184 0.0001812887 1.79438e-05 8.76629e-05 0.08482381 0.0703651337
85299490.0 -0.832774827 0.1211623666 0.0002448903 0.0001519019 -0.0001029719 7.58573e-05 0.0897906259 0.066614406
90299460.0 -0.8326965127 0.1313787957 -0.0001219148 7.16178e-05 0.0001012672 4.36284e-05 0.0942653875 0.063091913
95299430.0 -0.8320132532 0.1402967774 9.8173e-06 8.64827e-05 -0.0001879126 4.30058e-05 0.0987858939 0.0591873165
100299400.0 -0.831003169 0.1497452285 2.74536e-05 -7.22623e-05 -3.89224e-05 0.000118106 0.1022430594 0.0557633877
105299370.0 -0.8292229442 0.1589901003 8.33773e-05 -5.88278e-05 0.0001693534 2.31161e-05 0.1057759952 0.0515023389
110299340.0 -0.8274082899 0.1686840271 0.0001278971 0.0002553802 3.70096e-05 6.12584e-05 0.1081086114 0.0476274402
115299310.0 -0.8262416434 0.177330304 3.33766e-05 0.0002589582 0.0001613923 0.0002206054 0.1108093028 0.0440187103
120299280.0 -0.8248706545 0.1867797303 7.011e-05 -0.0001594269 0.0001325245 -3.6681e-06 0.1132899043 0.0399123995
125299250.0 -0.8225410168 0.1951678558 4.83296e-05 -9.30581e-05 -5.358e-07 5.76747e-05 0.1152639459 0.0361609317
130299220.0 -0.8209238563 0.2048803 3.18819e-05 -2.35627e-05 0.0001834147 4.89288e-05 0.1168957908 0.0326400219
135299190.0 -0.8184863156 0.2136742241 -3.43419e-05 8.35917e-05 3.76658e-05 0.0001906292 0.1185347485 0.0290861909
140299160.0 -0.8176313278 0.2232482208 -7.3066e-05 0.0001875738 3.97747e-05 2.1685e-05 0.1196143778 0.0258566683
145299130.0 -0.8147166098 0.2323679556 -3.57134e-05 8.84003e-05 2.11972e-05 0.0002318705 0.12127776 0.0222759137
150299100.0 -0.8118989223 0.2404125848 3.79117e-05 0.000103364 -5.23676e-05 0.0002215585 0.1218400264 0.019230735
155299070.0 -0.809977584 0.2499539092 -0.000187889 0.0001556462 4.86105e-05 6.48321e-05 0.122639202 0.0159560802
160299040.0 -0.8076948065 0.2588986075 0.0001114982 -8.39867e-05 0.0001263191 -7.22696e-05 0.123122262 0.0125959856
165299010.0 -0.8039665548 0.2673514608 -0.0001257076 0.0001337429 6.31728e-05 -4.39676e-05 0.1237150036 0.0093984822
170298980.0 -0.8011938613 0.27615906 0.0001123141 8.7666e-05 5.71971e-05 0.0001828794 0.1242956252 0.0065524011
175298950.0 -0.7989754262 0.2844917739 4.52359e-05 9.73648e-05 -6.2779e-06 7.98794e-05 0.124632521 0.0035744958
180298920.0 -0.7964534609 0.2934702005 -9.99412e-05 3.87059e-05 -1.9326e-06 0.0001174034 0.1247450162 0.0005117881
185298890.0 -0.7928906318 0.3022694123 -5.86472e-05 0.000134574 0.0002228977 0.0001249719 0.1252561092 -0.0022715317
190298860.0 -0.789212395 0.3110300211 -6.63284e-05 6.36671e-05 -9.43727e-05 0.0001944483 0.1251626921 -0.0052404851
195298830.0 -0.7869306517 0.3193009187 0.0003597772 0.0001518309 0.0002371044 7.38851e-05 0.1247639991 -0.0076880087
200298800.0 -0.782805989 0.3281780082 2.96868e-05 -2.66292e-05 0.0002036855 0.0001905151 0.1250867917 -0.0104595238
205298770.0 -0.779270865 0.3364243282 -6.79353e-05 0.0001484321 6.54e-08 0.0002441076 0.1247312976 -0.0130559858
210298740.0 -0.7759505917 0.3452567596 -7.0011e-06 5.24696e-05 0.0001231284 0.0002824861 0.1244664994 -0.0154861675
215298710.0 -0.7723430647 0.3530257373 0.0002453974 0.0001730442 0.0002116405 -1.67252e-05 0.1238889392 -0.0181577492
220298680.0 -0.7689045387 0.3608989153 0.0001233254 0.0004464351 8.31335e-05 -1.9191e-06 0.1236017488 -0.0201946876
225298650.0 -0.7647503625 0.3694236358 1.26122e-05 0.0001429249 0.0001983079 0.0001748196 0.1232880066 -0.022744657
230298620.0 -0.7608978727 0.3780006566 8.99456e-05 7.92126e-05 -8.94871e-05 3.61979e-05 0.1228835285 -0.0248600126
235298590.0 -0.7573497564 0.3859544173 0.0001028549 -7.98928e-05 -6.92145e-05 8.02856e-05 0.1225273337 -0.0270852611
240298560.0 -0.7527611982 0.3936051819 7.93727e-05 2.62157e-05 -1.50431e-05 4.522e-05 0.1217797349 -0.0294577363
245298530.0 -0.7482756028 0.4018006029 0.0001776301 0.0001753142 7.76589e-05 0.0001348988 0.1212475279 -0.031617792
250298500.0 -0.7444856435 0.409486328 0.0001810021 0.0002222244 0.0001422126 2.1208e-05 0.1204007798 -0.0334550487
255298470.0 -0.7408245034 0.4171397768 0.0001994334 0.0001229144 -7.9905e-05 0.0001653336 0.1199733927 -0.0359553133
260298440.0 -0.7364468817 0.4249671584 0.0001344258 -7.27561e-05 8.55577e-05 0.0002144348 0.1189519652 -0.0379004664
265298410.0 -0.7324145922 0.4326142582 0.0001617522 8.49591e-05 -2.71809e-05 9.34993e-05 0.1187922117 -0.0400583336
270298380.0 -0.7272179746 0.4406690631 -2.73741e-05 0.0002395303 0.0001542156 0.0002107936 0.1181566387 -0.0419615829
275298350.0 -0.7234717089 0.4482712759 -4.68996e-05 1.9517e-06 0.000153831 0.0002449435 0.1171999977 -0.0439475531
280298320.0 -0.7179722174 0.4553655875 -6.3142e-05 0.0001659194 0.0001803686 -2.06578e-05 0.1164748356 -0.0456994282
285298290.0 -0.7135698876 0.4632492596 0.0001194225 6.97403e-05 7.87896e-05 0.0002291488 0.1156646788 -0.0474203403
290298260.0 -0.708925113 0.4707324297 0.0001617329 -0.0001173522 1.79401e-05 3.77199e-05 0.1145653995 -0.0490070445
295298230.0 -0.703761622 0.4777743461 0.0002029235 0.0001909081 2.04142e-05 -2.61846e-05 0.1140602571 -0.0509407125
300298200.0 -0.7002213249 0.4855701625 0.0003844137 0.0003134032 2.44681e-05 0.0001226378 0.1132842712 -0.0527696656
305298170.0 -0.6948352199 0.4926986335 0.0002755517 -0.000100737 6.01763e-05 0.0001242857 0.1124026723 -0.0544886051
310298140.0 -0.6891478823 0.4997646407 9.04956e-05 0.0002680069 5.11436e-05 -3.99693e-05 0.1115845523 -0.0562402309
315298110.0 -0.6846050037 0.5068601334 0.0002894323 -3.86655e-05 0.0002938577 6.01692e-05 0.1108242026 -0.0581628723
320298080.0 -0.6789186444 0.5145139823 9.24426e-05 3.9227e-06 9.82191e-05 -6.33645e-05 0.1097071448 -0.0599383737
325298050.0 -0.6733983491 0.5208320828 0.0002061922 0.0001668909 0.0001888341 0.0001182811 0.1086826499 -0.0619313299
330298020.0 -0.6682591383 0.5278548173 5.14307e-05 0.0001346464 0.0003305568 7.27097e-05 0.1073793891 -0.0638028126
335297990.0 -0.6631181452 0.5349991568 0.0001392641 0.0004256377 -0.0001754619 0.000269489 0.1060619934 -0.0651307498
340297960.0 -0.6579233464 0.5417615538 0.0002245892 5.58896e-05 3.35946e-05 0.0002107499 0.1049559971 -0.0665595934
345297930.0 -0.6519044502 0.5478408696 0.0001628454 4.47528e-05 0.000275239 0.0001478462 0.1036290207 -0.0680506053
350297900.0 -0.6461790517 0.5549692909 0.0001135436 0.0001374992 0.0001017326 4.97139e-05 0.1020502748 -0.0693323254
355297870.0 -0.6409533479 0.5612656688 0.0001504812 8.59307e-05 9.18375e-05 0.0002801771 0.1010084855 -0.0706599749
360297840.0 -0.6352691896 0.5684677399 0.000181694 0.0001298259 2.0884e-06 0.0001074567 0.0998807462 -0.0719378878
365297810.0 -0.6292418518 0.5744669471 0.0002597957 -0.0001312361 5.17588e-05 8.31459e-05 0.0987370317 -0.0732815302
370297780.0 -0.6233620349 0.5811361411 0.0004156768 0.0002303523 0.0002051567 0.0002603288 0.0970415777 -0.0746372305
375297750.0 -0.6176831913 0.5873244094 0.0001095694 0.000123293 0.0002852396 3.78059e-05 0.0961370565 -0.0759369761
380297720.0 -0.6123910367 0.5935082103 0.0002608112 0.0001318124 0.0001837321 9.86188e-05 0.0949517553 -0.0769020306
385297690.0 -0.6059579668 0.5997783834 0.0001725963 7.92184e-05 -7.00192e-05 0.0001552082 0.0937467167 -0.0781101306
390297660.0 -0.5986309028 0.6059179364 0.0003465196 0.0002230041 0.0001252934 4.15699e-05 0.0922026188 -0.0794350087
395297630.0 -0.5932551188 0.6120737845 0.000199207 0.0002524444 0.0001452777 0.0001909853 0.090939697 -0.0807063329
400297600.0 -0.5868865773 0.6181617832 0.0002443546 8.99992e-05 0.0001333021 0.0002822091 0.0902333324 -0.0814624714
405297570.0 -0.5802349034 0.6236310461 0.0001743775 -7.4158e-06 0.0004027977 1.10345e-05 0.0889159577 -0.0827571186
410297540.0 -0.5735460885 0.6298582472 0.0003561295 -2.14842e-05 8.19594e-05 6.24814e-05 0.0874741011 -0.083525003
415297510.0 -0.5676733021 0.6351702764 0.0001423264 0.0001658875 9.51016e-05 0.0001450744 0.0863800045 -0.0848544493
420297480.0 -0.5610860803 0.6411677411 0.0002139011 -9.0116e-06 0.0003269832 0.0001653882 0.0851611557 -0.0856348883
425297450.0 -0.5543262392 0.6467691216 0.0002911859 9.03907e-05 0.0004320749 0.0001595951 0.0836625788 -0.0871387902
430297420.0 -0.5476396274 0.6520918098 0.000267127 -0.0001103333 6.90998e-05 0.0002273399 0.0826256065 -0.0876617616
435297390.0 -0.5413103513 0.657292849 0.0001519905 5.95902e-05 0.0003484162 9.69001e-05 0.0810065441 -0.08859038
440297360.0 -0.5338910616 0.6630705776 0.0001953557 8.0258e-05 0.0002450633 8.01795e-05 0.0797265073 -0.0898073866
445297330.0 -0.5277785747 0.6679453693 0.0003522171 9.86144e-05 0.0001274008 0.0001940242 0.0786160295 -0.0905751047
450297300.0 -0.519677639 0.6734861279 0.0002356553 0.000157687 0.0002975085 0.0001380288 0.0775515748 -0.0914394103
455297270.0 -0.5137332869 0.6785643874 0.0004982184 0.0001284972 8.69742e-05 3.17299e-05 0.0760473878 -0.0923848797
460297240.0 -0.5057637931 0.6842692187 0.0004560886 0.0003084381 0.0002908967 -0.0001055662 0.0745562409 -0.0932550308
465297210.0 -0.499172701 0.6890523206 0.0002877448 0.0001762699 0.0003276397 0.0001050792 0.0734152407 -0.0935734747
470297180.0 -0.4919928817 0.6942211065 0.0002954132 0.0003090782 -5.7437e-06 0.0001685448 0.0720217964 -0.0946123663
475297150.0 -0.4846075605 0.6989112229 0.0003512359 -3.99389e-05 0.0003386096 2.58602e-05 0.0706481311 -0.0954835511
480297120.0 -0.4772793742 0.704249319 0.0004120198 -0.0001262502 0.0003216156 9.6393e-05 0.0692014163 -0.0961583753
485297090.0 -0.469863352 0.7086004528 0.0002423254 3.48793e-05 0.0002198721 0.0003055969 0.0676543759 -0.0970767725
490297060.0 -0.4619831134 0.7140079917 0.0001509795 0.0002812677 0.0004964171 0.0001216396 0.066408796 -0.097731699
495297030.0 -0.4547590066 0.7182320821 0.0002412055 2.82987e-05 0.0002912775 0.0002339722 0.0651732108 -0.0985708002
500297000.0 -0.4475172933 0.7222561967 0.0002616934 0.0001560061 0.0002793797 0.0001334052 0.0637290779 -0.0991489403
505296970.0 -0.4395502402 0.7272738174 0.0003854347 2.69342e-05 0.0002462259 0.0002458709 0.0620291828 -0.0998275709
510296940.0 -0.4321259637 0.7310924937 0.0003907697 0.0001477377 0.000161342 0.0003862474 0.0610537948 -0.1001648921
515296910.0 -0.4241977265 0.7355854856 0.000268952 0.0002132157 0.0001594822 6.56565e-05 0.059575609 -0.1012352636
520296880.0 -0.4164871303 0.7400017918 0.0004504956 1.5736e-05 0.000263262 1.47228e-05 0.0583909108 -0.1016940284
525296850.0 -0.4091057657 0.7441659948 0.0002666757 2.55261e-05 0.0004005718 6.69595e-05 0.0567425092 -0.1023033762
530296820.0 -0.4013341311 0.7483289913 0.0001699051 2.82462e-05 0.0002921183 -0.0002118731 0.0551279464 -0.1031732575
535296790.0 -0.3927322956 0.7517008633 1.77972e-05 9.29544e-05 0.0002828983 7.79652e-05 0.0541131917 -0.1032871229
540296760.0 -0.3851041281 0.7560311548 0.0002774501 0.0001724224 0.0002807224 6.89078e-05 0.0525041412 -0.1039681451
545296730.0 -0.3772614214 0.7600106356 0.0003701954 -4.25003e-05 0.0003133587 8.48265e-05 0.0512309882 -0.1044404013
550296700.0 -0.3690880808 0.76383465 0.0003005254 -4.8126e-06 0.0003180066 0.000152618 0.0497362528 -0.1048340209
555296670.0 -0.3614356567 0.7671202503 0.0001494667 -0.0001519234 0.0003873216 0.0001993034 0.0480096578 -0.1053768403
560296640.0 -0.3531342877 0.7710782148 0.000424497 5.56291e-05 0.0003069177 -0.0001011478 0.0467233711 -0.1057199722
565296610.0 -0.345314839 0.7744047779 0.0002179721 9.16274e-05 9.64745e-05 0.0002109513 0.0453795331 -0.1062357371
570296580.0 -0.3370596999 0.777946267 0.0004707494 -2.59951e-05 0.0002015511 -2.45894e-05 0.0434313618 -0.1067331534
575296550.0 -0.328423109 0.7814161326 0.0003700284 4.001e-07 0.0002429592 0.0001143761 0.0424520022 -0.1070788253
580296520.0 -0.3209738983 0.7847914245 0.000418418 4.05199e-05 0.0002247831 0.0001997763 0.0409286271 -0.1077041195
585296490.0 -0.3125951925 0.7877160186 0.0003170685 0.0001594226 9.33917e-05 6.26884e-05 0.0394402486 -0.1075674017
590296460.0 -0.3041403013 0.7913623656 0.0005305799 0.0001165503 0.000302194 0.0001515861 0.037908585 -0.1081592702
595296430.0 -0.2961948854 0.7943248943 0.0001656934 0.0003119734 0.0001909108 -1.60992e-05 0.0364763408 -0.1083059271
600296400.0 -0.2884355827 0.7968553571 0.0003614103 -7.59811e-05 5.24913e-05 0.000110393 0.0352073144 -0.1086059937
605296370.0 -0.2800779332 0.7998683366 0.0002601968 -7.13455e-05 0.0003251717 -3.31193e-05 0.0337037683 -0.1088501217
610296340.0 -0.271267356 0.8030765391 0.0001169992 8.32794e-05 0.0004647716 7.63348e-05 0.0320442545 -0.108832525
615296310.0 -0.2629425666 0.8060902883 0.0004030671 -5.43621e-05 0.000415689 7.43452e-05 0.0307413068 -0.1092922095
620296280.0 -0.2550627576 0.8080793168 0.0004152413 -3.72786e-05 0.000299501 0.0001993703 0.0294273826 -0.1093035595
625296250.0 -0.2478954795 0.8107844831 0.0002902393 1.00016e-05 0.0003963244 -6.7144e-05 0.0277593041 -0.1095195364
630296220.0 -0.23862661 0.8131975124 0.0003075693 -9.10561e-05 0.0003501819 3.80878e-05 0.0263583175 -0.1097758234
635296190.0 -0.230265355 0.815779559 0.0005421357 6.65701e-05 0.0002683538 9.11738e-05 0.0247200745 -0.1098689767
640296160.0 -0.2215328621 0.817712863 0.0004161665 -1.64571e-05 0.0003275195 -7.265e-06 0.0233762708 -0.1099141586
645296130.0 -0.2138927454 0.8206410273 0.0002096355 0.0002118721 0.0002348832 -4.46041e-05 0.0218204484 -0.1097249526
650296100.0 -0.2050267834 0.8222579731 0.0003062113 -8.37852e-05 0.0004186793 -4.3967e-06 0.0204431729 -0.1099367581
655296070.0 -0.1975514291 0.8245357883 0.0003104293 -4.57513e-05 0.0003563176 7.62507e-05 0.01871901 -0.1101904216
660296040.0 -0.188788046 0.8261029559 0.0001791232 2.94321e-05 0.0004996784 -1.75366e-05 0.0176664998 -0.1100704676
665296010.0 -0.1805546223 0.8287875318 0.0005452237 0.0001721129 0.0003635236 2.55587e-05 0.0162233164 -0.1100488928
670295980.0 -0.172766182 0.8303966816 0.0004388967 8.44574e-05 0.0003071459 -3.5763e-06 0.0147044754 -0.1100527686
675295950.0 -0.1636247398 0.832129891 0.0003914372 0.0002078988 0.000147643 0.0001188625 0.0132630602 -0.1100317401
680295920.0 -0.1565630831 0.8340276493 0.0003668066 4.28163e-05 0.0003755528 0.0002733813 0.011825102 -0.1100518267
685295890.0 -0.1479378856 0.8358566581 0.000358492 -9.32561e-05 0.0004024396 -0.000148909 0.0104992107 -0.1098983332
690295860.0 -0.1393008796 0.8371352952 0.000240637 0.000190197 0.0002817078 -1.59564e-05 0.0089210647 -0.1100695587
695295830.0 -0.1308712849 0.8381234091 0.0002392261 -2.82617e-05 0.0004821131 1.00317e-05 0.0072787216 -0.109837928
700295800.0 -0.1225048066 0.8400761745 0.0003620981 8.66116e-05 0.0003568083 -0.0001599172 0.0061631728 -0.1097285775
705295770.0 -0.1146898026 0.8417204276 0.0006673281 -7.14024e-05 0.0003338616 -0.0002883693 0.004639004 -0.1093170133
710295740.0 -0.1066278962 0.842253831 0.0003311561 -2.43739e-05 0.0004104247 -3.14263e-05 0.0033748608 -0.1090541667
715295710.0 -0.097903132 0.8434910111 0.0004673607 0.0001731676 0.0004672711 5.44681e-05 0.0019862925 -0.1092281891
720295680.0 -0.0891516838 0.8441231946 0.0004071862 0.0001614577 0.0003714818 2.60151e-05 0.000347975 -0.1092673107
725295650.0 -0.0814811027 0.845829993 0.0003872506 -7.60303e-05 0.0004894976 -8.85566e-05 -0.0010926544 -0.1089785114
730295620.0 -0.073502082 0.8472014227 0.0005912875 -5.53548e-05 0.0005380679 0.0001384509 -0.0026825471 -0.1083419218
735295590.0 -0.0656224775 0.8477345665 0.0002630386 0.0001410646 0.0004421873 1.5931e-05 -0.0037746729 -0.1082426348
740295560.0 -0.0574124145 0.8479533872 0.0004778257 -0.0001298659 0.0004733905 -4.33653e-05 -0.005020577 -0.1079341607
745295530.0 -0.0485215 0.8485052745 0.0004190198 -8.45879e-05 0.0003147495 -6.76435e-05 -0.0070663557 -0.1074833862
750295500.0 -0.0411338526 0.8497766101 0.0005181353 6.48093e-05 0.0004394442 -0.0001344574 -0.0080686067 -0.107387209
755295470.0 -0.0323003067 0.8495058239 0.0007531722 -0.0002676622 0.0003084342 -0.000180856 -0.0094511388 -0.1067631656
760295440.0 -0.0239647032 0.851030809 0.0001711987 -0.0001515515 0.0004018846 0.0001384626 -0.0107011372 -0.1065334481
765295410.0 -0.0157635614 0.8505801314 0.0003960163 0.0001536436 0.0003834415 -9.0384e-06 -0.012017569 -0.1063121133
770295380.0 -0.0080770544 0.8506459146 0.0002343842 -1.19544e-05 0.0003718413 0.0002681393 -0.0136498107 -0.1062309957
775295350.0 4.72884e-05 0.8512880864 0.0004371494 -0.0002035214 0.0005364944 -2.71969e-05 -0.0149754143 -0.1056039037
780295320.0 0.0092722259 0.8516162764 0.0002700467 -0.0001016681 0.0006633415 -0.0001891305 -0.0162030153 -0.1052237512
785295290.0 0.0170614322 0.851451379 0.0003296241 -9.65936e-05 0.0005458071 -0.0001997858 -0.0180237938 -0.1047437798
790295260.0 0.0252907352 0.8507226996 0.0005369922 6.31097e-05 0.0004754407 -5.9886e-05 -0.018957662 -0.1041209373
795295230.0 0.0329589694 0.8505819101 0.0002319675 0.000107495 0.0003550848 6.21498e-05 -0.0204138762 -0.1041109305
800295200.0 0.0413619646 0.850761528 0.0005972664 -0.0001180567 0.0002618456 6.28483e-05 -0.0219230981 -0.1037469592
805295170.0 0.0492704429 0.8509548669 0.0003755694 -3.26736e-05 0.000375749 -2.50309e-05 -0.0229558574 -0.1033609587
810295140.0 0.0579919217 0.8508706164 0.0001149971 0.0001145033 0.0003972895 -5.39161e-05 -0.0239796956 -0.1025145965
815295110.0 0.0654573409 0.8498176497 0.000526773 5.56367e-05 0.0003582794 -0.0001139775 -0.0258651153 -0.1019122636
820295080.0 0.0734425777 0.8491652894 0.0004148936 0.0001094972 0.0003440745 -0.0001397865 -0.027331232 -0.1009329942
825295050.0 0.0819127685 0.848547796 0.0005492433 -0.0002347786 0.0005359629 -0.0001016394 -0.0281926101 -0.1006093118
830295020.0 0.0906686847 0.8474919409 0.0005734626 -0.0001501056 0.000425118 -0.0001269455 -0.0297557308 -0.1002532769
835294990.0 0.0980036149 0.8467432213 0.0005092314 -0.0003298866 0.0004539284 0.0001307613 -0.0306694032 -0.0993305909
840294960.0 0.10688005 0.8455890895 0.0002971765 -0.0001047077 0.000549942 -0.0002982344 -0.0321020099 -0.0986460361
845294930.0 0.1149505036 0.844411684 0.0005350159 -0.0001989537 0.0005626448 -4.66015e-05 -0.0335002199 -0.0983128786
850294900.0 0.124328031 0.8433430596 0.0005018816 -0.0001861103 0.0001050985 -0.0001551525 -0.0346767798 -0.0975609328
