!Created with skrf (http://scikit-rf.org).
# Hz S RI R 50.0 
!freq ReS11 ImS11 ReS21 ImS21 ReS12 ImS12 ReS22 ImS22
300000.0 -0.7747360371 -0.1500305897 7.4094e-06 0.0011430658 1.773e-07 0.0007722283 -0.2104906572 -0.0972696822
5299970.0 -0.785046326 -0.0079142263 6.65832e-05 2.03834e-05 -2.6745e-05 0.0002253575 -0.216367325 0.0065175875
10299940.0 -0.7876821719 -0.0041025583 -0.0001295738 -4.60403e-05 9.22753e-05 0.0001765862 -0.2129707503 0.0185760596
15299910.0 -0.7934051453 -0.0016171934 -9.53385e-05 -5.78787e-05 -3.69201e-05 2.63143e-05 -0.2081056056 0.027806652
20299880.0 -0.7999246604 0.0021777431 6.55327e-05 -1.79419e-05 9.53417e-05 -0.0001079233 -0.2030785012 0.0353089372
25299850.0 -0.8063420935 0.0083847741 2.82441e-05 0.0002130845 7.55e-05 9.9982e-05 -0.1975455961 0.0414832133
30299820.0 -0.8120384267 0.0159009086 8.04394e-05 3.902e-07 9.89931e-05 0.0001254267 -0.1915891174 0.046501127
35299790.0 -0.8165242577 0.0253641857 2.9284e-05 2.33276e-05 1.59633e-05 -0.0002239344 -0.185823234 0.0501960341
40299760.0 -0.8212902185 0.0343959346 -0.0001214751 -0.0001317546 -0.0002114606 0.0001250883 -0.180322431 0.0532285027
45299730.0 -0.8250036081 0.0439602281 0.0001611185 0.0002433866 -0.0001039809 2.4434e-06 -0.1755703871 0.0551695739
50299700.0 -0.8268143133 0.0542336925 1.74751e-05 0.0001341298 3.64782e-05 -9.13e-07 -0.1704575148 0.0569841995
55299670.0 -0.8288207397 0.0640099406 -7.4428e-05 0.0001278175 -0.0001903147 0.0001736851 -0.1663320403 0.0580359589
60299640.0 -0.8295284511 0.0747415934 -0.0001894412 4.36365e-05 8.07708e-05 8.97804e-05 -0.1625828088 0.0585747716
65299610.0 -0.8310115969 0.0847336241 -0.0001525745 7.69718e-05 -4.01657e-05 0.0001585495 -0.1586991139 0.0593878837
70299580.0 -0.8309797565 0.0949760934 7.87478e-05 0.0001291022 0.0001298177 -0.0002044224 -0.1555754666 0.0594172793
75299550.0 -0.831044411 0.104810416 5.57504e-05 -2.7264e-06 -5.6905e-06 0.0001002325 -0.1523721693 0.0596705891
80299520.0 -0.831598401 0.1146795828 -0.0001236073 0.000109061 -9.52879e-05 3.82871e-05 -0.1500738506 0.0595417852
85299490.0 -0.8302501138 0.1239406503 -0.0001114395 7.56708e-05 5.8626e-05 0.0001056147 -0.1476510378 0.0596523952
90299460.0 -0.8300724882 0.1337490942 -5.01607e-05 6.56736e-05 7.58912e-05 8.20257e-05 -0.1452952946 0.0596268373
95299430.0 -0.8287813316 0.1435400651 0.0001017785 2.15772e-05 0.0001881526 0.0001021521 -0.1433506906 0.059808071
100299400.0 -0.8281249194 0.1525999415 9.3608e-06 -0.000152999 4.02661e-05 4.71016e-05 -0.1418777076 0.0595344054
105299370.0 -0.8262726588 0.162023672 6.3283e-05 -8.17512e-05 -1.72923e-05 9.52287e-05 -0.1399581723 0.0592086804
110299340.0 -0.8254792597 0.1708645143 5.28853e-05 0.0001158056 0.0001000689 -0.0001758932 -0.1388460631 0.0595639497
115299310.0 -0.8236883646 0.1803630726 -0.0001314447 -5.71843e-05 0.0001209579 -4.299e-07 -0.1373202587 0.059456709
120299280.0 -0.8218872748 0.1894635005 9.135e-07 0.0001256068 5.38471e-05 5.18323e-05 -0.1360441453 0.0593468682
125299250.0 -0.8201018733 0.1989704537 -3.92086e-05 0.0001380336 0.0001272658 -2.71708e-05 -0.134874543 0.0594638848
130299220.0 -0.8181350018 0.2078085374 2.97576e-05 -2.2936e-06 1.04669e-05 0.0001840895 -0.134398894 0.0596980481
135299190.0 -0.8165161072 0.2164537382 -0.0001328118 9.85979e-05 -4.2681e-06 8.13399e-05 -0.1332696094 0.0595567884
140299160.0 -0.8147489404 0.2260511268 -2.1349e-05 -0.0001486721 7.9378e-06 8.59223e-05 -0.1322618824 0.0598488348
145299130.0 -0.8122127312 0.2345049998 3.79978e-05 0.0001674515 -4.36289e-05 8.44649e-05 -0.1319749737 0.0604548594
150299100.0 -0.8104300355 0.2431838185 2.8321e-05 0.0001183319 0.0001164267 0.0001235959 -0.1310113627 0.0604204421
155299070.0 -0.8074715633 0.2521786549 -0.000115928 2.42231e-05 -1.87678e-05 -0.0001901178 -0.13037498 0.0609431774
160299040.0 -0.8045418452 0.2612423479 5.43472e-05 9.68077e-05 1.13449e-05 0.0002184834 -0.1296767328 0.0615028817
165299010.0 -0.8019519536 0.2690154316 1.54895e-05 0.0002053275 3.23133e-05 1.99766e-05 -0.129072781 0.0615981039
170298980.0 -0.7996556639 0.2785321251 0.0001540777 1.49571e-05 1.99225e-05 0.0002502545 -0.1284435001 0.062351514
175298950.0 -0.7971145538 0.2865285196 0.0002328824 1.56131e-05 -0.0001965322 0.0001455776 -0.1280415423 0.0624105591
180298920.0 -0.7936809186 0.2947423839 0.0001522768 8.63975e-05 -6.21246e-05 8.58199e-05 -0.127279471 0.0631437482
185298890.0 -0.7906925926 0.3041670134 -0.00010683 6.31724e-05 6.08383e-05 5.31182e-05 -0.1271029964 0.0635530041
190298860.0 -0.7873624211 0.3124648374 7.02542e-05 0.0001171349 7.04702e-05 0.0001935124 -0.1262716791 0.0644046531
195298830.0 -0.7837388325 0.3210810283 4.52853e-05 0.0001995781 0.0001491513 8.30237e-05 -0.125754506 0.0648985058
200298800.0 -0.781193003 0.3295930401 -9.17048e-05 -6.46992e-05 7.10837e-05 3.61533e-05 -0.1248423477 0.0652738555
205298770.0 -0.777581327 0.3372632666 -3.6933e-06 0.0001837051 9.84024e-05 0.0001231067 -0.1249179542 0.0662119314
210298740.0 -0.7738295784 0.3457635242 2.7539e-06 6.25787e-05 -2.42806e-05 0.0001722237 -0.1243671918 0.0673293279
215298710.0 -0.7699547154 0.3543725343 -6.22651e-05 4.83825e-05 0.0001230566 0.0001347982 -0.1239641364 0.0677965687
220298680.0 -0.7670855869 0.3621977527 9.02209e-05 -0.0001110069 -9.79114e-05 8.37992e-05 -0.1231403132 0.0688166596
225298650.0 -0.7628184772 0.3706400481 0.00021815 0.0002436805 5.13928e-05 -4.9803e-05 -0.1228087346 0.0697282012
230298620.0 -0.7586775963 0.378714634 -0.0001555065 -4.51e-08 5.91412e-05 -3.31725e-05 -0.1221664516 0.0701898631
235298590.0 -0.7543483999 0.3866421667 0.0002740359 -2.01945e-05 0.0002112596 4.78469e-05 -0.1217730413 0.0706965836
240298560.0 -0.7507731891 0.3948736373 -5.61432e-05 7.89672e-05 0.0001298746 8.04106e-05 -0.121164617 0.0721846282
245298530.0 -0.746463477 0.4030594892 0.0002073218 9.70978e-05 0.000150681 8.3804e-05 -0.1207458025 0.0731128401
250298500.0 -0.7422822348 0.4111958985 0.0001040373 5.88338e-05 -7.31332e-05 -3.37637e-05 -0.1196154431 0.0738951189
255298470.0 -0.7378033695 0.4189993559 0.0001560512 -0.0002344082 0.0001078855 0.0001410993 -0.1193125425 0.074804752
260298440.0 -0.7338861654 0.4259296232 -1.9299e-06 0.0001454074 0.0001230376 0.0001627675 -0.1189021628 0.0756724716
265298410.0 -0.7291068764 0.4341074433 0.000115511 0.0003219732 0.0001076671 2.9619e-06 -0.1182985198 0.0768128873
270298380.0 -0.7243005781 0.4417382699 0.0001233504 0.0001627216 6.88209e-05 0.0001266594 -0.1176844035 0.077411495
275298350.0 -0.7192683927 0.4498036776 6.81119e-05 4.457e-06 0.0001235329 3.8622e-06 -0.116995073 0.0788920154
280298320.0 -0.7152457653 0.4565587895 0.0001437513 -2.48702e-05 0.0002293886 -0.0001135834 -0.1163906972 0.0797117192
285298290.0 -0.7103910716 0.4644950768 -8.49e-07 0.0002335425 0.0003050465 0.0001818866 -0.1157230851 0.0810370601
290298260.0 -0.7054256497 0.4715346498 0.0001448437 -0.0001449323 6.5573e-06 4.20309e-05 -0.1147688905 0.081923213
295298230.0 -0.7004233909 0.4791943326 9.41975e-05 -4.09935e-05 0.0001548904 0.0002706862 -0.1145772798 0.0831050422
300298200.0 -0.6949545669 0.4865401158 0.0001954244 -6.4936e-06 0.0002827246 0.0001383 -0.1137436975 0.0838906609
305298170.0 -0.6901648862 0.4942704762 0.0001869304 7.11564e-05 0.000103854 0.0001756242 -0.1129953393 0.0853922594
310298140.0 -0.6846298033 0.5007001534 7.59958e-05 -1.15355e-05 0.0002086498 9.50715e-05 -0.112247939 0.0864914784
315298110.0 -0.679677028 0.5081487511 0.0002138676 0.0001920517 0.0001890536 8.52111e-05 -0.1112790056 0.0872133921
320298080.0 -0.6739102483 0.5156734968 0.0003059843 0.0002284537 0.0002561544 9.33747e-05 -0.110786897 0.088114944
325298050.0 -0.6687059305 0.5222370122 0.0004147045 0.0001179348 0.0001684887 -0.0001500943 -0.1103427099 0.0893792493
330298020.0 -0.6623265589 0.5291798541 7.44971e-05 8.61283e-05 0.0002598626 -8.08454e-05 -0.1093941323 0.0902345373
335297990.0 -0.6567742694 0.5362293552 -4.05584e-05 0.0001356723 0.0001281501 0.0001226043 -0.1088489335 0.0913133264
340297960.0 -0.6517049861 0.542537833 3.54e-06 1.98944e-05 0.000139217 0.0001832129 -0.1082959649 0.0924429389
345297930.0 -0.6460377897 0.5488356043 9.00317e-05 -3.56856e-05 7.29418e-05 0.0002206217 -0.1077608767 0.0935498122
350297900.0 -0.6407113041 0.5561274559 0.0001386747 7.63551e-05 0.0003157429 -1.15588e-05 -0.1071833502 0.094854763
355297870.0 -0.6346017186 0.5626153104 9.28553e-05 0.0003192584 0.0002107124 0.0001872855 -0.106400983 0.0961105422
360297840.0 -0.6282426136 0.5695735702 9.3164e-05 0.0002477678 0.0001949704 7.04448e-05 -0.1055297647 0.0973173957
365297810.0 -0.6223708004 0.5758855307 0.0004630935 1.56492e-05 9.34907e-05 0.0001347739 -0.1048707822 0.0989127748
370297780.0 -0.6156424087 0.5821126368 0.0001474722 2.83096e-05 0.0002110805 0.0001338392 -0.104078374 0.099439183
375297750.0 -0.61055593 0.5877988049 -4.77017e-05 -0.0001775792 -6.0926e-06 0.000244132 -0.1032802456 0.1007754466
380297720.0 -0.6042259644 0.5950731018 0.0001418346 0.0001298184 0.0001213051 0.0003039484 -0.1021141153 0.1022286877
385297690.0 -0.5977939499 0.6008188829 0.0001304838 8.75707e-05 0.0002556264 0.0001504004 -0.1018016695 0.1034449777
390297660.0 -0.5917234216 0.6074085557 3.17208e-05 0.0001311251 0.0001182231 -2.12983e-05 -0.1011608593 0.1041623053
395297630.0 -0.5848909714 0.6134926552 0.0001707145 -5.57708e-05 6.74132e-05 -2.78651e-05 -0.1001891871 0.1054740784
400297600.0 -0.5789889387 0.6191357951 0.0003376189 6.52338e-05 0.0002821368 1.52412e-05 -0.0997935306 0.1067067389
405297570.0 -0.5726222014 0.6250974292 0.0001522518 0.000185632 3.36455e-05 5.36882e-05 -0.0987206498 0.1079407506
410297540.0 -0.5657085612 0.6309750558 1.74538e-05 -1.2533e-05 0.0001010653 7.61862e-05 -0.0978243723 0.1092269964
415297510.0 -0.5595773157 0.6369094853 0.0001248805 4.98645e-05 0.0001743621 -8.9221e-05 -0.0970978895 0.1103555741
420297480.0 -0.5517240609 0.6427088054 0.0001453096 0.0003566485 0.0002233599 1.71296e-05 -0.0961226995 0.1111854512
425297450.0 -0.5450182506 0.6484470921 0.0003185862 -0.0001455688 0.0003289788 -6.57028e-05 -0.0950814012 0.1122560876
430297420.0 -0.5394637255 0.6537991245 -0.0001276659 0.0001268369 8.2266e-06 -1.46764e-05 -0.0941042466 0.1136369422
435297390.0 -0.5320298143 0.6593267986 0.0001680497 0.0003649639 7.13446e-05 0.0001683997 -0.0929941292 0.1143522553
440297360.0 -0.525385387 0.6643652967 0.0002066445 0.0002325915 0.0001576278 0.0001074738 -0.0925524139 0.1157215062
445297330.0 -0.5183554012 0.6704519639 0.0003344196 3.21759e-05 6.48516e-05 0.0001448537 -0.0912420754 0.116518326
450297300.0 -0.5113255933 0.674769818 0.0004367147 0.00020691 6.71446e-05 1.2861e-05 -0.0909892126 0.1177465684
455297270.0 -0.5044962209 0.6803280671 0.0001949409 2.18695e-05 0.0001367993 -6.502e-05 -0.0895688608 0.1188776141
460297240.0 -0.4975060354 0.6853976241 0.0001540956 0.0002765867 0.0003345463 -9.28242e-05 -0.0885105475 0.1203381299
465297210.0 -0.4904899017 0.6909095141 9.0374e-06 -7.2747e-05 0.0002299757 7.41194e-05 -0.0878467282 0.1209856809
470297180.0 -0.4828284205 0.6948896212 5.55147e-05 6.3443e-05 0.0001592626 0.0003367917 -0.0872886212 0.1221981798
475297150.0 -0.4757018144 0.6998239353 0.0002696812 0.0004208112 0.0001500916 0.0001372657 -0.0856829801 0.1230069509
480297120.0 -0.4687443665 0.7050510298 0.0001310905 -1.4009e-06 0.0003301138 -7.25917e-05 -0.0845980879 0.1246665491
485297090.0 -0.4609715586 0.7095418426 0.00041303 0.0001280084 8.5532e-05 0.0002794949 -0.083598126 0.1253571147
490297060.0 -0.4539042068 0.7139970754 0.0002722339 8.26e-06 0.000184558 7.14323e-05 -0.082942768 0.1261010364
495297030.0 -0.4471909734 0.7187219922 0.0002718288 3.05056e-05 0.0001462775 9.63401e-05 -0.0816318118 0.1265649097
500297000.0 -0.4382666054 0.7234035692 0.0001769893 6.44302e-05 0.0002424738 -3.56815e-05 -0.0808005051 0.1276902427
505296970.0 -0.4313610845 0.7269439698 0.0002400949 0.0001741615 0.00026034 1.96872e-05 -0.0797514562 0.12915599
510296940.0 -0.4244581651 0.7319305981 0.000228033 0.0002095476 0.0003176901 0.0001492379 -0.0786437173 0.130017192
515296910.0 -0.417393688 0.7363066323 0.0003126877 -7.7591e-06 0.0002264492 2.9113e-06 -0.0774036621 0.1307509089
520296880.0 -0.4089294906 0.7403490835 0.0004033203 0.0002259811 0.0003158991 -2.8185e-06 -0.0762745071 0.131770033
525296850.0 -0.4019376051 0.7451854505 0.0001884862 3.00663e-05 3.15227e-05 -0.0001144195 -0.0749717395 0.1326252347
530296820.0 -0.3942791724 0.7480245732 0.0002787474 0.0002443094 0.0003327683 -0.00017749 -0.0742114407 0.1338327461
535296790.0 -0.3859461338 0.7524665818 2.7951e-06 -3.22538e-05 0.0001674767 9.37893e-05 -0.0728847756 0.1341294961
540296760.0 -0.3780771679 0.7559800841 0.0002115668 -8.64489e-05 0.0005251789 9.01891e-05 -0.0716764995 0.1352811112
545296730.0 -0.3710959783 0.7597159114 0.0002055417 -0.0001360219 0.000192184 -1.07863e-05 -0.0706660021 0.1361039815
550296700.0 -0.3633339074 0.7637694601 0.0002567786 0.0001013977 0.0002381941 -0.0001061674 -0.0693591583 0.1370620535
555296670.0 -0.354564136 0.7672558019 0.0002895612 0.0001952462 0.0001806209 4.22059e-05 -0.0679995469 0.1380662872
560296640.0 -0.3471156258 0.7710417197 -9.4793e-05 0.0001267004 0.0005076752 6.7764e-06 -0.0671251525 0.1388263511
565296610.0 -0.3397114776 0.7742690726 0.0004239005 -0.0001036938 -2.54304e-05 -0.0001309776 -0.0659790577 0.1396895356
570296580.0 -0.3314300516 0.7771381243 0.0001941358 -0.0002113541 0.000336001 0.0001085219 -0.0647859266 0.1407175138
575296550.0 -0.3240202993 0.7810504823 5.04794e-05 9.6934e-05 0.0004205008 -0.0001533596 -0.0631680326 0.1413374503
580296520.0 -0.3161223338 0.7839173919 0.000394541 -0.0002182147 0.0001440385 0.0001439421 -0.0623834771 0.1423451895
585296490.0 -0.3072576516 0.7864325941 0.000390823 -9.36744e-05 0.000128052 0.0001924658 -0.0609405501 0.1424061715
590296460.0 -0.2995742047 0.7899495847 7.26793e-05 1.04871e-05 0.0003788996 4.49988e-05 -0.0593664699 0.1433893097
595296430.0 -0.2912783911 0.7938425765 0.0003344047 0.0001386597 0.0002350873 9.25378e-05 -0.0583457686 0.1441815744
600296400.0 -0.2835059825 0.7956004477 0.0001946537 -9.92467e-05 0.0002610784 2.54288e-05 -0.0571481944 0.1451512864
605296370.0 -0.2753156215 0.7988004904 0.0002001645 7.89115e-05 0.0003199467 1.72728e-05 -0.055848368 0.1460977271
610296340.0 -0.2672085991 0.8016349355 0.0003183093 0.0002018747 0.0001862488 -3.985e-06 -0.054728416 0.1468914834
615296310.0 -0.2589232317 0.8043413049 0.0002284976 -1.88781e-05 0.0004167254 0.0001488033 -0.0532655828 0.1474648721
620296280.0 -0.2507462411 0.8068221566 0.0002346144 9.32719e-05 0.0001019057 -4.0321e-05 -0.0522037653 0.1477907975
625296250.0 -0.2426659487 0.8091303954 0.0002499607 5.48234e-05 0.00035366 3.23747e-05 -0.0509421732 0.1489743017
630296220.0 -0.2341174256 0.81158032 9.06482e-05 0.0001641948 0.0001690675 7.24991e-05 -0.0494115806 0.1493636462
635296190.0 -0.2259352465 0.8138822859 0.0003360334 -5.79176e-05 5.40978e-05 4.72261e-05 -0.0479757585 0.1503537254
640296160.0 -0.2179781217 0.8156267032 0.0002405222 0.0002466816 0.0002289145 4.0074e-05 -0.0466330624 0.1507713716
645296130.0 -0.209948685 0.8181397825 0.0001787924 -3.96526e-05 0.0001891441 7.43326e-05 -0.0454820899 0.1513724374
650296100.0 -0.2015142334 0.8204198663 0.0002750717 2.52015e-05 0.0003365861 5.727e-05 -0.0442722848 0.1523096102
655296070.0 -0.1930693214 0.8227795736 0.0002975295 0.0001157091 0.0003479589 -4.04547e-05 -0.042588898 0.153030925
660296040.0 -0.1853197673 0.8244100827 0.0002155759 -9.6348e-06 0.0003875577 0.000188983 -0.0411879123 0.1534772633
665296010.0 -0.1767974646 0.8258963083 0.0001265489 5.1715e-05 0.0002892672 -2.46511e-05 -0.0400910117 0.1542555786
670295980.0 -0.1677467018 0.8277927974 0.0003264822 -9.49176e-05 9.76124e-05 8.14048e-05 -0.0388194286 0.1544636703
675295950.0 -0.1601058352 0.8286980138 0.0004558541 6.72796e-05 0.0001564627 -9.6908e-05 -0.0371740309 0.1551327525
680295920.0 -0.1517834046 0.8311714042 0.0004023271 -0.0001112024 0.0003063859 0.0002000943 -0.0356940928 0.1560615216
685295890.0 -0.1427766548 0.8314775847 0.000197552 -4.2719e-06 0.0002833568 5.35585e-05 -0.0344977881 0.1562944407
690295860.0 -0.1339431641 0.8334830777 6.64573e-05 -4.53903e-05 0.0005119838 -0.00016374 -0.0330557905 0.1569707347
695295830.0 -0.1258593497 0.8342519658 0.0002443514 -0.0003476679 0.0002577964 -0.0001196284 -0.0320876201 0.1575115248
700295800.0 -0.1175139338 0.835628286 0.0002167898 -5.75926e-05 0.0002055006 -4.88726e-05 -0.0303658326 0.1577724893
705295770.0 -0.1088734445 0.8374147725 0.0005244612 -0.0001879275 0.0004574316 5.54713e-05 -0.0290256206 0.1585364574
710295740.0 -0.1009971084 0.8378703128 0.0002894371 -0.0002094203 0.0001617333 0.0001329262 -0.0280679212 0.1591599833
715295710.0 -0.0930018144 0.8393540831 0.0001569634 -7.91615e-05 0.0002704843 3.5771e-06 -0.026050698 0.1595688014
720295680.0 -0.0849677416 0.8399563577 0.0003172554 -1.87769e-05 0.0004428011 1.92171e-05 -0.0246517876 0.1599311402
725295650.0 -0.0751291982 0.8411518882 0.0001040726 7.09661e-05 0.0002139548 -3.18094e-05 -0.0229214254 0.1601313058
730295620.0 -0.0673578282 0.8411286402 0.0002915345 -0.0001097862 0.0004745221 -0.0001375051 -0.0215677165 0.1606720679
735295590.0 -0.0579762151 0.8415536117 0.0001099251 3.23634e-05 0.0004087789 -0.0001355724 -0.0203004441 0.1607903923
740295560.0 -0.049710835 0.8427221746 0.0002676807 -4.2975e-05 8.64494e-05 -4.28099e-05 -0.0186921372 0.161198774
745295530.0 -0.0416060386 0.8428521429 0.0003035016 0.0002145996 0.0002228261 -0.0001950675 -0.0174212339 0.1618224228
750295500.0 -0.0340027152 0.8426873597 0.0002089855 -0.0001417463 0.0001878369 -8.57558e-05 -0.0161139021 0.1619963105
755295470.0 -0.0245426175 0.8433787784 0.0004848944 -7.49741e-05 0.0001326614 3.67819e-05 -0.0146634836 0.1626876711
760295440.0 -0.0161261588 0.8441208465 0.0002409661 -0.0002191709 0.0003561018 -0.0001517364 -0.0130485697 0.1632344641
765295410.0 -0.0076018513 0.8437493707 0.0001698421 -0.0002454694 0.0002098969 -0.0001497166 -0.0113315703 0.163112424
770295380.0 0.0008201177 0.8440862827 0.000318144 -0.000158631 0.0002263357 -5.105e-05 -0.0097576768 0.1634185627
775295350.0 0.0095569146 0.844277124 0.0003224954 -0.0001015608 0.0004036326 -0.0001106246 -0.0086881913 0.163646642
780295320.0 0.0179604194 0.8436554751 0.0002677226 -3.38132e-05 0.000350388 -9.6458e-05 -0.0073946197 0.1642033748
785295290.0 0.0259381779 0.8438060913 0.0004393018 -0.0001112105 0.0004445638 5.77301e-05 -0.0057914647 0.1645192368
790295260.0 0.0342224294 0.8427930422 0.0001647822 0.000373881 0.0001421833 -0.0001004451 -0.0040540808 0.1646456272
795295230.0 0.0428257293 0.8432276903 0.000396424 -0.0002009709 0.000410173 -9.1537e-06 -0.002686408 0.1652268866
800295200.0 0.0514951007 0.8422785916 0.000220168 3.9635e-05 0.0002620847 -3.8745e-06 -0.0008716379 0.1652187695
805295170.0 0.059635851 0.8421656 0.0002475528 -4.23848e-05 0.0002130883 -0.0001290086 0.0002775482 0.1653707724
810295140.0 0.0685148371 0.8415325759 0.0001587545 -0.000185358 0.0002665927 8.27529e-05 0.002160177 0.1657176078
815295110.0 0.0770299624 0.8399821182 0.0001651239 -8.73787e-05 0.0002238834 -4.71435e-05 0.0035277608 0.1656880078
820295080.0 0.0857469905 0.8388832906 0.0002598501 -8.56271e-05 0.0003218841 -6.12135e-05 0.0051706741 0.1656733364
825295050.0 0.0942130035 0.8385815598 0.0002053678 0.000132177 0.0002868487 -0.0001606983 0.0067977272 0.1659211356
830295020.0 0.102321468 0.8377693623 0.000381558 -0.0001643524 0.0002823925 6.6652e-06 0.0081089957 0.1662750746
835294990.0 0.1096244891 0.8364993042 0.000314244 -0.0002680396 -3.40326e-05 -6.31278e-05 0.0101768746 0.1659708035
840294960.0 0.118431515 0.8352435507 0.0005027803 -5.72811e-05 0.0004855891 -0.0002449958 0.0115056267 0.166582455
845294930.0 0.1269015211 0.8346625185 0.0002825938 -8.34233e-05 0.0003809114 3.94015e-05 0.0126675453 0.1666429014
850294900.0 0.135356937 0.8324980276 0.0003223916 -6.35796e-05 0.0002828951 -9.4834e-05 0.0144119467 0.1667628032
