!Created with skrf (http://scikit-rf.org).
# Hz S RI R 50.0 
!freq ReS11 ImS11 ReS21 ImS21 ReS12 ImS12 ReS22 ImS22
300000.0 0.8593600618 -0.0026917874 -0.0003617119 -0.0001112551 0.0003902072 0.0001164759 -0.7768475287 -0.131430159
5299970.0 0.8586922265 -0.0099774996 0.0001201827 0.0002673192 -0.000123752 -1.84534e-05 -0.7850635563 -0.0077279321
10299940.0 0.8579411433 -0.0184114565 0.0001643619 -7.07476e-05 4.3872e-06 -6.353e-06 -0.7880079349 -0.0036826792
15299910.0 0.8571510438 -0.0267505347 -5.2491e-05 5.4246e-06 -0.0001400735 -4.52565e-05 -0.7935496359 -0.0014748971
20299880.0 0.8566675006 -0.0352640575 4.21107e-05 -4.95352e-05 4.13011e-05 8.3596e-06 -0.7996518009 0.0022163965
25299850.0 0.8557959701 -0.0436619157 9.26216e-05 -1.41521e-05 -7.51451e-05 -1.59757e-05 -0.8063658099 0.0082562742
30299820.0 0.8547041008 -0.0522682206 -6.9705e-05 -7.23852e-05 0.0001284887 0.0001261829 -0.8121663731 0.0162818576
35299790.0 0.8543240182 -0.0597922287 4.70359e-05 -0.0002024873 -7.5745e-06 8.66601e-05 -0.8172318428 0.0253408016
40299760.0 0.8530990055 -0.0687079404 4.50089e-05 -6.12596e-05 0.0001015728 1.24518e-05 -0.8212626256 0.0347702757
45299730.0 0.8530586077 -0.07735451 -0.0001037514 4.201e-07 -2.56963e-05 -9.332e-07 -0.8253690337 0.0444715335
50299700.0 0.8521454186 -0.0845962191 8.1119e-06 4.41114e-05 -7.01176e-05 1.32344e-05 -0.8270814631 0.0538672368
55299670.0 0.8507721254 -0.0933993494 6.52837e-05 0.0001916648 2.56703e-05 2.82412e-05 -0.8293025372 0.0641073816
60299640.0 0.8497949941 -0.1009509247 -5.20712e-05 -4.51687e-05 7.70467e-05 7.7414e-06 -0.8305519608 0.073935295
65299610.0 0.8482759803 -0.1100926898 -0.0001476433 6.90878e-05 0.0001168783 0.0001285752 -0.8319847397 0.0842726002
70299580.0 0.8476749642 -0.1185311521 -7.4695e-06 3.64898e-05 -0.0001627757 -3.14228e-05 -0.8320872192 0.0941939744
75299550.0 0.8463290185 -0.1265409107 -6.1507e-05 -0.0001678095 -0.000157208 -1.27958e-05 -0.8322620232 0.1044857879
80299520.0 0.8444271287 -0.1347584783 0.0001594718 -0.0001253784 -5.06215e-05 9.0601e-06 -0.8321197781 0.1136409832
85299490.0 0.8433129211 -0.1422841697 -0.0001147317 -5.13562e-05 -0.0001528045 -0.0001109982 -0.8316795432 0.1236155106
90299460.0 0.8420628583 -0.1509837596 -4.43291e-05 -0.000111158 9.12108e-05 -7.7758e-06 -0.830884983 0.1332382031
95299430.0 0.8404346996 -0.1591311105 -3.6085e-06 -5.15396e-05 9.95587e-05 0.0001927093 -0.8295302234 0.1430782735
100299400.0 0.838452399 -0.1670578736 0.0001973718 -1.062e-07 -5.95782e-05 9.23e-08 -0.8283072327 0.1521936516
105299370.0 0.8372630946 -0.175193586 6.81979e-05 -0.0001269346 -4.5096e-05 0.0001968411 -0.8271645518 0.1609656652
110299340.0 0.8351641289 -0.1839638353 2.20411e-05 -0.0002700235 0.0002119117 8.6041e-05 -0.8256220932 0.1707811859
115299310.0 0.8335154932 -0.1918012061 -0.0001196687 -4.73426e-05 -3.97254e-05 0.0001695666 -0.8240906046 0.1798531871
120299280.0 0.831642463 -0.2000539052 4.11104e-05 -0.0002123724 0.0001770905 -5.65074e-05 -0.8223769723 0.1889261264
125299250.0 0.8294343298 -0.2087361793 0.0001051332 6.54152e-05 9.02578e-05 -3.91326e-05 -0.8209207461 0.1975703506
130299220.0 0.827624733 -0.2162874645 -5.986e-05 5.12195e-05 -0.0001656119 0.0002562616 -0.8189033538 0.2069984198
135299190.0 0.8254503533 -0.2236054825 5.41449e-05 -3.11e-06 0.0002074587 1.23399e-05 -0.8162618945 0.2157241276
140299160.0 0.8232226888 -0.2320691039 -0.0001014513 -0.0001235146 -0.0002150465 -0.0001808441 -0.8147630964 0.2248578707
145299130.0 0.8204860474 -0.2403338374 -1.90631e-05 -0.0001741575 6.414e-06 -8.57248e-05 -0.8121191722 0.233925774
150299100.0 0.8185805162 -0.2483156449 -6.81301e-05 0.0001580913 0.0002111659 -5.82305e-05 -0.8107585287 0.2430925544
155299070.0 0.815535868 -0.2561466452 -3.99e-05 -2.89087e-05 -0.0001697327 -6.10737e-05 -0.8075014993 0.2518038062
160299040.0 0.8129185945 -0.2639655606 6.77028e-05 0.000191607 0.0001175263 -0.0001427749 -0.805210003 0.260650611
165299010.0 0.810563859 -0.2720306573 0.0001174632 0.0001936546 -3.87073e-05 6.12109e-05 -0.8029761265 0.2694438697
170298980.0 0.8078703653 -0.2799185805 0.0001334258 -0.0001989114 2.76419e-05 -6.58589e-05 -0.7993740186 0.2779225357
175298950.0 0.8047746688 -0.2881448635 0.000137505 0.0001434942 -6.84472e-05 5.51795e-05 -0.7968687986 0.2866656777
180298920.0 0.8020839985 -0.2956504482 -0.0002241236 0.0001530923 1.6092e-05 1.45274e-05 -0.7937206124 0.2949769261
185298890.0 0.7994636865 -0.3040451296 -1.3102e-05 7.05923e-05 -0.0002547327 0.0001663905 -0.790462098 0.3036945209
190298860.0 0.7961196025 -0.3112241293 -8.4494e-05 4.23889e-05 8.46954e-05 0.0001392716 -0.788445303 0.3122827111
195298830.0 0.7928587022 -0.3184762191 -6.21493e-05 -5.85581e-05 -9.47751e-05 4.13174e-05 -0.7849841224 0.3204047744
200298800.0 0.7892773728 -0.3262955 -5.86468e-05 0.0001043051 -8.96586e-05 0.0001395105 -0.781404763 0.3291632018
205298770.0 0.786430881 -0.3338941609 0.0002335799 0.0001739411 -7.68929e-05 -0.0001097138 -0.7774116067 0.3370899688
210298740.0 0.7829290884 -0.341515678 7.51239e-05 -1.27954e-05 -2.4331e-05 8.52265e-05 -0.7740400732 0.3463115688
215298710.0 0.7795500993 -0.350207174 -0.0001582073 0.0001352059 -8.89769e-05 0.0001975795 -0.770802785 0.3539888797
220298680.0 0.7763821878 -0.3572015957 0.0001099091 -8.38147e-05 -8.36667e-05 0.0002711086 -0.7673283276 0.3618373391
225298650.0 0.7727579171 -0.3655751783 3.47714e-05 -8.63803e-05 -1.07755e-05 0.0002372334 -0.7634735838 0.3701202404
230298620.0 0.7687709177 -0.3722363964 -2.11849e-05 -4.68149e-05 -6.95905e-05 1.78916e-05 -0.7596097776 0.3783534011
235298590.0 0.7650348878 -0.3796392944 -0.0001171785 3.32847e-05 -5.74798e-05 6.78377e-05 -0.7560752746 0.3861696231
240298560.0 0.7613992953 -0.3868749006 -4.59844e-05 1.62359e-05 7.19131e-05 -0.0001672476 -0.7515977599 0.3953181971
245298530.0 0.7577546331 -0.3950525831 2.49484e-05 -0.0001012718 -9.19469e-05 0.0001330429 -0.7480840684 0.4023364259
250298500.0 0.7533610837 -0.4017635106 -8.6499e-05 -0.000248267 4.16175e-05 0.0001759671 -0.743700716 0.4100058263
255298470.0 0.749238823 -0.4097227128 -1.88494e-05 -3.41232e-05 5.655e-07 -0.0001414209 -0.7390463349 0.4176497644
260298440.0 0.7458374203 -0.416503991 8.05328e-05 -5.61936e-05 -2.64448e-05 0.0001810865 -0.734730094 0.4258916672
265298410.0 0.7413639686 -0.4245371344 -3.60405e-05 0.0001146058 -3.42091e-05 -0.0001159659 -0.7302683228 0.4334668799
270298380.0 0.7369045011 -0.4316471347 -7.4371e-06 7.97922e-05 8.56547e-05 3.22481e-05 -0.7256070536 0.4408041534
275298350.0 0.732855878 -0.4386353977 0.0001997467 8.26916e-05 -0.0001400182 -2.07282e-05 -0.7208104371 0.4486342703
280298320.0 0.7284727345 -0.4453222152 -9.23389e-05 -8.82425e-05 4.74049e-05 -1.19935e-05 -0.7159130699 0.4559277534
285298290.0 0.724488113 -0.452893946 -0.0001873259 -2.89058e-05 1.37047e-05 -1.93755e-05 -0.7110360743 0.463606428
290298260.0 0.7201735167 -0.4596167668 -0.000197012 6.91806e-05 -3.6149e-05 1.41822e-05 -0.7060594896 0.4709283457
295298230.0 0.716120725 -0.4663942982 -7.72313e-05 -1.80759e-05 0.000125482 -8.91323e-05 -0.7012837593 0.4778212818
300298200.0 0.7121551584 -0.4746050448 7.6283e-06 0.0002614017 7.02344e-05 5.29769e-05 -0.6955341276 0.4856085379
305298170.0 0.7070351004 -0.4806413397 -0.0002801349 2.09168e-05 7.07388e-05 -9.36231e-05 -0.6903252091 0.4928641718
310298140.0 0.7027646262 -0.4885738944 5.4133e-05 -0.0002435348 0.0001882974 -0.0001736434 -0.6856290711 0.4995444817
315298110.0 0.6979875807 -0.4960151199 0.0001507926 9.65557e-05 -1.88407e-05 -1.47766e-05 -0.6803062605 0.506874874
320298080.0 0.6937270881 -0.503306116 -3.65018e-05 -9.8517e-06 -0.0002547918 0.0001571947 -0.6751233316 0.5145926007
325298050.0 0.6888510517 -0.5105903553 -0.0001039502 -8.9046e-06 -7.99537e-05 -9.81103e-05 -0.6688689487 0.5210591229
330298020.0 0.6822187017 -0.5182288897 -8.82697e-05 -0.0001838338 -9.06589e-05 -1.57531e-05 -0.6638265238 0.5283788782
335297990.0 0.6757352682 -0.5244835433 1.69614e-05 -0.0001071946 6.03915e-05 -2.84934e-05 -0.6588393194 0.5357342947
340297960.0 0.6702011336 -0.5318122584 0.0001120918 -0.0001876837 9.36191e-05 5.63439e-05 -0.6528652098 0.5422032435
345297930.0 0.6641258652 -0.5377785037 -9.21654e-05 -0.0001528987 -1.55188e-05 0.0002184976 -0.6472773181 0.5485321993
350297900.0 0.6583178866 -0.5429761044 -0.0001054276 -0.0001278061 0.0001071624 -9.4231e-06 -0.6415143656 0.5553603954
355297870.0 0.6537224004 -0.549627855 7.80034e-05 -2.38844e-05 5.6033e-05 -0.0001233857 -0.6357548852 0.5613486775
360297840.0 0.6480108632 -0.5556949909 8.67663e-05 -1.22615e-05 0.0001040983 7.5147e-05 -0.6293699792 0.5684934555
365297810.0 0.64183222 -0.562249518 0.000316969 -2.85267e-05 2.2661e-06 -2.17582e-05 -0.6233876464 0.5752220613
370297780.0 0.6363441558 -0.5682376232 -0.000262015 -3.186e-07 -8.636e-07 2.12209e-05 -0.6177639293 0.5816295258
375297750.0 0.6298221802 -0.5739895053 0.0001785795 -5.57284e-05 -0.0001757042 9.80675e-05 -0.6120010402 0.5875002328
380297720.0 0.6245877084 -0.5802686645 4.90028e-05 9.8844e-06 -6.98343e-05 -0.0002075146 -0.6061171817 0.5938750802
385297690.0 0.6185188548 -0.5862955564 6.13133e-05 -1.22631e-05 -0.0001243267 0.0002363083 -0.5992066543 0.6007227732
390297660.0 0.612612631 -0.5919041029 -6.4085e-05 0.0002384808 -5.54486e-05 -0.0001407652 -0.5934808647 0.6064273158
395297630.0 0.6068391731 -0.5975725214 0.0001253275 0.0001291395 -0.0002271167 9.89215e-05 -0.5865398652 0.6128794849
400297600.0 0.6012664684 -0.6035343349 -1.70035e-05 -0.0001708686 -7.84809e-05 -0.0002274824 -0.5807032755 0.6189637989
405297570.0 0.594932571 -0.6091475608 -1.35616e-05 0.0002375081 8.23874e-05 -6.37116e-05 -0.5742742795 0.6246964495
410297540.0 0.5888818333 -0.615251201 9.96534e-05 4.726e-06 -0.0001604755 0.0001276081 -0.5674262091 0.630381716
415297510.0 0.5827631029 -0.6211192165 0.0001141391 -3.06288e-05 2.25411e-05 9.55619e-05 -0.5612613521 0.6361141139
420297480.0 0.5763438079 -0.6261731912 0.0001797584 -2.09469e-05 4.93514e-05 7.78088e-05 -0.5541533347 0.6419477389
425297450.0 0.5704079301 -0.6323032488 -6.9917e-05 -0.0001083983 -1.68706e-05 -0.0001348815 -0.5482694898 0.6476269467
430297420.0 0.5639803762 -0.6375512813 0.0001456149 -0.0001353733 0.0002491069 -7.08612e-05 -0.541369663 0.6524688756
435297390.0 0.558279867 -0.6430294623 -0.0001759838 -9.99668e-05 0.0001018645 0.000139409 -0.5339187108 0.658166506
440297360.0 0.5516160183 -0.6485686172 -0.0001302269 -0.0001876208 -0.0001205813 1.99849e-05 -0.5274390628 0.6638276226
445297330.0 0.5449237807 -0.6537737741 3.1492e-06 4.10228e-05 4.94465e-05 9.29862e-05 -0.5203610196 0.6685852684
450297300.0 0.5385419884 -0.658900246 -7.94623e-05 3.20139e-05 -0.0001375153 -3.7864e-05 -0.5132858082 0.6738579397
455297270.0 0.5316823374 -0.6642980583 -1.17878e-05 -0.000183119 0.0001074108 1.14558e-05 -0.5064258629 0.6783410412
460297240.0 0.5252188343 -0.6696851378 2.60055e-05 -9.22519e-05 2.0959e-06 0.0001249816 -0.4998195083 0.6841645221
465297210.0 0.5184488671 -0.6744030801 -3.75832e-05 2.08529e-05 -2.32918e-05 3.43187e-05 -0.491922066 0.6890223647
470297180.0 0.5113443938 -0.6787050427 -0.0002109226 1.0827e-06 -0.0001964186 -0.0002798022 -0.4846111109 0.6941560691
475297150.0 0.5051783267 -0.6840046404 -0.000115337 -2.7834e-05 -9.3273e-06 -0.0001270179 -0.4777381813 0.6989212124
480297120.0 0.4981492994 -0.6888422663 3.02143e-05 -0.0002439657 4.54969e-05 0.0001209458 -0.4705781407 0.7038392801
485297090.0 0.4910993997 -0.6937023421 0.0001010102 0.0001175752 -8.29864e-05 -3.13299e-05 -0.4633319809 0.7083831759
490297060.0 0.484156236 -0.6980593104 -0.0001356 -6.72374e-05 -9.35911e-05 2.05965e-05 -0.4560749999 0.7124632258
495297030.0 0.4774242504 -0.7032444524 5.2772e-05 -0.0001946611 4.1867e-05 -0.0001889261 -0.4491255099 0.7176747439
500297000.0 0.4698628777 -0.7083317208 -0.0002653121 -0.0001131414 2.00646e-05 1.2083e-06 -0.4411187677 0.7221984029
505296970.0 0.463584146 -0.7122781984 0.0001053022 7.45723e-05 5.22304e-05 -5.03356e-05 -0.43381969 0.726711358
510296940.0 0.4558925568 -0.7174445043 3.83263e-05 -8.0419e-05 -0.0002460233 -6.03411e-05 -0.4263398372 0.7305187909
515296910.0 0.4492265392 -0.7207713782 4.4922e-06 -7.12629e-05 -5.25119e-05 6.55827e-05 -0.4190613559 0.7345915263
520296880.0 0.4416016409 -0.7259014756 0.0001188461 -0.0001721127 6.47092e-05 -9.65516e-05 -0.4111997803 0.7390700372
525296850.0 0.4349345882 -0.730391843 2.4509e-06 -3.46629e-05 -1.18607e-05 6.78551e-05 -0.4042002265 0.7438873982
530296820.0 0.4270453422 -0.7338238845 0.0001410182 -0.0002179055 -0.0001230412 -7.84864e-05 -0.3965666323 0.7480778932
535296790.0 0.4202342239 -0.7380213794 0.0001180458 3.82218e-05 -0.0001661992 1.33185e-05 -0.3894268562 0.7512797833
540296760.0 0.4126278332 -0.7419478086 -3.62928e-05 -0.000103951 -5.05264e-05 -3.41419e-05 -0.3814139894 0.7550529764
545296730.0 0.4049998871 -0.7459705293 -8.3736e-05 -4.01168e-05 -9.98535e-05 0.0002102583 -0.3735511159 0.7594140042
550296700.0 0.3983755519 -0.749239439 0.0002187576 -5.84918e-05 -5.12369e-05 0.000182212 -0.3662017425 0.763249499
555296670.0 0.3899494154 -0.7537301765 8.656e-06 -1.92596e-05 0.000101375 0.0001058151 -0.3579839883 0.7669858395
560296640.0 0.3828616202 -0.7568290487 0.0002739958 1.92297e-05 0.0001366517 -0.000112877 -0.3505424804 0.7703844532
565296610.0 0.375074252 -0.7605001734 -5.84379e-05 9.93038e-05 -0.0002604815 4.53476e-05 -0.3424530063 0.7731999971
570296580.0 0.3676123045 -0.7643959635 6.79809e-05 -4.97261e-05 8.37938e-05 -5.28791e-05 -0.3351168226 0.777916206
575296550.0 0.3600421753 -0.7674239678 9.39914e-05 0.000153377 2.37431e-05 3.63741e-05 -0.3269076065 0.7810017593
580296520.0 0.3523582986 -0.7712374188 1.75206e-05 -6.6715e-06 -6.93797e-05 4.87659e-05 -0.3184289318 0.7837754556
585296490.0 0.344084242 -0.7747407616 0.0001318625 4.50019e-05 7.64204e-05 0.0002098207 -0.3102159295 0.7871394871
590296460.0 0.3369734745 -0.7769630571 -0.0001325192 0.0001962533 6.54698e-05 -4.41278e-05 -0.303154237 0.7899066752
595296430.0 0.3286686828 -0.7811652706 -0.0001051052 -0.0001418672 -0.000189608 5.22458e-05 -0.2949919476 0.7927217977
600296400.0 0.3206540536 -0.7843120519 -0.000255139 1.46731e-05 0.0001036806 0.0001417291 -0.2868694204 0.7956317651
605296370.0 0.3131517194 -0.7870672746 -0.0001237209 -1.06693e-05 1.26199e-05 -2.18404e-05 -0.2784131749 0.798764271
610296340.0 0.3054659808 -0.7899941471 0.0001413716 0.0001489841 9.45874e-05 -3.76395e-05 -0.2707269648 0.8012460098
615296310.0 0.2978279446 -0.7932438772 -1.69159e-05 9.22997e-05 0.0003268826 -0.0001747845 -0.2621063519 0.8034576683
620296280.0 0.28962812 -0.7958533797 0.0001942415 1.57e-07 8.77324e-05 -2.128e-06 -0.2545399505 0.8063839069
625296250.0 0.2822342766 -0.7986840767 -9.90939e-05 4.96699e-05 7.17904e-05 0.0001162416 -0.2453632643 0.8078995374
630296220.0 0.2741547368 -0.8006774037 0.0001260102 -0.0002647141 -0.0002491586 -6.71794e-05 -0.2374647332 0.8108341704
635296190.0 0.2662042508 -0.803786215 -7.2874e-06 0.0001531356 -0.0001256843 0.0001427005 -0.2294483456 0.8125092832
640296160.0 0.2577567032 -0.8064988432 0.000182587 0.0001066645 -0.0001759314 -0.0001212826 -0.2213872526 0.8157054123
645296130.0 0.2498149589 -0.8085974424 -0.0002202711 -9.56823e-05 0.0001037051 -0.0001004867 -0.2136615181 0.8175689448
650296100.0 0.2417659998 -0.8103932644 -9.25313e-05 0.0001238338 9.47477e-05 4.26181e-05 -0.2050225561 0.8189126467
655296070.0 0.2331564417 -0.8139075948 2.1668e-06 0.0001285454 1.37701e-05 -0.0001207732 -0.1961655394 0.8211481564
660296040.0 0.2256963409 -0.8156787994 0.0001518498 0.0001604917 -5.69626e-05 6.07762e-05 -0.1878383883 0.8231628361
665296010.0 0.217325016 -0.8175204714 0.0001791387 -0.0001498468 0.0001069223 -0.0002102781 -0.1796096214 0.8256316064
670295980.0 0.2091373313 -0.8191122042 -0.0002464441 0.0001232878 9.34169e-05 5.92159e-05 -0.172174468 0.8271048133
675295950.0 0.2011122618 -0.8208990431 3.09469e-05 -7.28829e-05 -1.06787e-05 3.24881e-05 -0.1638425873 0.8292303863
680295920.0 0.1929184883 -0.8224787389 0.0001590304 3.95634e-05 -0.0001880923 9.55587e-05 -0.1546043113 0.8309679191
685295890.0 0.1848287084 -0.8246806936 0.0002596367 -6.76816e-05 7.35817e-05 -0.0001855311 -0.1464588618 0.8313402571
690295860.0 0.1762636421 -0.825892686 -4.70333e-05 9.91084e-05 3.86412e-05 -6.12656e-05 -0.1387229843 0.8329508633
695295830.0 0.1678623825 -0.8276168439 0.0001456915 0.0001134543 0.0001737695 -3.01824e-05 -0.1297905081 0.8344616299
700295800.0 0.1600098804 -0.8295985729 0.0002460679 -0.0001572746 4.03726e-05 0.0001435001 -0.1220268884 0.8361482807
705295770.0 0.1510036181 -0.8305930179 -9.07372e-05 -6.74512e-05 -3.62673e-05 2.61545e-05 -0.1137402901 0.8381327841
710295740.0 0.1425860155 -0.8317462926 -9.80883e-05 -0.0001038545 -0.0001260911 3.69674e-05 -0.1053966006 0.8386858513
715295710.0 0.1347396972 -0.8337362955 8.1503e-06 1.25813e-05 -9.34364e-05 0.0001221083 -0.0967793363 0.8393216568
720295680.0 0.1269729617 -0.8349382001 -7.29505e-05 4.4185e-05 -3.0887e-05 -2.86856e-05 -0.0882559497 0.8405604336
725295650.0 0.1181858456 -0.8352360128 0.000300583 2.43648e-05 9.027e-06 -0.0002697175 -0.0804233397 0.842190595
730295620.0 0.1097282382 -0.8365449191 0.0001076448 -5.2487e-05 4.03816e-05 5.64433e-05 -0.071895775 0.8423003243
735295590.0 0.101421067 -0.836681779 3.0751e-06 0.0001099516 -0.0002094404 0.0001539137 -0.0634454059 0.8424244603
740295560.0 0.0932196158 -0.8376167366 -0.0001233163 0.0001029088 -5.85991e-05 0.0001563949 -0.0543110166 0.844017492
745295530.0 0.0850045289 -0.83862699 -0.0002060279 7.21204e-05 5.374e-07 9.45096e-05 -0.0463406097 0.8437840998
750295500.0 0.0760138472 -0.839377817 -0.0002102094 0.0002304274 -5.44115e-05 5.93568e-05 -0.0382659248 0.8446571372
755295470.0 0.0671209629 -0.8401038087 6.57678e-05 -5.50997e-05 -0.00010518 5.21896e-05 -0.0298314886 0.8443486309
760295440.0 0.0591147532 -0.8403320449 6.86924e-05 -0.0001556284 5.15034e-05 1.84997e-05 -0.0211464401 0.8445496891
765295410.0 0.0510900459 -0.841180161 -0.0002565684 -0.000135009 -0.0001575327 0.0001487242 -0.0126208668 0.8448422869
770295380.0 0.0424510311 -0.8412196306 0.0001124199 -0.0001763107 0.0001866121 -0.0001475122 -0.0044900417 0.8447658136
775295350.0 0.0336346822 -0.8417633772 -8.98242e-05 1.42625e-05 -5.73837e-05 6.81091e-05 0.0032959627 0.8446322328
780295320.0 0.0258184747 -0.8411689842 6.65408e-05 -0.0001257144 0.000126053 -0.0001246058 0.0119894228 0.8441732093
785295290.0 0.0168026076 -0.8422993037 -5.96615e-05 0.0001241435 0.000163684 -0.0001395646 0.0209076991 0.8440377718
790295260.0 0.0085756389 -0.8415537884 -1.50458e-05 4.69221e-05 1.25071e-05 -4.36091e-05 0.0303358825 0.8444137767
795295230.0 0.0005442367 -0.8411943326 4.2266e-06 0.0001947392 -4.05627e-05 -0.0001580704 0.0382514849 0.8430873882
800295200.0 -0.0081417059 -0.8414248484 0.0001627659 0.0002650935 -0.0001292705 1.4846e-05 0.0469083403 0.8429595554
805295170.0 -0.0167478428 -0.841362836 -0.000185704 -0.0001891583 -7.28113e-05 4.77647e-05 0.0545031555 0.8427342837
810295140.0 -0.0242095713 -0.8407313244 -0.0002236809 -7.19671e-05 -9.68064e-05 9.62794e-05 0.0632346245 0.8418047691
815295110.0 -0.0330791516 -0.8407311878 0.0001082292 0.0003603894 7.94665e-05 1.74541e-05 0.07177948 0.8412326959
820295080.0 -0.0415560881 -0.839734347 0.0001651214 1.36148e-05 -0.0001365115 -0.0001959193 0.0799744922 0.8407052885
825295050.0 -0.0489140501 -0.8396231714 2.9938e-05 0.0001686548 -9.87488e-05 -0.0001764137 0.0886770772 0.8401070577
830295020.0 -0.0581265659 -0.8386650905 9.3486e-06 -8.04537e-05 -0.0001127668 6.25205e-05 0.0971152744 0.8391641562
835294990.0 -0.0664223519 -0.8380306652 0.0001956068 4.23839e-05 1.3616e-05 0.0002413442 0.1047403844 0.8380459172
840294960.0 -0.0751802701 -0.8371215304 4.218e-06 -0.0001158256 -4.98679e-05 -0.0001204125 0.1133406577 0.8365933279
845294930.0 -0.0832672412 -0.8360760527 -0.0003005518 0.0002979276 3.20089e-05 -9.99614e-05 0.1213546061 0.8350776363
850294900.0 -0.0908207789 -0.8346618163 7.04519e-05 -9.32961e-05 6.57092e-05 2.11129e-05 0.1296870842 0.834381541
