!Created with skrf (http://scikit-rf.org).
# Hz S RI R 50.0 
!freq ReS11 ImS11 ReS21 ImS21 ReS12 ImS12 ReS22 ImS22
300000.0 -0.7768259033 -0.1824945106 -0.0002564345 -0.0004706202 -8.71295e-05 0.0003582148 0.8598451519 -0.0021134145
5299970.0 -0.7860251214 -0.0095006821 -2.45427e-05 -6.51413e-05 0.000159474 -7.933e-05 0.8595257415 -0.0103338628
10299940.0 -0.7898610862 -0.0061272317 -9.65926e-05 9.7126e-06 -0.0001289418 -6.27427e-05 0.858095659 -0.0189979495
15299910.0 -0.7943351096 -0.0034824577 -9.05112e-05 -2.39223e-05 0.0001409553 9.63659e-05 0.8571591846 -0.0277892352
20299880.0 -0.8009665362 0.0006487493 6.34468e-05 -7.2718e-06 9.13727e-05 1.77458e-05 0.8567350544 -0.0359372882
25299850.0 -0.8077909454 0.0065692844 -7.92389e-05 -0.0001740349 -1.76099e-05 2.69051e-05 0.8556434774 -0.0437709294
30299820.0 -0.8137037473 0.0139622908 6.11391e-05 -9.1411e-06 4.89471e-05 -6.37349e-05 0.8554221367 -0.0525403892
35299790.0 -0.8189269402 0.022698081 -3.36751e-05 -6.66386e-05 1.75219e-05 -6.62599e-05 0.8544832201 -0.0613885634
40299760.0 -0.8238600954 0.0323180272 -8.5124e-06 0.0001109922 -2.4521e-05 -3.51731e-05 0.8537566769 -0.068827761
45299730.0 -0.8265800255 0.0420275333 -0.0001989166 -0.0001973838 5.54851e-05 0.0001664201 0.852273055 -0.0772796957
50299700.0 -0.8293226586 0.0516862209 -9.17998e-05 2.07558e-05 1.42752e-05 2.385e-06 0.8520833456 -0.0852995607
55299670.0 -0.8316025764 0.0613896337 -0.0001995162 -6.7743e-06 2.4325e-06 0.0003340332 0.8505440274 -0.0935653405
60299640.0 -0.8326905966 0.0719579371 -0.0001227437 -3.34823e-05 -8.97025e-05 0.0001155117 0.8499601739 -0.1022897894
65299610.0 -0.8334343644 0.0819499116 6.24332e-05 -2.58538e-05 -8.01809e-05 -0.0001295994 0.8492249759 -0.1107718847
70299580.0 -0.8337700003 0.0915294443 0.0001061993 -7.26973e-05 -0.000143053 8.67247e-05 0.8476307321 -0.1185752817
75299550.0 -0.834164762 0.101730138 -0.000161302 -6.78523e-05 6.00618e-05 8.0949e-05 0.8460465963 -0.1273503646
80299520.0 -0.8338104612 0.1119551291 -0.0001568763 -8.84426e-05 0.0001916845 -5.49294e-05 0.8452613829 -0.1353020871
85299490.0 -0.8327798821 0.1214421542 -0.0001464594 5.68498e-05 0.0001460107 -7.65982e-05 0.8441510186 -0.1434666786
90299460.0 -0.832106563 0.1315677953 -7.16972e-05 0.0001931556 -0.0001169261 -0.0001150732 0.8420359692 -0.1516107219
95299430.0 -0.8315567088 0.1405044309 3.70881e-05 -6.36363e-05 -8.75253e-05 -5.80135e-05 0.8406021198 -0.1597634294
100299400.0 -0.8302937037 0.1500851805 4.97148e-05 0.000116986 -3.47377e-05 -5.47452e-05 0.838922623 -0.1675871509
105299370.0 -0.8286798689 0.1597453356 4.73791e-05 9.82259e-05 0.000210856 0.000118041 0.8377514161 -0.1763003962
110299340.0 -0.8277282422 0.1680700158 3.55597e-05 -2.255e-06 5.87592e-05 -0.0001282201 0.8354337002 -0.1852985012
115299310.0 -0.8260887419 0.1779206228 -0.0002798606 4.17749e-05 0.0001001047 2.15485e-05 0.8336555789 -0.1925527426
120299280.0 -0.8245672458 0.1866421287 7.215e-06 2.67618e-05 6.26672e-05 -0.000168624 0.8316724062 -0.2007218366
125299250.0 -0.8221295329 0.1953220725 -0.0001181971 -6.97295e-05 -0.000126264 5.82575e-05 0.8295084513 -0.2089671187
130299220.0 -0.8207158413 0.2053354164 0.0001323688 7.5978e-06 0.0001188419 -0.0001194436 0.8275070381 -0.2166585968
135299190.0 -0.8192636696 0.2141571649 -2.49815e-05 7.19975e-05 2.2225e-05 -0.000206579 0.8254628827 -0.2253831558
140299160.0 -0.8174800414 0.2231379154 0.0001278798 4.41373e-05 0.0001243136 5.92665e-05 0.8231530646 -0.2330713307
145299130.0 -0.8145798877 0.2324000425 0.0001376058 -4.49824e-05 -0.0001503082 6.3688e-06 0.820706733 -0.241887362
150299100.0 -0.8119145515 0.2408801817 0.000101978 5.63648e-05 -4.76347e-05 0.0001819474 0.8180129051 -0.2492386032
155299070.0 -0.810509468 0.250198149 3.46381e-05 1.72522e-05 -0.0001155391 -9.933e-07 0.8163821186 -0.2577859382
160299040.0 -0.8073671536 0.2590247836 -2.96092e-05 5.40784e-05 5.14788e-05 -2.07259e-05 0.813440016 -0.2653863038
165299010.0 -0.8047185815 0.2672596417 7.64679e-05 5.62767e-05 -3.39628e-05 -4.37097e-05 0.8108257703 -0.2729311787
170298980.0 -0.8011671253 0.2762261033 0.0001487857 -2.25618e-05 -0.0001002764 -0.0001174164 0.8073574189 -0.2810415253
175298950.0 -0.7987546728 0.2846004521 0.000126447 -8.13443e-05 1.57114e-05 -0.0001440755 0.8051096151 -0.2890700252
180298920.0 -0.7961828432 0.2934789864 -0.0001005045 0.0001583651 -6.35863e-05 -3.37018e-05 0.8023045778 -0.2970093899
185298890.0 -0.7928201539 0.3022334252 -0.0001555195 0.0001283296 2.12952e-05 1.12813e-05 0.7990572001 -0.3042897421
190298860.0 -0.7895897609 0.311497645 -0.0001592596 -6.3208e-06 -2.19011e-05 4.97009e-05 0.7957782889 -0.3128353063
195298830.0 -0.7862270059 0.319221742 -6.64778e-05 0.000135991 8.81223e-05 -6.71234e-05 0.7929385385 -0.320309772
200298800.0 -0.7828497045 0.3275910214 -3.54507e-05 -8.65586e-05 -0.0001109361 9.85968e-05 0.7894906859 -0.3280384153
205298770.0 -0.779154059 0.3361961378 -1.01168e-05 -0.0003009378 0.000139824 1.29459e-05 0.7863848692 -0.3361717401
210298740.0 -0.7761555862 0.3446444401 4.19492e-05 6.93179e-05 -7.53041e-05 7.69007e-05 0.7829629229 -0.3434257024
215298710.0 -0.7724101709 0.3533011395 -6.74641e-05 -0.0001011659 5.05713e-05 -2.6743e-05 0.7794848059 -0.3513799343
220298680.0 -0.7684864435 0.3609388917 -1.20807e-05 -8.02154e-05 -0.0002194203 -1.8739e-05 0.7757677585 -0.3584192551
225298650.0 -0.7648509097 0.3695796759 -0.0001149146 -1.52744e-05 0.0001078412 6.3259e-05 0.771840948 -0.3668219329
230298620.0 -0.7609987001 0.3778639697 1.69124e-05 0.0002096309 -9.72998e-05 -0.0001484483 0.7688189961 -0.3731438698
235298590.0 -0.7569804055 0.3860732047 1.44486e-05 0.0001032236 1.15155e-05 -0.0001201808 0.7649111741 -0.3810615839
240298560.0 -0.7526849212 0.393787131 5.7611e-06 9.66308e-05 -2.9083e-05 -5.03036e-05 0.7614250281 -0.3886257491
245298530.0 -0.7486986301 0.4019217271 5.055e-05 -0.0001015178 2.03193e-05 0.0001645872 0.7571229626 -0.3957867332
250298500.0 -0.7445346291 0.40911779 2.39917e-05 -5.32454e-05 -4.2497e-05 -2.74811e-05 0.7533059845 -0.4032612678
255298470.0 -0.7403195253 0.4174604606 0.0001492965 0.0001820711 8.2459e-05 9.4184e-06 0.7496096378 -0.4108189642
260298440.0 -0.7362261195 0.4250826774 0.0001482258 1.80148e-05 -0.000124331 1.61691e-05 0.7450992341 -0.4183017776
265298410.0 -0.7318323332 0.4328648683 -0.0001077284 -0.0001324214 0.0001833395 7.7172e-06 0.741130641 -0.4252100912
270298380.0 -0.7270243148 0.4405034073 0.0001028867 -5.53601e-05 5.44925e-05 -0.0001741598 0.7372777174 -0.4325836556
275298350.0 -0.7231073204 0.4481645207 -0.000201341 0.0001990677 -1.58017e-05 -0.0002199941 0.7322650255 -0.4399761279
280298320.0 -0.7181071972 0.455374355 9.71302e-05 -0.0001454242 9.12914e-05 2.92409e-05 0.7285796007 -0.4464538455
285298290.0 -0.7134388243 0.4634918903 -7.7106e-05 -2.47238e-05 3.09482e-05 5.6216e-05 0.7244114269 -0.4540507657
290298260.0 -0.7091874484 0.4711303 9.60527e-05 1.0238e-05 -6.64098e-05 6.58969e-05 0.7204853164 -0.4608148994
295298230.0 -0.7038391206 0.4778114311 1.2877e-05 0.0002182552 -1.01404e-05 5.06241e-05 0.7156309541 -0.4680261075
300298200.0 -0.6993700575 0.4858122694 -8.3676e-06 7.92352e-05 1.55214e-05 -6.72044e-05 0.7112861237 -0.4752955932
305298170.0 -0.694435216 0.4923909174 0.0001438479 0.0001630349 -0.0001346309 -0.0002040005 0.7061976174 -0.4822196665
310298140.0 -0.6886476076 0.4995449673 -0.0001454325 -6.07443e-05 -0.0001175298 5.89204e-05 0.7025385759 -0.4894823969
315298110.0 -0.6844616325 0.5070519632 5.95324e-05 0.0001035565 7.63936e-05 0.0002451652 0.6977696036 -0.4967242799
320298080.0 -0.6794174406 0.5146672644 9.12275e-05 -9.75415e-05 0.0001193418 4.21428e-05 0.6925607759 -0.5043591586
325298050.0 -0.6732636661 0.5208737572 3.35611e-05 9.70741e-05 0.0001171727 -7.54579e-05 0.6871283671 -0.5118788444
330298020.0 -0.6681132371 0.5281343481 -3.70799e-05 -9.69781e-05 9.39542e-05 -3.43557e-05 0.682232507 -0.5194134743
335297990.0 -0.6625637231 0.5348347958 -0.000258722 -1.84385e-05 0.0001383754 0.000138191 0.6755414958 -0.5260120358
340297960.0 -0.6578184055 0.5417492125 1.54382e-05 0.0001462189 6.41362e-05 7.63998e-05 0.6700959263 -0.5322744574
345297930.0 -0.651945713 0.5483249007 -0.0001217634 -0.0002213458 -6.90065e-05 0.0001506624 0.6643712286 -0.5389453434
350297900.0 -0.6467627789 0.555163464 -4.2246e-05 0.0002525798 7.08072e-05 0.0002067345 0.658444672 -0.5453580001
355297870.0 -0.6409506207 0.5615804635 -2.88038e-05 -5.4112e-06 -1.40361e-05 4.00684e-05 0.6530986162 -0.551457855
360297840.0 -0.6343932369 0.5681544044 9.08421e-05 -0.0001280869 -4.59412e-05 4.34914e-05 0.6465857096 -0.5574155707
365297810.0 -0.6292827024 0.574252784 -0.0001934297 -0.0001077164 -6.1476e-05 0.0001915761 0.6414278453 -0.5636258599
370297780.0 -0.6230588192 0.5805906486 3.85979e-05 0.0001539797 -0.0001497803 -2.87992e-05 0.6354717084 -0.5700139431
375297750.0 -0.6184558238 0.5868365042 -0.0001476123 9.458e-07 8.99243e-05 0.0001450719 0.6299472677 -0.5756937517
380297720.0 -0.6118575276 0.5932728405 -9.98351e-05 -4.82861e-05 0.0001776325 2.93842e-05 0.6244764844 -0.5816638598
385297690.0 -0.6061144578 0.5994328211 -7.67724e-05 -4.81183e-05 2.71112e-05 7.04203e-05 0.617715538 -0.5878566994
390297660.0 -0.5986273938 0.6056317371 0.0001678421 5.68343e-05 2.52707e-05 -0.0002045089 0.6123484169 -0.5933372972
395297630.0 -0.5930307515 0.6122091056 0.0001254674 2.20945e-05 0.0001012868 1.71208e-05 0.6062393542 -0.5992179108
400297600.0 -0.5868906187 0.6184737405 -3.24424e-05 0.0001611255 7.19533e-05 8.60949e-05 0.6006572525 -0.6049245319
405297570.0 -0.5810939329 0.6232456388 1.16094e-05 -1.73115e-05 8.29083e-05 -7.3236e-05 0.5940367419 -0.6110795396
410297540.0 -0.5738307489 0.6302761195 -7.21394e-05 -9.364e-05 0.0002342424 -0.0001173437 0.5876395344 -0.616973503
415297510.0 -0.5674027026 0.6360288982 0.000226883 -3.24329e-05 -0.0001539517 -9.13494e-05 0.5820112487 -0.6223151927
420297480.0 -0.5609606866 0.6414488355 7.50786e-05 1.86683e-05 9.991e-06 0.000123538 0.5763828531 -0.6272161544
425297450.0 -0.5543400288 0.6467904536 -2.71971e-05 4.79061e-05 0.0001476709 1.68804e-05 0.5704970869 -0.63375097
430297420.0 -0.5476216027 0.6516493553 0.0001646698 0.0001731298 0.0001096837 4.40039e-05 0.5635582744 -0.6395874017
435297390.0 -0.5410787099 0.6575049648 -0.0002067675 0.0001781661 -0.0001634163 -1.29106e-05 0.5568573977 -0.6443559561
440297360.0 -0.5342841148 0.6629682927 5.01573e-05 -5.04445e-05 -7.299e-07 -7.1686e-05 0.550516534 -0.6494275204
445297330.0 -0.5272368112 0.6681225828 7.24528e-05 -0.0003390263 -7.90643e-05 -0.0001170579 0.5438751438 -0.6542972688
450297300.0 -0.5201970486 0.6739329124 2.84467e-05 -4.59847e-05 -2.38575e-05 8.93335e-05 0.5376616 -0.6597720646
455297270.0 -0.5135641274 0.6780602211 0.0002202328 0.0001036136 0.0001322387 -9.04403e-05 0.5309057479 -0.6653037623
460297240.0 -0.5060639933 0.6846055474 -0.0001106658 0.0001336713 -0.0001244183 -3.75733e-05 0.5242405375 -0.6707399198
465297210.0 -0.4994457392 0.6893601193 -0.00014726 6.3776e-06 6.78439e-05 -6.91115e-05 0.5179983582 -0.6750865472
470297180.0 -0.491935422 0.6938667493 0.0001046457 3.64629e-05 -4.7749e-05 9.33641e-05 0.5110539004 -0.6800504103
475297150.0 -0.4847861623 0.6985231662 7.58238e-05 3.84395e-05 -0.000113577 2.92772e-05 0.5045182706 -0.6850857775
480297120.0 -0.476771665 0.7042552747 -9.07377e-05 0.0001464688 0.0001875905 -8.62807e-05 0.4969070724 -0.6902845237
485297090.0 -0.4699085558 0.7083438888 -7.88759e-05 -5.04359e-05 0.0001148521 -0.000142874 0.4905178844 -0.6952941392
490297060.0 -0.4619287626 0.7137962949 -1.01449e-05 -4.1368e-06 2.38776e-05 -0.0001003228 0.4835195529 -0.6996354744
495297030.0 -0.4550337701 0.7176935054 -3.00184e-05 -0.0002316603 -7.12868e-05 -1.72252e-05 0.4766402054 -0.7043733469
500297000.0 -0.4471198588 0.7222465449 -0.0002225231 -0.0002213603 0.0001151737 0.0001479226 0.4697366729 -0.709052084
505296970.0 -0.43920313 0.7266555368 -0.0001523862 -0.0001073649 6.78917e-05 -2.52923e-05 0.4622138325 -0.7137378654
510296940.0 -0.4320627798 0.7313612521 0.0002070678 0.0001597064 1.66687e-05 -7.24579e-05 0.4550575333 -0.7173326906
515296910.0 -0.4242169429 0.7353500068 -2.39359e-05 0.0001477569 -0.000101427 -0.000105598 0.4480294583 -0.7227417089
520296880.0 -0.4162089726 0.7397058324 4.01267e-05 -4.98672e-05 -2.12834e-05 -6.8523e-05 0.4414749986 -0.7264068077
525296850.0 -0.4085109188 0.7437543901 2.19235e-05 3.06549e-05 0.0001210518 0.000265941 0.4340280858 -0.7310770914
530296820.0 -0.4011010594 0.7484496935 -0.0001593052 7.5228e-06 0.0002079212 -6.15014e-05 0.4268760989 -0.7350166651
535296790.0 -0.3930167673 0.7517550421 -0.0001016178 9.9415e-05 -0.0001051119 1.67727e-05 0.4194132642 -0.738475369
540296760.0 -0.38488188 0.7559182388 -0.0001290077 1.95103e-05 5.6464e-05 6.19718e-05 0.4119931917 -0.743016696
545296730.0 -0.377447332 0.7605223643 0.0001395464 -4.82503e-05 -4.11775e-05 -9.22518e-05 0.4046401161 -0.7473036651
550296700.0 -0.3695103942 0.7638641402 -0.0002026888 -8.13957e-05 -9.01375e-05 2.71668e-05 0.3967361248 -0.7506089006
555296670.0 -0.3611805405 0.7674989209 -0.0001079603 -0.0001481312 1.26669e-05 -0.0001837644 0.3893979559 -0.7550283783
560296640.0 -0.3531143653 0.7706327408 4.03144e-05 0.00018569 -0.0001062642 4.93942e-05 0.3821296478 -0.7585773476
565296610.0 -0.3455881233 0.7744079309 -8.35107e-05 -9.18089e-05 -1.50026e-05 3.24685e-05 0.3748652702 -0.7621414057
570296580.0 -0.3372278123 0.7778158959 -4.77496e-05 -0.000306882 -7.19006e-05 -2.83633e-05 0.366876799 -0.7660354164
575296550.0 -0.3286710508 0.7810272948 -2.0798e-06 0.0001565792 1.2764e-06 -0.0001792511 0.3596031176 -0.769261869
580296520.0 -0.3211288128 0.7846244897 6.21303e-05 -4.33032e-05 2.52303e-05 -0.0001849998 0.3511865341 -0.7726295882
585296490.0 -0.3124431529 0.7874529687 3.6211e-05 0.0003237108 -0.0001087354 -0.0001598286 0.3440403912 -0.7756546857
590296460.0 -0.3035968677 0.791098598 6.32941e-05 -4.56594e-05 -3.04667e-05 4.56762e-05 0.3355167862 -0.7790480986
595296430.0 -0.2961089022 0.7940136998 7.62577e-05 0.00025425 -4.59034e-05 -7.58824e-05 0.3287996542 -0.7819278197
600296400.0 -0.2882683756 0.7964938928 -1.65121e-05 2.44392e-05 7.30726e-05 -6.05133e-05 0.3204705303 -0.7854590719
605296370.0 -0.2797072143 0.7995847203 0.0001752885 0.0001160757 2.56569e-05 -0.0001765933 0.3126152953 -0.7880356158
610296340.0 -0.2713050344 0.8027093606 4.62299e-05 0.0003122448 2.4658e-05 -4.40823e-05 0.3042895428 -0.7913752874
615296310.0 -0.2632876915 0.8056042693 0.0001965139 0.0001694925 -4.74327e-05 -6.71859e-05 0.2964278125 -0.7940634204
620296280.0 -0.2547688517 0.808303748 0.0002939213 0.0003465206 -3.76022e-05 4.98026e-05 0.2887978099 -0.7972065396
625296250.0 -0.2473875332 0.8103260778 0.0001791207 -0.0001409765 1.01932e-05 -0.0002319032 0.2803613835 -0.8001734929
630296220.0 -0.2387928366 0.8134424639 -0.0001098425 0.0001023921 -7.98822e-05 0.0001533625 0.2729306238 -0.8021893206
635296190.0 -0.2302038738 0.8153518455 0.000217636 -0.0001088619 0.0002221581 1.05662e-05 0.264934912 -0.8042257065
640296160.0 -0.2218692534 0.8181030857 0.0002667763 -5.25623e-05 0.0001487788 -8.23335e-05 0.2562705022 -0.8068359969
645296130.0 -0.2138823357 0.8204412185 -9.46973e-05 -0.0001541437 0.0001795146 -2.35392e-05 0.2485199724 -0.8093752072
650296100.0 -0.2051261663 0.8221962953 1.0192e-06 -4.23482e-05 -0.000161065 -0.0002236308 0.2401652207 -0.8117923116
655296070.0 -0.1970184227 0.8247346299 0.0001060698 0.0001130282 8.7252e-06 0.0002164751 0.2325730526 -0.814129664
660296040.0 -0.188915759 0.8261950992 1.7779e-05 0.000101379 0.0002542499 0.000169052 0.2244837847 -0.8165971342
665296010.0 -0.1805439367 0.8286929374 -1.87134e-05 -0.0001178456 0.0001039946 6.3881e-06 0.2167673528 -0.8180087852
670295980.0 -0.1723647691 0.8303938044 -9.87528e-05 0.0001397521 4.49889e-05 6.27778e-05 0.2079121153 -0.8199906294
675295950.0 -0.1636623629 0.831731217 -0.0001903785 7.30248e-05 -3.26974e-05 -0.0001454354 0.1996601585 -0.8219245001
680295920.0 -0.1564603601 0.8340320486 -3.7418e-05 0.0001276246 0.0001068365 -0.0001039843 0.1914461159 -0.8239923266
685295890.0 -0.1479920937 0.8359885009 -4.63741e-05 0.0001386478 1.17595e-05 0.0001427669 0.1835409347 -0.8256604056
690295860.0 -0.1389667395 0.8369779021 -0.000179035 -0.0002238981 9.49302e-05 -3.27957e-05 0.1745259214 -0.8276058316
695295830.0 -0.1301765409 0.8384592208 3.3056e-05 -2.4812e-06 2.47902e-05 7.46679e-05 0.16736452 -0.8290312775
700295800.0 -0.1223104698 0.8397096872 3.45068e-05 -0.0001049918 -4.52617e-05 3.8589e-06 0.1584538978 -0.8299059304
705295770.0 -0.1146664913 0.8413981333 4.87614e-05 -0.0001072637 1.2676e-05 8.02076e-05 0.1497902605 -0.831603677
710295740.0 -0.1071137672 0.8422443003 0.0001765556 -0.0001648733 -3.2772e-06 7.52371e-05 0.1428986794 -0.8331339234
715295710.0 -0.0983255411 0.8436353297 4.89125e-05 9.20484e-05 -0.0001285122 -7.42837e-05 0.1338149728 -0.834828395
720295680.0 -0.088883955 0.8441444574 1.20064e-05 -5.45477e-05 4.0497e-06 -0.0001449908 0.1256641573 -0.8354360147
725295650.0 -0.0814522487 0.8452639356 7.66859e-05 3.03501e-05 -0.000173715 2.5927e-05 0.1175149894 -0.8360107403
730295620.0 -0.0733388738 0.8469295234 -0.0001761064 -0.0001371341 -0.0002096231 -0.0001000956 0.108569043 -0.8374156173
735295590.0 -0.0656525235 0.8475248352 -0.0001439116 -0.0001374115 -0.0001021829 -6.89248e-05 0.1008129742 -0.8384497116
740295560.0 -0.0575728047 0.8472322923 0.0002359286 4.79508e-05 -4.04366e-05 4.42514e-05 0.0922525448 -0.8385013744
745295530.0 -0.0488842069 0.8487625553 7.57474e-05 7.9609e-06 6.64506e-05 0.0001957728 0.0832892502 -0.839644854
750295500.0 -0.0407408642 0.8492317242 2.72819e-05 -6.60801e-05 -2.85377e-05 -0.0001519278 0.0751474664 -0.8402773073
755295470.0 -0.031938074 0.8498515118 3.05374e-05 4.79638e-05 1.96835e-05 -0.0001390948 0.0665161245 -0.8401251508
760295440.0 -0.0236769732 0.8508205264 -0.0001219983 -3.00079e-05 6.52196e-05 5.25923e-05 0.0588791708 -0.8412631764
765295410.0 -0.0159987447 0.8509122278 6.46424e-05 0.0002461898 0.0001367635 -0.000119737 0.0502020393 -0.841394232
770295380.0 -0.0082271823 0.851183438 -3.72582e-05 -2.63828e-05 -3.04925e-05 -3.11316e-05 0.0425535898 -0.8420050832
775295350.0 0.0001908185 0.8515479979 4.73691e-05 -0.0002314422 0.0001262352 -4.41501e-05 0.0338556339 -0.842276874
780295320.0 0.0084033339 0.8511944746 -9.12491e-05 -0.0002325744 2.40472e-05 -4.9724e-05 0.0253607797 -0.84262945
785295290.0 0.0169126657 0.8511993951 -7.34078e-05 4.99357e-05 6.75112e-05 0.0001446985 0.0160268144 -0.8420901787
790295260.0 0.0249920042 0.8509220803 -1.63614e-05 0.000118776 0.0001785678 3.82896e-05 0.0086834879 -0.8425213561
795295230.0 0.0334949247 0.8504585267 -0.0002060113 -1.50398e-05 -5.69775e-05 -8.29276e-05 -0.00044334 -0.8431980159
800295200.0 0.0409219533 0.850792672 4.18241e-05 0.0001426704 -9.06738e-05 0.0001352704 -0.0088983034 -0.8425499082
805295170.0 0.0493882574 0.8509235962 3.54763e-05 -0.0001054531 -9.32972e-05 -9.11088e-05 -0.0162071062 -0.8422103848
810295140.0 0.0576219339 0.8505039112 -0.0001876827 -9.49817e-05 -1.9095e-05 6.6578e-06 -0.0253180698 -0.8417079052
815295110.0 0.065101253 0.8494549323 -2.58304e-05 -0.0001231675 -1.59071e-05 0.0001040073 -0.0340805393 -0.8409876703
820295080.0 0.0737495059 0.8490106127 9.90153e-05 9.08471e-05 -5.41255e-05 9.61181e-05 -0.042368362 -0.8399487285
825295050.0 0.0821511369 0.8478857099 0.0001851674 9.41929e-05 3.25556e-05 6.65278e-05 -0.0505852719 -0.8401943569
830295020.0 0.0908345447 0.8474446951 -2.93612e-05 -7.54938e-05 -7.16028e-05 0.0001742789 -0.0589200728 -0.8397585124
835294990.0 0.0974984479 0.8468073173 0.0001637938 -8.95003e-05 0.000153659 -4.65891e-05 -0.0674864611 -0.8382980141
840294960.0 0.1067276213 0.8452917374 0.0001495667 -3.3834e-06 -1.94334e-05 -5.99318e-05 -0.0758080622 -0.8371246929
845294930.0 0.1152038896 0.8446457628 -1.08846e-05 4.88809e-05 5.7842e-06 -5.91374e-05 -0.0839942903 -0.8364871498
850294900.0 0.1246136804 0.8435757509 0.0002241694 9.40132e-05 -2.44825e-05 7.53485e-05 -0.0921983994 -0.8352856385
