!Created with skrf (http://scikit-rf.org).
# Hz S RI R 50.0 
!freq ReS11 ImS11 ReS21 ImS21 ReS12 ImS12 ReS22 ImS22
300000.0 -0.7740486501 -0.1486987143 0.0007273187 -0.0008992482 -0.0001596838 0.0002891163 0.8604251639 -0.0024713085
5299970.0 -0.7852977095 -0.0072304066 0.0002395051 0.0001079107 0.0001517193 3.15035e-05 0.8586825269 -0.010816932
10299940.0 -0.7875901398 -0.0039329967 0.0001905247 -2.95229e-05 -0.0001125221 0.000101762 0.8584663927 -0.0189194966
15299910.0 -0.7937015347 -0.0015189551 -8.3e-06 -0.0001410185 0.0001874604 -0.0001258276 0.857416682 -0.0270523992
20299880.0 -0.799578894 0.0022384883 8.6256e-06 -0.0001577078 0.0001001555 -0.0001772277 0.8569909235 -0.0357590294
25299850.0 -0.8064269566 0.0081008774 -5.35074e-05 -7.69551e-05 9.9774e-06 -9.99459e-05 0.8553828685 -0.0436532373
30299820.0 -0.8120250809 0.016426058 -8.80935e-05 1.88073e-05 2.73962e-05 -0.0001744571 0.8549738625 -0.0521981662
35299790.0 -0.8167475022 0.0248916991 3.01073e-05 -1.1242e-06 1.88794e-05 -7.69272e-05 0.8542716734 -0.0605442564
40299760.0 -0.8216679609 0.0340620515 4.96267e-05 0.000166477 -2.2664e-06 -0.0001314652 0.8538058634 -0.0685290625
45299730.0 -0.8246359219 0.0443679727 9.29149e-05 -8.00625e-05 -0.000107049 -3.70204e-05 0.8528394374 -0.0768035041
50299700.0 -0.8267786917 0.0541685695 1.31484e-05 1.76045e-05 0.0001187407 6.76686e-05 0.8519024009 -0.0851999144
55299670.0 -0.8287610717 0.0641886604 -8.01366e-05 0.0001543604 -0.0001079166 4.27277e-05 0.8504228944 -0.0934129594
60299640.0 -0.829746601 0.0744762582 -0.0002160615 -0.0001892685 4.60503e-05 -8.6162e-06 0.8501673947 -0.1015300055
65299610.0 -0.8309780336 0.0852697508 -7.36807e-05 0.0001236501 -1.87506e-05 5.26806e-05 0.84860185 -0.1103326518
70299580.0 -0.831330983 0.094412503 6.09941e-05 7.2968e-06 0.0001044795 2.31254e-05 0.8476540086 -0.1185092071
75299550.0 -0.8314441571 0.1045058139 -0.000312982 6.7962e-05 -4.66025e-05 1.72746e-05 0.8470033597 -0.1268122963
80299520.0 -0.8315899508 0.1145927868 -0.0001188587 0.0001389576 0.0001244828 -9.58241e-05 0.8451305778 -0.1343185299
85299490.0 -0.8312695595 0.123921343 4.88075e-05 -0.0001237778 0.0001995007 -0.0001642756 0.8440356557 -0.1423646011
90299460.0 -0.8294874778 0.1338675455 8.99061e-05 -0.0001951058 2.78557e-05 -1.79566e-05 0.8420128084 -0.1513350473
95299430.0 -0.8285252426 0.1434124343 -5.1691e-06 -7.85777e-05 2.77244e-05 -5.7116e-05 0.8405507183 -0.1591681738
100299400.0 -0.8277901393 0.1527137352 2.53917e-05 -6.76646e-05 3.44392e-05 4.67577e-05 0.8388904344 -0.1673014994
105299370.0 -0.8264509251 0.1619892008 -5.90008e-05 -4.05064e-05 4.18238e-05 5.42671e-05 0.8374503248 -0.1756100137
110299340.0 -0.8254810918 0.1714212433 -8.48988e-05 3.56876e-05 -3.5921e-06 -7.15368e-05 0.8355322403 -0.183250802
115299310.0 -0.823169679 0.1805418886 4.10285e-05 0.0001641086 4.23538e-05 0.0001151357 0.8336192867 -0.192097327
120299280.0 -0.8216335136 0.1896036807 0.0001556297 3.103e-06 -7.15115e-05 -7.80425e-05 0.831643355 -0.1998179691
125299250.0 -0.8203028906 0.198161437 0.0002707404 2.9276e-05 0.0001889742 -0.0001003518 0.8296093182 -0.2086542246
130299220.0 -0.8186731361 0.2072027709 -0.000113129 2.22353e-05 -8.00179e-05 -0.0001616937 0.8278382552 -0.216209216
135299190.0 -0.8166793871 0.2162609521 -4.49914e-05 -0.0002056777 2.61523e-05 0.0002476432 0.8259193816 -0.2243406731
140299160.0 -0.8148804112 0.2256853012 -0.0001552117 -8.38132e-05 0.0003841007 -5.74545e-05 0.8231219547 -0.2318232084
145299130.0 -0.8116561272 0.234354433 -0.0003828793 4.728e-07 -6.1595e-05 -0.0001806067 0.8205394642 -0.2407024339
150299100.0 -0.8097167556 0.2427260636 0.0001407956 -9.42963e-05 7.33862e-05 8.5817e-05 0.8180075763 -0.2484692943
155299070.0 -0.8075655446 0.2522769982 7.85987e-05 5.4129e-06 0.0002257593 6.00044e-05 0.8160036152 -0.2560834052
160299040.0 -0.8049665571 0.261555927 0.0001968141 0.0001012979 -5.79254e-05 0.000147181 0.8134128155 -0.2641601398
165299010.0 -0.8022968626 0.269055222 -5.05674e-05 -5.8185e-06 -0.0002955846 5.75184e-05 0.8110850292 -0.2726855996
170298980.0 -0.799379901 0.2781201794 5.55298e-05 0.0001407464 0.0001278753 -0.0001608336 0.8081334652 -0.2801708563
175298950.0 -0.7968442844 0.2869706351 8.63e-08 6.46977e-05 3.74606e-05 0.0001276883 0.8048273783 -0.288041779
180298920.0 -0.7933303863 0.2950850683 -7.6536e-06 -2.41428e-05 -4.25429e-05 -0.0003166852 0.802332366 -0.2958842206
185298890.0 -0.7909037867 0.3041919175 0.0001193612 7.15482e-05 -0.0001083986 0.0001222143 0.7993527517 -0.3042030133
190298860.0 -0.7875800053 0.3124143018 -8.85422e-05 -0.0001835754 -0.0001141704 5.75679e-05 0.7969180896 -0.3113090213
195298830.0 -0.7840649041 0.3207984012 1.279e-06 -2.98509e-05 -0.0001201502 -7.71183e-05 0.7937625939 -0.3192315156
200298800.0 -0.7809869751 0.3289943351 -0.0001551381 -2.83077e-05 -5.30571e-05 -2.9019e-06 0.7901073217 -0.3272666777
205298770.0 -0.7771522548 0.3368819991 -3.13708e-05 5.06493e-05 -7.0478e-05 5.50669e-05 0.7869502005 -0.3347880971
210298740.0 -0.7733172054 0.3458312215 -2.8823e-06 -0.0001553604 -0.0001012611 2.95531e-05 0.7840451688 -0.3420907181
215298710.0 -0.7699609878 0.3541592956 5.17571e-05 0.0002111116 0.0001147525 -9.6607e-06 0.7802966622 -0.3498449614
220298680.0 -0.7669820505 0.362021376 -0.0001523631 -4.53867e-05 4.60616e-05 -7.93837e-05 0.7772677341 -0.3564676022
225298650.0 -0.7631749853 0.37088825 -6.02487e-05 -7.16853e-05 5.61314e-05 -0.0001416028 0.7725837499 -0.3649236575
230298620.0 -0.7589711712 0.3784132274 7.35264e-05 -7.63295e-05 3.1688e-06 1.19301e-05 0.7699355094 -0.3722324371
235298590.0 -0.7550918672 0.386791136 -0.0001100942 0.0001067471 -6.33133e-05 -1.4157e-06 0.7663222913 -0.3796225351
240298560.0 -0.7508939722 0.3951861504 0.0001815949 0.0001169067 0.0002985925 -0.0001062609 0.7626444792 -0.3873231829
245298530.0 -0.746519444 0.402884154 6.86743e-05 -7.76421e-05 1.67379e-05 2.3388e-05 0.7583507984 -0.3940226023
250298500.0 -0.7424451698 0.4102799778 0.0001477383 2.2513e-05 0.0001223887 -0.0001088006 0.7546812132 -0.4016157158
255298470.0 -0.73802488 0.4186720452 -2.64324e-05 9.41544e-05 -4.2055e-05 -0.0001519534 0.7516407626 -0.4090684993
260298440.0 -0.7334847301 0.4261185371 6.98136e-05 0.0001045589 3.55382e-05 4.11398e-05 0.7468742927 -0.4161866666
265298410.0 -0.7295544437 0.4342834995 0.0002359162 -0.0001458581 8.72466e-05 6.37505e-05 0.7431896568 -0.4239587543
270298380.0 -0.7244039379 0.4414524182 6.8549e-06 -0.0001589194 -7.58874e-05 0.0001029861 0.7393296504 -0.4301793519
275298350.0 -0.7195063192 0.4488779648 -7.4981e-06 -2.14189e-05 0.0002491037 -0.0001002899 0.7344324856 -0.4373700489
280298320.0 -0.7153152487 0.4564878139 0.0001054567 6.46252e-05 0.0002209623 -8.24777e-05 0.7312787291 -0.4448504392
285298290.0 -0.7100020791 0.4643770894 -8.08513e-05 -0.000230686 5.48822e-05 0.0002619102 0.727186371 -0.4512592967
290298260.0 -0.7058593808 0.4718072374 0.0001128985 -0.0001581638 -0.000159469 -3.56938e-05 0.7227226549 -0.4589151034
295298230.0 -0.7006355094 0.4791200991 5.21987e-05 -0.0001379775 -4.4804e-05 4.02894e-05 0.7183660463 -0.4656525815
300298200.0 -0.6952102906 0.4866059802 4.1547e-06 0.0001208336 4.29867e-05 -3.08292e-05 0.7138446493 -0.4730001918
305298170.0 -0.6907890411 0.4944775794 -0.000150294 2.11435e-05 0.0001131955 2.17669e-05 0.7106088347 -0.4796150548
310298140.0 -0.684596888 0.5003976437 0.0001052872 1.96036e-05 -0.0001452604 9.7035e-06 0.7061193757 -0.4867752086
315298110.0 -0.679724242 0.5080582161 -2.90455e-05 0.0001223077 -9.42326e-05 -0.0001158403 0.7011855797 -0.4938740458
320298080.0 -0.6743142951 0.5158069518 -0.0001023725 -9.09656e-05 -2.7566e-05 4.23957e-05 0.6964715149 -0.5016375835
325298050.0 -0.6685037129 0.5221330429 -0.0002030743 -5.67141e-05 -8.45302e-05 -0.0001770849 0.6911645354 -0.5092352777
330298020.0 -0.6628278657 0.5293351173 4.32573e-05 9.36698e-05 -9.59733e-05 -3.76639e-05 0.6860065986 -0.5166517551
335297990.0 -0.6572824073 0.5358648696 0.000194639 3.99924e-05 -7.13515e-05 5.37543e-05 0.6806746319 -0.5233785209
340297960.0 -0.6526252308 0.5426325028 -4.07277e-05 4.5713e-06 -7.29945e-05 9.66742e-05 0.6743898108 -0.5295681565
345297930.0 -0.6463051134 0.5485626158 -0.000182789 -0.0001281375 3.48503e-05 -6.52332e-05 0.6688107083 -0.5353866954
350297900.0 -0.6406097339 0.5560663097 -5.94097e-05 -0.0001085335 6.59447e-05 -5.71053e-05 0.6640314054 -0.5415542942
355297870.0 -0.6345838758 0.5623850828 8.51059e-05 3.55546e-05 -8.31589e-05 0.0002027757 0.6579068016 -0.5479365235
360297840.0 -0.6284806551 0.5688440376 0.0001425301 -3.36534e-05 3.3793e-06 1.28122e-05 0.6523845798 -0.5537558574
365297810.0 -0.6222206068 0.5758884971 -2.3476e-06 0.0001215489 2.75491e-05 -0.0001968464 0.6472814068 -0.5603508261
370297780.0 -0.6163461169 0.5815503803 0.0001260598 2.38957e-05 6.09554e-05 -1.40353e-05 0.6415221958 -0.5659726557
375297750.0 -0.6099177973 0.5879600773 -6.27713e-05 7.08602e-05 -0.0001376223 -0.0001164416 0.6363796249 -0.5718446492
380297720.0 -0.6046071878 0.5950384195 -6.09022e-05 -0.0001334196 -6.18993e-05 -2.97636e-05 0.6303872789 -0.5775792285
385297690.0 -0.5976569997 0.6006706713 -2.25686e-05 -3.73856e-05 0.000156074 6.97156e-05 0.6245407081 -0.5834023327
390297660.0 -0.5910437007 0.6072900428 0.0001092643 8.41374e-05 -0.0001597097 4.90026e-05 0.6194284821 -0.5896966216
395297630.0 -0.5850728682 0.6129886557 0.0001559242 -2.59081e-05 -4.31099e-05 0.000118023 0.613538607 -0.5948788246
400297600.0 -0.5790133782 0.6194127939 -7.68409e-05 -6.2905e-06 9.50215e-05 -0.0001399968 0.6073201551 -0.6011684348
405297570.0 -0.5721555898 0.6247440117 5.955e-07 -4.70028e-05 -0.0001072447 -0.0001056972 0.6021497185 -0.6069706763
410297540.0 -0.5658998488 0.6305156074 0.0001106343 0.0001687999 0.0003176308 0.0001394809 0.5957111524 -0.6125930483
415297510.0 -0.5594906962 0.6362288455 -9.11839e-05 -0.0002357317 0.0002547009 1.03472e-05 0.5895624992 -0.6180700348
420297480.0 -0.5520261444 0.6415609445 -3.78912e-05 -4.76967e-05 8.4716e-05 8.48948e-05 0.5832604084 -0.62420863
425297450.0 -0.546009156 0.6479662865 0.0001099662 -8.39525e-05 -3.20152e-05 7.61535e-05 0.5772899065 -0.6291568445
430297420.0 -0.5392453209 0.6533772659 8.05593e-05 -3.72331e-05 1.9277e-06 2.8391e-06 0.5720302014 -0.6348210473
435297390.0 -0.5321258884 0.6596147757 2.80854e-05 -1.41338e-05 0.0001041366 -3.56627e-05 0.5649604675 -0.639913618
440297360.0 -0.5256927767 0.6643416181 -2.08346e-05 2.13988e-05 0.0001530815 0.0003148134 0.5588516449 -0.645543366
445297330.0 -0.5186564141 0.6699864564 0.000136508 -1.17737e-05 -0.0001013959 6.07961e-05 0.5526021737 -0.6516087468
450297300.0 -0.5110864326 0.6740848021 3.10286e-05 -7.7903e-06 -4.9645e-06 9.46694e-05 0.5457581502 -0.6565237389
455297270.0 -0.5042405064 0.6799737695 -0.0001706702 -3.69217e-05 -0.0001597076 -2.96211e-05 0.5392714575 -0.6619961332
460297240.0 -0.4980758747 0.6855934782 8.4126e-05 -0.0002418284 -7.64885e-05 0.0001263213 0.5339487468 -0.6665767823
465297210.0 -0.4903149423 0.6906692553 -0.0001228691 0.0001158317 -6.81637e-05 -0.0001103247 0.5266532277 -0.6718838322
470297180.0 -0.4830133485 0.6948250481 -0.0001437205 -0.0001417752 -2.8408e-06 5.78522e-05 0.5196435125 -0.6771377587
475297150.0 -0.4759257574 0.6998354928 0.0002081988 0.0001884027 3.34897e-05 5.40452e-05 0.5133001391 -0.6820358375
480297120.0 -0.4690295117 0.7042045667 2.1395e-06 -0.0002218812 -0.0001474254 -0.0001559006 0.5055525 -0.6867724257
485297090.0 -0.4616042185 0.7092589693 2.3769e-05 -0.0001081722 -0.0001275708 0.0001093587 0.4995748001 -0.6916837524
490297060.0 -0.4542116509 0.7140904181 0.0001909862 2.8607e-06 -8.04905e-05 6.1813e-05 0.492482043 -0.696482782
495297030.0 -0.4470726689 0.7183774181 -8.79762e-05 9.98666e-05 -2.53026e-05 -2.91805e-05 0.4859198127 -0.7012470997
500297000.0 -0.4385184186 0.723090008 -2.90602e-05 -0.000125727 0.0001736911 0.0001488165 0.4784197736 -0.7063517552
505296970.0 -0.4312262383 0.7274097316 -8.04417e-05 7.80733e-05 -4.6188e-06 -1.23742e-05 0.4713533874 -0.7106133529
510296940.0 -0.424655906 0.7319354825 8.47673e-05 3.51845e-05 4.81264e-05 0.0001088711 0.4640975704 -0.7143261983
515296910.0 -0.4172696995 0.7359164689 -0.0001763764 -0.0001215349 -0.0003279509 -3.56023e-05 0.4570638653 -0.7188551852
520296880.0 -0.4090896031 0.7405467058 -0.0001375006 0.0001176161 -0.0001102861 -0.0002152861 0.4498888941 -0.7241802301
525296850.0 -0.401848688 0.7439729581 3.0342e-05 -0.000230274 0.0001365614 -3.77948e-05 0.442932931 -0.7277883296
530296820.0 -0.3947648202 0.7481512635 5.2186e-06 -7.11458e-05 -4.36023e-05 0.0001477189 0.4352349248 -0.7321031337
535296790.0 -0.3862932132 0.7522989194 0.0002047907 0.0002065836 -0.0001602938 -0.0001038923 0.4280662614 -0.7374824958
540296760.0 -0.3781750878 0.7558907573 -7.4142e-06 0.000122057 -1.541e-05 -7.33089e-05 0.4201796791 -0.7403351147
545296730.0 -0.3712941097 0.7597056445 6.25656e-05 9.23124e-05 -5.27836e-05 -0.0002256361 0.4133319694 -0.7447758117
550296700.0 -0.363176025 0.763355765 -4.45048e-05 7.85126e-05 -4.34245e-05 9.24266e-05 0.4057926216 -0.7491612564
555296670.0 -0.3548669657 0.7672764312 0.0001629148 0.0001471673 6.44402e-05 -0.0001004832 0.3983422413 -0.7524136699
560296640.0 -0.34707691 0.7709685154 -2.79002e-05 -0.0001034307 7.42277e-05 3.39696e-05 0.3906008555 -0.7563624722
565296610.0 -0.3400561748 0.7740006198 -1.04771e-05 -0.0001195233 4.55123e-05 -1.18926e-05 0.3829828472 -0.7603513929
570296580.0 -0.3319737438 0.7771073399 9.41806e-05 8.28219e-05 -3.28662e-05 -1.75748e-05 0.3751417188 -0.7635211756
575296550.0 -0.3234208478 0.7806421483 -3.97541e-05 -1.69896e-05 6.43384e-05 3.92674e-05 0.3679450361 -0.7673061287
580296520.0 -0.3159487909 0.7839625774 -3.2178e-06 0.0001446668 1.73083e-05 3.73764e-05 0.3594620954 -0.7706501977
585296490.0 -0.3077341953 0.7862873998 2.25505e-05 1.0401e-05 -0.000112499 2.3978e-05 0.3526495029 -0.7745311633
590296460.0 -0.2997678003 0.7899864964 3.73575e-05 -2.24846e-05 0.0001486593 -3.39183e-05 0.3447169432 -0.7771857531
595296430.0 -0.2913140191 0.7933468276 9.6876e-06 -3.94344e-05 0.0002112456 -1.87118e-05 0.3361419833 -0.7811716023
600296400.0 -0.2841763995 0.7953794218 6.1818e-05 -0.0001120835 -7.00207e-05 -4.47513e-05 0.3286974217 -0.7835626421
605296370.0 -0.2755949824 0.7985016551 3.79357e-05 3.93158e-05 4.40385e-05 -7.666e-05 0.3207897663 -0.7871528158
610296340.0 -0.2678022015 0.8013216649 0.0001325807 0.0003290547 0.0002615562 -4.69439e-05 0.3124609019 -0.7898533738
615296310.0 -0.2590644123 0.804225511 -0.0001114767 1.30949e-05 0.0001919688 3.77299e-05 0.3050201563 -0.7938372991
620296280.0 -0.2509475975 0.806349508 0.000145703 5.85156e-05 -8.47569e-05 9.44617e-05 0.2973453357 -0.7966931192
625296250.0 -0.2430837569 0.809467122 -6.39273e-05 6.1564e-06 -0.0001046363 8.83483e-05 0.2886697718 -0.7983393282
630296220.0 -0.234546257 0.8116284746 -3.06409e-05 -0.0001329733 0.0001151102 -8.8242e-06 0.2813056442 -0.8014029492
635296190.0 -0.2264875069 0.8140452902 0.0001690527 0.0001080956 -0.0002150663 0.0001122106 0.273105928 -0.8038594544
640296160.0 -0.2183591067 0.8152218911 -0.0001217905 6.8817e-05 0.000127222 -2.21451e-05 0.2646911106 -0.8068026878
645296130.0 -0.2097680005 0.8178180621 -5.23809e-05 -3.30558e-05 -0.0001569168 -0.0001285848 0.256765947 -0.8095183739
650296100.0 -0.2021338415 0.8203395572 -1.5513e-06 -5.86843e-05 0.0002605787 4.60108e-05 0.2484915643 -0.8114368346
655296070.0 -0.1932785553 0.8220432771 -5.15855e-05 -4.16106e-05 -7.94257e-05 -0.0001279256 0.2406015062 -0.8135911922
660296040.0 -0.1856393546 0.8239916224 -0.0002417999 -0.0001063005 1.1581e-06 -0.0001117475 0.2323907257 -0.8158743074
665296010.0 -0.1771563812 0.826092428 2.372e-07 -7.21242e-05 -3.54648e-05 8.40808e-05 0.224695235 -0.8180839247
670295980.0 -0.1681821662 0.8271671417 4.72428e-05 -8.77694e-05 -4.61731e-05 -0.0003401056 0.2166619297 -0.820094774
675295950.0 -0.1603249945 0.828794013 -1.83054e-05 0.0001053276 0.0001791187 -9.56142e-05 0.2081569043 -0.8218243344
680295920.0 -0.1520998732 0.8306027945 -2.4565e-06 0.000325831 -0.0001249843 8.4232e-05 0.1998330954 -0.8243634635
685295890.0 -0.1434518063 0.8319582835 5.38497e-05 0.0001638279 -9.64502e-05 -3.82901e-05 0.1922023126 -0.8261164248
690295860.0 -0.1347239402 0.8335773124 -3.26781e-05 -2.07441e-05 7.4986e-06 -0.0001843118 0.1837268306 -0.8275034968
695295830.0 -0.1260782354 0.8338965499 -4.43282e-05 -0.0001014418 -7.37397e-05 0.0001412584 0.1748756022 -0.829183568
700295800.0 -0.1181380246 0.8353065024 1.82362e-05 -0.0001255725 -0.0001301473 1.5628e-05 0.1668747775 -0.8307020567
705295770.0 -0.1094419423 0.8376826895 0.0001428334 -0.0001210594 0.0002705527 0.0002095131 0.1585340747 -0.8314906642
710295740.0 -0.1017799793 0.8379710045 -0.000223722 0.0001297886 4.84266e-05 -0.000260095 0.1496897218 -0.832961677
715295710.0 -0.0934027547 0.8391371801 -0.0001027439 -3.03032e-05 0.0001625476 -1.32655e-05 0.1417989407 -0.8351492927
720295680.0 -0.0844924279 0.8401164206 0.0001058215 0.0001137697 0.000189236 5.46866e-05 0.1337685065 -0.8356368287
725295650.0 -0.0755381437 0.8406452093 -3.43403e-05 -6.11495e-05 -4.26321e-05 -0.0001681547 0.1252597147 -0.8371249652
730295620.0 -0.0677777688 0.840975596 2.84043e-05 -3.41245e-05 -8.7082e-05 0.0001458698 0.1170140915 -0.8385981913
735295590.0 -0.0583064391 0.8421347898 9.73454e-05 5.21947e-05 -9.2501e-06 9.39484e-05 0.1087644509 -0.8394141999
740295560.0 -0.0502009854 0.8429694371 -9.38646e-05 -0.000314911 -5.21852e-05 -0.000177227 0.1001664159 -0.8403881025
745295530.0 -0.0421493525 0.8425281645 -9.77e-05 -0.0001103662 -8.91183e-05 0.0001835945 0.0910479306 -0.8409070912
750295500.0 -0.0338161338 0.8431382138 -0.0001247309 -6.29554e-05 -8.21487e-05 -0.0001617649 0.0831266558 -0.8419392268
755295470.0 -0.0244767285 0.8433127222 -0.0001387477 8.6188e-06 -0.0001925171 -9.4107e-06 0.074193164 -0.8417934075
760295440.0 -0.0162001808 0.8436645038 2.9626e-05 8.36429e-05 -0.0002957408 -1.13975e-05 0.0663121543 -0.8429578874
765295410.0 -0.0081589621 0.844002959 6.13664e-05 -0.0001388664 -0.0001317249 -0.0001108063 0.0579224418 -0.8425619982
770295380.0 0.0004005436 0.843683018 4.70853e-05 0.0001190813 -0.0002912107 6.23307e-05 0.049828718 -0.8431345795
775295350.0 0.0085598926 0.8438911186 0.0001615323 -2.65377e-05 -0.0002750215 -3.46223e-05 0.0412620384 -0.8449476055
780295320.0 0.0178906604 0.8435897541 0.0001969719 0.0001441959 4.22094e-05 -9.1072e-05 0.0322127986 -0.8437851782
785295290.0 0.0262066017 0.8440287383 -0.0001536256 2.4912e-06 1.51746e-05 -0.0001633182 0.0247346204 -0.8438910361
790295260.0 0.0342884546 0.8427832638 -0.0001252728 -6.02261e-05 -0.000174054 -0.0001995871 0.0164729764 -0.8445099524
795295230.0 0.0424237923 0.8429553289 5.73959e-05 6.92358e-05 3.35791e-05 -4.42219e-05 0.0075459951 -0.8442088176
800295200.0 0.0510289594 0.842676327 -1.1075e-05 -2.40492e-05 1.47072e-05 7.45484e-05 -0.000806513 -0.8447163145
805295170.0 0.0598519207 0.8421987962 8.72124e-05 -6.01933e-05 0.0001228596 -0.0001177352 -0.0093842331 -0.8444680006
810295140.0 0.0680549264 0.8413996115 -0.0001514878 2.9656e-06 0.0002388538 7.1048e-06 -0.0179225385 -0.8432883314
815295110.0 0.0770240091 0.8401061767 -4.17955e-05 -7.07166e-05 9.81633e-05 -4.95379e-05 -0.0264361414 -0.8433382067
820295080.0 0.0848207159 0.8389923213 -0.0002355189 -0.0002785695 1.70727e-05 -2.71424e-05 -0.0351535248 -0.842998338
825295050.0 0.0937789808 0.8386629058 -0.0001650328 5.81563e-05 -6.42348e-05 2.35525e-05 -0.043247815 -0.8421539139
830295020.0 0.101750767 0.8378869825 5.78142e-05 -0.0001426852 -3.7794e-05 0.0001190721 -0.0521530965 -0.8419180814
835294990.0 0.1097201421 0.8373517625 -7.3067e-06 -8.00685e-05 -3.30513e-05 0.0001431913 -0.0604408252 -0.8411422495
840294960.0 0.1178870285 0.8354960247 7.179e-06 -0.0001121806 4.62415e-05 0.0001586308 -0.0688262467 -0.8391560054
845294930.0 0.1268473508 0.8345450496 -3.8287e-05 -0.0002256832 0.0001398038 -3.8732e-06 -0.0765069336 -0.8387871345
