!Created with skrf (http://scikit-rf.org).
# Hz S RI R 50.0 
!freq ReS11 ImS11 ReS21 ImS21 ReS12 ImS12 ReS22 ImS22
300000.0 -0.1015994978 -0.0703216135 0.6327654912 0.0640856271 0.6253664751 0.0649670368 -0.1037988247 -0.0761126539
5299970.0 -0.1021951243 0.0129989765 0.630459178 0.0099890995 0.6306560804 0.010487773 -0.1009665686 0.0129385256
10299940.0 -0.0973977366 0.0295018887 0.634047691 0.0149690303 0.63408826 0.0157738078 -0.0960097074 0.0304163206
15299910.0 -0.0899597414 0.04253773 0.6406217147 0.0205714107 0.6403987619 0.0205304262 -0.088595552 0.043581205
20299880.0 -0.0817547956 0.0530680851 0.648396665 0.0244397943 0.6485962954 0.0244078199 -0.0797168169 0.0542777003
25299850.0 -0.0721723922 0.062150464 0.6579695101 0.0253646534 0.6576768385 0.0255030895 -0.0698839985 0.063325616
30299820.0 -0.0622292367 0.0688031043 0.667362383 0.0245850712 0.6672559498 0.0246397278 -0.059894872 0.0699608065
35299790.0 -0.0524737985 0.0736024913 0.6770435339 0.0213895741 0.6771701791 0.0218053748 -0.0497954791 0.0748780286
40299760.0 -0.0434102082 0.0771239474 0.6861016951 0.017496713 0.6861372992 0.0177629759 -0.0403890187 0.0777415921
45299730.0 -0.0341116605 0.0792682973 0.6954341838 0.0119512346 0.6957064404 0.011873732 -0.0313986857 0.0797921236
50299700.0 -0.0257125289 0.0801942642 0.7039036902 0.0046329195 0.7036360584 0.0058057041 -0.0227083484 0.0804762923
55299670.0 -0.017672921 0.080390425 0.7111327616 -0.0032026461 0.7106470297 -0.0025630494 -0.0147855622 0.080603892
60299640.0 -0.0100121643 0.0801975946 0.717542612 -0.0115602844 0.7175740377 -0.0108670964 -0.0077858379 0.07944193
65299610.0 -0.0037362718 0.0789363986 0.7232442535 -0.0199162595 0.7228662733 -0.019602987 -0.0010261293 0.0784535057
70299580.0 0.0026906003 0.0777612034 0.7286815321 -0.0291028631 0.7286107281 -0.0295208828 0.0050246216 0.0770238057
75299550.0 0.0080330854 0.0758966721 0.7326639324 -0.0391908779 0.7330858206 -0.0387885197 0.0102674596 0.0746894863
80299520.0 0.0131072097 0.0736194418 0.7372438624 -0.0489724662 0.73723153 -0.0488761013 0.0151736985 0.0727651612
85299490.0 0.0175104989 0.0715747431 0.7400187927 -0.058346458 0.7406685744 -0.0582613524 0.0194279295 0.0700886783
90299460.0 0.0215414848 0.0691559034 0.7428207545 -0.0688086916 0.7432012734 -0.0687741814 0.0238924525 0.0680396495
95299430.0 0.0259985885 0.0666119161 0.7456837395 -0.0789077851 0.7455755958 -0.0787921872 0.0276751512 0.0655792344
100299400.0 0.0289583889 0.0649026696 0.7465671164 -0.0887983797 0.7467042845 -0.0893473806 0.0313020388 0.0625917176
105299370.0 0.0321718797 0.0622481788 0.7484138134 -0.0994925441 0.7488692228 -0.0990888507 0.0341587278 0.0607133757
110299340.0 0.0349693317 0.0597970606 0.7502113765 -0.108903073 0.7496192459 -0.1089345646 0.0359645761 0.0578821294
115299310.0 0.0373519188 0.0572602977 0.7510552689 -0.119366131 0.750453452 -0.1193094574 0.0387962289 0.0553487317
120299280.0 0.0399598586 0.0545678264 0.7513870079 -0.1290426276 0.7514244668 -0.1290108682 0.0414595544 0.0533703113
125299250.0 0.0418938334 0.0524378161 0.7516267959 -0.138941413 0.7517441512 -0.1384586788 0.0428629897 0.0504636031
130299220.0 0.0436541312 0.0505007421 0.7513301147 -0.1494071423 0.7514374353 -0.1491039649 0.044956071 0.0483385745
135299190.0 0.045415214 0.0482718518 0.7515022813 -0.1587092542 0.7513171696 -0.1585949111 0.0469296657 0.0463249465
140299160.0 0.0463892528 0.0461719038 0.7507931264 -0.1687739058 0.7508464853 -0.1686933499 0.0479886371 0.044569909
145299130.0 0.0483013215 0.0439160204 0.7501741043 -0.178113821 0.7498954159 -0.1781936388 0.0494495087 0.0421539284
150299100.0 0.0496543853 0.0422441623 0.7484857912 -0.1872388136 0.7491061729 -0.1871646446 0.0508102188 0.040247691
155299070.0 0.0501056791 0.0400837591 0.7479481249 -0.1983903639 0.7476983265 -0.1975923077 0.0518873885 0.0384190607
160299040.0 0.0520111335 0.0381875592 0.7466997219 -0.2071754687 0.7458472501 -0.207013167 0.0521190475 0.0364543563
165299010.0 0.0523836592 0.0365008511 0.7446301593 -0.2165689207 0.7452601742 -0.2167645089 0.0536255119 0.0351683262
170298980.0 0.0532437643 0.0340490095 0.7428285086 -0.2258313664 0.7432433125 -0.2259621981 0.054266382 0.0331417518
175298950.0 0.0536295862 0.0322098579 0.7414938211 -0.2349391296 0.7406814349 -0.2353749566 0.0551594501 0.0312370824
180298920.0 0.0542719401 0.0307945023 0.7387707061 -0.2447338686 0.7390306004 -0.2440831607 0.0555853037 0.0298661091
185298890.0 0.0556872428 0.0289220931 0.7368598316 -0.2535054547 0.7364872662 -0.2534593851 0.0556755935 0.0285470112
190298860.0 0.0555352667 0.0274925297 0.7342762106 -0.2630800935 0.7347323796 -0.2628630633 0.0565920315 0.0266419812
195298830.0 0.0560788516 0.0256796388 0.7324027446 -0.2719141986 0.7322137069 -0.2715294559 0.0573058138 0.0251596069
200298800.0 0.0565312322 0.0242512322 0.7286537115 -0.2812085926 0.7290785622 -0.2805999058 0.0568156318 0.0238060839
205298770.0 0.0569397873 0.0229782303 0.7259446237 -0.2898733927 0.7263750904 -0.2894655367 0.05744385 0.0216676344
210298740.0 0.0571663922 0.0212686525 0.7231798179 -0.2981964088 0.7232009938 -0.2979077091 0.0578571105 0.0213726091
215298710.0 0.0568156345 0.0196626239 0.7204120396 -0.3076590376 0.720439738 -0.307200538 0.0577782443 0.0197657451
220298680.0 0.0575596995 0.0177999569 0.7164897036 -0.3158245745 0.716973189 -0.3157027342 0.0575704396 0.0181019241
225298650.0 0.0576980353 0.0167053759 0.7138448565 -0.3244143724 0.7142462207 -0.3244280332 0.0576065468 0.016469686
230298620.0 0.058043343 0.0158120342 0.7106344767 -0.3328156447 0.7108557773 -0.3324731008 0.0576692764 0.0147575042
235298590.0 0.0579608146 0.0148724256 0.7071434365 -0.3411889863 0.7066351688 -0.3403024704 0.0578659952 0.013878777
240298560.0 0.0580490467 0.0135353308 0.7038734047 -0.3497058014 0.7033252876 -0.34950008 0.0575987916 0.0131513582
245298530.0 0.0578979843 0.0121084371 0.700593598 -0.3581479646 0.6996119956 -0.3581786333 0.0584453799 0.0110324096
250298500.0 0.058543236 0.0111354209 0.6956858237 -0.3664473834 0.6953016186 -0.3658413884 0.0580925479 0.0103252215
255298470.0 0.058366048 0.0094810743 0.6914248238 -0.3739271062 0.6914911847 -0.3739743958 0.0582851794 0.0090414701
260298440.0 0.0580183435 0.0083831098 0.6879034148 -0.382663965 0.6877239163 -0.3819775641 0.0586599609 0.0079088574
265298410.0 0.0587835454 0.007757628 0.6834385013 -0.390755733 0.6838506827 -0.390205676 0.0582696302 0.0067794602
270298380.0 0.0584691343 0.0061553941 0.6797420579 -0.3987283926 0.6799287044 -0.3983348385 0.0578905975 0.0059019676
275298350.0 0.0592351878 0.0051692395 0.6755005148 -0.4067446608 0.6754843637 -0.4063198759 0.0584909104 0.0044464578
280298320.0 0.0588377081 0.0044527374 0.6716694736 -0.414552346 0.671280897 -0.4141595861 0.0587310705 0.0036185153
285298290.0 0.0587963987 0.0030594932 0.6669402705 -0.4221241455 0.6662217101 -0.4220385482 0.0586893465 0.0024447317
290298260.0 0.0592147051 0.0023853518 0.661903591 -0.4290326774 0.6624790129 -0.4301273231 0.0588993407 0.0018759566
295298230.0 0.0590399809 0.0007206861 0.6578658432 -0.4377722858 0.6574598913 -0.4372299332 0.0593421152 0.0004177134
300298200.0 0.0583655707 -0.0002047645 0.653325426 -0.4451081019 0.653537032 -0.4455209689 0.0587464886 -0.0006969473
305298170.0 0.058756537 -0.0012360609 0.6477868033 -0.4535616024 0.6481421228 -0.452838029 0.0595833039 -0.0018124234
310298140.0 0.0585316887 -0.0023452474 0.6432122957 -0.4606942595 0.6435851085 -0.460440644 0.0594040777 -0.0030207218
315298110.0 0.0585574174 -0.0041399791 0.6379840688 -0.4686426887 0.6385123724 -0.4678332977 0.0589413153 -0.0041289701
320298080.0 0.0583875798 -0.0048231426 0.6324735414 -0.4763473082 0.6334260762 -0.4756352173 0.0587914337 -0.0053010906
325298050.0 0.0577580486 -0.0060038878 0.6276266589 -0.4834650473 0.6271542982 -0.4832598522 0.0582457768 -0.0062326784
330298020.0 0.0576374666 -0.0071273875 0.6215032009 -0.4905651382 0.6219293632 -0.4905038831 0.057611883 -0.0074654036
335297990.0 0.0571128467 -0.0085172979 0.6157960885 -0.4978093878 0.6159988509 -0.4977136998 0.0568597083 -0.0079674998
340297960.0 0.0562822835 -0.0088095082 0.609830091 -0.5051782398 0.6096847197 -0.5049246926 0.0571318582 -0.0087138108
345297930.0 0.0558224954 -0.0091863656 0.604834786 -0.5118119918 0.6043574805 -0.5121299034 0.0565883974 -0.0098143721
350297900.0 0.0552349668 -0.0109166872 0.5978182164 -0.5187514209 0.5981758404 -0.5178179317 0.0555383063 -0.0094238217
355297870.0 0.0549765907 -0.0102047929 0.5927418431 -0.5247296168 0.5929729645 -0.5248900026 0.0551701989 -0.0108386763
360297840.0 0.0548538432 -0.0116094006 0.5873104293 -0.5313376519 0.587701934 -0.5310699421 0.0551559958 -0.0109531302
365297810.0 0.0539458278 -0.0117920804 0.5810154658 -0.5384631189 0.5816417039 -0.5381309337 0.0549530294 -0.0116608957
370297780.0 0.0543479146 -0.0131482279 0.5746161484 -0.5447846305 0.5751320706 -0.5438748722 0.0543444028 -0.0122625768
375297750.0 0.0536856709 -0.013523462 0.5687761147 -0.5510161162 0.5695501512 -0.5507555398 0.0543036557 -0.0127675203
380297720.0 0.0534976488 -0.014138775 0.5629601135 -0.5576426275 0.5633599263 -0.5565941784 0.0535985971 -0.0139045766
385297690.0 0.0530129259 -0.0150406333 0.5564276964 -0.5636491434 0.5565650303 -0.5631849466 0.0534544351 -0.0141120418
390297660.0 0.0527978925 -0.0151374598 0.550779277 -0.5700464111 0.5503086461 -0.5690667962 0.0526517212 -0.0150351576
395297630.0 0.0523248217 -0.0161583098 0.5446002245 -0.5760637949 0.5441388037 -0.5763542167 0.0532168123 -0.0157718132
400297600.0 0.0519976894 -0.016637203 0.5373037826 -0.5830891461 0.5378878411 -0.5819328023 0.0524722149 -0.0159522035
405297570.0 0.0512407489 -0.0173879733 0.5310454418 -0.587975161 0.5316564896 -0.5876715235 0.0516766954 -0.0166365616
410297540.0 0.0517894623 -0.0179061433 0.5249463064 -0.5939756278 0.5255334069 -0.5938633628 0.0514736143 -0.017075517
415297510.0 0.0515299416 -0.0184598942 0.5183190762 -0.5997023937 0.5187878119 -0.5997213466 0.0513469732 -0.017980504
420297480.0 0.0510611288 -0.0190517801 0.5117873286 -0.605563203 0.5118765632 -0.6054678203 0.050469876 -0.0192576033
425297450.0 0.0502338499 -0.020297661 0.5053993499 -0.6115128224 0.5050832278 -0.6113134503 0.0493564497 -0.0188195875
430297420.0 0.0499577991 -0.0208193666 0.4982345287 -0.6160524347 0.4984444067 -0.6163974004 0.0495842745 -0.0201409092
435297390.0 0.04950183 -0.0213382961 0.4911584327 -0.6225123185 0.4911218107 -0.6225190414 0.0501565135 -0.0203430359
440297360.0 0.0493367995 -0.0215526954 0.4846325102 -0.6275038465 0.4850610073 -0.627265432 0.0490628213 -0.0215944967
445297330.0 0.0487715965 -0.0229678254 0.4777085706 -0.6330140938 0.4782815578 -0.6325927488 0.0492675257 -0.0222425797
450297300.0 0.0487499365 -0.0229418077 0.4706286613 -0.6379241084 0.4707794685 -0.6386357777 0.0486204868 -0.0229558191
455297270.0 0.0483237485 -0.0234266445 0.4634917568 -0.6431331131 0.4637910953 -0.6434330826 0.0484037643 -0.0232439365
460297240.0 0.0477586772 -0.0242839654 0.4564929593 -0.6489445883 0.4570587272 -0.6484158626 0.0479224543 -0.0234410975
465297210.0 0.0476332325 -0.0249377286 0.4497091134 -0.6538337071 0.4495132696 -0.6540462907 0.0477033649 -0.0245798539
470297180.0 0.0472021496 -0.0254996446 0.4414329764 -0.65888701 0.4425129893 -0.6585198295 0.0473148475 -0.0250151616
475297150.0 0.0469522228 -0.0262296062 0.435075827 -0.6628925563 0.4350693887 -0.6631932755 0.0471722088 -0.025918677
480297120.0 0.0462959312 -0.0261443924 0.4280112495 -0.668597974 0.4277955719 -0.6688197491 0.0471589554 -0.025835718
485297090.0 0.0456437085 -0.0269125956 0.4206334445 -0.6727413644 0.4208751795 -0.6728199054 0.0466786024 -0.0268660323
490297060.0 0.0448830447 -0.0276561439 0.4134698397 -0.6780083159 0.4131187249 -0.6768227192 0.0460461396 -0.0263191628
495297030.0 0.0447510855 -0.0277749454 0.4050053022 -0.6819582903 0.4062964348 -0.681601004 0.0455798755 -0.0275201168
500297000.0 0.0442166987 -0.0287246429 0.397354954 -0.6860629865 0.3975725901 -0.6859323532 0.0452625198 -0.0274178999
505296970.0 0.0441091082 -0.0292153379 0.3907883353 -0.6906415741 0.3900952075 -0.6905483383 0.0446556249 -0.0281744453
510296940.0 0.0431978847 -0.0295253268 0.3830269812 -0.6950719197 0.3824786685 -0.6951151509 0.0444829712 -0.0281118947
515296910.0 0.0425780836 -0.0295998003 0.3748885801 -0.6990994122 0.3747717495 -0.6988317262 0.0437736259 -0.028926422
520296880.0 0.0422454346 -0.0303873446 0.3676000124 -0.7037784752 0.3675827298 -0.7035553392 0.0433442254 -0.0294974465
525296850.0 0.0422819394 -0.0314933548 0.3589643243 -0.7078534512 0.3600580084 -0.7068382586 0.0425253673 -0.0296111428
530296820.0 0.0417330515 -0.0310262993 0.3518455087 -0.711628573 0.3520892062 -0.7111401298 0.0424330658 -0.0300623811
535296790.0 0.0405769083 -0.0316984209 0.3445133021 -0.7150047243 0.3446664813 -0.7145799296 0.0421115257 -0.0311103202
540296760.0 0.0400867147 -0.0318113292 0.3360972478 -0.7192385595 0.3361784537 -0.7188326288 0.0411470508 -0.0305560343
545296730.0 0.0399141721 -0.0325194679 0.3279416176 -0.7224587629 0.3285045683 -0.722353877 0.0405909296 -0.0313837948
550296700.0 0.0399808436 -0.0325285817 0.3200966767 -0.726027603 0.3205900184 -0.7262212345 0.039731823 -0.03151144
555296670.0 0.038930553 -0.033123928 0.3128615037 -0.7296023553 0.3127787652 -0.7292359504 0.0395227805 -0.0318081382
560296640.0 0.0386376465 -0.0333224512 0.3041044192 -0.7330907625 0.3042671459 -0.7327541687 0.0391714986 -0.0326148957
565296610.0 0.0375087155 -0.0337506844 0.2964833975 -0.7365050441 0.2966275216 -0.7361352124 0.0381340994 -0.0330332712
570296580.0 0.037181205 -0.0337146659 0.2880671152 -0.7402538543 0.2880121024 -0.7393405481 0.0375733852 -0.0325456707
575296550.0 0.0365614238 -0.0340154389 0.2803781608 -0.742959985 0.27994327 -0.7426362093 0.0375706467 -0.0338082524
580296520.0 0.036384832 -0.0347201424 0.2719737587 -0.7459189564 0.2721603122 -0.7455950204 0.0366473076 -0.0339880104
585296490.0 0.0354867034 -0.0357228196 0.2640672506 -0.7481075403 0.2645651796 -0.7481957702 0.0363143267 -0.0342312836
590296460.0 0.0356047647 -0.0353608189 0.2556684052 -0.7505948782 0.2558349661 -0.7515906292 0.0347886487 -0.0344367723
595296430.0 0.0352269813 -0.0355449062 0.2476116854 -0.754731327 0.2474513581 -0.754127569 0.0351947897 -0.0353656454
600296400.0 0.034018846 -0.0360476327 0.2391200097 -0.7569818686 0.239559223 -0.7563539163 0.0341329869 -0.035473976
605296370.0 0.0335696916 -0.0363768227 0.2308628288 -0.7592150147 0.2312839636 -0.7588358896 0.0338764074 -0.0355682394
610296340.0 0.0329651134 -0.0367163237 0.2221586501 -0.7616603275 0.223306362 -0.7618734806 0.0338935075 -0.0365109588
615296310.0 0.0330429304 -0.0376390772 0.2139917918 -0.7637123549 0.2137587905 -0.7643707419 0.0329995824 -0.0363439717
620296280.0 0.032310496 -0.0377901978 0.2062243429 -0.7660700904 0.2058255651 -0.7662153979 0.0320752041 -0.0368705285
625296250.0 0.0315379848 -0.0386500826 0.198019155 -0.7691628196 0.1978076423 -0.7690376074 0.0328166493 -0.0370565224
630296220.0 0.031895139 -0.0381888734 0.1885155598 -0.7707172364 0.188787202 -0.7702859259 0.0317366571 -0.0372325119
635296190.0 0.0297627121 -0.0388392967 0.1805202729 -0.7730155772 0.1806498393 -0.7726866917 0.0314180997 -0.03759539
640296160.0 0.0296820569 -0.0387776727 0.1721153435 -0.7745549585 0.172392888 -0.7743903658 0.0305560955 -0.0376393542
645296130.0 0.0291462395 -0.0389601114 0.1635534921 -0.7759524167 0.1642591534 -0.7766732699 0.0303234356 -0.0382195783
650296100.0 0.0288114879 -0.0395466299 0.1548573279 -0.7782021523 0.1554551303 -0.7784635346 0.0302125953 -0.0388522147
655296070.0 0.0278421238 -0.0400953302 0.1466695372 -0.7800636767 0.1469830297 -0.7799761532 0.0293352813 -0.0385039863
660296040.0 0.0266686037 -0.0404230819 0.1385843914 -0.7817126988 0.1388851043 -0.7815049681 0.0290499476 -0.0390087736
665296010.0 0.0270682882 -0.040074366 0.129285109 -0.7827804167 0.1300808188 -0.7829080823 0.0284901742 -0.0383978724
670295980.0 0.0252412953 -0.040256065 0.1214537325 -0.7845868053 0.1212290015 -0.7841566698 0.0273302982 -0.0390711064
675295950.0 0.0252584935 -0.0403452263 0.1129339 -0.7853244106 0.1131692486 -0.7849024304 0.0268576674 -0.0392046498
680295920.0 0.0240765275 -0.0409780683 0.1040834447 -0.7863188938 0.1038455166 -0.786884833 0.026020464 -0.0385955103
685295890.0 0.0239361042 -0.0401900671 0.095356533 -0.7878095218 0.0952108541 -0.7877482214 0.0254496166 -0.0390921789
690295860.0 0.0237813721 -0.0407661971 0.0873979455 -0.7878721791 0.087109532 -0.7887085061 0.02492357 -0.03835083
695295830.0 0.0230261645 -0.0410718345 0.0788292814 -0.7894936739 0.0781437024 -0.7893905511 0.0243093961 -0.0388408017
700295800.0 0.0224457915 -0.0415507448 0.0694661929 -0.7901853827 0.0692806418 -0.7897099941 0.0236442246 -0.0385342141
705295770.0 0.0215102958 -0.0404160036 0.0608554269 -0.7908873438 0.0615016991 -0.7909781114 0.0228846276 -0.0390520609
710295740.0 0.0214155017 -0.041253742 0.0530227982 -0.7921054701 0.0529610502 -0.7923262097 0.0226579762 -0.0401363217
715295710.0 0.0197246444 -0.0416396251 0.0447815185 -0.7921956307 0.0436724988 -0.7921858844 0.0221951966 -0.0395989988
720295680.0 0.0197553617 -0.041595686 0.035456327 -0.7930553247 0.0361740582 -0.7925425474 0.0216823608 -0.0389499738
725295650.0 0.0194763752 -0.0416352725 0.0267416369 -0.7929852011 0.0271572586 -0.7930538225 0.0202774643 -0.0392902878
730295620.0 0.0189321473 -0.0411461372 0.0181015243 -0.7926985938 0.0183269937 -0.7933349918 0.0195436254 -0.0402894507
735295590.0 0.0181566183 -0.0413938849 0.0093891223 -0.793391219 0.0092923317 -0.7934010312 0.0189964548 -0.0400758405
740295560.0 0.017223158 -0.0415196065 0.0009106016 -0.7930186954 0.0009525387 -0.7930663767 0.0192378775 -0.0397433336
745295530.0 0.0169440726 -0.0413313724 -0.0076898762 -0.7931354518 -0.0076490899 -0.7931677027 0.0181912476 -0.040603548
750295500.0 0.0162539178 -0.04164372 -0.0163450651 -0.7925934679 -0.0163483627 -0.793199776 0.0175178093 -0.0404277271
755295470.0 0.015856826 -0.0418694268 -0.0246908475 -0.7930329499 -0.0248875253 -0.7932988079 0.0176006532 -0.0407883437
760295440.0 0.0149245514 -0.0420411014 -0.0339518558 -0.793008989 -0.033808941 -0.7931597528 0.016531784 -0.0403589358
765295410.0 0.0143259818 -0.0417574099 -0.0427562089 -0.7921508465 -0.0422556473 -0.7924325592 0.0161958965 -0.0405362568
770295380.0 0.013321916 -0.0418716045 -0.0510863611 -0.791598016 -0.0508007258 -0.7913650983 0.0151032657 -0.0410570522
775295350.0 0.0130432756 -0.0427546529 -0.0596787776 -0.7908640255 -0.0589368122 -0.7909967153 0.0141129301 -0.0405704659
780295320.0 0.0125931488 -0.0420324164 -0.0684059121 -0.7899007523 -0.0673328458 -0.790037162 0.0135721298 -0.0411747945
785295290.0 0.0117302487 -0.0428468485 -0.0773113851 -0.7888292414 -0.0763741141 -0.7892514397 0.0138220413 -0.0407056151
790295260.0 0.0117220103 -0.0416967538 -0.0848334369 -0.7884355327 -0.0838357623 -0.7878318118 0.0125999392 -0.0406440824
795295230.0 0.0107483931 -0.042405885 -0.0937043119 -0.7874243329 -0.0930410395 -0.7875867155 0.0123918774 -0.0404059339
800295200.0 0.0096521993 -0.0416321938 -0.1030481322 -0.7861494384 -0.1022023471 -0.7864032847 0.0119538233 -0.0409753831
805295170.0 0.0092597402 -0.0420628888 -0.1111363252 -0.7849806737 -0.1107742309 -0.7853850334 0.0111090866 -0.0404472335
810295140.0 0.0084008597 -0.0424247391 -0.1192885109 -0.7833564522 -0.1195681774 -0.784073662 0.0109930823 -0.0404505141
815295110.0 0.0082082045 -0.0426805281 -0.1282566733 -0.7817261734 -0.1275069881 -0.7821027851 0.0101045684 -0.0403601022
820295080.0 0.0064929811 -0.0416393835 -0.1360588251 -0.7804962733 -0.1359774513 -0.7811368807 0.0093291638 -0.0405164003
825295050.0 0.007355656 -0.0420944546 -0.1444149816 -0.7792785603 -0.1443456561 -0.7794060539 0.0094320963 -0.0403154186
830295020.0 0.0063911134 -0.0417571288 -0.1539850906 -0.7777974287 -0.1530195718 -0.7775830119 0.0094942772 -0.0397990827
