!Created with skrf (http://scikit-rf.org).
# Hz S RI R 50.0 
!freq ReS11 ImS11 ReS21 ImS21 ReS12 ImS12 ReS22 ImS22
300000.0 -0.775766584 -0.0892179119 -0.0009319994 -0.001196981 -0.000990375 0.001721504 -0.2132408023 -0.0751883632
5299970.0 -0.7849888884 -0.0052916136 0.0001425068 -0.000151987 -0.0002611196 3.99588e-05 -0.2153560245 0.0083529919
10299940.0 -0.788116739 -0.0037849386 -4.7343e-05 -0.0001028867 -7.11305e-05 -1.23128e-05 -0.2116538367 0.0214227217
15299910.0 -0.7939620682 -0.0021755786 -0.0001005113 -0.0001117046 -3.53907e-05 -6.85597e-05 -0.2065345318 0.0310629351
20299880.0 -0.8004081102 0.0021102402 -0.0002454147 -0.0001629833 4.90179e-05 -0.0001148566 -0.200412846 0.0389306535
25299850.0 -0.806347229 0.0073143907 3.40215e-05 -0.0002048407 6.76088e-05 0.000132114 -0.1939436098 0.0453347311
30299820.0 -0.8125133 0.0155154968 -1.50136e-05 0.0001610396 7.43996e-05 -5.34805e-05 -0.1873491504 0.0505728686
35299790.0 -0.8174610206 0.0243330388 2.11783e-05 0.0004523494 8.33809e-05 1.3625e-06 -0.1815129105 0.0544921068
40299760.0 -0.8210731152 0.0332209093 -4.65872e-05 -5.91458e-05 0.0001284857 -1.95051e-05 -0.1752476555 0.057275601
45299730.0 -0.8244174128 0.0424995821 -0.0002273818 9.2632e-06 2.8795e-06 -4.76906e-05 -0.1696095498 0.0593825473
50299700.0 -0.8267378977 0.052407302 9.53877e-05 0.0002803973 -0.0001959224 3.14972e-05 -0.164139843 0.0607166789
55299670.0 -0.8293500988 0.0633058957 1.58862e-05 0.0001436418 -0.0001580591 7.34711e-05 -0.1595725365 0.0618285999
60299640.0 -0.830160327 0.0732082536 -1.94743e-05 -1.04346e-05 4.7219e-05 3.8561e-06 -0.1549116568 0.0620159099
65299610.0 -0.8313839355 0.0833530271 1.39313e-05 -2.78324e-05 4.03532e-05 0.0001558088 -0.1515562471 0.0624103259
70299580.0 -0.8315827716 0.0931022072 -8.86738e-05 -9.05575e-05 -7.05947e-05 0.0001004369 -0.1475465756 0.0624694749
75299550.0 -0.8316821038 0.1033937422 -5.41383e-05 0.0001959528 1.57869e-05 -0.000252063 -0.1444938785 0.0624861474
80299520.0 -0.8316899251 0.1129883001 -2.62201e-05 1.04393e-05 2.17994e-05 -1.74806e-05 -0.1418746607 0.0625651354
85299490.0 -0.8311900918 0.121979154 -1.08791e-05 9.94555e-05 -7.0009e-05 0.0001382445 -0.1394288565 0.062307002
90299460.0 -0.8299380729 0.1321954598 -0.0001464472 -9.5507e-06 1.73636e-05 -4.97532e-05 -0.1369193657 0.0620131478
95299430.0 -0.8293309539 0.1412287232 -0.0001703654 5.08846e-05 -0.0001939399 0.0001183728 -0.1347240932 0.062335549
100299400.0 -0.8281929427 0.1505630616 -1.6018e-05 0.0001385756 0.0001194473 5.20109e-05 -0.1324150248 0.0619297628
105299370.0 -0.8267516896 0.1602116006 -4.31399e-05 9.04326e-05 7.83606e-05 3.2253e-05 -0.1304406724 0.0618381986
110299340.0 -0.8250790043 0.1695000183 0.00013698 -3.0998e-06 -8.48509e-05 0.0002204106 -0.129484019 0.061352673
115299310.0 -0.8243854758 0.1782432221 -2.60768e-05 0.0001941971 -3.00212e-05 0.0001406612 -0.1279489016 0.0617336708
120299280.0 -0.8219302242 0.1867836361 0.0001006692 3.62961e-05 7.09295e-05 5.72257e-05 -0.1269210414 0.0612416883
125299250.0 -0.82032257 0.1955806041 -0.0001489239 2.52953e-05 1.87434e-05 0.000224954 -0.1257060969 0.0611852868
130299220.0 -0.8188990778 0.205042444 -1.1321e-06 1.7981e-05 0.0001560944 -8.73654e-05 -0.1246824846 0.0610191424
135299190.0 -0.8166752733 0.2143867131 -0.0001421198 5.44935e-05 -3.56334e-05 0.0001339903 -0.1236537722 0.0614389441
140299160.0 -0.8144578479 0.223179931 -2.54732e-05 0.0001662889 0.0001658386 -2.32444e-05 -0.1222838289 0.0617551763
145299130.0 -0.8121892923 0.2320637883 1.2082e-05 0.0001160327 4.4553e-06 0.0002589972 -0.1221305382 0.0616321657
150299100.0 -0.8102321905 0.2404810154 0.0001792059 1.53955e-05 -0.0001698846 -7.56275e-05 -0.1215690678 0.0623722416
155299070.0 -0.80780954 0.2492818537 -4.41548e-05 6.78302e-05 0.0002243415 -0.0001223466 -0.1205233114 0.0625422907
160299040.0 -0.8052726011 0.2574897061 0.0001537737 -0.0001250235 9.16686e-05 0.0001199214 -0.1198917169 0.0627957472
165299010.0 -0.8027358102 0.2665255417 0.0002085565 3.80048e-05 -0.0001386506 7.90052e-05 -0.1191800108 0.0630135118
170298980.0 -0.7998654177 0.2753356477 3.84952e-05 4.8266e-05 2.58174e-05 0.0001480578 -0.1185928546 0.0632202354
175298950.0 -0.7974450512 0.284083896 0.0002082787 0.0001728242 0.0001403547 -1.3217e-06 -0.1179846251 0.0638586883
180298920.0 -0.7950707422 0.2924789566 3.88391e-05 0.0002115615 -0.0002607418 7.5918e-06 -0.1177705164 0.0645251593
185298890.0 -0.7914707449 0.301087392 0.0001893111 5.9635e-06 7.91247e-05 5.97414e-05 -0.1170929962 0.0649836719
190298860.0 -0.788801186 0.3096037863 0.000134386 0.0002399792 -0.0001802689 7.37389e-05 -0.1164106723 0.0655800355
195298830.0 -0.7857949795 0.3175254611 0.0001097072 6.28777e-05 0.0002712792 0.0001060689 -0.1159755517 0.0662203745
200298800.0 -0.7815754373 0.3259627064 -8.21287e-05 -9.88889e-05 0.0001366341 -7.55436e-05 -0.1157101911 0.0665856495
205298770.0 -0.7788415364 0.3343072495 -0.0001092906 -0.0001034418 6.53635e-05 0.0001906079 -0.1151630034 0.0668774486
210298740.0 -0.7750607991 0.3423402971 -4.26167e-05 -2.68512e-05 -1.47747e-05 0.0001613656 -0.1143208133 0.0680296684
215298710.0 -0.7717666594 0.3504477269 -0.0001330421 2.89359e-05 -3.71347e-05 3.62115e-05 -0.1142381491 0.0684992931
220298680.0 -0.7675121535 0.3583360795 0.0001065808 -2.57368e-05 0.0001692475 0.0001092043 -0.113876384 0.0690112709
225298650.0 -0.7648365833 0.3661629372 2.33583e-05 1.9328e-05 0.0001404751 0.0002341861 -0.1135619303 0.0697863448
230298620.0 -0.7600532381 0.3742900099 -1.03836e-05 -0.0001582653 6.90983e-05 3.26756e-05 -0.1127265737 0.0706956369
235298590.0 -0.7566761175 0.3830789651 0.0001844047 4.53299e-05 0.0001327616 9.98182e-05 -0.1121516801 0.0714931045
240298560.0 -0.7530522736 0.3908428809 -4.29315e-05 0.000134007 6.18355e-05 -1.88781e-05 -0.1118480431 0.0723560983
245298530.0 -0.7488179965 0.3984238757 2.94445e-05 7.3725e-05 7.01189e-05 1.63777e-05 -0.1112538626 0.0726846092
250298500.0 -0.7441720446 0.4061892667 -6.56437e-05 -8.73908e-05 2.9411e-06 0.0001686652 -0.1114088892 0.073644863
255298470.0 -0.7397008961 0.4138755772 0.0002484978 -0.0001505576 0.0001565219 9.07156e-05 -0.1104359882 0.0743824947
260298440.0 -0.7356119964 0.4211214669 6.03685e-05 0.0001503855 0.0001341086 -3.21409e-05 -0.1096423707 0.0754785758
265298410.0 -0.7313291708 0.4295370018 7.7137e-05 7.15905e-05 0.0001794608 1.15124e-05 -0.1089517054 0.0768256747
270298380.0 -0.727324052 0.4371809957 -3.0304e-06 3.66938e-05 -9.6638e-06 0.000155561 -0.1087735701 0.0771142027
275298350.0 -0.7223371515 0.4441758986 6.58225e-05 4.62054e-05 3.25748e-05 0.0002904456 -0.1080743994 0.078348039
280298320.0 -0.7173226812 0.452052166 -8.7237e-06 0.0002391996 -4.78203e-05 1.39396e-05 -0.107489253 0.0792196402
285298290.0 -0.7132604729 0.4596250491 -3.39892e-05 2.12098e-05 0.000149072 4.81228e-05 -0.1071291513 0.0799524585
290298260.0 -0.7080628776 0.4671792445 0.0002874018 0.0001301944 6.89452e-05 5.131e-06 -0.1067348211 0.0810347762
295298230.0 -0.7025564218 0.4743223137 -0.0001358819 -7.5308e-06 -6.36212e-05 0.0001719957 -0.1058244059 0.0817311779
300298200.0 -0.6980702869 0.4815592427 -7.42071e-05 0.0003291383 7.23111e-05 0.0001877354 -0.1053297554 0.0829725478
305298170.0 -0.693058487 0.4876867655 0.000237333 9.14121e-05 0.0001283543 9.86408e-05 -0.1042649471 0.083475446
310298140.0 -0.6876180661 0.4956914668 -1.83034e-05 7.53025e-05 6.23998e-05 0.0001680385 -0.1043179742 0.0843827879
315298110.0 -0.683139608 0.5031869356 8.96554e-05 0.0001291172 0.0002316611 0.0002077235 -0.1037309264 0.0849224599
320298080.0 -0.6773013599 0.5098868067 0.0002036721 0.0001786584 9.2391e-05 0.0001022892 -0.1028011895 0.0862244436
325298050.0 -0.6722441176 0.516796159 9.86057e-05 0.0001234394 9.22682e-05 0.0002929643 -0.1026195225 0.0869321378
330298020.0 -0.6662612262 0.5236494255 4.7711e-06 2.11672e-05 6.1742e-05 7.06722e-05 -0.1022284207 0.0880210217
335297990.0 -0.6610305996 0.5304311825 0.000118629 -1.37672e-05 0.0002809782 6.49804e-05 -0.1019523942 0.0895740978
340297960.0 -0.6559753744 0.5372939084 2.88178e-05 2.70541e-05 1.97172e-05 -3.1318e-06 -0.1005117557 0.0902236904
345297930.0 -0.6502510879 0.5445035568 0.000117795 0.0001586698 0.000283787 0.0002354746 -0.1007853668 0.0913654368
350297900.0 -0.644687318 0.5508995949 0.0001085836 -6.41594e-05 0.0001990507 0.0002350865 -0.0999612544 0.0926337359
355297870.0 -0.6383243905 0.5574559685 0.0002094105 0.0001000483 0.0002873367 1.91071e-05 -0.0994684462 0.0933091452
360297840.0 -0.6329532986 0.5637760376 5.57702e-05 -0.0001467953 -8.21338e-05 9.43293e-05 -0.0987683278 0.0945770212
365297810.0 -0.6277446143 0.5700548067 0.0001096468 0.0001607683 9.57463e-05 7.93227e-05 -0.0976920196 0.0951928156
370297780.0 -0.6213517067 0.5763901266 7.87521e-05 0.000180898 -3.73555e-05 0.0001338869 -0.0970230887 0.096367468
375297750.0 -0.6149394933 0.5828097127 2.84287e-05 0.0001476128 -0.0001031917 6.33683e-05 -0.0966544944 0.0973380638
380297720.0 -0.6091941424 0.5888313905 0.0001567318 0.0001051723 0.0002542624 0.0001969677 -0.0959891877 0.0983257727
385297690.0 -0.6035923391 0.5948801059 0.0001298684 -2.17921e-05 0.0001587212 8.38652e-05 -0.0948963096 0.0992938252
390297660.0 -0.5970792679 0.6009161593 8.67856e-05 -4.25885e-05 2.34831e-05 0.0002035699 -0.0944592918 0.1007289857
395297630.0 -0.5903489546 0.6076493435 0.0001728902 0.0001963985 0.0002489017 0.0001472642 -0.0933352766 0.1015901852
400297600.0 -0.5844399352 0.613701726 0.0001697543 4.14288e-05 -8.56438e-05 -5.0934e-05 -0.0924673173 0.1023061384
405297570.0 -0.5786489168 0.6192188069 0.0002945353 0.0001884206 0.0001916721 0.000109068 -0.091888213 0.1034017484
410297540.0 -0.5714129385 0.6249340403 -4.70082e-05 8.07505e-05 -5.4339e-05 0.0001198291 -0.0906815938 0.1044689355
415297510.0 -0.5655805713 0.6306103918 0.0002532755 -0.0001529102 6.14514e-05 0.0001547521 -0.0899728143 0.1051752718
420297480.0 -0.5600262361 0.6365914407 0.0001223298 -6.29414e-05 0.0001216479 3.57917e-05 -0.0893783918 0.1063761678
425297450.0 -0.5520731652 0.642039083 0.000137253 0.00023793 0.0001967187 -0.0001513046 -0.08824203 0.1073432777
430297420.0 -0.5462211374 0.6480364086 0.0001205633 1.1035e-05 0.0002082104 6.6649e-05 -0.0875806472 0.10844881
435297390.0 -0.5392411959 0.6532748301 -0.0001425507 -5.05845e-05 0.0001160194 0.000200694 -0.0864441159 0.1093117573
440297360.0 -0.5318634738 0.6588335311 6.99324e-05 0.0003181366 0.000163898 0.0001760529 -0.0856714586 0.1102835965
445297330.0 -0.5254423905 0.6640518238 7.30572e-05 7.22026e-05 1.02985e-05 0.0001705724 -0.0846817612 0.1104939787
450297300.0 -0.5190747831 0.6691605203 0.0001527455 4.41508e-05 0.0002127499 -0.0001916698 -0.0838042757 0.112085928
455297270.0 -0.5119107055 0.6746302774 0.0002324691 -2.4618e-05 1.12254e-05 -1.39815e-05 -0.0830022378 0.1129705517
460297240.0 -0.5054828117 0.6795268267 0.0001606877 2.72669e-05 0.0002263841 5.65508e-05 -0.0820190569 0.114170612
465297210.0 -0.4985703246 0.6844636611 0.0003415389 0.0002539816 0.0002668267 -3.7764e-05 -0.0811365675 0.1147114654
470297180.0 -0.4910345098 0.6896405859 -0.0001733886 -6.94563e-05 0.0002526377 -8.67154e-05 -0.079742056 0.1160905837
475297150.0 -0.4840131543 0.6938985672 -5.88846e-05 0.0002118661 0.0001635357 -0.0001293911 -0.0788218589 0.1164664826
480297120.0 -0.4773734247 0.69892446 0.000186213 0.000302721 8.55795e-05 0.0001027318 -0.0779269064 0.1178320628
485297090.0 -0.4694041438 0.703925026 0.0003279023 5.44584e-05 0.0001656789 0.0001915392 -0.0767672704 0.118649691
490297060.0 -0.4625230242 0.7084818739 0.000163057 -7.03763e-05 7.2395e-05 0.0002578117 -0.0759094585 0.1193229119
495297030.0 -0.455225484 0.7129677925 0.0003412998 0.0001017185 0.0001514704 -0.0001346816 -0.0747963867 0.1205519178
500297000.0 -0.4480559136 0.7181469716 0.0001862406 0.0002443806 0.0002429633 9.12747e-05 -0.0736922475 0.1214576215
505296970.0 -0.4410733181 0.7222253337 0.000102375 0.0003112294 3.70181e-05 0.0001055558 -0.072893139 0.1221035051
510296940.0 -0.4338127587 0.7271061093 0.0001585585 -4.20885e-05 0.0001632707 0.0001703004 -0.071958043 0.1231231307
515296910.0 -0.4253999275 0.7303375239 0.0001484127 0.0001733356 0.0001281889 -3.77992e-05 -0.0705864271 0.1240517116
520296880.0 -0.4191435977 0.7353404103 7.8203e-06 0.0002957594 0.0003396435 0.0001381734 -0.069790999 0.1248131542
525296850.0 -0.4102958694 0.7389618838 0.0001526262 0.0001630166 9.40156e-05 0.0001057609 -0.0685007359 0.1259059707
530296820.0 -0.4033371618 0.7433259113 0.0002283885 -4.22362e-05 0.0001983581 5.57593e-05 -0.0674334357 0.1265203066
535296790.0 -0.3963900117 0.7473688531 0.0003020203 0.0001885281 0.0001285187 -1.75677e-05 -0.0667311744 0.127362152
540296760.0 -0.3884486264 0.7505526309 0.0001232183 0.0001772189 0.0005146198 4.3619e-06 -0.0653241963 0.128088945
545296730.0 -0.3808704449 0.7553451284 8.02918e-05 1.18258e-05 0.0002199981 9.2801e-06 -0.0641501473 0.1286557706
550296700.0 -0.3731729341 0.7588219696 0.0004105494 -0.0001670346 0.000290145 0.0003443506 -0.0632268451 0.1299939607
555296670.0 -0.365431132 0.7615892033 0.000153945 0.0001688678 0.0002943055 0.0001210928 -0.061858664 0.1308358546
560296640.0 -0.3582289127 0.7665763027 0.0002211999 -0.000217868 0.0002298339 4.54721e-05 -0.0605160331 0.1313573417
565296610.0 -0.350408733 0.7688797352 -1.75866e-05 0.0002362654 0.0001807026 -0.0001007708 -0.0594337908 0.131597552
570296580.0 -0.34309881 0.772187746 -0.0001141236 -6.96822e-05 0.0001908388 5.62392e-05 -0.0584701331 0.1329132732
575296550.0 -0.3350447317 0.7765971554 -0.000113073 -0.000108482 0.0003102091 8.23629e-05 -0.057107718 0.1337931075
580296520.0 -0.3271539464 0.7801468325 -9.66277e-05 0.0001403269 0.0001969813 4.21451e-05 -0.0559101648 0.1339690145
585296490.0 -0.3189786219 0.7820641552 0.0002719867 2.8514e-06 0.0001841688 7.03485e-05 -0.0545619139 0.1350115347
590296460.0 -0.3112326517 0.7858896815 0.0001181407 0.0001187702 0.0001257716 -2.54271e-05 -0.0533357002 0.1357787726
595296430.0 -0.3034649092 0.7883196749 3.12935e-05 -4.4654e-05 0.0004071509 4.26156e-05 -0.0522386225 0.1362012189
600296400.0 -0.2958189225 0.7920259047 9.29013e-05 3.6491e-06 -3.44035e-05 -5.73397e-05 -0.051018751 0.1366261036
605296370.0 -0.2883860081 0.7944233395 3.04223e-05 7.98298e-05 0.000394005 -7.60438e-05 -0.0496354641 0.1375560629
610296340.0 -0.2797245981 0.7972256266 0.0003057719 6.339e-05 0.0001802631 1.85806e-05 -0.0483227009 0.1382155236
615296310.0 -0.2710880525 0.7996285565 0.0001759952 2.27789e-05 0.0001798484 -0.0002767464 -0.04688862 0.1387783837
620296280.0 -0.2636003271 0.8019290781 0.0002476448 2.56183e-05 0.0001142023 -7.44555e-05 -0.0461099004 0.1394756982
625296250.0 -0.2551854243 0.8051680868 0.0001354898 9.3992e-05 0.0003240266 -1.27273e-05 -0.0442650688 0.139844653
630296220.0 -0.2468434654 0.8080310231 0.0002874437 7.03752e-05 0.0001067759 -0.0001967473 -0.0431988927 0.1412475645
635296190.0 -0.2391828887 0.8103897582 0.0001344942 2.54337e-05 0.0004479213 0.0001271642 -0.0418028369 0.1416768302
640296160.0 -0.2310485593 0.8122592282 0.0002065301 0.0002097991 0.0002212736 -5.09644e-05 -0.0405262554 0.1420909074
645296130.0 -0.2232181844 0.8151073925 0.0001031759 5.74383e-05 0.0002665448 -0.0002330403 -0.039341801 0.1428640139
650296100.0 -0.214843993 0.8166926286 0.000158711 -6.32151e-05 0.0003696152 -4.34798e-05 -0.0379231295 0.1432289214
655296070.0 -0.2063992303 0.8192758924 0.0003354411 7.74282e-05 0.0001589818 0.0001023631 -0.0363666575 0.1438650425
660296040.0 -0.1987099493 0.8207567705 0.0001710923 -0.0001774103 0.0002938921 0.0001135579 -0.0347888196 0.1443522943
665296010.0 -0.189760948 0.8223524021 7.96646e-05 4.0723e-06 0.0003484361 -6.97876e-05 -0.0337264462 0.1452983153
670295980.0 -0.1821093189 0.8242546301 0.0003456814 -0.0001608692 0.0002675019 -0.0001655399 -0.0328529406 0.1455531515
675295950.0 -0.1737540085 0.8262355695 0.0001356947 9.65742e-05 0.0002752017 -8.95042e-05 -0.0314441353 0.1464904676
680295920.0 -0.1655525488 0.8281689321 0.0002762944 -0.0002176821 0.0003808518 3.097e-05 -0.0298906466 0.1470788845
685295890.0 -0.1571415953 0.8308297318 0.0001482561 0.0001002239 0.0002312502 -8.49078e-05 -0.0285078317 0.1471007024
690295860.0 -0.1496426173 0.8314705074 0.0002302355 -0.0001137798 8.51103e-05 0.000168543 -0.0274147896 0.1481220983
695295830.0 -0.141619495 0.832157734 6.69578e-05 -0.0002173548 0.0001819456 -9.13248e-05 -0.0258467122 0.1481602374
700295800.0 -0.1322706611 0.833442756 0.0004588292 -4.46988e-05 0.0001732099 -5.11552e-05 -0.0249783501 0.1486895936
705295770.0 -0.1247079249 0.835845776 0.0001446169 0.0002180448 0.0002735112 -0.0001863212 -0.0230703447 0.1495703099
710295740.0 -0.1161852561 0.8367173309 0.0006243617 -0.0001787588 0.0003618929 7.72058e-05 -0.0219769678 0.1494988394
715295710.0 -0.1075100969 0.8377862207 0.0001565118 1.99282e-05 1.38196e-05 -0.0001061743 -0.0200969176 0.1497926178
720295680.0 -0.0995055385 0.8387426556 0.0002423648 -1.38515e-05 0.0001679557 -6.18461e-05 -0.0190164504 0.1503179581
725295650.0 -0.0917315971 0.8399099987 0.0002978379 0.0001770447 0.0001336537 -0.0002334306 -0.0178967995 0.1508759249
730295620.0 -0.082933031 0.8402748458 0.000182943 -6.95688e-05 0.0001941453 8.02028e-05 -0.0165234808 0.151163409
735295590.0 -0.0749000692 0.8409081436 0.0001193726 -0.0002325797 0.0002808315 -0.0001065671 -0.0152555661 0.1512906099
740295560.0 -0.0660049609 0.8422847577 0.0003260034 -8.35831e-05 0.0002088322 -2.467e-07 -0.0132209723 0.1515958209
745295530.0 -0.0582500052 0.8421167777 0.0001108246 1.30042e-05 0.0003276145 3.34046e-05 -0.0117604082 0.1518264634
750295500.0 -0.0490375047 0.8427553844 0.0002524991 -9.93552e-05 0.0004053173 -0.0002824715 -0.010467213 0.1524640995
755295470.0 -0.0407158961 0.8427689652 0.0001688043 0.000256383 0.0003477831 -0.0001323832 -0.0090662257 0.1525116505
760295440.0 -0.0330614418 0.8431836351 0.0001650658 -4.1802e-06 0.0001856539 -0.0001394108 -0.0075801984 0.1528379948
765295410.0 -0.0245982035 0.8438505748 0.0002655895 5.95602e-05 9.17738e-05 1.70959e-05 -0.0061165965 0.1532179544
770295380.0 -0.016734208 0.8443691049 8.47408e-05 -9.40423e-05 0.0003023312 -0.0001485149 -0.004739604 0.1532833445
775295350.0 -0.0080501708 0.8442106522 0.0001363553 4.57643e-05 0.0002931055 -9.10754e-05 -0.003527441 0.1537772259
780295320.0 0.0003271197 0.8444725589 0.0002836146 -0.0004358292 0.0002314606 1.898e-07 -0.001863198 0.1538735963
785295290.0 0.0084580544 0.8438866231 0.0002776299 -8.8776e-05 0.0002422036 -0.0001857099 -6.02893e-05 0.1542095613
790295260.0 0.017597219 0.8438229656 0.0002538742 8.8183e-05 0.0002512579 8.9595e-06 0.0014865797 0.1543469481
795295230.0 0.0253546609 0.8438922558 0.0002606151 -0.0002181512 0.0001397497 7.88631e-05 0.0027928667 0.1545029471
800295200.0 0.0334878767 0.8435132205 0.0005243331 -8.55014e-05 0.0004315134 -0.0001178813 0.0043777533 0.1550356727
805295170.0 0.0423113636 0.8434865893 0.0001311166 8.73681e-05 0.0001084017 0.0001131855 0.0057021363 0.1551267325
810295140.0 0.0505540508 0.8432805638 0.0004602176 8.623e-07 0.0001463105 -6.06455e-05 0.0073864475 0.1551584349
815295110.0 0.0586726105 0.8420941344 0.0003545858 0.000127062 0.000548123 -0.000218499 0.008643412 0.1554029756
820295080.0 0.0666251986 0.8418944247 0.0001897544 -4.44078e-05 8.56432e-05 -7.45469e-05 0.0103921114 0.1555424205
825295050.0 0.0760044098 0.8407898942 0.0001963867 -5.87162e-05 0.0004178391 -9.01111e-05 0.0117529123 0.1556319533
830295020.0 0.0834680809 0.8397700038 0.0006742054 -0.0001312182 0.0001598035 6.56875e-05 0.0134407488 0.1557855734
835294990.0 0.0916475174 0.839393808 0.0004458674 -4.23728e-05 0.0002409742 -2.72088e-05 0.0146034866 0.1562577606
840294960.0 0.0997169788 0.8384984565 0.0003244655 -4.96153e-05 0.000179642 -1.25102e-05 0.0162053989 0.1559581192
845294930.0 0.1079717085 0.837395254 0.0002150768 -8.09176e-05 0.0002309207 -8.292e-05 0.017516392 0.1558191297
850294900.0 0.1165483944 0.836341316 0.0002336341 -0.000120349 0.0003414681 -0.0001132596 0.0189389089 0.1561204365
