!Created with skrf (http://scikit-rf.org).
# Hz S RI R 50.0 
!freq ReS11 ImS11 ReS21 ImS21 ReS12 ImS12 ReS22 ImS22
300000.0 -0.0482940746 -0.0429832676 0.000319753 -0.0010742126 -0.0002001951 -0.001378389 -0.7755322266 -0.1308851644
5299970.0 -0.0485748546 0.0155602942 0.0001336593 0.0001852745 0.0002007636 -4.68507e-05 -0.7849540841 -0.0065198989
10299940.0 -0.0431029722 0.0320544442 -0.0001854197 -4.34884e-05 -6.57902e-05 -2.0152e-06 -0.7883168014 -0.0034813354
15299910.0 -0.0351249947 0.0461819073 -6.655e-06 -8.05782e-05 -5.19424e-05 -4.74628e-05 -0.7933006542 -0.0011975762
20299880.0 -0.0251985025 0.0575109035 7.03487e-05 -8.22414e-05 -8.13657e-05 -0.0001215998 -0.8002891232 0.0024889148
25299850.0 -0.0146879971 0.0665033258 -0.0003439766 -3.54936e-05 5.24968e-05 -5.1727e-06 -0.8065567013 0.0084594668
30299820.0 -0.0032005131 0.0731200926 -0.0001295854 4.7568e-05 -8.53244e-05 0.0001911714 -0.8119450372 0.0165924051
35299790.0 0.0080083834 0.0775700218 -8.29798e-05 0.0001521661 -6.93781e-05 9.80259e-05 -0.8174326438 0.0245761634
40299760.0 0.019015014 0.080319455 6.6844e-06 -2.27007e-05 2.2287e-06 -8.22056e-05 -0.8213422743 0.0345126841
45299730.0 0.0293844852 0.0816633815 0.0001088747 -0.000135275 -0.000175083 6.91663e-05 -0.8253836098 0.0438722486
50299700.0 0.0392573706 0.0814417602 0.0001133798 -0.0002670648 -0.0001248674 -6.8236e-06 -0.8275488347 0.053831753
55299670.0 0.0481956323 0.0802572087 1.73671e-05 9.67602e-05 8.72856e-05 -8.98653e-05 -0.8296329218 0.0646351766
60299640.0 0.0567628199 0.0789138197 -7.6699e-06 1.31197e-05 -9.78037e-05 0.0001012191 -0.8301165413 0.0741698185
65299610.0 0.0642478056 0.0761543957 8.20146e-05 3.09394e-05 5.44161e-05 -1.94384e-05 -0.8321782714 0.0842743578
70299580.0 0.0710036238 0.0734339832 0.0001609428 4.17987e-05 7.6721e-06 -6.35838e-05 -0.8317133383 0.0940684201
75299550.0 0.077533032 0.0702171831 1.10614e-05 0.0001595372 0.000110137 5.9756e-06 -0.832153561 0.1039400619
80299520.0 0.0830085835 0.0667931075 8.25109e-05 2.48515e-05 -8.27069e-05 0.0003408137 -0.8318937544 0.1138000165
85299490.0 0.0878807704 0.0627357361 -5.17228e-05 0.0001315162 4.79047e-05 0.0001522825 -0.8315532317 0.1233446991
90299460.0 0.0921777974 0.0591625276 -1.72209e-05 9.08476e-05 -5.8243e-06 -0.0001359803 -0.8305682297 0.1330115693
95299430.0 0.0964226279 0.05494562 2.13131e-05 -0.0001541263 -0.0001567696 -7.65869e-05 -0.8291356511 0.1430837222
100299400.0 0.0996218294 0.0511350413 -0.0001746589 2.36996e-05 0.0001012048 -1.5757e-05 -0.8283711601 0.1521094083
105299370.0 0.1031413941 0.0473685295 6.15925e-05 -1.37916e-05 -0.0001447022 0.0001370297 -0.8271525487 0.1609051948
110299340.0 0.1057254395 0.043257087 -7.66705e-05 -0.0001497104 0.0002431604 0.000198479 -0.825570443 0.1709240695
115299310.0 0.1083402673 0.03932498 -2.24016e-05 0.0003450756 -6.8686e-06 -6.278e-05 -0.8239061026 0.1801464167
120299280.0 0.1104665983 0.0353592403 8.53228e-05 0.0001185404 -9.11995e-05 3.95928e-05 -0.8223922054 0.1886280563
125299250.0 0.1120942612 0.0316064035 -0.0001129595 0.0001927098 -6.24549e-05 -4.42451e-05 -0.8209904751 0.1979918705
130299220.0 0.1137455708 0.0279427229 -5.51472e-05 0.0001042507 -8.69847e-05 -2.84328e-05 -0.8190149229 0.2065521266
135299190.0 0.115206945 0.0245957828 0.0002099564 -0.0001915533 -1.27635e-05 0.0001113693 -0.8166173904 0.2162413891
140299160.0 0.1163487918 0.0206742194 0.0001134181 7.82958e-05 3.81165e-05 -9.18681e-05 -0.8144644839 0.2247351776
145299130.0 0.1174676529 0.01686676 0.0001183475 1.70128e-05 -0.0001866403 2.95334e-05 -0.812804605 0.2341936515
150299100.0 0.1184691859 0.013719663 0.0001481704 -5.9039e-06 2.32383e-05 0.000129772 -0.8109896506 0.2430917848
155299070.0 0.1189455297 0.0103532227 -4.43675e-05 1.56072e-05 3.59531e-05 -6.40638e-05 -0.8077250601 0.2518029959
160299040.0 0.1190335379 0.0071694124 4.09701e-05 -7.36039e-05 0.0001293939 0.0001339584 -0.8056030336 0.2606561899
165299010.0 0.1198710735 0.0039114396 3.28691e-05 0.0001843499 -0.0001428358 7.87787e-05 -0.802912304 0.269636744
170298980.0 0.1200671315 0.0009870303 0.0001687883 3.60468e-05 -0.0001583494 -0.0001338475 -0.7993889328 0.2778274388
175298950.0 0.1200080702 -0.0022920306 2.24183e-05 0.0002173222 5.36167e-05 1.86826e-05 -0.7973807315 0.2866391248
180298920.0 0.1206109534 -0.0052784463 0.0002271947 0.0001019695 -9.51667e-05 6.11626e-05 -0.7940703052 0.2954518915
185298890.0 0.1204801875 -0.0083108995 -1.84252e-05 0.0002241228 0.0001675661 -1.63517e-05 -0.7907559436 0.3039299965
190298860.0 0.1206969421 -0.010815485 3.716e-06 -0.0002345132 0.0001209963 -5.03844e-05 -0.788925656 0.3122707501
195298830.0 0.1201709836 -0.0137811435 8.29794e-05 -0.0001061572 0.0001962413 0.0001579775 -0.7854913395 0.320708602
200298800.0 0.120031976 -0.0164753358 0.0001079288 4.10924e-05 -3.82677e-05 0.0002008005 -0.7819638027 0.3291591873
205298770.0 0.1195999822 -0.019268379 5.73633e-05 4.58895e-05 0.0002258949 0.0001334072 -0.7780212351 0.3371742495
210298740.0 0.1193439921 -0.0216506423 0.0001292198 5.41071e-05 7.53944e-05 -9.5026e-05 -0.7747001588 0.345867768
215298710.0 0.1186475192 -0.0242641669 3.35976e-05 6.46456e-05 0.0001795443 9.91e-07 -0.7713092474 0.3541626493
220298680.0 0.11814484 -0.0268162366 -2.74515e-05 -3.07542e-05 7.26817e-05 1.66851e-05 -0.7675243843 0.3617691281
225298650.0 0.1173353107 -0.0292931932 0.0001959858 -7.4375e-05 4.86463e-05 0.0002437345 -0.7637418425 0.3696077288
230298620.0 0.1168741426 -0.0317137144 0.000213914 -0.000172837 0.0001165621 6.3645e-06 -0.7593315875 0.3783672084
235298590.0 0.1164857396 -0.0339710294 7.5416e-05 0.0001274383 -1.8561e-05 -0.0001822397 -0.7556193658 0.3870767121
240298560.0 0.1158688863 -0.0362249126 -0.0001774254 5.24397e-05 -2.68593e-05 4.38141e-05 -0.7512288075 0.3952221302
245298530.0 0.1151861034 -0.038624057 0.0001317874 -1.27646e-05 1.90161e-05 7.53967e-05 -0.747575565 0.4018048882
250298500.0 0.1142555484 -0.0404931209 -9.15099e-05 4.12839e-05 5.06817e-05 6.844e-07 -0.7434760583 0.4099532274
255298470.0 0.1131678313 -0.0430482973 5.60888e-05 -4.53827e-05 -3.1926e-05 0.0001016556 -0.7384188589 0.417470457
260298440.0 0.112140188 -0.0453420763 -0.000309765 0.0002195981 8.99315e-05 0.0001230993 -0.7346016798 0.4260000067
265298410.0 0.1114155117 -0.0468177341 0.0002834056 0.000207635 9.54228e-05 8.26661e-05 -0.7300514989 0.4336068546
270298380.0 0.1106775359 -0.048985403 -0.0001556566 0.0001233428 -4.94227e-05 0.0001221437 -0.7255563954 0.4411926027
275298350.0 0.1095178977 -0.0509399126 6.23192e-05 -0.0001196294 3.99556e-05 4.30622e-05 -0.7206595701 0.4485443157
280298320.0 0.1090180669 -0.0528485754 3.0885e-06 0.0001065819 4.54309e-05 0.0001506908 -0.7159334131 0.4556697892
285298290.0 0.1083253159 -0.0544081201 4.92452e-05 0.0001604104 0.000107866 3.40167e-05 -0.7110312387 0.4637702438
290298260.0 0.1070276291 -0.0567155665 0.0001282398 -0.0001850426 0.0001735627 1.73998e-05 -0.7062819408 0.4705759975
295298230.0 0.1059515618 -0.0588566652 -5.4091e-05 -2.41013e-05 9.98701e-05 1.91046e-05 -0.7013235265 0.4780318199
300298200.0 0.1048838527 -0.0603853392 0.0001593792 9.73135e-05 -4.71734e-05 7.74658e-05 -0.6963838275 0.4853781101
305298170.0 0.1041007685 -0.0622390231 -0.0001717634 5.24793e-05 0.0001470403 0.0002133668 -0.6899545499 0.4931744913
310298140.0 0.1028629951 -0.0638723872 0.0002123348 -3.43376e-05 0.0001257538 0.0001935808 -0.6861585994 0.499752483
315298110.0 0.1021181148 -0.0661192403 5.83864e-05 5.52405e-05 -1.03883e-05 2.73326e-05 -0.6805933053 0.5069209073
320298080.0 0.100633422 -0.0680192771 0.000203446 -0.0002063802 4.1406e-05 -2.3551e-06 -0.6751866333 0.5143755653
325298050.0 0.0996015012 -0.0696868161 0.000188452 -5.37986e-05 7.44152e-05 9.96394e-05 -0.6695103533 0.5209183639
330298020.0 0.0979883452 -0.0714039932 0.0001697265 0.0001905095 -0.0001073705 0.0002352877 -0.664307636 0.5285374605
335297990.0 0.0967121476 -0.0729229429 8.28775e-05 -0.0001781109 2.09129e-05 -0.0001551043 -0.6587181001 0.5351043748
340297960.0 0.0950465856 -0.0745806079 0.000240555 -2.01371e-05 0.0002902051 -8.17879e-05 -0.6529996693 0.5424642688
345297930.0 0.0935354009 -0.0759924467 0.0002169065 -6.6561e-05 1.25265e-05 1.67202e-05 -0.6472612601 0.5484686683
350297900.0 0.0923853454 -0.0771812802 1.06373e-05 -8.05859e-05 0.0002131182 -4.9879e-05 -0.641409487 0.5554488909
355297870.0 0.0909633827 -0.0784560698 -6.48399e-05 9.8523e-05 5.59398e-05 -1.9658e-06 -0.6364261471 0.5616250285
360297840.0 0.0894805415 -0.0797153866 -6.26908e-05 0.000178758 5.84272e-05 6.05568e-05 -0.6303479506 0.5689090906
365297810.0 0.0879050418 -0.0809305741 0.0001174509 -1.75376e-05 0.0002781789 0.0001879632 -0.6236529417 0.5754282624
370297780.0 0.0867562211 -0.0826029035 -8.92288e-05 0.0001982641 0.000125058 5.84283e-05 -0.6176816464 0.5815909343
375297750.0 0.0853284318 -0.0836774851 0.0002487398 0.0001022512 2.47568e-05 -0.0001345687 -0.6116263057 0.5874594368
380297720.0 0.0839399973 -0.0850990378 5.79544e-05 -3.8036e-05 0.000127535 3.7634e-06 -0.6060701131 0.5934867343
385297690.0 0.0824695233 -0.0858934673 -4.9527e-06 5.28099e-05 7.46954e-05 0.0001117403 -0.5990512832 0.5998828956
390297660.0 0.0807751914 -0.0868707566 5.596e-06 0.0001529253 -0.0001717109 -5.81816e-05 -0.593505386 0.6070343272
395297630.0 0.0796992744 -0.0883040264 7.33673e-05 2.7953e-05 0.0002229297 -2.56606e-05 -0.5867309562 0.6132209925
400297600.0 0.0782395478 -0.0890970513 0.0001945965 -0.0001486689 1.6599e-06 4.62631e-05 -0.5811810715 0.6184050864
405297570.0 0.076557912 -0.0905469065 0.0002239602 9.12786e-05 0.0001677215 -8.13636e-05 -0.5742303262 0.6245547314
410297540.0 0.0751443348 -0.0917963687 0.0001284471 -0.0001242374 -0.0002065052 0.000107193 -0.5675894025 0.6308773067
415297510.0 0.0736609998 -0.0928729973 9.81329e-05 5.1427e-06 -2.79012e-05 9.11135e-05 -0.5610788844 0.6362457737
420297480.0 0.0720871508 -0.0933986463 0.0001998583 -3.2965e-06 0.0001906938 6.80345e-05 -0.5543389846 0.6421390525
425297450.0 0.0709085791 -0.0945804543 6.74737e-05 5.98459e-05 -1.64661e-05 0.0002586 -0.5480150188 0.6474734335
430297420.0 0.0693587822 -0.0957332306 1.81286e-05 0.0001434273 0.0001441463 9.60656e-05 -0.5412646404 0.6527194828
435297390.0 0.0676933602 -0.0963546636 0.0002746142 1.78391e-05 0.0002450393 0.0001414243 -0.533955115 0.6583311822
440297360.0 0.0659658112 -0.0975429933 0.0001051455 -0.0001574712 4.7591e-05 7.47132e-05 -0.5274546071 0.663943213
445297330.0 0.0645276239 -0.0984255235 8.42723e-05 0.0001540588 -8.5338e-06 4.099e-05 -0.5207828172 0.6689780093
450297300.0 0.063094154 -0.0994185539 9.63563e-05 -8.79745e-05 5.74515e-05 0.000164836 -0.5129652597 0.6739524039
455297270.0 0.0614255229 -0.0999807967 0.0002155624 7.07171e-05 0.0003381536 1.01531e-05 -0.506805599 0.6786986281
460297240.0 0.0596342046 -0.1011290422 0.0002238152 -4.68954e-05 1.75074e-05 2.82493e-05 -0.5000028434 0.6841932374
465297210.0 0.0581928688 -0.1017132918 0.0002229758 -0.0001451433 7.1057e-05 9.14991e-05 -0.4918876607 0.6889099764
470297180.0 0.0567107088 -0.1024961516 0.0001754186 -3.82023e-05 0.0001540047 -5.82363e-05 -0.4850807427 0.6945014463
475297150.0 0.055025085 -0.1034285904 0.0001221225 -3.56141e-05 6.37545e-05 -2.06896e-05 -0.4781730199 0.6985715306
480297120.0 0.0535031665 -0.1040988038 -8.33211e-05 9.48343e-05 5.49639e-05 -7.08607e-05 -0.4704471848 0.7041047579
485297090.0 0.0521365239 -0.1046157081 8.2545e-06 -0.0001281851 0.0002699401 8.26674e-05 -0.463677456 0.7079714945
490297060.0 0.0503273152 -0.1050195071 0.0001380118 -4.0522e-05 1.47195e-05 1.99621e-05 -0.4561113769 0.7128495936
495297030.0 0.0486599627 -0.1056341514 0.000357699 0.0001199268 0.0002804283 -2.45634e-05 -0.4492907079 0.7181121392
500297000.0 0.0470945192 -0.1065354712 0.0003338045 7.98972e-05 0.0001068356 -0.0001111906 -0.4417212707 0.7225786423
505296970.0 0.0458290307 -0.1069394144 0.0002374799 -1.83995e-05 8.44094e-05 -0.0001430461 -0.4342169593 0.7269258048
510296940.0 0.0438680843 -0.1077174005 0.0001746218 -0.0001224091 0.000154175 -2.40527e-05 -0.4263019432 0.7307295606
515296910.0 0.0424842511 -0.1080746 0.0002083163 3.53477e-05 -0.000109805 -4.61649e-05 -0.4190195502 0.7356634856
520296880.0 0.0407447695 -0.1087362566 -7.43758e-05 -6.56262e-05 3.32351e-05 7.8052e-05 -0.4118074109 0.7392167051
525296850.0 0.0391391414 -0.1094760466 3.57789e-05 -9.5281e-06 3.65363e-05 8.50666e-05 -0.4046960286 0.7436744575
530296820.0 0.0375782707 -0.1096628091 0.0002196619 -4.33634e-05 0.0001754766 0.0001462374 -0.3967166481 0.7477202799
535296790.0 0.036011785 -0.1101449551 0.0001240777 -4.41961e-05 2.12303e-05 3.30807e-05 -0.3897075593 0.7514541577
540296760.0 0.0338404716 -0.1105699824 0.0002307694 5.15693e-05 0.0001971626 -1.44674e-05 -0.3813484596 0.755516543
545296730.0 0.0323131694 -0.1107627934 5.29326e-05 8.65267e-05 7.65446e-05 -1.40698e-05 -0.3737033755 0.759393712
550296700.0 0.0310876169 -0.1110611387 0.0002987901 -0.0001342695 0.000115242 0.0001926686 -0.3661358638 0.7627703158
555296670.0 0.0292244185 -0.111752716 5.73427e-05 5.80702e-05 0.0002289027 -0.0002501926 -0.3582314704 0.7668421322
560296640.0 0.0276130845 -0.1120223186 0.0001448432 0.0001992861 0.0003035921 0.000117878 -0.3500675587 0.7703514379
565296610.0 0.0260668215 -0.1119425684 0.0002251008 0.0001355868 0.0002778229 0.0001176984 -0.3428287283 0.7731782113
570296580.0 0.0241424799 -0.1125477728 6.43467e-05 0.0001556747 7.28389e-05 -6.84893e-05 -0.3349918534 0.7770601384
575296550.0 0.0226079728 -0.1125972426 0.0001675717 -0.0001660256 0.0001302069 6.897e-05 -0.3266263203 0.7805078889
580296520.0 0.0207951609 -0.1129655938 0.0003011571 -5.91131e-05 0.0001924314 0.000126176 -0.3181761606 0.7835622836
585296490.0 0.0188698096 -0.11312537 0.0001908113 -0.0003045324 0.0001458684 -2.66953e-05 -0.3107592259 0.7872239175
590296460.0 0.0176299474 -0.1134357597 0.0002254246 -0.0001956746 0.0002247713 1.76006e-05 -0.3032271368 0.7898731944
595296430.0 0.0157594509 -0.1134877601 7.71801e-05 -0.0002061355 0.0002577396 0.0001544683 -0.2947484402 0.7922765867
600296400.0 0.0140689292 -0.1136877041 0.0003080357 -0.0002454772 -4.33818e-05 6.54909e-05 -0.2868369175 0.7951267414
605296370.0 0.0120677924 -0.1138475043 -1.56844e-05 0.0001149122 9.4414e-06 0.0002316859 -0.2781316249 0.798528663
610296340.0 0.010606405 -0.1136177456 0.0001353573 0.0001217751 -3.42384e-05 -1.00508e-05 -0.2704051893 0.8011418492
615296310.0 0.0091742988 -0.113721882 0.0001890123 0.0001707594 -1.8652e-05 -3.19391e-05 -0.2620417265 0.8035970523
620296280.0 0.0072405582 -0.1140291828 8.20856e-05 -6.82583e-05 -7.25441e-05 -0.0001208256 -0.2546983945 0.806319048
625296250.0 0.0055758743 -0.1141648783 0.000144489 -3.6805e-05 -9.46269e-05 -3.96416e-05 -0.2458269172 0.8087029035
630296220.0 0.004349375 -0.1139451851 -6.48221e-05 4.83706e-05 7.76517e-05 2.07408e-05 -0.2375909754 0.8113358011
635296190.0 0.0020609086 -0.1137891155 9.55039e-05 1.5495e-06 0.000278551 0.0001413691 -0.2296234418 0.8128205801
640296160.0 0.0008530813 -0.1139828827 0.0002715297 0.0002430623 0.0004349419 -0.0001814568 -0.2214807516 0.8157784408
645296130.0 -0.0010326499 -0.1136763515 0.000411422 -1.1787e-06 9.49375e-05 -0.0001420334 -0.213372799 0.8181212492
650296100.0 -0.0027917231 -0.1134636293 9.87578e-05 0.0001596039 0.0001584306 0.0001909339 -0.2048966792 0.8194755905
655296070.0 -0.0044853748 -0.1136048073 0.0001233673 -6.09928e-05 0.0001774231 0.0002229549 -0.1964548446 0.8213250349
660296040.0 -0.0062219724 -0.1134214201 -5.42968e-05 -1.34218e-05 0.0004027548 6.94026e-05 -0.1875780427 0.8237207522
665296010.0 -0.0075099453 -0.1133997274 0.0001135256 5.05013e-05 0.000124783 -0.0001541574 -0.1801646845 0.8254629612
670295980.0 -0.0097804316 -0.1128009753 0.0004206609 8.80882e-05 6.46162e-05 0.000164642 -0.1721400479 0.8273813913
675295950.0 -0.0110469252 -0.1127481288 0.0002155182 -0.0001679068 0.0002686493 -1.9874e-05 -0.1640275632 0.829072846
680295920.0 -0.0128132848 -0.1123447939 0.0002541639 8.7035e-05 0.0002932936 -2.43491e-05 -0.1553358511 0.8307185152
685295890.0 -0.0142278494 -0.1117959393 0.0001488939 4.70682e-05 7.15519e-05 0.0001309026 -0.1469511249 0.8315088628
690295860.0 -0.0159015643 -0.1117208394 0.0002751579 -0.0001214002 0.000323812 5.07457e-05 -0.1388767267 0.8336600983
695295830.0 -0.0175573716 -0.1114310646 4.31508e-05 0.0001575181 8.926e-06 0.000116058 -0.1292535259 0.8349696762
700295800.0 -0.0195000205 -0.1112855165 3.34574e-05 -7.74268e-05 -4.65203e-05 1.69209e-05 -0.1221648729 0.8357161799
705295770.0 -0.0210052065 -0.1107858326 0.0001684241 -3.30608e-05 1.5829e-06 -0.0001787097 -0.1136909052 0.8380841403
710295740.0 -0.0225482218 -0.1102088543 0.000184731 -1.79634e-05 7.86225e-05 9.02039e-05 -0.1051195946 0.8376853247
715295710.0 -0.0246660931 -0.1100602396 0.0002736247 8.76367e-05 2.37081e-05 0.0001312632 -0.096734792 0.8396743661
720295680.0 -0.0257761958 -0.1095366304 7.73279e-05 -0.0001420464 0.0002976459 -0.000206809 -0.0880359206 0.8406120536
725295650.0 -0.0274171934 -0.1089313045 2.85432e-05 -0.0001370902 -5.51261e-05 6.06985e-05 -0.0803405933 0.841554352
730295620.0 -0.0291826541 -0.1085811268 0.0002193353 -2.48123e-05 0.0002930718 3.82113e-05 -0.0722155491 0.8420795785
735295590.0 -0.030683479 -0.1078960258 0.0002124685 -0.0001395985 0.0001132323 -3.19423e-05 -0.06395074 0.8424836603
740295560.0 -0.032277954 -0.1074285579 0.000343013 -1.21499e-05 8.72317e-05 3.40841e-05 -0.0546741234 0.843394742
745295530.0 -0.0340088056 -0.1068400525 0.0001083726 0.0001519473 -2.16975e-05 -9.63335e-05 -0.0463867356 0.8437367084
750295500.0 -0.0354389622 -0.1062536271 0.0001794549 6.39576e-05 -2.73885e-05 -2.30737e-05 -0.0383606366 0.8446239646
755295470.0 -0.0373180983 -0.1057729336 0.0001111235 -0.0001351076 9.61966e-05 0.0002063188 -0.02919365 0.8439831745
760295440.0 -0.0386707424 -0.1052404812 0.0001944506 0.0001944472 5.15932e-05 -6.83293e-05 -0.0212393131 0.844233528
765295410.0 -0.0400243183 -0.1046043951 0.0003718323 -9.40241e-05 6.11758e-05 -0.0001541761 -0.0126791637 0.8449408294
770295380.0 -0.0417508166 -0.1041401898 0.0001702658 -0.0001647857 0.0001312241 -5.56017e-05 -0.004344758 0.8442591044
775295350.0 -0.0436972926 -0.1034982223 6.20915e-05 6.20942e-05 0.0001717243 -2.3573e-06 0.0037294261 0.8439717738
780295320.0 -0.0449330343 -0.1025340133 0.0002180339 1.3493e-06 6.64354e-05 0.0001526253 0.0124143858 0.8446321057
785295290.0 -0.0464872801 -0.102266738 4.50195e-05 -3.12255e-05 0.0002722995 -6.89245e-05 0.0211543006 0.8443339391
790295260.0 -0.0477130593 -0.1009640224 6.93035e-05 9.21642e-05 8.20835e-05 -6.59934e-05 0.029843003 0.8440373486
795295230.0 -0.0491309728 -0.1004447622 0.0001846091 -0.0001931874 8.90581e-05 -4.43664e-05 0.0386924948 0.8433972144
800295200.0 -0.0509798192 -0.0996650327 0.000327959 -0.0001920208 0.0001919981 0.0001999623 0.0466617875 0.8428648863
805295170.0 -0.0524910259 -0.0992482221 0.0005402049 -0.0001834065 0.0002086942 -0.0002725057 0.0544435768 0.8431922019
810295140.0 -0.0536203792 -0.0981725843 0.0003358413 0.0001612059 0.0002947578 -0.0001608335 0.063134574 0.8422320265
815295110.0 -0.0554251214 -0.0974245694 0.0001706712 -0.0001309556 0.0002013528 -0.0001370309 0.0716509275 0.8410750707
820295080.0 -0.0568536315 -0.0960971452 0.0001630065 -5.95266e-05 0.0002273956 3.0109e-06 0.0801304621 0.8412388371
825295050.0 -0.0581254333 -0.0956631014 0.000218509 -0.0002388836 0.0003316301 0.0002182791 0.0879949062 0.8401314733
830295020.0 -0.0596293059 -0.0947989387 0.0001325 8.16649e-05 0.0001196183 0.0001520925 0.0975028201 0.8390907957
835294990.0 -0.060988711 -0.0935535332 0.0002656414 -0.0002312143 9.10262e-05 -0.0002021531 0.1048139955 0.8379568449
840294960.0 -0.0623834859 -0.092712848 0.000282819 -9.89811e-05 0.0001060605 -8.95652e-05 0.1138868791 0.837368191
845294930.0 -0.0639581944 -0.0916970481 6.2346e-06 -0.0003572762 9.41775e-05 -0.000150592 0.1210599469 0.8349524875
850294900.0 -0.0651752399 -0.0906195298 5.87848e-05 4.55857e-05 0.0001196662 -0.0002245941 0.1293124379 0.8339307374
