!Created with skrf (http://scikit-rf.org).
# Hz S RI R 50.0 
!freq ReS11 ImS11 ReS21 ImS21 ReS12 ImS12 ReS22 ImS22
300000.0 -0.2349084561 -0.1344753786 0.4669636503 0.08620146 0.4687086359 0.0859435752 -0.2354842249 -0.131228114
5299970.0 -0.2420257965 0.0050414005 0.4748372538 0.0060627147 0.4752186551 0.0058499061 -0.244413559 0.0044130799
10299940.0 -0.2387146627 0.0188348741 0.4775232786 0.0068273709 0.4771527609 0.0071510635 -0.2405423333 0.0171097604
15299910.0 -0.2336763654 0.0286941906 0.4803295611 0.0083065129 0.4809410757 0.0084176341 -0.2367380729 0.0263747095
20299880.0 -0.2283824926 0.0369465787 0.4850409525 0.0083196124 0.4856034359 0.0081175856 -0.2320966293 0.0337694518
25299850.0 -0.2225387761 0.0437105711 0.4905096707 0.0074882147 0.4908592379 0.0074376723 -0.2268516169 0.0398477896
30299820.0 -0.2172983428 0.0486542449 0.4964092726 0.0052274979 0.4963546738 0.0052596828 -0.2218510572 0.0447075481
35299790.0 -0.2113962844 0.05282476 0.5010895645 0.0019868545 0.5014634225 0.0018273254 -0.2169217304 0.0493303172
40299760.0 -0.2060691847 0.0559927063 0.5066094169 -0.0020401625 0.5068257845 -0.0021782557 -0.2118116254 0.0519460936
45299730.0 -0.200878435 0.0587159496 0.5108770453 -0.006591411 0.5113926501 -0.0066210604 -0.2069172888 0.0545345662
50299700.0 -0.1960997132 0.0606049506 0.5150868486 -0.0122250023 0.5151791298 -0.0126722989 -0.2025555022 0.05707747
55299670.0 -0.1918810692 0.0625234966 0.5188280076 -0.0181463777 0.5189165025 -0.0184164842 -0.199119114 0.0584386229
60299640.0 -0.1877621461 0.064025886 0.5224656451 -0.0244851167 0.5224012964 -0.0248436166 -0.1950721362 0.0596230961
65299610.0 -0.1842773572 0.0653074826 0.5257124491 -0.0308534259 0.5254716627 -0.0308182608 -0.1918280952 0.0609368943
70299580.0 -0.1807421402 0.0657589198 0.5276140011 -0.0369924087 0.5275871918 -0.0376503838 -0.1889077366 0.0618717815
75299550.0 -0.1778875183 0.0665990117 0.5293247876 -0.0449863895 0.5295330166 -0.0447460878 -0.1862293842 0.0628218359
80299520.0 -0.1752154075 0.0679226021 0.5314546388 -0.0513254884 0.5316649873 -0.0514254497 -0.1837914412 0.0635627217
85299490.0 -0.1724662797 0.0683952805 0.5326394021 -0.0583299928 0.5330821055 -0.0581372441 -0.1816862463 0.0640409999
90299460.0 -0.1701823264 0.06881212 0.5337079161 -0.0648557927 0.5336986491 -0.0649678969 -0.1791349538 0.0650476344
95299430.0 -0.1680203505 0.0697019178 0.5346763148 -0.0718483339 0.535084161 -0.072123213 -0.1774977119 0.0656721836
100299400.0 -0.1659528349 0.0703530005 0.5351907094 -0.0790881492 0.5352355643 -0.0786827382 -0.1757244902 0.0669347285
105299370.0 -0.1638604797 0.0707296129 0.5349771872 -0.0855807198 0.5353285361 -0.0856693772 -0.1737965887 0.0665598318
110299340.0 -0.1623146939 0.071535036 0.5355255094 -0.0921373572 0.535663553 -0.0926535403 -0.1727430674 0.0674811074
115299310.0 -0.1607554316 0.0723980767 0.5353603488 -0.0990855649 0.5352886496 -0.0990477614 -0.1714464325 0.0685563548
120299280.0 -0.1593802822 0.0732806504 0.5349230391 -0.1067717073 0.5348337585 -0.1063843183 -0.1698420488 0.0685368319
125299250.0 -0.1577799287 0.0737714362 0.5347104993 -0.1126576912 0.5348374951 -0.112728823 -0.1684900891 0.0696976375
130299220.0 -0.1564478804 0.0746937337 0.5340273218 -0.1198179465 0.5344930884 -0.1198371523 -0.1678908704 0.0704298431
135299190.0 -0.1554740306 0.0758530141 0.5334621959 -0.1259873262 0.5337993068 -0.1268181792 -0.1668556705 0.0713086722
140299160.0 -0.1543627178 0.0769567326 0.5330734721 -0.1332714886 0.5325938983 -0.1326071342 -0.1661634185 0.071852461
145299130.0 -0.153506469 0.078089249 0.5320922716 -0.1392641153 0.5320513415 -0.1393083691 -0.1649028066 0.0729248262
150299100.0 -0.1520025938 0.0788696285 0.5308299814 -0.1461979126 0.5304415913 -0.1458851828 -0.1641605148 0.0742151182
155299070.0 -0.1507821828 0.0802309952 0.5288643662 -0.152740714 0.5297455922 -0.1529301921 -0.1629717352 0.0750291935
160299040.0 -0.149868635 0.0813338765 0.5283317114 -0.1590755665 0.5280936222 -0.159331593 -0.1625206491 0.0762000665
165299010.0 -0.1486677513 0.0821203475 0.5268101234 -0.1651416236 0.5263311685 -0.1654671546 -0.1614375196 0.076744267
170298980.0 -0.1478900679 0.0832225603 0.5247547999 -0.1714980065 0.5250969085 -0.1718280259 -0.1609288949 0.0777146034
175298950.0 -0.1466745279 0.0845255672 0.5233228536 -0.1777715183 0.5238369204 -0.1783545895 -0.1600714969 0.0791092353
180298920.0 -0.1462010844 0.0859898537 0.5219108873 -0.1845711616 0.5219703829 -0.1847416863 -0.1593348936 0.0803020185
185298890.0 -0.1451173777 0.0872223147 0.5201003974 -0.1905996354 0.5199844916 -0.1902997346 -0.1584302279 0.0810418466
190298860.0 -0.1438538916 0.0887187595 0.5176272885 -0.1970830791 0.5178192426 -0.1968206534 -0.1577113652 0.0823452237
195298830.0 -0.1432892076 0.0898931103 0.5165101135 -0.2028180714 0.5162328362 -0.2028896604 -0.1573235772 0.083700968
200298800.0 -0.1418254114 0.0911664898 0.5140981926 -0.2090418948 0.5140701905 -0.2089918072 -0.1562051132 0.0847089682
205298770.0 -0.1411940533 0.0925830152 0.5116135916 -0.2150909952 0.5123263148 -0.2147696161 -0.1553087381 0.0859273521
210298740.0 -0.1402583593 0.0937821864 0.5095324819 -0.2207485928 0.5090640794 -0.2211108749 -0.1549912108 0.086846345
215298710.0 -0.1393877138 0.0954692791 0.5071239975 -0.2267202946 0.5072201833 -0.2268956842 -0.1538586409 0.0885929013
220298680.0 -0.1383009259 0.0968144789 0.5045178254 -0.2324722178 0.5045117561 -0.2326289205 -0.1533545927 0.089622916
225298650.0 -0.1374757476 0.0984193113 0.5017859106 -0.2383684816 0.5023434964 -0.238489944 -0.1528458985 0.0906285193
230298620.0 -0.1360587053 0.0999869675 0.4998856208 -0.24464207 0.499826216 -0.2447184054 -0.1519937282 0.0918676588
235298590.0 -0.1354647301 0.1013298968 0.4970959427 -0.2502987565 0.497592646 -0.2502452219 -0.1513301587 0.0935004777
240298560.0 -0.1341113653 0.1028559547 0.494260081 -0.2554077232 0.494402689 -0.2559647689 -0.1502113773 0.094478526
245298530.0 -0.1331352508 0.1037589093 0.491514457 -0.2617800585 0.4915018271 -0.2615303237 -0.1495463236 0.0959109202
250298500.0 -0.1324163753 0.1056430872 0.4888385005 -0.2669547721 0.4891466849 -0.2668097067 -0.1489540823 0.0973306456
255298470.0 -0.1310904464 0.1070991503 0.4858625993 -0.2720841608 0.486339449 -0.2727563603 -0.1482308756 0.0989073086
260298440.0 -0.1300131829 0.1082583549 0.4831366594 -0.2775280582 0.4835096223 -0.2777566383 -0.1476763185 0.099761093
265298410.0 -0.129185403 0.110014369 0.4795982363 -0.2837416582 0.4798530499 -0.2841474118 -0.1457000395 0.1010668092
270298380.0 -0.1282614271 0.1112570085 0.4766927753 -0.2893443868 0.4771823361 -0.2889772665 -0.1451795568 0.1029497515
275298350.0 -0.1267758529 0.1130117471 0.4731143958 -0.2942726416 0.4734504723 -0.2942159486 -0.144319498 0.1040028177
280298320.0 -0.1259768982 0.1141998617 0.4704732132 -0.2993138928 0.4707168079 -0.299770334 -0.1433254851 0.105483789
285298290.0 -0.1249037445 0.1158686208 0.4673894483 -0.3052241208 0.4676757722 -0.3050198037 -0.1428302101 0.1068622333
290298260.0 -0.1238283377 0.1172443156 0.4645659133 -0.3104319285 0.4643058561 -0.3104172454 -0.1414123511 0.1080352034
295298230.0 -0.1226972241 0.1186842097 0.4608422599 -0.3158394342 0.4612249793 -0.3159478064 -0.1408713428 0.1091541327
300298200.0 -0.1214497016 0.1201573494 0.457856006 -0.3211224404 0.4576837979 -0.320650088 -0.1396291955 0.1105642687
305298170.0 -0.1201170685 0.1212928161 0.4541280013 -0.32647904 0.4543019397 -0.326118564 -0.138452861 0.1117962353
310298140.0 -0.1185452912 0.1225217382 0.4503969668 -0.3312205763 0.450676986 -0.3312593192 -0.1371883068 0.1130420652
315298110.0 -0.1178708568 0.1235719263 0.4470078375 -0.3367125235 0.4467813153 -0.3368077793 -0.1365160615 0.1142358185
320298080.0 -0.1164349208 0.1250703539 0.4423251134 -0.3421665272 0.4434831599 -0.3418392776 -0.1357434931 0.1154052441
325298050.0 -0.1155668853 0.1258674544 0.4387486277 -0.3469974159 0.4398946425 -0.3466218121 -0.1347085072 0.1168499721
330298020.0 -0.1149182643 0.1278357167 0.4354187058 -0.3517667142 0.4361117877 -0.3518403181 -0.1339655888 0.1178992388
335297990.0 -0.1135399298 0.1289298613 0.4310428546 -0.356570603 0.4315175116 -0.3567115578 -0.1327855657 0.1192593099
340297960.0 -0.1123867894 0.1303224468 0.4267727492 -0.3616293686 0.4269340181 -0.3614971704 -0.1318680962 0.1209688114
345297930.0 -0.111080756 0.1316310045 0.4233579957 -0.3665479029 0.4232476515 -0.3661734436 -0.1309465589 0.1217431394
350297900.0 -0.1101546746 0.1328454523 0.4192419599 -0.3706458394 0.4192543547 -0.3707552702 -0.1299580102 0.1232859789
355297870.0 -0.1088443127 0.1342671135 0.4153306618 -0.3749308835 0.4150340769 -0.374949821 -0.1285056527 0.1249042779
360297840.0 -0.1073066285 0.1356106076 0.4107935711 -0.379733983 0.410991481 -0.380029593 -0.1277144774 0.1263958853
365297810.0 -0.1060698644 0.1370587554 0.4068586056 -0.3842774164 0.4065068481 -0.3843985806 -0.1267492706 0.1274627123
370297780.0 -0.1049741454 0.1383401989 0.4021537695 -0.3887278242 0.4024414477 -0.3888573854 -0.1257482798 0.128842355
375297750.0 -0.1035964504 0.1397279107 0.398397869 -0.3929130464 0.3980015189 -0.3933228213 -0.1243952736 0.1301784031
380297720.0 -0.1022711695 0.1411813024 0.394108456 -0.3978512669 0.3935095828 -0.3979588285 -0.1231776999 0.1315698052
385297690.0 -0.1008788937 0.1419818822 0.3892496941 -0.4018129942 0.389598548 -0.402190742 -0.1217433816 0.1330035971
390297660.0 -0.0992908682 0.1431281939 0.3850709267 -0.4057330054 0.3853825074 -0.4060685845 -0.1205835757 0.1340878215
395297630.0 -0.0975206841 0.144403793 0.3806468994 -0.409635582 0.3805818513 -0.4099694382 -0.1193479503 0.1352509883
400297600.0 -0.0963897307 0.1459100118 0.3759921413 -0.4148102364 0.3766939993 -0.4145797968 -0.1181959082 0.137219896
405297570.0 -0.0948055277 0.1465086054 0.3717192455 -0.4178756317 0.37183724 -0.418659252 -0.1167446105 0.1382548132
410297540.0 -0.0932232211 0.1481849346 0.3668765946 -0.4226622057 0.3673379497 -0.4223081706 -0.11555946 0.1396064807
415297510.0 -0.091799522 0.1493950199 0.3622751492 -0.4268639967 0.3628094785 -0.4267192756 -0.1142310582 0.1409417483
420297480.0 -0.0902534516 0.150280237 0.3574797622 -0.430551988 0.3580060742 -0.4305285951 -0.1126789495 0.1423271937
425297450.0 -0.0883876486 0.1515272221 0.3533512153 -0.4344705864 0.3528205023 -0.4343296769 -0.1114142807 0.1432409579
430297420.0 -0.0869997777 0.1525221564 0.3484999885 -0.4382874641 0.3486804484 -0.4378706788 -0.1098500206 0.1446105583
435297390.0 -0.085172321 0.1533876104 0.3430241205 -0.4424306078 0.3433638765 -0.4420717687 -0.109025753 0.1458432745
440297360.0 -0.0835055596 0.1544202616 0.3383006553 -0.4462004949 0.3387125187 -0.4457296663 -0.1074667775 0.1471845214
445297330.0 -0.081677686 0.1550692001 0.3336429853 -0.4490117256 0.3338517097 -0.4495161851 -0.1056050611 0.1482984193
450297300.0 -0.0800402192 0.1561316077 0.3286859724 -0.4528414444 0.3289341647 -0.4525612913 -0.1043809531 0.1493061888
455297270.0 -0.0788327946 0.157281574 0.3240527034 -0.4565672043 0.323849727 -0.4567813258 -0.1027229445 0.1505999252
460297240.0 -0.0764851873 0.1585011683 0.318890373 -0.4606649893 0.3189799451 -0.4601948256 -0.1016947334 0.1516185174
465297210.0 -0.0749952446 0.1591879115 0.3134731457 -0.4635031444 0.313360312 -0.4638831335 -0.0997163905 0.1531007587
470297180.0 -0.0732433874 0.1600667688 0.3082078979 -0.4662318459 0.3089147066 -0.4666979067 -0.098273563 0.1539416273
475297150.0 -0.0715212386 0.1611623445 0.3037140086 -0.4703014473 0.3038357059 -0.4703256907 -0.096789481 0.1550650604
480297120.0 -0.0693104603 0.1621585736 0.2983623236 -0.4736878134 0.2986511212 -0.4732115945 -0.095512779 0.1561520659
485297090.0 -0.0678550529 0.1624834936 0.2935835033 -0.4767659569 0.2930641408 -0.4767307484 -0.0937644509 0.1576259158
490297060.0 -0.0654343531 0.1635785925 0.2875348746 -0.4802644339 0.2880754436 -0.4804190703 -0.0924611492 0.1582519749
495297030.0 -0.063785695 0.1642744659 0.2829896036 -0.4830964345 0.2827657207 -0.4831495053 -0.090583046 0.1589760576
500297000.0 -0.0622986309 0.1655715787 0.2776296951 -0.485938903 0.2774888608 -0.4862745129 -0.0892105059 0.1602066618
505296970.0 -0.0595973065 0.1660737983 0.2720369143 -0.4894058747 0.272373134 -0.4886682515 -0.0873943043 0.1606953215
510296940.0 -0.0579666047 0.1669738951 0.2671625 -0.4926674684 0.2670675826 -0.4923916803 -0.085567522 0.1624334362
515296910.0 -0.0563386625 0.1677722137 0.2612709453 -0.4945865965 0.2610917384 -0.494766583 -0.0841617696 0.1626819335
520296880.0 -0.0545006683 0.1686201706 0.2559530501 -0.4975888695 0.2558464771 -0.4978040105 -0.0823958858 0.1645728561
525296850.0 -0.0521040503 0.1689410686 0.2503562312 -0.4998166373 0.250395559 -0.5003055155 -0.0807781802 0.1650476236
530296820.0 -0.0506514649 0.1699231756 0.2447672953 -0.5033324945 0.2452226543 -0.5030222614 -0.0792397249 0.1656216569
535296790.0 -0.0480627133 0.1706843462 0.2399430401 -0.505214185 0.2397207444 -0.5054713339 -0.0774020826 0.1671025471
540296760.0 -0.0462547586 0.1715434475 0.2339731879 -0.5081360088 0.23370282 -0.5080955088 -0.0761387346 0.1675693655
545296730.0 -0.0448034161 0.1723292415 0.228689754 -0.5103633566 0.228248603 -0.5102394758 -0.0739469863 0.1682955744
550296700.0 -0.0420483326 0.1727867735 0.2225372324 -0.5130987995 0.2226706202 -0.513556203 -0.0724815837 0.1693045509
555296670.0 -0.0402937528 0.1733652008 0.2174445275 -0.5157994531 0.2171677018 -0.5155216133 -0.0707568457 0.1697760697
560296640.0 -0.0378088036 0.1739490814 0.2111801297 -0.5175181941 0.2119840206 -0.5174705956 -0.0689838145 0.1711700449
565296610.0 -0.0366906262 0.1745666657 0.2064690395 -0.5201693907 0.2060916241 -0.5198316749 -0.0671653153 0.172152017
570296580.0 -0.0342938201 0.1753630831 0.2003752958 -0.5215931624 0.200594007 -0.5221441963 -0.0657416703 0.1724218374
575296550.0 -0.0321713307 0.1756961325 0.1951521129 -0.5242930324 0.1948258263 -0.5243386104 -0.0640297322 0.1731355981
580296520.0 -0.0301565805 0.1764813756 0.1889718501 -0.5263962251 0.188988704 -0.5263433201 -0.062540038 0.1739016591
585296490.0 -0.0279539939 0.1770332601 0.1838059538 -0.5281105253 0.1830372321 -0.5279163929 -0.0602555358 0.1748901493
590296460.0 -0.0254568493 0.177501419 0.1774663996 -0.5301256702 0.1778011621 -0.5303529162 -0.059225168 0.1754136558
595296430.0 -0.0235960008 0.1780300694 0.1712853352 -0.5322113837 0.1716755634 -0.5319371934 -0.057144357 0.1757492219
600296400.0 -0.0216884194 0.1783721668 0.1657245051 -0.5337467419 0.1656583449 -0.5336236527 -0.055414793 0.1766208475
605296370.0 -0.0200399073 0.1786970955 0.1604757973 -0.5353421381 0.159866367 -0.5357982739 -0.0534349817 0.1779743834
610296340.0 -0.0175107897 0.1796421675 0.1544515433 -0.5366643204 0.1548234361 -0.5370525826 -0.0521319914 0.178316277
615296310.0 -0.0151017225 0.1798324204 0.1483425839 -0.5388871813 0.1479302588 -0.5389437437 -0.0498115483 0.1790068268
620296280.0 -0.0137230193 0.1805193157 0.1425376852 -0.5403765621 0.1422056608 -0.5402781613 -0.0486760048 0.1796954971
625296250.0 -0.011625413 0.180685686 0.1366485506 -0.5416295255 0.1369094483 -0.5420763483 -0.0468684274 0.1800465394
630296220.0 -0.00918932 0.1811947084 0.1302233312 -0.543646562 0.1304912867 -0.5431672872 -0.0448019654 0.1808739641
635296190.0 -0.0076389367 0.1817731172 0.1253176978 -0.5446489504 0.1247681442 -0.544305656 -0.0430665693 0.1811916926
640296160.0 -0.0053326678 0.1818555821 0.1189653389 -0.5463320759 0.1191879563 -0.54608088 -0.0416174065 0.1817435249
645296130.0 -0.0027242067 0.1827308326 0.1135365897 -0.5472500505 0.1129742589 -0.5469837009 -0.0398829274 0.1819275177
650296100.0 -0.0010315993 0.1828257981 0.1072306974 -0.5485759895 0.1068561108 -0.5487027253 -0.037548259 0.1828030479
655296070.0 0.0010483218 0.1830690258 0.1011792394 -0.5499087363 0.1008500915 -0.5491085946 -0.0361733641 0.1834477528
660296040.0 0.0031035478 0.1832338191 0.0956348769 -0.5504817433 0.095513087 -0.5503404782 -0.0343152984 0.1833034901
665296010.0 0.0049270966 0.1836915353 0.0889462323 -0.5512210228 0.0888361116 -0.5516143888 -0.0323526466 0.1840355078
670295980.0 0.0070457564 0.183733821 0.083222739 -0.5522738567 0.0831307878 -0.5518666174 -0.0310097906 0.1845733829
675295950.0 0.0090826137 0.1838590003 0.0775438532 -0.5529454887 0.0773509834 -0.5528478438 -0.0291509325 0.1851694607
680295920.0 0.0109037999 0.1842435928 0.0715202392 -0.5537576158 0.0714542771 -0.5537885714 -0.0268216026 0.1854470972
685295890.0 0.0135511115 0.1841450967 0.0650836021 -0.5549252338 0.0654780896 -0.5546576873 -0.0256895443 0.1859241912
690295860.0 0.0152747174 0.1845685698 0.059575531 -0.5553189915 0.0589974483 -0.5549651338 -0.023385512 0.1860228213
695295830.0 0.0173277797 0.1843050959 0.0536343202 -0.5558409094 0.0536442502 -0.5557121598 -0.0219550531 0.1869539348
700295800.0 0.0193845361 0.1848795967 0.0477240141 -0.5560921136 0.0475195514 -0.5563600177 -0.0198463057 0.1870848021
705295770.0 0.0209858797 0.1847353575 0.0416723271 -0.5568450796 0.0413962846 -0.5567715448 -0.0181503455 0.1876893341
710295740.0 0.0230546161 0.1845882336 0.0357976892 -0.5570565091 0.0354832576 -0.5574974624 -0.0162048908 0.1877530325
715295710.0 0.0254310046 0.1849105473 0.0297927463 -0.557739911 0.029363043 -0.5575721587 -0.0145335505 0.1880955767
720295680.0 0.0276563634 0.1847377051 0.0234646187 -0.5576133338 0.0231850021 -0.557924775 -0.0127652074 0.188433015
725295650.0 0.029046829 0.1847706253 0.0180938372 -0.5577820817 0.0177572664 -0.5579861392 -0.0111426305 0.1891277046
730295620.0 0.0308029114 0.1845667271 0.0119349652 -0.5578349088 0.0114430175 -0.5576160978 -0.0093166219 0.1894035673
735295590.0 0.033070679 0.1846768701 0.0057959306 -0.5583599961 0.0052437172 -0.5578654119 -0.0070831203 0.189128723
740295560.0 0.0349895286 0.1842531936 -0.0005780323 -0.558031547 -0.0001945172 -0.5584821178 -0.0057024563 0.1897680122
745295530.0 0.0369774526 0.1842358194 -0.005846527 -0.5575920621 -0.0055120448 -0.5576836438 -0.0041677795 0.1895278318
750295500.0 0.0386747687 0.1844852759 -0.0121011094 -0.5578775245 -0.0123950238 -0.5579438636 -0.0020874125 0.189881825
755295470.0 0.0403351825 0.18421519 -0.0178525535 -0.5583576608 -0.0180757595 -0.5580780411 -0.0002061679 0.1907358551
760295440.0 0.042690764 0.1840723173 -0.0246938435 -0.5573121879 -0.0246022725 -0.5573166917 0.0019522318 0.1899874952
765295410.0 0.0449603408 0.1835746311 -0.0301984365 -0.557398924 -0.0300510739 -0.5571636313 0.0038069977 0.1904343557
770295380.0 0.0464816277 0.1835204006 -0.0357515229 -0.5562700889 -0.0359616286 -0.55730763 0.0050622517 0.1907161935
775295350.0 0.0484730206 0.1829024463 -0.0421684235 -0.5562844487 -0.0418770653 -0.5559336774 0.0073816738 0.1904497305
780295320.0 0.050449481 0.1829823381 -0.0483132267 -0.5552436299 -0.0478385255 -0.556004764 0.0095009625 0.1911170429
785295290.0 0.0521952499 0.1823517024 -0.0542057604 -0.5553447664 -0.0538210734 -0.5553213436 0.0105285717 0.1911158503
790295260.0 0.0542061662 0.1819481628 -0.0599130029 -0.5547965336 -0.0599963955 -0.5549715555 0.0126015018 0.1915475517
795295230.0 0.0560699858 0.1814095638 -0.065689307 -0.5540475145 -0.0662136147 -0.553874916 0.014622138 0.1905530821
800295200.0 0.0574334604 0.181365122 -0.0708581894 -0.5526749219 -0.071738306 -0.5533925853 0.0161902265 0.1909902144
805295170.0 0.0596132052 0.1808911913 -0.077838786 -0.5524185558 -0.0773989088 -0.5523225234 0.0187762381 0.1909053133
810295140.0 0.061981144 0.1805340651 -0.0837064954 -0.5514892109 -0.0834602671 -0.5513108623 0.0204078562 0.1907378097
815295110.0 0.0632570247 0.1802527287 -0.0891574779 -0.5506281294 -0.0890581405 -0.5506843229 0.021846273 0.1908823374
820295080.0 0.065313162 0.1796382975 -0.0949343824 -0.5494588285 -0.0949646227 -0.5498758932 0.0232027321 0.1915453558
825295050.0 0.0669446553 0.1788762765 -0.1013798412 -0.5487919791 -0.1014084105 -0.5484412179 0.0257798922 0.1914265319
830295020.0 0.0689630731 0.1783076296 -0.1069576096 -0.5473267393 -0.1067988575 -0.5473825783 0.0276055397 0.1905357684
