!Created with skrf (http://scikit-rf.org).
# Hz S RI R 50.0 
!freq ReS11 ImS11 ReS21 ImS21 ReS12 ImS12 ReS22 ImS22
300000.0 0.8585281842 -0.0015759455 0.0001215674 -0.0006413994 -0.000223155 0.0009356922 -0.7778952074 -0.1247422141
5299970.0 0.8582668041 -0.0093780238 -0.0001351295 0.0001841954 0.0001362828 -0.0001625974 -0.7850936639 -0.0067104301
10299940.0 0.8575257083 -0.0182250669 -0.0001719907 -0.0001086616 -7.3836e-06 -2.38304e-05 -0.7889496787 -0.0034073944
15299910.0 0.8566501945 -0.0269167927 0.000172359 5.67267e-05 -0.0001698386 7.0205e-05 -0.7939351225 -0.0019201152
20299880.0 0.8559284139 -0.034800701 -6.21723e-05 3.05992e-05 -1.51788e-05 -0.0001342215 -0.8010102331 0.002042302
25299850.0 0.855622948 -0.0431771404 1.50065e-05 -0.0001957273 4.44732e-05 -7.8021e-06 -0.8070129227 0.0078953184
30299820.0 0.8546525538 -0.0519195979 -1.43326e-05 -6.38494e-05 -3.3196e-06 -0.0003266855 -0.8127855232 0.0160367882
35299790.0 0.8536015451 -0.0599220715 -4.82529e-05 0.0001579683 6.22692e-05 6.24753e-05 -0.8180089199 0.0247892678
40299760.0 0.8528913977 -0.0688454324 9.19918e-05 8.79817e-05 9.0532e-05 6.89053e-05 -0.8216311862 0.0341195829
45299730.0 0.8530927663 -0.0769831897 -0.0001918044 -0.0001406542 -0.000138025 0.000208953 -0.8257308506 0.0438268336
50299700.0 0.8523328522 -0.0846141925 2.34808e-05 7.3253e-06 -6.47e-07 0.0001427648 -0.8276818957 0.0535048154
55299670.0 0.8506176108 -0.0930723806 0.0001293248 7.31999e-05 5.8646e-05 -7.25282e-05 -0.8296763255 0.0636030481
60299640.0 0.8496705275 -0.1011294495 -6.00689e-05 0.0001173236 -0.0001450885 0.0002259927 -0.830686717 0.0736823206
65299610.0 0.8481225909 -0.1100431368 0.0001050196 0.0001840622 -0.0001819977 -5.03653e-05 -0.8319661186 0.0839126905
70299580.0 0.8475074623 -0.1181625993 -1.30937e-05 -1.64776e-05 -7.82393e-05 4.21159e-05 -0.8316646624 0.0939167226
75299550.0 0.8465102489 -0.126307166 -0.0001125455 -0.0001455451 1.40969e-05 1.14052e-05 -0.8319292864 0.1033439376
80299520.0 0.8446093806 -0.1344484384 8.347e-05 2.37945e-05 0.0001517797 -0.0001016117 -0.8322456832 0.1136772442
85299490.0 0.8436096542 -0.1426306296 -2.94782e-05 1.96092e-05 3.07377e-05 -0.0001548493 -0.8313108931 0.1231966699
90299460.0 0.8419574609 -0.1505047523 9.31631e-05 8.99741e-05 -6.21792e-05 -7.51e-05 -0.8304315047 0.1331530558
95299430.0 0.8400408117 -0.1593966685 -2.64265e-05 8.55951e-05 4.3856e-06 -3.77143e-05 -0.8293431215 0.1424476319
100299400.0 0.8384592352 -0.1672971535 0.0001231598 0.0001236254 5.49052e-05 -1.80009e-05 -0.8286764541 0.1519323635
105299370.0 0.8374158384 -0.1753348642 0.0001494366 -0.0001694429 4.82337e-05 -3.77334e-05 -0.8272785652 0.1611897796
110299340.0 0.8354143231 -0.1839486092 0.0001798413 0.0001075128 -1.10643e-05 -7.56281e-05 -0.825468152 0.1703962373
115299310.0 0.8335119634 -0.1915002623 9.6542e-06 -0.0001706006 -0.0001483447 0.0001085574 -0.8245715166 0.1797094384
120299280.0 0.8316283215 -0.1993987011 8.89118e-05 0.0001539343 7.1832e-05 -0.0001167491 -0.8228055402 0.1886851571
125299250.0 0.8294712331 -0.2082504762 6.76292e-05 0.0001282224 1.66089e-05 7.94797e-05 -0.8213323186 0.1975209981
130299220.0 0.827636677 -0.2163354118 -0.0001983178 9.0554e-06 7.77862e-05 -0.0001106836 -0.8195764302 0.2066693169
135299190.0 0.82552863 -0.2232557714 5.00081e-05 0.0002680366 1.32484e-05 -4.30409e-05 -0.8169642678 0.2161405562
140299160.0 0.8231368309 -0.2317460756 -6.90505e-05 0.0002685873 0.0001127451 -1.11868e-05 -0.8147369552 0.225032044
145299130.0 0.8208872387 -0.2400717187 -0.0001327072 4.1194e-05 -0.0001462707 0.0001551878 -0.8131889147 0.2344603655
150299100.0 0.8181439971 -0.247699329 -6.31811e-05 -4.99531e-05 0.0001238097 -1.67795e-05 -0.8117395418 0.2430912761
155299070.0 0.8155992978 -0.2561211443 -6.56662e-05 -0.0001679544 -0.0001923509 3.4066e-06 -0.8086216794 0.2520279602
160299040.0 0.8132165315 -0.264112928 7.41593e-05 7.83251e-05 4.48547e-05 1.13013e-05 -0.806005934 0.2605405401
165299010.0 0.8104539194 -0.2716149368 0.0003394252 0.0002095062 0.0001194966 -6.5919e-05 -0.8035575662 0.2699393325
170298980.0 0.8076020707 -0.2796273693 2.28453e-05 -0.0001372507 -0.0002633107 5.58325e-05 -0.8005821338 0.2777005847
175298950.0 0.8047264822 -0.2873722996 0.0002044545 9.23938e-05 -0.0001341291 -0.0001105788 -0.7981467873 0.2861582428
180298920.0 0.8023765293 -0.2953540856 -1.30703e-05 -0.0001113873 -4.8757e-06 -4.36253e-05 -0.7949890817 0.2951186317
185298890.0 0.7989106657 -0.3032994069 4.73476e-05 -0.0003195634 -0.0001161397 0.0001474256 -0.7911263174 0.3038153618
190298860.0 0.79581482 -0.3112095365 -1.16729e-05 0.0004372225 -4.95182e-05 -2.34159e-05 -0.7882136706 0.312158607
195298830.0 0.7931889333 -0.3179481169 0.0001660252 0.0001068383 9.7438e-06 6.222e-06 -0.7854066736 0.320789293
200298800.0 0.7895552203 -0.3257664707 -8.5849e-06 -4.34177e-05 4.95903e-05 -0.000102283 -0.7824358655 0.3290246551
205298770.0 0.7866919018 -0.3340893947 0.0002504866 0.0001986178 4.13407e-05 2.69972e-05 -0.7781625814 0.3370880138
210298740.0 0.7826882686 -0.3415064657 7.63053e-05 6.62835e-05 -0.0001351942 -5.07081e-05 -0.7753256558 0.3454339864
215298710.0 0.7792098691 -0.3494699493 -0.0001838103 3.07005e-05 -4.7127e-06 4.23281e-05 -0.7716534534 0.3535241244
220298680.0 0.7762247135 -0.3566183925 -0.0001263582 -3.23635e-05 -0.0001025973 -1.87947e-05 -0.7680748943 0.361769707
225298650.0 0.7727511948 -0.3652591168 6.22021e-05 -4.4674e-05 7.97237e-05 0.0001265362 -0.7640095275 0.3696518207
230298620.0 0.7690549582 -0.3723684475 0.0001953853 6.56757e-05 6.80852e-05 0.0002188172 -0.760159981 0.3774000752
235298590.0 0.7651074345 -0.3793623485 -4.95151e-05 5.24118e-05 -8.48106e-05 -4.20984e-05 -0.7558082123 0.3860468464
240298560.0 0.7616942103 -0.387614888 0.0001228449 9.39726e-05 -0.0002983848 0.0001372232 -0.7518636192 0.3948697172
245298530.0 0.7575331985 -0.3946356146 -1.41136e-05 6.31746e-05 4.13e-07 -6.22205e-05 -0.7478276863 0.401851991
250298500.0 0.7537719636 -0.4016158853 0.000106377 -0.0001429116 -1.10398e-05 -5.58147e-05 -0.7438164496 0.4097688997
255298470.0 0.7493856715 -0.4089517799 -3.77131e-05 0.000143147 0.0001185167 0.0001103501 -0.7390954896 0.4174566048
260298440.0 0.7458503954 -0.4164020185 -3.58956e-05 1.10663e-05 1.20097e-05 4.75866e-05 -0.7351482377 0.4259470511
265298410.0 0.7418723358 -0.4236240033 0.0001807871 7.58408e-05 -6.15732e-05 -0.0001262358 -0.7303362162 0.4330771402
270298380.0 0.7369494675 -0.4308310042 3.4808e-05 -2.31616e-05 -2.47883e-05 -0.0001172341 -0.726328679 0.4405665003
275298350.0 0.7336065378 -0.4381418026 -4.5414e-06 -6.16801e-05 7.10974e-05 -1.99865e-05 -0.721116299 0.4485598365
280298320.0 0.7288024995 -0.4451199854 -7.01338e-05 -7.73579e-05 -0.0001589763 0.0002438918 -0.7161768731 0.4559611756
285298290.0 0.7250632873 -0.4530555736 0.000358221 0.0001496054 -2.32348e-05 0.0001318966 -0.7116687602 0.4639052802
290298260.0 0.7203795539 -0.458915646 -8.70441e-05 -0.0001276098 2.97153e-05 3.54722e-05 -0.7067329181 0.471371842
295298230.0 0.7161215976 -0.4661872418 -7.40669e-05 -8.46893e-05 -4.80918e-05 1.9744e-05 -0.7023262896 0.4783155764
300298200.0 0.7117519057 -0.4738479142 0.0003065507 9.65273e-05 4.93745e-05 -0.0001473827 -0.6969907797 0.4854570824
305298170.0 0.7077081407 -0.480577825 9.4264e-06 5.84058e-05 -0.0001102707 8.8791e-06 -0.6911566346 0.493313022
310298140.0 0.7032561801 -0.4877090307 -0.0002294646 0.0001338183 -0.0001798093 5.28708e-05 -0.6870095081 0.4999606475
315298110.0 0.6983214893 -0.4959030631 -0.0002810914 4.58474e-05 -0.0001391614 5.63552e-05 -0.6810243395 0.5071063066
320298080.0 0.6934120536 -0.5028565372 0.0002629487 0.0002516853 8.15447e-05 8.33503e-05 -0.6762195005 0.5151827826
325298050.0 0.6880004501 -0.5098219407 9.00556e-05 0.0001298453 -0.0001520124 0.0001619885 -0.6703476615 0.5214053404
330298020.0 0.6825044215 -0.5172842178 -0.0001980662 -0.0003784185 -5.28925e-05 3.76687e-05 -0.6647827272 0.5288477783
335297990.0 0.6759252582 -0.5248049512 -3.97691e-05 -3.23673e-05 -0.0001248478 1.6357e-05 -0.6595421196 0.5357687587
340297960.0 0.6703136755 -0.5309250712 -1.61159e-05 -3.89607e-05 -5.77891e-05 -7.0615e-06 -0.6537299451 0.5423399081
345297930.0 0.6642185226 -0.5373243804 -7.558e-07 5.80743e-05 -0.0001846433 -0.0001810273 -0.6479583083 0.5488765538
350297900.0 0.6589525772 -0.5427397272 -0.0002717116 0.0001382917 7.8812e-05 6.62715e-05 -0.6426016455 0.5551846066
355297870.0 0.6533967123 -0.5498179804 -0.0002834607 2.631e-06 -1.483e-07 7.33628e-05 -0.6366806298 0.5621700832
360297840.0 0.6477816069 -0.5554092223 -1.88723e-05 0.0001458048 0.0001148209 -9.22394e-05 -0.6307297705 0.5688154083
365297810.0 0.6416293513 -0.5614628889 0.0002112289 -5.35949e-05 0.000246237 0.0001253829 -0.6242347675 0.5754269097
370297780.0 0.636594361 -0.5678158441 5.45758e-05 -6.89308e-05 2.89906e-05 -2.45086e-05 -0.6181859441 0.5817645778
375297750.0 0.6303280544 -0.5733970004 -2.04614e-05 0.0001711655 -4.03415e-05 8.5698e-06 -0.6122812339 0.5876511256
380297720.0 0.6248010638 -0.5801659796 -1.86338e-05 -0.0001339784 -3.45759e-05 -0.0001072349 -0.6063323155 0.59421575
385297690.0 0.6186598096 -0.5862498087 -9.11232e-05 -0.0001985402 6.99967e-05 -7.62893e-05 -0.5999240464 0.6001565851
390297660.0 0.6128983482 -0.5917413982 4.51823e-05 0.0001126166 -1.56171e-05 2.26497e-05 -0.5939990232 0.6062845928
395297630.0 0.6074525131 -0.5975102653 9.35285e-05 0.0002400971 -3.06505e-05 0.000179199 -0.5872171148 0.6129451385
400297600.0 0.6016597325 -0.6030834096 7.2361e-05 0.0001265764 -0.0002216968 -0.0002160692 -0.5812542928 0.6186807388
405297570.0 0.5953649659 -0.6090647074 -5.30574e-05 0.0002574262 -1.11592e-05 -0.0002435063 -0.5743059707 0.6241036323
410297540.0 0.5892418426 -0.61544363 -0.0001485172 -9.03329e-05 4.3502e-06 -0.0001136832 -0.5678909415 0.630373735
415297510.0 0.5832741139 -0.6208786864 -8.57643e-05 0.0001961954 2.15235e-05 -9.71096e-05 -0.5618666318 0.6360858166
420297480.0 0.5770214503 -0.6263876074 -0.0001787748 -2.4263e-05 -6.95577e-05 8.82313e-05 -0.5547294086 0.6419596176
425297450.0 0.570858622 -0.6319710944 0.0002875703 5.29556e-05 -7.80401e-05 0.0001277699 -0.5483930409 0.6480624045
430297420.0 0.5645096393 -0.637465714 3.00168e-05 0.000106925 5.80313e-05 9.41996e-05 -0.5417566726 0.6527917566
435297390.0 0.5580087391 -0.6426586335 -7.0604e-05 -0.0001636671 0.0002039261 8.12785e-05 -0.5343473564 0.6583617078
440297360.0 0.551349292 -0.6480878135 -0.0001738068 -7.7466e-06 -8.34356e-05 0.0002790063 -0.5280900618 0.6639449869
445297330.0 0.545075539 -0.653633116 0.0002653187 7.21786e-05 0.0001248858 8.14918e-05 -0.5211756825 0.6686288382
450297300.0 0.5394929068 -0.6581750291 5.14945e-05 4.42273e-05 -0.0001560943 0.0001245152 -0.5137149894 0.6745612093
455297270.0 0.5321283951 -0.6635005903 -0.0001279825 -6.49923e-05 4.14382e-05 0.0001214428 -0.5070405106 0.6789312649
460297240.0 0.5252808529 -0.668962408 -0.000386335 4.57607e-05 0.000188373 2.63697e-05 -0.5005463976 0.6847442174
465297210.0 0.5188436306 -0.6739925653 -0.000249674 -9.12052e-05 -0.0001137311 0.0001330612 -0.4928717706 0.6893344381
470297180.0 0.5113363999 -0.6783796753 -0.0002217453 -0.0001079583 2.1605e-06 6.22023e-05 -0.4859550241 0.6950684288
475297150.0 0.505411496 -0.6845138551 -0.0001034618 0.000229747 -0.0001395439 -6.53167e-05 -0.4783355803 0.6990669169
480297120.0 0.4983967007 -0.6891505582 -2.30006e-05 -0.0001061744 -0.0002324614 6.83097e-05 -0.4710853584 0.704296431
485297090.0 0.4911025972 -0.6934682373 3.46581e-05 -4.14768e-05 -9.71307e-05 -4.09831e-05 -0.4644223585 0.7089490852
490297060.0 0.484379312 -0.6980264608 -0.0001248069 5.18213e-05 5.86292e-05 -1.20599e-05 -0.4567826276 0.7135819302
495297030.0 0.4776278045 -0.7028833704 -0.0001653988 -5.57986e-05 -3.19578e-05 -3.366e-05 -0.4496069852 0.7184474253
500297000.0 0.4703909903 -0.7074679302 0.0002033335 0.0001713044 0.0001067031 9.27788e-05 -0.4416676449 0.7230642417
505296970.0 0.4636813822 -0.7122264105 -0.0001501128 -6.80082e-05 -0.0001411015 -4.11106e-05 -0.4349210175 0.7273855594
510296940.0 0.4563069901 -0.7171588568 0.0003637169 3.50979e-05 6.22738e-05 0.0001686822 -0.4272864822 0.7313240066
515296910.0 0.4494990957 -0.7210116155 -0.0001176528 6.08519e-05 5.20331e-05 -2.98214e-05 -0.4198593269 0.7356422485
520296880.0 0.4419543681 -0.7255080413 7.76094e-05 0.0001556886 0.0003258044 -4.2006e-06 -0.4119925849 0.7394131212
525296850.0 0.4352946165 -0.7296132961 6.7289e-05 -0.0001488628 3.22816e-05 -0.0001234313 -0.4047631118 0.7440271284
530296820.0 0.4277854183 -0.7334666935 -7.16842e-05 -9.54944e-05 2.52046e-05 -0.0001275083 -0.3971027681 0.7479301138
535296790.0 0.4204033802 -0.7375412821 -0.0001023765 1.09387e-05 -5.10476e-05 -8.52706e-05 -0.3900611027 0.7513878999
540296760.0 0.4130841402 -0.7415570791 -0.0001272417 -7.03892e-05 5.463e-06 6.8262e-06 -0.3817532499 0.7555373481
545296730.0 0.4054242459 -0.74579037 0.000169339 8.7839e-06 7.83103e-05 1.91833e-05 -0.3744703533 0.7591752143
550296700.0 0.3983983843 -0.7491975797 -3.36493e-05 6.57244e-05 0.00011444 0.0001003053 -0.3666179979 0.7627042873
555296670.0 0.3906971715 -0.753464005 0.0001326677 0.0001133617 -3.7162e-05 -9.70092e-05 -0.3587569036 0.7667650186
560296640.0 0.3831058191 -0.7564911134 -0.0001028373 8.75594e-05 -0.0001025935 0.0001602013 -0.3510896892 0.7705969875
565296610.0 0.3755566746 -0.7601935555 -7.07183e-05 0.0001442051 0.0002389749 3.80914e-05 -0.3428564834 0.7738398938
570296580.0 0.3677872657 -0.7640024133 5.76641e-05 -6.0519e-06 0.0001870319 1.91605e-05 -0.3358463541 0.7771190155
575296550.0 0.3603066081 -0.7673721653 1.28663e-05 -5.33216e-05 -1.34468e-05 0.0001946491 -0.3277585399 0.780896629
580296520.0 0.352838637 -0.7713782316 6.02559e-05 -0.0001258076 5.69029e-05 -9.74096e-05 -0.3191129563 0.7839911046
585296490.0 0.3445537543 -0.7746645549 0.0001811577 0.0001177581 2.04853e-05 0.0001270395 -0.310735476 0.7868081252
590296460.0 0.337293748 -0.7766529874 2.57e-08 -1.9518e-05 7.49865e-05 -0.0001940281 -0.303350051 0.7905990582
595296430.0 0.3296212039 -0.7813023675 -0.0002264236 -3.42148e-05 -2.54538e-05 0.0001377177 -0.2953391474 0.7923597901
600296400.0 0.3213042976 -0.7841546133 3.56089e-05 -0.0001576842 -8.32461e-05 -6.65555e-05 -0.2875789237 0.7958208131
605296370.0 0.3133586342 -0.7865944606 0.0002030674 -9.77707e-05 5.85094e-05 -2.39855e-05 -0.2791236687 0.7990264038
610296340.0 0.3057005697 -0.7900183032 -0.0001952921 0.0001376281 7.803e-07 -0.0001679305 -0.2709354991 0.8013545267
615296310.0 0.2982630974 -0.7931358912 -0.0001677841 -0.0001275922 -1.77662e-05 -0.0001799768 -0.2621902577 0.8037514068
620296280.0 0.2901199938 -0.7955609689 -4.22547e-05 -1.437e-05 0.000189123 -0.0001745266 -0.2548192625 0.8068104364
625296250.0 0.2823710498 -0.7983383025 0.0004149991 8.8008e-06 -5.99883e-05 0.0002943499 -0.2459002056 0.8089978232
630296220.0 0.2750076023 -0.8007172264 0.0001188204 0.0001039348 6.90957e-05 0.0002511272 -0.238011442 0.8116106149
635296190.0 0.2667070464 -0.8034727604 7.14063e-05 -0.0001346885 -2.46007e-05 2.83134e-05 -0.2301749776 0.8135919343
640296160.0 0.2585366019 -0.8061987864 -0.0001802753 8.6522e-05 2.31525e-05 1.22636e-05 -0.2218086227 0.8165457365
645296130.0 0.2502067105 -0.8079536841 -8.6215e-06 0.0002426531 0.000106494 -5.991e-06 -0.2140588003 0.8185591058
650296100.0 0.2420622741 -0.8104919001 -0.0002335079 0.0001363063 -7.00345e-05 2.63545e-05 -0.2055568257 0.819679535
655296070.0 0.2339809534 -0.813161662 0.0002966241 0.0001627453 -0.0001073217 0.0002262335 -0.1968040329 0.8220719192
660296040.0 0.2260748818 -0.8154038862 0.0002673034 -0.00026906 9.10106e-05 1.66178e-05 -0.1889082653 0.8239241233
665296010.0 0.2181344405 -0.8175686267 0.0001161647 -7.11579e-05 0.0002643352 0.0002294141 -0.180139359 0.8261173597
670295980.0 0.2092096525 -0.8191568795 -9.73286e-05 -2.12729e-05 -5.06704e-05 5.14075e-05 -0.1724989943 0.8275114068
675295950.0 0.2019397606 -0.8208732956 0.0001365687 -0.0001017752 0.0001166447 -5.23337e-05 -0.1650990248 0.8293803316
680295920.0 0.1931808742 -0.8225374817 -0.0002141761 -8.17403e-05 0.0001535884 3.43528e-05 -0.1560529789 0.8315074019
685295890.0 0.1855355722 -0.823960704 9.50662e-05 3.01138e-05 8.83635e-05 8.69802e-05 -0.1470869785 0.8324178942
690295860.0 0.1773260411 -0.8264607424 -3.09532e-05 0.0001822415 -8.27394e-05 -0.0002277435 -0.1389920322 0.834378371
695295830.0 0.168581907 -0.8277150571 -7.98189e-05 0.0001296356 5.81387e-05 -0.0001556101 -0.1305112323 0.8350446261
700295800.0 0.1609176999 -0.8297246442 -0.000125742 6.9027e-05 0.0001231797 2.1695e-05 -0.1231478784 0.8364417811
705295770.0 0.1518134179 -0.830437096 -0.0001738016 -9.92663e-05 6.09256e-05 9.48229e-05 -0.1141695483 0.8382922713
710295740.0 0.1434554814 -0.8319242198 -6.55138e-05 -0.0001866018 -0.000293044 -7.19093e-05 -0.105826028 0.8386975129
715295710.0 0.1350416596 -0.8339270398 -0.0001483911 -3.91157e-05 0.0001548608 0.000178826 -0.0974785515 0.8393276484
720295680.0 0.1274433103 -0.8346720591 0.0001510651 -7.83839e-05 6.6698e-06 0.0002011282 -0.088304141 0.8408032251
725295650.0 0.1184229168 -0.8350340803 9.75125e-05 7.33921e-05 -0.0001294777 -4.96741e-05 -0.0809214945 0.8415678329
730295620.0 0.1099098706 -0.8362710501 -1.46094e-05 8.96249e-05 1.49369e-05 3.9127e-06 -0.0729059857 0.8423857991
735295590.0 0.1017617829 -0.8365695369 -6.33953e-05 -0.0001226107 0.0001493866 -5.70528e-05 -0.0636842397 0.84264008
740295560.0 0.0937597137 -0.8379117359 -4.24605e-05 0.0003087889 -0.000108972 -0.000101275 -0.0548795955 0.8438648841
745295530.0 0.0852998382 -0.8389296446 -0.0002824878 8.08309e-05 -0.0001514631 0.0001263063 -0.0466243312 0.8433923616
750295500.0 0.0767684441 -0.8390459985 -1.49747e-05 7.56205e-05 -8.88866e-05 -8.30214e-05 -0.0385335886 0.8444514413
755295470.0 0.0676911067 -0.84059105 -0.0001791912 8.2491e-05 -5.26937e-05 0.0001289742 -0.0295621496 0.8442980273
760295440.0 0.0596561892 -0.8409820897 2.57078e-05 -2.8753e-06 -9.52092e-05 -3.02386e-05 -0.0213451899 0.8448046002
765295410.0 0.0517674259 -0.840979535 -0.0001720535 0.0002402341 -4.48645e-05 -9.52556e-05 -0.0130857171 0.8451531638
770295380.0 0.042623608 -0.8416509694 -0.0001906105 0.0004268072 -0.0001689131 4.38715e-05 -0.0048050112 0.8452449177
775295350.0 0.034324068 -0.8413155977 -0.0002276056 0.0001412754 9.2433e-06 0.0001152503 0.0030746902 0.8447529588
780295320.0 0.026174677 -0.8417299825 1.1458e-06 -0.0001056365 -3.70461e-05 0.0001086074 0.0115599255 0.8445848342
785295290.0 0.017842188 -0.8421959222 -0.000246504 -7.77874e-05 8.50381e-05 -9.29886e-05 0.0208484087 0.8445155151
790295260.0 0.0097583168 -0.8414510307 -2.24932e-05 -9.9305e-06 -2.56707e-05 3.7899e-06 0.0291962723 0.844838282
795295230.0 0.0010641483 -0.8419003747 0.0001227341 0.0001586809 -9.10243e-05 0.00029449 0.0379276767 0.8439880832
800295200.0 -0.0072305959 -0.8411850004 -0.0001587874 -9.20267e-05 -0.0001675406 -5.76427e-05 0.0464347407 0.8430191131
805295170.0 -0.0160762838 -0.8415613536 9.16124e-05 0.0001459252 0.0001020963 0.0001365921 0.0544921693 0.8439730748
810295140.0 -0.0233625545 -0.8409713444 6.33267e-05 -8.15243e-05 8.37907e-05 -4.61431e-05 0.0632069445 0.8424212199
815295110.0 -0.0327517801 -0.8401276152 -6.62758e-05 -3.64911e-05 8.42746e-05 8.76423e-05 0.0713914318 0.8421455572
820295080.0 -0.0406269355 -0.8398218064 -8.25135e-05 0.0001065211 -2.4119e-05 -0.0002088511 0.0796529142 0.8417946343
825295050.0 -0.048731992 -0.8394749855 0.0001482399 7.5545e-05 -5.69243e-05 0.0001899349 0.088175881 0.8410277553
830295020.0 -0.0570018373 -0.8390223327 6.43774e-05 -9.29907e-05 4.33046e-05 -6.75777e-05 0.0968260885 0.839510116
835294990.0 -0.0653174934 -0.8372345816 -5.0386e-05 -2.48399e-05 -9.24343e-05 -0.0001761893 0.104502028 0.8386361724
840294960.0 -0.0739587751 -0.8368902397 6.1809e-05 9.53767e-05 -9.78661e-05 0.0001523025 0.1126945683 0.8377097378
845294930.0 -0.0823798083 -0.8360837202 -0.0001362641 7.12561e-05 0.0001287187 -3.09783e-05 0.1210648866 0.8363381252
