!Created with skrf (http://scikit-rf.org).
# Hz S RI R 50.0 
!freq ReS11 ImS11 ReS21 ImS21 ReS12 ImS12 ReS22 ImS22
300000.0 -0.2354663169 -0.1222763472 0.46550464 0.0802957999 0.4649966192 0.0806120746 -0.235355095 -0.1267277222
5299970.0 -0.2450412418 0.0052723211 0.4738978093 0.0055774 0.4740934601 0.0059550909 -0.2434254724 0.004924862
10299940.0 -0.2418194551 0.0184688854 0.4760523253 0.0070647602 0.4760970398 0.0072952485 -0.2397904603 0.0179186395
15299910.0 -0.2369694176 0.0282874081 0.4798188182 0.008435479 0.4798621427 0.0084160656 -0.2360237744 0.0271610775
20299880.0 -0.2316012339 0.0363187994 0.4841146361 0.0082348916 0.4846230101 0.0085040567 -0.2310046176 0.0352767374
25299850.0 -0.2255354493 0.0428742213 0.4896161502 0.0083290596 0.4896535363 0.0075535155 -0.2261305303 0.0418459988
30299820.0 -0.2201308091 0.0474904824 0.4952810364 0.0058368548 0.4950770672 0.0053370441 -0.2205465346 0.0468722107
35299790.0 -0.214358912 0.0518719078 0.4999316307 0.0025151573 0.5005064835 0.0027474865 -0.2154476391 0.0514433653
40299760.0 -0.2090062343 0.0546954087 0.5053630861 -0.0016526194 0.5058272383 -0.0015992839 -0.2104278254 0.0547388746
45299730.0 -0.2038011405 0.0570638911 0.51029075 -0.0063032708 0.5106082123 -0.0060680132 -0.2055517525 0.0575938637
50299700.0 -0.1988258454 0.0590208115 0.5146814456 -0.0120465585 0.5147331992 -0.011803516 -0.2010118281 0.0600405159
55299670.0 -0.1950749708 0.0604419214 0.518161759 -0.0174770173 0.5179928125 -0.0176266066 -0.1972688058 0.0619804748
60299640.0 -0.1906942975 0.0618137749 0.52153184 -0.0239922758 0.5217419937 -0.0241286727 -0.1931959473 0.0630900427
65299610.0 -0.1871043391 0.0626932418 0.5251542844 -0.0302611255 0.5250520056 -0.0304175246 -0.1898803379 0.064751124
70299580.0 -0.1838426659 0.0631185551 0.5272247582 -0.0367529103 0.5272499289 -0.0369075002 -0.1869756353 0.0659549394
75299550.0 -0.1811988214 0.0636189512 0.5290798181 -0.0440647661 0.5294201263 -0.0438417727 -0.1836480345 0.0669840756
80299520.0 -0.1782962689 0.0647619744 0.5311712402 -0.0509783483 0.5314482153 -0.0510788757 -0.1814561029 0.0681961137
85299490.0 -0.1756264492 0.0647529745 0.5325833856 -0.0578162684 0.5325434498 -0.0577164832 -0.1793529388 0.0686176818
90299460.0 -0.1733503069 0.0655039595 0.5333145613 -0.0645863603 0.5331732032 -0.0646669273 -0.176705986 0.069761919
95299430.0 -0.1712769432 0.065663451 0.5339094816 -0.07132262 0.5342644795 -0.0719451393 -0.1745494731 0.0706750327
100299400.0 -0.1694447257 0.0660299333 0.5344832606 -0.078117023 0.5348189767 -0.0784910315 -0.1730096217 0.0721006154
105299370.0 -0.1676470649 0.0665291431 0.5345886549 -0.0849535157 0.5354486855 -0.0854483068 -0.170931741 0.0723086379
110299340.0 -0.1659089523 0.066715087 0.535268747 -0.0915770297 0.5354777686 -0.0918783447 -0.1696516124 0.0730781849
115299310.0 -0.1646241349 0.0675735315 0.5352528332 -0.0986288979 0.5353440087 -0.0988926439 -0.1680382169 0.0743599477
120299280.0 -0.163101627 0.0683515802 0.5352126282 -0.1059274984 0.5347335272 -0.106087061 -0.1663939623 0.0748794091
125299250.0 -0.1618805529 0.0687291969 0.5348545402 -0.1125425653 0.5346515825 -0.1123416519 -0.1653142963 0.0761200811
130299220.0 -0.1607221275 0.0690521681 0.5340108061 -0.1196021334 0.5340085744 -0.1198408425 -0.1638816677 0.0771208516
135299190.0 -0.1595388372 0.0699511945 0.5330285685 -0.1254571459 0.5337881287 -0.1263416775 -0.1626681041 0.0781234597
140299160.0 -0.1583472504 0.0708788533 0.5330661844 -0.1330163802 0.5326386716 -0.1321675027 -0.1620395911 0.0786687352
145299130.0 -0.1577092529 0.071528327 0.531475635 -0.1393048119 0.5314587468 -0.1390522084 -0.1604667415 0.0799310844
150299100.0 -0.1565013371 0.0724165057 0.5306551541 -0.1456603599 0.5306321765 -0.1459325538 -0.1597542311 0.0813076774
155299070.0 -0.155546288 0.0735321422 0.5287410536 -0.1520279575 0.5294658118 -0.1524364938 -0.1588033948 0.0825147149
160299040.0 -0.1547883564 0.074371218 0.5280963723 -0.1588612367 0.5282198932 -0.1591661509 -0.1578082308 0.0837052182
165299010.0 -0.1539335903 0.0751559053 0.52674083 -0.1647626822 0.5263114513 -0.1652401417 -0.1563189032 0.0843696045
170298980.0 -0.1531804151 0.0764024418 0.5247425812 -0.1716398278 0.5251372453 -0.1714696231 -0.1557733903 0.0858560791
175298950.0 -0.1521408554 0.0774984427 0.5234942583 -0.1780485307 0.523837282 -0.178176567 -0.1549341348 0.0875992393
180298920.0 -0.1518095038 0.0784817515 0.5220295229 -0.1842531746 0.5218774813 -0.1846606602 -0.1538463929 0.0885851395
185298890.0 -0.1508179987 0.0795308381 0.5202934224 -0.1907416164 0.520062786 -0.1903032879 -0.1526470387 0.0899642342
190298860.0 -0.1496974025 0.0806778267 0.5174804592 -0.1965268523 0.5181723371 -0.1965941597 -0.151953242 0.0912721603
195298830.0 -0.1489337377 0.0819451261 0.5161661154 -0.2024859991 0.5160551336 -0.2029106865 -0.150987026 0.0923807061
200298800.0 -0.1479913785 0.0825343752 0.5137950172 -0.2089380296 0.5139399741 -0.2088114627 -0.1499710786 0.0935008091
205298770.0 -0.1478764139 0.0838206209 0.5116232569 -0.2143761178 0.5115943087 -0.2144311152 -0.1489962739 0.0953199947
210298740.0 -0.1469417936 0.0855313891 0.5097601976 -0.2209649463 0.5089465681 -0.2205322752 -0.1485958562 0.096296591
215298710.0 -0.1461464867 0.0864505681 0.5067987939 -0.2263264931 0.5068710628 -0.2268578344 -0.147139558 0.097775234
220298680.0 -0.1454392538 0.0876884051 0.5042200553 -0.2328341698 0.5043238938 -0.2326053667 -0.1462107645 0.0990784068
225298650.0 -0.1444028614 0.0892664337 0.5015316026 -0.2386411133 0.5022692604 -0.2381561898 -0.1451139623 0.1004738473
230298620.0 -0.143572003 0.0906174978 0.4997636373 -0.244720951 0.4997401402 -0.244502631 -0.1443808622 0.1019377703
235298590.0 -0.1432118074 0.0919593155 0.4971764071 -0.2504170073 0.4972313941 -0.2502035429 -0.1434419026 0.1032592818
240298560.0 -0.1422564551 0.093222866 0.494562405 -0.2554065973 0.4943955513 -0.2560262397 -0.1424224799 0.1046594409
245298530.0 -0.1416614298 0.0941453604 0.4914765036 -0.2617860674 0.4916238473 -0.2617402963 -0.1413980724 0.1060768593
250298500.0 -0.1406811009 0.0955075376 0.4886276682 -0.2668673672 0.4888387942 -0.2668804852 -0.1404981553 0.1078750884
255298470.0 -0.139926999 0.0972459952 0.4862049865 -0.2721969802 0.486553354 -0.2728337483 -0.139385392 0.1095151738
260298440.0 -0.1389824848 0.0980249935 0.4830697088 -0.2776701642 0.4831775109 -0.2777514633 -0.1383395289 0.1101562344
265298410.0 -0.1386042861 0.099832966 0.479791598 -0.2839567805 0.4798690881 -0.2840037117 -0.1366098796 0.1117918376
270298380.0 -0.1375611494 0.1007732602 0.476858589 -0.2892178645 0.4768807395 -0.2892254418 -0.13571507 0.1136194965
275298350.0 -0.136623268 0.1025683662 0.4729686928 -0.2943454162 0.4738688276 -0.2947709943 -0.134843664 0.1149928041
280298320.0 -0.1362553717 0.1036014619 0.4703822471 -0.2997586072 0.4710020648 -0.3002799532 -0.133458706 0.1166879909
285298290.0 -0.1351446344 0.1051088386 0.466939917 -0.3051133993 0.467443055 -0.3049375545 -0.1327710799 0.1179692203
290298260.0 -0.1342726217 0.1066617611 0.4646937627 -0.3105198696 0.4643378563 -0.310404489 -0.1311500569 0.1194092643
295298230.0 -0.1333939741 0.1074486458 0.4608051406 -0.3162271067 0.4609022331 -0.3159321512 -0.1299798764 0.1207749729
300298200.0 -0.1324180028 0.1092255885 0.4572601673 -0.3209169101 0.4575824325 -0.3208241366 -0.1286861387 0.1221088051
305298170.0 -0.1315338128 0.1098116967 0.4540216655 -0.3264442633 0.453875657 -0.3265145995 -0.127299443 0.1230819847
310298140.0 -0.1302415835 0.1110789591 0.4502164097 -0.3314357975 0.4505211556 -0.3312499558 -0.1258843508 0.1246441551
315298110.0 -0.1296080929 0.1122026797 0.4468263876 -0.3369854888 0.4469982611 -0.3371009013 -0.1245050032 0.1259777894
320298080.0 -0.1287185817 0.1137371153 0.4427508664 -0.3417130093 0.443444405 -0.3421769066 -0.1236706109 0.1272017579
325298050.0 -0.1281919743 0.1142729429 0.4386723917 -0.3461370858 0.4393272945 -0.3470294591 -0.1219087361 0.1282763421
330298020.0 -0.1275274433 0.1160950126 0.435145641 -0.352082601 0.4355214887 -0.3518033446 -0.1212213913 0.1296331062
335297990.0 -0.1266092457 0.1173275048 0.4306640617 -0.3563489518 0.4315197192 -0.3567007209 -0.1198908782 0.1312950977
340297960.0 -0.12606939 0.1183535134 0.4266806661 -0.3616345562 0.4269684361 -0.3618493917 -0.1186478332 0.1329640522
345297930.0 -0.1249463431 0.1199448832 0.4231451963 -0.3666806231 0.4228538407 -0.3664578636 -0.1172143454 0.133929612
350297900.0 -0.1240921047 0.1211979843 0.4189996708 -0.3702801731 0.4191676697 -0.3707254307 -0.1159517938 0.1352492648
355297870.0 -0.123248658 0.1224339065 0.4148330795 -0.3750106509 0.4151074666 -0.3751582771 -0.1144804246 0.1366706216
360297840.0 -0.122246735 0.1237917799 0.4101580607 -0.3798314491 0.4106315314 -0.3803540912 -0.1134051996 0.1383833729
365297810.0 -0.1211875027 0.1251439298 0.4066135804 -0.3846433393 0.4063892159 -0.3847329553 -0.1119163641 0.1396017848
370297780.0 -0.1198729 0.1265041463 0.4016294846 -0.3888900396 0.4017044337 -0.3886491028 -0.1104789187 0.1405385888
375297750.0 -0.1189801319 0.1279018053 0.3981362991 -0.3932730856 0.3982228147 -0.393629009 -0.1090206629 0.1422581054
380297720.0 -0.1180689576 0.129098506 0.3935992122 -0.3978294214 0.3932791109 -0.3977862652 -0.1074148953 0.1437004177
385297690.0 -0.1170578799 0.1303106397 0.389160037 -0.4020413083 0.3893075974 -0.4026970306 -0.1058149894 0.1452483459
390297660.0 -0.1157276484 0.1313430843 0.3845288127 -0.4059490872 0.3846331079 -0.4063926685 -0.1040224983 0.1459597527
395297630.0 -0.1143071751 0.1325632143 0.3801909833 -0.409607476 0.3803652392 -0.409971725 -0.102974543 0.1472666934
400297600.0 -0.1136146278 0.1338248612 0.3759860133 -0.4145270693 0.375972781 -0.4146502059 -0.1007906124 0.1492104764
405297570.0 -0.1122461837 0.134554577 0.3711250225 -0.418027269 0.3714103052 -0.4186540546 -0.0991904429 0.1504106275
410297540.0 -0.111004786 0.1364174811 0.3666362959 -0.422924075 0.366678161 -0.4228852854 -0.0979465313 0.1516276361
415297510.0 -0.1098914411 0.1373009087 0.3616686456 -0.4266115713 0.3626641134 -0.4269071779 -0.0961645507 0.1527384407
420297480.0 -0.1088146965 0.1381983955 0.3573577543 -0.4307452193 0.3574068686 -0.4308688865 -0.0941384341 0.1543890151
425297450.0 -0.1070341672 0.1394248076 0.3526907023 -0.4345056464 0.3524698178 -0.4346644084 -0.0929270973 0.1550393362
430297420.0 -0.105992455 0.1405938465 0.3485574357 -0.4385147487 0.3484282996 -0.4381123759 -0.0909667828 0.1564407196
435297390.0 -0.1049089076 0.1417093934 0.3428526852 -0.4427948566 0.3431506158 -0.4423408342 -0.0898135774 0.1578403451
440297360.0 -0.1031954775 0.1427404016 0.337738067 -0.4459808219 0.3382057002 -0.445928411 -0.0877564746 0.1587438463
445297330.0 -0.1019472641 0.143475977 0.3338295342 -0.4492412379 0.3334773242 -0.4497572052 -0.0859178782 0.1598852543
450297300.0 -0.1007670446 0.1447641077 0.3283739098 -0.4529472205 0.3283477245 -0.4530499419 -0.0839065233 0.1609447794
455297270.0 -0.0998483901 0.1461275121 0.3239271622 -0.4568770176 0.3235584541 -0.4568756423 -0.0824551858 0.1622067194
460297240.0 -0.0976207574 0.1469800082 0.3187655934 -0.4608212823 0.3183300324 -0.4604799446 -0.0804815212 0.1630002029
465297210.0 -0.0963431855 0.147845016 0.3132551507 -0.4634980655 0.3130416377 -0.4640839186 -0.0785423242 0.1647705242
470297180.0 -0.0951049767 0.1489558271 0.3079751271 -0.4669111304 0.30849768 -0.4671813158 -0.076781652 0.1650439977
475297150.0 -0.094032092 0.1501299704 0.3031032963 -0.4703756147 0.3033504201 -0.4708090528 -0.0748850985 0.1662722678
480297120.0 -0.0918533569 0.1511722272 0.2977916901 -0.4735395141 0.297955873 -0.4734673845 -0.0732334958 0.1672455321
485297090.0 -0.0908938929 0.1517249545 0.2930785548 -0.4768463247 0.2925857046 -0.4767409532 -0.0711689756 0.1681090498
490297060.0 -0.0888517297 0.1532224549 0.2872079935 -0.4806476074 0.287399478 -0.4800188383 -0.0694151644 0.1686182019
495297030.0 -0.0877218059 0.1535254297 0.2825901079 -0.482999461 0.2821246111 -0.4832489782 -0.067155068 0.1696101583
500297000.0 -0.0862541064 0.1547806142 0.2770735215 -0.4860728197 0.2769214243 -0.4866382019 -0.0654184163 0.1707826083
505296970.0 -0.0842773514 0.1559711792 0.2716579643 -0.4892391504 0.2716985089 -0.4888570371 -0.0636258096 0.1713753399
510296940.0 -0.0827216662 0.1564495671 0.266677521 -0.4925164844 0.2665520267 -0.4924422516 -0.0613084394 0.1725652065
515296910.0 -0.0810459172 0.1578249419 0.2608115469 -0.4949525797 0.2608305237 -0.4950171819 -0.0599751559 0.173181024
520296880.0 -0.0793811756 0.1588399119 0.2551575418 -0.4975593597 0.2553248973 -0.4976166202 -0.0574965577 0.1743981581
525296850.0 -0.0779547137 0.1595169449 0.2496689193 -0.5005952705 0.2498612011 -0.5004221207 -0.055530767 0.1747417277
530296820.0 -0.0767425914 0.1601145992 0.2444326196 -0.5031683368 0.244486525 -0.5030698588 -0.0536921529 0.1753373903
535296790.0 -0.0741447858 0.161347574 0.2387079565 -0.5056701911 0.238888348 -0.506128019 -0.0514107955 0.1765522951
540296760.0 -0.072812786 0.162340929 0.2333321271 -0.5082133589 0.2333401679 -0.5082725459 -0.0496147738 0.1768481165
545296730.0 -0.0715635222 0.1634838686 0.2280796981 -0.5106209973 0.2275493909 -0.5105494779 -0.0474041698 0.1775947453
550296700.0 -0.0695241731 0.1639833815 0.2224205672 -0.5134593007 0.2218845707 -0.5133128538 -0.0452946719 0.1780762412
555296670.0 -0.0680390954 0.1648535629 0.2165301467 -0.5156342364 0.2166464022 -0.5156868015 -0.043741484 0.1784307825
560296640.0 -0.0656740915 0.1654983111 0.2106803451 -0.517799392 0.2114628102 -0.517573677 -0.0417468243 0.1795385314
565296610.0 -0.0647976799 0.1664977429 0.2056384721 -0.5201684638 0.2056768257 -0.5197025846 -0.0398088389 0.1801808221
570296580.0 -0.0630406014 0.1671055718 0.1994140031 -0.5221735663 0.1994580781 -0.5224634791 -0.0376231302 0.180360235
575296550.0 -0.0610991675 0.1679915791 0.1942599493 -0.5241591042 0.1939666136 -0.5244753164 -0.0353914079 0.1810360501
580296520.0 -0.0595352242 0.1690441385 0.1884319793 -0.5263565513 0.1882729302 -0.5267902219 -0.0337594882 0.1817022206
585296490.0 -0.0576542161 0.1696924646 0.1829485802 -0.5283256185 0.1822045517 -0.5286332237 -0.0309652436 0.1824036786
590296460.0 -0.0552283479 0.1703619533 0.1771136507 -0.5305339124 0.1769721602 -0.5303432144 -0.0298273185 0.1826351716
595296430.0 -0.0540026114 0.1711610962 0.1709138755 -0.5320934011 0.1704464426 -0.5320587314 -0.0271708426 0.1829884483
600296400.0 -0.0521037115 0.1719225169 0.1645944284 -0.5337518709 0.1650413415 -0.5341308975 -0.0253756148 0.1835888921
605296370.0 -0.0505921848 0.1728295906 0.1594902641 -0.5355659431 0.1589327746 -0.5358803471 -0.0233335113 0.1838727134
610296340.0 -0.0482194404 0.1737794964 0.1532246002 -0.536679935 0.1541933639 -0.537226478 -0.0212313192 0.1843594905
615296310.0 -0.0464842958 0.1741222811 0.1478977779 -0.5390662557 0.1472925316 -0.5390359422 -0.0190154313 0.1849792361
620296280.0 -0.0453086304 0.1751639226 0.1416529171 -0.5401955951 0.1418012696 -0.5406195452 -0.0175199538 0.1854215344
625296250.0 -0.0437336547 0.1755707032 0.1359500148 -0.5419196324 0.1360940787 -0.5420877512 -0.0153504411 0.185608052
630296220.0 -0.0418392448 0.1765302922 0.1299463793 -0.543643942 0.1300678633 -0.5433339967 -0.0130866303 0.1855086275
635296190.0 -0.0401793667 0.1772900082 0.1244386241 -0.544957344 0.1239363464 -0.5444924938 -0.0109348312 0.1858337102
640296160.0 -0.0381555379 0.1775658729 0.1180845964 -0.5461196601 0.1183936976 -0.5460535096 -0.0093324384 0.1860047555
645296130.0 -0.0360955553 0.1786276414 0.1120954739 -0.547241365 0.1122805322 -0.546962164 -0.0072467687 0.1861458039
650296100.0 -0.0345906679 0.1788725921 0.1063380199 -0.5484169304 0.1062351465 -0.5483063223 -0.004306857 0.1863688048
655296070.0 -0.0329653189 0.1792593651 0.1004079873 -0.5494619748 0.1003927422 -0.5493282788 -0.003121884 0.1870484955
660296040.0 -0.0312162882 0.1801480024 0.0947042652 -0.5505031351 0.0941682791 -0.5506112682 -0.0008197648 0.1868632813
665296010.0 -0.0292643013 0.1809220234 0.0882891539 -0.5513716832 0.0880217088 -0.5513671152 0.0013657356 0.1872029307
670295980.0 -0.0273561473 0.1813129429 0.0821568066 -0.5523668105 0.082414828 -0.5519310612 0.0029611835 0.1868626847
675295950.0 -0.0258667519 0.1817434674 0.0765578268 -0.5529779142 0.0767993092 -0.5531220662 0.0052420144 0.1874025576
680295920.0 -0.0244273341 0.1825709324 0.0709935873 -0.5539183965 0.0704908717 -0.5538894957 0.0077373047 0.1870212647
685295890.0 -0.022015919 0.1830563351 0.0644804632 -0.5544128095 0.0642493365 -0.5545621327 0.0096325052 0.1875950903
690295860.0 -0.0207843892 0.1837100565 0.0586709466 -0.555187042 0.0583673837 -0.5553774383 0.0117358914 0.1875767426
695295830.0 -0.0187879512 0.183765503 0.052778958 -0.5561876198 0.052480069 -0.555786581 0.0135237941 0.187673691
700295800.0 -0.0168942951 0.184386886 0.0470118745 -0.5563388832 0.0464738808 -0.5563537389 0.0158701559 0.1875163652
705295770.0 -0.0152149808 0.1849047303 0.0405031681 -0.5569630547 0.0407389181 -0.5566286259 0.0178526716 0.1876250431
710295740.0 -0.0137438314 0.1850602638 0.0349783993 -0.5571453917 0.034715941 -0.5572931128 0.0201283764 0.1875528089
715295710.0 -0.0116378166 0.1858810682 0.0284131287 -0.5576622213 0.0283956523 -0.5573343304 0.0219861023 0.1873669777
720295680.0 -0.0096525316 0.1860908063 0.0228020078 -0.557397678 0.0224557498 -0.5581920301 0.0239121419 0.1872762796
725295650.0 -0.0083774198 0.1863629257 0.0171055869 -0.5580252011 0.016884413 -0.5579219931 0.0257281201 0.1875301816
730295620.0 -0.0071053134 0.1868884809 0.0109580759 -0.5574579663 0.0106585047 -0.5574119615 0.0280753636 0.1874868761
735295590.0 -0.0046227913 0.1873637603 0.0044295526 -0.5577769034 0.0047853154 -0.5577307964 0.0302757987 0.1866854064
740295560.0 -0.0034021662 0.1872004852 -0.001370942 -0.5582383691 -0.0011148507 -0.5578649369 0.0320200526 0.1866635644
745295530.0 -0.0017602631 0.1877908166 -0.0066093279 -0.5571243771 -0.0063904335 -0.5577682426 0.0336632638 0.1866158059
750295500.0 -4.12378e-05 0.1879832159 -0.0126837356 -0.5574168148 -0.0132229481 -0.5578234939 0.0359164764 0.1867733874
755295470.0 0.0016276868 0.1882409558 -0.0186848156 -0.557664706 -0.0188595985 -0.5579619559 0.0379829229 0.1867816032
760295440.0 0.0035263014 0.1888300969 -0.0256561346 -0.5574623719 -0.0254331944 -0.5571106552 0.0401517026 0.1855028649
765295410.0 0.0054875577 0.1886714875 -0.0311564311 -0.5568579965 -0.0310030849 -0.5573638199 0.0422936511 0.1856689192
770295380.0 0.0067229368 0.1892852955 -0.0365971884 -0.5564980959 -0.0369986012 -0.5571377856 0.0442302795 0.185642918
775295350.0 0.0088120977 0.1888609747 -0.0428797918 -0.556112264 -0.0428477742 -0.5556075028 0.0462366759 0.1850410499
780295320.0 0.0104155771 0.1895114085 -0.0488097879 -0.5554766015 -0.0486718439 -0.5556200506 0.048659691 0.18475852
785295290.0 0.0119460482 0.1892272778 -0.0549677183 -0.5548553679 -0.0547618968 -0.5553033026 0.0500349627 0.184398738
790295260.0 0.013657545 0.1892919778 -0.06084052 -0.5548314518 -0.0606613249 -0.5547590465 0.0520204635 0.1842412221
795295230.0 0.0155720886 0.1892224191 -0.0668138495 -0.5536122244 -0.0667317017 -0.5536494164 0.0542118949 0.1830037734
800295200.0 0.017017987 0.1894772852 -0.0720405311 -0.5522674439 -0.0728297231 -0.553008547 0.0559502879 0.1829648876
805295170.0 0.0188267807 0.1897112265 -0.0783959475 -0.5523610914 -0.0783217404 -0.5520479854 0.0587530467 0.1824193696
810295140.0 0.0207683586 0.1897199108 -0.0842058991 -0.5512149303 -0.0846387623 -0.5512516219 0.0606293682 0.1821647289
815295110.0 0.0223401446 0.1897058401 -0.0900901166 -0.5502253734 -0.0899853903 -0.5503009586 0.0620522035 0.1815748242
820295080.0 0.0242157044 0.1895460885 -0.0958193718 -0.5488610701 -0.0962300521 -0.5492858947 0.0636248673 0.1816983742
825295050.0 0.0258450878 0.189355335 -0.1022955398 -0.5483405183 -0.1020797395 -0.5479787536 0.0664799238 0.1810527641
830295020.0 0.0275820275 0.1894115875 -0.1081610587 -0.5469614334 -0.1079180647 -0.5470465194 0.0682548708 0.1798981354
