!Created with skrf (http://scikit-rf.org).
# Hz S RI R 50.0 
!freq ReS11 ImS11 ReS21 ImS21 ReS12 ImS12 ReS22 ImS22
300000.0 -0.3260263756 -0.0835477039 0.3773380116 0.0435614916 0.3747712248 0.041957355 -0.3214156797 -0.1002379951
5299970.0 -0.3264920413 0.0040368945 0.3782913139 0.0024121017 0.3787715396 0.0027656348 -0.3240078803 0.0047354685
10299940.0 -0.324106111 0.0133382207 0.3795246026 0.0018842273 0.3798064661 0.002546014 -0.3216855549 0.0161580372
15299910.0 -0.3214602386 0.0201744849 0.3820142916 0.0021875365 0.3818777155 0.0021577756 -0.3182283671 0.0238043766
20299880.0 -0.3186846976 0.0262304732 0.3849595028 0.001845984 0.3849459271 0.001617812 -0.3148692284 0.0302368151
25299850.0 -0.31580673 0.0315781925 0.3880947298 8.23637e-05 0.3879927673 -8.35182e-05 -0.3105863567 0.0360283156
30299820.0 -0.3126724277 0.0357872483 0.391347424 -0.0022904953 0.391547333 -0.0024324265 -0.3069320393 0.0411005097
35299790.0 -0.309978263 0.0401646372 0.394969399 -0.0056208516 0.3945876512 -0.0050397889 -0.3036982596 0.0450432444
40299760.0 -0.3071942536 0.0436119332 0.3978157837 -0.0085617209 0.3980312816 -0.0086174323 -0.3004583548 0.0484870992
45299730.0 -0.3044348351 0.046721527 0.4003673704 -0.012710908 0.4010740078 -0.0125438031 -0.2972575979 0.0518265836
50299700.0 -0.3023925008 0.0492915277 0.4036581822 -0.0173080886 0.403720388 -0.0171202516 -0.2943957503 0.0545114867
55299670.0 -0.3003401589 0.0520683137 0.4055681998 -0.0219028262 0.4055611209 -0.0219810248 -0.291655789 0.0571721877
60299640.0 -0.2979359449 0.0548915334 0.4074480634 -0.0269354872 0.4077901058 -0.0267074303 -0.2891271577 0.0595978894
65299610.0 -0.2962314867 0.0573387192 0.4090592674 -0.0319240538 0.4091382061 -0.0316833588 -0.2871181645 0.0615285458
70299580.0 -0.2945183472 0.060271138 0.410410054 -0.0372278707 0.4103639152 -0.0366913121 -0.2848784378 0.0638630564
75299550.0 -0.292909393 0.0622791338 0.4112682558 -0.0422115415 0.4113081726 -0.0421172128 -0.2832783963 0.0658375875
80299520.0 -0.2915758011 0.0648096171 0.4124795903 -0.0475563953 0.4125504798 -0.0473860397 -0.281688001 0.067958638
85299490.0 -0.2904161448 0.0669095745 0.4128625963 -0.052777686 0.4129962788 -0.0522490935 -0.2801112949 0.0699825283
90299460.0 -0.2889338403 0.0693088914 0.4132233263 -0.0582245424 0.4134887232 -0.057856123 -0.2783259383 0.0721369629
95299430.0 -0.2875280931 0.0713777905 0.4134583054 -0.0631866356 0.4135819623 -0.0633395909 -0.2766465316 0.0744819796
100299400.0 -0.2863451686 0.074022792 0.4132388991 -0.0680721974 0.4134913716 -0.0683973825 -0.2753484781 0.0758570733
105299370.0 -0.2853187144 0.0766310235 0.4133035043 -0.0738536085 0.4132790135 -0.0736050466 -0.2735480442 0.0782958735
110299340.0 -0.2840197584 0.0787934605 0.4134694418 -0.0786541838 0.4130379278 -0.0782886864 -0.2725553151 0.0802613606
115299310.0 -0.2829219095 0.0810759056 0.4128211029 -0.0840167739 0.4128350834 -0.0837236855 -0.2717839594 0.0822070175
120299280.0 -0.2819153987 0.0830722441 0.4123216527 -0.0885304362 0.4126729624 -0.0889115676 -0.2705339284 0.0844084758
125299250.0 -0.2809931034 0.0854728338 0.4118621655 -0.0938383578 0.4120071274 -0.0938025348 -0.2694806856 0.0863039513
130299220.0 -0.2801176598 0.0882903968 0.4111504281 -0.0990521394 0.4112316957 -0.0989263611 -0.2684438988 0.0882407749
135299190.0 -0.2792770532 0.0906892348 0.4109359529 -0.1041541952 0.4107970552 -0.1038522447 -0.2670739164 0.0909267324
140299160.0 -0.2786560129 0.093452212 0.4097637394 -0.1095028122 0.4097636236 -0.1088586852 -0.266160438 0.0934001893
145299130.0 -0.2773289224 0.0958043831 0.4089073392 -0.1141475207 0.4083044132 -0.1139255563 -0.2655379679 0.0956130691
150299100.0 -0.2764073908 0.0984147315 0.407501253 -0.1188716979 0.4076359269 -0.1182547778 -0.2643875791 0.0986123424
155299070.0 -0.2757042908 0.100895039 0.4068043314 -0.1243190961 0.4065423291 -0.1238040319 -0.2634508952 0.1007390589
160299040.0 -0.2745560417 0.1032372481 0.405233147 -0.1283831992 0.4051217732 -0.1285574076 -0.2625843547 0.1030737592
165299010.0 -0.2736493222 0.1060326958 0.4042593978 -0.1338429856 0.4042795283 -0.1334562312 -0.261276042 0.1057246189
170298980.0 -0.2727403789 0.1083954253 0.4028122074 -0.1383530316 0.4030062579 -0.1382461602 -0.2601893893 0.1078683432
175298950.0 -0.2718171408 0.1112450677 0.4017346886 -0.1430951315 0.401304664 -0.1430146795 -0.2594067513 0.1106467442
180298920.0 -0.2710701691 0.1139483337 0.4003000397 -0.1479407597 0.3997668425 -0.1476197768 -0.2583527168 0.1133065028
185298890.0 -0.2696837837 0.1163386377 0.3986055026 -0.1524840472 0.3981345999 -0.1523385251 -0.2573012622 0.1159782416
190298860.0 -0.2685720516 0.1193929299 0.3967585944 -0.157424161 0.3972254779 -0.1574196494 -0.2564018402 0.118331929
195298830.0 -0.2676751031 0.1218393447 0.3953283014 -0.1618947758 0.3953464707 -0.1615998771 -0.2552830576 0.1209303616
200298800.0 -0.2662406593 0.124344233 0.3934046823 -0.1663657992 0.3935554493 -0.1666713721 -0.2546083526 0.1231167104
205298770.0 -0.2654532789 0.1273790825 0.391685744 -0.171600077 0.3916853344 -0.1712476088 -0.2528633308 0.12582164
210298740.0 -0.2644149821 0.1299519333 0.3899477319 -0.1755034807 0.3896927761 -0.1753177933 -0.2516370691 0.1288249328
215298710.0 -0.2633991567 0.132779048 0.3881664389 -0.1802022033 0.3879856131 -0.1802262001 -0.2511020064 0.1311340066
220298680.0 -0.2620572689 0.1352373958 0.3854759417 -0.1844641417 0.385869046 -0.1847054688 -0.2500109525 0.13334416
225298650.0 -0.2608600579 0.1379844736 0.3837059988 -0.1894215671 0.3843506526 -0.1889014278 -0.2492579153 0.1359603777
230298620.0 -0.2597940099 0.1408949347 0.3820695264 -0.1931819884 0.3823338937 -0.193224038 -0.2480815549 0.1384948577
235298590.0 -0.2582456028 0.1438277552 0.379753056 -0.1978629364 0.380018326 -0.1975165191 -0.2465767092 0.1409511269
240298560.0 -0.2569230305 0.1461989898 0.377688111 -0.2021439458 0.3776593751 -0.2023680195 -0.2453809002 0.1439182771
245298530.0 -0.2559792421 0.1490441328 0.3754307791 -0.2064531074 0.3755631502 -0.2065749272 -0.244041815 0.1460878148
250298500.0 -0.2543274624 0.1518856376 0.3726293786 -0.2109394024 0.3729829459 -0.2105149597 -0.2429674862 0.1485558384
255298470.0 -0.2529501515 0.1541190266 0.370506753 -0.2148513592 0.3707665867 -0.214957939 -0.2414582148 0.1507765011
260298440.0 -0.251413079 0.1567152643 0.3682642954 -0.2190484954 0.3685635357 -0.2190897661 -0.2398072682 0.1535400823
265298410.0 -0.2498841387 0.1599479277 0.3658048848 -0.2238881957 0.3660449174 -0.2231315264 -0.2383771432 0.1564346719
270298380.0 -0.2484681791 0.1625546993 0.3637879562 -0.22718966 0.3637063911 -0.2275700389 -0.2367280863 0.1587466035
275298350.0 -0.2466472936 0.1651240224 0.3606418986 -0.2318466147 0.3611915133 -0.2313943135 -0.2350364582 0.1610577037
280298320.0 -0.2448630455 0.1677181214 0.3588731026 -0.2358584223 0.3584772141 -0.2356895953 -0.2334300729 0.1633701648
285298290.0 -0.2436889869 0.1706964396 0.3559930584 -0.239758614 0.3559536504 -0.239923794 -0.232107508 0.1659563151
290298260.0 -0.2418570994 0.1733828598 0.3532494964 -0.2436939214 0.3535172331 -0.2438109956 -0.230252116 0.1686423731
295298230.0 -0.239926079 0.1757305059 0.3507611273 -0.2478801388 0.3506403272 -0.2477071206 -0.2283537517 0.1709297071
300298200.0 -0.238511995 0.178463208 0.3480110227 -0.2515402965 0.348391855 -0.2518589424 -0.2269561882 0.1735473378
305298170.0 -0.236493916 0.1806637338 0.3450992259 -0.2557208585 0.3451044679 -0.2556496056 -0.2244751494 0.1756112723
310298140.0 -0.2348964224 0.1834855051 0.342221206 -0.2595044717 0.342840939 -0.2594342955 -0.2230881663 0.1778630612
315298110.0 -0.2329582075 0.1856589132 0.339358585 -0.2632032103 0.3396240488 -0.2634324799 -0.2211971365 0.1803520979
320298080.0 -0.2311435757 0.188143925 0.3361529868 -0.2678002804 0.3364207301 -0.2674915021 -0.2194433148 0.1833157577
325298050.0 -0.2292297354 0.1908810846 0.3334524624 -0.2712950247 0.3334835597 -0.2711416714 -0.2178691749 0.1852785694
330298020.0 -0.2275127473 0.1932060345 0.3302594328 -0.2748152868 0.3303734896 -0.2749462733 -0.2159155518 0.1878245077
335297990.0 -0.2256595221 0.1956462732 0.3275331599 -0.2782382225 0.3271007987 -0.2787944871 -0.214595042 0.1906479828
340297960.0 -0.2239493118 0.1981622432 0.3237217337 -0.2822079534 0.3238290522 -0.2824367879 -0.2122676314 0.1929169714
345297930.0 -0.2223317265 0.20094285 0.3207680406 -0.2856884149 0.320779554 -0.2857254082 -0.2105820552 0.1949673673
350297900.0 -0.2201144775 0.2029459545 0.3171241764 -0.2892470796 0.31740463 -0.2892462581 -0.2087848697 0.1977499744
355297870.0 -0.2180330427 0.2062872415 0.3139550186 -0.2932977106 0.3145306162 -0.2928040109 -0.207141282 0.2002724105
360297840.0 -0.2160057156 0.2082336454 0.3111024457 -0.2958679867 0.3112998397 -0.2959337254 -0.2049297135 0.2029506143
365297810.0 -0.2141766645 0.2112492177 0.3077891986 -0.2998019352 0.3080075802 -0.2995739849 -0.2027923353 0.2049833019
370297780.0 -0.2117772748 0.2132174668 0.304264524 -0.3029370164 0.3049537128 -0.3027523057 -0.2009130986 0.2075443295
375297750.0 -0.209380544 0.2156596544 0.3010464623 -0.3062841334 0.3013289875 -0.3062687893 -0.1988408191 0.2095542653
380297720.0 -0.2075837076 0.2177981359 0.2974412915 -0.3097305988 0.2975348324 -0.3092108662 -0.1970425132 0.2119330708
385297690.0 -0.2054860125 0.2203250996 0.2937004192 -0.3126855112 0.2939796046 -0.3129566302 -0.1946818537 0.2145066792
390297660.0 -0.2032550299 0.2224819508 0.2907214882 -0.3164130525 0.2907529253 -0.3157935099 -0.192927088 0.216247382
395297630.0 -0.2007038521 0.2252005 0.2872675132 -0.3194572753 0.2870772676 -0.3191034765 -0.1903436087 0.2186294275
400297600.0 -0.1985971667 0.2272029614 0.2835423573 -0.3226489782 0.2834945139 -0.3223498985 -0.1881492576 0.220717674
405297570.0 -0.196539195 0.2294435433 0.2797069238 -0.3252942416 0.280205931 -0.3252739454 -0.1863815908 0.2229953695
410297540.0 -0.1938403196 0.2317361676 0.2765484962 -0.3285832875 0.2766430112 -0.3283500303 -0.1838138739 0.2249106932
415297510.0 -0.1913100425 0.2338082649 0.2722560911 -0.3318693605 0.2729815181 -0.3315343052 -0.181624281 0.226916417
420297480.0 -0.189159474 0.2361793098 0.2689462914 -0.334213169 0.2690763319 -0.334751501 -0.1794599515 0.229293387
425297450.0 -0.1864316808 0.2381019143 0.2651948645 -0.3374331254 0.2658636041 -0.3375377357 -0.1771089326 0.2313559887
430297420.0 -0.1842637844 0.2402003961 0.2615716846 -0.3400893478 0.2614880185 -0.3403416115 -0.175072926 0.2333272538
435297390.0 -0.1815525047 0.2423627753 0.2573803468 -0.3429685975 0.2576627334 -0.3429900509 -0.1720116711 0.2349921698
440297360.0 -0.1791446663 0.2447776404 0.2538551972 -0.3456491812 0.2543415837 -0.3458555137 -0.1699803209 0.2368436504
445297330.0 -0.1767450042 0.2464699721 0.2505397523 -0.3484370735 0.2503501864 -0.3484727215 -0.1673857376 0.2382186877
450297300.0 -0.1740013699 0.2483661971 0.2464090698 -0.3513862917 0.2465010099 -0.3513408512 -0.1648092651 0.2404722185
455297270.0 -0.1717189696 0.2503545559 0.2423880606 -0.3537643983 0.2427555795 -0.3538572978 -0.1620770817 0.2423166662
460297240.0 -0.1692510071 0.2525351433 0.238290118 -0.3565430462 0.2386555981 -0.3565086558 -0.1597843172 0.2445585323
465297210.0 -0.1660998426 0.2546204922 0.2345821147 -0.3588891848 0.2345790888 -0.3592711692 -0.1570314852 0.245772408
470297180.0 -0.1635721553 0.2563219035 0.2304533365 -0.3620371273 0.2309778876 -0.3619047755 -0.154117593 0.2481518076
475297150.0 -0.1610416498 0.2580530696 0.2266405748 -0.3640994638 0.2267444568 -0.3634522516 -0.1517051114 0.2491523256
480297120.0 -0.1586688596 0.2600988448 0.2228742963 -0.3662365163 0.2222587792 -0.3668593826 -0.1486002189 0.2512350134
485297090.0 -0.1554582464 0.261786577 0.2184477638 -0.3688182884 0.2188451318 -0.3687448213 -0.1460777921 0.2530582693
490297060.0 -0.1531750409 0.2637778418 0.214960197 -0.3711998876 0.214719019 -0.3710806335 -0.143531093 0.254854597
495297030.0 -0.1502522002 0.2655073164 0.2103174619 -0.3734321929 0.2111111624 -0.3736653473 -0.1411508996 0.2570195832
500297000.0 -0.1473520321 0.2670655503 0.2064339067 -0.3756545568 0.2060476142 -0.3753268372 -0.1381024389 0.2586084041
505296970.0 -0.1443644249 0.2689248838 0.2021570577 -0.3779261023 0.2021308185 -0.3782320973 -0.1354188547 0.2599263914
510296940.0 -0.141668838 0.2707356199 0.1981139189 -0.3801973757 0.1978421066 -0.380004525 -0.1324502199 0.2618511999
515296910.0 -0.1389175862 0.2719574348 0.1940658782 -0.3823621652 0.1938117658 -0.3823875765 -0.1296836323 0.2633193397
520296880.0 -0.1362179402 0.2739621678 0.1899554106 -0.3847006992 0.1898598808 -0.3840798126 -0.1272251129 0.2647536179
525296850.0 -0.1330464607 0.2749709755 0.1851794947 -0.3861221569 0.1855755532 -0.3863029555 -0.1242026027 0.2665390205
530296820.0 -0.1300765525 0.2770638199 0.1810740948 -0.3885155326 0.1813115355 -0.3881488142 -0.1217980378 0.2680848917
535296790.0 -0.1276745052 0.278316447 0.1773277943 -0.3899625546 0.1769690942 -0.389953731 -0.1189404605 0.2687144401
540296760.0 -0.1244256134 0.2797081424 0.1727476144 -0.3921158448 0.1726879978 -0.3923586666 -0.1164397262 0.2711958484
545296730.0 -0.1216001337 0.2812022588 0.167964258 -0.3936443933 0.1682863165 -0.3940360799 -0.1138212016 0.2723200179
550296700.0 -0.1187919479 0.2828768812 0.163931261 -0.3957296428 0.1641855805 -0.3957272337 -0.1108088079 0.2736600701
555296670.0 -0.1158979465 0.2839959748 0.1598678275 -0.3972892073 0.1600706982 -0.3973121275 -0.1082222339 0.2754129141
560296640.0 -0.1126320817 0.2859977507 0.1553882626 -0.3993713929 0.1556614153 -0.3988203889 -0.1051174635 0.2763139624
565296610.0 -0.1103614218 0.2870334121 0.1512584736 -0.4009937454 0.1511387465 -0.4008945426 -0.1024959658 0.2776346639
570296580.0 -0.1071422153 0.2879288932 0.1467878798 -0.4027590121 0.146225887 -0.4023956766 -0.0995166181 0.2789759704
575296550.0 -0.1041309699 0.2896678924 0.1426103719 -0.4044546279 0.1421459903 -0.4042159427 -0.0965210647 0.2799210811
580296520.0 -0.1008571752 0.2904518057 0.1378174807 -0.4055485052 0.1377841261 -0.4054925527 -0.0935043104 0.2810717471
585296490.0 -0.0979271925 0.2913471146 0.1336570498 -0.4063471257 0.1334630977 -0.406722842 -0.0904461463 0.2824683382
590296460.0 -0.0944100378 0.2930952678 0.1286864684 -0.4080740451 0.1290603826 -0.408141104 -0.088297017 0.2835265748
595296430.0 -0.0915088581 0.2942274426 0.1239423579 -0.4096601581 0.1243119598 -0.4095535114 -0.0850046135 0.2841738008
600296400.0 -0.0885695341 0.2955948063 0.1198027217 -0.4109784327 0.1200552653 -0.4106589449 -0.0820780667 0.2850383328
605296370.0 -0.0855818438 0.2962964038 0.1154053617 -0.4119838865 0.1158439035 -0.4121854827 -0.0785380311 0.2861630198
610296340.0 -0.0821969305 0.2972986935 0.1107473809 -0.4132194471 0.1111557807 -0.4133706288 -0.0757084626 0.2870558334
615296310.0 -0.0790296985 0.2983522209 0.1061101227 -0.414364372 0.1064542279 -0.414641967 -0.0724635408 0.2881672016
620296280.0 -0.0764378718 0.2989056261 0.1019728138 -0.4152514605 0.1022184244 -0.4149217429 -0.0695845446 0.2890581396
625296250.0 -0.0732100005 0.299727808 0.0978571473 -0.4163841438 0.0976195704 -0.4166834287 -0.0663514329 0.2896474809
630296220.0 -0.0692964761 0.3009328587 0.0926466982 -0.4176837475 0.0929684701 -0.4173431784 -0.0631923033 0.2907782378
635296190.0 -0.0668900443 0.3016091882 0.0883801851 -0.4183230907 0.088393883 -0.4187040048 -0.0601974322 0.291519576
640296160.0 -0.0637057082 0.302599321 0.0841452897 -0.419157894 0.084298059 -0.419328954 -0.0571603161 0.2921553162
645296130.0 -0.06061963 0.3038598429 0.0793222339 -0.4202113292 0.0795907142 -0.4202606011 -0.0538398395 0.2929827097
650296100.0 -0.0572645029 0.3040169958 0.0747961586 -0.4206341387 0.0748424777 -0.4207244978 -0.0508102669 0.2931696201
655296070.0 -0.0541947968 0.3046372199 0.0700969729 -0.4212240165 0.0703124864 -0.4217627819 -0.047675814 0.2943801268
660296040.0 -0.0510736962 0.3052705605 0.0656252739 -0.422035144 0.0656241017 -0.4223507899 -0.0442167068 0.2951247396
665296010.0 -0.04729892 0.3059341482 0.0605221568 -0.4227778339 0.060907062 -0.4229819392 -0.0411741519 0.2956645776
670295980.0 -0.044924927 0.3071751267 0.0566794828 -0.4236536551 0.0565144027 -0.4237182268 -0.038229378 0.296572667
675295950.0 -0.0414545928 0.3075018181 0.0515928096 -0.4236020767 0.0520501569 -0.423405803 -0.0354635441 0.2970725707
680295920.0 -0.0383764028 0.3081946655 0.0473533515 -0.424205374 0.0470262785 -0.4247194314 -0.0319750919 0.298107549
685295890.0 -0.0344643754 0.3089487672 0.0422927739 -0.4250752688 0.0425008265 -0.4250549828 -0.0287887278 0.2982275112
690295860.0 -0.0315825272 0.3092065113 0.037874157 -0.4250752095 0.0380601689 -0.4256057444 -0.0257616739 0.2990661007
695295830.0 -0.0286117297 0.3094834164 0.0337414663 -0.4258952049 0.0330313019 -0.4258942357 -0.0222232468 0.2991204279
700295800.0 -0.0253124963 0.3098267989 0.0285195298 -0.4256484191 0.0285735203 -0.4260004197 -0.0197845332 0.299912249
705295770.0 -0.0218887824 0.3108641724 0.0238328292 -0.4263190511 0.0245832369 -0.4266914216 -0.0167396372 0.3006707745
710295740.0 -0.0188103584 0.311006813 0.0198223895 -0.4271779494 0.019836038 -0.4269252891 -0.0134692529 0.300317144
715295710.0 -0.015995047 0.311082903 0.0152852839 -0.4268211167 0.0148136632 -0.4266454345 -0.0099946216 0.3004595028
720295680.0 -0.012331573 0.3111744265 0.0104204548 -0.4268134796 0.0105285811 -0.4270510151 -0.0070714929 0.3014275507
725295650.0 -0.0087281602 0.311828704 0.005737671 -0.4268331588 0.0058491941 -0.426938034 -0.0042806775 0.3015829286
730295620.0 -0.0057321235 0.3122365918 0.0010753035 -0.4268594548 0.0011501786 -0.4266231454 -0.001442193 0.3016178461
735295590.0 -0.0024930704 0.3122158418 -0.0034552831 -0.4269732398 -0.0036540504 -0.4267629266 0.0019356856 0.3015977161
740295560.0 0.0009427408 0.3124208668 -0.0083085887 -0.4264328557 -0.0080000156 -0.426774806 0.0055624655 0.3020028249
745295530.0 0.0040409039 0.3123612221 -0.0129168339 -0.4258644394 -0.0129457224 -0.4266948705 0.0083844978 0.3014926827
750295500.0 0.007258352 0.312519628 -0.0172841581 -0.426282648 -0.0175358035 -0.4267214129 0.01143511 0.301792305
755295470.0 0.010744157 0.312367768 -0.021970142 -0.4263596595 -0.0217896604 -0.4261476263 0.0149836485 0.3013594856
760295440.0 0.0138001159 0.3126112176 -0.0267459317 -0.4261684274 -0.0263586609 -0.4260819684 0.017875933 0.3013900034
765295410.0 0.0171306166 0.3125934223 -0.031275296 -0.4255227265 -0.0315146275 -0.4256273523 0.0209646982 0.3019571787
770295380.0 0.0200339166 0.3126026889 -0.036180442 -0.4250730308 -0.036092456 -0.4249280784 0.0239481107 0.301382694
775295350.0 0.0235232864 0.312148969 -0.0405847545 -0.4243043036 -0.0399701793 -0.4245878036 0.0268279093 0.30138836
780295320.0 0.0269431568 0.3120076703 -0.0452809832 -0.4237035262 -0.0444289079 -0.423890843 0.0300592883 0.3009492622
785295290.0 0.0296222805 0.3117443879 -0.0494610278 -0.423209894 -0.0494256002 -0.4232379801 0.0340320387 0.3005249671
790295260.0 0.033632919 0.3119434257 -0.0536546186 -0.4230216749 -0.053191254 -0.4227120403 0.0371576369 0.300596188
795295230.0 0.0366948812 0.311389543 -0.0587666921 -0.4219192376 -0.0581809398 -0.4221172705 0.0404638814 0.3001626842
800295200.0 0.0395991328 0.3114220924 -0.063311808 -0.4213425194 -0.0631072825 -0.4216311716 0.0435247746 0.300104486
805295170.0 0.0430787973 0.3108702399 -0.0677018036 -0.4204970109 -0.0679411341 -0.420824652 0.0465169957 0.2998503632
810295140.0 0.0462999956 0.3104722895 -0.0722153503 -0.4198890704 -0.0723720302 -0.4199841825 0.0500935793 0.2991363856
815295110.0 0.0494546829 0.3102136772 -0.0767429781 -0.4187589536 -0.0766794982 -0.4192622698 0.0531332164 0.2990724146
820295080.0 0.0527070849 0.309989496 -0.0811349386 -0.4182014388 -0.0812435149 -0.4183773881 0.0564756 0.298539587
825295050.0 0.0563998684 0.309284781 -0.0853593325 -0.4168118452 -0.0856888156 -0.4173902813 0.0596087117 0.2982410364
830295020.0 0.0592301534 0.3092852623 -0.0905197798 -0.4161244228 -0.0903378808 -0.4163055851 0.0634230016 0.2977925862
