!Created with skrf (http://scikit-rf.org).
# Hz S RI R 50.0 
!freq ReS11 ImS11 ReS21 ImS21 ReS12 ImS12 ReS22 ImS22
300000.0 -0.3208642464 -0.083126291 0.3767374372 0.0437670462 0.3748073864 0.0407290745 -0.3230342116 -0.0983047456
5299970.0 -0.3267374206 0.0042526939 0.3781630498 0.0025617294 0.3784562762 0.0025563806 -0.3239649245 0.004710774
10299940.0 -0.3243754389 0.0130905236 0.3798760261 0.0020233912 0.3795100311 0.0021896949 -0.3217071124 0.0159254039
15299910.0 -0.3214192693 0.0203901083 0.3817387054 0.0024020069 0.381945111 0.0023070506 -0.3182147738 0.0236217801
20299880.0 -0.3189297699 0.0263586028 0.3847120972 0.00178876 0.3848973399 0.0015182565 -0.3148018769 0.0302180239
25299850.0 -0.316001327 0.0314655835 0.3880836456 -8.14399e-05 0.388129447 0.0004066038 -0.3109608861 0.0358016489
30299820.0 -0.3127421082 0.0357753964 0.3913232631 -0.0022531831 0.3914783641 -0.0023597218 -0.3069755574 0.0409055187
35299790.0 -0.3098280893 0.0396853062 0.3947337584 -0.0052561589 0.3949592543 -0.0052449698 -0.3040745857 0.0449980666
40299760.0 -0.3072081399 0.0435474212 0.3979555533 -0.0086196193 0.398072733 -0.0085726304 -0.3004779088 0.0485000021
45299730.0 -0.3046690734 0.0465514315 0.4006587229 -0.012762177 0.401134383 -0.0124601639 -0.2975704932 0.0518121294
50299700.0 -0.3022524397 0.0494429082 0.4036139524 -0.0175556721 0.4035392537 -0.016991424 -0.2943922605 0.0545011722
55299670.0 -0.3000240372 0.0521045624 0.4055439261 -0.0221503456 0.4056343702 -0.0219407763 -0.2918309094 0.0572576282
60299640.0 -0.298110659 0.0549537219 0.4074299523 -0.0269130593 0.4076361763 -0.0267961945 -0.2889720865 0.0594744592
65299610.0 -0.2961810521 0.0573301815 0.4091367341 -0.0318766191 0.4091957278 -0.0316456902 -0.2874437964 0.0616003699
70299580.0 -0.2947403746 0.0602153032 0.4105984698 -0.0371700616 0.410428388 -0.037058601 -0.2851320811 0.0640571025
75299550.0 -0.2929196482 0.0627030052 0.4113170121 -0.0420728004 0.411313679 -0.0422653275 -0.2832195019 0.0658182275
80299520.0 -0.2915938189 0.064903426 0.4125266804 -0.0474246326 0.4124617323 -0.047280508 -0.2817639381 0.0682508254
85299490.0 -0.2902410607 0.0671407025 0.4127900327 -0.0527409924 0.4127539735 -0.0524057755 -0.2800569805 0.0700284044
90299460.0 -0.2888532412 0.0692603051 0.4132817149 -0.0580123459 0.4134160024 -0.0577834765 -0.2779556717 0.0720544414
95299430.0 -0.287386854 0.0713717266 0.4137765174 -0.0628025881 0.4134560286 -0.0633002821 -0.2764707446 0.0745258448
100299400.0 -0.2862999761 0.0738802247 0.4129893668 -0.0683404083 0.4130413284 -0.0683044499 -0.2750582046 0.0760621356
105299370.0 -0.2852711108 0.0763914748 0.4133402211 -0.0737441697 0.4134158829 -0.0738127018 -0.2737579426 0.0781434439
110299340.0 -0.2841845547 0.0787925812 0.413428394 -0.0784961393 0.4133023494 -0.0782841216 -0.2729938149 0.0803360169
115299310.0 -0.2827795786 0.0809052054 0.4128232718 -0.0836800061 0.4127797874 -0.0836449037 -0.2717197229 0.0820637628
120299280.0 -0.2820033164 0.083075862 0.412520653 -0.0888242542 0.4123734558 -0.0884079384 -0.2702943044 0.084577501
125299250.0 -0.2812195657 0.0853852291 0.4118153666 -0.093811166 0.4120865007 -0.0936258649 -0.2693723762 0.0863856961
130299220.0 -0.2803203498 0.0880385488 0.4112707022 -0.0988038038 0.4109401859 -0.099107733 -0.2683560123 0.088698042
135299190.0 -0.2793066017 0.0906231054 0.4106594555 -0.1041633466 0.4105782872 -0.1039216553 -0.2673032906 0.090700116
140299160.0 -0.2785837726 0.0930255779 0.4099799633 -0.1092804572 0.4098076136 -0.1090409831 -0.2661913658 0.093527475
145299130.0 -0.2774633348 0.0954226431 0.4088544235 -0.1139590461 0.4087549429 -0.113904417 -0.2654615698 0.0955229124
150299100.0 -0.276198696 0.0983617092 0.4077383499 -0.1186645079 0.4078708547 -0.118530936 -0.2646076829 0.0986146935
155299070.0 -0.2757476825 0.1007516866 0.4070815601 -0.1242310192 0.406559967 -0.1237218859 -0.2630509243 0.1007256472
160299040.0 -0.2744238576 0.1033614212 0.4051135121 -0.1286439514 0.4052123386 -0.1288115074 -0.2627505083 0.1031864025
165299010.0 -0.2736591692 0.1061831739 0.4038659996 -0.1340195621 0.4043458611 -0.1338001195 -0.2611922566 0.105775845
170298980.0 -0.2727093084 0.1086030439 0.4025803588 -0.1384440478 0.4028138588 -0.1383618861 -0.260112816 0.108281006
175298950.0 -0.2717968788 0.1112616009 0.4015711599 -0.142957813 0.4015240281 -0.1428969822 -0.2595912485 0.1107685676
180298920.0 -0.2708914799 0.1139158056 0.4000042006 -0.147830646 0.4001086693 -0.1476384782 -0.258672623 0.1132651901
185298890.0 -0.2695394114 0.1162551779 0.3983192736 -0.1526792996 0.3985624829 -0.1520479436 -0.2573737111 0.1158459992
190298860.0 -0.2687427149 0.1193063878 0.3971689087 -0.157257158 0.3970860682 -0.1568961283 -0.256328439 0.1182628438
195298830.0 -0.2676792526 0.1217664218 0.3952421269 -0.1619136249 0.3952050965 -0.1618744518 -0.2552563083 0.1211440725
200298800.0 -0.266295267 0.1244874425 0.3932857832 -0.1666466022 0.3936284598 -0.166505703 -0.2544753177 0.1231902074
205298770.0 -0.2653018135 0.1274000258 0.3915538317 -0.1713938951 0.3919329227 -0.171047199 -0.2532969793 0.1254647073
210298740.0 -0.2643280048 0.1301074117 0.3898977225 -0.1755857818 0.3896664935 -0.1757549722 -0.2517903759 0.1289470394
215298710.0 -0.2635742094 0.1331406936 0.3881875079 -0.1803371875 0.3878207258 -0.1804057145 -0.2512563813 0.1309614319
220298680.0 -0.2621482772 0.1352432188 0.3856746392 -0.1846118779 0.3859687744 -0.1842829117 -0.2502659162 0.1333166996
225298650.0 -0.2610958367 0.1380706963 0.3837630519 -0.1887884715 0.3841206819 -0.1889278101 -0.249211382 0.1357979494
230298620.0 -0.2596321652 0.1408514822 0.3820105719 -0.1934239916 0.3825683174 -0.1933506144 -0.2481839499 0.1383895953
235298590.0 -0.2582247705 0.1437871187 0.3798124347 -0.1979073451 0.3798638093 -0.1974709172 -0.2465470411 0.141400375
240298560.0 -0.2568612201 0.1464256652 0.3779018906 -0.2022379178 0.3775231766 -0.2023391885 -0.2449894092 0.1438741579
245298530.0 -0.2559450866 0.149141608 0.3756506494 -0.2064587379 0.3756841977 -0.2066799006 -0.2440674941 0.145893471
250298500.0 -0.254409979 0.151899788 0.3731390419 -0.2107628836 0.3729062449 -0.2104476962 -0.2426956486 0.1484193993
255298470.0 -0.2526983665 0.1541072022 0.3703976517 -0.2150733799 0.3705587577 -0.2148112839 -0.2409983726 0.1508299816
260298440.0 -0.2515860246 0.1567952626 0.3682612177 -0.2190632388 0.3685574076 -0.2190621486 -0.2395207866 0.1538687439
265298410.0 -0.2499934374 0.1598117294 0.3659697066 -0.2234614611 0.366311273 -0.2231069741 -0.2384177435 0.1562603322
270298380.0 -0.2486521425 0.162333553 0.3637094574 -0.227134127 0.3636923099 -0.227194027 -0.2368348898 0.1585115429
275298350.0 -0.2466519129 0.1651035043 0.3607826787 -0.2316659131 0.3611869553 -0.2316777628 -0.235287551 0.1612775385
280298320.0 -0.2448684707 0.1679565571 0.3585268567 -0.2358233138 0.3587726644 -0.2355777327 -0.233494374 0.1635429212
285298290.0 -0.2435733124 0.1708548005 0.3560543005 -0.239733679 0.3559775853 -0.2398925999 -0.2318360981 0.1659868189
290298260.0 -0.2417899413 0.1732682993 0.3532820271 -0.2435513426 0.3535641323 -0.2438314727 -0.2299592013 0.1685976478
295298230.0 -0.2399004147 0.1756051729 0.350480105 -0.247733221 0.3506547977 -0.2478905889 -0.2284285283 0.1711106804
300298200.0 -0.2386719546 0.1785434043 0.3482747057 -0.2513624962 0.3482404535 -0.2517574217 -0.2267209582 0.173310012
305298170.0 -0.236656913 0.1806309973 0.3450202867 -0.2560326243 0.3450892007 -0.2556672933 -0.2244653828 0.1758165074
310298140.0 -0.2350605792 0.1834850171 0.3425226598 -0.2597082862 0.3422399313 -0.2596183935 -0.2231584486 0.1781613931
315298110.0 -0.2331486822 0.1858344714 0.3395405018 -0.2634576644 0.3394057833 -0.2633453914 -0.221290126 0.1806295168
320298080.0 -0.2312159334 0.1883334985 0.3362029629 -0.267532484 0.3364969315 -0.2673762176 -0.219411345 0.1830932012
325298050.0 -0.2294017472 0.1908070313 0.3334886292 -0.2712372668 0.3333976386 -0.2712644468 -0.2179172684 0.1851745471
330298020.0 -0.2275248999 0.1930681486 0.3300572093 -0.2748980781 0.3306880207 -0.2746469467 -0.2160020999 0.1877530464
335297990.0 -0.2254743789 0.1955795533 0.3272560243 -0.2782931953 0.3271304674 -0.2785000541 -0.2146603477 0.1907324526
340297960.0 -0.22435257 0.1981816052 0.3238068746 -0.2820207042 0.3238286095 -0.2821679998 -0.2123948898 0.1931869356
345297930.0 -0.2222817211 0.200709689 0.3205858383 -0.2859398698 0.3202951251 -0.2857815672 -0.2105589456 0.1949924127
350297900.0 -0.2203115246 0.2032442687 0.3170730786 -0.2895264822 0.3174025569 -0.2893197942 -0.2090051072 0.1980309937
355297870.0 -0.217752011 0.2062027532 0.3141151963 -0.2930948782 0.3140052034 -0.2927316157 -0.2070720998 0.2002296572
360297840.0 -0.2161807301 0.2085224219 0.3113562095 -0.2959970044 0.3114836407 -0.2960468907 -0.2049933652 0.2026497287
365297810.0 -0.2145376798 0.2112185665 0.3078675602 -0.2996100762 0.3077351479 -0.2998041232 -0.2027312045 0.2049527957
370297780.0 -0.2118424008 0.2131740577 0.3040976291 -0.3028999113 0.3047372358 -0.3028007473 -0.2006902243 0.2071566578
375297750.0 -0.2094636556 0.2155407049 0.3011211051 -0.3062700259 0.3015258456 -0.3064575565 -0.1987543796 0.2093088488
380297720.0 -0.2076740737 0.2175761618 0.2974589996 -0.3097676926 0.2979130061 -0.3090268108 -0.1972388628 0.2118316776
385297690.0 -0.2054550413 0.2205029169 0.2940788197 -0.3128160624 0.2941313015 -0.3127437281 -0.1945345902 0.2138236305
390297660.0 -0.2030256772 0.2225976388 0.2906458907 -0.3158888401 0.2904999722 -0.3158911376 -0.1930185473 0.2164803094
395297630.0 -0.2007014804 0.2249795967 0.2871695293 -0.3192229216 0.287207855 -0.3193589211 -0.189992073 0.2187451343
400297600.0 -0.1986300859 0.2273598805 0.2835914979 -0.3227582445 0.2837089085 -0.3223769026 -0.1882699093 0.2206657399
405297570.0 -0.1964348441 0.2295802012 0.2800860689 -0.3254608632 0.2802773604 -0.3250028611 -0.1858600638 0.2230849585
410297540.0 -0.1938293547 0.2318363173 0.2764305009 -0.3284671496 0.2769823676 -0.3286746935 -0.1837867937 0.2251004948
415297510.0 -0.1911302372 0.2339288158 0.2726277496 -0.3316803076 0.2730735787 -0.3317605833 -0.1813736975 0.2270993352
420297480.0 -0.189202599 0.2363197091 0.2690456984 -0.334644463 0.2692118826 -0.3347551615 -0.1794118649 0.2291412724
425297450.0 -0.1869079811 0.2384694009 0.2656402125 -0.3374700802 0.2658235459 -0.3375941082 -0.1771973768 0.2316694407
430297420.0 -0.1840924603 0.2401013552 0.2615248923 -0.3396882116 0.2616980632 -0.3401579599 -0.1745926412 0.2329588379
435297390.0 -0.1818556322 0.2424627799 0.257724843 -0.3431587741 0.2575406669 -0.3430857505 -0.1717431717 0.2353250009
440297360.0 -0.1792317768 0.2448639795 0.2537311057 -0.3460177547 0.2540526407 -0.3458182504 -0.1695868358 0.2369698455
445297330.0 -0.1769941612 0.246474126 0.2502900645 -0.3488508945 0.250400238 -0.3482310091 -0.1672312313 0.2383983803
450297300.0 -0.1740684535 0.2482846292 0.2462759001 -0.3512841119 0.2463283409 -0.351547583 -0.1647888684 0.2404523047
455297270.0 -0.1718147362 0.2507003079 0.2422848854 -0.3541040304 0.242575497 -0.3541562996 -0.1623722617 0.2424194338
460297240.0 -0.1689920581 0.2525768465 0.2384713595 -0.3562156232 0.2389071893 -0.3565903808 -0.1595973653 0.2443784257
465297210.0 -0.16632234 0.2545169838 0.2346218275 -0.358979876 0.2345851499 -0.3593386975 -0.1570394248 0.2461010871
470297180.0 -0.1634703889 0.2563697572 0.2306843804 -0.3615353517 0.2307251588 -0.3616964927 -0.154477089 0.2481094083
475297150.0 -0.1610099894 0.257876383 0.2265425689 -0.3638455162 0.2271047808 -0.3636499541 -0.1512574843 0.2496668302
480297120.0 -0.1582800638 0.2600144012 0.2225862872 -0.3667737106 0.2222685361 -0.3666595629 -0.1487469065 0.2515070433
485297090.0 -0.1555146132 0.2620036465 0.2185833942 -0.3687426141 0.2189214095 -0.3685915857 -0.1461186723 0.2529568771
490297060.0 -0.1529681691 0.2639208807 0.2146693502 -0.3712915766 0.2146758491 -0.3711067231 -0.1434607763 0.2551038269
495297030.0 -0.1504832221 0.2655316947 0.2101513844 -0.3734894531 0.2109223077 -0.3731768913 -0.1411149653 0.2567030075
500297000.0 -0.1470068914 0.2669645268 0.2059118423 -0.3753087588 0.2060387435 -0.375504899 -0.1381085379 0.2589188917
505296970.0 -0.1443963443 0.2687204684 0.2023043992 -0.3775493898 0.2019575214 -0.3779944103 -0.135654249 0.2600036823
510296940.0 -0.1417429387 0.2707714276 0.1979173423 -0.380181429 0.1983113003 -0.380355604 -0.1330414237 0.2618081363
515296910.0 -0.1388973666 0.2722294997 0.193793877 -0.3823296442 0.1938609877 -0.3818968877 -0.1299143098 0.263238123
520296880.0 -0.1361046573 0.273467497 0.1895901758 -0.3844169457 0.1895862146 -0.3839440781 -0.1270988582 0.2647718673
525296850.0 -0.1331615253 0.2748623946 0.1852424204 -0.3859886311 0.185694935 -0.3862779964 -0.1247531866 0.2664983438
530296820.0 -0.1301756549 0.2767688443 0.1813980736 -0.3881889115 0.1813564694 -0.3883783747 -0.1218113019 0.2679793305
535296790.0 -0.1276949528 0.2782023445 0.1773718233 -0.3899157704 0.1770756902 -0.3897924145 -0.1190452885 0.2692710037
540296760.0 -0.1249004492 0.27995675 0.172512779 -0.3925087657 0.1729195508 -0.3922345684 -0.1166491404 0.2712668672
545296730.0 -0.1221040307 0.2813931708 0.1681216653 -0.3938862432 0.1682908454 -0.393982988 -0.1134658366 0.2723408387
550296700.0 -0.1188788757 0.2828108862 0.1639822682 -0.3956985277 0.1642612409 -0.3958427095 -0.1108812711 0.2740204225
555296670.0 -0.1159232893 0.2841119646 0.1602724144 -0.3975040129 0.1599813182 -0.397356602 -0.1080890837 0.2754460441
560296640.0 -0.1125679863 0.2856795567 0.1554317349 -0.3992465623 0.1556938587 -0.3990205257 -0.1048837323 0.2763677321
565296610.0 -0.1097486792 0.286755339 0.1510150417 -0.4007096092 0.1509986199 -0.4008118255 -0.1022283883 0.2774370637
570296580.0 -0.1067340302 0.2880083777 0.1465928126 -0.4029264432 0.1464139272 -0.4024455119 -0.0997723818 0.278898011
575296550.0 -0.1038683912 0.2897226425 0.1422206851 -0.404270666 0.1421245258 -0.4042428511 -0.0962259194 0.2802876511
580296520.0 -0.1005288857 0.2906621525 0.1376950909 -0.4056336962 0.1379664465 -0.405623276 -0.0934499808 0.2811699763
585296490.0 -0.0980367563 0.2917052612 0.1335878417 -0.4065927091 0.1338288158 -0.4068166022 -0.090654647 0.2823292317
590296460.0 -0.0946808844 0.2929340771 0.1289984886 -0.4078193849 0.1294498374 -0.4079361108 -0.0881712963 0.2832538098
595296430.0 -0.0914515065 0.2941599948 0.1239659605 -0.4095597515 0.1246287591 -0.409484139 -0.0849000742 0.2840228419
600296400.0 -0.0888853749 0.2950755385 0.120004507 -0.4109613554 0.1200709042 -0.4105725182 -0.0818925617 0.2850696168
605296370.0 -0.0855306965 0.296226819 0.1156970563 -0.4120178623 0.1157907902 -0.4118732811 -0.0783785533 0.2864326212
610296340.0 -0.0825025519 0.2973200711 0.1107929262 -0.4131549436 0.1110958814 -0.4132298289 -0.0758822243 0.2874133509
615296310.0 -0.0790470214 0.2979741733 0.1062568101 -0.4141919258 0.1063862713 -0.4147587631 -0.0725854043 0.2881653042
620296280.0 -0.0760489311 0.2989780372 0.1018288082 -0.4156364054 0.1021395422 -0.4153511171 -0.0696030691 0.288820328
625296250.0 -0.0730715392 0.2996436948 0.0981016706 -0.41662449 0.0974970305 -0.4165917506 -0.0663557304 0.2897618957
630296220.0 -0.0690904389 0.301067172 0.0924255567 -0.4175503866 0.0926178676 -0.4172641424 -0.0631963177 0.2908536551
635296190.0 -0.067078215 0.301645673 0.0883046003 -0.4181063535 0.0884752352 -0.4186142632 -0.0602135835 0.2915503389
640296160.0 -0.0637425458 0.3024718062 0.0838269321 -0.4188659831 0.0843923979 -0.4194943158 -0.0569578483 0.2920816522
645296130.0 -0.0604402585 0.303589182 0.0792055491 -0.4196256896 0.0798305157 -0.4200720574 -0.0541489227 0.2932378651
650296100.0 -0.0573680047 0.3040334638 0.0747270384 -0.4208159139 0.0749692641 -0.4207951742 -0.0507091564 0.2932806241
655296070.0 -0.0540781382 0.3049720403 0.0700503153 -0.4217748418 0.0702617973 -0.4217340306 -0.0473943133 0.2943134502
660296040.0 -0.0511462981 0.3053667474 0.0657588858 -0.4220427312 0.0658863286 -0.4227068775 -0.0444086872 0.2948966594
665296010.0 -0.0476022677 0.3060150629 0.0608794131 -0.4229588982 0.0608888883 -0.4228582118 -0.0410818061 0.2958751242
670295980.0 -0.0448892976 0.3069320172 0.0564300622 -0.4233501292 0.0564420546 -0.4235833738 -0.0384112225 0.2961476614
675295950.0 -0.0414152333 0.3075404526 0.0519381555 -0.4238875521 0.0521522597 -0.4238345593 -0.035425083 0.2971239043
680295920.0 -0.0382869157 0.3081167407 0.0474032016 -0.4244718325 0.0469119229 -0.424922859 -0.0319233136 0.2978101152
685295890.0 -0.0351496366 0.3089207324 0.0425793512 -0.4246366738 0.0426032212 -0.4250222697 -0.0291059248 0.2980415127
690295860.0 -0.0314216318 0.3091032412 0.0380348266 -0.4251285891 0.0376321834 -0.4259006034 -0.0257220727 0.2989110876
695295830.0 -0.0285276335 0.3096048615 0.0336976714 -0.4255472083 0.0333403921 -0.4257305511 -0.022582665 0.2992031604
700295800.0 -0.0248825327 0.3097178155 0.028616796 -0.4258806649 0.0286119535 -0.426062341 -0.0198812041 0.2998282315
705295770.0 -0.0221971324 0.3107599626 0.0238320795 -0.4263339555 0.0242762369 -0.4265707387 -0.0166916494 0.300362631
710295740.0 -0.01861372 0.3109039669 0.0193832173 -0.4269920755 0.0196897026 -0.4269207435 -0.0135101927 0.3006440045
715295710.0 -0.0157344181 0.3112072876 0.0153385459 -0.4266805556 0.0148855729 -0.4268066577 -0.0101029941 0.3008716104
720295680.0 -0.0123957626 0.3111463958 0.0104050552 -0.4269711795 0.0103159782 -0.4269731161 -0.0068683957 0.301329103
725295650.0 -0.0089532488 0.3119707399 0.0057337565 -0.4271585611 0.0058452104 -0.4270138309 -0.0042236142 0.3015509831
730295620.0 -0.0053873194 0.3122099878 0.0008657315 -0.4268826356 0.0012207341 -0.4268418816 -0.0015233996 0.3013391029
735295590.0 -0.0026565434 0.3123502925 -0.0033873247 -0.4272628903 -0.0035798436 -0.4264907305 0.0019403379 0.3013231271
740295560.0 0.000708358 0.3127258732 -0.0082963837 -0.4267930127 -0.0081167188 -0.4267802351 0.0055891297 0.3017811337
745295530.0 0.0038330648 0.3127149288 -0.0127352384 -0.4265389712 -0.0127909928 -0.4262678158 0.0085089653 0.3014566188
750295500.0 0.0074414813 0.3127345583 -0.0172028957 -0.4261220383 -0.017224931 -0.4265972428 0.0113051937 0.3019643197
755295470.0 0.0107328075 0.3125908658 -0.0217386921 -0.4261005538 -0.0220923208 -0.4261591933 0.0147171319 0.3012876473
760295440.0 0.014024684 0.3127679397 -0.0266972258 -0.426222123 -0.0266999907 -0.426146967 0.0178639948 0.3017440984
765295410.0 0.0168414682 0.3128971479 -0.0308603362 -0.4256269468 -0.0316126593 -0.4256092854 0.0213451874 0.301721154
770295380.0 0.0198405704 0.3125732839 -0.0360693029 -0.4253428018 -0.0358797128 -0.4248471126 0.0240435962 0.3010047721
775295350.0 0.0235201353 0.3122910631 -0.0406014323 -0.4241829523 -0.0400553628 -0.424560974 0.0269506058 0.3014280044
780295320.0 0.0268116072 0.3124021548 -0.0452418686 -0.4238628565 -0.0444553421 -0.4239020827 0.0300877973 0.3005960126
785295290.0 0.0296053302 0.3117215113 -0.0497792542 -0.4233741469 -0.0494603595 -0.4234202163 0.0340696877 0.3008428552
790295260.0 0.0337672867 0.3119702926 -0.0537876817 -0.4229953736 -0.0532254311 -0.4226587981 0.0368415229 0.3004022669
795295230.0 0.0366672477 0.3114459547 -0.058679603 -0.4219828125 -0.0583250638 -0.4223310227 0.0403460206 0.3003933703
800295200.0 0.0395207923 0.3114849293 -0.0635903953 -0.4214310643 -0.0631110968 -0.4214021263 0.0433792958 0.3002317845
805295170.0 0.0429530881 0.3111047252 -0.0678540617 -0.4209564148 -0.0676688538 -0.4208511958 0.0463811472 0.299795494
810295140.0 0.04627462 0.3105416999 -0.0722355915 -0.4196908619 -0.072052597 -0.4198061224 0.0499858608 0.2994262835
815295110.0 0.0493254944 0.3099916313 -0.0767634231 -0.4187716225 -0.0763404527 -0.4191040424 0.0528933547 0.2988591009
820295080.0 0.0524733177 0.3099849825 -0.081313463 -0.4181214051 -0.0811454459 -0.4181406302 0.056388986 0.2986652749
825295050.0 0.0564027669 0.3096452219 -0.0858451587 -0.4173276083 -0.0858513339 -0.4173785351 0.0596826964 0.2981984494
830295020.0 0.0591459772 0.3091381815 -0.0902467487 -0.4162702928 -0.090447051 -0.416202273 0.0631648438 0.2978408352
