!Created with skrf (http://scikit-rf.org).
# Hz S RI R 50.0 
!freq ReS11 ImS11 ReS21 ImS21 ReS12 ImS12 ReS22 ImS22
300000.0 -0.2399482935 -0.099963734 0.4666680667 0.0658355382 0.4696395034 0.0702010616 -0.2371657636 -0.1117022137
5299970.0 -0.2437607909 0.0072466718 0.4739251676 0.0053832303 0.4736795654 0.0059214047 -0.2438294025 0.0058122871
10299940.0 -0.2402955864 0.0197826373 0.4758587665 0.0062716554 0.4758031275 0.0065036198 -0.2410045721 0.018174496
15299910.0 -0.2360530964 0.0294183706 0.4794294702 0.0078651738 0.4794308938 0.0082004898 -0.2364904486 0.0273964407
20299880.0 -0.2304882328 0.0372913717 0.4841527043 0.0079840398 0.4839915575 0.0082170871 -0.2317788047 0.0354417827
25299850.0 -0.224715245 0.0435630174 0.4892299528 0.0073304274 0.4896924894 0.0075389308 -0.2267974965 0.0416357153
30299820.0 -0.2188141098 0.0485065319 0.4950949608 0.0056206486 0.4947672583 0.0055351788 -0.2216445814 0.0470475519
35299790.0 -0.2129879867 0.0531673535 0.5003453622 0.0021244689 0.5001806004 0.0023670301 -0.2162486738 0.0508996603
40299760.0 -0.2075993837 0.0558956682 0.505543523 -0.0016987859 0.5054360417 -0.0015910073 -0.2111730183 0.0548698999
45299730.0 -0.2025849075 0.0584038106 0.5101252893 -0.0068570589 0.5101673854 -0.0064745781 -0.2063743864 0.0572574459
50299700.0 -0.1977522696 0.0601513016 0.5142753457 -0.0121813925 0.5141844685 -0.0123527302 -0.2020496507 0.0595214357
55299670.0 -0.1936153142 0.061827626 0.5176516428 -0.0184665899 0.5180699665 -0.0178367985 -0.1983948891 0.0617360319
60299640.0 -0.1894807182 0.0626348142 0.5212512874 -0.0243062079 0.5212762341 -0.0242632762 -0.1944634914 0.0631244265
65299610.0 -0.1859387432 0.0639238315 0.5245688102 -0.0301798701 0.5242599262 -0.0301830422 -0.1908915162 0.0643399841
70299580.0 -0.1824845055 0.0644084951 0.5267958326 -0.0369297564 0.5268552294 -0.0372658263 -0.1880217586 0.0654304029
75299550.0 -0.1795593943 0.0650705612 0.528495996 -0.0439220627 0.5287431338 -0.0441045564 -0.1851149138 0.0668357504
80299520.0 -0.1771453803 0.0657567225 0.5310027546 -0.0509007786 0.5310064989 -0.050874217 -0.1826655236 0.067525362
85299490.0 -0.1745789376 0.0660011231 0.5319246615 -0.0577323002 0.5320387185 -0.0580636026 -0.1803767452 0.0684742477
90299460.0 -0.1725327312 0.066705072 0.5330225024 -0.0644612248 0.5333064975 -0.064546345 -0.1778271959 0.0692596895
95299430.0 -0.1705595822 0.0672067012 0.5341956108 -0.0724722604 0.5340823974 -0.0715709769 -0.1760882269 0.0704290742
100299400.0 -0.1687722138 0.0677568376 0.5344284979 -0.0787566852 0.5344364307 -0.0786818945 -0.1740947967 0.0712600125
105299370.0 -0.1669139723 0.0678504657 0.5343604107 -0.0851286332 0.5345202462 -0.0853336523 -0.1722183424 0.0717908781
110299340.0 -0.1656789063 0.0684063529 0.5347449107 -0.091852979 0.5346391638 -0.0928744249 -0.1706907821 0.072775572
115299310.0 -0.1638994768 0.0686069105 0.5345755401 -0.0987002711 0.5349044851 -0.0986848914 -0.1687959486 0.0729361181
120299280.0 -0.1629844037 0.0693632296 0.5346526645 -0.1057290891 0.5345866539 -0.1060338485 -0.1677614424 0.0739875073
125299250.0 -0.1618155329 0.0699813275 0.5343121258 -0.1124070384 0.5345447208 -0.112705117 -0.1661990927 0.0747494779
130299220.0 -0.1604805658 0.0706946879 0.5339669106 -0.1188965927 0.5334543539 -0.1196757999 -0.1654104866 0.0761944207
135299190.0 -0.1593950352 0.0709319518 0.5329706185 -0.1259216701 0.5325608707 -0.1261222116 -0.1639806428 0.0769832727
140299160.0 -0.1586444276 0.0722133651 0.5320086264 -0.1328107932 0.5325328051 -0.1327501374 -0.1629898072 0.0780626031
145299130.0 -0.1574609769 0.0728371099 0.5317558349 -0.1396402531 0.5311106349 -0.1390057694 -0.1621702744 0.0788595588
150299100.0 -0.1565710803 0.0734412989 0.530299577 -0.1458366419 0.5302373066 -0.1454748198 -0.1608728151 0.0796477192
155299070.0 -0.156004898 0.0748382631 0.5289629634 -0.1526515809 0.5291380361 -0.1524844605 -0.1601660157 0.081159166
160299040.0 -0.1549260706 0.0752531186 0.5270716646 -0.1583776356 0.5277550454 -0.1590894631 -0.1589516348 0.0824447195
165299010.0 -0.1544452613 0.0763178363 0.5266367836 -0.1650586516 0.5264440569 -0.1653551174 -0.158122621 0.0829872544
170298980.0 -0.153648071 0.0772416418 0.5240348047 -0.1716370833 0.5244958943 -0.171530022 -0.1568691296 0.0845819494
175298950.0 -0.1526769663 0.0783008143 0.5234272087 -0.1778972317 0.5233736526 -0.1778639429 -0.1557924063 0.085567378
180298920.0 -0.1518767236 0.0792113212 0.5212593577 -0.18426944 0.5214431452 -0.1841484407 -0.1549467787 0.0870132976
185298890.0 -0.1507287318 0.080323143 0.518937346 -0.1908978505 0.5193551746 -0.1904477447 -0.154064239 0.0879410227
190298860.0 -0.1503220382 0.0813164999 0.5172217968 -0.196627701 0.5175018247 -0.1966140052 -0.1526393962 0.0894354806
195298830.0 -0.1495233878 0.0818019939 0.5155653404 -0.2022944238 0.5157378266 -0.2032182453 -0.1520656752 0.0906084467
200298800.0 -0.1488542797 0.0833145315 0.5137564248 -0.2084694347 0.5136087333 -0.208510257 -0.1507609675 0.0918888902
205298770.0 -0.1479771919 0.0845587342 0.5115632612 -0.2148164023 0.5115197036 -0.2150965153 -0.1500856655 0.0931703188
210298740.0 -0.147507528 0.0855113905 0.509289332 -0.2211608837 0.5092674671 -0.2210173048 -0.149042237 0.0947666407
215298710.0 -0.1467312229 0.0869780204 0.5071334045 -0.2267325588 0.5067081982 -0.2266499718 -0.1482241099 0.0959877837
220298680.0 -0.1460019585 0.0879215251 0.5047009775 -0.2326709016 0.5043304392 -0.2326881652 -0.1470919156 0.0977322484
225298650.0 -0.1448353482 0.0894485103 0.5018691708 -0.2382460764 0.5018410548 -0.2384330509 -0.1461940167 0.0989808949
230298620.0 -0.1446838449 0.0907778455 0.4997650299 -0.2445178089 0.4995564835 -0.244334162 -0.1451126405 0.1004083821
235298590.0 -0.1437103691 0.0916546365 0.496959028 -0.2500934251 0.4966962134 -0.2502774458 -0.1442122975 0.1012430106
240298560.0 -0.1429637767 0.092848474 0.4939833659 -0.255722315 0.4940256274 -0.2558608022 -0.1432200623 0.1031101336
245298530.0 -0.1419182924 0.0942741635 0.4903215655 -0.261655737 0.4912725128 -0.2615022291 -0.1418283538 0.1046843051
250298500.0 -0.1416388922 0.0952932973 0.4886170763 -0.2668444463 0.4888022716 -0.2664700527 -0.1406236844 0.1058495273
255298470.0 -0.1406681619 0.0969366745 0.4850914498 -0.2730293866 0.4854943421 -0.2725994731 -0.1394250359 0.1071464133
260298440.0 -0.1397570211 0.0978977642 0.4828220078 -0.2778238266 0.4823630656 -0.278317891 -0.1379595189 0.1086930903
265298410.0 -0.1386307052 0.0997349624 0.4793769448 -0.2844523657 0.4795155775 -0.283766697 -0.1374294581 0.110369241
270298380.0 -0.1377657041 0.1007172928 0.4762798798 -0.2897426975 0.4765411327 -0.2893726729 -0.1360624188 0.1119696708
275298350.0 -0.1370752274 0.1018881993 0.4727426564 -0.2954167989 0.4735517875 -0.2950575671 -0.1343072889 0.1131960153
280298320.0 -0.1358785582 0.1032678151 0.4698317278 -0.2998384506 0.4697637706 -0.300191577 -0.1332817314 0.1147026252
285298290.0 -0.1351486041 0.104758337 0.4668968284 -0.3050935183 0.4664958471 -0.3052733441 -0.1326186822 0.1160815455
290298260.0 -0.134264942 0.1058698057 0.4634729675 -0.3105567347 0.4633885703 -0.3106285119 -0.1304327272 0.1177570849
295298230.0 -0.1331240172 0.1070987227 0.4601602459 -0.315975159 0.4597365383 -0.3162458001 -0.129286532 0.1190469577
300298200.0 -0.1321259387 0.1083027549 0.4565530556 -0.3215647804 0.4569856923 -0.3215728911 -0.1284837501 0.1208788565
305298170.0 -0.1311773084 0.1095210143 0.4535161791 -0.326737067 0.4537394989 -0.3264534055 -0.1268631218 0.1221835968
310298140.0 -0.12994368 0.1104542087 0.449643573 -0.3316842685 0.4497038325 -0.3323038895 -0.1251975467 0.1240631866
315298110.0 -0.129231129 0.1119050533 0.445917619 -0.3370630197 0.44624328 -0.3373061561 -0.1236520217 0.1247770407
320298080.0 -0.1280879511 0.1134085017 0.4424197143 -0.3424087328 0.4427368068 -0.3418283151 -0.1226790648 0.1263262158
325298050.0 -0.1273897555 0.1141080346 0.4388792728 -0.347310352 0.4387168423 -0.3472410795 -0.1210574788 0.1275126564
330298020.0 -0.1262264709 0.1156122294 0.4336896184 -0.3520415434 0.4344267609 -0.3524325234 -0.1201497023 0.1290282567
335297990.0 -0.1252837807 0.1168660621 0.4304622343 -0.3575788657 0.4302909991 -0.3573076412 -0.1187674979 0.1303489516
340297960.0 -0.124848042 0.1181413175 0.4258698616 -0.3620270118 0.4265635415 -0.3615707981 -0.1180408976 0.1319174284
345297930.0 -0.1238971854 0.1196049278 0.4221562815 -0.3662920311 0.4217355247 -0.3661679037 -0.1159170483 0.1328320978
350297900.0 -0.1224329866 0.1210595331 0.4180556814 -0.3709764744 0.4180617532 -0.3710786237 -0.1150643625 0.1350452098
355297870.0 -0.1216571968 0.1218468612 0.4138582159 -0.3753644551 0.4137665429 -0.3759049573 -0.1136338294 0.136465873
360297840.0 -0.1201535941 0.12324413 0.4093219629 -0.3800283916 0.409765238 -0.3804504202 -0.1120273075 0.1380303835
365297810.0 -0.1192084009 0.1245321326 0.4055346617 -0.3846795304 0.4053934856 -0.3847695767 -0.1105950276 0.1393747473
370297780.0 -0.1178692843 0.1256091988 0.4008808369 -0.3891250189 0.4010515715 -0.3893684547 -0.1089636042 0.1409060899
375297750.0 -0.1168332811 0.1275422446 0.3969878418 -0.393808101 0.3967523961 -0.3938217293 -0.1074854191 0.1424599555
380297720.0 -0.1153474725 0.1283567672 0.3926777676 -0.39789555 0.3928148061 -0.3978914594 -0.1061570368 0.1439650691
385297690.0 -0.114144142 0.1297602268 0.3881994636 -0.4019164518 0.3879051102 -0.4022345918 -0.104555946 0.1451942719
390297660.0 -0.1135227978 0.1309454401 0.3836655665 -0.4065712811 0.3834797166 -0.4069023219 -0.1027835196 0.1463471085
395297630.0 -0.1119670219 0.1321634478 0.3793883508 -0.4104240979 0.3787848413 -0.4109053061 -0.101514147 0.1479697157
400297600.0 -0.1107942378 0.1336350471 0.3741913321 -0.4147659943 0.3749282386 -0.4147981377 -0.1004413276 0.1487272222
405297570.0 -0.1095586581 0.1345070699 0.3700282017 -0.4188299468 0.3700240165 -0.4191818867 -0.0985031569 0.1505798496
410297540.0 -0.1079954275 0.135900155 0.3651177004 -0.4231735672 0.3653303278 -0.4228463564 -0.0966916756 0.1516725108
415297510.0 -0.1066769597 0.1372231946 0.3605462287 -0.4264934959 0.3609703812 -0.4273341207 -0.095351097 0.1534653028
420297480.0 -0.1051509617 0.1379117728 0.3556763419 -0.4307924842 0.3559873334 -0.4308993123 -0.0933379858 0.1541879933
425297450.0 -0.1036920989 0.1390017516 0.3513820257 -0.4347291283 0.351504321 -0.4346781923 -0.0917517763 0.1558552461
430297420.0 -0.1027183805 0.1405021608 0.3467249728 -0.4389902205 0.3464989024 -0.4386530428 -0.0900387321 0.1567275192
435297390.0 -0.1011572351 0.1415146128 0.3415453929 -0.4421014776 0.341748268 -0.4419944859 -0.088671034 0.1579126994
440297360.0 -0.0997038562 0.1424507713 0.336316268 -0.4461423628 0.3362896995 -0.446026334 -0.0869767771 0.1588651842
445297330.0 -0.0982501811 0.1435186664 0.3316743406 -0.4499822601 0.3317910596 -0.44987723 -0.0851550938 0.160085017
450297300.0 -0.096942207 0.1448208502 0.3271001213 -0.4530507281 0.3267879372 -0.453377093 -0.0833957855 0.1616656924
455297270.0 -0.095888884 0.1460048581 0.3222912167 -0.4568377346 0.3223625698 -0.456448213 -0.081381754 0.1624276487
460297240.0 -0.0945117511 0.1468788914 0.3169315367 -0.4597896857 0.3162260456 -0.4600583807 -0.0794082826 0.1639409032
465297210.0 -0.0929471618 0.147867452 0.3121773242 -0.4634256595 0.3124208849 -0.4638062721 -0.0783827799 0.1648563483
470297180.0 -0.0913731809 0.1488506535 0.3074173028 -0.4668296949 0.3071940566 -0.4669400718 -0.0769551781 0.1660538328
475297150.0 -0.0901754776 0.1494570772 0.301555043 -0.4700142614 0.3017520206 -0.4701091851 -0.0746558095 0.1669637086
480297120.0 -0.0883344838 0.1504103807 0.2964444086 -0.4731808957 0.2969372618 -0.4731606514 -0.0730192005 0.1682735293
485297090.0 -0.0867334428 0.1516218522 0.29152322 -0.4767103092 0.2915830757 -0.4766329308 -0.0713371098 0.1688178648
490297060.0 -0.0851942858 0.1524668257 0.2860027256 -0.4798836112 0.2863287744 -0.4797522489 -0.0693717515 0.1699820682
495297030.0 -0.0841960743 0.1539249845 0.2806890409 -0.4830449351 0.2805217837 -0.4828062298 -0.0674667292 0.1707253031
500297000.0 -0.0823175239 0.1543240026 0.2757690223 -0.4859462084 0.2756457754 -0.4857972061 -0.065747662 0.171834929
505296970.0 -0.0810566585 0.1553401387 0.2699294212 -0.4883495481 0.2700806829 -0.4884117383 -0.0645376982 0.1729929837
510296940.0 -0.079622057 0.1562058011 0.2645964773 -0.4918207655 0.2653176705 -0.4918887294 -0.0620600006 0.1738684848
515296910.0 -0.0784021293 0.157507021 0.2593400463 -0.4943537278 0.2593276515 -0.4942913974 -0.0603294931 0.1746009488
520296880.0 -0.0766497306 0.1579944688 0.2540306679 -0.4975090463 0.2542146399 -0.4972075198 -0.0582029582 0.1754521434
525296850.0 -0.0751398041 0.1587170822 0.2489379663 -0.4997606686 0.2486400275 -0.5001839781 -0.0561719829 0.1761867312
530296820.0 -0.0734945389 0.1597944451 0.2433938452 -0.5020531898 0.2431776408 -0.5023084446 -0.0549432543 0.1768390509
535296790.0 -0.0719734541 0.1604277919 0.2373471377 -0.5047958042 0.2381992867 -0.5045953688 -0.0527832408 0.177327713
540296760.0 -0.0705343035 0.1612217482 0.2324207185 -0.5077163587 0.2316516254 -0.5080569319 -0.0509461188 0.1783524556
545296730.0 -0.0689824325 0.1621593357 0.2265096381 -0.509597444 0.2267384036 -0.5101526761 -0.0490145625 0.1791316337
550296700.0 -0.0672323933 0.1630434874 0.2210884695 -0.5126090543 0.2216218726 -0.5126994977 -0.0470652532 0.1799444451
555296670.0 -0.0654413702 0.1635317113 0.2154944052 -0.5148849136 0.2158828921 -0.514693171 -0.0454156285 0.1806708534
560296640.0 -0.0642674967 0.164472808 0.2103507019 -0.5165880788 0.2103056115 -0.516991039 -0.0433323387 0.1813009297
565296610.0 -0.0628875201 0.1650070914 0.2044348537 -0.5192009688 0.2041419264 -0.5189906363 -0.0413576456 0.1817303993
570296580.0 -0.0607979568 0.1655603015 0.1986385103 -0.5210767038 0.1990018544 -0.5216141715 -0.0392193489 0.1830459718
575296550.0 -0.0592002376 0.1667967816 0.193404868 -0.523122315 0.1933958904 -0.523695648 -0.0367976279 0.1832080601
580296520.0 -0.0579220136 0.167532212 0.1877301023 -0.5255985538 0.187452181 -0.5255921025 -0.0352385738 0.1837524557
585296490.0 -0.0559635262 0.1678914773 0.1819617431 -0.5275160023 0.1816651061 -0.5274460899 -0.033179001 0.1838582201
590296460.0 -0.0548870728 0.1683101903 0.1761530732 -0.5295273031 0.1758411784 -0.5296516494 -0.0311536893 0.1847702564
595296430.0 -0.0529996361 0.1694361245 0.1705404351 -0.531157826 0.1703408912 -0.5313954182 -0.0288671146 0.1851121907
600296400.0 -0.0510833954 0.1699699921 0.1645405511 -0.5329938891 0.1649082748 -0.5333266224 -0.0272781791 0.1858880785
605296370.0 -0.0495921454 0.1706336628 0.1588393045 -0.5349334422 0.1588222292 -0.5345577558 -0.0255140777 0.1860779119
610296340.0 -0.0480094265 0.1712559162 0.153413737 -0.5365465395 0.1533601067 -0.5367909671 -0.0233380192 0.1872942568
615296310.0 -0.0462264904 0.1720624232 0.1466782747 -0.5381326066 0.147144053 -0.5379668946 -0.0209980441 0.1871360822
620296280.0 -0.0443976677 0.1722558381 0.141508339 -0.5391461613 0.1412591253 -0.5393679698 -0.0193383083 0.1870812167
625296250.0 -0.0428500154 0.173085118 0.1353838754 -0.5412617244 0.135388207 -0.5414447841 -0.0172393546 0.1881502679
630296220.0 -0.0412483041 0.1738556246 0.129378649 -0.5427607719 0.1297412891 -0.5422936841 -0.0152611364 0.1883034526
635296190.0 -0.039554315 0.1744177855 0.1237473256 -0.5435139765 0.1234425713 -0.5432454963 -0.0134846386 0.1885203532
640296160.0 -0.0380537623 0.1746033668 0.1182206154 -0.545012738 0.1178768038 -0.5451214896 -0.0109457185 0.1884094023
645296130.0 -0.0360626645 0.1752618844 0.111804795 -0.5464389151 0.1119693268 -0.5459787398 -0.0094023701 0.1885908409
650296100.0 -0.0345744534 0.1759971665 0.1068677342 -0.5471220298 0.1063999025 -0.5471866876 -0.0072161301 0.1891737491
655296070.0 -0.0329219592 0.1761695416 0.100231145 -0.5483145301 0.0997929348 -0.5484973415 -0.0045243662 0.1895318745
660296040.0 -0.0314307673 0.1770166788 0.0942200824 -0.5491003808 0.0944856388 -0.5494685683 -0.003220478 0.1896168531
665296010.0 -0.0294353235 0.177149369 0.0886281398 -0.5503095627 0.0887773453 -0.5503719472 -0.0010178261 0.19004296
670295980.0 -0.0275037104 0.1777476746 0.0824625761 -0.5511568527 0.0829434906 -0.5513132712 0.000886898 0.190105665
675295950.0 -0.0257858822 0.1781216789 0.0763793916 -0.5521143955 0.0766104844 -0.5525942014 0.0030952267 0.1902461883
680295920.0 -0.0240674153 0.1788735893 0.07007729 -0.5526861829 0.0705312416 -0.5529296414 0.0052875479 0.1899421225
685295890.0 -0.022376086 0.1789682407 0.0646609719 -0.5535912852 0.0645059084 -0.5537820272 0.0074410208 0.1905067851
690295860.0 -0.0202183323 0.1795521028 0.0583284756 -0.5538591536 0.0580954276 -0.5540367182 0.0095469499 0.1905961359
695295830.0 -0.0185441432 0.1793867139 0.0522120569 -0.5548530757 0.0520983057 -0.5549905179 0.0109651197 0.1905814695
700295800.0 -0.0167278919 0.1800236646 0.0459258824 -0.5550853761 0.0465533881 -0.5553119987 0.0134471049 0.1901763088
705295770.0 -0.0148739079 0.1804470773 0.0403483212 -0.5556051672 0.0408201647 -0.5557698942 0.0153009003 0.1905254433
710295740.0 -0.0131908941 0.1809044615 0.0345614708 -0.5560960152 0.034318815 -0.555773035 0.0169362216 0.1906626607
715295710.0 -0.0117432044 0.1810509263 0.028309719 -0.5563097399 0.0283592532 -0.5560927348 0.0195417318 0.1902202193
720295680.0 -0.0100337663 0.1810701664 0.0225167184 -0.5563780106 0.0226681831 -0.5572829587 0.0216683182 0.1904207752
725295650.0 -0.0076273279 0.1814173894 0.0159658362 -0.5566858343 0.0165095458 -0.556587111 0.0238026049 0.1904061991
730295620.0 -0.0065821403 0.1814198112 0.0105225439 -0.5569159351 0.0107181871 -0.5568462298 0.0256911109 0.1896885627
735295590.0 -0.003861208 0.1816143376 0.0047315061 -0.556815858 0.004804493 -0.5570649359 0.0277150309 0.1901599052
740295560.0 -0.002602407 0.182413364 -0.0016372983 -0.5567496778 -0.0019278761 -0.5568242324 0.0302267998 0.1896525664
745295530.0 -0.0008115358 0.182220625 -0.0078042036 -0.5567228976 -0.0073986324 -0.5570076669 0.0319042517 0.1896646745
750295500.0 0.0007805055 0.1823161822 -0.0132303907 -0.5563520114 -0.0135425492 -0.5565082361 0.0341871035 0.189095861
755295470.0 0.0031342583 0.1826996221 -0.0192594614 -0.5563593551 -0.0191309756 -0.5567328489 0.0355534351 0.1889838199
760295440.0 0.0043535034 0.1827052132 -0.0256313959 -0.5560871122 -0.0252483026 -0.5565813017 0.0375523896 0.1887327892
765295410.0 0.0061753983 0.1824086184 -0.0308626186 -0.55580426 -0.0312052066 -0.5560228698 0.0409498662 0.1889894065
770295380.0 0.0084881652 0.1828124406 -0.0375828391 -0.5550733181 -0.0373651099 -0.5553729756 0.0424451676 0.1884005133
775295350.0 0.0099865437 0.1832820677 -0.0435811344 -0.5549554392 -0.0436355417 -0.5550273133 0.0441317505 0.1875841218
780295320.0 0.0121640161 0.1826958808 -0.0491741704 -0.5543882183 -0.0495685061 -0.5545499346 0.0462936269 0.1877602843
785295290.0 0.013414241 0.1831978609 -0.055152441 -0.5531569259 -0.0555757345 -0.5538803206 0.048053658 0.1871175719
790295260.0 0.0149981739 0.1831901705 -0.0609547454 -0.553335982 -0.0612610016 -0.5535093374 0.0505148339 0.1866984515
795295230.0 0.0171358472 0.1833012722 -0.0668399324 -0.5521588155 -0.0670135481 -0.5525911779 0.0525603079 0.187024826
800295200.0 0.0191187264 0.1832791236 -0.0737733608 -0.5519524532 -0.0737153727 -0.5518274381 0.0546809336 0.1857063413
805295170.0 0.0205163877 0.1831412396 -0.0788154521 -0.5502568219 -0.0787558893 -0.5508146713 0.0561978244 0.1854791631
810295140.0 0.0225325869 0.18316321 -0.0846550799 -0.550155497 -0.0849326511 -0.5508066467 0.0585574088 0.1852966433
815295110.0 0.0243470548 0.1830227403 -0.0912389623 -0.5486336834 -0.0914653386 -0.5488286727 0.0601323762 0.1845080651
820295080.0 0.026216392 0.1826575186 -0.0969266995 -0.547667131 -0.0968796322 -0.5478975522 0.0621597676 0.1841703484
825295050.0 0.0279128595 0.1826249298 -0.1024712657 -0.5462979997 -0.1026271592 -0.5465803873 0.0647022312 0.1837596253
830295020.0 0.0296876086 0.1827112053 -0.1085486605 -0.5451787841 -0.1087584607 -0.5454884988 0.066315377 0.183199711
