!Created with skrf (http://scikit-rf.org).
# Hz S RI R 50.0 
!freq ReS11 ImS11 ReS21 ImS21 ReS12 ImS12 ReS22 ImS22
300000.0 -0.3219207042 -0.078337664 0.3751852124 0.0429615487 0.3732223817 0.0401827847 -0.3198355936 -0.0983313674
5299970.0 -0.3265886939 0.0045942289 0.3785263185 0.0022535591 0.3782116315 0.0023653407 -0.3239829032 0.0049162184
10299940.0 -0.324166251 0.0135669035 0.3794554781 0.0019523312 0.3794160254 0.002109728 -0.3216134759 0.0161426481
15299910.0 -0.3216454145 0.0203132715 0.3817267223 0.0021417604 0.3817748238 0.0019663812 -0.318132542 0.0237955727
20299880.0 -0.3185922201 0.026317071 0.3848084042 0.00176508 0.3848983067 0.0014336264 -0.314719261 0.0303200464
25299850.0 -0.315729327 0.0316977006 0.3881974834 0.000131926 0.3879973925 1.25832e-05 -0.3108055978 0.0359068916
30299820.0 -0.312634707 0.0359339264 0.3913522189 -0.0022620742 0.3916428098 -0.0022840248 -0.3071303554 0.041017351
35299790.0 -0.3100366262 0.0401070177 0.3948695315 -0.0056185361 0.3948196796 -0.0056348172 -0.3035897904 0.0452044426
40299760.0 -0.3071091009 0.0436863385 0.3978582441 -0.0090114112 0.3978748456 -0.0090934361 -0.3001412463 0.0483924089
45299730.0 -0.3046651018 0.0464921045 0.4008478515 -0.0127642363 0.4011752232 -0.0127990924 -0.2974660274 0.0519274653
50299700.0 -0.302474571 0.0495594999 0.4037460045 -0.0173576607 0.403280659 -0.0172752261 -0.29412861 0.0543980712
55299670.0 -0.3003876538 0.0519970875 0.4057789822 -0.0222456903 0.405630809 -0.0220903869 -0.2918402515 0.0570955828
60299640.0 -0.2982301837 0.0547767525 0.4074150196 -0.0269720613 0.4077137912 -0.0267897474 -0.2888775176 0.0592741376
65299610.0 -0.296285118 0.0573841642 0.4091691132 -0.0318863377 0.4092864332 -0.0319523575 -0.2873288937 0.0617367049
70299580.0 -0.2945046182 0.0600150037 0.4102285019 -0.0371342307 0.4103579614 -0.0371125244 -0.2850751968 0.063913421
75299550.0 -0.2930696044 0.0624694545 0.4110680116 -0.0422159057 0.411283998 -0.0425389612 -0.2832841695 0.065905223
80299520.0 -0.2915573336 0.0646963408 0.412316897 -0.0475050382 0.4124932018 -0.0476467677 -0.2813777621 0.0681453101
85299490.0 -0.2903053213 0.0672019126 0.4126504538 -0.0525976068 0.4127758994 -0.0524189084 -0.2800358372 0.0699813787
90299460.0 -0.2887810021 0.0694245412 0.4129702736 -0.0579872407 0.4135630947 -0.0578597794 -0.2783805878 0.0720356274
95299430.0 -0.287339823 0.071548723 0.4138922496 -0.0631265058 0.4137665396 -0.0634967148 -0.2767138429 0.0745578355
100299400.0 -0.2862307292 0.0740845531 0.4131550487 -0.068435027 0.4134287949 -0.0683457831 -0.2750793226 0.0761707064
105299370.0 -0.2854094786 0.0765757085 0.4132970318 -0.0740802607 0.4133275931 -0.0740285621 -0.2735757677 0.0784865996
110299340.0 -0.2841198851 0.0786483816 0.4132229533 -0.0783803384 0.413111099 -0.0787318016 -0.2730181717 0.0803264645
115299310.0 -0.2827118733 0.0809030925 0.4128718139 -0.0836902563 0.4128619519 -0.0838873545 -0.271727802 0.0823624681
120299280.0 -0.2818204723 0.0832056773 0.412553229 -0.0888772524 0.4126175572 -0.0889870559 -0.2706463082 0.084627854
125299250.0 -0.2810464336 0.0856277095 0.4116979098 -0.0942599414 0.4118164909 -0.0939032118 -0.2693703773 0.0862039845
130299220.0 -0.2800299301 0.0882389683 0.4107816028 -0.0991615639 0.4111664238 -0.0989233998 -0.2684285702 0.0884945835
135299190.0 -0.2791555689 0.0906502336 0.410590655 -0.1042086851 0.4106235937 -0.1039006972 -0.2671119994 0.0908862631
140299160.0 -0.2783798792 0.0931890588 0.4094343067 -0.1090837669 0.4094943718 -0.1091588739 -0.2661534107 0.0936778777
145299130.0 -0.2775452992 0.0957926786 0.4091110889 -0.114199155 0.4083473093 -0.1141762939 -0.2654529569 0.0956078158
150299100.0 -0.2762859664 0.0981470714 0.4077081089 -0.1185650786 0.407655071 -0.1185390085 -0.2643289896 0.0982701725
155299070.0 -0.2757149601 0.1006046438 0.4068356937 -0.1242557631 0.4065007297 -0.1238354345 -0.2630501609 0.1008181039
160299040.0 -0.2745914441 0.1035613976 0.405694994 -0.1287351079 0.4051890311 -0.1288572447 -0.2626651543 0.1033209555
165299010.0 -0.2737302751 0.1060153065 0.4042698446 -0.1339117882 0.4044142046 -0.1340474842 -0.261345402 0.105956101
170298980.0 -0.2728921534 0.108664422 0.4023890489 -0.1385108988 0.4029475387 -0.1384782482 -0.260124209 0.1081763632
175298950.0 -0.2717995692 0.1112596903 0.4016317722 -0.14318093 0.4011505269 -0.1430235952 -0.2596039306 0.111095732
180298920.0 -0.2707703112 0.113810276 0.3996971018 -0.1478836338 0.4000539788 -0.1476332443 -0.2582486326 0.113463983
185298890.0 -0.2697005353 0.1165330403 0.3987086833 -0.152621789 0.3983902821 -0.152632107 -0.2572556317 0.115873502
190298860.0 -0.2688254937 0.1193893102 0.3972957972 -0.15728623 0.3974055219 -0.1573054163 -0.2562565933 0.1182204899
195298830.0 -0.2677521264 0.1217951706 0.3951515229 -0.1619968282 0.3952470385 -0.1617104287 -0.2553764552 0.1209222612
200298800.0 -0.266487238 0.1244053331 0.3931398249 -0.1667739811 0.3937352455 -0.1665427352 -0.2546174879 0.1234531336
205298770.0 -0.2652666873 0.1273751997 0.3913112448 -0.1717191429 0.3915282092 -0.1711675802 -0.2529685927 0.1257988413
210298740.0 -0.2643846447 0.1298653471 0.389526393 -0.1758017109 0.3897752495 -0.1755579594 -0.2515649664 0.1284241245
215298710.0 -0.2635078839 0.1327814443 0.388157552 -0.1803945053 0.3877567273 -0.1806534724 -0.2511490877 0.1310931728
220298680.0 -0.2619439548 0.1351180513 0.3856264335 -0.1847936055 0.3858080873 -0.1847914248 -0.2499525138 0.1332559584
225298650.0 -0.2608984192 0.1377703922 0.3837079784 -0.1890192533 0.3841245652 -0.1891766554 -0.2489916968 0.1358354004
230298620.0 -0.2595372867 0.1406005581 0.3818661193 -0.1934874518 0.3824214985 -0.1937783419 -0.2477946 0.1386025863
235298590.0 -0.2579830504 0.1437833311 0.3797582102 -0.1976971998 0.3798146154 -0.1978663962 -0.2464013965 0.1413992421
240298560.0 -0.257223161 0.1461340741 0.3778969804 -0.202301313 0.3776570517 -0.2025202927 -0.2452861977 0.1440707366
245298530.0 -0.2558904038 0.1490995931 0.3754859565 -0.2065704785 0.3753078025 -0.206828287 -0.2438999946 0.1459952111
250298500.0 -0.2542227072 0.1516218871 0.3726520808 -0.2110073488 0.3725565579 -0.2107074701 -0.2428575923 0.1485457296
255298470.0 -0.2528542467 0.1540810894 0.3704487358 -0.2147793506 0.3704906538 -0.2148824354 -0.2411664161 0.1508026985
260298440.0 -0.2514874912 0.1568735653 0.3683115376 -0.2194423455 0.368417214 -0.2194764344 -0.239489676 0.1537504589
265298410.0 -0.2495784373 0.1601572862 0.3654954911 -0.2236791255 0.3658743446 -0.2234086743 -0.2384235612 0.1561156935
270298380.0 -0.2487419491 0.1622917218 0.36371129 -0.2276809065 0.3635371298 -0.227625865 -0.2367741022 0.1586933735
275298350.0 -0.2471161449 0.1650362496 0.3609414223 -0.2317627228 0.3612819418 -0.2317298629 -0.2351332646 0.1610707729
280298320.0 -0.2451708113 0.1678695549 0.3585379667 -0.2360105099 0.3583218998 -0.2359099191 -0.2332844461 0.1635919083
285298290.0 -0.2435881001 0.1706420814 0.3561300774 -0.2397848141 0.3557936379 -0.2400517329 -0.2318366369 0.1659211733
290298260.0 -0.2417293209 0.1732574649 0.353234458 -0.2435215439 0.3533552528 -0.2438376615 -0.2301848502 0.1686628425
295298230.0 -0.2399419061 0.1755534477 0.3507867586 -0.2479750199 0.350545112 -0.2481325963 -0.2281138174 0.1705902425
300298200.0 -0.2387947911 0.1784364073 0.3482931719 -0.2517377972 0.348097015 -0.2521785846 -0.2267156662 0.1733680446
305298170.0 -0.2367089288 0.1808623498 0.3447374867 -0.256317734 0.3450255022 -0.2560553664 -0.2244549513 0.175619708
310298140.0 -0.2348068727 0.183743062 0.3421188851 -0.2597926837 0.3423796279 -0.2598057587 -0.2231954954 0.1782221645
315298110.0 -0.2331384761 0.1858221725 0.339272297 -0.2637953353 0.3394604148 -0.2638173182 -0.2213355228 0.1805253887
320298080.0 -0.2312675601 0.1884254432 0.3359409103 -0.2679876926 0.3364130727 -0.2675975257 -0.2195053664 0.183165438
325298050.0 -0.2293862875 0.1905673544 0.333413343 -0.2714074167 0.3332233764 -0.2714048149 -0.2177692277 0.1851532442
330298020.0 -0.2276544788 0.192862312 0.3301797321 -0.2747430273 0.3302368766 -0.2751217066 -0.2162114396 0.1877474538
335297990.0 -0.2255992338 0.1956498194 0.3270474027 -0.2783900836 0.3269801782 -0.2789102526 -0.2146839788 0.1905641308
340297960.0 -0.223977678 0.1981131423 0.3237193406 -0.281975952 0.3235198623 -0.2825289654 -0.2118975466 0.1929106318
345297930.0 -0.2221725201 0.2008087439 0.3205735865 -0.2864254524 0.3204686351 -0.2862470498 -0.2105266462 0.1952382385
350297900.0 -0.2200871061 0.2032318422 0.3172346359 -0.2895467226 0.317250034 -0.2896498617 -0.2091684106 0.1977461613
355297870.0 -0.2179978595 0.2060746993 0.3138716401 -0.293201756 0.3141427302 -0.2925376597 -0.2070164261 0.1999139903
360297840.0 -0.2161751942 0.2085175492 0.3110797396 -0.2964886093 0.3112384186 -0.2963976352 -0.2048350731 0.2026978158
365297810.0 -0.21427822 0.2107855401 0.3077927551 -0.2997674071 0.3078608333 -0.3000739124 -0.2028660743 0.2050546441
370297780.0 -0.2117524759 0.2130264662 0.3041687157 -0.3030690931 0.3041782535 -0.3030045043 -0.2005939715 0.2073741339
375297750.0 -0.2093891077 0.215517193 0.300638519 -0.3064667215 0.3009843305 -0.3066394408 -0.1986594531 0.2096458164
380297720.0 -0.2076339807 0.21777209 0.2975261611 -0.309639932 0.2973194514 -0.3094867057 -0.1969015273 0.2117899388
385297690.0 -0.2054708514 0.2203502585 0.2938324336 -0.3127175549 0.2939086822 -0.3129781628 -0.1949001879 0.214106467
390297660.0 -0.2033298798 0.2227917888 0.2906153278 -0.3162088963 0.2904250483 -0.3161360423 -0.1928121095 0.216482341
395297630.0 -0.2007108018 0.2249995932 0.2869840967 -0.3193793981 0.2867820691 -0.3193682228 -0.1899850032 0.2187816764
400297600.0 -0.1982358949 0.2273856532 0.2830643113 -0.3228025462 0.283621165 -0.322695883 -0.1881481269 0.2209876703
405297570.0 -0.1963907508 0.2291515809 0.2799170374 -0.3252821324 0.2797660736 -0.3252997135 -0.186044877 0.222940412
410297540.0 -0.193541548 0.2315492702 0.2762893926 -0.3285279655 0.2763837528 -0.3287978102 -0.1838462996 0.2253970195
415297510.0 -0.1913430425 0.2337611672 0.2725158202 -0.3316697962 0.2729245852 -0.3320743941 -0.1815155137 0.2273168434
420297480.0 -0.1891345014 0.2363487157 0.2685684194 -0.3345856636 0.2688052141 -0.3348143882 -0.1793135269 0.2292314107
425297450.0 -0.1864003602 0.2382426519 0.2649611254 -0.3377373297 0.2652508111 -0.337773837 -0.1772033331 0.2313209413
430297420.0 -0.1840098069 0.2403705115 0.2615729863 -0.3399547759 0.2614880729 -0.3403601904 -0.1748082302 0.2330380858
435297390.0 -0.1817417969 0.2423476031 0.2575371041 -0.3430832891 0.2575701542 -0.3435873238 -0.1722525133 0.2352198758
440297360.0 -0.1790567759 0.2444815959 0.2538088971 -0.346043105 0.2539237487 -0.3462017146 -0.1697048279 0.2368859842
445297330.0 -0.1765567511 0.2463248666 0.2503553183 -0.3487575584 0.2499651882 -0.3484139329 -0.1670719206 0.2383953898
450297300.0 -0.173866509 0.2481930366 0.2462355846 -0.3513562034 0.2459932853 -0.3514929464 -0.16471022 0.2405950345
455297270.0 -0.1713625708 0.2503280134 0.2421053099 -0.35414315 0.2426194852 -0.3539692619 -0.1624286402 0.2423985663
460297240.0 -0.1691846349 0.2523060568 0.2382261361 -0.3565823909 0.2382142677 -0.3566131521 -0.1594952577 0.2443892976
465297210.0 -0.1664294046 0.254748032 0.2349270636 -0.359424366 0.2346926626 -0.3597790004 -0.1569798435 0.2459488374
470297180.0 -0.1634033096 0.2565482641 0.2302072559 -0.3620607016 0.230159638 -0.3617794584 -0.1542124434 0.2480546036
475297150.0 -0.1609971142 0.2578556065 0.226467954 -0.3636397809 0.2266275427 -0.3640076907 -0.1515246885 0.2494917435
480297120.0 -0.1583973663 0.2602310475 0.222672716 -0.3670522334 0.2223524633 -0.3672533853 -0.1487223329 0.2514152062
485297090.0 -0.1554517753 0.2618291726 0.2185147337 -0.3689372648 0.218318346 -0.368820565 -0.1461274905 0.253129618
490297060.0 -0.1529878569 0.2637555166 0.2144001311 -0.37148117 0.2144421296 -0.3713820884 -0.1436557517 0.254739611
495297030.0 -0.1503658825 0.2651832412 0.210085551 -0.373318742 0.210659544 -0.3737048256 -0.1407216288 0.2565710354
500297000.0 -0.1473471871 0.2670660921 0.2062095322 -0.3754634368 0.2058854332 -0.3756808414 -0.1379289965 0.2586781344
505296970.0 -0.1441861184 0.2686302547 0.2021233584 -0.3779082647 0.2017804154 -0.3780235156 -0.1352989166 0.2596856446
510296940.0 -0.1418823583 0.2704953835 0.1979237818 -0.3801265588 0.1975769916 -0.3803627663 -0.1326743219 0.2615455535
515296910.0 -0.1384091232 0.2718496191 0.1931331367 -0.3823504452 0.1937594443 -0.3822020151 -0.129974529 0.2633728698
520296880.0 -0.1365611831 0.2734065363 0.1898383793 -0.384358049 0.1896493461 -0.3841826216 -0.1275269956 0.2644471061
525296850.0 -0.1331606571 0.2747907101 0.1851667436 -0.3863333139 0.1855948716 -0.3863849293 -0.1243863428 0.2663306227
530296820.0 -0.1303758385 0.2770266112 0.180998805 -0.3885722762 0.180817609 -0.388512514 -0.121586301 0.2679223729
535296790.0 -0.1275570368 0.2782853066 0.1770184008 -0.3902570981 0.1769258072 -0.390051192 -0.119195688 0.2691144911
540296760.0 -0.1244972585 0.2797071506 0.172595094 -0.3924782557 0.1727663507 -0.3923351651 -0.1163319412 0.2710146113
545296730.0 -0.1215868169 0.2810825415 0.168093906 -0.393915817 0.1677606631 -0.3941495347 -0.1134747921 0.2722690334
550296700.0 -0.1184145705 0.2826562354 0.1635298739 -0.3958058956 0.1637688883 -0.3960530877 -0.1105202329 0.2739030055
555296670.0 -0.1154855405 0.2838039122 0.1596321032 -0.3975921105 0.1596582787 -0.3972440774 -0.1076411983 0.275063923
560296640.0 -0.1125951482 0.2855037398 0.1550952883 -0.3993243017 0.1550798774 -0.3994479744 -0.1049819784 0.2765239213
565296610.0 -0.1098022327 0.2867101367 0.1506835484 -0.4008589226 0.1508605482 -0.4008011654 -0.102025558 0.2774926608
570296580.0 -0.1071493221 0.287931882 0.1463430147 -0.4028581941 0.1459511536 -0.4027131089 -0.099247163 0.2792619692
575296550.0 -0.1039532045 0.2895038721 0.1420605221 -0.40433861 0.1416794015 -0.4041779093 -0.0961838438 0.2803034201
580296520.0 -0.1007242034 0.290499732 0.1373879984 -0.4057776343 0.1375014679 -0.4054571296 -0.0933389784 0.2808662489
585296490.0 -0.097940181 0.2913007389 0.1332500175 -0.4065088709 0.1331603569 -0.4070055295 -0.090711385 0.2824562
590296460.0 -0.0942701833 0.2927010064 0.1287149424 -0.407993423 0.1289729419 -0.4082732536 -0.0881168963 0.2833805265
595296430.0 -0.0914899554 0.2936645812 0.1237750366 -0.4096899824 0.1240763266 -0.4098404792 -0.0848024504 0.2840910435
600296400.0 -0.0886600377 0.2950180529 0.1197300492 -0.4110312979 0.1194890032 -0.4103874832 -0.0817541497 0.2850821638
605296370.0 -0.085495902 0.296142284 0.1152576181 -0.4123150115 0.1154912352 -0.4121081948 -0.078833824 0.286248254
610296340.0 -0.0824274911 0.2972712712 0.1106632422 -0.4131914661 0.1108792321 -0.4133807946 -0.0757885388 0.2869692279
615296310.0 -0.0790724645 0.298083805 0.1061549895 -0.414140947 0.1060872483 -0.414446316 -0.0724292535 0.2878683283
620296280.0 -0.0761389752 0.2985198817 0.1015907051 -0.4153186796 0.1017572232 -0.4154856099 -0.0700194216 0.2887826946
625296250.0 -0.0728791928 0.2996175896 0.0974758143 -0.4167228363 0.0971995865 -0.4169365282 -0.066400964 0.2895036215
630296220.0 -0.0694341936 0.3005858022 0.0922613582 -0.4176430728 0.0924433943 -0.4178724004 -0.0635644491 0.2909281742
635296190.0 -0.0668024409 0.3014902663 0.0879939218 -0.418275566 0.0882020568 -0.4183276331 -0.0606652191 0.2914212169
640296160.0 -0.0635836771 0.3025243246 0.0835444989 -0.4190201363 0.0836883338 -0.4195728034 -0.057019347 0.2921074068
645296130.0 -0.0602726916 0.3034849517 0.0791208671 -0.4195644164 0.0790285508 -0.4202232623 -0.0542511764 0.2930631135
650296100.0 -0.057198219 0.3038372869 0.0743243492 -0.4208810057 0.0744190612 -0.4208871495 -0.0505200622 0.2931394694
655296070.0 -0.0541279734 0.3048025522 0.0700624069 -0.4213594916 0.0697104643 -0.4217939709 -0.0474146987 0.2941530037
660296040.0 -0.0510044423 0.3050125533 0.0652911466 -0.4220062257 0.0652189919 -0.4227359491 -0.0443180395 0.2949747329
665296010.0 -0.0473175264 0.3056184657 0.0603259921 -0.4229304506 0.0606644913 -0.4232401024 -0.0410456725 0.2957941892
670295980.0 -0.0449659592 0.3067021492 0.05618315 -0.4236180711 0.0561774759 -0.4235189655 -0.0385585983 0.2963477119
675295950.0 -0.0414713626 0.3070054481 0.0515701133 -0.4237505122 0.0517936635 -0.4238555403 -0.035681479 0.2968893173
680295920.0 -0.0383182477 0.3078427861 0.0469284624 -0.4247542102 0.0468781132 -0.4247637162 -0.0321819419 0.2980085073
685295890.0 -0.0347340736 0.3088478051 0.0421583558 -0.4254480852 0.0420820873 -0.4252501336 -0.0285288832 0.2980525841
690295860.0 -0.0315057661 0.3090131848 0.0378011438 -0.425231996 0.037514163 -0.4259422676 -0.0261819855 0.2990572968
695295830.0 -0.0286071139 0.3092067421 0.033325376 -0.4255258338 0.0327960381 -0.4260933485 -0.0222293247 0.2993022896
700295800.0 -0.0247700006 0.3096038347 0.0280745018 -0.426234902 0.028374225 -0.4261534892 -0.019626344 0.2998873726
705295770.0 -0.0220793262 0.3103073735 0.0240308848 -0.4263611939 0.0242903555 -0.426388875 -0.0165634353 0.3005341358
710295740.0 -0.0183578526 0.3109516928 0.0191563031 -0.427016478 0.0193635351 -0.4269381567 -0.0132083999 0.3000747815
715295710.0 -0.0155873622 0.3108285913 0.0149692413 -0.4267312695 0.0147399425 -0.4268835346 -0.0102436213 0.3007884047
720295680.0 -0.0123819433 0.3110181421 0.0098669543 -0.4267883432 0.0102431603 -0.42702162 -0.0071258286 0.3013554205
725295650.0 -0.008567619 0.3113228801 0.0049951332 -0.4269818339 0.0053954418 -0.4273209046 -0.0042218821 0.3018325354
730295620.0 -0.0051462865 0.3119842836 0.0006649606 -0.4268306 0.0008027222 -0.4268380112 -0.0012033229 0.3012210865
735295590.0 -0.0022885141 0.312223341 -0.0040538771 -0.4266981775 -0.0041598952 -0.4264255916 0.0019048069 0.3013854297
740295560.0 0.0010161565 0.3121463289 -0.0085797386 -0.4266817114 -0.0085098047 -0.4269069134 0.0056088906 0.3019526135
745295530.0 0.004074342 0.3125282619 -0.0132888931 -0.4262392865 -0.0133931149 -0.4262094421 0.008276752 0.301243214
750295500.0 0.007770449 0.3122038399 -0.0177959984 -0.4260758053 -0.0176777904 -0.4266328419 0.0114872211 0.3017242979
755295470.0 0.010977513 0.3124327025 -0.0223532553 -0.4266193938 -0.0224615016 -0.4262441992 0.0148138993 0.3014661943
760295440.0 0.0139931046 0.3121599384 -0.0267795691 -0.4260081634 -0.027273957 -0.4260352849 0.0179178489 0.3016123386
765295410.0 0.0174323843 0.312354902 -0.0316581323 -0.4254309422 -0.0321775909 -0.4254361866 0.0212874262 0.3017632315
770295380.0 0.020230466 0.3123881099 -0.036198822 -0.4248141833 -0.0366771631 -0.4248353341 0.0242376492 0.301337989
775295350.0 0.0233174573 0.3117746557 -0.040739133 -0.4241786394 -0.0405487788 -0.4242662752 0.0269844751 0.3011664733
780295320.0 0.0271459818 0.3121960636 -0.0455169712 -0.4239376056 -0.04510347 -0.424130954 0.0302953859 0.3008839911
785295290.0 0.0299673817 0.3115218336 -0.0500286684 -0.4230850426 -0.0499818828 -0.4235008818 0.034048203 0.3009264851
790295260.0 0.0336158614 0.3115556445 -0.0544039704 -0.4225723062 -0.0540138576 -0.4227701081 0.0371134933 0.3007107878
795295230.0 0.036754973 0.3113605217 -0.0592647034 -0.4218324413 -0.0588962646 -0.4221856284 0.0404248671 0.3001541825
800295200.0 0.039457966 0.3112946148 -0.0639403819 -0.4214789059 -0.063672108 -0.4214395459 0.0434950531 0.2998975051
805295170.0 0.043192275 0.3106992548 -0.0679971143 -0.4205361926 -0.0685367752 -0.4209768527 0.0464869265 0.2996919494
810295140.0 0.0463486394 0.3101172154 -0.0726269732 -0.4193108549 -0.0727722119 -0.4201188797 0.0500144771 0.2994243948
815295110.0 0.0496065432 0.3097268842 -0.0775522254 -0.4188538418 -0.0768582987 -0.4189429553 0.053325475 0.2986696353
820295080.0 0.0528127168 0.3097627222 -0.0819142347 -0.417959758 -0.0815286107 -0.4183727677 0.0562902551 0.2985429693
825295050.0 0.0563236293 0.3090238111 -0.0859215939 -0.4169283463 -0.0862136535 -0.4173540832 0.0596188492 0.2982725621
830295020.0 0.0593928815 0.3087461647 -0.0908825184 -0.4161461542 -0.0907738173 -0.4161385961 0.0631629297 0.2977868205
