!Created with skrf (http://scikit-rf.org).
# Hz S RI R 50.0 
!freq ReS11 ImS11 ReS21 ImS21 ReS12 ImS12 ReS22 ImS22
300000.0 -0.3138285384 -0.1312047109 0.3707191734 0.0648278327 0.3703167796 0.0664289592 -0.3152480062 -0.1307125897
5299970.0 -0.3250765252 0.0026665265 0.3785427137 0.0034034969 0.3788356194 0.0035705967 -0.3256462691 0.002083701
10299940.0 -0.322585572 0.0140506769 0.3799817052 0.0028402877 0.3797364657 0.0029335153 -0.3232537446 0.0126675642
15299910.0 -0.3189132221 0.0224405367 0.3819319444 0.0026206668 0.3823482134 0.0028595147 -0.3207876949 0.0199971572
20299880.0 -0.315489857 0.0288163109 0.3850096649 0.0017939093 0.3852148407 0.0017984351 -0.3177468326 0.0259465568
25299850.0 -0.3115213681 0.0348395386 0.3885319925 0.0004510791 0.3886631829 0.0005643337 -0.3145922275 0.0312184386
30299820.0 -0.3080804519 0.0394777653 0.3916921834 -0.0021075164 0.3920867886 -0.0021424508 -0.3117413366 0.0356600913
35299790.0 -0.3044095343 0.0433763374 0.3949399203 -0.0049875879 0.395516652 -0.0051283731 -0.3091759009 0.0399093708
40299760.0 -0.301171732 0.0468367837 0.3982609401 -0.0087524799 0.3987444664 -0.0087183452 -0.3068323037 0.043059804
45299730.0 -0.2979887262 0.0499399738 0.4013592693 -0.012531809 0.401449528 -0.0128557778 -0.3038738351 0.0464904602
50299700.0 -0.2948059139 0.0529338043 0.4037645566 -0.0173145022 0.4036076813 -0.0172114088 -0.3010662278 0.0498892323
55299670.0 -0.2923016998 0.0553957118 0.4061047657 -0.0214847389 0.405811989 -0.0215765504 -0.29944056 0.0524311691
60299640.0 -0.2897114312 0.057786279 0.4079357442 -0.0270543617 0.4078897554 -0.0267308001 -0.2969189888 0.054957015
65299610.0 -0.2873710692 0.0601794097 0.4098897154 -0.0313879298 0.4096996643 -0.0319193685 -0.2950295714 0.0573147891
70299580.0 -0.2850415035 0.0621402537 0.4104293519 -0.03671297 0.4110801582 -0.0368786262 -0.2936375881 0.059799622
75299550.0 -0.2836755972 0.0643124166 0.4115701129 -0.0422314236 0.411932455 -0.0423074623 -0.2916407787 0.0624214886
80299520.0 -0.2816548593 0.0665319892 0.4128736574 -0.047389157 0.4130771697 -0.0475581621 -0.2903222031 0.0649482328
85299490.0 -0.2798200846 0.0681764294 0.4133529623 -0.0525471133 0.4134560177 -0.0524230571 -0.2889446755 0.066934089
90299460.0 -0.2783097797 0.0706857307 0.413321936 -0.0576906503 0.41368059 -0.0579197295 -0.2875258231 0.0694286574
95299430.0 -0.2767203363 0.0726137646 0.4137522889 -0.0629446483 0.414336587 -0.0632150954 -0.286376184 0.0720932286
100299400.0 -0.2753815011 0.0744872987 0.4140271424 -0.0678910048 0.4142134191 -0.0680478847 -0.2854883364 0.0744041021
105299370.0 -0.2738060333 0.0769672573 0.4135505873 -0.0736051264 0.4142299041 -0.0735883447 -0.2837800007 0.076538493
110299340.0 -0.2724624766 0.0786747939 0.4136833161 -0.0779996176 0.4139924893 -0.0781755515 -0.2833107238 0.0785726748
115299310.0 -0.2716375219 0.0810064593 0.41355425 -0.0834407414 0.4133098044 -0.0836644201 -0.2820612744 0.0810273976
120299280.0 -0.270762287 0.0831980817 0.4133259755 -0.0888617095 0.4130572526 -0.0890358026 -0.2806194526 0.0833330462
125299250.0 -0.2691954575 0.0854209514 0.4125034928 -0.093739823 0.4123468365 -0.0937201805 -0.279939119 0.0859220239
130299220.0 -0.2682625862 0.0873951934 0.4121310941 -0.0990596171 0.4117628063 -0.0994553011 -0.2790984734 0.0883254793
135299190.0 -0.2671686778 0.0900360114 0.4111158816 -0.1037310366 0.4113406778 -0.1041407606 -0.2782120422 0.0905830757
140299160.0 -0.2662103381 0.0920605217 0.4105525748 -0.1090852844 0.4101988732 -0.1086018287 -0.277368666 0.0930221892
145299130.0 -0.2653368589 0.0947130617 0.409479102 -0.1139909848 0.4097600167 -0.1139041329 -0.2764894968 0.0957899624
150299100.0 -0.264148229 0.0970107803 0.4086603908 -0.1189287403 0.4080856519 -0.1191175101 -0.2756070513 0.0985096546
155299070.0 -0.2632548263 0.0992337945 0.406971765 -0.1237543894 0.4077018411 -0.123805011 -0.2749474008 0.1010788513
160299040.0 -0.2622379154 0.1018864558 0.4062025186 -0.1288690793 0.4062317623 -0.1288219765 -0.2740476294 0.1033922246
165299010.0 -0.2610892842 0.1041309127 0.4049083765 -0.1335346524 0.4047856094 -0.133350789 -0.2726346921 0.1059294934
170298980.0 -0.2602201999 0.1070185127 0.4032137627 -0.1384637596 0.4036739087 -0.1382341916 -0.2721657565 0.1087257518
175298950.0 -0.2591051322 0.1089302905 0.4020989574 -0.1427057091 0.402490862 -0.1433466102 -0.2709276841 0.1115381333
180298920.0 -0.2581610619 0.1119877442 0.4003989191 -0.1480673829 0.4005567666 -0.1482825581 -0.2697213926 0.1141910708
185298890.0 -0.2567633786 0.1143978137 0.3991352904 -0.1523104414 0.39919583 -0.1526820388 -0.2687097387 0.116473099
190298860.0 -0.2557350735 0.1170931104 0.3973065017 -0.1574219486 0.3977586683 -0.1574095478 -0.2677631721 0.1192266012
195298830.0 -0.2548834287 0.119680032 0.3962592102 -0.1617015458 0.3962126034 -0.1622113223 -0.2670251485 0.1218088736
200298800.0 -0.2534834365 0.1216717719 0.3943904363 -0.1666804256 0.3943880055 -0.1669443198 -0.265343554 0.1245479515
205298770.0 -0.2528127441 0.1247523737 0.3924731469 -0.1708029456 0.3928421515 -0.1708339091 -0.2646352878 0.1273441251
210298740.0 -0.2514195081 0.1276223575 0.3906797701 -0.1758334036 0.3906085817 -0.1756220048 -0.2636404199 0.1299485133
215298710.0 -0.2504979878 0.130191496 0.3884240556 -0.1800160149 0.38861433 -0.1803229188 -0.2622829387 0.1326486632
220298680.0 -0.2486741555 0.132311788 0.3864425842 -0.1846615225 0.3864000251 -0.1845758853 -0.2609171246 0.1350800644
225298650.0 -0.2478958377 0.1354395699 0.3842607159 -0.1892575445 0.3847852087 -0.1886028958 -0.2599824907 0.1382162023
230298620.0 -0.2466785278 0.1382324876 0.382921536 -0.1934077401 0.383254455 -0.1936247159 -0.2587322158 0.1407381536
235298590.0 -0.245454087 0.1409058178 0.3806311066 -0.1983592133 0.3806226074 -0.1978339993 -0.2571977351 0.1434303721
240298560.0 -0.2440264569 0.1434417107 0.3783540868 -0.2019575396 0.3785022412 -0.2021961536 -0.2560602226 0.1457884579
245298530.0 -0.2427371925 0.1455622288 0.3758763486 -0.2067908708 0.3764406309 -0.2065166561 -0.2547661872 0.1487405466
250298500.0 -0.2413660681 0.1481157499 0.3735358024 -0.2104958007 0.37419694 -0.2105508516 -0.25339738 0.1515589976
255298470.0 -0.2402170848 0.1513347335 0.371800004 -0.2147676151 0.3719400729 -0.214987306 -0.2520494816 0.1542655004
260298440.0 -0.2384078597 0.1535265392 0.3690609183 -0.2186611982 0.3693778206 -0.2191402744 -0.2504658845 0.1566853967
265298410.0 -0.2374000962 0.156243796 0.3667715744 -0.2235132623 0.3667624287 -0.2236205567 -0.2487799024 0.1592317061
270298380.0 -0.2360144768 0.1585210409 0.3645202217 -0.2273313119 0.3645430093 -0.2273705888 -0.2475298434 0.1622543597
275298350.0 -0.234357369 0.1616902079 0.3614260122 -0.2314751936 0.3620148828 -0.2316188946 -0.2460624807 0.165093933
280298320.0 -0.2330623221 0.1638853475 0.3594786244 -0.2353343122 0.359588056 -0.2359821845 -0.244343083 0.1681196971
285298290.0 -0.2316672317 0.1665456289 0.3566248516 -0.2394596781 0.3568097719 -0.2395518105 -0.2428643303 0.1702776512
290298260.0 -0.2297096419 0.1691411482 0.3545941037 -0.2436336922 0.3541874364 -0.2436985103 -0.2407663786 0.1727959855
295298230.0 -0.2283568586 0.1715840464 0.3515942445 -0.2478291281 0.351686933 -0.248203952 -0.2393028802 0.1752030134
300298200.0 -0.2269434114 0.1740923015 0.3489223954 -0.251679835 0.3491254124 -0.2514111461 -0.2375745809 0.1777871442
305298170.0 -0.2250976347 0.1766485132 0.3461054489 -0.2556849247 0.3464483984 -0.2557830162 -0.2356736384 0.1804477941
310298140.0 -0.2229754509 0.1788272302 0.3431741418 -0.2594403285 0.3433160247 -0.2594160626 -0.2335741784 0.1833077332
315298110.0 -0.2220901451 0.1810912428 0.3404278073 -0.2636505752 0.34065499 -0.2638196048 -0.2320288298 0.1856572172
320298080.0 -0.2201159093 0.1836446053 0.3371968727 -0.2675489394 0.3380460033 -0.2675633979 -0.2304519317 0.1877341126
325298050.0 -0.2186262485 0.185442313 0.3341292127 -0.2709613548 0.3347840076 -0.2709770441 -0.2284941725 0.1901627018
330298020.0 -0.217076017 0.1884583451 0.3316034829 -0.2749953469 0.3318552486 -0.2749080381 -0.2269357716 0.19251391
335297990.0 -0.2154267842 0.1907180003 0.3281655939 -0.2785391465 0.3282794536 -0.2784327348 -0.2247974577 0.1951203757
340297960.0 -0.213516422 0.1929985139 0.3247568726 -0.2824121463 0.3252113603 -0.2824339093 -0.223183822 0.1981474815
345297930.0 -0.2119468484 0.1956889826 0.3221658911 -0.2859857374 0.3221228651 -0.2858719753 -0.2211114439 0.2002580519
350297900.0 -0.2103093892 0.1978031259 0.3191697995 -0.2890999179 0.3189066694 -0.2890908319 -0.2194153615 0.2027001049
355297870.0 -0.2083911461 0.2000048363 0.315444645 -0.2923396618 0.3154972818 -0.292697787 -0.2171463015 0.2058754606
360297840.0 -0.2063593639 0.2026735837 0.3120867816 -0.2961846947 0.3123095474 -0.2966668272 -0.2148164569 0.2076691088
365297810.0 -0.2044506042 0.2051644903 0.3089470583 -0.2996290408 0.3091730229 -0.299772708 -0.213327241 0.2100681348
370297780.0 -0.2025331665 0.207156302 0.3053629586 -0.3030705447 0.3057734375 -0.3031605928 -0.2110086462 0.212659362
375297750.0 -0.2004064394 0.2096705838 0.3022967502 -0.3063208825 0.3023466176 -0.3065666385 -0.208930352 0.2153755179
380297720.0 -0.1985829148 0.2120893618 0.2989141488 -0.309769331 0.2988151535 -0.3096130627 -0.2066440365 0.2176681888
385297690.0 -0.1968489321 0.2139874359 0.2955300697 -0.3129890362 0.2956945305 -0.3133402175 -0.2046686363 0.2199135308
390297660.0 -0.1941091538 0.2161642042 0.2919467808 -0.3157259619 0.2919457436 -0.3161453319 -0.201706451 0.2219402084
395297630.0 -0.1920902506 0.2188293548 0.2887969659 -0.3192788302 0.2882841241 -0.3191523442 -0.1997385041 0.2241986562
400297600.0 -0.1899250101 0.22060203 0.28490745 -0.3226941101 0.285390761 -0.3223390474 -0.197685867 0.2265533033
405297570.0 -0.1880476584 0.2223973972 0.281614017 -0.325566738 0.2817283688 -0.3255340984 -0.1951075382 0.2291464613
410297540.0 -0.1857336434 0.2248348754 0.2778861584 -0.3287836162 0.2778162024 -0.3286082147 -0.1927049657 0.2315530801
415297510.0 -0.1835762703 0.2270235525 0.2739906302 -0.3316688387 0.2744453717 -0.331716386 -0.1903721474 0.2334944958
420297480.0 -0.1812332726 0.2285256015 0.2702229499 -0.3345665319 0.2706778664 -0.3349343832 -0.1872752902 0.2359927452
425297450.0 -0.1785894242 0.2306378613 0.2667255136 -0.3376646034 0.2665411443 -0.3375966429 -0.1853442768 0.2373750816
430297420.0 -0.1760494506 0.2328039643 0.2632990106 -0.3404858565 0.2632654336 -0.3402150141 -0.1827766029 0.2398870863
435297390.0 -0.1742091172 0.2346614582 0.2590176344 -0.3437280261 0.2592802387 -0.3435244618 -0.1804862106 0.2424110717
440297360.0 -0.1714337756 0.236581317 0.2553361911 -0.3463307746 0.2557980225 -0.3461607085 -0.1782897601 0.2443855606
445297330.0 -0.169227543 0.2382079153 0.2520167111 -0.3487903918 0.2517841014 -0.3489323353 -0.1754640872 0.2464237261
450297300.0 -0.1665558052 0.2401921526 0.2475208283 -0.3515845143 0.2483153526 -0.3515915056 -0.1726529639 0.2482170276
455297270.0 -0.1644951668 0.2420786529 0.2443294423 -0.3542963976 0.2439818398 -0.3544478341 -0.1698392225 0.2502059297
460297240.0 -0.1613313039 0.2440063317 0.2402331511 -0.3571943574 0.2399851445 -0.356997802 -0.167543794 0.2519538554
465297210.0 -0.1588747754 0.2457433367 0.2358887251 -0.359373367 0.235857398 -0.3597727879 -0.1646158433 0.25428575
470297180.0 -0.1566199748 0.2475861125 0.2321604306 -0.3620690322 0.2322985835 -0.3620771387 -0.1622763421 0.2557475994
475297150.0 -0.153981138 0.2494095296 0.2284360936 -0.364586674 0.2281363498 -0.3647400583 -0.1593625717 0.2577826282
480297120.0 -0.1509067445 0.2512546315 0.223984883 -0.3671320915 0.2242799857 -0.3669699569 -0.1572599108 0.2594254142
485297090.0 -0.1485808519 0.2529358442 0.2201395596 -0.3696475233 0.220160593 -0.3695057711 -0.1544796179 0.2617492473
490297060.0 -0.1452767265 0.254798776 0.2156920564 -0.3721050211 0.2157445918 -0.3723059882 -0.1512435799 0.2632779674
495297030.0 -0.1428999074 0.255998961 0.2119645177 -0.3742177752 0.2119200536 -0.3740649303 -0.1484125649 0.2647223321
500297000.0 -0.1405425007 0.2576409871 0.2082575739 -0.3764542855 0.2077054988 -0.3765141131 -0.1458031197 0.2665947319
505296970.0 -0.1374618284 0.2595746466 0.2037198914 -0.3794482852 0.2032709675 -0.3783089557 -0.1427410955 0.2680930059
510296940.0 -0.1343731253 0.2608404396 0.1996871913 -0.3810228476 0.1996918772 -0.3811628045 -0.1396701693 0.2703198707
515296910.0 -0.1317407291 0.2627814326 0.1951271244 -0.3832277486 0.1949310786 -0.3832041698 -0.1372358607 0.2713768682
520296880.0 -0.1288561177 0.2642142357 0.1909600062 -0.3852314807 0.1907454319 -0.3850410673 -0.1337438401 0.2734422188
525296850.0 -0.126191938 0.2655573501 0.186440284 -0.3869774687 0.1865005412 -0.3868506889 -0.1311892494 0.2747395715
530296820.0 -0.1234601529 0.2670045584 0.1822369537 -0.3891793519 0.1824303579 -0.3888416205 -0.1285831071 0.2760624799
535296790.0 -0.1197684598 0.26854956 0.1780888479 -0.3909631244 0.1782973254 -0.391132497 -0.125333262 0.2780128718
540296760.0 -0.1169752677 0.2699943497 0.1734329468 -0.3926464988 0.1736748714 -0.3928123124 -0.1226673118 0.279096966
545296730.0 -0.1145288721 0.2716828786 0.1698211355 -0.3945081132 0.169496065 -0.3946515918 -0.1193137539 0.2808504517
550296700.0 -0.1112356557 0.2729097318 0.1649958395 -0.3964591412 0.1650161733 -0.3967103558 -0.1165311252 0.2820207698
555296670.0 -0.1085026383 0.274382825 0.1606961078 -0.3985412403 0.1607669583 -0.3983582887 -0.1136535609 0.2834108782
560296640.0 -0.105204749 0.2752397025 0.1564689811 -0.3997063281 0.1566366815 -0.3998081938 -0.1105676131 0.2850503269
565296610.0 -0.1025019477 0.2767484532 0.1524145724 -0.4014328183 0.1521660722 -0.4011118951 -0.1074449705 0.2858835665
570296580.0 -0.0994184879 0.2781981479 0.1478289499 -0.4031078029 0.1475769612 -0.4032208672 -0.1043822965 0.2873797474
575296550.0 -0.0961364066 0.2790397651 0.1433557427 -0.4049472605 0.1431696428 -0.4048598856 -0.1015451682 0.2885868974
580296520.0 -0.0932635036 0.2806919227 0.1388684231 -0.4061932046 0.1388252108 -0.4063402991 -0.098606645 0.2897549888
585296490.0 -0.0902174125 0.2817524331 0.1344809968 -0.4075500348 0.1338345068 -0.4075634122 -0.0951509954 0.2910787242
590296460.0 -0.0866123819 0.2828552617 0.1299281545 -0.4090643908 0.129836737 -0.409231816 -0.0924049606 0.2920903608
595296430.0 -0.0838231407 0.2840266824 0.1250809041 -0.4103880596 0.1251185007 -0.4106504791 -0.0893005148 0.2930328507
600296400.0 -0.0808298883 0.2852369679 0.1206483974 -0.4116924484 0.1204687462 -0.4115042453 -0.0860720441 0.2940878589
605296370.0 -0.0777659748 0.2861732065 0.1166286431 -0.4127361241 0.116213464 -0.4127988215 -0.0828388606 0.2950616532
610296340.0 -0.0745280931 0.2877152626 0.1118923676 -0.4137301394 0.1120123158 -0.4141506896 -0.0798039495 0.2965038698
615296310.0 -0.0711251055 0.2882205587 0.1073471228 -0.4154607343 0.1072030325 -0.4154223789 -0.0764939646 0.2974526572
620296280.0 -0.0684997814 0.2898717013 0.1028879093 -0.4162091776 0.1025778651 -0.4161216622 -0.0739240717 0.29821239
625296250.0 -0.0656542001 0.2903274946 0.09823928 -0.4176593347 0.0980796252 -0.4174807367 -0.0706611612 0.2987939243
630296220.0 -0.0622277301 0.2915606089 0.0934720966 -0.4185011952 0.0933970772 -0.4184074299 -0.0672601954 0.2998861068
635296190.0 -0.0592406156 0.2929455981 0.0892995217 -0.4195519632 0.0889375804 -0.4192724656 -0.0641264991 0.3009122455
640296160.0 -0.0560836347 0.2932017454 0.0844985995 -0.4206727895 0.0845494938 -0.4202820483 -0.0611495186 0.3016790321
645296130.0 -0.0527258484 0.2944638475 0.0799591883 -0.4209101389 0.0801991274 -0.4212042782 -0.0581077616 0.3021778006
650296100.0 -0.0496240804 0.294739242 0.0753983805 -0.4218595621 0.0750634514 -0.4219400342 -0.0540989198 0.3028420685
655296070.0 -0.0468476684 0.2956260495 0.0707290017 -0.4227755962 0.0704911542 -0.4224052179 -0.0517165128 0.3040962776
660296040.0 -0.0433794234 0.2963753017 0.0662973658 -0.4231950499 0.0661276441 -0.4235297475 -0.0483439909 0.3044759682
665296010.0 -0.0404444911 0.2974747103 0.0617274922 -0.4238395805 0.0613758053 -0.42410105 -0.0452630059 0.3053609225
670295980.0 -0.0373409161 0.2981119337 0.0569306911 -0.4246954569 0.056678311 -0.4243209166 -0.0420385233 0.3055058365
675295950.0 -0.034038187 0.298755383 0.0521542629 -0.4249432679 0.0523332618 -0.4253853239 -0.0388011868 0.3061774832
680295920.0 -0.0313725515 0.2995815798 0.0482322153 -0.4255634523 0.0476944609 -0.4254701658 -0.0354641923 0.3066495945
685295890.0 -0.0274746899 0.2999337903 0.0430521908 -0.4262843211 0.0431898946 -0.4262177781 -0.0321719848 0.307687782
690295860.0 -0.0248069049 0.3003728011 0.0387656406 -0.4266407225 0.0379972044 -0.4266156871 -0.0290036877 0.3079014942
695295830.0 -0.0216575719 0.3010867367 0.0343850719 -0.4270150485 0.0337142812 -0.4268210464 -0.0259683841 0.3085766912
700295800.0 -0.0182613044 0.3016281682 0.0296538817 -0.4274272996 0.0293353891 -0.4273579217 -0.0223191555 0.3087004055
705295770.0 -0.0155288271 0.3022257554 0.0246814662 -0.4278074331 0.0244236919 -0.4275294582 -0.0192614318 0.3096491717
710295740.0 -0.0126822191 0.3023446587 0.0203008906 -0.4272564193 0.019978321 -0.4277914548 -0.0161014592 0.309644093
715295710.0 -0.0090561649 0.3028991103 0.0155848654 -0.4278446702 0.0154219633 -0.4279171869 -0.0129677908 0.3096600783
720295680.0 -0.0057679782 0.3030849862 0.0108656301 -0.4279189816 0.0107013704 -0.4282585984 -0.0096991235 0.3097926816
725295650.0 -0.0029968356 0.3037860082 0.0065303625 -0.4279787862 0.0062572753 -0.42828257 -0.0065528085 0.3104535738
730295620.0 -0.0002998626 0.3039894918 0.0019953269 -0.427911612 0.0018091289 -0.4275446494 -0.0032696145 0.3108773648
735295590.0 0.0032199688 0.3042013696 -0.0027709398 -0.4277973096 -0.003145324 -0.4278440395 0.0001549359 0.310354592
740295560.0 0.0057068818 0.304361816 -0.0075363697 -0.4279680105 -0.0074829467 -0.4280181788 0.0032835344 0.3109882805
745295530.0 0.0089332714 0.3045862579 -0.0116931703 -0.4271653976 -0.0116383188 -0.4279097762 0.005906209 0.3109064456
750295500.0 0.01179309 0.3048796737 -0.0162997611 -0.4276041897 -0.0168815513 -0.4277235064 0.0096209504 0.3109630349
755295470.0 0.0151761374 0.3047767387 -0.0209306282 -0.42732535 -0.0214232358 -0.4275102952 0.0130709922 0.3113468641
760295440.0 0.0181239166 0.3053988611 -0.0260206844 -0.4271707535 -0.0259233727 -0.4269858967 0.0163430023 0.3108584311
765295410.0 0.0215278107 0.3047869532 -0.030373115 -0.4266344446 -0.0304551605 -0.4266967202 0.0197139334 0.3109001652
770295380.0 0.0244238576 0.3050665357 -0.0349680537 -0.4261844134 -0.0351032727 -0.4266206305 0.0224346568 0.3109932383
775295350.0 0.0273130478 0.3048940475 -0.0397089848 -0.4260483605 -0.0396372158 -0.4259625396 0.0259983103 0.3108123117
780295320.0 0.0306239238 0.3053269683 -0.0442474022 -0.4252141241 -0.0438753011 -0.4254345551 0.0293631636 0.3109828225
785295290.0 0.0334968425 0.3045767429 -0.048791291 -0.4246579078 -0.0486084887 -0.4252509684 0.0324399116 0.3108673308
790295260.0 0.0366208711 0.3042480928 -0.0532276727 -0.4244296553 -0.0531823658 -0.4245856601 0.0354264326 0.3106218229
795295230.0 0.0397243075 0.3042185272 -0.0577250717 -0.4235147583 -0.0578663504 -0.423822486 0.0385476117 0.3097784787
800295200.0 0.0426474614 0.3042925245 -0.0620689215 -0.4224419671 -0.0622039576 -0.4233965773 0.0419066883 0.3097318197
805295170.0 0.0457843178 0.304303012 -0.0668462339 -0.4222971586 -0.0668533506 -0.4227341519 0.0456303285 0.3095691616
810295140.0 0.0490432909 0.3038989447 -0.0712811708 -0.421419601 -0.0715828314 -0.421629421 0.0489228457 0.3088861196
815295110.0 0.0516490502 0.303602283 -0.0758270551 -0.4206259299 -0.075690615 -0.4209004357 0.0516048802 0.3088999197
820295080.0 0.0547173836 0.3029773724 -0.0797465396 -0.4192824881 -0.0804269054 -0.4201581965 0.0544482872 0.3089924395
825295050.0 0.0578109972 0.3025248478 -0.084863435 -0.4190311401 -0.0850337136 -0.4190508637 0.0584368381 0.3084240689
830295020.0 0.0608217177 0.3021308781 -0.0892213103 -0.4176237985 -0.0897254409 -0.41804979 0.0614851147 0.3071349535
