!Created with skrf (http://scikit-rf.org).
# Hz S RI R 50.0 
!freq ReS11 ImS11 ReS21 ImS21 ReS12 ImS12 ReS22 ImS22
300000.0 -0.7714305757 -0.0828184985 -0.0018567117 0.0012580828 -0.0022999685 0.0035118316 -0.783441579 -0.1160196421
5299970.0 -0.7853527047 -0.0052816445 -4.55961e-05 0.000121509 -2.2539e-05 -0.0001413258 -0.7854566186 -0.006797425
10299940.0 -0.7878856116 -0.003935729 0.0001808419 -6.94266e-05 -7.8687e-05 -0.0001413052 -0.7884525597 -0.0034778846
15299910.0 -0.7934876569 -0.0018776167 -8.76305e-05 0.000155542 0.000140429 0.0001216772 -0.7942337571 -0.001429577
20299880.0 -0.8000678812 0.0024066118 1.40663e-05 7.058e-05 -0.0001074379 9.10111e-05 -0.8005791089 0.0022372185
25299850.0 -0.8062793591 0.0075695026 5.84111e-05 -0.0001520288 -0.0002017608 -2.41393e-05 -0.8067899801 0.0083742373
30299820.0 -0.8123346838 0.015117486 -0.0001933726 8.65026e-05 3.68441e-05 0.0001779323 -0.8127262813 0.0161152233
35299790.0 -0.8178856831 0.0246745667 0.0001238507 -0.0001229991 0.0001444904 7.23992e-05 -0.8174699557 0.0247858105
40299760.0 -0.8217119551 0.0335421836 -0.000128661 -0.0002428016 4.88886e-05 -8.38066e-05 -0.8216846931 0.034116006
45299730.0 -0.8248623794 0.0423370352 -2.79799e-05 -4.54622e-05 -0.0001907905 -0.0001353582 -0.825426942 0.0438688347
50299700.0 -0.8268191468 0.052485875 2.35184e-05 -1.73959e-05 -0.0001350641 -0.0001993681 -0.8273700144 0.0536111505
55299670.0 -0.8296320275 0.0627911623 0.0001100925 -3.93343e-05 7.6402e-06 0.0001404921 -0.829789927 0.0642734275
60299640.0 -0.8304561775 0.0728516484 3.114e-05 -7.67876e-05 -8.8763e-06 6.5914e-06 -0.8304171211 0.0736671596
65299610.0 -0.8310442869 0.0834152702 -0.0001161504 0.0001263723 0.0001003091 0.0001752451 -0.8320904786 0.0841103744
70299580.0 -0.8317919806 0.0928912872 -4.26442e-05 -1.73932e-05 -3.42888e-05 -0.0001527096 -0.8318279608 0.0945147513
75299550.0 -0.8319303212 0.1034894924 0.0001545317 -8.72932e-05 -0.0001058181 -5.12829e-05 -0.8323225177 0.1035859319
80299520.0 -0.8322020273 0.1131931085 0.0002180249 7.35621e-05 4.62482e-05 -0.0001257303 -0.8319787407 0.1135234765
85299490.0 -0.8303834746 0.1224488752 0.0001579149 0.0001157794 4.00194e-05 -3.14518e-05 -0.8313214745 0.1232567018
90299460.0 -0.8298941077 0.1318628806 1.27036e-05 1.35775e-05 -6.25003e-05 0.0001538975 -0.8307318353 0.1329293297
95299430.0 -0.8292409496 0.1414754049 -0.0002771399 0.000202667 -7.37098e-05 4.40639e-05 -0.8289432585 0.1425061279
100299400.0 -0.8280038288 0.1505127411 0.0001587581 -4.8753e-05 -0.000110404 0.0002513819 -0.8285710883 0.1519941325
105299370.0 -0.8270462211 0.1601102952 -7.92706e-05 6.83912e-05 -0.0003584571 2.93675e-05 -0.8269595106 0.1612507705
110299340.0 -0.82547522 0.1688482019 -6.30628e-05 5.52871e-05 0.0001028318 0.0001280121 -0.8258250799 0.1706713409
115299310.0 -0.8238048762 0.1781402496 1.31221e-05 -7.30971e-05 2.94759e-05 0.0002770792 -0.8242265415 0.1796260838
120299280.0 -0.8221682587 0.1867286277 -9.43289e-05 0.0001487613 8.39576e-05 -1.65807e-05 -0.8226975372 0.1888809653
125299250.0 -0.8205904544 0.195442279 0.0002043075 5.9811e-06 -1.49605e-05 -3.76328e-05 -0.8215505781 0.1978206023
130299220.0 -0.8184681586 0.2051552722 4.34383e-05 3.26529e-05 5.05728e-05 8.42425e-05 -0.8197054131 0.2068404597
135299190.0 -0.817161467 0.2138371683 0.000174715 -0.0002636737 -6.66198e-05 -9.09346e-05 -0.8174405754 0.216440803
140299160.0 -0.8149544785 0.2230845929 8.2653e-05 0.0001578453 9.42186e-05 0.000130731 -0.8150640534 0.2245015249
145299130.0 -0.8124801561 0.231852602 0.0001034086 -0.0001046145 -7.6114e-06 7.60106e-05 -0.8131949105 0.2340313093
150299100.0 -0.8101516407 0.2408181391 2.80408e-05 -1.67303e-05 2.09275e-05 0.0002762566 -0.8111100217 0.243370233
155299070.0 -0.8080172933 0.2492025054 -6.1228e-06 8.58468e-05 0.0002042217 0.0001505378 -0.8086506403 0.2519087821
160299040.0 -0.8055435725 0.2576034136 -2.67549e-05 0.0001462026 0.0003269505 2.82327e-05 -0.8061610481 0.2607126333
165299010.0 -0.8027649006 0.2663095351 7.92961e-05 -0.0001424691 0.0001712963 -2.9986e-05 -0.8036291275 0.2689276376
170298980.0 -0.8002505292 0.2751767505 -5.6731e-06 3.66537e-05 9.991e-06 0.0002709291 -0.8003910946 0.277880111
175298950.0 -0.7976193502 0.2834204041 -2.18468e-05 0.0001768322 -0.0002024651 1.93891e-05 -0.7977772322 0.2868823609
180298920.0 -0.7951022553 0.2922806093 0.00013517 3.94349e-05 7.13644e-05 -0.0002282966 -0.7947478448 0.2951716799
185298890.0 -0.791284203 0.3002178909 1.88506e-05 6.5546e-06 -0.0001009254 0.0001824319 -0.7915031361 0.303710516
190298860.0 -0.7887484424 0.3087459904 -1.13724e-05 -0.0002141725 -8.48127e-05 -9.59604e-05 -0.7887735202 0.312451107
195298830.0 -0.7855197075 0.3174565054 -0.0001074609 9.10658e-05 7.11238e-05 0.000249237 -0.785519723 0.320551538
200298800.0 -0.7816841691 0.3254948757 -0.000313905 -5.31315e-05 0.0001055897 -5.03993e-05 -0.7826397454 0.3286387278
205298770.0 -0.7787020003 0.3337201799 0.0001909821 -5.4209e-06 -0.0001061408 3.35901e-05 -0.7781281736 0.3372143305
210298740.0 -0.7756346823 0.3419809159 -9.03428e-05 4.54743e-05 4.31458e-05 1.54488e-05 -0.7749883967 0.345862218
215298710.0 -0.7720586976 0.3501263083 0.0001061165 0.0001522647 -2.34292e-05 8.23437e-05 -0.7715017735 0.3534343479
220298680.0 -0.7680973287 0.3584714412 2.74549e-05 -2.3065e-05 4.53559e-05 -0.0001669199 -0.7675490621 0.361295732
225298650.0 -0.7645975504 0.3660527252 5.80027e-05 -0.0001490356 -4.69311e-05 -0.0001419484 -0.7641739219 0.3695437697
230298620.0 -0.76036185 0.3747287784 4.43791e-05 7.60691e-05 4.74095e-05 -0.0001391749 -0.7601792347 0.378136241
235298590.0 -0.7568343067 0.3827843026 -8.98103e-05 -0.0001151256 -9.16843e-05 -1.05524e-05 -0.7557744795 0.3860179537
240298560.0 -0.7526220087 0.3911453024 3.9579e-06 -5.09639e-05 3.0943e-05 -7.94827e-05 -0.7516642496 0.3946180576
245298530.0 -0.7491552834 0.3980323289 0.0001656907 3.59692e-05 -0.0001146436 -0.0001009524 -0.7475948647 0.4017310897
250298500.0 -0.7445534519 0.4065529328 0.0001905413 -8.07067e-05 1.74254e-05 2.95127e-05 -0.7437786042 0.4099485962
255298470.0 -0.7403636473 0.4131098691 0.0001139874 -2.77075e-05 -2.51103e-05 -0.0001800232 -0.7387905808 0.4177438686
260298440.0 -0.7358632736 0.4210744893 -5.88501e-05 -3.97018e-05 -0.0001267974 -4.77265e-05 -0.7345182246 0.4259647349
265298410.0 -0.7322799023 0.4295348427 -2.39389e-05 -0.0002272151 -1.48057e-05 -5.30783e-05 -0.730455194 0.4334311801
270298380.0 -0.7268818384 0.4363562679 -9.70814e-05 3.02749e-05 -8.66262e-05 0.0002129349 -0.7254550483 0.4408889076
275298350.0 -0.7225273542 0.4442459926 0.0001016633 -7.61791e-05 0.0001368901 -1.45571e-05 -0.721139677 0.4482601861
280298320.0 -0.7173417392 0.4520151992 -2.14315e-05 -0.0003050492 0.0001229298 0.0001748892 -0.716338666 0.4559662562
285298290.0 -0.7134553624 0.4595452156 -7.7095e-05 4.34572e-05 -0.0001387198 -8.3517e-05 -0.7114114796 0.4638031128
290298260.0 -0.708249532 0.4673497953 -0.0001172392 0.0001377545 0.0002230747 0.0001450124 -0.7065040686 0.4711997655
295298230.0 -0.7026745783 0.4739523732 7.67524e-05 5.89561e-05 -6.9705e-06 0.0001105599 -0.7019124901 0.4779633124
300298200.0 -0.6982325659 0.4814946463 -2.9185e-06 -4.95203e-05 0.0001278344 8.80206e-05 -0.6965497242 0.4856146241
305298170.0 -0.6931189238 0.4883875964 -0.0002274886 -2.53008e-05 -7.45893e-05 0.0001064744 -0.691159065 0.4931288473
310298140.0 -0.6878227809 0.4960426035 -0.0001031714 -0.000127422 0.0001096696 -2.0405e-05 -0.6867833469 0.5005366295
315298110.0 -0.6832695728 0.5028570262 -2.45184e-05 -3.58815e-05 0.0001490296 1.30408e-05 -0.6807031833 0.5071466234
320298080.0 -0.6776555291 0.5095945153 0.0002132423 -7.30909e-05 -3.82245e-05 3.23915e-05 -0.6755785327 0.5147623079
325298050.0 -0.6725441242 0.5168318134 -8.14266e-05 0.0002698191 -4.29716e-05 6.56364e-05 -0.6701378748 0.5214733608
330298020.0 -0.6667256598 0.5237179834 -0.000126599 -6.97146e-05 8.8293e-06 7.92656e-05 -0.6648263585 0.5285945248
335297990.0 -0.660642785 0.5302551415 -6.26611e-05 -1.40681e-05 0.0001002732 -0.0002103562 -0.659285332 0.5357598692
340297960.0 -0.6558971573 0.5374376901 0.0001813483 6.39632e-05 -4.18323e-05 0.0001612363 -0.6538440215 0.5423910298
345297930.0 -0.6502672204 0.5440762289 1.9814e-06 -0.0001284098 0.0001893846 -0.0001126438 -0.6481065276 0.5486136496
350297900.0 -0.6450391966 0.5509498632 -0.0001776585 -4.95619e-05 4.20037e-05 9.75028e-05 -0.6426315345 0.5559819622
355297870.0 -0.6386123893 0.5580861661 9.35728e-05 -0.0002910763 0.0001857435 6.07851e-05 -0.6369102786 0.5619374036
360297840.0 -0.6325959308 0.5636601223 0.0002139277 -0.00013724 -3.17626e-05 4.5438e-06 -0.63050705 0.5688467385
365297810.0 -0.6276224781 0.5703547682 -0.0001078527 -0.0002125366 4.57524e-05 6.47901e-05 -0.6239238004 0.5745879857
370297780.0 -0.6211421121 0.5769129821 2.51543e-05 0.0001643256 -1.87833e-05 0.0001005955 -0.6183164656 0.5816923919
375297750.0 -0.6151756666 0.5830239267 -2.68682e-05 -3.40949e-05 5.52769e-05 -0.000113159 -0.6130214232 0.5872712376
380297720.0 -0.6085612401 0.5887905817 -2.30559e-05 0.000160278 -9.53878e-05 6.80073e-05 -0.6062910988 0.593719486
385297690.0 -0.6039452045 0.5951246458 0.000112902 -4.80594e-05 -0.0001281313 -7.1369e-05 -0.5994467544 0.6002364735
390297660.0 -0.5972833065 0.60110135 9.40701e-05 -0.000161264 -0.0001528084 -8.52e-07 -0.5942267064 0.60648882
395297630.0 -0.5910685859 0.6075366942 0.0002457973 6.51136e-05 -1.72709e-05 0.0002377016 -0.587115619 0.6128900771
400297600.0 -0.5854115489 0.6138420689 9.92212e-05 0.0001627734 -2.35759e-05 -0.0002177124 -0.5809619884 0.6181784351
405297570.0 -0.5783317883 0.6191892882 -2.83721e-05 2.33361e-05 -1.36479e-05 2.47822e-05 -0.5746166258 0.6242598529
410297540.0 -0.5714844629 0.6251691051 0.0001357444 -2.659e-05 -0.0001930851 -0.0001335386 -0.5676663867 0.6303983146
415297510.0 -0.5649227219 0.6304962759 3.70414e-05 0.0001318929 6.16107e-05 3.16587e-05 -0.56148244 0.63586531
420297480.0 -0.5598446517 0.6363221179 -4.96149e-05 0.0001588542 -1.49727e-05 -4.4073e-05 -0.5548773408 0.6419210292
425297450.0 -0.5522400925 0.6419800571 -6.81624e-05 4.75317e-05 -5.00646e-05 -1.18013e-05 -0.5482218844 0.6475504909
430297420.0 -0.5459314825 0.6481297444 -2.67159e-05 -0.0002046634 5.8926e-05 -1.7793e-05 -0.5415331015 0.6525965637
435297390.0 -0.5393620297 0.652997957 0.000118409 -4.23835e-05 -9.67823e-05 0.0001491418 -0.5346752648 0.6583474566
440297360.0 -0.5322502615 0.658700074 4.44721e-05 0.0001621952 0.0002651891 -2.19493e-05 -0.5279453875 0.6632829688
445297330.0 -0.5253352088 0.6639635732 -3.01476e-05 -8.75754e-05 -7.56032e-05 -0.0001703158 -0.5215042023 0.6685095231
450297300.0 -0.5186619055 0.6687647047 0.0001712527 -3.10828e-05 -0.0001154475 -4.99611e-05 -0.5138275463 0.6742173266
455297270.0 -0.5119687089 0.6743082472 -0.0001097117 0.0001170901 0.0001318403 -5.5142e-06 -0.5071613599 0.6789829739
460297240.0 -0.5056055086 0.6794788702 -0.0001499469 0.0001205738 3.4844e-06 -0.0001013892 -0.5005190427 0.6842724363
465297210.0 -0.4984087731 0.6846080934 6.40196e-05 -0.0001981923 -0.0001750057 -3.99425e-05 -0.4926613538 0.6895548555
470297180.0 -0.4907296454 0.6898261585 6.89509e-05 -9.47195e-05 -0.0001472282 -0.0001097405 -0.4855992832 0.6949341681
475297150.0 -0.4840319778 0.6939807785 -5.96376e-05 -0.0001463743 -3.1451e-05 -0.0001321057 -0.4784993206 0.6989657922
480297120.0 -0.4772127844 0.6992981756 -3.49339e-05 2.09635e-05 1.75702e-05 1.98926e-05 -0.4712598732 0.7043471774
485297090.0 -0.4697176448 0.7041685975 -0.0001241217 5.05844e-05 -2.12317e-05 -0.0001387945 -0.4643026716 0.7087770832
490297060.0 -0.4624848043 0.7087387386 4.1776e-05 -1.92939e-05 1.50871e-05 8.32827e-05 -0.4568124802 0.7129081529
495297030.0 -0.4552611355 0.7130610068 2.76111e-05 -0.0001622714 -0.000183008 6.00282e-05 -0.4499455769 0.7185909145
500297000.0 -0.4478712122 0.7178783684 -1.976e-06 -9.34978e-05 -0.0001492346 0.00018574 -0.4418545482 0.7230256907
505296970.0 -0.4404801906 0.7220980869 -0.0003097801 3.19237e-05 -0.0002870122 -2.1272e-06 -0.4345255488 0.7274592391
510296940.0 -0.4336905347 0.7271851055 0.0001990215 -4.22506e-05 -3.02661e-05 6.1059e-05 -0.4271189482 0.7311277902
515296910.0 -0.4249479032 0.7304200182 -3.10253e-05 5.239e-06 -8.74092e-05 -8.6126e-05 -0.4194774325 0.735796345
520296880.0 -0.4189637846 0.7356401199 0.0001730697 1.26643e-05 -0.0001831379 -2.74242e-05 -0.4118085757 0.7396159043
525296850.0 -0.4103352132 0.7387551222 -4.14581e-05 0.0002867374 0.0001393079 1.3053e-05 -0.4049796879 0.7442075564
530296820.0 -0.403320305 0.743365932 7.53699e-05 5.78856e-05 -7.7049e-06 -0.0003589595 -0.3976306088 0.7473474809
535296790.0 -0.39643127 0.746443934 -6.568e-05 -3.11944e-05 8.02995e-05 -3.13878e-05 -0.39022216 0.7517760602
540296760.0 -0.3889946204 0.7506059178 0.0002415485 -0.0001551127 -6.46696e-05 -2.87811e-05 -0.3820675561 0.7552486138
545296730.0 -0.3817401189 0.7553851183 1.54327e-05 0.0002284369 1.95948e-05 -0.000139362 -0.3742076571 0.7588448728
550296700.0 -0.3740683178 0.7592471707 0.000169147 -0.0001704781 7.63615e-05 -7.02562e-05 -0.3671798239 0.7627987698
555296670.0 -0.3659086646 0.7614426696 1.4372e-05 0.0002542852 -0.0001419501 0.0002296431 -0.3587694523 0.7673033332
560296640.0 -0.3579989533 0.7661202548 0.0001147896 -0.0001300502 -0.0001802183 -7.2479e-06 -0.3508378697 0.7702718495
565296610.0 -0.3503711953 0.7697816348 8.40821e-05 -5.58454e-05 -5.68665e-05 0.0001752582 -0.3432864601 0.7733864135
570296580.0 -0.3429252692 0.7713925217 -5.0899e-05 -0.0001697494 7.64696e-05 9.51487e-05 -0.3355044014 0.7774406407
575296550.0 -0.334905532 0.7768535263 -4.4123e-05 -0.0001532224 0.0001869601 -9.15569e-05 -0.3270461431 0.7807066287
580296520.0 -0.3269603757 0.7792752231 8.7855e-06 -8.93338e-05 4.0705e-06 -0.0001662483 -0.3190335436 0.7839187161
585296490.0 -0.3197677046 0.7822703669 0.0001245397 9.0455e-06 -1.96213e-05 -4.94198e-05 -0.3112622849 0.787463163
590296460.0 -0.3118434473 0.7859642454 0.0001121861 -2.9232e-06 0.0001061965 -8.59528e-05 -0.3036930253 0.7902965994
595296430.0 -0.3040064818 0.788383577 3.08079e-05 -8.7081e-06 -0.0002792224 -5.90206e-05 -0.2956273265 0.7925810577
600296400.0 -0.2955832834 0.7917405124 7.72431e-05 0.000185083 -2.4828e-05 -0.0001311622 -0.2874376066 0.7956404189
605296370.0 -0.2884378137 0.7947066872 6.48331e-05 2.65646e-05 -7.60213e-05 1.49542e-05 -0.278779294 0.7985132822
610296340.0 -0.279893817 0.7974353597 -0.0001388854 6.8056e-06 2.14855e-05 -7.43847e-05 -0.2705291571 0.801292678
615296310.0 -0.2711547961 0.8003428715 -9.43384e-05 -0.0002282048 8.38675e-05 -0.0001057182 -0.2622635084 0.8038929034
620296280.0 -0.2634454639 0.8021922213 -8.92849e-05 0.0001697084 -0.0001410914 0.0001122035 -0.2551150021 0.8067849708
625296250.0 -0.2552981145 0.8048413312 7.38498e-05 5.25732e-05 -4.15511e-05 -8.06671e-05 -0.2462651153 0.8087559225
630296220.0 -0.2471231349 0.8077864595 -0.0001213598 0.0001304612 8.18105e-05 2.02916e-05 -0.2380635933 0.8118939282
635296190.0 -0.2391411046 0.8100545565 8.89932e-05 -0.0002290392 0.0001039358 -0.0002355374 -0.2307056524 0.8135569584
640296160.0 -0.2316675622 0.8124657404 3.62985e-05 1.2782e-06 0.0001231451 -0.0002328389 -0.2218081004 0.8161799111
645296130.0 -0.2233578541 0.815174388 5.8953e-06 0.0001285431 -3.39747e-05 0.0001010853 -0.2143209324 0.8185085585
650296100.0 -0.2154104618 0.8168789704 -9.29408e-05 -0.000167162 6.46485e-05 -0.0001165797 -0.2052902302 0.8198011966
655296070.0 -0.2066437153 0.819409054 3.28681e-05 2.23576e-05 0.0002148707 -0.0001170605 -0.197225321 0.8219785658
660296040.0 -0.1985335626 0.8206266951 0.0001009168 0.0001351042 9.57421e-05 -2.09067e-05 -0.1885717654 0.824145666
665296010.0 -0.1901012597 0.8223477938 0.0002440799 -4.33622e-05 6.01516e-05 -2.22366e-05 -0.1800781111 0.8259533169
670295980.0 -0.1829533319 0.8249446472 0.0001643084 -6.8842e-06 0.0001341081 5.83362e-05 -0.1723405493 0.8271924204
675295950.0 -0.1737044602 0.8263109943 -0.0001086095 0.0001525193 0.0002651841 -0.0001562108 -0.1646032306 0.8295206645
680295920.0 -0.1660733474 0.8282259062 0.00024793 -5.85667e-05 4.08813e-05 0.0001148901 -0.1556117993 0.8316885276
685295890.0 -0.1577073188 0.8304158749 0.0001242914 -6.70342e-05 2.16469e-05 -0.0002126115 -0.1470918278 0.8324296663
690295860.0 -0.1496721898 0.8309046319 2.24366e-05 -5.99193e-05 0.0001386358 8.4783e-06 -0.1391033748 0.8340004568
695295830.0 -0.1412046682 0.8323338891 3.44832e-05 0.0001799276 -0.0001396753 0.0001946512 -0.1304313784 0.8349631344
700295800.0 -0.1324851976 0.8338750739 -0.0003155141 3.38953e-05 4.2448e-06 -7.86948e-05 -0.1226029701 0.8365930919
705295770.0 -0.1252338876 0.8353321062 7.5549e-06 -0.0002535715 1.14165e-05 5.627e-07 -0.1145523972 0.838576242
710295740.0 -0.1161541688 0.8366046942 -0.0001318905 -6.07649e-05 0.000112796 8.6533e-05 -0.1057089786 0.8388988687
715295710.0 -0.1080134307 0.8375207564 0.0002074034 2.43431e-05 0.000101994 0.0001513928 -0.0974320226 0.8396101945
720295680.0 -0.0999267779 0.8388915359 -0.0001200139 -0.0001423928 -0.000142761 -1.25199e-05 -0.0890237738 0.8408142422
725295650.0 -0.0918195911 0.8397375531 -0.0002444889 0.0002012713 -1.82773e-05 7.88095e-05 -0.0807578886 0.8420740445
730295620.0 -0.0829522653 0.8403840747 0.0002051337 -9.83971e-05 7.20048e-05 -0.0001319099 -0.0731633267 0.8421685162
735295590.0 -0.0751659354 0.841574468 8.64942e-05 -0.0002383785 0.0001795845 -6.94435e-05 -0.0640010986 0.842069359
740295560.0 -0.0666178769 0.8421624493 6.48121e-05 -0.0001238902 -1.32227e-05 -4.14527e-05 -0.0551943737 0.8436616255
745295530.0 -0.0578010953 0.8427832049 2.50425e-05 -0.0001269573 0.0001460787 0.0002641734 -0.0462921276 0.8439611047
750295500.0 -0.0497379413 0.8430966087 -0.0001112848 0.0001941009 -2.78321e-05 -0.00011926 -0.0388743248 0.8443521249
755295470.0 -0.0409816141 0.8434578746 -3.34006e-05 9.97824e-05 -4.67057e-05 -2.31573e-05 -0.029971023 0.8442417286
760295440.0 -0.0332323549 0.8432126785 -1.70991e-05 0.0001213204 1.63967e-05 -0.0002559419 -0.0216600849 0.844825803
765295410.0 -0.0247804858 0.8439887659 0.0001655505 8.30939e-05 0.0002033902 9.16412e-05 -0.0131769522 0.8450352767
770295380.0 -0.0166070894 0.8440458535 -0.00018088 -0.0001175642 -9.43971e-05 -8.35571e-05 -0.0043109867 0.8453390441
775295350.0 -0.008531832 0.844080987 4.58707e-05 -0.0001199063 2.99735e-05 0.0002853644 0.0034090289 0.8448459434
780295320.0 0.0003322784 0.844414463 1.4706e-06 2.8669e-05 4.8485e-05 3.13276e-05 0.0117778582 0.8448856297
785295290.0 0.008297083 0.8438385873 -1.20983e-05 -7.11356e-05 -0.0001015381 7.93865e-05 0.0206758693 0.844631139
790295260.0 0.017515586 0.8443927522 5.0299e-06 -2.39326e-05 -0.0001040104 1.65325e-05 0.0290919231 0.8447694812
795295230.0 0.0249712437 0.8439780066 2.39299e-05 7.99805e-05 4.292e-06 0.0001092464 0.0381450025 0.8439910262
800295200.0 0.0333197044 0.8435957604 3.54585e-05 -8.04529e-05 -8.92243e-05 1.52931e-05 0.0466076825 0.8439211209
805295170.0 0.0420219926 0.84336279 -9.70556e-05 3.18656e-05 -1.77671e-05 -4.35748e-05 0.0542670625 0.8439041259
810295140.0 0.0501204567 0.8429725755 -0.0002233609 3.46026e-05 -0.0001294167 -0.0001566606 0.0629011523 0.8428602831
815295110.0 0.0582879551 0.8424951946 -0.0001682637 -0.0001715774 -0.0001392307 0.0001340765 0.0716816137 0.8422163565
820295080.0 0.0666924546 0.8418278612 6.69032e-05 2.73058e-05 -0.0001625488 -0.0001849282 0.0794011072 0.8415979893
825295050.0 0.0757138867 0.8408682226 0.0002104563 0.0001080552 -3.7667e-06 -0.0001323577 0.0877008044 0.8408459732
830295020.0 0.083577151 0.8405389882 -0.0002357475 0.000167718 -0.0001354513 0.000143184 0.0977002823 0.8398858829
835294990.0 0.0915527255 0.8400103035 -0.0001377357 0.000187102 -0.0001118173 0.0001445668 0.10461926 0.8390545521
840294960.0 0.100082162 0.8386745954 -2.48732e-05 -1.17923e-05 -0.0002859089 0.0001467286 0.1131646755 0.8374277117
845294930.0 0.1078284384 0.8375246325 -7.98667e-05 0.000170356 2.92084e-05 -6.70115e-05 0.1210766247 0.8359007802
850294900.0 0.1161678428 0.8366196333 -0.0001862402 0.0001357881 -0.0001994992 -4.77403e-05 0.1286444294 0.8351785624
