!Created with skrf (http://scikit-rf.org).
# Hz S RI R 50.0 
!freq ReS11 ImS11 ReS21 ImS21 ReS12 ImS12 ReS22 ImS22
300000.0 -0.1013549502 -0.0633324626 0.6311343599 0.0601361724 0.6251177925 0.0611622749 -0.0999525915 -0.0723080772
5299970.0 -0.1020733043 0.0130732023 0.6304715187 0.0096868309 0.6304025589 0.0101050886 -0.1009028486 0.0130228581
10299940.0 -0.0970045191 0.0294553234 0.6339360253 0.0150750724 0.6340673 0.0154397352 -0.0956364965 0.0302548431
15299910.0 -0.089873556 0.0424641815 0.6407189367 0.0199178005 0.6404743075 0.0202685706 -0.0884080494 0.0435923891
20299880.0 -0.0816965004 0.0530654568 0.6485977327 0.024565042 0.648766316 0.0238478328 -0.0797970823 0.0544233513
25299850.0 -0.0724121875 0.0620718932 0.6572403484 0.0251315911 0.6576410712 0.0254235338 -0.0698823833 0.0633586168
30299820.0 -0.0619906488 0.0688555931 0.6674703766 0.0248991588 0.6670684033 0.0242934194 -0.0597771947 0.0701053868
35299790.0 -0.0523921696 0.0737422973 0.6768075011 0.0212688089 0.6773137074 0.0212793891 -0.049827941 0.0749805358
40299760.0 -0.0432584733 0.077131666 0.6862270648 0.0172744393 0.6865743947 0.017386464 -0.0403601475 0.0774572966
45299730.0 -0.0339336376 0.0792118391 0.6949152969 0.011708622 0.695488906 0.0116728464 -0.031507353 0.0798878341
50299700.0 -0.0255681174 0.0801544326 0.703560638 0.0047749059 0.7035487987 0.0052059746 -0.0228615558 0.0809589167
55299670.0 -0.0175841922 0.0804572234 0.7109306498 -0.0031986124 0.7105917292 -0.0027964812 -0.0148510733 0.0806003425
60299640.0 -0.0100371947 0.0800595501 0.7171735784 -0.011766773 0.7171667515 -0.0111440483 -0.0077933567 0.0795070534
65299610.0 -0.0038377393 0.0787261276 0.7232204251 -0.0199929286 0.7233591296 -0.0201844917 -0.0014245868 0.078763067
70299580.0 0.0025717902 0.0779413135 0.7287366232 -0.0295949364 0.7285687964 -0.0292476076 0.0048464917 0.0767630539
75299550.0 0.0082752454 0.0757564247 0.7326272869 -0.0386496563 0.7329959085 -0.0394473566 0.0100299203 0.0747651278
80299520.0 0.0130687593 0.073444892 0.7364670669 -0.0492354992 0.7369957356 -0.0489637719 0.0150740288 0.0727295362
85299490.0 0.017549952 0.0713296859 0.7401141843 -0.058368175 0.7405636372 -0.0585069587 0.0195220362 0.0700180449
90299460.0 0.0217932366 0.068973531 0.7426366969 -0.0692838475 0.7433079481 -0.0693017403 0.0234805207 0.0677495496
95299430.0 0.02590919 0.0663941197 0.7454021211 -0.0789920926 0.7460334236 -0.0792142134 0.0273255864 0.0655365926
100299400.0 0.028761613 0.064837045 0.7468384859 -0.0891069487 0.7467931453 -0.0896438378 0.0311812057 0.0626451475
105299370.0 0.0321264354 0.0619395474 0.7486344447 -0.0997396904 0.7493814096 -0.0994825076 0.0342689311 0.060748336
110299340.0 0.0348117769 0.0596302533 0.7498584212 -0.1093792731 0.7496363873 -0.1092201669 0.0362792481 0.0576925188
115299310.0 0.0374757325 0.0573687522 0.7508214625 -0.1193068424 0.7506032616 -0.1197562647 0.039059341 0.0556436368
120299280.0 0.0398674741 0.0545844292 0.7509841138 -0.1292016819 0.7514166329 -0.129750623 0.0414144025 0.053140554
125299250.0 0.0420381415 0.0521423866 0.7515112396 -0.1394770732 0.7520132193 -0.139082424 0.0427801195 0.0501662932
130299220.0 0.0435305442 0.0502070437 0.7513088424 -0.149185678 0.7511589117 -0.1496261164 0.0449388152 0.048082478
135299190.0 0.0452946203 0.048092638 0.75145882 -0.1589619008 0.7508488062 -0.158944765 0.0467111628 0.045795463
140299160.0 0.0466267043 0.0460372411 0.75049024 -0.1687344603 0.7505458288 -0.1689080994 0.0479671635 0.0442645184
145299130.0 0.0483270202 0.0439547239 0.7503636944 -0.1788333983 0.7495152499 -0.1784425023 0.0493991449 0.0419608642
150299100.0 0.0496554265 0.0420565305 0.7486058277 -0.1875368997 0.7491585943 -0.1877799188 0.0509534298 0.0400102286
155299070.0 0.0504306902 0.0398826364 0.7475680893 -0.1984493975 0.7475588255 -0.1980697273 0.0520335036 0.0384063194
160299040.0 0.0519584345 0.0379441733 0.7465295542 -0.2070233562 0.7455002565 -0.2075885483 0.052037575 0.0360493701
165299010.0 0.0525891945 0.0360360194 0.7443677443 -0.2168544177 0.7447324954 -0.2170772143 0.0535816255 0.0349583302
170298980.0 0.0533392496 0.0337835351 0.7430137044 -0.2264645552 0.7428378773 -0.2259840742 0.0540562978 0.032928962
175298950.0 0.0537868962 0.0320688825 0.7412463429 -0.2356515134 0.7406114516 -0.2353443425 0.0548311009 0.0313393979
180298920.0 0.0544034987 0.030437506 0.7389199192 -0.2447900778 0.7388024549 -0.2447579094 0.0554085032 0.0296911751
185298890.0 0.0555165626 0.0285736803 0.7367006022 -0.2538105489 0.7361879753 -0.2538205588 0.0559094491 0.0282831405
190298860.0 0.0556006784 0.0273758403 0.733852803 -0.2632211534 0.7344446662 -0.2633386188 0.0563991444 0.0262486501
195298830.0 0.0559814181 0.025161883 0.7313525703 -0.2719675675 0.7319818615 -0.2717776797 0.0573373734 0.025074933
200298800.0 0.0562266735 0.0240467519 0.7285166653 -0.2811677711 0.7290165314 -0.281266799 0.0568378555 0.0237579442
205298770.0 0.056988789 0.0225778685 0.7257909335 -0.2902292348 0.7258585104 -0.2902691115 0.0571996761 0.0213014993
210298740.0 0.0569466254 0.0208297806 0.7228592404 -0.2985674622 0.722616312 -0.2982543746 0.0578179982 0.0212778572
215298710.0 0.0568485376 0.0193842282 0.7199267276 -0.3079333308 0.7198791603 -0.307723506 0.0579436377 0.0197986976
220298680.0 0.057459155 0.0175323427 0.7166328553 -0.3162239646 0.7172522155 -0.3158639335 0.0573664984 0.0180102639
225298650.0 0.0579060222 0.0164408728 0.7137159 -0.3255740871 0.7135989105 -0.3247212817 0.0574192697 0.0163864834
230298620.0 0.0577804413 0.0157710017 0.7106770946 -0.3330742698 0.7107558146 -0.333314619 0.0574624989 0.0149659991
235298590.0 0.0577842455 0.0143811085 0.7068244341 -0.341516755 0.7065893824 -0.3412456363 0.0576453664 0.0137713135
240298560.0 0.0581277413 0.0132689688 0.7034351283 -0.3500296031 0.7030999354 -0.3501288808 0.0576607174 0.0131738402
245298530.0 0.0577571818 0.0118818457 0.6997564764 -0.3587209231 0.6997293645 -0.3583669259 0.0581242962 0.0107957858
250298500.0 0.0584301729 0.0106719841 0.6952117789 -0.3668507411 0.6948966443 -0.3663096342 0.0577514011 0.0103288618
255298470.0 0.0583073299 0.009169547 0.6911858904 -0.3744517064 0.6915673822 -0.3746865095 0.0579245946 0.0089970419
260298440.0 0.057846888 0.0079246232 0.687533766 -0.3834144801 0.6876506502 -0.3826357059 0.0583631931 0.0079604531
265298410.0 0.0585422396 0.007611881 0.6832841973 -0.3914502623 0.6838352913 -0.3905958545 0.0583008153 0.0066961425
270298380.0 0.0585798046 0.0059654657 0.6798383262 -0.3986443988 0.6795363877 -0.3985954878 0.0579707793 0.0056475769
275298350.0 0.0589079909 0.0051132261 0.6752815518 -0.4072511389 0.6752732232 -0.4071924805 0.0580756584 0.0043413572
280298320.0 0.0587331304 0.0043536206 0.6710217077 -0.4145057629 0.6708080462 -0.4143819892 0.0583600276 0.0032636147
285298290.0 0.0586380104 0.0031721742 0.666796661 -0.4221088192 0.665884777 -0.4225445991 0.058201602 0.0021832857
290298260.0 0.058819932 0.0019005959 0.6616579186 -0.4301960897 0.661441984 -0.4302158869 0.0584503605 0.0016417344
295298230.0 0.0587146824 0.0008894072 0.657557346 -0.4378947191 0.6571080215 -0.4379456023 0.059094535 3.5231e-06
300298200.0 0.0582223678 -0.0006199709 0.6526649277 -0.4453820717 0.6528707946 -0.4461224391 0.0589101163 -0.0007831129
305298170.0 0.05871506 -0.0017037203 0.6476345333 -0.4541390772 0.6476460111 -0.4532038736 0.0592690139 -0.0022311549
310298140.0 0.0580835507 -0.0025249021 0.6429859005 -0.4612419684 0.6429511098 -0.4606417448 0.0591674492 -0.0031818022
315298110.0 0.0584409518 -0.0042946598 0.638264254 -0.4685626241 0.6379085696 -0.4683971209 0.0588006349 -0.0043658842
320298080.0 0.0585778821 -0.00515219 0.6317616041 -0.4765652973 0.6323200808 -0.4760979072 0.0588299149 -0.0053621781
325298050.0 0.0578477171 -0.0063039694 0.6272754847 -0.4838310429 0.6266798225 -0.4836364499 0.0576805707 -0.0067284447
330298020.0 0.0572898404 -0.0076016869 0.6212916971 -0.4910727458 0.6214435126 -0.4911991405 0.0573140232 -0.0077889506
335297990.0 0.0570169132 -0.0086334014 0.6158263664 -0.497884944 0.6149130542 -0.4982240119 0.0567021247 -0.0079190117
340297960.0 0.0560793125 -0.009065086 0.609995026 -0.5054367548 0.6086702587 -0.5052862295 0.0569128327 -0.0087596026
345297930.0 0.0559386707 -0.0093034169 0.6041165038 -0.5120197342 0.6038940373 -0.5122430769 0.0564283136 -0.0100354737
350297900.0 0.0551875611 -0.0110063198 0.5974332088 -0.5191887259 0.5974422479 -0.5189475144 0.0553494261 -0.0099784687
355297870.0 0.0547855879 -0.0108151398 0.5919971622 -0.5250991682 0.5924392024 -0.5248845328 0.055504929 -0.0106620001
360297840.0 0.0544419225 -0.0116168515 0.5869000838 -0.5316629686 0.5868735638 -0.5317725102 0.055015548 -0.0112066426
365297810.0 0.0541420014 -0.0120608301 0.5805982015 -0.5389541585 0.5810667781 -0.5387503737 0.0549279716 -0.0118058124
370297780.0 0.0541784047 -0.0132647673 0.5743416218 -0.5449022635 0.5744821759 -0.544431176 0.0540512863 -0.012510983
375297750.0 0.053725334 -0.0139848169 0.5687624141 -0.5513422205 0.5693683942 -0.5514496958 0.0542276515 -0.0129723966
380297720.0 0.0533136402 -0.0146008144 0.5620684828 -0.5582022047 0.5623994557 -0.5571438948 0.0534049457 -0.0139167853
385297690.0 0.0529675849 -0.0152208453 0.5561205864 -0.564229537 0.5559239618 -0.5639323964 0.0533523234 -0.0141319096
390297660.0 0.0525650282 -0.0154787907 0.5499184564 -0.5704276101 0.549883499 -0.5702451517 0.0526643925 -0.0150001918
395297630.0 0.0521662578 -0.0161404506 0.5438648382 -0.576219792 0.5435265412 -0.576386053 0.0528919619 -0.0158008944
400297600.0 0.0516616293 -0.016998784 0.5369077753 -0.5825634663 0.5370780507 -0.5829446308 0.0519464136 -0.016103077
405297570.0 0.0511164819 -0.017639814 0.5305496914 -0.5880061515 0.5312483704 -0.5877911177 0.0514937856 -0.0167680784
410297540.0 0.0512396999 -0.0182834274 0.5248039045 -0.5942796831 0.525186937 -0.5941722546 0.0510118997 -0.0170980332
415297510.0 0.0511427119 -0.0189000744 0.5173698195 -0.6005078939 0.5180636367 -0.6001661361 0.0508738368 -0.0180176697
420297480.0 0.050463839 -0.0192483209 0.5112049582 -0.6061091408 0.5112237496 -0.6065513609 0.050204232 -0.0190371788
425297450.0 0.0500165619 -0.0206301428 0.5044275942 -0.6114819094 0.5048499135 -0.6115525527 0.0493318247 -0.0188748537
430297420.0 0.0497987539 -0.0209798901 0.4978124208 -0.6167327229 0.4977493506 -0.6168257355 0.0494543638 -0.0199701181
435297390.0 0.0497049806 -0.0213334792 0.4902590435 -0.6223219533 0.4907996027 -0.622405849 0.0498203191 -0.0206199537
440297360.0 0.0494387042 -0.0219371026 0.4841898873 -0.6279277986 0.4840499437 -0.6278801024 0.0488750978 -0.0216513907
445297330.0 0.048672284 -0.0229951192 0.4777242109 -0.6329740847 0.4772609722 -0.632730702 0.0486607852 -0.0220269526
450297300.0 0.0485707504 -0.0232777125 0.4706486603 -0.6386499239 0.4699771383 -0.6392369375 0.0482802055 -0.023209057
455297270.0 0.0484658874 -0.0238397282 0.4631907881 -0.6438724123 0.4635961054 -0.6439524601 0.0478237584 -0.0230724168
460297240.0 0.0475530679 -0.02439033 0.4561107248 -0.6489876956 0.4557400316 -0.649029471 0.0476192089 -0.0238488554
465297210.0 0.0475559642 -0.0248788509 0.4491840291 -0.654024784 0.4488508564 -0.6545644793 0.0473995561 -0.025021341
470297180.0 0.0468730665 -0.0257203372 0.4412152141 -0.6590224669 0.441438179 -0.6593567909 0.0469342954 -0.0253615155
475297150.0 0.0466549 -0.0266294744 0.4346204854 -0.6632513212 0.4347228961 -0.6629641235 0.0472033254 -0.0258791551
480297120.0 0.0458719682 -0.02637777 0.4268018588 -0.66907964 0.4266167095 -0.6689714067 0.047045511 -0.0259630928
485297090.0 0.0453469438 -0.0271999651 0.4196935854 -0.6728657614 0.4196025611 -0.6726220147 0.0461487475 -0.027244443
490297060.0 0.0447090962 -0.0279837192 0.4129580795 -0.6790185539 0.4127040362 -0.6775648139 0.0458080328 -0.0266450807
495297030.0 0.0443961186 -0.0282681032 0.4046993964 -0.682088667 0.405101162 -0.6820733189 0.0449775288 -0.0276387961
500297000.0 0.0438691421 -0.0289712084 0.397315778 -0.6862553834 0.3967599413 -0.6859858847 0.0449185411 -0.0274074138
505296970.0 0.0437650263 -0.0296897374 0.3901636388 -0.6912491152 0.3893564946 -0.6909151214 0.0441864589 -0.0281127558
510296940.0 0.0430782558 -0.0297767909 0.3821281087 -0.6954674792 0.381929571 -0.6955055793 0.0441483638 -0.0283967004
515296910.0 0.0422572477 -0.0297550561 0.3736253273 -0.6993038309 0.3746394438 -0.6992894674 0.0437309012 -0.0287668754
520296880.0 0.0420256289 -0.0306891738 0.3668156353 -0.7039356004 0.3669789507 -0.7034422423 0.0431370624 -0.029739728
525296850.0 0.041606155 -0.0316479069 0.3585570189 -0.7075289926 0.3594820741 -0.7073778113 0.0425613409 -0.0299051988
530296820.0 0.0413078097 -0.0314289774 0.3511749221 -0.7114260123 0.3512190314 -0.7116558692 0.0423324227 -0.0298381885
535296790.0 0.0403573418 -0.0317805168 0.3435563476 -0.7149266772 0.3436876318 -0.7149060936 0.0420606207 -0.0311099392
540296760.0 0.0399933677 -0.0317915072 0.3358743264 -0.7192681144 0.3353330438 -0.7195056557 0.0409139648 -0.0305071161
545296730.0 0.039648501 -0.032872071 0.3273882738 -0.7225786393 0.3273844337 -0.7229460083 0.0402146465 -0.0312770173
550296700.0 0.0396094142 -0.0328480688 0.3194628161 -0.7259386632 0.3196827335 -0.7265319571 0.0397875911 -0.0317371423
555296670.0 0.0388187505 -0.033017676 0.3119714164 -0.7300587976 0.3122007704 -0.7294860274 0.0392829932 -0.0317279496
560296640.0 0.0382410703 -0.0333728492 0.3033571934 -0.733241032 0.3032032827 -0.733315746 0.0391459726 -0.0324569432
565296610.0 0.0373996731 -0.0341497959 0.2953638124 -0.7366622169 0.295685646 -0.7363246005 0.0377567673 -0.0329812436
570296580.0 0.0369645173 -0.0340904115 0.2877054078 -0.7399363155 0.2870536281 -0.7391555671 0.0375097362 -0.0325095779
575296550.0 0.0361698057 -0.0345658137 0.2793164718 -0.743065194 0.2791841979 -0.7431578598 0.0373416787 -0.0335934243
580296520.0 0.0360246578 -0.0347254744 0.2712133997 -0.7462706198 0.2713871754 -0.7460635604 0.0363683301 -0.0339730063
585296490.0 0.0352739621 -0.0360825711 0.2632103851 -0.7480185834 0.2630895461 -0.7488551631 0.0360303407 -0.0341513436
590296460.0 0.0353580846 -0.035763958 0.2556945181 -0.751108869 0.2552527476 -0.751249552 0.0347092618 -0.0343824335
595296430.0 0.0347500666 -0.0356155338 0.2466404832 -0.7543404134 0.2463863801 -0.7543383564 0.034910209 -0.035485359
600296400.0 0.0336527557 -0.0363275692 0.2387830406 -0.7568321265 0.2382729449 -0.7569146119 0.0336520609 -0.0352268651
605296370.0 0.0333391177 -0.0364290413 0.2307603886 -0.7592894074 0.2302237965 -0.7591139873 0.0336863263 -0.0355145659
610296340.0 0.0327591546 -0.0370239648 0.2213369805 -0.7620903377 0.2220431406 -0.7619516867 0.0334490412 -0.0360486541
615296310.0 0.0328156559 -0.0378812305 0.2130427792 -0.7644596273 0.2130225301 -0.7648955943 0.0326921495 -0.0363115879
620296280.0 0.0319283399 -0.0382545707 0.2056513373 -0.7664266806 0.2051561736 -0.7660849849 0.0320079802 -0.0369355409
625296250.0 0.0308752563 -0.0388207083 0.1977089663 -0.7692253792 0.1972451066 -0.7689284735 0.0321883984 -0.0367573731
630296220.0 0.0315592499 -0.0381780384 0.1879659644 -0.7712224375 0.1877849551 -0.7706996783 0.0312736482 -0.0370899054
635296190.0 0.0296742776 -0.0392756299 0.1800007423 -0.7731273737 0.1796664229 -0.7726529031 0.0310397154 -0.0374217415
640296160.0 0.0293662814 -0.0390911184 0.1715233984 -0.774583872 0.1719009699 -0.7744540074 0.0305364909 -0.0378534495
645296130.0 0.0286398127 -0.0390702338 0.1625853344 -0.7762294605 0.1631311805 -0.7769191292 0.0297771654 -0.0380889213
650296100.0 0.0283297225 -0.0397737519 0.1547798735 -0.7780742438 0.1547099435 -0.7786515025 0.0300390498 -0.0391203248
655296070.0 0.0271798226 -0.0403186536 0.1462816583 -0.7801098449 0.1458534556 -0.7800234934 0.028930669 -0.0386994512
660296040.0 0.0265006315 -0.0409748977 0.1376980792 -0.7818922025 0.1376011091 -0.7815130895 0.0288914789 -0.0388891525
665296010.0 0.0266905486 -0.0405454793 0.1284914415 -0.7826353881 0.1293191587 -0.7824926578 0.0282401745 -0.0384154748
670295980.0 0.0245967081 -0.040656896 0.1201300989 -0.7841731496 0.1199644929 -0.7842494063 0.0272552994 -0.0391218687
675295950.0 0.024672207 -0.0404011859 0.1123899102 -0.7857862033 0.1119147634 -0.7845994849 0.0263864251 -0.0393622927
680295920.0 0.0239204092 -0.0410037519 0.1026745425 -0.786443266 0.1025864663 -0.7871638198 0.0261585341 -0.0384694788
685295890.0 0.023589155 -0.0406111449 0.0945733522 -0.7875898811 0.094359004 -0.7881813031 0.025532716 -0.0392511112
690295860.0 0.0235148841 -0.040871401 0.0860849762 -0.7878419146 0.085891571 -0.7891238576 0.0246184405 -0.0384613097
695295830.0 0.0227166042 -0.0414297583 0.0778353948 -0.7895004162 0.0771648945 -0.7891390018 0.0242660581 -0.0389316135
700295800.0 0.022168571 -0.0417492146 0.0687477877 -0.7905142307 0.0682005723 -0.7894297473 0.023266572 -0.0386792286
705295770.0 0.0213776521 -0.0409256868 0.0602634331 -0.7909866518 0.0602023868 -0.7915100022 0.0228787959 -0.0388786812
710295740.0 0.0208485348 -0.0416586309 0.0522134618 -0.7922012749 0.0524608326 -0.7922459086 0.0226453363 -0.0397341045
715295710.0 0.0195534952 -0.0417031161 0.0433318088 -0.7916608918 0.042958351 -0.7923894934 0.0220044257 -0.0394793716
720295680.0 0.0193491659 -0.0418510554 0.0345597008 -0.7931096287 0.0345265786 -0.7922330585 0.0213308797 -0.0387318475
725295650.0 0.0190674965 -0.0420382983 0.0256319168 -0.7927232206 0.0256527057 -0.7929810433 0.0199162533 -0.0391047669
730295620.0 0.0187496638 -0.0413437313 0.0171712915 -0.7929768081 0.016918021 -0.7928805798 0.0196404406 -0.039651257
735295590.0 0.0180039654 -0.0414865212 0.0087349374 -0.7931076332 0.0081512433 -0.7931819125 0.0190607254 -0.0400346543
740295560.0 0.0166361789 -0.0415741597 -0.0001635229 -0.7928581751 -0.0001762609 -0.7933011071 0.0189145302 -0.0396115869
745295530.0 0.0163828825 -0.0418347936 -0.0087213518 -0.7923696869 -0.0089423762 -0.7932926437 0.0181999637 -0.0399305011
750295500.0 0.0160676431 -0.0418415047 -0.0173662766 -0.7925514392 -0.0171958291 -0.7933723557 0.0171395767 -0.0399568964
755295470.0 0.0155080543 -0.0421357416 -0.0254714278 -0.7926515811 -0.0259481136 -0.7927106396 0.0171749288 -0.04043324
760295440.0 0.0145721148 -0.0416353124 -0.0340254565 -0.7926285976 -0.034766324 -0.7927042171 0.0164439073 -0.040086515
765295410.0 0.0140025062 -0.0419902834 -0.0432801771 -0.7920014523 -0.043837493 -0.7921818898 0.0160688909 -0.040291941
770295380.0 0.0131472898 -0.0423213734 -0.0522707443 -0.7914466534 -0.0525937471 -0.7912995718 0.0150050199 -0.0406418428
775295350.0 0.0126815734 -0.0431272428 -0.0603341841 -0.7901891975 -0.0603156097 -0.7908866224 0.0133563713 -0.0402569936
780295320.0 0.0124562522 -0.0423508571 -0.0693873821 -0.7894334187 -0.068434548 -0.7894826936 0.0134979496 -0.0410613949
785295290.0 0.0112678978 -0.0429618692 -0.077646683 -0.7889697476 -0.077148004 -0.7889770795 0.0138531597 -0.040579653
790295260.0 0.0114517931 -0.0417864401 -0.0855538595 -0.7881347816 -0.0853564673 -0.7881223627 0.0127032572 -0.0406731666
795295230.0 0.0103481854 -0.0427649379 -0.0947179604 -0.7870048426 -0.0941771323 -0.7874739234 0.0122561253 -0.0402936755
800295200.0 0.0094526228 -0.0420658276 -0.1042733979 -0.785386121 -0.1035674641 -0.7859369701 0.011446758 -0.0405759892
805295170.0 0.0089731884 -0.0421864046 -0.1121305824 -0.7847260864 -0.1120333064 -0.7852693466 0.0109913177 -0.0405677009
810295140.0 0.0077948821 -0.0429274698 -0.1202351211 -0.7830101098 -0.1205478363 -0.7832966948 0.0109568011 -0.0403572203
815295110.0 0.0075413361 -0.0429101653 -0.1292076796 -0.7816572698 -0.1292885373 -0.7821778163 0.0096279651 -0.0402551751
820295080.0 0.0063634459 -0.0418072402 -0.137443358 -0.7803231783 -0.1370802194 -0.7808174257 0.0091819911 -0.0405613938
825295050.0 0.0067563578 -0.0422256436 -0.1451740637 -0.7785605683 -0.1455336661 -0.7792608783 0.0094293503 -0.0404091416
830295020.0 0.0057739386 -0.0418186381 -0.1545409049 -0.7773535522 -0.1539854979 -0.7773493252 0.0092710583 -0.0401021555
