!Created with skrf (http://scikit-rf.org).
# Hz S RI R 50.0 
!freq ReS11 ImS11 ReS21 ImS21 ReS12 ImS12 ReS22 ImS22
300000.0 -0.7753602478 -0.137601369 -0.001203265 -0.0009698908 0.0006997485 -0.0021144618 -0.7696722054 -0.1599985102
5299970.0 -0.7852641394 -0.0070203021 -0.0001290839 -5.85939e-05 -0.0001130879 9.5449e-06 -0.7851473263 -0.0083467926
10299940.0 -0.787617352 -0.0038073013 -4.00932e-05 -0.0003055669 -0.0002421305 -0.0002755023 -0.7877827819 -0.0051524516
15299910.0 -0.7931479475 -0.0012667959 0.0001396218 -0.0001767697 2.44386e-05 0.0002386361 -0.7937513385 -0.0030813459
20299880.0 -0.8001375142 0.0025068205 8.4844e-05 0.000285784 1.61316e-05 3.25429e-05 -0.8006494129 0.001361418
25299850.0 -0.8062199036 0.0085816352 -0.0001889986 -2.13395e-05 -9.60655e-05 4.33931e-05 -0.8063757114 0.007306524
30299820.0 -0.8116913631 0.0165013477 -0.000122427 0.0001496944 9.3655e-05 5.97608e-05 -0.8126198576 0.0149460488
35299790.0 -0.8171661079 0.0250439444 -6.04713e-05 -5.81512e-05 4.32493e-05 6.22017e-05 -0.8177286276 0.0236127927
40299760.0 -0.8210688453 0.0346634538 -6.57868e-05 2.33288e-05 -4.59173e-05 -3.64876e-05 -0.8214392168 0.0333848469
45299730.0 -0.8247199219 0.0438620916 -0.0001574078 -5.01487e-05 -7.72515e-05 1.82637e-05 -0.8255009548 0.0422718404
50299700.0 -0.8264807802 0.0539106837 9.15524e-05 0.0001556947 -7.82657e-05 -3.27122e-05 -0.8278973947 0.0526766902
55299670.0 -0.8285886291 0.064543937 -0.0001232814 -2.23563e-05 -9.10385e-05 0.0002279641 -0.8298034434 0.0628685696
60299640.0 -0.8297823836 0.0744706981 -0.000160821 -9.41301e-05 -0.0001572827 0.0002769986 -0.8305949358 0.0732894692
65299610.0 -0.8312104443 0.0847825922 -3.47115e-05 -1.53567e-05 -2.48414e-05 9.206e-05 -0.8313664837 0.0827158794
70299580.0 -0.8314754735 0.0946974782 -9.6052e-05 -7.12058e-05 -0.0001487678 -4.37716e-05 -0.8321908107 0.0931303099
75299550.0 -0.8315837951 0.1050391715 0.0001187982 4.48153e-05 -4.93122e-05 -7.68732e-05 -0.8327399312 0.1023155259
80299520.0 -0.8309798537 0.1145226622 4.82328e-05 -6.77977e-05 -7.89561e-05 7.37493e-05 -0.8321437441 0.1120052497
85299490.0 -0.8306683009 0.1244154986 -9.29121e-05 0.0001072179 0.0002512567 0.0001368986 -0.8320793217 0.1217817896
90299460.0 -0.8297942676 0.1341573024 0.0001762377 -0.0002013776 0.0001442531 -0.0001255739 -0.8307209376 0.13113588
95299430.0 -0.8283013397 0.1433456888 8.62109e-05 -6.89052e-05 0.0002744484 -0.0001682347 -0.8299624137 0.1411481375
100299400.0 -0.8280997535 0.1532367257 0.0002143979 2.21164e-05 -1.80846e-05 -3.08376e-05 -0.829014728 0.1494051234
105299370.0 -0.8263921621 0.1623674076 -0.0003028082 0.0001483402 5.90355e-05 -8.62561e-05 -0.8278048611 0.1590346459
110299340.0 -0.8249648384 0.170940432 0.0001237692 -8.37137e-05 -8.89289e-05 -5.23759e-05 -0.8270779956 0.167772513
115299310.0 -0.8239635614 0.1807494228 -3.2567e-05 0.0001379155 -0.0001626647 0.0001096206 -0.8245899727 0.1769162466
120299280.0 -0.8220522649 0.1896448407 -8.32382e-05 -0.0001656444 8.49853e-05 -5.23671e-05 -0.8231074209 0.1859546277
125299250.0 -0.8201350353 0.1986783689 -7.34567e-05 3.84395e-05 -5.85121e-05 0.0001909327 -0.8219421474 0.1952536327
130299220.0 -0.8183842341 0.2072904543 5.1637e-06 1.3512e-05 -1.2547e-06 -0.0001006237 -0.8197739908 0.2041577601
135299190.0 -0.8165606055 0.2165960616 2.4729e-05 2.96997e-05 -0.0001024388 0.0001416854 -0.81820273 0.2126013779
140299160.0 -0.8145258675 0.2256364656 -2.43268e-05 0.0001175062 -9.49014e-05 -3.1675e-06 -0.8158315118 0.2212544289
145299130.0 -0.8124555612 0.2340318506 -2.79165e-05 -7.53057e-05 0.0001466694 0.000191311 -0.8136553714 0.2301389363
150299100.0 -0.8099311411 0.2428262878 6.16711e-05 7.58062e-05 6.70259e-05 -5.59489e-05 -0.811685852 0.2385615462
155299070.0 -0.8079009517 0.2521629471 -8.46578e-05 7.56827e-05 -0.0001340887 0.0001001281 -0.8095938388 0.2476831701
160299040.0 -0.8047233316 0.2610203791 3.98336e-05 7.14486e-05 0.0001689378 6.86077e-05 -0.8073968784 0.2561954737
165299010.0 -0.8023113441 0.2692216581 2.60025e-05 -0.0001856658 0.0001294456 -3.17343e-05 -0.8045861089 0.2644724034
170298980.0 -0.7996960172 0.2780546874 -8.75078e-05 -0.0001882434 -3.22839e-05 -0.0001995422 -0.8020408525 0.2735697187
175298950.0 -0.7971608878 0.2867160398 8.64124e-05 0.0002449825 0.0001036551 0.0002203861 -0.7996396419 0.2823584262
180298920.0 -0.7932383739 0.2948574619 2.98387e-05 -1.12729e-05 -0.0002271247 0.0001640202 -0.7953553514 0.2907268098
185298890.0 -0.7902257019 0.3040955778 -2.67147e-05 -0.0001482595 8.83369e-05 9.4979e-05 -0.7933579736 0.2985105059
190298860.0 -0.7875290934 0.312390847 -0.0001760905 -2.3381e-05 -0.0001027084 4.88616e-05 -0.7900736142 0.3077912073
195298830.0 -0.784142885 0.3208842413 9.49417e-05 -4.21322e-05 0.0002077241 -7.46235e-05 -0.7869892653 0.3153551656
200298800.0 -0.7809041666 0.3293454606 -2.15934e-05 -3.52147e-05 0.0001109918 -7.09814e-05 -0.783286648 0.3240571721
205298770.0 -0.7772959681 0.3374714097 7.10816e-05 1.30172e-05 3.58976e-05 1.48865e-05 -0.7799157087 0.3319621792
210298740.0 -0.7736099747 0.3457734416 -9.52636e-05 3.46002e-05 -3.47529e-05 -4.99652e-05 -0.7770781167 0.3405753494
215298710.0 -0.7702418265 0.3545069381 -2.45562e-05 0.0001410073 5.9663e-05 5.85593e-05 -0.7734323359 0.3481377636
220298680.0 -0.7670398612 0.3622047723 0.0001861655 -4.24828e-05 -0.0001434189 3.18081e-05 -0.7697187344 0.3569605631
225298650.0 -0.7629484158 0.3710882648 0.0003360208 0.0003169938 3.56313e-05 -1.2163e-06 -0.7661382879 0.3645695518
230298620.0 -0.7584853316 0.3787584398 5.66913e-05 -7.70423e-05 -7.48015e-05 -6.33933e-05 -0.7615436173 0.3727606979
235298590.0 -0.755000994 0.3872018972 9.61803e-05 5.31207e-05 -6.3252e-05 -3.65705e-05 -0.7578002808 0.380398699
240298560.0 -0.7507262784 0.3953347563 -4.9241e-06 8.64987e-05 3.06595e-05 0.0002126361 -0.7542309562 0.3882354911
245298530.0 -0.7461479425 0.4029335354 -3.30507e-05 -5.68661e-05 0.0001090355 6.6568e-06 -0.7504801829 0.3964536785
250298500.0 -0.7423092763 0.4110093705 -0.0002087193 0.0004301106 -2.30841e-05 2.23291e-05 -0.7457061809 0.4044651459
255298470.0 -0.7378219322 0.4183651857 3.21063e-05 7.83019e-05 -0.0002167337 2.015e-06 -0.7414263011 0.4125525297
260298440.0 -0.7335832436 0.4260827527 -9.03375e-05 -7.74982e-05 -5.16194e-05 0.0001692485 -0.7369082438 0.4200726263
265298410.0 -0.7293335955 0.4337623439 -3.61381e-05 -2.37029e-05 -3.71808e-05 0.0001905866 -0.7325159594 0.4273525108
270298380.0 -0.7241425129 0.4420611347 -0.0001168036 7.19425e-05 -0.0001818342 1.10003e-05 -0.7278926047 0.4355698327
275298350.0 -0.7197033337 0.4493230223 1.29242e-05 -0.0002861998 0.0001130653 7.29906e-05 -0.7228937035 0.4430961178
280298320.0 -0.7153511605 0.4566285359 -0.000131312 2.23482e-05 1.6881e-06 4.66584e-05 -0.718701789 0.4502602206
285298290.0 -0.7104752724 0.4643817198 -9.19982e-05 -0.0001089233 -5.81343e-05 -5.41736e-05 -0.7134752437 0.4579011674
290298260.0 -0.7054416804 0.4718132163 -4.23003e-05 0.0002343211 0.0001844221 -7.43848e-05 -0.7091873589 0.4656936385
295298230.0 -0.7005140721 0.4794129354 -0.0001505027 5.95184e-05 -7.65341e-05 -3.85921e-05 -0.7035333372 0.4727735809
300298200.0 -0.6948189135 0.4861787181 -6.0441e-05 0.0002007626 5.12624e-05 0.0001034466 -0.6987782745 0.4798647302
305298170.0 -0.6897523934 0.4943430616 3.13477e-05 -0.0001954649 6.70302e-05 2.95477e-05 -0.6932877223 0.487692136
310298140.0 -0.6843123446 0.5011365411 7.85306e-05 4.58772e-05 4.83962e-05 -8.9994e-05 -0.6891204424 0.4951748498
315298110.0 -0.6797550943 0.5078145037 -2.98753e-05 -0.0002411156 0.0001451928 0.0001175762 -0.6829499796 0.502065036
320298080.0 -0.6743520252 0.5159305208 -0.0001479098 -8.4901e-06 -8.41433e-05 8.23564e-05 -0.677923899 0.5093024445
325298050.0 -0.6680601 0.5220597451 4.0638e-05 3.30981e-05 -0.0001466953 2.78838e-05 -0.6724688938 0.5162163935
330298020.0 -0.6627608179 0.5296984523 -4.79617e-05 -9.83629e-05 -0.0001050857 -6.50454e-05 -0.666987821 0.5232029757
335297990.0 -0.6573615228 0.5360743551 0.0001597502 -9.12266e-05 -2.12e-07 -0.0001056557 -0.6621301373 0.529824923
340297960.0 -0.6520936139 0.5426783045 -3.1704e-06 -0.0001034282 -5.92746e-05 0.000158908 -0.6556521962 0.5371141957
345297930.0 -0.6463163217 0.5489673458 -7.65505e-05 -0.0003307011 3.9278e-05 -7.57414e-05 -0.6496777371 0.5438842748
350297900.0 -0.6402753057 0.5558814813 9.86027e-05 -2.34738e-05 -0.0001066537 6.69322e-05 -0.6445261426 0.5510871432
355297870.0 -0.6339537781 0.5631642713 -4.78072e-05 8.56488e-05 2.81747e-05 0.0001909886 -0.6384350076 0.5571636345
360297840.0 -0.6287880358 0.5692332214 0.0002360062 0.0001889841 -0.0002625376 0.0001138932 -0.6321443789 0.5636500862
365297810.0 -0.6223981037 0.5760575773 -9.30609e-05 -0.000132828 0.000136739 -0.0001926383 -0.6266820334 0.5705258855
370297780.0 -0.6165336575 0.5815460102 -8.9835e-06 7.4056e-06 0.0001070317 -0.0001116473 -0.6210841825 0.5762842648
375297750.0 -0.6104265768 0.5879593747 8.29498e-05 7.58211e-05 -7.7835e-05 -6.4616e-06 -0.614158142 0.5832918146
380297720.0 -0.6038185761 0.5950256309 0.000104892 4.54785e-05 2.92686e-05 9.27088e-05 -0.6081265305 0.5900263786
385297690.0 -0.5977770995 0.6010990794 7.22207e-05 -0.0001140593 -0.000111621 0.0001055068 -0.6021053833 0.5957314821
390297660.0 -0.5915625276 0.607041334 0.0002687431 7.1e-08 -0.0002688027 8.31263e-05 -0.5958299775 0.6015430033
395297630.0 -0.5859326794 0.6133804968 -5.68216e-05 -0.0001304428 5.04524e-05 0.0001182355 -0.5893755245 0.6078180925
400297600.0 -0.5791166456 0.619312549 -4.20066e-05 6.15837e-05 0.0001042055 -3.6659e-05 -0.5831829913 0.6142106942
405297570.0 -0.5729839917 0.6253502477 -0.0001124799 -9.99315e-05 -0.0001422503 -8.6527e-06 -0.5769646111 0.6198585978
410297540.0 -0.5652656647 0.6305674097 -7.91654e-05 1.98723e-05 -3.13004e-05 -1.56179e-05 -0.5699670669 0.6256798049
415297510.0 -0.5592192363 0.636667626 6.2248e-06 -6.3005e-06 4.0096e-05 -9.1975e-06 -0.5641016061 0.6317841692
420297480.0 -0.5518682765 0.642232529 -0.000148562 -0.0001057774 -0.0001106855 5.5834e-05 -0.557323632 0.6364462723
425297450.0 -0.5460801834 0.6477178664 0.0003719306 6.97675e-05 0.0001899215 -7.24578e-05 -0.5505571231 0.6428859319
430297420.0 -0.539757857 0.6538087276 4.88511e-05 -8.9855e-06 -9.901e-07 4.43019e-05 -0.5440824436 0.6484260387
435297390.0 -0.5314288708 0.6589181877 -2.5733e-06 2.49225e-05 9.80826e-05 -6.07517e-05 -0.53695216 0.6538086217
440297360.0 -0.5254790265 0.66446526 -5.58466e-05 -6.43452e-05 -0.0001184013 -1.93248e-05 -0.5306257909 0.6589866067
445297330.0 -0.5184947434 0.670202762 2.65101e-05 0.0001325962 2.17211e-05 -6.99415e-05 -0.5237972001 0.6640128159
450297300.0 -0.511422218 0.674838383 0.0001947907 -8.0909e-05 0.0001296753 4.25423e-05 -0.5170903996 0.6699819196
455297270.0 -0.5041130888 0.6803374401 -0.0001404592 -1.38622e-05 0.0002740393 -3.98683e-05 -0.509638374 0.6750252917
460297240.0 -0.4977128035 0.6854505374 -3.20068e-05 -1.3992e-05 -8.7513e-06 -0.0001208641 -0.5027013447 0.6805114348
465297210.0 -0.4904347684 0.6904092667 -9.51872e-05 -2.26752e-05 -5.7031e-05 -6.80162e-05 -0.4963161471 0.6850223835
470297180.0 -0.4830164726 0.6945713248 0.0001438276 0.0001961322 6.2753e-06 0.000227364 -0.4897949965 0.6896426612
475297150.0 -0.4758911065 0.7005126616 3.97993e-05 5.05109e-05 -6.46689e-05 -0.0001386757 -0.4821559561 0.6944102694
480297120.0 -0.4687072204 0.7046290273 1.60863e-05 6.37897e-05 3.58436e-05 4.85842e-05 -0.4750140635 0.6997140117
485297090.0 -0.461385288 0.7096706328 -0.0001580749 0.0001125761 -0.0001030598 -0.0002897687 -0.4681044634 0.7038760186
490297060.0 -0.4540061487 0.714035945 -0.0001365841 0.0001183508 6.0325e-06 2.562e-06 -0.4610777929 0.7083756464
495297030.0 -0.4471669172 0.7183090006 0.0001704468 -0.0001125267 -4.50545e-05 0.0001223196 -0.4532442416 0.7129989277
500297000.0 -0.4386987621 0.7234184401 3.36344e-05 -0.0001729603 -0.0001710482 -0.0002108587 -0.4465807209 0.7172837758
505296970.0 -0.4314074391 0.7271766101 1.4191e-06 7.67378e-05 -8.0677e-06 0.0001049134 -0.4400288152 0.7220702897
510296940.0 -0.4244715853 0.7321116818 3.99755e-05 8.70357e-05 -1.9957e-06 0.0001296246 -0.4321634926 0.7260683768
515296910.0 -0.416732554 0.7364246747 -0.0001197374 -6.4341e-06 0.0001453738 0.000124619 -0.4242330199 0.7308604808
520296880.0 -0.409511011 0.7406446227 -2.35685e-05 0.0003549416 -7.30464e-05 0.0001333194 -0.4175083743 0.7346361711
525296850.0 -0.4016734521 0.7446623609 0.0001300594 -5.48561e-05 4.34236e-05 -7.44894e-05 -0.4097991031 0.7393081419
530296820.0 -0.3941640598 0.7481707278 -0.0001551887 -6.66123e-05 1.30827e-05 -0.0001417449 -0.4029938203 0.7429368882
535296790.0 -0.3860193719 0.7523953095 0.0001149272 -9.3107e-06 -0.0001077788 3.91186e-05 -0.3958497276 0.7465155196
540296760.0 -0.3784102673 0.7561420895 3.56114e-05 -0.0001438494 -8.57034e-05 -4.36622e-05 -0.3882074292 0.750816091
545296730.0 -0.3711813068 0.760175757 -0.0001341919 2.4811e-06 -0.000253671 4.99074e-05 -0.3807056776 0.7544113624
550296700.0 -0.3634117152 0.7637352216 8.13068e-05 8.65379e-05 8.29926e-05 8.30695e-05 -0.3731430875 0.7583058086
555296670.0 -0.3547189161 0.7667071751 -0.000113421 5.26741e-05 1.62043e-05 6.86957e-05 -0.365752499 0.7620457627
560296640.0 -0.3471337585 0.7705117646 -7.4248e-06 -2.61488e-05 -5.16149e-05 -4.24323e-05 -0.3574807628 0.7658890576
565296610.0 -0.3397676717 0.7738644524 5.78572e-05 -0.0003268736 -6.95025e-05 -8.09137e-05 -0.3502832155 0.7688322474
570296580.0 -0.3321599956 0.7773356124 0.0001217346 -0.0002158017 4.0849e-06 -5.10902e-05 -0.3430761684 0.7722600617
575296550.0 -0.3232924983 0.7808569301 0.0001876265 0.0001322066 0.0001084109 -8.20129e-05 -0.3352355672 0.7760364226
580296520.0 -0.3155314796 0.7842848926 -9.48558e-05 -0.0001024823 -2.99466e-05 -8.61228e-05 -0.3272524976 0.7787052999
585296490.0 -0.3080507295 0.7866369204 0.0003076095 9.27591e-05 9.40676e-05 -0.0001270023 -0.3198417818 0.7818573147
590296460.0 -0.3000129829 0.7895116575 -0.0001936576 0.0001834843 -2.73944e-05 -7.12421e-05 -0.3118495281 0.7848253772
595296430.0 -0.2906853689 0.7928278053 -5.57219e-05 -7.01434e-05 3.52943e-05 -3.25159e-05 -0.3036821189 0.7875970899
600296400.0 -0.283463442 0.795833091 5.37557e-05 -4.5153e-06 6.90635e-05 8.36029e-05 -0.2962967665 0.7915555125
605296370.0 -0.2751164845 0.7985483233 2.78968e-05 6.30232e-05 3.0444e-05 -7.28161e-05 -0.2885058179 0.7942749058
610296340.0 -0.2677158882 0.8014343865 -0.0001469808 -0.0001748002 0.0002519272 2.2165e-05 -0.2803159271 0.7972121465
615296310.0 -0.2594090361 0.8045122981 -0.0001109753 2.39775e-05 2.613e-05 9.42974e-05 -0.2733253405 0.7994172969
620296280.0 -0.2511057214 0.806236014 -0.0003187826 4.14587e-05 1.22153e-05 -1.80647e-05 -0.2647409491 0.8018170718
625296250.0 -0.2425645424 0.8089854193 -1.84514e-05 -0.0001527423 -0.0001848652 -0.0001611353 -0.2566630916 0.8051281501
630296220.0 -0.2340710403 0.8117812524 -0.0001725083 0.0001691716 -3.12934e-05 0.000217549 -0.2485946717 0.8073868105
635296190.0 -0.2265968198 0.8140279884 -9.82851e-05 0.0001485444 -3.29466e-05 -3.99212e-05 -0.2407846475 0.8096442084
640296160.0 -0.2178032665 0.8152067358 -0.0001302644 2.73505e-05 -0.0001791574 -6.86176e-05 -0.2328761153 0.8117772418
645296130.0 -0.2098878482 0.8180736233 0.0002301938 9.74932e-05 -7.43601e-05 -6.94747e-05 -0.2251464506 0.8142712475
650296100.0 -0.2019122992 0.8206117753 8.8369e-05 0.0001883952 6.38369e-05 -3.00591e-05 -0.2166571269 0.8170263367
655296070.0 -0.1931701275 0.8218351457 7.5662e-06 2.71291e-05 8.02732e-05 -1.14397e-05 -0.2084963732 0.8182059117
660296040.0 -0.1855284644 0.8242134863 -0.0001341896 -6.44461e-05 -0.0001161963 2.74676e-05 -0.2008705667 0.8203531752
665296010.0 -0.1769042063 0.8260195933 9.18481e-05 -1.3339e-06 0.0001518116 -8.64418e-05 -0.192871963 0.8226455011
670295980.0 -0.1682232779 0.8275944387 4.71474e-05 -6.9261e-05 -0.0001124011 -2.64108e-05 -0.1845717661 0.8239528298
675295950.0 -0.1601448359 0.8285196285 -1.394e-05 -0.0001076356 -0.0001761126 -5.08421e-05 -0.1764854279 0.8259475121
680295920.0 -0.1520443318 0.8310181983 -0.0001651699 0.0001916187 0.0002553627 5.5873e-05 -0.1678931367 0.827529891
685295890.0 -0.1428226605 0.8317339391 -0.0001200075 1.6516e-05 0.0001155256 7.42222e-05 -0.1598199267 0.8295897929
690295860.0 -0.1340368922 0.8334541742 3.17061e-05 5.02334e-05 0.0001006464 5.59268e-05 -0.151302044 0.8304948366
695295830.0 -0.1262607909 0.8343298531 0.0001079582 -0.0001173352 2.64412e-05 2.02817e-05 -0.1437806199 0.8325055296
700295800.0 -0.1181497524 0.8355641693 7.63298e-05 -0.0001027977 2.51762e-05 -2.72009e-05 -0.1343966792 0.8334843621
705295770.0 -0.1089227427 0.8375504778 0.0001552784 0.0001536865 -0.0001559607 0.0001483395 -0.1274927821 0.8352060236
710295740.0 -0.1008966324 0.838336583 -6.02807e-05 2.38804e-05 -0.0001217392 0.0002066889 -0.1196309098 0.8369935662
715295710.0 -0.0933154596 0.8395277361 -4.7918e-06 3.48509e-05 1.09403e-05 -5.9e-08 -0.1107121962 0.8368493993
720295680.0 -0.084688936 0.8392294615 -7.49267e-05 -0.0001192701 -0.0001808965 0.000106778 -0.1024376429 0.8389896092
725295650.0 -0.0748953431 0.8409461012 -4.03338e-05 0.0001287304 -1.5552e-06 -1.80712e-05 -0.0940923271 0.8396348877
730295620.0 -0.0675120063 0.8413995735 -0.0001080668 -0.0001644868 -4.462e-05 -1.17892e-05 -0.0857060033 0.8404870677
735295590.0 -0.0583397986 0.8416565758 2.35807e-05 -1.22212e-05 0.0001398081 -0.0001116524 -0.0769784963 0.8409820877
740295560.0 -0.0499710453 0.8427883825 3.15794e-05 -0.0001945566 3.31443e-05 -0.0001649857 -0.0692116558 0.8412689413
745295530.0 -0.0420700949 0.8428529089 9.89634e-05 -3.13596e-05 0.0002023569 2.58128e-05 -0.0604933841 0.8424561301
750295500.0 -0.0338651727 0.842682733 0.0002745058 -2.20928e-05 3.98399e-05 -6.23723e-05 -0.0525416526 0.8426713369
755295470.0 -0.0245222834 0.8432358238 -6.85367e-05 -7.07511e-05 4.11856e-05 1.93957e-05 -0.0446179755 0.8436339212
760295440.0 -0.0161271153 0.8429729466 2.24774e-05 -0.0001303628 -0.0001936831 -5.57952e-05 -0.0361986335 0.8433902002
765295410.0 -0.0079514082 0.8436587548 -8.15251e-05 3.49135e-05 -2.31265e-05 -5.66015e-05 -0.0267222553 0.84441137
770295380.0 0.00016743 0.8445108761 -0.0002011501 -0.0001589064 -0.0001801973 -1.45087e-05 -0.018758936 0.8443896056
775295350.0 0.009052663 0.843951047 0.000108678 -9.0086e-06 -7.78664e-05 -0.0001347496 -0.0116536012 0.8441746205
780295320.0 0.0177083492 0.8433265221 -0.0001259945 1.82276e-05 -1.93754e-05 7.87808e-05 -0.0025577375 0.8445323267
785295290.0 0.025919655 0.8437794537 -0.0001846066 3.03687e-05 -0.0002017205 8.66453e-05 0.0050888936 0.8444141621
790295260.0 0.0345505811 0.8430642123 3.3204e-06 -0.0001589787 0.0001148448 -4.51058e-05 0.0146385477 0.8446870104
795295230.0 0.0431416727 0.8431868964 -0.0001418726 -8.8378e-06 -0.0001045306 -0.0001733668 0.022053644 0.8445854399
800295200.0 0.0512152173 0.8424712702 -6.5021e-06 3.86169e-05 5.19382e-05 0.0001501814 0.0307097479 0.8441321574
805295170.0 0.0597616943 0.8424229288 -5.36346e-05 0.0002771212 -0.0001295942 0.0001128124 0.0384998996 0.8435855714
810295140.0 0.0679200573 0.8415447371 6.67872e-05 -0.0001537579 -6.82658e-05 -2.11749e-05 0.0467020975 0.8442431605
815295110.0 0.0767809582 0.8404450032 0.0001468677 -0.0001615112 -6.5839e-06 3.88891e-05 0.0551118932 0.8430421345
820295080.0 0.0850097392 0.8392761624 -6.41321e-05 -5.09781e-05 4.79304e-05 -0.0001093699 0.0633360895 0.8422217073
825295050.0 0.094018873 0.8385995476 -0.0001385681 -1.22e-08 -5.17218e-05 -7.46816e-05 0.071694587 0.8419118983
830295020.0 0.1022534528 0.8378927571 0.0001553908 7.44236e-05 -0.000109403 0.0001322895 0.0794730781 0.8408512474
835294990.0 0.1100107658 0.8371323662 4.99886e-05 -3.11022e-05 7.06526e-05 0.0001304139 0.0878951344 0.8401659014
840294960.0 0.1187942167 0.835080178 -9.45982e-05 -0.0001978269 0.0001118258 4.07989e-05 0.095768449 0.839430582
845294930.0 0.1268565316 0.8345253247 0.0001288287 0.0001649133 -7.8185e-06 -0.0001508202 0.104420981 0.8379530948
850294900.0 0.1350472961 0.8327543593 8.3149e-06 -0.000172833 -9.19037e-05 -8.41036e-05 0.1127882602 0.8375423069
