!Created with skrf (http://scikit-rf.org).
# Hz S RI R 50.0 
!freq ReS11 ImS11 ReS21 ImS21 ReS12 ImS12 ReS22 ImS22
300000.0 -0.7748836352 -0.1360794167 0.0012571391 0.0002728752 -0.0012933323 0.0017269431 -0.0471539336 -0.0646494697
5299970.0 -0.7855277929 -0.0068731207 0.0001671308 0.0001915355 -0.0001917557 -0.0001334957 -0.0484998488 0.0144752162
10299940.0 -0.787484915 -0.003872789 -8.6321e-05 0.0001213023 6.63071e-05 -0.000161061 -0.0430157631 0.0314849722
15299910.0 -0.7935308647 -0.0016274605 0.0001909803 -7.60681e-05 2.21735e-05 4.7761e-06 -0.0345459015 0.0455828815
20299880.0 -0.7998488754 0.0023087642 3.72595e-05 -1.7e-06 3.13089e-05 0.0001829115 -0.0249570669 0.056975025
25299850.0 -0.8061706288 0.0083939056 -7.47193e-05 -3.09666e-05 -2.72065e-05 -7.71561e-05 -0.0143491479 0.0659428119
30299820.0 -0.8114667778 0.0162839646 -0.0001577332 4.99487e-05 2.88857e-05 -9.9023e-06 -0.0030103415 0.0723673712
35299790.0 -0.8169471194 0.0253545734 5.17441e-05 3.35017e-05 6.61858e-05 -8.672e-06 0.0082455947 0.0770680601
40299760.0 -0.8218801718 0.0344307849 0.0002758704 0.0002588801 0.0001651496 -0.0001344758 0.0190810707 0.0798939017
45299730.0 -0.8245909532 0.0444029647 2.7814e-05 -5.09382e-05 1.10258e-05 -2.33656e-05 0.0292796867 0.0810797475
50299700.0 -0.8268511284 0.0539834865 -6.17396e-05 0.0001089742 -2.72814e-05 -0.0001514979 0.0394866313 0.0810399076
55299670.0 -0.82923037 0.0640128599 6.96406e-05 -0.0001045731 -0.000126377 0.0001084058 0.048327932 0.0801718393
60299640.0 -0.8299126958 0.0743762586 1.73569e-05 5.15172e-05 9.56725e-05 0.0002801884 0.0568805864 0.0785743438
65299610.0 -0.8309822778 0.0846343975 9.31097e-05 0.0002430214 0.00027294 3.62302e-05 0.0641278693 0.0760792529
70299580.0 -0.8311309018 0.0943675376 -4.65702e-05 0.0002394869 0.0001583743 1.9739e-05 0.0712519194 0.0726874145
75299550.0 -0.8313334023 0.105158069 -5.1929e-06 9.72126e-05 0.0002735796 3.902e-06 0.0775099378 0.0696612591
80299520.0 -0.8310578977 0.114459699 -3.38703e-05 0.0001296185 -0.0001398375 -0.0001818641 0.0825829102 0.0661561809
85299490.0 -0.8309405769 0.1238525107 3.80129e-05 -9.24172e-05 0.0001685147 -0.0002506463 0.0874698113 0.0623350093
90299460.0 -0.830058189 0.1341517779 -9.7263e-06 8.22933e-05 -1.91189e-05 0.0001088277 0.0924684505 0.0585221004
95299430.0 -0.8284473546 0.1436139358 -2.64648e-05 -0.0002057669 9.21569e-05 8.64576e-05 0.0964583194 0.0545511836
100299400.0 -0.8279928093 0.1530151492 -6.03557e-05 -0.0001259166 7.38602e-05 3.65498e-05 0.0995858723 0.05071223
105299370.0 -0.826340399 0.1617809057 -7.7901e-06 0.0001002216 9.34598e-05 -6.19142e-05 0.1031989804 0.0467083603
110299340.0 -0.8250011168 0.1714417422 0.0001447583 -1.46872e-05 2.50035e-05 1.98164e-05 0.1057709623 0.0428559783
115299310.0 -0.8234493849 0.1806252169 -0.0001143888 0.0001391004 -0.0001076008 -6.26014e-05 0.1082864195 0.0385963805
120299280.0 -0.8224092176 0.1893281665 0.0003039777 0.0001150698 6.86354e-05 -1.46661e-05 0.1104987211 0.0351594513
125299250.0 -0.8206112639 0.1988382509 -2.97224e-05 4.77708e-05 3.81158e-05 -5.14264e-05 0.1125171433 0.0308914585
130299220.0 -0.8183691114 0.2076779208 0.0001129922 0.0001085993 6.78562e-05 5.87367e-05 0.1138406501 0.0273899406
135299190.0 -0.8168094387 0.2163801616 0.0001668921 -6.04761e-05 7.15665e-05 0.0001211056 0.1149733897 0.023355794
140299160.0 -0.814684471 0.225483211 9.05161e-05 1.856e-06 1.85779e-05 0.000124643 0.116807293 0.0199537283
145299130.0 -0.8125928022 0.2343605325 -0.0001081152 0.0001540325 -9.09844e-05 -9.49454e-05 0.1171324074 0.0165578158
150299100.0 -0.8104891429 0.2431902708 8.59403e-05 0.000215584 0.0001138316 0.0001062812 0.1182214579 0.012892698
155299070.0 -0.8079443068 0.2526908767 0.0002457101 -0.0001100478 -8.398e-07 3.99916e-05 0.1191150624 0.0095255251
160299040.0 -0.8051012981 0.2609468414 0.0001191517 0.0002687252 0.0001928774 -3.31692e-05 0.119580587 0.0064713692
165299010.0 -0.8021512477 0.2691404473 0.0001767689 6.49812e-05 2.03862e-05 -0.0002469844 0.119990096 0.0027597695
170298980.0 -0.7997707658 0.2780178715 1.80807e-05 2.87707e-05 -0.0001958402 -9.08239e-05 0.1204334623 -0.0001052753
175298950.0 -0.797243781 0.2870874852 5.66598e-05 3.44487e-05 2.29831e-05 9.49795e-05 0.1203212903 -0.0036473884
180298920.0 -0.7938983251 0.2949364813 0.0001551528 8.20962e-05 3.7895e-05 7.82783e-05 0.1208832478 -0.0064972344
185298890.0 -0.7909877216 0.3041691854 0.000260999 0.0002084222 7.7103e-05 7.58958e-05 0.1205145805 -0.0094401096
190298860.0 -0.7877106 0.3123415867 9.62142e-05 5.68484e-05 0.0002299159 -4.04841e-05 0.1208138736 -0.0122543876
195298830.0 -0.7842598843 0.3207414055 -0.0002291265 0.0002549412 -4.65025e-05 2.92171e-05 0.1205318536 -0.0149452789
200298800.0 -0.7807640264 0.3295817706 4.05892e-05 -5.99398e-05 -6.53786e-05 0.0001188685 0.1205814301 -0.0180067408
205298770.0 -0.777603586 0.3373501401 4.89664e-05 8.08768e-05 5.254e-06 -6.26588e-05 0.1200295839 -0.0205315101
210298740.0 -0.7737203486 0.3460840806 -0.0002156998 3.92185e-05 1.99701e-05 7.3047e-05 0.119964505 -0.023037998
215298710.0 -0.7707712313 0.3541954567 3.59376e-05 -0.0001519099 -6.63468e-05 -0.0001175402 0.119080968 -0.0254818594
220298680.0 -0.7675020426 0.3623707629 -0.0001817979 0.0001432116 -5.5856e-05 0.0001585229 0.1189103204 -0.0280221095
225298650.0 -0.7632071427 0.3709608532 0.0001678964 0.0001351351 -6.50321e-05 -6.6549e-05 0.1179817703 -0.030165203
230298620.0 -0.7589362128 0.3785040877 0.0001761214 -1.36957e-05 4.87793e-05 0.0002719993 0.1177366779 -0.0332801845
235298590.0 -0.7550337058 0.3872245039 0.0001185649 -9.64146e-05 0.0001804878 -8.9417e-06 0.1174671996 -0.0355745935
240298560.0 -0.7508779066 0.3949740618 -0.0001604191 0.0002155255 3.37429e-05 9.89821e-05 0.1165330454 -0.0375752618
245298530.0 -0.7466430294 0.402483782 0.0001040067 0.0002821822 -1.37141e-05 3.09076e-05 0.115916672 -0.0398238301
250298500.0 -0.7426461882 0.41115819 2.85138e-05 7.51844e-05 3.58417e-05 -4.85293e-05 0.1157540322 -0.0418075974
255298470.0 -0.7380644035 0.4187342913 0.0002401703 9.72151e-05 -0.0002693482 0.0001764389 0.1141593066 -0.0443652154
260298440.0 -0.7338444985 0.4258943575 0.0001354752 -6.92935e-05 7.11815e-05 0.0002344395 0.1135663026 -0.046353962
265298410.0 -0.7293624795 0.4340940251 -0.0001262978 -0.0001831289 0.000109234 4.94221e-05 0.112549943 -0.0483624822
270298380.0 -0.7247422893 0.4423315251 9.79944e-05 3.70549e-05 0.0001111028 3.65389e-05 0.1123012426 -0.0505550071
275298350.0 -0.719424422 0.4495365992 5.6977e-05 -0.0001275738 6.68525e-05 6.3034e-05 0.1112534373 -0.0522704276
280298320.0 -0.7156991472 0.4567155407 -0.0001328789 0.0001982698 4.3299e-05 -0.0001821526 0.1103750058 -0.0545220071
285298290.0 -0.7103561051 0.4648461798 1.52881e-05 2.94851e-05 0.0002034911 -4.01033e-05 0.1093616699 -0.0561798844
290298260.0 -0.7052571994 0.4718918943 7.35679e-05 -4.5057e-06 9.36149e-05 0.0003540611 0.1086539916 -0.0581910458
295298230.0 -0.7007036085 0.4795420495 -0.0002471896 9.93783e-05 -1.75216e-05 7.08405e-05 0.107447808 -0.0598641108
300298200.0 -0.6952467903 0.4863130619 -3.05811e-05 0.0002196682 0.0002213596 4.87302e-05 0.1066821271 -0.0615236951
305298170.0 -0.6902361094 0.494147964 5.8994e-06 2.51333e-05 0.0001602384 -3.27946e-05 0.1059371203 -0.0633876473
310298140.0 -0.6846179964 0.5010790444 0.0001189133 5.48553e-05 0.0002459358 1.02361e-05 0.1050959079 -0.0652507137
315298110.0 -0.6793844432 0.5083709299 0.0001980389 -5.98492e-05 0.0001359877 -0.0001600661 0.1039386408 -0.0669697333
320298080.0 -0.6737584371 0.5155296665 8.65654e-05 -0.0001446188 6.98e-07 2.37886e-05 0.1028341047 -0.0690479265
325298050.0 -0.668630671 0.5220142839 0.0001509551 -6.3836e-05 1.17395e-05 0.0001579893 0.1013732897 -0.0710559015
330298020.0 -0.6628655289 0.5293940872 3.45605e-05 -0.0001389948 0.0001803947 9.52736e-05 0.1001222455 -0.0727436079
335297990.0 -0.6568702156 0.5358220704 7.35863e-05 -9.37009e-05 -1.84956e-05 0.0001189628 0.0989165741 -0.0741670139
340297960.0 -0.6518876802 0.5430073364 -0.0001154486 -2.00058e-05 0.0001670299 0.0001322955 0.0978060753 -0.0758229111
345297930.0 -0.646021325 0.5486481002 0.0002723934 0.0001108676 0.0003635675 2.0619e-05 0.0957351471 -0.0770558325
350297900.0 -0.6404550725 0.5558519712 0.0002477033 -0.000180928 2.77116e-05 -0.0002143008 0.0945942245 -0.0784335825
355297870.0 -0.6344041747 0.5627405253 3.57736e-05 0.0001617172 3.61286e-05 9.64889e-05 0.093487207 -0.0795560552
360297840.0 -0.6283218506 0.5688464088 -7.49871e-05 -0.0001030763 0.0001710786 2.07622e-05 0.0921686844 -0.0808559451
365297810.0 -0.6222962615 0.5760434577 0.0001808308 9.85227e-05 1.90928e-05 0.0001203061 0.0905551703 -0.0821508157
370297780.0 -0.616028439 0.5818403294 -6.22828e-05 6.42182e-05 0.0001146598 -7.54976e-05 0.0891469011 -0.0834115332
375297750.0 -0.6105177123 0.5878689827 0.0001924186 0.0001964501 0.0001994931 0.0001058084 0.087843117 -0.0843163367
380297720.0 -0.6043105055 0.5951763482 9.0414e-06 2.3974e-06 0.0001768493 0.0003127512 0.0868741508 -0.0856715177
385297690.0 -0.598229243 0.6007964057 -0.0002251325 -8.9241e-06 4.94864e-05 0.0001296243 0.0852438846 -0.0865494876
390297660.0 -0.5917389798 0.6072833359 -3.53474e-05 0.0001221829 4.55121e-05 3.0529e-05 0.0839120962 -0.0879300511
395297630.0 -0.5854798349 0.6131541142 8.46455e-05 9.13055e-05 -1.52295e-05 0.0001276002 0.082369256 -0.0887906391
400297600.0 -0.5789537257 0.6193351683 -5.02481e-05 0.0001180752 -8.84621e-05 0.0001238188 0.0809427781 -0.0899349052
405297570.0 -0.5728793189 0.6253849166 0.0003231026 -7.70568e-05 1.5652e-05 -1.85435e-05 0.0797488638 -0.0907662443
410297540.0 -0.565454125 0.6308356865 8.6215e-05 -0.0001103111 0.0001464927 0.00013729 0.0780571846 -0.0917177711
415297510.0 -0.5598246977 0.6360226383 -1.20234e-05 -9.36038e-05 0.0001887802 -5.55998e-05 0.0765234751 -0.0924965913
420297480.0 -0.5518339197 0.6418417997 0.0001146623 6.69005e-05 0.0002094298 5.3858e-06 0.0750520536 -0.0939554485
425297450.0 -0.545830475 0.6483154009 5.69192e-05 -3.7637e-06 0.0001618169 5.93704e-05 0.0736907805 -0.0945876483
430297420.0 -0.5396343266 0.6536599041 0.0002435425 3.93561e-05 0.0001893903 0.0001436613 0.0721649989 -0.0956356096
435297390.0 -0.5320176161 0.6591349002 9.79201e-05 0.0001391532 4.27871e-05 7.5912e-06 0.0706578985 -0.0964130005
440297360.0 -0.525382635 0.6649248408 -0.0001243956 6.9442e-05 -1.11831e-05 4.05578e-05 0.068982744 -0.0971856957
445297330.0 -0.5185326039 0.670110315 0.0001640653 -5.37791e-05 0.0001160254 -9.2534e-06 0.0676555754 -0.098438037
450297300.0 -0.5110880763 0.6748118818 9.49626e-05 0.0002545864 0.0003095428 0.0001074361 0.0658467756 -0.0990275173
455297270.0 -0.5041975865 0.6794734446 0.0001114745 0.0001089317 9.54163e-05 -0.0001013201 0.0642488722 -0.0998432285
460297240.0 -0.4978359549 0.6853067385 6.04312e-05 0.000202868 8.42808e-05 0.0001005245 0.0634594248 -0.1002990465
465297210.0 -0.4898588105 0.6903438774 0.0001551591 -8.05298e-05 0.0001497123 -2.904e-07 0.0613137681 -0.1013405067
470297180.0 -0.4827832139 0.6948016698 6.5635e-06 0.0001576295 -9.8954e-06 6.00197e-05 0.059611898 -0.1020709696
475297150.0 -0.4756824155 0.7005392795 0.0001050499 -0.0001315981 8.47143e-05 -0.0001772537 0.0583763111 -0.102489569
480297120.0 -0.4687990321 0.7044112673 3.35509e-05 2.69436e-05 0.0001780533 0.0001673038 0.0564709792 -0.1031440905
485297090.0 -0.4616479133 0.7092852275 -0.0001183903 0.0001294306 -4.5654e-05 2.58858e-05 0.0546083897 -0.1038413058
490297060.0 -0.4541949777 0.7138457998 -0.0001239839 6.46985e-05 0.000308464 -4.94199e-05 0.0534371503 -0.1044802322
495297030.0 -0.4474532524 0.7187578954 -1.44651e-05 -0.0001064729 -1.9891e-05 -3.0146e-06 0.051449791 -0.1053022162
500297000.0 -0.4386713033 0.7237130629 0.0001476399 -5.15567e-05 -4.95627e-05 -5.68589e-05 0.0499714786 -0.1058541158
505296970.0 -0.4312313936 0.727050327 0.0002679422 8.79242e-05 -6.29592e-05 6.61192e-05 0.0480000074 -0.106054409
510296940.0 -0.42418248 0.7319440387 6.71714e-05 0.0001150843 -1.71803e-05 -6.6714e-05 0.0464228307 -0.1064674169
515296910.0 -0.4166746039 0.7360139709 9.08619e-05 -0.0001962514 0.0001245176 4.79443e-05 0.0449450925 -0.1072982459
520296880.0 -0.4091453619 0.7404133727 0.0001390772 -7.08642e-05 0.0001662437 0.0001678111 0.0432775911 -0.1078295368
525296850.0 -0.4017568875 0.7440746456 -3.08407e-05 0.0001075168 0.0001712132 1.21101e-05 0.0419521359 -0.1082429061
530296820.0 -0.394589828 0.7485533442 -5.9962e-06 -9.14349e-05 0.0002807345 -3.45042e-05 0.0396170262 -0.1086900427
535296790.0 -0.3861385605 0.7522940999 9.64497e-05 -0.0002704903 -1.1265e-05 4.43303e-05 0.0379410065 -0.1092715716
540296760.0 -0.3784409292 0.7564594368 0.0001729046 8.08713e-05 0.0001556104 -8.4771e-06 0.0362568917 -0.1096016477
545296730.0 -0.3711625728 0.7598343728 -0.0001828395 -6.98218e-05 -5.39761e-05 1.21035e-05 0.0348686119 -0.1097275504
550296700.0 -0.363475425 0.7636607337 0.0002339405 -2.32051e-05 0.0002323398 1.27452e-05 0.0330779514 -0.110350203
555296670.0 -0.3547860211 0.767330269 -8.6645e-06 4.92541e-05 7.68856e-05 6.6812e-06 0.0311584855 -0.1103029507
560296640.0 -0.3472120498 0.7710123966 0.0001312764 -2.41401e-05 3.5252e-06 1.8194e-06 0.0296893342 -0.1109188923
565296610.0 -0.3396778106 0.7741542776 4.29327e-05 6.5706e-06 -1.26253e-05 4.80287e-05 0.0278012262 -0.1113094179
570296580.0 -0.3314218082 0.7775147077 0.0003142129 -2.12806e-05 -4.505e-05 6.67819e-05 0.0262358213 -0.1112175644
575296550.0 -0.3238585196 0.7806513576 0.000234614 -6.05766e-05 5.48681e-05 -2.99013e-05 0.0246739981 -0.1117323305
580296520.0 -0.3155635335 0.7841244739 -7.8975e-05 -1.77815e-05 0.0001990981 -0.0001101368 0.0227795627 -0.1116672824
585296490.0 -0.3073020668 0.7862241084 -0.000109674 -0.0001908974 0.0001978054 -8.48224e-05 0.0208165741 -0.1126060739
590296460.0 -0.2992273233 0.7893958959 0.0005021347 -0.0001440633 0.0001669956 -1.50483e-05 0.0194333954 -0.1124549144
595296430.0 -0.2913569778 0.7935246624 0.0001954822 -1.97176e-05 7.01803e-05 6.13803e-05 0.0174783151 -0.1126417796
600296400.0 -0.2836144971 0.7956150626 6.18987e-05 -8.39822e-05 6.0772e-06 -1.27475e-05 0.01591716 -0.1126348821
605296370.0 -0.275282137 0.7986289955 2.84637e-05 -3.53038e-05 0.0001479166 0.0001151258 0.014338395 -0.1127417539
610296340.0 -0.2675037517 0.8013965384 6.77832e-05 3.38616e-05 0.0001614069 -4.71058e-05 0.0125435436 -0.1126242205
615296310.0 -0.2594230216 0.8043750989 3.18175e-05 -2.86181e-05 0.0001382449 -8.2699e-05 0.010901667 -0.1130624368
620296280.0 -0.2506391072 0.8061494851 0.0001656326 0.0001576925 3.07299e-05 -7.56076e-05 0.0088761132 -0.113193007
625296250.0 -0.2424969487 0.8086105645 0.0001049726 -4.71282e-05 0.0001834216 -3.76257e-05 0.0075287974 -0.1130275544
630296220.0 -0.2342654777 0.8114784457 -0.0001323646 -0.0001056824 0.0002655591 -3.57706e-05 0.0056385203 -0.1128815779
635296190.0 -0.2258949091 0.8139743214 0.0003435903 0.0001324797 0.0001458667 -1.16904e-05 0.0042089462 -0.1130335701
640296160.0 -0.2175021535 0.8153867977 -6.50771e-05 9.6912e-05 5.53541e-05 8.28846e-05 0.0023890031 -0.1130642502
645296130.0 -0.2099583058 0.8184469419 0.0003570525 6.84425e-05 0.0003647036 -3.69176e-05 0.0006103335 -0.1132082849
650296100.0 -0.2018914561 0.820407268 0.0001571744 -0.0001078153 0.0001594292 0.0001787053 -0.0011359082 -0.1127220992
655296070.0 -0.1928548988 0.8219016306 5.36116e-05 0.0001068871 -3.79552e-05 -3.257e-05 -0.0029914215 -0.1124915252
660296040.0 -0.1853698947 0.8240219259 -2.3043e-05 0.0001942023 -3.90469e-05 0.0001877972 -0.0046765004 -0.1126705309
665296010.0 -0.1767202276 0.8257875588 0.0002561636 -0.0001574337 5.61741e-05 -6.1723e-06 -0.0064262984 -0.1120745088
670295980.0 -0.1678362574 0.8274827466 0.0002277563 -6.38566e-05 0.0001089489 -3.20643e-05 -0.0077639597 -0.1123628124
675295950.0 -0.159864993 0.8288380713 -1.04854e-05 1.85277e-05 0.0001245723 -5.76153e-05 -0.0095977223 -0.1119833693
680295920.0 -0.1516796592 0.8307092945 3.92804e-05 4.21978e-05 2.39315e-05 -7.19213e-05 -0.0112818718 -0.1117999182
685295890.0 -0.1425712718 0.8317102478 0.0001105251 7.58952e-05 0.0001688768 -0.0001568204 -0.0128767009 -0.1113680611
690295860.0 -0.1339704832 0.8333349626 0.0003098481 2.60421e-05 0.0002817574 -5.17085e-05 -0.0143382219 -0.111447004
695295830.0 -0.1256026601 0.8340715735 -9.71162e-05 -1.77935e-05 5.95422e-05 0.0001319071 -0.0162977979 -0.1106498268
700295800.0 -0.1181523411 0.8358012768 -0.0001670435 -0.0001043319 4.84929e-05 -0.0001948459 -0.0178614938 -0.1109527618
705295770.0 -0.1088893648 0.8373316737 3.23118e-05 -0.0001303782 0.0001228227 2.01713e-05 -0.0196623461 -0.1098359754
710295740.0 -0.1008291402 0.8383979183 0.0001474518 -0.0001202136 0.0004806463 5.25739e-05 -0.0213794431 -0.1097497143
715295710.0 -0.0930729233 0.8389097492 -4.0898e-06 -8.80565e-05 0.0002411623 3.25507e-05 -0.0228947175 -0.1095608252
720295680.0 -0.0844876666 0.8389623926 4.2974e-05 0.0001414571 0.0001727082 -1.10551e-05 -0.0243786861 -0.109092329
725295650.0 -0.0746136076 0.8412168842 0.0003001798 1.00717e-05 -5.19782e-05 -3.46024e-05 -0.0260754189 -0.1086161407
730295620.0 -0.0671938029 0.8413307093 -0.0001054621 -7.99424e-05 0.0001490335 9.11329e-05 -0.0275704181 -0.1083569536
735295590.0 -0.0581468209 0.8418650126 0.0002571229 -9.3972e-05 -0.0001109573 -0.00013287 -0.0292105061 -0.1075797787
740295560.0 -0.050271896 0.843193221 -8.48828e-05 -3.96166e-05 3.91336e-05 -9.697e-07 -0.0308684452 -0.1075464146
745295530.0 -0.0415190184 0.8422684151 -6.75574e-05 -3.39322e-05 0.0001063248 -0.0001778932 -0.0326497136 -0.1067119181
750295500.0 -0.0337463231 0.8432651726 0.0001866891 -0.000139959 0.0002777389 -8.6733e-05 -0.0340939008 -0.106379765
755295470.0 -0.02439857 0.8434192138 0.00034854 -0.0001934713 1.82461e-05 -0.0001290237 -0.035747951 -0.1053790405
760295440.0 -0.0165035335 0.8437913226 0.0001861979 3.40413e-05 0.0002243165 3.59732e-05 -0.0374604446 -0.1048615737
765295410.0 -0.0083548558 0.8439554259 5.97934e-05 2.92e-06 5.24844e-05 -5.46632e-05 -0.0385760126 -0.1041930497
770295380.0 0.0009225871 0.8439306139 0.0001770016 -7.09321e-05 0.0003297825 -0.0002426235 -0.0400550978 -0.1038013843
775295350.0 0.0095068733 0.8439528144 0.000263472 8.4145e-05 9.8379e-05 2.4285e-06 -0.0421121955 -0.1034929469
780295320.0 0.0176092724 0.8433390345 0.000348785 -8.96774e-05 0.0001211744 0.0001241937 -0.0432071506 -0.1021204694
785295290.0 0.0265141255 0.8437039801 0.0001083031 -4.68154e-05 0.0001685737 -0.0001099102 -0.04482845 -0.1013394108
790295260.0 0.0346833067 0.8429929607 9.23241e-05 -0.0002198759 0.0001200216 4.3008e-05 -0.0463155202 -0.100831689
795295230.0 0.0430164261 0.8431436517 7.73518e-05 -0.0001471214 0.0002781542 4.32242e-05 -0.0477776921 -0.1000839812
800295200.0 0.0519181609 0.8426513955 0.0002071413 -1.16413e-05 0.0001430051 -7.69892e-05 -0.0491950643 -0.0995455343
805295170.0 0.0598495114 0.8419891224 4.58461e-05 5.78512e-05 0.0002080334 -7.66263e-05 -0.0511158894 -0.0983037675
810295140.0 0.0680744344 0.8414162726 8.17654e-05 -7.27994e-05 0.0003058016 0.0002381454 -0.0524468089 -0.0973133164
815295110.0 0.07686504 0.8401746461 0.0001941525 -0.0001629776 8.4009e-05 3.25296e-05 -0.0538664776 -0.0963998095
820295080.0 0.0853917995 0.8389918603 0.0001646017 -0.0001653955 8.99729e-05 -9.15863e-05 -0.0556668743 -0.0961176212
825295050.0 0.0941370541 0.8383346191 0.0002325864 -0.0002434507 2.66716e-05 -2.05929e-05 -0.0568150162 -0.094959823
830295020.0 0.1022982428 0.8375154509 0.0001415923 4.06708e-05 0.0003183788 -0.0001773413 -0.0584775552 -0.0942205776
835294990.0 0.1099705225 0.8370275957 0.0002423298 1.72313e-05 0.0002433971 -0.0001097869 -0.0594687099 -0.0935774801
840294960.0 0.1187747979 0.8347068989 0.0001332064 -2.5105e-06 0.0002644384 -0.0001598239 -0.0612102675 -0.0921373263
845294930.0 0.1270286208 0.8345619278 0.0001770618 0.0001969724 4.29804e-05 -6.15926e-05 -0.0624394299 -0.0912542179
850294900.0 0.135640943 0.8327461853 0.0002658959 4.36394e-05 -3.63781e-05 -9.98752e-05 -0.063965628 -0.0905224205
