!Created with skrf (http://scikit-rf.org).
# Hz S RI R 50.0 
!freq ReS11 ImS11 ReS21 ImS21 ReS12 ImS12 ReS22 ImS22
300000.0 -0.2101155154 -0.0719748733 -0.001011586 -0.0005317669 0.0004104386 0.0010400122 -0.7673986494 -0.159538189
5299970.0 -0.2141103369 0.0090518985 -4.48631e-05 0.0001615639 1.58353e-05 5.9413e-05 -0.7847067194 -0.0082416572
10299940.0 -0.2100740586 0.0216022269 1.16829e-05 -0.0001239363 -2.44521e-05 -0.00015983 -0.7879766624 -0.0049601552
15299910.0 -0.2054325514 0.031216952 1.99447e-05 -2.04008e-05 -0.0001650137 -1.49552e-05 -0.7936773717 -0.0030949409
20299880.0 -0.1993664143 0.0391437673 -0.0002131629 -5.3707e-05 -0.0002008102 -0.0001303532 -0.8000775566 0.0019413753
25299850.0 -0.1931652487 0.0455514545 0.000106671 0.0001033202 -0.0001252653 -7.71748e-05 -0.8063099246 0.0072806679
30299820.0 -0.1862985225 0.0503592074 0.0001000563 -5.32523e-05 5.95407e-05 6.18714e-05 -0.8125605033 0.0147116655
35299790.0 -0.1800696842 0.0543752826 -4.62415e-05 4.56184e-05 3.59001e-05 0.0001994205 -0.8175489562 0.0238948665
40299760.0 -0.1740069764 0.0572210493 0.0001061049 8.19031e-05 7.56678e-05 -3.08076e-05 -0.8217032833 0.033381038
45299730.0 -0.1685026951 0.0593848149 -0.0001287146 -2.02542e-05 -0.0002383628 3.64828e-05 -0.8248082862 0.0426203132
50299700.0 -0.1627346293 0.0608626783 2.19078e-05 -5.39657e-05 -8.56581e-05 3.82021e-05 -0.8273573639 0.0525927904
55299670.0 -0.1584543718 0.0617560041 7.78452e-05 0.0001325128 8.3967e-06 -6.20575e-05 -0.8297907043 0.0630480367
60299640.0 -0.1538613231 0.0620513687 -0.0001417952 2.69822e-05 7.46893e-05 0.0001201438 -0.8303862843 0.0730518845
65299610.0 -0.1500957069 0.0626025769 -4.26974e-05 -4.97606e-05 -9.59016e-05 0.0001145496 -0.8310192973 0.0827800966
70299580.0 -0.1463850921 0.0622675731 -0.0002249132 -5.61335e-05 8.3089e-06 -0.0001327774 -0.8323085948 0.0928874181
75299550.0 -0.1431949707 0.0625061307 0.000206164 -2.22979e-05 6.8622e-06 -3.08153e-05 -0.8318005547 0.1026204483
80299520.0 -0.1405081035 0.0629402951 -2.53915e-05 -4.51215e-05 5.67849e-05 -9.1866e-05 -0.8320373181 0.1126482468
85299490.0 -0.1376585238 0.0622917319 -8.1268e-06 9.57251e-05 -0.0001445739 4.29439e-05 -0.8319006642 0.1216004526
90299460.0 -0.1355856278 0.0622107859 4.0216e-06 -3.22184e-05 5.18486e-05 3.80828e-05 -0.8309598004 0.1314375999
95299430.0 -0.1333463828 0.0616910785 -2.18482e-05 4.52986e-05 -5.18834e-05 -0.0001056735 -0.8298507136 0.1415362973
100299400.0 -0.1317325823 0.0619849712 0.0001604583 -9.5099e-06 0.0001481955 4.53524e-05 -0.8288733108 0.1498006769
105299370.0 -0.1296424166 0.0616248836 3.23486e-05 4.64202e-05 0.0001191082 3.99729e-05 -0.8273825198 0.158935267
110299340.0 -0.1284552721 0.0614368138 -6.17979e-05 1.81149e-05 -0.0002405947 -0.0001325758 -0.8265111801 0.1681942986
115299310.0 -0.1269583332 0.0610674544 -5.67354e-05 -0.0001911061 0.0001228375 8.95302e-05 -0.82452051 0.1772601087
120299280.0 -0.1257732786 0.0612969007 -2.34416e-05 -1.31328e-05 9.44664e-05 -9.14526e-05 -0.8234254566 0.1862719665
125299250.0 -0.124639238 0.0609752409 0.0001134303 9.50103e-05 6.0601e-05 -4.42565e-05 -0.8215670268 0.1953228247
130299220.0 -0.1233908213 0.0613757345 0.0001861267 -2.9156e-05 -3.60723e-05 -9.8597e-06 -0.819984081 0.2044146063
135299190.0 -0.1223252988 0.061253695 4.92996e-05 -7.8092e-06 0.0001769103 9.78909e-05 -0.8177881164 0.2130679768
140299160.0 -0.121547744 0.0613940521 -0.0001833352 -4.30642e-05 7.48436e-05 2.10077e-05 -0.8159176893 0.2217343315
145299130.0 -0.1208001608 0.0615604685 1.67057e-05 0.0003292578 1.89029e-05 1.11626e-05 -0.8136898763 0.2299512356
150299100.0 -0.1201549696 0.0615724264 4.0003e-06 2.09782e-05 3.43911e-05 0.0001394936 -0.8114433041 0.2386999983
155299070.0 -0.1192156927 0.0620465671 0.0001330599 1.42787e-05 0.0001200113 -0.000107472 -0.808668575 0.2478407139
160299040.0 -0.118672311 0.0623806677 0.0001067517 0.0002527194 4.03936e-05 5.09205e-05 -0.8074097006 0.2569327882
165299010.0 -0.1181806281 0.0625162387 0.0001809332 9.53789e-05 7.71218e-05 9.55353e-05 -0.8039461586 0.2653331125
170298980.0 -0.1175007277 0.0627571859 -2.59344e-05 -8.99797e-05 5.52209e-05 0.0001204348 -0.8021028669 0.2736813644
175298950.0 -0.1169047891 0.0637432136 -3.2165e-06 -6.35439e-05 3.56052e-05 7.37603e-05 -0.7992392647 0.2827040743
180298920.0 -0.1164271113 0.0636692362 8.65797e-05 0.0002358796 0.0001227569 2.44416e-05 -0.7953110014 0.2906780184
185298890.0 -0.1159592441 0.0646247673 -0.0001663358 -2.78809e-05 -0.0001797131 -8.4054e-06 -0.7929895857 0.2987422548
190298860.0 -0.1150886612 0.0648005391 0.0001809866 0.0001388563 -5.40255e-05 4.80335e-05 -0.7898346902 0.3078715852
195298830.0 -0.1145424228 0.064877295 2.7751e-06 1.0675e-06 7.64042e-05 0.0001375079 -0.7868544386 0.3154606373
200298800.0 -0.114247119 0.0660071015 -0.0001409672 4.18182e-05 0.0001415416 -6.30297e-05 -0.783262841 0.3239069952
205298770.0 -0.1137693233 0.0665510241 -0.0001002893 -3.47047e-05 6.54068e-05 9.45972e-05 -0.7801177141 0.3323953322
210298740.0 -0.1134682643 0.0673106439 2.75079e-05 -7.89821e-05 9.15004e-05 8.19634e-05 -0.7769890325 0.3408655961
215298710.0 -0.1128864157 0.0678820967 -7.95667e-05 0.0001154276 -1.39647e-05 0.0001527736 -0.773246087 0.3484163133
220298680.0 -0.112459639 0.0685158553 0.0003285588 -0.0001374931 0.0001533761 0.0001750277 -0.7693705541 0.3568573407
225298650.0 -0.1118647419 0.0690852927 0.0001374434 9.55293e-05 9.76589e-05 2.60162e-05 -0.7662277591 0.3648132257
230298620.0 -0.1113966028 0.0700686389 -0.0001735067 6.84275e-05 0.000211831 0.0002484491 -0.7620709316 0.3727897647
235298590.0 -0.1109172993 0.0704804056 -4.87781e-05 0.0002877838 -0.0001214391 0.0001809825 -0.7576534811 0.3807435858
240298560.0 -0.1106234536 0.0717848105 7.60816e-05 0.0001938734 0.0001193033 3.23175e-05 -0.75388847 0.3886696019
245298530.0 -0.1099525366 0.0722239537 0.000139223 9.58886e-05 5.74269e-05 0.0001033086 -0.7497808026 0.3971550062
250298500.0 -0.1096483239 0.0729241177 0.0002194251 0.0001423127 3.07876e-05 7.869e-07 -0.7457416546 0.404972655
255298470.0 -0.1091658461 0.0740078681 0.0001230555 -6.88459e-05 5.0413e-05 8.224e-05 -0.7410959453 0.4128360388
260298440.0 -0.108626852 0.0745709841 5.6557e-06 5.383e-05 6.37126e-05 0.0001410343 -0.7367554331 0.4202906891
265298410.0 -0.1081114398 0.0757195599 0.0002504612 3.5941e-06 -7.82881e-05 0.000106167 -0.7324353809 0.427759215
270298380.0 -0.1076006407 0.0767409339 -0.0002191176 -4.2471e-06 0.0002078573 6.3335e-05 -0.7275618252 0.4355650449
275298350.0 -0.1069869537 0.0774820038 2.42381e-05 6.56238e-05 2.86685e-05 0.0001097997 -0.7228573205 0.4436203238
280298320.0 -0.1064964486 0.0784828091 -0.0001456943 -7.1196e-06 0.0001433755 0.0002098551 -0.7184459712 0.4505002263
285298290.0 -0.1056342507 0.0795398865 -0.0001218384 5.05951e-05 -1.39869e-05 7.18042e-05 -0.7136349964 0.458041989
290298260.0 -0.1053247136 0.0803123276 0.0001624121 -4.67342e-05 0.0001148217 6.48037e-05 -0.7087148821 0.4656446713
295298230.0 -0.1050047898 0.0811373786 0.0001336331 -3.98368e-05 0.0001071008 0.0002553303 -0.7034183388 0.473007337
300298200.0 -0.1044042404 0.0815907655 0.0001405601 5.87845e-05 3.3022e-06 0.0001441794 -0.6981979781 0.4800183145
305298170.0 -0.1033564503 0.0829988948 -6.14799e-05 0.0001996288 0.0001617754 1.68951e-05 -0.6932977983 0.4880104823
310298140.0 -0.1026281436 0.0833175454 5.011e-06 1.68995e-05 2.4446e-05 0.0001174194 -0.6886764419 0.4953437779
315298110.0 -0.1026369638 0.0843732656 -4.45906e-05 7.73516e-05 1.63641e-05 0.0001254605 -0.6828896489 0.5023928771
320298080.0 -0.1017521888 0.0853744617 -6.3255e-06 7.49203e-05 0.0002453119 0.0001421237 -0.6779651938 0.509228009
325298050.0 -0.1015728861 0.0860179043 6.6898e-05 0.0002477558 0.0001581208 0.0003112966 -0.6720228051 0.5165907253
330298020.0 -0.1009109906 0.0872692809 -1.16974e-05 0.0001665019 1.94916e-05 5.22167e-05 -0.6662328405 0.523466663
335297990.0 -0.1002932997 0.0882415539 6.45251e-05 -0.0001049513 -9.297e-07 0.0001337602 -0.6609086803 0.5300897069
340297960.0 -0.1000390058 0.0890162201 0.0003610461 -9.75997e-05 7.43274e-05 0.0001447426 -0.6551855992 0.5373060175
345297930.0 -0.0994920564 0.0900685864 0.0003585252 -7.00458e-05 0.0003091084 -4.72997e-05 -0.6494989116 0.5443200202
350297900.0 -0.0985397515 0.0912350825 0.00034178 -4.33015e-05 8.43991e-05 0.0001072968 -0.6437214565 0.5507541388
355297870.0 -0.0980203414 0.0921081208 4.5649e-06 0.0001892564 0.0002041421 0.0001697628 -0.6379432045 0.5577961629
360297840.0 -0.0973558427 0.0931307612 2.17576e-05 3.04343e-05 0.0002340589 3.42323e-05 -0.6320672382 0.5635832791
365297810.0 -0.096662053 0.093961984 0.0003344655 0.0001666093 -2.02444e-05 4.45941e-05 -0.6265224135 0.5708427135
370297780.0 -0.0956978748 0.0950822443 6.53714e-05 0.0001408813 5.54771e-05 0.0001382656 -0.620558478 0.5769311128
375297750.0 -0.0952024146 0.096231828 -0.0001592466 -3.793e-07 -4.49921e-05 6.77416e-05 -0.6138173581 0.5834482133
380297720.0 -0.0942586911 0.0973313868 0.0001406919 8.7813e-06 0.0002007502 4.61406e-05 -0.6080537619 0.5898730576
385297690.0 -0.0935876527 0.0983455684 -6.01458e-05 -8.33055e-05 2.18394e-05 4.60312e-05 -0.6019184953 0.5961302982
390297660.0 -0.0927773468 0.0993183218 0.0001003088 8.8952e-06 9.78884e-05 -0.0001137111 -0.5950454257 0.6016572165
395297630.0 -0.0918198579 0.100022981 0.0001000165 0.0002654893 0.0001226767 0.0001030536 -0.5888849141 0.6082801821
400297600.0 -0.0913762945 0.1011776929 0.0002807726 0.0001825192 0.0002333093 -3.59651e-05 -0.5829899501 0.614104328
405297570.0 -0.0903225307 0.1022160363 3.92852e-05 -2.95009e-05 0.0004406309 -4.28096e-05 -0.5766066484 0.6197408194
410297540.0 -0.0893226878 0.1032242604 0.0001251983 6.24085e-05 6.90526e-05 7.8605e-06 -0.5695144372 0.6255908194
415297510.0 -0.0885699282 0.1038971521 0.0001563167 0.0002099974 -2.9599e-05 -5.92515e-05 -0.5633369145 0.632214647
420297480.0 -0.0877626142 0.1047266721 0.0002093759 0.0001998758 0.0001372301 0.0001904244 -0.556504839 0.6366454899
425297450.0 -0.08692235 0.1060576666 -7.3763e-05 6.30796e-05 0.0001571849 0.0002141154 -0.550033647 0.6432694993
430297420.0 -0.0862879398 0.1069973849 0.0003804216 2.20286e-05 0.0002106261 -0.0001364173 -0.5435872957 0.6484552777
435297390.0 -0.0850917679 0.1078890467 0.0001623604 -6.5957e-06 0.0001185108 1.11595e-05 -0.5364333977 0.6537928068
440297360.0 -0.0841661321 0.1090266303 2.05721e-05 4.84337e-05 2.32772e-05 -0.0001068178 -0.5296889072 0.6592908214
445297330.0 -0.0835405853 0.1099629663 9.16249e-05 0.0002645048 0.0002783349 0.0002016033 -0.5235815654 0.6647376403
450297300.0 -0.0823344773 0.110752568 9.55601e-05 0.0001608791 0.0001354049 -0.0001066172 -0.5164409078 0.6702531692
455297270.0 -0.0816347763 0.1119825895 1.6447e-06 4.48147e-05 0.0002845723 2.17139e-05 -0.5096785937 0.674906879
460297240.0 -0.0805199429 0.1128574192 0.0001407555 0.0002312106 0.000213296 0.0001391847 -0.5025887367 0.6804543821
465297210.0 -0.0793546302 0.1135649087 0.0001081261 1.22349e-05 0.0002661951 3.00239e-05 -0.4958715917 0.6848099581
470297180.0 -0.0785126363 0.1146464481 0.0001026362 1.24074e-05 0.0002081083 5.9299e-05 -0.4892969616 0.689505549
475297150.0 -0.0775234162 0.1155799434 9.13307e-05 2.44284e-05 5.17637e-05 7.59676e-05 -0.4814303817 0.6944609908
480297120.0 -0.0766499319 0.1161682007 7.79222e-05 0.0001341134 0.0003156301 0.000112732 -0.4749450574 0.7003052837
485297090.0 -0.0756533926 0.1172279786 0.0001739682 1.49951e-05 0.000156902 4.89504e-05 -0.4673260915 0.7040902561
490297060.0 -0.074547868 0.1180428725 -2.28428e-05 -0.0001155201 0.0002230958 -0.0002488781 -0.4603482755 0.7087789629
495297030.0 -0.073586777 0.1191519018 0.0002467841 -0.0001576729 3.38632e-05 2.31609e-05 -0.4529400109 0.7136562207
500297000.0 -0.0722897554 0.1197222383 0.000242991 -1.85054e-05 6.75934e-05 0.0001695367 -0.4459615885 0.7184933726
505296970.0 -0.0716458918 0.1206008475 4.27976e-05 -2.9336e-05 0.0001845674 -0.0001540224 -0.4392677943 0.7222368536
510296940.0 -0.0702365663 0.1216310382 0.0001190128 0.0002010549 0.0003770672 -8.55728e-05 -0.4317129011 0.7264429023
515296910.0 -0.0692930687 0.1225839983 0.0003622565 0.0002404588 0.0001148998 0.0002893618 -0.4239942246 0.7311597916
520296880.0 -0.0682151346 0.1234204855 0.0002395625 0.0001386662 0.0002880386 0.0001619299 -0.4170656252 0.7345101293
525296850.0 -0.0670613014 0.1242263677 4.46476e-05 2.134e-07 6.27096e-05 0.0001525177 -0.409247801 0.7394438534
530296820.0 -0.0660703219 0.1248712002 0.0002657062 -0.0002411604 0.0002500078 -2.48834e-05 -0.4021563886 0.7433266082
535296790.0 -0.0647267116 0.1257464004 -4.24645e-05 8.66885e-05 0.0001763443 -3.514e-07 -0.3951126136 0.7467143174
540296760.0 -0.0639158753 0.1264639998 0.0001045273 6.55715e-05 0.0002017738 2.42273e-05 -0.3872705145 0.7513869426
545296730.0 -0.0628385997 0.1272889918 0.0002784828 -0.0002137647 0.0003232745 -0.0004109491 -0.380200918 0.7543297531
550296700.0 -0.0615999119 0.1281608479 0.0002328905 9.86593e-05 0.0002036404 1.59354e-05 -0.3726389663 0.7583925902
555296670.0 -0.0598689023 0.1288760672 0.000205913 -6.24564e-05 0.0002557088 -2.49085e-05 -0.3650785773 0.7617247544
560296640.0 -0.0590894742 0.1294631461 0.000160344 -3.92572e-05 8.59036e-05 0.000128202 -0.3568790636 0.7657245696
565296610.0 -0.0581616491 0.1304977469 9.10375e-05 -0.000158 3.2745e-05 4.88689e-05 -0.3496765955 0.769120303
570296580.0 -0.0568417548 0.1311802382 0.0003207125 -0.0002143985 0.0002009699 -2.35931e-05 -0.3426728999 0.7730924016
575296550.0 -0.0555063516 0.1318769832 0.0002338453 -4.66234e-05 0.0002107954 0.0002023387 -0.3345316027 0.7758000497
580296520.0 -0.0543345651 0.132454155 9.57117e-05 0.0003410345 -3.2364e-06 0.0001908459 -0.3268324568 0.7792956617
585296490.0 -0.0531468906 0.1330301242 0.0003788615 2.95267e-05 0.000250211 0.000169182 -0.3187341006 0.7819939946
590296460.0 -0.0521044331 0.1338001698 0.0001516584 0.0001696832 0.0003028579 0.0003570362 -0.3110757026 0.7850993705
595296430.0 -0.0506397416 0.1347364919 0.0001489252 -9.02577e-05 0.0001357967 -9.11281e-05 -0.3034405921 0.7876448437
600296400.0 -0.0494144766 0.1352437533 0.0002819269 0.0001165744 0.0004406888 -0.0001594117 -0.2960805871 0.791539846
605296370.0 -0.0481924408 0.1359645597 0.0002370176 0.000139082 -1.71991e-05 -3.92307e-05 -0.2876978922 0.7941950882
610296340.0 -0.046964633 0.1364500816 0.0002234821 -0.0001764358 0.000217391 -0.0001196236 -0.2797060386 0.7972040708
615296310.0 -0.0454924205 0.1375293126 0.0003213873 9.7112e-05 3.56906e-05 5.08936e-05 -0.2719441116 0.7996251165
620296280.0 -0.0442139064 0.1379217503 0.0002065162 -0.0001574074 0.0003045673 -4.34348e-05 -0.2642982778 0.8017663281
625296250.0 -0.0428535385 0.1386160879 0.0003713328 -2.34116e-05 0.0003413283 6.8497e-06 -0.2562897669 0.8050541074
630296220.0 -0.0417203534 0.1390413045 0.0002591642 -7.64665e-05 -6.68405e-05 -4.01876e-05 -0.24765955 0.8077407261
635296190.0 -0.0403316529 0.1395239684 0.0001557546 6.02237e-05 0.0002579132 8.28551e-05 -0.2402512333 0.8093834799
640296160.0 -0.0391080304 0.1399127272 0.0001746011 0.0001447135 -3.2245e-06 0.000180575 -0.2317120949 0.8118518527
645296130.0 -0.0383137981 0.1407777737 0.0001499452 7.71544e-05 0.0002500331 -0.0001156222 -0.2246534208 0.8135184931
650296100.0 -0.0363615798 0.1418138987 0.0001187603 0.0002055173 0.0003592064 4.20731e-05 -0.2160405985 0.8164921027
655296070.0 -0.0353407944 0.1419106 0.0002274665 -8.16743e-05 0.0002839753 5.28291e-05 -0.2077001197 0.8176277296
660296040.0 -0.0340775818 0.1423739252 0.0002078028 -1.10132e-05 0.000172676 0.0001496466 -0.1997508215 0.8205094143
665296010.0 -0.0326603 0.1428656894 3.55918e-05 -7.29125e-05 0.0001990038 7.53177e-05 -0.1925911942 0.8222678654
670295980.0 -0.030939942 0.1436154812 0.00022243 2.35266e-05 0.000328575 2.89259e-05 -0.1845980354 0.8242212036
675295950.0 -0.0300468714 0.1439434975 0.0002566457 -0.0001184437 0.0001192844 5.29559e-05 -0.1761715037 0.8260952737
680295920.0 -0.0286908234 0.14489189 0.0001770096 2.48742e-05 0.0001876335 9.69421e-05 -0.1676849956 0.8281333771
685295890.0 -0.027372102 0.1450498566 0.0001172328 -3.26378e-05 2.25033e-05 -0.0001065078 -0.1591903662 0.828849473
690295860.0 -0.0257873209 0.1454406554 0.000220478 2.5348e-05 7.35407e-05 5.80731e-05 -0.1510749928 0.8302657738
695295830.0 -0.0242588484 0.1459201991 0.0002988377 7.928e-05 2.21364e-05 -3.88446e-05 -0.1431387756 0.8322045834
700295800.0 -0.0228184531 0.146317491 0.0001154285 -0.0001513613 0.0003004153 0.0001337869 -0.1342040332 0.8328062596
705295770.0 -0.0213053836 0.1466620994 0.0002751221 6.54576e-05 0.00023464 -8.33348e-05 -0.1268130259 0.8347172533
710295740.0 -0.0201818229 0.1475313246 0.000215465 -0.0001550649 0.000125704 7.6887e-06 -0.1190731677 0.8365439193
715295710.0 -0.0190827828 0.1476697502 0.0001693621 -1.83968e-05 0.0001792801 0.0001528273 -0.1103006451 0.8369907575
720295680.0 -0.0174785173 0.1477941858 6.73024e-05 -0.0002281429 0.0001847476 6.23095e-05 -0.1017957836 0.8383204846
725295650.0 -0.0159529181 0.148421814 0.0004305952 -7.73224e-05 0.0001926675 -3.45976e-05 -0.0931792518 0.8390590394
730295620.0 -0.0145971151 0.1485661544 0.0001024319 0.0002013962 0.0003291973 4.38643e-05 -0.0850217866 0.8402724986
735295590.0 -0.0129307976 0.1488676878 0.0003332019 1.57599e-05 0.0002782523 -0.0001284495 -0.0763595889 0.8408511889
740295560.0 -0.0115721431 0.1493687183 0.0001917607 0.0001312651 0.0002994193 2.02476e-05 -0.0686780022 0.8412246054
745295530.0 -0.0105598977 0.1497133402 0.000285383 -0.0002220485 0.0002899185 6.83721e-05 -0.0599674925 0.8420634019
750295500.0 -0.0089932403 0.1499706429 7.47671e-05 2.12589e-05 0.000211603 -6.20707e-05 -0.0516074529 0.8418082785
755295470.0 -0.007008586 0.1503269046 0.0004301118 -7.10583e-05 0.0001756948 -1.11734e-05 -0.0440025684 0.8432482768
760295440.0 -0.0059683314 0.1508108882 0.0003847911 -0.0001259977 0.0002478556 -8.60157e-05 -0.035890789 0.8435784988
765295410.0 -0.0046465062 0.150809803 0.0001684476 -0.000122713 0.0005378124 -5.27884e-05 -0.0265931873 0.8437631187
770295380.0 -0.002822997 0.1512511511 0.0003664468 -0.0002665781 0.0001771167 -7.91827e-05 -0.0179225483 0.8441624986
775295350.0 -0.0015511932 0.1514532263 9.42092e-05 0.0001287035 0.0001429003 4.93849e-05 -0.0103652562 0.8437456158
780295320.0 -0.000170171 0.1515676636 0.0001008618 -6.234e-06 0.0003885472 8.80609e-05 -0.0019911629 0.8442144793
785295290.0 0.001536196 0.1517188907 0.0002619204 -2.89182e-05 0.0002571416 9.25235e-05 0.0062121321 0.8443123727
790295260.0 0.0028432327 0.1520340308 0.0002702654 -0.000280366 0.000371999 -0.0001161165 0.0154517785 0.8443824385
795295230.0 0.0043521878 0.1525916556 0.000324012 -0.0003606665 0.0002863401 -0.00021987 0.023289075 0.8442361035
800295200.0 0.0056833421 0.1527256315 5.69778e-05 -0.0001154371 0.0003572601 -0.0001231438 0.0316108181 0.8438262522
805295170.0 0.0071266663 0.1523399368 0.0002002661 -0.0001601006 0.0001904983 1.80106e-05 0.0396107403 0.8431963634
810295140.0 0.0087588061 0.1528955504 0.0005121882 -0.0003965141 0.0001666556 -6.98029e-05 0.0482369885 0.8436232173
815295110.0 0.0103301421 0.1527296178 0.0003628569 -7.07147e-05 0.0004037776 5.1377e-05 0.0564253807 0.8427329819
820295080.0 0.0118392663 0.1528258669 0.0005152076 1.56399e-05 0.0002167211 3.482e-07 0.064348229 0.8416818362
825295050.0 0.013302971 0.1530904824 0.0002302502 -0.0002313201 0.0001934562 -3.1893e-05 0.0726372823 0.8412530088
830295020.0 0.0147790615 0.1531875768 0.0004347563 -8.66301e-05 0.0002672475 -0.000284766 0.0808635469 0.8399686243
835294990.0 0.0162433613 0.1534216315 0.0002646759 3.45327e-05 0.0002805521 -0.0001445189 0.0891920232 0.8396482755
840294960.0 0.0175304382 0.1529862689 9.72033e-05 3.33176e-05 0.0002154688 9.75163e-05 0.0975441831 0.8387620107
845294930.0 0.0191272734 0.1534914233 0.0002879904 -4.05496e-05 1.22989e-05 -8.00472e-05 0.1057401505 0.8379271731
850294900.0 0.020652659 0.1533179383 0.0001601163 9.27129e-05 0.0004438329 0.0001022575 0.1139994129 0.836767649
