!Created with skrf (http://scikit-rf.org).
# Hz S RI R 50.0 
!freq ReS11 ImS11 ReS21 ImS21 ReS12 ImS12 ReS22 ImS22
300000.0 -0.3252058906 -0.0785992189 0.3780280366 0.0398604901 0.3734401665 0.0404752542 -0.320141622 -0.0939062581
5299970.0 -0.3263819197 0.0046528207 0.3783728244 0.0023562364 0.3783273629 0.002330749 -0.3240946013 0.0049712984
10299940.0 -0.3240845209 0.0134086693 0.3793552564 0.0023314673 0.3795269087 0.0024517471 -0.3215119513 0.0157669198
15299910.0 -0.3213446557 0.0204211409 0.3817012999 0.0019418484 0.3817455915 0.002056234 -0.3183932141 0.0236909021
20299880.0 -0.318598002 0.0263771427 0.3847004597 0.0017541043 0.384808274 0.0014682853 -0.314741616 0.0301295657
25299850.0 -0.315396889 0.0316429381 0.3881079583 2.82088e-05 0.3879088357 0.0003330012 -0.3107610446 0.0359537857
30299820.0 -0.3128955808 0.0360881971 0.3914945484 -0.0022760712 0.3913988897 -0.0022988742 -0.3071700663 0.0409683487
35299790.0 -0.3099102883 0.0400721709 0.3947867867 -0.0055381499 0.3949914795 -0.0055422104 -0.3035918108 0.0453086423
40299760.0 -0.3073072495 0.0434495479 0.3975285248 -0.0087372158 0.3980691397 -0.0088297925 -0.3002298182 0.0482970689
45299730.0 -0.3045504971 0.0464344667 0.4009636393 -0.0123520439 0.4008635273 -0.0125256043 -0.2972381561 0.0519220652
50299700.0 -0.302192393 0.0493706476 0.4035262283 -0.0173627318 0.4033993651 -0.0171587916 -0.2940289787 0.0544862631
55299670.0 -0.3002495752 0.0522759082 0.4055632593 -0.0225513192 0.405563894 -0.0220120559 -0.2915338466 0.0572816364
60299640.0 -0.2979235564 0.0551568454 0.4072686366 -0.0269094817 0.4077722703 -0.0269005034 -0.2889842607 0.0591602253
65299610.0 -0.2962863648 0.0573980638 0.4092509989 -0.0322344936 0.4091671322 -0.0318373984 -0.2871091643 0.0615647632
70299580.0 -0.2945971577 0.0600197649 0.4104153323 -0.0371695904 0.410247543 -0.0368865364 -0.2850360308 0.0638020403
75299550.0 -0.2930219674 0.0626355302 0.4112398176 -0.042316898 0.4112604235 -0.0423773654 -0.2834461917 0.0658370586
80299520.0 -0.2914551456 0.0648978502 0.4123145722 -0.047573543 0.4123073009 -0.0475103897 -0.281416826 0.0680951939
85299490.0 -0.2900471787 0.0670273319 0.4126842718 -0.0527485798 0.4128944232 -0.052386891 -0.2800429663 0.0696043892
90299460.0 -0.288846742 0.0694803913 0.4131573349 -0.0580565431 0.4136131892 -0.0580383839 -0.2782317963 0.0721737104
95299430.0 -0.2871935989 0.07143388 0.4135718917 -0.0635244566 0.4135604679 -0.0630728357 -0.2766542452 0.0738600348
100299400.0 -0.2864197846 0.0741191831 0.4132409508 -0.0684109618 0.4133829616 -0.0682430476 -0.2753181229 0.0761615652
105299370.0 -0.2851617596 0.0762834273 0.4131084007 -0.0737575068 0.4135174683 -0.0738045603 -0.2736765322 0.0783249121
110299340.0 -0.2839943463 0.0784755671 0.4135367381 -0.0785592626 0.4130188373 -0.0784135994 -0.2729425764 0.0802899065
115299310.0 -0.2827518773 0.0809138767 0.4130346554 -0.0837781487 0.4127257244 -0.0838601019 -0.2715870274 0.0824262763
120299280.0 -0.2818436512 0.0833077279 0.4123485223 -0.0891974658 0.4126368843 -0.0890927593 -0.2706235704 0.0845658713
125299250.0 -0.2811699073 0.0853699447 0.4120283152 -0.0940329133 0.4121078389 -0.0936902353 -0.2695528423 0.0865180889
130299220.0 -0.2800574735 0.0880163206 0.4105018044 -0.0991357291 0.4111010801 -0.0991757622 -0.2686317051 0.0887134907
135299190.0 -0.2794004229 0.0908120134 0.4108949658 -0.1039464453 0.4105526547 -0.1038227935 -0.2670163847 0.0911768462
140299160.0 -0.2786094681 0.093296498 0.409543383 -0.1092968617 0.4099576545 -0.1094316016 -0.2661737324 0.0933625258
145299130.0 -0.2773711386 0.0955358442 0.4090191281 -0.1141727673 0.4084312074 -0.1141875834 -0.2653063012 0.0959535522
150299100.0 -0.2762323633 0.0983578396 0.4077526273 -0.1187945678 0.4079667982 -0.1183794868 -0.2643149209 0.0985234583
155299070.0 -0.2756699687 0.1006583917 0.4068460343 -0.1243913371 0.4065295165 -0.1239391477 -0.2632621446 0.1006627444
160299040.0 -0.2744896472 0.1034142907 0.4053378227 -0.1288686385 0.4051534812 -0.1287026642 -0.2625697829 0.1032975521
165299010.0 -0.2737778522 0.1058550071 0.4040541659 -0.1337994637 0.4042959541 -0.1336284027 -0.2612114162 0.105625157
170298980.0 -0.2728694131 0.108692242 0.4027286582 -0.1385312696 0.4029939468 -0.1386781576 -0.2602540046 0.1081400338
175298950.0 -0.2717687673 0.1114400185 0.4018628335 -0.1429282864 0.4011639404 -0.1431103009 -0.2594312784 0.1107491213
180298920.0 -0.2708737266 0.113986216 0.3999338866 -0.1481591532 0.4002036246 -0.1477022232 -0.2583711927 0.113521885
185298890.0 -0.2695477433 0.1162863306 0.3983993037 -0.1526037763 0.3981435946 -0.1525103014 -0.2573524225 0.1160090803
190298860.0 -0.2686399963 0.1193624713 0.3969436252 -0.1574500477 0.3970841041 -0.1573680249 -0.2563726181 0.1182385074
195298830.0 -0.2677323155 0.1217919421 0.3953610744 -0.1618122467 0.3954421107 -0.1617928148 -0.2549284164 0.1207305979
200298800.0 -0.2660981258 0.1244847353 0.3931817209 -0.166497437 0.3937186853 -0.1668155917 -0.2543298464 0.1232698451
205298770.0 -0.2653627523 0.1271568177 0.3914219707 -0.1713037463 0.3917062207 -0.1709996889 -0.2530677227 0.1255447943
210298740.0 -0.26429362 0.1299067715 0.3896362218 -0.1755723114 0.3895763457 -0.1756202969 -0.2519560661 0.1283662901
215298710.0 -0.2636105545 0.1327211714 0.3881757064 -0.1801673732 0.3878447286 -0.1803945638 -0.2511845865 0.1310542578
220298680.0 -0.2620349579 0.1351834041 0.385524431 -0.1848370226 0.3859547937 -0.1848729094 -0.2502261313 0.1334195093
225298650.0 -0.2609715166 0.1378003175 0.3837074186 -0.1893128059 0.3838913733 -0.1890675348 -0.2488571654 0.135781511
230298620.0 -0.2594982917 0.1412212946 0.3820013523 -0.1934920143 0.3822562341 -0.1937885023 -0.2478696899 0.1384996538
235298590.0 -0.2583812899 0.1439760583 0.379904266 -0.1981423029 0.3799281718 -0.1975673418 -0.2464406723 0.1412609589
240298560.0 -0.2569425401 0.1465336873 0.377765395 -0.2025348867 0.3777441386 -0.2022538652 -0.2455016873 0.1438310845
245298530.0 -0.2558412365 0.1489895011 0.3754937047 -0.206640447 0.3753888339 -0.2067390096 -0.2438777992 0.1460894982
250298500.0 -0.2542494086 0.1517851065 0.3728025326 -0.2110304546 0.3726131102 -0.2105377443 -0.2428737123 0.1485491524
255298470.0 -0.2530197173 0.1538992601 0.3702725824 -0.214818813 0.3709025458 -0.2151680691 -0.2411455921 0.1509846728
260298440.0 -0.2517201144 0.1570873399 0.3681075433 -0.2194814249 0.36808153 -0.2192048512 -0.2395205443 0.1537158246
265298410.0 -0.2498769659 0.159957019 0.3659982677 -0.2239273308 0.3661633061 -0.2233118658 -0.238029923 0.1562442534
270298380.0 -0.2485597198 0.1623678941 0.3636838761 -0.2274784006 0.3635414691 -0.2275792607 -0.2365044385 0.1586608843
275298350.0 -0.246806096 0.1649473476 0.3609019555 -0.2317795806 0.3612130425 -0.2317485987 -0.2354660787 0.1611783365
280298320.0 -0.244875883 0.1676485145 0.3585061975 -0.2356737834 0.3585184565 -0.2357253238 -0.2334101939 0.1635702915
285298290.0 -0.2434455376 0.1707466915 0.3558228507 -0.2397668094 0.355745996 -0.2397810925 -0.2319051832 0.1659936679
290298260.0 -0.241840938 0.173002965 0.35313127 -0.2435520337 0.3530963301 -0.2437710344 -0.2300290948 0.168825956
295298230.0 -0.2400737305 0.1755569204 0.3505254937 -0.2476682364 0.350548125 -0.2476162327 -0.2282572666 0.1705858472
300298200.0 -0.2386056781 0.178352463 0.3480368891 -0.2512967109 0.3480974352 -0.2517801259 -0.2268359103 0.1734734067
305298170.0 -0.2363423218 0.1804766026 0.3449002163 -0.255989382 0.3450156655 -0.2555475606 -0.2245027387 0.1758245671
310298140.0 -0.2349537081 0.1835060182 0.3423061925 -0.2598488203 0.3424629713 -0.2596899965 -0.2228435056 0.1783879651
315298110.0 -0.2328508593 0.1859314532 0.3393309039 -0.2635474366 0.3393620208 -0.2635067116 -0.2213132412 0.1805165399
320298080.0 -0.2313539868 0.1880636739 0.3364348327 -0.2678093759 0.336342296 -0.2676913295 -0.2193107893 0.1830095158
325298050.0 -0.2294392058 0.1909041332 0.3333549544 -0.2713787124 0.3334512068 -0.2711932739 -0.2179882764 0.185376157
330298020.0 -0.2276827748 0.1927975333 0.3299457798 -0.275071931 0.3303071476 -0.2750360278 -0.2162335574 0.1877080307
335297990.0 -0.2254887628 0.1954956232 0.3270550178 -0.2785859547 0.3267795737 -0.2788548206 -0.214597827 0.1905815922
340297960.0 -0.2243790188 0.1983477178 0.3240002361 -0.2823124962 0.3237883413 -0.2827206931 -0.2120762413 0.1931025676
345297930.0 -0.2221770847 0.2006912037 0.320571385 -0.2862962065 0.3205479267 -0.2860560659 -0.2105552539 0.1951079058
350297900.0 -0.2201778859 0.2030338491 0.31729784 -0.2896497926 0.3170634595 -0.2894906719 -0.2089930399 0.1981289845
355297870.0 -0.2179622473 0.2061721102 0.3140177064 -0.2933101339 0.3143490248 -0.2925892143 -0.2072145366 0.2000421501
360297840.0 -0.2159280839 0.2081630057 0.3113533454 -0.2961703255 0.311197081 -0.2960792102 -0.2049214043 0.2027839311
365297810.0 -0.2140895775 0.2109512721 0.3076694192 -0.299381308 0.3078455593 -0.2999857653 -0.2026464162 0.204834094
370297780.0 -0.2119378023 0.2132556337 0.3042510934 -0.3028579958 0.304340752 -0.302530872 -0.2009368088 0.2072688652
375297750.0 -0.2095474332 0.2158568583 0.3010048367 -0.3065539667 0.3013037361 -0.3065481724 -0.1988729319 0.2094521664
380297720.0 -0.2073553978 0.2177939138 0.2974738194 -0.3098871449 0.2974074006 -0.3091821391 -0.1971608107 0.2117481629
385297690.0 -0.205658088 0.2200998433 0.2940254453 -0.312826585 0.2938647733 -0.3127718261 -0.1947031302 0.214047526
390297660.0 -0.2030812334 0.2228143981 0.2904753793 -0.3161830767 0.290470952 -0.3157382171 -0.1927354881 0.2165178687
395297630.0 -0.2005618212 0.2249904967 0.287104078 -0.3192082001 0.2873358661 -0.3195166495 -0.1905710741 0.2187981276
400297600.0 -0.1984607407 0.2274689126 0.2834907201 -0.3230356551 0.2837680047 -0.3222601256 -0.1880894587 0.2206575284
405297570.0 -0.196480719 0.2294539789 0.2798151287 -0.3250934144 0.2799726688 -0.3255831544 -0.1862072293 0.223060392
410297540.0 -0.1936738944 0.2318414795 0.2761426426 -0.3289201754 0.2765235135 -0.3285000115 -0.1835969684 0.2250931248
415297510.0 -0.1913650034 0.2335628345 0.2725367334 -0.3316380228 0.2728345147 -0.3319861575 -0.1814402424 0.2271035485
420297480.0 -0.1890684926 0.2364790523 0.2688531832 -0.3347605234 0.2688895134 -0.3350049989 -0.1793563457 0.2291243976
425297450.0 -0.1865878768 0.2384434258 0.2656409502 -0.3375803509 0.2654685183 -0.3375742475 -0.1770926229 0.2313563872
430297420.0 -0.1839572713 0.2403868288 0.2614382258 -0.3400986314 0.2616208073 -0.3399823179 -0.1745589548 0.2329775847
435297390.0 -0.1816803148 0.242602992 0.2575513397 -0.3431117757 0.2577607906 -0.3430976692 -0.1719521459 0.2349855072
440297360.0 -0.1793008664 0.2444855682 0.2538981884 -0.3458599657 0.2540531589 -0.3458801241 -0.1697055447 0.2367803523
445297330.0 -0.1767783915 0.2464552485 0.2502474235 -0.3487870008 0.2500742803 -0.3483695208 -0.1668723118 0.2386190467
450297300.0 -0.1738380501 0.2483285811 0.2463646202 -0.3511495308 0.2462283879 -0.3515668814 -0.1647807755 0.240306456
455297270.0 -0.1715351418 0.2504505684 0.2424562868 -0.3538242277 0.2424408017 -0.3538205697 -0.1619965023 0.2422402866
460297240.0 -0.1692464335 0.252259028 0.2383209654 -0.3564095858 0.2387013824 -0.3570247601 -0.1596634141 0.2443233283
465297210.0 -0.1663035262 0.2546259574 0.2346624207 -0.3591894005 0.2343731967 -0.3592396929 -0.1567910803 0.2460275149
470297180.0 -0.1636672151 0.2560385638 0.2304100965 -0.3618596396 0.2306783808 -0.3619741307 -0.1543090636 0.2479549368
475297150.0 -0.1609851315 0.2575985173 0.2264939861 -0.3635004912 0.2267124391 -0.3639507677 -0.1514137451 0.2495774063
480297120.0 -0.1584572102 0.2599262523 0.2227918291 -0.3668683825 0.2225216769 -0.3667561553 -0.1487405745 0.2515490521
485297090.0 -0.1554644975 0.2617684025 0.2185449548 -0.3685092232 0.2186872174 -0.3687286806 -0.1462840728 0.2530674871
490297060.0 -0.1532313566 0.2635799034 0.2148442915 -0.3714056305 0.2146067869 -0.3711429013 -0.1433474093 0.2547752455
495297030.0 -0.1501537674 0.2651166428 0.2102280767 -0.3733693093 0.2106080923 -0.3738114879 -0.1408107282 0.2568029578
500297000.0 -0.1472033466 0.2670614444 0.205995041 -0.3754469306 0.2061120274 -0.3753518541 -0.138104879 0.258621826
505296970.0 -0.1444644561 0.2690293024 0.2022244801 -0.3778595011 0.2020731073 -0.3780331897 -0.1357049456 0.2600375824
510296940.0 -0.1417066963 0.2703511705 0.1978410499 -0.3802427797 0.1977326681 -0.3802242068 -0.1326834814 0.261669436
515296910.0 -0.1385218987 0.2721280493 0.1934565311 -0.382391537 0.1938369038 -0.3824667805 -0.1300291409 0.2635039191
520296880.0 -0.1361632012 0.2738216263 0.1896159526 -0.3848260282 0.1894629008 -0.3844299761 -0.1271636521 0.2646253809
525296850.0 -0.133050641 0.2747257315 0.1851209121 -0.3861760716 0.1854673316 -0.3864388736 -0.1245649485 0.2664300328
530296820.0 -0.130205389 0.2770286275 0.1810056661 -0.3886359095 0.1811367842 -0.3884122853 -0.1216510644 0.2678913224
535296790.0 -0.1273977088 0.2782947658 0.1769861942 -0.3901908976 0.1771828471 -0.3896549702 -0.119395064 0.2694205813
540296760.0 -0.1248445645 0.27956396 0.1729331998 -0.3922473419 0.172264462 -0.3923501214 -0.1164387952 0.270980688
545296730.0 -0.1219331259 0.2812487635 0.1682283609 -0.3936962404 0.1682173135 -0.3937478434 -0.1136971869 0.2719608112
550296700.0 -0.1181387177 0.2827947559 0.1637216656 -0.3958033412 0.1638692059 -0.3960533048 -0.1109504479 0.2740459488
555296670.0 -0.1156409181 0.2836856752 0.1598039993 -0.3975253364 0.159722744 -0.3975734837 -0.1080236452 0.2753735632
560296640.0 -0.112711662 0.2855569571 0.1551483466 -0.3991340255 0.1553014348 -0.3991783724 -0.1049008289 0.2764763907
565296610.0 -0.1100838344 0.2866477827 0.151111615 -0.4009883171 0.1509840545 -0.4009287192 -0.102411542 0.2775639003
570296580.0 -0.1067391281 0.2877774785 0.1463542527 -0.4027547854 0.1462060597 -0.40234655 -0.0995719953 0.2791614483
575296550.0 -0.1041307611 0.2896956084 0.1421578971 -0.4044305432 0.1420388219 -0.4042356424 -0.0964189403 0.2801119901
580296520.0 -0.1007399945 0.2906519079 0.1377563668 -0.4058846835 0.1377618627 -0.4055504491 -0.093608718 0.2811147472
585296490.0 -0.0976222102 0.2915601723 0.1330896343 -0.4065788824 0.1334942899 -0.4068976729 -0.0904772002 0.2820492116
590296460.0 -0.0944760951 0.292798657 0.1287362643 -0.407578466 0.1288294688 -0.40817688 -0.0882304395 0.2834444307
595296430.0 -0.0915074032 0.2937805644 0.1241612422 -0.4095651623 0.1243000476 -0.409648479 -0.0848197288 0.2841387071
600296400.0 -0.0887963323 0.2951663321 0.1199016275 -0.4108058528 0.1198519577 -0.4105964156 -0.082010012 0.2851007669
605296370.0 -0.0854620292 0.2961917759 0.1152852792 -0.4123294851 0.1156500837 -0.4119425187 -0.0783905847 0.2863531124
610296340.0 -0.0822882894 0.2969618247 0.1105514835 -0.413102894 0.1111153179 -0.4132371789 -0.0753530338 0.2871213554
615296310.0 -0.079021222 0.2980099518 0.1061194376 -0.414008628 0.106495752 -0.4145869237 -0.0723894603 0.2879674754
620296280.0 -0.0760018019 0.2987459441 0.1017214624 -0.4154072925 0.1019079278 -0.4153270822 -0.0697159778 0.2888540208
625296250.0 -0.0732365525 0.2997319443 0.097788231 -0.4166212827 0.0973378082 -0.4168945764 -0.0660431904 0.2895409274
630296220.0 -0.0693389311 0.300813172 0.0922317719 -0.4176911173 0.0925619163 -0.4175698268 -0.0633436693 0.2909316879
635296190.0 -0.0671643595 0.3018268053 0.0882499874 -0.4184796538 0.0882951286 -0.4184334371 -0.0603176121 0.2915328999
640296160.0 -0.0636181774 0.3024420508 0.0837382435 -0.4192269882 0.083780642 -0.4192903621 -0.0569848378 0.2920393837
645296130.0 -0.0605517608 0.3035821411 0.0789410881 -0.4201882796 0.0794119542 -0.420239508 -0.0539088551 0.2932112449
650296100.0 -0.0571470209 0.3040807433 0.0745900698 -0.4209918667 0.0745423393 -0.4209817739 -0.0508149593 0.2932114343
655296070.0 -0.0540660113 0.3049027859 0.0700555028 -0.4216432786 0.0702007237 -0.4217295784 -0.0477049998 0.2941021848
660296040.0 -0.0512905474 0.305096325 0.0654275354 -0.4221339436 0.0656580449 -0.4225084792 -0.0440572575 0.2950710214
665296010.0 -0.047405585 0.3055572199 0.0605120458 -0.422648381 0.0605072333 -0.4229357042 -0.0411293161 0.2957093008
670295980.0 -0.044804802 0.3068736927 0.0564463404 -0.4232213442 0.0563582892 -0.4235285011 -0.0387523411 0.2962549852
675295950.0 -0.0412174795 0.3069865865 0.0517783409 -0.4238967125 0.051562497 -0.4238207207 -0.0354154474 0.2969839592
680295920.0 -0.0381168753 0.307844191 0.0470130302 -0.4246263608 0.0465885089 -0.4250788104 -0.031898513 0.2982366808
685295890.0 -0.0348405615 0.3088658536 0.0426203209 -0.4251365389 0.0423963035 -0.4252834128 -0.0289659633 0.2980041707
690295860.0 -0.0314786516 0.3087648443 0.0375926724 -0.4250018314 0.0379526085 -0.4257553135 -0.0257946934 0.299258196
695295830.0 -0.0285042474 0.3092037711 0.0335364473 -0.4254933127 0.0332177728 -0.4260235345 -0.0225554718 0.2994480683
700295800.0 -0.0252120418 0.309463409 0.0283631389 -0.4258631492 0.0284857158 -0.4261381614 -0.0197642729 0.2998206752
705295770.0 -0.0221119572 0.3106258947 0.023844724 -0.4264978388 0.0241796907 -0.4265770994 -0.0168507894 0.3002348702
710295740.0 -0.0183405021 0.3103501925 0.0194585897 -0.4266332338 0.0198053134 -0.4270642148 -0.0137069181 0.3007219404
715295710.0 -0.0154919694 0.311048239 0.0153001646 -0.4267937484 0.0146737594 -0.4269161615 -0.0103134645 0.3007990369
720295680.0 -0.0121387923 0.3112224607 0.0100784906 -0.4270816246 0.0102043462 -0.4270467878 -0.0068631249 0.3010807782
725295650.0 -0.0089472905 0.3117712322 0.0055062623 -0.426954651 0.0055449946 -0.426881393 -0.0043793181 0.3016720649
730295620.0 -0.0058089248 0.3118038415 0.0008794918 -0.4268216215 0.0010879192 -0.4268669583 -0.0013347372 0.3012891626
735295590.0 -0.0024893315 0.3119240214 -0.0034919199 -0.4271402679 -0.0038027818 -0.4270573956 0.0017259377 0.3015751401
740295560.0 0.0010246623 0.3123115831 -0.0085586926 -0.4265571455 -0.008538572 -0.426775383 0.0057804876 0.3018643521
745295530.0 0.003616899 0.3125333573 -0.0126161501 -0.4262142102 -0.0133549785 -0.4267044397 0.0086185571 0.3016893524
750295500.0 0.0075296421 0.3123020041 -0.0176624748 -0.4259841984 -0.0178259593 -0.426529869 0.011539104 0.3017188164
755295470.0 0.0109260556 0.3122218408 -0.0224219356 -0.4260367944 -0.0224197898 -0.4260211393 0.0151643009 0.3012431507
760295440.0 0.014057303 0.3122531496 -0.0269198329 -0.4257614434 -0.0269707411 -0.4261777298 0.0177376843 0.3015107529
765295410.0 0.0170818547 0.3126515754 -0.0315897263 -0.4257685372 -0.0318141099 -0.4256298633 0.0211064937 0.3016208066
770295380.0 0.0200044447 0.3122586002 -0.0359662535 -0.4251123393 -0.03609927 -0.4250104741 0.0240112842 0.3013727073
775295350.0 0.0235811529 0.3120874978 -0.0412721004 -0.4243498301 -0.0404075162 -0.4244138339 0.0269590825 0.3013754846
780295320.0 0.0267467977 0.3119703378 -0.0453111826 -0.4237772941 -0.0449193557 -0.4236712775 0.0302528723 0.3007915003
785295290.0 0.0296752058 0.3114122776 -0.0498284097 -0.4230199059 -0.0495148522 -0.4235647754 0.0338958598 0.3006317999
790295260.0 0.0337482664 0.3118537686 -0.0541881409 -0.4229274402 -0.0534722703 -0.4228747113 0.0372446204 0.3005755105
795295230.0 0.0365800112 0.3111703359 -0.0589164739 -0.4219587747 -0.0589373631 -0.4223863098 0.0405155784 0.3003475944
800295200.0 0.0396367379 0.3110492344 -0.063926262 -0.421193377 -0.0631589298 -0.4214532904 0.0436213671 0.3001389338
805295170.0 0.0431757126 0.3106851565 -0.0678944419 -0.4203653059 -0.0682443981 -0.4209797039 0.046585968 0.2998751939
810295140.0 0.0461132665 0.3102948031 -0.0724875942 -0.4198617005 -0.0725786878 -0.4200252363 0.0502559505 0.2992003626
815295110.0 0.0495932573 0.3096146724 -0.0769781454 -0.4188190711 -0.0770613663 -0.4191951588 0.0533385657 0.2987675689
820295080.0 0.052608983 0.3098928324 -0.0814123977 -0.4180102114 -0.0811169002 -0.4182018572 0.0562745157 0.2985799029
825295050.0 0.0564982349 0.3091393367 -0.085575419 -0.4168894056 -0.0863795388 -0.4172033192 0.0596358477 0.2981883002
830295020.0 0.0594175883 0.3088736999 -0.0908281486 -0.4158027861 -0.0904385837 -0.4159242955 0.0630964723 0.2976802526
