!Created with skrf (http://scikit-rf.org).
# Hz S RI R 50.0 
!freq ReS11 ImS11 ReS21 ImS21 ReS12 ImS12 ReS22 ImS22
300000.0 -0.2367113893 -0.1156416828 0.4655592565 0.074404021 0.4708309837 0.0775899183 -0.2354676249 -0.1184190826
5299970.0 -0.2405557836 0.006739075 0.4749437155 0.0055714288 0.474965124 0.0058235976 -0.2445779778 0.0052279431
10299940.0 -0.2372625615 0.0196417625 0.4771609577 0.0065887594 0.4771240193 0.0066068387 -0.2414158715 0.0174025269
15299910.0 -0.2328809306 0.0299279168 0.4806504964 0.0074937418 0.4802752915 0.0079892161 -0.2370669548 0.0263945698
20299880.0 -0.2272783011 0.0378327715 0.4852607732 0.0081135407 0.4852854235 0.0079266893 -0.2323843381 0.0339694961
25299850.0 -0.2215941164 0.0441506439 0.4904250013 0.0067669141 0.4906597956 0.0070518311 -0.2276612852 0.0399561268
30299820.0 -0.2158283202 0.0494304867 0.4965589579 0.0050768032 0.4954017762 0.0046349441 -0.2225154734 0.0449564857
35299790.0 -0.2099024779 0.0539441423 0.5009508376 0.0014331757 0.5009613079 0.0019439019 -0.2171344631 0.0487420134
40299760.0 -0.2045480438 0.057124426 0.5062641832 -0.0020420809 0.5062409564 -0.0023925516 -0.2124958229 0.0520696466
45299730.0 -0.1993386399 0.0600347016 0.5109699314 -0.0070595297 0.511171954 -0.007195023 -0.2077650173 0.0545336177
50299700.0 -0.1943599324 0.0617700708 0.5146092112 -0.0127456152 0.5149718189 -0.0130251958 -0.2034435175 0.0568308484
55299670.0 -0.1905502239 0.0638302016 0.5182080222 -0.0185319596 0.5187065778 -0.0185195702 -0.1998971678 0.0582053601
60299640.0 -0.186518733 0.0649095395 0.5217348404 -0.0247574432 0.5217087356 -0.0247970492 -0.196213886 0.0596415936
65299610.0 -0.1830635101 0.0665376582 0.5251024756 -0.031036999 0.5250509898 -0.0310396569 -0.1924395666 0.0608345497
70299580.0 -0.1795821519 0.0671488435 0.5271499557 -0.0377656974 0.5273198775 -0.0375407632 -0.1898534163 0.0616443299
75299550.0 -0.1764408236 0.0679963763 0.52896971 -0.044560612 0.5290884756 -0.0446709561 -0.1870032543 0.0630176297
80299520.0 -0.1738502363 0.068990102 0.5311300227 -0.0512753752 0.5311531034 -0.0511054334 -0.1848219716 0.0628959986
85299490.0 -0.1711616224 0.0692426596 0.5326385254 -0.0583513556 0.5325951217 -0.0583328902 -0.18267855 0.0639694656
90299460.0 -0.1691687379 0.0702599187 0.5334933421 -0.0653000185 0.5335901812 -0.0652751512 -0.1801927506 0.0644319405
95299430.0 -0.1672281849 0.0711082406 0.5344936697 -0.0725950028 0.534378959 -0.0722975073 -0.1786172181 0.0652515101
100299400.0 -0.1653738547 0.0717118177 0.5347151917 -0.0791953423 0.5347235937 -0.079316992 -0.1767301288 0.0658188886
105299370.0 -0.1631379055 0.0722724938 0.5342973294 -0.0857853231 0.5353098032 -0.0860950209 -0.1749788496 0.0664004346
110299340.0 -0.1617340836 0.073004237 0.5349152049 -0.0924987418 0.5351978799 -0.0929803048 -0.1734707487 0.0670656029
115299310.0 -0.1601202855 0.0735261824 0.5351079134 -0.099700942 0.5352967142 -0.0994196951 -0.1723169628 0.06737173
120299280.0 -0.1589419621 0.0744423754 0.5352027257 -0.1064913147 0.5350346937 -0.1062649997 -0.1716786713 0.0682284025
125299250.0 -0.1579294188 0.0752603258 0.5347109832 -0.1130389897 0.5347993727 -0.1133541378 -0.1698193587 0.0682964643
130299220.0 -0.1563649733 0.076082236 0.5338868011 -0.1194475922 0.5342242918 -0.1200819795 -0.169130524 0.0698929729
135299190.0 -0.15517985 0.0765912487 0.5333070025 -0.1260665084 0.5331777767 -0.1265159072 -0.1680943593 0.0702672701
140299160.0 -0.1542585316 0.0780242052 0.5323252438 -0.1330736327 0.5325130254 -0.1334982603 -0.1667433273 0.0711151883
145299130.0 -0.153149421 0.0790643005 0.5320682825 -0.1397947624 0.5314625616 -0.1392167891 -0.1663523224 0.071723534
150299100.0 -0.1520530579 0.0797822811 0.5300725046 -0.1460814217 0.5304753617 -0.1459046616 -0.1654116416 0.0725612421
155299070.0 -0.1510919884 0.0812953902 0.5289771166 -0.1530848243 0.5291945114 -0.1529842323 -0.1644650228 0.0733873265
160299040.0 -0.1500452222 0.082135712 0.5273350179 -0.1587737661 0.5276272473 -0.1591846217 -0.1635032387 0.0746587774
165299010.0 -0.1493082632 0.0831718561 0.5267315791 -0.1657664777 0.5265656882 -0.1655068129 -0.1625743283 0.0752657813
170298980.0 -0.1482031962 0.0845563499 0.5242181246 -0.1720655363 0.5247929897 -0.1718554404 -0.1618197317 0.0762571331
175298950.0 -0.1473856856 0.0856135574 0.5237432392 -0.1776883009 0.523515158 -0.178199539 -0.1611919877 0.0775801732
180298920.0 -0.1461075775 0.0867695228 0.5214421718 -0.1843948114 0.5215690161 -0.1842281004 -0.1604842254 0.0788181381
185298890.0 -0.145252043 0.0880110265 0.5191908283 -0.1906074828 0.5195330437 -0.1906537739 -0.1600130581 0.0794647336
190298860.0 -0.1444065217 0.0891068937 0.5176157333 -0.1968215532 0.5182374176 -0.1967900392 -0.1584141749 0.0806477783
195298830.0 -0.1432663582 0.0902806186 0.5158050123 -0.2027125993 0.5156203702 -0.2031614312 -0.1580621115 0.0816120694
200298800.0 -0.1426087757 0.0916254195 0.5136558861 -0.2086868568 0.513546399 -0.2088188134 -0.1568796462 0.0831731593
205298770.0 -0.141658486 0.0930897431 0.5117910844 -0.2148871311 0.511643469 -0.2153568717 -0.1562043611 0.0839853752
210298740.0 -0.1408794052 0.0944950328 0.5094283672 -0.2211867748 0.5092233691 -0.2209064129 -0.1556382914 0.0852854456
215298710.0 -0.1397927557 0.095674994 0.5069355136 -0.2266628273 0.5066586278 -0.2267749001 -0.1551288626 0.0863924002
220298680.0 -0.1385865507 0.097234081 0.5042825446 -0.2332784243 0.5042958262 -0.2326445072 -0.1539031757 0.0877454642
225298650.0 -0.1374491024 0.0987745134 0.5016428445 -0.2387483691 0.5018160116 -0.238448226 -0.1533348864 0.0892046737
230298620.0 -0.1368755029 0.09987204 0.4996227688 -0.2444647557 0.499576438 -0.244533922 -0.1524136943 0.0906562895
235298590.0 -0.1359593174 0.1009981691 0.4970455146 -0.2499814972 0.4970735917 -0.2505313633 -0.1514262672 0.0913551064
240298560.0 -0.1350619033 0.1025281355 0.494567825 -0.2556249644 0.494439703 -0.2555207527 -0.1507729919 0.0929746715
245298530.0 -0.133709151 0.104094362 0.4909963075 -0.2617006051 0.4913829682 -0.2615528574 -0.149842451 0.0943361026
250298500.0 -0.1328695944 0.1052366396 0.4886486705 -0.2667788207 0.4890198597 -0.2667107031 -0.1489862276 0.0954011209
255298470.0 -0.1318477665 0.1067435759 0.4855472029 -0.273024415 0.4854785951 -0.2727504947 -0.1478925891 0.0965363761
260298440.0 -0.1305613963 0.1081288081 0.4824898302 -0.2777648955 0.4825020362 -0.2784188789 -0.146672988 0.0982176202
265298410.0 -0.1293508624 0.1097293874 0.4795358755 -0.2840771801 0.4796616294 -0.2839307353 -0.1462647847 0.099302124
270298380.0 -0.1280915463 0.1112711237 0.4760906487 -0.2892851092 0.4767842166 -0.2893369523 -0.1453413372 0.1010555658
275298350.0 -0.1272140646 0.1123514855 0.4735787646 -0.2946941007 0.4738987642 -0.2945995146 -0.1442523991 0.1024369504
280298320.0 -0.1261505926 0.113837919 0.4701932002 -0.2995286831 0.4702571187 -0.3003157037 -0.1433489087 0.1037934545
285298290.0 -0.1246515182 0.1153853069 0.4669811518 -0.3051122904 0.466787653 -0.3053818582 -0.1423960414 0.1051044091
290298260.0 -0.1234965358 0.1170232324 0.4635573418 -0.3107851634 0.463458399 -0.3107746161 -0.1409182578 0.1066033109
295298230.0 -0.1223458896 0.1181395614 0.4605270746 -0.3160094006 0.4601951 -0.3157847903 -0.1399773389 0.1079073785
300298200.0 -0.1208631953 0.119494343 0.4564198123 -0.3212818172 0.4571263741 -0.3211319508 -0.1392334942 0.1094215519
305298170.0 -0.1195063557 0.1206223054 0.4536349355 -0.3264944174 0.4542547973 -0.3264530721 -0.1378401957 0.1111746052
310298140.0 -0.1182228531 0.1219218325 0.4502831221 -0.3317244142 0.4500830172 -0.3319727048 -0.1369334285 0.1126384472
315298110.0 -0.1170572173 0.123117641 0.446175391 -0.3367215989 0.4463616409 -0.3369674666 -0.135586058 0.1132567868
320298080.0 -0.1156134468 0.1247517358 0.4423733392 -0.3422231249 0.4424261481 -0.3423524177 -0.1346503979 0.1145410415
325298050.0 -0.1146057318 0.1254271312 0.4390187779 -0.3472504836 0.4387489754 -0.3468084175 -0.1337231701 0.1159489596
330298020.0 -0.1133768778 0.1267278955 0.4340106507 -0.3520640439 0.4346565048 -0.3524666387 -0.1328149711 0.1172405023
335297990.0 -0.1121255482 0.1282181934 0.4304786798 -0.3571009978 0.430747222 -0.3568129385 -0.1320604348 0.1183741874
340297960.0 -0.1114205211 0.129947164 0.426356053 -0.3617017425 0.4267846352 -0.3616820577 -0.1310745774 0.1198500664
345297930.0 -0.1099052954 0.1309613202 0.4223738737 -0.366126346 0.4223684202 -0.366198594 -0.1295493003 0.1212966931
350297900.0 -0.1083247746 0.1326742531 0.4183306918 -0.3707701279 0.4185492919 -0.371143219 -0.1285585302 0.1232281464
355297870.0 -0.107048824 0.1336779724 0.4138071026 -0.3755654875 0.4143135364 -0.3757299947 -0.1278134066 0.1243669956
360297840.0 -0.1056427701 0.1351698269 0.4102709933 -0.3806526401 0.4098706192 -0.3801826444 -0.1267330505 0.1257247742
365297810.0 -0.1042142661 0.1363980362 0.4059498372 -0.3845034526 0.4057257909 -0.3849518637 -0.1254185275 0.1278033819
370297780.0 -0.1025078215 0.1377229569 0.4015601302 -0.3889984772 0.4015173873 -0.3892727353 -0.1242990272 0.1288917383
375297750.0 -0.1012801639 0.1394304499 0.3980081085 -0.3935646797 0.3972449678 -0.3935211472 -0.122753063 0.1302613748
380297720.0 -0.0996538206 0.1401415677 0.392868847 -0.3978525084 0.3927150662 -0.3974993482 -0.1216184646 0.1318739694
385297690.0 -0.0980162996 0.1414560298 0.3882534626 -0.4015339746 0.3882734267 -0.402083306 -0.1205258477 0.1331933953
390297660.0 -0.0966558479 0.1429268723 0.3838773311 -0.4066180547 0.3839841228 -0.4064954795 -0.119165938 0.1341787674
395297630.0 -0.0947699307 0.1439700251 0.3799105087 -0.4104097122 0.3794342682 -0.4106050601 -0.1180240007 0.1362302465
400297600.0 -0.0936294613 0.1454099721 0.3751864011 -0.414651477 0.375490898 -0.4147932713 -0.1171755391 0.1368493003
405297570.0 -0.0918284738 0.1464939617 0.3708499168 -0.418987425 0.3708981047 -0.419033395 -0.1158448526 0.1387843532
410297540.0 -0.0899503821 0.1475343067 0.3653348701 -0.422928912 0.365646771 -0.4225631451 -0.1142464863 0.1397858505
415297510.0 -0.0883935862 0.148879893 0.3608765104 -0.4265744353 0.3611686264 -0.4268177489 -0.1132840945 0.1416624756
420297480.0 -0.0869429022 0.1494736785 0.3566631172 -0.4309922807 0.356329543 -0.4305431016 -0.1115083035 0.1421637614
425297450.0 -0.0848525377 0.1508073548 0.3516512156 -0.4348125354 0.35199633 -0.4344468644 -0.1103077394 0.1440371376
430297420.0 -0.0837427208 0.1522202574 0.3470121971 -0.4388930711 0.3470777665 -0.4384414862 -0.1091432646 0.1449154283
435297390.0 -0.0816889814 0.1531498668 0.3421380543 -0.4420736801 0.3421756123 -0.4418689058 -0.1077261849 0.1466896717
440297360.0 -0.0801083772 0.1540576091 0.3370951567 -0.4456285468 0.3370735398 -0.4457069934 -0.106356849 0.1471743513
445297330.0 -0.0779694596 0.1552274974 0.331699672 -0.4495241621 0.3319400587 -0.4493147114 -0.104946588 0.1485815404
450297300.0 -0.0761232273 0.1560171165 0.32684408 -0.4524916599 0.327651732 -0.4528912503 -0.1039608861 0.1500801592
455297270.0 -0.0747180192 0.1570535452 0.3228479904 -0.4567548764 0.3228563992 -0.4563868435 -0.1021433796 0.1512609376
460297240.0 -0.0731358288 0.1580612023 0.3176234131 -0.4600078004 0.3173228996 -0.4599710294 -0.1005332832 0.1526638914
465297210.0 -0.0709904401 0.1590469722 0.3123184874 -0.4636714265 0.3129635308 -0.4634607907 -0.0996979637 0.1533794357
470297180.0 -0.069553335 0.1600634624 0.3075940297 -0.4668788801 0.3079201679 -0.4667376704 -0.0986719209 0.1545610196
475297150.0 -0.0679217371 0.1606726947 0.3019588417 -0.4698617777 0.3026470172 -0.4697469337 -0.0968141554 0.1556840279
480297120.0 -0.0656496903 0.1613019826 0.2967876035 -0.4733546594 0.2972924365 -0.4733674862 -0.0952793817 0.1572081389
485297090.0 -0.0637749318 0.1622804692 0.291818176 -0.4763583238 0.2920607003 -0.4766859564 -0.093747712 0.1577853263
490297060.0 -0.0621616937 0.163188218 0.2870031295 -0.479740351 0.2866657379 -0.47988356 -0.0922119987 0.1592244416
495297030.0 -0.0606124838 0.1641350248 0.2812108548 -0.4830112134 0.2811490364 -0.4826159208 -0.0903965157 0.1602155969
500297000.0 -0.0582333399 0.1644863602 0.2759682961 -0.4858105959 0.2765135547 -0.4856742758 -0.0893680945 0.1612397931
505296970.0 -0.0569902799 0.1654410508 0.2703633563 -0.4877789453 0.2707383263 -0.4886349297 -0.0881697981 0.1625234259
510296940.0 -0.0548189818 0.1665129867 0.265511347 -0.4917191656 0.265613577 -0.4916970406 -0.0862834189 0.1636029774
515296910.0 -0.0533451595 0.1671972489 0.2597638029 -0.4941098152 0.2601708217 -0.4941914298 -0.0849681669 0.1644643867
520296880.0 -0.0512311334 0.1677403181 0.2542817817 -0.4970075007 0.2548473827 -0.4968630371 -0.083076372 0.1656619551
525296850.0 -0.0494093049 0.1682554936 0.24900607 -0.499908392 0.2494250954 -0.4997351747 -0.0811313133 0.1663431671
530296820.0 -0.0473689417 0.1690657845 0.2442098965 -0.5020306098 0.2437813718 -0.5023491041 -0.0803112758 0.1669299078
535296790.0 -0.0457701459 0.1697705274 0.2381714098 -0.5047460388 0.238762298 -0.5046764716 -0.0782374352 0.1678011453
540296760.0 -0.0435835747 0.1698867261 0.23268974 -0.5076945438 0.232572908 -0.5075675342 -0.0773556399 0.1691397473
545296730.0 -0.041911161 0.1709345881 0.2272761901 -0.5097972241 0.2273669107 -0.510197003 -0.0754311701 0.1696000831
550296700.0 -0.0400979716 0.171496035 0.2218223869 -0.5123734668 0.2224395826 -0.5128038687 -0.073894094 0.1711791518
555296670.0 -0.037987965 0.1720575666 0.2161248939 -0.5148071128 0.2164503863 -0.5148659966 -0.0724181253 0.1719216514
560296640.0 -0.0361263026 0.1726502949 0.2109230268 -0.5168541294 0.2110499659 -0.516549954 -0.0705805837 0.172688969
565296610.0 -0.0345394399 0.1729441394 0.2049555833 -0.5191398942 0.204598925 -0.5192376436 -0.0690566192 0.173479153
570296580.0 -0.0320542249 0.1735964477 0.1994270128 -0.5213889715 0.1997052837 -0.5214926214 -0.0673000485 0.1748989352
575296550.0 -0.0302746593 0.1744467328 0.1936610923 -0.5234252348 0.1942785735 -0.5229636132 -0.0655904083 0.1753007093
580296520.0 -0.0283387195 0.1746021731 0.1884543505 -0.5256209933 0.1883122933 -0.5253700355 -0.0638825895 0.1758490961
585296490.0 -0.0265507606 0.174974774 0.1828336666 -0.5274669108 0.182569074 -0.527149235 -0.0624404942 0.1761307557
590296460.0 -0.0250555244 0.175092014 0.1765560756 -0.5292457849 0.1765760371 -0.5296483828 -0.0605354224 0.1773197245
595296430.0 -0.0225987255 0.1759985906 0.1709971677 -0.5310539169 0.1709703127 -0.5314290042 -0.0588615412 0.1779687779
600296400.0 -0.0209295524 0.1763270183 0.1655754092 -0.5330227206 0.1656012149 -0.5330617737 -0.0571205013 0.1788546781
605296370.0 -0.0186247927 0.1768446597 0.1596312976 -0.5349184869 0.1594593799 -0.5347936139 -0.0555424226 0.179696428
610296340.0 -0.0169243056 0.1770183647 0.154088627 -0.5366520749 0.1536812162 -0.5366291484 -0.0535821199 0.1805442449
615296310.0 -0.0148882649 0.1774036622 0.1478739984 -0.5380174872 0.1479948427 -0.538506432 -0.0521035237 0.1810731647
620296280.0 -0.0126803218 0.1777675454 0.1421343861 -0.5394564501 0.1424102282 -0.5394622668 -0.0503463528 0.1813500014
625296250.0 -0.0107713619 0.1780801184 0.1357816411 -0.5409729855 0.1361528627 -0.5414752907 -0.0484400078 0.1826536597
630296220.0 -0.0087320615 0.1784080677 0.1299014792 -0.5426367684 0.1307434552 -0.5424665696 -0.0471179138 0.1831815904
635296190.0 -0.0069566613 0.1784672447 0.1244900763 -0.5434879501 0.1243226736 -0.5432176105 -0.0453031134 0.1835307232
640296160.0 -0.0048216934 0.1786323891 0.1184378304 -0.5449183268 0.1183995315 -0.5450937092 -0.0430971102 0.1840253212
645296130.0 -0.0029390214 0.1792652048 0.112956787 -0.5467613767 0.1126791599 -0.5463719429 -0.0420617375 0.1844868395
650296100.0 -0.0009159231 0.1795594752 0.1070981025 -0.5473532632 0.1072842255 -0.5472570786 -0.0402811644 0.1854812215
655296070.0 0.0009436692 0.1792523357 0.1009369263 -0.5483536499 0.1006885669 -0.5483444128 -0.0377346283 0.186193913
660296040.0 0.0027123629 0.1800110009 0.0949881649 -0.5492450133 0.0953883153 -0.5495017165 -0.0366297042 0.1864483065
665296010.0 0.0051578379 0.179633151 0.0890459675 -0.5502349418 0.0896324525 -0.5504854174 -0.0349420635 0.1873138614
670295980.0 0.0072599815 0.1795884898 0.0829504788 -0.5510194582 0.083379731 -0.5514198926 -0.0333423079 0.1872844846
675295950.0 0.0091816413 0.1798205785 0.077372067 -0.5521371739 0.0774660552 -0.5525660142 -0.0309066083 0.1880890669
680295920.0 0.0112132112 0.1800238281 0.0709389385 -0.5532512754 0.071320696 -0.5530914722 -0.0293078236 0.1882225827
685295890.0 0.0132219577 0.1801596978 0.0655397696 -0.5536297789 0.0651083386 -0.5538671462 -0.0274913133 0.1888064878
690295860.0 0.0154802298 0.1801533633 0.0590109393 -0.554080088 0.0591859633 -0.554143555 -0.0253945299 0.1894091747
695295830.0 0.0176525645 0.1797219319 0.052541693 -0.554671419 0.0528575118 -0.5550655403 -0.0242523121 0.189902432
700295800.0 0.0193423221 0.1799538291 0.0470835131 -0.5552867221 0.047392283 -0.5557350833 -0.0223364874 0.189699669
705295770.0 0.021596011 0.1799334016 0.041214032 -0.5560150762 0.0416906472 -0.5560168689 -0.0206683916 0.1903306742
710295740.0 0.023357328 0.180154559 0.0350760942 -0.5565512352 0.0351651871 -0.5559298808 -0.0193370976 0.1908247082
715295710.0 0.0253900016 0.1797699562 0.0290477287 -0.5566886653 0.0295061471 -0.5565883333 -0.0169377018 0.1905876817
720295680.0 0.0272938176 0.1794199651 0.0230561471 -0.5566390994 0.0234912675 -0.5573917738 -0.0150480872 0.1916087691
725295650.0 0.0296880433 0.1793803397 0.0168023009 -0.5569199978 0.0173263896 -0.5571634088 -0.0132351202 0.1919510557
730295620.0 0.0312811925 0.178984273 0.0107484716 -0.556945122 0.0110700975 -0.5570464311 -0.0111758804 0.1917288657
735295590.0 0.0337756952 0.1789010072 0.0055262465 -0.557245882 0.0055573798 -0.5570068771 -0.009383402 0.1922600992
740295560.0 0.0356465797 0.1788412822 -0.0010753629 -0.5565670826 -0.0005614247 -0.5571077871 -0.0077201251 0.1921519555
745295530.0 0.0374596602 0.1782769467 -0.0065244004 -0.5568193632 -0.0066202836 -0.5573328559 -0.0061601275 0.1927029154
750295500.0 0.0393887748 0.1780840792 -0.0125472983 -0.5562366828 -0.0124928781 -0.5568240148 -0.0041387254 0.1925758809
755295470.0 0.0419725575 0.1779289812 -0.0187190878 -0.556510644 -0.0184161823 -0.5567964702 -0.0025689683 0.1929756289
760295440.0 0.0434184084 0.1777457312 -0.0247260235 -0.5562894359 -0.0247715295 -0.5563984646 -0.000791902 0.1930468628
765295410.0 0.0451769031 0.1770399972 -0.0304994506 -0.5559530643 -0.0304586042 -0.5565125227 0.001981818 0.1936003276
770295380.0 0.0477444519 0.1769653226 -0.0368880238 -0.5556087634 -0.0367176312 -0.5557997316 0.0038324217 0.1934167782
775295350.0 0.0494090054 0.1765798477 -0.0426745784 -0.5550221641 -0.0425030518 -0.5551038557 0.0048958403 0.1928951117
780295320.0 0.0515948089 0.1759127976 -0.0486222126 -0.5546182869 -0.048199171 -0.5549064475 0.0071860134 0.1937905271
785295290.0 0.053470364 0.1757685766 -0.0547836589 -0.5531062144 -0.0543344965 -0.5541193594 0.008445401 0.1936246172
790295260.0 0.0554252073 0.175445092 -0.0601048514 -0.553668145 -0.0602786385 -0.5538193519 0.0107289143 0.193442278
795295230.0 0.0573341839 0.175070267 -0.0660818107 -0.5523940752 -0.0660802878 -0.5529010532 0.0128901193 0.1941971003
800295200.0 0.0593138137 0.1745376378 -0.0724201852 -0.5521743792 -0.072356728 -0.5524431158 0.0143211684 0.1937091636
805295170.0 0.0611064495 0.1738338603 -0.0783176609 -0.5507754376 -0.0781328484 -0.5509798636 0.0159434723 0.1932951568
810295140.0 0.0631845663 0.1733470849 -0.0840584543 -0.5499586655 -0.0837687916 -0.5505152307 0.0182490864 0.1942427502
815295110.0 0.0649376703 0.1730567781 -0.0901425344 -0.5491071547 -0.0901642627 -0.5489898176 0.0197245804 0.1936418645
820295080.0 0.0671825625 0.1717540986 -0.095843012 -0.5479421643 -0.0957770081 -0.5485384975 0.0216911784 0.1938428595
825295050.0 0.0690695929 0.1716205669 -0.1017828242 -0.5469642762 -0.1018346501 -0.5472581604 0.0240512807 0.1937392494
830295020.0 0.0709562477 0.1709885953 -0.1077214103 -0.5457084236 -0.1082842723 -0.546212867 0.0255301873 0.1935896784
