!Created with skrf (http://scikit-rf.org).
# Hz S RI R 50.0 
!freq ReS11 ImS11 ReS21 ImS21 ReS12 ImS12 ReS22 ImS22
300000.0 -0.0431771339 -0.0685656923 -0.0014323948 -0.0017658595 0.000539002 0.0007433554 -0.7674860979 -0.179613968
5299970.0 -0.0460929008 0.0145845955 -1.53952e-05 1.9219e-05 0.0001521749 -7.31851e-05 -0.7845172608 -0.0091171055
10299940.0 -0.0405934473 0.0331863165 3.91572e-05 0.000155259 -2.4777e-06 -8.26042e-05 -0.787712329 -0.0053596258
15299910.0 -0.0316411949 0.0476034158 7.15795e-05 -9.04916e-05 1.8108e-06 0.0001402011 -0.7931679464 -0.0024016133
20299880.0 -0.021538896 0.0595488743 6.9e-07 -3.17977e-05 -0.0001592497 -3.22154e-05 -0.7993568541 0.0016048564
25299850.0 -0.0099685818 0.0688513429 0.0002080871 -6.529e-06 3.77776e-05 -2.973e-06 -0.8059228227 0.0079438488
30299820.0 0.0013775087 0.0754498201 -0.0001765446 1.1109e-06 -0.0001395694 -3.53238e-05 -0.8120254087 0.0155721861
35299790.0 0.0132104536 0.0801854953 0.0001549064 0.000373419 -7.4843e-05 -3.97966e-05 -0.8168198952 0.0248191874
40299760.0 0.0246059072 0.083168349 -0.0001035116 -6.57971e-05 -0.0001000836 -0.0001668677 -0.8215420667 0.0340052514
45299730.0 0.0351278375 0.0843239687 8.47592e-05 0.0001334194 0.0002145712 -0.0002678968 -0.8241595415 0.0436687234
50299700.0 0.0455147366 0.0841845929 2.68497e-05 3.97094e-05 1.36006e-05 3.97758e-05 -0.8264843834 0.0539312012
55299670.0 0.0547571126 0.0835584415 7.73551e-05 -5.393e-06 -0.000130286 -9.03318e-05 -0.8285799376 0.0640692269
60299640.0 0.0632850311 0.0815132265 -0.0001719914 5.48583e-05 -0.0001496527 5.92653e-05 -0.8299208148 0.0741445273
65299610.0 0.0713529752 0.079327749 0.0001578123 2.71179e-05 -2.14491e-05 -0.0001244856 -0.8306440777 0.0837310956
70299580.0 0.0779982505 0.0762334128 -4.5038e-05 0.0001613053 -4.00574e-05 2.68472e-05 -0.8312075532 0.0934166664
75299550.0 0.0844459545 0.0732658001 0.0001515372 -2.94853e-05 -2.28105e-05 -5.27912e-05 -0.8311034981 0.1038333167
80299520.0 0.0901201585 0.0694883667 0.0001463529 -0.0002179764 -6.22103e-05 -1.08088e-05 -0.8308591845 0.1137600125
85299490.0 0.0954908617 0.0657757403 -0.0001890164 4.89984e-05 -4.78993e-05 -0.0002184538 -0.8301972204 0.1232792088
90299460.0 0.1005475038 0.0620584454 9.16108e-05 -6.67083e-05 8.4921e-05 7.85794e-05 -0.8293459118 0.1327899996
95299430.0 0.1043876191 0.0581652404 7.87982e-05 0.000140595 -0.0001220599 1.96524e-05 -0.8281589297 0.1425161897
100299400.0 0.1082738289 0.0542792416 2.56505e-05 0.0001671388 0.0001323867 -3.34007e-05 -0.8270505435 0.1517797152
105299370.0 0.1115773515 0.0503606501 0.0001013407 2.00182e-05 -5.91515e-05 -5.9271e-06 -0.8258856016 0.1609232458
110299340.0 0.1145476841 0.046435332 -7.75052e-05 -7.25886e-05 0.0001660001 -3.16841e-05 -0.8246563834 0.1690743582
115299310.0 0.1169615229 0.042720644 3.3e-05 0.0001341749 -1.9493e-06 9.75939e-05 -0.8232412591 0.1793063386
120299280.0 0.1193312191 0.0389124049 4.86605e-05 0.0001448553 -0.0001755167 9.29297e-05 -0.820981545 0.1880396885
125299250.0 0.1212550706 0.0352452606 3.1998e-06 0.0001073824 1.2057e-06 0.0001037907 -0.8200424733 0.1970658528
130299220.0 0.1231794166 0.0312491342 7.07465e-05 0.0002229327 9.0838e-05 2.7933e-05 -0.8178348639 0.2058119017
135299190.0 0.1248941788 0.0276429018 9.32462e-05 -0.0001365417 7.36102e-05 -5.6974e-05 -0.8161010172 0.2151486073
140299160.0 0.126003154 0.0244679585 -3.1914e-06 8.61292e-05 7.97581e-05 5.0646e-06 -0.8140524343 0.2232345019
145299130.0 0.1274863252 0.0211656226 -8.61746e-05 4.91979e-05 0.0002859211 0.0001053354 -0.8120709265 0.2326858572
150299100.0 0.1281081989 0.0176222645 0.0002599789 -4.6801e-05 0.0001349983 -6.18961e-05 -0.8097629495 0.2416440229
155299070.0 0.1289453406 0.0145981356 5.01477e-05 -0.000110548 0.0002152112 0.0002929643 -0.8073247608 0.250339621
160299040.0 0.1295830487 0.0115599701 8.86254e-05 -4.95276e-05 0.00018283 0.0001628021 -0.8047767922 0.2585583584
165299010.0 0.1303321507 0.0086072362 0.0002479758 0.0001431569 -3.86801e-05 3.33773e-05 -0.8020936843 0.2673615904
170298980.0 0.1308912455 0.005242452 -2.12164e-05 -1.86976e-05 -8.85614e-05 3.99767e-05 -0.7997048105 0.2756935841
175298950.0 0.131146066 0.0024341244 -0.0001230152 0.0002623469 0.0003127604 0.0002040477 -0.7964305699 0.2848666393
180298920.0 0.1314321992 -0.0002337829 6.29122e-05 -1.65395e-05 5.97629e-05 7.25471e-05 -0.7936314041 0.2931202919
185298890.0 0.1316102775 -0.0032693212 0.0001230484 -2.62078e-05 4.41028e-05 0.0001078481 -0.7905663139 0.3019330677
190298860.0 0.131712398 -0.0059375077 0.0002113981 -4.15383e-05 0.0001302345 -0.0002363071 -0.7876866762 0.3101157381
195298830.0 0.1318766096 -0.008105685 5.50356e-05 0.0001983368 -6.05926e-05 9.54281e-05 -0.7843640765 0.3180228609
200298800.0 0.1317540072 -0.0108479627 -0.0003165195 -1.35903e-05 9.1488e-05 0.0002336908 -0.7806293917 0.3265826229
205298770.0 0.1313823063 -0.0136352834 0.0001218262 5.90902e-05 -4.92083e-05 8.69945e-05 -0.7779820532 0.3351922727
210298740.0 0.1315152388 -0.0160446952 2.61671e-05 -7.04776e-05 0.0002404891 0.0002128169 -0.774158609 0.3431805809
215298710.0 0.1308932506 -0.0186792985 2.69468e-05 6.08961e-05 -2.20017e-05 0.0003276267 -0.7706139476 0.3513478953
220298680.0 0.13106935 -0.0210028403 -4.33736e-05 -6.01955e-05 0.000117259 0.0001479081 -0.7668152191 0.359454965
225298650.0 0.1305316626 -0.0232049126 8.03472e-05 0.0002365868 2.1024e-05 0.0001395397 -0.7629770848 0.3677454728
230298620.0 0.1299640663 -0.0253567554 0.0002054167 0.0002300961 1.0823e-05 0.000177041 -0.7590819082 0.3754063693
235298590.0 0.1294657836 -0.0275358315 0.0003382472 4.17312e-05 0.0001514958 8.44578e-05 -0.7552072935 0.3829835246
240298560.0 0.1288694956 -0.0296115721 0.0001705572 0.0002089418 -2.69674e-05 -7.555e-05 -0.7506568026 0.390818964
245298530.0 0.1283389614 -0.032061748 -5.02867e-05 8.71857e-05 -2.92381e-05 0.0001955386 -0.7473334819 0.3991177553
250298500.0 0.1276957385 -0.0339086732 -9.27411e-05 -3.90517e-05 0.0001709208 4.11358e-05 -0.7430194204 0.4071458319
255298470.0 0.1273035019 -0.0358823737 6.22523e-05 -0.0002396733 3.49609e-05 0.0002148572 -0.7387404332 0.4148049803
260298440.0 0.1267879508 -0.0380290856 -2.4486e-05 1.8255e-05 -0.0001301918 0.0002109602 -0.7343837939 0.4219106661
265298410.0 0.1256785392 -0.039722677 -4.80262e-05 0.0002554591 5.86228e-05 7.77841e-05 -0.7294782056 0.4299512243
270298380.0 0.1248246065 -0.0416761176 0.0002305266 0.0004262156 0.0001698706 0.0001286353 -0.7255517019 0.437706109
275298350.0 0.1242997016 -0.0434376381 0.0001792756 -3.66585e-05 0.0001693736 2.51054e-05 -0.7204108888 0.4454215657
280298320.0 0.1233086902 -0.0454440835 3.53219e-05 0.0003204299 0.0001152093 -1.02145e-05 -0.7166491948 0.4525280911
285298290.0 0.1226137158 -0.0472402122 0.0003319516 6.9683e-05 -3.85784e-05 0.0001844368 -0.7120021192 0.4605099021
290298260.0 0.1218854928 -0.0488613982 -6.86343e-05 0.000103619 -0.0001409816 0.0002323475 -0.7064752825 0.4677204399
295298230.0 0.1211221203 -0.0510065964 -0.0001809837 0.0001947779 0.0002497728 6.67932e-05 -0.7017824529 0.4747693518
300298200.0 0.1200180779 -0.0525231055 0.0001695026 -1.35446e-05 -8.4944e-06 0.0001006695 -0.6965529168 0.4820477275
305298170.0 0.1193574446 -0.0546320505 0.0002075026 -6.73383e-05 -9.48302e-05 -1.02078e-05 -0.6917004302 0.4892536824
310298140.0 0.1184988671 -0.0565664765 -5.15883e-05 0.0004656959 0.0001679891 0.0003483697 -0.6862671829 0.4972248363
315298110.0 0.117395228 -0.058385688 0.0002954218 -9.18515e-05 0.0002940504 0.0004658074 -0.6809962565 0.5036354299
320298080.0 0.1161031893 -0.0601737383 0.0002456274 0.0002660528 0.0001098195 0.0001881668 -0.6760703182 0.5104978866
325298050.0 0.1144230156 -0.0623120385 0.0003629255 0.0002030486 -5.78619e-05 0.0001767006 -0.6705708372 0.5177513301
330298020.0 0.1131609651 -0.0631470232 3.8159e-05 -8.45685e-05 0.0001497742 0.0001587841 -0.6650960368 0.5245757777
335297990.0 0.1122056769 -0.0649819919 0.0003328991 0.0001150349 8.56953e-05 0.0001692343 -0.6595078223 0.531626633
340297960.0 0.1109273866 -0.0661757948 0.0001349408 9.90778e-05 0.0001469977 -0.0001057662 -0.6539570436 0.5381950326
345297930.0 0.109744536 -0.06774816 0.0001692858 4.26054e-05 0.0001288643 7.62491e-05 -0.6489207443 0.5449187612
350297900.0 0.1085795347 -0.0689146703 0.0002439775 -3.42526e-05 0.0001753232 0.0002440983 -0.6434809499 0.5510538952
355297870.0 0.1073801118 -0.070516979 0.0002585536 0.000227645 0.0002575891 0.0002619911 -0.6368202312 0.5588246339
360297840.0 0.1060771116 -0.0718790739 9.60803e-05 1.64263e-05 0.0001537851 6.28005e-05 -0.6307812253 0.5649725135
365297810.0 0.105060437 -0.0730004629 0.000155405 0.0002545885 0.0001292381 0.0002385438 -0.6258606925 0.5707195226
370297780.0 0.1036781561 -0.0745206321 0.0001666103 0.0003358833 0.000276583 9.7766e-05 -0.6198367466 0.5773862804
375297750.0 0.1023796023 -0.0757551437 0.0002399458 0.0001119066 0.0002803402 5.29026e-05 -0.6130461469 0.5837772409
380297720.0 0.1014701612 -0.0765974979 0.0002343181 -8.92553e-05 0.000320527 5.38519e-05 -0.606947373 0.5903201913
385297690.0 0.1000761066 -0.0780991063 0.0001138704 0.0002589195 3.68604e-05 0.0001640182 -0.601526822 0.5966514996
390297660.0 0.0990381285 -0.0796956551 0.0002395488 0.0003247522 0.0001281628 6.74588e-05 -0.5942847824 0.6017597298
395297630.0 0.0979740248 -0.0808052448 0.0003020287 6.53111e-05 0.000346178 7.23207e-05 -0.5878815285 0.6075219417
400297600.0 0.0961525224 -0.0818671882 -4.55074e-05 5.2981e-06 0.000254983 0.0002929241 -0.5825089904 0.6138828553
405297570.0 0.0952133273 -0.0832840425 7.6284e-06 7.6061e-05 0.000202866 0.0002141469 -0.5752021694 0.6201414535
410297540.0 0.0941507482 -0.084281684 0.0001072309 3.04398e-05 0.0002078998 -7.1663e-06 -0.5693702312 0.6261661859
415297510.0 0.0926314655 -0.0852103253 0.000127966 0.0001442555 0.0001230154 -3.32673e-05 -0.563120811 0.631733062
420297480.0 0.0912002006 -0.0869995743 0.0002173005 0.0002680787 9.30591e-05 0.0002534764 -0.5561792021 0.6376786408
425297450.0 0.0903766279 -0.0878107685 -5.19003e-05 -8.89176e-05 0.0002814797 0.0001690208 -0.5496185246 0.6425989283
430297420.0 0.089084152 -0.0888828786 0.0001720315 0.0001102653 0.0002148265 3.0411e-05 -0.5432433926 0.6486914839
435297390.0 0.0877008753 -0.0900555989 0.000402837 -3.3805e-06 0.000242968 4.35071e-05 -0.5366682363 0.6540388553
440297360.0 0.0863334121 -0.090907778 0.0001873011 1.53444e-05 0.0002865947 0.0002667862 -0.5302246818 0.6590642109
445297330.0 0.0852371296 -0.0920105447 0.0002395883 0.0001887001 0.0002420373 6.316e-05 -0.5230887218 0.6643226397
450297300.0 0.083930305 -0.0931696614 0.0002845501 0.0001049077 0.0002025802 8.15741e-05 -0.515507369 0.6702448413
455297270.0 0.0824576297 -0.0940644545 0.0002489378 -5.15225e-05 0.0002107358 0.0001241079 -0.5086282815 0.6753806967
460297240.0 0.0815396106 -0.094773398 0.0001132124 0.0002201058 0.0002784608 2.53654e-05 -0.5024804057 0.6798682438
465297210.0 0.0800995828 -0.0958033303 0.0001865956 0.0001686582 0.0001962971 8.7036e-06 -0.4950976419 0.6859535622
470297180.0 0.0785749637 -0.0968538493 0.0001845272 -0.0001120003 0.0001302376 0.0002258231 -0.4874461793 0.690553927
475297150.0 0.0770928506 -0.0975504731 0.0003299129 -2.21312e-05 0.0001369661 0.0001556837 -0.4811795916 0.6951542941
480297120.0 0.0761504548 -0.0986108726 0.0003313498 0.0001188804 0.000306174 -5.9308e-06 -0.4741129923 0.7001341566
485297090.0 0.074950157 -0.0993435343 0.0002320367 0.0002829927 0.0002803006 7.54261e-05 -0.4667639247 0.704681034
490297060.0 0.0738855274 -0.1004702289 0.0003591879 0.0001711013 0.0005095998 0.0001149551 -0.4592605894 0.7089664774
495297030.0 0.0722001125 -0.1013812274 6.42941e-05 0.0001988167 0.0004093524 0.0002065634 -0.4523411785 0.7139817519
500297000.0 0.0709029707 -0.1019639066 0.0002868839 0.0001050921 0.0003508616 7.85793e-05 -0.444914892 0.7189639424
505296970.0 0.0697683906 -0.1027695336 0.0003523695 0.000122575 0.0002117139 0.0001875792 -0.4374368879 0.7227530616
510296940.0 0.0685543334 -0.1033994659 -4.03926e-05 -5.64043e-05 0.0002032207 -6.02628e-05 -0.4296175879 0.727396361
515296910.0 0.0670269167 -0.1037368563 0.000313087 0.0001072911 0.0002512696 -1.07281e-05 -0.4231734907 0.7310218226
520296880.0 0.0659594648 -0.1047553206 0.0002519867 4.56304e-05 0.0002304204 8.05894e-05 -0.4151865748 0.735999241
525296850.0 0.0644875602 -0.1055278477 0.0002235524 0.0001475276 0.0003082357 0.0001590557 -0.4080097279 0.7395396001
530296820.0 0.0629249941 -0.105853302 0.0001204698 9.69754e-05 0.0001607645 7.69292e-05 -0.4003995678 0.7432065481
535296790.0 0.0620574639 -0.1067043502 0.0001617395 8.02464e-05 0.0003438603 4.94097e-05 -0.3928013653 0.7477091408
540296760.0 0.060708616 -0.1073526797 7.57485e-05 2.44051e-05 0.0002738647 0.0001845333 -0.3846124469 0.7515737571
545296730.0 0.0587936115 -0.1074919294 0.0004012573 0.0001983891 0.0003741292 0.0001450482 -0.3773873082 0.7553610211
550296700.0 0.0577956316 -0.1080985844 0.0002267791 7.89585e-05 0.0004566094 6.6699e-05 -0.369884648 0.7596865125
555296670.0 0.0562953523 -0.1087157735 5.70082e-05 5.65124e-05 0.0002622468 -4.76863e-05 -0.3624476697 0.7626542635
560296640.0 0.0552979308 -0.109166072 0.0001316772 -0.0002033787 0.0002150918 0.0001027817 -0.3546966388 0.7662684819
565296610.0 0.0535438639 -0.1098090832 0.0002301884 -3.45351e-05 0.0002581126 0.0001154481 -0.3467484606 0.7694931956
570296580.0 0.0523844297 -0.1099052302 0.0003309274 2.00737e-05 0.0002005514 9.46805e-05 -0.3392029657 0.7731031728
575296550.0 0.0508366915 -0.110391795 0.0002765681 7.22194e-05 0.0002629271 1.01158e-05 -0.331033353 0.7764959174
580296520.0 0.0496313382 -0.1106344206 0.0004321035 0.0001071651 0.0003952172 9.81296e-05 -0.323467754 0.7794971756
585296490.0 0.0481517492 -0.1110218824 0.0003246988 3.81171e-05 0.0004607396 -5.82393e-05 -0.3150043395 0.7833314625
590296460.0 0.0472097663 -0.11147686 0.0003757621 5.12448e-05 0.0003230941 -5.4338e-06 -0.3071441397 0.7855854469
595296430.0 0.0456231078 -0.111725983 0.0003061922 -7.59036e-05 0.0003288656 0.0002580793 -0.2999936788 0.7892442896
600296400.0 0.0441663726 -0.1120375744 0.0002528496 0.0001144305 0.0002124626 -5.90007e-05 -0.2916971861 0.7918097221
605296370.0 0.0423423569 -0.1118626213 0.0001997129 0.0001169607 0.0003015276 -1.78943e-05 -0.2834214165 0.7947362494
610296340.0 0.0415878987 -0.1125169095 0.0001806783 2.28508e-05 0.0004187954 6.13713e-05 -0.2759246236 0.797592042
615296310.0 0.0404884467 -0.1127261252 0.0003610869 0.0002038997 0.0004302186 5.03502e-05 -0.26750947 0.8009980481
620296280.0 0.0384981976 -0.1127629967 0.0003163066 9.70802e-05 0.0004283128 4.82973e-05 -0.2598886694 0.803399437
625296250.0 0.0369552429 -0.1129820734 0.0003071602 -0.0001670189 0.0003053282 2.27005e-05 -0.2514485618 0.8055480697
630296220.0 0.0357295132 -0.1129112106 0.0004333516 0.0001461215 0.0002109196 3.62856e-05 -0.2436971256 0.8081208779
635296190.0 0.0343589315 -0.1127725461 0.000214852 7.9157e-05 0.0003899932 -9.55699e-05 -0.235452727 0.8100795881
640296160.0 0.0328765505 -0.1131272959 0.0003355775 9.13678e-05 0.0002760702 2.0879e-06 -0.2268738635 0.8126805115
645296130.0 0.0319674109 -0.1130748098 0.0004081799 0.000129691 0.0003570563 0.0001712989 -0.2192293442 0.8140820538
650296100.0 0.0302160488 -0.1131964278 0.0001344771 0.0002772476 0.0001255453 -0.0001888346 -0.2108073058 0.8170659714
655296070.0 0.0286988632 -0.1131598707 0.0003607792 -1.48597e-05 0.0003189309 -8.8658e-05 -0.2031235257 0.8188698105
660296040.0 0.0271518474 -0.1132417931 0.0004492805 0.0002031614 0.0003629316 -3.88135e-05 -0.1939491395 0.8210177086
665296010.0 0.0257257654 -0.1130599338 0.0002839048 2.65384e-05 0.0002114488 -0.0001563214 -0.1857819442 0.8224517984
670295980.0 0.0244116095 -0.1131631455 0.0003089975 -0.0001314015 0.0004486118 0.000138612 -0.1782396121 0.8240068543
675295950.0 0.0226321826 -0.113297945 0.0003011822 0.0001636279 0.0001895685 -0.0001084293 -0.1694924941 0.8260184234
680295920.0 0.021220228 -0.1129054196 0.0001395209 0.0001162562 0.0002393411 8.79029e-05 -0.1611852481 0.8276679454
685295890.0 0.0197386858 -0.1129682673 0.000518173 -0.0001304604 0.0002200598 2.0752e-06 -0.1527550772 0.8297130919
690295860.0 0.0183919756 -0.1129772844 0.0003577285 5.9213e-06 0.0003327507 -0.0001124704 -0.1452667555 0.831448636
695295830.0 0.0168682753 -0.112838174 0.0003451135 -0.0002541861 0.0005283512 -7.3024e-06 -0.1366879735 0.8326201294
700295800.0 0.0156011956 -0.1123807165 0.0004743994 -9.65333e-05 7.70181e-05 -9.8793e-05 -0.1285069329 0.8333355521
705295770.0 0.0139410433 -0.112446042 0.0002996744 -5.67279e-05 0.0003061493 1.10409e-05 -0.1199180387 0.8352794498
710295740.0 0.0126586843 -0.112138572 6.4286e-05 4.6519e-06 0.0002597235 8.58465e-05 -0.1112192342 0.8362492025
715295710.0 0.0111390572 -0.1119977508 0.0001677289 -0.0002825122 0.0004992692 -9.77466e-05 -0.1030317045 0.8364852969
720295680.0 0.0097019934 -0.1119810337 0.0004380861 8.58492e-05 0.0004228732 8.52856e-05 -0.0945222249 0.837859713
725295650.0 0.008254849 -0.1112681689 0.0002275477 0.0001819943 0.0003430528 0.0001294681 -0.0869007861 0.8395797646
730295620.0 0.0064661477 -0.1113389047 0.0004371669 3.90771e-05 0.0004113415 3.93038e-05 -0.0787073316 0.8402633549
735295590.0 0.0053664446 -0.1110312889 0.0003618563 6.84394e-05 0.0004042358 -9.51944e-05 -0.0693069619 0.840185097
740295560.0 0.0034821698 -0.1108412851 0.0002491659 -0.0001062956 0.0003204929 -0.0001160308 -0.0610828331 0.8413517303
745295530.0 0.0022765728 -0.1101930187 0.0003934952 2.23283e-05 0.0004068871 -9.63292e-05 -0.0529665815 0.8418123211
750295500.0 0.0004466154 -0.1100263135 0.0004015605 4.20946e-05 0.0004955433 1.2869e-05 -0.0446863917 0.8421574617
755295470.0 -0.0008710041 -0.1099580299 0.0003220682 -0.0002681002 0.0003572205 -5.08698e-05 -0.036653656 0.843071381
760295440.0 -0.0025145217 -0.1091795362 0.0001437913 6.0328e-05 0.0002464331 -0.0001170188 -0.0279118673 0.8431584108
765295410.0 -0.0035986593 -0.1092578967 0.0004143331 -0.0001058151 0.0004167505 -0.00020444 -0.0192609897 0.8428619623
770295380.0 -0.0052429775 -0.1088620259 0.0004324684 -0.0002787882 0.0003875775 1.85805e-05 -0.0112438343 0.8427397291
775295350.0 -0.0065812787 -0.1083371745 0.0004857474 9.57732e-05 0.0003462192 -6.5408e-05 -0.0027926975 0.8432838488
780295320.0 -0.008103653 -0.1077599772 0.0004139722 -0.0002212811 0.000253492 -2.27767e-05 0.0055909154 0.8434890324
785295290.0 -0.0093506364 -0.1077380382 0.0003158476 -0.0001084791 0.0002587152 -5.50927e-05 0.0135392753 0.8430348418
790295260.0 -0.0110722522 -0.1073692999 0.0005998539 -0.0001746835 0.0004389668 -0.0001172965 0.0219963445 0.842820426
795295230.0 -0.0124853048 -0.1069713655 0.0005576969 -1.61613e-05 0.0003104256 4.1696e-06 0.0302504477 0.8420250241
800295200.0 -0.0139976486 -0.1063457103 0.0004591493 0.0001054207 0.0003488899 -0.0001679323 0.0385132331 0.8423275407
805295170.0 -0.0155454166 -0.1061081178 0.0005113011 -0.0002253296 0.0003640864 -0.0001152591 0.0477528797 0.8414725577
810295140.0 -0.0169431052 -0.1052736076 0.0004581691 -0.0004489144 0.000479369 -6.418e-06 0.0559651667 0.8412372478
815295110.0 -0.0182166694 -0.1052293644 0.0003915335 -0.0002130674 0.0004764061 -0.0002651916 0.063578801 0.8411190224
820295080.0 -0.0197091695 -0.1044457545 0.0003184862 -0.0001990312 0.0005550322 -8.44476e-05 0.0716166073 0.8407152529
825295050.0 -0.0211695545 -0.1041305283 0.0002466221 -0.0001244101 0.000494874 -7.24362e-05 0.0803717394 0.839164002
830295020.0 -0.0226905384 -0.1036572085 0.0004999884 -0.0001935714 0.0003026574 -3.60459e-05 0.0886254372 0.8378985876
835294990.0 -0.0239866987 -0.1031466252 0.0004324002 -2.58876e-05 0.0003483364 -0.0002104055 0.0968779002 0.8376283756
840294960.0 -0.0254982773 -0.1027025088 0.0004887557 -0.0001381447 0.0004432673 -0.0002187872 0.1060755278 0.8365896762
845294930.0 -0.026742523 -0.1019887145 0.0004472579 -0.000147714 0.0003442445 -0.000128982 0.11416255 0.8351555686
850294900.0 -0.0276839104 -0.1017318861 0.0002805937 -4.12489e-05 0.0001056372 -7.41329e-05 0.1220001451 0.8346108385
