!Created with skrf (http://scikit-rf.org).
# Hz S RI R 50.0 
!freq ReS11 ImS11 ReS21 ImS21 ReS12 ImS12 ReS22 ImS22
300000.0 -0.7745620481 -0.1464386096 -0.0019598605 -0.0003681229 0.0002003362 0.0013522903 -0.7735641934 -0.1668713832
5299970.0 -0.7858077514 -0.0071715593 0.0001973275 9.14958e-05 7.79015e-05 -0.0001450235 -0.7850500706 -0.0085289525
10299940.0 -0.7875728736 -0.0040178182 4.75219e-05 -0.0001307858 -5.76009e-05 -6.32465e-05 -0.7885122929 -0.0053243614
15299910.0 -0.7933120645 -0.0015400398 7.88594e-05 6.66226e-05 -2.09742e-05 -5.972e-06 -0.7935194859 -0.0033351194
20299880.0 -0.7997153972 0.0027478831 0.0001721403 0.0001013351 6.81216e-05 -0.0001171966 -0.8005126918 0.0017422372
25299850.0 -0.8066731082 0.0085957346 0.0001816135 -0.0001062421 4.16511e-05 -7.69735e-05 -0.806942386 0.0074539933
30299820.0 -0.8120251252 0.016537535 -8.90636e-05 -7.75166e-05 -0.0001243057 -0.0001274445 -0.8130432805 0.0148826658
35299790.0 -0.8168783554 0.0248107518 -0.0002156295 -0.0001828562 7.6474e-06 -1.14833e-05 -0.8180525481 0.0238007936
40299760.0 -0.8212258196 0.0341054121 4.07481e-05 2.73561e-05 -0.0001689049 3.98722e-05 -0.8221331639 0.0333211257
45299730.0 -0.8247249412 0.0441819363 0.0001303426 1.75359e-05 -2.18741e-05 -2.26576e-05 -0.8254397984 0.0424703544
50299700.0 -0.8266905646 0.0537059614 -2.46726e-05 -0.0001311681 -0.0001215629 -0.0001206608 -0.8278215776 0.0525771978
55299670.0 -0.828791007 0.0642350467 0.000193548 0.000120493 -4.73559e-05 -0.0001155521 -0.8299429582 0.0631272711
60299640.0 -0.8295271613 0.074368187 -0.0001287387 5.32374e-05 -0.0001786035 -0.0001441997 -0.8312568671 0.0728627171
65299610.0 -0.8310943059 0.0847089003 -0.0001064335 -1.02629e-05 6.659e-06 5.30647e-05 -0.8315132874 0.0831098366
70299580.0 -0.8311543873 0.0947768407 1.94138e-05 -1.21964e-05 -4.74045e-05 0.0001908024 -0.8327495828 0.0926850067
75299550.0 -0.8316169442 0.1046658254 5.77818e-05 2.6931e-06 -8.12236e-05 5.10283e-05 -0.8322885491 0.1023723422
80299520.0 -0.8311562151 0.1145764506 -2.84744e-05 0.0001228474 -2.80975e-05 -6.5691e-05 -0.8322219999 0.1121578299
85299490.0 -0.831087889 0.1246102832 -9.50303e-05 -0.0003926375 -4.24385e-05 0.0002006077 -0.8320667596 0.1217289718
90299460.0 -0.8297533828 0.1338797876 8.97731e-05 -1.40491e-05 7.55063e-05 -5.29082e-05 -0.8305604051 0.131181688
95299430.0 -0.8286483235 0.1434480846 -8.09614e-05 9.78401e-05 -0.0001767227 -0.0001232247 -0.8300461919 0.1413670344
100299400.0 -0.8274512501 0.1529564812 0.0001145402 -0.0001573811 -9.9475e-05 0.000192665 -0.8286558785 0.1495801379
105299370.0 -0.8265798105 0.1619775392 -0.0001075827 -2.17656e-05 0.0001536395 9.01226e-05 -0.8276123034 0.1591055165
110299340.0 -0.825389581 0.1712609771 0.0002890092 -0.0001499136 -3.09446e-05 4.83148e-05 -0.8265036553 0.1682548331
115299310.0 -0.8237645913 0.1803845319 -3.1332e-06 -0.000226068 -4.61899e-05 0.0002190752 -0.8248234245 0.1769323757
120299280.0 -0.8220284353 0.1895065227 -7.30624e-05 -7.27396e-05 -4.911e-06 -0.0001072138 -0.8237100566 0.1860905857
125299250.0 -0.8207276228 0.1983292287 3.67478e-05 7.4951e-05 0.0001832434 -8.16622e-05 -0.8215397149 0.1954978366
130299220.0 -0.8185302186 0.2074805316 0.0001186521 2.66864e-05 -3.97245e-05 -7.8346e-05 -0.8200413078 0.2039919269
135299190.0 -0.8162191874 0.2164201842 -8.6664e-06 5.78987e-05 4.77322e-05 1.0132e-05 -0.8179156953 0.2126193844
140299160.0 -0.8142707771 0.2257071991 -4.37123e-05 -2.1403e-06 -0.0001066144 0.0001100463 -0.8158727754 0.2213002285
145299130.0 -0.8122050548 0.234699607 -3.74083e-05 5.3808e-05 5.31136e-05 -5.6285e-06 -0.8136182537 0.2303927365
150299100.0 -0.8101400958 0.2428559878 6.18089e-05 -0.0002464617 0.0001960126 -3.02938e-05 -0.8119336408 0.2383623357
155299070.0 -0.8076231156 0.252368977 8.39042e-05 -3.75643e-05 -0.0001288638 -1.1453e-06 -0.8097973536 0.2472428146
160299040.0 -0.8051228903 0.26130839 0.0001063799 -0.0001426 3.96736e-05 4.51393e-05 -0.8077211026 0.2568207051
165299010.0 -0.8023814129 0.2695593774 -4.76875e-05 9.1816e-05 -3.13135e-05 8.96129e-05 -0.8044375781 0.2648079015
170298980.0 -0.7996492074 0.2779485774 -0.0002510639 7.82512e-05 0.0001175216 -1.94647e-05 -0.8022376925 0.2733820807
175298950.0 -0.796684692 0.2874734447 0.0001134807 0.0001247364 -3.19895e-05 0.0001460406 -0.7992962527 0.2819739787
180298920.0 -0.7933516908 0.294778128 6.84445e-05 -6.5916e-06 -9.89425e-05 -0.000113051 -0.7959801693 0.2900323259
185298890.0 -0.7905326334 0.3041524909 2.07032e-05 4.548e-06 2.06251e-05 -4.05167e-05 -0.7929792274 0.2980284841
190298860.0 -0.7874497007 0.3121762374 -8.2218e-06 -3.00309e-05 -6.8518e-06 -0.0001117037 -0.7898936434 0.3074113848
195298830.0 -0.783821421 0.3207184712 0.0001140028 -3.8478e-05 -0.0002014773 -6.9558e-06 -0.786829108 0.3150216534
200298800.0 -0.7809459374 0.3294843486 0.0002477947 -0.0001204731 -1.42129e-05 -1.99988e-05 -0.7835879191 0.3241663797
205298770.0 -0.7773699218 0.3369633359 -5.62212e-05 -5.43197e-05 -0.0001142532 -0.0001399858 -0.7801986448 0.3325485234
210298740.0 -0.7733927351 0.3456729987 -0.0001566998 -3.70284e-05 -6.51549e-05 -8.48968e-05 -0.7768993844 0.3404145244
215298710.0 -0.7698813005 0.3540863407 2.84989e-05 -7.24763e-05 -7.47025e-05 4.91818e-05 -0.7736570794 0.3481801663
220298680.0 -0.7672311759 0.3623050348 0.0003100993 6.66582e-05 0.0001383663 3.56667e-05 -0.769804556 0.3570097976
225298650.0 -0.7629894166 0.370508425 0.0001725204 0.0001199833 7.42912e-05 6.40185e-05 -0.7663568072 0.3646090356
230298620.0 -0.7584616644 0.3789030299 -0.0001568089 0.0001617774 3.88911e-05 0.0001140975 -0.7617771602 0.3727739166
235298590.0 -0.7546679265 0.3874665443 5.15947e-05 6.744e-07 5.53644e-05 -0.0001094573 -0.7583936387 0.3805252955
240298560.0 -0.7510896821 0.3948061698 4.9592e-05 0.0001205682 6.40613e-05 4.56278e-05 -0.7545004485 0.3886217298
245298530.0 -0.7460015025 0.403203064 3.90848e-05 4.16877e-05 -6.4904e-06 0.0002430445 -0.7503422813 0.3963793681
250298500.0 -0.7424211413 0.410710604 4.72673e-05 -0.0001951935 -3.52689e-05 4.75683e-05 -0.7460141201 0.4044677329
255298470.0 -0.7377952196 0.4185282903 -0.0001599166 9.364e-07 -7.12953e-05 6.60819e-05 -0.7416822496 0.412511484
260298440.0 -0.7337334874 0.4259072142 -2.60363e-05 -0.0002035582 -0.000227593 -3.07839e-05 -0.7372251347 0.4204069837
265298410.0 -0.729253388 0.4342651747 -0.0002141226 5.72805e-05 0.0001553428 3.04997e-05 -0.733041544 0.427354717
270298380.0 -0.7246305269 0.441468928 0.000288858 0.0001211814 -0.0001720678 -7.51525e-05 -0.7281297179 0.4350025682
275298350.0 -0.7194615866 0.4489173083 -0.0001938509 -4.99797e-05 -9.9449e-06 -8.7296e-06 -0.7230728914 0.4430836941
280298320.0 -0.7150481497 0.4559984392 -0.0001262769 1.00835e-05 5.89427e-05 -0.0001363189 -0.7191037964 0.4502093793
285298290.0 -0.7107231621 0.4645497235 0.0001130953 -8.44096e-05 -1.23292e-05 8.6254e-06 -0.7136042033 0.4577276424
290298260.0 -0.7057204258 0.4720356683 -0.0001737161 -0.0002537045 -6.47652e-05 1.76954e-05 -0.7092850656 0.465724584
295298230.0 -0.7002930199 0.479065329 2.85644e-05 7.59053e-05 7.33978e-05 0.0001208151 -0.7040245648 0.4730832597
300298200.0 -0.69495512 0.4861286743 8.4867e-05 -9.191e-06 -0.0001212024 9.70605e-05 -0.6990474217 0.4800978208
305298170.0 -0.6897364081 0.4940725368 0.0001552366 -5.1016e-06 -7.777e-06 0.0001010964 -0.6934162219 0.4874645236
310298140.0 -0.6841528304 0.5009536996 -0.0001774322 5.66447e-05 -0.0002135676 7.56509e-05 -0.6888670275 0.4947548033
315298110.0 -0.6792782073 0.5079699175 -0.0001516744 0.0004606349 0.0001698831 -0.000102147 -0.683529205 0.5020485358
320298080.0 -0.6742528331 0.5158629537 6.31158e-05 4.77296e-05 -4.05218e-05 -4.11443e-05 -0.6782493745 0.5097220869
325298050.0 -0.6683383876 0.5217319045 -7.1513e-05 -0.0001035747 0.0001216526 -0.0001325699 -0.6721919999 0.5164576757
330298020.0 -0.6628511532 0.5290518276 6.35346e-05 -0.000100438 2.22959e-05 -1.35149e-05 -0.6673290703 0.5232561949
335297990.0 -0.6571037556 0.5358912326 9.56405e-05 5.43631e-05 -1.08749e-05 8.4076e-06 -0.6615032107 0.5302799203
340297960.0 -0.6519421301 0.5423376761 0.0003917826 0.0001899903 5.81636e-05 4.82324e-05 -0.6556823443 0.5369580015
345297930.0 -0.6462052298 0.54883804 -2.41482e-05 -6.52386e-05 5.8385e-06 -2.98845e-05 -0.6500456727 0.5441587417
350297900.0 -0.6402084743 0.5555531864 -4.5497e-06 -0.0001420498 -5.30523e-05 -8.88319e-05 -0.644167866 0.5511550042
355297870.0 -0.6345153527 0.5625292463 0.0001877991 -0.0002748675 -0.0001225185 -3.68611e-05 -0.6381986732 0.5573677015
360297840.0 -0.6283421814 0.5692159547 0.0002220959 -0.0001706657 -5.70408e-05 5.55984e-05 -0.6327642917 0.5637862778
365297810.0 -0.6222852434 0.5755104304 0.0001889429 0.0001772342 0.0001069709 0.000112543 -0.6264233665 0.5708434964
370297780.0 -0.6161477172 0.5812621436 -0.0002054346 -6.59058e-05 6.3209e-05 -1.2742e-05 -0.6208570226 0.576569941
375297750.0 -0.6103678653 0.5877689778 0.0001540426 -0.0002321452 2.81479e-05 -4.13025e-05 -0.6148713865 0.5832687581
380297720.0 -0.6042609075 0.594824136 5.57452e-05 -0.0001681082 9.6456e-06 -4.62086e-05 -0.6082726082 0.5899612399
385297690.0 -0.5977438204 0.600864535 0.0001218667 1.76227e-05 -2.64264e-05 9.93515e-05 -0.6020566918 0.5962250218
390297660.0 -0.5915867991 0.6069719365 -6.64906e-05 -2.27789e-05 0.0001302708 -8.06116e-05 -0.5952345319 0.6016477613
395297630.0 -0.5853978989 0.6133116185 9.96716e-05 9.74838e-05 0.000180329 9.8282e-06 -0.5891819258 0.6080148291
400297600.0 -0.5786522422 0.6189561346 -1.86079e-05 5.38001e-05 0.0002366271 -5.38292e-05 -0.5830952362 0.6140022317
405297570.0 -0.5725378058 0.6253263065 2.70989e-05 2.71056e-05 0.0002707233 2.17637e-05 -0.5773553407 0.6193503997
410297540.0 -0.5661083579 0.6305376497 -0.0001380712 0.0001095527 6.37686e-05 0.0001016347 -0.5698640944 0.6255907583
415297510.0 -0.5592853463 0.636661939 0.0001389956 -7.1214e-06 3.12112e-05 -0.0001015753 -0.5637645297 0.6319457565
420297480.0 -0.5521678235 0.6424987914 5.41108e-05 -0.0001451979 -7.19422e-05 5.60917e-05 -0.5573233269 0.6366099783
425297450.0 -0.5459927116 0.647385654 6.8678e-06 -0.0002535868 -3.91153e-05 0.0001407037 -0.5504067176 0.6433233725
430297420.0 -0.539200547 0.653193532 8.2868e-06 2.44162e-05 5.99832e-05 -9.2046e-06 -0.5438797014 0.6485259927
435297390.0 -0.5319690293 0.6592978295 0.0001977622 -6.81073e-05 4.10269e-05 -7.37876e-05 -0.536977971 0.6534495024
440297360.0 -0.5255067446 0.6642544639 -5.63592e-05 -0.0002780221 3.38819e-05 5.31768e-05 -0.530566871 0.6586422091
445297330.0 -0.5181929234 0.669721242 -5.73688e-05 -0.0001490047 0.0001057157 0.0002253267 -0.5233833726 0.6641428271
450297300.0 -0.5112289002 0.6747406498 -0.0001327618 -6.74125e-05 -3.59122e-05 -5.34252e-05 -0.517297738 0.6696194997
455297270.0 -0.5045413796 0.6801610665 -0.0001732486 0.0001241605 4.1419e-05 8.62016e-05 -0.5100027073 0.6747861912
460297240.0 -0.4979211668 0.6854188893 0.0001217557 -0.0001397835 6.24424e-05 3.20685e-05 -0.5030044476 0.6801713572
465297210.0 -0.4903536987 0.6904013168 -0.0001103777 -7.5178e-06 -9.21329e-05 0.0001836457 -0.4966737402 0.6845787041
470297180.0 -0.4829039947 0.6943451388 -3.0453e-06 0.0002025787 -0.0001190683 9.61607e-05 -0.4894901081 0.6894757584
475297150.0 -0.475982863 0.699879525 2.37683e-05 3.92958e-05 -2.65429e-05 6.41545e-05 -0.4820665866 0.6946364849
480297120.0 -0.4689543766 0.7049101219 2.69186e-05 -3.0407e-05 4.74698e-05 5.12572e-05 -0.4756259168 0.7002696548
485297090.0 -0.4610810647 0.7093676212 -0.0001212163 -0.0001049237 0.0001097728 0.0001152937 -0.4681645543 0.7045917742
490297060.0 -0.4542977711 0.7137833238 -0.0001476303 8.14276e-05 -6.79519e-05 6.55845e-05 -0.4607821684 0.7087292896
495297030.0 -0.4471454988 0.7189912823 5.8799e-06 0.0001184087 -0.0001924407 -0.0001314331 -0.4535479049 0.7128212095
500297000.0 -0.4386182479 0.723143861 -0.0001618471 9.76327e-05 -0.0001142213 0.0001355587 -0.4470332933 0.7179235817
505296970.0 -0.4316759053 0.7272294723 9.00971e-05 -0.0001732499 0.0001021517 7.93541e-05 -0.4401943125 0.7223378151
510296940.0 -0.4245568749 0.7321915104 -6.19659e-05 -8.11787e-05 0.0001876546 5.42796e-05 -0.4320135526 0.7262829471
515296910.0 -0.4171957885 0.7363475662 -6.972e-07 -0.0001811915 -1.8749e-06 -2.03373e-05 -0.4247134861 0.7310587549
520296880.0 -0.4089042358 0.7400540505 -1.16704e-05 -2.4712e-05 0.0001105697 0.0001782377 -0.4176420394 0.7348414523
525296850.0 -0.4021712961 0.7444736977 -7.92621e-05 9.34031e-05 -2.059e-07 -7.0848e-05 -0.4100193146 0.7392266072
530296820.0 -0.3942008908 0.7486017636 3.67872e-05 0.0002368756 -0.0001145462 0.0002254484 -0.4035551131 0.7428895769
535296790.0 -0.3859268282 0.7517538309 0.0001028432 -0.0002694831 -0.0001177957 -3.11987e-05 -0.395815232 0.7466412104
540296760.0 -0.3781891318 0.7559580309 0.0001315536 3.85683e-05 0.0001112094 -6.16833e-05 -0.3884497365 0.750596658
545296730.0 -0.371403433 0.7593020661 -0.0001323367 -9.26331e-05 2.70541e-05 8.74202e-05 -0.3811899601 0.7544424056
550296700.0 -0.3635377539 0.7638889401 0.0002419653 -6.42548e-05 -8.11151e-05 -1.33237e-05 -0.3733586348 0.7583478301
555296670.0 -0.3548636677 0.7670172302 -0.000146434 2.48001e-05 -5.77143e-05 0.0001858505 -0.3659291925 0.7612560217
560296640.0 -0.346973223 0.7705899798 7.19418e-05 8.5254e-05 -0.000129925 -1.36598e-05 -0.3579819894 0.765557272
565296610.0 -0.3394670983 0.7741521395 -6.40722e-05 -0.0001283409 0.000119645 4.06667e-05 -0.3507947851 0.7689193635
570296580.0 -0.3318872907 0.7771172714 -3.40069e-05 -1.11429e-05 -9.61445e-05 -7.98514e-05 -0.3431985384 0.7725956243
575296550.0 -0.3239051201 0.7804723832 -0.0001261878 0.0001365639 -4.66207e-05 -6.5052e-06 -0.3352929472 0.7759141818
580296520.0 -0.3155136747 0.7841994462 0.0001412762 0.0001614051 6.55933e-05 -0.0001466247 -0.3276814713 0.7787908472
585296490.0 -0.3078676781 0.786235128 -0.0002056509 3.05654e-05 2.61508e-05 3.11845e-05 -0.320237975 0.7820655581
590296460.0 -0.2998877463 0.7897746871 0.0002022282 -0.0001011041 2.25595e-05 -3.0113e-05 -0.312010461 0.7851346996
595296430.0 -0.2915821472 0.7933480334 0.0002262713 6.6335e-06 0.0002111451 0.0001017443 -0.3044645844 0.7873958415
600296400.0 -0.2837256478 0.7958351506 0.0001633594 -5.05998e-05 0.0001275016 0.000124951 -0.2967657368 0.7909716582
605296370.0 -0.2755173018 0.7988228508 8.27447e-05 -0.0002208165 1.47769e-05 -0.0001994756 -0.2890699002 0.7947801999
610296340.0 -0.267319671 0.8013975041 -0.0001170869 0.0001115449 1.17601e-05 9.47637e-05 -0.2805968516 0.7973937338
615296310.0 -0.2598403165 0.8038922554 -0.0001502193 -0.00011356 -4.29128e-05 0.000109321 -0.2726298671 0.7998071479
620296280.0 -0.2503625399 0.8062353194 -8.29767e-05 5.9043e-05 4.73821e-05 0.0001146633 -0.2651842798 0.8017452444
625296250.0 -0.2428379077 0.8092743298 -2.44619e-05 2.89698e-05 -0.0002499983 -8.54874e-05 -0.2571485613 0.8048065848
630296220.0 -0.23404056 0.8119029097 -2.52855e-05 5.34236e-05 0.0001452214 6.33848e-05 -0.2493343156 0.8075701927
635296190.0 -0.2268803929 0.8138497254 1.05731e-05 5.72449e-05 4.22185e-05 -8.0629e-06 -0.2416279571 0.8096569955
640296160.0 -0.2178351925 0.8157218825 0.0001477565 0.000161067 -0.0001921974 0.0001002935 -0.233013614 0.8114837779
645296130.0 -0.2106796839 0.8179503347 0.0002497289 0.0001080119 0.0001290711 0.0001551396 -0.225532847 0.8142131058
650296100.0 -0.2017102771 0.8201747971 -1.82322e-05 0.0001001093 -0.0002401001 -5.35252e-05 -0.2172281118 0.8163875987
655296070.0 -0.1932067483 0.8222940049 0.0001067531 -3.04049e-05 -0.00012189 0.0002852472 -0.2089935865 0.8182087536
660296040.0 -0.1854512558 0.823987755 -2.85048e-05 -7.1391e-05 -1.3302e-06 0.0001417234 -0.2006052626 0.8202259432
665296010.0 -0.1765452404 0.8258720072 -9.88863e-05 1.36136e-05 -0.0001073879 -6.13319e-05 -0.1930732791 0.8223598799
670295980.0 -0.1679565533 0.8272067688 -1.4296e-05 -0.0001324779 -5.04507e-05 0.0001207267 -0.1855125907 0.8238310994
675295950.0 -0.1601570639 0.8284561667 3.28347e-05 -3.79002e-05 -3.41847e-05 -4.1514e-06 -0.1768244487 0.8264092345
680295920.0 -0.1520041756 0.8309422306 4.21474e-05 -0.0002280543 0.0001915641 0.0001700828 -0.1684912193 0.8277457978
685295890.0 -0.1432114777 0.8318310182 -1.84274e-05 3.84024e-05 -2.14266e-05 0.000198082 -0.1597731149 0.829313108
690295860.0 -0.1347609537 0.8333767009 -1.8197e-06 3.65982e-05 5.77873e-05 9.275e-06 -0.1520133865 0.8303175298
695295830.0 -0.1260792633 0.8339770827 -0.0001058337 -0.0001867769 0.0001615891 0.0001714109 -0.1434335229 0.8324721476
700295800.0 -0.1181514912 0.8354130019 0.0001493588 5.90838e-05 1.68131e-05 -8.87496e-05 -0.1352386456 0.8331389259
705295770.0 -0.109160673 0.837231277 -0.0001127073 2.18995e-05 0.0001131975 4.8762e-06 -0.1275713222 0.8350073368
710295740.0 -0.1010612723 0.8381714244 9.5602e-05 -9.65168e-05 6.27937e-05 5.3969e-05 -0.1196058411 0.8369704748
715295710.0 -0.0932922532 0.8387741573 -0.0001005974 -0.0001020989 -0.0001580256 -0.0002592647 -0.1117430086 0.8371618578
720295680.0 -0.0845148179 0.8398595368 -8.17889e-05 -4.94097e-05 9.17007e-05 0.0001180924 -0.1029512311 0.8383950164
725295650.0 -0.0752835756 0.8409386521 -8.95295e-05 1.03927e-05 3.56863e-05 -1.51103e-05 -0.094142848 0.8392812026
730295620.0 -0.0675313427 0.8411899795 -0.0001205121 -3.58442e-05 -5.28611e-05 3.92901e-05 -0.0859189823 0.8405312167
735295590.0 -0.0584600004 0.8418146519 6.07622e-05 -8.67603e-05 -3.1137e-05 3.97929e-05 -0.0774157968 0.8411304651
740295560.0 -0.0503984707 0.842859528 -6.04773e-05 0.0001197251 -1.28232e-05 5.94103e-05 -0.0695084568 0.8411579815
745295530.0 -0.0418032789 0.8425929807 -9.49254e-05 -5.15904e-05 6.01794e-05 8.5436e-05 -0.0610480533 0.8422967352
750295500.0 -0.0335748253 0.8430010816 1.6115e-06 -0.0002014628 0.0001404975 3.9027e-06 -0.0526877323 0.8427310445
755295470.0 -0.0249267416 0.8434530086 0.0001371283 1.57407e-05 0.0001369488 0.0001121851 -0.0445495664 0.8436781941
760295440.0 -0.0164237939 0.8436891353 -5.59579e-05 0.000204564 -8.2455e-05 -7.25454e-05 -0.036556737 0.843922364
765295410.0 -0.0080899456 0.8438022913 8.31707e-05 5.78451e-05 -4.05114e-05 8.458e-07 -0.0275999828 0.8442084062
770295380.0 5.36753e-05 0.8440940727 -0.0001396319 7.23338e-05 -0.0001196215 -3.01532e-05 -0.0191042269 0.8437438467
775295350.0 0.008793112 0.8438004149 -0.0001667814 -5.43181e-05 3.37542e-05 3.26538e-05 -0.0117385792 0.8442970414
780295320.0 0.0176677698 0.8432863665 0.0001820023 0.0001707129 -0.000220948 -0.0001296056 -0.0030502161 0.8450834011
785295290.0 0.0255166667 0.8438006284 6.7896e-05 1.76307e-05 -6.86765e-05 -9.68573e-05 0.0052136274 0.8445703807
790295260.0 0.0339548613 0.8426331151 -8.73797e-05 0.0001239399 3.77502e-05 4.2875e-05 0.0141613592 0.8443468854
795295230.0 0.0425796394 0.8430874735 -7.01674e-05 -0.0001529822 5.74792e-05 -0.0001026776 0.0220385892 0.8445842655
800295200.0 0.0510745696 0.842395376 -9.17588e-05 -0.0001572589 1.98204e-05 -2.05789e-05 0.0301262084 0.844156079
805295170.0 0.0593723382 0.8421465232 0.0001182309 -0.0001838156 8.91584e-05 1.58378e-05 0.0378848851 0.8435439686
810295140.0 0.0679462528 0.8411598699 -9.7703e-06 4.73017e-05 0.0001652435 3.76371e-05 0.0465319412 0.8442653308
815295110.0 0.0767269894 0.8397936189 0.0002359471 -0.0002104078 -0.0001425622 -9.64876e-05 0.0547813819 0.8431875641
820295080.0 0.0851232448 0.8388833104 9.8753e-05 -0.0002840116 -3.5475e-05 0.0001323451 0.0624267695 0.8419564169
825295050.0 0.0936968918 0.838595238 -6.65116e-05 -2.59871e-05 -0.0001782023 7.12485e-05 0.071180664 0.8421418339
830295020.0 0.101571959 0.8377007028 3.74706e-05 -0.0001008452 -1.25946e-05 -0.0001893882 0.079116087 0.8412756327
835294990.0 0.109681208 0.8368453917 3.65841e-05 -1.96178e-05 0.0001692417 -0.0001971799 0.0878443636 0.8403067225
840294960.0 0.1186005913 0.8355525693 0.0002512007 1.06144e-05 -0.0001694922 -2.75505e-05 0.0958784946 0.8394294764
845294930.0 0.1266216926 0.8345575852 0.0002680378 -7.28159e-05 -6.56533e-05 0.000137017 0.1040898348 0.8380202171
850294900.0 0.1349199538 0.8327786697 -6.51236e-05 0.0001137803 0.0002678278 -0.0001117499 0.1120323658 0.8374973301
