!Created with skrf (http://scikit-rf.org).
# Hz S RI R 50.0 
!freq ReS11 ImS11 ReS21 ImS21 ReS12 ImS12 ReS22 ImS22
300000.0 -0.7762788789 -0.1515594187 -0.001300093 -0.0004457823 -0.0019626405 -0.0003853585 -0.046801167 -0.068642752
5299970.0 -0.7850184137 -0.0075875807 -7.51999e-05 -8.9073e-05 -0.000150017 -9.84197e-05 -0.049784261 0.0146871156
10299940.0 -0.7877700158 -0.0039751545 -4.46204e-05 -6.3088e-05 -8.92347e-05 4.62076e-05 -0.0439462273 0.0322393939
15299910.0 -0.7931324629 -0.001909262 4.5702e-06 5.71293e-05 -0.0001139929 0.0001235306 -0.0356098601 0.0466537469
20299880.0 -0.7993967767 0.0024743502 0.0001005932 -1.67484e-05 6.14414e-05 -9.8148e-06 -0.0259209308 0.0583823621
25299850.0 -0.8064807607 0.0084165806 -2.93094e-05 -5.92736e-05 0.0001902678 9.71222e-05 -0.0154367124 0.0677106008
30299820.0 -0.8120831655 0.0163772491 5.62577e-05 8.80509e-05 1.39652e-05 9.78817e-05 -0.0041587845 0.0744590755
35299790.0 -0.8168738468 0.0251167337 5.27909e-05 1.12789e-05 -1.12565e-05 0.0003494725 0.0078053532 0.0793189306
40299760.0 -0.8212521027 0.0344304387 4.35452e-05 -6.85402e-05 -8.4149e-05 -0.0001613481 0.0186840484 0.0823033542
45299730.0 -0.8245324251 0.0442392838 0.0001077897 0.0001953096 0.0001381334 -1.97692e-05 0.0291739997 0.0837214701
50299700.0 -0.8267520811 0.0539250084 -0.0001277249 -4.57649e-05 8.909e-05 2.507e-06 0.03960651 0.0840744075
55299670.0 -0.8286978719 0.0646525191 -1.17933e-05 0.000165677 0.0001989743 -4.00143e-05 0.0484400114 0.0833307867
60299640.0 -0.8295087043 0.0747911296 -0.0001280228 4.9946e-05 -4.07951e-05 -8.06799e-05 0.0570551386 0.081509378
65299610.0 -0.8311257597 0.0848485509 1.02378e-05 -6.42927e-05 0.00027891 8.9311e-06 0.0646683759 0.0794110889
70299580.0 -0.8308762892 0.0946975152 0.0001892459 0.0001574185 -0.0001279561 4.62207e-05 0.0717448397 0.0766460873
75299550.0 -0.831332159 0.1047336684 0.0001346834 1.02026e-05 6.16578e-05 -0.0001310317 0.0780506678 0.0736089795
80299520.0 -0.831384914 0.1145521078 -0.0001645269 0.0001378604 4.18517e-05 -8.05187e-05 0.0833445339 0.0700624768
85299490.0 -0.830806917 0.1236789339 0.000228399 -0.0001804266 0.0001821166 0.0001391546 0.0886137693 0.0666472654
90299460.0 -0.8296292875 0.1339677772 -0.0001294704 0.0001715422 6.69743e-05 2.9416e-06 0.0935448388 0.0627085711
95299430.0 -0.828528381 0.1434546518 0.0002522697 0.0002011338 0.0001537081 0.0001965121 0.0978080458 0.0590965308
100299400.0 -0.8280777009 0.152767113 2.37563e-05 0.0001139433 2.15475e-05 0.0001147134 0.1011224798 0.0553174215
105299370.0 -0.8265333537 0.1617348275 -6.4371e-06 0.0001141476 -6.69887e-05 -1.9649e-06 0.1046601714 0.0512751756
110299340.0 -0.8252307951 0.170833112 6.6808e-06 5.80504e-05 -9.89725e-05 6.94e-07 0.1071582118 0.0478281071
115299310.0 -0.8238063651 0.180379039 0.0001046819 1.75628e-05 8.88607e-05 0.0001516915 0.1100066668 0.0435534231
120299280.0 -0.8217195411 0.1895635508 0.0001456123 0.0001179294 5.73548e-05 6.1546e-06 0.1122149288 0.0400570587
125299250.0 -0.8201904479 0.1981011074 -0.0001674221 1.55665e-05 0.0001082032 8.11251e-05 0.1142735075 0.0359405604
130299220.0 -0.8184674402 0.2075178631 0.0001376204 8.86557e-05 -3.7249e-06 -1.69814e-05 0.1159079232 0.032735174
135299190.0 -0.8164333827 0.2166518672 0.0001214433 8.8314e-05 0.0001152434 0.0001168126 0.1176240198 0.0288429635
140299160.0 -0.8147863161 0.2256654546 6.02244e-05 0.0001549612 -3.72746e-05 8.17104e-05 0.1190999207 0.0254995091
145299130.0 -0.8121346701 0.2339973108 5.46487e-05 2.61209e-05 0.0001815513 0.0001882363 0.119669049 0.0222578348
150299100.0 -0.8096049534 0.2431197094 -0.0002183186 2.0508e-06 3.29279e-05 1.34842e-05 0.1209766825 0.0185503107
155299070.0 -0.8081416889 0.2522843488 -2.46873e-05 0.0003346456 0.0001274648 6.2722e-05 0.1215761574 0.0155563419
160299040.0 -0.8048283682 0.2610223243 8.17568e-05 0.000152893 0.0003116056 0.0001908831 0.1224401148 0.0120707429
165299010.0 -0.8021849551 0.2690629133 -0.0001263886 7.74414e-05 -6.9367e-06 0.0001260651 0.1231376663 0.0089655263
170298980.0 -0.7994693817 0.2781138763 -7.29738e-05 0.0001828295 4.29501e-05 -6.31768e-05 0.1236940044 0.0059294676
175298950.0 -0.7969393167 0.2873987227 0.0001157201 0.0001607066 0.0002409419 0.0002761463 0.1240418825 0.0030021274
180298920.0 -0.7939730542 0.2948423456 0.0002079357 0.0001064954 0.0001617835 0.0002749082 0.124427362 -7.54491e-05
185298890.0 -0.7907664545 0.3038750647 9.63231e-05 0.0001004272 0.0002052331 3.85673e-05 0.124152361 -0.0031333891
190298860.0 -0.7873211921 0.3122567874 7.42094e-05 -7.05699e-05 0.000183393 -1.8941e-05 0.1245538715 -0.0056269575
195298830.0 -0.7840390808 0.3209564526 0.000280533 -3.1946e-05 -7.5529e-05 0.0001926992 0.124464974 -0.008500726
200298800.0 -0.7808506627 0.3291825592 -7.76716e-05 0.0001300273 0.0002950022 0.0001383606 0.1248607552 -0.0112331289
205298770.0 -0.776977327 0.3372531494 0.0001124176 -3.28601e-05 0.0001647341 0.0001677035 0.1241809637 -0.0134729718
210298740.0 -0.7734657841 0.3457659568 0.0002138547 6.06539e-05 -6.83701e-05 0.0002672112 0.1241559743 -0.0162502234
215298710.0 -0.7703807398 0.3546214952 0.000106447 -3.83931e-05 0.0001214164 1.32395e-05 0.1235862461 -0.0186734652
220298680.0 -0.7667781395 0.3623358546 9.96842e-05 0.0001504196 -1.84395e-05 0.0002538377 0.1235990939 -0.0209046935
225298650.0 -0.7626154043 0.3710249841 -4.4489e-06 3.63502e-05 0.0002742952 0.0002236259 0.1228647755 -0.0229842897
230298620.0 -0.7588335958 0.3784207557 0.0002065882 0.0001536303 8.6088e-05 0.0001188421 0.1230639127 -0.0259120132
235298590.0 -0.7547267747 0.3872007322 0.0001040749 0.0001108032 1.18429e-05 0.0001913529 0.1222190877 -0.0280405682
240298560.0 -0.7507740661 0.3949236162 0.0003468368 -1.70841e-05 0.0001154488 0.0001697209 0.1215353901 -0.0302951324
245298530.0 -0.7463318819 0.4030281022 0.0003754197 0.0002353928 8.02801e-05 2.51736e-05 0.121427802 -0.0322591578
250298500.0 -0.742103081 0.4107691467 0.0001690325 0.0002708869 -7.03906e-05 6.63012e-05 0.1211417794 -0.0344128069
255298470.0 -0.7377067045 0.4186902164 -0.0001697597 3.7836e-05 4.82349e-05 0.0002005993 0.120183271 -0.0364951554
260298440.0 -0.7336750584 0.4258361763 0.0003174154 4.3952e-06 1.00506e-05 0.0001399635 0.1195665265 -0.0385879651
265298410.0 -0.7293291355 0.4339775645 4.89993e-05 0.0002130384 4.69861e-05 0.0002177756 0.1189003896 -0.0405557557
270298380.0 -0.7244369444 0.4415300583 6.19771e-05 -0.0001669648 0.0002496763 0.0001490974 0.1185022463 -0.0426786086
275298350.0 -0.7191453941 0.4489463464 0.0001416999 0.000118611 0.0001673552 0.0001376802 0.1177445335 -0.0442324765
280298320.0 -0.715015108 0.4569434412 0.0002989535 0.0001090396 0.0002238917 0.0001134285 0.117229414 -0.0462116233
285298290.0 -0.710542656 0.464378837 -5.36106e-05 5.85466e-05 9.54229e-05 0.0001329593 0.1161784614 -0.0481153566
290298260.0 -0.7053220677 0.4710639351 0.0005040176 0.0002292638 -2.11644e-05 0.0001801284 0.1156967191 -0.0497758344
295298230.0 -0.7002305452 0.4797213194 0.0001337182 0.0001423892 0.0001585427 -3.3401e-05 0.11491612 -0.0514152943
300298200.0 -0.69460704 0.4864992247 0.000182624 3.73067e-05 0.0002640888 0.0001407025 0.114134342 -0.0533654754
305298170.0 -0.6902304194 0.4940979247 0.000383971 2.36254e-05 -1.43043e-05 -0.0001447172 0.1134399444 -0.054837306
310298140.0 -0.6849113887 0.5007122441 0.0002144138 -4.29161e-05 0.0002430357 0.0001324418 0.1127687352 -0.0564371171
315298110.0 -0.6795196335 0.5082032185 0.000174982 -2.41931e-05 0.0002107184 8.9888e-05 0.1118319354 -0.0585790413
320298080.0 -0.674318203 0.5157047601 9.22085e-05 0.0001378738 -0.0001371611 0.0001260144 0.1110334586 -0.0599913786
325298050.0 -0.6687560546 0.5218687022 0.0002049978 0.0001839717 5.59589e-05 0.0001609066 0.1100073904 -0.0620581967
330298020.0 -0.6631882006 0.5291960177 0.0001842914 -3.85982e-05 0.0002690962 8.01968e-05 0.1089030271 -0.0639976885
335297990.0 -0.6569815235 0.5363746689 5.14675e-05 -5.22756e-05 0.0001769535 0.0001135886 0.1072731078 -0.0652537593
340297960.0 -0.6520050842 0.5430340879 0.0002122924 8.43576e-05 3.71297e-05 0.0001459205 0.1064027331 -0.0667128083
345297930.0 -0.6462966939 0.5488535221 0.0002227826 0.0001426339 -7.88765e-05 0.0001764395 0.1050818005 -0.0680153924
350297900.0 -0.6399196582 0.5564378396 -1.63404e-05 0.0002403148 0.0002109774 -0.0001002222 0.1038719959 -0.069183952
355297870.0 -0.6347029942 0.5624372933 -7.98492e-05 0.000222897 0.0001562466 7.6694e-06 0.102638059 -0.0701176566
360297840.0 -0.6285381009 0.5693343052 0.0001400229 0.0001907883 1.70039e-05 2.74394e-05 0.101613721 -0.0715144127
365297810.0 -0.6224027836 0.5754636857 7.60128e-05 0.0001998175 0.0002326465 3.693e-06 0.1003980117 -0.0727464289
370297780.0 -0.6161056822 0.5811498235 -4.5209e-06 0.0002626481 0.0002055385 7.01092e-05 0.0992673158 -0.0743202211
375297750.0 -0.6105516942 0.5884046598 0.000328003 0.0001253152 0.0001880708 9.87347e-05 0.0982727025 -0.0750304705
380297720.0 -0.6041170991 0.5948690013 0.0001611525 -2.4533e-05 0.000270943 -4.13744e-05 0.0970589183 -0.0760637812
385297690.0 -0.5979333871 0.6007062827 0.0001842112 -5.53717e-05 0.0003022832 8.36371e-05 0.0956400468 -0.0772336132
390297660.0 -0.5913476651 0.6071502061 0.0003223822 0.0001266867 0.0002459678 6.03086e-05 0.0946781216 -0.0786060812
395297630.0 -0.5853435679 0.6137316382 1.27456e-05 -0.000132392 6.82846e-05 0.0002697067 0.0933964161 -0.0796161092
400297600.0 -0.5789815076 0.6194081951 0.0001834004 0.0001537328 0.0003685885 0.0001909655 0.0920944635 -0.0807188467
405297570.0 -0.5726696992 0.6254745135 0.0002255193 0.0002378032 0.0001426367 4.23566e-05 0.090729376 -0.0814766423
410297540.0 -0.5656720673 0.6302624715 0.0002474731 8.61066e-05 0.0001569051 -1.9817e-06 0.0896785888 -0.0823512532
415297510.0 -0.5592013144 0.6361637461 0.0001756744 7.15993e-05 9.92217e-05 0.000109444 0.0882851877 -0.0833162649
420297480.0 -0.5521948009 0.642079553 0.0005567066 0.0001746555 0.0002161297 0.0002584041 0.0869600207 -0.0845063213
425297450.0 -0.5454705295 0.6480613654 0.0001260715 0.0001847066 3.00346e-05 -6.97786e-05 0.0860291352 -0.0852508744
430297420.0 -0.5393488886 0.6533211761 0.0001321739 1.10345e-05 4.93824e-05 0.0002317202 0.0845474876 -0.0866455505
435297390.0 -0.5321514347 0.6591449533 0.0003332409 -3.38267e-05 0.0004205106 0.0001686016 0.0834608189 -0.0868926312
440297360.0 -0.5254253324 0.6643903482 0.0001869826 0.0001844079 0.0001582533 0.0002838612 0.0817991666 -0.0879764605
445297330.0 -0.5183192553 0.6698982194 0.0001973669 0.0001131017 0.000189403 6.60014e-05 0.0803498439 -0.0890851501
450297300.0 -0.5112963455 0.674295239 0.000304512 3.56101e-05 0.0003774026 4.87294e-05 0.0789852999 -0.0898336864
455297270.0 -0.5044963976 0.6799620666 0.0001783356 0.0001268429 0.0002584757 -0.0001259896 0.0777762851 -0.0906235136
460297240.0 -0.4973980921 0.6855268391 0.0001122759 0.0003342459 0.00030421 0.0003801843 0.0768624365 -0.0912758683
465297210.0 -0.4895094213 0.6902433675 0.000180539 0.0002469576 0.0002396649 0.0001212493 0.0750024912 -0.0923920586
470297180.0 -0.4828629228 0.6950151551 0.0002843086 0.0002092602 0.0002834006 5.56079e-05 0.0735379595 -0.0927425921
475297150.0 -0.4760735336 0.7007994845 0.0003159386 0.0001181664 7.59131e-05 0.0001926271 0.0728420373 -0.0936238003
480297120.0 -0.4692344485 0.7047564253 0.000379975 5.21872e-05 0.0005247562 0.000238385 0.0711930346 -0.0943442789
485297090.0 -0.4612943286 0.7095361136 3.31485e-05 0.0001524747 0.0001768374 0.0001819924 0.0696013589 -0.0948851161
490297060.0 -0.4547089917 0.7137143552 0.0003752233 -1.78272e-05 0.0002549079 -1.55419e-05 0.0679843969 -0.0957421537
495297030.0 -0.4471657022 0.7191228869 0.0002818103 8.13694e-05 0.0003606633 7.63731e-05 0.066767027 -0.0966649058
500297000.0 -0.4387020125 0.7232424617 0.0001448904 0.0001985458 6.69468e-05 8.1991e-05 0.0651465926 -0.097195948
505296970.0 -0.431712329 0.7270955288 0.0001721051 0.0002680516 0.0002077025 0.000102876 0.0636877538 -0.0976010655
510296940.0 -0.4243475528 0.7314838857 9.41577e-05 0.0001110203 0.0002004621 0.0002288919 0.0626034715 -0.0978568271
515296910.0 -0.4170232819 0.7362800833 0.0002056555 4.72151e-05 0.0002770915 7.30964e-05 0.0609760505 -0.0987090545
520296880.0 -0.4090739451 0.7402162929 0.0004865227 -0.0001136811 0.0002438764 0.0002659984 0.0598241983 -0.0994744313
525296850.0 -0.4017956033 0.7443152721 0.0002353808 4.67115e-05 0.0002487817 2.12044e-05 0.0588187037 -0.0998361816
530296820.0 -0.3941772672 0.7478369491 0.0002317956 0.0001725584 0.0002435285 -5.18413e-05 0.0566339249 -0.1001547841
535296790.0 -0.3856446542 0.7524243016 0.0003677754 0.0002343932 0.0004360333 0.0001798749 0.0554033707 -0.1011913087
540296760.0 -0.3784901745 0.7560485601 0.000189951 0.0001299153 0.0002456102 1.22571e-05 0.0536503966 -0.1015008946
545296730.0 -0.3713312228 0.7595646476 0.0003046099 -7.93321e-05 0.0004795579 -4.23481e-05 0.0522961379 -0.102282048
550296700.0 -0.3632630467 0.7635404162 0.0003900973 0.0002687749 0.0002123531 5.93971e-05 0.050905141 -0.102426939
555296670.0 -0.3548724628 0.7670558185 0.0002434213 -2.20991e-05 0.0002301222 0.0002462843 0.0493581832 -0.1027488092
560296640.0 -0.3468071546 0.7707848627 0.0002612246 -6.2147e-06 0.000331012 -0.000135638 0.0480302979 -0.1035209849
565296610.0 -0.3399521025 0.7740182504 0.0002134065 0.0001887015 0.0001883835 0.0002276275 0.0463268767 -0.1036673985
570296580.0 -0.3320513766 0.7774465512 0.0002352644 -1.14758e-05 0.0003114126 0.0001890137 0.0451614265 -0.1038525417
575296550.0 -0.3240091791 0.7806385762 0.0006136748 0.000321258 0.0003622388 1.23936e-05 0.0436432979 -0.1044016013
580296520.0 -0.3161318416 0.7841389529 0.0004378489 -5.969e-07 0.0004500729 -2.5211e-06 0.0420203031 -0.1045273203
585296490.0 -0.3076022639 0.7863667353 0.0005078295 -3.83515e-05 0.0004081582 0.0001097235 0.0405333423 -0.1054665432
590296460.0 -0.2996747957 0.7893605842 0.000343089 0.0001815252 0.0002679829 0.0001417015 0.0393357263 -0.105368676
595296430.0 -0.291491903 0.7937292386 0.0003420514 0.0001031103 0.0002924655 0.0001302163 0.0376328114 -0.1058910562
600296400.0 -0.2840009954 0.7954142445 0.0002642245 5.9072e-05 0.0005769957 -0.0001381427 0.0362171627 -0.1058517094
605296370.0 -0.2753016719 0.798870713 0.0001242464 -0.0001060729 0.0005130223 0.0001078087 0.0349208157 -0.1062462827
610296340.0 -0.2680228165 0.8012146368 0.0004056546 -8.37033e-05 0.0006497327 8.78038e-05 0.0330651431 -0.1064977729
615296310.0 -0.2595700892 0.8040147429 0.0005441176 -0.0001055069 0.0004388954 -7.74581e-05 0.0317604374 -0.1067430728
620296280.0 -0.2504338399 0.8064375229 0.0002841502 0.0001064054 0.0003001955 4.23205e-05 0.0303241602 -0.106928533
625296250.0 -0.2430725263 0.8089891434 0.0005165321 4.49799e-05 0.0002462074 -0.0001171498 0.0287204945 -0.1070416829
630296220.0 -0.2342898139 0.8116548908 0.0003169479 0.0001450527 0.0003483782 0.0001736284 0.0274892653 -0.107081388
635296190.0 -0.2263844583 0.813941085 0.0002589065 -1.04918e-05 0.0004011119 0.0001673305 0.0261041149 -0.107078595
640296160.0 -0.217495293 0.8152049612 0.0002953822 0.0001121896 0.0002571559 6.85594e-05 0.0246831161 -0.1073811283
645296130.0 -0.2100480447 0.8178915496 9.65916e-05 -5.36772e-05 0.0002545202 0.0001653273 0.022672509 -0.1077979667
650296100.0 -0.2020202914 0.8203696408 0.0001118728 -0.0001383888 0.0003981962 -2.78434e-05 0.021694968 -0.107591615
655296070.0 -0.1930921931 0.8221609354 0.0002143325 0.0001151393 0.0003878006 9.39831e-05 0.0201520739 -0.1075424148
660296040.0 -0.185511449 0.8241003837 0.000454403 0.0001811653 0.0004330952 0.0001875753 0.0186684903 -0.1075128066
665296010.0 -0.1764668099 0.8260383657 0.0003642332 -0.0001157265 0.0004791031 -5.6375e-05 0.0171547641 -0.1072894708
670295980.0 -0.167898652 0.8271757366 0.0005463112 -2.47733e-05 0.0004249171 -5.05929e-05 0.0157277664 -0.1076716418
675295950.0 -0.1598486195 0.8288435957 0.0001951752 -5.75969e-05 0.0003092524 4.51347e-05 0.0144751852 -0.1077387447
680295920.0 -0.1517856138 0.8306155093 0.0003306163 4.06196e-05 0.0002556791 1.8493e-05 0.0129357203 -0.1074446125
685295890.0 -0.1425569233 0.8320997816 0.0002164955 3.40248e-05 0.000309391 -7.46425e-05 0.0115360437 -0.1075129397
690295860.0 -0.1345704703 0.8329588794 0.0003851259 -1.38644e-05 0.0002146546 4.19547e-05 0.0101067669 -0.1073774338
695295830.0 -0.1261979937 0.8342041094 0.0003870563 -2.9635e-06 0.0004040688 -7.9202e-06 0.0084435608 -0.1073064085
700295800.0 -0.1180598198 0.8352604343 0.0002210892 2.50039e-05 0.0002985528 -0.0001079743 0.0070404816 -0.1072291422
705295770.0 -0.1091407351 0.8369397933 0.0004306434 -5.9312e-06 0.0004846337 -0.0001344429 0.0053029588 -0.1067952985
710295740.0 -0.1011773662 0.8383359944 0.0003335294 7.20208e-05 0.0004541928 5.82405e-05 0.0040390296 -0.106682878
715295710.0 -0.0928541554 0.8389722233 0.0006325062 -0.0003020359 0.0005642073 2.86e-05 0.0028387243 -0.1068125934
720295680.0 -0.0844492013 0.8395313182 0.0005219777 -0.0001908534 0.000225584 -0.0002109682 0.0015974585 -0.1065881386
725295650.0 -0.0749890104 0.8409402919 0.0006087832 -6.53149e-05 0.0003478985 -2.6888e-05 -2.7081e-05 -0.1065495011
730295620.0 -0.0678410922 0.8414809929 0.0004377339 2.79084e-05 0.0003762995 -1.5838e-05 -0.0017943281 -0.1062070579
735295590.0 -0.0586484325 0.8416950632 0.0004980606 7.29036e-05 0.0004668051 6.7774e-05 -0.0028617052 -0.1060043706
740295560.0 -0.0503170229 0.842471523 0.0005627176 0.0001068439 0.0005680008 -0.0001011125 -0.0044133314 -0.1059259906
745295530.0 -0.041684533 0.8425389578 0.0002001921 4.43224e-05 0.0005865749 7.4759e-05 -0.006096125 -0.1052563573
750295500.0 -0.0340470766 0.843102607 0.0003813145 -1.59754e-05 0.000529636 -4.0387e-06 -0.007320419 -0.1052175699
755295470.0 -0.0237812362 0.8436347119 0.0004428758 6.9245e-06 0.0004781361 -0.0001031186 -0.0083607981 -0.1042665935
760295440.0 -0.016639089 0.8436675419 0.0007590304 -0.000329265 0.0005063742 -3.5036e-06 -0.0102170125 -0.1042160254
765295410.0 -0.008201251 0.8438718781 0.0004795077 -0.0001022077 0.0005024414 -2.2067e-05 -0.0113980631 -0.1039421861
770295380.0 -0.0001521262 0.8440582475 0.0004280844 -0.0001888803 0.000374726 -0.000184355 -0.012519904 -0.103640715
775295350.0 0.0087277765 0.8440581073 0.0002374203 -3.06769e-05 0.0003681724 -0.0001171237 -0.0144220533 -0.1035955914
780295320.0 0.0176214608 0.8431646149 0.0004070162 -9.52884e-05 0.0005228782 -5.37971e-05 -0.0157034514 -0.1026065577
785295290.0 0.0262476124 0.8438088087 0.0005143656 -1.6667e-06 0.000476035 -2.91506e-05 -0.0172956993 -0.1022653772
790295260.0 0.034320197 0.8429575036 0.0005504556 -0.0001729742 0.0003525342 -8.91214e-05 -0.0180713611 -0.1018353157
795295230.0 0.04224252 0.8432437387 0.0004527103 6.0259e-06 0.000449985 3.6351e-05 -0.0197852432 -0.1014214457
800295200.0 0.0513031819 0.8422879682 0.0004280019 -2.45165e-05 0.0004807863 -0.0003531813 -0.0210660734 -0.1010270873
805295170.0 0.0596634909 0.8423804249 0.0006593911 -2.64293e-05 0.0004801797 -0.0001487731 -0.0226841869 -0.1003952697
810295140.0 0.0679782183 0.8418165969 0.0005114837 -0.0002794641 0.0005965892 -0.0002150659 -0.0235789566 -0.0998428327
815295110.0 0.076802798 0.8400808196 0.0006144531 -0.0001149115 0.0006096641 -7.95092e-05 -0.0250708541 -0.0991424083
820295080.0 0.0851104481 0.8389473389 0.0003397873 -0.0001194528 0.0005171119 8.04823e-05 -0.0265491657 -0.0988681932
825295050.0 0.0937494495 0.8389402401 0.0002787015 -0.0001237473 0.0005512687 -0.0001714082 -0.0275092707 -0.0981493638
830295020.0 0.1020364093 0.8379957458 0.0006618281 -0.0003737188 0.0003406625 -0.0001529841 -0.0290853795 -0.0977160057
835294990.0 0.1100790972 0.8371064995 0.0004439361 -8.78568e-05 0.0004032113 -0.0001346193 -0.0300756218 -0.097300494
840294960.0 0.1190136724 0.8353643332 0.0004438235 -5.65666e-05 0.0003218877 -0.0001487618 -0.0315748672 -0.0962470186
845294930.0 0.1267496145 0.8346979543 0.0004624474 -4.10376e-05 0.000463706 -0.0001262079 -0.0326018625 -0.0957179129
850294900.0 0.1351583758 0.8327355954 0.0004427372 -0.0002048365 0.0004243255 2.19254e-05 -0.0340608149 -0.0951587177
