!Created with skrf (http://scikit-rf.org).
# Hz S RI R 50.0 
!freq ReS11 ImS11 ReS21 ImS21 ReS12 ImS12 ReS22 ImS22
300000.0 -0.2431786738 -0.0934501743 0.4726153646 0.0624816168 0.4715367534 0.0586102387 -0.2384704343 -0.0994024716
5299970.0 -0.2450248595 0.0065078361 0.4750063876 0.0049097253 0.4748199066 0.0052056284 -0.2411285507 0.0071533214
10299940.0 -0.2416851345 0.0176458521 0.4763923917 0.0066920226 0.4764343882 0.0061892593 -0.2374940992 0.0204758349
15299910.0 -0.2376163982 0.0267484378 0.4805791939 0.0071639565 0.4805722878 0.0073836195 -0.2332685875 0.0300897522
20299880.0 -0.2328395356 0.0337700541 0.4851290295 0.008333027 0.4850161679 0.0077867906 -0.227824488 0.0380861964
25299850.0 -0.2279491981 0.0402423018 0.4904009892 0.007206086 0.4903473882 0.0072415809 -0.2220034217 0.0449572087
30299820.0 -0.2224553211 0.0450311382 0.495506459 0.0048912389 0.4955353841 0.0048784256 -0.2160264718 0.0501079712
35299790.0 -0.2174332263 0.0492585152 0.5008904841 0.0012792667 0.5010038321 0.0017727929 -0.2107299261 0.0542643571
40299760.0 -0.2126117969 0.0524527989 0.5058136886 -0.0021662196 0.5061180009 -0.0023418657 -0.2052623412 0.0572743068
45299730.0 -0.2079847729 0.0548829559 0.510209681 -0.0074034621 0.5108157532 -0.0067493933 -0.2005246335 0.060571498
50299700.0 -0.2041628786 0.0566745797 0.5151491232 -0.0124846377 0.5150287739 -0.0121240351 -0.1956899135 0.0622898902
55299670.0 -0.1999294736 0.0585386627 0.5187596344 -0.0189434363 0.5184753259 -0.0182891093 -0.1913603911 0.0643145502
60299640.0 -0.1960456293 0.0600002289 0.5220648696 -0.024878099 0.5221580508 -0.0244251765 -0.1873846575 0.0652472703
65299610.0 -0.1930822065 0.0609745896 0.5248929713 -0.0311003461 0.5246446018 -0.0310329089 -0.1841812864 0.0664373126
70299580.0 -0.189858568 0.0622178158 0.5274987625 -0.0379788087 0.5269227845 -0.0374706358 -0.1807068393 0.067463115
75299550.0 -0.187032981 0.0629686163 0.5287455891 -0.0448227487 0.5286994774 -0.0448646289 -0.1778965007 0.0679335015
80299520.0 -0.1846492121 0.0637380586 0.5306787597 -0.0516135359 0.5309531598 -0.0513827161 -0.1753280052 0.0691161072
85299490.0 -0.1824578207 0.064092029 0.5319964596 -0.0577068546 0.5322899962 -0.0578892682 -0.1730055228 0.0694670124
90299460.0 -0.1803184879 0.0648946834 0.5329242877 -0.0650961638 0.5330911909 -0.0653011544 -0.1701856396 0.0704586862
95299430.0 -0.1780021624 0.0654304759 0.5339846241 -0.0724804915 0.5337540019 -0.0722885061 -0.1683155583 0.0710226981
100299400.0 -0.1767487977 0.0662229383 0.5340511738 -0.0788146768 0.5342014775 -0.0789150187 -0.1659675646 0.0714684808
105299370.0 -0.1748231502 0.0669391543 0.5346964002 -0.0861468356 0.5348683386 -0.0862026132 -0.1640243173 0.0725704434
110299340.0 -0.1732321448 0.0678569235 0.5347743132 -0.0927309574 0.5348569017 -0.0926545462 -0.1628102381 0.0729901219
115299310.0 -0.1721312463 0.0683384653 0.5348869682 -0.0998208059 0.5347043424 -0.0995034037 -0.1609940668 0.0737234374
120299280.0 -0.1707494326 0.0684963848 0.5344598415 -0.1063421647 0.5345246823 -0.1062619147 -0.159517527 0.074571624
125299250.0 -0.1695938969 0.069211862 0.5345246496 -0.1128983933 0.5345415204 -0.1125278094 -0.1586831526 0.0748958761
130299220.0 -0.1685799832 0.0704136582 0.5332306152 -0.1199910039 0.5331731942 -0.119341886 -0.157054186 0.0758333682
135299190.0 -0.1675359531 0.0712443506 0.5330823526 -0.1264337789 0.5326083819 -0.1260178789 -0.1555318467 0.0768881009
140299160.0 -0.1666036301 0.0721113196 0.5321661024 -0.1333198846 0.532203465 -0.1331568959 -0.1544721147 0.0782610922
145299130.0 -0.1656542548 0.0730881621 0.5312824545 -0.1400887386 0.5307995744 -0.1393914275 -0.1534524783 0.0789101044
150299100.0 -0.1643998936 0.0740169672 0.5298611217 -0.1456841859 0.5300246456 -0.1456485502 -0.1523110344 0.0804137269
155299070.0 -0.1638160553 0.0744930934 0.5291014986 -0.1528295396 0.5288585382 -0.1529518856 -0.1512769176 0.0812631568
160299040.0 -0.1630717967 0.0758277117 0.5272861317 -0.1590703221 0.5272319893 -0.1591295585 -0.1506098928 0.0824351552
165299010.0 -0.1621698898 0.0769324522 0.5257227223 -0.1659429111 0.5260521308 -0.1659817771 -0.1494746077 0.0837644704
170298980.0 -0.161238615 0.0777786036 0.5243571075 -0.1723655474 0.5246401375 -0.1715763082 -0.1484092737 0.0844940676
175298950.0 -0.1605501931 0.0788874398 0.5231329176 -0.178173858 0.522603486 -0.1779464278 -0.1478516908 0.085968844
180298920.0 -0.1599442482 0.0801629914 0.5212815474 -0.1844143554 0.5208323119 -0.1839997589 -0.146533802 0.0872662351
185298890.0 -0.1588506565 0.0809891651 0.5193735599 -0.1907328089 0.5191351262 -0.1900720341 -0.1457459059 0.0888581154
190298860.0 -0.1585505664 0.0823733231 0.5175068496 -0.1969186693 0.5177248198 -0.1963759905 -0.1447527251 0.0898682267
195298830.0 -0.157769813 0.0832604014 0.5154168049 -0.2025466092 0.5153381307 -0.202774927 -0.1435472962 0.0910281108
200298800.0 -0.1568754883 0.0845875511 0.5131955219 -0.2087401948 0.5136141926 -0.2092200742 -0.1430348576 0.0925629173
205298770.0 -0.1561746801 0.0861381087 0.5106931834 -0.2151740354 0.510722184 -0.2147510794 -0.1420089785 0.0931915621
210298740.0 -0.1555756204 0.0871028039 0.508770038 -0.2207388834 0.5086276533 -0.2208420302 -0.1407572398 0.0954646538
215298710.0 -0.1552149203 0.088355213 0.5062139226 -0.2268567345 0.5061410124 -0.2272061722 -0.1398613925 0.0965494864
220298680.0 -0.1539722798 0.089180429 0.5036070398 -0.2330735201 0.5038399718 -0.2329935769 -0.1396031057 0.0976912609
225298650.0 -0.1533595564 0.0909572754 0.5015384999 -0.2388262867 0.5017513144 -0.2385615227 -0.1391766389 0.098809806
230298620.0 -0.1525719624 0.0924344423 0.4988819212 -0.2441542644 0.4995083964 -0.2441106976 -0.1380704037 0.1003112038
235298590.0 -0.1517263962 0.0936613213 0.4964951604 -0.2503802664 0.4967247475 -0.2493324161 -0.136840924 0.1015725248
240298560.0 -0.151221027 0.0949392515 0.4941069 -0.2560000344 0.4937517927 -0.2561671527 -0.1359495738 0.1031886436
245298530.0 -0.1507090425 0.0963109943 0.4912743872 -0.2617518045 0.4913176983 -0.261613671 -0.1346009104 0.1039118224
250298500.0 -0.1492316705 0.0975954016 0.48760239 -0.2673457699 0.4877621902 -0.2666071634 -0.1341351591 0.1057625815
255298470.0 -0.1484627355 0.0986770179 0.4845559215 -0.2720669965 0.4851244217 -0.2724088303 -0.132633491 0.1068904429
260298440.0 -0.1480666083 0.0999114304 0.4820656279 -0.278602874 0.4823307009 -0.2779981411 -0.1314459451 0.1082333742
265298410.0 -0.1465808553 0.1017273576 0.4790845352 -0.2841422209 0.479764753 -0.2835167004 -0.1307183318 0.1097436554
270298380.0 -0.1458573449 0.103139778 0.4762001508 -0.2887270123 0.4760958247 -0.2890607541 -0.1292654778 0.1111602834
275298350.0 -0.1447741774 0.1040918777 0.4729620466 -0.2946900562 0.4732960749 -0.2943368922 -0.1280218049 0.1122427386
280298320.0 -0.1439597368 0.1057938092 0.4701946402 -0.300339082 0.4699676209 -0.2996688907 -0.1268179539 0.1135999791
285298290.0 -0.1431866784 0.1071940191 0.4666921674 -0.305561933 0.4662882714 -0.3051237102 -0.1252654147 0.1148813258
290298260.0 -0.1419092792 0.108462377 0.4632250206 -0.3100046763 0.4632894088 -0.3102925057 -0.1243017308 0.1168606671
295298230.0 -0.1412520341 0.1097094556 0.4602738258 -0.315762154 0.4598103642 -0.3157651402 -0.1229893848 0.1175349167
300298200.0 -0.1401540702 0.1110762957 0.4567321634 -0.3205984707 0.4565432596 -0.3212258623 -0.1218242374 0.1193318809
305298170.0 -0.1389389188 0.112085168 0.4529619338 -0.3265556212 0.4530077548 -0.3258904956 -0.1200583237 0.1202873766
310298140.0 -0.137934961 0.1137254286 0.449667111 -0.331482024 0.4496496439 -0.3312907929 -0.1190634505 0.1216011905
315298110.0 -0.1371464317 0.1144256336 0.4459984696 -0.3366131948 0.4459941633 -0.3365598102 -0.1177298405 0.1228335689
320298080.0 -0.1358470638 0.1160294181 0.4414671379 -0.3421220138 0.4420646711 -0.3414993276 -0.116418429 0.1242039744
325298050.0 -0.1349476144 0.1172598848 0.4380565275 -0.3473444897 0.4380369918 -0.3466333802 -0.1154751636 0.1253634755
330298020.0 -0.134258894 0.1180939514 0.4338346077 -0.3517651128 0.4343706962 -0.3515473054 -0.1145637485 0.1269179512
335297990.0 -0.1328633817 0.1195104053 0.4295304183 -0.3565203417 0.4298367565 -0.3565817651 -0.1132968542 0.1286361179
340297960.0 -0.1325495136 0.1211525618 0.4257311714 -0.3614854932 0.4255955592 -0.3616541783 -0.1116769899 0.129857974
345297930.0 -0.1316010515 0.122824701 0.4217944983 -0.3664602652 0.421857186 -0.3659432362 -0.1105466818 0.1305290966
350297900.0 -0.1303405702 0.1237957603 0.4170990404 -0.3710478292 0.4175962416 -0.3706999126 -0.1092585008 0.1327499046
355297870.0 -0.129086932 0.1256806759 0.4132437822 -0.3755073896 0.4136693574 -0.375281552 -0.1081784937 0.133743877
360297840.0 -0.1281643346 0.1269239946 0.4094236525 -0.3798348117 0.4099753254 -0.3797552813 -0.1067346989 0.1354796555
365297810.0 -0.1272413598 0.1285220901 0.4054558718 -0.3843776211 0.4056815967 -0.3842647542 -0.1052381996 0.136889931
370297780.0 -0.1258375786 0.1295927364 0.4008078145 -0.3886645287 0.400993349 -0.3882887189 -0.1039949384 0.1380347
375297750.0 -0.1243756859 0.1307449863 0.3963844235 -0.3929331651 0.3975328935 -0.3930169193 -0.1026453381 0.1392834175
380297720.0 -0.1233668393 0.1322714946 0.3923641915 -0.3974098256 0.3925456242 -0.3967717585 -0.1014313503 0.1404967523
385297690.0 -0.1224334196 0.1337060052 0.3878966246 -0.4018963397 0.3880330029 -0.4016368769 -0.0994305734 0.1419938225
390297660.0 -0.1211403205 0.135053207 0.3837576318 -0.4062386452 0.3838586871 -0.4054848767 -0.0983261582 0.1431445227
395297630.0 -0.1200516429 0.1363435134 0.3793467635 -0.41049839 0.3793792118 -0.4099784987 -0.0964733746 0.1444687716
400297600.0 -0.1186871018 0.1377828454 0.3744330589 -0.4147320215 0.3746162014 -0.4143260696 -0.0952188072 0.145708442
405297570.0 -0.1176366527 0.1389131785 0.3698525764 -0.4183392526 0.3702245776 -0.418071842 -0.0938099608 0.146774334
410297540.0 -0.1159232069 0.1401538053 0.3655586321 -0.4226796379 0.3661553262 -0.4224057844 -0.0921826795 0.148087547
415297510.0 -0.1146317083 0.1412015532 0.360596051 -0.4264727687 0.3611971427 -0.4263589404 -0.0904676259 0.1494057464
420297480.0 -0.1132367475 0.1429731492 0.3557846135 -0.4303125059 0.3558062359 -0.4305357638 -0.0891154597 0.1500776963
425297450.0 -0.1120238001 0.143327745 0.3513657834 -0.4342452479 0.3519482259 -0.4346139499 -0.0876864227 0.1516740005
430297420.0 -0.110692841 0.1447302032 0.3466297836 -0.4375696635 0.3468574725 -0.4376340761 -0.0860825332 0.1524022456
435297390.0 -0.1093290672 0.1458485311 0.3414978072 -0.4416810055 0.3415121561 -0.441998588 -0.0837110663 0.1537264049
440297360.0 -0.10782015 0.1474920655 0.3367503776 -0.4452292251 0.3371310517 -0.4453911012 -0.0825936743 0.1543415454
445297330.0 -0.1066016609 0.1483073253 0.3320528552 -0.4490697279 0.3321627798 -0.4488916691 -0.0806363842 0.1550815111
450297300.0 -0.1050218694 0.149490908 0.3268646989 -0.4528018338 0.3273237454 -0.4531872295 -0.0788288515 0.1560679804
455297270.0 -0.1038552104 0.1505402295 0.3220504845 -0.4562306966 0.3225856068 -0.4560338506 -0.0771126651 0.1572729991
460297240.0 -0.1024908502 0.1517150708 0.3171889068 -0.4595638701 0.3170676266 -0.4596013536 -0.0757948703 0.1583126412
465297210.0 -0.1007037217 0.152931307 0.3122071925 -0.4630919723 0.3122082458 -0.4635381954 -0.073555668 0.1591420975
470297180.0 -0.0992448918 0.1540233023 0.3069467375 -0.4664257843 0.3067478822 -0.4664916085 -0.071906037 0.1601998959
475297150.0 -0.0977927862 0.1547623866 0.3018015837 -0.4689639147 0.3018963037 -0.4691953088 -0.0695436674 0.1608281452
480297120.0 -0.0963259608 0.1562674962 0.2969956313 -0.4731038044 0.2967361 -0.4731702161 -0.0676628337 0.1621079669
485297090.0 -0.0950018484 0.1572522361 0.2916843257 -0.4758220361 0.2918776061 -0.4759163774 -0.0661558029 0.1629326832
490297060.0 -0.0936322197 0.1582709612 0.2862761023 -0.4794824401 0.2865097746 -0.4786910838 -0.0643437008 0.1639955175
495297030.0 -0.0920728728 0.1592703075 0.2807927172 -0.4820825642 0.2818265816 -0.4821826312 -0.0629597956 0.1646579998
500297000.0 -0.0902349503 0.1603592555 0.2756594385 -0.4851910163 0.2757055052 -0.4848821481 -0.0609481636 0.1662238556
505296970.0 -0.088965702 0.1611983422 0.2706641135 -0.4875549586 0.2704014662 -0.4881016748 -0.0589897402 0.1665393641
510296940.0 -0.0874906369 0.162462654 0.2650599067 -0.4913982873 0.2652125589 -0.4911899486 -0.0570835726 0.1676201307
515296910.0 -0.0855007659 0.163614315 0.2599154053 -0.4941112305 0.2598580872 -0.4938418954 -0.0552087707 0.1683247315
520296880.0 -0.0841644908 0.1644822239 0.2542955918 -0.4971402453 0.2543586624 -0.4964974709 -0.0535301826 0.1688444813
525296850.0 -0.0826329864 0.1651103457 0.2489165827 -0.4995428446 0.2494820092 -0.4995643546 -0.051788868 0.1701246969
530296820.0 -0.0808863382 0.166254956 0.2435909134 -0.5025105502 0.2438889356 -0.5022493976 -0.0496097808 0.1710235994
535296790.0 -0.0796707312 0.1671800378 0.2384001608 -0.5047696038 0.2383713197 -0.5041729164 -0.0479889563 0.1711044016
540296760.0 -0.0783121643 0.1681670998 0.2327773083 -0.5074550819 0.2325758923 -0.5074032105 -0.0463931832 0.172417483
545296730.0 -0.0764588734 0.1688079573 0.2264650347 -0.5094567366 0.2269311707 -0.5095006936 -0.0443556976 0.1727007088
550296700.0 -0.0742167914 0.1699811361 0.2211731805 -0.511978303 0.2218742658 -0.512451654 -0.0427284958 0.1735801247
555296670.0 -0.0730471847 0.1708483081 0.2163900893 -0.5143917207 0.2164025908 -0.5144127388 -0.0406036985 0.1743370315
560296640.0 -0.0710258418 0.1722753057 0.2102987976 -0.5172667397 0.2105316185 -0.5167823455 -0.0384509442 0.1745458241
565296610.0 -0.0700781906 0.1726702782 0.2048251653 -0.5189418926 0.2051026987 -0.5187791576 -0.0368734235 0.1750200723
570296580.0 -0.0681270999 0.1733224773 0.1991557978 -0.5219788059 0.1987716217 -0.5213237361 -0.0349374569 0.1760787799
575296550.0 -0.0665015042 0.1746032955 0.193372525 -0.5236125756 0.1934788198 -0.5234191276 -0.0327575769 0.1763644983
580296520.0 -0.0646094823 0.1750184842 0.1875676711 -0.5261933558 0.1877682457 -0.5256200659 -0.0308905652 0.1767522827
585296490.0 -0.0631131378 0.1752591716 0.1822843386 -0.5270949325 0.1823614408 -0.5274018776 -0.0290639523 0.177514074
590296460.0 -0.0610004328 0.1764136307 0.1762382672 -0.5288638888 0.1763709 -0.5291507696 -0.0277575133 0.1777682922
595296430.0 -0.0596618177 0.1770088785 0.1702838021 -0.5310915342 0.1706783956 -0.5312767265 -0.0251696342 0.1778869449
600296400.0 -0.0579217433 0.1780139701 0.1647693077 -0.5332662028 0.1646549014 -0.5325979716 -0.0235100821 0.1783109368
605296370.0 -0.0562224691 0.1785819105 0.1588042542 -0.5347217693 0.1591305766 -0.5346103269 -0.0211919572 0.1787815069
610296340.0 -0.0543766303 0.179198518 0.1526707099 -0.536509176 0.1535232784 -0.5362190107 -0.0192534695 0.1792939236
615296310.0 -0.0523223669 0.1793872243 0.1472513351 -0.537502957 0.1472334394 -0.5381970767 -0.0170919101 0.1795255044
620296280.0 -0.0510627023 0.1802228048 0.1417310466 -0.5390319333 0.1413079328 -0.5391210168 -0.0153849201 0.1797778769
625296250.0 -0.0491816806 0.180628514 0.1361998202 -0.5408129936 0.1360279713 -0.5410710648 -0.0127799259 0.1799643917
630296220.0 -0.0467878779 0.1815706741 0.1290613979 -0.5421337013 0.12940403 -0.5421817995 -0.0109694071 0.1807061233
635296190.0 -0.0459121594 0.1820479517 0.1241483007 -0.5433778053 0.1238658155 -0.5437836317 -0.0090091782 0.1807232147
640296160.0 -0.0440854867 0.1825972558 0.1180269896 -0.5443347022 0.1183371209 -0.5447668181 -0.0068114368 0.1808168847
645296130.0 -0.0420673889 0.1833982709 0.1120097634 -0.5456434517 0.112588382 -0.545974981 -0.0049819687 0.1811162265
650296100.0 -0.0403350689 0.1839086904 0.1060443463 -0.5470382219 0.1063876928 -0.5471823044 -0.0024341538 0.1810811172
655296070.0 -0.0386158474 0.1843017998 0.100017419 -0.5480649475 0.1002122068 -0.5483435738 -0.000441311 0.1815047791
660296040.0 -0.0372538323 0.1845911419 0.0944651054 -0.5492680563 0.0947054768 -0.5493898775 0.0015879602 0.1816325271
665296010.0 -0.0347588529 0.1850845562 0.0882203394 -0.5500061803 0.0884814175 -0.5501682503 0.003641521 0.1825109537
670295980.0 -0.0339054361 0.1857404459 0.0824256654 -0.5508744728 0.0828697552 -0.5508366868 0.0052345847 0.1822742492
675295950.0 -0.0317168147 0.1863825827 0.0766878651 -0.551785137 0.0768535433 -0.5511519895 0.0072732702 0.182359642
680295920.0 -0.0301940673 0.1863956574 0.0705952212 -0.5524196436 0.0700030801 -0.5530228304 0.0094785761 0.1830148493
685295890.0 -0.0279761564 0.1876748625 0.0644288311 -0.5532439978 0.0643532429 -0.5531160133 0.0113883728 0.1828390085
690295860.0 -0.0258862436 0.1877260675 0.0587000072 -0.5535936513 0.0588458218 -0.5542569627 0.0131671241 0.1834388059
695295830.0 -0.0243499417 0.1880732752 0.0531290539 -0.5545840407 0.0525272714 -0.5541090636 0.0154593983 0.1828276899
700295800.0 -0.0225112133 0.1880536408 0.0467979502 -0.554676047 0.0465259856 -0.554918943 0.0171293554 0.1835427963
705295770.0 -0.0208789609 0.1890853749 0.040641177 -0.5554962603 0.0410154688 -0.5556359394 0.0192804754 0.1832664765
710295740.0 -0.0187508568 0.1893619807 0.0349914626 -0.5559414205 0.0348866692 -0.5558022797 0.0214045991 0.1822655642
715295710.0 -0.0174128616 0.1893145031 0.0292762056 -0.5559294922 0.0288654175 -0.556135612 0.0235260278 0.1826732479
720295680.0 -0.0152678642 0.1898100813 0.0224795602 -0.5566429383 0.0232253876 -0.5566840786 0.0255326993 0.1832503582
725295650.0 -0.0133741872 0.1899773965 0.0168967333 -0.5567000099 0.017107693 -0.5568679913 0.0268724141 0.1830012734
730295620.0 -0.0113772576 0.1906395661 0.0106791687 -0.556562195 0.0111695975 -0.5566160499 0.0289519465 0.1824583949
735295590.0 -0.0095446179 0.1908639933 0.0046263075 -0.5568404809 0.004561335 -0.5567833827 0.0308194446 0.1820822078
740295560.0 -0.0079384238 0.1910489484 -0.0013873084 -0.5566332694 -0.0010281296 -0.5568774629 0.0334361373 0.182318545
745295530.0 -0.0061918502 0.1913307675 -0.0071644252 -0.556370045 -0.0072686084 -0.5568057235 0.0353206047 0.1815253552
750295500.0 -0.0038257701 0.1916545517 -0.0132330871 -0.5564873178 -0.0129920481 -0.5567055522 0.0373255232 0.1815372856
755295470.0 -0.0021246182 0.1915382213 -0.018842284 -0.5562980598 -0.0190844626 -0.5564659178 0.0397840276 0.1807360146
760295440.0 -0.0005676668 0.1918921609 -0.0251305316 -0.5567516922 -0.0252298493 -0.5562471358 0.0414769265 0.1808745899
765295410.0 0.0015137151 0.1921906427 -0.0313172347 -0.5559521386 -0.031346747 -0.5560555234 0.0436135297 0.1806568269
770295380.0 0.0029883804 0.1917422437 -0.0374331342 -0.5554752399 -0.0371776567 -0.5552484706 0.0451171025 0.1799582704
775295350.0 0.0047527876 0.191467147 -0.0435967384 -0.5545737792 -0.0428015792 -0.5546194344 0.0466813105 0.1797306054
780295320.0 0.0069704941 0.1919003356 -0.0491872249 -0.5539826967 -0.0485346088 -0.5541551134 0.04879529 0.1789608291
785295290.0 0.0085441595 0.1916075605 -0.0553013625 -0.5533972408 -0.0547996566 -0.5537758888 0.0514532213 0.1791703775
790295260.0 0.0110143091 0.1923394258 -0.0610817273 -0.553092454 -0.0601134573 -0.5529955081 0.0532062972 0.1784093506
795295230.0 0.0123514481 0.1919967314 -0.0668376949 -0.5519850337 -0.0661244477 -0.552613119 0.0557311782 0.1780063109
800295200.0 0.0143200696 0.1920330957 -0.0730823599 -0.5511122011 -0.0724796867 -0.5512347079 0.0575614821 0.1775803854
805295170.0 0.0163282381 0.1921852264 -0.0792055595 -0.5509821843 -0.0787837096 -0.5507733273 0.0596571013 0.177216611
810295140.0 0.0179767702 0.1919232234 -0.0845217849 -0.5496349995 -0.0843856568 -0.549712725 0.0618953498 0.1766139385
815295110.0 0.0200219052 0.1917911549 -0.090324818 -0.5482744517 -0.0901795322 -0.5488089451 0.0635938174 0.1760957657
820295080.0 0.0215260777 0.1921593805 -0.0964900659 -0.5478630855 -0.0959676195 -0.5476648305 0.0652967596 0.1756374626
825295050.0 0.0239606116 0.1916660587 -0.101931596 -0.5463797103 -0.1021162765 -0.5466503193 0.0676954335 0.1748739234
830295020.0 0.0255772301 0.1919263128 -0.1079574607 -0.5451394086 -0.1083342463 -0.545378061 0.0702695041 0.174536379
