!Created with skrf (http://scikit-rf.org).
# Hz S RI R 50.0 
!freq ReS11 ImS11 ReS21 ImS21 ReS12 ImS12 ReS22 ImS22
300000.0 -0.318062581 -0.1264463598 0.3736847425 0.0637065091 0.3735188281 0.064620694 -0.319255202 -0.1315482236
5299970.0 -0.3249650925 0.0026635747 0.378353803 0.0033889064 0.3788733368 0.0033516671 -0.3257193562 0.0021023276
10299940.0 -0.322749617 0.0142035239 0.3799752616 0.0031512096 0.3800447643 0.0030743022 -0.3233484118 0.0126158556
15299910.0 -0.3188848212 0.0223907705 0.3818653671 0.0029153816 0.3823296908 0.0026132368 -0.3211301412 0.0196732004
20299880.0 -0.3155129584 0.0291763908 0.385063484 0.0018649288 0.3853505809 0.0020532139 -0.3180040047 0.025939804
25299850.0 -0.3116055267 0.0348018413 0.388474708 0.0007422794 0.3887337123 0.0003159811 -0.3150650306 0.0312579601
30299820.0 -0.3082186347 0.0394225013 0.3920973719 -0.0022617141 0.392153742 -0.0022641146 -0.3117694548 0.0356732211
35299790.0 -0.3045312868 0.0435654033 0.3948607844 -0.0050481536 0.3956293452 -0.0052398917 -0.3093451044 0.0400071968
40299760.0 -0.3012167916 0.0467980263 0.3983689466 -0.0083654478 0.3984047026 -0.0085087067 -0.3064944816 0.0430983441
45299730.0 -0.2979767919 0.0498307633 0.4012684615 -0.0122725396 0.4014796057 -0.012568278 -0.3037823849 0.0464582815
50299700.0 -0.294863379 0.0527144457 0.4037413528 -0.0171145983 0.4037634227 -0.0170286619 -0.3011576335 0.0498339111
55299670.0 -0.2924423392 0.0551086571 0.4057470762 -0.0215538432 0.4060034117 -0.0217699883 -0.2995101124 0.0521692973
60299640.0 -0.28973211 0.0578838051 0.4077603436 -0.0267364144 0.4083202896 -0.0269073354 -0.2972327499 0.0546850379
65299610.0 -0.2872250841 0.0603393782 0.4098710601 -0.0314651159 0.4097431124 -0.0321670615 -0.2952961318 0.0575015555
70299580.0 -0.2853124939 0.0619949402 0.4106604304 -0.036643429 0.4110746918 -0.036552995 -0.2938159674 0.059859998
75299550.0 -0.2833415961 0.0641559454 0.4115660382 -0.042063792 0.4121508993 -0.0423883478 -0.2917230242 0.0623990578
80299520.0 -0.2814423834 0.0665147247 0.4126852781 -0.0472702906 0.4130323752 -0.0469475525 -0.2902950138 0.0646378254
85299490.0 -0.2795516179 0.0686119719 0.4131687762 -0.0528514389 0.4136504858 -0.0523016562 -0.2892816727 0.066656245
90299460.0 -0.2785158479 0.0707705952 0.4138632851 -0.0577896865 0.4135753703 -0.0576909725 -0.2874322944 0.0693320461
95299430.0 -0.2768937098 0.0724599944 0.4138085806 -0.062793274 0.4144050724 -0.0631787277 -0.2865501554 0.0718840755
100299400.0 -0.2751977079 0.0747733734 0.4139160861 -0.0678051267 0.4143729713 -0.0682522885 -0.2855660312 0.0745479078
105299370.0 -0.2741466122 0.0766271965 0.4139547855 -0.0733581133 0.4141782615 -0.0731440861 -0.2840135903 0.0762466572
110299340.0 -0.27279633 0.0790313866 0.413921239 -0.0781719346 0.4140594634 -0.0784434494 -0.2831709591 0.0785062082
115299310.0 -0.2718605715 0.0809378873 0.4133532123 -0.0830152049 0.4134575625 -0.0835481991 -0.2820622555 0.0811564986
120299280.0 -0.2705675007 0.0832690449 0.4133958986 -0.0888158652 0.4130141482 -0.0890858943 -0.2810078208 0.0834351215
125299250.0 -0.2693500998 0.0849794264 0.4125110937 -0.0938575132 0.4128266905 -0.0937824964 -0.280081863 0.0859420905
130299220.0 -0.268254414 0.0875440151 0.411525439 -0.0991163603 0.4119125882 -0.0993679672 -0.2790146813 0.0884230227
135299190.0 -0.2672627815 0.0899890827 0.4113120783 -0.1036833402 0.4116495577 -0.104099383 -0.2784772963 0.0905935015
140299160.0 -0.2663004278 0.0923866106 0.4104366243 -0.1092733684 0.4104708341 -0.1089832379 -0.2777327492 0.0930575647
145299130.0 -0.2654831924 0.0947986425 0.4096235456 -0.1137679577 0.4094935894 -0.1137971602 -0.276676375 0.0959935433
150299100.0 -0.264117011 0.0969716371 0.4085520289 -0.1188555095 0.4086355666 -0.1188667568 -0.2759421446 0.0987009053
155299070.0 -0.2632287829 0.0997132448 0.4071585444 -0.1237409819 0.4074607287 -0.1237934765 -0.2744686841 0.1011306004
160299040.0 -0.2621170816 0.1019982684 0.4061597298 -0.1291452943 0.4061013723 -0.1288458482 -0.2740467141 0.1035656114
165299010.0 -0.2610766682 0.1042380246 0.4049129506 -0.1332280957 0.4048454418 -0.1335608122 -0.2726331235 0.1057360516
170298980.0 -0.2603696528 0.1067357401 0.4032345549 -0.1381253332 0.4035628573 -0.1384170043 -0.2721072136 0.1086774337
175298950.0 -0.2591531974 0.1091926221 0.4021112436 -0.1431915202 0.4023626697 -0.1432926605 -0.2711690572 0.1117015604
180298920.0 -0.2583179537 0.1117216585 0.4005854867 -0.1478398907 0.4006483347 -0.1481813621 -0.2699030778 0.1139800752
185298890.0 -0.256784154 0.114572515 0.3993686382 -0.1526427288 0.3991850358 -0.1528603509 -0.2685465172 0.1166409562
190298860.0 -0.2558146776 0.1172962537 0.3972510302 -0.1574134919 0.3977069339 -0.157236388 -0.2677385987 0.1191410481
195298830.0 -0.2550386565 0.1196068392 0.396379319 -0.1614981271 0.3962002115 -0.1619733029 -0.2672829389 0.1220161226
200298800.0 -0.2536035649 0.1221851649 0.394645106 -0.1670025446 0.3943963131 -0.166674184 -0.2655607397 0.1243658411
205298770.0 -0.2528382919 0.12474035 0.392463322 -0.1710219227 0.3925479889 -0.1710796352 -0.2647866896 0.1274437109
210298740.0 -0.251461799 0.1274588945 0.3906970767 -0.1756481132 0.3903141926 -0.1758638957 -0.2635389951 0.130014494
215298710.0 -0.2503043693 0.1300109691 0.3884308941 -0.1800148354 0.3886521842 -0.1803778567 -0.262282785 0.1326141761
220298680.0 -0.2490256693 0.1324628858 0.3865136331 -0.1846900718 0.3863190989 -0.1846357059 -0.2608942703 0.1351500215
225298650.0 -0.2479525262 0.1351642804 0.3846431543 -0.1887396572 0.3847590777 -0.1889115309 -0.2598127235 0.1379186876
230298620.0 -0.2464981617 0.1380050319 0.3825619497 -0.1934788739 0.3830297376 -0.1936979377 -0.2589055485 0.1406988124
235298590.0 -0.2455277259 0.1405916262 0.3805173445 -0.1982625661 0.3808947033 -0.1976832769 -0.2576339587 0.1434068131
240298560.0 -0.243879913 0.1433420472 0.3782974729 -0.2020728782 0.3785574315 -0.2021802071 -0.2561630011 0.1456371193
245298530.0 -0.2428902904 0.1458235088 0.3759900151 -0.2066472244 0.3761451806 -0.2065927632 -0.2549543036 0.1486203768
250298500.0 -0.241296752 0.148177998 0.3738883545 -0.2106487654 0.3739338909 -0.2104778097 -0.2535654035 0.1514766966
255298470.0 -0.2400677182 0.1513642035 0.3718681937 -0.2149076387 0.3720532249 -0.2151422409 -0.2519076738 0.1542056488
260298440.0 -0.238630272 0.1536487532 0.3693664126 -0.2187844394 0.3693985115 -0.2189738852 -0.2508120642 0.1565422088
265298410.0 -0.2375142498 0.1561266111 0.3668446098 -0.2235781551 0.3665559239 -0.2235706243 -0.2487093166 0.1591107963
270298380.0 -0.2361481768 0.1586905206 0.3645923179 -0.2275029999 0.364394799 -0.2275233088 -0.2473251089 0.1622298043
275298350.0 -0.2345558874 0.1616512549 0.3615150937 -0.2314863781 0.361841836 -0.2314803377 -0.2457177481 0.1649041863
280298320.0 -0.2330503156 0.1642066483 0.3594763142 -0.2353115699 0.3593894914 -0.2355272177 -0.2442074596 0.1673605131
285298290.0 -0.2315087727 0.1668452018 0.3565589795 -0.2395839049 0.3569295254 -0.2394121119 -0.2429004923 0.170290792
290298260.0 -0.230019733 0.169268229 0.3543680053 -0.2436244797 0.3544271762 -0.2439271671 -0.241288559 0.1729585071
295298230.0 -0.2284360887 0.1714614316 0.3515412611 -0.2477653469 0.3517075994 -0.2478436385 -0.2394624197 0.1751899307
300298200.0 -0.2266807907 0.1740778837 0.3489009622 -0.2519724615 0.3489374723 -0.2516030224 -0.2377136109 0.1780711154
305298170.0 -0.2253293289 0.1764849331 0.3463999155 -0.2556358284 0.3464304248 -0.2557690841 -0.2354694235 0.1804061681
310298140.0 -0.2231438733 0.179119812 0.3433457324 -0.2597804361 0.34337118 -0.2592551019 -0.2339940977 0.1828158911
315298110.0 -0.2221060299 0.1812257137 0.3407628857 -0.2638166025 0.3405572004 -0.2638729649 -0.2322136864 0.1856631295
320298080.0 -0.2199088769 0.1839154022 0.3372380435 -0.2675708475 0.3378405055 -0.2678009445 -0.230604515 0.1881219386
325298050.0 -0.2184219744 0.1858203356 0.3343776074 -0.2710239471 0.3348839299 -0.271451822 -0.2282858568 0.1903479541
330298020.0 -0.2170990097 0.1885909784 0.3314026701 -0.2749468304 0.3316029957 -0.2748806783 -0.2270459832 0.192655369
335297990.0 -0.2155239246 0.1907987342 0.3284938453 -0.2786601605 0.3285947614 -0.2786643414 -0.2250058306 0.1955206678
340297960.0 -0.2137194389 0.1933908212 0.3250562147 -0.2824637686 0.3253828937 -0.2824492483 -0.2231264396 0.1981954973
345297930.0 -0.211958451 0.1956064676 0.3219524645 -0.2862209347 0.3218902009 -0.2861653922 -0.2211113228 0.2004423523
350297900.0 -0.2102330871 0.1977404266 0.3191877643 -0.28903588 0.3187843376 -0.2892885687 -0.2192011804 0.2030017998
355297870.0 -0.2081179885 0.2001213637 0.3154457809 -0.2923383436 0.3154493829 -0.2928335012 -0.2171528459 0.2055473237
360297840.0 -0.206385157 0.2029568187 0.3118671378 -0.2962408509 0.3124422564 -0.2965292641 -0.2150740859 0.2080192641
365297810.0 -0.2045276726 0.2051576472 0.3091520314 -0.2994591094 0.3090951997 -0.299602543 -0.2133223766 0.210123645
370297780.0 -0.2023883913 0.2071931825 0.3053977251 -0.3031551417 0.3056727295 -0.3029160772 -0.2110056008 0.2125024624
375297750.0 -0.2003311814 0.2101964282 0.302204109 -0.3066200221 0.3021818648 -0.3064817617 -0.2088825835 0.214889423
380297720.0 -0.198674421 0.212200949 0.2991808789 -0.3099357245 0.2989691835 -0.3100332189 -0.2065958222 0.2176049356
385297690.0 -0.1969032042 0.2141250889 0.2956256545 -0.3126907467 0.2954386898 -0.3131448949 -0.2043860129 0.219954525
390297660.0 -0.1940325733 0.215986618 0.2918889213 -0.315689461 0.2920525988 -0.3164018254 -0.2021426992 0.2219054703
395297630.0 -0.1920157006 0.2184241401 0.2886959914 -0.3189109669 0.2884936917 -0.318698371 -0.1996894182 0.2238689497
400297600.0 -0.1901039971 0.2205226978 0.2853807042 -0.3225791357 0.2854374357 -0.3227229959 -0.1977825475 0.2268299521
405297570.0 -0.1880516237 0.2225021436 0.2812774197 -0.3255092583 0.2816435721 -0.3259566255 -0.1948860188 0.229258286
410297540.0 -0.1854252096 0.2250871244 0.2778797965 -0.3290529991 0.2778205847 -0.3286411588 -0.1927032221 0.2311798183
415297510.0 -0.1835478838 0.2270448018 0.2741885196 -0.3319900283 0.2744261318 -0.3316583409 -0.1902732912 0.2333339574
420297480.0 -0.1810407447 0.2286769383 0.2704898888 -0.3348528058 0.2706274125 -0.3349590525 -0.1878538729 0.2362434533
425297450.0 -0.1785435203 0.2307615341 0.2668681145 -0.3372280152 0.2666547843 -0.3375692353 -0.1854336787 0.237472256
430297420.0 -0.1765599751 0.2327344821 0.2634156596 -0.3408146427 0.2634540058 -0.3403312648 -0.1829250387 0.2397546401
435297390.0 -0.1741534456 0.2349410576 0.2591111471 -0.3439803407 0.2593564221 -0.3436772266 -0.1809603776 0.2425503412
440297360.0 -0.1714998475 0.2366748695 0.2552627096 -0.3468087083 0.2555494333 -0.3462787695 -0.1782883094 0.2442164695
445297330.0 -0.1691686363 0.2382989454 0.251854741 -0.3487130263 0.2517286936 -0.3490133805 -0.1751095019 0.2460558959
450297300.0 -0.1665541212 0.240487815 0.2477999926 -0.3515597491 0.2481470168 -0.3514456574 -0.1727529514 0.2481047798
455297270.0 -0.1644626982 0.2419987902 0.2441900503 -0.3540213938 0.2442259465 -0.3545420473 -0.1703166871 0.2504796171
460297240.0 -0.1615729434 0.2441057444 0.2404698819 -0.3574154573 0.2400426865 -0.3572083784 -0.167575184 0.252080222
465297210.0 -0.158956339 0.2457414234 0.2361228779 -0.3597479666 0.2359012878 -0.3598616158 -0.1648007931 0.2544373056
470297180.0 -0.1565927446 0.247628129 0.23190089 -0.3621540353 0.2322212365 -0.3620556909 -0.1619250209 0.2559578403
475297150.0 -0.1542455155 0.249592988 0.2282183743 -0.3648127164 0.228508817 -0.3650042664 -0.1596389766 0.2580884442
480297120.0 -0.1510208154 0.251524224 0.2242295742 -0.36722704 0.2244222219 -0.3669907496 -0.1569266122 0.2596058631
485297090.0 -0.148591156 0.2525775659 0.2198992267 -0.36940571 0.2199735161 -0.3694893103 -0.1542609526 0.2615480855
490297060.0 -0.145377586 0.254773285 0.2155917107 -0.3722323209 0.2161947946 -0.3718195398 -0.1516521536 0.2629086886
495297030.0 -0.1430111863 0.2559387604 0.2123243318 -0.3742729034 0.211839742 -0.3742418177 -0.1484756232 0.2647984739
500297000.0 -0.1404024902 0.2578669591 0.2077274688 -0.3764600671 0.2077088695 -0.3767316538 -0.1456222041 0.267020986
505296970.0 -0.1370617389 0.2596649727 0.2035850681 -0.3788650411 0.2037040004 -0.3785159262 -0.1428462855 0.2683086426
510296940.0 -0.1345084715 0.2612115108 0.1997908488 -0.3813830219 0.1998200108 -0.3813286259 -0.1400590244 0.2700246821
515296910.0 -0.1318804663 0.2628170585 0.1951328324 -0.3832315079 0.1950284828 -0.3826937573 -0.1373251742 0.2713984018
520296880.0 -0.1290013116 0.2643690288 0.1911539601 -0.3853219347 0.1910298745 -0.3853805147 -0.1341185035 0.2737834697
525296850.0 -0.1258599932 0.2654206314 0.1864080515 -0.387111359 0.1863249389 -0.3869678427 -0.1314490299 0.2749520634
530296820.0 -0.1233236789 0.2672168786 0.1822475557 -0.3891724466 0.1825302015 -0.3890713708 -0.128282653 0.2762883751
535296790.0 -0.1197321296 0.2685988973 0.1781961675 -0.3909067964 0.1783281178 -0.3911638893 -0.1252944946 0.2779375282
540296760.0 -0.1173235681 0.2699940395 0.1734847996 -0.3930091756 0.1734324016 -0.3927856833 -0.1223419231 0.2791861967
545296730.0 -0.1147162069 0.2717610631 0.1697133027 -0.3946922204 0.1694330226 -0.3944703217 -0.1193474134 0.2803852381
550296700.0 -0.1112085836 0.2728540673 0.165133816 -0.3966931756 0.1650869647 -0.3967270686 -0.1164725774 0.2820134165
555296670.0 -0.1088224606 0.2744323686 0.1609938908 -0.3986361101 0.1605279827 -0.3982265613 -0.1138497759 0.283053579
560296640.0 -0.1053254899 0.2750715177 0.156303164 -0.4000873454 0.1566573053 -0.3999773048 -0.1107871423 0.284646205
565296610.0 -0.1028294888 0.2766279226 0.1525966766 -0.4014266143 0.1519409256 -0.4015402024 -0.1073141895 0.2859447667
570296580.0 -0.0995895234 0.2784050464 0.1475015404 -0.4031769593 0.1474731738 -0.4030435418 -0.1045866806 0.2870849416
575296550.0 -0.0961101674 0.2792775332 0.1433829922 -0.4048371948 0.1431751067 -0.40474933 -0.1014961842 0.2881868067
580296520.0 -0.093581444 0.280783028 0.1390150356 -0.4065073079 0.1387731742 -0.4063045738 -0.098462655 0.2893827445
585296490.0 -0.089879962 0.2820410466 0.1344750708 -0.4076232946 0.1339255154 -0.4076794849 -0.0951061245 0.2910335246
590296460.0 -0.0868243526 0.2828800993 0.1299343272 -0.4090124144 0.129752991 -0.4093723054 -0.092390843 0.2917853599
595296430.0 -0.0841755543 0.2839012135 0.1252949004 -0.4104660671 0.1250272351 -0.4105673196 -0.0892362602 0.2930577496
600296400.0 -0.080894469 0.2850894774 0.1204820293 -0.4115707852 0.1204824455 -0.411722459 -0.0861384065 0.2938277407
605296370.0 -0.0778652987 0.2866379982 0.116699961 -0.4127403151 0.1161352993 -0.4131665173 -0.0830463178 0.2952575963
610296340.0 -0.0745095363 0.2876013781 0.1119505176 -0.4140242881 0.112090882 -0.4140411787 -0.0797011895 0.2963897623
615296310.0 -0.0710279034 0.2886175693 0.1073376863 -0.4156486602 0.1068394842 -0.4154749026 -0.0764310977 0.2970759392
620296280.0 -0.0685262237 0.2898686148 0.102879501 -0.4164657696 0.1025735008 -0.4163152124 -0.0734491961 0.2984407117
625296250.0 -0.0656799843 0.2903067724 0.0985174024 -0.417470323 0.0981582034 -0.4174949676 -0.0707253044 0.2986529024
630296220.0 -0.0620256874 0.2917126533 0.0936510802 -0.4184648494 0.093524069 -0.4183554547 -0.0671128696 0.3000674564
635296190.0 -0.0592033982 0.2924279089 0.0894074541 -0.4192025121 0.0890295069 -0.4192890478 -0.064133449 0.3008283464
640296160.0 -0.0559295663 0.2932840864 0.0846110436 -0.4203965866 0.0845989285 -0.4204907017 -0.0612738933 0.301562058
645296130.0 -0.0525240673 0.2943201266 0.0799787252 -0.4210159325 0.0800849865 -0.4210030656 -0.0582768024 0.3020984033
650296100.0 -0.0497766903 0.2949308443 0.0753163617 -0.4219480777 0.0750261087 -0.4221117075 -0.0544026389 0.3032957303
655296070.0 -0.0466112098 0.2957239484 0.0707465896 -0.4229603069 0.0705882438 -0.4225556705 -0.0517527901 0.3037551841
660296040.0 -0.0436046807 0.2965660446 0.0660719591 -0.4235923824 0.0659588847 -0.4233985276 -0.0482076422 0.304216191
665296010.0 -0.0403159239 0.2972915483 0.061471238 -0.4238445582 0.0612881842 -0.4242248793 -0.0451061676 0.3053284409
670295980.0 -0.0372667088 0.2979724085 0.0566274621 -0.424836996 0.0569680461 -0.4244132042 -0.0421352424 0.3054027529
675295950.0 -0.0340635461 0.2984864154 0.0524678226 -0.4249281728 0.0521645115 -0.4251905425 -0.0388495119 0.3065864268
680295920.0 -0.0314038926 0.2994514916 0.0480769896 -0.4253592316 0.0478638532 -0.4256088803 -0.0355084583 0.3065401698
685295890.0 -0.0275601551 0.2998167457 0.0429774907 -0.4260866758 0.0429141762 -0.426336721 -0.0321547007 0.3076596155
690295860.0 -0.0249031903 0.3005014901 0.0387331349 -0.426552758 0.0381215602 -0.4265865104 -0.0291859851 0.3078785543
695295830.0 -0.02189698 0.3009593976 0.0344080705 -0.426965781 0.0338463336 -0.4268880825 -0.0259051317 0.30816896
700295800.0 -0.0184750523 0.3015619407 0.0298565096 -0.4270030433 0.0295046069 -0.4270598472 -0.0225068196 0.3084367329
705295770.0 -0.0157219069 0.3020225137 0.0249464493 -0.4275221762 0.0246465198 -0.4274786507 -0.0193849267 0.3092644291
710295740.0 -0.0127131386 0.3021780676 0.0202401996 -0.4275049057 0.0198664607 -0.4279636549 -0.0157193705 0.3096231288
715295710.0 -0.009211516 0.3029718217 0.0157922308 -0.4280769151 0.0153521407 -0.4280418511 -0.0127514827 0.3095519392
720295680.0 -0.005846321 0.3034167748 0.0109148768 -0.4279921134 0.0105979936 -0.4280327238 -0.0096252642 0.3096077938
725295650.0 -0.0032862428 0.3036325275 0.0067699388 -0.4276951384 0.0062847347 -0.4280836448 -0.0063192783 0.3107240285
730295620.0 -0.000440135 0.3038683558 0.0018141547 -0.4274495582 0.0011223035 -0.427659943 -0.0033660493 0.310711572
735295590.0 0.0026540727 0.3043875699 -0.0028722921 -0.4281622861 -0.002879854 -0.4280657155 0.0001091548 0.3106593749
740295560.0 0.0059531719 0.3039946285 -0.0071934998 -0.427659502 -0.0074075796 -0.4281335134 0.0034155376 0.3107427589
745295530.0 0.0090292887 0.3043339124 -0.0118553468 -0.4268506099 -0.0116986357 -0.4276685673 0.0062989032 0.3108694669
750295500.0 0.0122076856 0.3048687684 -0.0164397435 -0.427462664 -0.0169382028 -0.4277436752 0.0098405942 0.310951148
755295470.0 0.0152352434 0.3049069601 -0.0211218765 -0.4274931414 -0.021164075 -0.4277448071 0.0128608055 0.3113880526
760295440.0 0.0181553033 0.3052929174 -0.0261627352 -0.4272009483 -0.0261548991 -0.4269134718 0.0163383188 0.3103725522
765295410.0 0.0213564784 0.3049003221 -0.0305079224 -0.4266983518 -0.0304145317 -0.4267122911 0.019416508 0.311032883
770295380.0 0.0244373578 0.3051444588 -0.0348391563 -0.4259539795 -0.0350543445 -0.4264818859 0.0225489418 0.3109520757
775295350.0 0.0273102201 0.3054430038 -0.0396356242 -0.4259205584 -0.0395397627 -0.4257209087 0.0261368029 0.3109081785
780295320.0 0.0308068247 0.3050611777 -0.0439848601 -0.4250864913 -0.0441514333 -0.4254624031 0.0293180862 0.3105559038
785295290.0 0.0337548891 0.3047326705 -0.0487269756 -0.4245853459 -0.0483524526 -0.4250297635 0.0320876096 0.3107070296
790295260.0 0.036590458 0.304737638 -0.0534864778 -0.424289024 -0.0534032918 -0.4247249747 0.0357434836 0.3107487727
795295230.0 0.0398296499 0.3043688591 -0.058088415 -0.4236007978 -0.0583343554 -0.4239174045 0.0389079345 0.3097088512
800295200.0 0.0427159657 0.3044615711 -0.0619028898 -0.4229748534 -0.0627521676 -0.4227757837 0.0417477959 0.3094048619
805295170.0 0.0454991115 0.3038741097 -0.0668070471 -0.4219944061 -0.0669378119 -0.4226209929 0.0457248438 0.3093639061
810295140.0 0.0487892865 0.3040329889 -0.0713903451 -0.4213841659 -0.0716197117 -0.4214696941 0.0488024705 0.3089673358
815295110.0 0.0516724337 0.3035110081 -0.0757075012 -0.4209321098 -0.0760441495 -0.4210818227 0.0518489387 0.3088087693
820295080.0 0.0549988917 0.3030702053 -0.0803317655 -0.4196291602 -0.0806320544 -0.4203959977 0.0543835913 0.3088809392
825295050.0 0.0578206308 0.3025881082 -0.0849245299 -0.4190952448 -0.0850832075 -0.4189345998 0.0585034128 0.3081544966
830295020.0 0.0609405667 0.3021148145 -0.0893135259 -0.4179629749 -0.0897039523 -0.4181184072 0.0616622361 0.3071874437
