!Created with skrf (http://scikit-rf.org).
# Hz S RI R 50.0 
!freq ReS11 ImS11 ReS21 ImS21 ReS12 ImS12 ReS22 ImS22
300000.0 -0.096769643 -0.0843223011 0.6240183748 0.0792999759 0.6250606479 0.0827151461 -0.0977076777 -0.092949444
5299970.0 -0.1005072643 0.0126260373 0.6305560768 0.0104163693 0.6307144411 0.0108869388 -0.1023534141 0.011871955
10299940.0 -0.0955047981 0.0297670637 0.6345215288 0.0157880344 0.6345076629 0.0160220627 -0.0972572976 0.0289275013
15299910.0 -0.0884038112 0.0431394662 0.64020575 0.0205575877 0.6406037735 0.0208426942 -0.0900374773 0.0422957848
20299880.0 -0.079498379 0.0543623907 0.6488274302 0.024039131 0.648954719 0.024227004 -0.0819716977 0.053570634
25299850.0 -0.0698374413 0.0626378691 0.6578922146 0.0255503621 0.6581287878 0.0253754275 -0.0728365573 0.0618918088
30299820.0 -0.0596771838 0.0694378199 0.6677246243 0.0247703002 0.6679135774 0.0244869342 -0.0626287268 0.0689681677
35299790.0 -0.0494567009 0.0744073936 0.6773340218 0.0215333869 0.677642146 0.0217760629 -0.0527460529 0.0735284234
40299760.0 -0.0398636076 0.0769708962 0.6871733809 0.0178538178 0.6867029843 0.0177208342 -0.0436534562 0.0769965467
45299730.0 -0.0306032489 0.079592111 0.6958324767 0.0117531173 0.6958754794 0.0117920874 -0.0343632417 0.0790143342
50299700.0 -0.0217088259 0.079761637 0.7031910993 0.0045875926 0.703916794 0.0050682598 -0.0258338926 0.08025969
55299670.0 -0.0143205945 0.0798195952 0.7100815028 -0.0027301686 0.7107391834 -0.0030238701 -0.0177012473 0.0798346122
60299640.0 -0.0065464714 0.0789867557 0.7173406385 -0.0115004119 0.7174228857 -0.0115885769 -0.0102942583 0.0797485137
65299610.0 -0.000401863 0.0781954297 0.7234851275 -0.0199859951 0.7244274871 -0.0200630224 -0.0037226641 0.078573685
70299580.0 0.0061135916 0.0758028355 0.7288013767 -0.0292216897 0.7285624519 -0.0291737819 0.0020901415 0.077251596
75299550.0 0.011697819 0.0742975519 0.7327131908 -0.0386327882 0.7331512289 -0.0392374175 0.008151927 0.0757101739
80299520.0 0.0162033325 0.0723237209 0.7377507627 -0.0490812376 0.7375320243 -0.0488874301 0.0133353789 0.0728924936
85299490.0 0.020707115 0.0695012553 0.7409040278 -0.0588371212 0.7407289894 -0.0586366944 0.0174252998 0.0709175622
90299460.0 0.0245664907 0.0671641173 0.7435735899 -0.0687607391 0.7436784428 -0.0689955262 0.0220520058 0.0688425486
95299430.0 0.0283179966 0.0651663167 0.7458204869 -0.0790949605 0.7461031663 -0.0791108849 0.0252980909 0.0663907669
100299400.0 0.0312687779 0.0628993599 0.7474453053 -0.0889833817 0.7472400846 -0.0890833485 0.0284723284 0.0639305906
105299370.0 0.0345831815 0.0600853203 0.7487069008 -0.0991614721 0.7489717727 -0.099033252 0.0320242397 0.0618517841
110299340.0 0.0371457319 0.0578759843 0.7499351944 -0.1089709017 0.7500817584 -0.1092697412 0.0347358654 0.0589286049
115299310.0 0.0397198721 0.0549570574 0.7509497523 -0.1186914085 0.7512841919 -0.1188002508 0.0372747802 0.0564438217
120299280.0 0.0413311862 0.052753194 0.7518073488 -0.1294251459 0.7517294323 -0.1292711036 0.0389163579 0.0541966681
125299250.0 0.0433293712 0.0504680731 0.7523584698 -0.1389738937 0.751694278 -0.1393640565 0.0413232898 0.0513179058
130299220.0 0.0450086246 0.0480222869 0.7517434855 -0.1488291785 0.7519273106 -0.1492551227 0.0432317291 0.0495078814
135299190.0 0.0467255505 0.0455080156 0.7514811954 -0.158282009 0.7507685112 -0.1587900991 0.0444166761 0.0475647225
140299160.0 0.0477566087 0.044307927 0.7509137466 -0.1686680511 0.7510513868 -0.168701404 0.0462854017 0.0454263224
145299130.0 0.0490672246 0.0419809838 0.7505734944 -0.1783240708 0.750265445 -0.1782263208 0.0469425002 0.042805541
150299100.0 0.0506588213 0.039920243 0.7492461276 -0.1879171725 0.7493248432 -0.1878965444 0.0485384825 0.0409969052
155299070.0 0.0514114119 0.0384085421 0.7482759835 -0.1982133473 0.7479317687 -0.1980919757 0.0494289783 0.0387874295
160299040.0 0.0525018436 0.0360002021 0.7461088238 -0.2066077306 0.7462927526 -0.2069645114 0.050797187 0.0372424979
165299010.0 0.0528648032 0.0342776057 0.7449919945 -0.2168902378 0.7451785478 -0.2168326442 0.0516071659 0.0348288181
170298980.0 0.0534524287 0.032912332 0.74252943 -0.225683002 0.7432739227 -0.2263865332 0.0529785621 0.0329754991
175298950.0 0.0544920513 0.0307655683 0.7415560742 -0.2349360214 0.7416563305 -0.2350778097 0.0534979051 0.0311110632
180298920.0 0.0551546536 0.0293188122 0.7390534301 -0.2442580894 0.7393267767 -0.2442002967 0.0539558751 0.0300570771
185298890.0 0.0559924318 0.0272746077 0.7367290784 -0.2540733299 0.7371259844 -0.2536173226 0.0544205044 0.0277947725
190298860.0 0.0561980243 0.0259370294 0.7344864867 -0.262850766 0.7346959765 -0.2628366429 0.0558696305 0.026171346
195298830.0 0.0564747177 0.0239804154 0.7314776133 -0.2713445474 0.7324610299 -0.2723497293 0.0558357099 0.0241536214
200298800.0 0.0571590532 0.0228042266 0.7296597462 -0.2803024942 0.729155706 -0.2802205898 0.056215949 0.0231991729
205298770.0 0.0570137673 0.0214756719 0.7268862306 -0.2892848218 0.7267306123 -0.2898431197 0.0565854377 0.0212190171
210298740.0 0.0570675785 0.0197085347 0.7237105517 -0.2986298652 0.7239657955 -0.2987870115 0.0568258922 0.0200756918
215298710.0 0.057683932 0.0187220606 0.7211729362 -0.3067723027 0.7207762061 -0.3070031495 0.0570172479 0.018649621
220298680.0 0.0581655876 0.0173409654 0.717446334 -0.3164037115 0.7177553128 -0.3155565146 0.0577736852 0.0175587566
225298650.0 0.0585720086 0.0160086479 0.7135287959 -0.3237531997 0.7144516814 -0.3239146032 0.0578082262 0.0159073259
230298620.0 0.058144188 0.0149328246 0.7115189737 -0.3328497174 0.7115208381 -0.3330077477 0.0577249659 0.0145389002
235298590.0 0.058375745 0.0133670275 0.7077330761 -0.3406713056 0.707505217 -0.3417795433 0.0580320237 0.0129930913
240298560.0 0.0582102282 0.0121196637 0.7042021223 -0.3494538618 0.7041918473 -0.3489259826 0.0581338681 0.0121412921
245298530.0 0.0587151658 0.0114202918 0.6994975094 -0.3574942319 0.7001399172 -0.3580741583 0.0582231997 0.0109986239
250298500.0 0.0583109283 0.0097382346 0.6961114798 -0.3652290353 0.6963840241 -0.3652420159 0.0586050375 0.0092929468
255298470.0 0.0583914358 0.0088837188 0.6919756676 -0.374379751 0.6926852338 -0.3741073103 0.0586390155 0.0076408241
260298440.0 0.05834731 0.0079301879 0.6887174211 -0.3820463609 0.6885172817 -0.3824038168 0.0594479343 0.007031261
265298410.0 0.0591336661 0.007401074 0.6842873471 -0.3908320462 0.683864047 -0.3905866926 0.0587953962 0.0054458795
270298380.0 0.0591576854 0.0056608006 0.6799490469 -0.3977099296 0.6798844864 -0.3984302625 0.0585742421 0.005072609
275298350.0 0.0585473081 0.0048932035 0.6756510693 -0.4065641485 0.6759151494 -0.4066632969 0.0587986914 0.0036793743
280298320.0 0.0586379399 0.0041664177 0.6709088564 -0.4136785148 0.6710578923 -0.4143447379 0.0592250695 0.0029270057
285298290.0 0.058826283 0.0030132304 0.666501727 -0.4215510266 0.6666975215 -0.4217628316 0.0590011626 0.0020153885
290298260.0 0.0586048507 0.00180464 0.6623514656 -0.4294311786 0.6624463502 -0.4297002964 0.0596402324 0.0007334143
295298230.0 0.0585370926 0.0007126373 0.6578247901 -0.4375605297 0.6578730437 -0.4374905565 0.0596001054 -0.0003901675
300298200.0 0.0592590646 0.0002178157 0.653556415 -0.4449582053 0.6531158548 -0.4453592575 0.0594773626 -0.0014033827
305298170.0 0.0589900442 -0.0013901805 0.6481587508 -0.4529737107 0.6486928818 -0.4532007683 0.059601449 -0.0021166399
310298140.0 0.0594430746 -0.002184985 0.6435251109 -0.4606180441 0.6436903293 -0.460932987 0.0597543265 -0.0028564568
315298110.0 0.0587494886 -0.0032754402 0.6386015769 -0.467777671 0.6389482701 -0.468436666 0.0598389202 -0.0046928835
320298080.0 0.0585321085 -0.0045568198 0.633175056 -0.4757079153 0.6335313984 -0.4756473225 0.059238522 -0.0057521874
325298050.0 0.0582638345 -0.0055347284 0.6283636824 -0.4831295808 0.6280591667 -0.4835892095 0.0589127013 -0.0067201372
330298020.0 0.0580536542 -0.0063953755 0.6220471045 -0.4908390797 0.6222135803 -0.4907422161 0.0583596401 -0.0082248728
335297990.0 0.0575972593 -0.0074781155 0.6166743805 -0.4977547936 0.6171276964 -0.4978700761 0.0582157483 -0.0090278089
340297960.0 0.0567146401 -0.0079467654 0.6106128372 -0.5049009909 0.6108339301 -0.5040739686 0.0573808855 -0.0092923101
345297930.0 0.05633034 -0.0083707276 0.6047675991 -0.5106854857 0.6049372459 -0.51098961 0.0576868967 -0.0106731613
350297900.0 0.0566337507 -0.0091842277 0.5989232101 -0.5172969292 0.5998677499 -0.5180969852 0.0568418565 -0.0105143988
355297870.0 0.0561169391 -0.010068341 0.593609105 -0.5247164842 0.5932433478 -0.5249626574 0.0563046398 -0.0112580367
360297840.0 0.0562827544 -0.0105623471 0.5877724023 -0.5315281907 0.5876338184 -0.5314223222 0.0562645329 -0.011805119
365297810.0 0.0558310747 -0.0115256226 0.5816437203 -0.5384021779 0.5817891354 -0.5377576198 0.0557847072 -0.0123780308
370297780.0 0.0559323532 -0.0123444942 0.5758265353 -0.5442030079 0.5762034385 -0.5448422825 0.0561566363 -0.0126618106
375297750.0 0.055067473 -0.0122806543 0.5705944911 -0.5507534403 0.5697744944 -0.5513406981 0.0556309429 -0.0134268746
380297720.0 0.0552043319 -0.0137853468 0.5637385409 -0.5569694245 0.5639156516 -0.5571852685 0.0554432821 -0.0143490169
385297690.0 0.0549673885 -0.0139798243 0.557597462 -0.5628710097 0.5577294065 -0.5635292403 0.0549323774 -0.0148318897
390297660.0 0.0544398019 -0.0147967897 0.5513279527 -0.5698875183 0.551408959 -0.5705483911 0.0550394721 -0.0157522565
395297630.0 0.0546178244 -0.0154787024 0.5452573386 -0.5753936652 0.5452246164 -0.575472297 0.0544080947 -0.0155509378
400297600.0 0.0536687583 -0.0160417943 0.5384509525 -0.5816217282 0.5391325469 -0.5825083753 0.0533969413 -0.0169400002
405297570.0 0.0539450247 -0.0165339476 0.5323293269 -0.5879401041 0.5324292984 -0.5878195469 0.0538499207 -0.01684583
410297540.0 0.0537719368 -0.0172748408 0.5255763324 -0.5932369683 0.5253748392 -0.5937597039 0.0534790909 -0.0176805489
415297510.0 0.0532317731 -0.0172979896 0.5190026995 -0.5990395096 0.5192435974 -0.5995248144 0.0529914021 -0.0179924882
420297480.0 0.0531263266 -0.0187296662 0.5127354348 -0.605586942 0.5128297487 -0.6057322434 0.0531367283 -0.0190375154
425297450.0 0.0532041059 -0.019588918 0.5060826193 -0.610824902 0.506187151 -0.610953381 0.0525186579 -0.0189084916
430297420.0 0.0525224924 -0.0194718514 0.4993255524 -0.6171384035 0.4995578393 -0.617031259 0.0518484273 -0.0203222082
435297390.0 0.0525142414 -0.0206490152 0.4921654649 -0.6218097032 0.492701179 -0.6218186811 0.0512673362 -0.0200275499
440297360.0 0.0522025086 -0.0215462685 0.4854159637 -0.6277326675 0.4849760139 -0.6278187772 0.0511517734 -0.0212429297
445297330.0 0.0525176852 -0.0219369695 0.4784124852 -0.6332771119 0.4785625975 -0.6331995965 0.0506721282 -0.0218126635
450297300.0 0.0519658179 -0.022610491 0.4715018481 -0.6379797728 0.4720057563 -0.6385465672 0.0505718176 -0.0217641662
455297270.0 0.0512078402 -0.0233629495 0.4648750892 -0.6433944553 0.4653091239 -0.6435844454 0.0503896283 -0.0226493392
460297240.0 0.0503626485 -0.024023033 0.457468229 -0.6484232804 0.4570361657 -0.6490045753 0.04985134 -0.0223303265
465297210.0 0.0506617878 -0.0246829749 0.4506562501 -0.6538952275 0.4509105893 -0.6537505154 0.0488573265 -0.0236807188
470297180.0 0.0499257497 -0.0254095554 0.4432350948 -0.658447642 0.4437007469 -0.659268466 0.0480626526 -0.0241968457
475297150.0 0.0494896024 -0.0264301345 0.435883141 -0.6632209754 0.4363722581 -0.66294894 0.0484934697 -0.0244666368
480297120.0 0.0498127499 -0.0266542003 0.4285626787 -0.6681777691 0.4291180725 -0.6684092238 0.0477172486 -0.024509326
485297090.0 0.049422737 -0.0272046668 0.4219348052 -0.6729007064 0.421494903 -0.6734137546 0.0470365496 -0.0256779725
490297060.0 0.0488710293 -0.0282451704 0.4142629895 -0.6776984783 0.4147793541 -0.677635005 0.0471408762 -0.0255966113
495297030.0 0.048103085 -0.0280505989 0.4061794751 -0.6817745644 0.4062952244 -0.6823006286 0.0468699543 -0.0263968432
500297000.0 0.0479632163 -0.0292006351 0.3989206627 -0.6865372752 0.3989485517 -0.6862396588 0.0458263786 -0.0268754487
505296970.0 0.0471634742 -0.029749353 0.3911764117 -0.6904599415 0.390907513 -0.6912111481 0.0451192503 -0.0272389764
510296940.0 0.0466708989 -0.0299611268 0.3838895954 -0.6952057801 0.383877015 -0.695370936 0.0452432336 -0.0269605443
515296910.0 0.0461844075 -0.0303333061 0.3759597554 -0.6989999322 0.3761637288 -0.6997153042 0.0441037446 -0.0282489131
520296880.0 0.0458040847 -0.0313182443 0.3680517262 -0.7037487963 0.3685905147 -0.703386094 0.0444030957 -0.0282049405
525296850.0 0.0453154881 -0.032015364 0.3606603543 -0.7074120416 0.3611899408 -0.7078080441 0.0439413182 -0.0289077047
530296820.0 0.0449282172 -0.0326312215 0.3532990107 -0.711106338 0.3531794641 -0.7116535958 0.0428241496 -0.0298897244
535296790.0 0.0442218409 -0.0329437558 0.3451465902 -0.7149333873 0.3456507625 -0.7156537993 0.04249555 -0.0302199413
540296760.0 0.043810909 -0.0337083979 0.3376116069 -0.7194623261 0.3373410607 -0.7192926543 0.041737997 -0.030070246
545296730.0 0.0434500622 -0.0334298274 0.3292675444 -0.7224544709 0.3295852621 -0.7232784053 0.0413936935 -0.0305502066
550296700.0 0.0428920021 -0.034394738 0.3218584298 -0.7265628629 0.3218937444 -0.7264895061 0.0407819422 -0.0302971393
555296670.0 0.0427074624 -0.0350903535 0.3137153668 -0.7300785288 0.3132673925 -0.7300282562 0.0402900611 -0.0309041455
560296640.0 0.0420156694 -0.0353366966 0.3057667861 -0.7330936387 0.305789465 -0.7331652125 0.0400149764 -0.0313974664
565296610.0 0.0408624575 -0.0360783833 0.297476054 -0.7364374182 0.2973137997 -0.7368779274 0.0390492682 -0.0320344147
570296580.0 0.0412758722 -0.036631899 0.2893891213 -0.7398234799 0.2898390849 -0.7395747738 0.0388298788 -0.0315601013
575296550.0 0.0402842772 -0.0361646803 0.2814840339 -0.7422300312 0.2816087876 -0.742965304 0.0385082287 -0.0326135993
580296520.0 0.039282696 -0.0370664687 0.2737415647 -0.7457118401 0.2732839762 -0.7463002625 0.0376018995 -0.0330549488
585296490.0 0.0394090953 -0.0378320012 0.2658861884 -0.7491432563 0.2649885644 -0.7489477966 0.0371447542 -0.0338845997
590296460.0 0.0381022117 -0.038676021 0.2569673588 -0.7517188658 0.2565503849 -0.7516502968 0.0368863172 -0.0332281137
595296430.0 0.0378361299 -0.0384032856 0.2491652238 -0.7543249213 0.2485873619 -0.754699214 0.0361569171 -0.0340542997
600296400.0 0.0371995977 -0.0385981668 0.2408362517 -0.7572385435 0.24082279 -0.757341742 0.0354524005 -0.0338772056
605296370.0 0.0369379844 -0.0384998725 0.2327619256 -0.7595481012 0.232316545 -0.7598086581 0.0350001291 -0.0350473723
610296340.0 0.0360213237 -0.0393906647 0.2244323836 -0.7622247436 0.2240011951 -0.7624872416 0.0344901322 -0.0343265623
615296310.0 0.0355582845 -0.0392893688 0.2154352641 -0.7643541603 0.2157680125 -0.764862938 0.0341875863 -0.0350883133
620296280.0 0.034790253 -0.0401512822 0.2073184645 -0.76681374 0.2075574597 -0.7669355225 0.0332259437 -0.0357336053
625296250.0 0.0345372596 -0.0403025604 0.1988228819 -0.7696062991 0.1987690583 -0.769407468 0.0331207103 -0.0353800084
630296220.0 0.0338597016 -0.0405500815 0.1907022826 -0.7718318521 0.1909504424 -0.7714493668 0.0319630805 -0.0360048711
635296190.0 0.0331896967 -0.040994331 0.1819391711 -0.7732344364 0.1820493354 -0.7730135827 0.0315093951 -0.0361940317
640296160.0 0.0322404775 -0.0413133825 0.1735039216 -0.7746430353 0.1734198758 -0.7754964196 0.0316134903 -0.0365896605
645296130.0 0.0320866157 -0.0411771346 0.1654686271 -0.7771218868 0.1652834254 -0.7773423275 0.0299109101 -0.0374448696
650296100.0 0.0308943976 -0.0410823252 0.1568828158 -0.7782180359 0.1570456111 -0.7781604738 0.0300704642 -0.0371454005
655296070.0 0.0305076183 -0.0420428687 0.1485609007 -0.7804721434 0.1483879412 -0.7803588727 0.0299574041 -0.0369991127
660296040.0 0.0292499373 -0.0420368219 0.1398129661 -0.7817462083 0.1397541492 -0.781723153 0.0289353067 -0.0376741641
665296010.0 0.0294892209 -0.0424136677 0.1313388671 -0.7835350901 0.1318676689 -0.7833336431 0.0276328049 -0.0376125091
670295980.0 0.0292558997 -0.042224024 0.1226070685 -0.7846168731 0.1228386241 -0.7847048251 0.0271276627 -0.038176603
675295950.0 0.0284212124 -0.0423950851 0.1137991843 -0.7860984078 0.1145704468 -0.7865141743 0.0273351639 -0.0378281425
680295920.0 0.0275386626 -0.0425419119 0.1051118497 -0.7873055498 0.1054797354 -0.7875540982 0.0268057911 -0.03829824
685295890.0 0.0266682697 -0.0427222752 0.0973538756 -0.7886932886 0.0968935493 -0.7885357704 0.0258344309 -0.0382222647
690295860.0 0.0266723009 -0.0430352792 0.0886662634 -0.7886944866 0.0883882849 -0.7891738933 0.0257218929 -0.0382340611
695295830.0 0.0265786536 -0.0436395924 0.0793484086 -0.7899496728 0.0795074284 -0.7903012568 0.0242656016 -0.0386635669
700295800.0 0.0257414301 -0.0434881752 0.0708658961 -0.7911514169 0.0709621946 -0.7913381128 0.024015459 -0.0396251203
705295770.0 0.0248797464 -0.0437948709 0.0628389707 -0.7923860359 0.0630038919 -0.7919952231 0.0228246013 -0.0391632559
710295740.0 0.0241245847 -0.0433126035 0.0542253113 -0.7922604751 0.0537742635 -0.7920136483 0.0217923371 -0.0388597894
715295710.0 0.0237246243 -0.0439057247 0.0452022828 -0.7928818072 0.0458311092 -0.793267516 0.0219416577 -0.0400938958
720295680.0 0.0226469418 -0.0442969701 0.0366633402 -0.7933452864 0.0369429561 -0.7937834871 0.0217139973 -0.0393033769
725295650.0 0.0225566274 -0.0441989646 0.027304932 -0.7933173502 0.0278897671 -0.7933579944 0.0210599197 -0.0392335265
730295620.0 0.0213632121 -0.0445263037 0.0188927409 -0.7935020045 0.0191177093 -0.7940265383 0.0206362643 -0.0404325232
735295590.0 0.0215709272 -0.0443485517 0.0113785371 -0.7937460047 0.0109215287 -0.7944425736 0.0196947731 -0.0394559568
740295560.0 0.0203569107 -0.0442194678 0.0018440033 -0.7935001725 0.0022087916 -0.7942661476 0.0195578101 -0.0401159775
745295530.0 0.0198457039 -0.0448190004 -0.0062152609 -0.7942231663 -0.0062279355 -0.7945621747 0.0182441578 -0.0396941487
750295500.0 0.0192948589 -0.0447136315 -0.0151746753 -0.7933047068 -0.0150402233 -0.794150485 0.0185004893 -0.0405482345
755295470.0 0.0188638264 -0.0444055672 -0.0235619527 -0.7936992253 -0.023649772 -0.7941713219 0.0171619648 -0.0399408854
760295440.0 0.017920078 -0.044591502 -0.0325838487 -0.7932703598 -0.0325745338 -0.793614834 0.0161347072 -0.0402441141
765295410.0 0.0171413324 -0.0452575938 -0.0401578982 -0.7927143174 -0.0404061923 -0.7935659122 0.0167711923 -0.0398179543
770295380.0 0.0170105289 -0.0447115176 -0.0492502916 -0.7922196346 -0.049485047 -0.7927510267 0.0159763635 -0.0400739354
775295350.0 0.0161102866 -0.044589718 -0.0581505559 -0.7917670608 -0.0579953655 -0.7917748048 0.0149468525 -0.0411157858
780295320.0 0.0155844099 -0.0448861793 -0.0664404896 -0.7909265814 -0.0662319918 -0.7915109103 0.0144338004 -0.0398209014
785295290.0 0.0147675154 -0.0445868056 -0.075459204 -0.7897245655 -0.0753561581 -0.7908575571 0.0132519444 -0.040195911
790295260.0 0.0141674618 -0.0446398673 -0.0839538067 -0.789599108 -0.0835437634 -0.7900743452 0.0133846621 -0.0400819276
795295230.0 0.0134660401 -0.0447712998 -0.0920627261 -0.7880194815 -0.0922367848 -0.7881815171 0.0127543647 -0.0391734887
800295200.0 0.0129619489 -0.0445411991 -0.1011386312 -0.7871597796 -0.1012507668 -0.7873914164 0.0118735027 -0.0397454298
805295170.0 0.0118392292 -0.0444608281 -0.109283126 -0.7855212349 -0.1097201228 -0.7857452323 0.0110872266 -0.0400762516
810295140.0 0.0117806744 -0.0446426032 -0.1178508804 -0.7845767801 -0.1181314619 -0.7857070886 0.010785656 -0.0395760944
815295110.0 0.0108253744 -0.0444016284 -0.1269107219 -0.7832519573 -0.1268897144 -0.7839107463 0.0099605787 -0.040401581
820295080.0 0.0101646244 -0.044876226 -0.1351083654 -0.7825547128 -0.1349900696 -0.7818979274 0.0090141762 -0.0397752159
825295050.0 0.0096584913 -0.0448396071 -0.1434540522 -0.7806565949 -0.1433563358 -0.780654422 0.0092285339 -0.0394466618
830295020.0 0.0091348625 -0.0443412073 -0.1526002279 -0.7789097554 -0.1524950007 -0.7795363841 0.0084300156 -0.0399842405
