!Created with skrf (http://scikit-rf.org).
# Hz S RI R 50.0 
!freq ReS11 ImS11 ReS21 ImS21 ReS12 ImS12 ReS22 ImS22
300000.0 -0.0444052492 -0.0574920632 -0.0022709662 0.0010907367 0.0005526869 0.0013915036 -0.7670534938 -0.1618250183
5299970.0 -0.0452015511 0.0157206512 -8.98671e-05 7.59846e-05 0.0001503327 -0.0001385911 -0.7845627667 -0.0087399988
10299940.0 -0.0390229904 0.0335523761 -0.0001600539 -0.0001425023 -0.0002240918 -1.23724e-05 -0.7884293549 -0.0050880827
15299910.0 -0.030809402 0.048082099 5.74902e-05 -4.13124e-05 -3.35434e-05 6.34718e-05 -0.7935445783 -0.0030697611
20299880.0 -0.0204339864 0.0598719937 -3.35373e-05 -0.00021067 -0.0001668448 -0.0001282152 -0.8002093197 0.0015695253
25299850.0 -0.0091924264 0.0690959141 0.0001712566 0.0001028401 1.48251e-05 0.0001648677 -0.8068052311 0.0071030796
30299820.0 0.0025341008 0.0761283405 3.6177e-06 -3.47554e-05 -8.89388e-05 -0.0001238136 -0.812623049 0.015295323
35299790.0 0.0145207984 0.0810735962 -1.75268e-05 -0.0001101095 -6.37055e-05 -1.28654e-05 -0.8176125087 0.0239026827
40299760.0 0.0259514871 0.0836389166 -8.09805e-05 2.4849e-05 5.60568e-05 3.7454e-05 -0.8218236919 0.0333706851
45299730.0 0.0364135446 0.0852464956 0.0002415247 1.9526e-06 7.42256e-05 -0.0001030062 -0.825234663 0.0423877325
50299700.0 0.0466008882 0.0850025357 -8.739e-07 -0.0001333391 -2.306e-05 7.964e-07 -0.8277285746 0.0521000404
55299670.0 0.055763116 0.0841854231 0.0001471914 0.0001120743 8.77133e-05 -0.0002320955 -0.8299341547 0.062975651
60299640.0 0.0643128091 0.082168317 9.2718e-05 -9.16086e-05 0.0002330891 8.11881e-05 -0.8307399909 0.0733731282
65299610.0 0.0721889014 0.0799826122 -0.0002238602 5.42725e-05 0.0001222103 0.0001290027 -0.8312896145 0.0823442875
70299580.0 0.0792583638 0.0770327467 -9.83254e-05 0.0002402089 0.000142464 -0.0001243429 -0.8321615589 0.0927944993
75299550.0 0.0856194317 0.0735090057 -0.0001359739 -9.6213e-06 -0.0001094241 -1.22897e-05 -0.8325855486 0.1022791622
80299520.0 0.0912436089 0.0704518997 1.52863e-05 0.0001145933 -3.34092e-05 0.0001100506 -0.8321659812 0.1126876648
85299490.0 0.0965354205 0.066337051 0.0002950056 2.39119e-05 -7.26514e-05 -0.000114617 -0.8317953533 0.1217647123
90299460.0 0.100879709 0.0628243832 0.0001255121 3.42286e-05 0.000223456 -0.0001204742 -0.8309497406 0.131342632
95299430.0 0.1049397746 0.0587519224 8.24712e-05 -8.14514e-05 2.42471e-05 0.0001790034 -0.8299561801 0.1411482069
100299400.0 0.1082832913 0.0551644264 -0.0001322562 0.0001118648 0.0001902925 6.91848e-05 -0.8287524758 0.1497473325
105299370.0 0.1117886678 0.0510890706 -3.29355e-05 7.35143e-05 6.48186e-05 3.73519e-05 -0.8276028927 0.1594471818
110299340.0 0.1143286403 0.0471781529 0.0001081491 0.0001134988 -0.0001494571 0.0001461507 -0.8265409191 0.1684135961
115299310.0 0.1172071319 0.0430128451 -1.71868e-05 -7.70082e-05 0.0001387325 -7.5537e-05 -0.8244368936 0.1770683313
120299280.0 0.1191904166 0.0395825445 0.0001471403 0.0001696856 5.14615e-05 9.02783e-05 -0.8234426766 0.1865328537
125299250.0 0.1211247616 0.0355066396 5.27522e-05 8.75352e-05 3.28602e-05 -9.7004e-06 -0.82203323 0.1950683087
130299220.0 0.1230895431 0.0323226738 -3.39861e-05 4.334e-07 0.000138587 5.56413e-05 -0.8200703139 0.2040017999
135299190.0 0.1246751014 0.0283135776 -0.0001082935 5.7016e-05 2.5925e-05 8.12519e-05 -0.8185104131 0.2125555791
140299160.0 0.1258585755 0.0248928068 3.02072e-05 8.85827e-05 5.85925e-05 -1.26571e-05 -0.8165477695 0.221348049
145299130.0 0.126955786 0.0214942915 -7.6809e-05 -3.7654e-06 3.30392e-05 -7.89776e-05 -0.8138807479 0.2297529554
150299100.0 0.1277663587 0.0179918323 -9.9759e-06 -5.68746e-05 -2.03889e-05 4.19963e-05 -0.81173848 0.2385571105
155299070.0 0.1286453563 0.0151094934 4.14691e-05 0.0001442364 -7.01843e-05 0.0002081009 -0.8096111126 0.2475466123
160299040.0 0.129416226 0.0115976074 0.0003599436 -0.0001065774 0.0002515069 -5.60411e-05 -0.8072958178 0.2569043593
165299010.0 0.1298490722 0.0087072571 7.46196e-05 0.0001939978 6.52919e-05 0.0001353373 -0.8043996717 0.2649539772
170298980.0 0.1301021778 0.0053309897 5.88731e-05 0.0003277324 0.0001004162 6.98559e-05 -0.8022862879 0.2738297774
175298950.0 0.130654627 0.0028421742 0.0002127866 0.0001886841 -3.87793e-05 7.22538e-05 -0.7993388789 0.2823477075
180298920.0 0.1305910139 -7.86587e-05 -0.000153518 8.63874e-05 -0.0001670417 6.59753e-05 -0.7957492478 0.2900574507
185298890.0 0.1308265619 -0.0032923803 0.0001048443 3.66697e-05 -1.71152e-05 2.40734e-05 -0.7931194682 0.2982773913
190298860.0 0.1310073064 -0.0060852506 -7.83028e-05 0.0002996167 0.0002734319 9.34942e-05 -0.7898199347 0.3080302657
195298830.0 0.1314299844 -0.0092976425 9.81821e-05 -7.72165e-05 -6.75178e-05 7.82542e-05 -0.7869044739 0.3155638899
200298800.0 0.1305472368 -0.0115250574 4.9439e-05 0.0001613665 -8.8357e-06 9.3098e-05 -0.7834195897 0.3240324437
205298770.0 0.1304584617 -0.0140012348 0.0001032214 0.0002998166 0.00011179 -9.03588e-05 -0.7797277352 0.3318302483
210298740.0 0.1306452457 -0.0166278059 6.03344e-05 1.89182e-05 6.69948e-05 0.0001801798 -0.7771431795 0.3403540996
215298710.0 0.1302400701 -0.0191185387 -6.77328e-05 0.0002128116 -0.0001298016 0.0001464303 -0.7737260447 0.3482356302
220298680.0 0.12992893 -0.0213979354 1.77676e-05 0.0004519716 -3.05455e-05 0.0001920219 -0.7700941037 0.3569057415
225298650.0 0.1295629079 -0.0238342513 0.0001295653 0.0002801368 7.68064e-05 4.2166e-06 -0.7658883489 0.3648200625
230298620.0 0.1290315846 -0.0261573951 -0.0001567721 0.0002454914 0.0002653383 0.0003638672 -0.7617920805 0.3727952221
235298590.0 0.1281915851 -0.0286618271 0.0001820629 0.0002286039 4.70025e-05 0.0001045078 -0.7577233968 0.3804479467
240298560.0 0.1278850938 -0.0307090669 -0.0001768207 0.000274118 -5.481e-07 0.0001386738 -0.7539724811 0.3879320208
245298530.0 0.1275420886 -0.0330472112 0.0002766003 0.0003556482 -0.0001531797 0.0001729007 -0.7500743369 0.3964448573
250298500.0 0.1266094655 -0.0350807224 -6.09128e-05 0.0001083565 6.59654e-05 0.0001374719 -0.7460035375 0.4045679255
255298470.0 0.1261785394 -0.0371544549 0.0001535364 -6.83467e-05 5.49018e-05 0.000276183 -0.7417884882 0.4125953544
260298440.0 0.1255312809 -0.0389799887 1.2335e-05 0.0001431003 1.49063e-05 -8.58057e-05 -0.7371297066 0.4199451031
265298410.0 0.1247880528 -0.0410845355 -0.0003170614 0.0002973615 -6.83482e-05 6.05254e-05 -0.7326776114 0.4272910189
270298380.0 0.124314874 -0.0430945621 3.78564e-05 0.0001482375 0.0002982676 -5.40711e-05 -0.7275827898 0.435598703
275298350.0 0.1233682512 -0.0452666439 -6.01262e-05 0.0001963526 0.0001546927 0.0002568804 -0.7230728469 0.4430273594
280298320.0 0.1227343129 -0.0469989227 0.0001538727 0.0004073194 0.0001792617 0.0002252771 -0.7188449352 0.4502290907
285298290.0 0.1218650328 -0.0489427027 0.0001487282 0.0001177763 0.0001392227 0.000217563 -0.7134227378 0.4579076094
290298260.0 0.1211153122 -0.0504685529 6.07594e-05 0.0003101589 7.12621e-05 -5.62112e-05 -0.7088555733 0.4655962211
295298230.0 0.1203215283 -0.0526895371 7.25691e-05 -0.0003028083 0.0001998457 0.0002327759 -0.70376513 0.473101301
300298200.0 0.1196822553 -0.054777819 0.0003720718 -9.5015e-06 1.1506e-06 0.000144306 -0.6987000577 0.4800602581
305298170.0 0.1190021412 -0.0564207396 0.0001562229 0.0002080237 -7.87421e-05 0.0001985552 -0.6935825825 0.488090548
310298140.0 0.1178720112 -0.0585629475 0.0002452591 0.0002110957 0.0003418968 0.0002621704 -0.6889010959 0.494863178
315298110.0 0.1167340449 -0.0605078064 0.0001716964 0.0003065228 0.0001110871 0.0001121782 -0.6830581819 0.5021810655
320298080.0 0.115611712 -0.0621075462 0.0001183468 0.0001303553 0.0001946594 5.54672e-05 -0.6781682256 0.509444185
325298050.0 0.1143648108 -0.0637795716 0.0001480452 7.88023e-05 -2.60989e-05 5.38207e-05 -0.6723827513 0.5161216581
330298020.0 0.1131438074 -0.0653838561 3.25275e-05 -4.11376e-05 9.11308e-05 0.0003908886 -0.6667605081 0.5231008278
335297990.0 0.1118610384 -0.0666501246 0.0002201601 0.0002923422 0.0001899779 7.3553e-06 -0.6613247767 0.5298219718
340297960.0 0.1107369872 -0.0682189 -0.0001351461 3.39315e-05 0.0002771019 0.0002387153 -0.6553847974 0.5373896742
345297930.0 0.1092846677 -0.0697607641 0.0001550435 0.000227854 0.0001691132 5.94864e-05 -0.6498308669 0.5438760475
350297900.0 0.1087494343 -0.0710624172 0.0001739281 0.0001950721 0.0001589649 -6.84363e-05 -0.6439835907 0.5512899388
355297870.0 0.1069293944 -0.0724705259 4.04945e-05 0.0003623922 7.51453e-05 0.0003225872 -0.6378860977 0.5570213829
360297840.0 0.1060427948 -0.0737980862 0.0002764717 0.0002790309 3.74069e-05 0.0002612317 -0.6317267468 0.5636377937
365297810.0 0.1049577888 -0.075150618 0.0001212883 0.0002269093 0.000209437 0.0001051982 -0.6261431319 0.5704138993
370297780.0 0.1036968558 -0.0763767567 0.000291836 0.0001359793 8.3224e-05 6.02579e-05 -0.6206051908 0.5770457122
375297750.0 0.1024336042 -0.0774899364 9.30493e-05 0.0001434024 0.0002749971 0.0001530902 -0.6142757417 0.5833331563
380297720.0 0.1017721715 -0.0788269367 0.0001216873 0.0002217096 5.72368e-05 2.60817e-05 -0.6080516504 0.5898244992
385297690.0 0.1001279221 -0.0798632711 0.0002326286 4.25891e-05 0.0001398103 -9.13383e-05 -0.6018385611 0.595797362
390297660.0 0.0990524331 -0.0811934028 0.0001969174 0.0002408149 0.0001935733 0.0001836374 -0.5951957377 0.6016905576
395297630.0 0.098065477 -0.0824076661 0.0001697119 6.16458e-05 7.56553e-05 9.62194e-05 -0.5893075553 0.6078911545
400297600.0 0.0966184987 -0.0834168977 0.0001912427 9.67807e-05 0.0002058562 3.85586e-05 -0.5831394538 0.613788105
405297570.0 0.0955104592 -0.0844420683 0.0002144287 -2.7484e-05 0.0003888825 -2.60956e-05 -0.5773760225 0.6201357555
410297540.0 0.0943798242 -0.0858209228 3.47745e-05 0.0002599575 0.0002179056 9.42127e-05 -0.5704319859 0.6258424671
415297510.0 0.0932153829 -0.0869995612 0.0001305451 6.87495e-05 0.0001542855 0.000165383 -0.5638268992 0.631586361
420297480.0 0.0916253345 -0.0882228858 -1.67637e-05 0.0002188778 0.0001540241 3.28849e-05 -0.5571324985 0.637347821
425297450.0 0.0900875532 -0.0891174462 0.000259796 6.63193e-05 0.0002164392 0.0001239505 -0.5499452275 0.6431220685
430297420.0 0.0890556174 -0.0901174926 0.0001680422 4.93991e-05 0.000233804 -7.63695e-05 -0.5441561073 0.6485809348
435297390.0 0.0878698845 -0.0913023214 0.0002408734 0.0001892521 0.0002684075 0.0001953266 -0.537048885 0.6538149599
440297360.0 0.0865707996 -0.0921688871 2.59937e-05 0.000135479 2.6095e-05 4.57978e-05 -0.530123964 0.6588912895
445297330.0 0.085195078 -0.0929816388 0.0002445742 0.0001917564 0.000183423 2.99529e-05 -0.5236660214 0.6643667198
450297300.0 0.083744088 -0.0942490766 0.0002309509 -8.11389e-05 0.0001945603 7.0591e-05 -0.516794114 0.6698913535
455297270.0 0.0823899306 -0.0950976226 0.0001884149 3.24764e-05 0.000247641 -2.9079e-06 -0.5100452093 0.6748383571
460297240.0 0.0812586018 -0.0957403837 -8.58204e-05 6.36709e-05 4.40709e-05 6.24617e-05 -0.502648687 0.6805373129
465297210.0 0.0801950958 -0.0965975373 0.0001200686 0.0001848911 0.0002890474 4.0914e-06 -0.4959667582 0.6844979401
470297180.0 0.0786213939 -0.0973765078 0.0001770884 4.01101e-05 0.000236032 0.0001116606 -0.4895681903 0.6897482139
475297150.0 0.0770092272 -0.0983029951 0.0001707125 7.73854e-05 0.0002322851 3.10133e-05 -0.4823689109 0.694569141
480297120.0 0.0758481068 -0.0995316967 8.28863e-05 3.34466e-05 8.52798e-05 0.0001033815 -0.4756003713 0.6999927821
485297090.0 0.0745142554 -0.1000456138 0.0002539498 0.0001655404 0.0001384605 -3.12483e-05 -0.4678428739 0.7039693413
490297060.0 0.0732606594 -0.1008847361 0.0003146998 0.0001220546 0.0001920127 0.0001495896 -0.4610592698 0.7088248578
495297030.0 0.0717694129 -0.1015512256 0.000336454 0.0001989104 0.0001536169 0.000158391 -0.4534738809 0.713045556
500297000.0 0.070413229 -0.1026456122 0.0001530799 0.0002044473 0.0003330529 0.0001426046 -0.4467424417 0.7178885509
505296970.0 0.0688258322 -0.1030213102 0.000251301 0.0002117173 0.0002243201 0.0001407046 -0.4398575636 0.7216850034
510296940.0 0.0676124232 -0.1037207607 0.0003094868 -3.5817e-05 0.0001712965 2.84675e-05 -0.4321839679 0.7265717442
515296910.0 0.0661556767 -0.1041973871 0.0002945512 0.0001543017 0.0003101534 6.9435e-06 -0.4248607465 0.7307604425
520296880.0 0.0647836287 -0.1049712351 0.0001788276 0.0002101597 0.0003790399 -1.66224e-05 -0.4177168825 0.7347203508
525296850.0 0.0636097464 -0.1055918948 0.0002195742 0.000265039 0.0003116546 -0.00015306 -0.409691089 0.7393387702
530296820.0 0.0619066302 -0.1061532997 9.96206e-05 0.000159278 0.0001945763 5.47255e-05 -0.4028203472 0.7428981405
535296790.0 0.0605755758 -0.1068568396 0.0001481424 3.85412e-05 0.0004035457 0.0002218404 -0.3958202723 0.7468911557
540296760.0 0.0590125774 -0.1077919265 0.0001792731 6.38929e-05 0.0004928956 1.92265e-05 -0.3882383654 0.7511141091
545296730.0 0.0576776272 -0.1078721949 0.0005818482 -2.7385e-05 0.0002064735 0.0001646833 -0.3803860991 0.7538889031
550296700.0 0.0562783942 -0.1083655543 0.0002950463 -6.2731e-05 0.0002667787 0.0001009447 -0.3732668524 0.7580947522
555296670.0 0.0550062504 -0.1090293185 0.0003780382 3.04019e-05 0.0002609634 4.71254e-05 -0.3656810127 0.761556377
560296640.0 0.0533170344 -0.1097050346 0.0002482138 -8.252e-05 0.0001917338 9.03719e-05 -0.3577056542 0.7652378056
565296610.0 0.0519939819 -0.110017443 0.0002886201 7.63401e-05 0.0002596503 0.0001691847 -0.3504188878 0.7690411917
570296580.0 0.0506689359 -0.1105564796 0.0001680251 0.0002144753 0.0002982138 1.85172e-05 -0.3431192754 0.7723265709
575296550.0 0.0493236217 -0.1108649051 0.0002886681 8.0816e-06 0.000235984 9.53134e-05 -0.3352615696 0.7760625264
580296520.0 0.047915622 -0.1112382241 2.5394e-05 0.0002563362 0.0004165638 8.19528e-05 -0.327191136 0.7792686002
585296490.0 0.0461424669 -0.1117185047 0.0003777275 -0.0001200916 0.0005342946 0.0001225288 -0.3197410035 0.7816528156
590296460.0 0.0446415748 -0.1120730844 0.0003875634 0.0002937413 0.000609406 -5.46694e-05 -0.3117347502 0.7845386915
595296430.0 0.0433094771 -0.1123253889 0.0003048585 7.69094e-05 0.0001684754 -0.0001112793 -0.3041255614 0.787413203
600296400.0 0.041882248 -0.1128264076 0.0002176655 7.21701e-05 0.0003595684 -4.69517e-05 -0.2965664426 0.7911492248
605296370.0 0.0406804934 -0.1128098053 0.0006123167 -0.0002447211 0.0003838141 7.128e-06 -0.2881339188 0.7943287453
610296340.0 0.0390498433 -0.1134062161 0.0003706394 0.0001126399 0.0003261891 -0.0001375214 -0.2801997021 0.7972491188
615296310.0 0.0374733154 -0.1134442635 0.0001245603 -0.0001339009 0.0004088916 8.29997e-05 -0.2727353545 0.7992910598
620296280.0 0.0361901339 -0.1138888501 0.0003200525 0.0001774899 0.0003670556 7.90163e-05 -0.2647173306 0.8017770973
625296250.0 0.034666033 -0.1140132322 0.000352376 0.0001651469 0.0005237152 0.0001394398 -0.2562990577 0.8046846091
630296220.0 0.0332115958 -0.1143145621 0.0002300519 -8.2226e-05 0.0001470456 0.0001034443 -0.2483731714 0.8074029
635296190.0 0.0318640566 -0.1144735324 0.0003935481 -4.37347e-05 0.0001481292 6.987e-05 -0.2410697357 0.8093539909
640296160.0 0.0302698993 -0.1145489477 0.0004123827 2.19152e-05 0.0003423883 5.04979e-05 -0.2322349257 0.8118261251
645296130.0 0.0286702781 -0.1148708446 0.0002827481 -0.0001094075 0.0001995491 -8.88588e-05 -0.2254713494 0.8143719007
650296100.0 0.0272678152 -0.1146217565 0.000247735 -0.0002669021 0.0004508762 -9.31386e-05 -0.2166079099 0.816397901
655296070.0 0.0262951573 -0.1151635109 0.0005175967 -5.38458e-05 0.0002073958 -0.0001570074 -0.2087143802 0.817927096
660296040.0 0.0243632169 -0.1148888618 0.0002743814 2.39389e-05 0.0003811476 -2.97506e-05 -0.2009260428 0.8198817592
665296010.0 0.0228961405 -0.1150645183 0.000613219 3.2391e-05 0.0001668957 -0.0001099163 -0.1925566838 0.8225361551
670295980.0 0.0215544583 -0.1153873349 0.0002832256 8.27448e-05 0.0003977345 -0.0002012056 -0.1850920873 0.8240806902
675295950.0 0.0200754397 -0.1151744449 0.000540424 0.0001857123 0.0002125894 7.76382e-05 -0.1765205173 0.8264673273
680295920.0 0.0185950137 -0.1151557801 0.000167006 -0.0001351155 0.0003404841 1.36936e-05 -0.1680152014 0.8274911816
685295890.0 0.0171246938 -0.115256027 0.000148863 6.531e-06 0.000280312 0.0001809061 -0.1598861719 0.8289935379
690295860.0 0.0158879651 -0.1154893521 0.0004190995 4.4734e-06 0.0002394431 -0.0001101718 -0.1520445857 0.830792094
695295830.0 0.0141905425 -0.1152291089 0.0003267945 -0.0002584186 0.0003259298 -8.25878e-05 -0.1440705898 0.8326188427
700295800.0 0.0126450512 -0.1151000117 0.0004674862 3.82e-08 0.000444828 -5.9435e-06 -0.1348283792 0.8329400901
705295770.0 0.01155838 -0.1150681189 0.0002886515 -3.7061e-06 0.0004435589 -6.8147e-06 -0.1272770176 0.8348729157
710295740.0 0.0102006878 -0.1148266238 0.0002070012 0.0001213447 0.0003710082 8.61184e-05 -0.1194074924 0.8363918612
715295710.0 0.0083660182 -0.1148321839 0.0001419062 -0.0001241453 0.0003943558 -3.12829e-05 -0.1109875359 0.8368990375
720295680.0 0.0067782749 -0.1147809305 0.0004294948 -0.0001048707 0.0005601419 -6.20307e-05 -0.1023076292 0.838467203
725295650.0 0.0058981025 -0.1143487417 0.0003182214 5.2204e-06 0.0002819978 -6.41415e-05 -0.0940883964 0.8392555809
730295620.0 0.0042327814 -0.114604653 0.0001537768 -0.0001127462 0.0004802414 -0.000116776 -0.08540372 0.8404056154
735295590.0 0.0030218077 -0.1141541935 0.0004115785 -0.0001665193 0.0004482522 1.42951e-05 -0.0769466303 0.8408703572
740295560.0 0.0015178421 -0.1140218645 0.0003595906 -6.94007e-05 0.0004247833 -1.88769e-05 -0.069110089 0.8410250988
745295530.0 -0.0001427507 -0.1140043288 0.0004754256 -0.000212017 0.0003781784 -1.83315e-05 -0.0605867281 0.8422527718
750295500.0 -0.0012874714 -0.1136524305 0.0005169069 -2.71514e-05 0.0003162255 -0.0001815278 -0.0524774835 0.8427814907
755295470.0 -0.0024611217 -0.1133820228 0.0004192332 5.04417e-05 0.0003857974 -1.36066e-05 -0.0445735222 0.8436341879
760295440.0 -0.004302191 -0.1128877639 0.0005609636 -1.4296e-05 0.0004510169 -0.0001305784 -0.0360712766 0.8432455795
765295410.0 -0.0057002393 -0.1130076308 0.0003071834 -5.10778e-05 0.0003360269 0.0001585192 -0.027014573 0.8441699734
770295380.0 -0.0072509083 -0.1122976153 0.0003378183 -0.0001094551 0.0004069192 -5.79593e-05 -0.0187278938 0.8440419921
775295350.0 -0.0087369812 -0.1118657118 0.0003309971 -9.16257e-05 0.0003203806 7.90215e-05 -0.0113216692 0.8442111424
780295320.0 -0.0100736618 -0.1119169521 0.0005435076 -0.0002924812 0.0003574614 6.33348e-05 -0.0027571602 0.8449690262
785295290.0 -0.011238976 -0.1114347307 0.0005329662 -9.45753e-05 0.0001575614 -0.0001694082 0.0055004935 0.8446226917
790295260.0 -0.0126735934 -0.1108317399 0.0003294028 0.0001823012 0.0003317562 0.000120118 0.0140453349 0.8444859348
795295230.0 -0.0138214166 -0.1103276851 0.0001003405 -0.0001214814 0.0005733566 -0.0001325371 0.0223310913 0.8445158258
800295200.0 -0.0152890802 -0.1100951973 0.0002763454 -0.0001425823 0.000230802 1.4477e-05 0.0304405974 0.8435290665
805295170.0 -0.0163669107 -0.1097882857 0.0005811631 -0.0001200665 0.000513372 -0.0001444148 0.0387719898 0.8431733868
810295140.0 -0.017806893 -0.1092196057 0.000406919 5.86477e-05 0.0003247803 -0.000109704 0.0470026797 0.8440151432
815295110.0 -0.0189185012 -0.108674028 0.000145122 -0.0001814856 0.0002558759 -0.0002777706 0.0548069788 0.8432606898
820295080.0 -0.0206615406 -0.1084763235 0.0001830569 9.862e-05 0.0004038465 -3.27038e-05 0.063495571 0.8428254855
825295050.0 -0.0218563169 -0.1080367455 0.0004861079 6.3847e-06 0.0004407129 -3.55861e-05 0.0717135784 0.8418789134
830295020.0 -0.023421631 -0.107343121 0.000416782 -0.0001806152 0.0003661852 -0.0001307148 0.0796152884 0.8409601263
835294990.0 -0.0247134268 -0.1067401539 0.000244227 7.98442e-05 0.0003656941 -1.14298e-05 0.088605573 0.8396471664
840294960.0 -0.025615107 -0.1063520538 0.0003649492 -0.0002090795 0.0002302597 -0.0001581659 0.0958741748 0.8394329448
845294930.0 -0.027145905 -0.1056618045 0.0003373976 -0.0001472872 0.0003063368 -0.0001080226 0.1042762292 0.8376182113
850294900.0 -0.0283976932 -0.1051808254 0.0002147342 -0.0002254456 0.000356961 -2.33651e-05 0.1129421838 0.8370718826
