!Created with skrf (http://scikit-rf.org).
# Hz S RI R 50.0 
!freq ReS11 ImS11 ReS21 ImS21 ReS12 ImS12 ReS22 ImS22
300000.0 -0.7723588731 -0.1524760968 -0.0003818784 0.0016171975 -0.0001761814 -8.79938e-05 -0.211209972 -0.0948772708
5299970.0 -0.7852397618 -0.0074963474 -0.0001487211 -0.0001007665 0.0001014585 -8.18173e-05 -0.2162622979 0.0067238354
10299940.0 -0.7876743566 -0.0039792971 8.73267e-05 4.95163e-05 2.88108e-05 1.82342e-05 -0.2131185363 0.0184368119
15299910.0 -0.7930756567 -0.0014971474 -3.69524e-05 -0.000191346 2.0863e-06 -6.84423e-05 -0.2080378049 0.0277250365
20299880.0 -0.7992759634 0.0022018554 7.15139e-05 0.0001471144 0.0001047972 -0.0001262557 -0.2031701104 0.0354268541
25299850.0 -0.8061439165 0.0084795497 -0.0001617484 8.15196e-05 -2.07483e-05 -1.56594e-05 -0.1973739495 0.0414527061
30299820.0 -0.8119887336 0.0164729745 -3.70779e-05 0.0001088353 6.88614e-05 -0.0001555657 -0.1915640061 0.0465200247
35299790.0 -0.8166277235 0.0252622254 0.0001038932 -9.76806e-05 0.0002662934 8.87523e-05 -0.1857640018 0.050326352
40299760.0 -0.8217051095 0.0344469244 0.0003124681 8.3868e-05 -4.5204e-06 0.0001642915 -0.1804493077 0.0531083381
45299730.0 -0.8250278107 0.0438904878 6.6667e-06 -1.7397e-05 1.0571e-05 0.0002216373 -0.1755464968 0.0551371572
50299700.0 -0.8268409447 0.0539645212 0.0002341762 -6.10302e-05 -4.82218e-05 -0.0001575537 -0.1703055687 0.0569828352
55299670.0 -0.8283648617 0.0643524116 -7.136e-07 -5.70579e-05 -0.0001137321 3.4085e-06 -0.1663336025 0.057970886
60299640.0 -0.829939078 0.074718212 2.19591e-05 3.10741e-05 -0.0001245517 5.53052e-05 -0.1621553436 0.0587563527
65299610.0 -0.8309664612 0.0848377762 -2.3883e-06 9.14165e-05 -3.70936e-05 1.52832e-05 -0.158557202 0.0591156855
70299580.0 -0.8313992067 0.0947411929 -6.08205e-05 -0.0002079505 -1.07179e-05 -0.0001345298 -0.1553517725 0.0593293125
75299550.0 -0.831579738 0.1044829895 0.0001943699 0.0001250519 0.0001749903 -1.74255e-05 -0.1524719334 0.0595355774
80299520.0 -0.8309825697 0.1142828521 2.3341e-05 3.83856e-05 3.11376e-05 8.60326e-05 -0.1503098717 0.059516642
85299490.0 -0.8304749726 0.1243138884 -0.0002436372 0.0002101908 0.0002785208 -2.59374e-05 -0.1479373746 0.0596303376
90299460.0 -0.8296963788 0.1340116158 9.91724e-05 -4.13047e-05 3.3462e-05 -4.24491e-05 -0.1454168079 0.0597020031
95299430.0 -0.8286638565 0.1437752747 -1.47545e-05 0.0002407414 -5.40348e-05 6.49586e-05 -0.1434570266 0.0596467024
100299400.0 -0.8273288185 0.1530412388 -0.000218239 -6.79388e-05 2.73784e-05 -1.5136e-06 -0.1416949884 0.0593070936
105299370.0 -0.8266318471 0.1623985752 4.7541e-06 -0.0001449861 5.04667e-05 7.39584e-05 -0.1398171977 0.0592382068
110299340.0 -0.8253677737 0.1708860772 -0.0002120863 0.0002662829 0.0001477056 0.0002440419 -0.1388221675 0.0596263545
115299310.0 -0.8237513592 0.1802548629 1.86249e-05 -1.09917e-05 -5.88236e-05 7.26671e-05 -0.1373408546 0.0593752205
120299280.0 -0.8221234229 0.189534859 5.24995e-05 6.65228e-05 8.346e-07 -4.50994e-05 -0.135952506 0.0596343617
125299250.0 -0.8202819081 0.1984208864 -3.7604e-05 -1.21598e-05 -0.0001065919 0.0001271034 -0.1348327135 0.0594580502
130299220.0 -0.8182991939 0.2074629571 5.92363e-05 -2.2571e-05 0.00017168 0.0001272726 -0.1343165059 0.0600154711
135299190.0 -0.8165538717 0.2166364964 0.0001635926 0.0001684617 0.0001431419 -6.58055e-05 -0.1334403411 0.0598162197
140299160.0 -0.8145257303 0.225929597 -4.34062e-05 6.67325e-05 -6.20597e-05 -0.0001237212 -0.1323153177 0.0598927892
145299130.0 -0.8121557261 0.2343808687 3.75384e-05 -2.01555e-05 -1.2159e-05 3.0919e-05 -0.1321134299 0.0603868509
150299100.0 -0.8099016743 0.2434471138 -2.30685e-05 4.92541e-05 8.50264e-05 2.58246e-05 -0.1310288236 0.0602580492
155299070.0 -0.807486213 0.2523485781 -0.0001129885 7.2634e-06 -0.000167244 6.4788e-06 -0.1305372798 0.0610021445
160299040.0 -0.8045488138 0.2612395079 2.10828e-05 -4.98242e-05 2.11082e-05 0.0001200884 -0.129898278 0.0614002506
165299010.0 -0.8020973066 0.26924671 -0.0001173509 0.000264393 0.0001451368 5.37408e-05 -0.1289385764 0.0615821239
170298980.0 -0.7996537175 0.2779860675 -4.08417e-05 0.0002052749 -0.0001585582 0.0001774078 -0.1285404495 0.0620264795
175298950.0 -0.7968672099 0.287035875 0.0002885148 7.09779e-05 -0.0001004972 0.0001279341 -0.1282072974 0.0627466547
180298920.0 -0.793669191 0.2952564857 0.0001031822 8.25582e-05 -0.0001343926 -8.9283e-05 -0.1270384583 0.0632520948
185298890.0 -0.7904891108 0.304284669 -2.88876e-05 0.0001123614 3.58612e-05 -6.14847e-05 -0.126850347 0.0638172197
190298860.0 -0.7874985336 0.3122316381 6.4874e-05 -4.019e-06 0.0001442588 5.89879e-05 -0.1260081881 0.0643327002
195298830.0 -0.7836740881 0.3211605388 -5.69145e-05 -2.93643e-05 -6.47266e-05 -3.54922e-05 -0.1256890517 0.0649061358
200298800.0 -0.7808846199 0.3293883914 0.0001142779 7.42397e-05 7.62467e-05 0.0002290182 -0.1249975369 0.0655746817
205298770.0 -0.7775092333 0.3373292056 4.68143e-05 0.0003191195 8.6707e-05 -9.97632e-05 -0.1249191518 0.066380472
210298740.0 -0.7735025393 0.3456962422 -9.71469e-05 7.97624e-05 0.0002114061 3.09908e-05 -0.1240287909 0.0671177983
215298710.0 -0.770449023 0.3545234791 0.0001177639 -6.24821e-05 0.0001268221 0.0001143181 -0.1241593618 0.067916505
220298680.0 -0.7667033816 0.3624600208 7.01486e-05 0.0001219456 8.94381e-05 0.0001513339 -0.123157657 0.0687952708
225298650.0 -0.7627017802 0.3707258496 0.0001772958 4.64526e-05 -6.3243e-06 -7.79878e-05 -0.1229433668 0.0699227273
230298620.0 -0.7592858828 0.3790779553 -7.88617e-05 5.26923e-05 -3.26817e-05 0.000127442 -0.1221872093 0.0703707791
235298590.0 -0.7543310075 0.3874213622 2.38621e-05 0.0002072463 4.56278e-05 -0.0001274848 -0.1218220731 0.0709949855
240298560.0 -0.7506102125 0.395192049 5.75153e-05 0.0003091718 -0.0001855647 2.15071e-05 -0.1214810986 0.0723206792
245298530.0 -0.7465065127 0.4032170976 9.65337e-05 0.0001482266 0.0001622763 0.0003456795 -0.120692319 0.0730408166
250298500.0 -0.7427128972 0.4104900063 1.29015e-05 9.55964e-05 -4.88536e-05 0.0001401214 -0.1199328339 0.0739789216
255298470.0 -0.7377586837 0.418671857 0.0001163552 -1.48101e-05 0.000170922 0.0001173106 -0.1196305036 0.0748951154
260298440.0 -0.7338121592 0.4260643622 2.54763e-05 -1.5248e-06 -4.03522e-05 1.94913e-05 -0.1189151209 0.0759701218
265298410.0 -0.7287552964 0.4341081291 0.000166725 8.40086e-05 -0.0001135524 0.0001005234 -0.1185543682 0.076751917
270298380.0 -0.7245339365 0.4418413422 -0.0001213835 0.0001373613 -8.89593e-05 0.0001469687 -0.1175412582 0.0773299081
275298350.0 -0.7192425297 0.4491323551 0.0001213194 0.0002452484 8.4363e-05 0.0001412257 -0.1169695777 0.0786266323
280298320.0 -0.7150191795 0.4566135587 3.85989e-05 -0.0001744847 5.44035e-05 5.06422e-05 -0.1166695039 0.0796796377
285298290.0 -0.7103010579 0.4643983635 0.0001323326 0.0001671492 6.78756e-05 0.0002068971 -0.1158879331 0.0808743768
290298260.0 -0.70520276 0.4719046605 0.0001332669 0.0001166472 -5.97697e-05 0.0001700662 -0.1151602621 0.0821134832
295298230.0 -0.7005887853 0.4794998929 0.0001666164 -2.04912e-05 0.0001976433 -9.77918e-05 -0.1147138924 0.0829091082
300298200.0 -0.6948219409 0.4865546619 0.00015487 1.09056e-05 0.000265252 5.88521e-05 -0.1139279497 0.0841854088
305298170.0 -0.6899377866 0.4939906665 0.0001335498 0.0001337886 0.0001228888 -0.0001298219 -0.1133084038 0.0852675371
310298140.0 -0.6845793616 0.500982045 -5.4724e-06 0.0001225142 0.0001398044 0.0002694848 -0.1123667275 0.0864978717
315298110.0 -0.6796047288 0.5076597156 6.04941e-05 -3.83809e-05 4.28129e-05 0.0001094549 -0.1115772951 0.0869513235
320298080.0 -0.6738694412 0.5160826123 8.59459e-05 0.0002453984 0.0002788856 -6.24385e-05 -0.1109860204 0.0878338831
325298050.0 -0.668582087 0.5221902104 0.0001870419 -8.1546e-06 0.0001381532 0.0001705908 -0.1104012002 0.0893021634
330298020.0 -0.6632428597 0.5297364898 7.03026e-05 0.0001534283 0.000117031 4.58099e-05 -0.1096039576 0.0900945621
335297990.0 -0.6568803475 0.5362074744 -8.1696e-06 9.95067e-05 0.0002086366 0.0001118251 -0.1094599416 0.0915944494
340297960.0 -0.6519588623 0.5429778279 0.0002033653 5.12324e-05 1.82789e-05 0.0001002097 -0.1084386429 0.0925701575
345297930.0 -0.646833969 0.5488288538 0.0002180001 0.0001512081 -0.0001907903 0.0001604415 -0.1077623095 0.0936742066
350297900.0 -0.6401000535 0.5559498185 0.0001845517 1.43934e-05 0.0002917887 -0.0001415092 -0.1069410807 0.0947839058
355297870.0 -0.6343424181 0.562286094 5.35257e-05 3.35818e-05 7.31042e-05 0.0002360612 -0.1065446007 0.0958611221
360297840.0 -0.6284767266 0.5696459157 -4.88177e-05 0.0001846656 5.80196e-05 0.0001420242 -0.105820698 0.0974509168
365297810.0 -0.6221037329 0.5755093554 -0.0001472999 0.0002908349 0.0003729528 -5.42169e-05 -0.1049562081 0.0984708429
370297780.0 -0.616169991 0.5815857433 -3.3707e-06 -0.0001530296 0.0001755555 0.0002362995 -0.1044067337 0.0995653319
375297750.0 -0.6103634877 0.5881035764 -4.49143e-05 0.0001733475 0.0003140751 0.0001676705 -0.1035781511 0.1006652227
380297720.0 -0.6041473025 0.5950471092 -5.96095e-05 6.14783e-05 6.44619e-05 0.0001141354 -0.1025129578 0.1021907008
385297690.0 -0.5974632337 0.6011839957 0.0003380109 -0.0001319964 0.0001766467 0.0001422783 -0.1016355934 0.1033797383
390297660.0 -0.5911476405 0.6072365462 -7.19942e-05 8.64868e-05 -2.76681e-05 -6.4537e-06 -0.1008611654 0.1041487358
395297630.0 -0.5847150828 0.6131707217 -2.15438e-05 -6.91268e-05 0.000207557 9.33193e-05 -0.1001642141 0.1057693648
400297600.0 -0.5789961125 0.6193808104 0.0003675263 0.000191594 1.15314e-05 0.0002244806 -0.0993084969 0.1062620364
405297570.0 -0.5730372114 0.6254275283 0.0001420405 0.0003014224 4.34192e-05 -9.3751e-05 -0.0986105197 0.108005909
410297540.0 -0.5656533379 0.6307742496 7.88536e-05 1.94947e-05 -2.51201e-05 6.67267e-05 -0.0977063248 0.1091994088
415297510.0 -0.5592523952 0.6361555735 0.0001861078 0.0001599332 0.0001693564 -2.58135e-05 -0.096866054 0.1101256027
420297480.0 -0.5519629152 0.6422444651 2.73357e-05 0.0001903223 0.0001850267 0.0001148614 -0.0957795369 0.1111929213
425297450.0 -0.5458355778 0.6481850729 3.79148e-05 0.00026287 0.0001389957 -4.82688e-05 -0.0949797411 0.1125347375
430297420.0 -0.5388939009 0.6534073435 0.0003719202 -0.0001888058 0.0002469372 1.19647e-05 -0.0942806867 0.1135238788
435297390.0 -0.5318535656 0.6591706826 0.0002064374 0.0001105185 0.0001395918 0.0001707287 -0.0930076396 0.114744788
440297360.0 -0.5248230937 0.6645488366 9.84531e-05 0.0001819347 0.0001387272 -0.0001200278 -0.0923503373 0.115566727
445297330.0 -0.5183333029 0.6699439584 0.0001629932 -3.2376e-05 0.0001648168 5.87768e-05 -0.0915818934 0.1166410318
450297300.0 -0.5113348752 0.6744281757 1.17823e-05 0.0002449084 0.0001692868 -7.69686e-05 -0.0906105081 0.1176457198
455297270.0 -0.5040188447 0.6801224763 0.0002075377 -0.0001955061 0.0001830926 -4.33047e-05 -0.0894242524 0.118976491
460297240.0 -0.4974375048 0.6851020408 0.000217984 8.05172e-05 8.27365e-05 0.0002297361 -0.0881482473 0.1202337043
465297210.0 -0.4900230604 0.6906187776 0.0002177018 8.23438e-05 0.0001586387 0.0001233315 -0.0877314151 0.1208388463
470297180.0 -0.4829190054 0.6945041995 4.61019e-05 0.0001713142 0.0001739464 5.61639e-05 -0.0871594515 0.1221671395
475297150.0 -0.4754308692 0.7002427239 0.0002493262 0.0001931182 0.000169708 1.57356e-05 -0.0854948872 0.1229301808
480297120.0 -0.4687289019 0.704580698 0.0002921539 0.0001463402 0.0002392458 8.27646e-05 -0.0849006812 0.124407241
485297090.0 -0.4613207719 0.7089786764 9.14661e-05 0.0003265446 6.2079e-06 -4.96279e-05 -0.0837938906 0.1251427148
490297060.0 -0.4542689842 0.7135207962 0.0001754603 0.0002444639 0.0003939365 4.71661e-05 -0.082680423 0.1262222727
495297030.0 -0.4470433817 0.7185162536 0.0002324082 5.41221e-05 0.0002345223 -0.0001448345 -0.0814020697 0.1268577479
500297000.0 -0.4389139437 0.7232539507 2.93252e-05 6.11725e-05 0.0002850691 9.61792e-05 -0.080655687 0.1279597801
505296970.0 -0.4313087443 0.7273432556 0.0001401786 0.0001568173 2.92072e-05 3.9952e-05 -0.0799398223 0.1291526342
510296940.0 -0.4244872432 0.7319562867 0.0001848813 1.30503e-05 0.0001145602 5.6371e-05 -0.0782071285 0.130045025
515296910.0 -0.4171396279 0.7362594429 8.36784e-05 0.0001053509 0.0001268628 0.000138363 -0.0772425183 0.1312393141
520296880.0 -0.4088080691 0.7410383625 0.0001329514 0.0001936842 0.0003794486 8.13552e-05 -0.0761862585 0.1319653788
525296850.0 -0.4016728615 0.7443409686 0.000200409 6.69133e-05 0.0001384427 0.0001459187 -0.074626436 0.1328704273
530296820.0 -0.3937254405 0.7480552484 0.0001919273 -2.78343e-05 0.0001838302 0.0001903614 -0.0739299315 0.1335185183
535296790.0 -0.3856581468 0.7526561078 9.93151e-05 -6.34391e-05 0.0002200757 3.29335e-05 -0.0731134347 0.1342305431
540296760.0 -0.3781812395 0.7566105399 7.60451e-05 0.0002509762 0.0001973854 -0.0002494194 -0.0719467314 0.135504245
545296730.0 -0.3712103323 0.7599297686 0.0002875555 0.0001360304 0.0003571132 6.29764e-05 -0.0706741806 0.1363065578
550296700.0 -0.3632957564 0.7634218752 0.0001878977 8.69455e-05 0.0001893189 -2.25587e-05 -0.0692512156 0.1371019615
555296670.0 -0.3552209584 0.7666819463 0.0002618895 5.37756e-05 0.0001935046 0.0001056525 -0.0682587321 0.1381236413
560296640.0 -0.347153003 0.7708619901 0.0003797335 0.0001598928 0.0002463315 -0.0001066274 -0.0668533358 0.1389190519
565296610.0 -0.3395664513 0.7742244273 0.0002912519 -4.82194e-05 0.0001751763 0.000187989 -0.0659484288 0.1395633031
570296580.0 -0.3318172788 0.7771209481 0.0002463863 -5.15086e-05 0.0002658709 -0.0001453317 -0.0649227306 0.1406231311
575296550.0 -0.3236540049 0.780444374 0.0002068276 3.42859e-05 7.18391e-05 -1.62495e-05 -0.0634499344 0.1411828161
580296520.0 -0.316219481 0.7840809966 0.0002623193 0.000191561 0.0002887225 0.000126198 -0.0622214329 0.1423684933
585296490.0 -0.3075919365 0.7866661131 0.0002002458 0.0003527935 0.0004157972 3.58378e-05 -0.061235468 0.1426913441
590296460.0 -0.2995640498 0.7896940673 7.39351e-05 -0.0001483983 0.0001152424 -0.0002864017 -0.0596861402 0.1435943519
595296430.0 -0.2917210382 0.7939547104 0.0003347547 -2.65567e-05 0.0002243075 0.0001631969 -0.0584535753 0.1442811155
600296400.0 -0.2834898382 0.7958645253 4.30213e-05 3.27921e-05 0.0002842914 -8.1048e-06 -0.0572694767 0.1452783104
605296370.0 -0.2753623252 0.7989077099 0.0004754325 5.07012e-05 0.0003148446 0.0002058872 -0.0562942236 0.1461937395
610296340.0 -0.2674548797 0.8016001203 7.08064e-05 0.000245398 0.000223171 2.39776e-05 -0.0546903735 0.1469510731
615296310.0 -0.2590740589 0.8046711601 2.92989e-05 4.81367e-05 0.0001661114 0.0001009425 -0.05347958 0.1473133918
620296280.0 -0.2506902279 0.806085902 0.0003378261 -9.0818e-05 0.0004745431 -5.47854e-05 -0.0521982382 0.1480294201
625296250.0 -0.2425160449 0.8092098661 0.0002418171 9.26858e-05 0.0004005844 7.7913e-05 -0.050771728 0.148770577
630296220.0 -0.2341434635 0.8115609318 0.0002270889 -0.0001074845 0.0004562352 0.0002626129 -0.0494553459 0.1495362149
635296190.0 -0.2260947324 0.8140731355 0.0001884672 -1.0943e-06 0.0003064584 -2.18873e-05 -0.0482144013 0.1504335173
640296160.0 -0.2175258712 0.8151382794 0.0002312879 0.0002019085 0.000190848 0.0001564194 -0.0468005869 0.1509560666
645296130.0 -0.2097537967 0.8178438442 0.0002443258 -4.64324e-05 0.0002954083 -6.9232e-06 -0.0455468331 0.1512193595
650296100.0 -0.2019620173 0.8205687485 0.0002080561 7.90765e-05 8.08344e-05 0.0001885884 -0.0442809936 0.1523971203
655296070.0 -0.192944719 0.8224577851 0.0004494284 0.0001666841 0.0003480023 7.27139e-05 -0.0427737115 0.152597949
660296040.0 -0.185324614 0.8242747943 0.0003006328 7.14842e-05 0.0002300694 0.0003088564 -0.0414005281 0.1535027886
665296010.0 -0.1766639735 0.8260737408 0.0003105845 -3.85806e-05 0.0001347014 -4.08129e-05 -0.0398503439 0.1538524897
670295980.0 -0.167552268 0.8276711527 0.0005136028 0.0001107925 0.0003316806 0.000166845 -0.0387737384 0.1547771086
675295950.0 -0.1598883787 0.8285351827 0.000301682 0.0002584143 0.0003088416 -3.5737e-05 -0.0373756551 0.1553501056
680295920.0 -0.1517806735 0.83092563 1.7821e-05 3.86838e-05 0.0002464756 8.10787e-05 -0.0360510257 0.1556518869
685295890.0 -0.1427983991 0.8321130105 0.0002603612 -5.12082e-05 0.0001764504 0.0002319014 -0.0347167677 0.1560721242
690295860.0 -0.1339300118 0.8331090174 0.0002956729 -0.0001330432 0.0003398588 -0.0001860279 -0.0334761005 0.1569844024
695295830.0 -0.1260111123 0.833965711 0.0002809312 -3.95053e-05 0.0003789003 -3.32138e-05 -0.0318303764 0.1574915386
700295800.0 -0.1173059906 0.8358075437 0.000166981 1.75473e-05 0.0001224221 -4.46053e-05 -0.0303050372 0.1574205378
705295770.0 -0.1088769361 0.837264264 0.0003778049 1.11466e-05 8.02687e-05 -0.0001375784 -0.0290705922 0.1583449249
710295740.0 -0.1013924298 0.8386371949 0.0003330253 -0.0001337659 0.0005631346 -6.33976e-05 -0.0278290489 0.158892104
715295710.0 -0.0927734031 0.8394674479 0.0002320509 -2.20618e-05 0.0003223009 0.0002387611 -0.0259114458 0.1594786194
720295680.0 -0.0841616505 0.839442871 0.0001293546 5.59612e-05 0.0003120872 1.19856e-05 -0.0244005474 0.159950243
725295650.0 -0.0747343625 0.840443407 0.000315582 -0.0001533393 0.0002515092 5.8044e-05 -0.0231147381 0.1603235708
730295620.0 -0.0674165036 0.8412227158 0.0002159229 -3.334e-06 0.000132973 -4.08618e-05 -0.0218468202 0.1605823853
735295590.0 -0.0583649248 0.8419323109 0.0001501529 -0.0002189516 0.0001352623 6.1819e-06 -0.0203024843 0.1611353282
740295560.0 -0.050038151 0.8428209885 7.17727e-05 -0.000123871 0.000220164 -0.0001118762 -0.018658865 0.1612658918
745295530.0 -0.0417901613 0.8426489383 0.0001571805 -0.0001096904 0.0001649016 -0.0002564713 -0.0172093545 0.1617046195
750295500.0 -0.0337351608 0.8430353801 0.0002764232 -6.51452e-05 8.48356e-05 -1.46248e-05 -0.0160843176 0.1618180419
755295470.0 -0.0243971544 0.8434304075 0.0002593663 -0.0001047044 0.0002772115 -3.77347e-05 -0.0144923691 0.1625721826
760295440.0 -0.0162563868 0.8437689187 0.0002352755 -0.0002394315 0.0003571595 9.29307e-05 -0.0133717077 0.1628427587
765295410.0 -0.0075314589 0.8438834829 0.0003298696 -0.0002198483 0.0002123262 -0.0001738024 -0.0114319277 0.1634376911
770295380.0 0.0003037308 0.8444677214 0.0004367171 -0.0001462942 0.000261154 -0.000152729 -0.0095647897 0.1631543716
775295350.0 0.0090071163 0.8441919614 0.0002015239 -8.83286e-05 0.0002627754 3.81699e-05 -0.0086959111 0.1634790451
780295320.0 0.0180054825 0.8433625949 0.0002275843 0.0001174893 9.85443e-05 6.47493e-05 -0.0071287135 0.1642134833
785295290.0 0.0259160801 0.8439436823 0.0003173163 -5.82454e-05 0.0002308139 -0.0001651989 -0.0057907699 0.1645192187
790295260.0 0.0340150391 0.8426600458 0.0004008191 -8.28913e-05 0.0002390677 0.0001425271 -0.0038694097 0.1646928926
795295230.0 0.0427159077 0.8432603933 0.0003211167 -7.56945e-05 0.0001745721 -8.96956e-05 -0.0022502009 0.1650406151
800295200.0 0.0517669622 0.842298623 8.42981e-05 6.92052e-05 0.0004045917 -0.000227579 -0.0008701184 0.1651057569
805295170.0 0.0593891978 0.8418973221 0.0005836264 -0.000104643 0.0002963784 0.0001241094 0.000620998 0.1650233294
810295140.0 0.0680565497 0.8411183729 0.0003449198 -3.59832e-05 0.000109353 -6.47357e-05 0.0020596074 0.1657757298
815295110.0 0.0769597911 0.8404927245 0.0002002698 2.55425e-05 0.0004057741 -6.40104e-05 0.0033856349 0.1658443858
820295080.0 0.0849776824 0.8388800416 0.0003722514 -0.0001489667 0.0003359771 6.87276e-05 0.0048800988 0.1659763668
825295050.0 0.0936011525 0.8384185176 0.0002135905 -0.0002032176 8.36713e-05 1.30596e-05 0.0068119892 0.1659607321
830295020.0 0.1020655386 0.8381124357 0.0001352742 -9.9604e-06 0.0001568142 -3.19084e-05 0.0080224889 0.1662147391
835294990.0 0.1103227494 0.8366614829 0.000174518 -5.11214e-05 0.0001322858 -0.0001273405 0.0098053948 0.1661746003
840294960.0 0.118773509 0.8352615038 0.0002825475 -0.0002803718 0.0002343973 -9.59916e-05 0.0112989026 0.1666847176
845294930.0 0.1268999036 0.8342692152 0.0002868346 -0.0001156654 0.0001344016 -4.6429e-05 0.0129103962 0.1667251745
850294900.0 0.1351286652 0.8330901986 0.0004155889 3.70932e-05 0.0003736065 -1.34696e-05 0.01455553 0.1667149544
