!Created with skrf (http://scikit-rf.org).
# Hz S RI R 50.0 
!freq ReS11 ImS11 ReS21 ImS21 ReS12 ImS12 ReS22 ImS22
300000.0 -0.0973139169 -0.0826728219 0.6234405275 0.0773224865 0.6254271853 0.0817372579 -0.0982854369 -0.0910770682
5299970.0 -0.1002857152 0.0127387159 0.6306905939 0.0109093581 0.6305562266 0.0109429858 -0.1022990572 0.0120854787
10299940.0 -0.0952502092 0.0298411508 0.6343730216 0.0157487656 0.634002166 0.0161318972 -0.0973123474 0.0289302209
15299910.0 -0.0885951059 0.0433684278 0.6408278126 0.0205380358 0.640324022 0.0210753544 -0.0902270504 0.0421132456
20299880.0 -0.0795290614 0.0541867193 0.6485030453 0.0243181484 0.6485363244 0.024275848 -0.0819185669 0.0531748974
25299850.0 -0.0696699217 0.062881224 0.6580757947 0.0248339768 0.6577647603 0.0251529341 -0.0726053575 0.0618149816
30299820.0 -0.0597815141 0.0690694713 0.6681245018 0.0246841001 0.6676709294 0.0243448113 -0.0626905766 0.0687958956
35299790.0 -0.0494903223 0.0744570032 0.6771351531 0.0214822859 0.6773838653 0.0219365873 -0.0526687854 0.0734218623
40299760.0 -0.0398109326 0.0770267742 0.6868949302 0.0177127127 0.6870066864 0.0175791283 -0.0438782198 0.0769615848
45299730.0 -0.0305503148 0.0793533718 0.6956839011 0.0118328064 0.6954383952 0.0123814414 -0.0343009777 0.0789137268
50299700.0 -0.021681501 0.0796587503 0.7032112209 0.0050172477 0.7037778389 0.0047370119 -0.0254637158 0.0800535138
55299670.0 -0.0144668914 0.0798617896 0.7104692016 -0.0029652145 0.7107663979 -0.0025155841 -0.0176980289 0.079796851
60299640.0 -0.0066093873 0.0788626604 0.7170272753 -0.0113941197 0.7172653911 -0.011316195 -0.0104574019 0.0797792271
65299610.0 -0.0003464457 0.0779716013 0.7236120146 -0.0192246788 0.7240538355 -0.0197624616 -0.0041182356 0.0787205577
70299580.0 0.0060287888 0.0759061956 0.7282965975 -0.0291570773 0.7285719328 -0.029158904 0.0024070587 0.077014885
75299550.0 0.0115031667 0.0744617132 0.7328388806 -0.0389622076 0.7327529943 -0.0388473565 0.0081635106 0.0754719987
80299520.0 0.0162300378 0.0720479008 0.7375126158 -0.0493383787 0.7377943684 -0.0486751941 0.0130863223 0.0726524584
85299490.0 0.0209221482 0.0696272692 0.7410007859 -0.0585058037 0.7403132311 -0.05888229 0.0174412521 0.07088116
90299460.0 0.0247106749 0.0672677204 0.7429061961 -0.0686065183 0.7439246462 -0.0686666469 0.0218489593 0.0686735807
95299430.0 0.0283141247 0.0652811304 0.7458284112 -0.079230699 0.7460169496 -0.0788428266 0.025430736 0.0663526572
100299400.0 0.0316977258 0.0628190799 0.7475277592 -0.0892295678 0.7475986568 -0.0891987812 0.0284409442 0.0638952651
105299370.0 0.0346695975 0.0604071021 0.7486731241 -0.0989955695 0.7493301698 -0.099298355 0.0318118203 0.0617963097
110299340.0 0.0371430426 0.0578509948 0.7494613943 -0.1091584823 0.7501825787 -0.1094184527 0.0346204586 0.0594122254
115299310.0 0.0396073837 0.0548825532 0.7504543516 -0.1190936737 0.7511133864 -0.1192271077 0.0374308199 0.0561068611
120299280.0 0.0414244823 0.0527651202 0.7518438713 -0.1295577097 0.7514111447 -0.1295134115 0.039056448 0.0542946397
125299250.0 0.0434379311 0.0503828424 0.7521219842 -0.139110766 0.7517514103 -0.1396603927 0.041403621 0.0513966972
130299220.0 0.0450232567 0.0480167048 0.7519007742 -0.1487324701 0.7516472662 -0.1490743512 0.0432945441 0.0492580278
135299190.0 0.047053979 0.0454275052 0.7514377301 -0.158727017 0.7508346377 -0.1586099204 0.0444654799 0.0476039522
140299160.0 0.0476680721 0.0442294169 0.7505454284 -0.1685157236 0.7508431077 -0.1686213368 0.0462755737 0.0454932686
145299130.0 0.0490436855 0.0417345611 0.7504466619 -0.1788016361 0.7499787214 -0.1783016509 0.0473625414 0.0430131601
150299100.0 0.0505650654 0.0397057779 0.74911575 -0.1882435374 0.7490803616 -0.1880883947 0.0486299684 0.0410900104
155299070.0 0.0513192373 0.0384509266 0.7479309863 -0.1981279661 0.7478840923 -0.1977651145 0.0492134052 0.0387498126
160299040.0 0.0524511294 0.0358784234 0.7460961501 -0.2067916023 0.7465879342 -0.2071541675 0.051012795 0.0372798105
165299010.0 0.0529287873 0.0342654462 0.7453295254 -0.2168322536 0.7450174521 -0.2170699785 0.0516621395 0.034936067
170298980.0 0.0533677732 0.0327952538 0.7419250281 -0.225610911 0.7425520303 -0.2260280317 0.0528038941 0.0328250617
175298950.0 0.0545189678 0.0307495252 0.7420460989 -0.2350453937 0.7416253678 -0.2356014212 0.0532334189 0.0312706949
180298920.0 0.0554572542 0.029176625 0.7395053656 -0.2447474953 0.7394969431 -0.2443017148 0.0536346324 0.0297098684
185298890.0 0.0561358711 0.0274034196 0.7369250327 -0.2537962774 0.7372333191 -0.2537467969 0.0541327892 0.027979456
190298860.0 0.0562531815 0.025719766 0.7342692915 -0.2632661246 0.7348836791 -0.2629223038 0.0554337057 0.0260032248
195298830.0 0.0561899165 0.023914208 0.7319058122 -0.2714801043 0.7321743988 -0.2719734901 0.0559538137 0.0242248074
200298800.0 0.0569228346 0.0225011734 0.7295276542 -0.2798652699 0.7290311114 -0.2798423514 0.0562712753 0.023267624
205298770.0 0.0571518043 0.0214615346 0.7265808174 -0.288908234 0.7265337098 -0.2896825993 0.0564966752 0.0211434484
210298740.0 0.0570701411 0.0194647432 0.7237842254 -0.298768839 0.7236575012 -0.2986273931 0.056766585 0.0201535015
215298710.0 0.0579158074 0.0188084716 0.7207432056 -0.3068930156 0.7206298951 -0.3068181742 0.0570478098 0.0183219346
220298680.0 0.0580301774 0.0173542674 0.7178644549 -0.3158390426 0.7174466246 -0.3155796305 0.0574214259 0.0174258327
225298650.0 0.058555203 0.0159399632 0.7135524225 -0.3237513927 0.7139375115 -0.3242502901 0.0574592937 0.0156650333
230298620.0 0.0581469113 0.0147013749 0.7108437431 -0.3325824635 0.7113537944 -0.3330952475 0.0578176191 0.0145767805
235298590.0 0.0585520427 0.0130959359 0.7078489596 -0.3409038865 0.7075731769 -0.3415562556 0.0580392975 0.0129332039
240298560.0 0.0582203643 0.0120420043 0.7038723265 -0.3490742505 0.7042765878 -0.3491012476 0.0581584805 0.0120278222
245298530.0 0.0586738812 0.0112215817 0.6997372462 -0.3577538796 0.699770746 -0.3577711571 0.0584045524 0.0107393149
250298500.0 0.0581493387 0.0096815089 0.696310443 -0.3651450226 0.696318129 -0.3654616373 0.0584456827 0.0089217779
255298470.0 0.0582101547 0.0088482928 0.6918662967 -0.3746721269 0.6925384363 -0.374098253 0.0588009932 0.0075876454
260298440.0 0.0583348949 0.007985228 0.6885891283 -0.3818521125 0.6886429679 -0.3828328424 0.0594058898 0.0069711468
265298410.0 0.0587242675 0.0072661123 0.6845687938 -0.390728715 0.6838553874 -0.3904696371 0.0590357552 0.0055614073
270298380.0 0.0590750072 0.0058142385 0.6796313036 -0.3978841802 0.6799429676 -0.3985324102 0.0586472815 0.0052015046
275298350.0 0.058394653 0.0047392401 0.6755863658 -0.4070058741 0.6759977495 -0.4064263409 0.0589284501 0.0036498223
280298320.0 0.0584135894 0.0039432231 0.6711124954 -0.4138782102 0.6710665563 -0.4141839562 0.0592786799 0.0029191404
285298290.0 0.0588055706 0.003102896 0.66689777 -0.4219815527 0.6665205498 -0.4218200306 0.0588352043 0.0019025525
290298260.0 0.0588839803 0.0019343744 0.6625650263 -0.4299910105 0.6625830004 -0.4297180452 0.0594507227 0.0008808029
295298230.0 0.0586049968 0.0009441452 0.6581761148 -0.4376195388 0.6577477476 -0.4375467978 0.0597643284 -0.0001495104
300298200.0 0.0590637421 0.0001134486 0.6533315434 -0.4449886178 0.6535464855 -0.4451436293 0.059260399 -0.0013705863
305298170.0 0.0589772154 -0.0015541776 0.648265172 -0.4527651379 0.648531362 -0.4533401293 0.0596296317 -0.002190095
310298140.0 0.059378161 -0.002264535 0.6439431601 -0.4602611746 0.6436889077 -0.460611247 0.059626128 -0.0026197814
315298110.0 0.0589058758 -0.0033824511 0.6385224084 -0.4681143736 0.6384629788 -0.4682276748 0.0600821166 -0.0046867184
320298080.0 0.0586868177 -0.0044790846 0.6333943429 -0.4757722352 0.6334787089 -0.4758111522 0.059401763 -0.0059718342
325298050.0 0.0582603955 -0.0057388463 0.6285361208 -0.4833362285 0.6283213435 -0.4837528274 0.0588801152 -0.0068804246
330298020.0 0.0580523797 -0.0065590461 0.6216952481 -0.4905187245 0.6219540461 -0.4906469505 0.0582644806 -0.0084271658
335297990.0 0.0576180573 -0.007666316 0.6167170071 -0.4982285426 0.6166841401 -0.4978190093 0.05813037 -0.0090513717
340297960.0 0.0564001948 -0.0078532582 0.6104719011 -0.5046259713 0.6106184222 -0.5043951078 0.0571836783 -0.0097848618
345297930.0 0.0565228598 -0.0085215246 0.605194526 -0.5107830518 0.6047197234 -0.5112134347 0.0575552192 -0.0107047494
350297900.0 0.0565689362 -0.0092677156 0.5988313172 -0.5176823993 0.5993209207 -0.5178106578 0.0568609841 -0.0107360518
355297870.0 0.0560309681 -0.0102479042 0.5929964723 -0.5244629884 0.5935664905 -0.5245311426 0.0563355939 -0.0114116355
360297840.0 0.0559962264 -0.0105890151 0.5876764712 -0.5317805585 0.5873311844 -0.5319217752 0.0563733549 -0.0119409784
365297810.0 0.0557329108 -0.0117402372 0.5809932059 -0.5377529858 0.581843163 -0.5378799051 0.0557276191 -0.0126040228
370297780.0 0.0557398165 -0.0122804214 0.5754297586 -0.5436357812 0.575334754 -0.5450316455 0.0558808839 -0.0130098583
375297750.0 0.0549983092 -0.0123097563 0.569955969 -0.5510655636 0.5699047459 -0.5511812938 0.0555059278 -0.0138352048
380297720.0 0.0552704533 -0.0139850292 0.5634465849 -0.5569970406 0.563574272 -0.5572952458 0.0556497071 -0.0142496828
385297690.0 0.0548986763 -0.014056443 0.557262179 -0.5629965399 0.5573445843 -0.5634347795 0.0547970243 -0.0148156752
390297660.0 0.0544349671 -0.0147063917 0.5510605495 -0.5698048909 0.5512588744 -0.5699158658 0.0550280867 -0.0156481144
395297630.0 0.0546328325 -0.0158588831 0.5453275199 -0.5755681586 0.5447983322 -0.5756869636 0.0547223591 -0.0159627898
400297600.0 0.0537665737 -0.0160672132 0.5385396666 -0.5817997286 0.538788369 -0.582378144 0.0535464133 -0.0169441065
405297570.0 0.0539405301 -0.0166085801 0.532477179 -0.5878762231 0.5322045686 -0.5879436244 0.0540407387 -0.0170854738
410297540.0 0.0536084886 -0.0175641603 0.524489479 -0.5932655593 0.5256178192 -0.5937257263 0.0532782413 -0.0180017737
415297510.0 0.0531906234 -0.0171821797 0.5187957887 -0.5990658802 0.5192762758 -0.5995927638 0.0527693977 -0.0180295224
420297480.0 0.0530549418 -0.0188788128 0.5122482036 -0.6057375696 0.5126199618 -0.605432465 0.0529593238 -0.0194086646
425297450.0 0.0534009818 -0.0196621933 0.50560666 -0.6113561176 0.5061635257 -0.6106314928 0.0522534909 -0.0192146909
430297420.0 0.0525065423 -0.0198895082 0.4993322491 -0.617417175 0.4989930966 -0.6168290577 0.0518708972 -0.0205219148
435297390.0 0.0523800066 -0.0206520132 0.4923973854 -0.6221482516 0.4926089568 -0.622007527 0.0511687877 -0.0201433412
440297360.0 0.0520833408 -0.0215860551 0.4849461289 -0.6277632915 0.4851165091 -0.6280720912 0.0512639618 -0.0215491871
445297330.0 0.052578762 -0.0222527277 0.4781772497 -0.6333945975 0.4782753054 -0.6334949201 0.0506845513 -0.0215741269
450297300.0 0.0519502072 -0.0226391235 0.4712575468 -0.6381557998 0.4718448668 -0.6384309761 0.0503157443 -0.0221031933
455297270.0 0.0510783025 -0.0233507171 0.4648781419 -0.6439390005 0.4649923831 -0.6435193801 0.0505066639 -0.0227983278
460297240.0 0.0502614426 -0.0239423253 0.456908223 -0.6479364136 0.457146929 -0.6490377701 0.0499572709 -0.0227264631
465297210.0 0.0505508473 -0.0247549332 0.4507267349 -0.6530870585 0.4507688087 -0.6540115924 0.0487584167 -0.0238265948
470297180.0 0.0498301202 -0.0251206504 0.4434245161 -0.6587859376 0.4436750873 -0.6590210692 0.0482597265 -0.024223551
475297150.0 0.0494360929 -0.0263933721 0.4358111904 -0.6632821092 0.4362608524 -0.6629871231 0.0481822461 -0.0244890661
480297120.0 0.0499442911 -0.026799732 0.4285115829 -0.668210869 0.4285319496 -0.6680536716 0.047785993 -0.0245267389
485297090.0 0.0493449474 -0.0272494312 0.4218150431 -0.6731024783 0.4213426268 -0.6731848972 0.0470356398 -0.0256606514
490297060.0 0.0488835683 -0.0280684063 0.4140437659 -0.6775734905 0.4140067619 -0.6777786556 0.0471867742 -0.0255655873
495297030.0 0.0478142141 -0.0281467189 0.4060457475 -0.6822156653 0.4061017391 -0.6825310514 0.0465552739 -0.0265485781
500297000.0 0.0478660688 -0.0291292778 0.3990872661 -0.6865187978 0.3987120662 -0.6866179921 0.0454709659 -0.0268158434
505296970.0 0.0469665296 -0.0296652604 0.3911601548 -0.6905737421 0.3909220667 -0.6905509127 0.0447718771 -0.027038996
510296940.0 0.0466794615 -0.0299237238 0.3830584771 -0.6954412613 0.3835959809 -0.6953530322 0.0451796547 -0.0270685838
515296910.0 0.046191434 -0.0303885672 0.375678107 -0.6994533506 0.3758880833 -0.6994320374 0.0439099944 -0.0281265742
520296880.0 0.0458558192 -0.0314326814 0.3678893015 -0.7033564575 0.3688623614 -0.703502123 0.0443950112 -0.0283754521
525296850.0 0.0450696393 -0.0321543467 0.3608331111 -0.7075649452 0.3604151992 -0.7078671326 0.0434483907 -0.0286863284
530296820.0 0.0449638272 -0.0323883892 0.3535064309 -0.7108554925 0.352666183 -0.7116724981 0.0428694913 -0.0299399732
535296790.0 0.0442242065 -0.0329861391 0.3451469049 -0.7143235434 0.3454481761 -0.715140208 0.0428433488 -0.0300233566
540296760.0 0.0437400039 -0.0338351379 0.3374567091 -0.7194360887 0.3368470822 -0.7192673789 0.0415563624 -0.0299891949
545296730.0 0.0434341194 -0.0334048432 0.3291554673 -0.7222344038 0.3288046032 -0.7234153992 0.0414070374 -0.0308983549
550296700.0 0.0426021267 -0.034535392 0.3214605364 -0.7264389681 0.321724279 -0.7265677577 0.0404323998 -0.0303190956
555296670.0 0.0424772363 -0.0351387894 0.3137269188 -0.730388814 0.3135443004 -0.7299390845 0.040006229 -0.0309799314
560296640.0 0.0418613443 -0.0356985975 0.3053957262 -0.7329149029 0.3054908917 -0.7327227974 0.039443624 -0.0315132074
565296610.0 0.0407528854 -0.03621379 0.2972410964 -0.7364830882 0.2969235898 -0.7366300016 0.0388405682 -0.0322705801
570296580.0 0.0409990126 -0.0366454066 0.289413629 -0.7394428511 0.2896161753 -0.7398351496 0.0387240308 -0.0317939367
575296550.0 0.0401662333 -0.0361080558 0.2810146596 -0.7420730558 0.281750881 -0.7428035831 0.0384509561 -0.0324920062
580296520.0 0.0396452818 -0.0370867837 0.2730832023 -0.7461800419 0.2731480405 -0.7461517302 0.0375506982 -0.0331406228
585296490.0 0.0393496003 -0.0378214414 0.2651403054 -0.7487419458 0.2649912808 -0.7488295843 0.0369874033 -0.0336000889
590296460.0 0.0379536809 -0.0386863866 0.256700625 -0.7516040695 0.2570119622 -0.7514883583 0.0366575671 -0.0334656551
595296430.0 0.0376766191 -0.0383899269 0.2494251076 -0.7548708201 0.2484575584 -0.7549063867 0.0364110543 -0.0339631763
600296400.0 0.0372787617 -0.0387257837 0.2403331305 -0.7574502429 0.2405030357 -0.7574246167 0.0353359848 -0.034327307
605296370.0 0.0369863021 -0.0384567226 0.2321722814 -0.7593273473 0.2319899041 -0.7597836297 0.0349408377 -0.0349682068
610296340.0 0.0359013835 -0.0393722067 0.2242588675 -0.7619650349 0.2241394126 -0.7623438987 0.0343464171 -0.0343149592
615296310.0 0.0356003885 -0.0394580534 0.2150179858 -0.7642643062 0.2159448461 -0.7646115402 0.0340281752 -0.0349191388
620296280.0 0.0346956702 -0.0400634258 0.207717927 -0.7666388772 0.2075031884 -0.7673252657 0.0335040359 -0.0357607229
625296250.0 0.0343874978 -0.0404156826 0.1981070465 -0.7693431706 0.1988778714 -0.7690487066 0.0330226201 -0.0356375483
630296220.0 0.0336067288 -0.0406967041 0.1901613503 -0.7717414161 0.1906964539 -0.7707916656 0.0316934077 -0.0358487121
635296190.0 0.0333066731 -0.0409839158 0.1816821512 -0.7727505789 0.1814828951 -0.772747563 0.0313857561 -0.0365249401
640296160.0 0.0325334596 -0.0411217008 0.1731695166 -0.775076713 0.1738661496 -0.7748267664 0.0313834777 -0.0365925886
645296130.0 0.0322785848 -0.0410374846 0.1651837607 -0.7775832163 0.1647686342 -0.7770797234 0.0296302843 -0.0374644814
650296100.0 0.0311020718 -0.0409842031 0.1567473023 -0.7784489758 0.1568015018 -0.7785198898 0.0297825508 -0.0373325342
655296070.0 0.0304423876 -0.0421600468 0.1478673446 -0.7804284229 0.1479914179 -0.7802622564 0.0298695041 -0.0368674061
660296040.0 0.0293476294 -0.0416352752 0.1394093832 -0.781474877 0.139543507 -0.7820124642 0.0284697678 -0.0379790606
665296010.0 0.0293847803 -0.0424646137 0.1312304265 -0.7828948577 0.1315624109 -0.7833939974 0.0278052023 -0.0375438556
670295980.0 0.0291688527 -0.042350736 0.1227924589 -0.7849455463 0.1229674205 -0.7845581302 0.0270110763 -0.0380834561
675295950.0 0.0284518094 -0.0423644427 0.1136750234 -0.785947508 0.1143601936 -0.7864542773 0.0270357841 -0.0380850075
680295920.0 0.0272210663 -0.0425639038 0.1056448857 -0.7872342534 0.1054642454 -0.7874078479 0.0266833539 -0.0383223975
685295890.0 0.0265170349 -0.0427451306 0.09679938 -0.7879587724 0.0967228118 -0.7886284994 0.0255627364 -0.0384020775
690295860.0 0.0267113853 -0.0432883321 0.0884822389 -0.7888900724 0.0878204907 -0.7887564233 0.0256882345 -0.038134936
695295830.0 0.0264228553 -0.0436478381 0.0786353063 -0.7904359417 0.0793983062 -0.7901789974 0.0240426981 -0.0386101457
700295800.0 0.0258831913 -0.0436576851 0.0710711952 -0.7909376327 0.070412257 -0.7916248193 0.0235980938 -0.0395111932
705295770.0 0.024804207 -0.0437052358 0.0620744915 -0.7916201452 0.0625569863 -0.7918396251 0.0230348099 -0.0392987019
710295740.0 0.0239727355 -0.0434142514 0.0538904144 -0.7918789201 0.0535318327 -0.791836233 0.021768891 -0.0389299553
715295710.0 0.0235759832 -0.0438261562 0.0452313962 -0.7928150643 0.0453641487 -0.7929651468 0.0217834983 -0.0400925736
720295680.0 0.0228945219 -0.0442499754 0.0367226148 -0.7931023615 0.0362074811 -0.7939960884 0.0217632362 -0.0392397244
725295650.0 0.0224683731 -0.0439903887 0.0272175778 -0.7931233931 0.0278079146 -0.7936442017 0.0209017599 -0.039340923
730295620.0 0.0213713737 -0.0444530644 0.0187934727 -0.7939956207 0.0192706653 -0.7934694593 0.0204640079 -0.0402984989
735295590.0 0.0214191863 -0.0444490858 0.0105675393 -0.794169991 0.0114569445 -0.7938946988 0.0197082084 -0.0397428251
740295560.0 0.0200927609 -0.0443255319 0.0018152326 -0.7937509799 0.0017386946 -0.7941954918 0.0196211655 -0.040024344
745295530.0 0.0199132492 -0.0448905404 -0.0069430711 -0.7939941018 -0.0064962459 -0.7942962718 0.0182607591 -0.0398988505
750295500.0 0.0193431083 -0.0448406935 -0.0148494849 -0.7935998067 -0.0150683559 -0.7936963083 0.0181817471 -0.0405700545
755295470.0 0.019054791 -0.044563523 -0.0239551673 -0.7939325779 -0.0242378533 -0.7938483099 0.0168237028 -0.0402798769
760295440.0 0.0177846665 -0.0446477596 -0.0323672757 -0.7932417399 -0.0324976672 -0.793422083 0.0161938525 -0.0404496343
765295410.0 0.0170277297 -0.0450761451 -0.0406256499 -0.7925933528 -0.0406256375 -0.7928157129 0.0166889301 -0.0399280733
770295380.0 0.0168595649 -0.0447597398 -0.0497244033 -0.7920408697 -0.0497067268 -0.7927014335 0.016085933 -0.0398784523
775295350.0 0.0159268771 -0.0446246374 -0.0576821642 -0.7913613823 -0.05813962 -0.7919316325 0.0147608519 -0.0409156876
780295320.0 0.0156996001 -0.0446945224 -0.0668069664 -0.7909041478 -0.0665585587 -0.7909913927 0.01450933 -0.0400241827
785295290.0 0.0144904263 -0.0444566906 -0.0753993617 -0.7894874697 -0.0758107708 -0.7907688386 0.0132803772 -0.0402031598
790295260.0 0.0139560019 -0.0442347373 -0.0842834181 -0.789530922 -0.0839401068 -0.7899196805 0.0133903449 -0.0402889506
795295230.0 0.0131945731 -0.0447453148 -0.0923039584 -0.7877724916 -0.0925528483 -0.78832324 0.0125183303 -0.0394989406
800295200.0 0.01282543 -0.0445819499 -0.1013861841 -0.7877464029 -0.1014650228 -0.7874916481 0.0121253034 -0.039823391
805295170.0 0.0118354731 -0.0446896023 -0.1096970323 -0.7853950763 -0.1097933439 -0.7861011732 0.011062052 -0.0401698607
810295140.0 0.0114491782 -0.0444789974 -0.1182960405 -0.78504997 -0.1180732976 -0.7856123684 0.0106545313 -0.0398750022
815295110.0 0.0107965921 -0.044376319 -0.1270540807 -0.7831922663 -0.1270769033 -0.7835155582 0.0099599605 -0.0401473264
820295080.0 0.0101752334 -0.0447395566 -0.1349557554 -0.782200846 -0.1352721244 -0.7824544707 0.0090731761 -0.0399138791
825295050.0 0.0097113688 -0.0447879165 -0.1438033033 -0.7800857291 -0.1435413318 -0.7804046365 0.0089031275 -0.0394369673
830295020.0 0.0087764246 -0.0441564911 -0.1523633282 -0.7788491007 -0.152858439 -0.7794324295 0.0079983482 -0.0401272693
