!Created with skrf (http://scikit-rf.org).
# Hz S RI R 50.0 
!freq ReS11 ImS11 ReS21 ImS21 ReS12 ImS12 ReS22 ImS22
300000.0 -0.3237310889 -0.0812146719 0.3755295425 0.0420316813 0.3736304713 0.0423134283 -0.3182631618 -0.0978026099
5299970.0 -0.3264525154 0.0045068739 0.3783472413 0.0022153106 0.3782896511 0.0023539961 -0.3240261642 0.0050327621
10299940.0 -0.3241302367 0.0135364294 0.3795840141 0.0018250191 0.3797676147 0.0021299908 -0.321767223 0.0159595117
15299910.0 -0.3214109578 0.0203262963 0.3816504585 0.0020347458 0.3817245198 0.002066799 -0.3184011833 0.0236501884
20299880.0 -0.3187684198 0.0263232605 0.3845454458 0.0015557183 0.3848369352 0.0015743981 -0.3147997651 0.0306098842
25299850.0 -0.3156418181 0.0314919724 0.3880067389 -0.0001748528 0.388062803 0.0001993463 -0.3109270961 0.0359242947
30299820.0 -0.3127394322 0.0359964019 0.3914898811 -0.0024544392 0.391296021 -0.0022508155 -0.307044758 0.0409356647
35299790.0 -0.3098787253 0.0398952622 0.3946670743 -0.0055443863 0.3947945394 -0.0055099911 -0.3036592766 0.0451834015
40299760.0 -0.3071663781 0.0437397569 0.3976669147 -0.0089022673 0.3981486065 -0.0087893665 -0.3003796271 0.0483894773
45299730.0 -0.3047933844 0.0467941948 0.4007399235 -0.0126861434 0.4009232133 -0.0127880638 -0.2971430115 0.0518805993
50299700.0 -0.3022608381 0.0496166049 0.4036172032 -0.017405445 0.4038262149 -0.017181533 -0.2943067788 0.0548870837
55299670.0 -0.300278083 0.0522245184 0.4057206336 -0.0226195977 0.4054641727 -0.0221260104 -0.2915649819 0.057097251
60299640.0 -0.2980281233 0.0551421797 0.4074971926 -0.0270426279 0.4077269021 -0.0267683716 -0.2892229626 0.0595297102
65299610.0 -0.2962556243 0.0576616708 0.4091175863 -0.0319284026 0.40935804 -0.032091718 -0.2871718149 0.0615949167
70299580.0 -0.2946561912 0.0601810736 0.4104642268 -0.0371306741 0.4107141163 -0.0371849808 -0.2850745347 0.0639579616
75299550.0 -0.2931109387 0.0625085335 0.4114388499 -0.0421719291 0.4111725471 -0.0424605527 -0.2832828689 0.0660650546
80299520.0 -0.2916340029 0.0647582484 0.4125815051 -0.0474340707 0.4122950967 -0.0476671134 -0.2814557416 0.0680622946
85299490.0 -0.2903885955 0.0669877161 0.4127507246 -0.0525646616 0.4130548485 -0.0524008263 -0.2802486086 0.0699960958
90299460.0 -0.2889688366 0.0694177048 0.4132106515 -0.0582085853 0.4133498898 -0.0579469102 -0.2782329426 0.0723028444
95299430.0 -0.2875040894 0.0714844303 0.4136640317 -0.0631970108 0.4132342549 -0.0633488884 -0.2764919752 0.0744535692
100299400.0 -0.2862898382 0.0742744767 0.4130927099 -0.0684093806 0.4132533377 -0.0683187637 -0.2750574288 0.0761167819
105299370.0 -0.2853402947 0.0763420833 0.4131774743 -0.0737894907 0.4135545045 -0.0737568459 -0.2740412781 0.0780336336
110299340.0 -0.2838692917 0.0787762595 0.4132176347 -0.0786848723 0.413164532 -0.0788225344 -0.2727926848 0.0803469664
115299310.0 -0.2827793556 0.0809502247 0.4127942784 -0.083939609 0.4127466303 -0.0839082699 -0.2716528152 0.0821826811
120299280.0 -0.281989262 0.0832622411 0.4120531263 -0.0890496646 0.4125469665 -0.0891434978 -0.2703236521 0.084336168
125299250.0 -0.2810919139 0.0852871677 0.4117485308 -0.0938902713 0.4119584816 -0.0940894373 -0.2694035744 0.0864712865
130299220.0 -0.2800998081 0.0882219443 0.4107611922 -0.0991852517 0.4113471608 -0.0990260512 -0.2682950851 0.0887326498
135299190.0 -0.2794701022 0.0908612385 0.4107238456 -0.1041625773 0.4106606785 -0.1044120654 -0.2671304125 0.0909214505
140299160.0 -0.2784722335 0.0935000653 0.4098831136 -0.1092151321 0.4097796746 -0.1091953352 -0.2662708853 0.0935880578
145299130.0 -0.2772473536 0.0957862858 0.4089042649 -0.1142736296 0.4088750192 -0.1141466565 -0.2652480752 0.0957482653
150299100.0 -0.2761299702 0.0984596731 0.4073839603 -0.1188791697 0.4075117299 -0.1185952178 -0.2642274658 0.0983941403
155299070.0 -0.2759321602 0.1006860808 0.4067915479 -0.1242860776 0.4065140689 -0.1241380214 -0.263257705 0.1007480189
160299040.0 -0.2743271221 0.1033443409 0.4051076486 -0.1288067777 0.4051096389 -0.1287259864 -0.2627230245 0.103176174
165299010.0 -0.2737100737 0.1059354105 0.4041463106 -0.1340520673 0.4043031882 -0.1339352289 -0.2613593796 0.1058589007
170298980.0 -0.2731330706 0.1085651092 0.402632517 -0.1384869929 0.4028862102 -0.1386997601 -0.2601499482 0.1079197202
175298950.0 -0.2720176947 0.1113266887 0.4016450449 -0.1432553315 0.4015432278 -0.1432439892 -0.2595310424 0.1110303014
180298920.0 -0.2711074581 0.1139240815 0.4001598265 -0.1481234217 0.3999308413 -0.1476327073 -0.2582622696 0.1133451224
185298890.0 -0.2697063284 0.1162280682 0.3984590218 -0.1525134826 0.3984578282 -0.1525145307 -0.2574740588 0.1157427549
190298860.0 -0.2687084255 0.1193333052 0.3968843613 -0.1576563893 0.397216985 -0.1570553149 -0.256330499 0.1182660545
195298830.0 -0.2678221139 0.1218728841 0.3954344336 -0.1621243471 0.3954230239 -0.1619671834 -0.2550737452 0.1209974619
200298800.0 -0.266073354 0.1248461098 0.3931841831 -0.1668429685 0.3934339657 -0.1668411648 -0.2544002711 0.1233197524
205298770.0 -0.2655684847 0.1274029966 0.3917301294 -0.1714421656 0.391728649 -0.1711025138 -0.2532217906 0.1255546762
210298740.0 -0.2645449173 0.1299391318 0.3898877419 -0.1753844047 0.3898600837 -0.1755057477 -0.251793683 0.1288149289
215298710.0 -0.263554795 0.1325286782 0.3880635727 -0.1803993333 0.3878610145 -0.1804376694 -0.2509938013 0.131089739
220298680.0 -0.2619616662 0.1350805256 0.3854611237 -0.1848858074 0.3857893609 -0.1849203735 -0.2502053607 0.1335036531
225298650.0 -0.2608439407 0.1377145514 0.3839206754 -0.1893463635 0.3840189072 -0.1893884471 -0.2490471356 0.1358088154
230298620.0 -0.2596727651 0.1406989324 0.3821485386 -0.1933704712 0.3821921835 -0.1935195685 -0.2478163348 0.1382582978
235298590.0 -0.2583636248 0.1438309515 0.3798503768 -0.1981299058 0.3799829384 -0.1977299782 -0.2464726943 0.1412009763
240298560.0 -0.2568713108 0.1462201435 0.3776162407 -0.2022593107 0.3778512666 -0.2023976762 -0.2453260346 0.1438949397
245298530.0 -0.2560936973 0.1493138962 0.3758168613 -0.2066766753 0.3754812743 -0.2068110955 -0.2439062698 0.146021123
250298500.0 -0.2542180705 0.1519152384 0.3729067516 -0.2110559681 0.3727703391 -0.2107530774 -0.2428815041 0.1487120278
255298470.0 -0.2531496482 0.1540019756 0.3700574224 -0.2149761571 0.3708458833 -0.2149176018 -0.2414836712 0.1510397926
260298440.0 -0.2516001677 0.156895472 0.3682450561 -0.2192589382 0.3686457292 -0.2194179558 -0.2399728318 0.1539516093
265298410.0 -0.2499270587 0.1600405515 0.3657890535 -0.2239900232 0.3662376274 -0.2232760694 -0.2385102607 0.1561025922
270298380.0 -0.2486772424 0.1626295464 0.3632059234 -0.227530792 0.3636581548 -0.2275726401 -0.2370968566 0.1584743472
275298350.0 -0.2469976523 0.1652121696 0.3610256872 -0.2320304704 0.3612420995 -0.2319729947 -0.2353090741 0.1613150844
280298320.0 -0.2451789222 0.1677673721 0.3587723598 -0.2356235889 0.3585103416 -0.2356925067 -0.2336199724 0.1636275718
285298290.0 -0.243576601 0.1707364015 0.3556306958 -0.2399004117 0.3559113983 -0.2399861142 -0.232226247 0.1660161452
290298260.0 -0.2417365844 0.1730514574 0.3533536613 -0.2437207933 0.3531534915 -0.2441616402 -0.2302326974 0.1687948008
295298230.0 -0.2400302353 0.1755123337 0.3508963104 -0.2479051214 0.3505965739 -0.2480430107 -0.2281849796 0.1708395871
300298200.0 -0.2385108175 0.1785238369 0.347901184 -0.2517926406 0.3480404129 -0.2518677868 -0.2267070718 0.1732983539
305298170.0 -0.2363553071 0.1807068863 0.3449017497 -0.2561242406 0.3447637291 -0.25577543 -0.2245207996 0.1757869051
310298140.0 -0.2348558593 0.1834152523 0.3421551313 -0.2595267944 0.3423424844 -0.2596471361 -0.2232531344 0.1780742231
315298110.0 -0.2331542424 0.1858455284 0.339558141 -0.2635137636 0.3395570779 -0.2634738953 -0.221394101 0.1804375161
320298080.0 -0.2311092686 0.1885297947 0.336107053 -0.2677973763 0.3365042325 -0.2675131791 -0.2193481095 0.1831616688
325298050.0 -0.2292339648 0.1908083347 0.3332775404 -0.2714372443 0.3334930349 -0.2713236725 -0.2179914796 0.1851948674
330298020.0 -0.2275994745 0.1930504017 0.3302086716 -0.2751029324 0.3303483705 -0.2751338733 -0.2161695106 0.1879416527
335297990.0 -0.2253568321 0.1953044776 0.3270164758 -0.2783786066 0.3272261171 -0.2789621888 -0.21488618 0.1906538131
340297960.0 -0.2241771627 0.1982236344 0.3238578702 -0.2824539969 0.3236093809 -0.2823892253 -0.2121491393 0.1930764216
345297930.0 -0.2221963754 0.2006085595 0.3202335966 -0.2860072896 0.320451002 -0.2861959691 -0.2105748482 0.1950629649
350297900.0 -0.2200908835 0.2032645515 0.3170225618 -0.2896378244 0.3170150906 -0.2896535822 -0.2088742389 0.1978399924
355297870.0 -0.2180602067 0.2060699934 0.3140619361 -0.2932273036 0.3144038315 -0.2929410968 -0.2071162904 0.2001428597
360297840.0 -0.2159306141 0.2083209501 0.3113282361 -0.2960777848 0.3110380699 -0.2960876772 -0.2051201027 0.2028122555
365297810.0 -0.2140316205 0.2107973094 0.3073796586 -0.2998468028 0.3077798528 -0.2999896403 -0.2027315612 0.2046176298
370297780.0 -0.2118469376 0.2130907397 0.3039656102 -0.3027414523 0.3044322213 -0.3032039277 -0.2005049629 0.2074567465
375297750.0 -0.2097000356 0.2154502943 0.3011383415 -0.3063075973 0.3011254449 -0.3066912338 -0.198621507 0.2095669254
380297720.0 -0.2074965753 0.217676338 0.2974922939 -0.3098432997 0.2977843175 -0.309565302 -0.1970360639 0.2116559503
385297690.0 -0.2052943561 0.220129956 0.293721278 -0.3126164713 0.2938892327 -0.3129681848 -0.1946244379 0.2141098999
390297660.0 -0.2031716612 0.2226878035 0.2906093177 -0.3164512731 0.2906160567 -0.3158216408 -0.1930919074 0.2165528562
395297630.0 -0.200563378 0.2251113814 0.2872614968 -0.3191313438 0.2869306652 -0.3195148158 -0.1899961278 0.2186441673
400297600.0 -0.1984421923 0.2273064513 0.2833758324 -0.3226003776 0.2834872956 -0.3223890882 -0.1879686503 0.2208935011
405297570.0 -0.1964125868 0.2295778937 0.2800765716 -0.3254908056 0.2802914105 -0.3252539399 -0.1862407507 0.2229408444
410297540.0 -0.1938560593 0.2315602206 0.2766305211 -0.3286895977 0.2765532107 -0.3290780644 -0.184029545 0.2256092685
415297510.0 -0.1909271634 0.2337956129 0.2725162092 -0.331773846 0.2728874151 -0.3320145061 -0.1818016562 0.2271183884
420297480.0 -0.1890919811 0.236267367 0.2688401973 -0.3345626888 0.2686251661 -0.3346661595 -0.1793174965 0.2292479186
425297450.0 -0.1864502264 0.2382401238 0.2652974707 -0.3376950485 0.2656079464 -0.3377869372 -0.1771638035 0.2313850677
430297420.0 -0.1843121932 0.2404391818 0.2613961736 -0.3397603932 0.2614560073 -0.3401554363 -0.174827836 0.2329806734
435297390.0 -0.1816279964 0.2424591108 0.2574536224 -0.3431542362 0.2574066647 -0.3434527557 -0.1717875047 0.2351207096
440297360.0 -0.1791919805 0.2445766919 0.2536814971 -0.3457820957 0.2542160987 -0.3459596558 -0.1698602723 0.2369683675
445297330.0 -0.1766572471 0.2465065582 0.2503552882 -0.3486588212 0.2502988906 -0.3485934953 -0.1672358211 0.2385590379
450297300.0 -0.1742314549 0.248368996 0.246386083 -0.3512889038 0.2460807987 -0.3517590603 -0.1646038355 0.2405951977
455297270.0 -0.1715973139 0.2503591469 0.2422831827 -0.3540664324 0.2423319812 -0.3541966341 -0.1625455674 0.2422544724
460297240.0 -0.1689845393 0.252319447 0.23812644 -0.3565610544 0.2386581283 -0.3569933105 -0.1596479119 0.2444449083
465297210.0 -0.1659295252 0.2545392441 0.2347003517 -0.3591643412 0.2346213439 -0.359857581 -0.1568388538 0.2463064753
470297180.0 -0.1634926891 0.2560326201 0.2302461822 -0.3619245193 0.2307150336 -0.3617037887 -0.1542811473 0.2481638051
475297150.0 -0.1608227692 0.2578958533 0.2262957518 -0.363698968 0.2266909427 -0.3641346668 -0.1514429502 0.2493240073
480297120.0 -0.1582478713 0.2602735918 0.2225622835 -0.3669230003 0.222068784 -0.3670751718 -0.1487141516 0.2514614169
485297090.0 -0.1553388654 0.261801912 0.2182518875 -0.3687772816 0.2186687893 -0.3691608954 -0.1458986237 0.253121029
490297060.0 -0.1529677015 0.2636611143 0.2145721463 -0.3713794167 0.2147009113 -0.3709492367 -0.1435015902 0.2548990581
495297030.0 -0.1505065703 0.2649930286 0.2104996115 -0.3732676348 0.2107058061 -0.3733726383 -0.1411432054 0.2566020897
500297000.0 -0.1471048869 0.2670296058 0.205991535 -0.3759401095 0.2061639889 -0.3754286578 -0.1380878178 0.2589954487
505296970.0 -0.1448401277 0.2686704936 0.2023967522 -0.3778417967 0.2019897245 -0.3782729817 -0.1353572592 0.2601267672
510296940.0 -0.1417662306 0.2703369241 0.1981900434 -0.3802108812 0.197779903 -0.380399529 -0.1323185264 0.2615481423
515296910.0 -0.1387332909 0.2718865489 0.1935467887 -0.3821615577 0.1934500307 -0.382228737 -0.1298390336 0.2631193806
520296880.0 -0.1360932176 0.2735647951 0.189784464 -0.3844515212 0.1892658937 -0.3841758286 -0.1271884118 0.264545523
525296850.0 -0.1330515869 0.27478528 0.1849051632 -0.3864979576 0.1855017081 -0.3865653715 -0.1246222736 0.2667055837
530296820.0 -0.1299746755 0.2764554597 0.1806942872 -0.388426643 0.1808622129 -0.3884434595 -0.1214728105 0.2679225134
535296790.0 -0.1276243388 0.2781018853 0.1768151703 -0.390173586 0.1770026909 -0.3898206379 -0.1192064198 0.269277505
540296760.0 -0.1248564948 0.2799020333 0.1726906961 -0.3923147861 0.1725359618 -0.3923317478 -0.1165503034 0.2711073462
545296730.0 -0.1218296784 0.2810886835 0.1682010749 -0.3938416381 0.1679463557 -0.3938215605 -0.1135497876 0.2722003093
550296700.0 -0.1184493758 0.2828562027 0.1636583524 -0.3960198765 0.1639984939 -0.3956413568 -0.1110222758 0.2736291375
555296670.0 -0.115389838 0.2837960125 0.1596610001 -0.3973615377 0.1599083357 -0.3975934012 -0.1081069386 0.2751872086
560296640.0 -0.1128164114 0.2855909437 0.1552317821 -0.3992326362 0.1554595978 -0.3993700591 -0.1048650493 0.2766957033
565296610.0 -0.1095392925 0.2867528695 0.1506504716 -0.4009003214 0.1510718783 -0.4010869496 -0.1021321617 0.2775029315
570296580.0 -0.1069170031 0.2880681343 0.1466069685 -0.4027612409 0.1462586226 -0.4026340972 -0.0991082094 0.2791593538
575296550.0 -0.1039187461 0.2892069967 0.1421816937 -0.4040323427 0.1420408016 -0.4039748523 -0.0963426281 0.2802374423
580296520.0 -0.1007196247 0.2905269787 0.1374269766 -0.4057486668 0.1376716721 -0.4056750422 -0.0935942142 0.2811816159
585296490.0 -0.0981419198 0.2914602205 0.1334754791 -0.4069334824 0.1332272412 -0.4070454923 -0.0908308736 0.2824150791
590296460.0 -0.0944696699 0.2931041039 0.1287177169 -0.4080177329 0.1288503907 -0.4080995136 -0.0882588986 0.2835315281
595296430.0 -0.0915323908 0.2938030426 0.1240212553 -0.4098094373 0.1244235887 -0.4097659922 -0.0847744871 0.2841636823
600296400.0 -0.0884171 0.2951268656 0.1199076182 -0.4109934727 0.1198517605 -0.4107249186 -0.0818102058 0.2853499892
605296370.0 -0.0856078408 0.2961981696 0.1151498558 -0.4121400123 0.1154204676 -0.4122303779 -0.0786483898 0.2863565604
610296340.0 -0.0825686371 0.2972199052 0.1106705833 -0.4131285338 0.1108692843 -0.4134296665 -0.0756817001 0.2871197221
615296310.0 -0.0789671679 0.298036265 0.1063222922 -0.4141835173 0.1059961917 -0.4147217372 -0.0723054289 0.2880569877
620296280.0 -0.0763226908 0.298624442 0.1021171001 -0.4151988327 0.1015437423 -0.4155332338 -0.0696328875 0.2889923771
625296250.0 -0.0729102537 0.2998064675 0.0976059821 -0.4168924101 0.0973583532 -0.4167486422 -0.066242394 0.2894489692
630296220.0 -0.0692696529 0.3007608127 0.0922160507 -0.4177675147 0.0924214205 -0.4177012043 -0.0633644387 0.290747448
635296190.0 -0.0670191859 0.3014142818 0.088240414 -0.4185670158 0.0882195299 -0.4186568653 -0.0601342293 0.291521706
640296160.0 -0.063803451 0.3025470774 0.0836864777 -0.4192182133 0.083887571 -0.4195318021 -0.0570905751 0.292160675
645296130.0 -0.0602725329 0.3033962841 0.0788853083 -0.4198195962 0.079452318 -0.4202634467 -0.0540539694 0.2929286987
650296100.0 -0.0571958146 0.3041708061 0.0744740119 -0.4210473286 0.0745368856 -0.4209977757 -0.0506114637 0.2931157125
655296070.0 -0.0540601487 0.3048612034 0.0700848554 -0.4215731926 0.0700809195 -0.4217672934 -0.0474332979 0.2941055333
660296040.0 -0.0510987213 0.3053054953 0.0656193103 -0.4222318524 0.0654595248 -0.4226150511 -0.0442935411 0.2949165467
665296010.0 -0.0472917347 0.3057069536 0.0604397249 -0.4229605761 0.0609051215 -0.423305486 -0.04090066 0.2958861266
670295980.0 -0.0449313542 0.3064866155 0.0561397893 -0.4232792095 0.056333815 -0.4234643514 -0.0384350791 0.2960948468
675295950.0 -0.04157804 0.3075383448 0.0519954676 -0.4242372291 0.0517305474 -0.4237237412 -0.0354241277 0.2968229335
680295920.0 -0.0380511108 0.3078177018 0.0468456295 -0.4244520342 0.0463224516 -0.4250994283 -0.031639885 0.2978001023
685295890.0 -0.0348922369 0.3085898022 0.0422726274 -0.4249534464 0.0421963478 -0.4254510854 -0.0288883997 0.2981900553
690295860.0 -0.0313898322 0.3087937637 0.0377802266 -0.4253188107 0.0378339213 -0.4256312963 -0.0259113331 0.2989489305
695295830.0 -0.0282601355 0.3092188338 0.033463515 -0.4255064055 0.032888608 -0.4258120514 -0.022774375 0.2994104944
700295800.0 -0.0250580286 0.3096636884 0.0285266997 -0.4261253901 0.0283324752 -0.4260033049 -0.0198146097 0.300108129
705295770.0 -0.0219605809 0.310435156 0.0235735065 -0.4266396094 0.0240300486 -0.4267013027 -0.0168860032 0.3007391863
710295740.0 -0.0186768418 0.3105742332 0.0194273174 -0.4268488914 0.0191221424 -0.4267347225 -0.0134098245 0.3003380408
715295710.0 -0.0156748106 0.3108778899 0.0150904902 -0.4267965803 0.0144762822 -0.426695296 -0.0102746984 0.3005921755
720295680.0 -0.0123669359 0.3112108071 0.0101247025 -0.4271622219 0.0103723722 -0.4270114884 -0.0069546771 0.3010852199
725295650.0 -0.0084967943 0.3113076231 0.0053439935 -0.4266366571 0.0051386038 -0.4272343611 -0.0042505859 0.3016738284
730295620.0 -0.005357128 0.3118144298 0.0007351916 -0.4266349867 0.0010434289 -0.4269300252 -0.0013210893 0.3016498134
735295590.0 -0.0023849726 0.3121430282 -0.003838594 -0.427365847 -0.0040875545 -0.4268103573 0.0017964541 0.3016002758
740295560.0 0.0007525106 0.3125926489 -0.0084004965 -0.4269654491 -0.0088096813 -0.4268372664 0.0057232788 0.3018993438
745295530.0 0.0042027116 0.3127826101 -0.0129213024 -0.4263710797 -0.0132724753 -0.4265503079 0.0085871593 0.3016770938
750295500.0 0.0074573185 0.3122411887 -0.0173851211 -0.4262365946 -0.0173816287 -0.4263991661 0.0115679027 0.3018181773
755295470.0 0.0107041535 0.3120268456 -0.0224211527 -0.4258604805 -0.0223896452 -0.4262110947 0.0149173018 0.3012388218
760295440.0 0.0139136774 0.3125090541 -0.0269782041 -0.4259038233 -0.0268315067 -0.4261219636 0.018093202 0.3016800627
765295410.0 0.0171053575 0.3123761797 -0.031552316 -0.4253419741 -0.0316756945 -0.4255653155 0.02083142 0.3016850075
770295380.0 0.0204618771 0.312159678 -0.0363135114 -0.4249039701 -0.036083013 -0.4248829432 0.0239235794 0.3013887427
775295350.0 0.0234990295 0.3116464945 -0.0409173205 -0.4242935269 -0.0404078941 -0.4248340757 0.0267469905 0.3015109797
780295320.0 0.0266073456 0.3121172253 -0.045528269 -0.4238270082 -0.044891204 -0.4238786775 0.0300502889 0.3007560545
785295290.0 0.0298299495 0.31138243 -0.0498929897 -0.4230779674 -0.0500590679 -0.4235404347 0.0340614662 0.3007764178
790295260.0 0.03387124 0.3117158651 -0.0543677947 -0.4230029868 -0.0540251046 -0.4227940564 0.0372314285 0.3006644279
795295230.0 0.0365705434 0.3113997148 -0.0593067257 -0.422281325 -0.0588989925 -0.4223560338 0.0404730161 0.300591372
800295200.0 0.0395479781 0.3110265836 -0.0640463897 -0.4213819545 -0.0636304244 -0.4213150193 0.0434737501 0.2997847759
805295170.0 0.0433106979 0.3106051031 -0.0682800501 -0.4205874149 -0.0680699438 -0.4208387225 0.0465962812 0.2999477979
810295140.0 0.0464958643 0.3102501866 -0.0724159841 -0.4199100529 -0.0728374423 -0.4198153991 0.0501276547 0.2993824796
815295110.0 0.0495339386 0.3097448794 -0.0773166399 -0.4188163784 -0.0773050032 -0.4190424599 0.0531871656 0.2986845996
820295080.0 0.0524798311 0.3097238599 -0.0815023152 -0.4177780347 -0.0813022292 -0.4182452313 0.0563653192 0.2986275767
825295050.0 0.0565088857 0.3092270814 -0.0857921523 -0.4171165242 -0.0858685399 -0.4175281316 0.0594213881 0.2981644445
