!Created with skrf (http://scikit-rf.org).
# Hz S RI R 50.0 
!freq ReS11 ImS11 ReS21 ImS21 ReS12 ImS12 ReS22 ImS22
300000.0 -0.0948647739 -0.1044818542 0.6238375878 0.0954130996 0.6213304499 0.0957316517 -0.0958264476 -0.1058635343
5299970.0 -0.1016884181 0.0115438842 0.6302941535 0.011264937 0.6306156423 0.0113835733 -0.101509438 0.0111711555
10299940.0 -0.096842885 0.0286635174 0.6347647228 0.0161868996 0.634194161 0.0169821066 -0.0962276153 0.0283698574
15299910.0 -0.0888409831 0.0425568601 0.6403780033 0.0209014456 0.6405964275 0.021600847 -0.0895761545 0.041746243
20299880.0 -0.080442394 0.0533685073 0.6483107541 0.0238627302 0.6492669346 0.0244452318 -0.0807562759 0.0530858383
25299850.0 -0.070320951 0.0623025306 0.6580726313 0.026099943 0.6580602597 0.0259694661 -0.0716064702 0.0617958803
30299820.0 -0.0609615116 0.0686815279 0.6680525258 0.0247548959 0.6678645858 0.0245972117 -0.0617632563 0.0684342919
35299790.0 -0.0502596559 0.0734365926 0.676777141 0.0217159794 0.6775297049 0.0216831576 -0.0521634369 0.0738736855
40299760.0 -0.0411906552 0.0764441753 0.6868846405 0.0176767097 0.6867445262 0.0180655841 -0.0425805272 0.0767403272
45299730.0 -0.031875968 0.0784972633 0.6958978343 0.0120739639 0.695919365 0.0118403882 -0.0331917471 0.079173772
50299700.0 -0.02278355 0.0791005572 0.7039874992 0.0050054499 0.7039032952 0.005112266 -0.0244350452 0.0802857313
55299670.0 -0.0151355243 0.0789358133 0.7108867364 -0.0023791267 0.7111039911 -0.002449403 -0.0169383133 0.0803281192
60299640.0 -0.0077920794 0.0786833293 0.7180411587 -0.0112307845 0.7177119647 -0.0110261739 -0.0096000903 0.0794677349
65299610.0 -0.0011361759 0.0772766867 0.7241501065 -0.0195940228 0.7241139359 -0.019962051 -0.0026456783 0.0786774789
70299580.0 0.0052199771 0.0749692814 0.7290775245 -0.0287107581 0.7295541 -0.0292283306 0.0030578644 0.0771552003
75299550.0 0.0104647769 0.0731808356 0.7331823951 -0.0393968943 0.7335733684 -0.0387494718 0.0086883349 0.0755364404
80299520.0 0.0155980937 0.0713904577 0.7376576614 -0.0487797269 0.7376060917 -0.04861936 0.0137070642 0.073423589
85299490.0 0.0199161163 0.0694048115 0.7410125752 -0.0589353198 0.7413711185 -0.0581776793 0.0181263388 0.0709506032
90299460.0 0.023955332 0.0665770065 0.7430745364 -0.0688437848 0.7434061413 -0.0683031123 0.0225280006 0.0692034731
95299430.0 0.0279770054 0.0641459903 0.7461899232 -0.0785890088 0.7462149516 -0.0792659549 0.0258645404 0.0666725388
100299400.0 0.0313233875 0.0615530685 0.7476152002 -0.0887586056 0.7477442765 -0.0890534821 0.0292515561 0.0644177693
105299370.0 0.0342181477 0.0593210184 0.7488486396 -0.0988780101 0.7497089188 -0.0987777633 0.0327864415 0.0616622295
110299340.0 0.0373318771 0.0564604914 0.7504161521 -0.1085865974 0.7506781633 -0.1087050564 0.0351274299 0.0593177706
115299310.0 0.0394241019 0.0544766648 0.7511564372 -0.1184881082 0.7515366435 -0.1186014259 0.0375346752 0.0576737894
120299280.0 0.0416426596 0.0518812892 0.7522127516 -0.1298104116 0.7517744162 -0.1290757458 0.0397375478 0.0548418979
125299250.0 0.0437557599 0.0495687293 0.7521425771 -0.138980703 0.7520788377 -0.1385744695 0.0422602891 0.0528191785
130299220.0 0.0457791649 0.0471660019 0.7520555448 -0.1492153851 0.7518305468 -0.149297983 0.0435630269 0.0506836284
135299190.0 0.0470237699 0.0452101486 0.7516553072 -0.1586258089 0.7521339232 -0.1590546721 0.0454716312 0.0475544062
140299160.0 0.0489276283 0.043185933 0.7515943032 -0.1685507442 0.7511758022 -0.168127776 0.046357433 0.0457705214
145299130.0 0.049449853 0.0411716762 0.7502670535 -0.178098291 0.750549807 -0.1781678904 0.04793546 0.0434403894
150299100.0 0.0509422582 0.0391640265 0.7496778001 -0.1873448819 0.7493659141 -0.1877274317 0.0493781659 0.041990364
155299070.0 0.0525119232 0.0372741045 0.7477252129 -0.197644637 0.7487235417 -0.1978485022 0.0508739716 0.0395485223
160299040.0 0.0533554873 0.0355624723 0.7467257305 -0.2071042643 0.7466233034 -0.2073365395 0.0511387808 0.0379718789
165299010.0 0.0543044742 0.0337206461 0.7453641274 -0.2162792474 0.74516371 -0.2163429844 0.05253299 0.0357775822
170298980.0 0.0550350528 0.0319610417 0.7429351946 -0.2260814418 0.74350282 -0.225800546 0.0528782953 0.0340282763
175298950.0 0.0558540134 0.0304759402 0.7422076445 -0.2349464131 0.7416301813 -0.2355079329 0.0535835866 0.0325071385
180298920.0 0.056340014 0.0286209981 0.7394521518 -0.2443581039 0.7391409622 -0.2444135356 0.0539089192 0.0310815794
185298890.0 0.0569511758 0.0272386719 0.7380234351 -0.2536299363 0.7372599471 -0.2534135031 0.0551147559 0.0286621439
190298860.0 0.0578013711 0.0257209174 0.7342966642 -0.2628936374 0.7348951628 -0.2625751494 0.0552731717 0.0273196351
195298830.0 0.0577723978 0.0243234974 0.7329010443 -0.2716398588 0.7328799098 -0.2717678107 0.0557139861 0.0259722163
200298800.0 0.0585172402 0.0223741954 0.7298971481 -0.2812410837 0.7292168703 -0.2806815668 0.0562087692 0.0236761746
205298770.0 0.058322414 0.0206532251 0.7267032907 -0.2899205118 0.7270497818 -0.2892333969 0.0567721436 0.0225136908
210298740.0 0.0588648338 0.0199369268 0.7245076351 -0.2984486799 0.7236915883 -0.2981257502 0.0566913781 0.020963476
215298710.0 0.0595079383 0.0187239336 0.7207799053 -0.3069212238 0.7208552454 -0.3071576855 0.0570818702 0.0197730189
220298680.0 0.0597745179 0.0174508895 0.7175038992 -0.3153846658 0.7176858504 -0.3160103109 0.0573744214 0.018341168
225298650.0 0.0597303464 0.0159424308 0.7142505735 -0.3245149342 0.7143327942 -0.3234574128 0.0574889948 0.0167605955
230298620.0 0.060239645 0.0150742843 0.7114533646 -0.3330571186 0.7111206401 -0.3328913537 0.0572737644 0.0153768829
235298590.0 0.059803486 0.0139665103 0.7077208093 -0.3417677474 0.7079021686 -0.3415113338 0.0579652045 0.0142715992
240298560.0 0.0603482763 0.0129184312 0.7041670491 -0.3489610836 0.7039886237 -0.3495662811 0.0578453016 0.012963114
245298530.0 0.0599923007 0.0112292156 0.7005756539 -0.3583334175 0.6998027096 -0.358079774 0.0579796147 0.0116152469
250298500.0 0.0602598975 0.0101420041 0.696943542 -0.3658843333 0.6967043171 -0.3658618384 0.0578533393 0.0105699542
255298470.0 0.0605335747 0.0095085435 0.6930295549 -0.3743935556 0.6934605017 -0.3742115956 0.0578868078 0.0098689826
260298440.0 0.0606324695 0.0082187521 0.6888946902 -0.3817207622 0.6890614489 -0.3819729363 0.0577805374 0.0077809595
265298410.0 0.0600246107 0.0077254757 0.6845565963 -0.3908247214 0.6839615192 -0.3908882811 0.0588594726 0.0065980347
270298380.0 0.0600813583 0.0062834348 0.6801504624 -0.3983696724 0.680457209 -0.3980933436 0.0582707989 0.0058564794
275298350.0 0.0604280116 0.0055501891 0.6760751 -0.4061014433 0.6755641645 -0.4057629613 0.0576715454 0.0048736384
280298320.0 0.0595933066 0.0042457025 0.6719211936 -0.4139135988 0.6720874427 -0.4137953567 0.0582783728 0.0038731066
285298290.0 0.0598883168 0.0036792662 0.6666700682 -0.4215489571 0.6676139543 -0.4213917805 0.0580045975 0.0026557163
290298260.0 0.0596354247 0.0025818851 0.6634174397 -0.4295538136 0.6629205849 -0.4292970223 0.0581085509 0.0016891534
295298230.0 0.059990979 0.0012311811 0.6583460891 -0.4379130682 0.6584433992 -0.4378251271 0.0578304594 0.0002925288
300298200.0 0.0603338522 0.0006688302 0.6542694384 -0.4449162986 0.6536759524 -0.445256551 0.0579693822 -0.0005429995
305298170.0 0.0599707483 -0.0009136128 0.6489852695 -0.4534000601 0.6489370914 -0.4530288444 0.0578678436 -0.0024083953
310298140.0 0.0603992107 -0.0018085723 0.6444204927 -0.4604713939 0.6445622688 -0.4601543799 0.0581573186 -0.0037122468
315298110.0 0.0597479196 -0.0032635485 0.6393081577 -0.4685667407 0.6391927651 -0.4685844281 0.0576562772 -0.0044605412
320298080.0 0.0595426372 -0.0037694382 0.6332849513 -0.4758913297 0.6345081137 -0.4764669669 0.0572712006 -0.0057233199
325298050.0 0.0585642463 -0.0054461902 0.6282782759 -0.4827846505 0.6289956511 -0.4830072999 0.0570121934 -0.0068711128
330298020.0 0.0573652841 -0.0061380013 0.6223804283 -0.4908448961 0.6232344465 -0.4906720355 0.0561224695 -0.0079148792
335297990.0 0.0576587302 -0.0064691545 0.6173516436 -0.4978855278 0.6171920066 -0.4979167996 0.0555727615 -0.0087916865
340297960.0 0.0569833269 -0.0077185236 0.6108610216 -0.5052175681 0.6110000586 -0.5048017759 0.0553480466 -0.0092269381
345297930.0 0.0563451958 -0.0084948803 0.6056531565 -0.5121992823 0.6053574545 -0.511791467 0.0552541511 -0.0106061949
350297900.0 0.0558987882 -0.0091336699 0.600432691 -0.5176755524 0.6005426309 -0.5183829415 0.0548289957 -0.0113840779
355297870.0 0.0557885184 -0.0098616983 0.5945438928 -0.5245753235 0.5943075955 -0.5245558222 0.0544247555 -0.01208289
360297840.0 0.0554161244 -0.0103779506 0.5877534285 -0.5315247447 0.5890156486 -0.5317672978 0.0534197344 -0.0121101022
365297810.0 0.0546683975 -0.0111235589 0.5825946553 -0.5379997025 0.5822640211 -0.5383990324 0.053214803 -0.0132850943
370297780.0 0.0546727268 -0.011495968 0.5759757362 -0.5446023862 0.5768875478 -0.544343843 0.0527313763 -0.0141515593
375297750.0 0.0541612437 -0.0119083412 0.5706485065 -0.5510629127 0.5706352995 -0.5509179531 0.052897116 -0.014750548
380297720.0 0.0532983413 -0.0126792029 0.5646697404 -0.5579724483 0.5641218011 -0.5574761583 0.0524227075 -0.0150449223
385297690.0 0.0530309761 -0.0135765404 0.5581594471 -0.5634810783 0.5582125461 -0.5642520324 0.0524063071 -0.0154665514
390297660.0 0.0528829166 -0.0144272326 0.552159701 -0.5696983926 0.5522303722 -0.5695762999 0.0521637751 -0.0166716276
395297630.0 0.0530907601 -0.0149436092 0.5460995665 -0.5755799422 0.545915136 -0.5756971175 0.051406307 -0.0171161925
400297600.0 0.0521828214 -0.0158162446 0.5393032489 -0.5817338317 0.5398140883 -0.5818487486 0.0512948547 -0.0173793991
405297570.0 0.0518811101 -0.0165741372 0.5331519924 -0.5871820781 0.53282732 -0.5877386724 0.0509126539 -0.0176861417
410297540.0 0.0513411141 -0.0164639381 0.5268160626 -0.5936305388 0.5268159825 -0.5937093467 0.0506044909 -0.0187903579
415297510.0 0.050910684 -0.0173742097 0.5197638233 -0.599232866 0.5209299586 -0.6001093615 0.0503945242 -0.0190309884
420297480.0 0.0505038237 -0.0184802359 0.5138900238 -0.6056445832 0.5138237488 -0.6054567278 0.0504358696 -0.0194178724
425297450.0 0.0507715236 -0.0187532043 0.5068330079 -0.6108422955 0.5070188706 -0.6111062088 0.0497608288 -0.0205750512
430297420.0 0.0499602097 -0.019458971 0.5012287253 -0.6168282779 0.5002556085 -0.6162256229 0.0499908093 -0.0212378274
435297390.0 0.0498526721 -0.02022362 0.4935016023 -0.6231903317 0.4931562193 -0.62254324 0.0489118992 -0.0213692227
440297360.0 0.0496685894 -0.0210913312 0.4858038045 -0.6279541219 0.4861716224 -0.6275983757 0.0486100825 -0.0219362608
445297330.0 0.0493340991 -0.0220185653 0.4796119397 -0.6325823049 0.4796470248 -0.6330737846 0.048365459 -0.0221781444
450297300.0 0.0487801189 -0.0220908623 0.4725984268 -0.6384894127 0.4727417838 -0.6378073033 0.0479940448 -0.0225609649
455297270.0 0.048004181 -0.0226473663 0.4658199965 -0.6432997442 0.4658210059 -0.6438358258 0.0476343116 -0.023214019
460297240.0 0.048142291 -0.0232634496 0.4584786428 -0.649311176 0.458272296 -0.6492373216 0.0472348084 -0.0241764428
465297210.0 0.0478510121 -0.0241382747 0.4512145366 -0.6538607875 0.4510066904 -0.65402255 0.0474086137 -0.0239307842
470297180.0 0.0471409559 -0.0248638997 0.444537539 -0.6583267988 0.4444860686 -0.6584675812 0.0471727956 -0.0253095653
475297150.0 0.0466038282 -0.0249555274 0.4370079606 -0.6636559972 0.4371198787 -0.6637844813 0.0466043575 -0.0257304709
480297120.0 0.0465740638 -0.0251573457 0.4292251379 -0.6680683852 0.4295584052 -0.6680111896 0.0459031354 -0.0264969022
485297090.0 0.0460002245 -0.026580965 0.4221810156 -0.673326375 0.4221721336 -0.6731526576 0.0455804735 -0.0265007544
490297060.0 0.0462710244 -0.0265190146 0.4141084735 -0.6777305606 0.4146260827 -0.6779389104 0.0452587639 -0.0272826754
495297030.0 0.0454635965 -0.0278363095 0.4073228144 -0.6823742492 0.4079290462 -0.6826197071 0.0453168687 -0.0278690879
500297000.0 0.0447633547 -0.0278571723 0.400252569 -0.6863152848 0.3998514701 -0.6870357129 0.044685347 -0.027727777
505296970.0 0.0449437593 -0.0282082134 0.3927898765 -0.6915178087 0.3926720726 -0.6908111877 0.0445806252 -0.0293126325
510296940.0 0.0441331662 -0.0292139229 0.3848543769 -0.6962997896 0.3851022235 -0.695879716 0.0441175515 -0.0291036827
515296910.0 0.0438146399 -0.029144722 0.3765342788 -0.6999179788 0.3766479942 -0.6998904384 0.0435505067 -0.0302226309
520296880.0 0.0433946314 -0.0293647062 0.3697072933 -0.7034440288 0.3691533218 -0.7038436593 0.0436801381 -0.0297051076
525296850.0 0.0431594556 -0.0303889863 0.3611794637 -0.7078165857 0.3613612713 -0.70775588 0.0437180989 -0.0305989453
530296820.0 0.0427234389 -0.0310288396 0.3538268126 -0.712190336 0.3538112853 -0.7116649886 0.0427230989 -0.0313641581
535296790.0 0.0427333507 -0.0312958825 0.346237362 -0.7155116711 0.346106079 -0.7157081407 0.04291977 -0.0312150165
540296760.0 0.0422547595 -0.0311145891 0.3383052643 -0.7189833287 0.3382135686 -0.7194176351 0.0421908614 -0.0324272153
545296730.0 0.0407066722 -0.0317193716 0.3301474432 -0.7230765736 0.3302808859 -0.7227870284 0.0420725998 -0.0327994487
550296700.0 0.0417073209 -0.0322095364 0.3226244781 -0.7263995146 0.3221273845 -0.7271263152 0.0414406972 -0.0330629531
555296670.0 0.0405542962 -0.032815201 0.3141197675 -0.7304549142 0.3150675625 -0.7304380886 0.0407938727 -0.0343973112
560296640.0 0.0410948275 -0.0331491513 0.3060989053 -0.7337103829 0.3069264166 -0.7338745314 0.0404707078 -0.0337072526
565296610.0 0.0395216651 -0.0336554221 0.2984499992 -0.7370937629 0.2985345673 -0.7365986111 0.0404830745 -0.03400872
570296580.0 0.039292086 -0.0336345181 0.2900439935 -0.7404485461 0.2906264456 -0.740154976 0.0396602801 -0.0353112926
575296550.0 0.0391752274 -0.0342390913 0.2824832917 -0.7433251485 0.2824228162 -0.7434339521 0.0391653613 -0.0352578431
580296520.0 0.0387617342 -0.0342121888 0.2738886701 -0.7461019995 0.2738162292 -0.7467543242 0.0382482827 -0.0357093995
585296490.0 0.0381344934 -0.0345291289 0.2664174335 -0.7496956603 0.265484676 -0.7491732601 0.038411861 -0.035778209
590296460.0 0.0384742878 -0.035066968 0.2578680727 -0.7524513868 0.2578458921 -0.7524799879 0.0374848637 -0.036103748
595296430.0 0.0378596506 -0.0352323765 0.2488007921 -0.7550455054 0.2490839727 -0.75482962 0.0375130357 -0.0370934289
600296400.0 0.0376238777 -0.0356276993 0.2407499381 -0.7577201133 0.240806885 -0.7576838377 0.0369412248 -0.0371493047
605296370.0 0.0362137166 -0.0358395509 0.2332671136 -0.7602381622 0.232485844 -0.7605384979 0.0359757389 -0.0376335292
610296340.0 0.0364713185 -0.0358244319 0.2242704946 -0.7620883376 0.2246298709 -0.762270559 0.0354631137 -0.0376612765
615296310.0 0.036316369 -0.0363151153 0.2158912369 -0.7658289953 0.2157945242 -0.7649861872 0.0351811516 -0.0380185611
620296280.0 0.0349293233 -0.0360969974 0.2070186662 -0.7681079099 0.2074662008 -0.7676013717 0.0342602182 -0.0380133824
625296250.0 0.0345022073 -0.036780859 0.199285776 -0.770115493 0.1993020368 -0.7700485564 0.0335820231 -0.0386949698
630296220.0 0.0342283327 -0.0368137721 0.1900088634 -0.7724483896 0.1906491435 -0.7717518659 0.0335978069 -0.0390533822
635296190.0 0.033140527 -0.0366297276 0.1827202824 -0.7735920352 0.1825261765 -0.7735452334 0.0331432681 -0.0394978486
640296160.0 0.0328095558 -0.0369697587 0.173383389 -0.7760036271 0.1739690886 -0.7758946103 0.0320223097 -0.0400494422
645296130.0 0.0329256736 -0.0365925732 0.1654261374 -0.7773224097 0.1657478969 -0.777513324 0.0313334023 -0.0404456922
650296100.0 0.0321174456 -0.0373404238 0.1569816352 -0.779890492 0.1566667168 -0.7798817191 0.0318527958 -0.0406118638
655296070.0 0.0317524821 -0.037608815 0.1477914566 -0.781429005 0.1485319919 -0.7810502879 0.030186258 -0.0404659628
660296040.0 0.0312572904 -0.0375121623 0.1397907559 -0.7831167617 0.1398548887 -0.782780672 0.0298258756 -0.0415465887
665296010.0 0.0308647038 -0.0377233774 0.1306750873 -0.7835476346 0.131327729 -0.7842339747 0.0294945832 -0.0411857952
670295980.0 0.0303453083 -0.0376206189 0.1225700773 -0.7858337115 0.1226330319 -0.7851472224 0.0282949844 -0.0415182815
675295950.0 0.029562596 -0.0380536327 0.1143004633 -0.7866431571 0.1145840085 -0.7868394441 0.0277459391 -0.0414157266
680295920.0 0.0288830291 -0.0380634902 0.1054314594 -0.7872820353 0.1062687543 -0.7878897889 0.0277213785 -0.0421678689
685295890.0 0.028561487 -0.0379232655 0.0965237464 -0.7892070397 0.0972434083 -0.7890935927 0.0271976901 -0.0418436652
690295860.0 0.027413223 -0.0379091102 0.0884477006 -0.7898646671 0.0882484207 -0.7901594313 0.0265370442 -0.0422526616
695295830.0 0.0273168701 -0.0385109178 0.0802208014 -0.7909447776 0.0799667481 -0.7906846809 0.0255179373 -0.0422367002
700295800.0 0.0267314592 -0.0381232058 0.0716450988 -0.7919145542 0.0714029872 -0.7917401382 0.0249027736 -0.0422968006
705295770.0 0.0257689325 -0.0383561101 0.0623806691 -0.7931437005 0.062762374 -0.7926291302 0.0240587157 -0.0420097692
710295740.0 0.0257474117 -0.0385181627 0.0542345245 -0.7933253768 0.0541135696 -0.7936156921 0.0237615734 -0.0425498448
715295710.0 0.0247051016 -0.0381883397 0.0455742804 -0.7938385666 0.0456823648 -0.7933994602 0.0232564091 -0.0427290533
720295680.0 0.0247249984 -0.0382449914 0.0365687724 -0.7936184566 0.0365276606 -0.7944234769 0.0225418717 -0.0430139698
725295650.0 0.0233196269 -0.0381988605 0.0283534302 -0.7944905428 0.0279785751 -0.7940757022 0.0214304124 -0.0425722033
730295620.0 0.0221461878 -0.0385828924 0.0190435389 -0.7943188172 0.0194003152 -0.7937107384 0.0207654449 -0.0422459916
735295590.0 0.0225974652 -0.0384680866 0.0110682741 -0.7950640799 0.0109354241 -0.7947755531 0.0199721227 -0.0432227701
740295560.0 0.0217412364 -0.0388452851 0.0025947142 -0.7952855803 0.0027560164 -0.795135268 0.0193204905 -0.0426096978
745295530.0 0.0210066213 -0.0384558167 -0.0062442744 -0.7944668051 -0.005634579 -0.7944114312 0.0180563884 -0.0429717146
750295500.0 0.0201519323 -0.0381181176 -0.0150015681 -0.7947524484 -0.0155074954 -0.7941124268 0.0179319998 -0.0427158191
755295470.0 0.0192918064 -0.0385065185 -0.0233453876 -0.7944786719 -0.0233604245 -0.7947318217 0.017359072 -0.0422166302
760295440.0 0.0186523758 -0.0377249866 -0.0330779797 -0.7942886617 -0.0320103011 -0.7934428717 0.0170375822 -0.04383638
765295410.0 0.0186921304 -0.0384163124 -0.0411175726 -0.7933652095 -0.0403738443 -0.7935267613 0.0161725405 -0.0432193934
770295380.0 0.0178779131 -0.0379197364 -0.0489192254 -0.7925595326 -0.049372391 -0.7931426051 0.0150862725 -0.042763366
775295350.0 0.0173411285 -0.0382447874 -0.057814493 -0.7925773568 -0.0578739275 -0.7920179321 0.0151043733 -0.0426321883
780295320.0 0.0163482465 -0.0379888907 -0.0661233441 -0.7911048388 -0.0661719781 -0.7918132388 0.0145119347 -0.0430980973
785295290.0 0.0158179646 -0.0382677768 -0.0751180335 -0.790651704 -0.0749533991 -0.7907895143 0.0129249048 -0.0422404725
790295260.0 0.0155289933 -0.0384557061 -0.0836390116 -0.7902580679 -0.0830998729 -0.7904831227 0.012230914 -0.04214934
795295230.0 0.0146705616 -0.0383863079 -0.0922751869 -0.789294239 -0.0921893931 -0.7894778189 0.0123169808 -0.0430515553
800295200.0 0.0135349777 -0.0379822781 -0.1003211095 -0.7877302869 -0.1002749048 -0.7882860513 0.0111495224 -0.042513648
805295170.0 0.0130698081 -0.0381072269 -0.1089223106 -0.7867419235 -0.1088198434 -0.7867173806 0.011501168 -0.042093608
810295140.0 0.0127803666 -0.0380192478 -0.1180960068 -0.7854507518 -0.1179116816 -0.7854196032 0.010356002 -0.042420632
815295110.0 0.0119632775 -0.0373449288 -0.1261718966 -0.7842824654 -0.1254978485 -0.784568244 0.0092523916 -0.0422470623
820295080.0 0.0113371973 -0.0376560942 -0.1341060169 -0.7825861925 -0.1346611057 -0.7830635543 0.0080277741 -0.0410744758
825295050.0 0.0105353475 -0.0376752861 -0.1432353833 -0.7812448934 -0.1428263025 -0.7810480298 0.0086591323 -0.0412965865
830295020.0 0.009717249 -0.0378021536 -0.1514133423 -0.780266502 -0.1516279942 -0.7801192831 0.0077663443 -0.0417702847
