!Created with skrf (http://scikit-rf.org).
# Hz S RI R 50.0 
!freq ReS11 ImS11 ReS21 ImS21 ReS12 ImS12 ReS22 ImS22
300000.0 -0.7744878932 -0.148234961 -0.0007215144 7.2721e-06 -0.0004348317 0.0011934107 -0.0458782675 -0.0683588381
5299970.0 -0.7851149083 -0.0077936879 -1.75848e-05 0.0001878668 0.0002158502 6.81214e-05 -0.0483780871 0.0145087807
10299940.0 -0.787894237 -0.0044884242 0.0001614444 -4.43252e-05 0.0001168107 -0.0002314115 -0.0431074402 0.031266336
15299910.0 -0.7931840159 -0.0018172774 0.0001044373 8.00624e-05 -9.6987e-06 2.15981e-05 -0.0347262869 0.0454646052
20299880.0 -0.7998587929 0.0026744601 -0.0001099382 0.0002780297 0.000130741 0.0001669969 -0.0251696053 0.0569537803
25299850.0 -0.8065746597 0.0087882295 6.57802e-05 0.000102013 -6.711e-06 6.60723e-05 -0.0144714253 0.0660811052
30299820.0 -0.811936033 0.0158554382 1.97262e-05 0.0001469839 -2.1199e-06 0.0001392934 -0.0030929002 0.072444036
35299790.0 -0.8168258944 0.0250370088 -0.0002070186 5.09328e-05 -0.0001026326 -5.14056e-05 0.0079268219 0.0771015477
40299760.0 -0.8212851999 0.034313958 2.14862e-05 8.7422e-05 0.0002074363 3.20817e-05 0.0192854609 0.0799776864
45299730.0 -0.8246129305 0.0443775624 6.29805e-05 -4.026e-06 5.9986e-06 6.4354e-06 0.0296832875 0.0813549561
50299700.0 -0.8262545915 0.0540195356 7.62969e-05 5.35924e-05 1.55515e-05 -0.0001151803 0.0397345251 0.0811009631
55299670.0 -0.8286357354 0.0643015847 -0.0001000061 -5.96646e-05 -0.000106911 -5.933e-07 0.0480842607 0.0802771451
60299640.0 -0.8294931612 0.0743932583 2.31028e-05 -0.000148962 3.14616e-05 0.0002347188 0.0567809449 0.0784384167
65299610.0 -0.8312903758 0.0845197831 8.24709e-05 -4.45464e-05 -5.34285e-05 -0.0001549238 0.0645503954 0.0759636414
70299580.0 -0.8309808311 0.0942810287 -6.9339e-06 -0.000106507 -3.28053e-05 6.0266e-05 0.0713425784 0.0729396826
75299550.0 -0.8314036168 0.104687922 3.71928e-05 -5.0545e-06 -5.02011e-05 9.04912e-05 0.0776007027 0.0697088953
80299520.0 -0.8313499892 0.114662481 0.0001969835 -4.93564e-05 1.2119e-05 7.82457e-05 0.0827756723 0.0662102598
85299490.0 -0.8307085075 0.124455358 3.03608e-05 0.0001018687 8.23201e-05 -7.98291e-05 0.0876093145 0.062590446
90299460.0 -0.829904545 0.1335179768 0.0001209106 -2.90691e-05 2.02581e-05 0.0001404196 0.092330769 0.0587225971
95299430.0 -0.8282764686 0.1436171493 0.0002199285 -0.0001655566 1.46145e-05 -0.0001639005 0.0961918225 0.0546151153
100299400.0 -0.8278187239 0.1525783806 2.40969e-05 -0.0001287152 -9.66264e-05 6.31554e-05 0.099854247 0.0508522029
105299370.0 -0.8261799041 0.1616946768 4.66928e-05 -3.00574e-05 3.00768e-05 0.0001178195 0.1033158362 0.0463902863
110299340.0 -0.8248583668 0.1710097189 -1.2116e-06 -1.49646e-05 6.6738e-05 -0.0001093091 0.1055891208 0.0431661704
115299310.0 -0.8238543744 0.1807300727 -6.34481e-05 9.43415e-05 8.75363e-05 -5.6548e-06 0.10851559 0.0386426176
120299280.0 -0.8220522314 0.1894110337 -5.74758e-05 0.000177179 5.65488e-05 8.30526e-05 0.1102527947 0.0348826392
125299250.0 -0.8198917533 0.1988013189 -0.0001074684 -0.0002014684 0.0002231901 7.94828e-05 0.1124421987 0.0308534482
130299220.0 -0.8183020488 0.2076558902 0.000287358 0.0001417929 -3.93464e-05 4.61157e-05 0.113950135 0.0275555844
135299190.0 -0.816788085 0.2162296159 7.93469e-05 -4.06029e-05 3.00633e-05 3.4165e-06 0.1154899854 0.0235022723
140299160.0 -0.8150182405 0.2254188178 6.096e-06 -1.80949e-05 -1.00327e-05 0.0001095502 0.1168919286 0.0197309614
145299130.0 -0.8124764987 0.2339316204 0.0001724524 -0.0001160261 -6.42503e-05 7.83764e-05 0.1173492086 0.0167216925
150299100.0 -0.8098593011 0.243290002 3.4729e-05 9.199e-05 2.24959e-05 -2.42144e-05 0.1181498489 0.0130094892
155299070.0 -0.8071015954 0.2521186762 5.06152e-05 6.93847e-05 9.34449e-05 8.66873e-05 0.1187552592 0.0096605385
160299040.0 -0.8047546243 0.2608072018 0.0001613706 -8.7394e-06 0.0001174944 6.6228e-05 0.1196825684 0.0063296883
165299010.0 -0.8018649766 0.2696514054 3.1936e-05 0.0001096215 0.0001455251 4.18372e-05 0.1199876309 0.003016128
170298980.0 -0.7997707256 0.2782911712 -0.0001534496 9.02655e-05 2.63214e-05 5.22525e-05 0.1204158815 0.0002340508
175298950.0 -0.7966841502 0.2867940526 -9.8841e-06 7.77884e-05 9.89444e-05 0.0001548343 0.1206248021 -0.0032543619
180298920.0 -0.7935561237 0.2949349129 -0.0002482612 6.92293e-05 4.32491e-05 -5.4275e-05 0.1207539691 -0.0063820409
185298890.0 -0.7907994865 0.3041103444 3.98142e-05 9.6902e-05 0.0001585134 9.52047e-05 0.1207429707 -0.0095696078
190298860.0 -0.7875487341 0.3122523575 8.28024e-05 -0.0001089005 5.92915e-05 -1.1332e-06 0.1210331618 -0.0120942932
195298830.0 -0.7838183355 0.3206773686 3.87313e-05 -5.11915e-05 0.0003010979 7.21483e-05 0.1205078947 -0.0149919506
200298800.0 -0.7809089228 0.3295620416 9.34121e-05 -6.49842e-05 0.0001183082 3.53811e-05 0.1208760487 -0.0180071254
205298770.0 -0.7771145567 0.3378588724 0.0002057954 -2.59016e-05 0.0001261376 9.52414e-05 0.1202712194 -0.0201888566
210298740.0 -0.7736289545 0.3453231265 4.6616e-05 -3.9139e-06 0.0001073687 -5.04984e-05 0.1200633382 -0.0231570062
215298710.0 -0.7703601104 0.354073175 9.80048e-05 -0.0001338793 -5.04966e-05 -0.0001144074 0.1191035244 -0.025461185
220298680.0 -0.7671722799 0.3623889183 0.0001325399 4.65836e-05 -7.68817e-05 6.14294e-05 0.1191624813 -0.027899591
225298650.0 -0.7626974026 0.37086088 2.81399e-05 0.0001441644 3.00149e-05 -0.0001461254 0.1180360674 -0.0303091382
230298620.0 -0.7587219997 0.3790587713 4.7516e-06 -0.0002315133 3.1882e-06 0.0001473309 0.1178927749 -0.0328173682
235298590.0 -0.754482916 0.3869870476 9.7624e-05 -3.93736e-05 0.0001259912 -1.45558e-05 0.1170775616 -0.0354056838
240298560.0 -0.7507736448 0.3947857479 1.97276e-05 0.0001462367 -5.27386e-05 -5.33407e-05 0.1164449255 -0.0375182951
245298530.0 -0.7466663456 0.4031400315 -3.16642e-05 0.0001526852 4.23831e-05 -1.97496e-05 0.1161644166 -0.0397594489
250298500.0 -0.7420922031 0.4107217085 -1.64434e-05 0.0002841514 9.68041e-05 0.0001234816 0.1155834724 -0.0420280474
255298470.0 -0.7376524148 0.4186156769 0.0001314255 2.8669e-05 0.0001271743 0.000119283 0.1146274168 -0.0441919651
260298440.0 -0.7338922934 0.4261532159 0.0001135368 -2.81593e-05 0.0001451293 -2.76551e-05 0.1139491146 -0.0463418831
265298410.0 -0.7289459086 0.4339963297 0.0001089047 -5.47748e-05 2.13844e-05 0.0001459736 0.11310875 -0.04855439
270298380.0 -0.7247557651 0.4415438484 5.50045e-05 -0.0001096529 0.0001612979 0.000112338 0.1124417239 -0.050541143
275298350.0 -0.7192887753 0.448697111 8.13881e-05 -6.35628e-05 2.62552e-05 4.14726e-05 0.1112140256 -0.0522985035
280298320.0 -0.7150304468 0.4565141661 2.84697e-05 -0.0001041431 4.57377e-05 2.43e-05 0.1109044622 -0.0544447507
285298290.0 -0.7100926136 0.464610768 -2.14854e-05 -4.52861e-05 0.0001593378 4.45667e-05 0.1098127984 -0.0560481373
290298260.0 -0.7052139548 0.471741719 0.0003535879 -3.43383e-05 -5.12905e-05 -0.0001183031 0.1089819014 -0.0577526299
295298230.0 -0.7002950827 0.4796928962 0.0001480057 -9.43431e-05 0.0001889898 7.51501e-05 0.1076865552 -0.059735583
300298200.0 -0.6952577194 0.4868745372 1.93025e-05 2.032e-07 0.0001490745 -0.0001563722 0.1069611708 -0.0616608558
305298170.0 -0.6898148012 0.4941177104 2.79278e-05 7.62196e-05 0.0002666539 -8.17167e-05 0.1062325737 -0.063354731
310298140.0 -0.6846227888 0.5010678589 0.0002939997 -1.65607e-05 3.99929e-05 0.0001422438 0.1050894506 -0.0649967808
315298110.0 -0.6794932168 0.5080613461 0.0001564341 9.68684e-05 -1.90303e-05 7.491e-06 0.1042737812 -0.0668954053
320298080.0 -0.6747516695 0.5151370506 -3.58369e-05 8.21582e-05 0.00034126 -5.10223e-05 0.1031401078 -0.0688095973
325298050.0 -0.6684125396 0.5217173428 0.0001730186 -0.0002021875 0.00022092 7.08903e-05 0.1017139293 -0.0705230525
330298020.0 -0.6628483329 0.5289663516 0.0002270031 0.0001090987 0.0001803587 -0.0001566737 0.1004145248 -0.0724451895
335297990.0 -0.6570544839 0.5361380664 3.78013e-05 9.49535e-05 9.68404e-05 0.0001221855 0.0988512851 -0.0738309334
340297960.0 -0.6523750854 0.5425796373 -0.0001430804 0.0001381567 0.0001136362 0.0001198183 0.0978020387 -0.0755467798
345297930.0 -0.6463243217 0.5483979469 6.1979e-06 0.0002268533 9.64859e-05 0.0001181539 0.0961205921 -0.0768938407
350297900.0 -0.6401989695 0.5560858797 0.0001671507 0.0001661615 0.0001583654 0.0001270547 0.0950708223 -0.0779691466
355297870.0 -0.6344445917 0.5625425731 -0.0001223419 0.00022906 0.0003473235 0.0002010632 0.0934946047 -0.0793389661
360297840.0 -0.6284175483 0.5687051864 0.0001512147 0.0001064745 3.9545e-06 5.82067e-05 0.0921402039 -0.0806207554
365297810.0 -0.6225332736 0.5757526034 0.0002554464 1.13979e-05 8.08734e-05 -6.6876e-06 0.0907933276 -0.0818343391
370297780.0 -0.6161029819 0.5815673766 0.000128783 0.0001507545 3.12783e-05 7.80145e-05 0.0894059378 -0.0830700619
375297750.0 -0.6103199572 0.5883407116 2.87816e-05 0.000101146 -0.0002084219 4.95217e-05 0.0879118454 -0.0841285886
380297720.0 -0.6040002072 0.5946965853 0.0002015254 0.0002179727 0.0002027643 7.75524e-05 0.0866785441 -0.0853061088
385297690.0 -0.597871086 0.6005971424 0.0001557735 -8.38656e-05 0.0001218819 0.0001183885 0.0853734668 -0.0862686459
390297660.0 -0.5916152857 0.6072912366 0.0003223581 -0.0001408234 -1.73717e-05 0.0001666351 0.084007404 -0.0877330001
395297630.0 -0.5854982914 0.6132399875 -1.0849e-05 -9.53252e-05 3.31255e-05 -1.27269e-05 0.0825785514 -0.0884291112
400297600.0 -0.5790261464 0.61892481 0.0002696303 0.0001631752 0.0001890349 9.99373e-05 0.0812437666 -0.0897928598
405297570.0 -0.572634216 0.6247888317 -9.72861e-05 0.0001247797 2.24769e-05 -7.31544e-05 0.0796885045 -0.0905380768
410297540.0 -0.56575764 0.6306573976 -9.72633e-05 -9.4125e-06 3.14856e-05 0.0002834611 0.0782572524 -0.0916301146
415297510.0 -0.5591954335 0.6362922329 -1.98265e-05 9.37269e-05 -4.10834e-05 -7.8059e-06 0.0765410584 -0.0919477001
420297480.0 -0.5517081637 0.6421152317 0.0001609643 -6.81778e-05 3.06546e-05 7.17435e-05 0.0752234158 -0.0934216742
425297450.0 -0.5457587144 0.6479635262 0.0001397278 0.0003217031 -2.85445e-05 -9.84552e-05 0.0740913773 -0.0946653964
430297420.0 -0.5393404857 0.6534111586 0.000256226 0.0002184039 3.48521e-05 -1.12892e-05 0.07235846 -0.0951662336
435297390.0 -0.5320427881 0.6586443713 0.0002807815 -0.0001304899 6.16745e-05 2.15873e-05 0.0708072981 -0.0959504252
440297360.0 -0.5255982401 0.663889918 0.0002250451 -3.32595e-05 3.88615e-05 0.0001159336 0.0689787901 -0.0974894495
445297330.0 -0.5185475204 0.670411218 -0.0003120589 -0.0001704989 0.000185423 -5.33044e-05 0.0676914428 -0.0981387578
450297300.0 -0.5111116809 0.6748876705 0.0001079013 0.000232362 0.0001170912 -8.60698e-05 0.0660316775 -0.0987697009
455297270.0 -0.5044192378 0.6799854079 6.14999e-05 4.91285e-05 0.0001793255 0.0001367322 0.0644551744 -0.0996803138
460297240.0 -0.4977728933 0.6850667964 0.0001607463 0.0001302862 0.0001906428 -1.12731e-05 0.0634304542 -0.1003818759
465297210.0 -0.4899492316 0.6898703047 0.0001118352 -0.0001558753 -5.95e-08 -3.91704e-05 0.0613104233 -0.1010395831
470297180.0 -0.483292341 0.6949274961 0.0001416152 0.0001558273 0.0001596638 0.0002313579 0.0594127914 -0.1017685326
475297150.0 -0.4759625884 0.7000311028 0.0001967113 0.0001810523 8.77987e-05 -2.65035e-05 0.0583603684 -0.1023917437
480297120.0 -0.4690393679 0.7044888956 0.0002391427 0.0002518776 3.56188e-05 6.31303e-05 0.0564814769 -0.1029322333
485297090.0 -0.4608968761 0.7094256926 0.0001330684 -4.31788e-05 -5.4958e-05 -2.14964e-05 0.0549475425 -0.1034329554
490297060.0 -0.4545256367 0.7143478254 0.000114444 0.0002302957 -0.0001270527 7.26892e-05 0.0530618444 -0.104205453
495297030.0 -0.447146753 0.7185648778 0.0003489745 -8.3662e-05 6.19195e-05 -4.16069e-05 0.0517378623 -0.1052281647
500297000.0 -0.4383809862 0.7230215815 0.0002086763 -4.9595e-05 8.86157e-05 -0.0001742238 0.0499781886 -0.1057128073
505296970.0 -0.4312044214 0.7272533749 0.0002863143 0.0001377811 0.0002315225 0.0002064659 0.0481994805 -0.1062357545
510296940.0 -0.4243123039 0.7318102436 -2.50157e-05 0.0001239625 0.0001527607 2.54139e-05 0.0465853882 -0.1064693265
515296910.0 -0.4171258849 0.7358919655 0.0001580805 4.8138e-06 4.72353e-05 -5.11629e-05 0.0449563363 -0.10704697
520296880.0 -0.4088969719 0.7402800885 -0.0001085174 0.0002563346 0.0001521977 -2.26501e-05 0.0433931011 -0.1078953114
525296850.0 -0.401640295 0.7442328624 0.0002851755 -5.2026e-06 9.68674e-05 -2.61613e-05 0.0415868409 -0.1082020994
530296820.0 -0.3942679418 0.7480513329 6.2401e-06 5.07357e-05 6.2727e-05 7.34043e-05 0.0399472089 -0.1088665832
535296790.0 -0.3860888902 0.7522140686 9.17144e-05 7.45396e-05 0.0002012752 8.69847e-05 0.0381751896 -0.1091775006
540296760.0 -0.3789026154 0.7560684406 -0.0002050206 0.0002145445 0.0004356311 0.0001041925 0.0366340364 -0.1093598111
545296730.0 -0.371016488 0.7599815977 0.0001708072 9.06454e-05 -7.9547e-05 -3.90974e-05 0.0350066013 -0.1099746259
550296700.0 -0.3631477061 0.7634938804 0.0003837892 -6.08345e-05 -1.06388e-05 4.05421e-05 0.0333214581 -0.1103032442
555296670.0 -0.3545609466 0.7670336448 0.0001202763 0.0003418953 0.0002957068 4.61217e-05 0.0313797576 -0.1104345624
560296640.0 -0.3474596862 0.7707624956 0.0001965708 -4.589e-06 0.0002527605 8.89241e-05 0.0301027559 -0.1108123261
565296610.0 -0.340115822 0.7739180181 0.0001135838 9.84527e-05 6.77852e-05 -3.81948e-05 0.0279507445 -0.1110284555
570296580.0 -0.3321763095 0.7771815407 0.0001785172 0.0001812103 1.19057e-05 6.9118e-05 0.0265325706 -0.111321892
575296550.0 -0.3238206064 0.7806265396 0.0002945577 -1.63191e-05 0.0002131655 -0.0001919508 0.0247496025 -0.1118402002
580296520.0 -0.3159885965 0.7838490575 0.0001524441 -0.0001399669 0.000233435 8.69083e-05 0.0230659597 -0.1119474687
585296490.0 -0.3075876884 0.7863092343 0.0003219799 7.99806e-05 4.10703e-05 2.23205e-05 0.0211241638 -0.1124803235
590296460.0 -0.3001574175 0.7894322006 5.55392e-05 0.0001579107 7.63184e-05 -0.0002258663 0.0196746627 -0.1125199942
595296430.0 -0.2916319669 0.7932997736 0.000106968 0.0001667006 0.0002182059 -0.0001375753 0.0178112524 -0.1126877682
600296400.0 -0.2833210004 0.7958140394 0.0001709152 -4.141e-07 0.000333231 0.0001175755 0.0164976805 -0.1126200388
605296370.0 -0.2756324052 0.7987782233 0.0001713114 -0.0001504401 0.0002860063 -0.0001273829 0.0145723072 -0.1126458867
610296340.0 -0.2678828946 0.801441454 3.0918e-06 -6.73746e-05 0.0001988661 4.38303e-05 0.0129788676 -0.1126969596
615296310.0 -0.2598293911 0.8042020514 -7.87982e-05 -6.7449e-05 0.000131823 0.0001176299 0.0111106942 -0.1130000952
620296280.0 -0.251021898 0.8060897347 -9.69954e-05 0.0003273822 0.0002207548 1.2035e-06 0.0094808517 -0.1131763246
625296250.0 -0.2424133148 0.8086004609 0.0002466927 -8.2078e-06 0.0002691953 0.0001010928 0.0076435721 -0.1130614746
630296220.0 -0.233729043 0.8116837278 0.0002161368 1.75184e-05 6.28382e-05 0.0001453719 0.0061270915 -0.113089393
635296190.0 -0.2264572528 0.8138457479 0.0003592269 2.29381e-05 0.0003033709 -5.10604e-05 0.0043490118 -0.1130535945
640296160.0 -0.2178461454 0.8153353164 0.0001031188 0.0001744796 0.0001539402 7.06675e-05 0.0026342082 -0.1128195902
645296130.0 -0.2098510936 0.8179530624 0.0003330446 3.93593e-05 0.000364842 4.95351e-05 0.0009247176 -0.1130577903
650296100.0 -0.2019222884 0.8199224946 -0.0001100335 2.01123e-05 0.0003175807 0.0001324681 -0.0007727909 -0.1126705226
655296070.0 -0.1929123766 0.8222814194 -1.22511e-05 7.34437e-05 0.0001405439 -0.0001228896 -0.0026218957 -0.1125177941
660296040.0 -0.1856987234 0.8238146694 0.0002094867 -0.0001193851 -3.77954e-05 0.0001627691 -0.0043282468 -0.1123202861
665296010.0 -0.1769725174 0.8258929507 0.0002382209 -2.20854e-05 0.0001124695 0.0002091358 -0.0060129334 -0.1122028609
670295980.0 -0.1676884073 0.8276265451 0.0002750797 -0.000180678 0.0001239722 -9.94008e-05 -0.0075699701 -0.111944103
675295950.0 -0.1604960155 0.8284634342 -2.33672e-05 -1.6785e-05 7.686e-05 8.79459e-05 -0.0091022525 -0.1119957528
680295920.0 -0.1522220374 0.8309391739 7.8459e-06 6.43793e-05 7.71488e-05 -1.933e-06 -0.0108204489 -0.1115030605
685295890.0 -0.1433924867 0.8319622772 -0.000135272 0.0002034175 -0.0001047303 5.84038e-05 -0.0124321398 -0.1117118365
690295860.0 -0.1345866295 0.8334516761 0.0002212848 0.0001625094 8.445e-06 2.24835e-05 -0.0140419168 -0.1110917656
695295830.0 -0.1261944973 0.8343497668 3.59254e-05 0.0001076749 6.94853e-05 -5.48377e-05 -0.0159000021 -0.1107605284
700295800.0 -0.1182096358 0.8357463927 0.000179287 -1.07062e-05 -3.6664e-06 0.0001181785 -0.0175791269 -0.1103950224
705295770.0 -0.1090985784 0.8376917904 0.0002213108 -0.0001203236 0.0002889612 3.88649e-05 -0.0191843774 -0.1098586982
710295740.0 -0.1009126185 0.8380154007 7.9534e-06 0.0001958623 5.41887e-05 -8.21838e-05 -0.0210754196 -0.1095239118
715295710.0 -0.0935127763 0.8389147763 -4.21224e-05 -5.188e-06 6.09874e-05 -0.00025317 -0.0222808683 -0.1090125951
720295680.0 -0.0846416603 0.8391588426 0.0001935167 -8.58628e-05 0.0002166867 -7.0825e-05 -0.0239083832 -0.108869225
725295650.0 -0.0748026675 0.840582695 0.0003990283 0.0001279462 -3.93472e-05 -0.0001430741 -0.0256718825 -0.1083541372
730295620.0 -0.0676074017 0.8417378345 -3.2537e-05 4.43036e-05 0.0002365159 -0.0001147237 -0.0272973481 -0.1078906483
735295590.0 -0.0582443392 0.8411583678 0.0001191903 4.27198e-05 6.0102e-05 -6.6654e-06 -0.0288843279 -0.1074660101
740295560.0 -0.0505433545 0.8429167961 0.0001457897 -0.0002233096 8.17095e-05 9.92353e-05 -0.0304115559 -0.1072286086
745295530.0 -0.0419886872 0.8427817103 0.000125298 -0.0001932318 0.0002930875 -5.001e-07 -0.0324123551 -0.10636229
750295500.0 -0.0343396786 0.8429886096 0.0001011599 8.14968e-05 0.000262922 -8.82211e-05 -0.0337494749 -0.106086109
755295470.0 -0.0246872036 0.8432943456 -3.5976e-06 -0.0001482238 0.0001087991 0.0001090953 -0.035348184 -0.1050550803
760295440.0 -0.0167768043 0.8434340615 -1.71147e-05 -4.92155e-05 6.62193e-05 -1.2393e-05 -0.0372392824 -0.1046535072
765295410.0 -0.0083912756 0.8430649567 0.0001282004 -8.10717e-05 0.0002181864 -7.80009e-05 -0.0383470773 -0.1039186921
770295380.0 0.0003725719 0.8440172863 0.0002043322 -0.0001358044 -2.06876e-05 -8.86069e-05 -0.0398699376 -0.1033300184
775295350.0 0.0087294701 0.8438199057 0.0001975598 -0.0001217691 0.0001227384 -0.0002033813 -0.0418777411 -0.1030816217
780295320.0 0.0172579621 0.8433098031 9.24496e-05 -0.0001295553 0.000131336 -2.03017e-05 -0.0431980238 -0.1020154445
785295290.0 0.025923554 0.843843588 0.0001810718 -0.000127131 0.000137008 -5.30077e-05 -0.0447801795 -0.1011726179
790295260.0 0.0342132734 0.84311794 0.0002011712 -8.80546e-05 0.0001097795 0.0001296309 -0.0460673093 -0.1007630932
795295230.0 0.0426847389 0.843037052 6.00718e-05 4.34813e-05 0.0001061885 0.0001184764 -0.0479617063 -0.099744752
800295200.0 0.0508741476 0.8424249813 0.0001849106 0.0001262331 7.01914e-05 2.96641e-05 -0.0493211821 -0.0992166486
805295170.0 0.0598122271 0.8418582208 0.0001626623 3.6076e-06 0.0001540686 -5.16128e-05 -0.0509196789 -0.0983588514
810295140.0 0.0681119656 0.8408952026 3.80333e-05 -0.000193401 0.0002629253 -5.67512e-05 -0.0522436245 -0.0973183969
815295110.0 0.0770342328 0.8399622273 0.0001195693 -0.0002360494 0.0001218294 -0.0001085284 -0.0539738565 -0.0967554039
820295080.0 0.08502052 0.8390753258 0.0001959686 -9.29169e-05 0.0002233974 1.61546e-05 -0.0555488611 -0.0958765656
825295050.0 0.094108327 0.8384703467 0.0003711229 -9.03836e-05 0.0001142367 -3.04938e-05 -0.0563876193 -0.095075376
830295020.0 0.1020921994 0.8376954594 0.0002457425 -1.25464e-05 0.0002557104 4.55145e-05 -0.0582501798 -0.0938102972
835294990.0 0.1100465435 0.8365438447 0.0001246445 -2.41845e-05 0.0001074558 0.0001211038 -0.0595463423 -0.0932563331
840294960.0 0.1181758665 0.8352593435 0.0003585755 4.01306e-05 -6.5795e-05 -6.40038e-05 -0.0608969976 -0.0918597141
845294930.0 0.1266730524 0.8343290523 0.0003145787 -2.16796e-05 0.0002436623 -3.46612e-05 -0.0621772654 -0.091125747
850294900.0 0.1348432873 0.8328650897 0.0001581058 0.0001152505 7.8918e-06 -3.43831e-05 -0.0638433123 -0.090283788
