!Created with skrf (http://scikit-rf.org).
# Hz S RI R 50.0 
!freq ReS11 ImS11 ReS21 ImS21 ReS12 ImS12 ReS22 ImS22
300000.0 -0.2419636415 -0.075763799 0.4733881546 0.0511680057 0.4693966954 0.0500056882 -0.2443462315 -0.0923349242
5299970.0 -0.2442644039 0.0073922635 0.4733422941 0.0050180125 0.4735536111 0.0045732955 -0.2440432958 0.0074069172
10299940.0 -0.2413575485 0.0187240019 0.4758222348 0.0059275579 0.475437844 0.0062535417 -0.240708209 0.0204299704
15299910.0 -0.2367957842 0.0281322021 0.4792432613 0.0075028297 0.4790457285 0.0073738325 -0.236146532 0.0295504254
20299880.0 -0.2322602545 0.035413668 0.4837312231 0.008776823 0.4840747488 0.0083682561 -0.2308672263 0.0373720541
25299850.0 -0.2268577311 0.0417740389 0.4889107978 0.0073629552 0.4892136678 0.0076094184 -0.224902143 0.0439934799
30299820.0 -0.2213571587 0.0471968799 0.4946517359 0.0050530711 0.4945552037 0.0049731868 -0.2190735247 0.0493771904
35299790.0 -0.2163941148 0.0511082859 0.5000698855 0.0020801168 0.4998258548 0.0017982304 -0.2137505559 0.0533803443
40299760.0 -0.2114805926 0.0548428325 0.5050510331 -0.0016450395 0.5049425804 -0.0018737687 -0.2080567891 0.0559763603
45299730.0 -0.2067493422 0.0579017201 0.5096585697 -0.0066235385 0.5100116749 -0.0065850547 -0.2032270916 0.0590884517
50299700.0 -0.202577579 0.0598865899 0.5143548685 -0.0120383462 0.5142994358 -0.0119770641 -0.1986767723 0.0608554982
55299670.0 -0.1983285667 0.0617280853 0.518290204 -0.0183749727 0.5178727314 -0.0180183761 -0.1945525049 0.0624329454
60299640.0 -0.194509436 0.0636732724 0.5211731717 -0.0242989088 0.5215751628 -0.0242127835 -0.190450853 0.0632300768
65299610.0 -0.1911553564 0.0648265081 0.5240842813 -0.0309391522 0.5244461873 -0.0306275941 -0.1872497934 0.0642267772
70299580.0 -0.1882598688 0.0663237538 0.5266374977 -0.0373396022 0.5266798639 -0.0373764869 -0.1836948585 0.0651837399
75299550.0 -0.1851089405 0.0673505485 0.5286129527 -0.0439957893 0.5281883231 -0.0441584289 -0.1808366233 0.065209711
80299520.0 -0.1825961825 0.0681471418 0.5303254479 -0.0511765764 0.5306660488 -0.0510659463 -0.1783901896 0.0659116332
85299490.0 -0.1802841938 0.0689022368 0.5318313299 -0.0577387322 0.531692738 -0.0576753554 -0.1760495611 0.0661486845
90299460.0 -0.1777394101 0.0699611706 0.5325863964 -0.0649715709 0.5328575939 -0.0649513771 -0.1737940814 0.0667263729
95299430.0 -0.1757522263 0.0706298229 0.5340062618 -0.0719741983 0.5337565921 -0.0720898249 -0.1716681997 0.0672524617
100299400.0 -0.174143519 0.0715625896 0.5337255976 -0.0787288438 0.5337391998 -0.0787605669 -0.1693400924 0.0675675889
105299370.0 -0.1721698882 0.0725066508 0.5342169569 -0.0857715947 0.5344500976 -0.0857334979 -0.167955105 0.0679904464
110299340.0 -0.1705487556 0.0732977326 0.5349436626 -0.0925139378 0.5343482564 -0.0921594282 -0.1666294214 0.0681927284
115299310.0 -0.1689347809 0.074124389 0.5347608473 -0.0993827395 0.5341975025 -0.0994607162 -0.164695731 0.0688333911
120299280.0 -0.167239858 0.0746287909 0.5338891108 -0.1058929319 0.5343793014 -0.1061891372 -0.1633198062 0.069438774
125299250.0 -0.1660406344 0.0755753348 0.5337714356 -0.1128754373 0.5338861802 -0.1125229795 -0.1624539679 0.0693209158
130299220.0 -0.1650525544 0.0768572612 0.5332241224 -0.1195066087 0.5332861442 -0.1194068838 -0.1611385876 0.0703848745
135299190.0 -0.1638375956 0.0778734859 0.5329706603 -0.1262548183 0.5325647547 -0.1260612118 -0.1596833695 0.0711655876
140299160.0 -0.1625446733 0.0788895559 0.5316593981 -0.133076203 0.5317876932 -0.1329628428 -0.1588954777 0.072225294
145299130.0 -0.1616069041 0.0799790107 0.5314398338 -0.139463042 0.5308327576 -0.1393123321 -0.1579370896 0.072862366
150299100.0 -0.1602645277 0.0811925741 0.5295958461 -0.1456289652 0.5295631037 -0.1456325091 -0.156652522 0.0736776984
155299070.0 -0.1594022366 0.0820411639 0.5291658528 -0.1528854326 0.5283574988 -0.152621472 -0.1557338473 0.0746073977
160299040.0 -0.1581773907 0.0834966423 0.5274293595 -0.1589947337 0.5267378669 -0.1591647042 -0.1556475024 0.0753592694
165299010.0 -0.1573290904 0.0843364587 0.5258894742 -0.1657042724 0.5260138101 -0.1654514256 -0.1542208096 0.0766648117
170298980.0 -0.1565318434 0.0855921626 0.5241908232 -0.1717551367 0.5244473828 -0.1718017694 -0.1535770701 0.0775372027
175298950.0 -0.1554327479 0.0869519175 0.5230471283 -0.1782913663 0.522296752 -0.1779952434 -0.1528930568 0.0786745646
180298920.0 -0.1546480077 0.0884318938 0.5211336533 -0.1843643626 0.5206274928 -0.1839067358 -0.1519898607 0.0797694474
185298890.0 -0.1530881325 0.0893892638 0.5190492688 -0.1904731884 0.5188127427 -0.1903095561 -0.1512101366 0.080873376
190298860.0 -0.1526853098 0.0908388933 0.5173667861 -0.1969029386 0.517317077 -0.1967253615 -0.1504039511 0.0819745138
195298830.0 -0.1518081561 0.0920137173 0.5152358965 -0.203025305 0.5153894366 -0.2027300911 -0.1495034445 0.0830184337
200298800.0 -0.1505511469 0.0934684393 0.5130152006 -0.2092199513 0.5129783673 -0.2092911224 -0.149197718 0.0843311833
205298770.0 -0.1496044828 0.0949904079 0.5105714624 -0.2155099074 0.5104984991 -0.2149571723 -0.1484178759 0.0849467847
210298740.0 -0.1487451263 0.0964796085 0.5082641881 -0.2207779142 0.5083332213 -0.2204893941 -0.1475871083 0.0867054648
215298710.0 -0.148304964 0.0978850797 0.5065513355 -0.2268274381 0.5057849302 -0.2273173219 -0.1469952973 0.0877430956
220298680.0 -0.1471679067 0.0987995023 0.5035299768 -0.2327828166 0.5033984623 -0.2327253919 -0.1467905543 0.088674983
225298650.0 -0.1459417009 0.1002994861 0.5009516507 -0.2387667332 0.5011608217 -0.2388073974 -0.146118734 0.0898161052
230298620.0 -0.1450815658 0.101987613 0.4990975679 -0.2445335778 0.4991006157 -0.2445767958 -0.1457089953 0.0910559605
235298590.0 -0.1440515574 0.1038092202 0.4960525606 -0.2504520701 0.4960879256 -0.2500617582 -0.1446066965 0.0922093895
240298560.0 -0.1430583063 0.1051599703 0.4935353257 -0.256361495 0.493490423 -0.2563675838 -0.1438216718 0.0938186734
245298530.0 -0.1423035605 0.1064665572 0.4910664665 -0.2619347458 0.4905454588 -0.2618059834 -0.1432217885 0.0942655927
250298500.0 -0.1410435213 0.1079972539 0.4872307 -0.2678478129 0.4874046428 -0.2671636327 -0.1426182752 0.0959629805
255298470.0 -0.1401174141 0.1090370098 0.4847906556 -0.2727945413 0.4847464851 -0.2726300246 -0.1414510519 0.0967890437
260298440.0 -0.1392018897 0.11062437 0.4818118034 -0.2786920425 0.4816707217 -0.2781963484 -0.1403985304 0.0982285161
265298410.0 -0.1375090339 0.1124766069 0.4786608563 -0.2842174368 0.4793060396 -0.2840765682 -0.1398102974 0.0995811124
270298380.0 -0.1366787555 0.1138274124 0.4760685771 -0.2891383115 0.4758991084 -0.2893078338 -0.1390341422 0.1005793244
275298350.0 -0.1352239217 0.115079966 0.4724108839 -0.2951139456 0.472931281 -0.29497558 -0.138126026 0.1016696512
280298320.0 -0.1341256621 0.116717612 0.4699503413 -0.300207424 0.4697269055 -0.3001116581 -0.1368894794 0.1026945264
285298290.0 -0.1325134682 0.1185414997 0.4663580676 -0.3057276582 0.4660630353 -0.3058392231 -0.1359133946 0.1042194968
290298260.0 -0.1315090585 0.1195852739 0.4626720261 -0.3105542962 0.4630297285 -0.3108868623 -0.13509476 0.1058895317
295298230.0 -0.1302123957 0.1207232512 0.4598312637 -0.3158405085 0.4598212869 -0.3160045968 -0.1335139964 0.1066087997
300298200.0 -0.1293429378 0.1221197729 0.4566282488 -0.3210623131 0.4562637776 -0.3215046365 -0.1330044229 0.1077177357
305298170.0 -0.1278246473 0.1236272618 0.4520960323 -0.3265516785 0.4525765496 -0.326511066 -0.13142349 0.108862736
310298140.0 -0.1264399211 0.1253013936 0.4489599635 -0.3317526403 0.4489305966 -0.3317848056 -0.1306023594 0.1100256266
315298110.0 -0.1252066901 0.1261362649 0.4457914454 -0.3368569675 0.4454745224 -0.3371304767 -0.1295755724 0.1114626471
320298080.0 -0.1237927628 0.1273654987 0.4416589518 -0.3423151307 0.4415488297 -0.3420474944 -0.1285480566 0.1125524619
325298050.0 -0.1227223114 0.1287135139 0.4376739789 -0.3469408282 0.4378771782 -0.3472918143 -0.1281594627 0.1139011498
330298020.0 -0.1213858442 0.1298527581 0.4335788607 -0.3523728536 0.4336177135 -0.3521215974 -0.1270548876 0.1148935968
335297990.0 -0.1198574793 0.1311086889 0.4294555889 -0.3566674399 0.4295746372 -0.3570461528 -0.1264180237 0.1166615074
340297960.0 -0.1194229214 0.1328871885 0.4256311371 -0.3616755659 0.425640621 -0.3619433621 -0.1248731439 0.1182062224
345297930.0 -0.117910559 0.1347210315 0.4216980348 -0.3665896029 0.4211434155 -0.3669686799 -0.1241717785 0.1190944315
350297900.0 -0.1164278698 0.1354336798 0.416504975 -0.3710723154 0.416812165 -0.3712676761 -0.1234737643 0.1205975501
355297870.0 -0.1150050862 0.1375085997 0.4127480123 -0.376082594 0.4130398498 -0.3752706911 -0.1224982409 0.12174671
360297840.0 -0.1139351085 0.1388039089 0.4094942479 -0.3800433678 0.4094991826 -0.3799582526 -0.1214774828 0.1236758546
365297810.0 -0.1124759146 0.1403184056 0.4044347858 -0.3850648105 0.4047178718 -0.3847334748 -0.1200037347 0.1249683413
370297780.0 -0.1105361226 0.1414337878 0.4002960855 -0.3893823733 0.4009397683 -0.3887065864 -0.1191540772 0.1263999453
375297750.0 -0.1091846544 0.1425044757 0.3963213685 -0.3933191591 0.3966259692 -0.3939332909 -0.1178513019 0.1274228662
380297720.0 -0.1076509139 0.1441308179 0.391907104 -0.3979127863 0.39182275 -0.3972296688 -0.1170388782 0.1287062817
385297690.0 -0.1066290315 0.1453403533 0.3872578447 -0.4017536853 0.3872531987 -0.4019837722 -0.1159778175 0.1302666798
390297660.0 -0.1048523439 0.1469818917 0.3829722668 -0.4063831548 0.383450652 -0.4063132615 -0.1149686351 0.1314487096
395297630.0 -0.1031577589 0.1482443609 0.3786913637 -0.4106624629 0.3786083925 -0.4108089358 -0.1130372949 0.1325316658
400297600.0 -0.1017108491 0.1496154244 0.373907249 -0.4151899622 0.3740617244 -0.4148549664 -0.1121913179 0.1337167027
405297570.0 -0.1004120347 0.15069808 0.3696420676 -0.4184694493 0.3695001158 -0.4187431924 -0.1113560801 0.1349978282
410297540.0 -0.098472403 0.1519136138 0.3649712949 -0.4225912749 0.3652125289 -0.4228918766 -0.1100033271 0.1363499651
415297510.0 -0.0965857365 0.1531071218 0.3602311171 -0.4274653219 0.3603682732 -0.4269702872 -0.1085572145 0.1374646606
420297480.0 -0.0952303132 0.1545053516 0.355548379 -0.4307958451 0.3552326549 -0.4311546184 -0.1076809239 0.138367513
425297450.0 -0.0936606267 0.1552423428 0.3508859238 -0.4345689445 0.3511185935 -0.4348206173 -0.106895612 0.1401867385
430297420.0 -0.0919347164 0.1563059917 0.3461096409 -0.4377279631 0.3459704374 -0.4382253878 -0.1053359673 0.1407226181
435297390.0 -0.0901861227 0.1578716974 0.3404946926 -0.4423109148 0.3404862955 -0.4421767747 -0.1032355166 0.1418971135
440297360.0 -0.0883093688 0.1589921019 0.3359400757 -0.4456736381 0.3358463455 -0.4457237586 -0.1025787596 0.1429614991
445297330.0 -0.0867379742 0.1596997937 0.3311382475 -0.4494201232 0.3312947288 -0.4488656134 -0.100908895 0.1435527386
450297300.0 -0.0850355223 0.1605820461 0.3260884639 -0.4528136194 0.3262378619 -0.4531617299 -0.0996549927 0.1448112344
455297270.0 -0.0832282573 0.1618082062 0.3213311197 -0.4565427756 0.3215521879 -0.4568439646 -0.0982250157 0.1459784412
460297240.0 -0.0814088155 0.1630799662 0.3159534192 -0.460237901 0.316181793 -0.4601430402 -0.0965976566 0.1470554688
465297210.0 -0.0795483281 0.1642118292 0.3113559763 -0.4635962406 0.3113595339 -0.4635762548 -0.0954091247 0.1478120826
470297180.0 -0.0776730007 0.1649584361 0.3058409765 -0.4670850436 0.3061328515 -0.4669214617 -0.093462641 0.1493248043
475297150.0 -0.0759049732 0.1657676522 0.3008283476 -0.4694413281 0.3011428987 -0.4699779137 -0.0920412184 0.1500190815
480297120.0 -0.0741832847 0.1671282139 0.2953953193 -0.4732580946 0.2956279002 -0.4735765975 -0.090606047 0.1512770999
485297090.0 -0.0725343054 0.168044243 0.2908931885 -0.4760659329 0.2906779298 -0.4764399803 -0.0892666361 0.1519520146
490297060.0 -0.0706945648 0.1688212962 0.2854975018 -0.4796658156 0.2854808562 -0.4795506674 -0.0874335782 0.1533710961
495297030.0 -0.0687886072 0.1698844911 0.2797425331 -0.4826116963 0.2805481414 -0.482412487 -0.0864126371 0.1545218161
500297000.0 -0.066781588 0.1706814051 0.2748871171 -0.4852625065 0.2746308502 -0.4853470223 -0.0845266965 0.155724914
505296970.0 -0.0647146037 0.1714838225 0.2695306603 -0.488507064 0.2694779288 -0.4886759938 -0.0831594863 0.1563930961
510296940.0 -0.0630595613 0.1724077621 0.2641714008 -0.4912627984 0.2643861617 -0.491735984 -0.0813585688 0.1576840381
515296910.0 -0.0610603602 0.1734815714 0.2587106123 -0.4940179728 0.2585945005 -0.4941655094 -0.0799728834 0.158518082
520296880.0 -0.0591888827 0.174177915 0.2532933801 -0.4975933631 0.2533483579 -0.4967734338 -0.0786180196 0.1594010106
525296850.0 -0.0571111828 0.1743965913 0.2479757828 -0.499655075 0.247955636 -0.499872448 -0.0770410298 0.1603486271
530296820.0 -0.0555503931 0.1758178261 0.2430630239 -0.502727677 0.2425838408 -0.5024882334 -0.0752954633 0.1612449869
535296790.0 -0.0537235478 0.1764503573 0.2376501225 -0.5048542961 0.237295379 -0.5048198789 -0.0740722579 0.1619544004
540296760.0 -0.0517707333 0.177379717 0.2317883964 -0.5080038894 0.2313058252 -0.5078473791 -0.0728989317 0.1634517251
545296730.0 -0.0497277909 0.1777287679 0.2257741246 -0.509742262 0.2261930782 -0.5098251126 -0.0714081414 0.1640413183
550296700.0 -0.0473750072 0.1787548324 0.2203861991 -0.5124657867 0.2207307227 -0.5126845022 -0.0698225908 0.1650196597
555296670.0 -0.0457685281 0.1790969301 0.2152022005 -0.5145542321 0.2149617902 -0.5145683349 -0.0683177996 0.1658929882
560296640.0 -0.0435523636 0.1801622636 0.2092143435 -0.5171638424 0.209504308 -0.5171068001 -0.0665036427 0.1665450906
565296610.0 -0.0418643231 0.180598671 0.2032952148 -0.5193818932 0.2035761529 -0.5194003095 -0.0649945032 0.1673071298
570296580.0 -0.0399960891 0.1813307333 0.1981403036 -0.5217353902 0.1976213677 -0.5216813338 -0.0634530226 0.1686429821
575296550.0 -0.038175821 0.1821630107 0.1930434079 -0.5239690324 0.1919525632 -0.5237808133 -0.0615369931 0.1691556352
580296520.0 -0.0358138971 0.1826966337 0.1864445721 -0.525845587 0.1867419804 -0.5258212772 -0.0604360381 0.1693685617
585296490.0 -0.0340338496 0.1826809638 0.1811275997 -0.5275951013 0.1811993901 -0.5277285903 -0.0584892057 0.1704934055
590296460.0 -0.0315669342 0.1833685077 0.1752103384 -0.5288715689 0.1753368555 -0.5292518443 -0.0573125019 0.1712809939
595296430.0 -0.029709252 0.18406077 0.1688326238 -0.5315975755 0.1693642154 -0.5311455079 -0.05553023 0.1713007517
600296400.0 -0.0280431513 0.1843871184 0.1637324098 -0.5333076716 0.1634008522 -0.5328247028 -0.0538419561 0.1722397202
605296370.0 -0.0257649159 0.1848099014 0.1578206977 -0.5347783593 0.1576384069 -0.5346330714 -0.0522756025 0.172983981
610296340.0 -0.0237372201 0.1851887076 0.1516320506 -0.5364424531 0.1519955767 -0.5364971989 -0.0505276688 0.1734848456
615296310.0 -0.0216252746 0.1851740313 0.146100201 -0.5379466688 0.1462104569 -0.5385868712 -0.0484450143 0.1740264134
620296280.0 -0.0195738633 0.1854374564 0.1401547775 -0.5391042911 0.1399957792 -0.5393973559 -0.04705474 0.1743459432
625296250.0 -0.0175798859 0.1856681838 0.1348651524 -0.5410778948 0.1345311773 -0.5413939991 -0.0449715564 0.1751492184
630296220.0 -0.0150556653 0.1865536276 0.1279190513 -0.54249829 0.128224845 -0.5422873847 -0.0435011137 0.1759300017
635296190.0 -0.0140062686 0.1863559475 0.1230885107 -0.5431829003 0.1225856557 -0.5437267691 -0.0415314775 0.1763855792
640296160.0 -0.0114128567 0.1868070258 0.1168026472 -0.5442595724 0.1171237786 -0.5449117306 -0.0398684734 0.1766922399
645296130.0 -0.0094753338 0.1874036546 0.1106016708 -0.5453663391 0.1111090288 -0.5461118934 -0.038208445 0.1774163292
650296100.0 -0.0073363249 0.1873596442 0.1047390283 -0.5471098891 0.1054260843 -0.5471249165 -0.0361457239 0.1774115166
655296070.0 -0.0056092992 0.1875443761 0.0990782587 -0.548255262 0.0990987668 -0.5484709585 -0.0341365462 0.1780256999
660296040.0 -0.003575921 0.1875906496 0.0932832749 -0.5494063215 0.0932535585 -0.5498559708 -0.0324150802 0.1789031182
665296010.0 -0.0009792311 0.1877419283 0.086932633 -0.5499878032 0.0872787496 -0.5502923489 -0.0305443138 0.1797387675
670295980.0 0.0002186153 0.1879054131 0.0814350353 -0.5509962233 0.0811908111 -0.5509221147 -0.0293423928 0.1799559079
675295950.0 0.0025879755 0.1881588306 0.0753427889 -0.5515352628 0.0754208633 -0.551777779 -0.027487766 0.1804105232
680295920.0 0.0047563491 0.1882814298 0.0692632441 -0.5524992725 0.0686215628 -0.5528526412 -0.0254487697 0.1812889723
685295890.0 0.0068967515 0.1888456716 0.0629469331 -0.5537457665 0.0632852286 -0.5535476488 -0.0238173776 0.1814610798
690295860.0 0.0092501212 0.1888436052 0.0575228858 -0.5532352677 0.0571753261 -0.5543113581 -0.0221320353 0.1827051284
695295830.0 0.0110355924 0.1886098017 0.0514986559 -0.5541169161 0.051275699 -0.5543371995 -0.0205302021 0.182890103
700295800.0 0.0134065536 0.1881437676 0.0452354674 -0.5544783311 0.0451608431 -0.5545832925 -0.0187685068 0.1832265858
705295770.0 0.015113296 0.1889881571 0.0392689464 -0.5554182159 0.0394934398 -0.555763339 -0.0169557125 0.1837708763
710295740.0 0.0174893018 0.1886144488 0.03344555 -0.5559956332 0.0334263936 -0.5559058139 -0.0151903589 0.183392377
715295710.0 0.0191034869 0.1886733937 0.0279295898 -0.5563565452 0.0272576075 -0.5560006225 -0.0132212602 0.1840325661
720295680.0 0.0214759849 0.1884291823 0.0217390942 -0.5565291298 0.0215760655 -0.5565288357 -0.0114357072 0.1849082866
725295650.0 0.0237661064 0.188590662 0.0155453737 -0.5567128108 0.0155218456 -0.5565697753 -0.0101127921 0.1850323432
730295620.0 0.0260405468 0.1884238231 0.0090168936 -0.556180933 0.0095308246 -0.5567126819 -0.0085552709 0.184972997
735295590.0 0.0276771385 0.1883773279 0.0036312973 -0.5568945123 0.0033199803 -0.556789444 -0.0068827502 0.1850532029
740295560.0 0.0296605331 0.1882979298 -0.0026522927 -0.5562613986 -0.0028290959 -0.5566710851 -0.0043926486 0.1856788948
745295530.0 0.0318487403 0.1880091353 -0.0085832684 -0.5559178975 -0.0085180139 -0.5564109283 -0.0028248799 0.1854098774
750295500.0 0.0340247452 0.1873731061 -0.0145614651 -0.5562197143 -0.0146143277 -0.5564410138 -0.0014163315 0.1856446067
755295470.0 0.0361946592 0.1871726875 -0.0203675261 -0.5561411211 -0.0205327987 -0.5562594281 0.0008597111 0.1852935985
760295440.0 0.0381061362 0.1871060995 -0.0266794955 -0.5564009465 -0.0268003248 -0.5565060631 0.0022312217 0.1859126179
765295410.0 0.0403061796 0.1868276068 -0.0329486234 -0.5554198029 -0.0331859676 -0.5557020104 0.0041890303 0.1860890714
770295380.0 0.0419010534 0.1865543527 -0.0389750336 -0.5550355341 -0.0388002057 -0.5548013013 0.0057257417 0.1857426875
775295350.0 0.0439193529 0.1855793728 -0.0450598288 -0.5542629949 -0.0444294296 -0.5544848698 0.007098344 0.1862333687
780295320.0 0.0460397045 0.1856449252 -0.0510517801 -0.5534313913 -0.0501809154 -0.5541083592 0.0092181116 0.1857077582
785295290.0 0.0478142105 0.1846780918 -0.0568215537 -0.5527922374 -0.0567990255 -0.55319773 0.0119861427 0.1856216017
790295260.0 0.0504503382 0.1848264944 -0.0620333695 -0.5524735626 -0.0617308799 -0.5524892282 0.0133326189 0.185858534
795295230.0 0.0521170691 0.1843637292 -0.068243408 -0.5515911222 -0.0680234722 -0.5519938673 0.0154197958 0.1859252818
800295200.0 0.0539676381 0.1840841371 -0.0748271922 -0.5506667538 -0.0742618458 -0.5508560323 0.0172012843 0.1862630136
805295170.0 0.0564327505 0.1833728659 -0.0803027549 -0.5502519677 -0.0801675378 -0.5505243721 0.0187057419 0.1862689424
810295140.0 0.0579437442 0.1824569553 -0.0861114887 -0.5491003656 -0.0862964879 -0.5493914853 0.0210768356 0.1860040802
815295110.0 0.0604169528 0.1820882882 -0.0917012037 -0.5477819015 -0.0916854137 -0.5484221255 0.0225219973 0.1862017059
820295080.0 0.0619001653 0.1819587958 -0.0976963759 -0.5467661671 -0.0976393729 -0.5469144779 0.0245822477 0.1859816826
825295050.0 0.0646418404 0.1809752123 -0.1032296981 -0.5455434908 -0.1038920972 -0.5460069412 0.0266210267 0.1857674856
830295020.0 0.0663445503 0.1809356869 -0.1096952843 -0.5448742622 -0.1093760349 -0.5446514586 0.0289413183 0.1857985959
