!Created with skrf (http://scikit-rf.org).
# Hz S RI R 50.0 
!freq ReS11 ImS11 ReS21 ImS21 ReS12 ImS12 ReS22 ImS22
300000.0 -0.2346435924 -0.121764309 0.4656626776 0.0786052905 0.4639768099 0.079663485 -0.2338236656 -0.1239563355
5299970.0 -0.244892063 0.005388755 0.4734163459 0.0057507672 0.4741960749 0.0058952185 -0.2437551462 0.0051984381
10299940.0 -0.2417147798 0.0184136796 0.4758785313 0.0069429856 0.4760791622 0.0070939867 -0.2401665096 0.0180255807
15299910.0 -0.2368751392 0.0280311167 0.4792013364 0.0082954453 0.4797215961 0.0082336132 -0.2360332358 0.0274882432
20299880.0 -0.2318682124 0.0361894654 0.4840621496 0.0086705078 0.4848625311 0.00872362 -0.2310437025 0.0351832005
25299850.0 -0.2257993555 0.0429735076 0.4896256886 0.0083825652 0.4898856822 0.0077740477 -0.2261860796 0.0418717257
30299820.0 -0.2202938455 0.0476631394 0.4949379318 0.0055334625 0.4953267008 0.0054369391 -0.2206504983 0.0470015894
35299790.0 -0.2143941526 0.0517479604 0.4999692714 0.0025161084 0.5003353026 0.0022187869 -0.2158250193 0.0516070646
40299760.0 -0.2091811302 0.0547260627 0.5055674386 -0.0014623509 0.5059643843 -0.0014792937 -0.2108197854 0.0549206694
45299730.0 -0.2041374356 0.0571695689 0.5103863048 -0.005973544 0.5107125593 -0.0060979451 -0.2056454263 0.0578559018
50299700.0 -0.1990292257 0.0588630862 0.5143280198 -0.0118897606 0.5147639257 -0.0115917475 -0.2012540869 0.0597744138
55299670.0 -0.1949453483 0.0605567607 0.518008728 -0.0178388154 0.5182973293 -0.0178848185 -0.1975043185 0.0620074699
60299640.0 -0.1910445387 0.0619848005 0.5217487262 -0.023999054 0.5217979098 -0.0240175792 -0.1934437732 0.0632358608
65299610.0 -0.1870721437 0.062899131 0.5249867284 -0.0303886065 0.5252551255 -0.0300657587 -0.1901639556 0.0646437939
70299580.0 -0.183994656 0.0632135391 0.5273632255 -0.0366353136 0.5275536701 -0.036689628 -0.1872666283 0.0657785271
75299550.0 -0.1812734057 0.0637127054 0.5290444476 -0.0438257326 0.5294957775 -0.043959144 -0.1839845797 0.0671632057
80299520.0 -0.1783816673 0.0645356888 0.5311966736 -0.0509572072 0.5313803183 -0.0508969329 -0.1817455141 0.0682960796
85299490.0 -0.1756729826 0.0649735368 0.5323340048 -0.0580153905 0.5326814591 -0.0577558897 -0.1792292593 0.0688284662
90299460.0 -0.1732717333 0.0654959502 0.5329431687 -0.0645833676 0.533415812 -0.0645686469 -0.1767997335 0.0698612059
95299430.0 -0.1713617131 0.0657211961 0.5340337421 -0.071359982 0.5344024768 -0.071649951 -0.1750557696 0.0707254637
100299400.0 -0.1693365303 0.066036521 0.5343791229 -0.0781336414 0.5346906821 -0.0786648859 -0.1731449769 0.0719931726
105299370.0 -0.1677606191 0.066428363 0.5348366965 -0.0849499326 0.5356202669 -0.0850189715 -0.1709946714 0.0720158244
110299340.0 -0.1659396878 0.066840437 0.5354397724 -0.0914423921 0.5355551236 -0.0917934425 -0.1697590009 0.073023769
115299310.0 -0.1648941223 0.0676874721 0.5350910701 -0.0987869314 0.5352331323 -0.0985191545 -0.168350467 0.0744521037
120299280.0 -0.1633313345 0.0683440627 0.5351601212 -0.1061219412 0.5352069409 -0.1061644476 -0.1667998378 0.0748047921
125299250.0 -0.1619078238 0.0687569534 0.5344233945 -0.1124365303 0.5349581731 -0.1124065518 -0.1654378418 0.0761236283
130299220.0 -0.1606412417 0.069131511 0.5341131289 -0.1193356869 0.5339273542 -0.1195646117 -0.1640767697 0.0765924588
135299190.0 -0.1596335015 0.0700152322 0.5336756543 -0.1256160444 0.5338877863 -0.1260064933 -0.1630199392 0.0778921815
140299160.0 -0.1586849045 0.0709674061 0.5329294851 -0.132877281 0.5327813489 -0.1323440459 -0.1624831415 0.0786948039
145299130.0 -0.1578951518 0.071839831 0.5314737139 -0.1389225084 0.5318832661 -0.1387403377 -0.1608251749 0.0800835241
150299100.0 -0.1569979488 0.0724798072 0.530419967 -0.1458857471 0.5310207232 -0.1457707548 -0.1598013518 0.0813970738
155299070.0 -0.1556729405 0.0733497035 0.5288874852 -0.1522614827 0.5294542268 -0.152302064 -0.158777545 0.082202043
160299040.0 -0.1546411224 0.074666531 0.5277159031 -0.15859546 0.5281586006 -0.158702935 -0.1578631971 0.0838028237
165299010.0 -0.153670813 0.0752015503 0.5265894487 -0.165047479 0.5263734994 -0.1651950356 -0.1568446796 0.0845648477
170298980.0 -0.1531687886 0.0763311607 0.5246638968 -0.1714531684 0.5253430117 -0.1715500725 -0.1560755818 0.0856232133
175298950.0 -0.1520805997 0.0773004617 0.5234741537 -0.1775906689 0.5239153834 -0.178079024 -0.1550041433 0.0874834442
180298920.0 -0.1516372583 0.0783461298 0.5215770743 -0.1840269318 0.5218001766 -0.1843357984 -0.1539273587 0.0885062906
185298890.0 -0.1509027854 0.0793596755 0.520497559 -0.1904011392 0.5202093209 -0.1903522471 -0.1528253053 0.0897188394
190298860.0 -0.1497410397 0.0808242873 0.5174606687 -0.1964346579 0.5181021977 -0.1963964213 -0.1519780023 0.0909519282
195298830.0 -0.1490593323 0.0821426351 0.5164439881 -0.2023797726 0.5161519493 -0.2026048253 -0.1512368504 0.0925327585
200298800.0 -0.1480376243 0.0829815561 0.5140126092 -0.2092794376 0.5140956811 -0.2090880421 -0.150222118 0.0934316982
205298770.0 -0.1478589128 0.0842201345 0.5117962198 -0.21467899 0.512006655 -0.2144203097 -0.1488962925 0.0952326497
210298740.0 -0.1466208821 0.0853721008 0.5093855897 -0.2207947241 0.5093496643 -0.2209497129 -0.1485190051 0.0962230651
215298710.0 -0.1461186378 0.0867887946 0.5065102453 -0.2266806231 0.507184169 -0.2269010621 -0.1473080452 0.0979305902
220298680.0 -0.1452405525 0.0877529303 0.5048216953 -0.2321844459 0.5046444546 -0.2324755587 -0.1464524363 0.0990287107
225298650.0 -0.1446032679 0.0891257914 0.5020245411 -0.2381719422 0.502415148 -0.2379889739 -0.1454802393 0.1006052132
230298620.0 -0.1436509639 0.0907946485 0.4996132293 -0.2440556493 0.4999431947 -0.2445809208 -0.1448355231 0.1018707448
235298590.0 -0.143238109 0.0918898851 0.497511781 -0.2506808654 0.4973605089 -0.2503387365 -0.1435650282 0.1035037166
240298560.0 -0.1422883015 0.0933116541 0.49462167 -0.2555857118 0.4945802865 -0.2557789931 -0.1428434792 0.1046076687
245298530.0 -0.1416230472 0.0941721172 0.4917575539 -0.2619254361 0.49126579 -0.2615654779 -0.1412816517 0.1064006882
250298500.0 -0.1409328218 0.0956598022 0.4892441347 -0.2669760607 0.4890495685 -0.2670054905 -0.1405937041 0.1078151451
255298470.0 -0.139860691 0.0972199528 0.4857716012 -0.2722841141 0.4864949039 -0.2727169464 -0.1394722107 0.1092398525
260298440.0 -0.1389792474 0.0981360282 0.4829568651 -0.2776748112 0.4832261064 -0.2781742935 -0.1384153436 0.1104466584
265298410.0 -0.1384929252 0.0997366761 0.4799516934 -0.2840491393 0.4802013659 -0.2839493339 -0.13687107 0.1119031205
270298380.0 -0.1377701982 0.1007471578 0.4767314076 -0.2891272346 0.477098035 -0.289178886 -0.1359569358 0.1134836147
275298350.0 -0.1367447328 0.1023534781 0.4731068256 -0.2944179139 0.4737853401 -0.2943536833 -0.1350438575 0.1151672904
280298320.0 -0.1361986871 0.1037566076 0.4707145128 -0.299383201 0.4707867363 -0.2998502638 -0.1335763044 0.1163173244
285298290.0 -0.1350710496 0.1051253529 0.4671701227 -0.3049880474 0.4675728207 -0.3046788104 -0.1327761799 0.1179066872
290298260.0 -0.1341881705 0.1063988283 0.4642408161 -0.3101203308 0.4643243807 -0.3106561923 -0.1311998631 0.1194652447
295298230.0 -0.1335594797 0.1073712528 0.4609796798 -0.3159747225 0.4609335009 -0.3159295137 -0.1299922875 0.1205880465
300298200.0 -0.1324923831 0.1090631187 0.4576758175 -0.3212249068 0.4577388418 -0.3208205252 -0.1288963181 0.1219485787
305298170.0 -0.1314232097 0.1099574674 0.4539675681 -0.3264572409 0.4542892786 -0.3265308539 -0.1274412458 0.123413924
310298140.0 -0.1300206926 0.1112347239 0.4502867638 -0.3315041228 0.4503491933 -0.331310041 -0.1256394503 0.1244169529
315298110.0 -0.1297792696 0.1122527915 0.4471987583 -0.3370293671 0.4468926007 -0.3370227426 -0.1245615882 0.1259623125
320298080.0 -0.1285971128 0.1137348575 0.4426293506 -0.3419165005 0.4434601066 -0.3417772754 -0.1237972999 0.1272262639
325298050.0 -0.1281799602 0.1146389253 0.4387344562 -0.3465019093 0.4398354407 -0.3471249393 -0.1223311017 0.1284350484
330298020.0 -0.1274969646 0.1160536802 0.434884855 -0.3520016734 0.4354894565 -0.3519740163 -0.1215549568 0.1296486206
335297990.0 -0.1264907379 0.117406483 0.4309201529 -0.3565433573 0.4318934414 -0.3566916614 -0.1201500305 0.1314528458
340297960.0 -0.1260340864 0.1185749874 0.4269108193 -0.3616914089 0.4270036976 -0.3618081868 -0.1185634618 0.1327758292
345297930.0 -0.1249216206 0.1198289438 0.4227895172 -0.3665105396 0.42290527 -0.3664057485 -0.1172758534 0.134021794
350297900.0 -0.123981841 0.121162697 0.4190508915 -0.3706334575 0.4193056623 -0.3709426699 -0.1161508783 0.1350598302
355297870.0 -0.1233257859 0.1225443438 0.415427374 -0.3748183666 0.4150396599 -0.374648054 -0.1145024925 0.1367136758
360297840.0 -0.122207876 0.1237365659 0.4107382887 -0.3799435683 0.4111087803 -0.3803153525 -0.1133201359 0.1384822648
365297810.0 -0.1212654465 0.1253087383 0.4065033482 -0.3845554752 0.4065079653 -0.384579291 -0.1122847431 0.1393923802
370297780.0 -0.1199688944 0.1265414187 0.4019132338 -0.3890437402 0.4026323724 -0.3890805005 -0.1105888127 0.1409812024
375297750.0 -0.1190438707 0.1277394417 0.3977091871 -0.3926720367 0.3980930103 -0.393364731 -0.1088737943 0.1422968373
380297720.0 -0.1180450552 0.1292198592 0.3940784114 -0.3979059979 0.393841046 -0.3976335113 -0.1076755433 0.1435677715
385297690.0 -0.1171461166 0.1302343061 0.3892938329 -0.4016534302 0.3893381046 -0.4021538616 -0.1059414017 0.145104814
390297660.0 -0.115541244 0.1314598987 0.3848381495 -0.4057826306 0.384876462 -0.4060707646 -0.1040351799 0.1460087993
395297630.0 -0.1141594904 0.1326966762 0.3804102049 -0.4098573433 0.3803038849 -0.4099813138 -0.1025143048 0.1474108321
400297600.0 -0.1136647837 0.133851193 0.3762104202 -0.4146830622 0.3764414657 -0.4145335637 -0.1011966759 0.1488784662
405297570.0 -0.1123551224 0.134610578 0.3715867138 -0.4182797215 0.3714276995 -0.418524937 -0.0991600166 0.1503447028
410297540.0 -0.1109896618 0.1364475201 0.3671336126 -0.4227969578 0.3669009002 -0.4225209507 -0.0978376593 0.1516061791
415297510.0 -0.1100293491 0.1372775457 0.3621333973 -0.4265168798 0.362481508 -0.4267833784 -0.0961552085 0.1527095756
420297480.0 -0.1086686682 0.1381400719 0.357349495 -0.4306947447 0.3578006045 -0.4309221396 -0.0943815976 0.1540414142
425297450.0 -0.1071259597 0.1395956682 0.352934241 -0.4345890279 0.3524373077 -0.43451343 -0.0928548649 0.1546357641
430297420.0 -0.1058468131 0.1404847747 0.3481449735 -0.4383277996 0.3482564197 -0.437709023 -0.0907362992 0.1561705361
435297390.0 -0.1047485197 0.1415465474 0.3432412733 -0.4427232233 0.3433379305 -0.4420945581 -0.0896756733 0.1579203825
440297360.0 -0.1034033695 0.1422982109 0.3382819535 -0.445608317 0.3381487996 -0.4460419988 -0.0878002904 0.1587890807
445297330.0 -0.1018748974 0.1433776042 0.3336667385 -0.4491347728 0.3337564451 -0.4499233154 -0.0860332927 0.1599812064
450297300.0 -0.100636579 0.1446934485 0.3286684315 -0.4531565502 0.328651223 -0.4531768786 -0.0840606038 0.1611114741
455297270.0 -0.0995562751 0.1457961518 0.3235348661 -0.456568199 0.3237077823 -0.4568404065 -0.0824488054 0.162008264
460297240.0 -0.0977641661 0.146814016 0.3186587457 -0.4610672149 0.3185232842 -0.4604803343 -0.0806869618 0.1631255265
465297210.0 -0.0963634247 0.1478171255 0.3131051246 -0.4636648716 0.3133517935 -0.4642136237 -0.0786829647 0.1645430765
470297180.0 -0.0952221215 0.1487193316 0.3085145605 -0.4667294019 0.3086203206 -0.4669484974 -0.0769268291 0.1650109441
475297150.0 -0.093868739 0.1499762936 0.3033436064 -0.4702408529 0.3036346573 -0.4705163626 -0.0749605477 0.166259762
480297120.0 -0.0916529499 0.1514081148 0.2978751376 -0.4735864563 0.298298307 -0.4736108662 -0.0733577175 0.1671245477
485297090.0 -0.0906017132 0.1517973448 0.2929362126 -0.4769256277 0.2928134292 -0.476724132 -0.0715495708 0.1683155747
490297060.0 -0.0886784412 0.1530233064 0.2871082649 -0.4802664677 0.2876342455 -0.4798447355 -0.0696128128 0.1685045248
495297030.0 -0.0875256625 0.1536267458 0.2826392498 -0.4828830539 0.2825163064 -0.4833126457 -0.0673403531 0.1698608998
500297000.0 -0.086281242 0.1549322059 0.2771946067 -0.4860354812 0.277257531 -0.4863225681 -0.0656437294 0.1710975224
505296970.0 -0.0841187782 0.1559734094 0.2720828654 -0.4896112695 0.2717385781 -0.4887627115 -0.0636505239 0.1711586195
510296940.0 -0.0828762876 0.1566344262 0.2662733253 -0.4926497531 0.2666993339 -0.4926418188 -0.0612023381 0.1726691762
515296910.0 -0.0813361745 0.1578934741 0.2607355084 -0.4949828388 0.2607700937 -0.4946380153 -0.0597887298 0.1726647712
520296880.0 -0.079754429 0.1585446411 0.2553399697 -0.4975512458 0.2555495167 -0.4975416086 -0.0573152857 0.1745410859
525296850.0 -0.07785545 0.1595191109 0.2500935345 -0.5000401491 0.2499773161 -0.5001360962 -0.0557410548 0.1748835098
530296820.0 -0.0766147839 0.1603956056 0.2443834494 -0.5032758063 0.2446141359 -0.5029917733 -0.0536567144 0.1753660321
535296790.0 -0.0745649138 0.1611405261 0.2394245956 -0.5056340521 0.2393795126 -0.505756295 -0.0515393215 0.1763254923
540296760.0 -0.0728589886 0.1623292474 0.233404572 -0.5081999727 0.2333179939 -0.507886706 -0.0494752569 0.1768768155
545296730.0 -0.0716361438 0.1632839059 0.2281246253 -0.5105254026 0.2276592208 -0.5104119633 -0.047557612 0.1775756374
550296700.0 -0.0691981045 0.1640518749 0.2221524988 -0.5133405222 0.2220987084 -0.513566929 -0.0455633192 0.1781455051
555296670.0 -0.0681199178 0.1647046859 0.2168417546 -0.5159971347 0.2168034965 -0.5158112262 -0.0437939883 0.1783239085
560296640.0 -0.0658662185 0.1654358843 0.2109524453 -0.5179307826 0.211587507 -0.5179901973 -0.0417716954 0.1795839601
565296610.0 -0.0647965708 0.1665255508 0.2057613037 -0.5200301038 0.2055374014 -0.5194804143 -0.0394934817 0.1798111156
570296580.0 -0.0631301818 0.16749807 0.1998017377 -0.5220892624 0.2000908429 -0.5223289195 -0.0375914488 0.180399951
575296550.0 -0.0612180802 0.1679446538 0.1943769557 -0.5243313498 0.1940227533 -0.5246289091 -0.0353862093 0.1809142438
580296520.0 -0.0594694463 0.1689913281 0.1887218679 -0.5265025278 0.1885305758 -0.5263704835 -0.0337358616 0.1812235063
585296490.0 -0.0574572595 0.1696684131 0.1834124983 -0.5281537514 0.1826298625 -0.5284036443 -0.0313773477 0.1822762325
590296460.0 -0.0554103388 0.1705805377 0.1771362977 -0.530361368 0.177042114 -0.5309432923 -0.0295218065 0.1829322771
595296430.0 -0.0542096277 0.1710527621 0.1710637119 -0.5322602021 0.1710796598 -0.5322374684 -0.0274747646 0.1830974747
600296400.0 -0.0521009307 0.1719104368 0.1650555309 -0.5337626009 0.1651748173 -0.5340641037 -0.0251901174 0.1834918367
605296370.0 -0.050645677 0.1727470125 0.1598103018 -0.5354491847 0.159381936 -0.5357814895 -0.0231746456 0.1837004825
610296340.0 -0.0487720395 0.1737035229 0.1542377127 -0.5366489057 0.1537800569 -0.537059807 -0.0211968371 0.1843697964
615296310.0 -0.0467355537 0.1741741921 0.148090248 -0.5392150567 0.1476102868 -0.5391409869 -0.0189695084 0.1847959676
620296280.0 -0.045339611 0.1752495313 0.1419093127 -0.5405978899 0.1416923545 -0.5404204402 -0.0174671947 0.1854104062
625296250.0 -0.0436650018 0.1755526587 0.1360254672 -0.5421701383 0.1363536473 -0.5422416568 -0.0153874517 0.1852787075
630296220.0 -0.0416245986 0.1762438123 0.1301693346 -0.5433661626 0.1296885564 -0.5434995418 -0.012900738 0.1857321621
635296190.0 -0.0401976002 0.1773486554 0.1245716888 -0.544439818 0.1240874435 -0.5445881457 -0.0108978614 0.1860058597
640296160.0 -0.0381290322 0.1777070214 0.1184315093 -0.5465279844 0.1181958443 -0.5460723027 -0.0088655503 0.1863068041
645296130.0 -0.0361950612 0.1786928625 0.1126776371 -0.5474356756 0.112446243 -0.547086109 -0.0070302475 0.1861795113
650296100.0 -0.0347885116 0.1788473336 0.1067640356 -0.5483458736 0.1064728148 -0.5488486676 -0.0044774211 0.1865828079
655296070.0 -0.0329955145 0.1795631722 0.1006292531 -0.5492119481 0.100386646 -0.5491637905 -0.002892608 0.1869401481
660296040.0 -0.0309814502 0.1802801873 0.0950581069 -0.5506615152 0.0945731146 -0.5505893099 -0.0005290607 0.1868894396
665296010.0 -0.0296510819 0.1808376292 0.0884996049 -0.551112035 0.0884421926 -0.5510724838 0.001376422 0.186885265
670295980.0 -0.0275918011 0.1813372516 0.0826071496 -0.5520774603 0.0825392894 -0.5516832772 0.0032599288 0.1871531632
675295950.0 -0.0261355444 0.1817508587 0.0764674832 -0.5530927202 0.0769964126 -0.5533693052 0.0053113571 0.1874398165
680295920.0 -0.0244331576 0.1824702429 0.0710695502 -0.5534370404 0.0708169154 -0.5538350782 0.0078710594 0.1872563822
685295890.0 -0.0221593426 0.1831304581 0.0646065867 -0.5544925015 0.0646266533 -0.5548162345 0.0098136543 0.187771064
690295860.0 -0.0207856819 0.1834283442 0.0588224562 -0.5552080307 0.0584198048 -0.5552911647 0.0118034583 0.1874582289
695295830.0 -0.0186963841 0.1840168639 0.0528776838 -0.5553203803 0.0527809375 -0.5556290871 0.013601487 0.1878424359
700295800.0 -0.0171228125 0.1845546354 0.0472407791 -0.5561866126 0.0473337051 -0.5565003935 0.0160216581 0.1875851947
705295770.0 -0.0156667174 0.1848801385 0.0410387159 -0.5566271039 0.0410009409 -0.5565830536 0.0176490683 0.1875535454
710295740.0 -0.0138145269 0.1849943724 0.0351362781 -0.5569238289 0.0348217887 -0.5574600797 0.0201050872 0.1876965019
715295710.0 -0.011947175 0.1856895538 0.0290059355 -0.5577630582 0.029013023 -0.5577499064 0.0220885059 0.1871630622
720295680.0 -0.0098142351 0.1862277116 0.0227182814 -0.5574827839 0.0225484586 -0.5578915068 0.0241572539 0.1871566397
725295650.0 -0.0086736445 0.1865452797 0.0173481887 -0.5576267799 0.0172350689 -0.5581308864 0.0260171215 0.1876794435
730295620.0 -0.0071047209 0.1867706256 0.0109333251 -0.5576515954 0.0106686666 -0.5575384301 0.0279288991 0.1877048026
735295590.0 -0.0050035421 0.1872459423 0.005196267 -0.5583828238 0.0048599266 -0.5581367986 0.0303508275 0.18697212
740295560.0 -0.0034233249 0.1873037407 -0.0008754451 -0.5580911487 -0.0009880257 -0.5582353114 0.0320934582 0.1872764355
745295530.0 -0.0017710483 0.187740033 -0.0067576802 -0.5573703108 -0.0062863922 -0.5579634281 0.0337990196 0.1868931838
750295500.0 -4.81653e-05 0.1880781822 -0.0124400444 -0.5575205977 -0.0130048183 -0.5577468136 0.0359724118 0.1864763856
755295470.0 0.0016999109 0.1884157683 -0.0186305256 -0.5577000691 -0.0185655681 -0.5581298012 0.0382857644 0.1868835823
760295440.0 0.0034521169 0.1885583806 -0.0255272192 -0.5571912088 -0.0250161273 -0.5572747554 0.0402670666 0.1855772312
765295410.0 0.0053529475 0.1887459221 -0.0312162446 -0.5567846422 -0.0307206638 -0.5571382703 0.042219614 0.1856766031
770295380.0 0.0069937567 0.1891933672 -0.0365981336 -0.5561166924 -0.0368893775 -0.5567298792 0.0443989663 0.1853964665
775295350.0 0.008783993 0.1891188393 -0.0426439714 -0.5561444508 -0.0427091224 -0.5558931721 0.0463321685 0.1853092058
780295320.0 0.0104679418 0.1891134037 -0.0484855101 -0.5550496376 -0.0488221253 -0.5559007864 0.0486955723 0.1848860549
785295290.0 0.0121200533 0.1892629885 -0.0545585425 -0.5549012729 -0.0543422594 -0.5553549544 0.0500625351 0.1849933796
790295260.0 0.013977115 0.1888861458 -0.0604731372 -0.5539439274 -0.0602393664 -0.5549965538 0.05191462 0.184491238
795295230.0 0.0156461578 0.1893384595 -0.0665431051 -0.5537595043 -0.0666611944 -0.5539443861 0.0544389811 0.1832402612
800295200.0 0.0169454614 0.1896933665 -0.0720618925 -0.5527913062 -0.0725504602 -0.5533117003 0.0560624701 0.1831859414
805295170.0 0.0185568778 0.1896584647 -0.0778968994 -0.5520772278 -0.0783177155 -0.5522651652 0.0586911416 0.1829969226
810295140.0 0.0209297358 0.1898011797 -0.084202007 -0.5509414648 -0.0841773627 -0.5514564639 0.0608504652 0.1825381221
815295110.0 0.022220398 0.1896811505 -0.0902728008 -0.5504455049 -0.0897829969 -0.5505137056 0.0624934058 0.1816041259
820295080.0 0.0244130895 0.1895046369 -0.0956771669 -0.5485859855 -0.0956568977 -0.5495120761 0.0639176409 0.1817568749
825295050.0 0.0256417171 0.1895365093 -0.1017368422 -0.5482437848 -0.1019749139 -0.5481602666 0.0667505929 0.1810850343
830295020.0 0.0275543336 0.1893886286 -0.1080995087 -0.54710498 -0.1074499573 -0.5473919478 0.0681830763 0.1801347455
