!Created with skrf (http://scikit-rf.org).
# Hz S RI R 50.0 
!freq ReS11 ImS11 ReS21 ImS21 ReS12 ImS12 ReS22 ImS22
300000.0 -0.3215915862 -0.0799277846 0.3775064154 0.0432398683 0.3714668045 0.0401334816 -0.3189093463 -0.0971615327
5299970.0 -0.3264956165 0.0042997177 0.3781318133 0.0022275331 0.3783266106 0.0025111095 -0.323905199 0.0051081173
10299940.0 -0.3242721641 0.0134714704 0.3791738631 0.0019029562 0.3793293093 0.0022693767 -0.3212961324 0.0160536109
15299910.0 -0.3214424089 0.0205957091 0.3814626034 0.0020903481 0.3818362643 0.0020078726 -0.3182374049 0.023686171
20299880.0 -0.3185749605 0.0264602114 0.3846305355 0.001559202 0.3847272723 0.0014923463 -0.3144553037 0.0304390516
25299850.0 -0.3156995194 0.031421726 0.3879102485 -6.25008e-05 0.3880142121 4.41909e-05 -0.31058084 0.0361437541
30299820.0 -0.3128632756 0.0358401153 0.3913067848 -0.002102932 0.3914773708 -0.0024097891 -0.306602067 0.0412169516
35299790.0 -0.3098426872 0.0400891347 0.3947147832 -0.0057055402 0.3947600017 -0.005454166 -0.3032948206 0.0451654696
40299760.0 -0.307313296 0.0436443257 0.3981067606 -0.0090015231 0.3980744374 -0.0088880793 -0.3000274133 0.0488181546
45299730.0 -0.3046761148 0.0465737075 0.4007291509 -0.0127591723 0.401030254 -0.0127327549 -0.2973870976 0.0519566989
50299700.0 -0.3023666233 0.0495888439 0.4033120315 -0.0174736168 0.4036779589 -0.0172832747 -0.2943120749 0.0546707371
55299670.0 -0.3003492366 0.0519800069 0.405461336 -0.0223393412 0.4052944012 -0.0221576519 -0.2913669121 0.0573899562
60299640.0 -0.2979774586 0.0551236961 0.4072057 -0.0272084183 0.4074372547 -0.0269199487 -0.2890493202 0.0594028256
65299610.0 -0.296103445 0.0574996441 0.408984403 -0.0321633607 0.4092807855 -0.031654086 -0.2872997102 0.0619580916
70299580.0 -0.2945538649 0.0603661909 0.4102733817 -0.0372457885 0.4102335179 -0.0372834713 -0.2846964859 0.0641107518
75299550.0 -0.2928977971 0.0625944809 0.4110315686 -0.0423520104 0.4111406042 -0.0424420711 -0.2834298599 0.0659457818
80299520.0 -0.2915760821 0.0648413076 0.412361528 -0.0476609321 0.4121887825 -0.0475090266 -0.281751675 0.0680531762
85299490.0 -0.2899179794 0.0670794363 0.4125764408 -0.0525417903 0.4128390819 -0.0525934475 -0.2801733312 0.070140334
90299460.0 -0.2889978749 0.0693378249 0.4130710733 -0.0579268866 0.4134145756 -0.0580889648 -0.2782010999 0.0722473855
95299430.0 -0.2872842927 0.0718663699 0.4138604189 -0.0631585934 0.4137340017 -0.063595121 -0.2765278516 0.074489702
100299400.0 -0.2865572402 0.0741176318 0.4130327299 -0.0683531926 0.413179919 -0.0685307809 -0.2754755833 0.0762254026
105299370.0 -0.2852856252 0.0765585285 0.4131802941 -0.0740901772 0.4135430102 -0.0738094759 -0.273667305 0.0783213394
110299340.0 -0.2839733031 0.0789120769 0.4132372056 -0.0786841076 0.4130204642 -0.0785864095 -0.2731679929 0.0804687336
115299310.0 -0.2827951737 0.081214902 0.413062528 -0.0840901042 0.412364163 -0.0839990653 -0.2717812666 0.0826136844
120299280.0 -0.2820903641 0.0830695319 0.4121719112 -0.0891354027 0.4122715473 -0.0893137319 -0.2704567824 0.0844869754
125299250.0 -0.2809147559 0.0857140488 0.4115025875 -0.0941262257 0.4119255149 -0.0941760897 -0.2697283933 0.0862841103
130299220.0 -0.2800698816 0.0884323506 0.4108465788 -0.0991597936 0.4112613885 -0.0993269539 -0.2685029003 0.0885163893
135299190.0 -0.2794850552 0.090697597 0.4108642649 -0.104027357 0.4104658786 -0.1042025428 -0.2672633212 0.0908980241
140299160.0 -0.2783747177 0.0931649825 0.4093567154 -0.1091250206 0.4097018574 -0.1096017836 -0.266182324 0.0933158991
145299130.0 -0.2775016356 0.0958627863 0.4090520735 -0.1143037049 0.4085887807 -0.1142040624 -0.2654195055 0.0957015374
150299100.0 -0.2763079503 0.0982915445 0.4075976321 -0.118524941 0.4076753225 -0.1185950347 -0.2644339842 0.0983068336
155299070.0 -0.2754409678 0.1006848373 0.4067161731 -0.1242202931 0.4066281484 -0.1239175032 -0.2629122455 0.1006768019
160299040.0 -0.274459049 0.1035825325 0.4051344012 -0.1289469489 0.4051338117 -0.1291399713 -0.2625402648 0.1031924879
165299010.0 -0.2735303898 0.106260402 0.4040784987 -0.1339950342 0.4042195904 -0.1339270576 -0.2611805678 0.1058264328
170298980.0 -0.2726673948 0.1086918197 0.4026176507 -0.1385383542 0.4027504642 -0.138487706 -0.2602312927 0.10807583
175298950.0 -0.2716647654 0.1113076021 0.401541485 -0.1432784219 0.4012388825 -0.1431796734 -0.2592715998 0.110694818
180298920.0 -0.2709536863 0.1140692799 0.3999552066 -0.1480564734 0.3998576679 -0.1479294396 -0.2580811201 0.1134621793
185298890.0 -0.2695753919 0.1164066963 0.3982244509 -0.1527658035 0.398223969 -0.1526504821 -0.257082818 0.1159469031
190298860.0 -0.2688570996 0.1196345889 0.3971560637 -0.1575615047 0.3968703266 -0.1572848221 -0.2562792966 0.1185577527
195298830.0 -0.2675217162 0.1218230381 0.395084833 -0.1621741562 0.3954691987 -0.1620380773 -0.2551314272 0.1209962062
200298800.0 -0.266461236 0.1247001272 0.3933641877 -0.1668754406 0.393501258 -0.1669325721 -0.2544346927 0.1235643872
205298770.0 -0.2654339994 0.1271583247 0.3916305678 -0.1713584168 0.3915954852 -0.1714439661 -0.2532560905 0.1258393662
210298740.0 -0.2642652931 0.129928671 0.389380559 -0.1754441872 0.3898513129 -0.1756490644 -0.2518049361 0.1289299735
215298710.0 -0.2635225885 0.1326809455 0.3882062398 -0.1801375502 0.3876335534 -0.1805270966 -0.2510037263 0.1309721079
220298680.0 -0.2619692853 0.1351403283 0.3854583175 -0.1847143865 0.385782303 -0.1848507168 -0.2502362428 0.1336199806
225298650.0 -0.2607088914 0.1377476683 0.3837239433 -0.1891879031 0.3839458261 -0.189344722 -0.2487883543 0.1365832182
230298620.0 -0.2597629095 0.1408285287 0.3818699415 -0.1939097269 0.3820760031 -0.1934881055 -0.2478540645 0.1383207708
235298590.0 -0.2582692372 0.1439223524 0.3796739072 -0.1980812724 0.3795419502 -0.1978207277 -0.2465771201 0.1411432457
240298560.0 -0.2571855491 0.1464678396 0.3779164554 -0.2026056415 0.3776424907 -0.2025970141 -0.2452967025 0.1441977721
245298530.0 -0.2559143091 0.1488854002 0.3755879206 -0.2064638568 0.3752185815 -0.2067677886 -0.2438218295 0.1460679854
250298500.0 -0.2542320564 0.1517347156 0.3726401275 -0.2111278717 0.3726232785 -0.2106882205 -0.2427900026 0.1486587015
255298470.0 -0.2531550171 0.1540625069 0.3705930757 -0.2149130389 0.3704453165 -0.2150516959 -0.2412745167 0.1512816884
260298440.0 -0.2514935615 0.1567197953 0.3679752413 -0.219580842 0.3681969466 -0.2192191058 -0.2397205474 0.1534050777
265298410.0 -0.2497816702 0.160281835 0.3657167888 -0.2239197511 0.3658498467 -0.2234411442 -0.2381002635 0.1561872713
270298380.0 -0.2484901334 0.1625107701 0.3634213563 -0.2274754324 0.3634837937 -0.2277040355 -0.2371371473 0.1584617808
275298350.0 -0.246839204 0.1649415438 0.360709691 -0.2318656284 0.3612282568 -0.2316674478 -0.2353731957 0.1609944263
280298320.0 -0.2452549689 0.1678941377 0.358617785 -0.2360933811 0.3584322751 -0.2359978279 -0.2337827751 0.1637270349
285298290.0 -0.2435789489 0.1707458861 0.3560745619 -0.2399209523 0.3552639318 -0.2400732948 -0.2319642203 0.1660431398
290298260.0 -0.2419671655 0.1732482457 0.3529468869 -0.2436748853 0.3530981077 -0.2439478376 -0.2302831795 0.1683159501
295298230.0 -0.239995554 0.1755985147 0.350493712 -0.2478405569 0.3504925607 -0.2482173414 -0.2281900916 0.1706197949
300298200.0 -0.2386417273 0.1784553298 0.3482412923 -0.2519434922 0.3481710402 -0.2519611611 -0.2266900129 0.1734330271
305298170.0 -0.2363662192 0.1804191757 0.3445803538 -0.2561167866 0.344909976 -0.2560477638 -0.2242975839 0.1756236772
310298140.0 -0.2348416842 0.1836167828 0.3422983462 -0.2600971504 0.3423255088 -0.2597712658 -0.2232352963 0.1780831686
315298110.0 -0.2333656647 0.1859253149 0.3394919682 -0.2633001574 0.3392486411 -0.2639149153 -0.2211177064 0.1804510538
320298080.0 -0.2310435263 0.188542742 0.3361068105 -0.2677327135 0.3359570579 -0.2674489542 -0.2192658849 0.1827266681
325298050.0 -0.2292679086 0.190837782 0.3332066405 -0.2715185632 0.333144382 -0.2714471813 -0.217583968 0.1853100453
330298020.0 -0.2273980262 0.1929523143 0.3300507024 -0.2749915687 0.3301891994 -0.2750606608 -0.2157440011 0.1875645437
335297990.0 -0.2255229723 0.1954804372 0.3270255111 -0.2787907077 0.3271932425 -0.2788155317 -0.2144354283 0.1904601825
340297960.0 -0.2242365871 0.198401532 0.3236163261 -0.2823764774 0.323631723 -0.2826295122 -0.2120284628 0.1930928458
345297930.0 -0.2220468274 0.2006468751 0.3205546243 -0.2861666959 0.3200865337 -0.2861120161 -0.2103969895 0.194880464
350297900.0 -0.2201154315 0.2032099369 0.3169065982 -0.2897682815 0.3169958437 -0.2896873821 -0.2085839658 0.1979190172
355297870.0 -0.2177465407 0.2059630441 0.3138749021 -0.2932159784 0.314140107 -0.2929243229 -0.206715157 0.2002779215
360297840.0 -0.2159967294 0.2079805625 0.3109605407 -0.2963261158 0.3111716009 -0.2964862664 -0.2045808229 0.2026103012
365297810.0 -0.2140282355 0.2107668906 0.307710295 -0.2998656827 0.3078311632 -0.300143556 -0.2025493282 0.2049571374
370297780.0 -0.2117196786 0.2129746988 0.3040591272 -0.3029883593 0.3043589796 -0.3028062848 -0.2006407351 0.2072980305
375297750.0 -0.2092700389 0.21548703 0.3008490951 -0.3065328486 0.30079345 -0.3065006664 -0.1987980916 0.2096220438
380297720.0 -0.2073304838 0.21794625 0.2969949831 -0.3099305706 0.2974107358 -0.3094523386 -0.1966603453 0.2118404484
385297690.0 -0.2054421664 0.2203399993 0.2939473131 -0.3130601016 0.2936922615 -0.3130218599 -0.1943981129 0.2141561351
390297660.0 -0.2028631057 0.2226053906 0.290453346 -0.3160994895 0.2903251238 -0.315853467 -0.19267423 0.2164594726
395297630.0 -0.2008187884 0.2250887693 0.2869694249 -0.3195645866 0.2868004227 -0.3195754893 -0.1900516728 0.2190215803
400297600.0 -0.1983321866 0.2273981877 0.2830440869 -0.3230161163 0.2834978411 -0.3227615025 -0.188173718 0.220876342
405297570.0 -0.1962823041 0.2296102292 0.2799392813 -0.3255919313 0.2798983793 -0.3254146982 -0.186122073 0.2229676995
410297540.0 -0.1935805106 0.2316177751 0.2766616747 -0.3287198841 0.2764410545 -0.3287897423 -0.1835767611 0.2253660785
415297510.0 -0.1909181435 0.2337505914 0.2724081987 -0.3318586033 0.2727304292 -0.3320662055 -0.1818147353 0.2273472515
420297480.0 -0.1893398321 0.2367332586 0.2685815522 -0.3349746174 0.2685957864 -0.334735284 -0.1793265998 0.2291491819
425297450.0 -0.1863669714 0.2382393454 0.2652817864 -0.3373795123 0.2653569871 -0.337873494 -0.1770673281 0.231417194
430297420.0 -0.1842125379 0.2400655478 0.2615531853 -0.3398452782 0.2611347222 -0.3403027795 -0.1746542192 0.2333797985
435297390.0 -0.1819871381 0.2424706028 0.257695437 -0.3429968544 0.2571382358 -0.343248955 -0.1718345633 0.2350020542
440297360.0 -0.1790052464 0.2446068683 0.2535590395 -0.3460877205 0.2538875134 -0.3459388991 -0.1698899711 0.2368995351
445297330.0 -0.1764904322 0.2464310352 0.250394954 -0.3487156819 0.2500175887 -0.3484902585 -0.1671835728 0.2383808928
450297300.0 -0.1737512218 0.2483170601 0.2458506146 -0.3513586656 0.2461667192 -0.3517667997 -0.1646778257 0.2403872194
455297270.0 -0.1715971443 0.2505538331 0.241975518 -0.3542599953 0.2422132036 -0.354163675 -0.1622257454 0.2421956083
460297240.0 -0.1687745837 0.2525777263 0.2380248189 -0.3565745231 0.2382657471 -0.3568881737 -0.1597528157 0.2444606132
465297210.0 -0.166085104 0.2545517101 0.2344880976 -0.3592370519 0.2344874295 -0.3593824615 -0.1569639759 0.2458996366
470297180.0 -0.1632773758 0.2561039834 0.23011975 -0.3617458477 0.2302740079 -0.362109997 -0.1542269486 0.2480652392
475297150.0 -0.1607859567 0.2577572294 0.2260949987 -0.3640298382 0.2265050204 -0.3640844479 -0.1515519328 0.2492894713
480297120.0 -0.1581265004 0.2599589387 0.2222724825 -0.3668854634 0.2222698384 -0.3670066666 -0.148733432 0.2511690073
485297090.0 -0.1556719392 0.2617798836 0.2187022683 -0.3689525147 0.2180531253 -0.3686790791 -0.1460140807 0.2525875974
490297060.0 -0.1531850959 0.2636407649 0.2145301733 -0.3714841031 0.2144827716 -0.3711009594 -0.1435043901 0.2546443465
495297030.0 -0.1504031994 0.2653241652 0.2102868727 -0.373393891 0.2106511976 -0.3734692641 -0.1407103977 0.2567862669
500297000.0 -0.1472394804 0.2670476236 0.2060036847 -0.375398971 0.205589972 -0.3757236668 -0.1379218557 0.258551811
505296970.0 -0.1442829468 0.2686370931 0.2019855869 -0.3780037315 0.2017530721 -0.3779382036 -0.135239219 0.2598579344
510296940.0 -0.1415397106 0.2701574373 0.1977363357 -0.3802249082 0.197614933 -0.3805786131 -0.1324027955 0.2614628598
515296910.0 -0.1386140775 0.271915823 0.1937351793 -0.3823543637 0.1934091434 -0.3823117332 -0.1296555159 0.2631947291
520296880.0 -0.1360430149 0.2738894346 0.1893025288 -0.3851329855 0.1894032079 -0.3842513661 -0.1272275965 0.2646748292
525296850.0 -0.1328588644 0.2746937949 0.1848664066 -0.3863015413 0.184947187 -0.3863894235 -0.1240698948 0.2663190183
530296820.0 -0.1302818186 0.2767307357 0.1811764769 -0.3884231986 0.1812721328 -0.3884601618 -0.1218070508 0.2678393529
535296790.0 -0.1277113526 0.2778905478 0.1769796556 -0.3898289655 0.1769212627 -0.3898055307 -0.1189770852 0.2688811401
540296760.0 -0.1246525197 0.2796256778 0.1726664268 -0.3924910074 0.1720492475 -0.3923437535 -0.1161301355 0.2708543785
545296730.0 -0.1212997833 0.2812895279 0.1677139995 -0.3940069566 0.1681555009 -0.3940817221 -0.1134801412 0.2722595189
550296700.0 -0.1184770068 0.2825713824 0.163853554 -0.395679375 0.1638636615 -0.3960245784 -0.1108266633 0.2734932414
555296670.0 -0.1155608958 0.2839249076 0.159613364 -0.3977910756 0.1597566922 -0.3977949642 -0.1078783539 0.2754640191
560296640.0 -0.1124864141 0.2854991245 0.1550325015 -0.3994732792 0.1551100565 -0.3993712682 -0.1046095113 0.2764304456
565296610.0 -0.1096121764 0.2868755157 0.1507622773 -0.4006819997 0.1508694814 -0.4009771972 -0.1022192491 0.277712473
570296580.0 -0.1067729204 0.2880050491 0.1463073798 -0.4026537228 0.1458063221 -0.4027971591 -0.0992145323 0.2791574301
575296550.0 -0.1037787402 0.2896978405 0.1420645272 -0.404565435 0.1419098663 -0.40422298 -0.0964482617 0.2798907903
580296520.0 -0.1005415511 0.2906425082 0.1374489094 -0.4059468723 0.1373979647 -0.405702114 -0.0931837681 0.2812481251
585296490.0 -0.0978792878 0.2912981882 0.1333926948 -0.4064586657 0.1330349789 -0.4071245657 -0.0903098565 0.2822639406
590296460.0 -0.0942890581 0.2929048883 0.1286967731 -0.4081171451 0.1286804843 -0.4078628643 -0.0880771772 0.2837376032
595296430.0 -0.0913525518 0.294066989 0.1238171674 -0.4097234793 0.1238783995 -0.4096914288 -0.084821507 0.2841533632
600296400.0 -0.0886738106 0.2950175038 0.1198172267 -0.4111680243 0.1197314136 -0.4105158339 -0.0818389668 0.2849563477
605296370.0 -0.0853263597 0.2961662905 0.1152237647 -0.4121667649 0.1150767232 -0.4120066806 -0.078559923 0.2863201836
610296340.0 -0.0822613395 0.2971066598 0.1101154228 -0.4134528754 0.1105557939 -0.413419866 -0.0757922429 0.2869431214
615296310.0 -0.0787636857 0.2979590557 0.1059161937 -0.4142147448 0.1058940159 -0.4147961397 -0.0724651905 0.2877254269
620296280.0 -0.0758857163 0.2986575317 0.1015914733 -0.4152890347 0.1016880793 -0.4154249187 -0.0698078365 0.2885683712
625296250.0 -0.0729327818 0.2995512933 0.097578744 -0.4165693663 0.0971610609 -0.4166677787 -0.0660260516 0.2897094944
630296220.0 -0.0688069457 0.3006775453 0.0919421729 -0.4176243014 0.0920090317 -0.4175593937 -0.0634556776 0.2907279446
635296190.0 -0.0665571458 0.3014892186 0.0878813848 -0.418388063 0.0881286228 -0.4184774786 -0.0602463665 0.2910892199
640296160.0 -0.0639166203 0.3022969639 0.0835423497 -0.4193856336 0.0836464883 -0.4193795123 -0.0571439199 0.2920197988
645296130.0 -0.0602454097 0.3034162631 0.078812801 -0.4201683055 0.0792042553 -0.4202790514 -0.0542234892 0.2930743303
650296100.0 -0.0571467007 0.3039123209 0.0742983127 -0.4207101695 0.074431435 -0.4211827269 -0.0506653635 0.293000532
655296070.0 -0.0541770254 0.3048247291 0.0700200174 -0.4218106744 0.069610452 -0.4218004524 -0.0473185889 0.2942542218
660296040.0 -0.0509706908 0.3050021309 0.0652804241 -0.4221635477 0.0651130076 -0.4223990208 -0.0440979708 0.2946489831
665296010.0 -0.0473626093 0.3054007305 0.0603585477 -0.4230990132 0.0605470481 -0.422989638 -0.0407831104 0.2957158289
670295980.0 -0.0449898081 0.3067360589 0.0562480775 -0.4235029407 0.0560537386 -0.4237406118 -0.0381811316 0.2959463413
675295950.0 -0.0415281271 0.3070869674 0.0514259103 -0.4240714936 0.0516615229 -0.4236362415 -0.0354080976 0.2968248663
680295920.0 -0.038416295 0.3078843149 0.0470549207 -0.4246155002 0.0463565905 -0.4248039178 -0.0320656882 0.2977080096
685295890.0 -0.0346132618 0.3088069828 0.0422431852 -0.4253417964 0.0421223219 -0.4251509914 -0.0286390464 0.2979113729
690295860.0 -0.0316264875 0.3089841463 0.0375152362 -0.4252017836 0.0375409182 -0.4256298667 -0.0256773741 0.2988693285
695295830.0 -0.0283458873 0.3094854309 0.0333335688 -0.4261610519 0.0329544231 -0.4256069846 -0.0223050246 0.299435406
700295800.0 -0.0249684221 0.3095669207 0.0282934306 -0.4258278008 0.0281306553 -0.4258919183 -0.0193265847 0.299808194
705295770.0 -0.0221043184 0.3103066036 0.023412181 -0.4265787412 0.0240187799 -0.4265724628 -0.0165759011 0.3001698452
710295740.0 -0.0183920486 0.3103342383 0.0191450315 -0.4268239804 0.0192248456 -0.4269879219 -0.0129254878 0.3004917952
715295710.0 -0.0154357828 0.3109010981 0.014897248 -0.4268596674 0.0142977645 -0.4268509833 -0.0099320258 0.3009189909
720295680.0 -0.0121967019 0.3109549029 0.0099976128 -0.4268493481 0.0100874581 -0.4269160171 -0.006738496 0.3013353128
725295650.0 -0.0085325761 0.3114446545 0.0050770241 -0.4268402586 0.0053225987 -0.4272658678 -0.0038511489 0.3016233063
730295620.0 -0.005441308 0.3117852001 0.0003095385 -0.4268817391 0.0004247362 -0.4267813646 -0.001191646 0.3015531561
735295590.0 -0.0022632149 0.3118253494 -0.0038322329 -0.4268606566 -0.0040326892 -0.4267521199 0.001860931 0.3015285472
740295560.0 0.0009232976 0.3119895889 -0.0087945045 -0.4265962449 -0.0086464866 -0.4270032468 0.005629826 0.3019269577
745295530.0 0.0043221354 0.3121813943 -0.0135043879 -0.4262155217 -0.0136342872 -0.4267344132 0.0085593108 0.3020017326
750295500.0 0.0078596547 0.3122549599 -0.0178027134 -0.4263329432 -0.0180233825 -0.4263424014 0.0116436097 0.3019982319
755295470.0 0.010862567 0.312478936 -0.0221859566 -0.4258444918 -0.0225900294 -0.4262572148 0.0150481413 0.3016873586
760295440.0 0.0138172104 0.3122887887 -0.0268776116 -0.4258701922 -0.0271254944 -0.4261657663 0.0181398567 0.3013818049
765295410.0 0.0173742232 0.3122823022 -0.031645038 -0.4257280412 -0.0320813192 -0.4256287709 0.0212071673 0.3017137757
770295380.0 0.0201794509 0.3122654105 -0.0363631359 -0.4249246729 -0.0364290841 -0.4248518074 0.023855092 0.3012429479
775295350.0 0.0234286789 0.3118524737 -0.0413073316 -0.4240368279 -0.0407772703 -0.424202159 0.0270786521 0.301038502
780295320.0 0.0272530051 0.3119330488 -0.0460183475 -0.4236956455 -0.0450948783 -0.4235495362 0.0302191172 0.3007456669
785295290.0 0.0298059789 0.3114552167 -0.0501862591 -0.4230171675 -0.050148193 -0.4232802891 0.0337347865 0.3005694786
790295260.0 0.0338534372 0.3116702474 -0.0543273539 -0.4227152681 -0.0542151592 -0.4228190986 0.0371055616 0.3005171933
795295230.0 0.0365106435 0.311525982 -0.0588756743 -0.4221839613 -0.0590164156 -0.4221145941 0.0404992655 0.3000790781
800295200.0 0.0398553045 0.3109063934 -0.0640211945 -0.4210553633 -0.0637967532 -0.4209953005 0.043408732 0.2997851574
805295170.0 0.0433434149 0.3106592874 -0.0683513539 -0.4205662229 -0.0684131491 -0.420860887 0.0465104447 0.2995471352
810295140.0 0.0465903336 0.3100745028 -0.0727632048 -0.4197834219 -0.0727170107 -0.4200080427 0.0503063629 0.2991639083
815295110.0 0.0496523587 0.3095718896 -0.0777589667 -0.4184896437 -0.0771880315 -0.4190517318 0.0530198376 0.2986065343
820295080.0 0.0526197379 0.3096499517 -0.0816763263 -0.418000289 -0.0814803998 -0.4180496752 0.0562828377 0.2982921385
825295050.0 0.0564796108 0.3088113194 -0.0861323738 -0.4170676152 -0.0864746624 -0.4171551559 0.0596458247 0.2977350644
830295020.0 0.059388736 0.3086734246 -0.0909923538 -0.4161011589 -0.0910091073 -0.4160719659 0.0634349625 0.2974871326
