!Created with skrf (http://scikit-rf.org).
# Hz S RI R 50.0 
!freq ReS11 ImS11 ReS21 ImS21 ReS12 ImS12 ReS22 ImS22
300000.0 -0.0995941645 -0.0649117676 0.6295509346 0.0631451808 0.6234977602 0.0644756113 -0.0981649953 -0.07745993
5299970.0 -0.1021643376 0.0133935218 0.6304506729 0.0095340959 0.6306527995 0.0097312237 -0.1009986284 0.0131603537
10299940.0 -0.0972733925 0.0295007617 0.6340437787 0.0151308143 0.6341083293 0.0153864331 -0.0957064006 0.0302742466
15299910.0 -0.0899845202 0.042634777 0.6405813945 0.0203304786 0.6404852963 0.0204891372 -0.0884815266 0.0435463633
20299880.0 -0.0814369907 0.0530376271 0.6486062564 0.0239882897 0.6483334872 0.0239473722 -0.079858142 0.054633447
25299850.0 -0.0721632152 0.0621258898 0.6576192191 0.024945205 0.6576522333 0.0250633155 -0.0696781745 0.0633900893
30299820.0 -0.0621058391 0.0688742339 0.6676630333 0.0243497099 0.6670741799 0.0244746751 -0.0597771826 0.0700444412
35299790.0 -0.0523786535 0.0736848318 0.6771469068 0.0210652865 0.677095789 0.0211514579 -0.0499113163 0.0750053848
40299760.0 -0.0430972201 0.077158492 0.6860134467 0.017481815 0.6864980596 0.0173869554 -0.0402329423 0.077513712
45299730.0 -0.0341276089 0.0793230738 0.6950616858 0.0116708382 0.6952492896 0.0118679384 -0.0311118393 0.0798414114
50299700.0 -0.0257328779 0.0802169729 0.7034499358 0.0044855496 0.7033207293 0.0054107981 -0.0225900421 0.0805854533
55299670.0 -0.0176706808 0.0803522323 0.7109682495 -0.003343446 0.7107566317 -0.003072505 -0.0147198896 0.0807417507
60299640.0 -0.0099578192 0.0800456063 0.7172016938 -0.011371403 0.7177984842 -0.0111943472 -0.0077375433 0.0793858343
65299610.0 -0.0038222911 0.078789382 0.723137969 -0.0202812439 0.7233573698 -0.0202481915 -0.0013756999 0.0785981646
70299580.0 0.0026315984 0.0775721813 0.7284785994 -0.0297439685 0.7290059455 -0.029127573 0.0048788283 0.0768172273
75299550.0 0.0081091107 0.0757992703 0.7323434712 -0.0392420875 0.7324410933 -0.0393795035 0.010076984 0.0746979082
80299520.0 0.0129778479 0.0737060106 0.7368506241 -0.0490614345 0.7376766835 -0.0491489643 0.0149085566 0.0726689313
85299490.0 0.017540653 0.0713743381 0.7404138639 -0.0584969265 0.7402242427 -0.0586874404 0.0195046224 0.0698433236
90299460.0 0.0217087066 0.0692702701 0.7428290261 -0.0690968359 0.7433015388 -0.0691410517 0.0233212241 0.0678971686
95299430.0 0.025874555 0.066523753 0.7457080777 -0.0788719297 0.7456775471 -0.0790778115 0.0274725574 0.0655526147
100299400.0 0.0286452621 0.0646720375 0.7466455695 -0.0886433977 0.7465285683 -0.0895299173 0.0312840951 0.0625277333
105299370.0 0.0324347353 0.0618980517 0.748710183 -0.0996890801 0.7491554098 -0.0996427237 0.0341656126 0.0606251152
110299340.0 0.0350133152 0.0597444871 0.7501211578 -0.1092089629 0.749811912 -0.1091345336 0.0361346668 0.0578581298
115299310.0 0.0373887269 0.0570897113 0.7504609983 -0.1191014253 0.7507263724 -0.1196251035 0.0388487801 0.0554984048
120299280.0 0.0397979253 0.054679326 0.7509823793 -0.1291507689 0.751437212 -0.129768163 0.0414173868 0.0529621926
125299250.0 0.0418740225 0.0521103688 0.7512603167 -0.1391216552 0.7515443909 -0.139533565 0.0429071931 0.0501833418
130299220.0 0.0435495078 0.0500709846 0.7509635884 -0.1493424003 0.7514714533 -0.1496337597 0.044989413 0.0479489706
135299190.0 0.0451149475 0.0482206526 0.7514405425 -0.1589111929 0.7511150972 -0.1591618231 0.0466087501 0.0459887079
140299160.0 0.0466062137 0.0461789961 0.7506497487 -0.1689127746 0.7508605513 -0.1690640895 0.0478866321 0.0443746135
145299130.0 0.0483214109 0.043761006 0.750204355 -0.1789320806 0.749137812 -0.1783458769 0.0495112394 0.0420720908
150299100.0 0.0496675438 0.0422151417 0.7488679435 -0.1873778793 0.7489899444 -0.1877303065 0.0506975808 0.0402029284
155299070.0 0.0504331473 0.039697719 0.7479834867 -0.1986938415 0.7475355174 -0.1982278204 0.0518191962 0.0384305571
160299040.0 0.0521156501 0.0380298771 0.7463168395 -0.2075704318 0.7457769342 -0.2078590299 0.0521549302 0.0362435221
165299010.0 0.0524588998 0.036131138 0.7441630522 -0.2169593899 0.7445475454 -0.2172405571 0.0536804813 0.0349387838
170298980.0 0.0534111236 0.0337874759 0.7428013895 -0.2266578254 0.742882097 -0.2257903117 0.0541811574 0.0331350323
175298950.0 0.0536446662 0.0321194894 0.7414732344 -0.2354742505 0.740806672 -0.2356800057 0.0550845061 0.0315459667
180298920.0 0.0543723478 0.0303956188 0.7389922049 -0.2451880955 0.7384180448 -0.2446582371 0.0554953939 0.029597511
185298890.0 0.0554618793 0.0287066053 0.7366758381 -0.2544321903 0.7365167891 -0.2536104631 0.0556467513 0.0281912697
190298860.0 0.0554429771 0.0269830715 0.7339489153 -0.2630778295 0.734371723 -0.2631526156 0.0565882457 0.0262998844
195298830.0 0.0560589463 0.0251167154 0.7314744413 -0.2719476299 0.7317900195 -0.2721216705 0.0573770366 0.0248929406
200298800.0 0.0562345398 0.0239613185 0.7284917377 -0.2810296853 0.7289785579 -0.2812313892 0.0568249648 0.0238103104
205298770.0 0.0568741257 0.022786274 0.7258035855 -0.2902680075 0.7259153331 -0.2899068743 0.057452758 0.0212018185
210298740.0 0.0572083372 0.0206766854 0.7226310405 -0.2982689987 0.7235399012 -0.2983402693 0.0580147649 0.0213218564
215298710.0 0.0568575031 0.0194660662 0.7201218495 -0.3077011232 0.7202431092 -0.3078360333 0.0576675434 0.0195492679
220298680.0 0.0574120464 0.0176262841 0.7164295571 -0.3160852448 0.7165589041 -0.3162388323 0.0576869747 0.0179241149
225298650.0 0.0575954476 0.0165395834 0.7135603815 -0.3252251478 0.713639901 -0.3244709 0.0572576007 0.0166484362
230298620.0 0.0577692546 0.0157010541 0.7106246054 -0.3333236662 0.7105938068 -0.3330405261 0.0572743686 0.0152040339
235298590.0 0.0578871694 0.0146028974 0.7067416302 -0.3414996809 0.7067320921 -0.3412504849 0.0574354322 0.0139283718
240298560.0 0.058006798 0.013387906 0.703332989 -0.3501869057 0.7027052557 -0.3503433637 0.0576694028 0.012954675
245298530.0 0.0576924465 0.0120171487 0.6998546956 -0.358429305 0.6994365627 -0.3585815281 0.0581114878 0.0109592513
250298500.0 0.0584972849 0.0107918932 0.6947871027 -0.3662481108 0.6947782957 -0.36672548 0.0578722197 0.0104433436
255298470.0 0.0581572664 0.0091903065 0.6908350825 -0.3742633106 0.6916723464 -0.3743904135 0.0579465832 0.0088779941
260298440.0 0.0580511304 0.0083546583 0.687105572 -0.3834058605 0.6874309744 -0.3825151241 0.0583950025 0.0077678589
265298410.0 0.0586368241 0.007609 0.6829612874 -0.3911343536 0.6837681387 -0.3907358481 0.0582107352 0.0068112283
270298380.0 0.0584522801 0.0060160874 0.6798191054 -0.3984376688 0.6796274312 -0.3988419029 0.0580532177 0.0055937407
275298350.0 0.0590494398 0.004983823 0.6746335997 -0.4068134684 0.6748592393 -0.4064657934 0.0582714197 0.004328403
280298320.0 0.0586151081 0.0043964619 0.6709263518 -0.4146448389 0.670905242 -0.4143674471 0.058543707 0.0034476406
285298290.0 0.0586493307 0.0031643011 0.6666107619 -0.422559476 0.6661075826 -0.4227695941 0.0586494263 0.002300405
290298260.0 0.0590646987 0.0020394881 0.6615294646 -0.4298934287 0.6617692581 -0.4306433584 0.0585441988 0.0018710705
295298230.0 0.059065325 0.0008902863 0.657296835 -0.4377664276 0.6572605836 -0.4377622647 0.0590818017 0.0003719213
300298200.0 0.0582792621 -0.0002602011 0.6533243875 -0.4454155814 0.6524079206 -0.4461262082 0.0585549262 -0.0010193453
305298170.0 0.0587364496 -0.0015218648 0.6471815293 -0.4538106777 0.6476528076 -0.4532730217 0.0594298501 -0.0022356605
310298140.0 0.0582812469 -0.0024896486 0.6427852009 -0.4611119733 0.6431851525 -0.4610105612 0.0594258133 -0.0030166326
315298110.0 0.0584308574 -0.0042818951 0.63814998 -0.4688820192 0.6378273931 -0.4685850453 0.0588288562 -0.0043928304
320298080.0 0.0585590426 -0.0049053872 0.6321601502 -0.4767341002 0.6323475358 -0.4762666649 0.0587260397 -0.0053662744
325298050.0 0.0577005378 -0.0064332045 0.6271828261 -0.4837621299 0.6268603216 -0.4836745549 0.057859078 -0.0065871189
330298020.0 0.0574230139 -0.0073790217 0.6214698206 -0.4916325247 0.6215667194 -0.491572326 0.0575430235 -0.0077026107
335297990.0 0.0571687477 -0.0088038449 0.6160491923 -0.4977705156 0.6152304008 -0.4983328713 0.0565755252 -0.0081681847
340297960.0 0.0561469904 -0.0089513906 0.6099316252 -0.505248715 0.6091139853 -0.505263109 0.0568992885 -0.008629673
345297930.0 0.0557941459 -0.0094635171 0.6037354083 -0.5120925041 0.6036752934 -0.5123728156 0.0564685137 -0.0101549673
350297900.0 0.0553814763 -0.0109605123 0.5976344473 -0.5189645171 0.5973322879 -0.5189140381 0.0554433457 -0.0099591577
355297870.0 0.0549028824 -0.0107578319 0.5920578221 -0.5253419597 0.5921574868 -0.524909332 0.055202757 -0.0108786949
360297840.0 0.0546306314 -0.0116697295 0.5870876156 -0.5315083308 0.5866767534 -0.5318454511 0.0548726232 -0.011225046
365297810.0 0.0538652805 -0.0122509437 0.5805885992 -0.5388495915 0.5809037604 -0.5384378891 0.0546462077 -0.0117988431
370297780.0 0.0542661991 -0.0133026168 0.5741437074 -0.5446311629 0.5749432696 -0.5443746443 0.0540588435 -0.0121218536
375297750.0 0.0537016582 -0.01370532 0.5687731204 -0.5512419129 0.5692479916 -0.5516624062 0.0541615164 -0.0131239727
380297720.0 0.053294715 -0.0144050595 0.5623775734 -0.5579614036 0.5624778416 -0.5570169434 0.0531149278 -0.0141241743
385297690.0 0.0529190231 -0.0150932549 0.5561551601 -0.5642735615 0.5558815989 -0.5639329389 0.0533151625 -0.0141716946
390297660.0 0.0526572641 -0.0155555838 0.5501419925 -0.5701647447 0.5496894873 -0.5695154346 0.0526693459 -0.0152882562
395297630.0 0.0519399845 -0.0161817203 0.5434507865 -0.5764261719 0.5439362369 -0.5763238218 0.0527094463 -0.0157039793
400297600.0 0.0515447255 -0.0169202942 0.5366552328 -0.5829835782 0.5374862161 -0.5826004838 0.0520079407 -0.0160262996
405297570.0 0.0511814828 -0.017567773 0.5310965098 -0.5884104115 0.531081029 -0.5879800847 0.0512113142 -0.0169975647
410297540.0 0.051186389 -0.018190452 0.5245561039 -0.5941719893 0.5246135892 -0.5940237633 0.0510497514 -0.017210781
415297510.0 0.0512909623 -0.0185189648 0.517454447 -0.600075016 0.5180278625 -0.6001456308 0.0509037681 -0.0179096125
420297480.0 0.0509384318 -0.0191181816 0.5109511975 -0.6056920564 0.5111007429 -0.6062504298 0.0501384149 -0.019000627
425297450.0 0.0501126295 -0.0205365301 0.5048551975 -0.6112955272 0.5047328747 -0.6114956671 0.049194792 -0.0187507917
430297420.0 0.0496523392 -0.0209303607 0.4975636443 -0.6165916887 0.4976165913 -0.6169243722 0.0493692497 -0.0200654797
435297390.0 0.0494090972 -0.0213228456 0.4905112469 -0.6223194598 0.4905940313 -0.6227029845 0.0498379571 -0.0204395609
440297360.0 0.0491873314 -0.0216933451 0.4838778595 -0.6276250763 0.4835249503 -0.6282855133 0.0487693738 -0.0215813207
445297330.0 0.0485411012 -0.0228492731 0.477038954 -0.6333019385 0.4774355711 -0.6331656065 0.0486174883 -0.0223580564
450297300.0 0.048544412 -0.0234046983 0.4703198445 -0.6388020208 0.4696977704 -0.6390204486 0.0482754913 -0.0226057715
455297270.0 0.0481782514 -0.0238720124 0.4627814628 -0.6435398617 0.463171086 -0.6442020682 0.0478698059 -0.0234286409
460297240.0 0.0477433277 -0.0242811257 0.4561346591 -0.6486795989 0.4557486523 -0.6490600114 0.0476267057 -0.0238490927
465297210.0 0.0473538458 -0.0250105699 0.4488196077 -0.653835116 0.44931538 -0.6545430939 0.047606372 -0.0246434768
470297180.0 0.0468252132 -0.0258955385 0.4416221905 -0.6585936372 0.441646877 -0.65883401 0.0470164642 -0.0249994275
475297150.0 0.0467307017 -0.0264725863 0.4343421417 -0.663110955 0.4345522852 -0.6632749931 0.0470989173 -0.0259677258
480297120.0 0.0459156406 -0.0264477063 0.4274290748 -0.6686174514 0.4270435094 -0.6689293838 0.046970697 -0.0261104204
485297090.0 0.045321335 -0.0271738318 0.4199884052 -0.6731733331 0.4195700593 -0.6732496037 0.0460524894 -0.0270336061
490297060.0 0.0446485057 -0.0276530555 0.4125008063 -0.6781258805 0.4126655397 -0.6775144038 0.0460160654 -0.0267480121
495297030.0 0.0447582323 -0.0281704796 0.405076823 -0.6824220532 0.4050617825 -0.6820734306 0.0447764653 -0.0277844185
500297000.0 0.0440237842 -0.0290624259 0.3966851962 -0.6861923441 0.396628803 -0.6859118877 0.0447787916 -0.0276302597
505296970.0 0.0439090226 -0.0292616256 0.3895924163 -0.6906520239 0.3894195256 -0.691406206 0.0443901219 -0.0282837508
510296940.0 0.0430229458 -0.029796428 0.3816640352 -0.6954751586 0.3819418247 -0.6954847554 0.0443019733 -0.0285247087
515296910.0 0.0421439344 -0.0296608646 0.3741731338 -0.6995374712 0.3745985008 -0.6995108193 0.0439954249 -0.0287607044
520296880.0 0.0420100736 -0.030707695 0.3666788159 -0.7041703439 0.3666057934 -0.7034091182 0.0430933049 -0.0297748305
525296850.0 0.0417586064 -0.031571446 0.3591460625 -0.7080640916 0.3593193717 -0.7076956957 0.0425285671 -0.02968262
530296820.0 0.0413171133 -0.0314911265 0.3513023732 -0.7116368812 0.3512063205 -0.7116099637 0.0424608251 -0.0299441684
535296790.0 0.0401331726 -0.0319367734 0.3436038558 -0.715479256 0.3436798271 -0.7146598517 0.0419710729 -0.0310393727
540296760.0 0.0398546234 -0.0321026576 0.3359577486 -0.7196104848 0.3351244137 -0.7196145111 0.0408712374 -0.0301844782
545296730.0 0.0394069539 -0.0327211733 0.327067213 -0.7224357974 0.3277943608 -0.7228598073 0.0401641538 -0.0313028072
550296700.0 0.0396677791 -0.0326326348 0.3199883943 -0.7257496212 0.3196876945 -0.7263999866 0.0396091715 -0.0313083116
555296670.0 0.0383532724 -0.0333219512 0.3121599563 -0.7292200902 0.3118578808 -0.7294112908 0.0394853146 -0.0319107183
560296640.0 0.0384350653 -0.0333434425 0.3035011647 -0.7329212949 0.3036020004 -0.7333310707 0.038916195 -0.0325010679
565296610.0 0.0373807633 -0.0342032118 0.2950083667 -0.73653242 0.2959785205 -0.7363553379 0.0380803036 -0.0330529384
570296580.0 0.036904512 -0.0342473693 0.2881870239 -0.7404313019 0.2867404097 -0.7393427234 0.0376219036 -0.032546856
575296550.0 0.0364049943 -0.0343891046 0.2797421014 -0.742998118 0.2794523238 -0.7430485836 0.0374621225 -0.0333351948
580296520.0 0.0358058362 -0.0346694638 0.2713493965 -0.7462848772 0.2712863928 -0.7457587017 0.0368109327 -0.0338799268
585296490.0 0.0351580442 -0.0361680598 0.2634002349 -0.7482989901 0.2634164726 -0.7486143398 0.0359921667 -0.0342973102
590296460.0 0.0352539875 -0.0355509985 0.2550229258 -0.7511344243 0.2552004527 -0.7512129928 0.0344597817 -0.0347890565
595296430.0 0.0347114928 -0.0357959153 0.2461351557 -0.7547118549 0.2465027771 -0.7539964702 0.0348007773 -0.0352329272
600296400.0 0.0337768364 -0.0365877502 0.2384623209 -0.7573733832 0.2383355414 -0.7564652797 0.0338931655 -0.0353524264
605296370.0 0.0333250341 -0.0366987103 0.2299459006 -0.7594643954 0.2300509795 -0.7591331403 0.0336482542 -0.0355907814
610296340.0 0.0326517542 -0.0370415717 0.2214255458 -0.7622139385 0.2222312209 -0.7618024616 0.0336057381 -0.0362046068
615296310.0 0.0325160568 -0.0377051195 0.2134632855 -0.7641561658 0.2129552113 -0.7645754464 0.0328792252 -0.0362314157
620296280.0 0.0321024998 -0.0380397003 0.2053722913 -0.7662745599 0.2049860546 -0.7661344737 0.0319458277 -0.0369093109
625296250.0 0.0309654925 -0.0386137049 0.1977562078 -0.7692947695 0.1969150415 -0.7691437424 0.0321597694 -0.037042463
630296220.0 0.0315009459 -0.0384221254 0.1880372475 -0.7708350521 0.187954123 -0.7708729453 0.0312816332 -0.0372817254
635296190.0 0.0295688251 -0.0393258687 0.1801068262 -0.7727672419 0.1800797129 -0.773123684 0.0309262464 -0.0373502753
640296160.0 0.0290482864 -0.0389767689 0.1709280411 -0.7748823675 0.1711534707 -0.7746286002 0.0303216987 -0.0380421913
645296130.0 0.0288393589 -0.0392911857 0.1628454946 -0.7760432733 0.1630913683 -0.7764350259 0.0297148934 -0.0381692219
650296100.0 0.0283967315 -0.0397818825 0.1544040393 -0.778456595 0.1550539835 -0.7784483697 0.0297960731 -0.0391762639
655296070.0 0.0269944661 -0.0402301581 0.1456731275 -0.7802026077 0.1464421102 -0.7796004118 0.0291780242 -0.038483769
660296040.0 0.026332731 -0.040637332 0.1376826493 -0.7814027299 0.1377689231 -0.7818591165 0.0289897212 -0.039183784
665296010.0 0.0267727349 -0.0404955009 0.1283408646 -0.7830850405 0.1290162923 -0.7825357759 0.0283768002 -0.0385629812
670295980.0 0.0247191998 -0.0404210875 0.1206281691 -0.7846104743 0.1202248585 -0.7840912119 0.027002977 -0.0391408309
675295950.0 0.0246747433 -0.0406012178 0.1123897442 -0.7855227664 0.1118036223 -0.7848099658 0.0263898621 -0.0391682193
680295920.0 0.02360051 -0.0412030031 0.1028586783 -0.7860907099 0.1024921778 -0.7867945463 0.0263916111 -0.038933644
685295890.0 0.0236515814 -0.0405893224 0.0942223276 -0.7872208096 0.0945606402 -0.7878913403 0.0253766397 -0.0389635768
690295860.0 0.023489022 -0.040982078 0.0859893733 -0.7882983197 0.0858234474 -0.788920583 0.024714752 -0.0385609627
695295830.0 0.0227897551 -0.0414164758 0.0780050515 -0.7898287005 0.0770346065 -0.7893374198 0.0241142094 -0.0390573466
700295800.0 0.0221902521 -0.0416653172 0.0691553266 -0.7901106726 0.0682903594 -0.7893923059 0.0233963501 -0.0385003607
705295770.0 0.0211067836 -0.0409524743 0.0597155583 -0.7909311584 0.0604407035 -0.7908643192 0.0227434279 -0.0389652642
710295740.0 0.0209637167 -0.0414427243 0.0520863628 -0.7918377231 0.0522060657 -0.7920037655 0.0227571101 -0.0398281491
715295710.0 0.0196293391 -0.0419208058 0.0434183068 -0.7919605194 0.0428012595 -0.7920918271 0.0222102664 -0.0393748942
720295680.0 0.0194485336 -0.0417668662 0.03478893 -0.7924788059 0.0349087671 -0.7922589051 0.021333521 -0.0387437879
725295650.0 0.0190985406 -0.0417769728 0.0259545877 -0.7928133442 0.0255349605 -0.7929272967 0.019947436 -0.0389303716
730295620.0 0.0189485068 -0.0414998865 0.0169505618 -0.7927478183 0.0168798036 -0.7931900228 0.0193981691 -0.039959221
735295590.0 0.0177724001 -0.0416730894 0.0087477197 -0.7934001248 0.0085324172 -0.79352172 0.0188104031 -0.0400499821
740295560.0 0.0171403323 -0.0418925953 0.0001500769 -0.7929441634 0.0001001395 -0.793446845 0.0188307669 -0.0395201361
745295530.0 0.0163907473 -0.041874627 -0.0089348193 -0.7921792285 -0.0087653809 -0.7930849641 0.0181171093 -0.0401485763
750295500.0 0.0162142194 -0.0419518674 -0.0173720908 -0.792809021 -0.0172955058 -0.7924405078 0.0173786062 -0.039919953
755295470.0 0.0155358017 -0.0420013466 -0.0255677568 -0.7929299152 -0.0259326654 -0.7929365218 0.0174381016 -0.0401851374
760295440.0 0.0148885884 -0.0418716384 -0.0342026739 -0.792833295 -0.0345652157 -0.7924305728 0.0162430705 -0.0401825424
765295410.0 0.0142973456 -0.0420395041 -0.0431867743 -0.7916792699 -0.0439372323 -0.7920751653 0.0156377661 -0.0401274238
770295380.0 0.013308057 -0.0424001227 -0.0525079966 -0.7911376662 -0.0516951426 -0.7911124023 0.0149438599 -0.0406117819
775295350.0 0.0126182572 -0.0429364161 -0.0608915348 -0.7903599743 -0.0602499534 -0.7903877214 0.0136868927 -0.04018558
780295320.0 0.012388254 -0.0424143325 -0.0689897007 -0.7891608195 -0.0686000014 -0.7898788099 0.0133191822 -0.0411808449
785295290.0 0.0111106041 -0.0433171764 -0.0779123678 -0.7886348262 -0.077583241 -0.7887239978 0.0134928957 -0.0405803892
790295260.0 0.0112724087 -0.0420044805 -0.0856026125 -0.7880024836 -0.0848552787 -0.788410687 0.012623173 -0.0410967157
795295230.0 0.0104666136 -0.0426040494 -0.0944195403 -0.7872714209 -0.0940132793 -0.7870529118 0.0123911348 -0.0400990796
800295200.0 0.0092326543 -0.0423623098 -0.1039032686 -0.785925542 -0.1033151794 -0.7858012782 0.0115049029 -0.0406779883
805295170.0 0.0089324511 -0.0426255364 -0.1115550807 -0.7847779108 -0.1120115753 -0.7848117675 0.0108602628 -0.0406928392
810295140.0 0.007948197 -0.0430478287 -0.1202802688 -0.7832886025 -0.1210044588 -0.7834826803 0.010956238 -0.0402732792
815295110.0 0.0077160654 -0.0428736374 -0.1288257828 -0.7817780396 -0.1284991876 -0.7816817944 0.0096442266 -0.0402360132
820295080.0 0.0064013918 -0.0419443795 -0.1374802288 -0.7805387186 -0.1367943595 -0.7804099542 0.0094555669 -0.0404912484
825295050.0 0.0068547778 -0.0420336665 -0.1452738352 -0.7785242403 -0.1452557916 -0.77891422 0.0094502849 -0.0401011973
830295020.0 0.0057039607 -0.0419759228 -0.1540649574 -0.7766630675 -0.1538144266 -0.7767365713 0.0094438656 -0.0400925952
