!Created with skrf (http://scikit-rf.org).
# Hz S RI R 50.0 
!freq ReS11 ImS11 ReS21 ImS21 ReS12 ImS12 ReS22 ImS22
300000.0 -0.7727673416 -0.1726445669 -0.0005469101 0.0009958955 0.0003726237 0.0012794576 -0.2084885026 -0.1010054806
5299970.0 -0.7860018158 -0.0091074938 -1.9098e-05 -4.86611e-05 1.33374e-05 0.000212745 -0.2158806849 0.0062873352
10299940.0 -0.789317045 -0.0056840959 0.0001171752 0.0001138148 0.0001789746 -0.0001047208 -0.2122316157 0.0189247142
15299910.0 -0.7939259491 -0.0029606163 0.0001709959 -0.0001176877 0.0001658105 -0.0001357792 -0.2075416333 0.0279040263
20299880.0 -0.800976575 0.0009762009 -0.0001183083 5.6678e-06 -8.07586e-05 4.52567e-05 -0.2023790894 0.035663223
25299850.0 -0.8077628904 0.0071338423 -7.58774e-05 -0.0001709059 2.1036e-06 -0.0001946786 -0.1968508137 0.0421212053
30299820.0 -0.8136369919 0.0140989986 0.0001726431 -8.24934e-05 -7.45617e-05 -4.97861e-05 -0.1907287122 0.0465544841
35299790.0 -0.8186973279 0.023000814 -0.0001951734 9.98463e-05 -9.3825e-06 0.0001282485 -0.1853575173 0.0504232781
40299760.0 -0.823847669 0.031930672 -0.0001086682 -6.45124e-05 9.28447e-05 -5.31785e-05 -0.1797051 0.0530499943
45299730.0 -0.8264864602 0.0419608833 1.85178e-05 -9.98795e-05 -0.0001333415 -4.64593e-05 -0.1744636582 0.0555780995
50299700.0 -0.8291807977 0.0521235217 6.36519e-05 -5.5116e-05 -3.97187e-05 0.0003600743 -0.1693420397 0.0570846825
55299670.0 -0.8312985306 0.0614686775 6.15036e-05 -0.0001023913 2.73241e-05 -7.8989e-06 -0.1657271227 0.0580718177
60299640.0 -0.8321536274 0.0717420285 0.000150392 0.0001056659 0.0001453525 0.0001810388 -0.1612594577 0.0586283466
65299610.0 -0.8332134575 0.0820164434 -0.000378363 7.5844e-06 0.0001334131 0.0001140424 -0.1574206788 0.0591652676
70299580.0 -0.8342619828 0.0913190029 -9.84859e-05 -6.55417e-05 -0.0002254196 0.0001061052 -0.1546575243 0.0596382012
75299550.0 -0.8340991835 0.1017480859 0.0002401418 -0.0001790833 -7.363e-06 0.0001823825 -0.1512124542 0.0597229658
80299520.0 -0.8337976421 0.1123236799 -0.0002892693 0.0001464482 4.51957e-05 0.0001878512 -0.1488634878 0.0599805884
85299490.0 -0.8327573823 0.1211133529 7.85814e-05 0.0001950169 0.0002661314 0.0001686561 -0.1466163386 0.0597536814
90299460.0 -0.8326040442 0.1317102271 -2.06448e-05 -9.0157e-06 -0.000139074 9.55112e-05 -0.1441923912 0.0597284051
95299430.0 -0.8318328408 0.1404378132 5.56367e-05 -6.30899e-05 0.0001143758 -9.72743e-05 -0.1421536397 0.0601793819
100299400.0 -0.8302758546 0.1495733708 0.0004568879 0.0001869269 -0.0001676267 0.0001170698 -0.1401235491 0.0601759921
105299370.0 -0.8288237584 0.1593716976 0.0001096665 7.46253e-05 4.65366e-05 -4.10428e-05 -0.1384989876 0.0597029329
110299340.0 -0.8275286991 0.1684929871 1.03535e-05 -8.14111e-05 0.0002067442 0.000161863 -0.1374836035 0.0597889209
115299310.0 -0.8259683381 0.1777381358 5.20096e-05 -1.90331e-05 5.7853e-05 8.87859e-05 -0.1361584207 0.0596677699
120299280.0 -0.8244145207 0.18691206 -6.60934e-05 0.0001753474 0.0001314736 0.0001743628 -0.1349688655 0.059563352
125299250.0 -0.8222071925 0.1955109147 6.02863e-05 5.46754e-05 0.0001416255 -5.07852e-05 -0.1339037275 0.0600006373
130299220.0 -0.8209064339 0.2053328308 5.08947e-05 0.0001520621 0.0001349234 2.80617e-05 -0.1329234017 0.0599785397
135299190.0 -0.8186444364 0.2146477965 0.0001401525 -6.30657e-05 7.77078e-05 0.0001176958 -0.1316908687 0.0604219617
140299160.0 -0.8170749357 0.2232778778 6.68306e-05 -7.5191e-06 -8.21931e-05 0.0001887703 -0.1312298637 0.0605881527
145299130.0 -0.8147925848 0.2319908853 4.57817e-05 -3.8807e-06 5.43889e-05 0.0001489207 -0.1305247728 0.0612559758
150299100.0 -0.8116807097 0.2412522828 -0.0001246522 6.1432e-05 -2.09371e-05 5.41923e-05 -0.1298159527 0.0614036858
155299070.0 -0.8098880329 0.2500011618 7.10029e-05 3.896e-07 -1.46636e-05 5.30779e-05 -0.1288392447 0.0618905394
160299040.0 -0.8076615902 0.2593686807 -3.46449e-05 0.0002154445 -2.09219e-05 -1.48196e-05 -0.1285949562 0.0622770335
165299010.0 -0.8044753127 0.2672015367 -4.25178e-05 0.0001562184 -7.97587e-05 7.9518e-06 -0.1278259825 0.0625505896
170298980.0 -0.8024309341 0.2757994064 -2.48394e-05 0.0002566486 -3.24414e-05 2.38186e-05 -0.1275968198 0.0632845061
175298950.0 -0.7988001161 0.2844847605 0.000187886 -0.0001467332 0.0001567525 -8.11986e-05 -0.1267608881 0.0640692557
180298920.0 -0.7956688316 0.2933451616 0.0001650854 7.96068e-05 -3.09448e-05 0.0001636933 -0.1259976235 0.0642935035
185298890.0 -0.7928538246 0.3022528149 7.68728e-05 0.0001717474 9.94919e-05 7.76692e-05 -0.1256376939 0.0648841873
190298860.0 -0.7894926443 0.3112489234 8.08842e-05 4.90542e-05 0.0001274695 0.0002497244 -0.1251697007 0.0656588039
195298830.0 -0.7867507822 0.3190087767 1.70887e-05 0.0001592493 -2.3903e-06 0.0002876856 -0.1251243395 0.0662555601
200298800.0 -0.7831242574 0.3280401828 0.00013316 0.0001845117 0.0002329073 9.9517e-06 -0.1240744164 0.066703195
205298770.0 -0.7790401899 0.3365586458 -0.0001291379 -0.0001223822 -1.06075e-05 -1.35765e-05 -0.1237877814 0.0678653404
210298740.0 -0.7758839863 0.3446478386 9.92618e-05 -4.39853e-05 1.12882e-05 0.0001717703 -0.1233519621 0.0683382314
215298710.0 -0.771990455 0.3532299846 -6.6734e-06 0.0001170591 -7.14429e-05 -6.40143e-05 -0.1228457178 0.0689919901
220298680.0 -0.7687217797 0.3605653556 0.0001445212 8.40043e-05 -8.50517e-05 0.0001039201 -0.1222719282 0.0700588023
225298650.0 -0.7651082067 0.3688879673 5.66922e-05 -8.57184e-05 0.0001043708 3.06807e-05 -0.1220351618 0.070943878
230298620.0 -0.7612968943 0.3776255288 0.0002095773 4.36799e-05 -0.0001366519 -3.57469e-05 -0.121533756 0.0718388452
235298590.0 -0.7571642566 0.3858610444 -2.48058e-05 -2.19485e-05 -7.94446e-05 1.2349e-06 -0.1211893406 0.0727427863
240298560.0 -0.7527024816 0.3936946113 -0.0001216273 -0.0002246887 -0.0001558223 7.84598e-05 -0.1207280475 0.0734323832
245298530.0 -0.7486975376 0.4020718451 -0.0001476307 0.0001927412 -0.0001205801 1.6886e-05 -0.1201405349 0.0744819989
250298500.0 -0.7448153299 0.4089154854 9.05642e-05 8.26041e-05 7.4655e-05 0.0003706608 -0.1199023308 0.0756238934
255298470.0 -0.7408463217 0.4175821229 0.0002350457 0.0003048279 2.10532e-05 7.4162e-05 -0.1194128685 0.075898379
260298440.0 -0.7362981586 0.425259724 9.60439e-05 0.0001295918 0.0001444678 1.39047e-05 -0.1188316724 0.0772787074
265298410.0 -0.7318012846 0.4330883171 0.0002048396 9.4967e-05 0.0002073946 0.0001921874 -0.1177915681 0.0777905754
270298380.0 -0.7273465828 0.4405260914 9.40927e-05 0.0003277695 0.0002491191 -2.74183e-05 -0.117589306 0.0794744014
275298350.0 -0.72316338 0.4482439346 -0.0002108829 5.75373e-05 0.0002045345 -4.864e-07 -0.1168499656 0.0800839217
280298320.0 -0.7181807883 0.4555612014 0.0003948197 3.61815e-05 0.0001191701 1.18111e-05 -0.1166932877 0.0811953839
285298290.0 -0.7132255797 0.4630862451 0.0002299531 -2.15385e-05 6.63931e-05 1.8974e-06 -0.1162231287 0.0822890096
290298260.0 -0.7085014646 0.4709520748 2.00709e-05 5.83961e-05 0.0001128176 -2.2068e-06 -0.1156949177 0.0831705858
295298230.0 -0.703762137 0.4777866898 2.8456e-05 0.0003220655 6.82091e-05 -6.80816e-05 -0.1147681972 0.0842307756
300298200.0 -0.6993132741 0.4856486656 -6.93968e-05 0.000122543 -4.2871e-06 9.05056e-05 -0.1139146891 0.0852785936
305298170.0 -0.6941583478 0.4923358635 -1.41364e-05 -6.19019e-05 -5.71298e-05 4.39006e-05 -0.1133090067 0.0860798442
310298140.0 -0.6887564415 0.4995369812 -5.51664e-05 0.0001729718 2.52551e-05 -3.69965e-05 -0.1128609944 0.0871594467
315298110.0 -0.6842531549 0.5073104096 5.3188e-06 0.0001553483 0.0001104813 3.63267e-05 -0.1118879107 0.0880765488
320298080.0 -0.6788929715 0.5144951168 0.0002288566 -0.0001066645 0.0002029794 0.0001684681 -0.1114549802 0.0892896814
325298050.0 -0.6731106088 0.5207505767 0.0001107817 8.03292e-05 0.0002115271 0.0001096237 -0.1106598867 0.0898864918
330298020.0 -0.6681236341 0.5280411371 0.0002006271 0.0001270549 0.0001124341 0.0001548635 -0.1102460297 0.0909939355
335297990.0 -0.6628199777 0.5344263192 0.000211147 6.58901e-05 4.87791e-05 0.0001718897 -0.109782621 0.0920730951
340297960.0 -0.6576309189 0.5416189421 0.0001126207 -8.06755e-05 0.0001439158 0.0001676877 -0.1090342878 0.0932903344
345297930.0 -0.652070341 0.5484442211 0.0001573459 7.4305e-05 0.0001685912 -4.48385e-05 -0.1083185304 0.0941618845
350297900.0 -0.6462196502 0.5550031371 0.0001620636 0.0001397681 0.0002340124 2.9351e-06 -0.1079337526 0.0951371683
355297870.0 -0.6412616253 0.5610172757 4.375e-06 -0.0002106258 5.19277e-05 -6.16014e-05 -0.1071146786 0.0967353664
360297840.0 -0.6347290658 0.5686147408 0.0001862146 4.83011e-05 0.0002150563 0.0002916907 -0.1064681373 0.0973942035
365297810.0 -0.6293757894 0.5748626818 -9.2482e-05 0.0001304359 8.57713e-05 -7.97426e-05 -0.1060008337 0.0986986553
370297780.0 -0.6230665457 0.5805156176 -4.658e-07 -2.80208e-05 0.0001957638 0.0002053978 -0.1052053029 0.0999780488
375297750.0 -0.6180917793 0.587089283 0.0003494643 6.2878e-05 3.86234e-05 2.5492e-05 -0.1042345956 0.1006415384
380297720.0 -0.6119277909 0.59362037 1.86975e-05 9.90634e-05 0.0001322612 7.98819e-05 -0.1033688076 0.1021079
385297690.0 -0.6055240432 0.5997796152 0.0001718354 0.000208647 0.0001727084 0.0001113399 -0.1029165932 0.1032213656
390297660.0 -0.5986228268 0.605344081 0.0002729719 0.0001703998 2.4747e-05 9.09613e-05 -0.1018155519 0.1040548206
395297630.0 -0.5927866061 0.6119087256 1.64647e-05 0.0001643984 0.0001469461 0.0002623384 -0.1009523846 0.1049073925
400297600.0 -0.5863263098 0.6180701352 3.55195e-05 0.0004396353 0.0002918813 0.0002392115 -0.1003495766 0.1061563686
405297570.0 -0.5806768644 0.6237252435 3.46025e-05 7.00013e-05 0.0001530268 -1.2152e-06 -0.0992627873 0.1071668301
410297540.0 -0.5735661712 0.6299810072 4.03587e-05 0.0001091587 0.000175131 -6.61114e-05 -0.0987039852 0.1083700378
415297510.0 -0.5675547649 0.6355550348 6.95758e-05 0.00016485 -2.63989e-05 -5.99785e-05 -0.0976062522 0.1094121694
420297480.0 -0.560549522 0.6407605239 6.79739e-05 8.67899e-05 0.0001771881 5.14614e-05 -0.0965950675 0.110584366
425297450.0 -0.5542093797 0.646643551 0.0002536495 4.73551e-05 0.0002553192 3.277e-07 -0.0958802079 0.1114784488
430297420.0 -0.5474740879 0.6516637574 -4.70102e-05 0.0001710161 0.000280094 0.0002250753 -0.0948321461 0.1124845248
435297390.0 -0.5407897421 0.6575453092 2.27929e-05 -0.0001559252 0.0001611011 7.32152e-05 -0.0940533407 0.1140289998
440297360.0 -0.5338876642 0.663098101 3.53504e-05 6.34633e-05 0.0001561036 0.0002175167 -0.0931628071 0.1148720119
445297330.0 -0.5276075729 0.668522959 0.0003283699 6.18036e-05 2.1438e-05 7.38944e-05 -0.0919315108 0.1156856884
450297300.0 -0.5198314945 0.6737675952 0.0001780592 0.000198631 0.0003273942 2.89134e-05 -0.0908705526 0.11667191
455297270.0 -0.5134773594 0.6784081765 0.0001521115 7.8982e-06 -4.56441e-05 -4.12838e-05 -0.0900091374 0.1175843967
460297240.0 -0.5059109574 0.6845154412 0.0002707652 0.0001151515 0.0002905079 2.40259e-05 -0.0890846735 0.1187044406
465297210.0 -0.4991034827 0.6887028037 0.0002254239 5.76619e-05 0.0001305132 8.80992e-05 -0.0880334013 0.1199085949
470297180.0 -0.4916579752 0.6942240866 0.0003145651 9.22293e-05 6.79806e-05 -6.6204e-06 -0.0868634998 0.1206140384
475297150.0 -0.484762905 0.6992165947 9.46122e-05 9.43938e-05 0.0002109097 0.0001990314 -0.085753593 0.1218842492
480297120.0 -0.4767707249 0.7039555431 0.0001871561 5.0852e-06 0.0003388853 0.0001701227 -0.0850587336 0.1232030871
485297090.0 -0.4705228718 0.7084779593 0.0001564999 0.000127867 0.000197866 7.44012e-05 -0.0840534531 0.1238885656
490297060.0 -0.4619351844 0.7141382296 0.0001962754 9.24046e-05 0.000194946 2.5583e-06 -0.0827379625 0.1245044398
495297030.0 -0.4546834679 0.7180424285 0.0002174718 0.0002330468 8.48636e-05 6.87847e-05 -0.0815785192 0.1252363081
500297000.0 -0.4474456091 0.7224275638 0.0001630964 7.89037e-05 0.0001986673 -0.000127785 -0.0807397968 0.1264343156
505296970.0 -0.4387912528 0.72693033 0.0001715176 9.619e-05 0.0001249001 0.0001299807 -0.0793756576 0.1271581124
510296940.0 -0.4314807214 0.7313241482 0.0001768436 4.61726e-05 0.0001818256 -2.72055e-05 -0.0782436417 0.1285852627
515296910.0 -0.4237876403 0.7358866917 0.000249486 -3.06209e-05 0.0002792388 9.32622e-05 -0.0775048962 0.1291278222
520296880.0 -0.4157027777 0.7396109486 0.0002812116 -0.0001183508 0.0001347402 0.0001231312 -0.0756532081 0.1301861985
525296850.0 -0.408450222 0.7441783563 0.0002491822 -6.2798e-05 0.0002341113 0.000207461 -0.0750041727 0.1312250529
530296820.0 -0.4009764813 0.7480417331 0.0002594584 0.0002315189 0.0001635326 9.0984e-05 -0.0736698249 0.1316245881
535296790.0 -0.3925550885 0.7518133509 0.0002603858 1.25903e-05 4.81319e-05 0.0002080975 -0.0723389058 0.132899765
540296760.0 -0.38458999 0.7561553826 0.0003187799 0.0002139331 0.0001563626 4.52176e-05 -0.071568803 0.1338402603
545296730.0 -0.377100629 0.7601764683 8.83015e-05 0.0001145161 0.0002261379 -9.18701e-05 -0.0700223809 0.1343680576
550296700.0 -0.3688558063 0.7637138973 0.000150315 4.07314e-05 0.0002655915 -9.92993e-05 -0.0689746613 0.1351592297
555296670.0 -0.3610126039 0.7676819189 0.0001167566 0.0001250916 0.000486337 -2.06416e-05 -0.0677788876 0.1360071222
560296640.0 -0.3529378874 0.7706712055 0.0001449083 3.9144e-06 8.95475e-05 9.9518e-05 -0.0666690029 0.1368736636
565296610.0 -0.3456111144 0.7741204203 7.41561e-05 -5.12617e-05 5.95594e-05 -8.64992e-05 -0.0653783282 0.1377160936
570296580.0 -0.3367672922 0.7780586976 0.0002194296 0.0001296777 7.619e-06 0.0001857729 -0.0640095457 0.138440312
575296550.0 -0.3281027114 0.781296976 6.03607e-05 0.0003142794 0.0001531117 0.0001643036 -0.0627692039 0.1391581251
580296520.0 -0.3213722912 0.7850022537 0.0003145961 -0.000109092 2.22603e-05 -8.67398e-05 -0.0616808453 0.1399937453
585296490.0 -0.312808707 0.7871599767 0.0002623811 2.2572e-05 0.0002616048 0.0001104731 -0.0598986573 0.1410398832
590296460.0 -0.3033827628 0.7909542996 0.0002641653 -4.69343e-05 0.0004219284 7.44959e-05 -0.0587585258 0.1416695492
595296430.0 -0.2960451788 0.7933904595 0.0002160814 0.0001495671 0.0002494861 3.8097e-05 -0.0579277341 0.1421308084
600296400.0 -0.2881757511 0.7966177501 0.0003670727 0.0002526238 0.0002161931 0.0001023084 -0.0564292733 0.1432066773
605296370.0 -0.2795309002 0.7993672793 0.0001186777 6.41649e-05 0.0001466368 9.24085e-05 -0.0550065788 0.1436614569
610296340.0 -0.2711490068 0.8030878922 0.0005117397 9.5294e-05 0.0001941955 1.34877e-05 -0.0538402246 0.1447078376
615296310.0 -0.2628139248 0.8055779754 0.0002424221 1.3703e-05 0.0003075989 1.7322e-06 -0.0523546105 0.1453346197
620296280.0 -0.2551177062 0.8082295601 0.0002198249 -3.6814e-06 0.0002419175 1.58638e-05 -0.0513409927 0.1462256569
625296250.0 -0.2472063821 0.8102415764 0.0002156104 -0.0002763624 0.0003952136 -2.3923e-06 -0.0501706106 0.1466309173
630296220.0 -0.2383361353 0.813123242 0.0002023387 7.41422e-05 0.0002672727 -8.56932e-05 -0.0484552495 0.1472230944
635296190.0 -0.230099746 0.815069903 0.0003606771 3.5325e-05 0.0001523022 -9.59771e-05 -0.0471661908 0.1479253418
640296160.0 -0.2217647182 0.8177198823 0.0001403592 -8.72815e-05 5.45305e-05 -0.000134703 -0.045639951 0.1488422487
645296130.0 -0.2135445092 0.8205044235 0.0001632442 0.0001238184 0.0003437281 0.0001516625 -0.0446757544 0.1490957241
650296100.0 -0.2049151192 0.8222002192 8.7519e-05 0.0001131977 0.0001322337 1.55593e-05 -0.0430820035 0.1498199295
655296070.0 -0.1974534925 0.8247494839 0.0002682519 0.0001171247 0.000309033 6.12279e-05 -0.0420504472 0.150602602
660296040.0 -0.1888582025 0.8267182987 0.00029115 0.0001384746 0.0002609085 8.53351e-05 -0.0401582537 0.150878286
665296010.0 -0.1806573561 0.8285628819 0.000130885 0.0001767931 0.0003224163 -2.91601e-05 -0.038754544 0.1514850519
670295980.0 -0.1727493324 0.8307050415 0.0001819138 -0.0001942186 0.0002474145 -0.0001204624 -0.0375364921 0.1520704066
675295950.0 -0.1635088001 0.8320357335 0.0004143018 -2.9498e-05 0.0001576439 8.1717e-06 -0.0362227213 0.1525850522
680295920.0 -0.1562870078 0.8340483945 0.0002712549 -0.0001563899 0.0003862658 0.000196672 -0.0347928444 0.1532558925
685295890.0 -0.1475000361 0.8357139864 0.0001778088 -8.29997e-05 0.0002563998 8.13397e-05 -0.0334173318 0.1538686098
690295860.0 -0.1394670691 0.8373350146 0.0001563065 9.66146e-05 0.0002610861 -0.0001776727 -0.0318172554 0.1544239916
695295830.0 -0.1309705466 0.8383441773 0.0001415731 -5.66133e-05 0.0003581196 0.0001397371 -0.0305669276 0.1549306584
700295800.0 -0.1225964293 0.8397914227 0.000445764 -0.0001412589 0.0001958559 -3.82378e-05 -0.0286357906 0.1550905259
705295770.0 -0.114178891 0.8413652237 0.000218647 2.84452e-05 0.0001225991 0.0001398713 -0.0272110056 0.155780112
710295740.0 -0.1066438887 0.84213723 0.0002975495 5.45504e-05 0.0002186485 -6.60603e-05 -0.025930076 0.1562865041
715295710.0 -0.097499358 0.8433093542 -6.04823e-05 5.6299e-06 0.0002093227 0.0001051149 -0.0243595132 0.1565301025
720295680.0 -0.088776471 0.844260311 0.0005721509 -0.0001140412 0.0003522378 -1.95548e-05 -0.0231856696 0.1570834409
725295650.0 -0.0811141328 0.8460694896 -1.93699e-05 -4.43835e-05 0.0003536666 -6.07395e-05 -0.0219311585 0.1576887298
730295620.0 -0.0731948497 0.8466999263 5.1366e-06 0.0002236744 0.0003550512 -0.0002074514 -0.0202334236 0.1582561368
735295590.0 -0.0651073671 0.847401075 0.0001809058 -5.9742e-06 0.0001404664 3.58408e-05 -0.0187448749 0.1581961969
740295560.0 -0.0576644185 0.8474938704 0.0002865266 -6.8984e-05 0.0002335103 2.96316e-05 -0.0172084123 0.1585638824
745295530.0 -0.0488362078 0.8490012081 0.000194406 7.94936e-05 0.0001564443 -0.0002101533 -0.0158459329 0.1593035658
750295500.0 -0.0406538429 0.8493362043 8.51558e-05 0.0001928814 0.0003027507 -6.57165e-05 -0.0143875801 0.1596606936
755295470.0 -0.0321946766 0.8499144877 0.0004399489 0.0001630567 0.000305911 -0.0001597616 -0.0126906078 0.1601114257
760295440.0 -0.0241228271 0.8505106701 0.0001852019 -0.0002400145 0.0002560617 -4.69843e-05 -0.0110265891 0.1597594163
765295410.0 -0.0155987424 0.8501585737 0.0005761564 6.66887e-05 0.0005198824 -5.77522e-05 -0.0096555553 0.1602200512
770295380.0 -0.0083498849 0.8509356787 0.0002902599 -8.38547e-05 0.0001288914 -0.0001470883 -0.0082311897 0.1603682448
775295350.0 0.0002142883 0.8513648059 0.0002414307 2.10182e-05 0.0002750548 -0.0002275372 -0.0065606769 0.161128585
780295320.0 0.0092613351 0.8513031135 0.0003231046 2.2627e-06 0.0002184226 -2.65498e-05 -0.0053187336 0.1610648332
785295290.0 0.0174034222 0.8507372953 0.0002063813 -7.88714e-05 0.0002180612 9.87394e-05 -0.0036746408 0.1617211274
790295260.0 0.0250480443 0.850908639 0.0002387737 -0.0001208804 0.0003933666 -0.0003072638 -0.0020975262 0.1618632611
795295230.0 0.0331404661 0.850388723 0.0004297471 -0.0001452831 0.0002774654 -8.6212e-06 -0.0007864417 0.1619262099
800295200.0 0.0414076879 0.8508664397 0.0002409931 3.45786e-05 0.0002214625 -9.3741e-05 0.00072602 0.1619134406
805295170.0 0.0493893145 0.8505582383 0.0003867727 -9.8213e-05 0.0003155974 6.2195e-06 0.0024590677 0.1620232429
810295140.0 0.0576820031 0.8502869135 0.0002674037 0.000115989 0.0003837592 -5.77359e-05 0.0041516373 0.1625242773
815295110.0 0.0653459212 0.8495313873 0.0003340327 -2.30615e-05 0.0003111357 3.81749e-05 0.0054076487 0.162644438
820295080.0 0.073843839 0.8487562434 0.0004501321 -1.35651e-05 0.0004479588 0.0001305589 0.0065368255 0.1630579137
825295050.0 0.081752379 0.8480650147 0.0001720298 -3.98132e-05 0.0002401333 5.43086e-05 0.0085593452 0.1628825517
830295020.0 0.0909937698 0.8471138534 0.0004813787 4.90069e-05 0.0002383247 -0.0001166426 0.0101762179 0.1629301674
835294990.0 0.0987063104 0.8468852849 0.0003376064 -0.0001401685 0.0002698525 -0.0001112463 0.011561329 0.1634294003
840294960.0 0.1067999248 0.8451533937 0.000550038 -5.6978e-05 0.0002089628 -0.0002341078 0.013470751 0.1631249334
845294930.0 0.1146753055 0.844023282 -3.59831e-05 7.75044e-05 0.0001221191 -9.25367e-05 0.0146376088 0.1634473414
850294900.0 0.1240860123 0.8427075761 0.0002732544 7.02081e-05 0.0001370142 5.35228e-05 0.0163165305 0.1635921603
