!Created with skrf (http://scikit-rf.org).
# Hz S RI R 50.0 
!freq ReS11 ImS11 ReS21 ImS21 ReS12 ImS12 ReS22 ImS22
300000.0 0.8602981445 -0.0011452522 -0.0002492246 0.0003321998 0.0003912429 -0.0003080459 -0.7647060411 -0.1989904069
5299970.0 0.8595881081 -0.0109703603 0.0001966482 -8.85094e-05 -2.29987e-05 -4.97293e-05 -0.7848550705 -0.0094102782
10299940.0 0.8585320286 -0.0189357913 8.06187e-05 0.0002347478 3.14382e-05 5.27994e-05 -0.7877514045 -0.00544541
15299910.0 0.8577690838 -0.0271319694 9.82791e-05 -9.30384e-05 -7.19267e-05 3.73761e-05 -0.7925753342 -0.0028145595
20299880.0 0.857017196 -0.0351595904 -0.0001300944 8.39246e-05 3.20863e-05 7.1894e-05 -0.7997883385 0.0018285182
25299850.0 0.8562921534 -0.0439724619 -3.75276e-05 -4.36576e-05 -0.0001259631 -7.04974e-05 -0.8059083297 0.0079364026
30299820.0 0.8557089989 -0.0521328301 8.31199e-05 -0.0002692489 -0.0001024086 0.0001294249 -0.8122890037 0.01578491
35299790.0 0.8550648501 -0.0604002119 -0.0001140179 -2.5678e-06 -8.7813e-06 -0.000166843 -0.8169204576 0.0247271697
40299760.0 0.8545103304 -0.0678653374 -0.0001152454 0.0002154575 -0.0001728427 -0.0002523309 -0.821206085 0.0340690681
45299730.0 0.8533645045 -0.07660625 -9.97255e-05 -9.7817e-05 -0.0001070731 8.21572e-05 -0.8241756105 0.0432528041
50299700.0 0.8525593207 -0.0844296698 -3.06637e-05 3.7771e-05 -0.0001420733 -4.64807e-05 -0.8267527 0.0539876809
55299670.0 0.8517842186 -0.0927259807 0.0001226546 -2.62536e-05 8.13575e-05 -1.2186e-05 -0.8283738867 0.0639909495
60299640.0 0.8510366414 -0.1009422718 0.0004171501 2.81331e-05 5.48478e-05 5.71371e-05 -0.8299500386 0.0741457055
65299610.0 0.8499390802 -0.1088865467 0.0001294125 -0.000214068 9.07737e-05 -5.77874e-05 -0.8302544561 0.084054804
70299580.0 0.8488826789 -0.1173473285 -4.13982e-05 -0.0001668466 7.16321e-05 -0.0001348052 -0.831480478 0.0933969326
75299550.0 0.8475077049 -0.1258145824 -0.0001499591 -5.48549e-05 1.31401e-05 -8.0243e-06 -0.8306030168 0.1040609011
80299520.0 0.8459862346 -0.1337233867 -8.62457e-05 -1.12232e-05 3.4991e-06 2.76879e-05 -0.8308721875 0.1137297032
85299490.0 0.8450155832 -0.1418422705 0.0001670619 0.0001894452 -8.434e-05 -0.0001643698 -0.8300214634 0.1231435981
90299460.0 0.8436467004 -0.150346144 0.0001323289 -0.0003225225 0.0001813982 -7.02827e-05 -0.8290658818 0.1327714097
95299430.0 0.8419178612 -0.1579729494 -0.0001021484 -4.12142e-05 0.0001892872 9.9288e-06 -0.8284047868 0.1426885089
100299400.0 0.8404281085 -0.1663638113 -9.54455e-05 -0.0001294321 1.50694e-05 6.64688e-05 -0.8272447831 0.1515338889
105299370.0 0.8391494821 -0.1741030662 -1.98353e-05 -2.9427e-05 -8.18685e-05 -0.0001131352 -0.8258206934 0.1604773552
110299340.0 0.8376844249 -0.1828926829 -3.22406e-05 1.92101e-05 -0.0003105062 3.93049e-05 -0.8247859046 0.169681874
115299310.0 0.8356310986 -0.1907280505 -8.11588e-05 2.93238e-05 6.54333e-05 0.0001260749 -0.8234139789 0.179194259
120299280.0 0.8336351443 -0.1983429777 -6.93864e-05 0.0002422412 -6.83377e-05 5.98734e-05 -0.8210933335 0.1882191057
125299250.0 0.8316112277 -0.2067817864 0.0001455862 -0.000102716 3.60284e-05 -5.13224e-05 -0.8201619217 0.1973982282
130299220.0 0.8299366936 -0.2142843355 -0.0001129112 4.48745e-05 -9.60412e-05 -1.70351e-05 -0.8173331876 0.2057830875
135299190.0 0.8281151653 -0.2231107513 -2.1634e-06 4.19022e-05 -1.30724e-05 -5.41248e-05 -0.8158833758 0.2153136947
140299160.0 0.8259649132 -0.2296752462 -9.23542e-05 -5.5534e-06 1.85869e-05 5.1647e-05 -0.8140920036 0.2233193388
145299130.0 0.8232373123 -0.2380509233 -9.31837e-05 -1.14117e-05 1.58636e-05 2.12517e-05 -0.8116445002 0.2323062807
150299100.0 0.8207201106 -0.2459531516 -8.55628e-05 3.41658e-05 0.0001002225 -0.000259232 -0.8094053114 0.2415832048
155299070.0 0.8188274815 -0.2540612545 -0.0002461395 2.87755e-05 2.89811e-05 -5.84098e-05 -0.8072796831 0.2508713651
160299040.0 0.8155176859 -0.2619486107 1.45499e-05 -1.8981e-06 3.26304e-05 3.64695e-05 -0.804689874 0.2590240411
165299010.0 0.8135939958 -0.2694139265 -0.0001380962 5.94396e-05 0.0002147765 -8.86458e-05 -0.8017773168 0.267254322
170298980.0 0.811109388 -0.2774774659 0.000202886 -4.66252e-05 0.0001339297 1.67656e-05 -0.8000480481 0.2754747128
175298950.0 0.8086295565 -0.2853010859 -0.0001320123 -0.0001630878 4.59523e-05 -4.07476e-05 -0.7966868846 0.2848601253
180298920.0 0.8056764389 -0.2928075167 -9.96065e-05 -0.0001314434 2.29442e-05 4.34722e-05 -0.7934539273 0.2933752888
185298890.0 0.8026140009 -0.3006476399 0.0001899867 -2.34331e-05 -0.0001033463 0.0001611794 -0.7904312405 0.3010894814
190298860.0 0.7996318607 -0.3089426378 3.27515e-05 6.00927e-05 3.4683e-06 -1.55321e-05 -0.7874567484 0.309681621
195298830.0 0.796963032 -0.3155926712 0.000105246 0.0003196462 9.84237e-05 5.13615e-05 -0.783957972 0.3181135731
200298800.0 0.7940471216 -0.3238293574 -0.0001096455 0.0002019344 -0.0002531152 0.0001121847 -0.7812634672 0.3268002528
205298770.0 0.7902394372 -0.3318188241 6.09467e-05 -6.6469e-06 9.68902e-05 -0.0001964263 -0.7778500801 0.3351142168
210298740.0 0.7883312667 -0.3386442526 -0.0001808578 -8.73341e-05 0.0001269496 -6.43295e-05 -0.7742745384 0.3434058509
215298710.0 0.78462794 -0.3465341591 0.0002289769 6.47399e-05 -5.31208e-05 2.51913e-05 -0.7706144178 0.3517430089
220298680.0 0.7813914801 -0.3537887567 -3.70179e-05 -0.0001575716 -0.0002034326 -5.68624e-05 -0.7671294683 0.3593751978
225298650.0 0.7769453641 -0.3617216362 -8.65466e-05 4.41445e-05 -0.0001428402 -0.0001218862 -0.7631676429 0.3681974167
230298620.0 0.7734600669 -0.3690428292 0.000102603 -0.0002495131 0.0001703708 -0.0001496582 -0.7587377475 0.375300416
235298590.0 0.7699445663 -0.376576834 0.0001064132 6.37004e-05 7.88116e-05 0.0001061531 -0.7550226816 0.3835544913
240298560.0 0.7661256442 -0.3833741285 -3.21655e-05 1.5702e-05 -3.99949e-05 3.22966e-05 -0.7513605691 0.3905943642
245298530.0 0.7627655837 -0.3907279309 7.11521e-05 -0.0001673087 0.0001704855 -2.26904e-05 -0.74724799 0.3990473925
250298500.0 0.7586030335 -0.397668894 -2.19305e-05 1.87987e-05 -0.0001871682 -0.0001284365 -0.7427795192 0.4071007591
255298470.0 0.7554525756 -0.4052258293 -0.0002619824 8.42141e-05 -3.61244e-05 0.0001888531 -0.7387129382 0.4145693732
260298440.0 0.7510515349 -0.4125876558 4.57975e-05 3.32392e-05 0.000135906 -2.99189e-05 -0.7342075952 0.4219962294
265298410.0 0.7469775127 -0.4197739215 -0.0001016701 -0.0001331866 6.05653e-05 -3.85754e-05 -0.729802519 0.4298575929
270298380.0 0.7437205808 -0.4263850098 0.0001276632 -4.26955e-05 -5.21596e-05 1.75117e-05 -0.724864264 0.4382018105
275298350.0 0.7386561052 -0.4335799988 -3.79325e-05 -0.0001794199 -7.99019e-05 0.0001741312 -0.7203526441 0.4453686475
280298320.0 0.734866052 -0.4411784215 -6.21822e-05 0.0002227133 -5.373e-07 -0.0001091106 -0.7159340331 0.4527934842
285298290.0 0.7308945433 -0.448550442 0.0001488003 -8.9171e-05 -4.13875e-05 0.0001811018 -0.7118760852 0.4605977293
290298260.0 0.7256381179 -0.4552381888 -3.58368e-05 -0.0002367811 -8.94511e-05 0.000197616 -0.7061904809 0.4678420617
295298230.0 0.7221721728 -0.4621605734 9.9871e-05 -4.4743e-05 -0.0001356197 0.0001035419 -0.7014012527 0.4749342421
300298200.0 0.7176834653 -0.4694462245 -9.86008e-05 -7.60843e-05 2.28932e-05 -6.10987e-05 -0.6967055621 0.4818099078
305298170.0 0.7136395593 -0.4772502811 5.69548e-05 -0.0001571771 7.7812e-05 -0.0001042511 -0.6913413361 0.489461836
310298140.0 0.7084914633 -0.4847247174 3.7766e-05 -3.20888e-05 -2.62114e-05 -4.55443e-05 -0.686255592 0.4969060099
315298110.0 0.7034901475 -0.4921598666 -7.0886e-05 0.0001530886 7.00304e-05 -3.38143e-05 -0.6817679506 0.5035740147
320298080.0 0.6982205244 -0.4993060416 4.07751e-05 -6.027e-06 0.0001761853 -1.2052e-06 -0.6765149885 0.5105732311
325298050.0 0.6921222407 -0.5069821117 2.1833e-06 -0.0001129168 8.038e-05 0.0002967476 -0.6699713918 0.5175268623
330298020.0 0.6866875465 -0.5131451383 0.0002028192 -3.88543e-05 0.0001459499 -5.76259e-05 -0.6650625385 0.524221922
335297990.0 0.6809799336 -0.5194486632 -8.02594e-05 5.41567e-05 -0.0001297183 -0.000105951 -0.659458723 0.5318885528
340297960.0 0.6754933563 -0.5258773038 -3.84245e-05 -1.76813e-05 8.59242e-05 -1.30953e-05 -0.6541029085 0.5382212209
345297930.0 0.6704292642 -0.5318366262 -4.567e-06 4.08613e-05 8.78652e-05 6.05756e-05 -0.6486832179 0.5452126828
350297900.0 0.6650957376 -0.5381876035 -0.0001672983 -0.0001297368 6.32525e-05 -5.2836e-05 -0.6433246122 0.5511757767
355297870.0 0.6600992547 -0.5446117162 0.0001502601 -7.2084e-06 0.0001872924 -7.36334e-05 -0.6366919603 0.5586548594
360297840.0 0.6542066035 -0.5500116426 5.04049e-05 1.31489e-05 -1.892e-05 6.2616e-05 -0.630847701 0.5649419611
365297810.0 0.6483662773 -0.556467188 8.12357e-05 3.47391e-05 3.99283e-05 0.0001354078 -0.6256563888 0.5705129555
370297780.0 0.6430560402 -0.5624867469 3.41171e-05 3.08138e-05 -0.0001000431 2.51642e-05 -0.6196345856 0.578073208
375297750.0 0.6376908694 -0.5690485247 -2.97766e-05 -2.46192e-05 1.91728e-05 -3.8604e-05 -0.6134229461 0.5839681273
380297720.0 0.6315217212 -0.5744110603 -7.19949e-05 2.5461e-05 -0.0001024212 -0.0001436702 -0.6069893459 0.5906239602
385297690.0 0.6260664512 -0.5807155328 4.51298e-05 2.31381e-05 0.0001086418 0.0001158415 -0.6017882226 0.5962820841
390297660.0 0.6209354846 -0.5869418911 -4.36803e-05 -9.04446e-05 0.0002756919 1.53917e-05 -0.5947749183 0.60201467
395297630.0 0.6151768331 -0.59207785 -2.4469e-06 5.1964e-05 -4.94761e-05 -4.5499e-06 -0.5879397375 0.6077488434
400297600.0 0.6086859269 -0.5985134153 6.49402e-05 -4.61305e-05 0.0001053299 -9.61679e-05 -0.5825798504 0.6139353145
405297570.0 0.6035689724 -0.6047297475 -4.12321e-05 0.0001002079 5.85128e-05 4.1603e-06 -0.5749991716 0.6199490792
410297540.0 0.5982162154 -0.6093404967 2.52308e-05 -0.0001077805 -0.0001139291 8.96512e-05 -0.5693987028 0.6258030784
415297510.0 0.5912758029 -0.6155898658 0.000247515 0.0001563313 8.31026e-05 0.000174862 -0.5629383873 0.6313412801
420297480.0 0.5858600351 -0.6217508506 8.1012e-06 6.73465e-05 2.39553e-05 7.5451e-06 -0.5563157051 0.6384091021
425297450.0 0.5793249371 -0.6269467285 6.34604e-05 1.92451e-05 0.000222275 -7.90522e-05 -0.5497973694 0.642885318
430297420.0 0.5727478904 -0.6326208708 3.35149e-05 -6.25306e-05 0.0001635301 4.29127e-05 -0.5430476904 0.6483629848
435297390.0 0.5675657499 -0.6383083846 0.0001115837 0.0001189797 -4.36303e-05 -0.0001884857 -0.5367766479 0.6542675144
440297360.0 0.5606942649 -0.6440390282 -3.79537e-05 6.65486e-05 0.0001460033 5.06704e-05 -0.5298507721 0.6596668245
445297330.0 0.5553932981 -0.6491402059 0.0001237905 -0.0001335173 2.3228e-05 0.0001304558 -0.5230375475 0.664767392
450297300.0 0.5490646042 -0.6545496691 2.07871e-05 -7.0731e-06 -0.0001783993 7.14593e-05 -0.5160385818 0.6701584576
455297270.0 0.5420791499 -0.6600233741 -2.54584e-05 5.76362e-05 -0.0001969202 5.30335e-05 -0.5089465917 0.6751725296
460297240.0 0.53583008 -0.6646386317 9.28466e-05 -7.98238e-05 0.000192859 -0.0001693822 -0.5021474817 0.6798674356
465297210.0 0.5297939834 -0.6697020736 -1.62684e-05 0.0001184708 5.65305e-05 -3.7228e-06 -0.4954521234 0.6860365892
470297180.0 0.522948555 -0.6751610448 -6.6053e-06 -9.88872e-05 0.0001013139 -0.0001207007 -0.4882025866 0.6900083772
475297150.0 0.515667286 -0.6801514239 -8.56605e-05 -9.83649e-05 -2.7275e-05 -2.79074e-05 -0.4814980253 0.6951212786
480297120.0 0.5100862633 -0.6858088384 8.83801e-05 0.0001159573 -1.31263e-05 -0.0001441739 -0.4747681122 0.7001593612
485297090.0 0.5028384568 -0.6900138586 9.78512e-05 -0.0001614119 -6.21955e-05 0.0002146296 -0.4667722452 0.705314868
490297060.0 0.497490915 -0.6944866622 7.8748e-06 0.0001890849 8.49412e-05 8.32929e-05 -0.4595002434 0.7088014334
495297030.0 0.4893591413 -0.6988817705 -4.88522e-05 -1.90793e-05 6.15078e-05 2.95188e-05 -0.4523154861 0.7133995287
500297000.0 0.4827310666 -0.7041333202 4.89207e-05 0.0002707132 -0.0001016726 1.15738e-05 -0.4454457012 0.7184680958
505296970.0 0.4760849958 -0.7089828397 0.0002022157 -8.67402e-05 -6.66104e-05 6.19091e-05 -0.4376048246 0.7226771055
510296940.0 0.4690870272 -0.7131951297 0.0001551029 -0.0001620484 0.0001979152 -4.03189e-05 -0.4298091277 0.7277917508
515296910.0 0.4622994524 -0.7181506599 0.0001279754 -5.46148e-05 9.237e-06 -0.0001945701 -0.4235171595 0.7307869523
520296880.0 0.4563680019 -0.7220749637 -4.7481e-05 -2.01233e-05 8.83629e-05 0.0001092327 -0.4156526247 0.73619611
525296850.0 0.4491758495 -0.7271087525 -2.221e-07 0.0001551299 -7.30201e-05 0.0001799224 -0.4080769055 0.7399583131
530296820.0 0.441884072 -0.7314143308 4.14793e-05 8.9217e-06 6.50923e-05 4.3913e-05 -0.4007188603 0.7438167698
535296790.0 0.4348766767 -0.7352742283 -2.49189e-05 2.2584e-05 3.71966e-05 6.8938e-06 -0.3935931394 0.7476967006
540296760.0 0.4282940522 -0.7397385588 2.99268e-05 0.0001391265 -1.50584e-05 0.0001156363 -0.3848413782 0.7514422285
545296730.0 0.4201705208 -0.7441757131 8.28078e-05 8.47294e-05 4.0108e-05 5.20567e-05 -0.3779665435 0.755465902
550296700.0 0.413174453 -0.7472273467 0.0001279006 -8.42123e-05 -4.76467e-05 -6.05849e-05 -0.3698147554 0.7596303495
555296670.0 0.4057371314 -0.7515130753 0.000205683 1.71244e-05 6.33672e-05 -0.0001957697 -0.3625991492 0.7623952836
560296640.0 0.3989605468 -0.754544266 -0.0004078216 -4.74772e-05 -9.07107e-05 0.0001146524 -0.3549743703 0.7665391417
565296610.0 0.3914093046 -0.7595557497 6.43365e-05 0.0001037715 8.10751e-05 -1.25496e-05 -0.3466619928 0.7699567816
570296580.0 0.3841078009 -0.7623183263 1.05417e-05 6.77103e-05 -8.16312e-05 5.67635e-05 -0.3389925152 0.7728359944
575296550.0 0.3765811879 -0.7665025542 4.27152e-05 -4.6948e-05 5.88296e-05 0.0001333187 -0.3311111298 0.7762778463
580296520.0 0.369417202 -0.7698654839 0.000142777 -3.52337e-05 8.59534e-05 -1.17133e-05 -0.3239419018 0.7795744341
585296490.0 0.3614906704 -0.7727134533 -8.30796e-05 2.40597e-05 1.48445e-05 0.0001045515 -0.3155528483 0.783519312
590296460.0 0.3538512694 -0.7754719347 3.53033e-05 0.0001735808 -0.0001708179 4.22447e-05 -0.3074499113 0.7859054409
595296430.0 0.3466411605 -0.7796299305 -9.38574e-05 0.0001173991 2.15502e-05 -0.0001255917 -0.3000191553 0.7897339059
600296400.0 0.3389963213 -0.7832696192 -3.60833e-05 -3.9034e-05 2.46798e-05 8.35554e-05 -0.2914417943 0.7920881688
605296370.0 0.3305543317 -0.7862030346 0.000158288 8.6104e-05 -4.0236e-06 5.29247e-05 -0.2836086121 0.7951504642
610296340.0 0.323146459 -0.7892256162 -0.0001655244 -1.36256e-05 0.0001082576 -0.0001805906 -0.2758567081 0.7980818444
615296310.0 0.3160024485 -0.7920946637 0.0001969616 0.0001162623 -0.0001412538 9.99749e-05 -0.2674149582 0.8005411209
620296280.0 0.3079331141 -0.7947756475 4.7183e-06 3.54969e-05 3.04178e-05 0.0001590322 -0.2597164518 0.8034037062
625296250.0 0.299506231 -0.798074044 -4.3793e-06 7.52318e-05 7.3241e-05 -2.22225e-05 -0.2513956275 0.8049043726
630296220.0 0.2917337139 -0.8007410856 -0.0001463354 -0.0002687278 0.000273453 -0.0001529704 -0.2432510395 0.8082368543
635296190.0 0.283579222 -0.8031896494 5.82855e-05 -5.84614e-05 -8.7343e-05 -3.50321e-05 -0.23551624 0.8102199049
640296160.0 0.2761004262 -0.8056956975 -9.96442e-05 0.0001119139 -8.65534e-05 -4.51519e-05 -0.227212095 0.8126495141
645296130.0 0.268729442 -0.8078905245 5.22827e-05 7.83749e-05 -0.0001740682 -2.97215e-05 -0.2196544689 0.8144200486
650296100.0 0.2603477905 -0.8101842565 0.0001605833 4.14538e-05 -4.02742e-05 5.18841e-05 -0.2108374807 0.8168512518
655296070.0 0.2522280721 -0.8128613195 -9.51308e-05 8.66859e-05 0.0001309217 -1.05425e-05 -0.2032437538 0.8191664141
660296040.0 0.2430391879 -0.8150637015 4.55265e-05 3.10799e-05 -6.23158e-05 3.73299e-05 -0.1939809439 0.8208071995
665296010.0 0.2358264447 -0.8172725501 -2.34913e-05 0.0002357563 -5.36434e-05 6.15635e-05 -0.1861213421 0.8221709558
670295980.0 0.2277158146 -0.8192071025 -3.35139e-05 -2.87504e-05 7.27943e-05 -1.21221e-05 -0.178650053 0.8245525814
675295950.0 0.219337601 -0.8215598434 9.31969e-05 -0.0001090522 5.80108e-05 0.0001181312 -0.1696861056 0.8265592464
680295920.0 0.2112938208 -0.8236901718 5.59603e-05 7.40285e-05 -1.64216e-05 4.4987e-06 -0.161361516 0.8277429746
685295890.0 0.2030619809 -0.8242923469 0.0001363701 0.0001699839 0.0001350262 -0.0001715807 -0.1534875103 0.8297534323
690295860.0 0.1949060166 -0.8265232407 0.0001591792 4.51347e-05 2.47888e-05 0.0001025434 -0.145611329 0.831247055
695295830.0 0.1866998312 -0.8279976882 -4.01566e-05 8.74266e-05 -0.0001073435 -6.4927e-06 -0.1369899154 0.832706871
700295800.0 0.1782366503 -0.8300109172 0.0001047018 3.39553e-05 1.44193e-05 -5.68478e-05 -0.1286959696 0.8337629519
705295770.0 0.1699911375 -0.8309700474 -4.71686e-05 3.92765e-05 5.148e-06 5.62064e-05 -0.1206876359 0.8353231033
710295740.0 0.1621260622 -0.8325859578 0.000233758 0.0001281994 -0.000104961 0.0001614734 -0.1115140318 0.8360394824
715295710.0 0.1539420842 -0.8336706253 4.89793e-05 3.41838e-05 -0.0001238615 0.0001552366 -0.1031629951 0.8365693175
720295680.0 0.1452371218 -0.8346258009 0.0001415476 -0.0001563555 -1.08527e-05 0.0001611869 -0.0943777107 0.8375242001
725295650.0 0.1367602907 -0.8361325237 4.7361e-06 -0.0001377638 5.42738e-05 -2.17742e-05 -0.0868120799 0.839383097
730295620.0 0.1283733846 -0.8377577311 0.000175486 2.5434e-06 0.0001784309 0.0001363061 -0.078733434 0.8404011666
735295590.0 0.1196477307 -0.8378644874 -2.41264e-05 -2.996e-06 0.0001090814 -5.4475e-05 -0.0693924101 0.8404500615
740295560.0 0.1119239978 -0.8395572449 0.0001083191 -5.6144e-05 2.15059e-05 0.0001298378 -0.06168759 0.8415187304
745295530.0 0.1032763266 -0.8397045445 0.0001248785 -0.0001266364 -2.59638e-05 -6.2505e-06 -0.0537173424 0.8416635164
750295500.0 0.0949302925 -0.8411333685 8.2263e-06 -0.0002357923 2.81643e-05 0.0001728628 -0.0448553341 0.8421984791
755295470.0 0.0860989467 -0.8411376101 0.0001905479 2.14126e-05 -0.0001502883 -8.50498e-05 -0.0372448494 0.8429526241
760295440.0 0.0783728242 -0.8411567894 -2.0094e-06 0.0001030119 2.8703e-06 2.4474e-06 -0.0278198117 0.8427994219
765295410.0 0.0699631495 -0.8426120024 -0.0001067827 -6.1218e-05 -4.32412e-05 5.50598e-05 -0.0193831762 0.8429461653
770295380.0 0.0611547259 -0.8418192032 9.56375e-05 -0.0002196742 0.0001197237 -0.0001229629 -0.0116288059 0.8433094898
775295350.0 0.0527964644 -0.8424853499 -7.24036e-05 5.0771e-05 1.15645e-05 9.17558e-05 -0.0033719773 0.8433252476
780295320.0 0.0444136438 -0.842838161 4.94691e-05 -0.000185041 -2.8397e-05 -0.0001049997 0.0054053889 0.8434205917
785295290.0 0.0360925548 -0.8427993242 -4.26244e-05 0.0001100788 -3.07433e-05 -1.2995e-05 0.0135919659 0.8434456923
790295260.0 0.0281913479 -0.8430347801 -0.0002358807 -0.0001137372 -0.0001398113 4.3087e-06 0.0222812721 0.843247
795295230.0 0.0194896418 -0.8438320988 -0.0001124084 -8.331e-06 -8.10393e-05 2.83852e-05 0.0302071834 0.8427398633
800295200.0 0.01088159 -0.8435537387 -1.92639e-05 -0.0001060817 -4.8478e-06 -0.0002087665 0.0383190674 0.8420648315
805295170.0 0.0027960399 -0.8435021238 -1.58497e-05 1.04526e-05 -2.38042e-05 -6.61682e-05 0.0474842923 0.8420375858
810295140.0 -0.0052931867 -0.8425968238 4.60319e-05 2.29214e-05 7.23892e-05 -8.5501e-06 0.0557978527 0.8416821612
815295110.0 -0.0141621458 -0.8425242505 3.57707e-05 0.0002590594 -0.0001033482 5.81774e-05 0.0632839478 0.8411091317
820295080.0 -0.0224767766 -0.8425717781 0.000126534 -1.33264e-05 7.32204e-05 6.05035e-05 0.0713624423 0.8402702248
825295050.0 -0.0313841656 -0.8414129038 -1.54311e-05 -9.10921e-05 0.0001090209 0.0002187164 0.080223087 0.8394302879
830295020.0 -0.0392082909 -0.8416200105 -0.0001680335 5.93667e-05 -9.76256e-05 -0.0001201089 0.0881481482 0.8382929837
835294990.0 -0.0470584608 -0.8408285076 0.0001643883 0.0001758739 1.17097e-05 -5.81026e-05 0.0966011842 0.8378597727
840294960.0 -0.054923753 -0.8408902834 0.0001686287 2.9426e-05 -2.46247e-05 -2.6778e-06 0.1055249745 0.8367880619
845294930.0 -0.0645927016 -0.8392267582 0.0001764176 5.83886e-05 -2.6756e-06 0.0001391956 0.1134902797 0.8354903705
850294900.0 -0.0717928903 -0.83841703 0.000218151 8.49073e-05 -0.0001493323 -1.83608e-05 0.1211196248 0.8346167699
