!Created with skrf (http://scikit-rf.org).
# Hz S RI R 50.0 
!freq ReS11 ImS11 ReS21 ImS21 ReS12 ImS12 ReS22 ImS22
300000.0 -0.2389989559 -0.1016125074 0.4668993685 0.0661424904 0.4688076745 0.0716764709 -0.2366927902 -0.1127193437
5299970.0 -0.2436743733 0.0068968014 0.4738290757 0.0054691856 0.4734932441 0.0059763241 -0.2441759593 0.0057524665
10299940.0 -0.2403631441 0.0197255494 0.4758330876 0.0066508046 0.475679248 0.0064151921 -0.2410890814 0.0181127448
15299910.0 -0.2359222152 0.0293110632 0.4794030287 0.007827224 0.4791089068 0.0082016899 -0.2364907942 0.027471016
20299880.0 -0.2303655519 0.0373773063 0.4837784796 0.0086091265 0.4843641889 0.008349343 -0.2322451214 0.0354161797
25299850.0 -0.2244792444 0.0435380876 0.4893851966 0.0073629637 0.4895070635 0.007641614 -0.2269844518 0.0416639824
30299820.0 -0.2187824867 0.0483873492 0.4953446778 0.0057576765 0.4947281918 0.0051838939 -0.2214091722 0.0468323667
35299790.0 -0.2129429751 0.0526849257 0.5001800144 0.0021499557 0.5001490938 0.0022471865 -0.2160446653 0.0511729898
40299760.0 -0.2074699489 0.0557628435 0.5053583291 -0.0018176117 0.5054440988 -0.0019473316 -0.2115178803 0.054677615
45299730.0 -0.2024636076 0.0585395496 0.510285158 -0.0067617445 0.5103095982 -0.0063439388 -0.2065226594 0.0573645793
50299700.0 -0.1976429515 0.060362348 0.5140693783 -0.0122233663 0.5144930365 -0.0122695849 -0.2021611688 0.0598371373
55299670.0 -0.1935974323 0.0618351104 0.5179061245 -0.0178211373 0.5180496919 -0.0179435417 -0.1983491391 0.061362547
60299640.0 -0.1894482235 0.0626254463 0.5210282236 -0.0245904868 0.5212291038 -0.024429465 -0.1942296917 0.0630766875
65299610.0 -0.186051349 0.0639976542 0.5243250803 -0.0302861428 0.5245863956 -0.0307563185 -0.1909793801 0.064647371
70299580.0 -0.1827832138 0.0641636362 0.5265723191 -0.0369364114 0.5269019465 -0.0372566004 -0.1879277931 0.0658472828
75299550.0 -0.1797476369 0.0653397925 0.5286868286 -0.0440488638 0.5288708098 -0.0440600383 -0.1849377286 0.0667808174
80299520.0 -0.1771806799 0.0657999503 0.5311496064 -0.05081279 0.5308741468 -0.0510155459 -0.182609258 0.0675646958
85299490.0 -0.1745730211 0.0659684133 0.5321642102 -0.0578194689 0.531857835 -0.0581799476 -0.1803345174 0.0682388182
90299460.0 -0.1725760356 0.0665634014 0.5328164432 -0.0645614705 0.5331281788 -0.0647798551 -0.1778148203 0.0689757683
95299430.0 -0.170572147 0.067272759 0.5343886036 -0.0721807824 0.5341865711 -0.0717736203 -0.1759062892 0.070301256
100299400.0 -0.1686585179 0.0679240744 0.5342115047 -0.0788305099 0.5344829033 -0.0786900631 -0.1742087744 0.07100514
105299370.0 -0.166902436 0.068161305 0.5342832151 -0.085341808 0.5345965939 -0.0854617579 -0.1720222859 0.0718011381
110299340.0 -0.165534504 0.0684819139 0.5346454842 -0.0921571516 0.5349160876 -0.0926903741 -0.1708919789 0.0727605494
115299310.0 -0.1639515627 0.0687189102 0.5346106836 -0.0987819049 0.534792628 -0.0987987683 -0.1687735678 0.0731267735
120299280.0 -0.1627562722 0.0693321027 0.534737913 -0.1059192968 0.534773478 -0.1063476255 -0.1679928154 0.0741704302
125299250.0 -0.1617537867 0.0698556636 0.5343172549 -0.1125168075 0.5344627585 -0.1125749035 -0.166446626 0.0745422384
130299220.0 -0.1604010796 0.0704545541 0.5336248892 -0.1191255304 0.5337572051 -0.1193231605 -0.1653138041 0.0760085388
135299190.0 -0.1594853002 0.0710066449 0.5331759931 -0.1257900111 0.5327100739 -0.1259437546 -0.164248366 0.0771310663
140299160.0 -0.1588796689 0.072440923 0.5325804133 -0.1323401401 0.5325535316 -0.1327878089 -0.1628437939 0.078008049
145299130.0 -0.1575657007 0.0731335522 0.5316499646 -0.1394684839 0.531341539 -0.1389799548 -0.1622447813 0.0788816757
150299100.0 -0.1566031831 0.0737299524 0.5303002929 -0.1461549144 0.5304665024 -0.1456068377 -0.1611081986 0.0799389463
155299070.0 -0.1559107216 0.0747680013 0.5288880108 -0.1526087321 0.5291008352 -0.1525551281 -0.1600418928 0.080996817
160299040.0 -0.154940408 0.075342732 0.527171363 -0.1586720703 0.5279035121 -0.1585797088 -0.1589337837 0.0823129146
165299010.0 -0.1544623664 0.0762374052 0.5264669621 -0.1649244452 0.5262975381 -0.1651647385 -0.1581117093 0.0831250994
170298980.0 -0.1535823275 0.0770537344 0.5237086146 -0.171470135 0.5244886167 -0.171609255 -0.1567620063 0.0844067463
175298950.0 -0.1525252193 0.0782017033 0.5232808638 -0.1774640408 0.5234666037 -0.1777965934 -0.1562438431 0.0858391596
180298920.0 -0.1516527639 0.0790798489 0.5210885753 -0.1841065903 0.5216024174 -0.1838839288 -0.1548830095 0.0872375767
185298890.0 -0.1507791035 0.0800549489 0.519280565 -0.1903105232 0.5194770995 -0.1901201274 -0.1542986779 0.0878386649
190298860.0 -0.150333864 0.0813876915 0.5175261291 -0.1967110019 0.5178718646 -0.1965934783 -0.1526393821 0.0895035029
195298830.0 -0.1493591234 0.0820975321 0.515457089 -0.2026174794 0.5157299894 -0.2027396134 -0.1520588511 0.0904030164
200298800.0 -0.1485954424 0.0833567978 0.5137067778 -0.2082110742 0.5134700279 -0.2084709613 -0.1509901473 0.092121875
205298770.0 -0.1480851774 0.0846586188 0.5117243397 -0.2145740667 0.5114668096 -0.2148960461 -0.1501506358 0.0931813508
210298740.0 -0.1475285604 0.0855432077 0.5092078183 -0.2213339822 0.5093331791 -0.2210774568 -0.149268543 0.0949403482
215298710.0 -0.1466824974 0.0867607414 0.5067158791 -0.2264693215 0.5071028069 -0.2266721659 -0.1482433402 0.0960365151
220298680.0 -0.1458599377 0.0880494844 0.5042708674 -0.2327545312 0.5045436259 -0.23271086 -0.1471814695 0.0977289251
225298650.0 -0.1448290819 0.0891408996 0.5013783894 -0.2382189693 0.5018983853 -0.2381250616 -0.1459527033 0.0991591484
230298620.0 -0.1443362098 0.0906804289 0.4996232282 -0.2445394299 0.4997560319 -0.2441677206 -0.1449160084 0.1002361229
235298590.0 -0.1435199052 0.0913025259 0.4968057431 -0.2498566959 0.4969357651 -0.2502067964 -0.1440870927 0.1013940048
240298560.0 -0.1430934993 0.092960017 0.494246832 -0.2558189622 0.4942901353 -0.2551025756 -0.1430401295 0.1032738738
245298530.0 -0.1418464931 0.0942556254 0.4906823156 -0.2615730944 0.4915922051 -0.2615798933 -0.1420636561 0.1048605307
250298500.0 -0.1415523763 0.0952025459 0.4887666087 -0.2665770104 0.4889287316 -0.2664492074 -0.1406605426 0.1059592465
255298470.0 -0.1406524173 0.0966597619 0.4854473006 -0.2728478472 0.4854903721 -0.2726817544 -0.1395617916 0.1073927196
260298440.0 -0.1395779922 0.0979013117 0.482654208 -0.2778998477 0.4826285751 -0.2783776609 -0.1380574058 0.1088089277
265298410.0 -0.1387215082 0.0995199249 0.479376636 -0.2842275565 0.4798039506 -0.2837311134 -0.1374028081 0.1100911508
270298380.0 -0.1377964211 0.1005316567 0.4761429627 -0.2890372771 0.4769110551 -0.2895031486 -0.1361415444 0.1119001498
275298350.0 -0.1370129406 0.1020507224 0.4733506298 -0.2950083184 0.4734298699 -0.2947031204 -0.1349029878 0.1133568941
280298320.0 -0.13627795 0.1032028638 0.4702828386 -0.2994758024 0.4701988531 -0.3002010863 -0.1336392417 0.1147253979
285298290.0 -0.1353326127 0.1048613403 0.4666746382 -0.3050855106 0.4669313714 -0.3056312327 -0.1326056878 0.1160990786
290298260.0 -0.1343783355 0.1059747159 0.4636342608 -0.3110059516 0.4637027822 -0.310815192 -0.1306022383 0.1177799744
295298230.0 -0.1332308788 0.1071301463 0.4604509572 -0.3159973657 0.459869454 -0.3158500548 -0.1296813615 0.1190534311
300298200.0 -0.1319798285 0.1082867976 0.4563982356 -0.3207166413 0.4569363558 -0.3211341668 -0.1283729127 0.1205736499
305298170.0 -0.1311321888 0.1096886939 0.4536501912 -0.3266408186 0.4539131397 -0.3265407669 -0.1267370115 0.1225978149
310298140.0 -0.1297745457 0.1105752247 0.449934251 -0.3317060848 0.4500123579 -0.3324782612 -0.1253567659 0.1240098374
315298110.0 -0.1289879368 0.112021348 0.4460571012 -0.337272383 0.4462408107 -0.337038562 -0.1237525231 0.1250205035
320298080.0 -0.1280977199 0.1130827542 0.4423318162 -0.34190617 0.4424954603 -0.3421557257 -0.1225508246 0.1263670702
325298050.0 -0.1272384697 0.1139681417 0.4387111045 -0.3473801701 0.4387752716 -0.3473738713 -0.1215040246 0.1275888293
330298020.0 -0.1263790028 0.1156536859 0.4340438988 -0.3523674086 0.4345671947 -0.3523171502 -0.1201272811 0.1288418236
335297990.0 -0.1253738116 0.1169999044 0.4305766038 -0.3572179727 0.43056854 -0.3573307354 -0.1189624481 0.1305164547
340297960.0 -0.1248497703 0.1181526381 0.4263166459 -0.3616502171 0.4266012533 -0.3616136849 -0.117820142 0.131836614
345297930.0 -0.1236948912 0.119598332 0.4220671595 -0.3661750618 0.4217148906 -0.3663392727 -0.1158248859 0.1330408927
350297900.0 -0.1223201233 0.1209349465 0.4178901955 -0.3706225342 0.4184292033 -0.3711174471 -0.1150131251 0.1348678964
355297870.0 -0.1216023286 0.1220256901 0.4137840294 -0.3755942493 0.4139565376 -0.3756801474 -0.113864027 0.1363386672
360297840.0 -0.1201626438 0.1235021559 0.409878191 -0.3803242042 0.4098579888 -0.380453091 -0.1120390524 0.1379970047
365297810.0 -0.1190376797 0.1243993236 0.4053285086 -0.3845368838 0.4055048461 -0.3851123666 -0.1108437282 0.1395485116
370297780.0 -0.1179908872 0.1257233791 0.4010426018 -0.3890107905 0.4014129127 -0.3892844158 -0.1093330286 0.1407466144
375297750.0 -0.1169035309 0.1276096194 0.3976625064 -0.3934457868 0.3968957314 -0.3939776286 -0.1074416582 0.142467805
380297720.0 -0.115592457 0.1283796153 0.3925629728 -0.3976932974 0.3924229891 -0.3978998774 -0.1060047951 0.1439231945
385297690.0 -0.1142605874 0.1299112239 0.3883479575 -0.4019261039 0.3880426867 -0.4023447296 -0.1045739995 0.1452910853
390297660.0 -0.1131223006 0.1310392587 0.3833511821 -0.4064649513 0.383654181 -0.406731886 -0.1029169816 0.1461476737
395297630.0 -0.1118189292 0.1322754461 0.3794257492 -0.4103841934 0.3790960398 -0.4106117739 -0.1014009327 0.147976211
400297600.0 -0.1106637352 0.1336374272 0.3743629105 -0.4150835689 0.3752538131 -0.4149521 -0.1004179649 0.1489649759
405297570.0 -0.1093352616 0.1348362071 0.3700963471 -0.4189332105 0.3703358548 -0.4193662605 -0.0983744398 0.1509237674
410297540.0 -0.1077377049 0.1359564405 0.3654866152 -0.4230357206 0.3654178524 -0.4228891183 -0.0968725053 0.1519105074
415297510.0 -0.1065669895 0.1374496787 0.3609200503 -0.4270198185 0.3608583897 -0.4268528322 -0.0952643777 0.1533846622
420297480.0 -0.1055173985 0.137951065 0.356126629 -0.4307521376 0.3561133942 -0.4307283426 -0.0935363842 0.154257923
425297450.0 -0.1036213536 0.1392478144 0.3513412234 -0.4346409884 0.3518212661 -0.4342928564 -0.0918628677 0.1559248619
430297420.0 -0.1028613131 0.1404578298 0.3467068503 -0.43896955 0.3464771472 -0.4385585616 -0.0902956435 0.1568621718
435297390.0 -0.1010510089 0.1415080087 0.3414390959 -0.442255991 0.3418054559 -0.441972884 -0.0883493276 0.1580307401
440297360.0 -0.0996902226 0.142527325 0.3368164609 -0.4458676233 0.3364014415 -0.4459333254 -0.0867475374 0.1589402844
445297330.0 -0.0984051441 0.1437531938 0.3315743472 -0.4500927508 0.3319526984 -0.4497242283 -0.0853989539 0.1603737681
450297300.0 -0.0968586075 0.1445361576 0.3268326175 -0.4530988134 0.3274033945 -0.4533791844 -0.0835141487 0.1616787567
455297270.0 -0.0959456117 0.1458769916 0.3222978055 -0.456682409 0.3225747764 -0.4566241279 -0.0813445657 0.1626829244
460297240.0 -0.0943730388 0.1471301441 0.3169256378 -0.4597665814 0.3167085452 -0.4599811628 -0.0796211187 0.1640593216
465297210.0 -0.0925220046 0.1478805592 0.3118643311 -0.4636947197 0.3124836915 -0.4636642435 -0.0784955221 0.1646021673
470297180.0 -0.0915100738 0.1489285608 0.3068964449 -0.4669698722 0.307347519 -0.4669062817 -0.0771505074 0.1659796464
475297150.0 -0.0899715514 0.1498482262 0.3014384374 -0.469906288 0.3022003669 -0.4697500122 -0.0745206606 0.167107332
480297120.0 -0.0882944125 0.1504407699 0.2963686476 -0.4730137329 0.29706658 -0.4728399287 -0.0731128071 0.1684386723
485297090.0 -0.0866702777 0.1516519845 0.291718501 -0.4767730704 0.2916469823 -0.4766857466 -0.0713791932 0.1690398704
490297060.0 -0.0854572639 0.1524266012 0.2864840929 -0.4794588114 0.2864644893 -0.4797538057 -0.0694070171 0.1700692384
495297030.0 -0.0841702985 0.1537891969 0.2810794615 -0.4827854714 0.2808227671 -0.4829002374 -0.0674853732 0.1708215875
500297000.0 -0.0826319324 0.1542437707 0.2756392889 -0.4855651512 0.2757471173 -0.4855858053 -0.0658008671 0.171963662
505296970.0 -0.0809151936 0.1552644293 0.2699632605 -0.4884829055 0.2701213399 -0.4884605221 -0.0644836037 0.1727282641
510296940.0 -0.079574649 0.156366345 0.2649857872 -0.4918867402 0.2651756915 -0.4916104986 -0.0619074306 0.1740608722
515296910.0 -0.0781087135 0.1573694177 0.2593757912 -0.4942937737 0.2596469252 -0.4943597626 -0.0602695661 0.1746895761
520296880.0 -0.0763622432 0.15822549 0.2539102411 -0.4971906547 0.2544192824 -0.4969977638 -0.0584237182 0.1755463488
525296850.0 -0.0750248165 0.1584837842 0.248667722 -0.4998907153 0.2491753938 -0.5001344686 -0.0561750729 0.1762772151
530296820.0 -0.0735350908 0.1598493397 0.2437720051 -0.5021203754 0.2432954853 -0.5021362829 -0.0549236033 0.1766695594
535296790.0 -0.0719903066 0.1604248448 0.2375693487 -0.5047975308 0.238244704 -0.504779995 -0.0525263231 0.1776649498
540296760.0 -0.0703819687 0.1609852211 0.2325577466 -0.5076108037 0.2322896652 -0.5078380644 -0.0512808152 0.1788260403
545296730.0 -0.0686847431 0.1623089754 0.2267551638 -0.5101391768 0.2271490495 -0.5101989219 -0.0490446124 0.1789431696
550296700.0 -0.0676938267 0.1630318623 0.2214979424 -0.5123047477 0.2218108293 -0.5124324293 -0.0471592013 0.1800543875
555296670.0 -0.0655284207 0.163546374 0.215949204 -0.514872683 0.2160884219 -0.514601628 -0.0454749319 0.180975705
560296640.0 -0.0641433842 0.1643357488 0.2104126093 -0.5168453279 0.2106052468 -0.5171645051 -0.043183692 0.1814831469
565296610.0 -0.0626422328 0.1651157306 0.2044320578 -0.5193500126 0.2043489369 -0.5193477514 -0.0414585885 0.1818332876
570296580.0 -0.0607996875 0.1659489228 0.1987578311 -0.5211203061 0.1992293419 -0.5214963711 -0.0394637716 0.1832149065
575296550.0 -0.0593147614 0.1669495148 0.1931716467 -0.5236138037 0.1939035362 -0.5233071552 -0.0370958056 0.1832372436
580296520.0 -0.057701997 0.1674315213 0.1876072253 -0.5257317868 0.1877783117 -0.525743457 -0.0353194633 0.1837679318
585296490.0 -0.0559399014 0.1677265082 0.1821386972 -0.5272417988 0.1818525971 -0.5274320919 -0.0335189857 0.1837506586
590296460.0 -0.0545791714 0.168327171 0.1762125669 -0.529331481 0.1760874354 -0.5296987304 -0.031430132 0.1848509413
595296430.0 -0.0528988021 0.1694072948 0.1704879902 -0.5313235413 0.1704186642 -0.5314900585 -0.0291008278 0.1854467988
600296400.0 -0.05120245 0.1700797717 0.1644461941 -0.5333431652 0.1652455717 -0.5329803851 -0.0273364765 0.1861976931
605296370.0 -0.0496872712 0.1709857776 0.1591888398 -0.5347131611 0.1591377822 -0.5346577656 -0.0253615799 0.186118284
610296340.0 -0.0479758211 0.1712408654 0.1535650085 -0.5362701038 0.1533824479 -0.5366001931 -0.0231843001 0.1872083672
615296310.0 -0.0459457862 0.1721160728 0.1470834486 -0.5376833727 0.1474799673 -0.5384217789 -0.0213794589 0.1871522955
620296280.0 -0.0444493284 0.1724125018 0.1419156841 -0.5396116172 0.1415519708 -0.5395935667 -0.0191900911 0.187311997
625296250.0 -0.0427943813 0.1730195089 0.1354188536 -0.5412908148 0.1354995652 -0.5412794991 -0.0171252191 0.1883464147
630296220.0 -0.0411751116 0.1739980842 0.1296667657 -0.5428560221 0.1303650289 -0.5426551196 -0.0156366666 0.1886039103
635296190.0 -0.0394832137 0.1743297882 0.1239255209 -0.5434636403 0.1240331711 -0.5433514045 -0.0133961355 0.1883589333
640296160.0 -0.0377839602 0.1747021065 0.1184022062 -0.5449191066 0.117803401 -0.5450782854 -0.010965293 0.1887065859
645296130.0 -0.0361826745 0.1753040801 0.1121028888 -0.5463045232 0.1122340915 -0.5463817128 -0.0096365315 0.1887674289
650296100.0 -0.0345479994 0.1763148757 0.1065343248 -0.5474153608 0.1067360631 -0.5472574759 -0.0073966825 0.1890299954
655296070.0 -0.0327534405 0.1762609876 0.1004608189 -0.5479523783 0.1002810081 -0.548414421 -0.0047812555 0.1898430088
660296040.0 -0.0314316231 0.1769842606 0.0943497132 -0.5492270712 0.0946814388 -0.5491990443 -0.0031987887 0.1896844445
665296010.0 -0.0293761253 0.1771065134 0.0885534457 -0.550457742 0.0890864701 -0.5503053591 -0.0012553553 0.1899749894
670295980.0 -0.0272843705 0.1778492038 0.0827310599 -0.5511906014 0.082986367 -0.5511774407 0.000447839 0.1900464437
675295950.0 -0.0255767969 0.1780438828 0.0765442641 -0.5521749621 0.0769217901 -0.5524425435 0.0032036671 0.1905033785
680295920.0 -0.0240226113 0.1785939786 0.0705914113 -0.5526541887 0.0704603951 -0.5532228795 0.0052872652 0.1904878298
685295890.0 -0.0223069522 0.1789251382 0.0646954156 -0.5534108351 0.064614792 -0.5540764405 0.0072696293 0.1909134505
690295860.0 -0.0202380181 0.1794007596 0.0588706209 -0.5537324735 0.0585098551 -0.5538986752 0.0095060843 0.190963375
695295830.0 -0.0184857286 0.1794718721 0.0520698679 -0.5548925596 0.0526214173 -0.5550729284 0.0110733664 0.1908271856
700295800.0 -0.0167787138 0.1800793232 0.0467696549 -0.5554432403 0.0466298711 -0.5556328309 0.0134213431 0.1903051706
705295770.0 -0.014942015 0.180612126 0.0404218338 -0.555614124 0.0406982387 -0.5557838771 0.0155022863 0.1908050447
710295740.0 -0.0132152297 0.1806893337 0.0345299524 -0.5555973764 0.0344730423 -0.5561182161 0.0170653209 0.1906958862
715295710.0 -0.0116251869 0.1809224035 0.0288344473 -0.556521058 0.0290912324 -0.5565628186 0.0193847769 0.1903130903
720295680.0 -0.0101773655 0.1810584062 0.0225049965 -0.5563039425 0.0229374616 -0.5569408685 0.0216434421 0.1907056332
725295650.0 -0.0078226611 0.1814174082 0.0159366353 -0.5567485161 0.0164659999 -0.5570783537 0.0238094318 0.1907635218
730295620.0 -0.0064383788 0.1815451345 0.0104025332 -0.5568871791 0.0106180392 -0.5571882593 0.0258377403 0.1900279546
735295590.0 -0.0041100098 0.1818028003 0.004865248 -0.5568645278 0.0048235176 -0.5570173223 0.0279883531 0.1901674468
740295560.0 -0.0026926554 0.182237414 -0.0017541431 -0.5564102039 -0.0014575195 -0.5569636858 0.0300512343 0.189840372
745295530.0 -0.0008768433 0.1820940183 -0.0071652171 -0.5566605274 -0.0074016433 -0.5571111242 0.031855238 0.1900107489
750295500.0 0.0009340499 0.1822344655 -0.0130131336 -0.5565479685 -0.0134004979 -0.556461369 0.0342660676 0.1891946382
755295470.0 0.0031911352 0.1827092068 -0.0195371363 -0.5564422849 -0.0193227658 -0.5567156494 0.0358669869 0.1893052124
760295440.0 0.0046128963 0.1828580113 -0.0253460524 -0.5559105189 -0.0251894777 -0.556161055 0.0375674766 0.188914274
765295410.0 0.0061738001 0.1825708626 -0.0304784586 -0.5558339024 -0.0310945866 -0.5560841914 0.0408185892 0.1892318221
770295380.0 0.0082394691 0.1829765534 -0.0373800328 -0.5555136647 -0.037197181 -0.5559174186 0.0427078099 0.188604136
775295350.0 0.009854307 0.1829790302 -0.0432191197 -0.5544995538 -0.0432148092 -0.5549715959 0.0440334025 0.1877768581
780295320.0 0.01193169 0.1826643434 -0.0490043729 -0.5540636785 -0.048704775 -0.5547031537 0.0462763301 0.187934471
785295290.0 0.0137173403 0.183339377 -0.0549764442 -0.5534787579 -0.0548878464 -0.5540261872 0.0480233483 0.1874596415
790295260.0 0.0154607382 0.1831343887 -0.0611003058 -0.5534157534 -0.0611345403 -0.553571527 0.0506379465 0.1869720168
795295230.0 0.0170601267 0.1834711587 -0.0665351384 -0.5523775414 -0.0666026157 -0.5524581633 0.0526117912 0.1870933608
800295200.0 0.0190512478 0.1831800251 -0.0735330801 -0.5514791686 -0.0733424844 -0.5520022419 0.0544341024 0.1863074292
805295170.0 0.0202782345 0.1832611514 -0.0788542135 -0.5506393061 -0.0789086338 -0.5510934957 0.0562002072 0.1855687551
810295140.0 0.0224845927 0.1832427229 -0.0847756628 -0.5499673687 -0.0845039495 -0.5506234892 0.0587253698 0.1856173311
815295110.0 0.0244644851 0.1832682679 -0.0911378855 -0.5483464162 -0.0908651315 -0.5490179118 0.060747433 0.1850337406
820295080.0 0.0261919698 0.1827216979 -0.0965714186 -0.5482579102 -0.0963827804 -0.548435551 0.0622114945 0.1844173915
825295050.0 0.0280354157 0.1827619276 -0.1024311898 -0.5461705306 -0.1021336479 -0.5472032761 0.0644317765 0.1839621578
830295020.0 0.0297488387 0.1828336689 -0.1083500982 -0.5452944801 -0.1086615979 -0.5459019046 0.0663471232 0.1831558985
