!Created with skrf (http://scikit-rf.org).
# Hz S RI R 50.0 
!freq ReS11 ImS11 ReS21 ImS21 ReS12 ImS12 ReS22 ImS22
300000.0 -0.2371840892 -0.1046546404 0.4653949283 0.067586602 0.4685831371 0.0717766144 -0.2368945592 -0.1106430997
5299970.0 -0.2438435914 0.0070635882 0.4740222267 0.0055436686 0.4740253844 0.0058155793 -0.2440701461 0.0057841896
10299940.0 -0.2401724828 0.0197713006 0.4758744007 0.0062802888 0.4757519227 0.0068185534 -0.2409388802 0.018332431
15299910.0 -0.2358980794 0.0294949122 0.4790582194 0.0077036384 0.479354728 0.0078748277 -0.2366572085 0.027610194
20299880.0 -0.2305305174 0.0372687431 0.4842763986 0.0082994493 0.4841779326 0.0082703771 -0.2320634123 0.0353034851
25299850.0 -0.2247492551 0.0433466268 0.4893565996 0.007229773 0.4894836716 0.0074118657 -0.2269468607 0.0418428391
30299820.0 -0.2188161653 0.0484313834 0.495006285 0.0054838584 0.4945077967 0.0052521317 -0.2215515082 0.0469749743
35299790.0 -0.2130275796 0.0530293525 0.5000688357 0.0020917222 0.5004287475 0.0021803188 -0.2162786814 0.0510564339
40299760.0 -0.2076417872 0.055755837 0.5052802457 -0.0015620187 0.5055239184 -0.001819581 -0.2113908062 0.0546613792
45299730.0 -0.2025645873 0.0584657797 0.5104969691 -0.0063877355 0.5103083993 -0.0064745951 -0.206743043 0.0572856957
50299700.0 -0.1977067528 0.0601596019 0.5139645863 -0.0120607279 0.5145305252 -0.01233873 -0.2018975053 0.0596365667
55299670.0 -0.1934953098 0.0618513328 0.5177917521 -0.0180479863 0.5183054331 -0.0177753553 -0.1983925196 0.0614858159
60299640.0 -0.1894661266 0.062521233 0.5213743038 -0.0241560871 0.521183703 -0.0242058808 -0.194447737 0.0633468866
65299610.0 -0.1860057657 0.063888138 0.524524361 -0.0299615189 0.5247229002 -0.0305400512 -0.1912089891 0.0645715062
70299580.0 -0.1827235054 0.0643373376 0.5267901075 -0.0369615434 0.526768339 -0.0368745189 -0.1882281623 0.0656654369
75299550.0 -0.1796717939 0.0650982988 0.5287765749 -0.0440759729 0.5287672869 -0.0441470985 -0.1850935426 0.0669607653
80299520.0 -0.1771889431 0.0656185577 0.5310642171 -0.0510122385 0.5308787351 -0.0508761844 -0.1826511705 0.0673477725
85299490.0 -0.1746946997 0.0658856995 0.5320992441 -0.0578458617 0.532093783 -0.0578608483 -0.1801617458 0.068491377
90299460.0 -0.1726386405 0.0663415178 0.5330507003 -0.0645259754 0.5333427429 -0.0643833965 -0.177758267 0.069384741
95299430.0 -0.1705005814 0.0672059489 0.5341842054 -0.0722485653 0.5341037877 -0.0717211572 -0.1756529346 0.0701416838
100299400.0 -0.1687123564 0.0678785207 0.534405328 -0.0786496369 0.5341351576 -0.0785772621 -0.1741316892 0.0709593718
105299370.0 -0.1667797365 0.0679108407 0.5347652552 -0.0852059172 0.5345477723 -0.0856722931 -0.1720579636 0.0715515142
110299340.0 -0.1655074644 0.0683886051 0.5342315924 -0.0919357228 0.5348242182 -0.0922873725 -0.1708563997 0.0726897629
115299310.0 -0.1640942488 0.0686677621 0.5345097441 -0.09884172 0.5349264782 -0.0989335356 -0.168918494 0.0727690159
120299280.0 -0.1629260316 0.0695384277 0.5346086289 -0.106160064 0.5348962513 -0.1063890328 -0.1678984677 0.0740437898
125299250.0 -0.161802293 0.0698125641 0.5343310925 -0.1122941074 0.5344554474 -0.1125810965 -0.1662790352 0.0746814634
130299220.0 -0.1606534722 0.0707129527 0.5336567032 -0.1187529329 0.5337860919 -0.1193183882 -0.165494168 0.0758359177
135299190.0 -0.1593644792 0.0712028248 0.5333586128 -0.1260247792 0.5328761182 -0.1260973081 -0.1642828183 0.07699382
140299160.0 -0.1585963401 0.072198886 0.5319165074 -0.1324135023 0.5324802354 -0.1326713695 -0.1626394523 0.0777350331
145299130.0 -0.157616423 0.072795322 0.5316542028 -0.1392571249 0.5310112282 -0.1388393875 -0.1619531005 0.0787688995
150299100.0 -0.1565981749 0.0735543825 0.5303517876 -0.1458095819 0.530130673 -0.1453448014 -0.1609975999 0.0797204082
155299070.0 -0.1559188597 0.0748770572 0.528798087 -0.1525416353 0.5292745762 -0.15261266 -0.1601951998 0.0810156897
160299040.0 -0.1550254172 0.0755387017 0.5276514287 -0.1583829624 0.5278344275 -0.1586632985 -0.1588777943 0.0823879937
165299010.0 -0.1542769505 0.0763465665 0.5264308035 -0.1654459983 0.5263842205 -0.1653713816 -0.1580072755 0.0832493233
170298980.0 -0.1535423426 0.0771781227 0.5243239377 -0.1718662817 0.5246497572 -0.1717490839 -0.1568677963 0.0842884079
175298950.0 -0.1525270152 0.0781765012 0.5236029236 -0.1777490464 0.5234916036 -0.1780774385 -0.1557871244 0.0855136421
180298920.0 -0.1518430329 0.0792308503 0.5214344339 -0.1841723101 0.521522231 -0.1837609059 -0.1547075557 0.087181961
185298890.0 -0.1507235054 0.0801978612 0.5195795584 -0.1907393748 0.5197258519 -0.1903069974 -0.1542383892 0.0881384793
190298860.0 -0.1505478623 0.0813824558 0.5176603716 -0.1966004997 0.5176544611 -0.1964252164 -0.1527897016 0.0895863095
195298830.0 -0.149542216 0.0821640286 0.5154915755 -0.202516586 0.5156911988 -0.202910449 -0.1521072369 0.0905033386
200298800.0 -0.1487831062 0.083563558 0.5138335107 -0.2086181192 0.513627351 -0.2087514424 -0.1507542065 0.0922975921
205298770.0 -0.1482833884 0.0845435505 0.5119756358 -0.2145339351 0.5115359083 -0.2145869031 -0.1499445909 0.0929665793
210298740.0 -0.1477546748 0.0855036525 0.509686361 -0.2209111662 0.5093904289 -0.2212139451 -0.1489389851 0.0949440009
215298710.0 -0.1466196314 0.0869471529 0.5070935718 -0.2266429707 0.5069467516 -0.2264522469 -0.1482877404 0.0962093947
220298680.0 -0.1458898232 0.0879078701 0.504262529 -0.2324636458 0.5045477619 -0.2327103377 -0.1469413078 0.0977991725
225298650.0 -0.1448780831 0.0893709704 0.5016279482 -0.2382717791 0.5018196352 -0.2382718878 -0.1461232026 0.0987105736
230298620.0 -0.1443106983 0.0907491195 0.4997171699 -0.2445595835 0.4996050533 -0.2442762539 -0.1450144167 0.1002048717
235298590.0 -0.1436420246 0.0915160416 0.4968098818 -0.249931023 0.4970795571 -0.2501979502 -0.1439846504 0.1014965759
240298560.0 -0.1431413539 0.0930329318 0.4944308952 -0.2556762732 0.4941905431 -0.2553686436 -0.1431516367 0.1030830764
245298530.0 -0.1418858935 0.0945130893 0.4908710673 -0.2618260976 0.4912695271 -0.2616464981 -0.141966134 0.1045671392
250298500.0 -0.1413683219 0.0950861563 0.4887012873 -0.2668156727 0.4890212874 -0.266412118 -0.1405511258 0.1061648429
255298470.0 -0.1405715819 0.0968745825 0.4853080133 -0.2731089126 0.485890565 -0.2725120817 -0.139522531 0.1072837797
260298440.0 -0.1396538344 0.0979823234 0.4831052508 -0.2781798519 0.4830619288 -0.2782599976 -0.1378695329 0.1089940972
265298410.0 -0.1387320071 0.0995814328 0.4797451875 -0.2840688341 0.4793741722 -0.2841096886 -0.1374242217 0.1100151828
270298380.0 -0.1376977269 0.100843254 0.4760362559 -0.289484075 0.4766570794 -0.2890511422 -0.1359354849 0.112215519
275298350.0 -0.1370445014 0.1019025193 0.4733256768 -0.2951368701 0.4736904516 -0.2945832127 -0.134538963 0.1132628344
280298320.0 -0.136057469 0.1033975985 0.4699389659 -0.2998046672 0.4699399997 -0.3002832149 -0.1334824014 0.1150173895
285298290.0 -0.1350901096 0.1046622673 0.466420017 -0.3053822821 0.4666978345 -0.3052212242 -0.1323106333 0.1162895446
290298260.0 -0.1344183712 0.1057775048 0.463397305 -0.3103529043 0.4635926613 -0.3106173803 -0.1305756497 0.1180448333
295298230.0 -0.1332461375 0.1070887815 0.4605096625 -0.3159787988 0.4597213525 -0.3161583847 -0.1295243611 0.1194750799
300298200.0 -0.1320879737 0.1083154723 0.4565916263 -0.3215257664 0.4567110901 -0.3213859478 -0.1282619153 0.1209561399
305298170.0 -0.130959519 0.1095178912 0.4533869799 -0.326723548 0.4537780985 -0.3264671154 -0.1265675221 0.1224519123
310298140.0 -0.1297798215 0.1106382517 0.4497410565 -0.3318680406 0.4498941969 -0.3318738083 -0.1252074092 0.1238825852
315298110.0 -0.1292351075 0.1118188023 0.4459803035 -0.337152055 0.4462800953 -0.3369893308 -0.1239444646 0.124994262
320298080.0 -0.1282820309 0.1131203184 0.4423434463 -0.3419766064 0.4426918896 -0.3421268243 -0.1225594281 0.1261917464
325298050.0 -0.1273097745 0.1139562976 0.4386046253 -0.3472771459 0.438469446 -0.3473280958 -0.1214224692 0.1273419742
330298020.0 -0.1264370226 0.1155564104 0.43438664 -0.3520811463 0.434612004 -0.3524197776 -0.1203359966 0.129038908
335297990.0 -0.1254661838 0.1166755809 0.4303920364 -0.3570182684 0.4304825347 -0.3568843032 -0.1190656345 0.1303304288
340297960.0 -0.1249207773 0.1181644565 0.4263295139 -0.361816787 0.4265918868 -0.3616742549 -0.117907084 0.1319626492
345297930.0 -0.1237656285 0.1195981701 0.4223102686 -0.3662345598 0.4220323754 -0.3662186756 -0.1163983249 0.1331683596
350297900.0 -0.1221988471 0.12084759 0.4179805245 -0.3706582875 0.4182763851 -0.3710326273 -0.1150805649 0.1350067072
355297870.0 -0.121513705 0.1220758313 0.4140421695 -0.3755426173 0.4136775587 -0.3756538998 -0.1136130748 0.1364384868
360297840.0 -0.12003924 0.1234190244 0.4097480293 -0.3807926884 0.409715089 -0.3805432476 -0.1123501595 0.1383018174
365297810.0 -0.1188683831 0.1245731739 0.4052676372 -0.3847647583 0.4056913035 -0.3848959148 -0.1109695916 0.1398218094
370297780.0 -0.1178764781 0.1254225884 0.4009803691 -0.3889729734 0.4014875988 -0.3896926061 -0.1091193853 0.1409878669
375297750.0 -0.1168894301 0.1275951504 0.3973609815 -0.3934902045 0.3968572398 -0.3939985447 -0.1076025539 0.1424037379
380297720.0 -0.1155406132 0.1284358784 0.3927801553 -0.3978117302 0.3927317737 -0.397728957 -0.1063039271 0.1439654842
385297690.0 -0.1144240931 0.1298670242 0.3881787672 -0.4017484067 0.3878372867 -0.4020995433 -0.1044251597 0.1450973218
390297660.0 -0.1130740862 0.130955582 0.3833831212 -0.4066363782 0.3839640375 -0.4068155016 -0.1028986102 0.1462300252
395297630.0 -0.1118171816 0.1321238288 0.3794283014 -0.4104231198 0.3793188571 -0.4105732274 -0.1014468001 0.1481895878
400297600.0 -0.1108027879 0.1333958844 0.3743835686 -0.4146065695 0.3748616272 -0.4148871004 -0.1001983893 0.1488924054
405297570.0 -0.1092061901 0.1345630298 0.3703517914 -0.4188489815 0.3703550553 -0.4187756344 -0.0984909 0.1510436477
410297540.0 -0.1079358665 0.1358230652 0.3652123433 -0.4228097475 0.3655205756 -0.4230053675 -0.09677592 0.1519003467
415297510.0 -0.1067117353 0.1370809852 0.3611762972 -0.4269480222 0.3610450343 -0.4267705962 -0.0953488058 0.1535941473
420297480.0 -0.1053378083 0.1379242853 0.3562228406 -0.4310308297 0.3563442097 -0.4307191064 -0.0932919397 0.1544482675
425297450.0 -0.1036575701 0.13904585 0.3514420374 -0.4343675231 0.3515920144 -0.4343548288 -0.0916022885 0.1557318673
430297420.0 -0.1027632196 0.1406656446 0.3466438965 -0.4387059388 0.3469055219 -0.4384604142 -0.0907807277 0.1567800775
435297390.0 -0.1010957537 0.1414599596 0.3418581369 -0.4421131084 0.3419113267 -0.4420669354 -0.0883387266 0.1583449789
440297360.0 -0.0998500072 0.1427821158 0.3370642112 -0.4458793623 0.3365151835 -0.4457935186 -0.0871741353 0.1590017386
445297330.0 -0.0983802485 0.1437243639 0.3317220606 -0.4501233704 0.3320745575 -0.4495722058 -0.0853469353 0.1602781379
450297300.0 -0.0968111591 0.1447234028 0.3268094868 -0.4534302052 0.3271189197 -0.4532259353 -0.0835725438 0.161463571
455297270.0 -0.0956223911 0.1458020876 0.3220416497 -0.4569826912 0.3225939689 -0.4568743827 -0.0815735859 0.1628325398
460297240.0 -0.094421866 0.1469446228 0.31708326 -0.4599046419 0.3166686177 -0.4599796597 -0.0798204477 0.1639829131
465297210.0 -0.0926126962 0.1479496808 0.3121582893 -0.4639020838 0.3124427624 -0.4637180518 -0.0785470404 0.1648573067
470297180.0 -0.0912765403 0.1486328759 0.306988812 -0.4664875295 0.3070933908 -0.467249984 -0.0768619251 0.16594658
475297150.0 -0.090032913 0.1496985302 0.3014646704 -0.4700373869 0.3019990751 -0.4699076168 -0.0746991662 0.1672254744
480297120.0 -0.0882760741 0.1505911101 0.2964456953 -0.4731151144 0.2967469784 -0.473171952 -0.072934181 0.1682333674
485297090.0 -0.0867889874 0.1515595264 0.291672081 -0.4764239087 0.2916661829 -0.4764432997 -0.0711632506 0.1688650067
490297060.0 -0.0855510669 0.1524082075 0.2867270287 -0.4797677175 0.286492579 -0.4798862941 -0.0693405901 0.1700141327
495297030.0 -0.0840802842 0.1538301367 0.2807554692 -0.4830355615 0.2808940384 -0.4829300794 -0.067587622 0.1707720904
500297000.0 -0.0822581015 0.1545109782 0.2753322756 -0.485757974 0.2758829118 -0.4858088825 -0.0662721578 0.171755425
505296970.0 -0.0810859366 0.1551598225 0.2700654217 -0.488556619 0.2704995139 -0.4886230658 -0.0645432686 0.1728250628
510296940.0 -0.0791199896 0.1560392177 0.2649131823 -0.4916584563 0.2651464814 -0.4915775898 -0.062166033 0.1739974992
515296910.0 -0.0783180567 0.1573617753 0.2595431732 -0.4942277292 0.2600150593 -0.4946442839 -0.0605915222 0.1747073867
520296880.0 -0.0764371398 0.1579290899 0.254338924 -0.4972522298 0.2546194328 -0.4970112872 -0.0583495471 0.1753680557
525296850.0 -0.0750436867 0.1589148877 0.2489792198 -0.4998612921 0.2489073073 -0.4999614491 -0.056200734 0.1762573111
530296820.0 -0.0736303399 0.1598986267 0.2438524138 -0.5022866612 0.2432474234 -0.5023510191 -0.0547360871 0.1768178558
535296790.0 -0.0718235017 0.1604942024 0.2381241163 -0.5046672102 0.2381362145 -0.504973901 -0.052709295 0.1775128387
540296760.0 -0.0706401967 0.1611651531 0.2321815958 -0.5077960812 0.2322558717 -0.507916813 -0.0511692062 0.1786552027
545296730.0 -0.0689185082 0.1623117315 0.2267959995 -0.5095786476 0.2266811938 -0.510141575 -0.0489917656 0.1791081887
550296700.0 -0.0675936948 0.1630635746 0.2215692918 -0.5126475353 0.2217492228 -0.5127660204 -0.0470552898 0.1800730173
555296670.0 -0.0654926464 0.1637527265 0.215878939 -0.5148458376 0.2158276267 -0.5148350081 -0.0453479113 0.1807017744
560296640.0 -0.0638821757 0.1644320317 0.2100437093 -0.51672954 0.2104437588 -0.516693226 -0.043086315 0.181400879
565296610.0 -0.0630308748 0.1651499109 0.2049326395 -0.5193879971 0.2042627329 -0.5192450707 -0.0413008033 0.181737052
570296580.0 -0.0607554985 0.165830388 0.1987771194 -0.5213300243 0.1992732448 -0.5216489344 -0.0393482483 0.182929966
575296550.0 -0.0592286121 0.1667721426 0.1931670924 -0.5234938186 0.1937759261 -0.523509495 -0.0371721238 0.1833183966
580296520.0 -0.0577140569 0.1673410754 0.1877917026 -0.5256101 0.1873683869 -0.5257378012 -0.0353224323 0.1836396317
585296490.0 -0.0559984304 0.1679361266 0.1823000446 -0.5273914263 0.1818375173 -0.5275387941 -0.0333261843 0.1839186412
590296460.0 -0.0548440467 0.1685614283 0.1766713759 -0.5291171717 0.1762488475 -0.5294925945 -0.0312290802 0.1852292376
595296430.0 -0.0528910322 0.1694741903 0.1704756141 -0.5313665294 0.1706872513 -0.5318183712 -0.0291457876 0.185221115
600296400.0 -0.051132483 0.1701052056 0.1645999996 -0.5330159537 0.1650508995 -0.5333243631 -0.0272128812 0.185982386
605296370.0 -0.0494499669 0.1709479843 0.1591428416 -0.5350115197 0.1592075007 -0.5346110227 -0.0255061747 0.1861643971
610296340.0 -0.047993414 0.171505417 0.1533110185 -0.5367274718 0.1536532377 -0.5366797882 -0.0233207862 0.186939895
615296310.0 -0.0461346842 0.1721071591 0.1470352924 -0.5380623252 0.1471913123 -0.5382471396 -0.0213764289 0.1869872391
620296280.0 -0.044671964 0.1725067666 0.1416159918 -0.5395441105 0.1415516161 -0.5395971722 -0.0192395698 0.1873831413
625296250.0 -0.0427275019 0.1730510213 0.1352106968 -0.5413948977 0.1357855066 -0.5411983271 -0.0172678387 0.1882024819
630296220.0 -0.040924228 0.1737878413 0.1295618986 -0.542657261 0.1302411146 -0.5423588522 -0.0152620217 0.1884407016
635296190.0 -0.0393806266 0.1743178995 0.1240976067 -0.5437763719 0.1239567938 -0.5433991428 -0.0135047297 0.1884596797
640296160.0 -0.0379036227 0.1747458018 0.1179088341 -0.5449611043 0.1182130722 -0.5452120253 -0.0106812316 0.1889676098
645296130.0 -0.035974067 0.1754011302 0.1115509957 -0.5466347116 0.1122930212 -0.5464272553 -0.0096142904 0.1889191653
650296100.0 -0.03451948 0.1761739246 0.1068523537 -0.547037146 0.1066134626 -0.5472141944 -0.0071819205 0.1893042975
655296070.0 -0.0329134258 0.1762710965 0.1004373395 -0.5484868484 0.1003876704 -0.5486714318 -0.0048872944 0.1896902472
660296040.0 -0.0313937573 0.1770085808 0.094306744 -0.549144033 0.0947125062 -0.5491769042 -0.0030727528 0.1894433636
665296010.0 -0.0294305697 0.1770840125 0.0886221723 -0.5503869505 0.0890906827 -0.5503454362 -0.001330761 0.1900381834
670295980.0 -0.0272224351 0.1775988629 0.082505917 -0.5512931669 0.0832734536 -0.5513665881 0.0006020196 0.1902231263
675295950.0 -0.0257995965 0.1778964726 0.0766207733 -0.5522845887 0.0768423984 -0.5525185787 0.003233987 0.1906474986
680295920.0 -0.0240709904 0.1788298949 0.0706118478 -0.5528319432 0.0706306131 -0.5529994745 0.005332204 0.1903992322
685295890.0 -0.0223333387 0.1789165811 0.0649567182 -0.5540256849 0.0647517114 -0.5538402172 0.0069160679 0.1907890008
690295860.0 -0.0203489842 0.1792851051 0.0588213809 -0.5537612848 0.0583173517 -0.5541280568 0.0096439377 0.1909485878
695295830.0 -0.018097014 0.1795221849 0.0517327279 -0.5549882927 0.0521608684 -0.5548655543 0.0112421221 0.190878594
700295800.0 -0.0166468821 0.1799039279 0.04673285 -0.5551915278 0.0468014038 -0.5555277769 0.0133909872 0.1903520415
705295770.0 -0.0150298071 0.1802913645 0.0403374263 -0.555683382 0.0407388509 -0.5559373017 0.0154493724 0.1905991713
710295740.0 -0.0130543153 0.1806182924 0.0346128865 -0.5559042833 0.0346467231 -0.5560693822 0.0170770914 0.1912012099
715295710.0 -0.0116033298 0.1808576189 0.0287805722 -0.556160796 0.0286071866 -0.5567113229 0.019497284 0.1902519561
720295680.0 -0.0098563799 0.1810440715 0.0222480517 -0.556881779 0.0228291489 -0.5572111175 0.021907532 0.1908125417
725295650.0 -0.0076480292 0.1815287195 0.0162785009 -0.556724996 0.0167151268 -0.5568803801 0.0239373305 0.190563493
730295620.0 -0.0066635354 0.1816745091 0.0107348467 -0.5570830248 0.0104664677 -0.5567786989 0.0261812089 0.1901614531
735295590.0 -0.004235375 0.1817911565 0.0051198483 -0.5573420534 0.0049046483 -0.5574427165 0.0278320867 0.1903947521
740295560.0 -0.0027575673 0.182287483 -0.0013372657 -0.5568969503 -0.0015576173 -0.55708569 0.030146771 0.1897694801
745295530.0 -0.0009695916 0.1820631154 -0.0071635461 -0.5568019664 -0.0070466041 -0.5570249311 0.0318445942 0.1898882737
750295500.0 0.0009296965 0.1821905062 -0.0131520947 -0.5561248238 -0.0134243739 -0.5567460891 0.0344246783 0.1891902511
755295470.0 0.0032801493 0.1826250125 -0.0194729844 -0.5564097436 -0.019083947 -0.5565509547 0.0356530022 0.1892954272
760295440.0 0.0046774365 0.1828405314 -0.0259847844 -0.5560131889 -0.024849483 -0.5565216848 0.0375739273 0.1891470638
765295410.0 0.0061422007 0.1825560192 -0.0308791146 -0.555634214 -0.0312070319 -0.5561202871 0.0406891873 0.1891629355
770295380.0 0.0082793894 0.1830509451 -0.0374429357 -0.5552898176 -0.0372772942 -0.5558218991 0.0427152874 0.1884461967
775295350.0 0.0099126691 0.1830014123 -0.043147335 -0.5551598667 -0.0432813199 -0.5550882397 0.0439489834 0.1881130356
780295320.0 0.0120956177 0.1826052694 -0.0489930238 -0.5543330643 -0.0485696472 -0.5542600246 0.0463909805 0.1879506706
785295290.0 0.0136057798 0.1832801685 -0.0550621055 -0.553200069 -0.0549922744 -0.5538562694 0.0479801821 0.1875419661
790295260.0 0.0153508621 0.1829696161 -0.0607447174 -0.5531436434 -0.0608978869 -0.5536116097 0.0506861176 0.187087313
795295230.0 0.0171404569 0.1834020326 -0.0670705775 -0.5519192839 -0.0666438872 -0.5522129124 0.0525172057 0.1872870663
800295200.0 0.019088399 0.1833986636 -0.0731646326 -0.5516310257 -0.0735397691 -0.5520629423 0.0548028656 0.1861757345
805295170.0 0.0205179216 0.1832539393 -0.0789287868 -0.5508355509 -0.0790419877 -0.5507751758 0.0563327137 0.1857288508
810295140.0 0.0224381549 0.1830598751 -0.084471847 -0.5499985926 -0.0846428772 -0.5506180617 0.0585081635 0.1858187015
815295110.0 0.0243992284 0.1831249265 -0.0909166464 -0.5489521313 -0.0908660652 -0.5491715434 0.0602785952 0.1847791154
820295080.0 0.0263881024 0.1826293513 -0.0965245193 -0.5480061274 -0.0963593026 -0.5484853375 0.0622161386 0.1844813662
825295050.0 0.0279930964 0.1826603108 -0.1025352863 -0.5464298531 -0.1023957303 -0.5470019575 0.0648673391 0.1841620941
830295020.0 0.029684065 0.1827713407 -0.1086471196 -0.5457753711 -0.1088813061 -0.5459825877 0.0663813761 0.1832346014
