!Created with skrf (http://scikit-rf.org).
# Hz S RI R 50.0 
!freq ReS11 ImS11 ReS21 ImS21 ReS12 ImS12 ReS22 ImS22
300000.0 -0.0490134343 -0.0486025339 -0.0018967976 0.0011647067 -0.0004873177 0.001291355 -0.7664755623 -0.1479997042
5299970.0 -0.0498124293 0.0154293429 -9.35047e-05 5.288e-05 -0.0001260411 0.0002041932 -0.7837101356 -0.0078058857
10299940.0 -0.0442951819 0.0325593467 8.95492e-05 -5.28388e-05 0.0002210301 -0.0001338288 -0.7866813657 -0.0038920188
15299910.0 -0.0359421922 0.0469847923 -5.499e-06 1.1869e-05 4.30164e-05 0.0001013019 -0.7924315662 -0.0015978716
20299880.0 -0.026259381 0.0588459257 -0.0001586886 -4.17151e-05 5.46998e-05 0.000103374 -0.7989762907 0.002240051
25299850.0 -0.0153217612 0.0681870169 -6.56696e-05 -0.0001369265 -0.0001969029 0.0001000167 -0.8051679252 0.0082714867
30299820.0 -0.0040947995 0.0750096442 -0.0003432681 -0.0001204079 -5.85754e-05 0.0001492325 -0.8114329543 0.0165022679
35299790.0 0.0073830632 0.0800309367 1.4906e-06 4.98441e-05 -8.58624e-05 0.0001033566 -0.8162030726 0.0251494487
40299760.0 0.0187145202 0.082933232 -0.0001471377 7.56592e-05 -9.57335e-05 0.0001111592 -0.8205714915 0.0348771239
45299730.0 0.0294101379 0.084261398 -1.77062e-05 0.0002090198 0.0002148433 5.88439e-05 -0.8251763183 0.0441822324
50299700.0 0.0393867694 0.0847529994 7.95524e-05 0.0003062153 0.0001035509 0.0002484288 -0.8268870631 0.0541303542
55299670.0 0.0482889881 0.0836834066 -0.00011147 -7.00972e-05 2.38176e-05 7.98943e-05 -0.8292827724 0.0649510227
60299640.0 0.0571715829 0.0820673897 4.10231e-05 -1.13332e-05 0.000117193 7.31423e-05 -0.8300595797 0.0746751003
65299610.0 0.0645616468 0.0795091472 -7.88596e-05 -1.46359e-05 -4.25493e-05 -0.0001205472 -0.831822395 0.0842871848
70299580.0 0.0716083249 0.077124859 6.1089e-06 0.0001851416 -7.20596e-05 2.05331e-05 -0.8318866634 0.0944767539
75299550.0 0.0782431946 0.0741917829 -7.73915e-05 0.0001410104 -2.77357e-05 2.17388e-05 -0.8321256924 0.1042745001
80299520.0 0.0835948368 0.0704817426 -9.75816e-05 3.31578e-05 0.000356476 -3.31494e-05 -0.8320437606 0.1137621278
85299490.0 0.0884503738 0.0666950925 4.01424e-05 -8.37275e-05 -8.02895e-05 0.0002511196 -0.8316364701 0.1237849074
90299460.0 0.0933891029 0.0633177122 2.62757e-05 -1.34697e-05 2.15734e-05 -5.9766e-06 -0.8308829114 0.1334028218
95299430.0 0.097545833 0.0590070524 9.19365e-05 -0.0001615584 9.05772e-05 -3.63905e-05 -0.8290188967 0.1430668428
100299400.0 0.1010680085 0.0555876834 -5.97186e-05 0.0002578175 0.0001643451 -2.38109e-05 -0.828746103 0.1525783998
105299370.0 0.1046504833 0.0519318086 -5.8008e-06 4.66689e-05 -8.04376e-05 0.0001301852 -0.8267923341 0.1610687513
110299340.0 0.1074317847 0.0478848584 6.25616e-05 0.0004177023 0.0002231881 0.0001679966 -0.8258049479 0.1706548639
115299310.0 0.1101819276 0.0439016395 5.70381e-05 -3.28115e-05 8.94357e-05 7.94666e-05 -0.8240593732 0.1802294649
120299280.0 0.1122477203 0.0401810772 0.0001242538 0.0001757852 3.47147e-05 5.97516e-05 -0.8220583031 0.188862917
125299250.0 0.1141322601 0.0362955808 0.0001598159 -4.99482e-05 0.0001641036 0.0001881292 -0.8202003866 0.1979758614
130299220.0 0.115748921 0.0329708471 5.98462e-05 9.8534e-05 4.34438e-05 -1.84433e-05 -0.8183396042 0.2067619006
135299190.0 0.1176221866 0.0299681623 2.18505e-05 0.0001331989 -7.22927e-05 7.58414e-05 -0.8158259188 0.2156662201
140299160.0 0.1188053053 0.0261128997 0.0001278488 0.000174115 -0.0002921645 0.0002209261 -0.8136491094 0.224459523
145299130.0 0.1201576876 0.0226220039 8.00989e-05 0.000144927 -6.9565e-06 -6.26628e-05 -0.8118291051 0.2340154825
150299100.0 0.1211719016 0.0191370742 -0.0001420974 -4.63983e-05 -4.26665e-05 4.223e-05 -0.8096963532 0.2428567357
155299070.0 0.1215816331 0.0159175257 9.3193e-05 0.000238598 0.0001174603 0.0001112371 -0.8063262143 0.2519033334
160299040.0 0.122302172 0.0129744163 2.9634e-05 -4.41089e-05 8.46721e-05 3.72785e-05 -0.8041554157 0.2604292699
165299010.0 0.1230922286 0.0095528843 -0.0002073564 0.0001195008 -4.95015e-05 -1.9787e-06 -0.8019229512 0.2694024643
170298980.0 0.1234244303 0.0067748502 -8.24001e-05 0.0002235049 4.96321e-05 5.08397e-05 -0.7985633712 0.278120452
175298950.0 0.1237266792 0.0039249334 -3.4268e-06 0.000211788 -2.69667e-05 -9.18086e-05 -0.7961241826 0.2869016927
180298920.0 0.1241909197 0.0009932206 -9.98078e-05 0.0001565311 -1.3023e-05 0.0001029904 -0.7927291527 0.2953283166
185298890.0 0.124299654 -0.002016312 -0.000159183 0.0003455206 -6.0063e-06 7.75013e-05 -0.7891938057 0.3039079366
190298860.0 0.1245231152 -0.004526924 0.000319511 1.54224e-05 0.0001677732 0.0001082344 -0.7869177236 0.3128597034
195298830.0 0.1239125541 -0.0073104543 7.13855e-05 0.000198718 0.0001701273 0.0001107975 -0.783696434 0.3213952607
200298800.0 0.1237923566 -0.0096614914 4.79408e-05 0.0001554152 6.6713e-05 7.31784e-05 -0.7812464023 0.3291774794
205298770.0 0.1237648774 -0.012397256 1.84004e-05 -4.7641e-06 -7.42087e-05 0.0001255659 -0.7769927649 0.3378824219
210298740.0 0.12356801 -0.0148151399 -2.93643e-05 8.58845e-05 1.664e-07 0.0001772485 -0.7735558964 0.3463184637
215298710.0 0.1232483412 -0.0172403429 -0.0001249969 7.29149e-05 4.82772e-05 -4.20842e-05 -0.7705569371 0.354443355
220298680.0 0.122614535 -0.0199604759 0.0002734168 -3.1001e-06 0.0001269813 0.0001123661 -0.7670974449 0.3624206264
225298650.0 0.1222708346 -0.0222528492 -8.59905e-05 0.0002436789 8.39453e-05 -0.0001138166 -0.7637788648 0.3706648247
230298620.0 0.1216946548 -0.0245103522 -8.84526e-05 0.0001877536 -8.7345e-06 0.0001799563 -0.7592621794 0.3789781466
235298590.0 0.1216863776 -0.0266141835 0.0002085776 0.0002672963 4.06164e-05 0.0002522606 -0.7555780047 0.3871300711
240298560.0 0.1208258406 -0.0289081599 0.000194045 3.42592e-05 0.0002132761 0.0001413157 -0.7515190132 0.3957312817
245298530.0 0.1203955971 -0.0309368101 6.40978e-05 7.82791e-05 -4.14244e-05 8.65833e-05 -0.7474802168 0.4024897477
250298500.0 0.1196137581 -0.0330844421 -0.0001098553 0.0001347172 0.0001784811 8.34589e-05 -0.7435746987 0.4104129784
255298470.0 0.1185386329 -0.0355279001 -0.0001101817 0.0001182417 -1.28042e-05 0.0001469888 -0.7380389897 0.4184068592
260298440.0 0.1181553401 -0.0373159548 0.0002774603 0.0001442376 9.72018e-05 1.92969e-05 -0.7349177775 0.4263194427
265298410.0 0.1175152628 -0.0392157654 0.0001443659 0.0001431137 0.0001944902 5.63735e-05 -0.7298021429 0.4336965806
270298380.0 0.1164946916 -0.0412845652 0.0002387993 4.07398e-05 3.08804e-05 0.0001136209 -0.7255587804 0.4414366949
275298350.0 0.1158968574 -0.0430629993 2.75408e-05 0.0003136722 -5.26875e-05 0.0001987842 -0.7203412546 0.4490670453
280298320.0 0.1154008322 -0.0451544319 0.0002851301 0.0001147042 0.0001704008 9.35602e-05 -0.7155164239 0.4560282853
285298290.0 0.1147201216 -0.0466789377 0.0001161166 -9.0064e-06 8.33683e-05 7.02296e-05 -0.7098693165 0.4637016397
290298260.0 0.1140130484 -0.0485577415 0.0001029087 -2.32941e-05 0.0002167549 0.0001934295 -0.7055386892 0.4707361469
295298230.0 0.1128973924 -0.0507423347 0.0002881099 -3.81107e-05 0.0001052172 0.0002126944 -0.7004683794 0.4778468179
300298200.0 0.1121626815 -0.0524229665 0.0003634212 5.46228e-05 0.0001779639 0.0002569673 -0.6953252417 0.4848651019
305298170.0 0.111416769 -0.0539189894 0.0004276382 0.0001631888 0.000259036 0.0001737198 -0.6895435065 0.4929472018
310298140.0 0.1104829781 -0.0555262014 0.0001435911 0.0001506914 6.19294e-05 0.0001777405 -0.6852777213 0.4991521019
315298110.0 0.10965145 -0.0575592707 -5.12471e-05 0.0002220961 0.000150906 0.0001150006 -0.6793941 0.5061252956
320298080.0 0.1087559134 -0.0597488912 0.0002092969 0.0001498851 0.0001636638 0.0001502509 -0.6736227639 0.514028725
325298050.0 0.1076238242 -0.0611355704 -0.0001341055 -6.2132e-05 0.0002629447 9.158e-05 -0.6678880931 0.5208131105
330298020.0 0.1062924224 -0.0629241096 0.0001617215 6.25105e-05 6.54141e-05 3.18529e-05 -0.6629925918 0.5282064918
335297990.0 0.1050306068 -0.0647171562 0.0001348666 6.8627e-05 0.00024808 5.99335e-05 -0.657329858 0.5351894433
340297960.0 0.1037911753 -0.0660719613 0.0001852028 -0.0002326246 0.0001171998 0.0001642788 -0.6514981992 0.5425439067
345297930.0 0.1023081971 -0.0673643409 0.0003372346 7.85246e-05 6.61409e-05 0.0002108201 -0.6460350967 0.5480999155
350297900.0 0.1014257077 -0.0686735761 -2.03582e-05 0.0002371447 6.33629e-05 2.6406e-05 -0.6402579706 0.5552361505
355297870.0 0.100092275 -0.0700786257 -3.75059e-05 -6.58019e-05 0.0002320736 0.0001320918 -0.6347861919 0.5619563261
360297840.0 0.098886491 -0.0711733589 1.2638e-05 0.0002537274 -6.44761e-05 -4.37907e-05 -0.6290421309 0.5691590864
365297810.0 0.0976364179 -0.0724895742 0.0001240499 0.0001004588 3.7204e-05 5.77056e-05 -0.6223487083 0.5751951628
370297780.0 0.096658607 -0.0737539149 0.0003242224 0.0001498015 0.0001690744 2.67156e-05 -0.6169963202 0.5819084602
375297750.0 0.0953961586 -0.0749411924 -4.52468e-05 0.0002901503 0.0001975614 0.0002948103 -0.610949521 0.5878219153
380297720.0 0.0939567949 -0.0763813605 0.0002730241 3.44349e-05 0.0002238591 0.0002203166 -0.6051070598 0.5941631542
385297690.0 0.0928782445 -0.0770876144 0.0002493769 0.0001364185 0.0001168121 7.27017e-05 -0.5986269605 0.6013518358
390297660.0 0.0915968316 -0.0783381495 0.000152204 9.40726e-05 0.0001608271 6.12312e-05 -0.5925031379 0.6071329454
395297630.0 0.0905194357 -0.079435681 2.83589e-05 0.0002470235 0.0001777426 3.2096e-06 -0.5860320915 0.6135351295
400297600.0 0.0892885678 -0.0805123199 0.0002501721 5.21066e-05 0.000280472 0.0002596938 -0.5801058932 0.6195591375
405297570.0 0.0877752346 -0.0818157502 0.000298096 0.0001274299 7.67397e-05 0.0002614791 -0.5741172782 0.6245593314
410297540.0 0.08638094 -0.0828706494 0.0001001086 -0.0001018907 0.0003998917 0.0001277105 -0.5675025383 0.6308867301
415297510.0 0.0853116094 -0.0840181123 0.0002020432 -0.000137459 0.0002964422 0.0001849916 -0.5608136447 0.6361077488
420297480.0 0.0839561057 -0.0844768843 2.01922e-05 0.0002078251 0.000200057 0.0002672317 -0.5541827279 0.6427226942
425297450.0 0.0827734248 -0.0856922796 9.3581e-05 0.0001940848 0.000156925 0.000111195 -0.5475095565 0.6482184867
430297420.0 0.0815538217 -0.0869932891 0.000157522 0.0001670762 0.0002416957 0.0001671502 -0.5405207544 0.6527908574
435297390.0 0.0802352886 -0.0874875287 0.0002475243 0.0001061355 0.0002117454 2.41711e-05 -0.5330725548 0.6588648588
440297360.0 0.0786814722 -0.088786904 0.0002405824 0.000174179 0.0001716217 0.000190958 -0.5269514312 0.6637998604
445297330.0 0.0774249574 -0.0896761208 0.0004643687 3.35689e-05 0.0001909091 0.0001737717 -0.5198839192 0.6680940141
450297300.0 0.076381987 -0.0907531872 9.77133e-05 0.0001244796 0.0002223406 8.44421e-05 -0.5125921945 0.6740066651
455297270.0 0.0744429257 -0.0914102355 0.0002655342 0.0001084874 7.12353e-05 0.0001798491 -0.5061486637 0.6780269368
460297240.0 0.0733443439 -0.0922616186 0.0002721436 -2.16584e-05 9.67805e-05 -7.93666e-05 -0.4991864765 0.6837239683
465297210.0 0.0720944483 -0.0932339909 0.0002158354 0.0001903066 0.0003363425 0.0001834709 -0.4916672338 0.688413048
470297180.0 0.0706701086 -0.0939755163 0.0002237252 0.0003897837 0.0002791777 0.0001896456 -0.4838891941 0.6939670198
475297150.0 0.0692644597 -0.0948596051 0.0003958395 0.0002341804 0.0003183816 0.0001803895 -0.4767405882 0.697927245
480297120.0 0.068205076 -0.0952555827 6.32252e-05 0.0003855264 0.0002033053 9.67972e-05 -0.4695011538 0.703206549
485297090.0 0.0667859853 -0.0960551935 0.0002133808 0.0001962326 0.0001374641 0.0001394937 -0.4619928047 0.7077739011
490297060.0 0.0649099117 -0.0965906021 0.000315609 2.1315e-05 0.0002887738 3.74072e-05 -0.4548763043 0.7117263004
495297030.0 0.063961674 -0.0973207698 0.0004364607 1.663e-07 0.0001972162 0.0001104336 -0.4474988458 0.7171609061
500297000.0 0.0626583924 -0.0982815024 0.0003166623 0.000245655 0.0002007556 0.0004017026 -0.4401535584 0.7219559869
505296970.0 0.0613685611 -0.0989974472 0.0001273533 0.0001947669 0.0002438085 0.000154797 -0.4325166485 0.7257421003
510296940.0 0.0597987007 -0.099778871 0.0003303138 0.0001628191 0.0003509139 9.4947e-05 -0.4253351158 0.7302983076
515296910.0 0.0586838251 -0.1001214788 0.0002800413 6.73355e-05 0.0004653567 0.0001162492 -0.418067517 0.7345683315
520296880.0 0.0569699984 -0.1007373879 0.0003077728 -0.0001004067 0.0003354382 0.0001119411 -0.4106218294 0.7387883807
525296850.0 0.0557869074 -0.1013496976 0.0005970205 -9.49158e-05 0.0002896485 0.0001164499 -0.4029073446 0.7433127721
530296820.0 0.0542219167 -0.1017373398 0.0002331369 -7.8583e-06 0.0002618852 -3.51999e-05 -0.3956180501 0.7475588936
535296790.0 0.0528623805 -0.1022449148 0.0002520307 4.4679e-06 0.0003542478 -0.0001087321 -0.3885812647 0.7512097374
540296760.0 0.0510570979 -0.1028616972 0.000410613 0.0002315739 0.0001950172 0.0001543653 -0.3801789378 0.7553056154
545296730.0 0.0496545594 -0.1032788173 0.0001825267 0.0001357556 0.0002163323 7.2891e-05 -0.3724553427 0.7594172196
550296700.0 0.0487653826 -0.1037153105 0.0003202022 1.17416e-05 0.0001698356 5.85905e-05 -0.3647864384 0.76349316
555296670.0 0.0469993865 -0.1042439416 0.0001544196 8.887e-06 0.0004066606 0.0002016912 -0.3575712047 0.7676069508
560296640.0 0.0456798236 -0.1044934687 0.0002700188 8.92645e-05 0.0002621652 0.0002691473 -0.3491447216 0.7706833274
565296610.0 0.0440593003 -0.1049880879 0.0002435311 -2.98247e-05 9.67838e-05 5.37794e-05 -0.3415769629 0.7739889211
570296580.0 0.0425969097 -0.1049663972 0.0003043397 -3.46782e-05 0.0002096699 -5.005e-05 -0.3340806246 0.7781051591
575296550.0 0.0411171753 -0.1055277572 0.0003446909 0.0004152084 -5.15866e-05 0.0003732583 -0.3265765665 0.7811885561
580296520.0 0.0398851907 -0.1060699322 0.0003385124 0.0001599305 0.0002549831 5.03446e-05 -0.3177913932 0.7839823064
585296490.0 0.0380358861 -0.1063813243 6.88631e-05 5.9641e-05 0.0005086199 3.94284e-05 -0.3099598427 0.787385295
590296460.0 0.037101698 -0.1067906905 0.0002475952 0.0001700973 0.0003631203 3.15919e-05 -0.3021667065 0.7903322076
595296430.0 0.0355113604 -0.106763067 0.0003346277 0.0001224348 0.0004568995 2.6349e-06 -0.2944228579 0.7928767736
600296400.0 0.033757171 -0.1072778394 0.0004361979 0.0001675177 0.0004301066 0.0001693043 -0.2861830419 0.7954488866
605296370.0 0.0321445753 -0.1074288007 0.0001183772 0.0001591257 0.0002997193 5.88693e-05 -0.2775093595 0.7985090617
610296340.0 0.0310060485 -0.1075194076 0.0002726984 4.96901e-05 0.0003621566 -5.6137e-06 -0.2700166039 0.8006047165
615296310.0 0.0294687377 -0.1080790476 0.0004841667 9.04066e-05 0.0002697527 7.49454e-05 -0.2613434588 0.8029104951
620296280.0 0.0279125957 -0.1080922476 0.0004308532 -0.00019436 0.000358 -2.39466e-05 -0.2539763352 0.8057408548
625296250.0 0.0265549535 -0.1085133208 0.0002886646 -2.85898e-05 0.0002196319 0.0001391681 -0.2450296307 0.8073661626
630296220.0 0.0252997957 -0.1087304284 0.0004268616 7.0648e-05 0.0003299141 -4.83401e-05 -0.2369095277 0.8101528461
635296190.0 0.0237480282 -0.1086071453 0.0003374962 0.000243634 0.0003087973 2.21228e-05 -0.2289186161 0.8120041464
640296160.0 0.0222639743 -0.1088378911 0.0002207735 2.18669e-05 0.0003497651 0.0002034715 -0.2205967559 0.8148855203
645296130.0 0.0206808743 -0.1084858623 0.0004608671 2.99302e-05 0.0003164127 -0.0001088655 -0.2123852908 0.8168066243
650296100.0 0.0192278242 -0.1085747605 0.0005187338 0.0001560449 0.0001745099 4.72399e-05 -0.2041310499 0.8175514787
655296070.0 0.0179086267 -0.1087057332 0.0002598875 -5.06215e-05 0.000509695 2.2498e-05 -0.1954872838 0.8204029522
660296040.0 0.016204121 -0.1088224833 0.0005210464 0.0001524365 0.0003036047 6.28242e-05 -0.1864244166 0.8221788363
665296010.0 0.0153302577 -0.1090729464 0.0004137338 0.0002164712 0.0003623526 3.71804e-05 -0.1785279784 0.8247116869
670295980.0 0.0135689276 -0.108477265 0.0005422206 0.000171926 0.0003780954 -0.0001755283 -0.1709933755 0.8257247545
675295950.0 0.0120596215 -0.1088560523 0.0001675181 -5.4506e-05 0.0006314697 -6.08257e-05 -0.1629407308 0.8285498298
680295920.0 0.0106977899 -0.1087737416 0.0001982503 -0.0001231278 0.0006824434 0.000310934 -0.1536538925 0.8303947172
685295890.0 0.0092405125 -0.1081719083 0.0004239878 7.63662e-05 0.0001989454 0.0002371201 -0.1454718977 0.830943819
690295860.0 0.0080303986 -0.1085388273 0.0005414325 -0.0001084435 0.0004127859 0.000150485 -0.1374896452 0.8337031768
695295830.0 0.0062358873 -0.1083817559 0.0005261939 9.50003e-05 0.0001475169 0.000111001 -0.1284923159 0.8341174726
700295800.0 0.004925771 -0.1082551475 0.0003293667 -1.3108e-05 0.0003382674 -7.68153e-05 -0.1213121005 0.8356682737
705295770.0 0.0034123847 -0.1081901009 0.0002541922 0.0001324468 0.0002611832 1.24608e-05 -0.1127006797 0.8375172323
710295740.0 0.002046737 -0.1079942506 0.0006995894 0.0001834106 0.0004193567 0.0001697551 -0.1040120512 0.83840677
715295710.0 0.0005489942 -0.107911339 0.0002928204 4.2794e-05 0.0003292621 5.0049e-06 -0.0958640045 0.8388363521
720295680.0 -0.0006170392 -0.1075648418 0.000213096 9.4136e-06 0.0004513629 -0.0001476649 -0.0870868211 0.8409976724
725295650.0 -0.0021652166 -0.1072967977 0.0002294387 -0.0001044085 0.0002051591 -9.89699e-05 -0.0793598719 0.8418018589
730295620.0 -0.0036676102 -0.106880991 0.0004423441 -8.97376e-05 9.27865e-05 1.84165e-05 -0.0713734005 0.8423009618
735295590.0 -0.0047494483 -0.1065664491 0.0003420182 -0.0002257287 0.0002447881 -0.0002052247 -0.0624184465 0.8424557288
740295560.0 -0.0065462377 -0.1062891513 0.0004791559 -7.50993e-05 0.0003393944 -2.24259e-05 -0.0533247079 0.8437603947
745295530.0 -0.0079703874 -0.1062201912 0.0002939227 6.45025e-05 0.0004469685 -3.38099e-05 -0.0451613468 0.8437040215
750295500.0 -0.0092407841 -0.1059333592 0.0004121765 7.66801e-05 0.0003956488 -0.0002618755 -0.0373336751 0.8442773028
755295470.0 -0.0107941332 -0.1055898118 0.0005311885 -0.00010654 0.0003417718 1.64727e-05 -0.0284250961 0.8435814358
760295440.0 -0.012010603 -0.1052197075 0.0005751871 0.0001114733 0.0005542194 -5.40503e-05 -0.0203820501 0.8440116544
765295410.0 -0.0133049876 -0.1047313702 0.0003774465 -2.31399e-05 0.0003045907 -1.5626e-06 -0.0119617655 0.8443921177
770295380.0 -0.0149387248 -0.104569313 0.0002725002 -0.0001403079 0.0003517598 -0.0002220814 -0.0036723554 0.8443552657
775295350.0 -0.0165655382 -0.1041475734 0.0005427134 -5.94967e-05 0.0004272954 0.0001075241 0.0042489347 0.8439063155
780295320.0 -0.0174698979 -0.1034149211 0.0003366474 -0.0001215247 0.0001885354 -1.68457e-05 0.0128802341 0.8434320027
785295290.0 -0.0192797902 -0.1035312891 0.0003722261 0.0002805619 0.0003379903 -3.23741e-05 0.0214658444 0.8432071481
790295260.0 -0.0202565244 -0.1027976175 0.0006396964 5.69467e-05 0.000549997 -0.0001587856 0.03048263 0.8434451623
795295230.0 -0.0219322825 -0.1023296116 0.0005198533 -0.0001849608 0.0005141175 -0.0001686503 0.0390006529 0.8418876475
800295200.0 -0.0233357731 -0.1017073641 0.0004131037 -0.0001537908 0.0002083756 0.0002267177 0.0478516312 0.8421473487
805295170.0 -0.0243708277 -0.1015745283 0.0006534752 2.12746e-05 0.0005615273 -1.77675e-05 0.0551995276 0.8418689814
810295140.0 -0.0255529928 -0.1009327357 0.0004070243 -0.0001519762 0.0004510279 8.36002e-05 0.0638950718 0.8408145673
815295110.0 -0.0268758069 -0.1005734333 0.000189416 -9.40583e-05 0.0004613575 -0.0001251032 0.072142437 0.8399746572
820295080.0 -0.0284341406 -0.0993976992 0.0003468378 -7.65808e-05 9.88593e-05 -0.0001735199 0.0807885378 0.8396021959
825295050.0 -0.0294400635 -0.0993346911 0.0005138357 -0.0001952962 0.0005877926 -5.12615e-05 0.0892623766 0.8386198798
830295020.0 -0.030934039 -0.0986860295 0.000539452 -7.07278e-05 0.0003737062 -0.0002558858 0.0986298023 0.8373262201
835294990.0 -0.0321769037 -0.0979705091 0.0004224852 -8.6106e-05 0.0001630774 -0.0001294339 0.1057881823 0.8367892379
840294960.0 -0.033447042 -0.0975134096 0.0004200641 -0.0001941521 0.0004511431 -6.33543e-05 0.1143905167 0.8356297923
845294930.0 -0.0347100611 -0.0967216313 0.000525304 -0.0003627165 0.0004907945 -0.0004879421 0.1230566582 0.8343224756
850294900.0 -0.0355392984 -0.0958998584 0.0006512832 -0.0001733046 0.0005286909 -2.51432e-05 0.130646203 0.8336657832
