!Created with skrf (http://scikit-rf.org).
# Hz S RI R 50.0 
!freq ReS11 ImS11 ReS21 ImS21 ReS12 ImS12 ReS22 ImS22
300000.0 -0.7735825452 -0.1682847101 0.000495632 0.0011688281 -0.000747849 0.0009899035 -0.0448893769 -0.0772213639
5299970.0 -0.7859076268 -0.0086028165 4.29024e-05 -4.52707e-05 -9.42183e-05 0.0001810911 -0.0492300023 0.0143002846
10299940.0 -0.7890522206 -0.0055522507 1.55588e-05 0.0001112913 9.04288e-05 0.0002017359 -0.04310232 0.0324486073
15299910.0 -0.793899888 -0.0033283506 8.61333e-05 0.0001476362 -9.12882e-05 0.000128649 -0.0350072608 0.0463218835
20299880.0 -0.8008333534 0.000692498 0.0002375738 0.0001293189 0.0001359972 0.0002303287 -0.0254143596 0.058619419
25299850.0 -0.8077132892 0.0066938356 -0.0001044601 6.43519e-05 -8.81669e-05 7.28439e-05 -0.0144562745 0.0678639003
30299820.0 -0.8138880376 0.0137749206 0.000118538 0.0001244049 4.98405e-05 -0.0001428045 -0.0028750029 0.0749724449
35299790.0 -0.8184008201 0.0231639456 -1.76625e-05 -3.69537e-05 7.34259e-05 0.0001045379 0.0083584447 0.0795297358
40299760.0 -0.8235233108 0.0320118824 1.57768e-05 3.55174e-05 1.45459e-05 1.89855e-05 0.0195736659 0.0824931299
45299730.0 -0.8262184816 0.0421230172 8.65802e-05 -0.0001965204 6.70296e-05 0.0001119307 0.0303943812 0.084006272
50299700.0 -0.8289968294 0.0521547046 0.0002163026 -4.61697e-05 -0.0001261677 9.447e-07 0.0403343691 0.0843969473
55299670.0 -0.8314556019 0.0611753589 -0.0001594908 0.0001303369 6.7356e-06 0.0001145144 0.0494587416 0.083132704
60299640.0 -0.8327391125 0.0716408613 0.0001069716 -9.91436e-05 -4.97106e-05 8.29579e-05 0.0578501992 0.0817034806
65299610.0 -0.833060425 0.0823093348 8.12508e-05 3.74813e-05 5.4847e-05 -4.32377e-05 0.0654892113 0.0794666797
70299580.0 -0.8339129795 0.0914101187 1.19984e-05 -4.02246e-05 -2.6702e-05 0.0001969254 0.072469933 0.0766636191
75299550.0 -0.8338540304 0.1018912679 -6.43144e-05 3.78605e-05 2.0281e-06 4.9916e-06 0.0790924981 0.0736028301
80299520.0 -0.8338293394 0.1119865783 -9.12551e-05 0.0001656051 1.22139e-05 -2.82412e-05 0.084928296 0.070121519
85299490.0 -0.8326624869 0.1208575187 -0.0001121513 -1.5162e-05 -3.19786e-05 -1.59201e-05 0.0896158258 0.0666441182
90299460.0 -0.8322997587 0.1318557065 -5.6364e-05 5.20646e-05 -0.0001313599 -1.68302e-05 0.0944484436 0.0626796446
95299430.0 -0.8312886648 0.1406600815 -2.62951e-05 -0.000134704 0.0001871011 6.00968e-05 0.0984018008 0.0592185546
100299400.0 -0.8308832048 0.1502529572 -2.6171e-06 0.0001204432 -0.0001211049 5.47061e-05 0.1023635561 0.055716137
105299370.0 -0.8288921326 0.1591859775 -5.67183e-05 5.47872e-05 0.0001057917 -2.38515e-05 0.1055523446 0.05130598
110299340.0 -0.8278347076 0.1685668166 -1.2433e-05 -7.2362e-06 0.0003583909 -0.0001659619 0.1079463345 0.0472603115
115299310.0 -0.8258207581 0.1777850189 -3.9718e-05 0.0002869539 -0.000131494 8.50396e-05 0.1107567341 0.0439362625
120299280.0 -0.8244871182 0.1866210531 7.5725e-05 -0.0001380194 6.45254e-05 0.0001198806 0.113073173 0.0399101155
125299250.0 -0.8222000913 0.1953369975 8.24564e-05 -6.17772e-05 3.30107e-05 -5.34671e-05 0.1150014308 0.0364178071
130299220.0 -0.8210694811 0.2053546716 4.31946e-05 0.0001579154 0.0001060136 0.0001583907 0.1173282847 0.0327711695
135299190.0 -0.8191015835 0.2145198491 0.0001884198 0.0001339911 8.92863e-05 -2.13784e-05 0.1186554132 0.0289958199
140299160.0 -0.8171865956 0.2229946126 0.0001755422 0.0001620861 0.0001694447 0.0001607182 0.1195226198 0.0256626433
145299130.0 -0.8149331203 0.2325740831 0.0001739725 0.000174405 0.0001928667 0.0001139746 0.1208186403 0.0221591722
150299100.0 -0.811705005 0.2413245644 9.82345e-05 -0.0001211849 -2.15068e-05 9.78449e-05 0.1216843251 0.0190072107
155299070.0 -0.8097156114 0.2506754842 -0.0001351307 0.0001309072 0.0001903733 -8.58617e-05 0.1227000832 0.0156494131
160299040.0 -0.8075297855 0.2593681504 0.0001016835 0.0001612039 0.00016598 4.78201e-05 0.1232202199 0.0123685723
165299010.0 -0.8048216104 0.2673905852 -0.0001117268 6.56258e-05 6.86657e-05 0.0002822696 0.1241168818 0.0092497971
170298980.0 -0.8016841085 0.2766620751 0.000238613 0.0001925149 7.58214e-05 4.71071e-05 0.1242058277 0.0063441656
175298950.0 -0.798932833 0.2844076552 0.0002899484 0.000138526 -6.12174e-05 8.88801e-05 0.1247110024 0.0036085182
180298920.0 -0.7959828509 0.2936075169 0.0001467312 0.0001593434 6.8221e-05 -5.86935e-05 0.1247043071 0.0004871029
185298890.0 -0.7926378907 0.3022871203 0.0001748404 3.70135e-05 -9.47023e-05 4.83392e-05 0.1251283799 -0.0023365036
190298860.0 -0.7895033125 0.3110457744 0.0001331054 -9.3875e-05 -7.79395e-05 0.0001692952 0.1247687549 -0.0053915097
195298830.0 -0.7860325186 0.3195385395 -7.4413e-06 0.0003092534 8.94109e-05 0.0001333624 0.124851162 -0.0079463698
200298800.0 -0.783396393 0.3276331908 -9.34536e-05 4.1588e-06 0.0001112429 0.000162678 0.1248116273 -0.010752487
205298770.0 -0.7791648947 0.3362645317 0.0002046415 0.0001056405 0.0001932369 0.0002135213 0.1246906408 -0.0129634528
210298740.0 -0.7762120412 0.3448315991 1.62462e-05 0.0001303238 0.0002065228 0.0002449016 0.1245225834 -0.015800573
215298710.0 -0.7720851179 0.3533536632 4.11054e-05 0.0001738525 -5.05575e-05 0.0001685652 0.124214393 -0.0183494554
220298680.0 -0.7682850414 0.360956755 5.57468e-05 0.0002632738 0.0002560187 4.75447e-05 0.1238146596 -0.020314855
225298650.0 -0.7648538226 0.3696774054 0.0001926818 0.000171601 8.31241e-05 0.0001221724 0.123144383 -0.0228131509
230298620.0 -0.760760772 0.3780564381 0.0001571283 0.0002963252 0.0001676009 8.58793e-05 0.1227362652 -0.0251192078
235298590.0 -0.7571567354 0.3856505804 0.0001512708 2.21763e-05 7.08136e-05 5.07753e-05 0.1222602635 -0.0272388802
240298560.0 -0.7525817471 0.3937325025 2.46876e-05 0.0001755959 0.0002745645 0.0003430837 0.1220013944 -0.0296241951
245298530.0 -0.7485450638 0.4017561371 8.817e-07 -0.0001023025 0.0001397889 0.0002690354 0.1212882526 -0.0317414058
250298500.0 -0.7445770869 0.4096533635 0.0001483444 7.24703e-05 -5.50444e-05 -2.86655e-05 0.1207429188 -0.0336334534
255298470.0 -0.7406987736 0.4176819623 -1.55858e-05 0.0001841155 1.43726e-05 0.000121199 0.1199328243 -0.0360675776
260298440.0 -0.7361409213 0.4250574292 0.0001887358 0.0003627603 3.21197e-05 -5.95147e-05 0.1189856658 -0.0381089167
265298410.0 -0.7321604565 0.4327685617 9.533e-05 -0.0001736101 6.97351e-05 7.62708e-05 0.1185612061 -0.0402151888
270298380.0 -0.727484441 0.4404452853 0.0001441928 0.0002613089 8.11262e-05 6.75994e-05 0.1180274582 -0.0421579697
275298350.0 -0.7231673955 0.4483123384 0.0002019024 0.0001524884 0.0002790285 8.3919e-05 0.1173144487 -0.0439957981
280298320.0 -0.7181723177 0.4557611731 0.0002220116 6.07864e-05 0.0001831302 0.0002899034 0.1163205804 -0.0457138897
285298290.0 -0.7134857674 0.4635677225 0.0001573533 4.99845e-05 0.0001583231 0.0001928865 0.1152913685 -0.0475055549
290298260.0 -0.7086080574 0.4710999144 0.0001362803 -0.0001760202 0.0002076423 3.08488e-05 0.1146063082 -0.0492448239
295298230.0 -0.7036703757 0.478173562 0.0002709647 8.40199e-05 -4.74764e-05 0.0003300711 0.1140918697 -0.0510852649
300298200.0 -0.6994622716 0.4853340376 5.46212e-05 -4.09989e-05 0.0002084204 0.0002262491 0.1130446343 -0.0525897054
305298170.0 -0.694571658 0.492246584 0.0002714168 0.0001426518 0.0001997198 0.0001404899 0.1121802877 -0.0546913287
310298140.0 -0.688907488 0.4999448714 0.0002265092 3.1299e-05 0.0001916251 0.0001799012 0.1114738 -0.0562911284
315298110.0 -0.6842801363 0.5071410158 0.0001350558 0.0001782664 0.0001242898 5.21398e-05 0.1108425961 -0.0582723986
320298080.0 -0.6789548985 0.5140302414 0.000321713 6.23925e-05 0.0003849023 -0.0001010178 0.1094272585 -0.0599821176
325298050.0 -0.6732848743 0.5210837544 0.0003350383 2.54298e-05 0.0001516813 3.92754e-05 0.1087357956 -0.0621976577
330298020.0 -0.6678712355 0.5279596139 0.0003091178 3.70042e-05 4.2701e-05 0.0001485918 0.1073833057 -0.0639626994
335297990.0 -0.6627083876 0.5348291381 1.42803e-05 0.0001775853 0.0002430262 0.0002999644 0.1062552187 -0.065174965
340297960.0 -0.6580266541 0.5416255412 0.000312402 0.0001944667 0.000336607 0.0001078263 0.1049018221 -0.0665252143
345297930.0 -0.6518913742 0.5483253157 0.0002683577 5.16962e-05 8.77482e-05 2.34374e-05 0.1036030901 -0.0680732983
350297900.0 -0.6460181028 0.5549649494 6.7802e-05 -1.68226e-05 3.61692e-05 0.0001407339 0.1020835371 -0.0695054553
355297870.0 -0.6408497426 0.561355143 0.0001806563 2.469e-07 0.0002374366 7.16524e-05 0.101319976 -0.0707893566
360297840.0 -0.6348263919 0.5676587564 8.51665e-05 7.92397e-05 0.0002485792 0.0001502513 0.1000767368 -0.0720345069
365297810.0 -0.629349132 0.5749578038 8.3755e-05 0.0001526219 6.89363e-05 0.0001652044 0.0987506142 -0.0734490461
370297780.0 -0.6230038705 0.5805637324 0.0001013934 0.0002293809 0.0001527888 0.0001317182 0.0971783221 -0.0747467212
375297750.0 -0.6175284501 0.5873719016 0.0001121157 0.0001171987 0.000103883 7.39484e-05 0.0962471625 -0.0760183441
380297720.0 -0.6116213239 0.5935660433 0.0002993355 0.0001064666 2.15518e-05 0.0001191139 0.0951420975 -0.0769687939
385297690.0 -0.6058233391 0.5994634528 0.0002415687 0.0003314496 0.0002735917 0.0001949451 0.0938915029 -0.0784795588
390297660.0 -0.5984458192 0.6058316871 7.24547e-05 0.0001473856 0.0003997234 8.60008e-05 0.0923679905 -0.0795109853
395297630.0 -0.5927778395 0.6122115531 0.0002952 0.0003812192 0.0002157938 -7.5902e-06 0.0911780171 -0.0806933927
400297600.0 -0.5860671516 0.6181970988 0.000119587 0.0001380343 0.0002652569 -0.0001712616 0.0902880193 -0.0812950141
405297570.0 -0.5806139585 0.6232282438 0.0001709938 0.0001546726 1.91814e-05 7.31502e-05 0.0890394455 -0.0825763844
410297540.0 -0.5738337423 0.6294687609 0.0001191156 -8.39497e-05 0.0001374903 5.31611e-05 0.0873676231 -0.083662028
415297510.0 -0.5672937038 0.6353746659 0.0002414342 4.2488e-05 2.47476e-05 0.000154788 0.0864294799 -0.0851360844
420297480.0 -0.5608653454 0.6410158044 0.0001783145 1.22238e-05 0.0002822503 0.0001455373 0.0851395688 -0.085742235
425297450.0 -0.5540540738 0.6461952938 0.000166917 0.0001687888 0.0003868142 0.0001260797 0.0837408549 -0.0871049188
430297420.0 -0.5476378284 0.6521465634 0.0002692925 2.84982e-05 0.0002817188 6.75028e-05 0.0824441604 -0.0878663389
435297390.0 -0.5405951924 0.6576183673 0.0003393693 0.0003201334 0.0001580492 0.0002707563 0.0808906404 -0.0887567887
440297360.0 -0.5339062006 0.6629732215 0.0003834652 0.0001063848 0.0004059827 0.0003074955 0.0799149359 -0.0898789071
445297330.0 -0.5273351713 0.6678989406 0.0001930992 -3.69792e-05 0.0001915186 0.0002577585 0.0787895317 -0.0908013362
450297300.0 -0.5200174478 0.6735593693 2.59166e-05 -0.0001097438 0.0002277044 -5.91417e-05 0.077227901 -0.0914906453
455297270.0 -0.5130192283 0.6783244075 0.0001733062 0.0001977844 0.0002443361 0.0002501343 0.0759880203 -0.0928314108
460297240.0 -0.5057468637 0.6836320602 0.000244015 0.0001296899 0.0002967829 -4.56144e-05 0.0745424833 -0.0933551049
465297210.0 -0.4992902468 0.6888424653 0.0004269882 0.0001115215 0.0002268857 0.000168777 0.073158799 -0.0940424186
470297180.0 -0.4914835968 0.6941051797 0.000211388 0.0001041345 0.0003339715 0.0001818104 0.0719607819 -0.0949365505
475297150.0 -0.4845205894 0.6988501682 0.0006508611 0.000168591 0.0004543273 0.0001570796 0.070748215 -0.0955970214
480297120.0 -0.4767607227 0.7041625331 0.0002501427 8.7571e-05 0.0002833068 0.0001671965 0.069007872 -0.0962858034
485297090.0 -0.4699068802 0.7085839039 0.0001907708 4.41385e-05 0.0002480715 3.24681e-05 0.0677384534 -0.0971612219
490297060.0 -0.4622575177 0.7136735413 0.0001451112 9.44239e-05 0.0002716434 0.0002558005 0.0662509215 -0.0980051332
495297030.0 -0.4549024541 0.7178022955 0.0002456803 0.0001086826 0.0001149998 6.08484e-05 0.0651735129 -0.0989549467
500297000.0 -0.4474693927 0.7220832194 0.000391593 0.0001274647 0.0002515795 2.05124e-05 0.0637856902 -0.099201831
505296970.0 -0.4390980054 0.7270969698 0.0001175864 9.5167e-06 2.77399e-05 0.0001005008 0.0621743283 -0.1002253078
510296940.0 -0.4318784594 0.7310772614 0.0003605169 3.95013e-05 0.0001996789 0.0001954813 0.0611586222 -0.1004428086
515296910.0 -0.4241985263 0.7354464648 0.0004207848 -6.87864e-05 0.0004383949 -5.84653e-05 0.0594783819 -0.1010805231
520296880.0 -0.4157461829 0.7401227921 0.0002146501 -6.78446e-05 0.0003282227 9.57093e-05 0.0584745538 -0.1015594349
525296850.0 -0.4086446905 0.7441714585 0.0004229331 0.0001762796 0.0004379466 4.55566e-05 0.0567485737 -0.1025132584
530296820.0 -0.4012763725 0.748108818 0.000433196 0.0001591065 0.0002152088 0.0001486303 0.0553093727 -0.1031240357
535296790.0 -0.3924445846 0.7517112455 0.0005073087 -0.0001827156 0.0006167769 0.0001720864 0.0542506454 -0.1035346506
540296760.0 -0.38481596 0.7558398606 6.55678e-05 2.13187e-05 0.000203429 -2.82365e-05 0.0523877486 -0.103992722
545296730.0 -0.3775382098 0.7602973371 0.0003367355 0.00017601 0.0001385757 4.33538e-05 0.0510644399 -0.1043786408
550296700.0 -0.3688514359 0.7635523729 0.0003462596 -3.22028e-05 0.0001045413 0.0001564489 0.0497029677 -0.1051729065
555296670.0 -0.3613403325 0.7671960221 0.0005338601 0.0001281059 0.0002506841 0.0001593722 0.0481051766 -0.1059191436
560296640.0 -0.3528128976 0.77039548 0.000160268 0.0001729756 0.00041512 0.0001103262 0.0466948144 -0.1059733161
565296610.0 -0.3453836209 0.7741733074 0.0002549738 0.0001208693 0.0002717711 4.87582e-05 0.0454485081 -0.1061751914
570296580.0 -0.3368637516 0.7777392941 0.0003207518 7.34631e-05 0.0002712363 0.000146381 0.0437030865 -0.1070648505
575296550.0 -0.3280304469 0.7811829509 0.0005065776 0.000159239 0.0004459027 -4.06821e-05 0.0423929969 -0.1072314654
580296520.0 -0.3205197583 0.784602958 0.0004975664 -1.08573e-05 0.0001643913 5.32079e-05 0.0410187114 -0.1075820161
585296490.0 -0.3125879436 0.7875056929 0.0005699959 0.0003044056 0.0003177698 0.0001384762 0.0396541407 -0.1075545589
590296460.0 -0.3035519933 0.7910137442 0.0002666519 -1.1642e-05 6.88947e-05 6.8236e-05 0.0379259899 -0.1082231009
595296430.0 -0.2959030109 0.7937561452 0.0005241154 8.3425e-05 0.0003856681 0.0002121328 0.0367845065 -0.1083059703
600296400.0 -0.2877169595 0.7964980401 0.0002615305 0.0001413182 0.0002902541 6.24496e-05 0.0350686438 -0.1087693049
605296370.0 -0.2797412506 0.7994285496 0.000405545 2.35039e-05 0.0004813032 3.58219e-05 0.0336354882 -0.1090412939
610296340.0 -0.2714838694 0.8028673361 0.0003488319 -8.09761e-05 0.0001478576 -8.36269e-05 0.0321262094 -0.109190491
615296310.0 -0.2627556761 0.8053636529 0.0003416451 -0.0003684674 0.000166689 3.13782e-05 0.0309602476 -0.1092115131
620296280.0 -0.2551251865 0.8079483726 0.0004645282 7.88307e-05 0.0002879961 -0.0001717261 0.0292471404 -0.109245441
625296250.0 -0.2470701156 0.8104434657 0.0003504606 7.09792e-05 0.0001930817 1.6034e-06 0.0277530198 -0.1096069358
630296220.0 -0.2387020176 0.8131298671 0.0004773882 -4.12939e-05 0.0003378488 4.85582e-05 0.0264884783 -0.1098910233
635296190.0 -0.2307176539 0.8153635407 0.0001861446 0.00028141 0.0002648402 3.99695e-05 0.0248381767 -0.1100285433
640296160.0 -0.2215076308 0.8177176758 0.0003980763 3.04351e-05 0.0004252818 7.28868e-05 0.0233890956 -0.110054747
645296130.0 -0.2131690201 0.8203303008 0.0003256705 8.35234e-05 0.0004885805 0.0001592365 0.022035364 -0.1101812919
650296100.0 -0.2056116729 0.822245378 0.0004728851 9.92687e-05 0.0002984245 -9.35674e-05 0.0206922072 -0.1104187584
655296070.0 -0.1976572756 0.8241818697 0.0003453863 4.3373e-06 0.0002972555 0.0001583273 0.0187050348 -0.1101377231
660296040.0 -0.1890105329 0.8266379302 0.0005518011 5.91693e-05 0.0004965722 6.5051e-06 0.017626169 -0.1102304406
665296010.0 -0.1813346142 0.8282006051 0.0003086027 -8.44458e-05 0.0003868772 0.0001548166 0.0161770614 -0.110354191
670295980.0 -0.1727473182 0.8299740949 0.0003558422 3.37325e-05 0.0004541997 7.7796e-06 0.0145712596 -0.1104959125
675295950.0 -0.1641593941 0.832207254 0.0004217374 0.0002586701 0.0003171674 -3.41573e-05 0.0133369745 -0.1103307107
680295920.0 -0.1564309471 0.8335614303 0.0003628142 0.0001447171 0.0004746998 0.0002019147 0.0116319031 -0.1103057367
685295890.0 -0.1473154556 0.8358043621 0.0002761512 0.0002917243 0.0003689977 0.0001434747 0.0102574177 -0.1103634172
690295860.0 -0.1390844879 0.8368586033 0.0002410802 -0.0001994444 0.0005237682 3.39106e-05 0.0088512979 -0.1103025701
695295830.0 -0.1304854383 0.8383783272 0.0004425017 -3.43118e-05 0.0003118035 4.33218e-05 0.0073317499 -0.1097482035
700295800.0 -0.1218906309 0.8398819447 0.0005652782 2.53266e-05 0.0004908507 3.52149e-05 0.0062009606 -0.1099450653
705295770.0 -0.1142968653 0.841145175 0.0004023156 4.6905e-06 0.0004891654 -0.0001289424 0.0046709631 -0.1094355923
710295740.0 -0.106591016 0.8416883324 0.0005067913 5.96711e-05 0.0003657568 0.0001697671 0.0035774856 -0.1094677027
715295710.0 -0.0971447292 0.8438055135 0.0001184206 -9.37485e-05 0.0002383694 4.1213e-05 0.0020634798 -0.1095856835
720295680.0 -0.0890979012 0.8442731037 0.0003168542 3.67998e-05 0.0005071963 3.37972e-05 0.0003138114 -0.109245772
725295650.0 -0.0813446938 0.8453203351 0.0005611724 -5.07105e-05 0.0003832102 -1.89632e-05 -0.0009639829 -0.1089398523
730295620.0 -0.073351944 0.8467291781 0.0004806853 7.94532e-05 0.0003435948 0.0001179431 -0.0023660395 -0.1086140118
735295590.0 -0.0658092774 0.8473839241 0.0005043349 -0.0001641906 0.0004936839 -6.33371e-05 -0.00347938 -0.1083908472
740295560.0 -0.0572470359 0.8473880335 0.0003556285 -5.05841e-05 0.0003773442 -0.0001719152 -0.0052602233 -0.1083392191
745295530.0 -0.0486103712 0.8484681162 0.0003493427 -6.62336e-05 0.0005221276 -1.50753e-05 -0.0068270639 -0.1077419744
750295500.0 -0.0409328761 0.8486353468 0.0005210237 -3.93706e-05 0.0003390238 -6.3863e-06 -0.0080206245 -0.1076682012
755295470.0 -0.0318634757 0.849591154 0.0004142457 -0.0002626693 0.0002923642 -0.0001141264 -0.0095061175 -0.106971565
760295440.0 -0.0236986616 0.8504272631 0.0003200587 -0.0002598779 0.0006249518 -0.0002072411 -0.0105926753 -0.1070011602
765295410.0 -0.0163452166 0.8500762735 0.0004550128 -0.000136833 0.0003596679 -0.000163865 -0.0120934633 -0.1064281886
770295380.0 -0.007778606 0.8504713432 0.0002314139 -0.0001320767 0.0004204547 7.3291e-06 -0.0136472367 -0.1062900085
775295350.0 1.00534e-05 0.8514368132 0.0005699196 7.6408e-05 0.0004703662 -0.0001196039 -0.0146408083 -0.1058739429
780295320.0 0.0091099254 0.8515831328 0.0006076203 -0.0002240699 0.0002705632 3.0129e-05 -0.0165110029 -0.1052831139
785295290.0 0.0177109373 0.8505356336 0.0003904774 -0.000110478 0.0003639719 -0.0001040903 -0.0180184712 -0.1049074273
790295260.0 0.0253456967 0.8508493229 0.0004258696 5.33931e-05 0.0003999849 -0.0001712244 -0.0191611559 -0.1042216654
795295230.0 0.0330291823 0.8504398017 0.0003532588 -4.878e-06 0.0005014553 -8.34051e-05 -0.0208167762 -0.1043381383
800295200.0 0.0412568669 0.850097788 0.0005055176 -0.0002315996 0.0005925664 -0.0003057868 -0.0220052168 -0.1037969974
805295170.0 0.0496552968 0.8501544866 0.000503479 -2.15308e-05 0.0003789428 -0.0002407158 -0.0227949588 -0.1032953616
810295140.0 0.0581973557 0.850243248 0.0005019983 -0.0003309353 0.0005837979 -0.0002545397 -0.024347605 -0.1026736546
815295110.0 0.0650282238 0.849495443 0.0005823586 -0.0001590942 0.0003964981 -9.16321e-05 -0.0258601081 -0.1020396733
820295080.0 0.0735729185 0.8492956412 0.0002657717 -4.69134e-05 0.0005093316 8.39112e-05 -0.0274018382 -0.1012163992
825295050.0 0.082165244 0.8478876868 0.0004342941 -4.78346e-05 0.0005720729 -0.0002979968 -0.0279259806 -0.1010059974
830295020.0 0.0904881391 0.847506147 0.0004147746 6.67901e-05 0.0004470159 -4.25356e-05 -0.0296878661 -0.1007048382
835294990.0 0.0980323036 0.8464992578 0.0003313682 -0.0002101428 0.000339696 -0.0002387765 -0.0307234879 -0.0994407724
840294960.0 0.1070352606 0.8447884242 0.0002121589 -0.0001305647 0.0004698249 -0.0001121459 -0.0320783836 -0.098788845
845294930.0 0.114583639 0.8441901165 0.000349729 -0.0001246627 0.0005688329 -0.0002166597 -0.0335104717 -0.098427165
850294900.0 0.1243416501 0.8427197077 0.0003590456 -0.000218487 0.0003965367 -0.000192735 -0.0346714722 -0.0976504242
