!Created with skrf (http://scikit-rf.org).
# Hz S RI R 50.0 
!freq ReS11 ImS11 ReS21 ImS21 ReS12 ImS12 ReS22 ImS22
300000.0 -0.773235986 -0.1726949612 -0.0009920099 0.0015545221 -0.0006110836 0.0010847014 -0.0444401036 -0.0764936956
5299970.0 -0.7859473837 -0.0095116366 -0.0002197573 0.0001317582 7.56751e-05 -0.0001098898 -0.0476904842 0.013900427
10299940.0 -0.7894810851 -0.0058748551 3.76667e-05 -0.0001566413 1.744e-07 8.28273e-05 -0.0420970057 0.031696071
15299910.0 -0.7944312508 -0.0032818233 -0.0001300493 1.5086e-05 -0.0002373238 8.27552e-05 -0.0339521153 0.0455369637
20299880.0 -0.8008604833 0.0003879711 -0.0001180259 1.74689e-05 -8.3061e-06 0.0001055328 -0.0242692266 0.0570299269
25299850.0 -0.8074089442 0.0069340849 0.0002174603 -0.0001011231 -3.5129e-06 0.0001994997 -0.0137867474 0.0661236569
30299820.0 -0.8136375555 0.013905154 -0.0004126305 -2.75248e-05 -2.62933e-05 -0.0002083952 -0.0019460567 0.0728919638
35299790.0 -0.818617746 0.0229049095 3.40693e-05 0.0001780287 -0.0001345424 -7.06782e-05 0.0088896676 0.0775527475
40299760.0 -0.8232534319 0.0319739798 4.95124e-05 2.1058e-05 5.91069e-05 0.0001250046 0.020014858 0.080081342
45299730.0 -0.826860803 0.0419681398 0.0001167278 1.18595e-05 -3.30958e-05 0.0001479985 0.0304785717 0.0812233935
50299700.0 -0.8292932093 0.0519874061 0.0001095779 -3.2268e-06 -0.0001453092 -3.87334e-05 0.0404147806 0.0814875586
55299670.0 -0.8310896911 0.0611465938 6.86934e-05 0.0002255101 6.63947e-05 8.73349e-05 0.0492565722 0.0804938417
60299640.0 -0.8327253781 0.0714802212 -6.22077e-05 0.000138639 -0.0003298906 -9.11882e-05 0.0575827554 0.0786883029
65299610.0 -0.8332593216 0.0820994006 -6.30629e-05 -1.58483e-05 8.94455e-05 9.25263e-05 0.0655948673 0.0760498545
70299580.0 -0.8338188801 0.0916377191 7.94959e-05 0.0001820716 8.02932e-05 0.0001397102 0.0721622076 0.0730277941
75299550.0 -0.8337599966 0.1014414676 0.0001920936 -4.0703e-05 0.0002450731 6.09452e-05 0.0786913326 0.0698411579
80299520.0 -0.8338902425 0.1117041171 1.64899e-05 -0.0001819199 1.80407e-05 -6.95739e-05 0.0840124141 0.0661829984
85299490.0 -0.8326376543 0.1208043431 -6.66215e-05 -0.0001095728 0.0001286083 -8.9094e-05 0.0888983757 0.0623203367
90299460.0 -0.8328357086 0.1317598445 -2.26153e-05 -6.85237e-05 2.63416e-05 4.88398e-05 0.0935069647 0.0587721996
95299430.0 -0.8313139364 0.1407099039 9.09945e-05 3.96529e-05 -4.70949e-05 0.0001606797 0.097461807 0.0549304165
100299400.0 -0.830180196 0.1499439891 2.65425e-05 0.0002503483 6.95017e-05 -5.07975e-05 0.1010294764 0.0512531284
105299370.0 -0.828679215 0.1593066865 0.0001306202 5.59948e-05 8.82637e-05 -6.16475e-05 0.1043211529 0.0468626359
110299340.0 -0.8277915331 0.1686957004 -9.36805e-05 -0.0001170784 5.11342e-05 2.20846e-05 0.1066379137 0.0425881176
115299310.0 -0.8257540619 0.1775148483 -3.5884e-06 0.0001311077 -0.0001732721 -5.7103e-06 0.1092489132 0.0388872782
120299280.0 -0.8243405147 0.1866731388 -8.74211e-05 0.0001733352 -0.0001544818 -0.0003304426 0.1111717685 0.0349056769
125299250.0 -0.8226634432 0.1954780743 0.0001164951 -6.6477e-06 0.0001166855 -0.0001629225 0.113265267 0.0313221861
130299220.0 -0.8210283135 0.2050547676 0.0002318448 8.52038e-05 0.000129279 4.6242e-05 0.1150261809 0.0275192151
135299190.0 -0.8184868872 0.2142885582 7.97683e-05 4.7772e-05 7.64365e-05 -6.8417e-05 0.1164209897 0.0238149125
140299160.0 -0.8171738129 0.2233271603 -0.0001513572 0.0001493437 -3.08312e-05 4.07036e-05 0.1172024404 0.0205161779
145299130.0 -0.8147220773 0.2326010644 2.76068e-05 3.77926e-05 -0.0001686139 0.0001840835 0.1183874518 0.0167712363
150299100.0 -0.8115772436 0.2409338863 -0.0002782678 -8.21514e-05 -4.07999e-05 0.0001934784 0.1192346407 0.0135048759
155299070.0 -0.8099525846 0.2503144873 -2.62915e-05 -4.19337e-05 -9.9887e-06 0.0001422176 0.1198672551 0.0099827914
160299040.0 -0.8076675612 0.2590194185 -0.0001351334 1.64148e-05 6.2042e-05 5.41462e-05 0.1203066214 0.0065492332
165299010.0 -0.8048242024 0.2674388877 -9.24434e-05 6.16885e-05 6.01481e-05 -5.18438e-05 0.1211262615 0.0034853469
170298980.0 -0.8014736269 0.2763568773 -0.0001468983 -5.37793e-05 0.0001125702 0.00012711 0.1209573244 0.0003881218
175298950.0 -0.799047405 0.2846152911 7.18716e-05 -4.46294e-05 5.88337e-05 -5.389e-05 0.1215087043 -0.0025162565
180298920.0 -0.7957315518 0.2935682646 0.0001689536 0.0001321106 0.0002453612 5.81136e-05 0.1213999478 -0.0060136703
185298890.0 -0.7925168492 0.3020937972 2.01862e-05 0.0002502768 1.48104e-05 -7.18304e-05 0.1215349644 -0.0089101571
190298860.0 -0.7896156045 0.3112566376 -5.08558e-05 9.57438e-05 6.95159e-05 3.30035e-05 0.1212573121 -0.0117591651
195298830.0 -0.7862756847 0.3195341748 -5.26667e-05 5.344e-07 4.55828e-05 9.81965e-05 0.1210158948 -0.0142790133
200298800.0 -0.7828334513 0.3279328269 3.1453e-06 -0.0001270688 -1.80296e-05 -1.34951e-05 0.1209043354 -0.0171396474
205298770.0 -0.7791388972 0.3364858969 0.0003140723 0.0001767701 0.0002186922 -1.46751e-05 0.1205389893 -0.0199408602
210298740.0 -0.7761432909 0.344294339 -1.44051e-05 -2.77784e-05 7.6253e-05 -6.60862e-05 0.1201218146 -0.0226048367
215298710.0 -0.772279713 0.353517842 5.89229e-05 -5.68847e-05 0.0002789637 -9.34734e-05 0.1196986509 -0.0251303383
220298680.0 -0.7687127091 0.3611024694 0.0002286829 0.00012095 0.0001307882 0.000135253 0.1193314737 -0.0271403955
225298650.0 -0.765003286 0.3696039972 -0.0001290499 5.81577e-05 0.0001659353 -0.0001889203 0.1187219139 -0.0299341163
230298620.0 -0.7613730685 0.3779432979 0.0002037934 8.99543e-05 0.0001281334 0.0001402485 0.1179273403 -0.0323965905
235298590.0 -0.7575184864 0.3860942263 -3.38143e-05 -0.0001756643 9.6558e-05 0.0003017717 0.117351167 -0.0346913136
240298560.0 -0.7526143785 0.3936267021 1.89504e-05 0.0001281339 -1.87989e-05 0.0001880352 0.1168818931 -0.0372244625
245298530.0 -0.7489499773 0.4018280373 0.0002403314 -7.2301e-06 -0.0001021504 0.0001497921 0.1160062531 -0.0392372917
250298500.0 -0.7442350312 0.4093770116 0.0001225624 1.58022e-05 7.4621e-06 0.0002495212 0.1151108822 -0.0412608351
255298470.0 -0.7402857269 0.4176371244 0.0002956513 6.15974e-05 0.0002901481 0.0001390526 0.1145740456 -0.0437759929
260298440.0 -0.7364655865 0.4252177568 0.0001302387 -0.0001462622 0.0001778041 0.0001461242 0.113148401 -0.045624899
265298410.0 -0.7320058312 0.4327289758 -4.80822e-05 -0.0002377123 0.0001370191 7.23997e-05 0.1128785622 -0.0481638713
270298380.0 -0.7274114468 0.4404493691 0.0002509532 0.0001546047 0.0001956386 0.0001777728 0.1116763199 -0.0499003819
275298350.0 -0.7232699457 0.4481016106 9.71415e-05 -8.36502e-05 0.000150878 -7.34941e-05 0.1109838349 -0.0521008752
280298320.0 -0.7185897963 0.4554073314 0.0001915371 -8.4685e-06 5.6941e-06 0.0001922578 0.1098645481 -0.0538707672
285298290.0 -0.7132903098 0.4632349695 0.0001258675 3.48601e-05 0.0001156868 -2.5694e-06 0.1089720605 -0.0554362826
290298260.0 -0.70858466 0.4708639764 2.57191e-05 1.70162e-05 0.0002428468 0.000100619 0.1080371204 -0.0573677801
295298230.0 -0.7038437865 0.4779810969 7.53336e-05 0.000114961 0.0001410806 0.0002791594 0.106981712 -0.0593042183
300298200.0 -0.6991690913 0.4853713606 0.0001628267 -8.2147e-05 0.0002857197 5.58845e-05 0.1060326026 -0.0613109264
305298170.0 -0.694704086 0.4926180208 6.78461e-05 9.24512e-05 -8.21358e-05 -3.94211e-05 0.1050196616 -0.0630425221
310298140.0 -0.688720517 0.4996693669 8.77761e-05 2.10774e-05 0.0001391325 2.7136e-05 0.1040085089 -0.0647329529
315298110.0 -0.6844703448 0.5071286412 0.0001109305 3.6942e-06 3.38956e-05 -6.6369e-05 0.1028944655 -0.0665759162
320298080.0 -0.678856407 0.5143175663 0.0001106738 -6.52486e-05 -9.8762e-06 2.1061e-06 0.1015301074 -0.0685308309
325298050.0 -0.6734336425 0.5211355508 6.64914e-05 -9.85391e-05 -0.0001005797 -0.0001045696 0.1007465151 -0.0708399934
330298020.0 -0.668227328 0.5275417458 7.53717e-05 0.0001381368 3.52651e-05 0.0002374863 0.0990946129 -0.0725003455
335297990.0 -0.6628824498 0.5346423259 0.0001047099 0.0001929599 -1.78128e-05 -7.87721e-05 0.0978151137 -0.0739338811
340297960.0 -0.658165831 0.5414030806 2.14913e-05 -5.588e-06 0.000147106 0.000272569 0.0962697862 -0.0752005374
345297930.0 -0.6517525577 0.5482671339 -9.04026e-05 -8.50928e-05 -5.04454e-05 0.0002158773 0.0947476502 -0.0767574261
350297900.0 -0.6465654518 0.5552338318 0.0001615187 3.4523e-05 2.72923e-05 -6.14726e-05 0.0928388619 -0.0782607461
355297870.0 -0.6405861773 0.5613326666 0.0001516315 -6.97998e-05 3.37883e-05 0.0001910552 0.0918819559 -0.0792958936
360297840.0 -0.6346490705 0.5684263601 -0.0001242718 8.74001e-05 -4.74267e-05 9.6261e-06 0.0906098281 -0.0809480629
365297810.0 -0.6295674024 0.5750480467 9.09056e-05 2.76668e-05 1.7165e-06 -6.9409e-06 0.0887715514 -0.0822505853
370297780.0 -0.6230121091 0.5804583555 3.8976e-06 -0.0002000911 -1.06691e-05 4.68849e-05 0.087245107 -0.0835850722
375297750.0 -0.6177694605 0.5870512701 0.0002418372 6.25787e-05 -1.70767e-05 -8.63985e-05 0.0860961973 -0.0848811077
380297720.0 -0.6114334197 0.5937777551 0.0002031558 -0.0001743295 4.3281e-05 -2.31427e-05 0.0847225014 -0.0858990029
385297690.0 -0.6057037963 0.599479243 1.92962e-05 0.0001148797 0.000146198 -1.98476e-05 0.0831897331 -0.0870347675
390297660.0 -0.5981234422 0.6055709549 0.0002211372 0.0002472421 4.79844e-05 0.0001083688 0.0820298728 -0.0883731184
395297630.0 -0.5926601644 0.6121384353 0.000276741 -0.0001262054 6.06986e-05 -0.0001411427 0.0803367087 -0.0897033292
400297600.0 -0.5862991898 0.617802508 -0.0001456066 0.000180639 9.76057e-05 0.0001509382 0.0790676181 -0.0904886775
405297570.0 -0.5799199482 0.6234339589 5.74114e-05 -5.55724e-05 0.0003071644 0.0001355759 0.0774737459 -0.0916386877
410297540.0 -0.5740994635 0.6300076663 -2.58693e-05 6.51706e-05 -2.3376e-06 -4.64923e-05 0.0758585955 -0.092568421
415297510.0 -0.5679586953 0.6352633234 -9.25307e-05 9.06261e-05 -3.83386e-05 -6.91943e-05 0.07463286 -0.0938086318
420297480.0 -0.5611303421 0.6411507889 0.0001419615 -9.40146e-05 5.94435e-05 0.0001599817 0.0733231123 -0.0946882012
425297450.0 -0.5539981254 0.6464198534 0.0001803143 -0.0001959032 0.0001504465 0.0001564612 0.0717090646 -0.0960659817
430297420.0 -0.547848565 0.6518551477 -2.81178e-05 0.000125407 0.0001697924 0.0001187791 0.0700889379 -0.0968143778
435297390.0 -0.5408140846 0.6574148242 0.0003095578 0.0001934722 0.0002253438 -4.63885e-05 0.0682807945 -0.0978594411
440297360.0 -0.5338311763 0.6628462298 -3.61096e-05 0.0001500503 0.0001254565 5.62345e-05 0.0670602117 -0.0985091576
445297330.0 -0.5267702109 0.6680874001 9.24143e-05 0.000157015 4.58201e-05 8.30093e-05 0.0656878249 -0.0995714185
450297300.0 -0.5199946823 0.6735662302 0.0001552187 0.0002665088 0.0001707834 2.44436e-05 0.0642837828 -0.1004424652
455297270.0 -0.5135386011 0.6784509736 0.000163403 0.0003067867 0.0002731309 4.2554e-06 0.0627026357 -0.1011856809
460297240.0 -0.5058243904 0.6843004126 0.0003535205 0.0001974068 5.10995e-05 -3.8001e-05 0.060917142 -0.1020878633
465297210.0 -0.4993056087 0.6893284772 0.0003357485 8.4e-08 1.17614e-05 5.0594e-06 0.0592766873 -0.1026145097
470297180.0 -0.4918724479 0.6939651239 0.0002138915 -5.70739e-05 -3.48902e-05 0.0001231888 0.0577618799 -0.1035539445
475297150.0 -0.4842934565 0.6989835429 -0.0002149526 7.52202e-05 0.0002732289 7.05912e-05 0.0565954271 -0.1043165836
480297120.0 -0.4768289206 0.7040010483 4.96474e-05 0.0001232436 -4.63913e-05 -1.61502e-05 0.0543565767 -0.1048598932
485297090.0 -0.4702015825 0.7086364771 4.40832e-05 -8.84073e-05 -9.1852e-05 0.0001461113 0.0528900848 -0.1057266021
490297060.0 -0.4618107979 0.7136956305 -1.2441e-05 0.0002808262 -0.0001934613 0.0002260376 0.0513721479 -0.1066595496
495297030.0 -0.4544133615 0.7186074571 8.57719e-05 -7.25263e-05 0.0001563415 8.26673e-05 0.0497060257 -0.1070970625
500297000.0 -0.4475568905 0.7220186779 2.57454e-05 -3.99812e-05 7.95091e-05 6.41518e-05 0.0481225152 -0.1075119319
505296970.0 -0.4391799092 0.7274494384 0.0001634894 0.0001231205 0.0003354324 4.17462e-05 0.0465803826 -0.1082838267
510296940.0 -0.4318081483 0.7314213035 9.88362e-05 9.47472e-05 1.59797e-05 -0.0001427823 0.0449764377 -0.1084591746
515296910.0 -0.4238968683 0.7357522784 0.0001047325 0.0001042997 0.0001366874 -8.56063e-05 0.0433859374 -0.1094547158
520296880.0 -0.4157840166 0.7401525673 9.21342e-05 0.0001835255 0.0001885821 7.96813e-05 0.0419823493 -0.1101655562
525296850.0 -0.408204338 0.7438356388 0.0001078113 -3.01551e-05 0.0001001292 1.78628e-05 0.0398632724 -0.1103243375
530296820.0 -0.4010675342 0.7482288111 5.07218e-05 8.08569e-05 0.0001685545 -6.93005e-05 0.0381860795 -0.1110870733
535296790.0 -0.392673352 0.7516974621 6.73211e-05 -1.08089e-05 0.0001259484 4.08571e-05 0.0369073568 -0.1113261595
540296760.0 -0.3846434813 0.7563094333 0.0002485738 0.0002244519 0.0002107628 -0.00010714 0.0352165687 -0.1114958606
545296730.0 -0.3774360584 0.7602198341 5.3341e-05 0.0001014956 0.0001192946 4.84057e-05 0.0334575342 -0.112207724
550296700.0 -0.3689618665 0.7632992473 4.90515e-05 0.0001063709 0.0001080264 3.91917e-05 0.0315177768 -0.112648073
555296670.0 -0.3612789474 0.7678875137 7.8432e-05 -7.75041e-05 6.57969e-05 4.60223e-05 0.030014926 -0.1132023412
560296640.0 -0.3529851833 0.7709568236 0.0001357284 -0.0001675923 -1.69664e-05 1.42617e-05 0.0283412837 -0.1133553498
565296610.0 -0.3457274941 0.7739943964 -1.38779e-05 0.0001858485 5.76961e-05 7.08324e-05 0.0267335867 -0.1135445205
570296580.0 -0.3371530394 0.7777569009 0.0002309029 0.0001124124 0.0002977494 5.76312e-05 0.0248497209 -0.1138449797
575296550.0 -0.328295388 0.7808817186 1.37004e-05 -0.0001430831 0.0001174246 5.27863e-05 0.0236323876 -0.1142114077
580296520.0 -0.3211781319 0.7848414283 0.0001218862 0.0001227015 0.0001367512 -3.5776e-06 0.021527574 -0.1146116294
585296490.0 -0.3121546477 0.787342409 0.0002770717 -7.13365e-05 0.0002600075 8.58404e-05 0.0199194841 -0.1145533185
590296460.0 -0.3036821721 0.7910688049 -3.80686e-05 -0.0001255796 -0.0001540483 6.71513e-05 0.0182042701 -0.1147443435
595296430.0 -0.295809063 0.7935864475 0.0001044703 -9.47024e-05 0.000282369 -9.63419e-05 0.0166330364 -0.1149877883
600296400.0 -0.2881789773 0.7971234895 -7.5886e-06 8.39217e-05 0.0002443339 -0.0001173801 0.0150611008 -0.1151272502
605296370.0 -0.2796491291 0.7990955063 7.42567e-05 -0.0001458981 0.0003600397 -0.0001025513 0.0132243901 -0.1149030944
610296340.0 -0.2713643163 0.8023889584 2.2499e-05 0.0002739002 0.0001865408 -9.54528e-05 0.0113058609 -0.1153781294
615296310.0 -0.2623851898 0.8052830934 -1.3236e-06 0.000153402 0.0001243922 7.93906e-05 0.0099205852 -0.115171017
620296280.0 -0.2550974388 0.8084839858 9.07071e-05 -0.0001753637 -8.49225e-05 -8.02012e-05 0.0080014288 -0.1149936376
625296250.0 -0.2473257224 0.8104679344 0.0002723175 0.0002222893 -8.7097e-05 -6.0607e-06 0.0062245992 -0.1155396211
630296220.0 -0.2390818681 0.8135797517 0.0003830996 4.35237e-05 0.000152072 -8.22585e-05 0.0048007458 -0.1153328834
635296190.0 -0.2305318254 0.8157050585 7.61993e-05 0.0001336508 5.98597e-05 -0.0001916522 0.0030719304 -0.1150779661
640296160.0 -0.2216821878 0.817790595 7.8143e-05 -0.0001313395 0.0001703419 1.7156e-06 0.0012674247 -0.115063887
645296130.0 -0.2135556502 0.8203224353 7.94239e-05 0.0001898814 0.0001846165 1.2095e-06 -0.0005753741 -0.1151146089
650296100.0 -0.2050944676 0.8221123302 0.0004648029 -8.68919e-05 0.0003721791 1.78451e-05 -0.0018476318 -0.1151591754
655296070.0 -0.197477919 0.8245129987 1.73916e-05 3.39738e-05 0.0002442293 8.42966e-05 -0.0037963103 -0.1147370614
660296040.0 -0.1890598702 0.8259056157 8.90805e-05 0.0001782788 9.72708e-05 -6.2077e-06 -0.0049982424 -0.1149987959
665296010.0 -0.1809479866 0.8283794913 0.0002193877 -0.0003387582 -9.0721e-06 8.5097e-06 -0.0065685795 -0.114539324
670295980.0 -0.1723128208 0.8305054265 0.0001870582 -7.1591e-06 0.0003887202 5.85141e-05 -0.0088382321 -0.1144944214
675295950.0 -0.1636242046 0.8319251722 0.0001240426 -0.0001680943 0.0003023408 3.91254e-05 -0.0104112246 -0.1142008992
680295920.0 -0.1567448879 0.8336028704 -1.59625e-05 4.12291e-05 2.87402e-05 -4.25886e-05 -0.0119779589 -0.1140319727
685295890.0 -0.1476559776 0.835685335 6.20735e-05 -0.0001098859 7.4712e-05 0.0001081513 -0.0137016421 -0.1135280988
690295860.0 -0.139023906 0.8371683405 0.000127946 -0.0002101516 0.0001310346 -6.27974e-05 -0.0152000457 -0.1135025304
695295830.0 -0.1307251053 0.8386482269 2.0721e-06 6.66745e-05 0.0001035064 -0.0001024678 -0.0168351754 -0.1129394137
700295800.0 -0.1225345321 0.8401762121 -6.59045e-05 8.4459e-06 0.0002348605 5.59822e-05 -0.018128861 -0.1125274141
705295770.0 -0.115123284 0.8410995223 0.000142273 0.0001241928 0.0001409916 -0.0001382399 -0.0203423469 -0.1122854498
710295740.0 -0.1067066388 0.8419439532 0.0003527961 -1.53548e-05 0.0001235595 0.0002771055 -0.0216226985 -0.1117652482
715295710.0 -0.0981403224 0.8437164952 0.0002059134 -0.0001975913 0.0002593601 -5.33762e-05 -0.0232011862 -0.1116355667
720295680.0 -0.0890826381 0.8442159613 0.0002790601 1.06262e-05 4.62156e-05 -0.0001529633 -0.0250318041 -0.1111519224
725295650.0 -0.0816350901 0.8460401507 0.0002081359 2.86474e-05 0.0001261754 -0.0001811031 -0.0264776318 -0.1105960692
730295620.0 -0.0739311563 0.846633449 -7.13008e-05 -0.000233275 0.0001622275 -8.2009e-06 -0.0282918461 -0.1097079913
735295590.0 -0.0653064238 0.8476473011 0.0001637373 -5.68285e-05 0.0003090782 -1.22469e-05 -0.0298175992 -0.109633727
740295560.0 -0.0571896183 0.847455681 1.69134e-05 -8.42247e-05 0.0002513999 -0.0001259663 -0.031553244 -0.109142028
745295530.0 -0.0484519226 0.8488459065 0.0001621965 -8.95576e-05 3.44834e-05 7.99702e-05 -0.0333865991 -0.1084895606
750295500.0 -0.0406625305 0.8492716423 -0.0001051771 -5.85668e-05 3.27986e-05 0.0001098181 -0.0347294016 -0.1079719698
755295470.0 -0.0322102928 0.8495846545 0.0001835705 6.46683e-05 0.0001325778 0.000175733 -0.036115263 -0.1071426338
760295440.0 -0.0238107036 0.8507135632 0.0002112143 3.51854e-05 0.0001702057 0.0001454891 -0.037684066 -0.1066048531
765295410.0 -0.0159910834 0.8503951372 0.0001909926 -0.000298653 0.0004309049 0.0001304875 -0.0390049871 -0.1064777599
770295380.0 -0.0086033144 0.851361072 5.588e-06 -0.0003734388 8.26209e-05 0.0001892564 -0.0408743721 -0.1055520111
775295350.0 4.29938e-05 0.851233527 0.0001315008 0.0001291334 0.0001165893 -8.8886e-05 -0.0422016475 -0.1049762188
780295320.0 0.0086826967 0.8512646982 0.0001497423 -0.0003037969 9.35929e-05 -0.0002628412 -0.0437369761 -0.1042595505
785295290.0 0.0170912636 0.8506178536 0.0001835316 -0.0001256714 0.0002908078 2.70486e-05 -0.0456261781 -0.1031512661
790295260.0 0.0251508932 0.8509774762 0.0002929886 -0.0001255377 -2.40794e-05 -0.000132782 -0.0468668317 -0.1026222924
795295230.0 0.0330246186 0.8504652548 0.0001314943 -6.54066e-05 0.0003256304 -0.0001139376 -0.0485248253 -0.1024925521
800295200.0 0.0412994432 0.8506800439 0.0002115622 -6.0477e-06 0.0003422015 -0.000132507 -0.0499489768 -0.1014950779
805295170.0 0.0497011249 0.8507542244 0.0001543329 -2.95211e-05 7.02333e-05 6.44256e-05 -0.0511540225 -0.10106489
810295140.0 0.0581203513 0.8502324024 4.11204e-05 6.28964e-05 -6.79846e-05 -6.5869e-06 -0.0531225589 -0.0999707504
815295110.0 0.0650738903 0.8496229493 0.0001340168 -0.0001912676 0.0001037086 -9.46445e-05 -0.0544806838 -0.0990869944
820295080.0 0.0738046498 0.8489938997 -4.4802e-05 -6.3288e-05 0.000201647 -0.0001977106 -0.0563368151 -0.0978161536
825295050.0 0.0823758643 0.8477560099 0.0002193986 -0.0001339431 2.20344e-05 0.0001685579 -0.0572196972 -0.0971003304
830295020.0 0.0907325969 0.8474576353 0.0003354486 0.0002049408 0.0002240704 -4.73822e-05 -0.0587771882 -0.0965382242
835294990.0 0.0983681824 0.8464991634 0.0001582498 -0.0001856666 7.78867e-05 8.5823e-05 -0.0603391601 -0.0953999826
840294960.0 0.1067465582 0.8453862041 7.33112e-05 -0.0001016118 0.0002367756 -9.913e-07 -0.0613620902 -0.0945815316
845294930.0 0.1152778565 0.8443408944 5.86366e-05 -0.0001901669 -8.1187e-06 0.0001217322 -0.0629170196 -0.0935072968
850294900.0 0.1241259349 0.8431914309 -0.0001520979 -6.00487e-05 0.0002128612 -0.0001266547 -0.0642812762 -0.0922695478
