!Created with skrf (http://scikit-rf.org).
# Hz S RI R 50.0 
!freq ReS11 ImS11 ReS21 ImS21 ReS12 ImS12 ReS22 ImS22
300000.0 -0.1000801543 -0.070965538 0.6302958286 0.065453094 0.6237062787 0.065608593 -0.1013264434 -0.0764073405
5299970.0 -0.1020170718 0.0128155941 0.6307289173 0.0103237515 0.6308105382 0.0104825591 -0.1006634214 0.0130484487
10299940.0 -0.0970787208 0.0291592309 0.6340525865 0.0153957273 0.6340139629 0.0157943528 -0.0958693371 0.0303523177
15299910.0 -0.0899923867 0.0426180598 0.6404967671 0.0205416103 0.6406666211 0.0206485241 -0.0887633814 0.0435943379
20299880.0 -0.0815994337 0.0530165332 0.648631297 0.0245359727 0.648604518 0.0243354991 -0.0798123565 0.0545489502
25299850.0 -0.0722434322 0.0622274299 0.6575805079 0.0252884983 0.6577072534 0.0258407755 -0.0698172395 0.0632934715
30299820.0 -0.0622321906 0.0689743837 0.6676211436 0.0244060643 0.6671586611 0.0242924199 -0.0598389259 0.0701082488
35299790.0 -0.0525023644 0.0736872641 0.6769877697 0.0211416385 0.6768606789 0.02177877 -0.0497927352 0.074926367
40299760.0 -0.0432205066 0.0770669795 0.6861744782 0.0170996569 0.6866193746 0.0180040148 -0.0406373993 0.0775158299
45299730.0 -0.0339281587 0.0793866921 0.6948093925 0.0117460641 0.6955768767 0.0120448127 -0.0313688886 0.0798662071
50299700.0 -0.0256758735 0.0802166023 0.7037273771 0.0047904171 0.7036005156 0.0055889634 -0.0226649618 0.0804623668
55299670.0 -0.0174227941 0.0806173285 0.7110333784 -0.0030510977 0.7108859837 -0.0026251544 -0.014825195 0.0808704199
60299640.0 -0.0098797138 0.0799384836 0.7171250535 -0.0112465358 0.7180414462 -0.0108850969 -0.0078889337 0.0797066919
65299610.0 -0.0036810399 0.0788818418 0.7234453969 -0.0203922157 0.7237026547 -0.0198834465 -0.0012467963 0.0785193998
70299580.0 0.0026723693 0.0776178898 0.7291229252 -0.0294621456 0.7287050568 -0.0290862401 0.0047928296 0.0768062994
75299550.0 0.0082725907 0.0760885529 0.7325077447 -0.0390916102 0.7324886043 -0.038547302 0.0101283094 0.0748791074
80299520.0 0.0131673462 0.0736161979 0.7370242321 -0.0489043759 0.7375041231 -0.0490208935 0.0150586454 0.07278321
85299490.0 0.0177769146 0.0713161308 0.7401709997 -0.0587550793 0.7406248841 -0.0578397607 0.019544975 0.0699127162
90299460.0 0.0215122552 0.0689723975 0.7424563956 -0.0692953364 0.7434790807 -0.0685725435 0.0235926682 0.0680602049
95299430.0 0.0259478248 0.0665801008 0.7453251246 -0.0786708576 0.7457757828 -0.0787861841 0.0274745875 0.0655023324
100299400.0 0.0291711303 0.0647162052 0.7468080876 -0.0888987215 0.7473380337 -0.0888224646 0.0312645617 0.0626478545
105299370.0 0.0322858259 0.0620618581 0.7488104241 -0.0997854998 0.7490361003 -0.0990717882 0.0342510439 0.0606562583
110299340.0 0.0347876177 0.0598121176 0.7497945979 -0.1087313833 0.7495196137 -0.1087260828 0.0362749495 0.0580428542
115299310.0 0.0374662937 0.0573706791 0.7504750399 -0.1194032525 0.7505777849 -0.1190500454 0.0387678961 0.0557926885
120299280.0 0.0400100766 0.0547849974 0.7510596871 -0.1288872588 0.7514765187 -0.1294304437 0.0412989955 0.0532592532
125299250.0 0.0421978815 0.0521379181 0.751752376 -0.1389495549 0.7517726277 -0.1385284419 0.0428787341 0.05051962
130299220.0 0.0433629803 0.0503921429 0.7511780546 -0.1488793797 0.751307715 -0.1490027696 0.0449860838 0.0482360822
135299190.0 0.0453695209 0.0484267042 0.7519241407 -0.1587321668 0.7508372122 -0.1584532201 0.0465204137 0.0461005911
140299160.0 0.0468030879 0.046261222 0.7509770313 -0.1688238689 0.7507781245 -0.1686651728 0.0480564112 0.0447449991
145299130.0 0.048182998 0.0439763056 0.7502191026 -0.1784337256 0.7497316057 -0.1781142445 0.0493333236 0.0422185277
150299100.0 0.0497784257 0.0422337487 0.748346023 -0.1874772595 0.749369593 -0.1872932567 0.0508876918 0.0401275783
155299070.0 0.050105014 0.0397593598 0.7474541147 -0.1978907248 0.7475621102 -0.1978753973 0.05185271 0.0384741256
160299040.0 0.0519650942 0.0379826632 0.7462795965 -0.2074099155 0.7459759812 -0.2070332286 0.0521279742 0.0364206183
165299010.0 0.0524607082 0.0363040814 0.7442109872 -0.2166675056 0.7446934337 -0.2170605303 0.0534688982 0.0350273011
170298980.0 0.053123516 0.0339173598 0.7427801919 -0.2261626153 0.7429296956 -0.2257278463 0.0542747447 0.0331880621
175298950.0 0.0537275955 0.0323318333 0.741158474 -0.2350890184 0.7405655777 -0.2351067304 0.0549057953 0.0313344352
180298920.0 0.0543416336 0.0305824032 0.7388328067 -0.2446999028 0.7391465139 -0.2441034719 0.0553192428 0.0300104342
185298890.0 0.0556778524 0.0288846607 0.7370813468 -0.2536391011 0.7364224296 -0.2535689737 0.0557727323 0.0285572494
190298860.0 0.0554215295 0.0274952549 0.7343893949 -0.2628172505 0.734494712 -0.2628438981 0.0564151167 0.0263247086
195298830.0 0.0561864048 0.0252031043 0.7317709742 -0.2722160588 0.7320979186 -0.2715462649 0.0572752971 0.0251482973
200298800.0 0.0563345143 0.0240407996 0.7285220026 -0.2809608367 0.7291965288 -0.2808671406 0.0566160407 0.0238673169
205298770.0 0.0568419583 0.022799284 0.725817072 -0.2894954304 0.7264869087 -0.2896594063 0.0571886708 0.0215955634
210298740.0 0.0573654064 0.0210008353 0.7230791551 -0.2983129369 0.723449811 -0.2979522939 0.0579677282 0.0214399873
215298710.0 0.0570990326 0.019723092 0.720331614 -0.3071688825 0.7206101803 -0.3076316941 0.0576283756 0.0197541901
220298680.0 0.0577372531 0.017907741 0.7167762136 -0.3157219789 0.7170931898 -0.315503198 0.0577651075 0.0180942802
225298650.0 0.0579186817 0.0168021711 0.7135893651 -0.3245041104 0.7143155756 -0.3243056164 0.0573303008 0.0166288607
230298620.0 0.0580259337 0.0158991121 0.7109080717 -0.3326432079 0.7110243768 -0.3330214585 0.0574351006 0.0151357718
235298590.0 0.0577706516 0.0149241569 0.7063076993 -0.3410050416 0.7069128041 -0.3405586099 0.057581173 0.0138542125
240298560.0 0.0581157433 0.0134565442 0.7034762166 -0.3499488982 0.7035476995 -0.3494559534 0.0576612651 0.0131011752
245298530.0 0.057962146 0.012119992 0.7001825273 -0.3581945608 0.6997065566 -0.3583417729 0.0584385701 0.0111696346
250298500.0 0.0586529968 0.0113837865 0.6952934316 -0.3660882326 0.6953651267 -0.3656761187 0.0579138107 0.0103777728
255298470.0 0.0584699697 0.0096222021 0.6917194085 -0.3742806987 0.6918521571 -0.3738847714 0.0584733091 0.009198617
260298440.0 0.0580781701 0.0081813084 0.6878092268 -0.3827006483 0.6880766024 -0.3824431843 0.0588677297 0.0080554381
265298410.0 0.0587671623 0.0077257935 0.6838186555 -0.3909601367 0.6841484034 -0.3900467399 0.0584461608 0.0069019506
270298380.0 0.0584542866 0.0065284408 0.6798790844 -0.3985023185 0.6799007371 -0.3982781857 0.058241448 0.0058165512
275298350.0 0.0590060074 0.0053064359 0.6752843297 -0.4067652395 0.6755786606 -0.4062744728 0.0583348324 0.0044757943
280298320.0 0.0586850081 0.0045921659 0.6711757728 -0.4139274334 0.6711720205 -0.4140367226 0.0588442 0.0036217456
285298290.0 0.0586781908 0.0031606472 0.6665177247 -0.4224343158 0.666496082 -0.4222786525 0.0585510116 0.0024981493
290298260.0 0.059171171 0.0022699696 0.6620294997 -0.4292651602 0.6621258107 -0.4295702411 0.0587604297 0.0018315047
295298230.0 0.059008328 0.0010065518 0.6578059625 -0.4373362589 0.6572971243 -0.4372808794 0.0595135278 0.0005425375
300298200.0 0.0584311281 0.0001220207 0.6533777635 -0.4447186677 0.6531284025 -0.4455888024 0.059065181 -0.0008256173
305298170.0 0.0587630582 -0.0014199057 0.6473249696 -0.4535406572 0.6480134181 -0.4523946134 0.0595345733 -0.0021147438
310298140.0 0.0583706919 -0.0021712165 0.6431192881 -0.4610510705 0.643507454 -0.4605468336 0.0594567297 -0.0029872624
315298110.0 0.0583294614 -0.0038548495 0.6383618282 -0.4683978294 0.6385048032 -0.4682631877 0.058993955 -0.0040986898
320298080.0 0.0586658567 -0.0047523907 0.6324408605 -0.4759478717 0.6327412731 -0.4759117686 0.0586187509 -0.0052863216
325298050.0 0.0577752116 -0.0060613014 0.6269989522 -0.4833968697 0.6277097717 -0.4833129725 0.0582625889 -0.0061874213
330298020.0 0.0576061342 -0.0071650225 0.6214315369 -0.4905893546 0.62178746 -0.4909971285 0.0576651523 -0.0076327872
335297990.0 0.0572930053 -0.0085484716 0.6161647874 -0.497662043 0.6158899075 -0.4976697878 0.0567526673 -0.0076262249
340297960.0 0.0561598233 -0.0090226131 0.6099047359 -0.5045500934 0.6096480558 -0.5048590069 0.05720944 -0.0083098805
345297930.0 0.0556639508 -0.0090153915 0.6041168897 -0.5117170737 0.6043246044 -0.5116050867 0.0565679316 -0.009730617
350297900.0 0.0552713915 -0.0106110362 0.5977275635 -0.5190250238 0.5985643932 -0.5182281026 0.0556224653 -0.0094819685
355297870.0 0.0548817803 -0.0104147454 0.5923726928 -0.5249745746 0.5934032719 -0.5249768857 0.0552643214 -0.0106705304
360297840.0 0.0546957305 -0.0115493144 0.5870817142 -0.5316730116 0.5877387194 -0.5313996265 0.0552097976 -0.0110371927
365297810.0 0.0542995938 -0.0120759443 0.5810628825 -0.53877377 0.5811728901 -0.538239007 0.0546601639 -0.0117473987
370297780.0 0.0544855287 -0.0130556483 0.5745925659 -0.5445960465 0.5754755545 -0.5436489544 0.0542257686 -0.0121931477
375297750.0 0.0538133681 -0.0135436014 0.5692679545 -0.550840619 0.5699860248 -0.5507022292 0.0544237142 -0.0129377239
380297720.0 0.0535481535 -0.0142079602 0.5628568643 -0.5575693774 0.5632268675 -0.5565612303 0.0535498708 -0.0139378795
385297690.0 0.0530694044 -0.0148506574 0.5565826412 -0.5638261537 0.5565959739 -0.5630617429 0.0533866106 -0.0140147671
390297660.0 0.0530269382 -0.014877673 0.5506248256 -0.5699617289 0.5506209251 -0.5693185781 0.0526755517 -0.0152643712
395297630.0 0.0523541392 -0.0160121588 0.544510147 -0.5757844958 0.5442359643 -0.5761432583 0.0535080262 -0.0155616887
400297600.0 0.0519523413 -0.0165244155 0.5375236787 -0.5824031225 0.5380198064 -0.5817513195 0.0525048722 -0.0161555437
405297570.0 0.0514214883 -0.0172995512 0.5314600907 -0.5879232111 0.5316548769 -0.5875908243 0.0517026236 -0.0167614666
410297540.0 0.0514305624 -0.0180467338 0.5254800254 -0.5941633722 0.5255648763 -0.5936571307 0.0512551887 -0.0171025584
415297510.0 0.0515129502 -0.0185019542 0.5183731701 -0.6001137261 0.5186639084 -0.599524058 0.0512652614 -0.0176619643
420297480.0 0.051052991 -0.0189733975 0.5111555419 -0.6057096573 0.5116766884 -0.6060615898 0.0504707329 -0.0190773998
425297450.0 0.0502383937 -0.0204032712 0.5050751931 -0.6111794793 0.5053987116 -0.6114143155 0.0495810778 -0.0189002374
430297420.0 0.0498878817 -0.0206856036 0.4982878705 -0.6159514533 0.4984294421 -0.6164077969 0.0498258591 -0.0196917163
435297390.0 0.0496165211 -0.0211313476 0.4909289531 -0.6221386929 0.4910201536 -0.6219552278 0.0501075572 -0.020128152
440297360.0 0.0495148698 -0.0216384295 0.4846489881 -0.6276732706 0.484347285 -0.6279357433 0.0488692268 -0.0213923816
445297330.0 0.0487092224 -0.022634394 0.4779224531 -0.6333391311 0.4779967856 -0.6322880904 0.0494626807 -0.0223164825
450297300.0 0.0488476506 -0.0231290198 0.4705703081 -0.638092106 0.4710552376 -0.6387610255 0.0488114211 -0.0229623185
455297270.0 0.0483905878 -0.0232719017 0.4632607855 -0.6432288332 0.4640130009 -0.6434290444 0.0483230609 -0.0232788447
460297240.0 0.0479959077 -0.0242410016 0.4563703734 -0.6485378965 0.4568312608 -0.6485378132 0.0480214319 -0.0236610522
465297210.0 0.0478040509 -0.024723 0.4496007864 -0.6535689309 0.4495685823 -0.6544221894 0.0476320928 -0.0246003113
470297180.0 0.0474206914 -0.0258268691 0.4418580143 -0.6588319505 0.4423159406 -0.6584667594 0.0472380856 -0.0249892829
475297150.0 0.0468941189 -0.0264804599 0.4345049966 -0.6629837243 0.435270023 -0.6630316141 0.0474485236 -0.0257549653
480297120.0 0.0462158839 -0.0262606946 0.4273631844 -0.6685494619 0.4276537339 -0.6683698246 0.0472801728 -0.0259726623
485297090.0 0.045613623 -0.0268467959 0.4209091443 -0.6727816062 0.4202764147 -0.6724515817 0.046404482 -0.0267298804
490297060.0 0.0448039047 -0.0275527736 0.4134637931 -0.6783633114 0.4132500459 -0.6775543741 0.0462804562 -0.0266185329
495297030.0 0.0446351971 -0.0278948732 0.4052310076 -0.6822915924 0.4058683245 -0.6820415347 0.0450689842 -0.0275040052
500297000.0 0.044341972 -0.0285770784 0.3978914646 -0.6862840625 0.397449986 -0.6856995621 0.0450940752 -0.0272491695
505296970.0 0.0440068286 -0.0290186761 0.3899700237 -0.6906070747 0.3903536553 -0.6905165827 0.0445273968 -0.0281422709
510296940.0 0.043333682 -0.0294454538 0.3825407131 -0.6953768355 0.382761751 -0.6949819136 0.0445555956 -0.0283789482
515296910.0 0.0426727831 -0.0294722948 0.3746742397 -0.6991313286 0.3752698836 -0.6991575689 0.0439831824 -0.0288158469
520296880.0 0.0424672711 -0.030190084 0.367178077 -0.7041701259 0.3676796855 -0.702814204 0.0432753157 -0.0293091094
525296850.0 0.0423412123 -0.0312424489 0.359154444 -0.7074291894 0.359947264 -0.7071694748 0.042467464 -0.0299793503
530296820.0 0.0418184156 -0.0311454138 0.3515995958 -0.7118887809 0.3520369842 -0.7110063657 0.0425311072 -0.0300698362
535296790.0 0.0404871064 -0.0318002161 0.3447707024 -0.7149941272 0.3445029108 -0.7142151299 0.0419039258 -0.0309640796
540296760.0 0.0402392556 -0.0318516038 0.335930036 -0.7189888121 0.3361471448 -0.7185894238 0.0407900543 -0.0306028021
545296730.0 0.0398573743 -0.0323597035 0.327850227 -0.7221370275 0.3288015587 -0.7224730396 0.0405700196 -0.0313695248
550296700.0 0.0400484546 -0.0324321245 0.3201034394 -0.7255304944 0.320789888 -0.7262040011 0.0399252131 -0.0316487583
555296670.0 0.0387328953 -0.0329698822 0.3121034682 -0.7296633574 0.3128940161 -0.7294211966 0.0394038532 -0.0322688931
560296640.0 0.0388224127 -0.0330821995 0.3040939429 -0.7329836703 0.3044161936 -0.7328928395 0.0391265867 -0.0326672732
565296610.0 0.0377202923 -0.0339012006 0.2961073062 -0.7362563051 0.2963340326 -0.7358248814 0.0382967743 -0.0331369504
570296580.0 0.0369776147 -0.0339583487 0.2882377985 -0.7400093606 0.287970082 -0.7392451224 0.0379235558 -0.0325919041
575296550.0 0.0364060796 -0.0341750533 0.2804835036 -0.742960144 0.2803227449 -0.7425074625 0.0374592914 -0.033737468
580296520.0 0.0363474779 -0.0346563072 0.2716062855 -0.7456886946 0.2721391081 -0.7457598858 0.0366882966 -0.0340694301
585296490.0 0.0354397859 -0.0354786816 0.2640981405 -0.7480938918 0.2642604179 -0.7486004332 0.0361452512 -0.0344252181
590296460.0 0.0357550001 -0.0353465188 0.2557875279 -0.7507610349 0.2558604537 -0.7510904825 0.0350807771 -0.0346102306
595296430.0 0.0351256585 -0.035628951 0.2470619273 -0.7542835817 0.2473801375 -0.7542268764 0.0350907071 -0.0353287793
600296400.0 0.0342363971 -0.036198651 0.239528839 -0.7568161698 0.2394918295 -0.7563690842 0.034256798 -0.0355982953
605296370.0 0.0335469963 -0.0363472022 0.2311235578 -0.7593666543 0.2314599793 -0.7590164851 0.0338697058 -0.0358666895
610296340.0 0.0332164077 -0.0368182903 0.2220231624 -0.7618204397 0.222971431 -0.761937909 0.0337708544 -0.0362810684
615296310.0 0.0329050722 -0.0377572029 0.2138482713 -0.7637334743 0.2142291989 -0.7644032875 0.0333436464 -0.0364481333
620296280.0 0.0324371867 -0.0378281517 0.205923396 -0.766532496 0.2058723117 -0.7657483143 0.0320469694 -0.0368866087
625296250.0 0.0312621526 -0.0385112087 0.1984660524 -0.7688545953 0.1978024661 -0.768963223 0.0327514622 -0.0371853263
630296220.0 0.0321126148 -0.0382169703 0.1888686269 -0.7706429592 0.1885481413 -0.770988663 0.0316761685 -0.03720864
635296190.0 0.0297821022 -0.0390304095 0.180725644 -0.7728382222 0.1807027922 -0.772744433 0.0312496686 -0.0376351445
640296160.0 0.0299595648 -0.0389966209 0.1724521942 -0.7743042887 0.1726303181 -0.7743704601 0.03057669 -0.037892554
645296130.0 0.0293549453 -0.0391547163 0.1638703564 -0.7760912304 0.1643343052 -0.776259325 0.0302703553 -0.0380378165
650296100.0 0.0288751859 -0.0394035449 0.1556320604 -0.7782196161 0.1556661911 -0.778831078 0.030087081 -0.0393175829
655296070.0 0.0275138781 -0.0401702814 0.1466945356 -0.7801110832 0.1472648278 -0.7798383336 0.029435305 -0.0385357888
660296040.0 0.0269072602 -0.0406827622 0.1386525073 -0.7815014827 0.1385920741 -0.7812155444 0.0288933758 -0.0388131803
665296010.0 0.027005064 -0.0403007686 0.1290890831 -0.7825346403 0.1300981312 -0.7825085924 0.0284031801 -0.0385307741
670295980.0 0.0251943932 -0.0406567973 0.121128979 -0.784257434 0.1216836696 -0.7840503869 0.0275226847 -0.0390407392
675295950.0 0.025153427 -0.0404740396 0.1129842995 -0.785228402 0.1128415042 -0.7847801671 0.026453103 -0.0392152175
680295920.0 0.0242559976 -0.0410493797 0.1040985266 -0.7863137468 0.103995853 -0.7866405323 0.0261420878 -0.0385703094
685295890.0 0.0239861416 -0.0404493227 0.0954181166 -0.787342229 0.0953318332 -0.7877072708 0.0259069943 -0.0392282991
690295860.0 0.0238380676 -0.0407901859 0.0871361764 -0.7879898081 0.0868111136 -0.7887949331 0.0249175344 -0.0385850357
695295830.0 0.0230291145 -0.0412428339 0.0787374902 -0.7896939286 0.0780638799 -0.7894800606 0.0241685995 -0.0389273116
700295800.0 0.0224586166 -0.0415889038 0.0695376891 -0.7898568258 0.0692109132 -0.7896962454 0.02395618 -0.0385347489
705295770.0 0.0214906095 -0.0406567699 0.0608903757 -0.7909473317 0.061382069 -0.7909912855 0.0229633958 -0.039264306
710295740.0 0.0215400685 -0.0413374083 0.0527254637 -0.7922440822 0.0535757248 -0.7920516687 0.0226936748 -0.0399062403
715295710.0 0.020060126 -0.0415411187 0.0447220047 -0.7918869056 0.0437010672 -0.7922846324 0.0224094705 -0.039714402
720295680.0 0.0199078244 -0.0416139944 0.0357464588 -0.7932082228 0.0355815408 -0.7922553456 0.0215139525 -0.0389812636
725295650.0 0.0190987686 -0.0414370332 0.0262120693 -0.7928814111 0.0270591683 -0.7927986559 0.0202612711 -0.0393436887
730295620.0 0.0191062864 -0.0413897553 0.0180305357 -0.7929015189 0.0178260907 -0.7933851571 0.0193502004 -0.0396179926
735295590.0 0.0180086419 -0.0411692211 0.0098909625 -0.793178496 0.0093077998 -0.7931798618 0.0190469031 -0.0402115931
740295560.0 0.0170748288 -0.0414879301 0.001018662 -0.7928387391 0.0007519223 -0.7934287122 0.0191017328 -0.0393780103
745295530.0 0.016895434 -0.041382217 -0.0081399693 -0.7924566713 -0.0077557338 -0.7931590279 0.0184610911 -0.040727384
750295500.0 0.0163591063 -0.0415721352 -0.0167111124 -0.7929452724 -0.0158455506 -0.7930384007 0.0173962867 -0.0404367554
755295470.0 0.0157970866 -0.0419160409 -0.0251150847 -0.7929613773 -0.0252348205 -0.7927835761 0.0174169232 -0.0408712086
760295440.0 0.0148827562 -0.0417171764 -0.0336423833 -0.7928612933 -0.0335500646 -0.7932453498 0.016651779 -0.0407361675
765295410.0 0.0144902395 -0.0415483034 -0.0429706476 -0.791842681 -0.0423970047 -0.7924135456 0.0161561234 -0.0407260628
770295380.0 0.0135184438 -0.0420730155 -0.0513270541 -0.7915647026 -0.0511559024 -0.7914246315 0.0149454279 -0.0408430546
775295350.0 0.0130048524 -0.0426977312 -0.0597579123 -0.7904667715 -0.058910336 -0.7904908424 0.0138667097 -0.040529634
780295320.0 0.0126103116 -0.0423477642 -0.0682485642 -0.7899027 -0.0672270439 -0.7900233173 0.0133464533 -0.0414479652
785295290.0 0.0113579913 -0.0427550566 -0.0771956392 -0.788625405 -0.0763142115 -0.7892459303 0.0140311293 -0.0408472762
790295260.0 0.0114404429 -0.0416590802 -0.0850550604 -0.7884928081 -0.083688899 -0.788138822 0.0126137749 -0.0408740538
795295230.0 0.0107860924 -0.0424236034 -0.0938391182 -0.7871142941 -0.0926933219 -0.7876920044 0.0125604046 -0.0404133356
800295200.0 0.0099463393 -0.0418664627 -0.1033571069 -0.785872759 -0.1018775305 -0.7865556215 0.0119076954 -0.0409485095
805295170.0 0.0092284562 -0.0426171043 -0.1104995125 -0.7852371796 -0.1111173516 -0.7857515002 0.0112729197 -0.0406116693
810295140.0 0.008451796 -0.0426307462 -0.1192601065 -0.7833034913 -0.119198517 -0.7841032424 0.0113572335 -0.0405566089
815295110.0 0.0081025483 -0.0427533165 -0.1277804706 -0.7820238246 -0.1272527169 -0.7824712875 0.0100245242 -0.0403904813
820295080.0 0.0069774311 -0.0417159753 -0.1363148749 -0.7807565278 -0.1357363678 -0.7806804217 0.0096779305 -0.0407904952
825295050.0 0.0073985917 -0.0419184938 -0.1441167549 -0.7787445315 -0.1445097035 -0.7795441065 0.0095822983 -0.0405082342
830295020.0 0.0062368626 -0.041704757 -0.1535790901 -0.7773226963 -0.1533503807 -0.7774354628 0.0094881319 -0.0400674311
