!Created with skrf (http://scikit-rf.org).
# Hz S RI R 50.0 
!freq ReS11 ImS11 ReS21 ImS21 ReS12 ImS12 ReS22 ImS22
300000.0 -0.0997155294 -0.0631444088 0.6287468377 0.0589916017 0.6230901938 0.0600034067 -0.0993897349 -0.069825617
5299970.0 -0.1023607523 0.0133521368 0.6308017232 0.0100905863 0.6306375209 0.0102017354 -0.1009074572 0.0133810067
10299940.0 -0.0974954312 0.0293271271 0.6340475453 0.0155065613 0.6343081327 0.0156386978 -0.0960124279 0.03030459
15299910.0 -0.0902049497 0.0427883948 0.6407940214 0.0202982641 0.6409335074 0.0204455795 -0.0888982528 0.0434468819
20299880.0 -0.0818083811 0.0529059782 0.6488799008 0.024568739 0.6483900317 0.0243550562 -0.0804095538 0.0544066685
25299850.0 -0.0726733232 0.0622144131 0.6578040689 0.0254232692 0.6578068747 0.0254569008 -0.0698641088 0.0633904953
30299820.0 -0.0624916537 0.0686265222 0.6674077902 0.0246183107 0.6672208958 0.0242983499 -0.0597694971 0.0697497714
35299790.0 -0.0526818495 0.0737291609 0.6775388942 0.0214684836 0.6775773313 0.0215521853 -0.0500137146 0.0750484613
40299760.0 -0.0434687871 0.0771731248 0.6857314145 0.017362789 0.6865953425 0.0176897982 -0.0402890057 0.0771382999
45299730.0 -0.0339542284 0.0795755925 0.6946670028 0.0115147455 0.6956347379 0.0123410398 -0.03136688 0.079629395
50299700.0 -0.0255263506 0.0804039983 0.7036808914 0.0051975501 0.7035905837 0.0055885008 -0.0226899369 0.0801581598
55299670.0 -0.0175870268 0.0805311149 0.7110190973 -0.0032495513 0.7112251392 -0.0027190883 -0.0148439787 0.0805169271
60299640.0 -0.0097742842 0.0801237082 0.7175575778 -0.011458782 0.7177403914 -0.0108604241 -0.0076390536 0.0793749418
65299610.0 -0.0038679831 0.079146014 0.723398414 -0.0202696205 0.7236566857 -0.0200069664 -0.0010282546 0.078563279
70299580.0 0.0027579536 0.0774037102 0.7285248206 -0.0293599246 0.7285345105 -0.0291657228 0.0049124955 0.0766374765
75299550.0 0.0081873817 0.076062325 0.7326915721 -0.0391470065 0.7327747049 -0.0391406813 0.010360498 0.0748078645
80299520.0 0.0132660464 0.073677013 0.7370321959 -0.0494276835 0.737483632 -0.0485684921 0.015285676 0.0724690114
85299490.0 0.0180362321 0.0713320545 0.7402813252 -0.0582760353 0.7407359411 -0.0581302305 0.0197010684 0.0700510446
90299460.0 0.0215393279 0.0690906645 0.7426226507 -0.0687535509 0.7439103242 -0.0689128367 0.0237034571 0.0682403447
95299430.0 0.0259190548 0.066467932 0.7457237127 -0.0789394183 0.7458700874 -0.0791350641 0.0276739477 0.0657016482
100299400.0 0.0289714005 0.0644951555 0.7471136386 -0.0892582235 0.7467358868 -0.088833049 0.031400031 0.062740869
105299370.0 0.0323279468 0.062030669 0.7487793614 -0.0993760305 0.7495617097 -0.0988247906 0.0345028199 0.0606988537
110299340.0 0.0346985961 0.0597714767 0.7499528194 -0.1088240445 0.7501904789 -0.1088075857 0.0362183367 0.0579985602
115299310.0 0.037577685 0.0573164005 0.750973057 -0.1193577003 0.7508324765 -0.1190246123 0.0391981683 0.0557913037
120299280.0 0.0398566661 0.0546081284 0.7509890603 -0.1289420915 0.7514159653 -0.1292508372 0.0413522719 0.0534806403
125299250.0 0.0418549192 0.0524146708 0.7512693134 -0.1388621099 0.7517367439 -0.1384466424 0.0428847103 0.0507190257
130299220.0 0.0435584102 0.0501093696 0.7512982829 -0.1489901561 0.7513793817 -0.1489568561 0.0446815926 0.0485488696
135299190.0 0.0452689778 0.0483162274 0.7515790466 -0.1592094741 0.750787182 -0.1583226435 0.0464700916 0.0463395204
140299160.0 0.0464501389 0.046180202 0.7510754652 -0.1689622174 0.7509504668 -0.1687150579 0.0478565504 0.0447918363
145299130.0 0.0479376039 0.0437266105 0.750018936 -0.1783095313 0.7500455847 -0.1781643163 0.0493371105 0.042366216
150299100.0 0.0494778713 0.0421753202 0.7485468836 -0.1871251445 0.7492033292 -0.1874609007 0.0505370967 0.0405399809
155299070.0 0.0502111571 0.0398897362 0.7478411782 -0.198421509 0.7476609623 -0.1975316398 0.0515005863 0.0384069818
160299040.0 0.0517006969 0.0379854706 0.7464588659 -0.2073114017 0.7458447839 -0.2073831108 0.0521360655 0.0364919536
165299010.0 0.0523906453 0.0362794539 0.7448253755 -0.21681473 0.7449644406 -0.2169187768 0.0532612382 0.0352089289
170298980.0 0.0529848661 0.034142344 0.7430654673 -0.2258336898 0.7431831232 -0.2259826599 0.0540017211 0.0330666364
175298950.0 0.0535130767 0.0323953083 0.741217781 -0.2352463739 0.7409457699 -0.2349981894 0.0546039289 0.0313949555
180298920.0 0.0541286725 0.0308322413 0.7392785758 -0.2445257042 0.739166571 -0.2443460497 0.0552709032 0.0299255815
185298890.0 0.0554963933 0.0290102084 0.7367798945 -0.2534424937 0.736475195 -0.2533337807 0.0554257411 0.0286025782
190298860.0 0.0554361672 0.0275286092 0.7341008324 -0.2629488738 0.7347901117 -0.262823128 0.0558975437 0.0263533342
195298830.0 0.0559795417 0.0255429924 0.7318804325 -0.2714325181 0.7322666369 -0.2716650409 0.0570785836 0.0247649117
200298800.0 0.0563582927 0.024129506 0.7286984449 -0.2808722011 0.7293678974 -0.2812744563 0.0568498674 0.0238050868
205298770.0 0.0567645522 0.0228654658 0.7256555876 -0.2899607291 0.7264078522 -0.2895061723 0.0570518755 0.0213061101
210298740.0 0.0569747102 0.0210118042 0.7228047027 -0.2979560537 0.7235628637 -0.2975452181 0.0577420826 0.0213962772
215298710.0 0.0571134876 0.0197061616 0.7201876914 -0.3073317213 0.7202157253 -0.3074329179 0.0578321763 0.0194439006
220298680.0 0.0577825151 0.0177703586 0.7168589126 -0.3159843201 0.7165283779 -0.3157814196 0.0577831372 0.0177659836
225298650.0 0.0579534117 0.0167117642 0.7138899865 -0.3243810631 0.7141318577 -0.3242169732 0.057641413 0.0162687792
230298620.0 0.05806427 0.0157189721 0.7106811014 -0.3325611405 0.7111993114 -0.3328955741 0.0575998912 0.014866651
235298590.0 0.058046947 0.0146575362 0.70720521 -0.3413360347 0.7070666865 -0.340990489 0.057982964 0.0138534279
240298560.0 0.0582396843 0.0135274443 0.7033295427 -0.3493408916 0.7033962036 -0.3495913433 0.0580958932 0.01298928
245298530.0 0.0578953078 0.0119330158 0.7000065847 -0.3581003045 0.6998499331 -0.3582417978 0.0587354224 0.0108997696
250298500.0 0.0585599933 0.0108869501 0.6952660075 -0.3662400813 0.6952676737 -0.3656792548 0.0581136182 0.010234038
255298470.0 0.0586682238 0.0092828436 0.6914768089 -0.3740182069 0.6921582308 -0.3742444661 0.0587491424 0.0091420217
260298440.0 0.0580485432 0.0081193507 0.6878943109 -0.3826703042 0.6880310104 -0.382053012 0.0588534739 0.0081264677
265298410.0 0.0588593176 0.0075487973 0.6841216203 -0.3910871374 0.6840006183 -0.390240011 0.0585188558 0.0068633001
270298380.0 0.0584374176 0.0060861918 0.67979483 -0.3984588596 0.6797000708 -0.3981280885 0.0582659507 0.0059722723
275298350.0 0.0590061972 0.0051244063 0.6758113901 -0.4064718993 0.6759386861 -0.4065573274 0.0586836455 0.0045472086
280298320.0 0.0587684175 0.0042512966 0.6712414941 -0.4144642924 0.6710484096 -0.4141080053 0.0590532865 0.0037282834
285298290.0 0.0586317133 0.0030319352 0.6669579071 -0.4225946932 0.6665150997 -0.4222271552 0.0588541451 0.0023870381
290298260.0 0.0589840687 0.0020805041 0.6626514181 -0.4295999478 0.6621529363 -0.4298526553 0.0586858513 0.0020141659
295298230.0 0.0589706209 0.0007616463 0.6577864379 -0.4375401853 0.6576860147 -0.4371508616 0.0594673484 0.0006707507
300298200.0 0.0581162675 -9.3893e-05 0.6530152858 -0.4450417985 0.653338862 -0.4456903602 0.0588724005 -0.0004375045
305298170.0 0.0586249543 -0.0014277139 0.647659972 -0.4535304495 0.6481108425 -0.4527834728 0.0595493447 -0.002061452
310298140.0 0.0583272429 -0.0023629038 0.6434229663 -0.460967359 0.6433191366 -0.4605528623 0.0590779604 -0.0029189333
315298110.0 0.0582326895 -0.0040716573 0.6380022213 -0.4684493074 0.6383686646 -0.4681950943 0.0587086178 -0.0040597713
320298080.0 0.0584470823 -0.004788633 0.6321163088 -0.4763875389 0.6328627984 -0.4761604408 0.0586486874 -0.004883723
325298050.0 0.0576025521 -0.0059332528 0.627092071 -0.483171268 0.6273740375 -0.4829799332 0.0579792746 -0.0059606498
330298020.0 0.0572555052 -0.0073011302 0.6215483472 -0.4906218914 0.6217932256 -0.4909180168 0.0570411216 -0.0073251483
335297990.0 0.0570589388 -0.0083578481 0.616063963 -0.4974004521 0.6160171937 -0.4977769138 0.0563472619 -0.0075178584
340297960.0 0.0560569684 -0.0089904324 0.6099310747 -0.5047783644 0.6099807825 -0.5049335413 0.0566004867 -0.0082692769
345297930.0 0.0556794538 -0.0090358701 0.6042145038 -0.5119575286 0.6041743303 -0.5118303421 0.055990749 -0.0096028547
350297900.0 0.0552505671 -0.0105355112 0.5975188042 -0.5184840213 0.5982164459 -0.5183906538 0.0550496904 -0.0096587198
355297870.0 0.0550165507 -0.0101911825 0.5925219209 -0.5250491824 0.593064725 -0.5246978107 0.0549614593 -0.0106522685
360297840.0 0.0547946045 -0.011215863 0.5876942997 -0.5314833899 0.5878843222 -0.531135787 0.0547889855 -0.0112123103
365297810.0 0.0540867308 -0.0119731246 0.5810682407 -0.5379144608 0.5813571531 -0.5384503156 0.054542662 -0.011900522
370297780.0 0.0545076209 -0.0130948668 0.5749869914 -0.5448137432 0.5752325879 -0.5445685882 0.0543551209 -0.012439818
375297750.0 0.0541745134 -0.0136551451 0.5690076226 -0.5509071439 0.569856913 -0.5510296779 0.0543172894 -0.0129952635
380297720.0 0.0536411226 -0.0142399263 0.5629328778 -0.5573214603 0.5632934898 -0.5570087516 0.0534691819 -0.0141014744
385297690.0 0.0528533638 -0.0152277598 0.5559431012 -0.5637176061 0.5565530934 -0.5632147409 0.0533702476 -0.0144285318
390297660.0 0.0527425379 -0.0151850277 0.5503146193 -0.5700218337 0.5506270209 -0.5691301065 0.0528040406 -0.0157196117
395297630.0 0.05225274 -0.0160583767 0.5447024089 -0.5758759317 0.5445794056 -0.5763279131 0.0532875678 -0.0161120482
400297600.0 0.0520090364 -0.0168119538 0.5371770714 -0.5829841232 0.5380813619 -0.5822924749 0.0523488732 -0.0161501737
405297570.0 0.0512342186 -0.0175539235 0.5317250803 -0.5876726054 0.5314696744 -0.5875752336 0.0516416442 -0.0168511009
410297540.0 0.0515042904 -0.018090769 0.5252946873 -0.5940840604 0.52568956 -0.5935052649 0.0514982381 -0.0176130474
415297510.0 0.0512212553 -0.0187085485 0.5177928646 -0.6000888793 0.5189630974 -0.6002388165 0.0514017547 -0.0180075949
420297480.0 0.0508778475 -0.0192908472 0.5117781488 -0.6054292179 0.5115975362 -0.6056011598 0.0508277416 -0.0193988484
425297450.0 0.0499910057 -0.0207643919 0.5051054087 -0.6113259122 0.5050410143 -0.6109756274 0.0498953021 -0.0190476742
430297420.0 0.0496720886 -0.0209327648 0.498527377 -0.6168013586 0.4985619854 -0.6164231801 0.0497974216 -0.0203690506
435297390.0 0.0494103707 -0.0215020509 0.490972607 -0.622147388 0.4914735269 -0.622538503 0.0503870717 -0.0205109583
440297360.0 0.0493696269 -0.0215260277 0.4847478482 -0.6274100192 0.4847970071 -0.6276815267 0.049178632 -0.0215616582
445297330.0 0.0485217104 -0.0227305997 0.4780176683 -0.6335832394 0.4783290535 -0.6323139834 0.0494177579 -0.021990898
450297300.0 0.0485578733 -0.0231604405 0.4705282926 -0.6382817139 0.4710550664 -0.638266623 0.0485796741 -0.0226100257
455297270.0 0.0481012013 -0.0236035693 0.4637772688 -0.6435838316 0.4639143254 -0.6436425128 0.0481952999 -0.0232243355
460297240.0 0.047895144 -0.0243120058 0.4568376007 -0.6485530492 0.4564001183 -0.6485822578 0.047901467 -0.0232751804
465297210.0 0.0478833688 -0.0245895934 0.449589754 -0.6540251337 0.4492304884 -0.654135858 0.0475433878 -0.0240980698
470297180.0 0.047015984 -0.0255949012 0.4421465825 -0.658480261 0.4423945922 -0.6587826775 0.0471098815 -0.0246071271
475297150.0 0.0467071159 -0.0263687696 0.4348347741 -0.6627496693 0.4352142646 -0.6631268549 0.0473293392 -0.0255172986
480297120.0 0.0459755093 -0.0260260546 0.4270690701 -0.6688206311 0.4276122073 -0.6684853441 0.0468477899 -0.0255965978
485297090.0 0.0452750442 -0.0267569484 0.4206819554 -0.6727023131 0.4204924515 -0.6725492127 0.0462656402 -0.0266114765
490297060.0 0.0447479835 -0.0275623976 0.413096739 -0.6780286215 0.4134380949 -0.6768120423 0.0460662779 -0.0261168379
495297030.0 0.0446261629 -0.0277561436 0.4050597555 -0.6822220855 0.4059299734 -0.6816850268 0.0448238647 -0.0271999566
500297000.0 0.04420029 -0.028751551 0.39749832 -0.6863332477 0.3977204429 -0.6856836163 0.0448446459 -0.0271869212
505296970.0 0.0438390474 -0.0288799688 0.3903940015 -0.6908157943 0.3903374917 -0.6911246955 0.0442846312 -0.027910595
510296940.0 0.043475912 -0.0294992429 0.382610085 -0.6958364926 0.3829626872 -0.6949600392 0.0441957417 -0.027976453
515296910.0 0.0426913622 -0.0295354727 0.3746411202 -0.6995011432 0.3752055273 -0.6990035516 0.0436725823 -0.0286449339
520296880.0 0.0422139118 -0.0302347596 0.3675403572 -0.7041470089 0.367699842 -0.7031218442 0.0429085774 -0.0295721806
525296850.0 0.0419592149 -0.0313533744 0.3596828113 -0.706824367 0.3596648172 -0.7072799468 0.0423226169 -0.0298107655
530296820.0 0.0415455858 -0.0312338823 0.3515593914 -0.7112501904 0.3519471742 -0.7115386622 0.0423326453 -0.0302306278
535296790.0 0.0406604985 -0.0316550328 0.3445962617 -0.7149171024 0.3448699856 -0.7146965943 0.0416375778 -0.0312298735
540296760.0 0.0404791045 -0.0318997128 0.3360822454 -0.7188876443 0.3359256127 -0.7189299862 0.0408174525 -0.0307871563
545296730.0 0.0397312195 -0.0325918096 0.3274858108 -0.7223189658 0.3285428984 -0.7226961349 0.040398781 -0.0315771591
550296700.0 0.0397358819 -0.0327660232 0.3204089495 -0.7262644529 0.3205603484 -0.7266871211 0.0396822346 -0.0318726283
555296670.0 0.0386306813 -0.0332059118 0.3126247109 -0.7293316757 0.312718382 -0.7292891624 0.0395145129 -0.0322520439
560296640.0 0.0386888265 -0.0330793267 0.3042485354 -0.7333353333 0.3046137331 -0.7329565008 0.0389984792 -0.0327082412
565296610.0 0.0375918827 -0.0341496096 0.2963579149 -0.7362208097 0.2965233356 -0.7363146098 0.0382224536 -0.0333270109
570296580.0 0.0373293119 -0.0338322629 0.2882856196 -0.7400188318 0.2876523642 -0.7394821033 0.0380333802 -0.0331095627
575296550.0 0.0365258139 -0.0342814178 0.2802134893 -0.7432072118 0.2800170503 -0.7424565207 0.0376052424 -0.0335310256
580296520.0 0.036350432 -0.034755368 0.2723874604 -0.7463190495 0.2724402194 -0.7455512431 0.0369389276 -0.0344178662
585296490.0 0.0352538772 -0.0358338044 0.2639816 -0.7484770018 0.2644958647 -0.7486008265 0.0365066423 -0.0342681735
590296460.0 0.0356243255 -0.0355418208 0.2554933158 -0.7506836742 0.2556028064 -0.7513118262 0.0349710343 -0.0344984711
595296430.0 0.0349684519 -0.0359289939 0.2473400391 -0.754452581 0.2475007391 -0.7536561249 0.0354338333 -0.0356600161
600296400.0 0.0339949066 -0.0365803492 0.2392446862 -0.756995451 0.2393524133 -0.7566192042 0.034356299 -0.0355952701
605296370.0 0.0333894296 -0.0365393401 0.2310244341 -0.7586061433 0.2310618267 -0.7593765681 0.0338546168 -0.0357180221
610296340.0 0.0328855828 -0.037002985 0.2218257965 -0.7617230671 0.223389242 -0.7621364026 0.0342741085 -0.0363483402
615296310.0 0.032796654 -0.0376979377 0.2139426216 -0.7634247299 0.2141368145 -0.7648115491 0.0336400629 -0.0363733011
620296280.0 0.0321653064 -0.0377681653 0.2061059079 -0.766511834 0.206075633 -0.7664628475 0.0324082211 -0.0367052388
625296250.0 0.0312055709 -0.0384797456 0.198045325 -0.7695324351 0.1975352968 -0.7692007233 0.0328063514 -0.0367059871
630296220.0 0.0319282973 -0.0380910558 0.1889627049 -0.7703909569 0.1887891275 -0.7705611221 0.0316144133 -0.0366709166
635296190.0 0.0295621489 -0.0388346889 0.1805821765 -0.7726867711 0.1803927199 -0.7727950279 0.0314667204 -0.0370705595
640296160.0 0.029378801 -0.0386392499 0.1726361791 -0.7742471367 0.1730626853 -0.774982651 0.0309724251 -0.0375409818
645296130.0 0.0291671769 -0.0388476401 0.1636842937 -0.7757275361 0.1644894194 -0.7765134951 0.0302373009 -0.0376524788
650296100.0 0.0289972875 -0.0395419241 0.1550565721 -0.7781432607 0.1558867136 -0.7782980231 0.0301384573 -0.038694935
655296070.0 0.0275904895 -0.0397179807 0.1470373592 -0.7802093345 0.1470740273 -0.7799979554 0.0296350744 -0.0384578713
660296040.0 0.0267960258 -0.0402981806 0.1384956931 -0.7813372473 0.138731652 -0.7817263727 0.0291556753 -0.0387695196
665296010.0 0.0268425528 -0.0402115176 0.1292262256 -0.782517099 0.1296609659 -0.782557244 0.0280108374 -0.0383288956
670295980.0 0.025246851 -0.0403083089 0.1209171532 -0.7840406961 0.1209887763 -0.7842941681 0.0271179407 -0.0389329887
675295950.0 0.0252769011 -0.0401935613 0.1128788967 -0.7855428677 0.1128273337 -0.7850812779 0.0261521857 -0.0389938352
680295920.0 0.0242715671 -0.0409353482 0.1035698924 -0.7864825957 0.1036844759 -0.7874190558 0.0261548149 -0.0385856928
685295890.0 0.0241290537 -0.0403046918 0.0952711434 -0.7878176972 0.0951703334 -0.7879805749 0.0254362227 -0.0390341198
690295860.0 0.0237092485 -0.0405734661 0.0868443345 -0.7881413436 0.0866287043 -0.7889450652 0.0246728616 -0.0384503244
695295830.0 0.0228862255 -0.0411398082 0.0786903109 -0.7888688979 0.0779038222 -0.7891252116 0.0240362256 -0.0392464271
700295800.0 0.0224461123 -0.0413818729 0.0695284769 -0.7901267018 0.0691437618 -0.7900896978 0.0236097247 -0.0387773681
705295770.0 0.0213803229 -0.0406564265 0.0607925521 -0.7911866442 0.0615927194 -0.7911461598 0.0226765743 -0.0393424774
710295740.0 0.0213792619 -0.0414204683 0.0524180619 -0.7921859453 0.0527623797 -0.791805294 0.0225629787 -0.0402730364
715295710.0 0.0197338465 -0.0416529498 0.0439001336 -0.7922915177 0.0438477909 -0.792271352 0.0223114342 -0.0398495727
720295680.0 0.0196680949 -0.0418096775 0.0354139633 -0.7927631891 0.0352723931 -0.7923821949 0.0212609253 -0.0391014268
725295650.0 0.0193205192 -0.0418530067 0.0265230515 -0.7928962908 0.0268880746 -0.7931520885 0.0202641611 -0.0393470404
730295620.0 0.0188444519 -0.0414547391 0.0178104325 -0.7928130766 0.0181890921 -0.7933335516 0.0195740548 -0.0398510092
735295590.0 0.0179670371 -0.0415412991 0.0097433779 -0.7936235311 0.0094857467 -0.7931887077 0.0189342418 -0.0404637529
740295560.0 0.0171492339 -0.0418163321 0.0007928046 -0.7930703254 0.0006653321 -0.793459913 0.0191204012 -0.0398769827
745295530.0 0.0166102013 -0.0416139172 -0.0080537886 -0.7923380442 -0.007990714 -0.793481094 0.0183259886 -0.0407549387
750295500.0 0.0161040218 -0.0419516363 -0.0160974752 -0.7931470636 -0.0162756416 -0.7932967207 0.017694891 -0.0405488655
755295470.0 0.0155830326 -0.0421386993 -0.024480181 -0.7931876537 -0.0250031191 -0.7931515315 0.0179429211 -0.0410829526
760295440.0 0.0148019354 -0.0416788387 -0.0338584557 -0.7930898062 -0.0335488766 -0.7927123315 0.0165805844 -0.0407369045
765295410.0 0.0141941724 -0.0418880148 -0.0428392521 -0.7919133347 -0.042649121 -0.7924512383 0.0161667447 -0.0405582554
770295380.0 0.0133274866 -0.042226207 -0.0512044047 -0.7913945647 -0.0511502869 -0.7915884252 0.0154818477 -0.0411697171
775295350.0 0.0127628087 -0.042569827 -0.0602233233 -0.791074772 -0.0593098378 -0.7906961006 0.014014847 -0.0404714432
780295320.0 0.012501936 -0.0421265825 -0.0683335627 -0.7896286602 -0.0676274879 -0.790200539 0.0136072575 -0.0414481489
785295290.0 0.0113201548 -0.0429432948 -0.0767056092 -0.7891330418 -0.0765000558 -0.7892476184 0.014128997 -0.040416482
790295260.0 0.0117225481 -0.0416760005 -0.0849783308 -0.7889977463 -0.0842460644 -0.7885728629 0.0132672327 -0.040851034
795295230.0 0.0108595919 -0.0424799214 -0.0934942252 -0.7875495773 -0.0931881782 -0.7874395232 0.0127327034 -0.0398034414
800295200.0 0.0096917006 -0.0420925901 -0.1031995596 -0.7865142039 -0.1022635696 -0.7865485317 0.0118839798 -0.0407488748
805295170.0 0.0092671806 -0.0422904101 -0.1109617514 -0.7849046583 -0.1109201108 -0.7852184604 0.0110386057 -0.0402025006
810295140.0 0.0082020807 -0.042555101 -0.11940306 -0.783577566 -0.1191200243 -0.783652474 0.0112893853 -0.0399935385
815295110.0 0.0082086214 -0.042692948 -0.1275842689 -0.7822902218 -0.1278073768 -0.7824675118 0.0098191787 -0.0398718653
820295080.0 0.0070280191 -0.0414825927 -0.1364922796 -0.7803419313 -0.1360155191 -0.7807699156 0.009533188 -0.0400174954
825295050.0 0.0070902313 -0.0420836396 -0.1443717103 -0.7794063072 -0.1447790784 -0.7795580882 0.009576314 -0.0402188661
830295020.0 0.0064638873 -0.0416831101 -0.1535305465 -0.7773133913 -0.153159965 -0.7775443974 0.0094746171 -0.0397558976
