!Created with skrf (http://scikit-rf.org).
# Hz S RI R 50.0 
!freq ReS11 ImS11 ReS21 ImS21 ReS12 ImS12 ReS22 ImS22
300000.0 -0.311719541 -0.1367217324 0.3707450138 0.0695665417 0.3705874177 0.0684205571 -0.3146461024 -0.1356150207
5299970.0 -0.3247196471 0.0023822787 0.3782039844 0.0036310083 0.3791069646 0.0035226673 -0.3255334825 0.0018909011
10299940.0 -0.3228645189 0.0140934398 0.3799100011 0.0029096902 0.3799326472 0.0028604865 -0.3231934206 0.0124060552
15299910.0 -0.3190354783 0.0224825272 0.3821805381 0.0021904795 0.3825421652 0.0026796235 -0.3204650933 0.0198748188
20299880.0 -0.3154779684 0.028912817 0.3849050307 0.0019353626 0.3853076433 0.0018607913 -0.3178096643 0.0262788431
25299850.0 -0.3113235645 0.0348761655 0.3883033528 0.0005532134 0.3886296253 0.0005408719 -0.3146614697 0.0310786155
30299820.0 -0.3080466888 0.0393815493 0.3918083424 -0.0020914805 0.3918845876 -0.0023748449 -0.3115761711 0.0356963076
35299790.0 -0.3046374338 0.0435232847 0.3949266302 -0.004989906 0.3954793521 -0.0050718208 -0.3089937699 0.0398274465
40299760.0 -0.3013294125 0.0470610123 0.3983558634 -0.0085442243 0.3981014532 -0.0087035113 -0.3062420162 0.0432510707
45299730.0 -0.2982293564 0.0502719504 0.4014896838 -0.0124846858 0.4016013847 -0.0126852583 -0.3032936564 0.0464760232
50299700.0 -0.2948721069 0.0529355838 0.4038114133 -0.0170018071 0.4038723687 -0.0175667763 -0.3008593119 0.0497130058
55299670.0 -0.292363255 0.0552530916 0.4058832195 -0.0212452265 0.4058501935 -0.021924618 -0.2992481266 0.0522709845
60299640.0 -0.2895401945 0.057884622 0.4081470109 -0.0270792166 0.4082031627 -0.0269549784 -0.2970011597 0.0550364811
65299610.0 -0.2873815543 0.060051392 0.4098818053 -0.0313187915 0.409810298 -0.0315734428 -0.2949605683 0.0574720177
70299580.0 -0.2854121079 0.0623173544 0.4108917176 -0.0365427956 0.4110505924 -0.0367265803 -0.2936104544 0.0597698511
75299550.0 -0.28347138 0.0644186012 0.4114839011 -0.0423379843 0.4118654457 -0.0418960968 -0.2918195631 0.0623384168
80299520.0 -0.2817197021 0.0667539112 0.4125729236 -0.0472711879 0.4135471356 -0.0472275757 -0.2904414161 0.0648269393
85299490.0 -0.2796799947 0.0684102019 0.4134311748 -0.0526296625 0.4136488201 -0.0525102458 -0.288918944 0.0667512584
90299460.0 -0.2780742601 0.071012291 0.4133677626 -0.0578204015 0.4135926509 -0.0574909946 -0.2874332441 0.0692778896
95299430.0 -0.2769776607 0.0725818821 0.4138068197 -0.0628961905 0.4143841978 -0.0632845304 -0.2864385189 0.0720409767
100299400.0 -0.2752006691 0.0746755261 0.4139016804 -0.0680920859 0.4137952166 -0.0681569611 -0.2850942834 0.0746111826
105299370.0 -0.273929593 0.0765601915 0.4136715697 -0.0732942327 0.4141924289 -0.0732406456 -0.2836845636 0.0764679968
110299340.0 -0.2726759913 0.0786702852 0.4140525685 -0.0780337906 0.4141950272 -0.0782633164 -0.2830954539 0.0788706052
115299310.0 -0.2716929819 0.0809688932 0.4132349413 -0.0835919367 0.4133702885 -0.0838275879 -0.2821092013 0.0813847025
120299280.0 -0.2705402797 0.0834084168 0.4136396089 -0.0894560334 0.4129593159 -0.0891988958 -0.2806295425 0.0833472151
125299250.0 -0.2692491689 0.0851173695 0.4123802402 -0.0938515791 0.4128132472 -0.0938686995 -0.2798483322 0.0860952692
130299220.0 -0.2685352427 0.0871598418 0.4118058336 -0.098821661 0.4119372699 -0.0992995051 -0.2791490567 0.0883347501
135299190.0 -0.2672404766 0.0899783502 0.4114940329 -0.1039068797 0.4114060799 -0.1041470346 -0.2779033399 0.0906834701
140299160.0 -0.2663536952 0.0926088914 0.4105432205 -0.1090549606 0.4104217124 -0.1090173748 -0.2773235454 0.0930782696
145299130.0 -0.2654309616 0.0947766117 0.4095743469 -0.1137228951 0.4096641463 -0.1140813562 -0.2766396564 0.0958244522
150299100.0 -0.264351257 0.0968532844 0.4085199046 -0.1188194652 0.408515421 -0.1190507838 -0.2754159806 0.0984751641
155299070.0 -0.2632422029 0.0995048476 0.4070605309 -0.1238098552 0.407561817 -0.1240710873 -0.2746061342 0.1010685808
160299040.0 -0.2622176093 0.1021961111 0.4063067403 -0.1287364457 0.4061118593 -0.1292195404 -0.273870034 0.1037811354
165299010.0 -0.2611752832 0.1041893263 0.405090728 -0.1331042376 0.404943138 -0.1337212091 -0.2726541412 0.1063321575
170298980.0 -0.2602267448 0.1066607541 0.4033347035 -0.1381244069 0.4035438909 -0.1384802273 -0.2718458353 0.1084875368
175298950.0 -0.2592772985 0.1094307087 0.4021209833 -0.1429922286 0.4024016794 -0.1435026916 -0.2704382403 0.1115387992
180298920.0 -0.258300587 0.1119051869 0.4005327445 -0.1480151381 0.4006868599 -0.1481862408 -0.2694287337 0.1143583724
185298890.0 -0.257035585 0.114371215 0.3991569032 -0.1523664646 0.3990512215 -0.1527390743 -0.26867424 0.1166618296
190298860.0 -0.2559323081 0.1170426518 0.3971370279 -0.1571787086 0.3977147844 -0.1570796559 -0.2675033355 0.1193820666
195298830.0 -0.2547900516 0.1194959274 0.3959957419 -0.1615408021 0.3963058603 -0.1621125696 -0.2667085909 0.1221372265
200298800.0 -0.25330024 0.1219116014 0.3943938158 -0.1666014571 0.3941578219 -0.1666729762 -0.2655377653 0.1248260538
205298770.0 -0.252686567 0.1244136326 0.3922759365 -0.1706885637 0.3926925031 -0.1712973406 -0.2644567949 0.1276595252
210298740.0 -0.2514247746 0.1274582361 0.3906840926 -0.1756604213 0.3907847206 -0.1757301508 -0.2635295106 0.1300595471
215298710.0 -0.2504803945 0.130268618 0.3886177129 -0.1799424365 0.3888361902 -0.1803454267 -0.2620682356 0.1330133709
220298680.0 -0.2488375693 0.1324547947 0.3864729759 -0.1847304787 0.3866644466 -0.1845634115 -0.2606845256 0.1353424603
225298650.0 -0.2477776717 0.1353917726 0.3845505276 -0.1890704027 0.3847747326 -0.1886913248 -0.259834875 0.1382066433
230298620.0 -0.2466180899 0.138073219 0.3825424832 -0.1937135786 0.3828150051 -0.1934530665 -0.2586792782 0.1404472864
235298590.0 -0.2452904024 0.1406124905 0.3803511328 -0.198133941 0.3806714074 -0.1980981729 -0.2572886953 0.143523529
240298560.0 -0.244205645 0.1432727399 0.3785192308 -0.2021097093 0.3785922358 -0.2020373295 -0.2559471821 0.1460219171
245298530.0 -0.2424414252 0.1455813292 0.3759294151 -0.206348403 0.3761595985 -0.2067433213 -0.2546047959 0.1487473688
250298500.0 -0.241420004 0.1485464371 0.3739103292 -0.2108801764 0.3738946584 -0.2104823074 -0.2533213158 0.1515764617
255298470.0 -0.2401067247 0.1514334804 0.3718307115 -0.2150596177 0.3720724069 -0.2153533257 -0.2519536788 0.1546714267
260298440.0 -0.2386151846 0.1534083377 0.3693983913 -0.2186898443 0.3694601929 -0.2190475503 -0.250379079 0.156914736
265298410.0 -0.2376902809 0.1563487244 0.3669052422 -0.223831336 0.36701788 -0.2236162526 -0.248902348 0.1594549543
270298380.0 -0.2361164747 0.1587239898 0.3644621244 -0.2273872773 0.3644701367 -0.2277823064 -0.2472293518 0.1622225408
275298350.0 -0.2344291703 0.1616308743 0.3616050184 -0.2314447668 0.3620020028 -0.2316829528 -0.2458128728 0.1648922451
280298320.0 -0.2332676419 0.1639692921 0.359418761 -0.2351844407 0.3596349593 -0.2355878023 -0.2441413914 0.1675805132
285298290.0 -0.2314770259 0.1665183943 0.3569082397 -0.2395373036 0.3571986057 -0.2398073899 -0.2428307049 0.1704330749
290298260.0 -0.2300332429 0.169175208 0.3544541811 -0.2433872907 0.354267122 -0.2437564672 -0.2409127152 0.1730477209
295298230.0 -0.2283128324 0.1715801081 0.3514791571 -0.2479777814 0.3516458286 -0.2481296147 -0.2392244646 0.1755948953
300298200.0 -0.2266503248 0.1742773978 0.3490250626 -0.2516824574 0.3488951938 -0.2517980064 -0.2374645091 0.1782705147
305298170.0 -0.2251192899 0.1767088503 0.3462640202 -0.2556978153 0.3462990567 -0.2557167328 -0.2354434281 0.1806446042
310298140.0 -0.2232803781 0.1788643628 0.3431979829 -0.2594132531 0.3437335228 -0.259219043 -0.2337773499 0.1830301932
315298110.0 -0.2220252168 0.18123767 0.3406693072 -0.2636556569 0.3407957938 -0.2639008885 -0.2320352022 0.1857932802
320298080.0 -0.2203926818 0.1836698566 0.3374746634 -0.2672127158 0.3380409208 -0.2676450072 -0.2303619018 0.1880462918
325298050.0 -0.2188455214 0.185649816 0.3344394814 -0.2711151201 0.3347626911 -0.2710669827 -0.2282639009 0.1905552623
330298020.0 -0.2171870866 0.1885074292 0.3317275248 -0.2751105121 0.3316891041 -0.2750562895 -0.2268779876 0.192901351
335297990.0 -0.2153391232 0.1906996336 0.3281240514 -0.2782910392 0.3285329185 -0.2787753302 -0.2249161352 0.1954391829
340297960.0 -0.2134215229 0.193322178 0.3246307745 -0.2822989643 0.324982743 -0.2824266691 -0.2229836743 0.198194839
345297930.0 -0.2119860598 0.1957432643 0.3219594123 -0.2861015941 0.3216068349 -0.2858637455 -0.2209915251 0.2006236765
350297900.0 -0.2103551648 0.1979797711 0.3191694257 -0.2890828864 0.3188634792 -0.2894301429 -0.2189767489 0.2030192478
355297870.0 -0.2083075454 0.2003788912 0.3156464939 -0.2926783547 0.3157500948 -0.2923570369 -0.2170021252 0.2056521893
360297840.0 -0.2063587214 0.2028696407 0.3120264806 -0.2962025567 0.3126597667 -0.2966719242 -0.2151006087 0.2079792095
365297810.0 -0.2048673061 0.2051111596 0.3091912486 -0.2994477136 0.3091760846 -0.2994498009 -0.2131763504 0.2101414624
370297780.0 -0.2023705624 0.2073015506 0.3052254678 -0.3031053029 0.3057882602 -0.3033168737 -0.2107939561 0.2129717402
375297750.0 -0.2006731815 0.2096462827 0.3022650556 -0.3063415856 0.3022092654 -0.3064583189 -0.2082937454 0.2153058578
380297720.0 -0.1984902863 0.2118274692 0.2993018183 -0.3098713183 0.2991735436 -0.3100312276 -0.2066507191 0.2178212692
385297690.0 -0.1968127195 0.2142059708 0.2950208127 -0.3129560016 0.2956050368 -0.3134800524 -0.2043700532 0.2202609197
390297660.0 -0.1938730019 0.2162307865 0.2915414138 -0.3161506649 0.2919811402 -0.3161985562 -0.2021008877 0.2221052529
395297630.0 -0.1917632637 0.218455123 0.2885960194 -0.3188796698 0.2885822213 -0.3192939981 -0.2000929351 0.2244780646
400297600.0 -0.1903044268 0.2206524411 0.2849793274 -0.3225567512 0.2854165351 -0.3223392103 -0.197767219 0.2268503516
405297570.0 -0.1881032223 0.2223359662 0.2816531327 -0.3253314828 0.2815330617 -0.3254403459 -0.1947418121 0.2292190716
410297540.0 -0.1855746132 0.2247951592 0.2775260439 -0.3288196877 0.2779001788 -0.3287046213 -0.1928280158 0.2316117019
415297510.0 -0.1836459242 0.2271034128 0.2742494903 -0.3319916928 0.2744688833 -0.3317463594 -0.1904031779 0.233447581
420297480.0 -0.1809929591 0.2285285997 0.2702254037 -0.3347859802 0.2705559771 -0.3348550568 -0.1874162806 0.2362389511
425297450.0 -0.1783926736 0.2308095114 0.2666671874 -0.3375356673 0.2664877705 -0.3377691619 -0.1855785715 0.2374217016
430297420.0 -0.1765349286 0.2326167262 0.2634710198 -0.3406717637 0.2634119706 -0.3402630144 -0.1828806507 0.2398410022
435297390.0 -0.1743130853 0.234658792 0.2593452312 -0.3433150961 0.2595959146 -0.3431900002 -0.1810047837 0.2425051189
440297360.0 -0.1714400651 0.2364928418 0.2550294981 -0.3462872491 0.2556496056 -0.3462899224 -0.1782086595 0.2443484658
445297330.0 -0.1690547332 0.2382123809 0.2515343043 -0.3488791742 0.2518997213 -0.3493570922 -0.1754802139 0.2468165357
450297300.0 -0.166709051 0.240308487 0.2477898767 -0.3515260946 0.2479267735 -0.3517383833 -0.1725885488 0.2484377247
455297270.0 -0.1644053286 0.2422416621 0.2440912663 -0.3544693577 0.2441578798 -0.354536136 -0.1700996169 0.2502867018
460297240.0 -0.1614301634 0.2444249889 0.2404279906 -0.3575822192 0.2401025088 -0.3569530332 -0.1675328597 0.2517892428
465297210.0 -0.1590099603 0.2458682484 0.2357492058 -0.3596097115 0.2357915387 -0.3600932044 -0.1647763612 0.254774855
470297180.0 -0.1566897958 0.2476106754 0.232371 -0.3619552809 0.2318611986 -0.3619842004 -0.1617351735 0.2558984035
475297150.0 -0.1539418248 0.249809851 0.2279190791 -0.3643877521 0.2281254794 -0.3650070545 -0.1593732913 0.258143841
480297120.0 -0.1509481694 0.2514055996 0.224129162 -0.367503182 0.2243867671 -0.3672296387 -0.1570229065 0.2596864381
485297090.0 -0.148540315 0.2526099208 0.2202583099 -0.3696228518 0.220041601 -0.3693960431 -0.1543776901 0.2616524902
490297060.0 -0.1454413454 0.2546839281 0.2158125275 -0.3719115067 0.2161688685 -0.3720354736 -0.1515401308 0.2633385486
495297030.0 -0.1430570827 0.2559161856 0.2121805209 -0.3741226616 0.211788622 -0.3745269894 -0.148215066 0.2651716613
500297000.0 -0.1400706172 0.2578898387 0.2075893467 -0.3765189246 0.2076649747 -0.3767259363 -0.1456135751 0.2669420338
505296970.0 -0.1371624997 0.2592540801 0.2035738327 -0.3789690998 0.2038456364 -0.3787103349 -0.142805067 0.2683530463
510296940.0 -0.1345224744 0.260957747 0.199699099 -0.3814073115 0.1994865808 -0.3815296102 -0.1396917317 0.2703688054
515296910.0 -0.1319760283 0.2627302819 0.1949688563 -0.3828796722 0.1947852309 -0.3832288456 -0.1372428943 0.2714224694
520296880.0 -0.1288044968 0.2644274762 0.1910120255 -0.3849960572 0.1908221427 -0.3850860167 -0.1337579184 0.2740931128
525296850.0 -0.1260240491 0.2657373017 0.1863319996 -0.3871205815 0.1862552974 -0.3870283989 -0.1312232086 0.2749015925
530296820.0 -0.1232959816 0.2670122524 0.1821195564 -0.3890613215 0.1824343521 -0.3890312132 -0.1281204934 0.2762871507
535296790.0 -0.1197345766 0.2685231353 0.1778624578 -0.3909256085 0.1779103992 -0.3911793766 -0.1253596716 0.2778974003
540296760.0 -0.1170406589 0.2701411062 0.1738803956 -0.3930373745 0.1736894395 -0.392871518 -0.1224333237 0.2793009348
545296730.0 -0.1146421165 0.2718108278 0.1698351024 -0.3947488754 0.1697476111 -0.3944340437 -0.1196227936 0.2808864777
550296700.0 -0.1110843184 0.272938583 0.1651540731 -0.3967380351 0.164828851 -0.3965141011 -0.1163980418 0.2822456584
555296670.0 -0.1083661291 0.2741812415 0.1609012015 -0.3982804414 0.1607319898 -0.398050017 -0.1136538034 0.2830612568
560296640.0 -0.1053801514 0.2753377872 0.1566121561 -0.4000655154 0.1568103715 -0.3999305032 -0.110554073 0.2849777185
565296610.0 -0.1025283861 0.2767708689 0.1524286086 -0.401518788 0.1521617897 -0.4011348137 -0.1072830521 0.2862450437
570296580.0 -0.0996246412 0.2784935615 0.1476157514 -0.4032890031 0.1474530505 -0.4031805596 -0.1045660308 0.2873250462
575296550.0 -0.0961044526 0.2793035135 0.1431598115 -0.4047613878 0.1430464382 -0.4046489994 -0.1015863283 0.2885117346
580296520.0 -0.0934921916 0.2807797305 0.1389330457 -0.4063647909 0.1388330412 -0.4062522718 -0.0985376697 0.2898036373
585296490.0 -0.0901555206 0.2818333308 0.1345837869 -0.4076105198 0.1341219587 -0.4078787189 -0.0951110054 0.2914750501
590296460.0 -0.0867867223 0.2827847747 0.12976407 -0.4092449304 0.1296973278 -0.4093367694 -0.0923000022 0.2920229275
595296430.0 -0.0838273089 0.2840893661 0.1247162449 -0.4103032411 0.125025971 -0.4105089487 -0.0890367088 0.2931047785
600296400.0 -0.0805001131 0.2849780051 0.1204789175 -0.4113410862 0.1203904837 -0.4117055819 -0.085980211 0.2941196889
605296370.0 -0.0778808287 0.286300122 0.1167227976 -0.4127500241 0.116122924 -0.4129938324 -0.0829203562 0.2953494576
610296340.0 -0.074378093 0.2874215818 0.1118190019 -0.4136423073 0.1120637243 -0.4140737166 -0.0801896722 0.2963942868
615296310.0 -0.0711240718 0.2883930028 0.1075870288 -0.4154598144 0.1071554978 -0.415430197 -0.0765594818 0.2974428469
620296280.0 -0.0684166313 0.2898105863 0.1027079536 -0.416380603 0.1025249487 -0.416405641 -0.0738444875 0.2985438819
625296250.0 -0.0654419 0.2902803267 0.0981702516 -0.4173165856 0.0983031874 -0.4175900042 -0.0707436228 0.2988983763
630296220.0 -0.0623412666 0.291386355 0.0937300848 -0.4183606937 0.093204389 -0.418675095 -0.0675323121 0.3002179056
635296190.0 -0.0592382957 0.2925055128 0.0891691073 -0.4193458238 0.0891136015 -0.4194163323 -0.0644158833 0.3010200244
640296160.0 -0.0556855195 0.2931023638 0.0843032487 -0.420517471 0.0846070906 -0.4204389359 -0.0614044568 0.3016222643
645296130.0 -0.0529920541 0.2943381067 0.0802649489 -0.4211593349 0.0799011287 -0.4208185675 -0.0579834706 0.3019655313
650296100.0 -0.0498251277 0.2946340754 0.0753623973 -0.4220011028 0.0750128996 -0.4221713418 -0.0543572079 0.3030944701
655296070.0 -0.0468146052 0.2958021133 0.0705642735 -0.4228356187 0.0705703072 -0.4224232804 -0.0517959166 0.3039607426
660296040.0 -0.0436759421 0.296346335 0.0666227652 -0.42352145 0.0660446663 -0.4237665763 -0.048247042 0.3046197865
665296010.0 -0.0403426953 0.2974392168 0.0612195076 -0.4239342484 0.0612582782 -0.4239487967 -0.0452016496 0.3049243576
670295980.0 -0.0372864422 0.2981469116 0.0568549117 -0.4247961191 0.0566422235 -0.4244138269 -0.0422697609 0.3054733842
675295950.0 -0.0341804585 0.2987974982 0.0523823244 -0.4248907902 0.0523711852 -0.4250644496 -0.0389035941 0.3061788732
680295920.0 -0.0312565957 0.2994576173 0.0482196515 -0.4255634846 0.0475017323 -0.4255193421 -0.0354056053 0.3069779663
685295890.0 -0.027703506 0.3001337148 0.0431230519 -0.4263522836 0.0428824052 -0.4263660554 -0.0322915842 0.3074297318
690295860.0 -0.0248557188 0.3003571511 0.0387220211 -0.4265770093 0.0382154006 -0.4267978252 -0.0294378057 0.3079686228
695295830.0 -0.0214697321 0.3009290877 0.0342758819 -0.4268588792 0.0339703602 -0.4267442318 -0.0259598878 0.3083255358
700295800.0 -0.0181561718 0.3017359583 0.029845936 -0.4273577532 0.0293803183 -0.4271585021 -0.0223960208 0.3087386202
705295770.0 -0.0153869957 0.3023269361 0.0246907326 -0.4276274558 0.0246291707 -0.4274325161 -0.0194815597 0.3095101459
710295740.0 -0.0126433224 0.3023843469 0.0203781599 -0.4278196256 0.0196470482 -0.4279522505 -0.0160320185 0.3097761385
715295710.0 -0.0090338699 0.3029316143 0.0156869808 -0.4277719619 0.0151307415 -0.4277820947 -0.0127343286 0.3096382651
720295680.0 -0.0057040903 0.3031848924 0.0107498334 -0.4279477597 0.0108165647 -0.4282099012 -0.0094027062 0.309946856
725295650.0 -0.0031851078 0.303751541 0.0067113197 -0.4280167107 0.0060392063 -0.4281189623 -0.0064978427 0.3108627434
730295620.0 -0.0004708488 0.3038543531 0.0017812394 -0.4275957749 0.0016580465 -0.4281359242 -0.0036063292 0.3109378241
735295590.0 0.003213741 0.304271978 -0.0030414016 -0.4281931381 -0.0029692169 -0.4282004305 3.84223e-05 0.310563103
740295560.0 0.0058003632 0.3041697879 -0.0075607175 -0.4277592926 -0.0073749238 -0.4281588414 0.0032713342 0.310940391
745295530.0 0.0092991434 0.3048883117 -0.0120618514 -0.4273511067 -0.011347463 -0.4277530317 0.0060856449 0.3106779441
750295500.0 0.012045117 0.3046926171 -0.0164645957 -0.4272996501 -0.0171435617 -0.4274015448 0.0094745501 0.3111496445
755295470.0 0.0150758516 0.3049473935 -0.0210311137 -0.4276354664 -0.0214321358 -0.4275842451 0.0130937587 0.3116201521
760295440.0 0.0184294301 0.3052696814 -0.026271872 -0.4268329268 -0.026127533 -0.4268212548 0.0162969397 0.3108465839
765295410.0 0.0213691563 0.3046967175 -0.030660431 -0.4265677795 -0.0305268436 -0.4266666893 0.0195724557 0.3111057787
770295380.0 0.0248849126 0.3053095015 -0.0350431913 -0.4259784057 -0.0350962224 -0.4266434663 0.0225240374 0.3110907637
775295350.0 0.0274178402 0.3049438618 -0.0395410565 -0.4260119583 -0.0396133826 -0.4256051311 0.0260894553 0.3108529579
780295320.0 0.0306296501 0.3050415529 -0.0439173038 -0.4251268568 -0.0440778233 -0.4254890535 0.029330594 0.310734119
785295290.0 0.0337079491 0.304784266 -0.0485604548 -0.4249494546 -0.0488196223 -0.4251393921 0.0322213013 0.3109714812
790295260.0 0.036870942 0.3046193464 -0.053332356 -0.4242569173 -0.0531045129 -0.424560999 0.0356397402 0.3105248264
795295230.0 0.0397751065 0.3040464426 -0.0577925041 -0.4233881676 -0.0580904411 -0.4237364655 0.0387756022 0.3095808772
800295200.0 0.0427026827 0.3041607066 -0.0620124015 -0.4226433912 -0.0623425517 -0.4230504927 0.0419137125 0.3095708974
805295170.0 0.0456739584 0.3042990973 -0.0665288376 -0.4221806909 -0.0670167975 -0.4225225616 0.0457684409 0.3095361341
810295140.0 0.0489099621 0.3041418967 -0.0712275935 -0.4216978201 -0.0717586195 -0.4215646951 0.0486755685 0.309209099
815295110.0 0.0516243409 0.3037140598 -0.0757890617 -0.4206741904 -0.0757314468 -0.4207637939 0.051714346 0.3089469275
820295080.0 0.0550758701 0.3033341567 -0.0801574818 -0.4199594216 -0.0802633018 -0.4201817072 0.0545453896 0.3088858694
825295050.0 0.0578142834 0.3024317719 -0.0849520825 -0.4186963521 -0.0851977025 -0.4190708789 0.0585505808 0.3082166063
830295020.0 0.061056408 0.3021038555 -0.0892740394 -0.4182487879 -0.0895320712 -0.4182143956 0.0613329546 0.307200856
