!Created with skrf (http://scikit-rf.org).
# Hz S RI R 50.0 
!freq ReS11 ImS11 ReS21 ImS21 ReS12 ImS12 ReS22 ImS22
300000.0 -0.3168787869 -0.1069538882 0.3717157632 0.0541358855 0.3731713251 0.0568316008 -0.3175065897 -0.112538963
5299970.0 -0.3236708996 0.0048394644 0.3785177041 0.0027636319 0.3786184194 0.0029435258 -0.3263836898 0.0028547637
10299940.0 -0.3210444781 0.0155278083 0.3798882583 0.0025010966 0.3797471534 0.0026610037 -0.3244627848 0.0127771395
15299910.0 -0.3180313575 0.0237479651 0.3820866668 0.0023399799 0.3819495681 0.0024394689 -0.3213170223 0.019612209
20299880.0 -0.3142636041 0.0302093398 0.38501423 0.0017123443 0.3854617984 0.0018085272 -0.3191155764 0.0260470653
25299850.0 -0.3104309479 0.0358046911 0.3882987328 -0.0003951939 0.3886995045 0.0001675415 -0.315708864 0.0310668038
30299820.0 -0.306701029 0.0403644466 0.3921128222 -0.0021735137 0.3916188244 -0.0022867453 -0.3128603383 0.0354927591
35299790.0 -0.3030853998 0.0447049824 0.3950251524 -0.0054754382 0.3954021312 -0.0053375497 -0.3100906456 0.0393759273
40299760.0 -0.2995844412 0.047846337 0.398337906 -0.0084008164 0.3985141535 -0.0088369166 -0.3075547537 0.0429735308
45299730.0 -0.2964986534 0.0516505427 0.401298882 -0.0129201252 0.4014909375 -0.0129640421 -0.3048655849 0.0461013494
50299700.0 -0.293135561 0.0541257189 0.4033366292 -0.0173028915 0.403632923 -0.0172997522 -0.3021697314 0.0489938581
55299670.0 -0.2907624359 0.0566360657 0.4054413 -0.0220234455 0.405902319 -0.0219195372 -0.3004934725 0.0518593993
60299640.0 -0.2880958875 0.0588003796 0.4075521369 -0.02691004 0.4076628207 -0.0268779425 -0.2982460651 0.0544896052
65299610.0 -0.2862189543 0.0615948844 0.4094770721 -0.0316384706 0.409570554 -0.0318697092 -0.2961996733 0.0570379298
70299580.0 -0.2839006817 0.0634854982 0.4104972027 -0.0366589734 0.4107213313 -0.0369511329 -0.2947831973 0.0594798508
75299550.0 -0.2818898032 0.0658771003 0.4113899553 -0.0418484569 0.4115829117 -0.0423054732 -0.2929890943 0.06187312
80299520.0 -0.2802071576 0.0679926964 0.4126162741 -0.0471437979 0.4124619606 -0.0475302836 -0.2915734828 0.0636813803
85299490.0 -0.2786469185 0.0699558161 0.413421029 -0.0526663954 0.4133352742 -0.052631532 -0.2905452048 0.066398097
90299460.0 -0.2770212968 0.0721262273 0.4137140735 -0.0578063492 0.4138011208 -0.0578268756 -0.2885846475 0.0686025306
95299430.0 -0.2756014959 0.0744206617 0.4141118425 -0.0634292024 0.4138236724 -0.0631080466 -0.2874235515 0.0711191423
100299400.0 -0.2745403439 0.0765296076 0.4137893584 -0.0684063841 0.4137482032 -0.0683955523 -0.2864005376 0.0732997439
105299370.0 -0.2728396975 0.078279309 0.4134503138 -0.0731483321 0.4135103626 -0.0737419928 -0.2851494965 0.0756734319
110299340.0 -0.2719307671 0.080417324 0.4133443037 -0.0784176018 0.413596421 -0.07866909 -0.2844477696 0.0781337339
115299310.0 -0.2706691018 0.0822214593 0.4128807645 -0.083339749 0.4135015887 -0.0833700795 -0.2831236752 0.0800000984
120299280.0 -0.2697770655 0.084407187 0.4128329432 -0.088802588 0.4130420619 -0.0891569198 -0.2824412116 0.0825716705
125299250.0 -0.268802651 0.0865427399 0.4120870864 -0.0939049507 0.4126538198 -0.0937393187 -0.2814288853 0.0844345175
130299220.0 -0.2678412008 0.0892064437 0.4117058154 -0.0985847343 0.4116512198 -0.0991466359 -0.2803635227 0.0874275524
135299190.0 -0.2667503792 0.0912098615 0.4110913772 -0.1037499518 0.4107746179 -0.1040507163 -0.2796978352 0.0896965635
140299160.0 -0.265831265 0.0939500146 0.4104469475 -0.1091449261 0.410231455 -0.1089738975 -0.2784420438 0.0919026873
145299130.0 -0.2648475089 0.0956269109 0.4094257953 -0.1141156726 0.4090299241 -0.1137697814 -0.2777351118 0.0945184549
150299100.0 -0.2638634261 0.0980192954 0.4081641534 -0.118821744 0.4082674005 -0.1189238444 -0.2768152357 0.0969022623
155299070.0 -0.2630322807 0.1009166883 0.4070624964 -0.1242412865 0.4069511637 -0.1241854228 -0.2762680447 0.0996533134
160299040.0 -0.2619708955 0.1030865073 0.4058598233 -0.1284693267 0.4059821147 -0.1287731377 -0.275386322 0.1023182113
165299010.0 -0.2611128458 0.1054059496 0.4046233132 -0.1338125659 0.4045044661 -0.1335951532 -0.2741691362 0.1043785939
170298980.0 -0.2601967813 0.1076892772 0.4028850625 -0.1383023687 0.4029590025 -0.138536327 -0.2730844649 0.1071606498
175298950.0 -0.2588413761 0.1106188894 0.4022300247 -0.1429630303 0.40198436 -0.1432128842 -0.2720840554 0.1097148773
180298920.0 -0.2578420212 0.1127208516 0.4004018207 -0.1479128678 0.4005449308 -0.1479430524 -0.2711635146 0.112377913
185298890.0 -0.2569055897 0.1151827724 0.3985614542 -0.1527481879 0.3989375525 -0.1525879365 -0.2703794788 0.1148658409
190298860.0 -0.2559377249 0.117554469 0.3972342818 -0.1572818454 0.3976040507 -0.1574242691 -0.2691097395 0.1174863597
195298830.0 -0.2546926478 0.1199895834 0.3954635776 -0.1616460258 0.3958033096 -0.1620331769 -0.2681378575 0.1200560636
200298800.0 -0.2535868479 0.1227618878 0.3941068813 -0.1661709813 0.3940611653 -0.1664393872 -0.2667329893 0.1231719592
205298770.0 -0.2526319966 0.1253346011 0.3921714623 -0.1710041807 0.3924870436 -0.171235638 -0.2658197702 0.1257089967
210298740.0 -0.2514531469 0.1279385617 0.3906363303 -0.1759016465 0.3903966546 -0.1757508222 -0.2645833961 0.1284137919
215298710.0 -0.2504875219 0.1304612716 0.3885347256 -0.1800971157 0.3887218572 -0.179894524 -0.2636761565 0.1307242216
220298680.0 -0.2493400891 0.1328494667 0.386518507 -0.184450191 0.3869424175 -0.1846414052 -0.2620724654 0.1335240792
225298650.0 -0.2477208728 0.1358490644 0.3839818064 -0.1887816891 0.3844230771 -0.1890697562 -0.2612168279 0.136521449
230298620.0 -0.2465911356 0.1381193337 0.3829072253 -0.1934540647 0.3826968536 -0.193409429 -0.2595719733 0.1392698891
235298590.0 -0.2453331249 0.1407275658 0.3803061702 -0.1977913338 0.3804174898 -0.1982412901 -0.2581524375 0.1415825792
240298560.0 -0.2442560578 0.1433984329 0.3786348879 -0.201907547 0.3784898936 -0.202059049 -0.2570534627 0.1445179318
245298530.0 -0.2426418715 0.1458409032 0.375593102 -0.2064131983 0.3760982001 -0.2066393162 -0.2558873954 0.1471342673
250298500.0 -0.2415902604 0.1482771562 0.373669488 -0.210161032 0.3738977477 -0.2103343894 -0.2541456932 0.1500703108
255298470.0 -0.2400171254 0.1509298673 0.371216126 -0.2152830833 0.3714573743 -0.2150483155 -0.2527174359 0.152402862
260298440.0 -0.2385197142 0.1534672692 0.3690844848 -0.218813797 0.3691894775 -0.2191966877 -0.2508058974 0.1552340457
265298410.0 -0.2371117704 0.1562224448 0.3667718153 -0.2238495764 0.3665891734 -0.2235795202 -0.2497020271 0.1576613765
270298380.0 -0.2356689978 0.1586406566 0.3639481947 -0.2274744533 0.3643281799 -0.2277420592 -0.2479389038 0.1606869716
275298350.0 -0.2340324403 0.1614521896 0.3615741459 -0.2320559639 0.3621461121 -0.2319432391 -0.2464732716 0.1631261646
280298320.0 -0.2323653924 0.1637064656 0.3591889632 -0.2353745274 0.3592358891 -0.2356288804 -0.2449910854 0.1659015813
285298290.0 -0.231042626 0.1668412843 0.3567698475 -0.2398311522 0.3566718949 -0.2398516408 -0.243225287 0.1686593575
290298260.0 -0.2295323588 0.1688004466 0.3543350242 -0.2436128508 0.3537129227 -0.243882568 -0.2410764064 0.1714758504
295298230.0 -0.2275002369 0.1715500217 0.351182657 -0.2481510538 0.3509038585 -0.2480032098 -0.2397846802 0.1737544438
300298200.0 -0.2258933423 0.173642125 0.3481484732 -0.2517895549 0.3487017108 -0.2519505276 -0.2381153246 0.1764889129
305298170.0 -0.223910459 0.1765215349 0.3459371826 -0.2560781298 0.3460378056 -0.256244015 -0.2359758133 0.1793829189
310298140.0 -0.222284213 0.1783582932 0.3431586039 -0.2599301627 0.3431164915 -0.2603446546 -0.2342006293 0.1820613445
315298110.0 -0.2204482209 0.1808739344 0.3400672888 -0.2637307236 0.3401672924 -0.2638731235 -0.2319421257 0.1841677483
320298080.0 -0.2188291175 0.1833432068 0.3370659562 -0.2675573831 0.3373338724 -0.2676219063 -0.2300350108 0.1868949392
325298050.0 -0.2169591586 0.1855385773 0.3343424885 -0.2717180921 0.3342498204 -0.2715376626 -0.2282723625 0.189380537
330298020.0 -0.215299211 0.187980206 0.330236307 -0.2753468412 0.3311051941 -0.2750532472 -0.2266034257 0.1917029647
335297990.0 -0.213409827 0.1903328003 0.3278076646 -0.279215203 0.3279376368 -0.2788277545 -0.2250263274 0.1942942649
340297960.0 -0.2118974331 0.1928432004 0.3241664 -0.2828664279 0.3247425405 -0.2823713582 -0.2229869902 0.1969163567
345297930.0 -0.2100763091 0.195143071 0.3213394239 -0.28600905 0.3209052516 -0.2859035469 -0.2205571575 0.1993781781
350297900.0 -0.207675948 0.1975520019 0.317831019 -0.2893698275 0.3181817529 -0.2897308136 -0.2189738954 0.2023590628
355297870.0 -0.2060843981 0.2000228904 0.3146112444 -0.2929694029 0.3149255784 -0.2930827369 -0.2170805366 0.2048113058
360297840.0 -0.2037976633 0.202256511 0.3114822534 -0.2968275777 0.3113411077 -0.2966640861 -0.2148503375 0.2071397264
365297810.0 -0.2018021826 0.2046990898 0.308120818 -0.2998972123 0.3083711771 -0.3003928966 -0.2126381406 0.2100048415
370297780.0 -0.1995174054 0.2068524013 0.3045760297 -0.3032504781 0.3047031832 -0.3037107981 -0.210217445 0.2123408516
375297750.0 -0.1976557903 0.2092989061 0.3018647363 -0.3067881248 0.3014635542 -0.3070318029 -0.2083674461 0.2149292285
380297720.0 -0.1953976018 0.2114453874 0.2980275727 -0.3099425378 0.2980288015 -0.3097153812 -0.2059342551 0.2174020938
385297690.0 -0.1932399164 0.2138460014 0.2946747042 -0.3129750747 0.2944484679 -0.3128737574 -0.2037707352 0.2197823503
390297660.0 -0.1908511101 0.2160597498 0.2909217196 -0.3166301187 0.2911627172 -0.3168344868 -0.2015973627 0.2218046225
395297630.0 -0.1885880336 0.2185155115 0.2875346364 -0.3192427713 0.2875338339 -0.3198077285 -0.1993289017 0.2245980574
400297600.0 -0.1866118398 0.2202476262 0.2840410164 -0.322704141 0.2844518647 -0.322988557 -0.1972595585 0.2264427142
405297570.0 -0.1838836253 0.2224471778 0.2802526575 -0.3258121707 0.2807227922 -0.3262637145 -0.1949031516 0.2291925096
410297540.0 -0.1815853888 0.224386077 0.2763968475 -0.3288790778 0.2765817234 -0.3287913353 -0.1922991582 0.231339646
415297510.0 -0.1794263484 0.226666013 0.2728848564 -0.3318694347 0.2732854471 -0.3320399432 -0.1903399008 0.2341808029
420297480.0 -0.1769634412 0.2283852425 0.2691431571 -0.3347739218 0.269245839 -0.3348019636 -0.1874288456 0.2359525393
425297450.0 -0.1744504439 0.2305092269 0.2656460989 -0.3377056313 0.2660442681 -0.3382343201 -0.1850174409 0.2384172207
430297420.0 -0.1727066756 0.2325806958 0.2620428197 -0.3409326818 0.2621939114 -0.3406785641 -0.1826626683 0.2402767606
435297390.0 -0.1697881749 0.2347982395 0.2581199352 -0.3434228978 0.2582982044 -0.3433936131 -0.1799907475 0.2426368785
440297360.0 -0.1673906456 0.2365555484 0.2543234919 -0.3464436542 0.2542259449 -0.3461048239 -0.1776766466 0.2442459161
445297330.0 -0.164482499 0.2381678774 0.2501586769 -0.3490677352 0.250691987 -0.3489947016 -0.1751942677 0.2467217963
450297300.0 -0.1622732995 0.2401682111 0.2466256711 -0.3515338635 0.2469178733 -0.3515092778 -0.1728338164 0.2488011801
455297270.0 -0.1599527969 0.2422011596 0.2431541252 -0.3543016846 0.2431881065 -0.3541384535 -0.1700212089 0.2507874325
460297240.0 -0.1577749381 0.2443666502 0.2390897158 -0.3569072605 0.2385265404 -0.3569385747 -0.1674034864 0.2531131896
465297210.0 -0.1548810085 0.2458109613 0.2351142134 -0.3595628106 0.2352766262 -0.3597670313 -0.1653374402 0.2547509898
470297180.0 -0.152325012 0.2477539051 0.2311877987 -0.3619718528 0.2314333554 -0.3619510208 -0.1625217271 0.2563119466
475297150.0 -0.1498183333 0.2493827735 0.226937329 -0.364480653 0.2272008292 -0.3642644322 -0.159739925 0.2587441487
480297120.0 -0.1471004878 0.2507773763 0.2226731259 -0.366756106 0.223307686 -0.3667039608 -0.157024663 0.2609675081
485297090.0 -0.144235245 0.2528144955 0.2190367935 -0.3691341166 0.2190069262 -0.3690346767 -0.1548218408 0.2622146101
490297060.0 -0.1416563792 0.2542031858 0.2150975043 -0.3715626658 0.2150344814 -0.3713657027 -0.1516157793 0.2640083926
495297030.0 -0.1391125028 0.2561176155 0.2105342864 -0.3737050449 0.2105670574 -0.3742883772 -0.148992157 0.2656244949
500297000.0 -0.1362837815 0.2575964114 0.2065528401 -0.3765078287 0.2068619476 -0.3761360496 -0.1465100955 0.2676456145
505296970.0 -0.1336702323 0.2589488566 0.2021932408 -0.3778289016 0.202388469 -0.3781022111 -0.1440242738 0.2697656955
510296940.0 -0.130796592 0.2610930443 0.1980965666 -0.3807446286 0.1981768741 -0.3800909659 -0.1406171779 0.2716265215
515296910.0 -0.1283655344 0.262569495 0.1939833766 -0.3819544797 0.1942665671 -0.3826220701 -0.1382662134 0.2730535454
520296880.0 -0.1254104529 0.2638775056 0.1899300772 -0.3844430762 0.1906045546 -0.384917652 -0.1353806047 0.2745289273
525296850.0 -0.122528412 0.2654070068 0.1856344317 -0.3866368961 0.1859176125 -0.3866367259 -0.1322161952 0.2762639175
530296820.0 -0.119842941 0.2665882135 0.1815611063 -0.3876396461 0.1815227827 -0.3881933393 -0.129983128 0.2775618457
535296790.0 -0.1169806173 0.2678835515 0.1773453337 -0.390045697 0.1775851706 -0.3898024 -0.1269540631 0.2788297535
540296760.0 -0.1142130242 0.2692171104 0.1728597356 -0.3922227574 0.1730854811 -0.3922503056 -0.1242421071 0.2808731678
545296730.0 -0.1114042771 0.2708996073 0.1683786158 -0.3937466966 0.1688198561 -0.3942045733 -0.1215390172 0.2817382311
550296700.0 -0.1089441409 0.2721955197 0.1647473027 -0.3954577542 0.1650243105 -0.3959241583 -0.118493144 0.2834678407
555296670.0 -0.105524399 0.2732396942 0.160311186 -0.3973636439 0.1600799324 -0.3974811195 -0.1156075752 0.2851859623
560296640.0 -0.1026553965 0.274366987 0.1556132714 -0.3990060972 0.1558887411 -0.3990285885 -0.1124398054 0.2866797006
565296610.0 -0.0999816314 0.2759732915 0.1514034204 -0.4010735126 0.1513495011 -0.4010430633 -0.1098603393 0.2878487363
570296580.0 -0.0968173021 0.2770607803 0.146980607 -0.4024685441 0.1470104211 -0.402876268 -0.106556477 0.2893215141
575296550.0 -0.0943353383 0.2783088291 0.1428305268 -0.4036925183 0.1428248871 -0.4038767681 -0.1034079348 0.2902720226
580296520.0 -0.0911629393 0.2794450158 0.1381972505 -0.4055602152 0.137988286 -0.4057016273 -0.1007066725 0.2915244224
585296490.0 -0.0880212728 0.2801792628 0.1337353171 -0.4064295431 0.1338526275 -0.4066547062 -0.0980443706 0.2925593061
590296460.0 -0.0853576268 0.281154763 0.1294291817 -0.4077085391 0.1292376085 -0.4084997237 -0.0945718815 0.2938932073
595296430.0 -0.0821085778 0.2829100316 0.1251253929 -0.4098251819 0.1249843199 -0.4099727548 -0.0916268553 0.29474757
600296400.0 -0.0795239436 0.2835944476 0.1204606776 -0.4110237264 0.1207649382 -0.4110251097 -0.0884904779 0.2963150387
605296370.0 -0.0762048045 0.2846480845 0.1160210443 -0.4123643945 0.1159465647 -0.4122788081 -0.0854632635 0.2973404341
610296340.0 -0.0733308581 0.2852900709 0.1118433599 -0.4134177533 0.1119430573 -0.4135599258 -0.0826159734 0.2985856808
615296310.0 -0.0705067978 0.2867702517 0.107019828 -0.4144221813 0.1069722063 -0.4142671592 -0.0794517007 0.2991533119
620296280.0 -0.0672622303 0.2875032152 0.1024749935 -0.4153009646 0.1026120671 -0.4156752752 -0.0762001195 0.3000730242
625296250.0 -0.0639902731 0.2881405607 0.097830184 -0.4168269938 0.0981988454 -0.4170147553 -0.0733297399 0.3011503145
630296220.0 -0.0608389278 0.2893792779 0.0934503487 -0.4179260635 0.0941355328 -0.4178387379 -0.0704899478 0.302251806
635296190.0 -0.0580039233 0.2902108163 0.0888290922 -0.4184315985 0.0886995725 -0.4184101572 -0.0668694277 0.3029767013
640296160.0 -0.0550774186 0.2903477766 0.0849157384 -0.4195529623 0.0845645512 -0.4197162877 -0.0637437797 0.3038704394
645296130.0 -0.0521557643 0.2914883189 0.0796636699 -0.4204384565 0.0801765035 -0.4200754554 -0.0613437985 0.3041507778
650296100.0 -0.0487470168 0.2925112753 0.0757617941 -0.4211743969 0.0755070462 -0.4210323391 -0.0579004891 0.3055894333
655296070.0 -0.0458635181 0.292799185 0.0710913713 -0.4214512819 0.0709095882 -0.4219481232 -0.0544047119 0.3063165702
660296040.0 -0.0431740848 0.2936427408 0.066369806 -0.4222706379 0.0666216395 -0.4225816672 -0.0513836599 0.3068666105
665296010.0 -0.0396860011 0.2938168517 0.0612957616 -0.422852653 0.0622787633 -0.4233423061 -0.0488055045 0.3078223274
670295980.0 -0.0363710133 0.2945948259 0.0569871672 -0.4239957752 0.0576075485 -0.4236020438 -0.0454283984 0.3079898973
675295950.0 -0.0334163464 0.294857567 0.0522678479 -0.4243778654 0.052820787 -0.4248179662 -0.0421748843 0.3088138879
680295920.0 -0.030349125 0.2958700394 0.0477849436 -0.4249033204 0.0477975567 -0.4246859816 -0.0386069295 0.3091940447
685295890.0 -0.027263186 0.2961353656 0.0433533826 -0.425468742 0.0431755558 -0.4259285557 -0.0354519867 0.3101379072
690295860.0 -0.0236555267 0.2966180241 0.0384863093 -0.4254986211 0.0384658673 -0.4255196581 -0.032030753 0.3103904465
695295830.0 -0.0204567165 0.2966289637 0.0334830028 -0.4255002268 0.0338096754 -0.4259830151 -0.0290158339 0.3111718796
700295800.0 -0.0175895943 0.2969622625 0.0291306954 -0.4260788093 0.0294709871 -0.4264698401 -0.0257956047 0.3114482903
705295770.0 -0.0140277624 0.2979194188 0.0245393933 -0.4266591071 0.0250967958 -0.4266561076 -0.0227978192 0.3116689924
710295740.0 -0.0114703761 0.2978132008 0.0200352897 -0.4266350082 0.0201480069 -0.4268167364 -0.0199498074 0.3122592505
715295710.0 -0.0084632543 0.2982220502 0.0154207647 -0.4268181467 0.015898369 -0.4269642222 -0.0165875165 0.3124627461
720295680.0 -0.0050661176 0.2983048855 0.0107659487 -0.4266660041 0.0109197698 -0.4273301396 -0.0126678989 0.3130271088
725295650.0 -0.0016217337 0.298779791 0.006153994 -0.4268853177 0.006201718 -0.42706913 -0.0097534874 0.3129050707
730295620.0 0.0011725224 0.2988315109 0.0016165492 -0.4269313642 0.0015390509 -0.4270696704 -0.0063399325 0.3131746531
735295590.0 0.0048336712 0.2990472092 -0.0029940399 -0.4274232629 -0.0024882823 -0.4269504215 -0.0028851415 0.3133884195
740295560.0 0.0074431765 0.2991960035 -0.0076386259 -0.4266767889 -0.0075314394 -0.4267589401 0.0002869897 0.3132214846
745295530.0 0.010849644 0.2988747921 -0.0124658523 -0.4269438407 -0.0120970815 -0.4271396407 0.0033602361 0.3139933836
750295500.0 0.0136525433 0.2989776772 -0.0164867606 -0.4265977517 -0.0168317264 -0.4261418196 0.0068320101 0.3133602417
755295470.0 0.0173341856 0.2993269722 -0.0213006958 -0.4261477472 -0.0211264714 -0.4264494319 0.009456014 0.3138880397
760295440.0 0.020254837 0.2991027299 -0.0264906967 -0.4259560999 -0.0259909871 -0.4261049304 0.0128165427 0.3138447776
765295410.0 0.0233601268 0.2991383872 -0.030570481 -0.4256566566 -0.0303828114 -0.4259432772 0.0166228126 0.3141716155
770295380.0 0.0267009299 0.2992804804 -0.0353162793 -0.4250081096 -0.0352369897 -0.4254778742 0.0199821244 0.314138914
775295350.0 0.0298597559 0.2991311394 -0.0400035438 -0.4246783483 -0.0394366975 -0.4250716688 0.0226182224 0.3138253443
780295320.0 0.0330586882 0.2983104005 -0.0439878169 -0.4243203439 -0.0439804045 -0.4244427705 0.0257832883 0.3138321509
785295290.0 0.0362437035 0.2985962831 -0.0492459496 -0.4235688117 -0.0487187989 -0.4238452649 0.0288007935 0.3136682143
790295260.0 0.0392722035 0.2982741277 -0.0533894119 -0.4232203518 -0.0536077867 -0.4235442862 0.0325847426 0.313278553
795295230.0 0.0423294364 0.2979619225 -0.0577998853 -0.4223399944 -0.0575644778 -0.4223368355 0.0357291224 0.3138229144
800295200.0 0.045688672 0.2976825092 -0.0629371458 -0.4218990494 -0.0626129835 -0.4221906549 0.0391251334 0.3129674458
805295170.0 0.0484300116 0.297184272 -0.067238285 -0.4205998751 -0.0670459803 -0.4211684081 0.0418763127 0.3126736021
810295140.0 0.0519791578 0.2972295137 -0.0715977206 -0.4202580905 -0.0716868991 -0.4209105709 0.045497532 0.31311031
815295110.0 0.0550511395 0.2964569008 -0.0762561612 -0.4190719191 -0.0764915068 -0.4194856049 0.0485282914 0.3122857065
820295080.0 0.0580238962 0.2957188671 -0.0805713169 -0.4187066115 -0.0806375784 -0.4187887893 0.0515731312 0.3116413786
825295050.0 0.0615140764 0.2952697516 -0.0852845251 -0.4173074731 -0.0851901322 -0.4179228781 0.0552372273 0.3116776647
830295020.0 0.0646870184 0.2949981417 -0.0899946552 -0.4164439928 -0.0902321748 -0.4164955718 0.0581954897 0.3108849796
