!Created with skrf (http://scikit-rf.org).
# Hz S RI R 50.0 
!freq ReS11 ImS11 ReS21 ImS21 ReS12 ImS12 ReS22 ImS22
300000.0 -0.7776451952 -0.0755701196 0.0013314886 0.000805415 0.0013311652 0.0019193506 -0.770735566 -0.1152873977
5299970.0 -0.7848627847 -0.0050994258 0.0001957551 -2.59742e-05 4.8206e-06 -9.2417e-05 -0.7850742441 -0.0066590131
10299940.0 -0.7879645381 -0.0036120493 0.0001378101 0.0001587586 0.0001567179 0.0001270134 -0.7884878637 -0.0034383141
15299910.0 -0.793293355 -0.0019570133 0.0002824047 -9.3567e-06 -2.50461e-05 -1.28548e-05 -0.7939034255 -0.0015931328
20299880.0 -0.8002890415 0.0019157202 0.0001190936 4.18362e-05 0.0001227127 -1.81343e-05 -0.8002364624 0.0020903878
25299850.0 -0.8066336097 0.007861772 2.4572e-06 7.95019e-05 -0.0001364732 -8.88662e-05 -0.8069233792 0.0078068331
30299820.0 -0.8124680318 0.0150543356 1.0508e-06 0.0002966562 0.0002141739 2.6871e-05 -0.8125130211 0.0166244186
35299790.0 -0.8174358401 0.0246564698 1.0799e-05 -3.99441e-05 9.73098e-05 -5.14767e-05 -0.8176055092 0.0248306279
40299760.0 -0.8212819966 0.0337179615 0.0001172083 5.79792e-05 -2.43712e-05 -0.0001101971 -0.8213118495 0.0340912467
45299730.0 -0.8246593136 0.0424312239 3.3911e-06 0.0001233589 9.78557e-05 9.59548e-05 -0.8253833449 0.0437096142
50299700.0 -0.8272255612 0.0526994149 -0.000198179 -3.85115e-05 1.85004e-05 -6.4878e-05 -0.8274946677 0.0534288401
55299670.0 -0.8289126485 0.0627265829 -4.01944e-05 -0.0002156737 -2.893e-07 3.49162e-05 -0.8297705285 0.0636901883
60299640.0 -0.8306852862 0.0731727502 8.62461e-05 -4.75438e-05 6.00785e-05 5.44542e-05 -0.8303409097 0.0740562885
65299610.0 -0.8309153206 0.0835100476 8.48711e-05 -5.60643e-05 8.48896e-05 -7.8688e-05 -0.8320133728 0.0838806466
70299580.0 -0.8312417784 0.0933500918 6.2428e-06 3.32768e-05 0.0001164521 -1.33371e-05 -0.8317660615 0.0942307991
75299550.0 -0.8317596233 0.1031930741 -7.43993e-05 8.01376e-05 -8.25995e-05 -5.71898e-05 -0.832713681 0.1040074831
80299520.0 -0.8323365624 0.1133116401 -0.0001806292 -4.4923e-05 5.2133e-06 -0.0001605613 -0.8322415255 0.1136128462
85299490.0 -0.8314278189 0.1226292272 3.39415e-05 -0.0002178169 1.45877e-05 1.78548e-05 -0.8311330466 0.1234614398
90299460.0 -0.8299033209 0.1319836004 -8.906e-06 0.0001460567 -4.1762e-05 -1.68535e-05 -0.830631954 0.1326194398
95299430.0 -0.8292048805 0.1415177479 -0.0002732807 0.0001853052 -5.76919e-05 0.0001789647 -0.8288518588 0.1422602178
100299400.0 -0.8280373509 0.1503471987 2.7953e-06 -7.71918e-05 -2.7058e-05 -7.73705e-05 -0.8284247593 0.151807506
105299370.0 -0.8269359746 0.1602169217 6.5834e-05 5.9759e-06 -3.77722e-05 -1.10494e-05 -0.8273079994 0.1611815417
110299340.0 -0.8251247225 0.1693552998 0.0001136005 6.81932e-05 9.7588e-06 2.0827e-05 -0.825868702 0.1709684332
115299310.0 -0.8239152802 0.1779186242 -0.0001410548 -9.32959e-05 -6.82076e-05 -5.11059e-05 -0.8244184896 0.1797720664
120299280.0 -0.8219234416 0.1867744045 0.0001108891 -0.0001103675 8.99547e-05 0.000132606 -0.8225975142 0.1887559906
125299250.0 -0.8200988219 0.1958231786 5.83857e-05 4.39709e-05 0.0001658238 -0.000252884 -0.821158394 0.1979858673
130299220.0 -0.8189645276 0.2054679391 0.000100922 6.31989e-05 0.0001784469 0.0001443036 -0.8191459704 0.2065527513
135299190.0 -0.8166840729 0.2140137199 -0.0001933492 0.0001891473 -0.0001190417 -5.12249e-05 -0.8174812879 0.2160109504
140299160.0 -0.8146217708 0.2228833917 5.52161e-05 0.0001567084 -8.41373e-05 -6.28374e-05 -0.8150279991 0.2249833964
145299130.0 -0.8127237283 0.2321097667 -4.131e-07 -4.13525e-05 -0.0001907797 0.0001163516 -0.8130065947 0.2340456338
150299100.0 -0.8102878186 0.2406726946 0.000127266 0.0002062936 -4.45027e-05 -2.58294e-05 -0.8114539427 0.2431965421
155299070.0 -0.8078216896 0.2496745319 0.0001504967 -0.0001120725 -0.0001350084 -0.0002037484 -0.808246627 0.2522950445
160299040.0 -0.8051185408 0.257528349 0.00021609 -9.13146e-05 -9.7913e-06 0.0001687492 -0.8060041137 0.2604948041
165299010.0 -0.8026690444 0.2664163369 -0.000197584 -4.38594e-05 -7.55103e-05 6.46823e-05 -0.8029792238 0.2692324019
170298980.0 -0.799951201 0.2752193801 9.65098e-05 7.77297e-05 3.9424e-05 6.99649e-05 -0.8000156577 0.2782532232
175298950.0 -0.7974893919 0.2838526626 -5.6723e-05 0.0001453895 0.0003301097 9.0324e-05 -0.7976264982 0.2866632934
180298920.0 -0.7951304437 0.2924848428 -0.0001881128 5.88778e-05 -0.0001051282 -0.0001450938 -0.7947691866 0.2952990574
185298890.0 -0.7909420272 0.3003804913 6.63169e-05 -9.13635e-05 -9.78539e-05 -0.0002675456 -0.7909588341 0.3037647718
190298860.0 -0.7887066393 0.3090406937 -9.4226e-05 -0.0001004645 -0.0001199081 -0.0001358228 -0.7887325674 0.3119982225
195298830.0 -0.7856455509 0.3180492738 1.96854e-05 -0.0001047972 0.0002060191 -9.7935e-06 -0.7853649877 0.3207845364
200298800.0 -0.7815851043 0.3260375983 5.75479e-05 -0.0002792627 -5.01738e-05 0.0002566735 -0.7825041373 0.3289717146
205298770.0 -0.7790035615 0.333519938 -7.88595e-05 0.000112213 -9.71122e-05 -8.9033e-05 -0.7780058583 0.3372918459
210298740.0 -0.7755002634 0.3421752547 -1.5153e-06 -3.36915e-05 -3.31365e-05 -0.0001984369 -0.7750149428 0.3453550378
215298710.0 -0.7719145533 0.3501340412 -6.65677e-05 1.31497e-05 -1.75141e-05 0.0001220366 -0.7711280918 0.3539895222
220298680.0 -0.7672965845 0.358153792 -9.88542e-05 7.4904e-06 -0.0001420592 -8.3444e-06 -0.7676008684 0.3615279215
225298650.0 -0.7646323528 0.3661340083 9.89788e-05 -3.93e-08 -1.54362e-05 2.74782e-05 -0.7638983479 0.3696797016
230298620.0 -0.7598205856 0.3744005821 -0.0001910135 6.55017e-05 9.07658e-05 -2.327e-06 -0.7598973863 0.3784633796
235298590.0 -0.7563495137 0.3827776016 0.0001900186 -7.19983e-05 -1.57091e-05 3.74661e-05 -0.7556247991 0.3864304676
240298560.0 -0.7526309352 0.3909754099 3.90766e-05 8.38985e-05 -0.0002662698 -3.53637e-05 -0.7516834793 0.3951083317
245298530.0 -0.748784968 0.3989145758 -0.0002009141 0.0001041932 -0.0001295619 4.95001e-05 -0.7477946414 0.4019347223
250298500.0 -0.7441386433 0.4068562105 7.38125e-05 6.1544e-06 -0.0001075952 0.000127867 -0.7436056524 0.4097711619
255298470.0 -0.739717518 0.4134271258 0.0001301068 -0.0001941613 8.50293e-05 9.3364e-06 -0.7388289034 0.4177065252
260298440.0 -0.7357234355 0.4212852287 0.0001007844 -1.7908e-05 -0.0001306246 -0.0002165443 -0.7350069767 0.4259179523
265298410.0 -0.7316646659 0.4292482794 2.30891e-05 -1.82262e-05 -0.0002825568 -9.2389e-05 -0.7304932328 0.4333835794
270298380.0 -0.7270886738 0.436889604 -3.57066e-05 -2.293e-05 4.15099e-05 0.0001648452 -0.7255388137 0.4406986345
275298350.0 -0.7222580213 0.4444265655 -0.0001935566 -1.64139e-05 -7.19308e-05 -0.0001370208 -0.7207945864 0.4482228826
280298320.0 -0.7174616964 0.4526078893 3.33748e-05 3.68261e-05 8.40768e-05 -0.000101276 -0.7156997445 0.4558640899
285298290.0 -0.7131037144 0.4600516686 -2.71359e-05 3.54297e-05 -2.80171e-05 6.63247e-05 -0.7113037736 0.4640330444
290298260.0 -0.7081387336 0.4673692044 8.29192e-05 -1.50757e-05 -2.65286e-05 9.21645e-05 -0.7063893166 0.4710434593
295298230.0 -0.7031532224 0.4740434606 -6.20353e-05 -5.29159e-05 4.267e-06 0.0001282931 -0.7016961454 0.4779828112
300298200.0 -0.6983398613 0.4813671742 -8.57376e-05 -8.54638e-05 -0.0001867411 -9.24345e-05 -0.6965479304 0.4856377771
305298170.0 -0.6927394105 0.4882553382 -0.0002313801 8.15276e-05 0.0001772011 0.0001011585 -0.6912179416 0.4934747095
310298140.0 -0.6875560553 0.4958209287 6.38982e-05 -0.0001588007 -8.633e-05 3.28566e-05 -0.6864706174 0.5000837952
315298110.0 -0.6828097486 0.5030872437 7.8295e-06 -4.50015e-05 -0.0001055254 -0.0001271662 -0.6809982272 0.5070276867
320298080.0 -0.6773744371 0.5100724945 8.24236e-05 0.0002587774 -5.93908e-05 -0.0001330562 -0.6756035009 0.5146840272
325298050.0 -0.672040702 0.5170598175 0.0001863369 0.0002231735 1.80538e-05 0.0001155892 -0.669944021 0.5214473484
330298020.0 -0.6664482453 0.5241114811 -6.43255e-05 -0.0003463649 -0.000133846 -8.38268e-05 -0.6643887113 0.5289201942
335297990.0 -0.6608526152 0.5303330155 -8.0334e-06 -3.37671e-05 -9.829e-06 3.89811e-05 -0.6593850892 0.5356026481
340297960.0 -0.6562661907 0.5372852039 0.0001631035 4.11798e-05 1.78069e-05 -0.0001874599 -0.6531998922 0.5425239102
345297930.0 -0.6501554982 0.5440323683 2.97554e-05 -1.05145e-05 0.000107595 -3.89427e-05 -0.6476500519 0.5487015787
350297900.0 -0.6448120758 0.5509357631 -0.0001582048 7.46172e-05 6.77561e-05 0.0002120259 -0.6419965407 0.5553888492
355297870.0 -0.6384223276 0.5581204738 0.0001665201 7.66054e-05 -7.49327e-05 -9.02522e-05 -0.6364998293 0.5617834277
360297840.0 -0.6330577542 0.563775833 8.84967e-05 5.43185e-05 -0.0002185895 0.0001430436 -0.6306600204 0.5687334126
365297810.0 -0.627613977 0.5700562956 -8.2912e-06 0.0001461751 0.0001168384 4.1969e-05 -0.6241440405 0.5753390465
370297780.0 -0.6214918303 0.5762928962 -1.7177e-06 -0.0001175492 1.86687e-05 -2.48023e-05 -0.6182900669 0.5819544876
375297750.0 -0.6146916714 0.5833671749 1.47182e-05 0.0001124058 6.0701e-06 -1.5115e-05 -0.6126841767 0.5880162691
380297720.0 -0.6091025121 0.5889848957 -0.0001199384 5.4316e-05 0.000183216 -4.71951e-05 -0.6062958488 0.5936369582
385297690.0 -0.6037944825 0.5953614679 -5.67149e-05 -2.68442e-05 8.95733e-05 -0.0002104065 -0.5993175931 0.6003177274
390297660.0 -0.5971660039 0.6005029905 -8.28156e-05 0.0001801516 -0.0001519741 1.67825e-05 -0.594061409 0.6064512426
395297630.0 -0.5910240097 0.6077015444 9.6468e-06 8.97938e-05 1.28812e-05 -6.95056e-05 -0.587060095 0.6127562424
400297600.0 -0.5849163003 0.6135209218 -2.23459e-05 4.14305e-05 -8.40677e-05 -0.0001126187 -0.5810811701 0.6187497907
405297570.0 -0.5779406597 0.6196044917 3.13787e-05 2.53343e-05 0.0001688844 7.85308e-05 -0.5739779337 0.6245742455
410297540.0 -0.5714970092 0.6246614372 7.60282e-05 -4.12966e-05 4.1638e-05 7.00437e-05 -0.5675540957 0.6303171315
415297510.0 -0.564511478 0.6306569327 2.44282e-05 -0.0001971712 8.2682e-06 4.82321e-05 -0.5613113409 0.6362037753
420297480.0 -0.5593031083 0.6370108143 -2.9218e-06 5.19616e-05 4.42286e-05 0.000194691 -0.5542896329 0.642108013
425297450.0 -0.5520151221 0.6422969561 1.12143e-05 0.0001744609 -1.68381e-05 0.0001532634 -0.547993857 0.6476218672
430297420.0 -0.5455988204 0.6480149911 -0.0002291118 -0.0001129915 0.0002834372 5.86001e-05 -0.5414597812 0.652726813
435297390.0 -0.539267007 0.6531962387 6.02748e-05 -5.02613e-05 9.60582e-05 -3.90543e-05 -0.5341657937 0.6583456122
440297360.0 -0.5321654664 0.6586178016 -3.5949e-05 -0.0003056947 -6.01571e-05 -0.0001199365 -0.5276648516 0.6637360872
445297330.0 -0.5253493682 0.6640044437 -4.13345e-05 6.62527e-05 -4.79037e-05 9.5769e-06 -0.5207946244 0.6684071973
450297300.0 -0.5184005281 0.6690403951 0.0001592323 -3.33299e-05 0.000103262 0.0001470629 -0.5136202623 0.67410614
455297270.0 -0.5116914955 0.6741774393 -2.64346e-05 -1.25782e-05 1.61185e-05 -0.0001168728 -0.5071072288 0.6788636397
460297240.0 -0.5054874927 0.6794682603 -0.0001590536 7.20586e-05 9.11847e-05 -5.74203e-05 -0.4997288806 0.6841833912
465297210.0 -0.4980527792 0.6843030543 8.0641e-06 5.59623e-05 -0.0001638015 -0.0001001302 -0.4925166259 0.6893544298
470297180.0 -0.4908542994 0.6896801784 0.0001641771 -1.31952e-05 -2.13068e-05 -4.19992e-05 -0.485715776 0.6947643102
475297150.0 -0.4839255237 0.694369503 6.0963e-06 4.36627e-05 -7.46944e-05 6.93835e-05 -0.478185068 0.6988563273
480297120.0 -0.4773270269 0.6997303222 -2.19037e-05 0.0001594878 -7.1316e-06 -0.0001379179 -0.4709838829 0.7040545843
485297090.0 -0.4694485987 0.703627452 -1.79118e-05 0.0003387757 -3.57164e-05 -0.0002180691 -0.4642076587 0.7091550566
490297060.0 -0.4622462029 0.7085023938 1.37541e-05 -3.03473e-05 2.55219e-05 8.68219e-05 -0.456667496 0.713093052
495297030.0 -0.4548671659 0.7132819359 0.0001552698 9.98255e-05 7.45325e-05 7.571e-07 -0.4494229523 0.7186897413
500297000.0 -0.4478792471 0.7181835544 3.5993e-06 -0.0001175707 -9.47004e-05 -1.92439e-05 -0.4417766251 0.7233076437
505296970.0 -0.4403385377 0.7224684579 -8.16632e-05 9.291e-05 1.629e-07 4.29965e-05 -0.4344106432 0.7272390826
510296940.0 -0.4332021262 0.7270798578 -0.0002220333 -0.0001287489 2.84662e-05 -3.61444e-05 -0.4271775914 0.7311133984
515296910.0 -0.4248997355 0.7301491016 0.0001753067 -3.63722e-05 -5.61709e-05 -0.0001607289 -0.4193938602 0.7356829074
520296880.0 -0.4185003616 0.7354475679 -0.0002565403 -0.0001409261 -0.0001519498 -5.54045e-05 -0.4120246439 0.7394324086
525296850.0 -0.4106968587 0.7392874366 -0.0001206676 -0.0001092198 -0.0001637973 8.461e-06 -0.4046987436 0.7437786907
530296820.0 -0.403372661 0.7430299704 -0.0001484728 -1.41841e-05 -0.0001176966 4.52345e-05 -0.396964012 0.7481609357
535296790.0 -0.3961683272 0.7467960082 -0.0002935428 2.11026e-05 -3.1356e-06 -4.26067e-05 -0.3897538069 0.7512301839
540296760.0 -0.3883812708 0.7505982182 -0.0002816068 -5.33055e-05 0.0001701879 -5.8549e-06 -0.3818675689 0.7555400019
545296730.0 -0.3810117004 0.755359624 0.0003439969 3.82911e-05 0.000154819 -0.0002589009 -0.3743119664 0.7591473101
550296700.0 -0.3730902527 0.7584979009 -2.55913e-05 2.33497e-05 -3.04763e-05 0.0001770411 -0.3661247423 0.7629923406
555296670.0 -0.365446759 0.7620553388 3.69538e-05 7.31733e-05 7.22257e-05 -3.0455e-05 -0.3587549384 0.76720581
560296640.0 -0.3577287398 0.7663475073 3.33898e-05 -9.9658e-05 8.5241e-05 -0.0001082664 -0.3504028944 0.770510513
565296610.0 -0.3505782327 0.7694949424 0.0001190548 0.000138507 0.0001181799 -3.16811e-05 -0.343098588 0.7736257693
570296580.0 -0.3422706446 0.7723726574 5.14995e-05 -0.0001613139 -0.0001045892 -9.94306e-05 -0.3351724593 0.7776302688
575296550.0 -0.3351073986 0.7766599081 3.03555e-05 0.0001431311 -8.57078e-05 -5.36379e-05 -0.3269043167 0.7800759613
580296520.0 -0.3264212662 0.7795804772 1.7581e-06 5.94857e-05 6.5512e-06 4.06264e-05 -0.3183087222 0.783813745
585296490.0 -0.319349472 0.7822035476 9.37902e-05 -9.71312e-05 -9.01389e-05 8.24764e-05 -0.3106551005 0.7872348554
590296460.0 -0.311150266 0.7856176209 5.31591e-05 4.33341e-05 0.0001546148 0.000180309 -0.3031686651 0.7901248925
595296430.0 -0.3029902633 0.7884693826 0.0001115628 2.34147e-05 9.1626e-05 -6.9745e-06 -0.2952449333 0.7928448379
600296400.0 -0.295554579 0.792044274 2.21554e-05 -0.0001179156 -1.58367e-05 -0.0001102655 -0.2870955568 0.7958325345
605296370.0 -0.2871997858 0.7941767077 0.0001417963 6.03529e-05 0.0001509709 -8.02645e-05 -0.2785092113 0.7986175537
610296340.0 -0.278887314 0.7971490744 0.0001091581 -7.93074e-05 -9.12585e-05 4.91001e-05 -0.2710878118 0.8011249986
615296310.0 -0.2704110703 0.7997519379 -0.0001370567 -3.734e-05 -8.3517e-06 -8.82104e-05 -0.2621212002 0.8038115321
620296280.0 -0.2629484637 0.8019028261 5.07048e-05 -4.3304e-05 -6.44498e-05 3.9452e-05 -0.2546377114 0.8068774018
625296250.0 -0.2553030411 0.8051331975 -5.03287e-05 -4.96131e-05 0.0001145307 3.46424e-05 -0.2458029351 0.8085401171
630296220.0 -0.2461618894 0.8079489022 -0.0002875572 -2.21882e-05 1.40281e-05 -2.93577e-05 -0.2378925041 0.8116893224
635296190.0 -0.2394001694 0.8101064439 0.0001989337 -0.0001791594 -0.0001643925 -0.0001692556 -0.2299267751 0.813538248
640296160.0 -0.2315032217 0.8126397249 9.60044e-05 -6.18482e-05 -9.35746e-05 -5.42791e-05 -0.2215307965 0.8162538415
645296130.0 -0.2230955731 0.8150444855 7.25519e-05 -1.69428e-05 -1.34927e-05 -4.71965e-05 -0.2131723288 0.8183411432
650296100.0 -0.2151018026 0.8168233398 -8.37708e-05 -4.47345e-05 -4.45876e-05 0.0001065433 -0.2054023991 0.8194010953
655296070.0 -0.2065086228 0.8191952134 -1.06283e-05 -8.0104e-06 -0.0001127204 -0.0001347773 -0.1968826761 0.8214852303
660296040.0 -0.1984869844 0.8204443984 -0.0002609011 -0.0001162202 -0.0002688095 -9.4147e-05 -0.1879534448 0.8240948769
665296010.0 -0.1897128633 0.8223951402 -3.6757e-06 -0.0001377885 -2.30484e-05 0.0001086137 -0.180070528 0.8260832546
670295980.0 -0.1820889188 0.8243416244 3.00717e-05 -9.4946e-05 -8.57332e-05 -6.58793e-05 -0.1722102485 0.8271680681
675295950.0 -0.173541901 0.8262223903 0.0001151737 3.4749e-06 8.5279e-05 0.0002229304 -0.1647276963 0.8297987443
680295920.0 -0.1653202333 0.8282089821 -0.0001657643 0.0001261228 2.97829e-05 -1.39663e-05 -0.1553741579 0.8313010062
685295890.0 -0.157389016 0.830404786 -1.6871e-06 -0.0001232925 5.79679e-05 1.75009e-05 -0.1470163006 0.8325162642
690295860.0 -0.1488895079 0.8307292303 9.59462e-05 2.66648e-05 -0.0001800667 6.05812e-05 -0.1393443652 0.8342445129
695295830.0 -0.1412849236 0.8323402409 8.1046e-06 -9.37915e-05 -7.19754e-05 -0.0001872774 -0.1298510934 0.8351714068
700295800.0 -0.1322419079 0.83388642 -2.69991e-05 9.5297e-06 -7.84308e-05 3.4612e-06 -0.1225876515 0.8363038128
705295770.0 -0.1250941671 0.8350468256 3.69026e-05 3.27293e-05 8.77599e-05 6.66173e-05 -0.1141472133 0.8380265882
710295740.0 -0.1161081357 0.836409953 1.48009e-05 9.4916e-05 0.0002642713 -0.0002851078 -0.1055728342 0.838463773
715295710.0 -0.1079939963 0.8373210745 -5.69083e-05 -4.41321e-05 2.7028e-06 -6.48592e-05 -0.0971505719 0.8391523454
720295680.0 -0.0993861086 0.8383198645 8.77559e-05 2.42152e-05 0.0003654958 2.85365e-05 -0.0886422782 0.8405775357
725295650.0 -0.0909899315 0.8391346349 7.28339e-05 0.0001164376 0.000103533 1.40752e-05 -0.0807045836 0.8417562506
730295620.0 -0.0828876089 0.8407170771 -2.03767e-05 0.0001553938 0.0002065466 0.0001601593 -0.0724373289 0.8422164635
735295590.0 -0.0749321531 0.8409588816 9.46935e-05 7.4651e-06 0.0001733817 -3.50448e-05 -0.0636136914 0.8427597655
740295560.0 -0.0661342227 0.8418451832 0.0001125524 1.4018e-06 0.0001334628 -0.000112357 -0.0545931421 0.8441915938
745295530.0 -0.0577966364 0.8428428944 -0.0001346664 0.000241211 -9.62483e-05 -0.000202999 -0.0460454076 0.843603101
750295500.0 -0.0494462009 0.8430505404 0.0002300581 -0.0002086222 0.0002104562 5.28492e-05 -0.0382276184 0.8446854074
755295470.0 -0.0407733438 0.8431321943 0.0001030318 -6.73868e-05 3.57366e-05 7.68807e-05 -0.0296188568 0.8439937883
760295440.0 -0.032892646 0.8436184809 1.55264e-05 -6.36637e-05 5.90456e-05 0.0001230665 -0.0211951415 0.8444891843
765295410.0 -0.0245816535 0.8442097354 -1.9772e-06 1.74791e-05 -1.66612e-05 0.000104539 -0.0127366592 0.8450124106
770295380.0 -0.0160531025 0.8440372452 -1.82579e-05 7.69938e-05 0.0002121789 0.00010234 -0.004367015 0.8452580788
775295350.0 -0.0077204242 0.8442581801 5.20019e-05 -0.0001324365 7.4488e-06 0.00014102 0.0031672455 0.8446695677
780295320.0 0.0005486522 0.8442169586 -0.0002469767 0.000120244 0.0001433513 7.93303e-05 0.0123665757 0.8444411194
785295290.0 0.0087758398 0.8436436132 -4.2346e-05 -3.40917e-05 -0.0001974675 0.0001025878 0.0210637243 0.8442717441
790295260.0 0.0172711984 0.8440349007 0.0001760324 1.78988e-05 -4.27647e-05 0.0001812883 0.0294621435 0.8449371566
795295230.0 0.0260131537 0.8437592939 -8.60267e-05 -0.0001438259 5.95823e-05 0.0001433231 0.0385595524 0.8436027608
800295200.0 0.0334994512 0.8432853254 3.03106e-05 -3.15958e-05 3.28293e-05 1.07968e-05 0.0466835151 0.8436578882
805295170.0 0.0424797174 0.8428635189 9.32638e-05 -0.0001094528 0.0001701543 0.000194162 0.0544515434 0.8433771351
810295140.0 0.0505577787 0.8425352065 5.9714e-06 -0.0002072038 -0.0002275756 -0.0001471366 0.0632096611 0.842359146
815295110.0 0.0589076645 0.8414542033 -0.0001315696 3.48171e-05 0.0001605858 0.000139515 0.0718769601 0.8418155583
820295080.0 0.0667540861 0.8414927109 -6.8996e-06 -4.25251e-05 -5.7981e-06 4.87258e-05 0.0800819962 0.8416123007
825295050.0 0.0763275325 0.8405338102 -0.000136136 -0.0002183906 2.64786e-05 -1.84115e-05 0.0880447989 0.8405763931
830295020.0 0.0835808312 0.8402476143 0.0002296077 5.50966e-05 3.15623e-05 5.20637e-05 0.0973138458 0.8393131102
835294990.0 0.0920087048 0.8394546982 -0.0001400141 3.99175e-05 -9.08059e-05 -0.0001300971 0.1043752104 0.8386141772
840294960.0 0.099959849 0.8383834717 3.64562e-05 0.0001057349 9.8367e-05 5.75954e-05 0.1134373674 0.8373896288
845294930.0 0.1082603864 0.836932783 0.0001362942 5.81154e-05 -0.0003097097 2.7395e-06 0.1215727867 0.836266365
850294900.0 0.1165524906 0.8362661823 2.4716e-06 0.0001355798 1.26914e-05 5.49524e-05 0.1291973769 0.8345354169
