!Created with skrf (http://scikit-rf.org).
# Hz S RI R 50.0 
!freq ReS11 ImS11 ReS21 ImS21 ReS12 ImS12 ReS22 ImS22
300000.0 -0.2342911783 -0.1206173321 0.4640476699 0.0796009016 0.4650034491 0.0810811849 -0.2342772673 -0.1257440647
5299970.0 -0.2447217354 0.00535202 0.4736986845 0.0060295684 0.4739228836 0.0057939699 -0.2437416715 0.0050881526
10299940.0 -0.2420448391 0.0187216445 0.4763752232 0.0068438228 0.4760407277 0.0072150865 -0.2404192069 0.0181321933
15299910.0 -0.2368988071 0.0283535327 0.4794924879 0.0083523105 0.4798254744 0.0082601309 -0.2360123151 0.0275053328
20299880.0 -0.2315736869 0.0363701308 0.4838995022 0.0082482518 0.4846992769 0.0086782228 -0.2311749743 0.0354438726
25299850.0 -0.2254472223 0.0428281515 0.4894004982 0.0078666184 0.4899125488 0.0077490863 -0.2261006705 0.0418019094
30299820.0 -0.220246705 0.0479160625 0.4949842604 0.005712518 0.4954067485 0.0053475897 -0.2206480431 0.0467320362
35299790.0 -0.2142221619 0.0517456479 0.4999941223 0.0026621409 0.5006469322 0.0024573829 -0.2156501425 0.0512608735
40299760.0 -0.2091169591 0.0545494381 0.505421864 -0.001173738 0.5056020875 -0.0018927771 -0.2104684436 0.0548178726
45299730.0 -0.2039504467 0.057226313 0.5101933715 -0.0060255512 0.5105915021 -0.0064930971 -0.2053835626 0.0576671492
50299700.0 -0.1991123646 0.0589559622 0.5145608081 -0.0114753679 0.5145412019 -0.0120525209 -0.2011251614 0.0600242143
55299670.0 -0.1950706607 0.0604834661 0.5181458575 -0.0172105869 0.5182698384 -0.0176477896 -0.1974639808 0.0617642872
60299640.0 -0.1907730404 0.0617334111 0.5216949596 -0.0241279187 0.5216213179 -0.024138447 -0.193570433 0.0632934823
65299610.0 -0.1871631888 0.0625088694 0.5246148909 -0.0301446039 0.5250619543 -0.0299523053 -0.1898687431 0.0648784356
70299580.0 -0.1839093836 0.0632619326 0.5270423802 -0.0368472704 0.5270470187 -0.0370300283 -0.1872430813 0.0657801632
75299550.0 -0.1812024737 0.0637032978 0.5290341889 -0.0439356863 0.5292777882 -0.0439665081 -0.1839930328 0.0671301353
80299520.0 -0.178521089 0.0642628276 0.5309639388 -0.0505981425 0.5313914759 -0.050831149 -0.1815947377 0.0680081319
85299490.0 -0.1757384309 0.0648549004 0.532122933 -0.0578389077 0.5325749183 -0.057289572 -0.1790276185 0.0687471316
90299460.0 -0.1735071062 0.0656188082 0.533109557 -0.064708352 0.5332268342 -0.064691679 -0.1767870319 0.0700895204
95299430.0 -0.1713275255 0.0657275639 0.5342474208 -0.0713279848 0.5345867391 -0.0717260208 -0.1749280856 0.0707778792
100299400.0 -0.1695098361 0.0661926074 0.5347343933 -0.0781415587 0.5349294489 -0.0786113051 -0.1730754114 0.0718521923
105299370.0 -0.1675646436 0.0663969403 0.5344693627 -0.0850859924 0.5354729638 -0.0851800391 -0.170844264 0.0722044804
110299340.0 -0.1659382429 0.0665981842 0.5353067673 -0.0915686039 0.5353827213 -0.0917943428 -0.1698738188 0.0729854657
115299310.0 -0.1646307067 0.0677378698 0.5352508575 -0.0989517506 0.5354499028 -0.0987583014 -0.1682605703 0.0742995373
120299280.0 -0.1631496292 0.0682871191 0.5350898009 -0.1061827139 0.5348520604 -0.1058139928 -0.1667569644 0.0749259958
125299250.0 -0.1617752088 0.0685566293 0.5343820475 -0.1123432072 0.5345038631 -0.1124416352 -0.1653903983 0.0760136689
130299220.0 -0.1607601381 0.0691967843 0.5340867787 -0.119386486 0.5344369959 -0.1198554463 -0.1640699775 0.0770111321
135299190.0 -0.1597635513 0.0699981806 0.5339068894 -0.1255911194 0.5337118081 -0.126067283 -0.1630460054 0.0775276556
140299160.0 -0.1583800984 0.0709979074 0.5331214195 -0.1328191851 0.5326514155 -0.1322595755 -0.1624921979 0.0788196278
145299130.0 -0.1580107153 0.0717445592 0.5319733466 -0.1389409518 0.5319561937 -0.1389491053 -0.1610559989 0.0799533081
150299100.0 -0.1564752053 0.0723315832 0.5305065074 -0.1455878988 0.5304997794 -0.1459427593 -0.1597098819 0.0812870462
155299070.0 -0.1554952048 0.0735922833 0.5287938948 -0.1521908518 0.5296497272 -0.1522059302 -0.1589006586 0.082137927
160299040.0 -0.154932995 0.0745241228 0.5280955811 -0.1584996975 0.5278915872 -0.1591410354 -0.1580248379 0.0835955357
165299010.0 -0.1536593392 0.0752132409 0.5265787174 -0.165097721 0.5265853223 -0.165215238 -0.1567510759 0.0846115631
170298980.0 -0.1531003669 0.076376352 0.5248581479 -0.1714431262 0.5253972246 -0.1714593076 -0.1561468703 0.0859373576
175298950.0 -0.1521736879 0.0772248598 0.5236311993 -0.1777086524 0.5237853751 -0.1781435267 -0.1550556954 0.0874648178
180298920.0 -0.1515716637 0.0784482725 0.5217649807 -0.1843053382 0.5215525945 -0.1845659272 -0.1539408925 0.0883654526
185298890.0 -0.1506192878 0.0795047728 0.5199843821 -0.1905775234 0.5197072075 -0.1903098913 -0.1527638646 0.0894296377
190298860.0 -0.1497200338 0.0807191082 0.5176398023 -0.1961912688 0.5181854594 -0.1963888632 -0.1520127215 0.0909196808
195298830.0 -0.1488925841 0.081848964 0.5159051555 -0.2024172983 0.5161776802 -0.2028187203 -0.1513191366 0.092524716
200298800.0 -0.1481735686 0.0827798403 0.5138856248 -0.2091338874 0.5139131817 -0.20888025 -0.150414007 0.0935817322
205298770.0 -0.1480226127 0.0839847807 0.5116297944 -0.2147687864 0.5117229155 -0.2144241566 -0.1492034384 0.0950179749
210298740.0 -0.1469725441 0.0854910473 0.5095373605 -0.2209050996 0.5093520897 -0.2210950268 -0.148332891 0.0964223139
215298710.0 -0.1460711974 0.0868608092 0.5066546579 -0.2263463052 0.5071528136 -0.2270088072 -0.1474498526 0.0977769391
220298680.0 -0.1451077703 0.0878505906 0.5041947689 -0.2326232305 0.5042750528 -0.2328824129 -0.1463554301 0.0989583642
225298650.0 -0.1445442968 0.0887685791 0.5016907429 -0.2378732974 0.5022179713 -0.2380668087 -0.1453771486 0.1003547063
230298620.0 -0.1437867576 0.0906444492 0.4998364597 -0.2443188837 0.4998991529 -0.2449337678 -0.1445542374 0.1015998196
235298590.0 -0.1433763466 0.0918143648 0.4972854061 -0.2507100311 0.4972274206 -0.2500212156 -0.1433914788 0.103247156
240298560.0 -0.1422226215 0.093141754 0.4945142474 -0.2556801141 0.4942039584 -0.255663605 -0.1425685247 0.1044266016
245298530.0 -0.141609507 0.0940720429 0.4916431217 -0.2615520057 0.4915562805 -0.2616732755 -0.1416049556 0.1063031166
250298500.0 -0.1409476108 0.0954759635 0.4885269861 -0.2668637323 0.4891073948 -0.2669516946 -0.1406381117 0.1080181579
255298470.0 -0.1398815135 0.0972828459 0.4860783217 -0.2724612277 0.4862751616 -0.272675768 -0.1391724537 0.1093048992
260298440.0 -0.1391029535 0.0982748794 0.4830676614 -0.2774265027 0.4831153493 -0.2780256414 -0.1385404755 0.1102462537
265298410.0 -0.1383555883 0.0996305802 0.4799586665 -0.2838587372 0.4797014499 -0.2838493994 -0.1367110756 0.1117336181
270298380.0 -0.1377537217 0.1009868194 0.4768987087 -0.289067551 0.4769424164 -0.289060341 -0.1358509418 0.113256214
275298350.0 -0.136791228 0.1026115443 0.4730894853 -0.2943630805 0.473566314 -0.2944113657 -0.1347615625 0.1152624247
280298320.0 -0.1360280806 0.1038194557 0.4705870715 -0.2996905287 0.4709579063 -0.2997752737 -0.1335256223 0.1165589317
285298290.0 -0.1352300738 0.1050207744 0.4670531746 -0.3052690688 0.4677504538 -0.3048530824 -0.1326632202 0.1180252545
290298260.0 -0.1340318052 0.1065443076 0.4643129335 -0.3107298095 0.4641769246 -0.3104266757 -0.1312183544 0.1194863799
295298230.0 -0.1334466636 0.1074141028 0.460405581 -0.3160546073 0.4610641365 -0.3160970267 -0.1299550431 0.1205972617
300298200.0 -0.1321873753 0.1090993218 0.4575727917 -0.3209421616 0.4574612323 -0.3208960805 -0.1286958851 0.122096994
305298170.0 -0.1314749384 0.1098935422 0.4539343757 -0.3262389036 0.4543844503 -0.32634011 -0.1276672988 0.1233299887
310298140.0 -0.1301743099 0.1112897615 0.4505686413 -0.3314905026 0.450641364 -0.3313168291 -0.1259243483 0.1242634788
315298110.0 -0.1297329033 0.1119867767 0.4466571095 -0.3369372402 0.4467245835 -0.3370899408 -0.1248132714 0.1261036446
320298080.0 -0.128597042 0.1136460014 0.4423987744 -0.3418725668 0.4428751731 -0.3419491611 -0.1235160826 0.1269772376
325298050.0 -0.1279969042 0.1144834351 0.4387171673 -0.3470897148 0.4396941582 -0.3468043695 -0.1223533512 0.1283400197
330298020.0 -0.127574452 0.1160479413 0.4351596886 -0.3520914376 0.4353267758 -0.3518036015 -0.1214695616 0.1296364435
335297990.0 -0.1263817498 0.1173298352 0.4313901835 -0.3568023836 0.4312726697 -0.3566630397 -0.1201066992 0.1311785071
340297960.0 -0.1259466511 0.118435385 0.4267950893 -0.3616713042 0.4267411355 -0.3616933757 -0.118718282 0.1325414659
345297930.0 -0.1250935418 0.1199993256 0.423152108 -0.3662550715 0.4231248545 -0.3663490496 -0.1172095616 0.1338317487
350297900.0 -0.1241228151 0.1210779622 0.4190767312 -0.3703614465 0.4190519704 -0.370446409 -0.1161604428 0.1349544372
355297870.0 -0.1231169518 0.122539295 0.4151098751 -0.3749041731 0.4149616665 -0.3752133329 -0.1147447367 0.1365507212
360297840.0 -0.1221488584 0.1237346711 0.4101982541 -0.3798407001 0.4111180955 -0.3803169518 -0.1136917976 0.1381178157
365297810.0 -0.1212296688 0.1254608186 0.406581738 -0.3844059657 0.4066543749 -0.3846699754 -0.112281334 0.1393589532
370297780.0 -0.1200529305 0.1262692784 0.401947909 -0.3887607238 0.4022349685 -0.3888556262 -0.1104550184 0.140813523
375297750.0 -0.1189785716 0.1278771182 0.3979337989 -0.3933058557 0.3978077479 -0.3935646191 -0.1088555302 0.1422844511
380297720.0 -0.1183451749 0.1293771709 0.3943113911 -0.397985881 0.3935941816 -0.3975657113 -0.1074903475 0.14346854
385297690.0 -0.116883499 0.1303773592 0.3891293459 -0.4019056661 0.3893277402 -0.4025271874 -0.1059412714 0.1453503432
390297660.0 -0.1158813393 0.1311568892 0.3845385989 -0.4056396138 0.385121415 -0.4060757038 -0.1043693515 0.1459824254
395297630.0 -0.1142464014 0.1327328776 0.3802394922 -0.4099139128 0.3801984917 -0.4101654326 -0.1025852844 0.1470509335
400297600.0 -0.1135847023 0.1338777133 0.3758843952 -0.4147337096 0.3760744768 -0.4147525083 -0.1011207642 0.1487690518
405297570.0 -0.1124198625 0.1347505235 0.3713182341 -0.418527163 0.3712841007 -0.4186290431 -0.0993600252 0.1501458449
410297540.0 -0.1111240088 0.1363369343 0.3670417139 -0.4224529916 0.3668581527 -0.4225009012 -0.098073744 0.1514367226
415297510.0 -0.110119416 0.1373123993 0.3620757113 -0.4265518191 0.362484285 -0.4268180198 -0.0963381718 0.152557133
420297480.0 -0.1088712987 0.1382059255 0.3575782125 -0.4307077386 0.3576545892 -0.430510608 -0.0944366222 0.1541573443
425297450.0 -0.1070196867 0.1394267152 0.3524431448 -0.4345819468 0.352239014 -0.4344383316 -0.0927510356 0.1546108528
430297420.0 -0.105992369 0.1405634508 0.3482711124 -0.438077533 0.3484279812 -0.4381060415 -0.0910060243 0.1563851868
435297390.0 -0.1048577682 0.141730046 0.3430475246 -0.4424689237 0.3430503049 -0.4419606292 -0.0896379881 0.1575378679
440297360.0 -0.103428118 0.1427333094 0.3379978898 -0.4458209991 0.338192875 -0.4458059137 -0.0879247133 0.1584530658
445297330.0 -0.1019002844 0.1433424576 0.3331062112 -0.4491431794 0.3335080333 -0.4495695773 -0.0859870559 0.1596951277
450297300.0 -0.1005651949 0.1447384744 0.3284224553 -0.453047432 0.3289131503 -0.4533792391 -0.0843637193 0.1610479073
455297270.0 -0.0996900532 0.1460068563 0.3236356808 -0.4565674017 0.3238103912 -0.4568241919 -0.0822966761 0.161938359
460297240.0 -0.0979944876 0.1471830573 0.3185241705 -0.4609223871 0.3184077294 -0.4603787419 -0.0805870951 0.162615622
465297210.0 -0.096469606 0.1477900684 0.3132554365 -0.4634957669 0.3130382032 -0.4640175626 -0.0782204628 0.1645244754
470297180.0 -0.0950526642 0.1486787385 0.3081806182 -0.4666308561 0.3086939424 -0.467200893 -0.0769260978 0.1650347951
475297150.0 -0.0938895865 0.1500431731 0.302893815 -0.4704848664 0.3034499157 -0.4705428765 -0.0749016658 0.1661386821
480297120.0 -0.0917739095 0.1511519052 0.2979108874 -0.4735748099 0.2984208987 -0.4737048787 -0.0735041217 0.1671884735
485297090.0 -0.0905925053 0.1515913073 0.2925609415 -0.4769837092 0.2929435179 -0.476428046 -0.0716374035 0.1682129666
490297060.0 -0.0887226593 0.1528975991 0.2871352024 -0.4801991425 0.2877220315 -0.4804407134 -0.069532211 0.1685016099
495297030.0 -0.0874301947 0.1536560373 0.2825854324 -0.4834661503 0.2824428877 -0.483448828 -0.0675051192 0.1696094338
500297000.0 -0.0863299594 0.1549099678 0.2770585808 -0.4862219644 0.2766970753 -0.4864584314 -0.0654545968 0.17093044
505296970.0 -0.0841619117 0.1556529724 0.2719268743 -0.4894638566 0.2714823556 -0.4888951313 -0.063394425 0.1712562829
510296940.0 -0.0829530497 0.1566500498 0.2665459968 -0.4925122939 0.2665699202 -0.4924844107 -0.0611712512 0.1725309204
515296910.0 -0.0811776911 0.1580380234 0.2602729095 -0.4953033669 0.2606423689 -0.495067995 -0.0597085807 0.1729645856
520296880.0 -0.079659919 0.1587207306 0.2553015351 -0.4978754972 0.2552717192 -0.4976864066 -0.0574012322 0.1742068012
525296850.0 -0.077866003 0.1593752662 0.2494521082 -0.5002644017 0.2498549015 -0.5005912835 -0.0555928168 0.1747325035
530296820.0 -0.0764460867 0.1602631373 0.2442966808 -0.5030604253 0.2446513682 -0.5029622649 -0.0536846967 0.1751642653
535296790.0 -0.0743279626 0.1612952054 0.2390880213 -0.5055385161 0.2390126304 -0.5059511391 -0.0514637069 0.1763739686
540296760.0 -0.072973962 0.1625399609 0.2334268569 -0.5086059955 0.2331383736 -0.5080885721 -0.0496091281 0.1764497504
545296730.0 -0.0716738607 0.1634471373 0.2279623668 -0.5106548311 0.2276301742 -0.5107967712 -0.0476324749 0.177677235
550296700.0 -0.0693207519 0.1640612516 0.2222135283 -0.5135135795 0.2220492238 -0.5133275995 -0.0455091611 0.1781172601
555296670.0 -0.0680645864 0.164829829 0.2167947194 -0.5157108104 0.2165678401 -0.5156801026 -0.0437624404 0.1781989237
560296640.0 -0.0659079292 0.1655707286 0.2110044199 -0.517713856 0.2113824502 -0.518011119 -0.0415516732 0.1794912299
565296610.0 -0.0647330644 0.1664925805 0.2056996069 -0.5203987474 0.2057772722 -0.5201093063 -0.0396572445 0.1799503889
570296580.0 -0.0629672428 0.1671670725 0.1995450823 -0.5222321617 0.200102269 -0.5224768753 -0.0378893015 0.180441712
575296550.0 -0.0609795044 0.1680998111 0.1943900799 -0.5248640091 0.1940719443 -0.5244711171 -0.0353931813 0.1808744419
580296520.0 -0.0596838254 0.1690274526 0.1885064126 -0.526427411 0.188251923 -0.5265822161 -0.0336783971 0.1813366362
585296490.0 -0.057477378 0.169988785 0.1826340137 -0.5281865309 0.1825753969 -0.5282407604 -0.0313551345 0.1822806462
590296460.0 -0.0554308225 0.1704917595 0.1769080951 -0.5304862522 0.1768265787 -0.5307038959 -0.0294784077 0.1826082594
595296430.0 -0.0540302589 0.1711687166 0.1707466732 -0.5320960244 0.1705627483 -0.5321582303 -0.0273293792 0.18279882
600296400.0 -0.0519822545 0.1718057037 0.1648723607 -0.5336541643 0.1651972447 -0.5339416162 -0.025294041 0.183169543
605296370.0 -0.0506302859 0.1727099408 0.1598330093 -0.5354481085 0.1591262798 -0.5358803906 -0.023056559 0.18394045
610296340.0 -0.0486101158 0.1736339672 0.1534874377 -0.5368406615 0.1538126075 -0.5372602393 -0.0214082352 0.1840992383
615296310.0 -0.0466715832 0.1742705912 0.1476839159 -0.5392807791 0.1473447236 -0.5392176187 -0.0189855076 0.1847590648
620296280.0 -0.0453763394 0.1750895329 0.1418641389 -0.5405728775 0.1416466219 -0.5406179737 -0.0173381606 0.1852519376
625296250.0 -0.0437548539 0.1755687203 0.1359113049 -0.5419283551 0.1358598945 -0.5420628711 -0.0150928234 0.185171931
630296220.0 -0.0415356451 0.1765179543 0.1299013709 -0.5436445432 0.1302009343 -0.5432050318 -0.012948926 0.1853164293
635296190.0 -0.0403214743 0.1772097881 0.1244997226 -0.5445376316 0.1237536585 -0.5445683669 -0.0107739741 0.1859108433
640296160.0 -0.0384843544 0.1776610121 0.1183109043 -0.5461461859 0.1183451565 -0.5462727269 -0.0091231745 0.1859071795
645296130.0 -0.0363355184 0.1785207634 0.1122397562 -0.54714397 0.1123979414 -0.5470312115 -0.0072835997 0.1861094388
650296100.0 -0.0345618294 0.179104015 0.1067207526 -0.5483557423 0.1063491785 -0.5485178441 -0.0045992292 0.1865618561
655296070.0 -0.0328847783 0.1796946478 0.1006282016 -0.5496545842 0.1002260848 -0.5489790016 -0.0028621321 0.1868140358
660296040.0 -0.0312125398 0.1804123696 0.0946268376 -0.5504606163 0.094358632 -0.5503010508 -0.0005526894 0.186379203
665296010.0 -0.029404327 0.180843108 0.0883127896 -0.5510369366 0.0883381051 -0.5517741135 0.0012022025 0.1870551181
670295980.0 -0.0274660398 0.1814334128 0.0823488638 -0.5522544291 0.0824255036 -0.5518986257 0.0029625093 0.1869682263
675295950.0 -0.0261081165 0.1821601647 0.076652507 -0.5529731388 0.0765380204 -0.5530276658 0.0054679376 0.1870370262
680295920.0 -0.0244152456 0.1825673123 0.0706871837 -0.5533177993 0.0709440721 -0.5538210914 0.0077811115 0.1869103789
685295890.0 -0.0222621113 0.183045932 0.0641962147 -0.554784494 0.0643795511 -0.5546957945 0.0097770299 0.1874825799
690295860.0 -0.020822604 0.1836901779 0.0587395908 -0.5552894558 0.0581479402 -0.555319303 0.0116757946 0.1874513012
695295830.0 -0.0190959974 0.1839511821 0.0534866018 -0.5561360226 0.0526432367 -0.5558486369 0.0137312503 0.1876100278
700295800.0 -0.0168783908 0.184732763 0.0471847034 -0.5559103039 0.0467464885 -0.5561389661 0.0159471795 0.1874572502
705295770.0 -0.0155191817 0.1848544074 0.0408133594 -0.5568890837 0.0409483789 -0.5565330697 0.017904214 0.1874708226
710295740.0 -0.0138158959 0.1852103445 0.0351063456 -0.5574299056 0.0348678513 -0.5577379625 0.0201452047 0.1874985796
715295710.0 -0.0118103435 0.1859572845 0.0286009565 -0.5579306231 0.0286326068 -0.5575601638 0.0220139726 0.1870845314
720295680.0 -0.0097086707 0.1861299891 0.022571453 -0.5575077514 0.0226267262 -0.558176283 0.0242987366 0.1872996717
725295650.0 -0.008490883 0.1865717253 0.0171114716 -0.5575481187 0.0170246513 -0.5580919373 0.0255579567 0.1873761366
730295620.0 -0.0071462491 0.1869334763 0.0107661378 -0.5579678507 0.0108935505 -0.5576292456 0.0279209292 0.1874940399
735295590.0 -0.0049401894 0.1873783804 0.0049354722 -0.5579335317 0.004766984 -0.5580967062 0.0299556202 0.1866937881
740295560.0 -0.0034578417 0.1872437402 -0.0009670842 -0.5583659846 -0.0011428633 -0.5581565899 0.0317111221 0.1867477266
745295530.0 -0.0017355355 0.1878790133 -0.0068788491 -0.5572141944 -0.0063877776 -0.5577456238 0.0335850784 0.1865745681
750295500.0 -1.51068e-05 0.188467164 -0.0126507165 -0.557685178 -0.0133262286 -0.5577899207 0.0359558022 0.1865818732
755295470.0 0.0015993806 0.1883771129 -0.0187338767 -0.5579225256 -0.0193361449 -0.5579870191 0.038142715 0.1866319196
760295440.0 0.0032750535 0.188904036 -0.025489044 -0.5573321712 -0.0250807459 -0.5571593521 0.0402962156 0.1853350853
765295410.0 0.0053660232 0.188602463 -0.0308538126 -0.556920268 -0.0308943416 -0.5569261341 0.0422727293 0.1858304828
770295380.0 0.007037387 0.1889282571 -0.0368192164 -0.5562729919 -0.0370168945 -0.5569224464 0.0442067169 0.1852119079
775295350.0 0.0086148004 0.1889837854 -0.0429736688 -0.5561940748 -0.0427456042 -0.5557402139 0.0465319434 0.1851470502
780295320.0 0.0104671158 0.1894535459 -0.0489909122 -0.5550194593 -0.0487766176 -0.5557161828 0.0485417734 0.1846574069
785295290.0 0.0123961664 0.1892601058 -0.0548537216 -0.5549716379 -0.0549240492 -0.5546980302 0.050439414 0.1847425607
790295260.0 0.0137941934 0.1892336666 -0.0607268096 -0.554604004 -0.0608933433 -0.5550403176 0.052103 0.1844106012
795295230.0 0.0157576881 0.189363974 -0.0666627841 -0.5534862893 -0.0668040556 -0.553965657 0.0544703564 0.1831252157
800295200.0 0.017104659 0.1896700933 -0.0720429616 -0.5520869111 -0.0723969902 -0.5532161006 0.0559646814 0.1828308508
805295170.0 0.0188893126 0.1896771905 -0.0786464589 -0.5520620866 -0.0785006281 -0.5524161309 0.0591169175 0.1825058385
810295140.0 0.0209160157 0.1899465196 -0.0845818554 -0.5512473535 -0.0845947364 -0.5512996813 0.0605546522 0.1821456486
815295110.0 0.0223672435 0.189842762 -0.0903626216 -0.550322202 -0.0901042165 -0.5503750749 0.0621993681 0.1815217938
820295080.0 0.0241319084 0.189957347 -0.0957940338 -0.5492785443 -0.0959852136 -0.549499845 0.0635087824 0.1816177014
825295050.0 0.0258339748 0.1893166583 -0.1021770935 -0.5477045642 -0.1023213655 -0.5478653326 0.0666728944 0.1812844036
830295020.0 0.0276228921 0.1892623867 -0.1079877756 -0.5469689858 -0.1081054261 -0.5473737782 0.0684638873 0.1798990676
