!Created with skrf (http://scikit-rf.org).
# Hz S RI R 50.0 
!freq ReS11 ImS11 ReS21 ImS21 ReS12 ImS12 ReS22 ImS22
300000.0 -0.2435407844 -0.0823947937 0.4728646014 0.0541375318 0.471106952 0.052332251 -0.2399818337 -0.0894630662
5299970.0 -0.2448270981 0.0066925529 0.4748635281 0.0050034284 0.475185888 0.0047981941 -0.2418020296 0.0076778797
10299940.0 -0.2419723455 0.0179348146 0.4765861007 0.0057293497 0.4770499942 0.0062119117 -0.2378401074 0.0208858714
15299910.0 -0.2375449948 0.0268465288 0.4803896395 0.0076354488 0.4806880554 0.0072979551 -0.2334620527 0.0298357078
20299880.0 -0.232995129 0.0338196217 0.4850114597 0.0084076323 0.4850863732 0.0078308257 -0.2282792104 0.0378995378
25299850.0 -0.2278591496 0.0403629453 0.49025578 0.0070731077 0.4903731305 0.0070965415 -0.222248769 0.0444942568
30299820.0 -0.2226516701 0.0450441796 0.4958250879 0.00471236 0.495570546 0.0050566947 -0.2165708526 0.0499888845
35299790.0 -0.2177277077 0.0491493688 0.500921122 0.0016223477 0.5010739915 0.0017496678 -0.2107978351 0.0542562209
40299760.0 -0.2125138232 0.0524449112 0.5061058164 -0.0024640636 0.5063029584 -0.0024679733 -0.2055735744 0.05715272
45299730.0 -0.2079652126 0.0548287062 0.510391211 -0.0070717657 0.5105968319 -0.0066751057 -0.2003664799 0.0602628568
50299700.0 -0.2039823969 0.0566892211 0.5149650988 -0.0122239271 0.5149982511 -0.0123616619 -0.1958071971 0.0619832235
55299670.0 -0.1999094817 0.058395983 0.518806819 -0.0188684113 0.5183128738 -0.0182093104 -0.1913504674 0.0640430809
60299640.0 -0.1959687838 0.0599785539 0.5218886345 -0.0247612145 0.5221891434 -0.0246341697 -0.1874226601 0.0653644823
65299610.0 -0.1930513628 0.0608140706 0.5248602555 -0.0310975236 0.5247798153 -0.0311118085 -0.1840375328 0.0663715582
70299580.0 -0.1900722109 0.0619674606 0.5273164949 -0.0377439454 0.5270863547 -0.0378523226 -0.1807929383 0.0675259387
75299550.0 -0.1870060683 0.0629321423 0.5288568497 -0.044725712 0.5287461197 -0.0441450665 -0.1777301656 0.0678851077
80299520.0 -0.1847898523 0.0637012174 0.530941109 -0.0513565837 0.5311527926 -0.0514034554 -0.1751834206 0.0692602025
85299490.0 -0.1824688898 0.0640133993 0.5321980519 -0.0581287024 0.5322509366 -0.0578571603 -0.1725143465 0.0696322725
90299460.0 -0.1802793833 0.06491933 0.533117053 -0.0651506678 0.5335666536 -0.0650619864 -0.1703344588 0.0707297825
95299430.0 -0.1780945954 0.0654144312 0.5341083509 -0.0720456609 0.5340717285 -0.0720383269 -0.1678920644 0.0710981193
100299400.0 -0.1767144358 0.0661618882 0.5340873732 -0.0788580814 0.5345426638 -0.0788800843 -0.1658230903 0.0718658397
105299370.0 -0.1749192923 0.066689582 0.5348541334 -0.08593682 0.5345814908 -0.0857133183 -0.1638896362 0.0723772242
110299340.0 -0.1732169855 0.0673986095 0.5348173474 -0.0926513782 0.5346734915 -0.0919768917 -0.1626407377 0.0731430643
115299310.0 -0.1719185261 0.0680494345 0.5348955519 -0.0994231936 0.5347495104 -0.0994688299 -0.1612006992 0.0739952334
120299280.0 -0.1708589717 0.0683542986 0.534459557 -0.1060985793 0.5347555453 -0.1062808068 -0.1598047187 0.0746752608
125299250.0 -0.1696015869 0.0692680897 0.5342892975 -0.1126649657 0.5345280833 -0.1125374798 -0.1586465007 0.075164719
130299220.0 -0.1686326381 0.0701422966 0.53344384 -0.1195720247 0.5337426744 -0.1194867368 -0.157274578 0.0762573198
135299190.0 -0.1677082807 0.0712220154 0.5333422123 -0.1262597783 0.5330767428 -0.1260043336 -0.1560326886 0.077138478
140299160.0 -0.1668513986 0.0720065783 0.5323013929 -0.1328120783 0.5324462174 -0.1328283834 -0.154860227 0.0783148725
145299130.0 -0.1656299788 0.0729729845 0.5313399278 -0.1395987801 0.5312721519 -0.139510112 -0.1538710664 0.0793996839
150299100.0 -0.1645952385 0.0739888529 0.5301943979 -0.1453189244 0.5300957612 -0.1456367648 -0.1527554085 0.0803884567
155299070.0 -0.1640531502 0.0745573156 0.5291865773 -0.1530720894 0.5286891092 -0.1529169564 -0.1514755668 0.0815239951
160299040.0 -0.1630545791 0.075869773 0.5273745065 -0.1589996257 0.5274314938 -0.1588186321 -0.1510995283 0.0826811131
165299010.0 -0.162269009 0.076952491 0.5262053415 -0.165754134 0.526404655 -0.1658634745 -0.1496135489 0.083976445
170298980.0 -0.1614443223 0.0778822678 0.524644268 -0.1716069958 0.5249469865 -0.1718255401 -0.148774807 0.0849869671
175298950.0 -0.1608188355 0.0790079689 0.5236849557 -0.1778018771 0.5227082658 -0.1777394522 -0.1479739043 0.085837302
180298920.0 -0.1601676873 0.08002335 0.5210487269 -0.1843734988 0.5210752071 -0.1840908345 -0.1469585402 0.0873700957
185298890.0 -0.1590546639 0.0809254264 0.5192618596 -0.190194804 0.5190304925 -0.1904808574 -0.1460891675 0.0885757778
190298860.0 -0.1584839636 0.0826964543 0.5176091507 -0.1972247936 0.5177248607 -0.1965182407 -0.1450989576 0.0895342185
195298830.0 -0.1579774826 0.0832362823 0.5154628991 -0.2024625752 0.5153726029 -0.2024971759 -0.1436472843 0.0909383095
200298800.0 -0.1569243525 0.0845387603 0.5132289269 -0.2089919171 0.5130045445 -0.2092019935 -0.1433408095 0.0922993202
205298770.0 -0.1563359146 0.0859103879 0.5108390294 -0.2148126093 0.5113531511 -0.2146727687 -0.1422421587 0.0931407949
210298740.0 -0.1551984565 0.0868700129 0.5088443568 -0.2204303981 0.5087239103 -0.2205110374 -0.1410146565 0.0951987294
215298710.0 -0.1549212245 0.0884269949 0.5065563318 -0.2269434472 0.5066784128 -0.2269610126 -0.1403248291 0.0961137383
220298680.0 -0.153955402 0.0893203192 0.5039066512 -0.2325768196 0.5038238403 -0.2328080601 -0.1397309913 0.0971328242
225298650.0 -0.1533505577 0.0907011033 0.5017415544 -0.238900277 0.5018183197 -0.2385277094 -0.1386616747 0.0981048785
230298620.0 -0.152428263 0.0923012269 0.4994146681 -0.2438206825 0.499423573 -0.2444693499 -0.1377855237 0.1001075995
235298590.0 -0.1516123692 0.0937459691 0.4962239885 -0.2503857671 0.4965712529 -0.2500506075 -0.1368371516 0.1014979067
240298560.0 -0.1510932661 0.0948295978 0.4939057921 -0.2561561241 0.493698235 -0.2557547011 -0.1358361865 0.1030467295
245298530.0 -0.1503431525 0.0962022229 0.4914074225 -0.2616591527 0.491401054 -0.2615176714 -0.134422138 0.1037519345
250298500.0 -0.149191006 0.0975912295 0.4879447443 -0.2673929577 0.4878732463 -0.2668442052 -0.133891776 0.1055180775
255298470.0 -0.148482812 0.0985344502 0.4849662773 -0.2723171571 0.4852180971 -0.2726281509 -0.1326126276 0.106939068
260298440.0 -0.1477908699 0.1000377055 0.48190569 -0.2782750046 0.4824200112 -0.2780732869 -0.1311111397 0.1085201967
265298410.0 -0.1466107575 0.1017849444 0.4791303295 -0.2836521289 0.4797279502 -0.2836564171 -0.130531727 0.1097319449
270298380.0 -0.1459810898 0.1028538637 0.4762874256 -0.2885775244 0.4763355303 -0.2889738119 -0.1295145798 0.1108484376
275298350.0 -0.1450582921 0.1044134451 0.4729406055 -0.294815316 0.4734063347 -0.2945438256 -0.1279513112 0.1125466794
280298320.0 -0.1437902915 0.1057746126 0.4698353329 -0.3001991178 0.4698535042 -0.2994409805 -0.1267830345 0.1140002963
285298290.0 -0.1430222694 0.1070501915 0.4669052713 -0.3051626088 0.4665462362 -0.3050862303 -0.1256006799 0.1153386229
290298260.0 -0.1418789003 0.1086018314 0.4632746723 -0.3100450667 0.463569876 -0.3105920355 -0.1244026032 0.1169780763
295298230.0 -0.1410412153 0.1096740191 0.4600732469 -0.3156065907 0.4603568555 -0.3156432784 -0.122827146 0.1179454038
300298200.0 -0.140508431 0.1110603693 0.4569548942 -0.3210048639 0.4569385201 -0.3210011209 -0.1222484071 0.1194869837
305298170.0 -0.1389170391 0.1124292602 0.4529521124 -0.3265580606 0.4529911973 -0.3260600165 -0.1201772498 0.1204609491
310298140.0 -0.1378380824 0.1135606541 0.4497464729 -0.3310322777 0.4496806425 -0.3314809553 -0.1190846169 0.1216220994
315298110.0 -0.1372451958 0.1145656469 0.445798728 -0.3367578746 0.446117802 -0.3364547841 -0.1180038127 0.123136317
320298080.0 -0.1362827267 0.1160871358 0.44203867 -0.3419519519 0.4423927044 -0.3418318022 -0.116758422 0.1245834791
325298050.0 -0.1352387192 0.1173849183 0.4379466241 -0.3471462457 0.4383941748 -0.3467696073 -0.1155926399 0.1256428918
330298020.0 -0.1343953603 0.1182555192 0.4340754801 -0.3517552971 0.4346195904 -0.3516243204 -0.1146717889 0.1267892196
335297990.0 -0.1329897746 0.1194329958 0.4298231928 -0.3561609371 0.4306002785 -0.3564772318 -0.1138915666 0.1287905762
340297960.0 -0.1324762314 0.1211721304 0.4260361803 -0.3612548163 0.4260582689 -0.3614989418 -0.1122128166 0.1299629681
345297930.0 -0.1316150745 0.1228775885 0.4218064537 -0.3661827868 0.4219125446 -0.366250796 -0.1107620501 0.130785186
350297900.0 -0.1308899188 0.1238024922 0.4171666593 -0.3707619669 0.4177385142 -0.3708567354 -0.109831986 0.1325335915
355297870.0 -0.1291240663 0.1257442114 0.4134934935 -0.3755309872 0.4139591785 -0.3750335578 -0.1086968219 0.1337553852
360297840.0 -0.1282338101 0.1268761036 0.4096434192 -0.3795456259 0.41017867 -0.379691591 -0.107133443 0.1352212414
365297810.0 -0.1273498857 0.1284991077 0.4054550584 -0.3845248701 0.4054668061 -0.384142473 -0.105461627 0.1361666263
370297780.0 -0.1259293548 0.1295050117 0.4008375818 -0.388637276 0.4015527636 -0.3884375354 -0.1040906496 0.1378355756
375297750.0 -0.1245125417 0.1309487874 0.3969985155 -0.3929062641 0.3975436899 -0.3930239413 -0.1028511321 0.1389448475
380297720.0 -0.1233893511 0.1322066443 0.3923986616 -0.3975417702 0.3927987988 -0.396738912 -0.1016682646 0.140181711
385297690.0 -0.1223544674 0.1332758819 0.3881443923 -0.4013795062 0.3880348262 -0.4016601375 -0.0996782083 0.1417743377
390297660.0 -0.1213031871 0.1348496177 0.3838772436 -0.4059219807 0.3835558308 -0.4056798918 -0.0983294533 0.1427112118
395297630.0 -0.1198854207 0.1363056942 0.3794292955 -0.4100626362 0.3791960912 -0.4103054909 -0.0961396052 0.14407079
400297600.0 -0.1186558668 0.137416064 0.3745448216 -0.414544306 0.3749625348 -0.4142846192 -0.0950982314 0.1454578995
405297570.0 -0.1176841712 0.1387687986 0.369753645 -0.4184826567 0.370178671 -0.418126238 -0.0938343789 0.146471454
410297540.0 -0.1160137436 0.1399303045 0.3655231167 -0.4224372527 0.3661207741 -0.4223752865 -0.0921251357 0.1479632053
415297510.0 -0.1145463001 0.1410825554 0.3608556817 -0.4264424364 0.3611536764 -0.4265319653 -0.090331143 0.1489700922
420297480.0 -0.1135528024 0.1426683176 0.3561531335 -0.4301843504 0.3562280206 -0.4304370186 -0.0888496766 0.1500551942
425297450.0 -0.112168497 0.1435870164 0.3519130488 -0.434347107 0.3520875753 -0.4341850851 -0.0873794061 0.1513106954
430297420.0 -0.1106223541 0.1447228436 0.3467302987 -0.4373009324 0.3468798257 -0.4377412905 -0.0857369103 0.1524365314
435297390.0 -0.1092411177 0.1457598461 0.3418295232 -0.4412005993 0.3417024013 -0.4416991713 -0.0833137779 0.1535584386
440297360.0 -0.1080042678 0.1472866934 0.3369670623 -0.4454345033 0.3373873709 -0.4454122325 -0.0823960639 0.1546578703
445297330.0 -0.1067923719 0.1482550481 0.3324393436 -0.449095287 0.332297031 -0.4483806893 -0.0805049515 0.1552977006
450297300.0 -0.1052489351 0.1493686177 0.3273566299 -0.4526416401 0.3272100978 -0.4526076228 -0.0787941281 0.1563735723
455297270.0 -0.1035814099 0.1506221118 0.322032557 -0.4558752671 0.3226166932 -0.4562459175 -0.0775971949 0.1575111881
460297240.0 -0.1026642923 0.1517444321 0.3173094198 -0.4596500923 0.3174201601 -0.4598918854 -0.0755468225 0.1590393799
465297210.0 -0.1006960497 0.1528693567 0.312093522 -0.4632876249 0.3123233599 -0.4636609093 -0.073635762 0.1594288357
470297180.0 -0.0994248743 0.1541371843 0.3070065446 -0.4665973059 0.3074351438 -0.4666443372 -0.0718272443 0.1608174123
475297150.0 -0.098062364 0.1548158443 0.3018512429 -0.4693438428 0.3020661602 -0.4692573614 -0.0697960673 0.1614771879
480297120.0 -0.0964797011 0.1566471232 0.2966962475 -0.4733148828 0.2968957964 -0.4729908004 -0.0680255793 0.1626044756
485297090.0 -0.0950509413 0.1573481116 0.2920634732 -0.476088938 0.2921335429 -0.4759293969 -0.0665129996 0.1632587923
490297060.0 -0.0937825961 0.1585389235 0.2868800722 -0.4793208515 0.2867941646 -0.4791568427 -0.0644962651 0.1643833786
495297030.0 -0.0921402957 0.1595410516 0.2812515343 -0.4822267073 0.2817729643 -0.4820569985 -0.0631885354 0.1651690084
500297000.0 -0.0902396131 0.1603095531 0.2756902157 -0.4851918391 0.275913365 -0.4848978108 -0.0612918807 0.1664024614
505296970.0 -0.0889152063 0.1611973665 0.2708241584 -0.4881108379 0.2704400752 -0.4885737849 -0.059690678 0.1667916806
510296940.0 -0.0874094348 0.1625438165 0.2652678987 -0.4914514108 0.2653931331 -0.4913277683 -0.0574160676 0.1676721941
515296910.0 -0.0856696081 0.1636736497 0.2598190586 -0.4941262463 0.2599663149 -0.4937992441 -0.055606495 0.1684501176
520296880.0 -0.0842763434 0.1643274758 0.2547335579 -0.4970779103 0.2545726854 -0.4964414632 -0.0539631632 0.1693003538
525296850.0 -0.0826323665 0.1648150843 0.2489650385 -0.4988389672 0.249274769 -0.4995830475 -0.052016951 0.1702390737
530296820.0 -0.0808972468 0.1663016404 0.2434682378 -0.50243483 0.2437758967 -0.5021981168 -0.0500815838 0.1706771287
535296790.0 -0.0796891065 0.1672532274 0.2384026098 -0.504536066 0.2385040023 -0.5044037169 -0.0481931378 0.1710687599
540296760.0 -0.0781107422 0.1681914076 0.2331105914 -0.5075680691 0.2328169884 -0.5076018941 -0.0466707046 0.1723709975
545296730.0 -0.0764077522 0.1687188612 0.2270157574 -0.509497202 0.2270687734 -0.5099995696 -0.0445275114 0.1726040467
550296700.0 -0.0742357335 0.1700554725 0.2218084993 -0.5121274619 0.2215259844 -0.5123739427 -0.0426795328 0.1732878684
555296670.0 -0.0730574626 0.1705906875 0.2161552049 -0.5149641 0.2165953824 -0.5140371546 -0.0406539526 0.174004127
560296640.0 -0.0712769437 0.1718558461 0.2107231211 -0.5171599348 0.2107640096 -0.516826641 -0.0383853706 0.1741268554
565296610.0 -0.0699467848 0.1727446497 0.2048891312 -0.5189995364 0.2052635909 -0.5191257324 -0.0373089179 0.1748161389
570296580.0 -0.0682769975 0.1730561299 0.1992014836 -0.5215964459 0.1987268616 -0.5215361352 -0.0349122966 0.1760728789
575296550.0 -0.0664089152 0.1741173368 0.1935703094 -0.5236780081 0.1935831232 -0.5233783358 -0.0328200637 0.1764375805
580296520.0 -0.0648232449 0.1747101599 0.1880167972 -0.525593724 0.1877809124 -0.5256435296 -0.0305557946 0.176868344
585296490.0 -0.063218054 0.1753722942 0.1823819723 -0.5269178132 0.1828407567 -0.527442884 -0.0290189875 0.1773022366
590296460.0 -0.061177083 0.176290387 0.176551163 -0.5289280403 0.1768344818 -0.5291362593 -0.0277277915 0.1776309952
595296430.0 -0.0594761103 0.1770039819 0.170656609 -0.5311130532 0.170296825 -0.5310412115 -0.0248444716 0.1777280085
600296400.0 -0.0580359607 0.177628231 0.1650050949 -0.5327271098 0.1653880065 -0.5326984308 -0.0233270582 0.1783009296
605296370.0 -0.0562200998 0.1784766901 0.1592900649 -0.5345352922 0.1595745183 -0.5347143619 -0.0208102645 0.1791692113
610296340.0 -0.0544259524 0.1791322229 0.1532037568 -0.5364767641 0.1536274539 -0.536211142 -0.0188365366 0.1790578216
615296310.0 -0.0523841698 0.1796499829 0.1472556337 -0.5378491231 0.1478041473 -0.5381702196 -0.0170113122 0.1796156733
620296280.0 -0.0510209524 0.1799808011 0.1420555273 -0.5390380163 0.141790233 -0.5391313257 -0.0152531252 0.1803593033
625296250.0 -0.0492145882 0.1806925563 0.1359716797 -0.541096567 0.1360874158 -0.5410124274 -0.0124130166 0.1803153288
630296220.0 -0.0468677326 0.1814744336 0.1300027668 -0.542180316 0.1296382485 -0.5417604889 -0.0109661735 0.1808817365
635296190.0 -0.0459470601 0.1819299015 0.1245665701 -0.5436353747 0.1239917565 -0.5435874331 -0.0088063623 0.1810677859
640296160.0 -0.0441555752 0.1827151797 0.1185543105 -0.544550748 0.1185576009 -0.5448563481 -0.0068579821 0.1813579845
645296130.0 -0.0421116871 0.1834461246 0.1123470496 -0.5461850482 0.1127041941 -0.5459965207 -0.0046585097 0.1817744217
650296100.0 -0.0403979094 0.1837007381 0.1062598182 -0.5469931165 0.1065145539 -0.5472167195 -0.0027228763 0.1814859234
655296070.0 -0.0386310566 0.1842283144 0.1006593096 -0.5480208682 0.1007527341 -0.5485170567 -0.0004812296 0.181882082
660296040.0 -0.0372769997 0.1845687342 0.0948622388 -0.5492719847 0.0947012616 -0.5495292073 0.0014623844 0.1820453787
665296010.0 -0.0347253756 0.1850583587 0.0885242338 -0.5501688922 0.0886797407 -0.5501204408 0.0034270178 0.1824655145
670295980.0 -0.0341082012 0.1860100954 0.0828895782 -0.5511917197 0.0828810683 -0.5508735999 0.0050707375 0.1825570568
675295950.0 -0.0320029609 0.1863224944 0.0771113203 -0.5517659392 0.0769558445 -0.5513886996 0.0066708487 0.1826348711
680295920.0 -0.0299843899 0.1868431602 0.070974696 -0.5525970638 0.0705248454 -0.553057746 0.0092803519 0.1833477034
685295890.0 -0.0278088696 0.1874888698 0.0647921923 -0.5535596516 0.0646971481 -0.553303617 0.0108751946 0.1828075497
690295860.0 -0.0259383224 0.1878929812 0.0588819572 -0.5533070301 0.0591345185 -0.5544982107 0.0127684618 0.1834590021
695295830.0 -0.0244313463 0.187980803 0.053257126 -0.5543075511 0.0526773898 -0.5545469388 0.0148240909 0.1829775106
700295800.0 -0.0223194624 0.1882371434 0.0466946467 -0.5547120196 0.0471079921 -0.5549145074 0.0167837039 0.1832324274
705295770.0 -0.0208007487 0.1891892133 0.0402564048 -0.5555629004 0.0412430441 -0.5558058938 0.0188632052 0.1833154981
710295740.0 -0.0187486716 0.1891072928 0.0350797928 -0.5563445182 0.0351311888 -0.5562612958 0.0211550706 0.1825504597
715295710.0 -0.0174250581 0.1892404203 0.0294823727 -0.5559016902 0.0286580127 -0.5560612373 0.0233173455 0.1825430626
720295680.0 -0.015228858 0.189786218 0.0230833954 -0.5567307124 0.023143664 -0.5563511203 0.0253918357 0.1833517813
725295650.0 -0.0132317465 0.1898032183 0.0165798123 -0.5567364694 0.0170951385 -0.556822741 0.026969329 0.1829423964
730295620.0 -0.0113719327 0.1902904334 0.0108660958 -0.5564264467 0.0108421676 -0.5567723655 0.0291892587 0.1824399678
735295590.0 -0.0096852366 0.1908764615 0.0050841291 -0.5572284648 0.0051935416 -0.5568633253 0.030801216 0.1818754268
740295560.0 -0.0081497742 0.1910997383 -0.0010531948 -0.5566820578 -0.0007312923 -0.5570228771 0.0334996722 0.1821992562
745295530.0 -0.006237633 0.1912797074 -0.0070501147 -0.5562259013 -0.0071000459 -0.5565021633 0.035347526 0.1813715899
750295500.0 -0.0039648197 0.1913251688 -0.0131003519 -0.5562030632 -0.0127263109 -0.556529001 0.037436912 0.1812856567
755295470.0 -0.0020896059 0.1911639273 -0.0185460611 -0.556159673 -0.018783988 -0.556728959 0.039974005 0.1810442051
760295440.0 -0.0007553351 0.191794623 -0.0249088923 -0.5563027465 -0.0249256936 -0.5562027935 0.0417254613 0.1806963406
765295410.0 0.0011290384 0.1917153585 -0.0308862359 -0.5559737728 -0.0314162482 -0.5559329592 0.0437150941 0.1806218492
770295380.0 0.0029217984 0.1917608989 -0.0370989722 -0.5557230629 -0.0369896202 -0.5554291334 0.0454233235 0.179928624
775295350.0 0.0047537406 0.1916721803 -0.0433591688 -0.555027473 -0.0428080499 -0.5546152318 0.0468825702 0.1798016589
780295320.0 0.0068701075 0.1919127386 -0.0489826671 -0.5539516787 -0.0481323196 -0.554385831 0.0492040419 0.1790157483
785295290.0 0.0085295617 0.1914454923 -0.055168063 -0.5534868112 -0.0548465335 -0.5537440186 0.0518186617 0.179203601
790295260.0 0.0109411856 0.1923780699 -0.0604813916 -0.5531738121 -0.0600187682 -0.5533787335 0.0537366081 0.1787923941
795295230.0 0.0126797457 0.1921187009 -0.0667583941 -0.5521602592 -0.0663627314 -0.5527453418 0.0559874109 0.1787533174
800295200.0 0.0141770344 0.1924004354 -0.0731578879 -0.5515337696 -0.0726559837 -0.5516512258 0.0577483326 0.1779038118
805295170.0 0.0166168025 0.1921875263 -0.0788203343 -0.5506507672 -0.0786384469 -0.5509962611 0.0596447088 0.1776004202
810295140.0 0.0179191502 0.1915053737 -0.0842357028 -0.5495567577 -0.0847313089 -0.5502143898 0.0619698513 0.1771470347
815295110.0 0.0199068374 0.19160941 -0.0904358009 -0.5482729516 -0.0896822398 -0.5489672659 0.0633916125 0.1769454539
820295080.0 0.0215130924 0.1921773883 -0.0962715342 -0.5476019706 -0.0958710715 -0.5476962306 0.0655196535 0.1759573649
825295050.0 0.0239554185 0.1918789501 -0.101670743 -0.5465429977 -0.1020123107 -0.5468045075 0.0672704192 0.1754781521
830295020.0 0.0257879388 0.1920736925 -0.1088557369 -0.5453303287 -0.1079034923 -0.5452711081 0.0700643047 0.1749333802
