!Created with skrf (http://scikit-rf.org).
# Hz S RI R 50.0 
!freq ReS11 ImS11 ReS21 ImS21 ReS12 ImS12 ReS22 ImS22
300000.0 -0.7717180003 -0.17176082 -0.0004373739 0.0017400097 0.0002769179 0.0012349262 -0.0458013265 -0.0778197114
5299970.0 -0.7861012981 -0.0091989703 0.0001299022 0.0003329644 -0.0001146749 0.0002069211 -0.048845537 0.0141197889
10299940.0 -0.7893843853 -0.0060720473 -2.9505e-05 -0.0001072382 -6.22771e-05 0.0001849519 -0.0432080725 0.0323635002
15299910.0 -0.7942697294 -0.0031225264 6.23044e-05 -0.0001839298 3.17377e-05 -9.05531e-05 -0.0348317672 0.0464989028
20299880.0 -0.8012044299 0.0007695069 8.72017e-05 -0.0001924288 4.84818e-05 -2.1321e-06 -0.0254014673 0.0585104252
25299850.0 -0.8076740761 0.0066039318 -0.0001135873 4.04116e-05 -4.6955e-06 4.55275e-05 -0.0142412634 0.0677162811
30299820.0 -0.8139372974 0.0137131488 -0.0001708234 2.87846e-05 0.0001609513 -2.51229e-05 -0.0027933931 0.074804911
35299790.0 -0.8185792273 0.0228644689 -7.02892e-05 -1.58377e-05 -0.0001197923 -3.06018e-05 0.0082522222 0.0795808953
40299760.0 -0.8234589995 0.0321662764 3.3824e-06 -0.0001860436 -6.60578e-05 0.0001208031 0.0194803314 0.0827696256
45299730.0 -0.8268863733 0.0418585222 0.000196666 0.0001359938 -9.61132e-05 0.0001735727 0.0301514647 0.0841035066
50299700.0 -0.8293102291 0.0515883918 3.9703e-06 0.0001263379 8.19696e-05 3.99487e-05 0.0403338887 0.0846167534
55299670.0 -0.8311354187 0.0616547695 -4.13245e-05 -1.96251e-05 -9.73021e-05 0.0002708136 0.0493891739 0.0832930888
60299640.0 -0.8324739662 0.0716438493 0.0001134461 1.66009e-05 3.23352e-05 0.0001175293 0.0582711805 0.0818115762
65299610.0 -0.8339086459 0.0819772751 -1.17598e-05 0.0001352036 4.16439e-05 -0.0001223064 0.0658336281 0.0794170467
70299580.0 -0.8338674799 0.0914285566 -0.0001378897 1.75193e-05 8.1339e-05 -2.65836e-05 0.0725518586 0.0766323901
75299550.0 -0.833768357 0.1010082031 7.12304e-05 0.0002033627 -7.92037e-05 -5.93839e-05 0.0789405719 0.0735335738
80299520.0 -0.8340562082 0.1122975417 7.10714e-05 3.51014e-05 -8.2422e-06 6.47831e-05 0.0847386273 0.0699679101
85299490.0 -0.8326899143 0.1208050828 -4.47438e-05 -1.73521e-05 -0.0001379379 0.0002081041 0.0899292662 0.0668339978
90299460.0 -0.8324342122 0.1313270345 9.35158e-05 -9.8921e-06 -6.08845e-05 0.0001113284 0.0943876884 0.0631004553
95299430.0 -0.8313285277 0.1404035651 0.0001832715 5.72645e-05 8.46954e-05 0.0001449293 0.098490294 0.0590302831
100299400.0 -0.8304039717 0.1497232405 0.0001428662 0.000130501 2.0203e-06 0.0001802525 0.1021967172 0.0553678892
105299370.0 -0.8291398104 0.1587813673 0.0001395232 0.0001785946 8.29111e-05 2.23859e-05 0.1054822414 0.0517833616
110299340.0 -0.8278005265 0.1680956677 -2.79975e-05 0.0001016207 -8.73595e-05 3.30467e-05 0.108228593 0.0477341037
115299310.0 -0.8263961754 0.1776528702 0.0002548661 0.0001592648 9.75388e-05 0.0001345116 0.1107518356 0.0439867107
120299280.0 -0.8248184334 0.1864434889 0.0001273992 0.000120685 0.0002086283 8.3549e-06 0.1132185161 0.0400395006
125299250.0 -0.8227243299 0.1955073537 0.0001865824 0.0004194655 4.07888e-05 3.7075e-06 0.1149395759 0.0363279974
130299220.0 -0.8213679462 0.2053178163 4.39825e-05 5.17188e-05 1.67862e-05 -1.46885e-05 0.1170221083 0.0326382065
135299190.0 -0.8185384234 0.2141394741 -0.0002886447 0.0001036619 0.0002803542 6.08582e-05 0.1185364302 0.0289689692
140299160.0 -0.8176857456 0.2230881395 -1.442e-07 0.0002879784 1.44455e-05 8.92045e-05 0.119611356 0.0258105962
145299130.0 -0.8150404065 0.232118877 2.91e-05 -3.04728e-05 4.3749e-05 0.0001923552 0.1210632651 0.0223544988
150299100.0 -0.8123043309 0.2411108006 -9.55492e-05 0.0001620199 2.2777e-05 0.0001542945 0.1214674709 0.0192537999
155299070.0 -0.8098574077 0.2504265679 -0.00019749 0.0001041355 3.84294e-05 6.76464e-05 0.1228501037 0.0158744757
160299040.0 -0.8075786532 0.2588198147 0.0001548952 -3.90299e-05 5.59661e-05 0.0001538852 0.1234395974 0.0127421288
165299010.0 -0.8050451638 0.2674556341 -0.0001964364 0.0001533634 5.03836e-05 0.0002000173 0.1241561554 0.0095764952
170298980.0 -0.8017864507 0.2763671755 0.0001696781 -0.0001322005 2.70611e-05 0.0002921461 0.124289103 0.0065097041
175298950.0 -0.7990741287 0.2841277504 -3.5814e-05 0.0002345078 -0.0001599814 0.0001292517 0.1245560676 0.0036584971
180298920.0 -0.7962012907 0.2930291673 6.83393e-05 0.0001113577 5.33714e-05 -7.2102e-06 0.1250490546 0.0005201298
185298890.0 -0.7928722835 0.3019323322 0.0002112568 0.0001671426 4.53566e-05 8.05695e-05 0.1252256611 -0.0023733955
190298860.0 -0.7891461496 0.3108970798 0.000301532 0.0002145279 -8.26863e-05 0.0001331962 0.1252043382 -0.0050951114
195298830.0 -0.786202875 0.3194299899 2.8886e-06 0.0002166154 -2.59361e-05 0.0002674926 0.1245779688 -0.0075917946
200298800.0 -0.7830706201 0.3276620088 3.03413e-05 -1.2966e-06 -0.0001112264 0.0001725713 0.1250581128 -0.0103721145
205298770.0 -0.7794147634 0.3363330041 0.0001785328 4.99116e-05 0.000171334 0.0002239238 0.124940506 -0.0131316148
210298740.0 -0.7766386066 0.3449473874 0.0002152731 -0.0001236205 5.04229e-05 -4.10429e-05 0.1243081369 -0.0154276293
215298710.0 -0.7721395333 0.3528466725 -8.05099e-05 0.0001702662 0.0001938831 5.4222e-06 0.1242964116 -0.0182986801
220298680.0 -0.7683425146 0.360843947 0.0001130152 -9.3149e-06 -6.75238e-05 3.28693e-05 0.1238356913 -0.0201417489
225298650.0 -0.7648683223 0.3696794813 0.0001428762 0.0001981772 0.000177771 -3.46251e-05 0.1232596834 -0.0228252289
230298620.0 -0.7607854484 0.3781112741 6.30076e-05 0.0003722907 6.01442e-05 0.0001424504 0.1230448983 -0.0250526296
235298590.0 -0.7571617959 0.3858105653 0.0002249563 9.94801e-05 0.0001480767 0.0002629711 0.1222859357 -0.0270629031
240298560.0 -0.7528631728 0.3940008599 0.0002401381 1.34331e-05 4.86715e-05 0.000247138 0.1218280926 -0.0298842363
245298530.0 -0.7487459955 0.4017153965 0.0001277062 -9.22256e-05 -2.33029e-05 0.0001701209 0.1213960348 -0.0316734019
250298500.0 -0.7445244753 0.4091315616 0.0001971216 4.55829e-05 8.51496e-05 0.0001993222 0.1204436923 -0.0335424476
255298470.0 -0.7406572163 0.4173091917 1.22322e-05 -8.68449e-05 9.55906e-05 9.1668e-05 0.1199970295 -0.0360390219
260298440.0 -0.7365179547 0.425250312 -1.51768e-05 0.0001526774 0.000108199 -1.76586e-05 0.118915294 -0.0377986694
265298410.0 -0.7319422499 0.432581889 -5.47119e-05 0.0001784594 -1.67115e-05 0.0002492352 0.1188801336 -0.0400287869
270298380.0 -0.727255955 0.440596942 0.000379733 1.78968e-05 0.0002436401 0.0001146338 0.1181294785 -0.0419386136
275298350.0 -0.7233161791 0.4480858773 0.0001542776 6.90597e-05 2.35893e-05 -2.98139e-05 0.1174067929 -0.0436930144
280298320.0 -0.7187441585 0.4552685781 8.77533e-05 6.5963e-05 0.0001479757 3.33993e-05 0.1163665586 -0.0456787379
285298290.0 -0.7136426161 0.4632018005 0.000237111 0.0001273369 8.58459e-05 0.0002829632 0.1155857427 -0.0474312886
290298260.0 -0.7088154229 0.4709276542 3.94219e-05 0.0002272423 0.0002465767 2.91096e-05 0.1147002342 -0.0492220908
295298230.0 -0.7041522007 0.4783342469 8.33814e-05 0.0001186274 0.0001345372 0.0001609127 0.1141248271 -0.0510915146
300298200.0 -0.6993074066 0.4856343772 -5.6846e-06 0.0003532958 5.94373e-05 0.0005189243 0.1132514533 -0.0528289748
305298170.0 -0.6947362086 0.4925848696 4.82223e-05 -3.72626e-05 0.0001206349 7.96732e-05 0.1124446949 -0.0545867024
310298140.0 -0.6894934103 0.4993071209 0.0002282247 -1.43938e-05 6.12742e-05 0.0001483592 0.1115666695 -0.0562518302
315298110.0 -0.6845009911 0.5069829573 0.0002676647 0.000343827 0.0001209188 7.60368e-05 0.1106358831 -0.058159999
320298080.0 -0.6794220763 0.5141597654 6.49856e-05 -7.68596e-05 0.000190975 -3.479e-05 0.1096337228 -0.0598056945
325298050.0 -0.6740585025 0.5210181276 0.0001866855 8.89536e-05 4.45973e-05 2.0064e-05 0.1087058512 -0.0618039524
330298020.0 -0.6682813121 0.5281565186 0.0001651534 7.8493e-06 4.60001e-05 -5.847e-07 0.1073634554 -0.0635832958
335297990.0 -0.663063462 0.5349337349 8.71278e-05 0.0001102111 5.53512e-05 0.0002007475 0.1063225877 -0.0651375949
340297960.0 -0.6581244751 0.5412326332 0.000165464 2.50269e-05 0.0002503909 0.0001587718 0.1050793937 -0.0663771289
345297930.0 -0.6520866811 0.547809272 0.0001344054 0.0002824105 0.0002862303 0.0002536574 0.103829505 -0.0680420068
350297900.0 -0.6464833885 0.5549615706 8.39824e-05 0.0002328572 0.0001142869 4.25837e-05 0.1020648275 -0.0694477316
355297870.0 -0.6409821221 0.5618799903 0.0004088304 0.0001661723 0.0002489463 9.44657e-05 0.1010841819 -0.0707417327
360297840.0 -0.6348861077 0.5677821786 0.0001166066 0.0002606083 0.000282256 0.0002124219 0.0998815292 -0.0720878461
365297810.0 -0.629418697 0.5745704409 0.0001666584 -4.09331e-05 0.0001451603 -1.78257e-05 0.098814756 -0.0731941167
370297780.0 -0.6234823467 0.5805937534 0.000180839 0.0002407547 7.73924e-05 9.2805e-06 0.0973173446 -0.0745555483
375297750.0 -0.6181318254 0.5870929924 6.46056e-05 9.30404e-05 0.0001985634 1.94765e-05 0.0960899811 -0.0759977812
380297720.0 -0.6121366523 0.5934206521 5.51771e-05 5.55633e-05 0.0003062337 0.0001144654 0.0952166474 -0.0768937143
385297690.0 -0.6058947329 0.5994326447 -8.78489e-05 0.0001227745 7.27326e-05 5.77473e-05 0.0939455176 -0.0778842231
390297660.0 -0.5985723615 0.6054480742 0.0003637412 0.0004224264 0.0001538172 0.0002117262 0.0923800853 -0.0792998651
395297630.0 -0.5932611615 0.6123045122 7.51539e-05 0.0001419374 0.0002198565 0.0001936536 0.0913099022 -0.0805598074
400297600.0 -0.5870195867 0.6176091401 6.91046e-05 9.48254e-05 0.0002860938 0.0001650161 0.0902944825 -0.0816165974
405297570.0 -0.5805393528 0.6230921766 0.0001439047 0.0003192477 0.0001591481 -9.0524e-06 0.08890148 -0.0827233909
410297540.0 -0.5739065697 0.6296483377 0.0004090873 9.62646e-05 0.0001244111 7.4611e-06 0.0877592756 -0.0834895299
415297510.0 -0.5678369073 0.6350032442 0.0001791328 0.0003238811 0.00020476 4.2493e-05 0.0862715729 -0.0848129372
420297480.0 -0.5611794883 0.6410078563 0.0003756104 0.0001641863 0.0002056318 0.000169978 0.0854513267 -0.0852740636
425297450.0 -0.5542665872 0.6465738521 0.0001480768 -0.0001051624 -1.01293e-05 0.0001536144 0.0837706561 -0.0871804094
430297420.0 -0.5478158888 0.6519975509 2.81164e-05 5.72819e-05 5.49243e-05 0.0002326205 0.0827431711 -0.0876282462
435297390.0 -0.5410051925 0.6572831873 7.51429e-05 1.5191e-06 0.0003451851 0.0002245055 0.0810266337 -0.0883277728
440297360.0 -0.5341864851 0.6630084998 0.0001165476 0.0002325093 0.0002940053 -7.55363e-05 0.0800118178 -0.0895363774
445297330.0 -0.5273895829 0.6681885201 0.0001943318 0.0002269807 0.0001557762 -9.9648e-05 0.0787019583 -0.0905348071
450297300.0 -0.5202505531 0.6735827815 0.000550681 0.000245615 0.0002247438 0.000162406 0.077629976 -0.0911066369
455297270.0 -0.5139548539 0.6787714851 0.0002291548 6.6352e-06 0.0003785476 0.0001546807 0.0762067502 -0.0920138341
460297240.0 -0.5059531321 0.6842437709 0.0001768139 0.0001035952 0.000112598 4.6291e-05 0.0746218598 -0.093283787
465297210.0 -0.4994361485 0.6890040417 0.0001092608 0.0001644144 0.0003204888 0.0002208197 0.0734524032 -0.0937484891
470297180.0 -0.4924090638 0.6940218078 0.0002883724 0.0001846685 0.0002603651 -8.98485e-05 0.0719441581 -0.0947467654
475297150.0 -0.4853197015 0.6986104458 0.0002111669 -0.0001211523 0.0004141995 0.0002167691 0.0707688982 -0.0953280952
480297120.0 -0.4773390907 0.7040908792 7.2078e-05 -3.02708e-05 1.58122e-05 0.000210934 0.0689081877 -0.0963580286
485297090.0 -0.469913765 0.708908755 0.0003360822 4.05856e-05 0.0004338218 0.0001875613 0.0677996495 -0.0969562572
490297060.0 -0.4620836318 0.7140024177 0.0001559749 -0.0001456843 0.0001091956 -5.88675e-05 0.0663103709 -0.0978207608
495297030.0 -0.4549200897 0.7184339007 7.84968e-05 0.0001304329 0.0002640828 6.45417e-05 0.0651898986 -0.0985588124
500297000.0 -0.447208988 0.7218659433 0.0001631882 0.0001255233 0.0002503955 0.0001352144 0.0637404055 -0.0991611016
505296970.0 -0.4396065215 0.7272472211 0.0002165861 0.0001009141 0.0001765073 8.71399e-05 0.062351085 -0.0998620682
510296940.0 -0.4321693198 0.7310588669 0.0001431898 0.0001538282 0.0001555209 0.0002697093 0.0611732947 -0.1003819784
515296910.0 -0.4241607353 0.7358355349 0.0004001345 0.0001680577 0.0003331672 0.0001348229 0.0595956357 -0.1009845362
520296880.0 -0.4163667428 0.7400207375 0.0003333564 -0.0001029859 0.0002572445 -1.58887e-05 0.0584745924 -0.1016792473
525296850.0 -0.4086970081 0.7437924766 0.0003119533 3.0498e-06 0.0002307284 0.0001819764 0.0567249072 -0.1020567058
530296820.0 -0.4014666552 0.7482631912 0.0002800427 -9.2982e-06 7.288e-07 8.54748e-05 0.0553731383 -0.1030689499
535296790.0 -0.3930033738 0.751794581 0.0003199665 6.3553e-06 0.0001458902 0.0001723062 0.0542258336 -0.1031042936
540296760.0 -0.3848174923 0.7561147301 0.0003135293 -1.20211e-05 0.0001795301 8.9166e-05 0.0527043478 -0.1037961823
545296730.0 -0.3778961266 0.7600159721 0.0002703278 -5.63213e-05 0.0002787348 0.0001627298 0.0511784668 -0.1041958638
550296700.0 -0.3693393882 0.7639059332 0.0002882509 1.43826e-05 0.0002704037 -4.45672e-05 0.0496817088 -0.104764781
555296670.0 -0.3618875753 0.7671818332 0.0003309391 0.0002410736 0.0002062521 0.0002081957 0.0480637525 -0.1053313079
560296640.0 -0.3531269448 0.7707682821 0.0002709997 0.0002675083 0.0003870108 -3.74831e-05 0.046694251 -0.1058561556
565296610.0 -0.3454861965 0.7738780928 0.0002229748 8.72239e-05 0.0002037973 1.519e-06 0.0455481964 -0.1059352628
570296580.0 -0.3370968792 0.7781916385 0.0002402195 6.24635e-05 0.0002407997 -4.97824e-05 0.0436878418 -0.1066277245
575296550.0 -0.3284514106 0.7815923723 0.0002004652 0.0002426732 0.0001752194 5.9154e-05 0.0424354165 -0.1068843684
580296520.0 -0.3212302783 0.7845785867 0.0004102056 9.95968e-05 0.0004433413 0.0001935655 0.0409207879 -0.1073627707
585296490.0 -0.3125676851 0.7879819288 0.0001459318 0.0002750477 0.0005158659 0.0001004766 0.039802768 -0.1072894373
590296460.0 -0.3042432827 0.7912448773 0.0004841276 0.00014127 0.0003093766 0.0001573302 0.0379469399 -0.107938238
595296430.0 -0.2961836212 0.7939052129 0.0002583441 1.60606e-05 0.0004851102 0.000142941 0.0367806513 -0.1082805316
600296400.0 -0.2881777164 0.7972249157 0.0003852793 0.0001057163 0.0003875168 0.0001252766 0.0352666433 -0.1084546834
605296370.0 -0.2799702538 0.7990540292 0.0002231054 0.0001620925 0.0002125145 -5.31438e-05 0.0339228607 -0.1086712298
610296340.0 -0.2717948219 0.8025563384 0.0004030334 -6.35026e-05 0.0001251289 -8.6597e-06 0.0320548836 -0.1088359903
615296310.0 -0.2629031432 0.8059831201 0.0002511071 0.0001913251 0.0004043859 -0.0001489868 0.0310562214 -0.109129883
620296280.0 -0.2549470149 0.8086924057 0.0003534369 0.0001482372 0.0003254108 1.55122e-05 0.0294880753 -0.1091840594
625296250.0 -0.2475057162 0.8104951032 0.000364806 5.4408e-06 0.0003464982 0.000113309 0.0279309235 -0.1094492648
630296220.0 -0.2386889003 0.8132716336 0.0006121169 0.0001025146 0.0004579971 -8.9566e-06 0.0266796627 -0.109763121
635296190.0 -0.2305592269 0.8152319382 0.0003356575 0.0001441866 0.0005168608 9.93313e-05 0.0247264501 -0.1096216842
640296160.0 -0.2218465042 0.8179703128 0.0004322785 8.88582e-05 0.0003550608 1.96765e-05 0.0233745483 -0.1097203424
645296130.0 -0.2133777634 0.8205950113 0.0004629083 -3.6619e-06 0.0003932068 4.96921e-05 0.0218310486 -0.1097696275
650296100.0 -0.2056157297 0.8223832978 0.0002621056 9.07787e-05 0.0001359288 2.3011e-05 0.020726253 -0.1099601439
655296070.0 -0.1977909436 0.8244108615 0.000352011 -0.000149931 0.0003359715 7.80834e-05 0.0189146469 -0.1101045058
660296040.0 -0.1893024415 0.8260344225 0.0002644748 -0.0001453175 0.0005523628 0.0001822146 0.0178670957 -0.1101671892
665296010.0 -0.181018028 0.8288585836 0.0003114725 -0.0002855844 0.0004125584 -0.0001313241 0.0165382194 -0.1098133166
670295980.0 -0.1730578608 0.8303301117 0.0002381418 4.86443e-05 0.0004557907 -6.76916e-05 0.0147886985 -0.1100555279
675295950.0 -0.1638827148 0.83220538 0.000253496 0.0002311863 0.0005294292 -9.31029e-05 0.013269358 -0.1099391739
680295920.0 -0.1569255418 0.8336743643 0.0004027735 7.83249e-05 0.0003335727 2.04158e-05 0.0120260405 -0.1099690301
685295890.0 -0.147201197 0.8359374114 0.0003518553 0.0001581815 0.0003997996 -3.76431e-05 0.0102990532 -0.1100478375
690295860.0 -0.1391311138 0.836709998 0.0001741255 0.0001342056 0.0005344013 0.000165555 0.0091847619 -0.1098514391
695295830.0 -0.1306904998 0.8387470522 0.0003791378 -6.9469e-05 0.0003252751 -1.54562e-05 0.0076452027 -0.1092846431
700295800.0 -0.1226142825 0.8402064934 0.0002721953 7.27597e-05 0.0003880345 -2.21141e-05 0.0064012485 -0.1097389298
705295770.0 -0.1142207625 0.8417945036 0.0002202487 -2.8565e-06 7.7197e-06 -1.57361e-05 0.0048905946 -0.1094313129
710295740.0 -0.1067002422 0.8419439435 0.0007027699 -6.14618e-05 0.000343436 -0.0002319301 0.0035139231 -0.1093016655
715295710.0 -0.0980555319 0.8438130746 0.000192768 5.68651e-05 0.0003856369 -8.21583e-05 0.0020141248 -0.1093685961
720295680.0 -0.0889644555 0.8446379023 0.0003671055 -0.0002409068 0.0003358156 -7.491e-06 0.0003411287 -0.1091415972
725295650.0 -0.0815397034 0.8459413957 0.0005772427 0.0001513334 0.0002933408 -0.0001745598 -0.0009138254 -0.1084889027
730295620.0 -0.0737669644 0.8462001233 0.000560599 -0.0001010742 0.0002994642 -4.44735e-05 -0.0024543116 -0.1081209506
735295590.0 -0.0660789133 0.8479721053 0.0003589043 4.5269e-05 0.0003994201 0.0001026052 -0.0035913203 -0.1082797663
740295560.0 -0.0572618343 0.8477964217 0.0004659862 -0.0002895531 0.0002619807 -5.5766e-06 -0.0051022522 -0.1079886847
745295530.0 -0.0490758513 0.8488923721 0.0004864345 5.00226e-05 0.0006043155 4.30349e-05 -0.0065922658 -0.1073913058
750295500.0 -0.0407928139 0.8495025972 0.0004003275 -0.0001751737 0.000389294 -6.25406e-05 -0.0080397921 -0.1072230214
755295470.0 -0.0321478861 0.849820942 0.0003880168 4.3545e-05 0.0004618932 -9.53368e-05 -0.009292047 -0.1066624307
760295440.0 -0.0244598004 0.8505127724 0.0003299074 -0.0001037522 0.0002646027 -4.29738e-05 -0.0106112075 -0.1065568282
765295410.0 -0.0164711454 0.8508332112 0.0001078041 8.33354e-05 0.0003288981 -2.56214e-05 -0.0120074743 -0.1063672122
770295380.0 -0.0089091217 0.8514340563 0.0006206706 9.37912e-05 0.0005126975 -0.0001844676 -0.0134857539 -0.1060179232
775295350.0 -7.75234e-05 0.8510591128 0.000522833 -0.0001669154 0.0004354999 -7.23566e-05 -0.0148036836 -0.1057144629
780295320.0 0.0086743008 0.8513309377 0.0002199089 -9.40694e-05 0.0004180091 -0.0002093682 -0.0161911836 -0.1051487453
785295290.0 0.0166386699 0.8506298222 0.0003730451 -3.84234e-05 0.0005176096 -6.26695e-05 -0.01792139 -0.1045723684
790295260.0 0.0247730634 0.8507456064 0.0003868067 -3.37412e-05 0.000408985 -0.0003364947 -0.0189864584 -0.1040779947
795295230.0 0.0327676698 0.8505545784 0.0003792967 -9.04787e-05 0.0003305662 -8.61128e-05 -0.0205452136 -0.1039260018
800295200.0 0.0408871074 0.8503144467 0.0006420685 -0.0002427418 0.0004770625 -6.78504e-05 -0.0217267951 -0.1034263615
805295170.0 0.0494033872 0.8507793888 0.0005198326 -0.0002212008 0.0003627767 9.4671e-06 -0.0226816481 -0.1029981959
810295140.0 0.0577641902 0.8505796885 0.0004253528 -3.58572e-05 0.0004865118 -0.0003188571 -0.024152123 -0.1021461328
815295110.0 0.0646808348 0.8495682626 0.0004258092 -0.0002220801 0.0005582102 -0.0002147756 -0.025601649 -0.1014857987
820295080.0 0.0735298328 0.8488868046 0.0005407482 -0.0002117432 0.0003015887 -5.4632e-05 -0.0271701179 -0.1009120701
825295050.0 0.082230005 0.8483505317 0.000446572 -6.13361e-05 0.0005035638 -0.0001159876 -0.0281751378 -0.1005953891
830295020.0 0.0905508812 0.8479330061 0.0005321163 2.7542e-06 0.0004533397 -9.13292e-05 -0.0296184905 -0.0998843427
835294990.0 0.0980621762 0.8462494829 0.0004993658 -0.0002126488 0.0003348837 7.59102e-05 -0.0306702166 -0.0992268673
840294960.0 0.1064443576 0.8454962946 0.0004145438 -0.0001475863 0.0003982198 1.93612e-05 -0.0319112579 -0.0987143841
845294930.0 0.1144195912 0.844955991 0.0003788563 -0.0002193615 0.0004048353 -0.0001621314 -0.0334527767 -0.0977441032
850294900.0 0.123680069 0.8435557069 0.0004215742 -0.0002076369 0.0005086082 -0.0003140313 -0.0345321323 -0.0972662211
