!Created with skrf (http://scikit-rf.org).
# Hz S RI R 50.0 
!freq ReS11 ImS11 ReS21 ImS21 ReS12 ImS12 ReS22 ImS22
300000.0 -0.2422681801 -0.0763627782 0.4730997186 0.0523255278 0.4689255399 0.0489893227 -0.2428710787 -0.0898106191
5299970.0 -0.2439806978 0.007348321 0.4734551174 0.0048356712 0.473769638 0.0050151437 -0.243822169 0.0072841474
10299940.0 -0.2410693173 0.0187517764 0.4756820741 0.0061751877 0.475763981 0.0060564969 -0.2408281904 0.0203900226
15299910.0 -0.2367061674 0.0278725163 0.4793349652 0.0076099577 0.4794151808 0.0076310729 -0.2359942383 0.0299328478
20299880.0 -0.232045693 0.0353505912 0.4838991311 0.0088928315 0.4839388285 0.00824171 -0.230989664 0.0371351381
25299850.0 -0.2267962933 0.0422970388 0.489098178 0.0072475266 0.4892164273 0.0075291512 -0.2248258068 0.0438980318
30299820.0 -0.2215635786 0.0470804468 0.4945316149 0.0052384902 0.4942298846 0.0052934358 -0.2189398764 0.048929388
35299790.0 -0.216479476 0.0515021341 0.5000598159 0.0018615052 0.4999217678 0.0019179595 -0.2134297141 0.0532079308
40299760.0 -0.2115126733 0.0550304609 0.5048977634 -0.0018113437 0.505361749 -0.0021584303 -0.2082952376 0.0560058137
45299730.0 -0.2063164105 0.0578686262 0.5095119976 -0.0067810874 0.5099955888 -0.0064598026 -0.2033085932 0.0586755789
50299700.0 -0.202247375 0.0598602066 0.5143435269 -0.012325426 0.5142329863 -0.0119636489 -0.198679381 0.0604048246
55299670.0 -0.1985253037 0.0618151234 0.5181698039 -0.0183428127 0.5181344287 -0.018129707 -0.1944551708 0.0621648019
60299640.0 -0.1943004479 0.0635446908 0.521447824 -0.0245352069 0.5215608051 -0.0240114838 -0.1905185186 0.0633037685
65299610.0 -0.1914230095 0.064673399 0.5241966243 -0.0306473731 0.5240670198 -0.0305404248 -0.1870441157 0.0639692973
70299580.0 -0.1879820824 0.0661934459 0.5265172412 -0.0371728066 0.5266612732 -0.0374254057 -0.1837732403 0.0649059619
75299550.0 -0.1851820434 0.0674621528 0.528400384 -0.0440415999 0.5283422577 -0.0440041252 -0.1812134518 0.0650926744
80299520.0 -0.1825608884 0.0681543752 0.5303799043 -0.051048633 0.530591294 -0.0511598975 -0.1785463201 0.0659889801
85299490.0 -0.1802354209 0.0689109283 0.531584894 -0.0577758052 0.5319246686 -0.0575147866 -0.1761724791 0.0663003675
90299460.0 -0.1779607254 0.0696796756 0.5325313467 -0.0648815225 0.5331230077 -0.0648597943 -0.1737390889 0.0664415737
95299430.0 -0.175486558 0.0702905853 0.533559668 -0.0718069624 0.5339574565 -0.0720372079 -0.1716942072 0.0674557006
100299400.0 -0.1738601222 0.0715384955 0.5336316848 -0.0785243182 0.533925561 -0.0787553423 -0.1694356624 0.0673431514
105299370.0 -0.1721479656 0.0724375478 0.5343459697 -0.0854079569 0.5345654364 -0.0857486516 -0.1677414598 0.0679819491
110299340.0 -0.1704410854 0.0733846423 0.5346428858 -0.0919824604 0.5342848583 -0.0923263932 -0.1662255603 0.0684209697
115299310.0 -0.1686787445 0.0740840255 0.5342648012 -0.0994032984 0.5343862046 -0.0991968481 -0.1649489275 0.068988605
120299280.0 -0.1673242082 0.074666128 0.5343042971 -0.1063024632 0.5344065822 -0.1061839141 -0.163490568 0.0693993719
125299250.0 -0.1661923226 0.0756504538 0.53421663 -0.1126346019 0.5339293864 -0.1128472391 -0.16251728 0.0696355288
130299220.0 -0.1650016705 0.0768973678 0.5328836642 -0.1197175852 0.5330724399 -0.1195679354 -0.161194945 0.0703048301
135299190.0 -0.1639034751 0.0778114304 0.5329508876 -0.1261321176 0.532482056 -0.125874637 -0.1597034568 0.0708802615
140299160.0 -0.1627210211 0.0788334854 0.531826619 -0.1329524084 0.5320415382 -0.1329192439 -0.1586047209 0.0719883218
145299130.0 -0.1614036152 0.079788063 0.5310323378 -0.1393789764 0.5310007006 -0.1392521005 -0.1577019448 0.0727471464
150299100.0 -0.1602462103 0.0810428939 0.5296134396 -0.1456003048 0.5298716534 -0.1456261392 -0.1568251046 0.0741257735
155299070.0 -0.1593619127 0.0822293048 0.5290335555 -0.1530329775 0.5285544347 -0.1526738897 -0.1559075917 0.0744643565
160299040.0 -0.158268813 0.083329679 0.5271075947 -0.1586492381 0.5272623693 -0.1588154364 -0.1556099479 0.07539928
165299010.0 -0.1573046593 0.0847388011 0.5255200959 -0.1659610536 0.5258109448 -0.1655993117 -0.1542369992 0.0768508214
170298980.0 -0.156493061 0.085676202 0.5239254621 -0.1718933563 0.5243784447 -0.1718334094 -0.1534840146 0.0775071395
175298950.0 -0.1556348398 0.0869474779 0.5227818257 -0.1781365223 0.5223643138 -0.1780674091 -0.153061525 0.0787350898
180298920.0 -0.1546353977 0.088400565 0.5208438744 -0.1843700308 0.5208682794 -0.1843065355 -0.1517445548 0.0799009627
185298890.0 -0.1533890296 0.0894702478 0.5189875991 -0.1905946556 0.518699114 -0.1903337359 -0.1511853019 0.0808840253
190298860.0 -0.1527248997 0.0910548732 0.5174091314 -0.1965754444 0.5172566034 -0.1965958152 -0.1503594748 0.0815880497
195298830.0 -0.1519154649 0.091997666 0.5152564934 -0.2026113399 0.5154691499 -0.202985744 -0.1495680194 0.0830606909
200298800.0 -0.1507013186 0.093478365 0.512958809 -0.2090600743 0.5130693867 -0.209073124 -0.1492354747 0.084129842
205298770.0 -0.1496906908 0.094906681 0.5105012032 -0.2152981605 0.5110124608 -0.2148292617 -0.1484471808 0.0848778593
210298740.0 -0.1487673489 0.0962475027 0.5085475546 -0.220529853 0.5085379834 -0.2207913991 -0.1477505396 0.0867507239
215298710.0 -0.1482637936 0.0976192572 0.5062051292 -0.2272787583 0.5063722241 -0.2271053762 -0.1471567709 0.0878495783
220298680.0 -0.1469431718 0.0986650576 0.5035107457 -0.2328020928 0.5033189117 -0.232835399 -0.1468125442 0.0888188118
225298650.0 -0.1460659367 0.1004600748 0.5009519449 -0.239413194 0.5015629598 -0.2385237983 -0.1463283743 0.0894335331
230298620.0 -0.1449097364 0.10222558 0.4988898399 -0.2444779447 0.4991985784 -0.2445645823 -0.1456968019 0.0906522385
235298590.0 -0.1439156625 0.1037549828 0.4962227056 -0.2502311343 0.4960519773 -0.249875245 -0.1447172652 0.0923338726
240298560.0 -0.1430594584 0.1052180796 0.493699667 -0.256344204 0.4932288537 -0.2559962093 -0.1439203545 0.0936921815
245298530.0 -0.1421451988 0.1064790459 0.4908466857 -0.2619434416 0.4907627146 -0.2620057109 -0.1427997808 0.0942039341
250298500.0 -0.1408527928 0.1079143871 0.4873020874 -0.2674179704 0.4873731156 -0.2671379292 -0.1425169673 0.095790858
255298470.0 -0.1400916322 0.1089625564 0.4846446516 -0.2725962811 0.4850832239 -0.272935249 -0.1416639574 0.0967410024
260298440.0 -0.1393180511 0.1105508602 0.4816679087 -0.2785297471 0.4819523442 -0.278276944 -0.1403612998 0.0980178043
265298410.0 -0.1375465099 0.1126776769 0.4786808556 -0.2843674712 0.47919889 -0.2838966269 -0.1398116565 0.0993953408
270298380.0 -0.1365927678 0.1138258963 0.476112252 -0.2890490921 0.4758573828 -0.2891087764 -0.1391859161 0.1007327354
275298350.0 -0.1353698457 0.1153068919 0.472683396 -0.2953489598 0.4729868867 -0.2950434106 -0.1381322661 0.1017393966
280298320.0 -0.1338364099 0.1169532084 0.4698226152 -0.3007154525 0.4694088223 -0.3002166312 -0.1369594587 0.1029844009
285298290.0 -0.1327142215 0.1183750258 0.4661741529 -0.305519163 0.4662677243 -0.3054167891 -0.1359112204 0.1041236896
290298260.0 -0.1315203147 0.1198732107 0.4630406455 -0.3106559615 0.462527757 -0.3108929211 -0.135078034 0.1059687991
295298230.0 -0.1301506312 0.1208201125 0.4597106991 -0.3159925911 0.4595732858 -0.3159501599 -0.1335315601 0.1065864307
300298200.0 -0.129189062 0.122269135 0.4565383925 -0.3209601592 0.4564160393 -0.3214802445 -0.1328850323 0.1079622908
305298170.0 -0.1276258674 0.1234084639 0.4520342396 -0.3265130039 0.4523480687 -0.3265738083 -0.1315587376 0.1090525536
310298140.0 -0.1267063164 0.1250896655 0.4493517891 -0.3317789564 0.4494519925 -0.3314767201 -0.1303946155 0.1102781739
315298110.0 -0.1250589846 0.1261134469 0.4452929725 -0.3368620997 0.4455826591 -0.3372730474 -0.1296468805 0.1112481958
320298080.0 -0.1237334424 0.1274249989 0.441617572 -0.3426171482 0.4416614996 -0.3417590669 -0.1288040245 0.1126156812
325298050.0 -0.1225022863 0.1286742698 0.4377487626 -0.3469142291 0.4377358679 -0.3470683912 -0.127902448 0.1135959982
330298020.0 -0.1213625428 0.1301620242 0.4337010061 -0.3523115291 0.4341108736 -0.3522904612 -0.1268238437 0.1150024499
335297990.0 -0.1200694975 0.1310446701 0.429254627 -0.3567351304 0.4295782478 -0.3570211634 -0.1264128293 0.1167047679
340297960.0 -0.1191578263 0.1329449175 0.4250554793 -0.3613345615 0.4252448935 -0.3619652078 -0.1243693595 0.1179041649
345297930.0 -0.1178699841 0.1344823512 0.4211686551 -0.3669144352 0.421113376 -0.3666758928 -0.1240897249 0.1190709784
350297900.0 -0.116345109 0.1355075472 0.4167780358 -0.3713841693 0.4171328601 -0.3709612403 -0.1234723078 0.1208530921
355297870.0 -0.1150565761 0.1375534357 0.4131916225 -0.3756093962 0.4133159961 -0.3758418228 -0.122502237 0.1221487362
360297840.0 -0.1136244333 0.1386326465 0.409478237 -0.3800706331 0.4093214523 -0.3801854443 -0.1211163418 0.1236391759
365297810.0 -0.1123173744 0.1402146862 0.4045867848 -0.3849285748 0.4049323952 -0.3848879088 -0.1203679049 0.1251156475
370297780.0 -0.1105845352 0.1414793948 0.4002627657 -0.3888315376 0.4006846558 -0.3886366899 -0.1192253692 0.1262735857
375297750.0 -0.108976978 0.1427071263 0.3959408013 -0.3934870383 0.3967054099 -0.3937627532 -0.1179511254 0.1276742457
380297720.0 -0.1077167051 0.1440483978 0.3918717779 -0.3979987606 0.3919283508 -0.3971633233 -0.1172526857 0.1286911982
385297690.0 -0.1063149575 0.1454285335 0.3871685435 -0.4021359277 0.3875712858 -0.4019348209 -0.1157200712 0.1302746016
390297660.0 -0.1047495312 0.1468600908 0.382922213 -0.4064404767 0.3830036438 -0.4059211095 -0.1146960113 0.1313853201
395297630.0 -0.1033775743 0.1481385396 0.3789072991 -0.410503284 0.3786333984 -0.4105315211 -0.1130776817 0.1326666719
400297600.0 -0.1016900854 0.1496712018 0.3733959662 -0.4150273294 0.3741632074 -0.4147038225 -0.1123244077 0.1338946907
405297570.0 -0.1004837008 0.1505579698 0.3693724656 -0.4184491536 0.3693366128 -0.4186909546 -0.1114108304 0.1351504635
410297540.0 -0.0984508881 0.151984384 0.3649577323 -0.4227903893 0.3652696727 -0.4229288734 -0.1101126807 0.1364235897
415297510.0 -0.0967465277 0.1528845424 0.3603849266 -0.4268253551 0.3600161201 -0.4270256105 -0.108696806 0.1377056421
420297480.0 -0.0953225775 0.154533302 0.3553977017 -0.4311424089 0.3554619691 -0.4309753113 -0.1075600313 0.138669857
425297450.0 -0.0935574582 0.1551424399 0.3510154997 -0.4347502709 0.3509671351 -0.4349187461 -0.1064954682 0.1401333394
430297420.0 -0.0914420522 0.1564067604 0.3457686725 -0.4378837024 0.3460439676 -0.438257996 -0.105441758 0.140666792
435297390.0 -0.0904334804 0.1579053565 0.3407770993 -0.4419837244 0.3403724145 -0.4421633679 -0.1031853388 0.1419432109
440297360.0 -0.0884011977 0.1591590881 0.3361979778 -0.4458980575 0.336372122 -0.4455266643 -0.1024359756 0.1427648862
445297330.0 -0.0867399861 0.1597149746 0.3314084277 -0.4495053719 0.3314980057 -0.4491890102 -0.1010471824 0.1436445717
450297300.0 -0.0846905967 0.160925897 0.3262968508 -0.4529940886 0.3264530308 -0.4534020442 -0.0996315387 0.1444795362
455297270.0 -0.0831047168 0.1622461877 0.3210504351 -0.4566976576 0.3214380447 -0.4566698938 -0.0985130102 0.1458671363
460297240.0 -0.0813419592 0.1629754208 0.3163730992 -0.4597311725 0.3163185691 -0.4599494201 -0.0969115725 0.1471531845
465297210.0 -0.0795277881 0.1641389678 0.311629024 -0.4634343616 0.3111939566 -0.4638860939 -0.0951469071 0.1479462427
470297180.0 -0.0777138658 0.1646120852 0.305873587 -0.4667490843 0.3062113366 -0.4667884487 -0.0936849954 0.1491657209
475297150.0 -0.0760192877 0.1657232912 0.3008254892 -0.4700399821 0.3010098907 -0.4698697936 -0.0920963677 0.1499196951
480297120.0 -0.0740188726 0.1675314007 0.2956678745 -0.4736310142 0.2955403764 -0.473601008 -0.0903358532 0.1512253157
485297090.0 -0.0723363798 0.1681288951 0.2912031587 -0.4764961811 0.2906127142 -0.4764807456 -0.0890213038 0.1521258388
490297060.0 -0.0709790514 0.1689080475 0.2858510442 -0.4800845237 0.2859591696 -0.4794652485 -0.0877913741 0.1533240401
495297030.0 -0.0688836376 0.1699651784 0.2801408249 -0.4823394766 0.2807916464 -0.4825933673 -0.0861732376 0.1541372497
500297000.0 -0.0667400914 0.1707741446 0.2746557376 -0.4854367833 0.2746672361 -0.4849736596 -0.084579829 0.1557697159
505296970.0 -0.0649766697 0.1715509559 0.2698035836 -0.488708167 0.2693119203 -0.4884501269 -0.0832362888 0.1561818753
510296940.0 -0.0632397366 0.1724948283 0.2644092769 -0.4914831729 0.2643339467 -0.4917916707 -0.081602386 0.1574392717
515296910.0 -0.0614225533 0.1733382462 0.2589411487 -0.4943570818 0.2587039523 -0.494168752 -0.0799958865 0.1584581817
520296880.0 -0.0594391661 0.1740923141 0.2534314623 -0.4976576308 0.2531717831 -0.4969299452 -0.0784682659 0.1591973116
525296850.0 -0.0573929802 0.1746382438 0.2478336695 -0.4996871193 0.2482735615 -0.4997415548 -0.0772917235 0.1604063907
530296820.0 -0.0554394344 0.1757125301 0.2425265036 -0.50263495 0.2426689701 -0.5023908615 -0.0752855987 0.1612860015
535296790.0 -0.0538123502 0.1764278586 0.2374896186 -0.5048130146 0.2375441536 -0.5047359894 -0.0741569507 0.1621220973
540296760.0 -0.0518038136 0.1770107309 0.2314949838 -0.5080027191 0.2318875322 -0.5077120678 -0.0727697732 0.1636000889
545296730.0 -0.0496982795 0.1777592459 0.2257901155 -0.5097921911 0.2259795097 -0.5101558673 -0.071082294 0.1639841789
550296700.0 -0.0476553471 0.178653871 0.2201865487 -0.5126600736 0.2203249611 -0.5125044455 -0.0695633056 0.1650877662
555296670.0 -0.0458607838 0.179249723 0.2153301197 -0.5145827728 0.2151385504 -0.5147539091 -0.068113379 0.1661899092
560296640.0 -0.0435809138 0.1803041496 0.209642517 -0.5171901233 0.2092400312 -0.5172451106 -0.0661109592 0.1665995071
565296610.0 -0.0417787326 0.1805180677 0.2032674136 -0.5193579098 0.2038513065 -0.5192014744 -0.0652401912 0.1670762966
570296580.0 -0.0401424025 0.1815293767 0.1979387434 -0.5220828902 0.1971133214 -0.5215598194 -0.0633985075 0.1685411321
575296550.0 -0.0380710735 0.1821127976 0.1922751274 -0.5238067213 0.1920367935 -0.5238461826 -0.0615455666 0.1690800267
580296520.0 -0.0358099955 0.182472422 0.1869481549 -0.5259450172 0.1868141599 -0.5256368613 -0.0603261037 0.1696068131
585296490.0 -0.0340830143 0.1828157047 0.1808122102 -0.5272599347 0.1813342152 -0.5275216531 -0.0585140643 0.1703007252
590296460.0 -0.0316259956 0.1830901546 0.175269238 -0.5290394502 0.1750368841 -0.5292480217 -0.0572331948 0.1710691
595296430.0 -0.0298237836 0.1840140704 0.1691784928 -0.531608099 0.1691830816 -0.5312119946 -0.0554615378 0.1713455858
600296400.0 -0.027859737 0.1843354181 0.1634599869 -0.5332368168 0.1638466193 -0.5330069035 -0.0540850605 0.172245449
605296370.0 -0.0258149896 0.1850239285 0.1578525926 -0.5347477146 0.1578870766 -0.5348654986 -0.0520323352 0.1728601474
610296340.0 -0.0236662662 0.1852753619 0.1517435064 -0.5363287724 0.152004365 -0.5363456651 -0.0503185157 0.1735544336
615296310.0 -0.0216236819 0.1852509489 0.1461682969 -0.5379830352 0.1459991856 -0.5384918366 -0.0482381352 0.1740807752
620296280.0 -0.0195582715 0.1856727173 0.1404251522 -0.5394442925 0.1400834301 -0.5390894173 -0.0472416627 0.1746196213
625296250.0 -0.017977754 0.1856762073 0.1351774992 -0.5410583925 0.1347241123 -0.541237566 -0.0447174168 0.1749843438
630296220.0 -0.0147935189 0.186573995 0.1281956565 -0.5423626695 0.1280979994 -0.5423426765 -0.0435052333 0.1761013207
635296190.0 -0.0138621714 0.1866203376 0.1227670015 -0.5438062562 0.1225920178 -0.5436264395 -0.0416513822 0.1762971625
640296160.0 -0.0116373896 0.1869045457 0.1169713445 -0.5446749539 0.1174774991 -0.5448132108 -0.039884475 0.1768661362
645296130.0 -0.0093503299 0.187347784 0.1108128497 -0.5459131629 0.1112123887 -0.5463482582 -0.0378667946 0.1773474429
650296100.0 -0.007209414 0.1874608139 0.1048154428 -0.5467997505 0.1049798055 -0.5472348839 -0.0358661916 0.1774162541
655296070.0 -0.0052789372 0.1874790596 0.0990894094 -0.5480009462 0.0992810108 -0.548319516 -0.0343171555 0.1783260131
660296040.0 -0.0035105911 0.1874422255 0.0930908444 -0.5495993208 0.0932226344 -0.5493296655 -0.0324983378 0.1785657628
665296010.0 -0.0009013566 0.1875084034 0.086827107 -0.5500849243 0.0873187355 -0.5504069798 -0.0305599148 0.1797428838
670295980.0 0.0001406362 0.1882369357 0.0813614442 -0.550969367 0.0810957996 -0.5512603949 -0.0293758851 0.1799629643
675295950.0 0.0026188684 0.1883483289 0.0757136983 -0.5514231359 0.0756474133 -0.5513774982 -0.0278329917 0.1805798546
680295920.0 0.0045985342 0.1881668302 0.0688597284 -0.5523882889 0.0692541188 -0.5530151096 -0.0257117092 0.1814477936
685295890.0 0.006942887 0.1887848006 0.063608729 -0.5533312711 0.0629348073 -0.5537207448 -0.0239331786 0.1814057605
690295860.0 0.0092724205 0.1885461185 0.0575278646 -0.5535396956 0.0573161234 -0.5543814948 -0.0222592186 0.182368668
695295830.0 0.0111470237 0.1885713373 0.0518396711 -0.5538120522 0.0512596878 -0.5544136996 -0.0204367403 0.1827893553
700295800.0 0.0133874934 0.1882573742 0.0450078512 -0.5548152193 0.0448377991 -0.5546744778 -0.0185833763 0.1835760069
705295770.0 0.0153742292 0.18871488 0.0388909501 -0.5554640845 0.0398964095 -0.5553731053 -0.0171888588 0.1837445755
710295740.0 0.0175938308 0.1886560957 0.033367281 -0.5565015236 0.0337031514 -0.5562367171 -0.0149677465 0.1832790789
715295710.0 0.0189752573 0.188351497 0.0279252006 -0.5561955112 0.0273432198 -0.555979328 -0.0133327934 0.1838106628
720295680.0 0.021476552 0.1885651238 0.0213932699 -0.5566708115 0.0217730479 -0.5563606358 -0.0115300998 0.184730705
725295650.0 0.023568755 0.1885955826 0.0153345545 -0.5565031524 0.0153591192 -0.5565745921 -0.0100387547 0.1848521698
730295620.0 0.0259540895 0.1885952407 0.0092703266 -0.5562538116 0.0097926033 -0.5564141079 -0.0085551953 0.1850616664
735295590.0 0.0278471346 0.1881736238 0.0032670133 -0.5569755672 0.003317443 -0.556807485 -0.006753474 0.1852729954
740295560.0 0.0296114102 0.1883652539 -0.0028047229 -0.5568756655 -0.0026128826 -0.5567724342 -0.0045102141 0.1855908676
745295530.0 0.0316211916 0.1880797693 -0.0086950161 -0.5561653146 -0.0084501117 -0.5564955197 -0.0028465376 0.1855041864
750295500.0 0.0343882241 0.1876049844 -0.0145417824 -0.5561377555 -0.0145932402 -0.5565657845 -0.0012576455 0.1857115388
755295470.0 0.0362461528 0.1874379338 -0.0204241559 -0.5560830434 -0.0204174153 -0.5559498099 0.0009772359 0.1853015118
760295440.0 0.0378952814 0.187144881 -0.0264326022 -0.5558542316 -0.0268326589 -0.5561666558 0.0024439333 0.1859038847
765295410.0 0.0399494708 0.1871563896 -0.0324838477 -0.5554060888 -0.0328843629 -0.5559210631 0.0040482391 0.1860145917
770295380.0 0.0420852027 0.1863419207 -0.0387351711 -0.5549453251 -0.038615882 -0.5547497949 0.0058670977 0.1857597497
775295350.0 0.0438790194 0.1858460064 -0.0450193289 -0.5541680943 -0.0442381615 -0.5546767886 0.0073371899 0.1858500236
780295320.0 0.0462398982 0.1856518863 -0.0505117723 -0.5537071304 -0.0499741889 -0.55398292 0.0089690074 0.1857032859
785295290.0 0.048065109 0.1850988704 -0.056747384 -0.5529295065 -0.0564233056 -0.5536695785 0.011889026 0.1859823478
790295260.0 0.0506636096 0.1850359083 -0.0620620836 -0.5525606046 -0.061669256 -0.5526129529 0.0134007268 0.1860620536
795295230.0 0.0523724765 0.1843100998 -0.0685852013 -0.5517970759 -0.0681138397 -0.5518687815 0.0153940837 0.1858852848
800295200.0 0.0542612681 0.1841807069 -0.0750333146 -0.5508822748 -0.0744093335 -0.5510031623 0.0173495226 0.1858666957
805295170.0 0.0563734305 0.1834534343 -0.0800395636 -0.5499177848 -0.0801563523 -0.5503346553 0.0187572761 0.1861052083
810295140.0 0.0582598304 0.1826683854 -0.0859308201 -0.5486633358 -0.0862436693 -0.5496531203 0.0208942817 0.1859448067
815295110.0 0.0599526305 0.1822080579 -0.0919192498 -0.5478735633 -0.0917743954 -0.5482989787 0.022599029 0.1857540426
820295080.0 0.0621693151 0.1820827682 -0.0980622695 -0.5472805445 -0.0975883163 -0.5471056804 0.0241434472 0.1858323788
825295050.0 0.0646677182 0.181284341 -0.1031925299 -0.5461362483 -0.1036704288 -0.5460051975 0.0266093603 0.1859687423
830295020.0 0.0662721245 0.180794617 -0.1098176647 -0.5442671479 -0.1095432926 -0.5445168487 0.0291431286 0.1857983915
