!Created with skrf (http://scikit-rf.org).
# Hz S RI R 50.0 
!freq ReS11 ImS11 ReS21 ImS21 ReS12 ImS12 ReS22 ImS22
300000.0 -0.2393830625 -0.0948452814 0.466802821 0.0631791867 0.4709027501 0.0677233908 -0.236877283 -0.1069852259
5299970.0 -0.2436538985 0.0074932748 0.4737120615 0.0050907842 0.4737217058 0.0056368363 -0.2440096056 0.0060604033
10299940.0 -0.2404207541 0.0199741568 0.4761352188 0.0062586339 0.4759747655 0.0064752546 -0.2410348222 0.0182415389
15299910.0 -0.2360394256 0.0292160264 0.4796813106 0.0079675027 0.4793075563 0.0080023698 -0.2367507832 0.0276679622
20299880.0 -0.2306949831 0.0372358773 0.484504221 0.0082393616 0.4843442788 0.0084848519 -0.2320847654 0.0356507688
25299850.0 -0.2248103671 0.0436367356 0.4894305177 0.0072406895 0.4893103577 0.0073740078 -0.2267741264 0.0416483309
30299820.0 -0.2189144846 0.0483430798 0.495341047 0.0056257339 0.4945791949 0.0056113269 -0.2215259745 0.0470113141
35299790.0 -0.2130305862 0.0528718708 0.5003359944 0.0022180309 0.500331382 0.0024504138 -0.2163037986 0.0510542884
40299760.0 -0.2076833821 0.0556798421 0.5053138454 -0.0015108758 0.5054193016 -0.0019270087 -0.2115503478 0.0545820823
45299730.0 -0.2024630337 0.0586413893 0.5100567217 -0.0068105499 0.5103763478 -0.0064276788 -0.2065698594 0.0574756277
50299700.0 -0.1976622562 0.0603420183 0.5143260051 -0.0122827866 0.5141586734 -0.0121971006 -0.2022179334 0.0594999055
55299670.0 -0.1936753522 0.0617082295 0.5178518204 -0.017727526 0.5183718216 -0.0180390796 -0.1981926517 0.0613284455
60299640.0 -0.1896075145 0.0626680282 0.5212091117 -0.0246118047 0.5217030968 -0.0240348887 -0.1945852937 0.0629463833
65299610.0 -0.1861239295 0.0638521718 0.5243528612 -0.0298467013 0.5244748852 -0.0305446911 -0.1909865972 0.0642140682
70299580.0 -0.1827525077 0.0641913474 0.5269994241 -0.0369520391 0.526910855 -0.0372419047 -0.1882045506 0.0658505873
75299550.0 -0.1796311574 0.065461512 0.5287218763 -0.044201721 0.5288549798 -0.0443423288 -0.1850382404 0.066883525
80299520.0 -0.1772169834 0.0658844642 0.5307595418 -0.0508934794 0.5310459658 -0.0508179544 -0.1827173822 0.0672764253
85299490.0 -0.1746715405 0.0660819069 0.532059559 -0.058132224 0.5319260819 -0.0580095643 -0.1804549241 0.0683429117
90299460.0 -0.1728029138 0.0665260964 0.5332092134 -0.0646623758 0.5335002547 -0.064747982 -0.1776716633 0.0690629202
95299430.0 -0.1704877423 0.0673262412 0.5340377669 -0.0721283019 0.5343228842 -0.0717139501 -0.1758591858 0.0701443903
100299400.0 -0.168760536 0.0674559352 0.5343244028 -0.0785170645 0.5344118984 -0.0788272565 -0.1742491262 0.0706867563
105299370.0 -0.1668251927 0.0683018654 0.534483338 -0.0854665985 0.5351055964 -0.0857172628 -0.1719625201 0.0717857591
110299340.0 -0.1653444238 0.0683187282 0.5349613709 -0.0921989401 0.5346783505 -0.0925566946 -0.170663037 0.0725136253
115299310.0 -0.1640840618 0.0687164655 0.5345422213 -0.0989117533 0.5354733649 -0.0989418937 -0.1692467516 0.0730075216
120299280.0 -0.1626912101 0.0693875353 0.5349630676 -0.1061849663 0.5351243411 -0.1063008932 -0.1680478769 0.0744332055
125299250.0 -0.1618775383 0.0697717114 0.5340550168 -0.1125809567 0.5342632166 -0.1128469599 -0.1663369295 0.0747500812
130299220.0 -0.1603892199 0.0704419687 0.5339845694 -0.1190912082 0.5336317188 -0.1192422178 -0.1652401574 0.0758406506
135299190.0 -0.1592959313 0.0710764837 0.5329609712 -0.1256289971 0.5327552165 -0.1259587181 -0.1641391423 0.0767833584
140299160.0 -0.1585898567 0.0720695525 0.5320816261 -0.1324428698 0.5322795797 -0.1330079011 -0.1626603587 0.0779690968
145299130.0 -0.1573162505 0.0728081306 0.5316377984 -0.1396543882 0.5311487765 -0.139090331 -0.1620786801 0.0786142613
150299100.0 -0.1567624896 0.0733988886 0.5305514819 -0.1457723636 0.5303084341 -0.1460109538 -0.160988263 0.0799007477
155299070.0 -0.15585881 0.0749004054 0.5286212773 -0.1528966872 0.5290067133 -0.1526421577 -0.1603348219 0.0810580107
160299040.0 -0.1550795809 0.0753465848 0.5275115227 -0.1584587489 0.5278498191 -0.1588655062 -0.1588891858 0.0824267739
165299010.0 -0.1542238827 0.0762210426 0.5265004367 -0.1650909195 0.5264396997 -0.1655198388 -0.158057702 0.0833285435
170298980.0 -0.1535445898 0.0773140966 0.524027158 -0.1717675016 0.5244146676 -0.1720322466 -0.156867228 0.0845627083
175298950.0 -0.1526538235 0.0782932126 0.5233350793 -0.1775951157 0.5231412132 -0.1779682822 -0.1558041882 0.0857351004
180298920.0 -0.1517710881 0.0789832437 0.5213489169 -0.1841157212 0.521547186 -0.1841697659 -0.1549892094 0.0870758427
185298890.0 -0.1510180449 0.0799054843 0.5194001051 -0.1903973136 0.5196701549 -0.1906085734 -0.1542760313 0.0880483019
190298860.0 -0.1504004157 0.0812254629 0.5175054643 -0.1970500227 0.5178738447 -0.1965985252 -0.1525817691 0.0894234868
195298830.0 -0.1495144665 0.0820077994 0.5154851337 -0.2027273901 0.5158557703 -0.2029869475 -0.1519514496 0.0906829112
200298800.0 -0.148865405 0.0833976733 0.5135065778 -0.2081794283 0.5133334173 -0.2086270527 -0.1507767497 0.0924398318
205298770.0 -0.1480649616 0.0846086379 0.5113234173 -0.2147368035 0.5115423171 -0.2148393539 -0.1500478107 0.0931200962
210298740.0 -0.1474081863 0.0854203795 0.5092588482 -0.2211463489 0.5092817088 -0.2210850908 -0.1489378728 0.0949798911
215298710.0 -0.1466500599 0.0869660815 0.5066675639 -0.2265708253 0.5067719788 -0.2266846174 -0.1483924961 0.0961667188
220298680.0 -0.1459930601 0.0878189983 0.5043584254 -0.2326406962 0.5044268429 -0.232721793 -0.1471757666 0.0978402006
225298650.0 -0.1448481215 0.0892746147 0.501881564 -0.2383714287 0.5018789678 -0.2383499757 -0.1464892976 0.0991883553
230298620.0 -0.1445872973 0.090412898 0.4997871237 -0.2449603085 0.499678904 -0.244375169 -0.1451380687 0.1004383499
235298590.0 -0.1438299583 0.0913471952 0.4967215217 -0.2499591899 0.4971027247 -0.2501592905 -0.1440892388 0.1014386042
240298560.0 -0.1430339982 0.0930140937 0.4941175681 -0.2554562019 0.4939165609 -0.2554422938 -0.1429200884 0.1035677855
245298530.0 -0.142069616 0.0940772607 0.4907253681 -0.261854591 0.4913670589 -0.2618034871 -0.1421592942 0.1049169625
250298500.0 -0.1414693273 0.0952131137 0.488445665 -0.2666418047 0.4887944998 -0.2667997136 -0.1405888234 0.1060127048
255298470.0 -0.1407471341 0.0966207389 0.4857735194 -0.2724115897 0.4856371114 -0.272942102 -0.139600447 0.1073374497
260298440.0 -0.1396900054 0.0981917808 0.4829413243 -0.2783683583 0.482436992 -0.2782870319 -0.1381841147 0.1089700526
265298410.0 -0.1386958995 0.0994691043 0.4793971405 -0.2838413796 0.479265034 -0.2840904137 -0.1374808676 0.1105428677
270298380.0 -0.1377053152 0.1004821572 0.4760320873 -0.289358869 0.4763666081 -0.2893646488 -0.1359324995 0.1121404064
275298350.0 -0.1372280466 0.1019013735 0.4731779975 -0.2946450447 0.4737731701 -0.2951637261 -0.1349468554 0.1135872975
280298320.0 -0.1363210203 0.1033388995 0.4701111745 -0.2998441212 0.4700028165 -0.3000662496 -0.133539516 0.1148732382
285298290.0 -0.1353464376 0.104740043 0.4667598237 -0.3056475884 0.466510814 -0.3057061181 -0.1325785722 0.1166139908
290298260.0 -0.1343857413 0.1056604039 0.4636640933 -0.3102426493 0.463590185 -0.3106334889 -0.1309683317 0.1181653151
295298230.0 -0.1334684157 0.1070229123 0.4606483822 -0.3161016053 0.4600806736 -0.3160726433 -0.129715474 0.1193484477
300298200.0 -0.1320312902 0.1083273809 0.4571571815 -0.3214022264 0.4568651127 -0.3216200664 -0.1287491874 0.1209271169
305298170.0 -0.1309528904 0.1093690976 0.4533509375 -0.3267585076 0.4535749497 -0.3265157072 -0.1270635444 0.122260257
310298140.0 -0.1298351173 0.1107613152 0.4503838217 -0.3318572955 0.4499296802 -0.3323556803 -0.1258479192 0.1240305612
315298110.0 -0.1292363203 0.1120064336 0.4458722052 -0.3372830414 0.4463318119 -0.3371149365 -0.1241094453 0.1251343992
320298080.0 -0.1280713767 0.1132295683 0.4422680847 -0.3421412959 0.4425042752 -0.3422516115 -0.123088514 0.1262647157
325298050.0 -0.127332926 0.1138276323 0.4387824184 -0.3473412296 0.4389129892 -0.3474407648 -0.1216482415 0.1274150715
330298020.0 -0.1263728125 0.1155403184 0.4339023931 -0.3523448165 0.4343283693 -0.3526865303 -0.1206718611 0.1288710132
335297990.0 -0.1253298548 0.116555296 0.4304121329 -0.3572329708 0.4301908178 -0.3575363726 -0.1192517629 0.1302292509
340297960.0 -0.124911921 0.1182947952 0.4263505081 -0.3620518414 0.4264543918 -0.3616486163 -0.1180953225 0.1317554105
345297930.0 -0.1239598378 0.1194009017 0.4223402557 -0.3663105283 0.4216491683 -0.3664038009 -0.1161515521 0.1330488439
350297900.0 -0.1224618981 0.1208835882 0.4175107909 -0.3711059938 0.4179830554 -0.3710268184 -0.1152557537 0.1347563443
355297870.0 -0.1215519857 0.121843362 0.4136438547 -0.3757286149 0.41390134 -0.3757218755 -0.1138321223 0.1363525933
360297840.0 -0.1204238939 0.1234068214 0.4096688563 -0.380486651 0.4096850372 -0.3807906529 -0.1121839249 0.1377543895
365297810.0 -0.1193561781 0.1245566668 0.4053922842 -0.3847690836 0.4055897625 -0.3853689978 -0.1109940156 0.139625198
370297780.0 -0.1180143611 0.1258318363 0.400864127 -0.3891092146 0.4013205403 -0.3891075406 -0.1094780868 0.140534837
375297750.0 -0.1168857838 0.1275786119 0.3974735765 -0.3936337712 0.3968941974 -0.3940654096 -0.1078194682 0.1421595359
380297720.0 -0.1153929481 0.1282120703 0.3925846411 -0.3976422223 0.3924545369 -0.3980230306 -0.1058512934 0.143671725
385297690.0 -0.1143168376 0.1298750064 0.3881329644 -0.4017854611 0.3879754823 -0.4022900699 -0.1046588681 0.1453789456
390297660.0 -0.1132656878 0.1308734717 0.3834336764 -0.4069738062 0.3839726424 -0.406781449 -0.1030948248 0.1458935851
395297630.0 -0.1116734324 0.1319103387 0.3792794902 -0.4102309545 0.3793670411 -0.4106635477 -0.1013432262 0.1478844845
400297600.0 -0.1106711798 0.1334048645 0.374205168 -0.4152217591 0.374873117 -0.4151455312 -0.1001967187 0.1488545793
405297570.0 -0.1093609992 0.1346932642 0.3700089953 -0.4188638601 0.37003633 -0.4189792862 -0.09839677 0.1505721253
410297540.0 -0.1082237478 0.1357024075 0.3648175092 -0.4226792825 0.365284085 -0.4230745297 -0.0965941676 0.1517702479
415297510.0 -0.1067381241 0.1371593974 0.3604460511 -0.4266432842 0.3609606397 -0.4272031173 -0.0953086794 0.1532689246
420297480.0 -0.1052358868 0.137961735 0.3556618014 -0.4309529594 0.3561515072 -0.4309495516 -0.0933034875 0.1538373667
425297450.0 -0.1039682884 0.1389904878 0.3514375457 -0.4344068895 0.3518816407 -0.4350121347 -0.0919219682 0.1558287774
430297420.0 -0.102893217 0.1405500731 0.3467420058 -0.4388993476 0.3464521867 -0.4387266997 -0.090349374 0.1564545692
435297390.0 -0.1014075688 0.1415469774 0.3416044103 -0.4422084274 0.341785652 -0.4423248282 -0.0885454501 0.1580425943
440297360.0 -0.1000108483 0.1425626144 0.3366920529 -0.4458998476 0.3365728234 -0.4459821354 -0.0868369997 0.1590098563
445297330.0 -0.0982242763 0.1435651056 0.3314471829 -0.4498936338 0.3318901851 -0.4497138517 -0.0850716453 0.1600713422
450297300.0 -0.0969164319 0.1445750406 0.326732339 -0.453043194 0.3272280104 -0.453527114 -0.0834211803 0.1615478645
455297270.0 -0.095737353 0.1457184527 0.3222830627 -0.456612165 0.3224264083 -0.4568456023 -0.081243038 0.1625308379
460297240.0 -0.0944366294 0.1471269251 0.3169190589 -0.4601510264 0.3166215395 -0.4603285146 -0.0794803567 0.163844298
465297210.0 -0.0926318007 0.1477689013 0.3122809694 -0.4638051781 0.3122641168 -0.4635516527 -0.0782847849 0.1646912811
470297180.0 -0.0914927934 0.1489982921 0.3068441002 -0.4671471254 0.307097049 -0.4670600952 -0.0767621023 0.1659843557
475297150.0 -0.0899469248 0.1495597753 0.301425598 -0.4699030433 0.3017029784 -0.4701226715 -0.074511332 0.1669606831
480297120.0 -0.0885423132 0.1503311636 0.2963184942 -0.4734893581 0.2969148276 -0.4733095797 -0.0727601683 0.1684884819
485297090.0 -0.0868118252 0.1514403132 0.2918342596 -0.4766154026 0.2914602279 -0.4767254749 -0.0712203584 0.1689029226
490297060.0 -0.0856769685 0.1523801208 0.286251211 -0.4798094705 0.2863302556 -0.4797997828 -0.0690236205 0.1703195675
495297030.0 -0.0841674777 0.1536790876 0.2809515387 -0.4833932334 0.2804497272 -0.4830007782 -0.0671157604 0.1707176398
500297000.0 -0.0824908416 0.1540710616 0.2755972805 -0.4856304979 0.2759735842 -0.4859771384 -0.0655371887 0.1719430641
505296970.0 -0.0813388959 0.1554946413 0.2699325447 -0.4887356052 0.2703977867 -0.4888054808 -0.0644987699 0.1727015022
510296940.0 -0.0796769521 0.1563618942 0.264933856 -0.4918834344 0.2650948324 -0.49184919 -0.061626549 0.1740104815
515296910.0 -0.0783362627 0.1572447814 0.2591742915 -0.494107831 0.2596230617 -0.4945798614 -0.060118848 0.1745158822
520296880.0 -0.0766086523 0.158032131 0.2540105754 -0.4972282792 0.2545973342 -0.497143604 -0.0582155387 0.1755146241
525296850.0 -0.0752537042 0.158691259 0.248582096 -0.4999145779 0.2489656331 -0.5002066769 -0.0559694901 0.1763483031
530296820.0 -0.0735559496 0.1598008832 0.2434508101 -0.5019924942 0.2432944575 -0.5023365973 -0.0547921069 0.1768522635
535296790.0 -0.0721492306 0.1604448023 0.2376962976 -0.5048891594 0.2376361109 -0.5050052245 -0.0526264807 0.177321653
540296760.0 -0.0703637341 0.1611115945 0.2323926092 -0.5078152011 0.2320353949 -0.5076544393 -0.0510427526 0.1787486557
545296730.0 -0.0688869483 0.162296421 0.226498305 -0.5098655813 0.2266180379 -0.5102806107 -0.0489445279 0.1790704074
550296700.0 -0.0675068054 0.1630716347 0.2211263695 -0.5125682931 0.2214264816 -0.5129321155 -0.0472556658 0.1802501366
555296670.0 -0.0655950964 0.1636371472 0.2156987912 -0.5151118496 0.215944156 -0.514776085 -0.0450614415 0.1810120068
560296640.0 -0.0641624264 0.1644466653 0.2102461034 -0.5169922425 0.210073626 -0.5172994824 -0.0431198122 0.1814052138
565296610.0 -0.0629473272 0.1649946594 0.2044709669 -0.5192658607 0.2042278027 -0.5197022814 -0.0413812299 0.1820571417
570296580.0 -0.0608254181 0.1656751443 0.198741885 -0.5212530152 0.1987849404 -0.5217694065 -0.0392677128 0.1831804771
575296550.0 -0.0592199419 0.1669314549 0.192999561 -0.5237801755 0.1931388977 -0.5235569455 -0.037065869 0.183326007
580296520.0 -0.0579182813 0.1673300629 0.1878360516 -0.5258899524 0.1872317236 -0.5259049608 -0.0355601337 0.1838469012
585296490.0 -0.0560185945 0.167931915 0.1815282393 -0.5276968373 0.1815657531 -0.5276241379 -0.0336906094 0.1840345998
590296460.0 -0.0549115712 0.168299065 0.1761742432 -0.529376874 0.1757396631 -0.529593993 -0.0313521235 0.1850796488
595296430.0 -0.0529615722 0.1693657395 0.1704156651 -0.5310826676 0.1701431732 -0.5315417854 -0.0294416485 0.1854319995
600296400.0 -0.0514834537 0.1700180329 0.1648647522 -0.5330048919 0.1649159432 -0.533177697 -0.0272974051 0.1861006432
605296370.0 -0.0494913502 0.1709421541 0.158651179 -0.5347756905 0.1588454267 -0.5348332756 -0.0253196217 0.1863176428
610296340.0 -0.0480019039 0.1713685056 0.1533508331 -0.5365299753 0.1533020194 -0.5367636486 -0.0232477514 0.1870025655
615296310.0 -0.0462016473 0.1721231632 0.1471259543 -0.5378562303 0.1471864935 -0.538310262 -0.0215329351 0.1872440119
620296280.0 -0.0448434218 0.1722204605 0.1415069636 -0.5396913419 0.1413614604 -0.539755528 -0.0193711724 0.1874993484
625296250.0 -0.0428283163 0.1731901243 0.1351169082 -0.5413890531 0.1355266402 -0.5415868162 -0.0169963312 0.188099126
630296220.0 -0.0410421795 0.173538515 0.1293443019 -0.5425001019 0.1298977753 -0.5426916829 -0.0157402234 0.1884919009
635296190.0 -0.0396251261 0.1740260387 0.1235871842 -0.5432573865 0.1236857761 -0.5437355598 -0.0135178715 0.1887460415
640296160.0 -0.037937373 0.1746674957 0.1178401628 -0.5452027797 0.1176531546 -0.5451317611 -0.0109178978 0.1885952496
645296130.0 -0.0363546273 0.1755722506 0.1122147852 -0.5470854494 0.1118209203 -0.5463640598 -0.009651807 0.1884804754
650296100.0 -0.0346080257 0.176129854 0.1066232653 -0.5474164488 0.1060993222 -0.5474712247 -0.0073787936 0.1892878714
655296070.0 -0.0327846074 0.1760435085 0.0997772901 -0.5483737758 0.0998946629 -0.5484826201 -0.0046884478 0.1894797015
660296040.0 -0.0315879375 0.176922275 0.0946112389 -0.5491856053 0.0947646738 -0.5493164511 -0.0031663907 0.1893201838
665296010.0 -0.0294574212 0.1770138372 0.0884866615 -0.5503622609 0.0887088457 -0.5503395821 -0.0011121952 0.1898255347
670295980.0 -0.0271565343 0.1776178402 0.0821679642 -0.5510483224 0.0827896808 -0.5515569589 0.0005773152 0.1901214559
675295950.0 -0.0257466077 0.1780392743 0.0762703231 -0.5523805817 0.0766378039 -0.5527041349 0.0029110397 0.1901951911
680295920.0 -0.024035672 0.1788895633 0.0702893184 -0.5529769469 0.0702038255 -0.5530473903 0.0050052387 0.1900022381
685295890.0 -0.0223895146 0.1786588138 0.0647300343 -0.5534991104 0.0642422282 -0.5541795155 0.0073098339 0.1904534973
690295860.0 -0.020331325 0.1791906205 0.0586066073 -0.5536541038 0.0581913841 -0.553965222 0.0095000077 0.190423662
695295830.0 -0.018679036 0.1793498121 0.0519947439 -0.5545702742 0.0517893614 -0.5547777887 0.011055145 0.1906698394
700295800.0 -0.0168065143 0.1799073222 0.046344515 -0.5553261681 0.0465640301 -0.555751232 0.0131725614 0.1902223159
705295770.0 -0.0149729904 0.1802854997 0.0401503647 -0.5557037386 0.0402007487 -0.5558723086 0.0156107556 0.190665011
710295740.0 -0.0133142445 0.1809529205 0.0341191428 -0.556151682 0.0341664361 -0.5559872567 0.0168620958 0.1907913238
715295710.0 -0.0119424864 0.1810109095 0.0282847058 -0.5566019697 0.0285727908 -0.5565632988 0.019653038 0.1899119257
720295680.0 -0.0101580944 0.1810004645 0.0222746467 -0.5569327039 0.0224359536 -0.557072879 0.0218183809 0.1905517011
725295650.0 -0.0079167735 0.1811236926 0.0160418118 -0.5565313611 0.0163460933 -0.556994067 0.0237309538 0.1903580143
730295620.0 -0.0064693878 0.1814274005 0.0101095225 -0.5569522983 0.0102356964 -0.5573615061 0.0256781542 0.1898295012
735295590.0 -0.0043302139 0.181675927 0.0045472956 -0.5570412221 0.0047685141 -0.5570062852 0.0280955238 0.1897154514
740295560.0 -0.0028111291 0.1822754997 -0.0014708677 -0.5565488166 -0.0016986711 -0.5568657011 0.0302255264 0.1893448576
745295530.0 -0.0009685797 0.1820305892 -0.0073638092 -0.5569105726 -0.007619361 -0.5573165059 0.0320486686 0.1895861333
750295500.0 0.0009707971 0.182070054 -0.0135927156 -0.5564041281 -0.0137720353 -0.5562455446 0.0345909765 0.1889583549
755295470.0 0.0031494669 0.1828537788 -0.0193632512 -0.5562682484 -0.0194592545 -0.5568200819 0.0359938816 0.1889319638
760295440.0 0.0048203943 0.1827534487 -0.0260309507 -0.5562329031 -0.025582112 -0.5562253835 0.0377782124 0.1886014935
765295410.0 0.006164531 0.1825685599 -0.030882104 -0.5556874125 -0.0314495916 -0.5563873156 0.0407961319 0.1888660188
770295380.0 0.0083016736 0.1830493428 -0.0378211513 -0.555647438 -0.0374874154 -0.5559557406 0.0427137576 0.188314273
775295350.0 0.0097265959 0.1829003242 -0.0434079821 -0.5548669346 -0.0438636068 -0.5552064501 0.0442988181 0.1876499153
780295320.0 0.0120079208 0.1828813467 -0.0492557629 -0.5541040579 -0.049380326 -0.5545913873 0.0461916765 0.187742085
785295290.0 0.0133053335 0.1831797205 -0.0553567552 -0.5533903964 -0.0553531184 -0.553874281 0.0480496971 0.1872000638
790295260.0 0.0152583169 0.1830214733 -0.0611705372 -0.553082014 -0.0614131207 -0.5536571181 0.0505745816 0.1868561498
795295230.0 0.0170600998 0.1832926828 -0.0671373854 -0.5523721268 -0.0670493614 -0.5524713391 0.0528110487 0.1868368313
800295200.0 0.01893351 0.1832720236 -0.0739173935 -0.551938989 -0.073535951 -0.5521440695 0.0548016673 0.1859901787
805295170.0 0.0206844204 0.1831485581 -0.0788924856 -0.5505902534 -0.0793080531 -0.5506083802 0.0562419127 0.1855888159
810295140.0 0.0227449911 0.1831818197 -0.0849174813 -0.5499903405 -0.0848249186 -0.5508523813 0.0587846887 0.1854751415
815295110.0 0.024545827 0.1832095316 -0.0913014866 -0.5489911236 -0.0912379404 -0.5489242424 0.0604522759 0.1846081238
820295080.0 0.0262504483 0.1827412999 -0.0970411915 -0.5480541748 -0.0972320645 -0.5483621929 0.0625403864 0.1840702355
825295050.0 0.0282664138 0.1825182854 -0.1027586696 -0.5462162854 -0.1029904013 -0.5468826661 0.0648951132 0.1837398851
830295020.0 0.0298106881 0.1829353911 -0.109113504 -0.5455982085 -0.1092351982 -0.5461955659 0.0665573675 0.1830946601
