!Created with skrf (http://scikit-rf.org).
# Hz S RI R 50.0 
!freq ReS11 ImS11 ReS21 ImS21 ReS12 ImS12 ReS22 ImS22
300000.0 -0.0492152504 -0.0460858704 -0.0021266165 0.0009398293 0.000382944 0.0015518575 -0.7716837952 -0.1389952614
5299970.0 -0.0497403463 0.0159486447 -0.0001506374 -1.91719e-05 8.77728e-05 0.0001030734 -0.7845321674 -0.0069738681
10299940.0 -0.0443027053 0.0324754717 -0.0001987788 -0.0001997167 -5.92666e-05 0.0001720211 -0.7874534948 -0.0034085886
15299910.0 -0.0358770701 0.0470394176 0.0001921124 -0.0001797493 -3.73635e-05 0.00016074 -0.7929239897 -0.0016031912
20299880.0 -0.0262159256 0.0587417457 -0.0002569424 -0.0001177835 0.0001171233 3.67762e-05 -0.7994709148 0.0024308253
25299850.0 -0.0151295896 0.0681529877 -0.0001459388 -3.48207e-05 0.0001810495 0.0002130374 -0.8055759242 0.0083670231
30299820.0 -0.0041463111 0.0750047281 -0.0003412653 5.80742e-05 -7.46655e-05 -3.30238e-05 -0.8117613404 0.0162571785
35299790.0 0.0072709464 0.0797442296 5.39561e-05 9.46e-05 -8.56952e-05 -7.07057e-05 -0.8173373673 0.0253985294
40299760.0 0.0187029247 0.0829640736 -2.24228e-05 9.0783e-06 3.71971e-05 -4.43106e-05 -0.820888507 0.0343864647
45299730.0 0.0293890766 0.0844774167 3.26842e-05 4.03156e-05 8.1554e-06 8.08508e-05 -0.8250769612 0.0442148409
50299700.0 0.0391675534 0.084585985 -0.0001146088 -6.4532e-05 -2.41014e-05 -3.05818e-05 -0.8275839935 0.053769162
55299670.0 0.0483573002 0.0834692941 0.0002401147 -8.52502e-05 8.6866e-05 1.25385e-05 -0.8298564482 0.064307752
60299640.0 0.0569763354 0.082097566 -1.57635e-05 -4.14413e-05 -1.77412e-05 3.26592e-05 -0.8300751831 0.074605521
65299610.0 0.0646653992 0.0796906527 -6.57391e-05 0.0001265726 5.15133e-05 -0.0001710159 -0.8320974698 0.0845263152
70299580.0 0.0715784743 0.076924315 -0.0002367765 8.41931e-05 3.8961e-05 -8.77537e-05 -0.8318090311 0.0941947452
75299550.0 0.0779610244 0.0738318881 3.57024e-05 0.0002253351 9.98944e-05 7.00138e-05 -0.8321640623 0.1041637165
80299520.0 0.0837088722 0.0704808674 0.0001318522 9.34103e-05 -1.89768e-05 -1.01623e-05 -0.8321323576 0.1139578415
85299490.0 0.088781276 0.0667052849 -0.0001120098 -8.00587e-05 -3.6996e-05 0.0001243924 -0.8319672439 0.1235937507
90299460.0 0.0933249994 0.0632094034 0.0001089576 -0.0001375302 5.54779e-05 -5.67463e-05 -0.8303789256 0.1337067828
95299430.0 0.0976690616 0.059159136 1.60538e-05 9.12524e-05 0.0002484883 0.0002461055 -0.8291679521 0.1431758579
100299400.0 0.1011290106 0.0556488945 0.0001180076 0.0001090871 -4.48094e-05 -2.12498e-05 -0.8289133239 0.1523385408
105299370.0 0.1044196258 0.0518998408 4.11604e-05 -2.18127e-05 9.88074e-05 0.0001683783 -0.8262948898 0.1609018864
110299340.0 0.1075502281 0.0481072216 8.13034e-05 7.08753e-05 8.66911e-05 1.05861e-05 -0.8255906693 0.1707834039
115299310.0 0.1102633675 0.0437359316 0.0002521509 -0.0002000522 6.66899e-05 6.1655e-05 -0.8243603547 0.1797544313
120299280.0 0.1122517399 0.0399188679 0.0002583611 -0.0001241748 0.0001648254 0.0001382817 -0.822090003 0.1889222663
125299250.0 0.1140764173 0.036359165 2.2749e-06 5.97147e-05 -8.00489e-05 4.6668e-05 -0.8209088337 0.1981686085
130299220.0 0.1159409993 0.0331658149 0.0001195023 1.96649e-05 5.38703e-05 -2.54187e-05 -0.8186741519 0.2068453012
135299190.0 0.1176007125 0.029688438 5.33848e-05 0.000178901 0.0002645035 -6.24503e-05 -0.8164832807 0.2155011893
140299160.0 0.1187020648 0.0258552105 -2.51545e-05 0.0001701566 0.0002462052 -4.29313e-05 -0.8140266881 0.2249577509
145299130.0 0.1199419593 0.0226492071 0.0002960747 0.0001935117 8.03484e-05 0.0001092236 -0.8119330879 0.2340820377
150299100.0 0.1209655539 0.0189608876 8.24102e-05 -0.0001306536 0.0001324028 0.0001956792 -0.8101644857 0.2430038856
155299070.0 0.1216770177 0.0161032613 0.0001324887 -6.9272e-05 -5.07809e-05 1.75185e-05 -0.8067703588 0.2518815396
160299040.0 0.1224809997 0.0130204602 7.88982e-05 0.0001666846 6.76746e-05 0.0001332617 -0.8048852836 0.2608607762
165299010.0 0.1231573824 0.0096946606 0.0001841168 -7.31188e-05 0.0002586432 5.38376e-05 -0.8023903734 0.2692804249
170298980.0 0.1232132756 0.0067214711 -4.85325e-05 0.0002435569 0.0001538362 0.0002248871 -0.7990023903 0.2779574333
175298950.0 0.123626464 0.0038860627 -0.0001191994 0.0001947914 8.13244e-05 6.67529e-05 -0.796685947 0.2867059819
180298920.0 0.1240955407 0.0010104352 -8.40171e-05 -8.04073e-05 0.0001801316 0.000127754 -0.7934734756 0.2952008126
185298890.0 0.1241644162 -0.0018484343 2.45155e-05 0.0001913023 1.45839e-05 0.0001523058 -0.790163774 0.3037516549
190298860.0 0.1243914467 -0.0045400898 -0.0001269249 0.0002137923 0.0001145047 3.21767e-05 -0.7876122941 0.3124384427
195298830.0 0.1240025276 -0.0072266977 -0.0001412314 0.0002135315 3.49761e-05 6.76315e-05 -0.7843747965 0.320864524
200298800.0 0.1241526467 -0.0097488729 0.0001612552 7.70941e-05 0.0002027896 7.5492e-06 -0.7816314319 0.3292637138
205298770.0 0.12383812 -0.0126192997 -0.0001089209 0.0001487764 -2.77629e-05 2.53842e-05 -0.777429866 0.3374889778
210298740.0 0.1236275074 -0.014862744 0.0001115856 0.0001203849 0.0001365368 0.0001683493 -0.7742527666 0.3460440946
215298710.0 0.1232547542 -0.0173839237 0.0003397413 8.91317e-05 0.0001051505 8.63385e-05 -0.7708618472 0.3541388419
220298680.0 0.122745235 -0.0198420517 -4.31636e-05 0.0001205509 -5.31916e-05 -5.265e-05 -0.7670586561 0.3619126728
225298650.0 0.1223509994 -0.0222049197 6.0402e-05 0.0001545496 -0.0001130452 8.47252e-05 -0.7634000261 0.3704698506
230298620.0 0.1217599851 -0.024383607 5.30501e-05 6.26694e-05 0.0001400159 -3.9597e-05 -0.7597237798 0.3784009858
235298590.0 0.1215890903 -0.0265037493 0.0001113861 3.38884e-05 0.0003304424 -5.43503e-05 -0.755349794 0.3873626281
240298560.0 0.120946773 -0.028913044 4.86673e-05 0.0001488302 -1.89038e-05 0.0002188408 -0.7513339519 0.3953532886
245298530.0 0.1201127821 -0.0309104358 0.0001155783 3.32899e-05 -0.0001226532 9.78951e-05 -0.747510411 0.4021105995
250298500.0 0.1199638179 -0.0331908178 2.99171e-05 0.0001671529 0.0002397513 8.46107e-05 -0.7435553403 0.4107570332
255298470.0 0.1186790375 -0.0353562376 7.20632e-05 7.45903e-05 4.89571e-05 0.0001355509 -0.738469009 0.4176271245
260298440.0 0.1180587084 -0.0373339538 0.0002361072 0.0001909839 0.000162511 0.0001555388 -0.7348305704 0.4259831464
265298410.0 0.1176709102 -0.0392235795 0.0002117724 0.0002216053 0.000105686 0.0002490068 -0.7299509142 0.4338649733
270298380.0 0.1167613305 -0.0412150853 0.0002892286 -5.6045e-06 0.00011337 0.0001018962 -0.7253439123 0.4413272421
275298350.0 0.1159232019 -0.0429121807 0.0002806518 3.2974e-05 0.0002926732 6.15694e-05 -0.7207812899 0.4484009303
280298320.0 0.1153955918 -0.045109088 0.000139173 0.0002085324 0.0002023362 0.0001223108 -0.7154835784 0.4560342854
285298290.0 0.1147608004 -0.0466084389 0.0001089269 -2.59972e-05 0.0001351655 0.000142872 -0.7106073124 0.4633198379
290298260.0 0.1137580761 -0.0485832334 0.0002103965 0.0004236138 -0.0001148969 9.12759e-05 -0.7060338218 0.4710797653
295298230.0 0.112994096 -0.0504903484 -3.12869e-05 9.23567e-05 0.000342684 0.0001206867 -0.700920785 0.4779393614
300298200.0 0.1119383956 -0.0521186941 -0.0001766918 0.0003006746 0.0001162041 2.32672e-05 -0.6957314525 0.4853332983
305298170.0 0.111506153 -0.053911453 0.0002833712 0.0002372189 0.0001010242 2.15493e-05 -0.6901921125 0.4928519748
310298140.0 0.1105728443 -0.0556799801 1.09866e-05 8.87522e-05 0.0001059551 9.42448e-05 -0.6858193857 0.4997725799
315298110.0 0.1097210737 -0.0578031746 0.0001594561 -3.2602e-06 0.0001696215 0.000122789 -0.6796715636 0.5065839479
320298080.0 0.1088744898 -0.0595322113 4.14271e-05 0.0001624499 0.0001990148 3.4544e-06 -0.6743352449 0.5140801056
325298050.0 0.1075856512 -0.0611220201 0.0001261104 0.0002525353 0.0001553435 4.47509e-05 -0.6683269516 0.5210855913
330298020.0 0.1064936801 -0.0630388041 0.0004151064 0.0001297268 0.0001711933 -1.79729e-05 -0.6633754659 0.5283756396
335297990.0 0.1050922314 -0.0646990849 0.0003772773 0.0002275949 0.0002074267 0.000148344 -0.6581961976 0.5353955735
340297960.0 0.1036118641 -0.065834288 -3.38581e-05 0.000108732 0.0001571612 0.0001565053 -0.6523689132 0.5424370477
345297930.0 0.1025149289 -0.0669876033 0.0002014423 0.000203912 0.0001032534 -5.8561e-06 -0.6462287098 0.5483345665
350297900.0 0.1011480853 -0.0684468137 0.0002317052 0.0001068445 0.0001002258 6.9795e-05 -0.6411347128 0.5554404633
355297870.0 0.1003445609 -0.0699480056 0.0001299176 2.21467e-05 0.0003233424 0.0001317836 -0.6356640605 0.5621951214
360297840.0 0.0989818645 -0.0712919933 0.0001722463 0.0001972762 0.0001389412 4.79997e-05 -0.6296581498 0.5686346036
365297810.0 0.0974473914 -0.0720424167 0.0001209546 0.0003462064 1.85717e-05 3.87355e-05 -0.6228657456 0.5752558757
370297780.0 0.0966123696 -0.0738070874 5.45344e-05 7.90437e-05 0.0001444184 0.0001366376 -0.6169946412 0.5819343645
375297750.0 0.0953561707 -0.0749160598 0.0002277843 -6.43038e-05 0.0002363938 8.91364e-05 -0.6113615114 0.587784695
380297720.0 0.094188075 -0.076246092 0.0002176936 0.0001461555 0.0001353822 0.0001312381 -0.6054521982 0.5947565637
385297690.0 0.0926619129 -0.0769911378 0.0001935432 -9.5095e-06 0.0002272079 4.78882e-05 -0.5990605508 0.6009819981
390297660.0 0.0913998779 -0.0783299851 0.0003795641 -8.36184e-05 0.0002114652 -1.77034e-05 -0.5928555977 0.6067639588
395297630.0 0.0905645222 -0.079406172 0.0002243445 0.0002055522 0.0002348733 0.0002261127 -0.5864924905 0.6132835449
400297600.0 0.089337632 -0.0802895526 0.0001788167 8.0724e-05 3.55863e-05 0.0001535327 -0.580706899 0.6189586797
405297570.0 0.0878219233 -0.0815770595 0.0002846112 0.0001746352 8.93657e-05 0.0001237124 -0.5736481335 0.624782243
410297540.0 0.0862694524 -0.082538392 0.0001206025 -1.75219e-05 0.0002187928 8.97526e-05 -0.5672995811 0.6308924242
415297510.0 0.0854093389 -0.0840133915 0.0002283342 2.17507e-05 0.0003754201 0.000122049 -0.5611042276 0.6367034698
420297480.0 0.0842343509 -0.0847064105 0.0001400704 0.0002420872 0.0003516717 0.0001139788 -0.5545264721 0.6427848998
425297450.0 0.0827802267 -0.085671841 0.0002938319 2.98633e-05 0.0001616105 0.0002372552 -0.5477020474 0.6478279421
430297420.0 0.081630513 -0.0868716351 0.0003710836 0.0002152246 4.01001e-05 0.0002347691 -0.5410944095 0.6532603656
435297390.0 0.0799830569 -0.0875855171 0.0003678734 1.02495e-05 0.0001273356 8.99382e-05 -0.5334876253 0.6585529321
440297360.0 0.0788172837 -0.0887977081 0.0002959367 0.000123458 0.0002381759 0.0001534364 -0.5272415705 0.6634081976
445297330.0 0.0773577039 -0.0899894933 6.54591e-05 -0.0001958118 0.0004737114 0.000164254 -0.5202834247 0.6687185103
450297300.0 0.0765363787 -0.0906365763 0.0003216008 -1.20388e-05 9.65547e-05 0.0001285063 -0.5130308221 0.6739491374
455297270.0 0.0746805187 -0.0914380369 0.0004746573 -7.02019e-05 0.000317655 0.0001000613 -0.5062056165 0.6787650408
460297240.0 0.0735638116 -0.0923589546 0.0001780857 0.0001828669 -2.36918e-05 -0.0001353349 -0.4994778215 0.684106177
465297210.0 0.0722701836 -0.0930197812 0.0002101697 9.0074e-06 0.0001857455 4.55803e-05 -0.4918616515 0.6888725304
470297180.0 0.0708630414 -0.093949648 0.0001861808 0.0001746927 0.0003398826 0.000122932 -0.4844784251 0.6946143888
475297150.0 0.0694693698 -0.0946902314 0.0002298922 -0.000159754 0.0002236724 0.0001593516 -0.4774708098 0.6983954616
480297120.0 0.068031221 -0.0954163839 0.0002577075 -1.99786e-05 0.000429296 7.28861e-05 -0.4700739656 0.7038635824
485297090.0 0.0666787516 -0.0962756836 0.0002507971 -0.0002830687 0.0001925588 -2.10756e-05 -0.4627730049 0.7081169485
490297060.0 0.0651651445 -0.0966574062 0.0002237994 0.0001460452 0.000212428 0.0003012331 -0.4555124696 0.7122593418
495297030.0 0.0637550921 -0.097364568 0.0001104983 6.23558e-05 0.0002998484 8.7109e-05 -0.448433274 0.7173532535
500297000.0 0.0625797011 -0.0983433182 0.0005191284 0.0002861979 0.0005156499 0.0002719921 -0.4410437335 0.7222059054
505296970.0 0.0613178487 -0.0990252015 0.0002197216 -5.47649e-05 0.0002896626 0.0001866324 -0.4331783158 0.7260623303
510296940.0 0.0597899137 -0.0995577028 0.0002107632 -0.0003168175 0.0002796287 0.0001066529 -0.4259586014 0.7307100515
515296910.0 0.0585878185 -0.1002134482 0.0002553282 9.70044e-05 0.0004684301 8.02071e-05 -0.4178710448 0.7351976236
520296880.0 0.0568471511 -0.1006799212 0.0001916949 0.0001715779 0.0003281659 0.000104278 -0.4107466373 0.7390937522
525296850.0 0.0555879051 -0.1014924169 0.0002339907 -0.0002201082 0.0004604754 -0.0001149182 -0.4039259104 0.7435185151
530296820.0 0.0543825582 -0.1017251604 0.0003011779 7.37093e-05 0.0003391071 0.000131046 -0.3961709353 0.7475403073
535296790.0 0.0527335491 -0.1022320213 0.0002565782 0.0002128813 0.0003082493 -2.71869e-05 -0.3887256579 0.7514463072
540296760.0 0.0509551997 -0.1026008025 7.70588e-05 7.72448e-05 0.0002498377 0.0001914846 -0.380540326 0.7556022623
545296730.0 0.0496438585 -0.103186285 0.0001667283 6.05323e-05 0.0001204814 -0.0001209749 -0.3733090979 0.7590049889
550296700.0 0.0488317851 -0.1035485348 0.000362443 0.0001358132 0.0003392226 0.0001839021 -0.3652021345 0.7636627752
555296670.0 0.0470477997 -0.1042692324 0.0002487632 0.0002241259 0.0003529581 -2.2578e-06 -0.3577168762 0.7672421089
560296640.0 0.0459858429 -0.1044906967 0.00042795 0.0001462946 0.0004016936 -1.6949e-05 -0.3500097459 0.770667518
565296610.0 0.0440889804 -0.1048704379 0.000291551 0.0003156468 0.0001447924 1.50503e-05 -0.3421658532 0.7742444872
570296580.0 0.0428872078 -0.1055121339 0.0004419844 0.0001262918 0.0003726389 -2.98241e-05 -0.3349108036 0.777820062
575296550.0 0.0412168638 -0.1055609135 0.0002563079 0.0001062025 0.0002670965 1.92031e-05 -0.3267682227 0.7806526812
580296520.0 0.0398361197 -0.106138601 0.0003276591 0.0001410725 0.0003796532 2.21957e-05 -0.3179025205 0.7842616177
585296490.0 0.0382322842 -0.1065047247 0.0002199716 -5.31877e-05 0.0003329671 0.000155294 -0.3102891245 0.7874854497
590296460.0 0.0372336156 -0.1064038269 0.0004190704 6.4798e-05 0.0003811959 4.17397e-05 -0.3030054191 0.7903206878
595296430.0 0.0353375553 -0.1067881133 0.0002672443 -1.42513e-05 0.0003222302 0.0001681582 -0.2946037866 0.7925728054
600296400.0 0.0337155533 -0.1073659286 0.0005790758 5.8988e-05 0.0002513692 -0.0002766308 -0.2864633384 0.7954623311
605296370.0 0.0324999295 -0.1076453002 0.0004458437 4.16592e-05 0.0002619084 0.0002512367 -0.2780681042 0.7982966784
610296340.0 0.0310265305 -0.1076542535 0.000114193 6.5017e-06 0.0003769465 0.0001604174 -0.2704073188 0.8012269649
615296310.0 0.0297647211 -0.1076738383 0.0002689021 8.58426e-05 0.0002892447 0.0001481584 -0.2614511377 0.8030637629
620296280.0 0.0280667733 -0.1081663623 0.0002611792 0.0002438606 0.000358968 0.0001400005 -0.254078964 0.8058466897
625296250.0 0.0266387912 -0.1083722176 0.0001928319 2.98728e-05 0.0003058296 -8.52189e-05 -0.245143499 0.808063588
630296220.0 0.0255376612 -0.1087372204 0.000394843 -0.0001859368 0.0001609827 4.02569e-05 -0.2372018767 0.8103955781
635296190.0 0.0236728588 -0.1085456968 0.0003696723 -0.0001787837 0.0004012995 -7.71668e-05 -0.2295673441 0.8127304161
640296160.0 0.0224865443 -0.1087583021 9.08685e-05 -0.0001148742 0.000447266 0.0001779702 -0.2211193355 0.8151986566
645296130.0 0.0209556909 -0.1085550049 0.0003818369 -4.89078e-05 0.0004435984 -3.41843e-05 -0.2127113037 0.8174166292
650296100.0 0.0194844727 -0.1085866508 0.0002113718 0.0002682062 0.000388689 -6.39357e-05 -0.2044743151 0.8187334568
655296070.0 0.0179629332 -0.1088579289 0.0004451653 -0.0002206106 0.0003475313 0.000195026 -0.1959151144 0.8208755404
660296040.0 0.0163272186 -0.1088749436 0.0004801918 -0.0001481293 0.0004035288 -0.000107026 -0.1873366705 0.8233005707
665296010.0 0.0150795281 -0.1090596953 0.0003524797 -9.6091e-06 0.0004682139 2.54549e-05 -0.1789431641 0.8249767228
670295980.0 0.0134385388 -0.1088527063 0.0001413123 -5.7086e-05 0.0003815215 7.81919e-05 -0.1716672498 0.8262921012
675295950.0 0.0123913355 -0.1087221171 0.000402561 7.76145e-05 0.0005034738 -8.39944e-05 -0.1638733023 0.8289941319
680295920.0 0.0106580217 -0.1086985131 0.0003462358 1.64474e-05 0.0003230108 -2.27546e-05 -0.1545208478 0.8309561263
685295890.0 0.0096520194 -0.1085219445 0.0003174254 8.80609e-05 0.0004570742 -2.9967e-06 -0.1461834606 0.8313223356
690295860.0 0.0078923801 -0.1085562421 0.0004990698 3.67641e-05 0.0003820038 7.40521e-05 -0.1382103959 0.8331931285
695295830.0 0.0064373588 -0.1084037321 0.0004649471 0.0002584332 0.0003697097 -0.0003115946 -0.1288635953 0.8347338891
700295800.0 0.0048948787 -0.1083934419 0.0003517829 0.0001188675 0.0002639058 -0.0001081687 -0.1217352363 0.8359364667
705295770.0 0.0034744136 -0.1081773118 0.0004385065 -7.41355e-05 0.0003397782 2.09851e-05 -0.1130079688 0.8378260235
710295740.0 0.0018074412 -0.1079198375 0.0004015345 -0.0001045744 0.0003988812 -9.60639e-05 -0.1041398628 0.8382490486
715295710.0 0.0007103474 -0.1076264864 0.0002918635 -0.0001394487 0.0004318071 4.05485e-05 -0.0961506374 0.8398603104
720295680.0 -0.0008706479 -0.107546734 0.0002625745 -3.81066e-05 0.0001984703 -4.28633e-05 -0.0876327286 0.8407806989
725295650.0 -0.0020426189 -0.1072101401 0.0002247315 -2.01006e-05 0.0004751348 -3.30147e-05 -0.0795831236 0.8420476489
730295620.0 -0.0035707128 -0.1070020882 0.0004605767 -0.0002536841 0.0007632356 7.75497e-05 -0.0714223439 0.8423836567
735295590.0 -0.0049617292 -0.1065276547 0.0005785113 -6.58856e-05 0.000365571 -0.0001006476 -0.063048571 0.8423582276
740295560.0 -0.0066143908 -0.1064823075 0.0003701719 -0.000213666 0.0005056853 -3.09312e-05 -0.0539330715 0.8440431562
745295530.0 -0.0079662635 -0.1062491216 0.0006152007 -0.0001470329 0.000450688 -0.0001047844 -0.0457078394 0.8438674508
750295500.0 -0.0089973471 -0.1059170539 0.0004193742 -5.3988e-05 0.0003577569 -6.07455e-05 -0.0373498677 0.8442878804
755295470.0 -0.0108073735 -0.1055248538 0.0005668899 9.46035e-05 0.0005736499 -6.11257e-05 -0.0291931172 0.8440315678
760295440.0 -0.0121995839 -0.1052085605 0.000276764 -7.461e-07 0.0003623416 -6.10148e-05 -0.0211732145 0.8438749186
765295410.0 -0.0135116863 -0.1046647102 0.0005311623 -7.8444e-05 0.000581999 -0.0001262453 -0.0119989604 0.8445490245
770295380.0 -0.015116916 -0.1043858543 0.0002570911 -0.0001529964 0.0005012697 2.35529e-05 -0.0036805385 0.8444880612
775295350.0 -0.0164964123 -0.1040068411 0.0005473056 -0.0002011085 0.0002026325 1.5023e-05 0.004167364 0.8439353861
780295320.0 -0.0176010481 -0.1036306816 0.00023037 -6.89561e-05 0.0004422067 6.73829e-05 0.0122757385 0.8441518365
785295290.0 -0.0189797726 -0.1035483324 0.0004627176 -0.0002683549 0.0003662768 5.80202e-05 0.0210316956 0.8440077293
790295260.0 -0.0202277906 -0.1026740073 0.0002425996 -0.0001343254 0.0002464221 -0.0001848953 0.029918971 0.8441472429
795295230.0 -0.0217237821 -0.1020959804 0.0005337422 -0.0002063876 0.0004332125 -7.50806e-05 0.0387444652 0.8424464615
800295200.0 -0.0231503029 -0.1017633614 0.0004631515 3.31913e-05 0.0005651605 -2.03609e-05 0.0468896205 0.8424965127
805295170.0 -0.0242301319 -0.1014706075 0.0002918646 -0.0002125145 0.0004486709 -0.0002898093 0.0551825904 0.8426187235
810295140.0 -0.0256171277 -0.1008298105 0.0002470049 4.68099e-05 0.0003625833 -0.0002137089 0.0632369103 0.8414208029
815295110.0 -0.0270656729 -0.1005541436 0.0002169535 -0.0002075415 0.0001975952 0.0001170763 0.0718335142 0.8407384092
820295080.0 -0.0283488637 -0.1000296462 0.00028324 0.0001074513 0.0001922495 -0.0003816006 0.08046883 0.8403966873
825295050.0 -0.0295649644 -0.0994066452 0.0005049887 -2.79462e-05 0.0005303109 -0.0003152632 0.0884717811 0.8391369017
830295020.0 -0.0305507946 -0.0986399048 0.0004591823 -4.16763e-05 0.0003554748 -9.18e-08 0.0977950573 0.8384654976
835294990.0 -0.0317815836 -0.0978860347 0.0003523643 2.06031e-05 0.0004172436 3.7523e-06 0.1056451795 0.8377756168
840294960.0 -0.0334827969 -0.0973082716 0.0004326365 -0.0004124264 0.0004171364 -8.79634e-05 0.1137580597 0.8361170621
845294930.0 -0.0345995228 -0.0968205451 0.0005845639 -0.0002065533 0.0005426394 -3.46548e-05 0.1220269478 0.8351516338
