!Created with skrf (http://scikit-rf.org).
# Hz S RI R 50.0 
!freq ReS11 ImS11 ReS21 ImS21 ReS12 ImS12 ReS22 ImS22
300000.0 -0.7751182173 -0.101508582 -0.0011191928 -0.0004532275 -0.0008018046 0.0015019167 -0.0467781428 -0.061178195
5299970.0 -0.7851463758 -0.0055080361 2.63413e-05 -4.51581e-05 5.49383e-05 3.80024e-05 -0.0457869653 0.0154074589
10299940.0 -0.7879099693 -0.0036369185 -0.0001633866 -3.84798e-05 4.06932e-05 -0.0002495662 -0.0397134147 0.0338731713
15299910.0 -0.7937203289 -0.0017351852 0.0001588727 -0.0001687938 0.0001928323 -0.0001239286 -0.0313166925 0.0482107937
20299880.0 -0.8004375231 0.0021942306 -0.000107812 -0.0002647562 -1.59051e-05 -0.0001108815 -0.0210401185 0.0602798995
25299850.0 -0.8061972536 0.0080302837 -1.23901e-05 -4.345e-07 0.0001705735 -2.33216e-05 -0.0099657665 0.0693877378
30299820.0 -0.8124673625 0.0151792348 -0.0002216624 -9.19113e-05 0.0001547322 -5.09253e-05 0.0019675046 0.0763213297
35299790.0 -0.816921373 0.0244254329 -1.21355e-05 0.0002522282 3.07049e-05 -0.0001101203 0.0132524747 0.0815974023
40299760.0 -0.8214051014 0.0337290375 3.77827e-05 -0.0001125118 -0.0001416858 -8.42733e-05 0.0245211766 0.0840453443
45299730.0 -0.8248960901 0.0430488546 3.99795e-05 3.91174e-05 7.09948e-05 0.0001140172 0.0352614536 0.0859299905
50299700.0 -0.8272118664 0.0529146732 0.0001570656 7.76654e-05 8.29274e-05 -7.86761e-05 0.0453819571 0.0852898712
55299670.0 -0.8291697011 0.0631463026 8.0756e-05 -0.0002174158 9.02087e-05 -2.63807e-05 0.0545803726 0.0842839873
60299640.0 -0.8301091257 0.0735178418 0.0001068434 0.0001624301 8.74008e-05 6.42333e-05 0.0632159878 0.0825187192
65299610.0 -0.8314305624 0.0836204904 -2.68874e-05 -0.0001119029 0.000121614 0.0001316277 0.0705335948 0.0800808737
70299580.0 -0.8321035075 0.09382941 -0.0001686971 5.25157e-05 -1.71893e-05 0.0001354063 0.0776227975 0.0772060014
75299550.0 -0.8321954584 0.103603845 -0.0001183228 2.4211e-05 -0.0001870439 5.7101e-05 0.0840956041 0.0736456928
80299520.0 -0.83160119 0.1136742328 8.1217e-06 -0.000175934 5.91094e-05 2.6448e-06 0.0897637322 0.0703254647
85299490.0 -0.8307438026 0.1227054516 3.11503e-05 0.0001671622 0.0001677621 0.0001668505 0.0944519873 0.0667196995
90299460.0 -0.830523584 0.1323968261 -2.3375e-05 -2.1168e-06 9.37095e-05 0.0001174006 0.099389853 0.0628548916
95299430.0 -0.8287400168 0.1416449459 0.000142037 4.50372e-05 0.0001640328 -7.80752e-05 0.1032858969 0.0592219133
100299400.0 -0.8284011676 0.1510385425 -0.0001122724 -3.489e-05 -3.27589e-05 0.0002562967 0.1070863234 0.0549548231
105299370.0 -0.8270398674 0.1605193709 -0.0002649069 4.557e-05 6.38436e-05 -1.19653e-05 0.1105302712 0.0511239092
110299340.0 -0.8254636789 0.1692209234 -3.22929e-05 -5.57622e-05 4.26756e-05 0.00018633 0.1132796293 0.047255869
115299310.0 -0.823960298 0.1789266064 1.1433e-05 7.97104e-05 -5.67376e-05 5.48243e-05 0.1161099067 0.0433493567
120299280.0 -0.8222065175 0.1871833176 4.41524e-05 0.0001751434 -2.16866e-05 -2.46351e-05 0.1180983219 0.0394440318
125299250.0 -0.8202944858 0.1964253772 -2.22794e-05 8.77332e-05 9.4991e-05 0.0002338704 0.1202080849 0.0356053921
130299220.0 -0.8182768967 0.2059371281 6.88207e-05 2.87576e-05 9.2042e-05 1.22284e-05 0.1218793938 0.0315762907
135299190.0 -0.816746026 0.2145873731 9.19458e-05 0.0001711766 -5.54821e-05 4.68807e-05 0.1236112126 0.0284877091
140299160.0 -0.8149386578 0.223516662 -0.000206876 0.0002414653 -7.83596e-05 -0.0001094059 0.1249257828 0.0252494357
145299130.0 -0.8128423246 0.2324293638 -0.0001249113 0.0003446681 8.44544e-05 8.39021e-05 0.1259732354 0.0216044548
150299100.0 -0.8100993721 0.2408584165 0.0002120059 0.0002089532 -6.39804e-05 0.0002515777 0.1270708074 0.0187786315
155299070.0 -0.8074073481 0.2501531047 -1.55621e-05 9.11629e-05 1.04438e-05 -1.30468e-05 0.1278571654 0.015259256
160299040.0 -0.8050456357 0.2580407973 3.3911e-05 -8.42824e-05 -0.0002401304 0.0002174965 0.1283596335 0.012175877
165299010.0 -0.8027399247 0.2671754611 -0.00013171 1.62973e-05 6.31081e-05 0.0001027477 0.129001175 0.0088862948
170298980.0 -0.8002109954 0.2752260892 0.0001880174 9.03689e-05 3.14826e-05 -0.0001127011 0.1295336976 0.0058578108
175298950.0 -0.7970700315 0.2844119062 -7.53403e-05 3.15061e-05 4.37794e-05 -1.62948e-05 0.1295621609 0.0033038909
180298920.0 -0.7945399048 0.2932068542 0.0001626209 8.20669e-05 -1.7006e-05 -0.0001076326 0.129837197 0.0005208527
185298890.0 -0.7912380557 0.3009732321 7.42361e-05 2.51466e-05 -0.0001132889 9.28676e-05 0.1302095173 -0.0025461971
190298860.0 -0.7882598177 0.3100911797 -0.000190059 0.00029452 0.0001370635 0.0001358196 0.1306940497 -0.0049334874
195298830.0 -0.7854815572 0.3175368062 0.0001216697 0.000171742 3.61129e-05 0.0002636964 0.1300978761 -0.007695545
200298800.0 -0.7810984871 0.3264161476 -2.3043e-06 6.25132e-05 0.0001208055 0.0002254573 0.1299252578 -0.0105179158
205298770.0 -0.7783200578 0.3343245798 7.3383e-06 6.61785e-05 5.64643e-05 -1.65949e-05 0.1296268645 -0.0131416985
210298740.0 -0.7747263239 0.342536361 6.19647e-05 0.0002914506 0.0001214836 -1.90104e-05 0.1296792509 -0.0153628456
215298710.0 -0.7714816205 0.3509091847 0.0001174829 -2.75411e-05 0.0001435332 8.42403e-05 0.128855301 -0.0178568953
220298680.0 -0.7673480072 0.3589875063 -7.18536e-05 0.0001883107 0.0001694311 0.0002688602 0.1284933942 -0.0204191687
225298650.0 -0.7642379315 0.3667830634 -9.59683e-05 7.20986e-05 0.0001846998 0.000217288 0.1280128135 -0.022735536
230298620.0 -0.7601659125 0.3747852289 -4.78657e-05 -0.0001275522 -0.0002017304 0.0002298235 0.1277891671 -0.02467359
235298590.0 -0.7562466027 0.3835532553 9.27764e-05 0.0001496838 0.0001826441 3.07792e-05 0.1270841716 -0.0271714699
240298560.0 -0.7526364079 0.3911112878 -7.15514e-05 1.68601e-05 5.12727e-05 0.0001557484 0.1265104852 -0.0296256631
245298530.0 -0.7489391721 0.3990699929 0.0001579151 0.0001019767 0.0001631458 0.0001067392 0.1258382927 -0.0318024265
250298500.0 -0.7437283878 0.4073018467 0.0002669499 0.0003227569 0.0002486638 -8.08285e-05 0.125301432 -0.0340656466
255298470.0 -0.7390716581 0.4135677601 4.36257e-05 0.0002412457 0.0001789667 6.54112e-05 0.1244146435 -0.036539297
260298440.0 -0.7356275039 0.4220992313 9.11294e-05 3.72925e-05 1.93109e-05 0.0002583035 0.1240682357 -0.038510546
265298410.0 -0.73116743 0.4302568073 -6.47062e-05 5.23479e-05 0.0001499133 0.0003173496 0.1232940764 -0.0401936864
270298380.0 -0.7268464033 0.4377947819 0.0001418453 6.02503e-05 0.0001313336 8.89081e-05 0.1226982177 -0.0424514764
275298350.0 -0.722154707 0.4452464426 0.0001513348 0.0002829376 0.000107923 4.40993e-05 0.1222018636 -0.0442397431
280298320.0 -0.71728216 0.4521876755 8.3339e-06 0.0001604838 0.000292317 9.1882e-06 0.1213541688 -0.046325929
285298290.0 -0.7125853697 0.4603558055 0.0001873844 4.32018e-05 1.07931e-05 0.0002653422 0.1205120284 -0.0480852992
290298260.0 -0.7080010723 0.4676274128 9.19512e-05 0.000167976 0.0002159636 -4.36224e-05 0.1202134028 -0.0500927433
295298230.0 -0.702430173 0.474650338 1.47451e-05 7.54028e-05 0.0001452245 6.30489e-05 0.1196756207 -0.0520150135
300298200.0 -0.6979521181 0.4820485939 0.0003519432 -1.45978e-05 0.0001235936 0.0001829556 0.1186481664 -0.0535834963
305298170.0 -0.692765149 0.4886424838 0.0002954982 0.0001174229 7.13934e-05 -2.72034e-05 0.1182163442 -0.0559847428
310298140.0 -0.6874369289 0.4964916303 0.000236333 4.45207e-05 8.49553e-05 2.64255e-05 0.1166637177 -0.0579724182
315298110.0 -0.6825373412 0.503628077 6.94731e-05 -5.78149e-05 0.0001945082 0.0004174742 0.1160461333 -0.0593866495
320298080.0 -0.6770886378 0.5099461615 0.0003640479 3.74403e-05 9.13019e-05 0.0002394799 0.1151711093 -0.0613969182
325298050.0 -0.6716740591 0.5172237735 -1.63553e-05 0.0002606991 1.03289e-05 -2.45198e-05 0.1137771156 -0.0630229802
330298020.0 -0.6665092797 0.5244053419 0.0002005285 0.0001770712 0.0002873559 0.0001996415 0.1123980588 -0.0644531221
335297990.0 -0.6605806948 0.5309446372 0.0002198329 7.38997e-05 0.0001307958 -4.13049e-05 0.1109446468 -0.0656064759
340297960.0 -0.6556298807 0.5377675318 0.0001213657 0.0002621449 0.0002579962 0.0003114074 0.1104494451 -0.0668056946
345297930.0 -0.6499904539 0.5443678713 5.64416e-05 1.94452e-05 -1.30887e-05 -0.0001344965 0.1085962423 -0.0685437237
350297900.0 -0.6444753773 0.551099687 0.0001819181 -3.73934e-05 0.0001106462 0.0001689642 0.1077646238 -0.0691977695
355297870.0 -0.637838036 0.5581243897 0.0002108144 9.33304e-05 -3.56952e-05 0.0002835662 0.1062738668 -0.0706990931
360297840.0 -0.6325103536 0.5639654045 9.05248e-05 0.0001249469 0.0002600001 0.0002549914 0.1054083303 -0.0719676371
365297810.0 -0.627259583 0.5710366101 0.0001247499 2.21964e-05 -0.0001253666 -5.26456e-05 0.1040907528 -0.0738587864
370297780.0 -0.6204481189 0.5771627858 0.0002434295 0.000135143 3.4573e-05 -0.0001423084 0.1032355354 -0.0746429189
375297750.0 -0.6145189079 0.5833420086 0.0001753622 0.0003633784 0.0002295962 0.0003012462 0.1014313392 -0.0758786841
380297720.0 -0.6088041415 0.5898704311 0.0001043154 0.0001640883 6.07883e-05 0.0001233248 0.1000822639 -0.0771656061
385297690.0 -0.6031171176 0.5956396801 9.66858e-05 0.0003510917 0.0002377602 -0.0001248692 0.0992752319 -0.0787454044
390297660.0 -0.5968463214 0.6017062183 0.0003508445 0.0002524354 0.0002323855 -1.34551e-05 0.0977100657 -0.0795284478
395297630.0 -0.5903103706 0.6081572054 0.0002232713 0.0002446729 0.0002436913 -1.6803e-06 0.0969102601 -0.0810092879
400297600.0 -0.5834157089 0.6144465211 0.0001033691 0.0001117809 0.0002724401 0.0001118333 0.0956095392 -0.0818306608
405297570.0 -0.577780983 0.6197850041 0.0002670936 7.99844e-05 0.0001918368 0.0001547346 0.09407172 -0.0829735708
410297540.0 -0.5710042745 0.6254285847 8.15595e-05 0.0001481026 8.75319e-05 0.0001345688 0.0928861333 -0.0843127164
415297510.0 -0.5644164747 0.6313333624 0.0002624678 0.0003252416 0.0002054222 -2.52778e-05 0.091633888 -0.0851452905
420297480.0 -0.5593001466 0.6375361289 9.51809e-05 -0.0001417407 0.0003259446 4.20025e-05 0.0905733747 -0.0861740896
425297450.0 -0.5512795956 0.642688024 0.000291872 0.0001319294 4.36046e-05 0.0001803233 0.0889878747 -0.0875878114
430297420.0 -0.5451032721 0.6482872775 0.0003239865 0.0001978954 5.2958e-05 0.0002126367 0.0876753524 -0.088749035
435297390.0 -0.5384510049 0.6535094877 -8.09097e-05 0.0001309695 8.403e-07 0.0001610368 0.0867271875 -0.0897891029
440297360.0 -0.5317293051 0.6592104446 0.0001924986 5.13712e-05 0.0001874637 0.000338841 0.0854212006 -0.0906774013
445297330.0 -0.5248908225 0.6644223034 0.0001500089 0.0001115205 0.0001345564 2.85792e-05 0.0838823257 -0.0923529927
450297300.0 -0.5185984818 0.6692798481 0.0001793771 0.0002107365 2.08221e-05 0.0001572697 0.0827738415 -0.0927534711
455297270.0 -0.5114843747 0.6745245298 0.0001433099 -3.8677e-05 0.0002192743 -6.5269e-05 0.0815601823 -0.0937286855
460297240.0 -0.5045311379 0.6799175122 7.32238e-05 -2.77472e-05 0.0001076549 1.75464e-05 0.0800635187 -0.0945324618
465297210.0 -0.4981899894 0.6851717573 0.0002121212 0.0001274808 0.0002468217 0.0001315581 0.078906715 -0.0957212319
470297180.0 -0.4897216753 0.689898488 0.0002685592 6.55999e-05 0.0003454611 3.25352e-05 0.0779326009 -0.0964301088
475297150.0 -0.4832529253 0.6941436313 0.0003230109 3.80879e-05 0.0003775478 0.0002057158 0.0764147623 -0.0973859841
480297120.0 -0.4766723863 0.6995207735 0.0002540166 -0.0001580202 0.0001390813 0.0004430412 0.0753464699 -0.0979938284
485297090.0 -0.4689501337 0.7037468728 0.0001206561 -9.4632e-05 0.000186728 0.0001224649 0.0739426478 -0.0988465704
490297060.0 -0.4616864741 0.708756771 7.95399e-05 0.000120449 0.0001712229 -0.0001154978 0.0724252231 -0.0998372155
495297030.0 -0.4548941248 0.7129592941 0.0002835859 0.0001542763 0.0002030234 0.0001272156 0.071110086 -0.1000481445
500297000.0 -0.4474276592 0.7182297407 0.0002324255 3.80385e-05 9.5678e-05 0.0001277558 0.0700097611 -0.1008472622
505296970.0 -0.4400457261 0.722457699 0.0003819255 2.84011e-05 0.0002631022 0.0001516831 0.0683755917 -0.101728553
510296940.0 -0.4330189999 0.7265548874 0.0002303963 0.0001273273 0.0002307201 3.2939e-05 0.0670723999 -0.1022607627
515296910.0 -0.4241684899 0.7309956097 0.0004637101 1.90638e-05 0.0003002729 -7.01045e-05 0.0657219691 -0.1027650311
520296880.0 -0.4183945462 0.7355765884 0.0001115522 -4.96183e-05 0.0002412379 3.91214e-05 0.063956423 -0.1034723848
525296850.0 -0.4099547946 0.7391094605 0.0002690066 9.15967e-05 0.0002727382 -0.0002627056 0.0628563086 -0.1037522333
530296820.0 -0.4024591927 0.743658428 0.00016296 -9.29319e-05 0.0001170877 3.1738e-06 0.0613830987 -0.1045822454
535296790.0 -0.3952377931 0.7474219297 0.0001933079 0.0001613704 0.0003033253 3.51346e-05 0.0596326047 -0.1052340232
540296760.0 -0.3878596149 0.750595243 0.0002440844 0.0001619263 0.0004471234 -6.33263e-05 0.0580685455 -0.105456531
545296730.0 -0.3807295997 0.7556145627 0.0001397205 0.0001132075 0.000289603 1.03433e-05 0.0568759529 -0.1059952293
550296700.0 -0.3727729233 0.7587625857 0.0004184065 0.0001436324 0.000110445 -3.02278e-05 0.055446574 -0.1066797326
555296670.0 -0.3642696265 0.7621180372 0.0001740743 0.0001831145 8.67717e-05 0.0001103001 0.0539335095 -0.1069362412
560296640.0 -0.3573277271 0.76608641 0.0003959237 -5.60274e-05 0.0003590565 -4.42209e-05 0.0526036582 -0.1072141489
565296610.0 -0.3495928236 0.7694201407 -0.0001172553 -0.0001349118 0.0002666936 0.0001931298 0.0510293401 -0.1077054125
570296580.0 -0.3422477904 0.7725087311 0.0001650113 4.19073e-05 0.0002715323 0.000105193 0.0494634332 -0.1083383182
575296550.0 -0.3336387933 0.7767645986 0.0002199592 -0.0001638102 0.0001984001 0.0001511669 0.0478712634 -0.1086811417
580296520.0 -0.3258916329 0.7792769615 0.0003920741 6.33144e-05 0.0002336123 0.0001053106 0.0465081615 -0.1092244072
585296490.0 -0.3186076389 0.7825081056 6.19339e-05 0.0001971931 0.000231122 1.02307e-05 0.0453131852 -0.1099550596
590296460.0 -0.3104089076 0.7860054073 0.00033133 6.98206e-05 0.0004834097 3.4094e-05 0.0431877514 -0.1098449132
595296430.0 -0.3024975565 0.7884687224 0.0003124997 6.16679e-05 0.0001481931 6.46239e-05 0.0418891607 -0.1106577686
600296400.0 -0.294502695 0.7916064218 0.000560116 -0.000109533 0.000183277 -0.0001244788 0.0403520441 -0.1113349421
605296370.0 -0.28741609 0.7945745707 0.0003107656 5.05926e-05 0.0002141 4.4022e-06 0.0390844035 -0.1114188193
610296340.0 -0.2791394718 0.7971192132 0.0001546516 0.0001521948 0.0004648901 -1.19329e-05 0.0378717138 -0.1115419954
615296310.0 -0.2698390051 0.7998531239 0.0003017378 3.88148e-05 -4.0831e-06 0.000266133 0.0364170863 -0.1120018599
620296280.0 -0.2622545199 0.8022060485 0.000274731 7.41386e-05 0.0003160957 1.95782e-05 0.0348757979 -0.1123372202
625296250.0 -0.2543229963 0.8054528666 0.000123549 1.6779e-06 0.0004448375 0.0001093127 0.0336591707 -0.1125193259
630296220.0 -0.2457107711 0.8078700234 0.0003483179 -3.6052e-05 0.0003264777 3.9093e-05 0.032077251 -0.1124455255
635296190.0 -0.2385476035 0.8103244437 0.0004714246 0.0001040816 0.0002555329 -9.35148e-05 0.0308919726 -0.1129407557
640296160.0 -0.2305855416 0.8122533413 0.0002493454 4.3396e-06 0.000157737 -3.6932e-05 0.0293905014 -0.113195295
645296130.0 -0.2223255332 0.8153567575 0.0002669092 -1.61592e-05 0.0004746446 -0.0001134954 0.0279582154 -0.1127547995
650296100.0 -0.2139271204 0.8163903564 0.0003555026 1.41756e-05 0.0002845796 -4.23526e-05 0.0269123534 -0.1135824808
655296070.0 -0.2057451566 0.8191973328 0.0002675784 6.37837e-05 0.000299978 -4.2674e-05 0.0253917976 -0.1133975468
660296040.0 -0.197343145 0.8209119018 0.0004183709 -8.20721e-05 0.0002317581 9.6161e-05 0.0240892966 -0.1137615875
665296010.0 -0.1896548746 0.8218582795 0.0004129394 0.0001957026 0.0001254438 -4.26825e-05 0.022335148 -0.1132898218
670295980.0 -0.18159309 0.8246832256 0.0003179681 0.0001085916 0.0001622779 -1.2282e-06 0.0209624552 -0.1134684941
675295950.0 -0.172917794 0.8259139853 0.0003427037 8.62443e-05 0.0003177562 4.41854e-05 0.0192455406 -0.1132140323
680295920.0 -0.1642170661 0.8279875558 0.0005152137 6.36351e-05 0.0003602555 2.30569e-05 0.0182056004 -0.1133378542
685295890.0 -0.1562058969 0.8302886071 0.0003466458 9.0414e-06 0.0004980954 -0.0001039083 0.0166641407 -0.11339013
690295860.0 -0.1483546517 0.8308828415 0.0001813318 -0.0001441878 0.0004354577 -3.56041e-05 0.0152377211 -0.1127231666
695295830.0 -0.1402104601 0.8318684215 0.0005411426 -8.04124e-05 0.0003207322 -5.09771e-05 0.013741009 -0.1128156323
700295800.0 -0.1313579319 0.8336765407 0.000186571 6.5393e-06 0.0002698051 -7.11457e-05 0.0120536777 -0.1129576585
705295770.0 -0.1237535078 0.8352263041 0.0004410331 0.0001077581 0.0004507012 4.2997e-05 0.01075313 -0.1122220048
710295740.0 -0.1147880944 0.8365736738 0.000234113 -0.0001953864 0.0003602712 0.0001032841 0.009136524 -0.1128469661
715295710.0 -0.1066534261 0.83752345 0.0005194432 0.0001045205 0.0002649905 -0.0001274596 0.0077928754 -0.1124194342
720295680.0 -0.0986441034 0.8386388429 0.0002754987 0.0001064469 0.0002834228 -0.0001889093 0.0067225068 -0.112452261
725295650.0 -0.0902992727 0.839474002 0.0002744886 1.64269e-05 0.0003940165 4.35005e-05 0.0048688365 -0.111768378
730295620.0 -0.0813844812 0.8403704545 0.0003828994 -5.51502e-05 0.0005227577 -2.64975e-05 0.0032685573 -0.111932325
735295590.0 -0.0737164105 0.8413060024 -8.97985e-05 -4.3489e-06 0.0003795967 2.00232e-05 0.001530205 -0.112055719
740295560.0 -0.0653461279 0.8419494272 0.0004522229 3.21157e-05 0.0002711229 -0.0001021666 0.0006556039 -0.1117239275
745295530.0 -0.0568280303 0.8423721665 0.0002278608 -9.23626e-05 0.0004134803 -0.0001765733 -0.0010988492 -0.1114357138
750295500.0 -0.0480393787 0.8428895407 0.0001095374 -1.02926e-05 0.0003467334 0.0001445544 -0.0025491864 -0.1111503534
755295470.0 -0.0399062902 0.8429458216 0.0003096564 -0.000248291 0.0003580267 -6.6483e-05 -0.0038563751 -0.1113368623
760295440.0 -0.0320895521 0.8432287396 0.0003676755 -0.0001894638 0.000324266 -9.76172e-05 -0.0053936912 -0.1109567502
765295410.0 -0.0232112104 0.8435783748 0.0003586028 -0.0002263391 0.0002506567 -0.0001017824 -0.0069596815 -0.1105226514
770295380.0 -0.0154737959 0.8439604034 0.0001392067 0.0002883964 0.0004279151 -0.0001222916 -0.0082472058 -0.1104022427
775295350.0 -0.0070824936 0.8435539017 0.00020879 -0.0001180142 0.0002586135 -3.3812e-05 -0.0098061141 -0.1099938463
780295320.0 0.001657816 0.8441426136 0.0003471023 -0.0001815922 0.0004192553 -8.29726e-05 -0.0113107995 -0.1098356049
785295290.0 0.0097561786 0.8434816692 0.0002267064 0.0002262734 0.0004219737 -5.94457e-05 -0.0122498913 -0.1095669827
790295260.0 0.018864496 0.8435452636 0.0003370525 8.16233e-05 0.0003742289 -0.0002326343 -0.0132020083 -0.1093062588
795295230.0 0.0265391166 0.8429714756 0.0004581956 -2.40977e-05 0.000360416 -0.0001017727 -0.0147896761 -0.1087747247
800295200.0 0.0347015039 0.8427179569 0.0003352587 -3.88083e-05 0.0005192327 -0.0001946541 -0.0161717573 -0.107988087
805295170.0 0.0436477345 0.8424635698 0.0004575497 -0.0001579722 0.0003908664 -0.0001918516 -0.0176178506 -0.1079028668
810295140.0 0.0513284012 0.8423257981 0.0004516697 -9.4815e-05 0.0004598012 -0.0001646921 -0.0182465539 -0.1077413634
815295110.0 0.0599421818 0.8419720692 0.0003104092 -8.39374e-05 0.0003166077 -7.39242e-05 -0.0200556381 -0.107082772
820295080.0 0.0674900679 0.8409792557 0.0005581586 -0.0001349222 0.0003366624 3.4335e-05 -0.0213771784 -0.1064074403
825295050.0 0.0769081845 0.8400160502 0.0004991925 -8.12228e-05 0.0003596248 -5.46751e-05 -0.0226392252 -0.1061080802
830295020.0 0.084466756 0.8398258904 0.0004364058 -0.0001410995 0.000423934 3.48442e-05 -0.0232989175 -0.1055331465
835294990.0 0.0925303478 0.8389117056 0.0004994402 -3.20084e-05 0.0003568526 8.25233e-05 -0.0252287826 -0.1045439502
840294960.0 0.1008401342 0.8380408575 0.0002820136 -8.18636e-05 0.0001938745 -0.0002424445 -0.0263341327 -0.1042019334
845294930.0 0.1088631232 0.8365387537 0.0003089433 9.0525e-05 0.0004033073 -6.50919e-05 -0.0276456824 -0.1035877047
850294900.0 0.1173969425 0.8361136684 0.0005327103 -0.0001171988 0.0003039632 -0.0002331287 -0.0291884088 -0.1028364516
