!Created with skrf (http://scikit-rf.org).
# Hz S RI R 50.0 
!freq ReS11 ImS11 ReS21 ImS21 ReS12 ImS12 ReS22 ImS22
300000.0 -0.3202824881 -0.0780059786 0.3756330268 0.0418162831 0.3732775213 0.0398021826 -0.3219373196 -0.0959263506
5299970.0 -0.326581633 0.0046353039 0.3786379601 0.0021769823 0.3782009802 0.0025029029 -0.3240660614 0.0051660679
10299940.0 -0.3241417754 0.0132141682 0.379413948 0.0019609054 0.3792239984 0.0021447311 -0.3214452966 0.015788131
15299910.0 -0.3214961762 0.0205781989 0.3819765206 0.0022438814 0.3821533019 0.0022967889 -0.3182341994 0.0236846624
20299880.0 -0.3186867613 0.026357681 0.3847844413 0.0017295716 0.3847761623 0.0013770304 -0.314613487 0.0302439625
25299850.0 -0.31581929 0.031369222 0.3880583861 -1.60986e-05 0.3883021352 4.05946e-05 -0.3109098696 0.0360016405
30299820.0 -0.3127482701 0.0362532975 0.3914368605 -0.0021432987 0.3914409067 -0.0023777801 -0.3069306648 0.041264313
35299790.0 -0.3100115484 0.039974261 0.3949238621 -0.0053726896 0.3951151152 -0.0055791495 -0.3035212714 0.0451481962
40299760.0 -0.3070536839 0.0439192293 0.3979782079 -0.0089120903 0.3978996417 -0.0088127284 -0.3000686819 0.0484782634
45299730.0 -0.3046605417 0.046646293 0.4004594459 -0.0129606014 0.4008141466 -0.0126804652 -0.297126661 0.0518948811
50299700.0 -0.3024287252 0.0493317816 0.4035096351 -0.0171036659 0.4034562458 -0.017172166 -0.294391205 0.0544826773
55299670.0 -0.3005268814 0.0520140601 0.4056849467 -0.0222605451 0.4054728372 -0.0221409248 -0.291583915 0.0572469005
60299640.0 -0.2980504425 0.0548932574 0.4075283383 -0.0273385824 0.4074922883 -0.0269842023 -0.288895419 0.0596350136
65299610.0 -0.2965159627 0.0572457905 0.4091162789 -0.0319427739 0.4092430378 -0.0320587412 -0.2872972588 0.06208406
70299580.0 -0.2948376332 0.059832736 0.4102823168 -0.03706336 0.4101271972 -0.0368170983 -0.2850050133 0.0640785996
75299550.0 -0.2930363211 0.0624916798 0.4113046784 -0.0423742855 0.411505115 -0.0424512136 -0.2831998709 0.0661304805
80299520.0 -0.2916132458 0.0644829386 0.4121934468 -0.0477083509 0.4122296234 -0.047671096 -0.2815553103 0.0679589947
85299490.0 -0.2899715659 0.0671981835 0.4127114996 -0.0527985046 0.412918871 -0.0522718055 -0.2796870008 0.0696425966
90299460.0 -0.2887592345 0.0697344871 0.4130518664 -0.0580295897 0.4133910027 -0.0579374939 -0.2782877281 0.0722622791
95299430.0 -0.2875077346 0.0716264487 0.413742009 -0.0633439016 0.4136200163 -0.0634884908 -0.2767393734 0.0742174449
100299400.0 -0.2860765484 0.0740551325 0.4132693073 -0.0682373012 0.4133024995 -0.0684313126 -0.2752746071 0.07601766
105299370.0 -0.2853116026 0.0767084017 0.4132863242 -0.0738811307 0.4135132099 -0.0735766623 -0.2737710092 0.0781374886
110299340.0 -0.2842619451 0.0789338875 0.4132660517 -0.0786627712 0.4134494303 -0.078475738 -0.2729835885 0.0801577907
115299310.0 -0.2827560496 0.0810277665 0.4130642202 -0.0840194147 0.4128143712 -0.0838528989 -0.2716418998 0.0822722611
120299280.0 -0.28198106 0.0831785941 0.4121408042 -0.0890844248 0.4124646918 -0.0892892332 -0.2704970354 0.0845669956
125299250.0 -0.2810926433 0.0855829216 0.4119237818 -0.0940774586 0.4120406393 -0.0939663278 -0.2696172524 0.0863630692
130299220.0 -0.2804136136 0.0881841357 0.4110604619 -0.0992354266 0.4108292784 -0.0990277716 -0.2684101511 0.0885741309
135299190.0 -0.2794142115 0.0905444683 0.4106738471 -0.1039480877 0.4104553666 -0.1042545135 -0.2674341893 0.0909340738
140299160.0 -0.2784769978 0.0935100533 0.4095078901 -0.1092361754 0.4096337522 -0.1095205651 -0.2662247535 0.0933928344
145299130.0 -0.2772028191 0.0957097984 0.4088574827 -0.1141270848 0.4083275285 -0.1140968139 -0.2655550123 0.0958451089
150299100.0 -0.2762573642 0.0985137348 0.4076764286 -0.1192324446 0.4076716736 -0.1188140432 -0.2644264206 0.0985145731
155299070.0 -0.2754063159 0.100716217 0.4066484639 -0.1243807403 0.4063255381 -0.1242777174 -0.2630342448 0.1008778456
160299040.0 -0.2745736426 0.103535263 0.4054915356 -0.1289044411 0.4054154564 -0.1288880894 -0.2626013327 0.1030437918
165299010.0 -0.273610072 0.1056453832 0.4042379138 -0.133675401 0.4041559896 -0.1339082699 -0.2611178186 0.1058520031
170298980.0 -0.2727328495 0.1085843737 0.4028120754 -0.1384464863 0.4029756205 -0.1384848328 -0.2602324399 0.108280322
175298950.0 -0.2717400056 0.1112779628 0.4013584143 -0.1431857098 0.4010123777 -0.1433276597 -0.2593380495 0.1108651671
180298920.0 -0.2711068701 0.1141130925 0.3997534829 -0.1481795846 0.3999429423 -0.1476436749 -0.2582479599 0.1132808745
185298890.0 -0.2694697755 0.1164285163 0.398341724 -0.1526856549 0.3982963158 -0.1525975456 -0.2569645213 0.1159158536
190298860.0 -0.2685843873 0.1193931794 0.396797382 -0.1574894909 0.3972752083 -0.1574336432 -0.256337588 0.1184624913
195298830.0 -0.2677599877 0.1218634062 0.3951148376 -0.1621078845 0.3951777723 -0.161656448 -0.2553589195 0.1208452688
200298800.0 -0.2663102692 0.1245257866 0.3933668003 -0.1666003657 0.3935240716 -0.1667978221 -0.2544627759 0.1237066565
205298770.0 -0.2652018465 0.1273392807 0.3913634381 -0.1713646113 0.391568959 -0.1708701355 -0.2532239167 0.1256030625
210298740.0 -0.2643615453 0.1297236562 0.3900466702 -0.1757132284 0.3899227082 -0.1754415233 -0.2520560404 0.1285374174
215298710.0 -0.2634321848 0.1326586532 0.3878369542 -0.1805458588 0.3878963565 -0.1806631383 -0.2510993198 0.1310516738
220298680.0 -0.2618132797 0.1352405743 0.3855065751 -0.1844712881 0.3857846093 -0.1844069765 -0.2502841072 0.1333970057
225298650.0 -0.2609784515 0.1378794195 0.3838480797 -0.1890578356 0.3841008433 -0.1892329179 -0.2489617512 0.1358723263
230298620.0 -0.2597403234 0.140895266 0.3819345122 -0.193586111 0.3822803947 -0.1936587212 -0.2478806343 0.1383876935
235298590.0 -0.258293364 0.1436444449 0.3797037549 -0.1981524001 0.3798171164 -0.1977094232 -0.2462105071 0.1413283504
240298560.0 -0.2570645958 0.1463378436 0.3777985134 -0.2024849464 0.3773722504 -0.2026491923 -0.2452258097 0.1439268518
245298530.0 -0.2558681139 0.1489299402 0.3757161768 -0.2066347134 0.3752956094 -0.2069379058 -0.243929992 0.1460593885
250298500.0 -0.2542205423 0.1520419773 0.3726346608 -0.2112098942 0.3727362573 -0.210629641 -0.2425746347 0.1487405128
255298470.0 -0.2531333374 0.1541478657 0.3705134892 -0.2149815765 0.3705066672 -0.2149866992 -0.2411759459 0.1509038422
260298440.0 -0.2514829131 0.1568427811 0.368233009 -0.2194220727 0.3685240407 -0.2193216494 -0.2396264611 0.1535747923
265298410.0 -0.2496006724 0.1598851281 0.3656892277 -0.2234828767 0.366027556 -0.2234885653 -0.2382410885 0.1563183083
270298380.0 -0.2487482856 0.1626300277 0.3637160308 -0.22763676 0.363508451 -0.2276505193 -0.2370546717 0.1588882247
275298350.0 -0.2468219962 0.1651703133 0.3610309992 -0.2315753908 0.3608237004 -0.2317433181 -0.2349517217 0.1612015786
280298320.0 -0.2448052107 0.1678026297 0.3587672916 -0.2358375687 0.358584687 -0.2359489945 -0.2336330318 0.1636820612
285298290.0 -0.2435094813 0.1709604842 0.3557996791 -0.2398170408 0.3557554504 -0.2402182873 -0.2320378221 0.1662234517
290298260.0 -0.241724985 0.1732728759 0.3530329381 -0.2438658029 0.353193259 -0.2438260957 -0.2300305235 0.1687293364
295298230.0 -0.2400177772 0.1754318949 0.3507031305 -0.2478616811 0.3504157575 -0.2478620991 -0.2283660167 0.1707173739
300298200.0 -0.2385368764 0.178630069 0.3481128202 -0.2518526853 0.3482596038 -0.2520815751 -0.2267208575 0.1732232358
305298170.0 -0.236935056 0.1807045898 0.344995436 -0.2560677308 0.3450094198 -0.2559451707 -0.2242251434 0.1757366692
310298140.0 -0.2348314111 0.1836495729 0.3421439686 -0.2596931956 0.3422974245 -0.2595573355 -0.2232686768 0.1779729627
315298110.0 -0.2332287613 0.1856634525 0.3393947169 -0.2637198165 0.3397640622 -0.2635779641 -0.2212615969 0.1806207847
320298080.0 -0.2312034627 0.1883046849 0.3360412815 -0.2677748583 0.3364228655 -0.2676531157 -0.2192144335 0.1829439934
325298050.0 -0.2293994425 0.1908895278 0.3333731203 -0.2712968775 0.3331340012 -0.2715136335 -0.2180057085 0.1854029787
330298020.0 -0.2275382463 0.1931247182 0.3297389255 -0.2751857321 0.33040718 -0.2750164781 -0.216105893 0.187890495
335297990.0 -0.2256599377 0.195399011 0.3272562739 -0.2786935926 0.3269667236 -0.2789003443 -0.2146644389 0.1906060996
340297960.0 -0.2241738735 0.1985056403 0.3238166798 -0.2825845926 0.3236706214 -0.2828943059 -0.2118804716 0.1931257641
345297930.0 -0.2220322688 0.2006654964 0.3206166513 -0.286316171 0.3205737507 -0.2861203444 -0.2107484148 0.1950670486
350297900.0 -0.2199711767 0.2032511506 0.3169839494 -0.2896852889 0.3170911795 -0.2892042854 -0.2090729537 0.197910739
355297870.0 -0.2178909968 0.205836533 0.3139804832 -0.2928240282 0.3140324673 -0.2928059406 -0.2070606855 0.2002989636
360297840.0 -0.2160866924 0.2085583912 0.3112736298 -0.2964808999 0.3112972457 -0.2965965014 -0.2050818233 0.2029274961
365297810.0 -0.2141297547 0.2109885179 0.3075243736 -0.2996102638 0.3077792213 -0.2999504508 -0.2024974445 0.2046759198
370297780.0 -0.2117963528 0.2128832561 0.3039011873 -0.3028751125 0.3045294529 -0.3029650788 -0.2009568265 0.2074963334
375297750.0 -0.2093654203 0.2155333402 0.3009625827 -0.3064127771 0.3009865716 -0.3065337196 -0.1989098524 0.2095429354
380297720.0 -0.2074000893 0.2178472788 0.297245709 -0.3093684869 0.297515474 -0.3092016337 -0.1970698388 0.2116172797
385297690.0 -0.2055228434 0.2200131659 0.2939813484 -0.3126602721 0.2938862659 -0.3130744511 -0.1945628877 0.2140955008
390297660.0 -0.2032888916 0.2226320353 0.2906753386 -0.3163086536 0.2903421161 -0.3158140371 -0.1925595361 0.216485599
395297630.0 -0.2005694844 0.225206497 0.2867885999 -0.3195306793 0.286901858 -0.3196585464 -0.1899752393 0.2186127505
400297600.0 -0.198391083 0.2274874805 0.2831795966 -0.3227256001 0.28354254 -0.3226815019 -0.1883643776 0.2208443247
405297570.0 -0.1963962358 0.2294053677 0.2797917619 -0.325330755 0.2799950377 -0.325571097 -0.186351813 0.2228824472
410297540.0 -0.1935432487 0.2318433554 0.2761752369 -0.3286102843 0.2765360639 -0.3288267633 -0.1838093001 0.2251863052
415297510.0 -0.1913080704 0.2337804668 0.2724069334 -0.331967512 0.2724875621 -0.3317569488 -0.1814309561 0.2271626137
420297480.0 -0.1891025652 0.2363821369 0.268890334 -0.3348696461 0.2687459205 -0.3346616431 -0.1789808844 0.2291840285
425297450.0 -0.1867184662 0.238297616 0.2653847984 -0.3375633546 0.265455373 -0.3378575728 -0.1770801119 0.2314240256
430297420.0 -0.1838788695 0.2403111188 0.2613980614 -0.3399773847 0.261274625 -0.3399316734 -0.1748975698 0.2329933878
435297390.0 -0.1819984145 0.2424546075 0.2574172421 -0.3432151577 0.2573526713 -0.3432570065 -0.1717959468 0.2353158001
440297360.0 -0.1791163747 0.2444771815 0.2540194959 -0.3459980154 0.2541761484 -0.3461369771 -0.170088257 0.2369868527
445297330.0 -0.1764879738 0.246292935 0.2502329285 -0.3486328638 0.2503282584 -0.3484068027 -0.1670707082 0.2385637259
450297300.0 -0.1739041627 0.2483102523 0.2461239535 -0.3515323593 0.2461053805 -0.351579216 -0.1646422784 0.2406105756
455297270.0 -0.1715248657 0.2503238004 0.2418471928 -0.353976764 0.2422392289 -0.3540921642 -0.1622087596 0.2424107249
460297240.0 -0.1690345391 0.25230877 0.2382928348 -0.3564861254 0.2384199765 -0.3566702565 -0.1596499378 0.2444463703
465297210.0 -0.1661308788 0.2543919279 0.234530865 -0.3595002212 0.2346381211 -0.3593000755 -0.1569543063 0.2460050747
470297180.0 -0.1635334636 0.2561547384 0.2303786707 -0.3619083171 0.2304421927 -0.3618420752 -0.1541922466 0.2479732942
475297150.0 -0.1607120517 0.2577964006 0.2264245244 -0.3638542096 0.226437792 -0.3640088638 -0.1511818649 0.2493372333
480297120.0 -0.1581383797 0.2600859425 0.2224475769 -0.3669185698 0.2223328164 -0.3669264356 -0.1489175697 0.2516530481
485297090.0 -0.1554331656 0.2616747294 0.2185238336 -0.3688157413 0.2186175047 -0.3688822501 -0.1464202153 0.2529350807
490297060.0 -0.1531669648 0.2635998148 0.2145650148 -0.3713715822 0.2144348106 -0.371224889 -0.143632535 0.2548237406
495297030.0 -0.1504053793 0.264974388 0.2102279485 -0.3737158723 0.2106923276 -0.3735418176 -0.1408080542 0.2565500882
500297000.0 -0.147191075 0.2667881156 0.205899806 -0.3754816387 0.2059513248 -0.3756288133 -0.1382439685 0.2588532918
505296970.0 -0.1444686754 0.2687412046 0.2018223277 -0.3779674971 0.202108827 -0.377971338 -0.1354309215 0.2600172684
510296940.0 -0.1416886005 0.2702336333 0.1979326988 -0.3803852531 0.1977937218 -0.3804499891 -0.1324631697 0.2620338755
515296910.0 -0.1386869728 0.2715897133 0.1934445395 -0.3821490397 0.1934904415 -0.3824916855 -0.129636481 0.2633091373
520296880.0 -0.1362074704 0.2736176995 0.1896530403 -0.3845861782 0.1894407234 -0.3844167268 -0.1274533946 0.2651289122
525296850.0 -0.1330745985 0.2747785145 0.184858244 -0.386179792 0.1856062638 -0.3862198689 -0.12445932 0.2664131394
530296820.0 -0.1300381096 0.2767590793 0.1810736543 -0.3886439102 0.1808994226 -0.388375695 -0.1214973735 0.2678275421
535296790.0 -0.1277380825 0.2781963972 0.1773113244 -0.3903182398 0.1770256197 -0.3898312115 -0.1192120044 0.2691113768
540296760.0 -0.1246127137 0.2799242949 0.1726221025 -0.3923965612 0.1727540742 -0.3924691493 -0.116385418 0.2712093981
545296730.0 -0.1218277808 0.2812218412 0.1684236691 -0.3937683454 0.1681612772 -0.3938279155 -0.1134638098 0.2720218635
550296700.0 -0.1185089339 0.2827211271 0.1638091324 -0.3959680338 0.1638449898 -0.3958120991 -0.1109608934 0.2737175094
555296670.0 -0.1156276023 0.283759303 0.159574998 -0.3975156043 0.1596436386 -0.3974353795 -0.1077192274 0.2753413791
560296640.0 -0.1123369762 0.2855795856 0.1549922706 -0.3994448419 0.1553794258 -0.3993277012 -0.1050701118 0.2763816297
565296610.0 -0.1096227664 0.2866672014 0.1507549924 -0.4008370264 0.150902101 -0.40087571 -0.1020755326 0.2777976509
570296580.0 -0.1068195788 0.2878849691 0.1465323041 -0.4026473051 0.1459952518 -0.4023754271 -0.0993768939 0.27914604
575296550.0 -0.1038527163 0.2897765164 0.1420862522 -0.4044891041 0.141899339 -0.4040321344 -0.0963084591 0.2800150142
580296520.0 -0.1005906002 0.2905741261 0.1375018913 -0.4056494875 0.137714046 -0.4057173662 -0.0935590104 0.2814853618
585296490.0 -0.0978432597 0.2916929069 0.133261118 -0.4069525147 0.1333621577 -0.4068300203 -0.0904387541 0.2823435063
590296460.0 -0.0943146107 0.2928522115 0.1289445157 -0.4080722458 0.128699637 -0.4082273397 -0.0880378914 0.283548082
595296430.0 -0.0915662886 0.2937525239 0.1240576846 -0.4096037249 0.1243061573 -0.4098271042 -0.084639196 0.2841158503
600296400.0 -0.0889436614 0.2951061169 0.1200112773 -0.4109764164 0.119969601 -0.4109022522 -0.0819176104 0.285571914
605296370.0 -0.0854900981 0.296126518 0.115207826 -0.4119550907 0.1153567876 -0.412203364 -0.0785195295 0.2862535286
610296340.0 -0.0825093086 0.2970753518 0.1105578669 -0.4132624517 0.1107885525 -0.4133522918 -0.0759263528 0.2872916466
615296310.0 -0.0787322418 0.2978920244 0.1059049607 -0.4140506859 0.106158024 -0.4148817433 -0.0724309021 0.2878609631
620296280.0 -0.07617363 0.2987688306 0.1017384311 -0.4156590403 0.1014937071 -0.4154382227 -0.0698201704 0.2887353794
625296250.0 -0.0731545583 0.2995230051 0.0975911159 -0.4168431138 0.0968733819 -0.4170148176 -0.0661522576 0.2895691112
630296220.0 -0.0692264756 0.3005560914 0.0923056109 -0.4175216225 0.0925438709 -0.417483994 -0.0635700233 0.2906771194
635296190.0 -0.0668864775 0.3016910385 0.0882419987 -0.418350061 0.0882213255 -0.4183028001 -0.0602515805 0.2913118474
640296160.0 -0.0636637225 0.3024869118 0.0837665334 -0.419296889 0.0839416148 -0.4193727576 -0.0570204413 0.2920853814
645296130.0 -0.0604164407 0.3033155904 0.0789674762 -0.419816305 0.0792719867 -0.4201385052 -0.0541519828 0.29282384
650296100.0 -0.0573510863 0.3038233472 0.0745402277 -0.4209939842 0.0745848827 -0.4209549719 -0.0507354437 0.2931307188
655296070.0 -0.0540319404 0.3048279263 0.0699455411 -0.4217466435 0.0699799673 -0.4218549809 -0.0474666731 0.2942002915
660296040.0 -0.0511822909 0.3053893665 0.0655814885 -0.4220610742 0.0654412257 -0.4226415197 -0.0444354857 0.2949692364
665296010.0 -0.0474514167 0.3056008406 0.060487235 -0.4230361335 0.0607636782 -0.4230068642 -0.0409753678 0.2960602638
670295980.0 -0.0448612022 0.3067963676 0.0563774855 -0.4238705385 0.0561934487 -0.4234519689 -0.0384934067 0.2958817293
675295950.0 -0.0416185288 0.3071124841 0.0518504012 -0.4240217511 0.0519198137 -0.4238422703 -0.0352462327 0.2970081651
680295920.0 -0.0380504461 0.3077460412 0.0469201838 -0.4248244834 0.0463218334 -0.424869766 -0.0320094024 0.297837309
685295890.0 -0.0346603082 0.3087549654 0.0422749929 -0.425169425 0.0420417707 -0.4249305395 -0.0287348249 0.2980578008
690295860.0 -0.0313860651 0.3089302671 0.0376293573 -0.4253060637 0.0379701222 -0.4259639422 -0.0259356892 0.2994847778
695295830.0 -0.0283942243 0.3090283486 0.033108197 -0.425477993 0.0326878621 -0.4255727911 -0.0226392717 0.2989738662
700295800.0 -0.0249739884 0.3091750494 0.0284110198 -0.4256035771 0.0280877479 -0.4259783145 -0.0196886806 0.3001541376
705295770.0 -0.0222868542 0.3104088473 0.0237510581 -0.426312124 0.0241150292 -0.4264653066 -0.0163652285 0.3004203119
710295740.0 -0.0184662283 0.3107275493 0.0191298113 -0.4271398836 0.0191110671 -0.4268210984 -0.0132373434 0.3001656425
715295710.0 -0.0157826307 0.3110032129 0.0150152543 -0.4271794634 0.014204348 -0.4267484133 -0.009782841 0.3004250858
720295680.0 -0.0120051581 0.3109626981 0.0099337841 -0.4267776001 0.0102692751 -0.4268782383 -0.007138793 0.3013209322
725295650.0 -0.0085525722 0.3116716914 0.0052554365 -0.4268961022 0.005721784 -0.4270651044 -0.004414069 0.3017274399
730295620.0 -0.0053692543 0.3119555076 0.0008529018 -0.4266373544 0.0006694992 -0.4271126629 -0.0012171769 0.3016193836
735295590.0 -0.0022311596 0.3119286917 -0.0035894563 -0.4267945789 -0.0040827203 -0.4266854764 0.0018739383 0.3016341164
740295560.0 0.0006174828 0.3119523133 -0.0083744297 -0.4267817561 -0.008489046 -0.4271267464 0.0056304182 0.302249846
745295530.0 0.0038414678 0.3125984541 -0.0132563511 -0.426619739 -0.0134813103 -0.4263405513 0.0087203209 0.3017454336
750295500.0 0.0076800761 0.3123854334 -0.0176773596 -0.4259183625 -0.0175374672 -0.4263570942 0.0116794983 0.3016776822
755295470.0 0.010736493 0.3121046188 -0.0220426535 -0.4259684586 -0.0223720111 -0.426338142 0.0147616676 0.3014792544
760295440.0 0.0138233616 0.3122916922 -0.0266985589 -0.4258735958 -0.027013833 -0.4261879338 0.0179237293 0.3014841227
765295410.0 0.017220608 0.3125019744 -0.0316164419 -0.4254634293 -0.0319207783 -0.4258246214 0.0208430533 0.301695951
770295380.0 0.0199606118 0.3123083448 -0.0361044115 -0.4253364496 -0.0363972121 -0.4247990479 0.0240074242 0.3012744774
775295350.0 0.0231798925 0.312022511 -0.0408326858 -0.424407041 -0.0406958842 -0.4248216311 0.0269075315 0.3012627462
780295320.0 0.0268816088 0.3116307652 -0.0454027595 -0.4238438948 -0.0450904945 -0.4241450744 0.0300992722 0.3008882258
785295290.0 0.0298862383 0.3114547173 -0.0501240218 -0.4230514082 -0.050197206 -0.423536912 0.0340638395 0.300820106
790295260.0 0.0336967196 0.3116711972 -0.0543147552 -0.4225325221 -0.0538380254 -0.4228123387 0.0369962207 0.3003842464
795295230.0 0.0369043197 0.3111360027 -0.05889975 -0.4216020652 -0.0587548275 -0.4223486868 0.0405137247 0.3003260685
800295200.0 0.0398040784 0.3111390055 -0.0640084309 -0.4213749334 -0.0637614113 -0.4214876457 0.0433923857 0.2998185047
805295170.0 0.0431435801 0.3106308545 -0.0682961342 -0.4209023618 -0.0682251582 -0.4208538792 0.0465723775 0.2999280923
810295140.0 0.0463504539 0.3102514097 -0.0723733593 -0.4196437714 -0.0726045328 -0.4203307939 0.0501533937 0.299650898
815295110.0 0.0496218961 0.3098406594 -0.0773757369 -0.4188261334 -0.0772595738 -0.4191525341 0.0530062036 0.2987975669
820295080.0 0.0526837795 0.3095018361 -0.081311401 -0.4179571658 -0.0816870959 -0.4179693102 0.0564324428 0.2986315632
825295050.0 0.0563784579 0.3091138561 -0.0860523651 -0.4171343849 -0.0860574074 -0.4173348645 0.0595133085 0.2984565854
830295020.0 0.0594350601 0.3086129819 -0.0904181469 -0.4158502832 -0.0909191343 -0.4161360312 0.0635401716 0.2975229273
