!Created with skrf (http://scikit-rf.org).
# Hz S RI R 50.0 
!freq ReS11 ImS11 ReS21 ImS21 ReS12 ImS12 ReS22 ImS22
300000.0 -0.2393075488 -0.0981088866 0.466634805 0.0649990302 0.468741915 0.0691954286 -0.2365246123 -0.1109263972
5299970.0 -0.2437284986 0.0073205097 0.4739478067 0.0054067758 0.4738191123 0.0055879218 -0.2442987652 0.0058146363
10299940.0 -0.2401049608 0.019864148 0.4758477446 0.0064617668 0.4757925595 0.0067553344 -0.2409363817 0.0183558709
15299910.0 -0.2360390773 0.0293702694 0.4794825023 0.0075057348 0.4790567683 0.0080502834 -0.2367154616 0.0272283264
20299880.0 -0.2303505789 0.0373611189 0.484098244 0.0085494041 0.4840423647 0.0085199944 -0.2320032126 0.0355448582
25299850.0 -0.2247104244 0.0432915909 0.4891266412 0.0074400914 0.4897006812 0.0074960782 -0.2268417785 0.0416410815
30299820.0 -0.2186382307 0.0484664075 0.4950402718 0.0055141075 0.4945583254 0.0053294549 -0.221585864 0.0465345435
35299790.0 -0.2127611724 0.0529682237 0.5001464799 0.0023666323 0.5005241734 0.0019956978 -0.2158945958 0.0508417343
40299760.0 -0.2074270814 0.0557394972 0.505242673 -0.0016479651 0.5056296795 -0.0016204384 -0.2114552506 0.0546299357
45299730.0 -0.2024794447 0.0585034942 0.5100865385 -0.0065145126 0.5104096138 -0.0064571239 -0.2066028108 0.0574234062
50299700.0 -0.1975925337 0.0601715755 0.514104995 -0.0123628691 0.5144659837 -0.0121771603 -0.2021910354 0.0598095289
55299670.0 -0.1937397088 0.0617971431 0.5177323054 -0.0181548943 0.5180994551 -0.018084451 -0.1984022413 0.061378329
60299640.0 -0.1893017476 0.062802593 0.5213185352 -0.0243362644 0.5212585215 -0.0243770596 -0.1945527939 0.0631242171
65299610.0 -0.1862055868 0.0639274097 0.5245089382 -0.030180248 0.524688139 -0.0302505893 -0.1910591043 0.0647888521
70299580.0 -0.1825913875 0.0645266856 0.5267000954 -0.0368167394 0.5270695335 -0.0372370332 -0.187891183 0.0658285423
75299550.0 -0.1794505758 0.0654034304 0.528844831 -0.0437911 0.5290906962 -0.0444327912 -0.185203204 0.0672464985
80299520.0 -0.1770059934 0.0659148653 0.5308337824 -0.0512068463 0.5304684084 -0.0508973678 -0.1825750122 0.067395316
85299490.0 -0.1746128895 0.0659472837 0.5321331629 -0.0576774937 0.5320135371 -0.0578307548 -0.1804218794 0.0682343621
90299460.0 -0.1723942379 0.0663962082 0.5332443628 -0.064398086 0.5336893408 -0.064598991 -0.1780014641 0.0693927801
95299430.0 -0.1706257958 0.0670755445 0.534223153 -0.0719815443 0.5338108815 -0.0717426294 -0.1758006836 0.0700652664
100299400.0 -0.1686324593 0.0679020588 0.534404329 -0.0785653861 0.5344503636 -0.0787150777 -0.1741052467 0.0710268537
105299370.0 -0.1668014341 0.0679787263 0.5344631004 -0.0852233516 0.5350414243 -0.0857894193 -0.172082635 0.071800542
110299340.0 -0.1658493665 0.0684639078 0.5349388616 -0.0920874423 0.5351315633 -0.0923785821 -0.1709333157 0.0726288753
115299310.0 -0.1639867662 0.0687492393 0.5346533083 -0.0990050109 0.5351634321 -0.0987381585 -0.1691513404 0.0730378314
120299280.0 -0.1629142306 0.0693162213 0.5349304089 -0.1056468888 0.5347606821 -0.1061170835 -0.1679648487 0.0742319573
125299250.0 -0.1618173695 0.0699958073 0.5344741712 -0.112531836 0.5349290034 -0.112881541 -0.166511058 0.0746899756
130299220.0 -0.1603907953 0.070538365 0.53367309 -0.1188508796 0.5339578804 -0.1193806855 -0.1654181498 0.0758505678
135299190.0 -0.1591986961 0.0708179378 0.5327242572 -0.125373037 0.5327529115 -0.1261537916 -0.164429211 0.0769932894
140299160.0 -0.1588917432 0.072276593 0.5321299439 -0.1325608272 0.5323950895 -0.1328802679 -0.1629372741 0.0779915006
145299130.0 -0.1576188174 0.0729656243 0.5315778469 -0.1395408541 0.5311881822 -0.1390099167 -0.1623552752 0.0785941635
150299100.0 -0.1566591398 0.0734276848 0.5300698444 -0.1461776511 0.5303551051 -0.1459519564 -0.161128543 0.0799602244
155299070.0 -0.1557849062 0.074971157 0.5291328544 -0.1529772115 0.5290205487 -0.1524571916 -0.1600446536 0.080916427
160299040.0 -0.154985777 0.0754193431 0.5272358854 -0.1585364051 0.5276383087 -0.1589752124 -0.1588986648 0.0824952925
165299010.0 -0.1543682647 0.0762466444 0.5265401778 -0.1651428781 0.5261978757 -0.1654909499 -0.1579233721 0.0832684319
170298980.0 -0.1538069474 0.0771864332 0.524089417 -0.1714678901 0.5247027638 -0.1715764606 -0.1567574666 0.0844231858
175298950.0 -0.1526529201 0.0783778446 0.5235063861 -0.1775281828 0.5233047087 -0.1779720386 -0.1559974801 0.0857454692
180298920.0 -0.1516833409 0.0791247051 0.5213509026 -0.1844758544 0.5215552049 -0.1841066178 -0.1550385777 0.0871908112
185298890.0 -0.150881646 0.0799979274 0.5190523479 -0.1905688865 0.5194550274 -0.190075028 -0.153998986 0.087967864
190298860.0 -0.1504225892 0.0810990549 0.5177414152 -0.1966142255 0.5176531452 -0.1965576275 -0.1527418188 0.0892587244
195298830.0 -0.149424962 0.0820663904 0.5156998421 -0.2022431937 0.5155812072 -0.2029966623 -0.1520931215 0.0905311678
200298800.0 -0.1489040048 0.0834435195 0.513552344 -0.2080542713 0.5136082649 -0.208421797 -0.1508979305 0.0922233239
205298770.0 -0.1484023506 0.0846582128 0.511846694 -0.2147158894 0.5115245294 -0.214807764 -0.1496937734 0.0931710796
210298740.0 -0.1477241723 0.0855966024 0.5093672509 -0.2210158251 0.5094429391 -0.2212584729 -0.1489566024 0.0946535353
215298710.0 -0.1465799052 0.0867731339 0.5070074262 -0.2266523706 0.5068916806 -0.2268709368 -0.1483420592 0.0959575527
220298680.0 -0.1459483745 0.0878313966 0.5043107817 -0.2326010555 0.5046403023 -0.2327807201 -0.1471447 0.0975869026
225298650.0 -0.1448057697 0.0893551328 0.5015235825 -0.2385197328 0.5016624966 -0.2380948636 -0.1461015948 0.0992024659
230298620.0 -0.144710425 0.0906143557 0.4998310075 -0.2443331415 0.4997874173 -0.2445394834 -0.1451808241 0.1003990295
235298590.0 -0.143602558 0.0914060807 0.4967850236 -0.2499427564 0.4971407275 -0.2502760549 -0.144168586 0.1015081015
240298560.0 -0.1431276064 0.0929877408 0.4942916306 -0.255210787 0.4943550462 -0.2555500205 -0.1430741393 0.1032154978
245298530.0 -0.1417932159 0.0943591054 0.4905466932 -0.2618196665 0.491411137 -0.2617291405 -0.1416426711 0.1048075852
250298500.0 -0.1414545595 0.0952879331 0.4885168874 -0.2668923439 0.4890272784 -0.2669637423 -0.1406635247 0.1058802904
255298470.0 -0.1405699152 0.096676819 0.4855725919 -0.2730947843 0.4857278188 -0.2727705426 -0.1397306347 0.1073996398
260298440.0 -0.1396161345 0.0980428009 0.4827353876 -0.2782183327 0.4826637594 -0.2784608995 -0.137962882 0.1088966685
265298410.0 -0.1387955774 0.0995812366 0.4793953302 -0.2840221206 0.4790992025 -0.2836775673 -0.1371609978 0.110373908
270298380.0 -0.1376907059 0.1007685466 0.4759795641 -0.289384776 0.4764963827 -0.2892027575 -0.1360516194 0.1120689582
275298350.0 -0.1372077816 0.1019496146 0.4729403372 -0.2950821049 0.4735084342 -0.2948115206 -0.1348963623 0.1132624065
280298320.0 -0.1362645753 0.1033059615 0.4700330194 -0.2996058502 0.4699458131 -0.3002920689 -0.1333532295 0.1148952564
285298290.0 -0.1352438273 0.1048164074 0.4668471097 -0.3052302109 0.4666316705 -0.3054462321 -0.1325779945 0.1163264989
290298260.0 -0.1341366567 0.1059421967 0.4635575113 -0.3107402668 0.4635133742 -0.3107852245 -0.1305063179 0.1179356299
295298230.0 -0.1333636711 0.1072358826 0.4602663477 -0.3160616491 0.4600163394 -0.3161023383 -0.1293723674 0.1194642499
300298200.0 -0.1319088394 0.1084057981 0.4565046164 -0.3214376575 0.4567514548 -0.3210238669 -0.1286474354 0.1207238205
305298170.0 -0.1311270357 0.1096310655 0.4536214346 -0.32649381 0.4534881456 -0.3268788924 -0.1264963284 0.1223424486
310298140.0 -0.1298087254 0.110458149 0.4499633036 -0.331537011 0.4500952263 -0.3322730327 -0.1253415371 0.124146884
315298110.0 -0.1292583425 0.1118338158 0.4460212848 -0.3371977626 0.4465183723 -0.3372111459 -0.1237765316 0.1249578646
320298080.0 -0.1279298768 0.1130863484 0.4420381378 -0.3421843916 0.4422537533 -0.3421889468 -0.1227169565 0.1260915319
325298050.0 -0.127212131 0.1139999186 0.4385249296 -0.3473007681 0.4387189216 -0.3474153633 -0.121523588 0.1274197482
330298020.0 -0.1264256654 0.1155856861 0.4339632751 -0.3519753248 0.4344533205 -0.3522069508 -0.1204691653 0.1287560993
335297990.0 -0.125353797 0.116749091 0.4304167972 -0.3570373658 0.4308664216 -0.3572737826 -0.1193931599 0.1302657121
340297960.0 -0.1248164482 0.1180826531 0.4257522218 -0.3622488737 0.4266100969 -0.3618015915 -0.1178962767 0.1319552602
345297930.0 -0.1238204954 0.1195553046 0.4223350459 -0.3663987364 0.4218399467 -0.3662041378 -0.1164675007 0.1329812672
350297900.0 -0.1223712436 0.1209258496 0.4183829413 -0.3708346349 0.4182208601 -0.3711817546 -0.1149376629 0.1348092941
355297870.0 -0.1215510779 0.1220914256 0.4136616538 -0.3753241199 0.4138470577 -0.375918161 -0.1136593156 0.1365254473
360297840.0 -0.1201237639 0.1233155693 0.409679496 -0.3803425878 0.4097951668 -0.3803446843 -0.1120601995 0.1380166654
365297810.0 -0.1189780477 0.1243793255 0.4050636712 -0.384419426 0.4055098603 -0.3849925459 -0.1107718752 0.1393148707
370297780.0 -0.1179308524 0.1258114805 0.4008969184 -0.3887996396 0.401420261 -0.3893127681 -0.1092165355 0.1407759827
375297750.0 -0.1165913471 0.1277281385 0.3975202049 -0.3938964595 0.396907876 -0.3939952104 -0.1076221948 0.1426265205
380297720.0 -0.1155601053 0.1281973025 0.3927408331 -0.397610711 0.3924385997 -0.3978653643 -0.1060587954 0.1439185182
385297690.0 -0.1143127459 0.1297516521 0.3882045674 -0.4017102395 0.3879283837 -0.4023890754 -0.1045710587 0.1454771363
390297660.0 -0.1132702804 0.1310601307 0.3838043738 -0.4066084343 0.38388515 -0.4064950887 -0.1031466374 0.14618334
395297630.0 -0.1118217188 0.1319313276 0.3793473663 -0.4103793178 0.379285015 -0.4106872569 -0.101538056 0.1479623644
400297600.0 -0.1108402974 0.1334389447 0.3746527096 -0.4150604699 0.3750880391 -0.4149954191 -0.1007186334 0.1489548989
405297570.0 -0.1093364648 0.1347692613 0.3701128438 -0.4189235744 0.3703918891 -0.419321304 -0.0985218058 0.1507230744
410297540.0 -0.1082496867 0.1356831521 0.3649929959 -0.4229015382 0.3651706485 -0.4229234514 -0.0970992284 0.1517932968
415297510.0 -0.1067633757 0.1373383926 0.3607534723 -0.4269520169 0.3609940482 -0.4267664698 -0.0952007855 0.1534635363
420297480.0 -0.1054258907 0.1379719141 0.3558721146 -0.4308469044 0.3559913859 -0.4306275354 -0.0932325476 0.1541541789
425297450.0 -0.1038455993 0.139140706 0.3513795446 -0.4349281766 0.3515251119 -0.4346931107 -0.0918582687 0.1559173289
430297420.0 -0.1026724819 0.1405276934 0.3465873007 -0.4387148309 0.3467071078 -0.4386782572 -0.0902390672 0.1566136855
435297390.0 -0.101282187 0.1414441879 0.3420727719 -0.4424675419 0.341948691 -0.4421119119 -0.0884935096 0.1582601501
440297360.0 -0.0997623183 0.1427791787 0.3366578817 -0.4460823553 0.3364725338 -0.4459315452 -0.0871439745 0.1590133348
445297330.0 -0.0982096359 0.143602614 0.3312272642 -0.4496780102 0.3316047224 -0.4495531598 -0.0848356755 0.1601353086
450297300.0 -0.0968477331 0.1448838291 0.3269672171 -0.4531874464 0.3269998103 -0.4533568748 -0.0836228586 0.1616390573
455297270.0 -0.0956984801 0.1456163929 0.3223623049 -0.4568178332 0.3224775341 -0.456809771 -0.0815417646 0.1627626449
460297240.0 -0.0944102672 0.1467445702 0.3169744763 -0.4598524213 0.3167863014 -0.4602676243 -0.0796722223 0.1644387678
465297210.0 -0.0925999579 0.1478592957 0.311875918 -0.4635549794 0.3123571999 -0.4634408882 -0.0783252706 0.1645700688
470297180.0 -0.091367866 0.1489009067 0.3070025324 -0.4666162653 0.3074222169 -0.467160563 -0.077191481 0.1661717461
475297150.0 -0.0901450946 0.1496417288 0.3017793504 -0.469946363 0.3016707113 -0.4701345508 -0.0745999996 0.1670776959
480297120.0 -0.0882115144 0.1504295615 0.2963278347 -0.4730453251 0.2971149217 -0.473294654 -0.0730305064 0.1680406924
485297090.0 -0.0867531399 0.1517244971 0.2915590454 -0.4768572623 0.2917061061 -0.476605562 -0.0716151752 0.1692489831
490297060.0 -0.0852970763 0.1523386675 0.2861343129 -0.4800688684 0.2864896344 -0.4799882715 -0.069438487 0.170034621
495297030.0 -0.0841815438 0.1537760852 0.2810268631 -0.4826053468 0.2806582418 -0.4828314945 -0.0672642746 0.1707134296
500297000.0 -0.0823779281 0.1541835747 0.2756200739 -0.4859923738 0.2758454699 -0.4857651042 -0.0658110666 0.1717574726
505296970.0 -0.081163868 0.1551898487 0.2701260838 -0.4883167518 0.2705047103 -0.4884625059 -0.0643644717 0.1726635325
510296940.0 -0.0796426627 0.1562631575 0.2648648442 -0.4917077389 0.2650304951 -0.4917895414 -0.0619456451 0.173995505
515296910.0 -0.078194216 0.1574570027 0.259475119 -0.494187224 0.2597670337 -0.4946932084 -0.0602312363 0.1744379635
520296880.0 -0.0764464969 0.1582689268 0.2543298063 -0.4971810894 0.2545522551 -0.4973524006 -0.0581329192 0.1753129402
525296850.0 -0.0749743696 0.1587881149 0.2486011646 -0.499998492 0.2490360802 -0.5002401116 -0.0562935358 0.176308512
530296820.0 -0.0738484032 0.1598344413 0.243556412 -0.502105984 0.2431267141 -0.5024599835 -0.054800718 0.1767011072
535296790.0 -0.0719153105 0.1603657782 0.2379319836 -0.5047740949 0.2380270541 -0.5048186065 -0.0528071296 0.1776455533
540296760.0 -0.0702852028 0.161205497 0.2325992439 -0.5077747502 0.2319518639 -0.5076985881 -0.0510689033 0.1787553182
545296730.0 -0.0689422043 0.1622149872 0.2268686496 -0.5098768965 0.2269509397 -0.5101481876 -0.0492379711 0.1789038147
550296700.0 -0.0675567407 0.1629459449 0.2214960346 -0.5121324082 0.2215983585 -0.5124885599 -0.0468437975 0.1802665069
555296670.0 -0.0657840378 0.1638076431 0.2160295663 -0.5149989398 0.2158766711 -0.5147969264 -0.0452345186 0.1809227177
560296640.0 -0.0643404105 0.1643437027 0.2106342608 -0.5172025467 0.2100346584 -0.5169510105 -0.0432951647 0.1812881453
565296610.0 -0.0624949575 0.165177145 0.2045079859 -0.5193848718 0.2041501571 -0.5195358903 -0.0414088586 0.1819790809
570296580.0 -0.0609477796 0.1657724037 0.1989997887 -0.5213653799 0.1990708062 -0.5217040553 -0.0394287388 0.182990969
575296550.0 -0.059477063 0.1668337153 0.1934441472 -0.5232887967 0.1937179044 -0.5235651852 -0.037252656 0.183030195
580296520.0 -0.0575848442 0.167426865 0.1875345466 -0.5255932072 0.1875816615 -0.5255981339 -0.0352169556 0.1837672107
585296490.0 -0.0560393985 0.1679631918 0.1822735292 -0.5277618324 0.1817729835 -0.5275139014 -0.0335517173 0.1839576508
590296460.0 -0.0548001498 0.1686197715 0.1760009287 -0.5297483532 0.1758660369 -0.5299210598 -0.0313211352 0.1845065118
595296430.0 -0.0531559552 0.1690856326 0.1706646759 -0.5310144873 0.170114333 -0.5317102354 -0.029212976 0.1853725664
600296400.0 -0.0512283899 0.1700713103 0.1646213671 -0.5330933233 0.1648190197 -0.5333384632 -0.027548671 0.1857307455
605296370.0 -0.0495811343 0.1707252086 0.1589109311 -0.5347529532 0.1589193085 -0.5346612754 -0.0249880314 0.1863133899
610296340.0 -0.0479802755 0.1711618561 0.1533549901 -0.5363187779 0.1534114515 -0.5367541995 -0.0234158377 0.1869590508
615296310.0 -0.0463189449 0.1719228504 0.1475823338 -0.5378424227 0.1471116214 -0.5380933788 -0.0211600585 0.1872707124
620296280.0 -0.0447024804 0.1724234637 0.1417583594 -0.5396858197 0.1415116612 -0.5396577712 -0.0192819457 0.1872467883
625296250.0 -0.0428537767 0.1730488907 0.1354817068 -0.5412460467 0.1354343042 -0.5409044846 -0.0174027754 0.187863183
630296220.0 -0.041211282 0.1738352355 0.128952951 -0.542710468 0.1300062893 -0.5424705935 -0.0152885782 0.1883671236
635296190.0 -0.0394399051 0.1742360291 0.1237169191 -0.5437253737 0.1236734632 -0.5431566679 -0.0136605224 0.1886772816
640296160.0 -0.0379291913 0.1744380116 0.1182984135 -0.5448597474 0.1178701427 -0.5454188639 -0.0109018326 0.1887377114
645296130.0 -0.0362432629 0.1755512095 0.1120849054 -0.5464721641 0.1119051216 -0.5460917041 -0.0095058322 0.1885518368
650296100.0 -0.0344741415 0.1760306694 0.1065336917 -0.5473207134 0.1066019209 -0.5472652413 -0.0071443286 0.1890516486
655296070.0 -0.0328523705 0.1761791447 0.1004917828 -0.5486421153 0.1001725582 -0.5484100475 -0.0046121193 0.189393674
660296040.0 -0.0313999351 0.1771418195 0.0948051556 -0.5490959565 0.0944781111 -0.5488913364 -0.0033118687 0.1893577335
665296010.0 -0.0292939847 0.17706464 0.0884716921 -0.5505501064 0.0890568513 -0.5503834163 -0.001261914 0.1897601312
670295980.0 -0.0273302626 0.177804606 0.082519913 -0.5514574653 0.0827258308 -0.5512138111 0.0006321139 0.1901345114
675295950.0 -0.025864542 0.1780982124 0.0763167051 -0.5519735913 0.0766135443 -0.5526275375 0.0034174337 0.1902763278
680295920.0 -0.0240858858 0.1789511574 0.070229913 -0.5530876038 0.0704972141 -0.5532655379 0.0053177264 0.1902086395
685295890.0 -0.0224033549 0.1789088018 0.0649004117 -0.5530759884 0.0644213196 -0.553873344 0.007205917 0.1905961491
690295860.0 -0.0203165827 0.1793254667 0.0585166419 -0.5538991606 0.0583148773 -0.5542486795 0.0093222155 0.1905417547
695295830.0 -0.0184373246 0.1796415305 0.0516069636 -0.5549184876 0.0524647651 -0.5550775267 0.0110731615 0.1908044168
700295800.0 -0.0167006628 0.1799474653 0.0464218134 -0.555325543 0.0462058509 -0.555382501 0.0134751125 0.1903836478
705295770.0 -0.0150070968 0.1805123934 0.0405007977 -0.5558458747 0.0404182382 -0.5556606599 0.0150682669 0.1905849058
710295740.0 -0.013323903 0.1809263157 0.0345404868 -0.5558455022 0.0341518714 -0.5557731309 0.0170534845 0.1906104648
715295710.0 -0.0116675004 0.1809586542 0.0284052211 -0.5566505725 0.0289080235 -0.5566174146 0.0193180799 0.1903754599
720295680.0 -0.0098653194 0.1808927097 0.0217952865 -0.5560656123 0.0226171572 -0.5569450092 0.0216711446 0.1905485309
725295650.0 -0.0075556716 0.1815643665 0.0159630194 -0.556702316 0.016614732 -0.5566195662 0.0237810905 0.1902995938
730295620.0 -0.0065518933 0.1815969141 0.0104842443 -0.5568186911 0.0103814843 -0.5571448203 0.0258119148 0.1896539866
735295590.0 -0.0040794194 0.1818804941 0.0048626769 -0.5571613709 0.0046222805 -0.5571136394 0.0279501127 0.1901163201
740295560.0 -0.0023534774 0.1821981618 -0.0020181997 -0.5566813248 -0.0013841125 -0.5566560568 0.0300182567 0.1896895372
745295530.0 -0.0008404279 0.1822592486 -0.0076297242 -0.556890431 -0.0073062046 -0.5571421172 0.031812409 0.1897565493
750295500.0 0.0009244408 0.1821384502 -0.013120778 -0.5564421282 -0.0131138416 -0.5564983397 0.0339339452 0.1887473781
755295470.0 0.0032814225 0.1824933322 -0.0194499377 -0.5561433224 -0.0193386089 -0.5565099618 0.0354715504 0.18927463
760295440.0 0.0046604003 0.182645359 -0.0257024695 -0.5561509837 -0.0255773761 -0.5562908112 0.0378139086 0.1890205316
765295410.0 0.0061737286 0.1825063054 -0.0309557898 -0.5556375204 -0.0309379491 -0.5563178958 0.0408268374 0.1891888746
770295380.0 0.0082683878 0.1828753846 -0.0374719401 -0.5551571429 -0.0372306716 -0.5557191474 0.0426866292 0.1885091599
775295350.0 0.0100574924 0.1828377279 -0.0432905658 -0.5548235535 -0.0433991627 -0.5550762541 0.0439227105 0.1876779466
780295320.0 0.0119184504 0.1828359416 -0.049113325 -0.5543129815 -0.0490609595 -0.5547473881 0.0462735687 0.1879540386
785295290.0 0.0136344056 0.1831419904 -0.0551984872 -0.5533707145 -0.0555074714 -0.5542470063 0.0479501017 0.1875012187
790295260.0 0.0154565658 0.1831329728 -0.0612849162 -0.5531330707 -0.061284728 -0.5536143621 0.0504655696 0.1868930815
795295230.0 0.0169126765 0.1829824038 -0.0667074148 -0.5516768963 -0.0669668425 -0.5524880242 0.0526134357 0.1871913275
800295200.0 0.0191058245 0.1832514076 -0.073549736 -0.5516516205 -0.073026058 -0.5521982796 0.0546220374 0.185956896
805295170.0 0.0206281441 0.1831612073 -0.0789381518 -0.5505729925 -0.0792549853 -0.5509216767 0.0562887125 0.185533352
810295140.0 0.0226225848 0.1829950681 -0.0849765317 -0.5497849209 -0.0848508726 -0.5502314357 0.0587931364 0.1857064418
815295110.0 0.0245146471 0.1831731953 -0.0915529038 -0.548577594 -0.0911797771 -0.5489457129 0.0604844872 0.1847877925
820295080.0 0.0263034825 0.1826763712 -0.0966025721 -0.5478409961 -0.0966317166 -0.5479821799 0.0622358577 0.1843726828
825295050.0 0.0280302565 0.1825517052 -0.1026622409 -0.5465654358 -0.1023878763 -0.5466692942 0.0644997442 0.1839190334
830295020.0 0.0298285387 0.1827366938 -0.1086531399 -0.5457776072 -0.1091454465 -0.5460566038 0.06644242 0.1827691589
