!Created with skrf (http://scikit-rf.org).
# Hz S RI R 50.0 
!freq ReS11 ImS11 ReS21 ImS21 ReS12 ImS12 ReS22 ImS22
300000.0 -0.094300566 -0.1040185493 0.6217829679 0.0960563228 0.6218594873 0.0972823975 -0.0957773077 -0.1094434447
5299970.0 -0.1011421421 0.0111352387 0.6303624134 0.0117727156 0.6305791446 0.0114876615 -0.1014433676 0.01098772
10299940.0 -0.0966928753 0.0285255855 0.6347519206 0.0163940323 0.634211618 0.0166826275 -0.0960988164 0.0285046161
15299910.0 -0.0890435293 0.0422210437 0.6401637677 0.0214082493 0.6406610559 0.0209402107 -0.0894946242 0.0419869833
20299880.0 -0.0803319739 0.0534445891 0.648649951 0.0242148957 0.6488689757 0.0244831669 -0.0807741901 0.0529477764
25299850.0 -0.070299895 0.0622461367 0.6581973752 0.0259529827 0.6582751996 0.0254920331 -0.0713325516 0.0619626365
30299820.0 -0.0607551754 0.0688012748 0.6679258663 0.0244482319 0.6674609616 0.0245248368 -0.0616590217 0.0682103243
35299790.0 -0.0504507494 0.0735039048 0.6770552928 0.0219809071 0.6774206238 0.0215702674 -0.0520442831 0.0737109006
40299760.0 -0.0408745246 0.0764201776 0.686805415 0.0172432593 0.6868437314 0.0178922147 -0.0425411144 0.0767059132
45299730.0 -0.0315508923 0.078317329 0.6959290406 0.0126145849 0.6960362858 0.0123385674 -0.0330376191 0.0791905778
50299700.0 -0.0226756822 0.0790238225 0.7035164592 0.0051232094 0.7035596364 0.0050929565 -0.0243339392 0.0803812433
55299670.0 -0.0151446739 0.0789947049 0.7109252231 -0.0021473186 0.7106817038 -0.0025366437 -0.0172894036 0.0806201745
60299640.0 -0.0075511348 0.0787503001 0.7181796499 -0.0113900522 0.7178606838 -0.0113942089 -0.0094322008 0.0796068288
65299610.0 -0.0010057476 0.0770731273 0.7239527287 -0.0196849312 0.7240693745 -0.0198942655 -0.002520981 0.0785504782
70299580.0 0.0055503827 0.0752064943 0.7294173874 -0.0288159817 0.7292361854 -0.0289670575 0.0031197652 0.0773038749
75299550.0 0.010309612 0.0733278401 0.7335575521 -0.0390396104 0.7335156541 -0.0391547398 0.0089095591 0.0753776356
80299520.0 0.0156123715 0.0711951991 0.7372354962 -0.0483949298 0.7378779441 -0.0487443745 0.014062533 0.0733734733
85299490.0 0.0201810497 0.0691896428 0.7411252883 -0.0588528592 0.7409226679 -0.0584573823 0.0182813544 0.0709615274
90299460.0 0.0240696146 0.066610688 0.7431254261 -0.0683907525 0.7430316364 -0.0682813237 0.0227080788 0.0692863481
95299430.0 0.0280505611 0.0642037021 0.745707156 -0.079102981 0.7463155751 -0.0789747551 0.0260760335 0.0666343071
100299400.0 0.0314964356 0.0617082872 0.7478759733 -0.0889709287 0.7479118703 -0.088892151 0.0294807468 0.0645848313
105299370.0 0.0344988889 0.0591216382 0.7491717382 -0.0985118777 0.7496113767 -0.0991072111 0.0328798904 0.0617612618
110299340.0 0.0374856328 0.0562954607 0.7504833208 -0.1088090254 0.7508096886 -0.1083983319 0.0351166617 0.0594374416
115299310.0 0.0396047726 0.0544453666 0.7514767463 -0.1188773876 0.7511778298 -0.1188700041 0.0378919483 0.0577448793
120299280.0 0.0417917606 0.0522204362 0.7525623204 -0.1299268365 0.7516466574 -0.1291720807 0.0398506004 0.054546021
125299250.0 0.0439343808 0.0496120768 0.7523512882 -0.1388704612 0.7519412445 -0.1387019212 0.0423105947 0.0528000603
130299220.0 0.0456805713 0.0469134745 0.7522839281 -0.1491140148 0.7517738814 -0.1494561031 0.0440251315 0.0507519635
135299190.0 0.0469573715 0.0453001123 0.75172315 -0.1585329274 0.7516226927 -0.1586753236 0.0456951124 0.0478299099
140299160.0 0.0488477801 0.0431742502 0.7513910548 -0.1688578674 0.7512812765 -0.1681777921 0.0465791598 0.0457525549
145299130.0 0.0493091283 0.0411311831 0.7502591915 -0.1782045597 0.7507455022 -0.1779123159 0.0482494647 0.0437624889
150299100.0 0.0509255157 0.0392345803 0.7490930387 -0.187978591 0.7492374195 -0.1879158408 0.0493800911 0.0421879904
155299070.0 0.0525928563 0.0372138344 0.747641841 -0.1975985387 0.748506347 -0.1975542663 0.0505475819 0.0399149263
160299040.0 0.0535196081 0.0354414779 0.7468573588 -0.2071978269 0.7462621431 -0.2072583506 0.0511595954 0.0383336736
165299010.0 0.0543080435 0.0333107014 0.745187209 -0.2163477272 0.7450810251 -0.2166862472 0.0525965966 0.0360251578
170298980.0 0.055202252 0.0319068147 0.7429176125 -0.226060206 0.7436525753 -0.2263835192 0.0530452953 0.0337640332
175298950.0 0.0561426565 0.030362442 0.7420934105 -0.2356981049 0.7415006131 -0.2358312995 0.053629964 0.0327100955
180298920.0 0.0563667509 0.0284938579 0.7391962636 -0.2448717122 0.7388656042 -0.2446493243 0.0542788959 0.030710483
185298890.0 0.0569328353 0.0271003288 0.7377007755 -0.2537300524 0.737204418 -0.2532536974 0.0552218241 0.0290996994
190298860.0 0.0580478619 0.0254445547 0.734122775 -0.2627512146 0.7348289308 -0.2625756523 0.0552934445 0.0274590876
195298830.0 0.0576789124 0.0242077439 0.7327662733 -0.271521523 0.7327673819 -0.271472023 0.0557139649 0.0260029543
200298800.0 0.0586012233 0.0223186881 0.7299035819 -0.2812528627 0.7298425893 -0.2807477426 0.0566796709 0.0241666048
205298770.0 0.0582763527 0.020693677 0.7268944844 -0.2898068357 0.7270448477 -0.2892431445 0.0570998343 0.0228760219
210298740.0 0.0588941192 0.019874484 0.724331151 -0.2982530023 0.7235421042 -0.2982822351 0.0567099 0.0211643154
215298710.0 0.0592846178 0.0184396219 0.7207657354 -0.306738994 0.7207532004 -0.3068386461 0.0573607882 0.0200602856
220298680.0 0.0597274914 0.0174951247 0.71732655 -0.3153304967 0.7171982641 -0.3159524951 0.0575327535 0.0182462337
225298650.0 0.0596683955 0.0160626738 0.7139021793 -0.3240197235 0.7144526905 -0.3239774799 0.058011695 0.0165707065
230298620.0 0.0602161512 0.0151754707 0.7112798088 -0.3328748232 0.7113372738 -0.3331776909 0.0576443308 0.0153656659
235298590.0 0.0598171718 0.0137448831 0.7074925236 -0.3418044155 0.7076211579 -0.3417924286 0.0580247932 0.0140224615
240298560.0 0.0603310541 0.0127642758 0.7039476994 -0.3492916781 0.7041482502 -0.3496016997 0.0579252448 0.013072704
245298530.0 0.0601572847 0.0112851656 0.700148384 -0.3578821402 0.7000689521 -0.3582931922 0.0580346068 0.0116226242
250298500.0 0.0600823431 0.0098149308 0.6967560634 -0.366206488 0.6964090633 -0.3661171546 0.0579640205 0.010557536
255298470.0 0.0604229211 0.0095642484 0.6928396368 -0.3740507294 0.69326985 -0.3743311697 0.0579840006 0.0099005125
260298440.0 0.0604688493 0.0079732711 0.6888991774 -0.3815126302 0.6887636418 -0.3823078409 0.0579873153 0.0080190904
265298410.0 0.0598880643 0.0074413436 0.6841242298 -0.39089773 0.6846759008 -0.3907137361 0.0590190112 0.0069014133
270298380.0 0.0600909043 0.0062245302 0.6803693446 -0.3985020173 0.6802373816 -0.398057416 0.058371619 0.0060484178
275298350.0 0.060280227 0.005423396 0.6754806756 -0.4060085496 0.6751635066 -0.4065333595 0.057817845 0.0050068714
280298320.0 0.0597596496 0.0043899276 0.6723508744 -0.4142607519 0.6722851879 -0.4143551106 0.0584978471 0.0039894079
285298290.0 0.0599204247 0.0034189704 0.6670436105 -0.4219788684 0.6673174209 -0.4213212579 0.0581030386 0.0026910153
290298260.0 0.0597006053 0.0026274849 0.6636933473 -0.4294574868 0.6632987006 -0.4296855282 0.0583786194 0.0018503777
295298230.0 0.0601081864 0.0011788623 0.6583645482 -0.4384187686 0.6585559929 -0.4379295361 0.0581341296 0.0003589609
300298200.0 0.0600961163 0.0009239599 0.6534688366 -0.4450842693 0.6531539376 -0.445172727 0.0579338701 -0.0006706097
305298170.0 0.0600573116 -0.0008282839 0.6493605467 -0.4532051184 0.6493186864 -0.4531253102 0.0579414505 -0.0021573335
310298140.0 0.0604773526 -0.0017745052 0.6443179448 -0.4604584172 0.6444401404 -0.460206796 0.0580317352 -0.0033954565
315298110.0 0.0596642789 -0.0032867246 0.6393812458 -0.4686712427 0.6390940738 -0.4683272488 0.0577815604 -0.0044175829
320298080.0 0.0593701501 -0.0040056324 0.6329171134 -0.4756531044 0.6345948286 -0.4762562723 0.0571456709 -0.0054700447
325298050.0 0.0587147493 -0.0053894238 0.6285156212 -0.4830338508 0.6286763139 -0.4832432233 0.0570885466 -0.006717017
330298020.0 0.057381789 -0.0060826681 0.6229466153 -0.4907832265 0.6229555745 -0.4904914952 0.0562325697 -0.0076659417
335297990.0 0.0576638694 -0.0065804046 0.6175059613 -0.4973918277 0.617288049 -0.4975041962 0.0556710925 -0.0086561676
340297960.0 0.0570299737 -0.0078371455 0.6110028951 -0.5048732553 0.6106889106 -0.5043642558 0.055303773 -0.0092130598
345297930.0 0.0562719472 -0.0084994249 0.6055299133 -0.5119939976 0.6050194225 -0.5117473642 0.0553384616 -0.0104046763
350297900.0 0.0559114486 -0.0090465191 0.6003182055 -0.5180191225 0.6003908077 -0.517861107 0.054848731 -0.0112238711
355297870.0 0.055398745 -0.0098708596 0.5941843142 -0.5240475756 0.5940282875 -0.5244027226 0.054652426 -0.0117302929
360297840.0 0.0552751645 -0.0104817915 0.5879463284 -0.5316050446 0.5884310296 -0.5318401809 0.0532570456 -0.0124430251
365297810.0 0.054753354 -0.0111489325 0.5823440396 -0.5375746381 0.5822250127 -0.538511799 0.0531203175 -0.0129516299
370297780.0 0.0547403403 -0.0115904046 0.5761562452 -0.5450470379 0.5763048877 -0.5440436954 0.0527175459 -0.0138045763
375297750.0 0.0543574926 -0.0123846197 0.5704386529 -0.5508854213 0.5702564915 -0.5510310735 0.0529108316 -0.014623954
380297720.0 0.0532795542 -0.0129329389 0.5644269078 -0.5575135023 0.5641559909 -0.5575205021 0.0524133366 -0.0148347899
385297690.0 0.0533359176 -0.0139093653 0.5577989653 -0.5635694625 0.558193372 -0.5643682932 0.0519402685 -0.0155063513
390297660.0 0.0530638387 -0.0142961558 0.5518409631 -0.5693992067 0.5522970226 -0.5698356146 0.0523128937 -0.0165391249
395297630.0 0.0530198916 -0.0148963758 0.545942974 -0.5749586059 0.5454314421 -0.5757542915 0.0515124009 -0.0169531089
400297600.0 0.0521685821 -0.0156854465 0.5391517989 -0.5819417228 0.5395370158 -0.5819855739 0.0514446445 -0.0172462009
405297570.0 0.0519087085 -0.0168019962 0.5334169939 -0.5873315781 0.5327579038 -0.5879788641 0.0508900612 -0.0178378527
410297540.0 0.0514286966 -0.0167437685 0.5266649233 -0.5938090812 0.5269074445 -0.5939019676 0.0503487261 -0.0186513302
415297510.0 0.0510094033 -0.0173949756 0.5201468185 -0.5992378659 0.5203081188 -0.6000657347 0.0505433607 -0.0187872692
420297480.0 0.0505279387 -0.0184835364 0.5134038659 -0.6053737258 0.5135974256 -0.6054469769 0.0505435504 -0.0192764195
425297450.0 0.0507193811 -0.0187235406 0.5069820831 -0.6107645772 0.5061632217 -0.6106014684 0.0499813194 -0.0205511118
430297420.0 0.0498633547 -0.0191838711 0.5005305633 -0.6168719905 0.5007450193 -0.6162107172 0.0499130337 -0.020937799
435297390.0 0.0499122294 -0.0202586553 0.4926511884 -0.6226116382 0.4929028148 -0.6221351869 0.0485901842 -0.0211684802
440297360.0 0.0496174538 -0.0209230992 0.4862240443 -0.6278361498 0.4860088124 -0.6278429592 0.0486406822 -0.0217162498
445297330.0 0.0492313567 -0.0219778588 0.4799037414 -0.6329323669 0.4790522778 -0.6332457803 0.0483993835 -0.0220051909
450297300.0 0.048641335 -0.0222678257 0.4725386316 -0.6379702812 0.4726473564 -0.6377339846 0.0479800429 -0.0225284757
455297270.0 0.0478564566 -0.0228593134 0.4658989109 -0.6432617237 0.4660331412 -0.6435930571 0.0477012696 -0.0231291501
460297240.0 0.0482798599 -0.0233921966 0.4587302117 -0.6491520733 0.4583520888 -0.649234799 0.047385748 -0.0238799594
465297210.0 0.0476519443 -0.0241602569 0.4507376361 -0.6545017356 0.4511770425 -0.6546495091 0.0474763 -0.0238579083
470297180.0 0.0473389478 -0.0248797076 0.4438743639 -0.6582199714 0.4443812479 -0.6582629397 0.0470383271 -0.0250509852
475297150.0 0.0463472919 -0.0251291934 0.4367546923 -0.6634032282 0.4370080744 -0.6635357217 0.0464817491 -0.025625418
480297120.0 0.0465670997 -0.0252146339 0.4295221946 -0.668309382 0.4293468565 -0.6684508746 0.046011041 -0.0260706538
485297090.0 0.0461151347 -0.0265688379 0.4222909537 -0.6735514596 0.4222853539 -0.6732368478 0.0459236693 -0.0263694038
490297060.0 0.0459235171 -0.026859675 0.4144715817 -0.677888411 0.4145165121 -0.678035805 0.0450944408 -0.0270029487
495297030.0 0.04503442 -0.0277326374 0.4075496988 -0.6822962074 0.4073375181 -0.6818883515 0.0454560963 -0.0274842689
500297000.0 0.0449015153 -0.02771866 0.4001112414 -0.6863256608 0.3998192302 -0.687218229 0.0448160336 -0.0275653616
505296970.0 0.0448902535 -0.0283196887 0.3924235078 -0.691733747 0.3922209378 -0.6913391869 0.0445092943 -0.028789248
510296940.0 0.0443963777 -0.0291940182 0.385019458 -0.6959207249 0.385080697 -0.6958418707 0.0443793087 -0.0289758694
515296910.0 0.0436836601 -0.0291893987 0.3763239227 -0.7000555841 0.3765036487 -0.7001221345 0.043789719 -0.0301920847
520296880.0 0.0435367879 -0.0297330637 0.3697518828 -0.7037057921 0.3691379003 -0.7035504898 0.043795272 -0.029688964
525296850.0 0.0432824855 -0.0302773033 0.3615256492 -0.7076000131 0.3614300885 -0.7076605338 0.0433995932 -0.0303224279
530296820.0 0.0426976093 -0.0309646297 0.353439113 -0.7120409945 0.3541559552 -0.7116687396 0.0430141324 -0.0314057583
535296790.0 0.0429040641 -0.0310409377 0.3459752459 -0.7153045776 0.3463115332 -0.7157760507 0.0428637501 -0.0312914296
540296760.0 0.0420573663 -0.0314289648 0.3378777829 -0.7195718497 0.3384104714 -0.719467148 0.0422033 -0.0322198394
545296730.0 0.0409349119 -0.031960969 0.3300946757 -0.7227363707 0.3300768938 -0.7231795519 0.0419814109 -0.0324483371
550296700.0 0.0414982222 -0.0324369118 0.322108688 -0.7267735872 0.3220951909 -0.7272898504 0.0419081037 -0.0328315642
555296670.0 0.0408372578 -0.0328071877 0.3146153987 -0.7302600732 0.3150946552 -0.7304236029 0.0409612056 -0.0338257332
560296640.0 0.0409296049 -0.0332928177 0.3055987777 -0.7331814878 0.3065737424 -0.7337348019 0.0405454563 -0.0335850345
565296610.0 0.039936178 -0.0336179577 0.2992624245 -0.7368497168 0.298553518 -0.7363868478 0.0404144973 -0.0340352204
570296580.0 0.0394066654 -0.0335798444 0.2900028963 -0.7397626199 0.2905999179 -0.7402490827 0.039442154 -0.0349305522
575296550.0 0.0390582889 -0.0343196058 0.282230906 -0.7437877386 0.2821717689 -0.7431329159 0.0391599728 -0.0352149197
580296520.0 0.038751426 -0.0341738253 0.273845054 -0.746468726 0.2742746767 -0.7468678001 0.0382739496 -0.0357486824
585296490.0 0.0384423816 -0.0346738115 0.2662922692 -0.7495698368 0.2655494604 -0.7491943783 0.0387271699 -0.0358298855
590296460.0 0.0383777511 -0.0347923073 0.2579740348 -0.7521752828 0.2574311895 -0.7525530138 0.0375011397 -0.035974765
595296430.0 0.0377069526 -0.0354254315 0.2485569173 -0.7547697726 0.2490651444 -0.755401141 0.037142062 -0.0371408219
600296400.0 0.0374539036 -0.0356933178 0.240861852 -0.7577725581 0.2410471234 -0.7577751284 0.0368606331 -0.0372110047
605296370.0 0.0364089957 -0.0358473442 0.2333779638 -0.760651977 0.2325645224 -0.760380953 0.0360790774 -0.0376018245
610296340.0 0.0364223765 -0.0357494319 0.2247955253 -0.7620767304 0.224661661 -0.7622229513 0.0356773258 -0.037811183
615296310.0 0.0361452595 -0.0365503248 0.2162043044 -0.7653318838 0.2153197402 -0.765139038 0.0353744273 -0.0378012593
620296280.0 0.0348929749 -0.0360498821 0.2076221741 -0.7679617079 0.2071930659 -0.7675945529 0.0342028066 -0.0379607098
625296250.0 0.0347485443 -0.0368840792 0.1992925771 -0.770012239 0.1993526616 -0.7699847697 0.0336076718 -0.0384955771
630296220.0 0.0342376624 -0.0367026061 0.1904824555 -0.7721131227 0.190708098 -0.7716444246 0.0336558627 -0.0387218914
635296190.0 0.0332187263 -0.0369225482 0.1823887505 -0.7737540833 0.1824817936 -0.7738079865 0.03289868 -0.0392826924
640296160.0 0.0329171849 -0.0371788113 0.1736262667 -0.7757918518 0.1740413775 -0.7759169717 0.0319641188 -0.0396516353
645296130.0 0.0329283934 -0.0367123259 0.1650840591 -0.7775172209 0.1654463089 -0.7773778781 0.0312588228 -0.040442954
650296100.0 0.032032051 -0.037156487 0.156816898 -0.7799020852 0.1568414654 -0.7797890375 0.0319497506 -0.0403871352
655296070.0 0.0315624223 -0.0377360246 0.1478787053 -0.7813282109 0.1482562698 -0.7809539816 0.0303964376 -0.0405521336
660296040.0 0.031290225 -0.0374699043 0.140076176 -0.7831906082 0.1396661154 -0.782678202 0.029614474 -0.0412388462
665296010.0 0.0306893893 -0.0376689208 0.1305212718 -0.7840299396 0.1310082676 -0.7837777947 0.0295081253 -0.040942241
670295980.0 0.0302988102 -0.0377479184 0.1226532951 -0.7852868738 0.1227598145 -0.7848717411 0.0281466479 -0.0415342846
675295950.0 0.0293098449 -0.0380455088 0.1137343343 -0.7859973624 0.1142277192 -0.7870693719 0.0275816277 -0.0411912848
680295920.0 0.0290961732 -0.0380508896 0.1054863009 -0.7879343181 0.1058043335 -0.7874837553 0.0276001872 -0.0420878178
685295890.0 0.0286286455 -0.0378056052 0.0969168217 -0.789172132 0.0969120425 -0.7889491822 0.0270807141 -0.041327254
690295860.0 0.0274634181 -0.037867848 0.0882211092 -0.7904202241 0.0879586889 -0.7901309068 0.0261335706 -0.0420928396
695295830.0 0.0272666485 -0.0382738978 0.080276418 -0.7914024944 0.0798368676 -0.7907087518 0.0257015259 -0.0418900533
700295800.0 0.0269519238 -0.0383635671 0.0716780461 -0.7920127005 0.0714137398 -0.7919200988 0.0247860529 -0.0420670885
705295770.0 0.0261564069 -0.0385052632 0.0624528339 -0.7929726394 0.0629865606 -0.7921947911 0.0242849803 -0.0419997729
710295740.0 0.0254164396 -0.0387388197 0.0542798606 -0.7932839892 0.0538132398 -0.7935087699 0.0240184846 -0.0420992086
715295710.0 0.024803667 -0.0383106648 0.0454700509 -0.7940212303 0.0451578366 -0.7936991883 0.0229380456 -0.0425135273
720295680.0 0.0245459251 -0.0385706126 0.036057191 -0.7939185392 0.036783779 -0.7941769361 0.0224391941 -0.0430392211
725295650.0 0.0231789115 -0.0383713729 0.0281287862 -0.7944288938 0.0284164227 -0.7942695351 0.0213757704 -0.042237799
730295620.0 0.0223190361 -0.0388108556 0.0191548815 -0.7945383744 0.0194128306 -0.7937995809 0.0207200437 -0.0420695385
735295590.0 0.0226602824 -0.0387431455 0.0108906472 -0.7946963859 0.0107919464 -0.7947128516 0.0201232034 -0.0426806951
740295560.0 0.0216448207 -0.0388596278 0.0020698097 -0.7948977182 0.0027234748 -0.7951100569 0.0192209939 -0.042479403
745295530.0 0.020631863 -0.0384312614 -0.0061612452 -0.7939187172 -0.0055313957 -0.7947812935 0.0177157688 -0.042963593
750295500.0 0.0200457673 -0.0384529361 -0.0146190835 -0.7948846523 -0.0154227848 -0.7942599935 0.0175748534 -0.042699843
755295470.0 0.0193771235 -0.0384308277 -0.023079518 -0.7947416305 -0.0233488137 -0.7944953062 0.0176996997 -0.0422425916
760295440.0 0.0187316692 -0.0380698273 -0.0328679675 -0.79405712 -0.0321631329 -0.793721204 0.0168641552 -0.0433519508
765295410.0 0.0185593922 -0.0384346697 -0.0409093166 -0.7932417095 -0.0406517403 -0.7934371032 0.0159583593 -0.0429221477
770295380.0 0.0178508297 -0.0381256215 -0.0491205366 -0.7926154665 -0.0494574109 -0.7934982902 0.0150880659 -0.0427412083
775295350.0 0.0172660161 -0.0387380044 -0.0580888462 -0.7927358372 -0.0574327737 -0.7918950629 0.0151974798 -0.0424763763
780295320.0 0.0162522358 -0.0380566039 -0.0668142617 -0.791304848 -0.0659848738 -0.7915840381 0.0145520251 -0.0428087069
785295290.0 0.0157694882 -0.038351321 -0.0752210634 -0.7911021984 -0.0750597083 -0.79115954 0.0128007301 -0.0422590826
790295260.0 0.0154432058 -0.0386501269 -0.083565083 -0.7902360225 -0.0830827288 -0.7905707757 0.0125769455 -0.041847067
795295230.0 0.0143825228 -0.0386211036 -0.0919983906 -0.7898470817 -0.0923387942 -0.7897167488 0.0120355147 -0.0433223243
800295200.0 0.0134746289 -0.0379490349 -0.1001437773 -0.7878329351 -0.1007708427 -0.7882595044 0.0110793992 -0.0423546447
805295170.0 0.0128730255 -0.0383859981 -0.1090664425 -0.786967058 -0.108599698 -0.7873174506 0.0114581321 -0.0421331225
810295140.0 0.0128297239 -0.0380490245 -0.1175387726 -0.7857293911 -0.1180687335 -0.7855169498 0.0104397021 -0.0421718357
815295110.0 0.0121499441 -0.0378005922 -0.1259631382 -0.7842009158 -0.1258509154 -0.7845469697 0.0096010682 -0.0419550975
820295080.0 0.0116608506 -0.0378887313 -0.1336810239 -0.7824610266 -0.1344330985 -0.7830174724 0.0080739792 -0.0411674992
825295050.0 0.0102626954 -0.0380438089 -0.1434190982 -0.7812301073 -0.1431108741 -0.7811253791 0.0086875614 -0.0409879211
830295020.0 0.0097157419 -0.0378735731 -0.1515133661 -0.7798234506 -0.1515386128 -0.7801381355 0.0075528362 -0.0416093294
