!Created with skrf (http://scikit-rf.org).
# Hz S RI R 50.0 
!freq ReS11 ImS11 ReS21 ImS21 ReS12 ImS12 ReS22 ImS22
300000.0 -0.2110327003 -0.0795967737 -0.0020933926 -7.54283e-05 -0.0004770595 0.0004093992 -0.769608979 -0.1690293006
5299970.0 -0.2139381728 0.0088336496 -4.36977e-05 0.00016815 8.24797e-05 -2.41399e-05 -0.7847634017 -0.0091535792
10299940.0 -0.2104253067 0.0212243838 0.0001083279 9.73089e-05 0.0001183842 -0.0001076778 -0.7883988535 -0.0053739065
15299910.0 -0.2054973234 0.0310907871 0.0002931433 0.000167159 0.0001648682 7.54736e-05 -0.7937633234 -0.0029519056
20299880.0 -0.1995646683 0.0389315979 0.0001673119 5.681e-06 -6.01403e-05 -0.0002390104 -0.8002288424 0.00123384
25299850.0 -0.1928385047 0.0453210158 8.4476e-05 0.0002048487 0.0001864676 -0.0001077185 -0.8066022253 0.0076039683
30299820.0 -0.1864770393 0.0503690533 0.0001030711 0.0001452274 -0.0001714939 1.0326e-05 -0.8125392231 0.014573269
35299790.0 -0.1800831218 0.0545049397 -5.5072e-06 4.49713e-05 -4.28353e-05 6.17101e-05 -0.8180204746 0.023792892
40299760.0 -0.1739233627 0.0571491717 -8.23412e-05 -9.52504e-05 6.0818e-05 -0.0001210436 -0.8214014833 0.0333976501
45299730.0 -0.1684507712 0.0593566816 -3.91639e-05 -1.94667e-05 8.33463e-05 0.0002343551 -0.8252825159 0.0424177137
50299700.0 -0.1626971172 0.0608631552 -1.0902e-06 0.000184336 -0.0001573226 2.5781e-06 -0.8275311834 0.0527610386
55299670.0 -0.1582909477 0.0616101853 0.0002111295 6.54388e-05 0.0001135153 -8.69292e-05 -0.8300187089 0.0628494127
60299640.0 -0.1540482831 0.0620013738 -3.81075e-05 9.98303e-05 8.82208e-05 -9.22878e-05 -0.8310065823 0.0732096168
65299610.0 -0.1497726203 0.0627462484 -2.75653e-05 8.8342e-06 -0.0001851831 0.0001828249 -0.8312157087 0.083066207
70299580.0 -0.1463847182 0.0627051685 -0.0002786666 9.99893e-05 -0.000174812 0.0002563808 -0.8320708325 0.0928029436
75299550.0 -0.1432229197 0.0625162309 -2.2658e-05 8.1638e-05 0.0001536265 -0.0002181456 -0.832313192 0.1023065257
80299520.0 -0.140492862 0.062849431 3.12332e-05 7.569e-06 -0.0001577125 2.3305e-05 -0.8320696293 0.112749557
85299490.0 -0.1375742611 0.0622246823 4.24649e-05 0.0001940116 5.03432e-05 -6.93092e-05 -0.8315693926 0.1219332671
90299460.0 -0.1356170424 0.0624502076 -2.96778e-05 0.0001536163 1.36458e-05 6.20515e-05 -0.8303757986 0.1316917148
95299430.0 -0.1332373706 0.0617563099 0.0001752057 9.6875e-06 7.1292e-06 0.0002428661 -0.8297879948 0.1414188485
100299400.0 -0.131652941 0.0620807896 0.0001394382 -1.75815e-05 0.0001201607 9.94464e-05 -0.8287459719 0.1498106595
105299370.0 -0.1296252032 0.061829363 -8.69749e-05 -3.05234e-05 -1.9791e-05 -0.0001660751 -0.8277780793 0.1589944607
110299340.0 -0.1284470263 0.0615110409 4.49012e-05 -0.0001825026 -0.0001635755 -0.000174364 -0.8269820879 0.1687324839
115299310.0 -0.1269216977 0.0610080681 0.0002144821 2.65868e-05 5.529e-06 0.0001887793 -0.8246596578 0.1771561918
120299280.0 -0.1257095775 0.0614262539 -2.26958e-05 -0.0002875798 -5.19571e-05 -1.62889e-05 -0.8236938442 0.1857033116
125299250.0 -0.1247230862 0.0609310398 -8.21791e-05 0.000124517 -0.0001157801 4.8607e-06 -0.8218224256 0.1953320917
130299220.0 -0.1232559124 0.0614241237 -0.0001247395 7.75347e-05 -0.0002428433 4.44605e-05 -0.8204331529 0.2040804565
135299190.0 -0.1223911298 0.0609443626 -3.89865e-05 0.0001363735 -8.2462e-05 0.0001120859 -0.8178132716 0.2127172807
140299160.0 -0.121434655 0.0613182696 0.0001295511 0.0002244966 8.90518e-05 -2.19281e-05 -0.8156363236 0.2217424997
145299130.0 -0.1206126909 0.0612116937 -0.0001013233 9.2489e-05 8.32367e-05 5.05165e-05 -0.8134864317 0.2296199364
150299100.0 -0.1201547791 0.0615056438 7.25355e-05 -0.0001479504 8.91566e-05 9.78846e-05 -0.8113670574 0.2383462163
155299070.0 -0.1193259874 0.0620660393 -3.61147e-05 -0.0001002559 6.36364e-05 -4.3846e-06 -0.8092337381 0.2475745971
160299040.0 -0.1185252231 0.062334214 -0.0001289782 7.90925e-05 -5.09413e-05 8.43025e-05 -0.8074626143 0.2566850222
165299010.0 -0.1181642103 0.0626603745 0.0002252159 9.56806e-05 0.0002047638 9.24993e-05 -0.8040995629 0.2652695793
170298980.0 -0.1176248021 0.0627983251 7.3569e-06 8.0743e-05 0.0001864483 2.28647e-05 -0.8021170384 0.2731326486
175298950.0 -0.1169385993 0.063535341 7.51536e-05 -5.6096e-06 5.01914e-05 2.28251e-05 -0.7988158972 0.2815971672
180298920.0 -0.1163186107 0.0637533115 0.0001351208 6.01052e-05 -0.0001470835 0.0001364453 -0.7956659275 0.2902366292
185298890.0 -0.1159770559 0.0642582121 0.0001441478 -1.28585e-05 0.0001163404 0.0002304427 -0.7928435848 0.2986400972
190298860.0 -0.1152015617 0.0645610893 0.0002635572 -8.40748e-05 -7.78238e-05 2.07834e-05 -0.7895573101 0.3071877832
195298830.0 -0.1144566429 0.0650400809 -2.98835e-05 -3.648e-06 0.0001106029 0.0001474891 -0.7870454386 0.3153004946
200298800.0 -0.114244664 0.06590907 0.0001600741 9.76206e-05 0.0001016591 8.50049e-05 -0.7832732258 0.3237071244
205298770.0 -0.1138586502 0.0665907488 -0.0001731366 0.0001598815 0.0001057726 3.79604e-05 -0.7802283559 0.3322620537
210298740.0 -0.1132155747 0.0672909368 0.0001417872 3.43789e-05 0.0001229797 1.45592e-05 -0.7769312898 0.3400867063
215298710.0 -0.1130348738 0.0679793183 -2.93912e-05 -0.0001763483 -7.6887e-06 0.000339275 -0.7734534228 0.3483160376
220298680.0 -0.1121976015 0.0686895915 0.0001485157 -0.0001085475 -7.1949e-05 -0.0001957089 -0.7697209671 0.3572701294
225298650.0 -0.1119856406 0.069180871 -3.5511e-06 0.000226228 4.54481e-05 0.0001682312 -0.7659770033 0.3648562238
230298620.0 -0.1115984169 0.0702051054 5.30882e-05 -0.0001067921 7.66019e-05 0.0001107983 -0.7617450688 0.3727575373
235298590.0 -0.1113474102 0.0706207555 8.60836e-05 -2.15611e-05 0.0002487404 -5.9235e-05 -0.7577082475 0.3808209154
240298560.0 -0.1107660745 0.0714688119 0.000185339 -0.0001584196 0.0002397066 5.88082e-05 -0.7540378219 0.3881857071
245298530.0 -0.1100175405 0.0721193132 -3.77831e-05 0.0001763091 8.65395e-05 0.0001127848 -0.7499951393 0.3965522222
250298500.0 -0.1096459 0.0731355724 -2.48809e-05 -9.5347e-06 3.1973e-06 5.72539e-05 -0.7457899852 0.404613562
255298470.0 -0.1090029072 0.073936388 0.0003116183 2.8725e-05 0.0001060592 9.84325e-05 -0.7412535934 0.4122429737
260298440.0 -0.108575026 0.074995577 -7.3573e-06 0.0002304494 0.0002284838 0.000118459 -0.7363618877 0.4198660839
265298410.0 -0.108255364 0.0757795834 -4.89058e-05 3.4892e-05 0.0001636235 3.84659e-05 -0.7327204316 0.4275485921
270298380.0 -0.1078064057 0.0766581957 8.85953e-05 -0.0001612103 5.42535e-05 0.0001526108 -0.7276834941 0.4353797241
275298350.0 -0.1069689182 0.0776758829 -8.49127e-05 0.0001718688 -4.1923e-06 7.50897e-05 -0.7228130519 0.4430244399
280298320.0 -0.1065302463 0.0784001738 4.22147e-05 0.0001742819 -5.36831e-05 9.74852e-05 -0.7186162517 0.4502106999
285298290.0 -0.1059576175 0.0796583712 0.0003416348 3.38286e-05 7.4943e-06 5.70411e-05 -0.71357039 0.457753759
290298260.0 -0.1054445429 0.0804287519 0.0001336371 -0.0001045451 0.0002218007 6.24859e-05 -0.7091500183 0.4658998652
295298230.0 -0.1048409993 0.0812607836 -0.0002363753 -0.0001137533 0.0001458773 0.0002963661 -0.7036060225 0.4731349668
300298200.0 -0.1040452118 0.0819403842 -4.71435e-05 9.00203e-05 0.0001276909 -0.0001749655 -0.6986786884 0.4797792079
305298170.0 -0.1033327262 0.0829650965 0.0002630842 0.0002193617 0.0002338978 0.0002273378 -0.6934127996 0.4874038347
310298140.0 -0.1030111669 0.0834318548 0.0003287889 3.31896e-05 0.0001652617 6.13961e-05 -0.6887129189 0.4953245315
315298110.0 -0.1024756141 0.0845129988 0.0002198964 -9.70616e-05 0.0001517365 0.0002326327 -0.6831923585 0.5018393588
320298080.0 -0.1018392162 0.0855088322 0.0001267804 0.0001651033 4.98437e-05 0.0002207309 -0.6784730984 0.508943962
325298050.0 -0.1012344866 0.0859972143 -0.0001329915 3.63682e-05 6.72299e-05 4.16304e-05 -0.6722080389 0.5160147871
330298020.0 -0.1010562728 0.0873984159 0.0001434541 4.381e-07 3.73644e-05 -0.0001532222 -0.6669119301 0.5234420471
335297990.0 -0.1003412844 0.0881840041 0.0001591755 0.0001609945 8.16897e-05 0.000179063 -0.6614258674 0.5296021169
340297960.0 -0.0997036035 0.0891835397 -3.25027e-05 0.0001000142 0.0002212054 1.48619e-05 -0.6553966112 0.5372341997
345297930.0 -0.0993181731 0.0900113186 8.42411e-05 6.48579e-05 0.0001205049 0.0001054454 -0.6497745583 0.5437743767
350297900.0 -0.0981940004 0.0912053453 -0.0001295918 3.47564e-05 -9.29305e-05 -7.17457e-05 -0.6443326047 0.5515444225
355297870.0 -0.0980454969 0.0919962499 0.0001813007 9.36558e-05 -3.4559e-05 1.22287e-05 -0.6386223301 0.5572258389
360297840.0 -0.09731907 0.0931864162 0.0003597984 0.0003855199 -0.000133233 0.0001494759 -0.632099412 0.5635113412
365297810.0 -0.0966998003 0.0942662449 0.0001197942 -0.0002312021 0.0002329548 6.86614e-05 -0.6258590064 0.5707260552
370297780.0 -0.0959497149 0.0950944202 0.0001947516 0.0002263654 3.51194e-05 7.8222e-06 -0.6209085678 0.5766752267
375297750.0 -0.0950846081 0.0964106207 -4.41712e-05 4.82999e-05 0.0001107377 5.87374e-05 -0.6142258687 0.5831268024
380297720.0 -0.0940501201 0.0972052578 -7.50477e-05 -0.0001107505 0.0001023266 -4.36381e-05 -0.6078887188 0.5902273705
385297690.0 -0.0936462186 0.0984036806 -2.81124e-05 0.0002575963 0.0001406427 0.0001153955 -0.6015178107 0.5958850723
390297660.0 -0.0925552881 0.0991825042 -2.59055e-05 0.000131402 9.28867e-05 3.32324e-05 -0.5951435935 0.6020777373
395297630.0 -0.0920226829 0.100524873 0.0001403825 0.0001959693 0.0001709847 -7.20377e-05 -0.5892200265 0.6082515776
400297600.0 -0.0911230321 0.1014732897 0.0001023312 0.0001047627 0.000134809 -5.8141e-05 -0.5833780179 0.6141441768
405297570.0 -0.0904440911 0.1025047892 3.48982e-05 2.68869e-05 0.0003814392 -2.75365e-05 -0.5773681358 0.6197378769
410297540.0 -0.0896013989 0.1032375701 0.0001714283 4.31709e-05 0.0002288094 -6.26874e-05 -0.570568676 0.6251625376
415297510.0 -0.0886329275 0.1040772448 -7.4848e-06 -0.0001842076 9.97424e-05 2.09383e-05 -0.5634409884 0.632084918
420297480.0 -0.087816514 0.1050763421 -1.02072e-05 6.14701e-05 0.0002267884 0.000117206 -0.5570417479 0.6367767843
425297450.0 -0.0869394723 0.1060157289 0.0001779798 0.0001816816 0.0001350249 -2.12928e-05 -0.5502159133 0.6427665274
430297420.0 -0.0862652496 0.1071330256 -2.24067e-05 0.0001914733 8.80233e-05 0.0001689122 -0.543613683 0.6486593274
435297390.0 -0.0853192173 0.108175911 0.000167336 0.0001801235 6.68847e-05 0.0001828278 -0.5369422813 0.6532734591
440297360.0 -0.0840211618 0.1089243289 7.79649e-05 0.0001293499 0.0002243087 -0.0001265458 -0.5303419891 0.6588370396
445297330.0 -0.0835237412 0.1100891197 0.0002003165 -0.00010179 0.0001127655 0.0001715204 -0.5239130839 0.6643941238
450297300.0 -0.0822699833 0.1107145794 0.0002399555 0.0002399784 0.0001170656 -3.9412e-05 -0.5168891933 0.6693679334
455297270.0 -0.0814304883 0.1119050305 0.0001764755 8.7207e-05 4.14027e-05 9.37628e-05 -0.5099888786 0.6753505422
460297240.0 -0.0805950883 0.1130327874 0.0002969089 0.0001791977 0.0001663595 9.0252e-05 -0.5025607347 0.6802142121
465297210.0 -0.0794440354 0.113719615 0.000369313 -5.474e-07 0.0001319152 7.79625e-05 -0.4961147424 0.6847561461
470297180.0 -0.0785027181 0.1146798998 0.0003409956 0.0001099863 0.0001195509 0.0001775904 -0.4893126142 0.6894658125
475297150.0 -0.0775582699 0.1154507904 0.0002602756 -1.94887e-05 0.0002617536 5.60909e-05 -0.4821230456 0.6944879751
480297120.0 -0.0766700007 0.1162936997 0.0002959183 -4.39774e-05 0.0002986647 0.0001603213 -0.4754197044 0.7002474238
485297090.0 -0.0752530746 0.1172866095 0.0001959436 4.70126e-05 2.75607e-05 1.3388e-05 -0.4678274226 0.7042491479
490297060.0 -0.0744021725 0.1181143543 -7.13347e-05 -7.80129e-05 7.80057e-05 7.05257e-05 -0.4612346944 0.7088847626
495297030.0 -0.0733860065 0.1191603088 0.000174253 -3.84801e-05 0.0002682338 0.0001329048 -0.4531326917 0.7130463902
500297000.0 -0.0723417222 0.1197648143 7.86209e-05 -1.57271e-05 7.52305e-05 1.12088e-05 -0.4467626949 0.7175073859
505296970.0 -0.0713973074 0.1207952702 0.000245421 0.0003190774 7.20423e-05 -0.0001244062 -0.4403518958 0.7218695182
510296940.0 -0.0702611542 0.1220850532 0.0001717477 1.80305e-05 0.0001539828 -1.04267e-05 -0.4323700191 0.7265337908
515296910.0 -0.0692998508 0.1227017108 0.0001720447 -3.60671e-05 0.0001179758 5.64401e-05 -0.4246840354 0.7306218117
520296880.0 -0.0681857308 0.1232955376 0.0002882252 0.0002573695 0.0001435589 4.08786e-05 -0.4177656591 0.734848878
525296850.0 -0.0669833412 0.1243609619 -0.0002136106 -7.6171e-05 9.88073e-05 -7.35804e-05 -0.4094943762 0.739443643
530296820.0 -0.0659507579 0.1251603933 6.63836e-05 -5.81558e-05 0.0001292008 -5.56081e-05 -0.4031347058 0.7428384806
535296790.0 -0.064566434 0.1259831328 0.0001718236 8.01413e-05 0.0001054654 2.70043e-05 -0.3955120147 0.7466016205
540296760.0 -0.063629817 0.1263070677 7.03484e-05 1.89242e-05 -2.45412e-05 0.0001080317 -0.3882452372 0.7507513246
545296730.0 -0.0628125433 0.1273245437 0.000228577 0.0001046166 0.000268515 -7.21348e-05 -0.3810429291 0.7542043574
550296700.0 -0.0616457082 0.1282912438 -6.80785e-05 5.3131e-05 0.0001820416 0.0002284097 -0.3729694235 0.7579586438
555296670.0 -0.0601677265 0.1289419697 0.0002989996 0.0002504595 9.90264e-05 5.71389e-05 -0.3651514154 0.7617598985
560296640.0 -0.0591558428 0.1296992131 9.87818e-05 0.000110348 1.4406e-05 0.0001370449 -0.3574875514 0.765381431
565296610.0 -0.0576662224 0.1306293007 0.0003062137 -4.05075e-05 1.00207e-05 -0.0001888551 -0.3505846105 0.7685861389
570296580.0 -0.0568611492 0.1311104452 0.0001883648 0.0002971048 0.0001211516 0.0002268991 -0.3432497817 0.772589265
575296550.0 -0.0554276629 0.1320408504 6.03808e-05 9.59081e-05 0.0001150977 7.9845e-05 -0.3347905046 0.7755664707
580296520.0 -0.0541657406 0.1327413257 0.0001460515 -1.62936e-05 0.0003095853 5.14655e-05 -0.3270375288 0.7790241825
585296490.0 -0.0532802321 0.1331115695 0.0003401089 0.0001999502 9.58383e-05 7.794e-07 -0.3193838438 0.7817499326
590296460.0 -0.052041585 0.1338458007 0.0001366359 -0.0001716715 6.01998e-05 0.0001441264 -0.3115867213 0.7842683728
595296430.0 -0.0505092477 0.1346747167 0.0001261949 1.73603e-05 0.0002337689 -0.0001022559 -0.3039867852 0.7871921628
600296400.0 -0.0494799438 0.1353936607 0.000192461 -1.34582e-05 0.0002754213 7.16795e-05 -0.2963439098 0.7914088471
605296370.0 -0.0479811341 0.135856939 9.75767e-05 -0.000265484 0.0002432487 2.2556e-06 -0.2886294004 0.7940331723
610296340.0 -0.0466332132 0.1365555517 -1.70713e-05 0.0001625239 0.000106201 -0.0001234523 -0.2801014852 0.7970422928
615296310.0 -0.0456964048 0.137540042 9.61193e-05 0.0001570356 0.0001658185 -0.0002036634 -0.2728040356 0.7992139757
620296280.0 -0.0441118596 0.1380721979 0.0002343034 -4.73714e-05 3.70096e-05 -2.82181e-05 -0.2650301582 0.8016935726
625296250.0 -0.0429586101 0.1385715687 0.0002885811 -0.0002241827 0.0003491428 -4.96886e-05 -0.2564781399 0.8050928296
630296220.0 -0.0418060079 0.1391974201 0.0002638241 -1.32063e-05 0.0004189271 9.58885e-05 -0.2485885867 0.80714613
635296190.0 -0.0403787976 0.1399051149 -8.29236e-05 0.0001556031 0.0002341788 0.0001356282 -0.2414199104 0.8094726565
640296160.0 -0.0390647939 0.1404344786 0.0002725929 -9.58883e-05 0.0002934095 -8.9519e-05 -0.2324096996 0.8112412193
645296130.0 -0.0380555602 0.1410803634 0.0002816456 0.0001391194 0.0002086544 9.3528e-06 -0.2254505675 0.8134949149
650296100.0 -0.0364358532 0.1415691983 0.0001663547 0.0002075041 0.0003814505 4.07296e-05 -0.2166410359 0.8166972369
655296070.0 -0.0352072997 0.1419760839 0.0001661044 9.80749e-05 0.0002930107 -0.0001069212 -0.2081902562 0.8177089156
660296040.0 -0.03391769 0.1426939111 0.0002795825 1.12353e-05 0.0001761316 5.14917e-05 -0.200361039 0.8205158303
665296010.0 -0.0326854234 0.1430719235 0.0002228959 6.29356e-05 0.000258815 9.45796e-05 -0.192866692 0.8223737714
670295980.0 -0.031277499 0.1434472984 0.0002144529 4.78468e-05 0.0001919501 -9.01895e-05 -0.184658277 0.8237436548
675295950.0 -0.0297346542 0.1440125222 0.000126911 -2.11126e-05 0.0002241259 8.12825e-05 -0.1761277647 0.8263426365
680295920.0 -0.0284354819 0.1448932147 0.0006088591 -0.0001284143 3.83896e-05 -0.0002493239 -0.1679489775 0.8276626617
685295890.0 -0.0274055131 0.1452406039 0.0002334919 4.0702e-05 0.0003098898 0.0001056577 -0.1597935699 0.8293250255
690295860.0 -0.02545604 0.1455819091 0.0002377154 6.71017e-05 0.0003432483 -0.0001970346 -0.151864129 0.8306993674
695295830.0 -0.0241772556 0.1460032237 0.0001837227 0.0001998021 0.000156101 1.86978e-05 -0.1431853228 0.8323395105
700295800.0 -0.0228742442 0.1467889513 0.0002251212 -0.0001548541 0.0001787711 5.5818e-05 -0.1348175651 0.8335343763
705295770.0 -0.0212067986 0.1468787995 0.0003097983 -0.0001049741 0.0002941705 9.84622e-05 -0.1275629907 0.8352985785
710295740.0 -0.0202465188 0.1471580439 9.38942e-05 1.37015e-05 0.0003402855 6.76355e-05 -0.1192135464 0.8367690921
715295710.0 -0.0190530323 0.1479474792 0.0002785185 -1.76693e-05 0.0002758796 9.37088e-05 -0.1110214098 0.8374931757
720295680.0 -0.0173782945 0.1479897279 0.0003532845 2.6726e-05 0.0003273588 0.0001308903 -0.1026223044 0.8384127535
725295650.0 -0.0159305188 0.1488796953 8.268e-05 -0.0001264834 0.0003445472 -5.16437e-05 -0.0938974151 0.8393568532
730295620.0 -0.0146210047 0.1486475638 0.0002934292 -0.0001088326 0.0001979102 -0.0001441803 -0.0860377118 0.8398526025
735295590.0 -0.0130692757 0.1489207933 0.0003629043 0.0002093405 0.0003359643 2.7653e-05 -0.0771433981 0.840703589
740295560.0 -0.0115513552 0.149798289 0.0001273009 5.26184e-05 0.0002732996 -0.0001417053 -0.0693263072 0.8411745475
745295530.0 -0.0103654435 0.1498213008 0.0005098674 -7.33369e-05 0.0001700832 9.2298e-05 -0.0607515108 0.8424998588
750295500.0 -0.0091296519 0.1499825882 0.0001915385 -0.0004263256 0.000118962 4.36995e-05 -0.0524433135 0.8423336801
755295470.0 -0.0069398108 0.1505141559 0.0002508912 -4.5264e-06 0.0001439862 0.0001200233 -0.0451463941 0.8434048044
760295440.0 -0.0060183818 0.150846889 0.0002575877 -0.0001008931 0.0002726913 9.62698e-05 -0.0365713672 0.8436173328
765295410.0 -0.0044686972 0.1507411954 0.0003787163 -8.051e-07 8.04422e-05 0.0001044099 -0.0271603645 0.8442761968
770295380.0 -0.0031577398 0.1515780911 0.0003790866 -0.0001212205 0.0003776298 -8.82457e-05 -0.0188301754 0.8440419306
775295350.0 -0.0016255534 0.1517331703 0.0001625 -0.0002428504 0.000208738 -8.87075e-05 -0.0112516992 0.8440129651
780295320.0 -0.0003336018 0.1515479706 0.0003123174 -0.0001006306 0.0001252174 -8.2873e-06 -0.0025714086 0.8445417807
785295290.0 0.0013289873 0.1521979033 5.38617e-05 -0.0001592021 0.0002391263 -0.0001186058 0.0044931607 0.8445605731
790295260.0 0.0026843757 0.1521578534 0.0003952998 8.83306e-05 0.0001369445 -0.0001678693 0.01428919 0.8447918048
795295230.0 0.0041347555 0.1524646608 0.0001735566 -6.6564e-05 0.0004997135 -1.61897e-05 0.0222936184 0.8445027735
800295200.0 0.0058430357 0.1525551688 0.0003668223 -0.0001179303 0.0001948278 -0.0001900408 0.0302891448 0.8435454257
805295170.0 0.0072175084 0.1526577612 0.0001014495 8.91871e-05 0.0002502948 5.63794e-05 0.038489387 0.8435860146
810295140.0 0.0086785042 0.1528997968 5.09862e-05 0.0001064764 0.000195478 1.84538e-05 0.0467164019 0.8435585025
815295110.0 0.0100328108 0.1532040885 0.0001447803 -8.11018e-05 0.0002388491 -0.0001168146 0.055102528 0.8431209832
820295080.0 0.0117523234 0.15280235 5.5712e-05 -4.44072e-05 0.0002791904 -0.0002719578 0.0631172574 0.8420613802
825295050.0 0.0133918149 0.1529773305 0.0004951138 -2.72147e-05 0.0002584105 -2.64164e-05 0.0714478934 0.8416795271
830295020.0 0.0147839839 0.1532820037 0.0001216259 0.0001071342 6.31468e-05 -0.000211777 0.0793946595 0.840535144
835294990.0 0.0163370119 0.1533824139 0.0002704886 -0.0001495222 0.0001678006 -0.000229943 0.0884138078 0.8399497149
840294960.0 0.0175120693 0.1534110681 2.48236e-05 -0.0001474646 0.000167961 0.0001214469 0.0958022279 0.8388452862
845294930.0 0.019187112 0.1535285033 0.0002097235 -0.0002077575 0.0002124047 8.88626e-05 0.1043094936 0.8381315464
850294900.0 0.0206114893 0.1534003034 0.0001762434 3.73789e-05 0.0001722251 -7.64369e-05 0.1127173916 0.8368769418
