!Created with skrf (http://scikit-rf.org).
# Hz S RI R 50.0 
!freq ReS11 ImS11 ReS21 ImS21 ReS12 ImS12 ReS22 ImS22
300000.0 -0.3147230807 -0.1331444144 0.3716799023 0.0669175506 0.3709069741 0.067313905 -0.3136740003 -0.1344915897
5299970.0 -0.324842193 0.0025026725 0.3780975266 0.0032107613 0.3787225543 0.0033300039 -0.3253503872 0.0019004114
10299940.0 -0.3226947624 0.0139749156 0.3800383727 0.0030624415 0.3797677459 0.0030248054 -0.3228441956 0.0126165649
15299910.0 -0.3191447494 0.0224077786 0.3820988073 0.0026135176 0.3819989808 0.0029176624 -0.3205541591 0.019877149
20299880.0 -0.3156916065 0.0290604748 0.3848663723 0.001723928 0.3854232109 0.0017905051 -0.3175934701 0.0260716304
25299850.0 -0.3114883064 0.0347248707 0.3883316041 0.000661015 0.3887049104 0.0001858046 -0.3144898276 0.0311880776
30299820.0 -0.3082120173 0.0395032601 0.3918976347 -0.002003329 0.392075192 -0.0022256958 -0.3114108636 0.0356432008
35299790.0 -0.3042292635 0.0438639208 0.3950342239 -0.005277293 0.3953074362 -0.0051593676 -0.3089050293 0.0398988005
40299760.0 -0.3011635191 0.0466211431 0.3984027808 -0.0083375285 0.3983912848 -0.0088112121 -0.3061043309 0.0431697898
45299730.0 -0.2978639017 0.0500528881 0.4011526653 -0.0124220413 0.401495311 -0.0126093007 -0.3034303521 0.0465644908
50299700.0 -0.2945409553 0.0527757488 0.4036874663 -0.0172787955 0.4036283263 -0.0171070649 -0.3006518582 0.0495903776
55299670.0 -0.2922620006 0.0554510721 0.4056469376 -0.0216693528 0.4056899232 -0.0218416768 -0.29890721 0.0523688237
60299640.0 -0.2897080808 0.0577364896 0.4080122664 -0.0269176663 0.40773867 -0.0270509353 -0.2968021915 0.0550793638
65299610.0 -0.2875233205 0.0601581723 0.4099381973 -0.0311415217 0.4097256286 -0.0316976653 -0.294835433 0.0574966204
70299580.0 -0.2852669448 0.0622340006 0.4104754899 -0.0367326367 0.4109301654 -0.036581816 -0.2932295013 0.0598718818
75299550.0 -0.2833113813 0.0644130826 0.4115908683 -0.0422607803 0.4122400702 -0.0420836443 -0.2915662358 0.0626522403
80299520.0 -0.2816264098 0.0665193433 0.4126322206 -0.0474868063 0.4131569239 -0.0473874276 -0.2901420473 0.0649677511
85299490.0 -0.2797409863 0.0687316373 0.4133292007 -0.0528494732 0.4134572593 -0.0525229179 -0.2888936712 0.0669586211
90299460.0 -0.2783868975 0.0707507057 0.4134384941 -0.0579971169 0.4134327453 -0.057762273 -0.2873385139 0.0694936148
95299430.0 -0.2766654332 0.072727695 0.4136714532 -0.0630379605 0.4143286747 -0.0633691648 -0.2861746556 0.0719092735
100299400.0 -0.2753132914 0.0745550642 0.4140886153 -0.0678880954 0.413961147 -0.0683256359 -0.2850275643 0.0746768806
105299370.0 -0.2738596311 0.0768124535 0.4137925675 -0.0733563126 0.4141815723 -0.0734234393 -0.2835282599 0.0763183122
110299340.0 -0.272654562 0.0785618278 0.4134170465 -0.0780969658 0.4142727697 -0.0783143833 -0.2827655865 0.0787919797
115299310.0 -0.2713991017 0.0807646208 0.4133209035 -0.0835321047 0.4135091358 -0.0837210779 -0.2820652559 0.0815832581
120299280.0 -0.2704624323 0.08319022 0.4132414531 -0.0890949201 0.4130093932 -0.0890157556 -0.2807166148 0.0834158647
125299250.0 -0.2692012918 0.0851746906 0.4124140498 -0.093814729 0.4125503667 -0.0938991206 -0.2795423971 0.0860017441
130299220.0 -0.2681308128 0.0872326738 0.4117461783 -0.0986480189 0.4117325042 -0.0994339001 -0.2785351463 0.0885324455
135299190.0 -0.2672833498 0.0899287106 0.4112951817 -0.1034944787 0.4111238008 -0.1043231272 -0.2777576634 0.0908300918
140299160.0 -0.26646599 0.0922097092 0.4105832298 -0.1092252359 0.4103683159 -0.1087196691 -0.2773554508 0.0931315815
145299130.0 -0.2655748145 0.0947330034 0.4098058897 -0.1141726271 0.4096766173 -0.1141404916 -0.276217079 0.0958953617
150299100.0 -0.2641685443 0.0970946979 0.4084306813 -0.1192628175 0.4082938172 -0.1191575764 -0.275658496 0.0985990923
155299070.0 -0.2631826865 0.0994219143 0.4069107687 -0.1237017335 0.407214782 -0.1237086808 -0.2744000542 0.1012901882
160299040.0 -0.2622257581 0.1021294704 0.4059812701 -0.1284822633 0.4061060748 -0.1292532035 -0.2735176131 0.1037614043
165299010.0 -0.2609090173 0.1042570466 0.4047174957 -0.1333313936 0.4047040999 -0.133587187 -0.2723798564 0.1059269122
170298980.0 -0.2601352406 0.1067359275 0.4030564409 -0.1381653216 0.4035698762 -0.1385441503 -0.2717409085 0.1085982773
175298950.0 -0.2591271765 0.1092981755 0.4020033001 -0.1429552804 0.4027162328 -0.143620278 -0.2707360528 0.1119586394
180298920.0 -0.2580223793 0.1118594942 0.4005546711 -0.1481120655 0.4008601712 -0.1482373431 -0.2695712552 0.1143138726
185298890.0 -0.2569461926 0.1143930993 0.3994713365 -0.1527897728 0.3989383922 -0.1527235405 -0.2682497059 0.1166261497
190298860.0 -0.2557952054 0.1171201406 0.3968950151 -0.1572303567 0.397841199 -0.1571629264 -0.2675417317 0.1192831559
195298830.0 -0.2547046194 0.1197119514 0.3960498116 -0.1618091248 0.39611042 -0.1620280293 -0.2666941614 0.1219160008
200298800.0 -0.2535025999 0.1220732295 0.3940431594 -0.1666166208 0.3943413581 -0.1666521595 -0.2652950506 0.1247341835
205298770.0 -0.2528003768 0.1244859146 0.3921673145 -0.1707785588 0.3926178754 -0.1709711222 -0.2645351216 0.1273923633
210298740.0 -0.2514162714 0.1273805824 0.3907448825 -0.1756553802 0.3902011849 -0.1756051759 -0.2635697777 0.1301256296
215298710.0 -0.2506807699 0.1300550312 0.3883695632 -0.1799569297 0.3886772173 -0.180358666 -0.2619614978 0.1325136901
220298680.0 -0.2489721137 0.132500981 0.3867639255 -0.1846069528 0.3862979768 -0.1845077945 -0.2609400121 0.1353072483
225298650.0 -0.2479065877 0.1350569678 0.3844755468 -0.1888313638 0.3846216428 -0.1888194265 -0.2596221897 0.1381540216
230298620.0 -0.2464370962 0.1380866547 0.3824508514 -0.1932873927 0.3827611028 -0.193355703 -0.2584975931 0.1405131509
235298590.0 -0.2454520367 0.1405858983 0.3805570363 -0.1980496431 0.3808958842 -0.1977170346 -0.2571261121 0.1436187124
240298560.0 -0.2441963455 0.1431260525 0.3783047602 -0.2018717586 0.3782276224 -0.2019858837 -0.2557704858 0.1457521101
245298530.0 -0.2428128513 0.1457246494 0.3760895947 -0.2066757099 0.3759574233 -0.2066522991 -0.2544573897 0.1488185507
250298500.0 -0.2414589907 0.1480305813 0.3738986208 -0.2103737694 0.3742202443 -0.2105530931 -0.2531673189 0.1515481441
255298470.0 -0.2399097942 0.151277459 0.3715623474 -0.2148010182 0.3719795148 -0.2151735308 -0.2516352308 0.1542929845
260298440.0 -0.2387618912 0.1534570194 0.3694219306 -0.2187303888 0.3691876389 -0.2190608583 -0.2503999258 0.1567111617
265298410.0 -0.2374350115 0.1561056342 0.3669363787 -0.2233104862 0.3666539507 -0.2238717807 -0.2484928417 0.1596450191
270298380.0 -0.2359540818 0.1586785855 0.3641604971 -0.2274964155 0.3645085814 -0.2275231351 -0.2473660449 0.1621556665
275298350.0 -0.2344700275 0.1612692711 0.3613791368 -0.231041722 0.361783631 -0.2313393707 -0.2454851474 0.1649981176
280298320.0 -0.2328582539 0.1642019954 0.3594672737 -0.2352288372 0.3596447036 -0.2358064939 -0.2441887582 0.1676397936
285298290.0 -0.2314529683 0.1665819242 0.356417779 -0.2397082776 0.3570313479 -0.2395577921 -0.2429312047 0.1707045209
290298260.0 -0.2298458934 0.1690259999 0.354434011 -0.2434786187 0.3545639625 -0.2436480594 -0.2411143666 0.1728642496
295298230.0 -0.2284944885 0.1716241035 0.3515107389 -0.247997527 0.3517209648 -0.2476482413 -0.2391412709 0.1751838106
300298200.0 -0.2268412349 0.1745114674 0.3489316453 -0.2518680509 0.3490925921 -0.2514613464 -0.2372765082 0.1778959872
305298170.0 -0.2250860125 0.1763488139 0.3460504932 -0.255528787 0.3463653441 -0.2557943515 -0.2354621596 0.1803331852
310298140.0 -0.2230574315 0.1787981691 0.343084278 -0.2590975051 0.3434810196 -0.2594005861 -0.2338528631 0.1832675373
315298110.0 -0.2218828411 0.181200151 0.3407683653 -0.2636113632 0.3404425496 -0.2636590449 -0.2318988241 0.185758283
320298080.0 -0.2199486309 0.1838360887 0.3370295588 -0.2673308544 0.3377846718 -0.2675061139 -0.2300354731 0.1881454508
325298050.0 -0.218590652 0.1855119423 0.3342267211 -0.2710526803 0.3349252886 -0.2710477344 -0.2281687653 0.1904658067
330298020.0 -0.2170116563 0.1885220247 0.3313069435 -0.2749303105 0.33156705 -0.2749802258 -0.2265186576 0.1928231542
335297990.0 -0.2153339613 0.1907928299 0.3281596726 -0.2785806387 0.3287174361 -0.2786931562 -0.2247705759 0.195111925
340297960.0 -0.2135328944 0.1930387389 0.3249235812 -0.2823610409 0.3249990197 -0.2825174906 -0.2229341435 0.1980794984
345297930.0 -0.2118930565 0.1953524972 0.3218444659 -0.286368159 0.3220431531 -0.2859843229 -0.2212023097 0.2003310248
350297900.0 -0.2100101003 0.1981072345 0.3191205267 -0.288823057 0.3191151827 -0.2894014679 -0.2190265898 0.2029246034
355297870.0 -0.2083102469 0.2001146955 0.3153897368 -0.2924599919 0.3156259668 -0.2925430791 -0.2168886154 0.2058388638
360297840.0 -0.2059823681 0.2030004372 0.3119039157 -0.2961557803 0.3125132864 -0.2966334588 -0.2145853816 0.2081757324
365297810.0 -0.2043529599 0.2049331395 0.3086254965 -0.2994434888 0.3089757428 -0.2996206451 -0.2132285785 0.2101971136
370297780.0 -0.2022883153 0.2072787098 0.3051957761 -0.3032756735 0.3058167148 -0.3034056272 -0.2111708335 0.2127068968
375297750.0 -0.2006588016 0.2095652734 0.3023051911 -0.3062633459 0.3020918008 -0.3063646018 -0.2085528792 0.214861888
380297720.0 -0.198556577 0.2119552543 0.2989443718 -0.3097421585 0.2990027172 -0.3097362575 -0.2063988134 0.217691996
385297690.0 -0.1966513894 0.2140526347 0.2953661556 -0.312620165 0.2954780864 -0.3132056305 -0.2044242875 0.2201931846
390297660.0 -0.1940854181 0.216086486 0.2916590093 -0.3161415152 0.2921701338 -0.3160934949 -0.20197605 0.2220052518
395297630.0 -0.1916441481 0.2182254904 0.2881283623 -0.3191823452 0.2885519424 -0.3193515039 -0.1994291611 0.2243517936
400297600.0 -0.1901584311 0.2206153483 0.2848966686 -0.3224634564 0.2850554412 -0.3225041921 -0.1973381985 0.2269116315
405297570.0 -0.1877319164 0.2224711818 0.2815385044 -0.325511323 0.2814037699 -0.3256353658 -0.1947049837 0.2293400977
410297540.0 -0.1854552828 0.2248660934 0.2776213449 -0.3288616906 0.277951037 -0.3285563273 -0.1927376988 0.2313124107
415297510.0 -0.1834258196 0.2270025071 0.2741444942 -0.3318949807 0.2744416419 -0.3318446882 -0.1899083278 0.2332922764
420297480.0 -0.1812886678 0.2285865451 0.2706502729 -0.3347641573 0.270589481 -0.3349137446 -0.1875993327 0.2362080616
425297450.0 -0.1786453036 0.2305877097 0.2668944853 -0.3374636568 0.2666480758 -0.3376583036 -0.1852554342 0.2378101377
430297420.0 -0.1765917148 0.2326898205 0.2631963466 -0.3404365816 0.2636984736 -0.3403209189 -0.1827971688 0.2401094992
435297390.0 -0.1738093943 0.2346455529 0.2588545071 -0.3436329569 0.2591943785 -0.3433792598 -0.1804470567 0.2422949078
440297360.0 -0.1715777991 0.2365754266 0.2552466162 -0.3464386846 0.2552987216 -0.3465166342 -0.1779980611 0.2444383312
445297330.0 -0.1689311325 0.2383378448 0.2515126115 -0.3487993176 0.2518182603 -0.3489838691 -0.1753758838 0.2464859573
450297300.0 -0.1665976317 0.2404058562 0.2475991303 -0.3519831988 0.2479566385 -0.3516424631 -0.1724540429 0.248487976
455297270.0 -0.1645013439 0.2422033683 0.244239058 -0.3541411311 0.2443938416 -0.354238607 -0.1703025423 0.2503780075
460297240.0 -0.161382543 0.2440001533 0.240230454 -0.3573019955 0.2400352729 -0.3573620391 -0.1676214953 0.2522941228
465297210.0 -0.1589885149 0.2457350188 0.2356165984 -0.359573123 0.2356664613 -0.359990427 -0.1646061651 0.2545406654
470297180.0 -0.1569078309 0.2477147211 0.2323555694 -0.3617114228 0.2321143233 -0.3624879648 -0.1618310294 0.2564252326
475297150.0 -0.1542340214 0.2494063589 0.2281201296 -0.3645997608 0.2282596296 -0.3647423764 -0.1595503444 0.257811171
480297120.0 -0.151001559 0.2514287126 0.223905605 -0.3674817213 0.2241935763 -0.3671014805 -0.1570885911 0.2598712348
485297090.0 -0.1484814663 0.2528888004 0.2197778573 -0.3696716459 0.2200738843 -0.3696301819 -0.1543214701 0.2619750219
490297060.0 -0.1451068439 0.25481442 0.2156159192 -0.3721477114 0.2158126494 -0.3720314868 -0.1512659074 0.2632336465
495297030.0 -0.1429151554 0.2561929461 0.2121254772 -0.3744375106 0.2116231204 -0.3747218771 -0.1484850284 0.2652553983
500297000.0 -0.1403041792 0.2576554835 0.2077526889 -0.3762575531 0.2076335467 -0.3767124653 -0.1455938743 0.2669922642
505296970.0 -0.1371354204 0.2595027371 0.2038240624 -0.3789344666 0.2036673084 -0.3786060015 -0.1427105582 0.2685802412
510296940.0 -0.1345163375 0.2609953725 0.199284377 -0.3812270891 0.199603912 -0.3814001109 -0.1396023961 0.2705275495
515296910.0 -0.1316800267 0.263099069 0.1950581697 -0.3831646979 0.1949572564 -0.3830057139 -0.1372348775 0.2716123657
520296880.0 -0.1288381153 0.264073698 0.1910330044 -0.3850912171 0.1906516486 -0.3848619389 -0.1336916689 0.2735239198
525296850.0 -0.1259859682 0.2655861955 0.1865431129 -0.3870854237 0.1864534296 -0.3870792119 -0.1312713504 0.2748576345
530296820.0 -0.1234113072 0.2669680255 0.182267818 -0.3888607246 0.1821967324 -0.3890791637 -0.1283008784 0.2762760311
535296790.0 -0.1197534646 0.2685397639 0.1778744795 -0.3907916867 0.1782106038 -0.3910675081 -0.1253462575 0.2780436073
540296760.0 -0.1169904264 0.269997642 0.1736960046 -0.3928202605 0.1734867126 -0.3927358119 -0.1222198216 0.2790685675
545296730.0 -0.1147264709 0.2716523307 0.169580247 -0.3944898181 0.1692666071 -0.3947108751 -0.1191793213 0.2808713052
550296700.0 -0.1110694439 0.2729244695 0.1650690337 -0.3964598548 0.1649211812 -0.3967069638 -0.1167428974 0.28196593
555296670.0 -0.108423184 0.2741492663 0.1608813859 -0.3985434841 0.1609431985 -0.3982003062 -0.113709784 0.2830421954
560296640.0 -0.1050706154 0.2753601207 0.1561339994 -0.399934488 0.1564480155 -0.400168105 -0.110457576 0.2850423513
565296610.0 -0.1029365634 0.2769792698 0.1520655205 -0.4019309305 0.1520228456 -0.4013166023 -0.1074038913 0.285835512
570296580.0 -0.0995371678 0.2782242605 0.147680762 -0.4031359226 0.1473734459 -0.4033671682 -0.1048042397 0.287152769
575296550.0 -0.0961584078 0.2792659588 0.1435580035 -0.4046509982 0.1431046068 -0.4047569221 -0.1013607725 0.2883182363
580296520.0 -0.0934769639 0.2807986428 0.1389119804 -0.4060876813 0.1384215907 -0.4066162277 -0.0984708954 0.2900392805
585296490.0 -0.090029279 0.2818616876 0.1344518432 -0.4076777123 0.1340072205 -0.4075062644 -0.095198331 0.2911373113
590296460.0 -0.0863887418 0.2829987819 0.1299179357 -0.4090919484 0.1298383384 -0.4091657902 -0.0925208947 0.2922997839
595296430.0 -0.0837497142 0.2842853676 0.1250638863 -0.4103794821 0.1251646883 -0.4103249323 -0.0892647947 0.2932193274
600296400.0 -0.0809101925 0.2851785576 0.1204864367 -0.411717952 0.1204348825 -0.41153575 -0.0860938123 0.2942238456
605296370.0 -0.0780469618 0.2864879689 0.1168590428 -0.4128205234 0.1162123955 -0.4131794357 -0.0830216259 0.2956190437
610296340.0 -0.0742908834 0.2874313716 0.1119376608 -0.4137431565 0.1120864971 -0.4140537492 -0.0800537352 0.2963859756
615296310.0 -0.0710438799 0.2882448803 0.1074092044 -0.4150967072 0.1068784689 -0.4152028936 -0.0764411704 0.2969691813
620296280.0 -0.0684259186 0.2896443684 0.1023816455 -0.4162453959 0.1025212871 -0.4163914639 -0.0735307783 0.2982396598
625296250.0 -0.0654372132 0.2901137243 0.0984174328 -0.4173546578 0.0979773329 -0.4177056012 -0.0707739335 0.2990254918
630296220.0 -0.0623713021 0.2916441147 0.0935000107 -0.4185228386 0.0931573202 -0.4184967051 -0.0670837871 0.3000790637
635296190.0 -0.0591814375 0.2925750576 0.0894717599 -0.4192198797 0.0888569157 -0.4192462591 -0.064333381 0.3010350511
640296160.0 -0.0562037056 0.2931771064 0.0848011033 -0.4205107693 0.0842959322 -0.4206388418 -0.0611846504 0.3017695424
645296130.0 -0.0526825962 0.2944429578 0.0802640538 -0.4213771327 0.0800330764 -0.4209571364 -0.0582712373 0.302082302
650296100.0 -0.0495989301 0.2947773313 0.0750945427 -0.4223273835 0.0749688548 -0.4220320892 -0.0543976185 0.303051697
655296070.0 -0.0467392943 0.2956429191 0.0708572309 -0.4229820092 0.070674443 -0.4224919479 -0.0516492166 0.3041383115
660296040.0 -0.0435523522 0.2965195253 0.0662773419 -0.4235469511 0.0661974297 -0.4234307388 -0.0483144848 0.3042983205
665296010.0 -0.0402869711 0.2973402289 0.0614793836 -0.4236788896 0.0612107007 -0.4237986893 -0.0451959172 0.3053424164
670295980.0 -0.0369132485 0.2980197576 0.0563205238 -0.4242872236 0.0567367394 -0.4243055124 -0.0422234734 0.3057437915
675295950.0 -0.0339904055 0.2984271653 0.0523213609 -0.4251679808 0.0523755568 -0.4248730611 -0.0388841495 0.3062227743
680295920.0 -0.0314133047 0.2995851485 0.0477326899 -0.4252773704 0.0475200448 -0.4256730127 -0.0352848784 0.3065354401
685295890.0 -0.0275872151 0.300373413 0.0427752411 -0.4260751779 0.0426764521 -0.4262572337 -0.0324399192 0.3077058048
690295860.0 -0.0246839643 0.3000717463 0.0389555274 -0.4263464486 0.0382315766 -0.4264164591 -0.0293766963 0.3079637443
695295830.0 -0.0213386483 0.3011441777 0.0341706378 -0.4269599811 0.0337741849 -0.4267597983 -0.0259998922 0.3087862057
700295800.0 -0.0183078242 0.3015265198 0.0294971998 -0.4271080183 0.0291026397 -0.42724973 -0.0225571279 0.3087436696
705295770.0 -0.0155224317 0.3021312115 0.0249302019 -0.4275358139 0.0244497319 -0.4274208562 -0.0197572659 0.3094646263
710295740.0 -0.012371778 0.3021874579 0.0200217338 -0.4271742235 0.0197124487 -0.4279766967 -0.015842329 0.309514117
715295710.0 -0.0092815147 0.3029099015 0.0159418822 -0.4279640357 0.0152498312 -0.4280590622 -0.0127390918 0.309553078
720295680.0 -0.0056630505 0.3033258384 0.0105919842 -0.4280154717 0.0106327513 -0.4281904886 -0.0095135478 0.3097906043
725295650.0 -0.0031205888 0.3037999827 0.0067340156 -0.4279258724 0.0060268569 -0.4283609556 -0.0065414868 0.3106745444
730295620.0 -0.0004531588 0.303778457 0.0016907936 -0.4277699339 0.0013837018 -0.427770242 -0.0033156623 0.3108921296
735295590.0 0.0030907731 0.304383438 -0.0027995855 -0.4280525935 -0.0031677005 -0.428132425 0.0001613727 0.310741062
740295560.0 0.0061843144 0.3042649674 -0.0077059443 -0.4277121065 -0.0076507471 -0.4280275858 0.0031515318 0.3110380156
745295530.0 0.0091075086 0.3045839881 -0.0120798712 -0.4270926929 -0.0115759499 -0.4279111027 0.0061775478 0.3110848584
750295500.0 0.0121159454 0.3046477208 -0.0163155936 -0.4275337618 -0.017186987 -0.4274140724 0.0097010961 0.3111464605
755295470.0 0.015168742 0.3047770792 -0.0211085508 -0.4272486265 -0.02135971 -0.4277519115 0.0128596275 0.311569382
760295440.0 0.0184253635 0.3051019811 -0.0261488249 -0.4271625143 -0.0263691203 -0.4267856957 0.0163200164 0.3108098338
765295410.0 0.0214602077 0.3046615213 -0.0301871582 -0.4264027172 -0.0304689922 -0.4267003927 0.0197080364 0.3110706023
770295380.0 0.0241403916 0.3050490898 -0.034648926 -0.4262526178 -0.0354717036 -0.4266256077 0.0226130387 0.3110048763
775295350.0 0.0274855188 0.3049266157 -0.0398915304 -0.4258365368 -0.0394879363 -0.4260050616 0.0258903717 0.31102622
780295320.0 0.0307268873 0.3049712137 -0.0437586028 -0.4250961552 -0.0444031766 -0.4254185712 0.0294677122 0.3106422562
785295290.0 0.0339272678 0.304738545 -0.0488879764 -0.4249252455 -0.0487341415 -0.425122833 0.0322977062 0.3109338301
790295260.0 0.0367449915 0.304430441 -0.0533119323 -0.4239950838 -0.0532968143 -0.4247277033 0.0355456196 0.3108704308
795295230.0 0.039681704 0.304157872 -0.0580061611 -0.4238172549 -0.0582094517 -0.4237604387 0.0388976421 0.3099297806
800295200.0 0.0424411279 0.3040636451 -0.0617865355 -0.4226219746 -0.0625849231 -0.4230546792 0.0421086524 0.3096825066
805295170.0 0.0453619401 0.3042159896 -0.0666808387 -0.4222688891 -0.0669236534 -0.4223405701 0.0456304011 0.3092452198
810295140.0 0.0490531831 0.3035617364 -0.0716338266 -0.4212667064 -0.0717162955 -0.4216437124 0.0485498792 0.3090415991
815295110.0 0.0516388715 0.3034356463 -0.0757572536 -0.420715867 -0.0760374713 -0.420867792 0.0516000596 0.308784764
820295080.0 0.0547419007 0.3029982656 -0.0798229796 -0.4197076084 -0.080330236 -0.4202095843 0.0542494285 0.3088909083
825295050.0 0.0575536727 0.3024425512 -0.084925349 -0.4190018594 -0.0851138371 -0.4190567209 0.0583926761 0.3081559588
830295020.0 0.0610049247 0.3022211336 -0.0895386984 -0.4180169468 -0.0896272216 -0.4181467795 0.0612256225 0.3073296007
