!Created with skrf (http://scikit-rf.org).
# Hz S RI R 50.0 
!freq ReS11 ImS11 ReS21 ImS21 ReS12 ImS12 ReS22 ImS22
300000.0 -0.7740441914 -0.1487390062 -0.0003030556 0.0007486624 0.0001076042 0.0017562462 -0.0469150292 -0.0697329193
5299970.0 -0.7851798541 -0.0070085226 -0.0001743733 0.0001642412 1.57962e-05 7.8061e-05 -0.0495099871 0.0146910989
10299940.0 -0.7878994413 -0.0044857439 -5.9943e-06 -5.29594e-05 -0.0001093381 7.5729e-06 -0.0439917289 0.0321191495
15299910.0 -0.793221628 -0.0015992976 8.38037e-05 4.74602e-05 -1.70385e-05 -0.0001724048 -0.035608308 0.0466124468
20299880.0 -0.7996556585 0.0021756398 -6.9142e-06 -0.0001669322 -8.91383e-05 5.97012e-05 -0.0257737178 0.0584168523
25299850.0 -0.8062766236 0.0083803005 -9.05765e-05 3.91867e-05 -8.32595e-05 0.0001363128 -0.0152229236 0.0677912048
30299820.0 -0.8118130433 0.016278279 -3.77978e-05 -1.7307e-06 -0.0001615483 -3.58269e-05 -0.0037736897 0.0744968526
35299790.0 -0.8167513343 0.0252414269 -1.57835e-05 2.12996e-05 -0.000131338 5.67771e-05 0.0077230618 0.079476089
40299760.0 -0.8215638021 0.0341218338 -0.0001167292 0.0001557815 9.998e-06 0.0001113755 0.0190660962 0.0823541032
45299730.0 -0.8247303871 0.0445530613 4.83855e-05 -7.72452e-05 0.0001543203 0.0002961626 0.0292554528 0.0838565614
50299700.0 -0.8267094229 0.0542985004 -0.0002086444 -3.4886e-06 -2.32e-07 -8.86135e-05 0.039699663 0.0841296709
55299670.0 -0.828734579 0.0644602436 -0.000180629 -3.9128e-05 0.0001313324 -2.75072e-05 0.0483708681 0.0833668764
60299640.0 -0.8301212309 0.0745394871 -1.02523e-05 -1.10447e-05 -8.2081e-06 3.7318e-05 0.0570573438 0.0819583945
65299610.0 -0.8309285459 0.0848584156 8.19857e-05 5.87964e-05 8.10824e-05 -8.85447e-05 0.0647104976 0.0795982351
70299580.0 -0.8313052649 0.0948400759 -8.55087e-05 0.0001514695 1.35647e-05 -4.2441e-05 0.0718970175 0.0767750584
75299550.0 -0.8316217616 0.1045728582 0.0001102987 -0.0001277121 4.31944e-05 6.23071e-05 0.0781823983 0.0735781959
80299520.0 -0.8314510373 0.1143102693 8.03418e-05 1.3139e-06 -2.28286e-05 0.0002634821 0.0834137448 0.0701045496
85299490.0 -0.8311740865 0.1242961011 7.62765e-05 0.0001773286 0.0001934504 4.18784e-05 0.0888646989 0.0667783236
90299460.0 -0.8297649668 0.1344640004 0.0001834575 -7.4597e-06 4.79927e-05 -3.53911e-05 0.0936847765 0.0629359068
95299430.0 -0.8284196267 0.1436259063 9.8829e-06 5.03401e-05 -6.601e-06 7.4543e-05 0.097600911 0.0594222526
100299400.0 -0.8277542723 0.1525061135 -0.0001327873 0.0002104334 9.34746e-05 0.0003166974 0.1008388523 0.0552806456
105299370.0 -0.8266719987 0.1621546071 -7.12898e-05 -5.16803e-05 -0.0001346786 0.0002072255 0.1047572704 0.0512373516
110299340.0 -0.8252446466 0.1714180903 -9.25911e-05 8.17245e-05 -2.52407e-05 -3.46496e-05 0.1071802942 0.0478990208
115299310.0 -0.8238524262 0.1806354272 -2.87263e-05 4.58086e-05 0.0002673238 0.0002423561 0.1097189881 0.0435535609
120299280.0 -0.8217023933 0.1896012912 9.2895e-05 6.70662e-05 4.6162e-06 -5.24388e-05 0.1122761944 0.040024183
125299250.0 -0.8202843289 0.1985728504 9.4152e-05 6.76808e-05 0.00031934 -3.1365e-06 0.1145730077 0.035954697
130299220.0 -0.8179287718 0.2077329208 2.70749e-05 1.26711e-05 0.0001008746 0.0001473481 0.1154926001 0.0325935957
135299190.0 -0.8166297523 0.2166302695 -2.15954e-05 1.808e-05 5.70381e-05 8.54415e-05 0.1174022923 0.0289911069
140299160.0 -0.8148476327 0.225564525 -4.6997e-05 0.0001516637 6.34669e-05 6.85306e-05 0.1189147953 0.0252548274
145299130.0 -0.8122736482 0.2341461746 0.0001602125 2.07028e-05 1.406e-07 9.50298e-05 0.1196353279 0.0220558485
150299100.0 -0.810449946 0.2431503476 0.0001791607 0.0001805919 -4.53728e-05 -2.39551e-05 0.1205620317 0.0183432904
155299070.0 -0.8079774524 0.2522643474 1.1919e-06 -6.60085e-05 5.99886e-05 0.0001455833 0.1215593052 0.015427855
160299040.0 -0.8049594418 0.2610937739 0.0001324104 0.0001279408 0.0001951175 0.0002952896 0.1226097308 0.012281569
165299010.0 -0.8018882243 0.2690432782 0.0001678428 2.03679e-05 5.75618e-05 0.0001182766 0.1229905762 0.0087377164
170298980.0 -0.7995659046 0.2782645914 0.000121378 7.20896e-05 4.57875e-05 0.000396969 0.1234603766 0.0060492458
175298950.0 -0.7967844354 0.2875997676 7.9839e-06 9.65741e-05 6.45459e-05 9.96855e-05 0.1236873274 0.0026902651
180298920.0 -0.7939824007 0.2949225937 0.0001772655 3.8597e-05 0.0001383894 0.0002234244 0.124285832 -0.0002126
185298890.0 -0.7903913187 0.304272856 4.20458e-05 4.58863e-05 0.0001200887 0.0002140018 0.1240528628 -0.0029073025
190298860.0 -0.7869779694 0.3119388413 8.73289e-05 -9.01131e-05 0.0001081077 2.48833e-05 0.1243702527 -0.0059616186
195298830.0 -0.784030926 0.3208479139 7.29065e-05 -7.6469e-05 5.28701e-05 0.0002235624 0.1242887141 -0.0086266574
200298800.0 -0.7810724313 0.329431255 -9.12742e-05 -6.30077e-05 -1.26935e-05 0.0001224819 0.1245624662 -0.0113117433
205298770.0 -0.7772603931 0.3370221693 1.09985e-05 0.0004022156 7.69745e-05 9.966e-05 0.1242814258 -0.0138551536
210298740.0 -0.7737544923 0.3454894647 -8.2142e-06 0.0001834484 8.49313e-05 3.31263e-05 0.1240886824 -0.0164299305
215298710.0 -0.7707053424 0.3541574137 0.0001691194 -4.00365e-05 1.9973e-05 3.34035e-05 0.1233335288 -0.0189086247
220298680.0 -0.7669127076 0.3618668794 0.0001035315 0.0002102147 3.43499e-05 0.0001855698 0.1237000858 -0.0212533559
225298650.0 -0.7626468971 0.3706380477 0.000258157 2.16065e-05 0.0001413718 0.0001220516 0.1228111316 -0.0232870843
230298620.0 -0.7591435956 0.3787002225 0.0002319526 0.0002432576 -3.47212e-05 7.22557e-05 0.1228170667 -0.0259576905
235298590.0 -0.7548586777 0.3871209408 0.0001229676 1.0568e-06 0.0002383907 0.0002043911 0.1223447772 -0.0282698849
240298560.0 -0.7513832699 0.394978266 8.9235e-05 0.0002571782 0.0001278529 -2.49271e-05 0.1214506942 -0.0302244438
245298530.0 -0.7463584076 0.4028500511 6.02548e-05 0.0001196476 -1.22782e-05 7.03792e-05 0.1213192298 -0.0324548684
250298500.0 -0.7428915562 0.4106313324 0.0002438542 0.0001417515 1.08776e-05 0.0002161557 0.1207579186 -0.0342455657
255298470.0 -0.737819058 0.4186090184 0.0001612649 0.0002297132 4.91604e-05 0.0001868179 0.120164777 -0.0368372861
260298440.0 -0.7333917177 0.4262037155 0.0002852389 0.0001178958 0.0001179654 0.0001909004 0.1193213545 -0.0387188471
265298410.0 -0.7294611678 0.4342460358 5.45478e-05 5.03352e-05 0.0001099664 1.77406e-05 0.1187340363 -0.0410600803
270298380.0 -0.7243837753 0.4414935042 8.40939e-05 0.0001327942 7.68777e-05 8.05299e-05 0.1182494121 -0.0429153459
275298350.0 -0.7191968734 0.449301604 0.0001405261 -0.0001094071 8.616e-05 5.7851e-05 0.1177115029 -0.0444198479
280298320.0 -0.715046334 0.4562177958 0.0001053215 0.0001086935 0.0001671085 0.0001427165 0.1168746764 -0.0467003883
285298290.0 -0.7103240536 0.464751968 -1.07929e-05 -2.79652e-05 0.0001240578 -5.00993e-05 0.1157887389 -0.0482690944
290298260.0 -0.7050746948 0.4719661788 -6.31664e-05 0.0002808236 0.0001888916 0.0001049712 0.1156116911 -0.0500023287
295298230.0 -0.7005834595 0.4793629336 0.0002262685 2.76325e-05 0.0001886099 9.3138e-06 0.1146389839 -0.0517303765
300298200.0 -0.6950110128 0.4869750736 0.000359162 0.0001805486 0.0002647169 0.0001922482 0.1142206025 -0.0533073899
305298170.0 -0.6899893617 0.4938375777 0.0001786972 0.0002858499 9.53263e-05 0.0001054942 0.113496578 -0.0548658533
310298140.0 -0.6844081006 0.5009279165 0.0001793346 0.0002197795 0.000270124 0.0001386092 0.1125605954 -0.0566886169
315298110.0 -0.6800230367 0.507865699 0.0002167017 0.0001645209 0.0004537188 0.0001448511 0.1117101456 -0.0586470059
320298080.0 -0.6744428274 0.5160317804 0.0001818658 2.93106e-05 6.08705e-05 0.0001537708 0.1110843436 -0.0602961179
325298050.0 -0.6685561205 0.5220639177 0.0003068201 0.0001894462 7.75191e-05 4.31543e-05 0.1097422071 -0.0621501395
330298020.0 -0.6628453254 0.5296590116 -6.09012e-05 0.0001891132 0.0002108478 0.0001334636 0.1088637368 -0.063768732
335297990.0 -0.6572821874 0.5362727435 0.0001341581 0.0001305124 0.0003314025 8.10773e-05 0.1073092296 -0.0654096736
340297960.0 -0.6519302205 0.5426566301 1.03608e-05 0.0002304497 -1.03468e-05 -2.30739e-05 0.1062629078 -0.0668358419
345297930.0 -0.6462417869 0.5489559954 0.0002914366 0.0002663108 0.0002359962 9.45449e-05 0.1048772192 -0.068074877
350297900.0 -0.6404238853 0.5560468278 0.0003614678 0.0003338614 0.0002461214 0.0002662298 0.1042729465 -0.0693967203
355297870.0 -0.6346912877 0.5624068604 0.0001494274 0.0001756766 0.0001965658 9.94413e-05 0.1026302108 -0.0704481729
360297840.0 -0.6284003659 0.5692885183 0.0003509819 7.14235e-05 0.0001907727 0.0001324365 0.1016932749 -0.0716790288
365297810.0 -0.6222054073 0.5758180086 0.0002858475 -2.034e-05 1.72277e-05 0.0001299127 0.1004720586 -0.0728024756
370297780.0 -0.6163712666 0.5815000988 0.0002283739 0.0003045252 0.0001486131 0.0002047001 0.0991119729 -0.0744134409
375297750.0 -0.6102477335 0.5889007742 0.0001271468 0.0002508383 0.0001141916 5.01762e-05 0.0979957372 -0.0750494037
380297720.0 -0.6035387613 0.5950776108 9.47879e-05 -3.35139e-05 0.0002232547 2.5625e-06 0.0971976772 -0.0760826589
385297690.0 -0.5973316323 0.6010689424 0.0003921673 0.0001681507 0.0003174703 0.0001208896 0.0956680224 -0.0773125562
390297660.0 -0.5918343636 0.6069475087 0.0001865227 0.0001109116 0.0002451416 7.04543e-05 0.094646262 -0.0787678015
395297630.0 -0.5852567634 0.6130634354 0.0003266213 -7.4695e-06 -1.104e-07 -9.753e-05 0.0930279899 -0.0798616252
400297600.0 -0.5784268063 0.6193755448 0.0001841845 0.0002085499 0.0001079056 0.0002243742 0.0916945957 -0.0807101505
405297570.0 -0.5720310199 0.6253566981 -1.62713e-05 0.0002636169 9.08511e-05 0.0001358066 0.0905287085 -0.0818780732
410297540.0 -0.5653131245 0.6311510986 0.0002343516 0.0001093163 8.70338e-05 7.14546e-05 0.0895965735 -0.0824009475
415297510.0 -0.5595219873 0.6367939742 0.0001866574 0.0001657785 0.0002184429 0.0002184393 0.0879823818 -0.0836017725
420297480.0 -0.5517069219 0.6425351862 7.84999e-05 1.51322e-05 0.0001912088 0.0002648556 0.0869984466 -0.0846433719
425297450.0 -0.5458256855 0.6475698321 0.0002993117 0.000127092 0.0002971587 -9.57082e-05 0.085983944 -0.0855159173
430297420.0 -0.5392073689 0.6535741782 0.0002748785 0.0002349358 0.0002434896 8.42136e-05 0.0845176394 -0.086384131
435297390.0 -0.5321192266 0.6592231067 0.0004507366 -3.18132e-05 0.0002954418 -2.0052e-05 0.0829468324 -0.0872713938
440297360.0 -0.5248851684 0.6646052376 0.0004055102 -3.06607e-05 0.0002421629 0.0002758276 0.0814839717 -0.0882408708
445297330.0 -0.5185574974 0.6700423701 0.000463286 0.0002888707 0.000300759 0.0001900043 0.0801897585 -0.0892259002
450297300.0 -0.5105987824 0.6745792236 0.0001074042 0.0001555597 0.0003048642 0.0002975897 0.0788940574 -0.0898107289
455297270.0 -0.5038379569 0.679704995 0.0004073442 0.0001865343 0.0001124214 -2.79957e-05 0.0779632449 -0.0909356841
460297240.0 -0.4973987832 0.6854816042 7.2991e-05 8.67505e-05 0.0004590937 -4.28365e-05 0.0767561525 -0.0914776493
465297210.0 -0.490156495 0.6902964211 0.0001563828 0.0001302434 0.0003703322 0.0001069629 0.0748758092 -0.0927733627
470297180.0 -0.4823365175 0.6950986203 0.0001873446 1.92003e-05 0.0001736267 0.0001785413 0.0733205145 -0.092683022
475297150.0 -0.4755473153 0.7001236474 0.0002706123 -0.0001314464 5.38561e-05 0.0002534315 0.0720395144 -0.0937688051
480297120.0 -0.4685168771 0.704805815 0.0002736829 -9.27027e-05 0.00033635 0.0001376402 0.0709628247 -0.0943667207
485297090.0 -0.4614724226 0.7096329047 0.0004150657 -6.09475e-05 0.0001449037 7.37048e-05 0.0694097598 -0.0949371061
490297060.0 -0.4546746412 0.7146046286 0.0002138389 1.1272e-05 0.0003457859 0.0001144902 0.0680075493 -0.0960035068
495297030.0 -0.4468390239 0.7189076697 0.0003440745 0.0003868511 0.0003799066 6.41858e-05 0.0666979421 -0.0970393104
500297000.0 -0.4382957375 0.7232484617 0.0001234295 2.26189e-05 0.0002223223 -6.67952e-05 0.0654086341 -0.0974092443
505296970.0 -0.4311520479 0.727001562 0.0003433298 0.0001256309 0.0003152252 0.0003297187 0.0635703561 -0.0979685585
510296940.0 -0.4239282379 0.7320056525 0.0002423587 0.0001506325 0.0003322175 0.000239703 0.062408651 -0.0983141968
515296910.0 -0.4171920208 0.7361566405 0.0001708709 9.64643e-05 0.000148918 -2.18918e-05 0.0609883161 -0.098673729
520296880.0 -0.4088648914 0.7406615864 0.0003546942 7.35561e-05 0.0004086003 0.0002412787 0.059744364 -0.0996784674
525296850.0 -0.402059157 0.7450876048 0.0001457378 0.0005297472 0.0002601469 0.0002012795 0.0581160561 -0.1001620072
530296820.0 -0.3941756627 0.748242278 0.0004271949 0.0001134913 0.0002172963 5.92661e-05 0.0565770316 -0.1008804133
535296790.0 -0.3862060187 0.7524877271 0.0005788776 -7.70304e-05 0.0002258879 2.9922e-05 0.0551592371 -0.1014997314
540296760.0 -0.3780813771 0.7561239424 0.0002344107 0.0001003739 0.0001352003 -1.4915e-05 0.053971469 -0.1015560412
545296730.0 -0.3709883819 0.7596624888 0.000210968 0.000237119 0.0004201908 0.0001849868 0.0522447607 -0.1022967919
550296700.0 -0.3634029079 0.7634722487 0.0002697023 3.10664e-05 0.000282468 -0.0001027138 0.0509164556 -0.102849546
555296670.0 -0.3546560696 0.7671232161 0.0003508215 0.0002591532 0.0002345194 0.0001358428 0.0490926605 -0.1028630861
560296640.0 -0.3473082163 0.7709384398 0.0002374292 2.82397e-05 0.0001166658 -5.52865e-05 0.0479041508 -0.1034652688
565296610.0 -0.3397639813 0.7739282882 0.0004162078 1.75868e-05 0.00020504 -1.62732e-05 0.0462455136 -0.1038461545
570296580.0 -0.33150255 0.7773138292 0.0003462872 -5.70422e-05 0.0001491946 3.60229e-05 0.0449817184 -0.1039242894
575296550.0 -0.3237428894 0.7809458082 0.0001913995 0.0001021428 0.000466524 -3.76569e-05 0.0438507848 -0.1045895754
580296520.0 -0.3156698193 0.7842434305 0.0004078155 0.0002924133 0.0002360605 -0.000127603 0.0420587683 -0.1048078175
585296490.0 -0.307271743 0.7866659384 0.0003773082 0.0001284807 0.0003056438 0.0001366219 0.040437312 -0.1055669171
590296460.0 -0.2994891161 0.78974884 0.0005912825 -2.91655e-05 0.0002200151 -4.42248e-05 0.0393222824 -0.1056264426
595296430.0 -0.290999462 0.793887333 0.0002377679 -4.15894e-05 0.0003404646 -1.2108e-05 0.0373503242 -0.1060111723
600296400.0 -0.2836326066 0.7959990596 0.0004110378 4.5191e-05 0.0002340229 0.0001574212 0.0362040384 -0.1061344593
605296370.0 -0.2755846621 0.7987818789 0.0003078948 -6.78245e-05 0.0003237584 -8.85802e-05 0.0347544556 -0.1064530289
610296340.0 -0.2673885986 0.8018641662 0.0002447351 -7.00542e-05 0.0002512811 5.81948e-05 0.0331111042 -0.1063831552
615296310.0 -0.2590639983 0.8043866706 0.0004066576 0.0001580744 0.000340486 0.000131274 0.0321301839 -0.1070560809
620296280.0 -0.2504909931 0.8061298346 0.0002177364 0.0001559014 0.0004068731 4.0995e-05 0.0302733963 -0.1073369259
625296250.0 -0.2424443787 0.8095515174 0.0004752404 -3.03037e-05 0.0002030505 -3.64557e-05 0.0287752897 -0.1071477791
630296220.0 -0.2342723145 0.8117729516 0.0003061744 2.94746e-05 0.0003133508 -0.0001212642 0.0272506807 -0.1071709391
635296190.0 -0.2264536274 0.8140611012 0.0005325551 -2.2826e-06 0.0002626381 4.25308e-05 0.0256333504 -0.107152173
640296160.0 -0.2177526396 0.8152373196 0.0003048327 -0.0001106639 0.0003849342 -9.1339e-06 0.024528896 -0.1078256266
645296130.0 -0.2096471428 0.8181480282 0.0002441858 -0.0002067359 0.0004217708 -6.2434e-06 0.022780318 -0.1078835783
650296100.0 -0.2014301194 0.8203175257 0.00031679 -2.59705e-05 0.000398737 0.0003492381 0.0212128851 -0.1076277375
655296070.0 -0.1933741913 0.822090695 0.0005017551 -7.87245e-05 0.0005497523 5.42135e-05 0.0196350262 -0.1074195515
660296040.0 -0.1849553504 0.8244066291 0.0004132827 -1.50491e-05 0.000482562 1.62178e-05 0.0183776712 -0.1078734279
665296010.0 -0.1765735649 0.8260325583 0.0003491916 -2.73165e-05 0.0004205499 0.0002376327 0.0170179734 -0.1076524286
670295980.0 -0.167429672 0.8273624074 0.0003069715 0.0001706981 0.0002653538 0.0001506129 0.0154277402 -0.1076541002
675295950.0 -0.1600031482 0.8287644644 0.0004041643 0.000130638 0.0005227338 -7.57607e-05 0.0139154446 -0.1076382815
680295920.0 -0.1514715446 0.830997164 0.0002829288 6.7207e-06 0.0003625742 -4.10583e-05 0.012669958 -0.1077880889
685295890.0 -0.1423845465 0.83195835 0.0004274132 -0.000124657 0.0004235351 -0.0002500998 0.0111070549 -0.1078161151
690295860.0 -0.1340253318 0.8337682229 0.0005181329 -0.0001812221 0.0003995071 -1.563e-05 0.0098188409 -0.1076013932
695295830.0 -0.1259853733 0.8342035175 0.0003760634 2.22521e-05 0.0004618661 -0.0001943674 0.0083348417 -0.1076345223
700295800.0 -0.1180416076 0.8357075887 0.0003317408 -0.0001751779 0.0004615152 0.0001111858 0.0066607319 -0.107223865
705295770.0 -0.1087224769 0.8376199743 0.0003893913 -2.92645e-05 0.0001630146 -6.27797e-05 0.005390015 -0.1070088402
710295740.0 -0.1011289214 0.8383855972 0.0003996659 -0.0001621248 0.0004865889 1.31397e-05 0.003525176 -0.106657293
715295710.0 -0.093196053 0.8391704756 0.0003381036 6.9829e-06 0.0002277422 0.0001663358 0.0024773405 -0.1067705141
720295680.0 -0.0842049844 0.8396697419 0.0003152008 1.9293e-06 0.0004872188 0.0001479101 0.0009853655 -0.1066270195
725295650.0 -0.0748954782 0.8409809886 0.0005442586 0.0001174013 0.0003669619 1.65907e-05 -0.0003939293 -0.1062023833
730295620.0 -0.0667779795 0.8411396207 0.0004922968 -3.59141e-05 0.0002203162 -4.8277e-06 -0.0019828956 -0.1061605835
735295590.0 -0.0585639542 0.8418186969 9.04649e-05 -0.0001143034 0.0002160246 0.0001195306 -0.0034158458 -0.1058653195
740295560.0 -0.0501307797 0.8431760958 0.0004985929 -0.0001873682 0.0003766104 -1.50001e-05 -0.0046542014 -0.1059321261
745295530.0 -0.0416835043 0.8429399846 0.0003747929 1.98707e-05 0.0003425541 -0.0001191852 -0.0061538692 -0.105353618
750295500.0 -0.0331812875 0.8430993238 0.0003256257 -6.64096e-05 0.0003656853 -3.30372e-05 -0.0076591728 -0.1053944278
755295470.0 -0.0244483682 0.8434034788 0.0005510233 -9.96863e-05 0.0004781608 -7.61263e-05 -0.0093960673 -0.1049085261
760295440.0 -0.0160029277 0.8436060648 0.0004190363 -0.0001558717 0.0002145792 -0.0002219934 -0.0107725661 -0.104692345
765295410.0 -0.0076303663 0.8436316305 0.000211396 -0.000222811 0.0005488881 -0.0001041527 -0.0114480375 -0.1039623229
770295380.0 0.0004794871 0.8442708257 0.0003289844 9.36194e-05 0.0004124717 -0.0001833633 -0.0127405007 -0.1038809137
775295350.0 0.0092914339 0.84382479 0.0002774777 3.27037e-05 0.0004643027 -0.0001608051 -0.0146938353 -0.1037810603
780295320.0 0.0180135164 0.8435597598 0.0005259022 -7.49317e-05 0.0004030741 -0.0002632503 -0.0158322173 -0.1027802659
785295290.0 0.02622737 0.8439112177 0.0004704304 -0.000318259 0.00031492 -1.39217e-05 -0.0173306463 -0.1023767907
790295260.0 0.0346929075 0.8425222608 0.0002727002 -0.0001497586 0.000496113 -0.0002815428 -0.0184431158 -0.1021658366
795295230.0 0.0425849112 0.8435276547 0.0004806409 5.90531e-05 0.0004777917 4.8324e-06 -0.0198127802 -0.1015692056
800295200.0 0.0516734512 0.8427554974 0.0004299154 -0.000236054 0.0002853071 -0.0001294667 -0.0213765753 -0.1014813113
805295170.0 0.0606874132 0.8420857331 0.0004649331 -9.96506e-05 0.0003231009 0.0001760107 -0.0228593346 -0.1006235589
810295140.0 0.06824767 0.840960906 0.0002696686 -0.0002525219 0.0005158794 -0.0001080882 -0.0238491492 -0.1002020742
815295110.0 0.0769775048 0.8400091189 0.0005010467 4.43782e-05 0.0003641318 7.67964e-05 -0.025339345 -0.0995068698
820295080.0 0.0856675122 0.8393176159 0.0003088768 7.70633e-05 0.0006390041 9.06418e-05 -0.026891682 -0.0992595802
825295050.0 0.0941609225 0.8385065813 0.0004866814 -7.33824e-05 0.0003350853 1.18624e-05 -0.0277984592 -0.0985342315
830295020.0 0.1024796436 0.8377095384 0.0002679261 4.53503e-05 0.0005851024 -6.53599e-05 -0.0293986008 -0.0979518759
835294990.0 0.1104092616 0.8367726989 0.0004155278 -0.0002905327 0.0003391255 -6.83867e-05 -0.0303922229 -0.0975342081
840294960.0 0.1187340322 0.8354615873 0.0003930097 2.22324e-05 0.0002104219 2.861e-06 -0.0319144349 -0.096469509
845294930.0 0.1270515495 0.8348672412 0.0002974171 -0.0002098973 0.0005571572 -4.09216e-05 -0.0329298518 -0.0957946103
850294900.0 0.1351153963 0.8330858749 0.0002835349 -7.07731e-05 0.0005819872 -6.95526e-05 -0.0344496638 -0.0953647047
