!Created with skrf (http://scikit-rf.org).
# Hz S RI R 50.0 
!freq ReS11 ImS11 ReS21 ImS21 ReS12 ImS12 ReS22 ImS22
300000.0 -0.3188464593 -0.1058473655 0.3729888152 0.0537833153 0.3744836706 0.0573465951 -0.3199185838 -0.1156480169
5299970.0 -0.3236349418 0.0047824027 0.3785190185 0.0026755769 0.3784719125 0.0031076536 -0.3261135195 0.002904553
10299940.0 -0.3210503863 0.0154486188 0.3798724617 0.0022568757 0.3798403977 0.0028712152 -0.3241207156 0.0126894339
15299910.0 -0.3181487393 0.0233653109 0.3820495035 0.002458377 0.3819213678 0.0026396372 -0.3213427302 0.0198402427
20299880.0 -0.3143330947 0.0300451996 0.385020308 0.0019776308 0.3853715052 0.0020180687 -0.3187737191 0.0259882863
25299850.0 -0.3105602329 0.0355702983 0.3881960026 0.0001310107 0.3885339836 0.0001171658 -0.3155003297 0.0310881026
30299820.0 -0.3064802483 0.0403301586 0.3920464715 -0.0018433441 0.3920448363 -0.0022620653 -0.312888771 0.035384179
35299790.0 -0.3028099087 0.044915611 0.3948620854 -0.0055419226 0.3953129059 -0.0053624162 -0.309999184 0.0395790422
40299760.0 -0.2994307435 0.0480540835 0.3983739335 -0.0086587126 0.3983349859 -0.009010584 -0.3070226443 0.0431145826
45299730.0 -0.2964750892 0.0515209745 0.4012823267 -0.0132411704 0.4014099504 -0.0125106732 -0.3046640446 0.0460002046
50299700.0 -0.2932971325 0.0544019983 0.4036532018 -0.0172351116 0.4037935065 -0.0174592798 -0.3020991057 0.0490595999
55299670.0 -0.290673956 0.0566700704 0.4054471833 -0.022006962 0.4061879055 -0.0218557909 -0.3006731877 0.0519407747
60299640.0 -0.2880557161 0.0589297505 0.4072426446 -0.0268390142 0.4078117301 -0.0268302418 -0.2980879636 0.0546324148
65299610.0 -0.2862027305 0.0617235738 0.4095556493 -0.0316784206 0.4094603155 -0.031900994 -0.2959483708 0.0570771146
70299580.0 -0.2839375741 0.0636584823 0.4105315973 -0.0365957334 0.4106305883 -0.0368748015 -0.2945991456 0.0592918106
75299550.0 -0.2819376629 0.0658560693 0.4116017242 -0.0420632645 0.4115340011 -0.0424846777 -0.2930482058 0.0622386166
80299520.0 -0.280484326 0.0681537497 0.4127720802 -0.0472114887 0.4128145733 -0.0475141972 -0.2914576508 0.0639961382
85299490.0 -0.2782028937 0.0698977894 0.4128895995 -0.0527808643 0.4131772611 -0.0526712499 -0.2905691899 0.0663365195
90299460.0 -0.2770342185 0.0721965496 0.4135442966 -0.057669249 0.4137705169 -0.0577693479 -0.2887359833 0.0687263864
95299430.0 -0.2755661559 0.0742068345 0.4141473682 -0.0631204171 0.4141372202 -0.0630464859 -0.2874837228 0.0710103175
100299400.0 -0.2743396371 0.0765516323 0.4136476236 -0.0685043429 0.4137342322 -0.0682934132 -0.2866074625 0.0733068445
105299370.0 -0.2730103854 0.0784016122 0.4133600384 -0.0732496948 0.41377974 -0.0736880547 -0.2851460814 0.0757785469
110299340.0 -0.2720088845 0.0804405136 0.413348245 -0.0784764712 0.413487297 -0.0786742805 -0.2842225468 0.0779917145
115299310.0 -0.2705998499 0.0824994007 0.4131007479 -0.0832805954 0.4135682336 -0.0838131246 -0.2831393753 0.0801525533
120299280.0 -0.269549037 0.0848112708 0.4129414642 -0.0889012532 0.4129574444 -0.0889528631 -0.2822656095 0.082491325
125299250.0 -0.2685116231 0.0868998769 0.412254193 -0.0937674518 0.4125323806 -0.0939238845 -0.2812777998 0.084807687
130299220.0 -0.267449272 0.0891214882 0.4113869875 -0.0987192753 0.4119381893 -0.099107139 -0.2808128054 0.0873000515
135299190.0 -0.2665468484 0.091244734 0.4110339006 -0.10393454 0.4105970674 -0.1042382925 -0.2798447949 0.0896674335
140299160.0 -0.265712417 0.0938224702 0.4099932494 -0.1092435685 0.4101442346 -0.1088664273 -0.2783276029 0.0919497443
145299130.0 -0.2646980827 0.0956154209 0.4094711731 -0.1139626326 0.4093430272 -0.1137367219 -0.278135817 0.0944671825
150299100.0 -0.2638102224 0.0982411673 0.4082474785 -0.1191676428 0.408279519 -0.1187691776 -0.2769632358 0.0967326196
155299070.0 -0.2628645624 0.1009568947 0.4071658567 -0.1242367448 0.4073747616 -0.12413425 -0.2762694827 0.0994895774
160299040.0 -0.2620380485 0.102950085 0.4060346079 -0.1287399273 0.4060696566 -0.1285198253 -0.2750498272 0.1021993563
165299010.0 -0.2611106171 0.1054921735 0.4044716034 -0.133666445 0.4046288264 -0.1337649702 -0.2742389543 0.1047342563
170298980.0 -0.2602667504 0.10801488 0.4028413328 -0.1381516914 0.4033976057 -0.1385646748 -0.2730502138 0.1073183201
175298950.0 -0.2590083219 0.1104469972 0.402129253 -0.1427613043 0.4021906196 -0.1430199543 -0.2722727845 0.1098631081
180298920.0 -0.2581006371 0.1127604292 0.4003588958 -0.1481276767 0.4007608019 -0.1478345117 -0.2711053097 0.1123203847
185298890.0 -0.2568926572 0.1154221973 0.3986367254 -0.1526474024 0.3991417918 -0.1524571015 -0.270245717 0.1148953329
190298860.0 -0.2557083454 0.1178107952 0.3970629571 -0.1573913617 0.397607206 -0.1574337653 -0.2689244146 0.1177432476
195298830.0 -0.254602955 0.1198803952 0.3960281581 -0.1616650917 0.3958051732 -0.1619922564 -0.2682365099 0.1199248784
200298800.0 -0.2535850286 0.1226661086 0.3941006085 -0.1660483588 0.3939741417 -0.1661933523 -0.2666085113 0.122813693
205298770.0 -0.253011842 0.1251663169 0.3924592153 -0.1709831775 0.3923817624 -0.1712612437 -0.2658475654 0.1255224721
210298740.0 -0.2515032398 0.1278407286 0.3905202172 -0.1758589971 0.390412576 -0.1761272424 -0.2645864972 0.1283348883
215298710.0 -0.2504946941 0.1304916829 0.3885837067 -0.1801150703 0.3884522787 -0.1800567332 -0.2638443655 0.1307292274
220298680.0 -0.2490687887 0.1328746542 0.3864500948 -0.1846461947 0.3868983704 -0.1848221595 -0.2622310128 0.1337692375
225298650.0 -0.2475536655 0.1353301957 0.384558671 -0.1888925313 0.3843291243 -0.1891910152 -0.2610460481 0.1366279138
230298620.0 -0.246998197 0.1381433658 0.382838552 -0.1935158621 0.3828390851 -0.1934116079 -0.2596605448 0.1391787576
235298590.0 -0.2455090086 0.1405178585 0.3803340375 -0.1977846842 0.3805606523 -0.1980688288 -0.2584057744 0.1410907802
240298560.0 -0.2442893732 0.1432463888 0.3783892577 -0.2016624139 0.3785302481 -0.2019055022 -0.2572348334 0.1446265987
245298530.0 -0.2428780528 0.1458634582 0.3758533814 -0.2065234368 0.3761050732 -0.2066651878 -0.255624991 0.1471790444
250298500.0 -0.241648313 0.1482869169 0.3735542441 -0.2104135986 0.3741111505 -0.2103249964 -0.2540184156 0.1497748196
255298470.0 -0.2401499056 0.1508622846 0.3712061221 -0.2151718565 0.3714307036 -0.2149163635 -0.2526652472 0.1520446469
260298440.0 -0.2385845106 0.1536262112 0.3693234823 -0.2191319885 0.3692566193 -0.2195072364 -0.2511543219 0.1550948111
265298410.0 -0.2371630188 0.1562937587 0.3668306802 -0.2238504135 0.3665183908 -0.2235060438 -0.2498353728 0.1575794628
270298380.0 -0.2355067316 0.1584648083 0.3640815175 -0.2272535557 0.3643197878 -0.2277142346 -0.2480130983 0.1603053084
275298350.0 -0.2340325638 0.1610397841 0.361574335 -0.2316555765 0.3618602753 -0.2318111411 -0.2462949395 0.1630427841
280298320.0 -0.2325135252 0.1635456094 0.3590603836 -0.2353560611 0.3587813786 -0.235900462 -0.2449980613 0.1660460051
285298290.0 -0.2309038973 0.1663588604 0.3563793992 -0.2397244797 0.3564241382 -0.2397011401 -0.2433395526 0.1682689931
290298260.0 -0.2293643552 0.168829281 0.3542417031 -0.2438357261 0.3536730407 -0.2439168542 -0.2412658009 0.1712032658
295298230.0 -0.2277208025 0.1715333527 0.3515936962 -0.2480755656 0.3510036312 -0.2478395816 -0.2395762859 0.1737450228
300298200.0 -0.2256149959 0.1738250191 0.3483723482 -0.2519630038 0.3485028934 -0.251954809 -0.2377090694 0.1765713897
305298170.0 -0.2240155425 0.176267137 0.3459910704 -0.2560116821 0.3462325668 -0.2561367697 -0.2356790681 0.1792289442
310298140.0 -0.2222380117 0.1780948689 0.3429870637 -0.2597205875 0.3430792511 -0.2600511981 -0.2342501668 0.1820607993
315298110.0 -0.2206049106 0.1806900784 0.339877383 -0.2635890922 0.3403355871 -0.2636272186 -0.2320015274 0.1843058145
320298080.0 -0.2186351564 0.1833462123 0.33687593 -0.2677749995 0.3371951547 -0.2676253613 -0.2302718604 0.1868133617
325298050.0 -0.2169212542 0.1854405609 0.3344859328 -0.2715302099 0.3340978707 -0.2720329113 -0.2282552325 0.1894642207
330298020.0 -0.2152201456 0.1879682328 0.3305630935 -0.2752250807 0.3310345999 -0.2753139534 -0.2267572427 0.1917913463
335297990.0 -0.213445766 0.1905127165 0.3278200721 -0.2792779801 0.3276301418 -0.2791031871 -0.2247326506 0.1943071501
340297960.0 -0.2118344889 0.1926261572 0.3241425748 -0.2827650292 0.3246867212 -0.2826185109 -0.2227076545 0.1970527587
345297930.0 -0.2099591613 0.1951573966 0.3211472112 -0.2860329845 0.3209440267 -0.2858191128 -0.2206139761 0.1993852246
350297900.0 -0.2076441632 0.1976715852 0.3179959548 -0.289532047 0.318171224 -0.2894179932 -0.218867908 0.2020031746
355297870.0 -0.2059346279 0.1998464558 0.3145225882 -0.2928718245 0.3147705746 -0.2931161887 -0.2168708762 0.2045573048
360297840.0 -0.2041024635 0.2025344104 0.3114730515 -0.2968027294 0.3117941735 -0.2966969796 -0.2145887827 0.2072924501
365297810.0 -0.2017373881 0.2048040108 0.3080403796 -0.3000918232 0.3080513194 -0.3002793682 -0.2124624041 0.2101723036
370297780.0 -0.1994575566 0.206619357 0.3045444635 -0.3035441866 0.3047842023 -0.3034017618 -0.2104024114 0.2124056316
375297750.0 -0.1975439403 0.2091122452 0.3019479556 -0.3066373946 0.3013653192 -0.3069923763 -0.2079573247 0.214827232
380297720.0 -0.1954236402 0.2113789599 0.2979876198 -0.309954264 0.2979521345 -0.3101178322 -0.2057830818 0.2176655574
385297690.0 -0.1930830713 0.2135509817 0.2944338644 -0.3128626901 0.2941804642 -0.3133373962 -0.203601361 0.2199649086
390297660.0 -0.1912914534 0.2157572796 0.2911013635 -0.3165237007 0.2908041872 -0.3168457887 -0.201151299 0.2215898683
395297630.0 -0.1888817151 0.2180613779 0.2875990089 -0.3196787631 0.287549463 -0.319725223 -0.1992750655 0.2247171065
400297600.0 -0.186872688 0.2203217643 0.2843161582 -0.3227137992 0.2843694324 -0.3231482511 -0.1971384511 0.2267483749
405297570.0 -0.1841395486 0.2224079756 0.2800204538 -0.3258127591 0.280515306 -0.3263392745 -0.1947614305 0.2293178869
410297540.0 -0.1817337361 0.2243338825 0.2765757484 -0.3288659324 0.2765625971 -0.32876768 -0.1923913899 0.2314017695
415297510.0 -0.1793018181 0.2266563259 0.2731831219 -0.3317299321 0.2732787814 -0.3317546772 -0.1897665784 0.233969429
420297480.0 -0.1770544922 0.2285985634 0.2690380304 -0.3352407198 0.2691815583 -0.3348649357 -0.1874520964 0.2355769796
425297450.0 -0.1748657886 0.2306015656 0.2656233645 -0.3378800359 0.266052515 -0.3380928035 -0.1850604583 0.2386664292
430297420.0 -0.17258851 0.2327980712 0.2617851339 -0.3408345239 0.2617669193 -0.3406946088 -0.1825607308 0.2402967226
435297390.0 -0.1698315215 0.234590488 0.2579689588 -0.3434520643 0.2585962283 -0.3433141259 -0.1802020823 0.2426237396
440297360.0 -0.1673570156 0.2368828895 0.2540452014 -0.3462785052 0.2539402621 -0.3460321632 -0.1774378283 0.2443221655
445297330.0 -0.1648760866 0.2383968241 0.2502380583 -0.3490410865 0.2505532612 -0.3488482692 -0.1751234201 0.2467408404
450297300.0 -0.1622836097 0.2401437589 0.2465598225 -0.3518411018 0.2467043302 -0.3518113786 -0.1728603713 0.2487471767
455297270.0 -0.1599704546 0.2420537932 0.2430351409 -0.3542595085 0.2429791831 -0.3543483177 -0.1698994584 0.2507739567
460297240.0 -0.1577064394 0.2442875651 0.2387870098 -0.3568092328 0.2386633515 -0.3570560674 -0.1672797553 0.2529964772
465297210.0 -0.1547959456 0.2459507188 0.2348884214 -0.3593306102 0.2351888513 -0.3595295019 -0.1652041993 0.2544428376
470297180.0 -0.1522459198 0.2476621342 0.2308896199 -0.36221835 0.2313309174 -0.3622368826 -0.162847864 0.2565041763
475297150.0 -0.1497645391 0.2495912777 0.2269692106 -0.3642638235 0.2272051954 -0.3641563117 -0.1594958306 0.2584797729
480297120.0 -0.1468776734 0.2508840765 0.2229063286 -0.3667129027 0.22324296 -0.3665679457 -0.1572166581 0.2609273603
485297090.0 -0.1441645001 0.2525248059 0.2187508503 -0.3688636125 0.2191557962 -0.36923439 -0.1544434248 0.2623005978
490297060.0 -0.1411454611 0.2540726856 0.2148438531 -0.3715020843 0.2148399289 -0.3716399024 -0.151844891 0.2642430951
495297030.0 -0.1389794454 0.2561564472 0.2107697537 -0.3740236634 0.21057435 -0.3736029081 -0.1489436656 0.2655446228
500297000.0 -0.1360911053 0.257465623 0.2062881399 -0.3760366416 0.2067495451 -0.3761282068 -0.1466328387 0.2679987329
505296970.0 -0.133788601 0.2592791274 0.202144539 -0.3778918278 0.2024489246 -0.3782187387 -0.1439880107 0.2699335409
510296940.0 -0.1309174086 0.2609784816 0.1983502835 -0.3807823295 0.1983862362 -0.3803247359 -0.1406438527 0.271295627
515296910.0 -0.1282310202 0.2625563977 0.1938554793 -0.3822126219 0.1940916319 -0.3825494166 -0.1380034533 0.2731100834
520296880.0 -0.1253984517 0.2640143667 0.1900781877 -0.3847291121 0.1900996221 -0.384178558 -0.1352019939 0.2745310036
525296850.0 -0.122495036 0.2652465249 0.1854526704 -0.3866436332 0.1860266647 -0.3867748084 -0.1322939729 0.2761772544
530296820.0 -0.1197242585 0.266699909 0.1815424585 -0.3880624201 0.1813043421 -0.388351899 -0.1299821179 0.277693985
535296790.0 -0.1168389781 0.268213862 0.1768433727 -0.3902412572 0.1772621157 -0.3899905388 -0.1271806662 0.2789688585
540296760.0 -0.1142347973 0.269287365 0.1729432242 -0.3923693159 0.1728286084 -0.3923524293 -0.1241482302 0.2808488491
545296730.0 -0.1113957271 0.2709639529 0.1685454581 -0.3939121089 0.1689696311 -0.3938627833 -0.1214957643 0.2818604794
550296700.0 -0.1088569083 0.2722888883 0.1645479208 -0.3957715385 0.1648977817 -0.3962739158 -0.1184969084 0.2837306029
555296670.0 -0.1052123409 0.2734922189 0.1601143809 -0.3976636608 0.1599140433 -0.3973917224 -0.1153691378 0.2852051294
560296640.0 -0.1028490214 0.2745348834 0.1556937553 -0.3987287375 0.15600158 -0.3990561841 -0.112486257 0.2863771028
565296610.0 -0.1000082804 0.2757820369 0.1515650954 -0.4006272897 0.1510690118 -0.400665523 -0.1098970865 0.287668197
570296580.0 -0.0970814934 0.2768945726 0.1469200154 -0.4024334922 0.1473144729 -0.4025797884 -0.1068761169 0.2892268765
575296550.0 -0.0942795426 0.2783973895 0.1426198716 -0.4036104244 0.1430835298 -0.4040395763 -0.1034071207 0.2905948585
580296520.0 -0.091208235 0.2792532875 0.1384795395 -0.4054014618 0.1383813133 -0.4055806958 -0.1006949788 0.2917919673
585296490.0 -0.0881802938 0.2800909072 0.134019169 -0.4067348322 0.1337460838 -0.4068599494 -0.0977409234 0.2923364524
590296460.0 -0.0855150972 0.2812888712 0.129341823 -0.4082758647 0.1292659929 -0.4086073251 -0.0943070039 0.294133042
595296430.0 -0.082196679 0.2826263074 0.1247728798 -0.4094802584 0.1248800204 -0.4097117075 -0.0918165093 0.2947620099
600296400.0 -0.0793521788 0.2835734938 0.120435018 -0.4108328452 0.1208910792 -0.4111656944 -0.0885493417 0.2960810816
605296370.0 -0.076216817 0.2849928997 0.1159611827 -0.4123877567 0.1160212914 -0.4121727678 -0.0855419655 0.2974135683
610296340.0 -0.0731579708 0.2857019766 0.1117923797 -0.4132120086 0.1118320461 -0.4137108984 -0.0824589898 0.298780622
615296310.0 -0.0700904422 0.2865706058 0.1067922837 -0.4145250936 0.1072254641 -0.4145458168 -0.0795507616 0.2995297366
620296280.0 -0.0672939711 0.2871435079 0.1027282206 -0.4155659401 0.1025934365 -0.4154899726 -0.0764985514 0.300105159
625296250.0 -0.0640459386 0.2883070583 0.0974761274 -0.4166838551 0.098055497 -0.4170201134 -0.0729866318 0.3015507722
630296220.0 -0.0608517591 0.2893533584 0.0932227232 -0.4177744872 0.093840553 -0.4176453447 -0.070282535 0.301969427
635296190.0 -0.0579579274 0.2898789509 0.088833603 -0.4181193873 0.0889323971 -0.4180651408 -0.0670837882 0.3030757065
640296160.0 -0.0550217441 0.2904969941 0.0843837204 -0.4190854183 0.0843580681 -0.419577364 -0.0636088536 0.3038244754
645296130.0 -0.0520815436 0.2915003704 0.0798487746 -0.4205501018 0.0798715154 -0.4201691491 -0.0610474966 0.3044583835
650296100.0 -0.0490165623 0.2925043886 0.0756812186 -0.4210586713 0.0754938744 -0.4212229195 -0.0578916776 0.305375748
655296070.0 -0.0454765194 0.29246946 0.0708679093 -0.4215189705 0.070653235 -0.4215562241 -0.0541965669 0.3058094402
660296040.0 -0.0430114362 0.2934515965 0.0662673326 -0.422116432 0.0661893374 -0.4225326171 -0.0512727037 0.3067832356
665296010.0 -0.0397072524 0.2940496015 0.0618302543 -0.4233532413 0.0621325899 -0.4234945701 -0.0486317554 0.3077261953
670295980.0 -0.036307104 0.2946149956 0.056926978 -0.4239255823 0.0573694097 -0.4240519728 -0.045421298 0.3082180886
675295950.0 -0.033351602 0.2949573574 0.052276376 -0.4240964399 0.0527937735 -0.4246381449 -0.0419686058 0.3088193361
680295920.0 -0.0302000241 0.2956624609 0.0478401708 -0.4247671163 0.047647269 -0.4245949716 -0.0384249797 0.3090528178
685295890.0 -0.0272093584 0.2961629184 0.043528372 -0.4255450226 0.043311294 -0.4257581887 -0.0354949214 0.309861249
690295860.0 -0.0238844323 0.2966225582 0.0384422124 -0.4255412493 0.0382275774 -0.4256537863 -0.0321971449 0.310507349
695295830.0 -0.0204381033 0.2967539376 0.0334346795 -0.4259422925 0.0341036299 -0.4260796878 -0.0292293211 0.3111012878
700295800.0 -0.0175177501 0.2969809983 0.0290177103 -0.4261427379 0.0294154639 -0.4264392049 -0.0257389588 0.3111713116
705295770.0 -0.0143015789 0.2978259634 0.0248449679 -0.4267748232 0.0249516294 -0.426748011 -0.0226592907 0.3119807203
710295740.0 -0.0112468204 0.2979542138 0.0201762177 -0.426534538 0.0202531932 -0.4264901837 -0.0196468088 0.3122210697
715295710.0 -0.0082963809 0.2982179006 0.0155167948 -0.4270896927 0.0158134922 -0.4269538756 -0.0163021141 0.312111029
720295680.0 -0.0052278332 0.2981430532 0.0108667816 -0.427041781 0.0109871998 -0.4276066693 -0.0126422111 0.3132663139
725295650.0 -0.0016167314 0.2986504522 0.0058465459 -0.4270435224 0.0062414486 -0.4272194361 -0.0096519153 0.313183541
730295620.0 0.0008963989 0.2986173778 0.0016539147 -0.426842518 0.0014050736 -0.4269190324 -0.0062622726 0.3128233514
735295590.0 0.0046645782 0.2988197942 -0.0028655359 -0.427106231 -0.0027929332 -0.4269538391 -0.0032629577 0.3136827796
740295560.0 0.0074579687 0.2992429757 -0.007696867 -0.4264066788 -0.0076059775 -0.4265931919 0.0001811084 0.3133469356
745295530.0 0.0106803906 0.2989254623 -0.0123682117 -0.4265351108 -0.0118844248 -0.4270483319 0.0033743162 0.3136964424
750295500.0 0.013653344 0.2990465968 -0.0164396363 -0.4263106437 -0.0168118263 -0.4264140014 0.0066097127 0.3136276483
755295470.0 0.0173600667 0.2988891088 -0.0213692966 -0.4260405149 -0.0211617011 -0.4266826165 0.0093803737 0.3140968832
760295440.0 0.0203259975 0.2990214276 -0.0261217864 -0.4260903133 -0.0260974133 -0.426229304 0.012753294 0.3140938749
765295410.0 0.0233350994 0.2989082273 -0.0304896787 -0.4255699825 -0.0307060018 -0.4260079389 0.0166493977 0.3139682976
770295380.0 0.0265936305 0.2991714685 -0.0352530409 -0.4251056492 -0.0351674139 -0.4258128332 0.0199355338 0.3142127752
775295350.0 0.0298649979 0.2988831095 -0.0396199182 -0.4248210508 -0.0397228081 -0.4250068478 0.0224520413 0.3133626127
780295320.0 0.0331689211 0.2983682407 -0.0443675013 -0.42417333 -0.0439669646 -0.4245048302 0.0260788806 0.3139266815
785295290.0 0.0360818617 0.2985843488 -0.0488751862 -0.4233357922 -0.0486698146 -0.4238208976 0.0290590154 0.3137991993
790295260.0 0.0392820443 0.2980848183 -0.0534710864 -0.423018012 -0.0534273652 -0.4233355244 0.0327687613 0.3134956023
795295230.0 0.0424139865 0.2983697367 -0.0578728071 -0.4226401124 -0.0580786312 -0.4229013887 0.0356553673 0.3137754547
800295200.0 0.045774515 0.2978532626 -0.0630221786 -0.4218185376 -0.0629248865 -0.4220656687 0.0391157718 0.3130679227
805295170.0 0.0486286518 0.2975198614 -0.0671302444 -0.4209593312 -0.0671715136 -0.4210952481 0.0422418325 0.3127432975
810295140.0 0.0521333368 0.2969796546 -0.0718511033 -0.4203841938 -0.0715311626 -0.4209197801 0.0457128707 0.3128274621
815295110.0 0.0551063542 0.2964296347 -0.0764028887 -0.4191400353 -0.0764812885 -0.4195588278 0.0486493554 0.3122911871
820295080.0 0.0583082852 0.2958784458 -0.0805522627 -0.4186113525 -0.0806232358 -0.4187570395 0.0516798649 0.3115441717
825295050.0 0.0616564708 0.2953193693 -0.0853652542 -0.4171354992 -0.0852513308 -0.4178359121 0.055328632 0.3114542983
830295020.0 0.0646854265 0.2953293926 -0.0899746286 -0.4166835458 -0.0901170105 -0.4168811854 0.0581461748 0.3108478988
