!Created with skrf (http://scikit-rf.org).
# Hz S RI R 50.0 
!freq ReS11 ImS11 ReS21 ImS21 ReS12 ImS12 ReS22 ImS22
300000.0 -0.2376058124 -0.1000886904 0.4669649613 0.0664954174 0.4669623009 0.0706168677 -0.2364850171 -0.1101826789
5299970.0 -0.2438116396 0.0074205868 0.4738065039 0.004856305 0.4736772859 0.0055610227 -0.2437766458 0.0059487969
10299940.0 -0.2400754935 0.0197765769 0.47592624 0.0066265372 0.4759871594 0.0062890389 -0.2408402365 0.0182954039
15299910.0 -0.2358910494 0.0292286816 0.4790903584 0.0078836826 0.4794282158 0.0081619142 -0.2363804177 0.0273877006
20299880.0 -0.2302545857 0.0370909166 0.4838926913 0.0083599938 0.4839505437 0.0084947891 -0.2316940469 0.0353759247
25299850.0 -0.2247435514 0.0435224916 0.4894153853 0.0070965063 0.489400712 0.0072915299 -0.2268327145 0.0418658446
30299820.0 -0.2186631701 0.0483793681 0.4950208899 0.0056005785 0.4946228978 0.0050596872 -0.2214387734 0.0466756706
35299790.0 -0.2130438619 0.0527146046 0.5002384905 0.0020945134 0.5003313929 0.0021217216 -0.2159019127 0.0509240737
40299760.0 -0.2074208007 0.0557097553 0.5054450598 -0.0013922521 0.5054111346 -0.0015980973 -0.2115266185 0.0547858903
45299730.0 -0.2024018021 0.0585329487 0.5103559854 -0.0066166978 0.5102657315 -0.0063568845 -0.2066285088 0.0572172501
50299700.0 -0.1974252001 0.060250589 0.5141406949 -0.01231582 0.5143447201 -0.0123521982 -0.2019697731 0.0597474558
55299670.0 -0.1935660768 0.0618085085 0.5176989266 -0.0181066009 0.5180364245 -0.0180100815 -0.1981558355 0.0614318045
60299640.0 -0.1894066016 0.0626226583 0.5212055486 -0.0245462812 0.5213341954 -0.0242429776 -0.1944912579 0.0631860992
65299610.0 -0.1860296536 0.0639765498 0.5242836843 -0.0305865498 0.5247346103 -0.0303943128 -0.1910967354 0.0647017863
70299580.0 -0.1827218652 0.0642488111 0.5266183515 -0.0371910892 0.5267629399 -0.0370712287 -0.1880566602 0.0654298299
75299550.0 -0.1796975609 0.0651692614 0.5289961303 -0.0437119155 0.5287468051 -0.0444008174 -0.1849754352 0.0670136277
80299520.0 -0.1773346637 0.0658034616 0.5309735658 -0.0509941662 0.5308536356 -0.0506719539 -0.1824250407 0.0672297098
85299490.0 -0.174621906 0.0659405821 0.5322221252 -0.0580231657 0.5319815087 -0.0576466787 -0.1803968687 0.0682186201
90299460.0 -0.1726691296 0.0664358313 0.5330348801 -0.0642701881 0.5333085623 -0.0648860702 -0.177390958 0.069322839
95299430.0 -0.1704304852 0.0672477247 0.5341161747 -0.0722349489 0.5338919284 -0.0714923327 -0.1760076021 0.0700960489
100299400.0 -0.168706158 0.0675691911 0.5340583067 -0.0788306794 0.5345072319 -0.0784470333 -0.1740787349 0.0708143484
105299370.0 -0.1669266467 0.0680622921 0.5344856353 -0.0851425504 0.5348697597 -0.0856615776 -0.1720858546 0.071758617
110299340.0 -0.1654215705 0.0683859008 0.5344644256 -0.0920201189 0.5347708005 -0.0926256516 -0.1706139262 0.0729602394
115299310.0 -0.164000137 0.0687178125 0.5347930369 -0.0988744175 0.5349126972 -0.0991343188 -0.1693820743 0.0732816516
120299280.0 -0.1628856334 0.0693986788 0.5347978408 -0.1059606397 0.5348759228 -0.1059364806 -0.1678651747 0.074328442
125299250.0 -0.1619471862 0.0698493424 0.5342953236 -0.1125088939 0.5342909761 -0.113211242 -0.1662911437 0.0747273646
130299220.0 -0.1605740967 0.0705135746 0.5337567556 -0.1186821483 0.5336643294 -0.1197498918 -0.1653561658 0.076014928
135299190.0 -0.1593289265 0.0710283851 0.5329845176 -0.1257407148 0.5326920653 -0.1259283921 -0.1642753031 0.0768138142
140299160.0 -0.1587131808 0.0723292967 0.5321760338 -0.1325989269 0.5322927117 -0.132965156 -0.1628120937 0.0779822284
145299130.0 -0.1575729924 0.072804045 0.5315090263 -0.1393648894 0.5314181935 -0.1389485197 -0.1623352587 0.0788226417
150299100.0 -0.1566453367 0.0733465065 0.5302275905 -0.1458518028 0.5305073726 -0.1455390776 -0.160998789 0.0795905209
155299070.0 -0.1558807695 0.0747035115 0.5288609989 -0.1521700422 0.5294082411 -0.1528544177 -0.1602455373 0.0808268803
160299040.0 -0.1548417258 0.075216821 0.5272941997 -0.1585114378 0.52801006 -0.1589360727 -0.1592201213 0.0823839662
165299010.0 -0.1544705112 0.0763074448 0.5265701983 -0.1653922165 0.5262000933 -0.1655581924 -0.1578679186 0.0831006849
170298980.0 -0.1535013694 0.0771889267 0.5236971013 -0.1714242464 0.5243119364 -0.1716047812 -0.1570966729 0.0845398975
175298950.0 -0.1526459361 0.0781349123 0.5230548861 -0.1779710689 0.523217857 -0.1782791848 -0.1558245 0.0857803878
180298920.0 -0.1517413801 0.079202187 0.5212287728 -0.1845032723 0.5212113946 -0.1842664605 -0.154724122 0.0870736278
185298890.0 -0.1508752873 0.0801568437 0.5191518004 -0.1908497176 0.5192850247 -0.1904263187 -0.1539604197 0.087935319
190298860.0 -0.1503191122 0.0809465524 0.5174644977 -0.1965954304 0.518037482 -0.1969202843 -0.1530641297 0.089241107
195298830.0 -0.1495876678 0.0819129862 0.5155224352 -0.2024418224 0.515685652 -0.2029924226 -0.1520807818 0.09028499
200298800.0 -0.1488045687 0.0835233253 0.5139353775 -0.2084899158 0.5135522527 -0.208606493 -0.1507312955 0.0920689058
205298770.0 -0.1480828028 0.0844877534 0.5114125638 -0.2146711226 0.5113623912 -0.2151675047 -0.1498452513 0.0933376249
210298740.0 -0.1475752425 0.0856963243 0.5086404182 -0.2213551003 0.509462447 -0.221143153 -0.1492120393 0.0947806288
215298710.0 -0.1466697922 0.0868401425 0.5072637018 -0.2266695491 0.5067902768 -0.2264588376 -0.1482954322 0.0957533577
220298680.0 -0.1459468831 0.0879099098 0.5040440668 -0.2331649414 0.5047060431 -0.2326162795 -0.1471085525 0.0977624003
225298650.0 -0.1448322657 0.089321235 0.5018493644 -0.2385872454 0.5017621556 -0.2384346945 -0.1463570809 0.0989245601
230298620.0 -0.1446871215 0.090402843 0.499916973 -0.2442167861 0.4995092504 -0.2445897144 -0.1449377793 0.100410368
235298590.0 -0.1435187414 0.0914264276 0.4964017741 -0.249775131 0.4971848197 -0.2504406498 -0.1439529227 0.1014852234
240298560.0 -0.1432214791 0.0927874534 0.4941258019 -0.2557471564 0.4942275887 -0.2553243224 -0.1428021577 0.1031903506
245298530.0 -0.1417026439 0.094119997 0.4907691714 -0.2616687081 0.491240351 -0.2616580286 -0.1419064773 0.1049249536
250298500.0 -0.1412831684 0.0953298207 0.4879589455 -0.2667514236 0.4883332314 -0.266810794 -0.140602941 0.1058043226
255298470.0 -0.1406127348 0.0965487116 0.4851471151 -0.2726687834 0.4859083145 -0.2726032794 -0.1394306792 0.1071125858
260298440.0 -0.1398168693 0.0979578029 0.4827375566 -0.2780855318 0.4824261603 -0.2785630187 -0.1380448555 0.1087634128
265298410.0 -0.1387702097 0.099469051 0.4794879425 -0.2839686578 0.4793123844 -0.2838143985 -0.1371958469 0.110176155
270298380.0 -0.1376239673 0.1005553553 0.4759173075 -0.2888706573 0.4762769755 -0.2893017351 -0.1359695865 0.1119907484
275298350.0 -0.1371979082 0.1017961713 0.4733448813 -0.2946861179 0.4735008232 -0.2946237288 -0.1347822651 0.1133850895
280298320.0 -0.1362048414 0.1032839943 0.4701742156 -0.299725826 0.4697964503 -0.3002241853 -0.1335511535 0.1150047609
285298290.0 -0.1351902332 0.1047154511 0.4668351985 -0.3056112389 0.4667859851 -0.3053049124 -0.1324103479 0.1161789849
290298260.0 -0.1344822027 0.1058042009 0.4640050157 -0.3105994341 0.4635970675 -0.3109162251 -0.1308511365 0.1180268011
295298230.0 -0.1332578969 0.10705433 0.4602530697 -0.3160298577 0.4602359471 -0.3160620232 -0.1294489871 0.1193938182
300298200.0 -0.1319695773 0.1082029509 0.4565037083 -0.321504022 0.4566597261 -0.3215282248 -0.1283632253 0.1206704618
305298170.0 -0.1311001095 0.109470759 0.4535216167 -0.3265378576 0.4535050793 -0.3265277934 -0.1265341758 0.1221817822
310298140.0 -0.1295312807 0.1104248041 0.4495754925 -0.3319683866 0.4500317415 -0.3319747176 -0.1257014004 0.1240979765
315298110.0 -0.1291443506 0.1119846828 0.4459274092 -0.3370569737 0.4463192296 -0.3371344487 -0.1240474272 0.1249405334
320298080.0 -0.1280634766 0.1130933831 0.4424842206 -0.3422653121 0.442075709 -0.3421908954 -0.1225744304 0.1261720784
325298050.0 -0.1272134479 0.1140381233 0.4386739954 -0.3474624089 0.438714443 -0.347600608 -0.1214153893 0.1277294175
330298020.0 -0.1264230025 0.1154696853 0.4341737759 -0.352098249 0.4343580045 -0.3522983896 -0.1201257418 0.1287968224
335297990.0 -0.125185079 0.1164537644 0.4304183247 -0.3572449206 0.4304255303 -0.3574400441 -0.1187701198 0.1301094964
340297960.0 -0.1247815197 0.1181882732 0.4259388916 -0.3621492525 0.4265023948 -0.3618007219 -0.1177952367 0.1318461123
345297930.0 -0.1237864395 0.1195368696 0.4221070934 -0.3660775839 0.4216983322 -0.3662703358 -0.1160910092 0.1332694592
350297900.0 -0.1222799078 0.1208984188 0.4176131326 -0.3707264453 0.4177917941 -0.3710844947 -0.1151295546 0.1349073197
355297870.0 -0.1214932451 0.1218824093 0.4136487474 -0.3755915552 0.4141936282 -0.3759476187 -0.1136807265 0.136459212
360297840.0 -0.1204507258 0.1233379908 0.4093770072 -0.3801382162 0.409480047 -0.3803846321 -0.1118974744 0.1379850351
365297810.0 -0.119121208 0.1245596666 0.4051148535 -0.384804365 0.4052271337 -0.3848959544 -0.110539184 0.1394796358
370297780.0 -0.1180426831 0.1258302382 0.4009897715 -0.3892708004 0.4012248819 -0.3897271063 -0.1089600338 0.1410545934
375297750.0 -0.1167867363 0.127573286 0.3971716753 -0.3940209419 0.3968883261 -0.3938971162 -0.1076134207 0.1423556585
380297720.0 -0.1155308128 0.1283107378 0.392442063 -0.3976686807 0.3925531898 -0.3978722998 -0.1059600517 0.1437885067
385297690.0 -0.1143059985 0.129911176 0.3878002678 -0.4021423257 0.3875379356 -0.4020200014 -0.1047044989 0.1450164721
390297660.0 -0.1134610999 0.1309272122 0.3834466781 -0.4063972736 0.3834888559 -0.4070369966 -0.1032296516 0.1463945556
395297630.0 -0.1117924299 0.1320766409 0.3795304925 -0.4101945616 0.3791679522 -0.4109702438 -0.1013086155 0.1479861131
400297600.0 -0.1106441635 0.1335215856 0.3744790197 -0.4150848432 0.3748525499 -0.4148284994 -0.1004935934 0.1489701011
405297570.0 -0.1092683925 0.1349504841 0.3700653535 -0.4191248565 0.3699936309 -0.419222348 -0.0982784643 0.1506240233
410297540.0 -0.1079950588 0.135617968 0.364974509 -0.4227273497 0.3650514587 -0.4226655363 -0.096727644 0.1518365321
415297510.0 -0.1069753904 0.1373726946 0.3607974853 -0.4266663835 0.3608597837 -0.4267624406 -0.0956524608 0.1534981785
420297480.0 -0.1053533045 0.1378604648 0.3558206931 -0.4308470936 0.3558911335 -0.4308742579 -0.0932847178 0.1541560008
425297450.0 -0.1039084035 0.1391627119 0.3514255445 -0.4352209998 0.351616129 -0.4346608848 -0.0918250722 0.1558004858
430297420.0 -0.1025501578 0.1405620604 0.346442508 -0.4387848354 0.3464616832 -0.4386476978 -0.0901373654 0.1566392466
435297390.0 -0.1011677449 0.1413263657 0.3413033285 -0.4419471725 0.3419605222 -0.4419285403 -0.0885930911 0.1580517659
440297360.0 -0.09953045 0.1426101363 0.3367729729 -0.4460443084 0.3363833991 -0.4458560298 -0.0865112668 0.1587899536
445297330.0 -0.0984453404 0.1437568291 0.3315093166 -0.4501411746 0.3318315759 -0.4499084665 -0.0851044381 0.16026253
450297300.0 -0.0968986005 0.1447843562 0.3269291052 -0.4530315499 0.3268725275 -0.4534890124 -0.0835056801 0.1615359865
455297270.0 -0.0956161892 0.1460045257 0.3221835349 -0.4572537766 0.3221622592 -0.4566647874 -0.0813975476 0.1626338045
460297240.0 -0.0946288574 0.1469312084 0.316931128 -0.4599110483 0.316395886 -0.4604128262 -0.0797766409 0.1641070315
465297210.0 -0.0925715477 0.1479041652 0.3117192674 -0.4640360727 0.3120034141 -0.463633493 -0.0781275 0.1645975626
470297180.0 -0.0914020303 0.148884813 0.3071249241 -0.4671534254 0.3070962916 -0.4670653266 -0.0772017001 0.1658981171
475297150.0 -0.0900584766 0.1496157658 0.3015322711 -0.4698949183 0.3020579439 -0.4696171132 -0.0746017246 0.1668247265
480297120.0 -0.0883778973 0.1503984091 0.2963024008 -0.4733213527 0.2969007337 -0.4733179785 -0.0728117425 0.1682868404
485297090.0 -0.086915318 0.1515033304 0.2916957071 -0.4762314341 0.2915212187 -0.4768403843 -0.0713377011 0.168930232
490297060.0 -0.0853931899 0.1524976136 0.2861648439 -0.4800731183 0.2863979814 -0.4798539004 -0.0692791405 0.1700339247
495297030.0 -0.0841311092 0.153795464 0.2807876562 -0.482934517 0.2805476235 -0.4827269967 -0.06737583 0.1706530901
500297000.0 -0.0823237577 0.1543521704 0.2755241449 -0.4860311017 0.2752975956 -0.4857025209 -0.0657616572 0.1717523108
505296970.0 -0.0810987028 0.1551386526 0.2696637822 -0.4883255599 0.270145708 -0.4888654704 -0.0644277219 0.1726289483
510296940.0 -0.0796926168 0.1562885579 0.2646974501 -0.4915746957 0.2651481447 -0.4920755058 -0.0619203477 0.1742460341
515296910.0 -0.0783288175 0.1574759132 0.2595867485 -0.493952236 0.2595005582 -0.4947520358 -0.0602732054 0.1746150787
520296880.0 -0.0762488107 0.1580598203 0.2537367791 -0.4975809735 0.254109551 -0.497031584 -0.0582840814 0.1752083138
525296850.0 -0.0751308012 0.1586954779 0.2487770377 -0.5001457615 0.2487468221 -0.5001875767 -0.0561592225 0.1761083081
530296820.0 -0.0736345906 0.1595895424 0.2434530368 -0.5021479024 0.2432065899 -0.5025487251 -0.0549151073 0.1766707509
535296790.0 -0.0719893298 0.1606245525 0.2375754044 -0.5050665528 0.2379461642 -0.5049655628 -0.052797207 0.1774159544
540296760.0 -0.0704380792 0.1611021362 0.2321823858 -0.5079513958 0.2319667939 -0.5077968839 -0.0511221462 0.1784734758
545296730.0 -0.0687965149 0.1624377014 0.226535711 -0.5098526355 0.2267027411 -0.5099990296 -0.0489089657 0.1790997094
550296700.0 -0.067742144 0.1633212641 0.2211848802 -0.5128376047 0.2216303285 -0.5129216467 -0.0468907559 0.1800166656
555296670.0 -0.0654658769 0.1635714532 0.2155708313 -0.5150173031 0.2155842025 -0.5146671862 -0.0451990323 0.1805472924
560296640.0 -0.064174498 0.1642400354 0.2095422224 -0.5166381022 0.2103239897 -0.5170103749 -0.0430456397 0.1811458001
565296610.0 -0.062944324 0.164964768 0.2045664172 -0.5193172108 0.2041625755 -0.5193366264 -0.0413592408 0.1815807282
570296580.0 -0.0608457932 0.1657757757 0.198789854 -0.5211284637 0.1990169151 -0.5215787391 -0.0392010691 0.1828547015
575296550.0 -0.0591626624 0.1669609916 0.1929061393 -0.5232567516 0.1931101751 -0.523402371 -0.0371421041 0.1831474739
580296520.0 -0.05776683 0.1673614702 0.187683721 -0.5257090336 0.1871946972 -0.5255589882 -0.0352788991 0.1834064854
585296490.0 -0.056157806 0.1677065203 0.1823414046 -0.5275003993 0.1815629311 -0.5273512537 -0.0336080889 0.1840449262
590296460.0 -0.0548636212 0.1683121532 0.1759475786 -0.5295225533 0.1758230303 -0.5295950069 -0.0311892177 0.1849517472
595296430.0 -0.0530035021 0.1693948483 0.1704582269 -0.5314609774 0.1701621909 -0.531638522 -0.0292190993 0.1851574051
600296400.0 -0.0512364866 0.1700145612 0.1646324533 -0.5330509847 0.1647057375 -0.5329159967 -0.0272216309 0.1857413789
605296370.0 -0.0494948555 0.1707936196 0.1584624174 -0.5349714705 0.1590156975 -0.5350436459 -0.0252644113 0.1861526357
610296340.0 -0.0479061301 0.1714311066 0.1532382248 -0.5363385868 0.1529643457 -0.5368962768 -0.0229665809 0.1870113436
615296310.0 -0.0462777211 0.1721839647 0.1471460396 -0.5382383041 0.1471274382 -0.5379286493 -0.021119795 0.1871874051
620296280.0 -0.0446942168 0.1724861383 0.1416317139 -0.5394180019 0.1412866615 -0.5396015847 -0.0193077552 0.1873857677
625296250.0 -0.0426757018 0.1733272988 0.1351257291 -0.5412215742 0.1354403544 -0.5415111848 -0.0171908275 0.187977355
630296220.0 -0.0412575765 0.173805627 0.1296244082 -0.5430586336 0.1300186911 -0.5425879061 -0.0152771927 0.188234073
635296190.0 -0.0396815468 0.174204756 0.1234812339 -0.5436984796 0.1236005149 -0.5433779806 -0.0132563359 0.1884309233
640296160.0 -0.0377699386 0.1745882852 0.1178009371 -0.5449159101 0.1176676354 -0.5449164402 -0.0107582568 0.188881362
645296130.0 -0.0361000129 0.1755220756 0.11175653 -0.5464200671 0.1119699496 -0.5462994266 -0.0094004808 0.1886729723
650296100.0 -0.0343324918 0.1761110708 0.1062523466 -0.5470679618 0.1062110911 -0.5476135351 -0.0071628348 0.1890769731
655296070.0 -0.0327340462 0.1761480767 0.0998519177 -0.5483188815 0.099670077 -0.5484897605 -0.0043053158 0.1896679542
660296040.0 -0.0314939317 0.1772301444 0.0944292754 -0.5490235185 0.0943413588 -0.5490473223 -0.0033990478 0.1897365298
665296010.0 -0.0294588947 0.1771445485 0.088262261 -0.5503597789 0.088774159 -0.5503193309 -0.0013353489 0.1898174666
670295980.0 -0.0271008854 0.1776325897 0.0820510967 -0.5514919469 0.0827380346 -0.551094239 0.0009029671 0.1897551003
675295950.0 -0.0258465924 0.1781048841 0.0761589122 -0.5520114607 0.0765502658 -0.5524332389 0.0030238266 0.1904571331
680295920.0 -0.0240119759 0.1788096794 0.0703893703 -0.552554055 0.0700414441 -0.5528737594 0.005399992 0.1901341357
685295890.0 -0.0224391419 0.1789628004 0.064766079 -0.5531941873 0.0641887097 -0.553983235 0.0073952306 0.1906709561
690295860.0 -0.0201346246 0.179457866 0.0586608466 -0.5536516075 0.0579018064 -0.5538134932 0.0096196133 0.1904204042
695295830.0 -0.0183724637 0.1793966002 0.0517307253 -0.5548018982 0.052369412 -0.5552275109 0.0109792228 0.1908352922
700295800.0 -0.0164997705 0.1801486314 0.0459183564 -0.5553438384 0.0460239476 -0.5553715329 0.0133586825 0.1901136834
705295770.0 -0.0148526219 0.1801791977 0.0404895585 -0.5552844238 0.0403734758 -0.5557283289 0.0153638404 0.1905642485
710295740.0 -0.0131718361 0.1807567975 0.034479768 -0.5556849457 0.0340495765 -0.5561498357 0.0169640121 0.1907819532
715295710.0 -0.0114602155 0.1808677157 0.028342865 -0.5562980702 0.0287985589 -0.5566166224 0.0194699211 0.189982807
720295680.0 -0.0100880392 0.180870225 0.0223678913 -0.556496997 0.0225432896 -0.5572696229 0.0216380648 0.1906636918
725295650.0 -0.0079124844 0.1814341594 0.0161579292 -0.5567110167 0.0163175101 -0.556770019 0.0238309621 0.1905279038
730295620.0 -0.0064780217 0.181355696 0.0104740723 -0.5567883766 0.0102067054 -0.556817954 0.0260374612 0.1899631438
735295590.0 -0.0041457561 0.1820831532 0.0045611343 -0.5568883525 0.0044213832 -0.5571846477 0.0278442551 0.190016341
740295560.0 -0.0027212646 0.1822208525 -0.001624347 -0.5566610574 -0.0018369171 -0.5565549985 0.0300284895 0.189416962
745295530.0 -0.0008451687 0.182061217 -0.0077550918 -0.5566699751 -0.0074912377 -0.5570508267 0.0319738048 0.1897169146
750295500.0 0.0008135988 0.1821296902 -0.0136695776 -0.5561047001 -0.0135677382 -0.5564428424 0.0341147162 0.1888746923
755295470.0 0.0031377694 0.1825799113 -0.0195103129 -0.5566584237 -0.0195420878 -0.5564128235 0.0361314076 0.1893892089
760295440.0 0.0045954634 0.1827084603 -0.0261734068 -0.5560052497 -0.0256032348 -0.5559122365 0.0376680587 0.1885113058
765295410.0 0.0062058214 0.1826977028 -0.0312478992 -0.55536843 -0.0313534877 -0.5562104891 0.0407827265 0.1888585667
770295380.0 0.0083849657 0.1829890103 -0.0377883318 -0.5553042482 -0.0377187311 -0.555933855 0.0426209259 0.1884698497
775295350.0 0.0097136673 0.1831615115 -0.0434381492 -0.5551033017 -0.043412291 -0.5551103363 0.0439493258 0.1875640781
780295320.0 0.0118332602 0.1829481892 -0.0494315891 -0.5542830645 -0.0490822247 -0.5547425316 0.0464476869 0.1878213345
785295290.0 0.013830398 0.1833359491 -0.0556834995 -0.5531173185 -0.0557198133 -0.5541573642 0.0478828245 0.187180506
790295260.0 0.01524761 0.1831937296 -0.0613228955 -0.5532956346 -0.0615245764 -0.5534782711 0.050407608 0.1867799223
795295230.0 0.0168346033 0.183199807 -0.0671293219 -0.5523383006 -0.0671435399 -0.5525670368 0.0523530259 0.1870867643
800295200.0 0.0191238659 0.1831919818 -0.0738892306 -0.5519462523 -0.073470725 -0.5517302937 0.0545239894 0.185977818
805295170.0 0.0206364089 0.183202235 -0.0791820494 -0.5505194623 -0.0791040426 -0.550860741 0.0563329117 0.1856930472
810295140.0 0.0227307448 0.1831887501 -0.085313244 -0.5499485031 -0.0850337333 -0.5505613916 0.0584904454 0.1854248525
815295110.0 0.0243067254 0.1829032364 -0.0910933712 -0.5485728682 -0.0914730923 -0.548905623 0.060600867 0.1844439558
820295080.0 0.0262469384 0.1827121064 -0.0969039802 -0.5479028371 -0.0969009602 -0.5479932536 0.0624325384 0.1838039878
825295050.0 0.0281584543 0.1826967775 -0.1029325766 -0.546166185 -0.1028690974 -0.5468025234 0.0648538195 0.1837379569
830295020.0 0.0298969437 0.1826361209 -0.1091189092 -0.5456593195 -0.1089999599 -0.5458096867 0.0661833083 0.1829646692
