!Created with skrf (http://scikit-rf.org).
# Hz S RI R 50.0 
!freq ReS11 ImS11 ReS21 ImS21 ReS12 ImS12 ReS22 ImS22
300000.0 -0.236770033 -0.1152004155 0.4670241403 0.0752184875 0.4706215717 0.0775253789 -0.2364598153 -0.1171814432
5299970.0 -0.2409291239 0.0069521702 0.4755959369 0.0054380054 0.4752066659 0.0060280428 -0.2446776129 0.0052668057
10299940.0 -0.2373208055 0.0199650593 0.4772813342 0.0067885779 0.4770995556 0.0063200076 -0.2415164537 0.0176549698
15299910.0 -0.2330758375 0.0297355456 0.480494184 0.0078292511 0.4803921105 0.0077809312 -0.2374507264 0.0264681172
20299880.0 -0.2274000095 0.0379198652 0.4849802915 0.0082566284 0.4851519886 0.0080670932 -0.2326958005 0.0339679065
25299850.0 -0.2217494535 0.0443896724 0.4905577807 0.0069755006 0.490680487 0.0070987717 -0.2277137572 0.0396776272
30299820.0 -0.2159703478 0.0493511344 0.4962098436 0.0052261236 0.4958129841 0.0049124821 -0.222381787 0.0447874737
35299790.0 -0.2099638326 0.0541820376 0.5012850254 0.0016527155 0.5013210883 0.0015472889 -0.2172255883 0.0487141584
40299760.0 -0.2045040939 0.0570559839 0.5059996507 -0.0019020816 0.5063195822 -0.0022935991 -0.2128590151 0.0519174677
45299730.0 -0.1993592402 0.0603548215 0.5109831385 -0.0074062899 0.5111699125 -0.0068808923 -0.2080374252 0.0543163815
50299700.0 -0.1946083802 0.0619508172 0.5149436852 -0.0128294605 0.5151948746 -0.0126582521 -0.2037351305 0.056570702
55299670.0 -0.190421064 0.0637346387 0.5184005442 -0.0185461496 0.5191068947 -0.0185300613 -0.2000319754 0.0582451724
60299640.0 -0.1865363442 0.0647596083 0.5217030134 -0.0248632034 0.5220651918 -0.0248517967 -0.1964090868 0.0595320692
65299610.0 -0.1830076484 0.0664676259 0.5248377797 -0.0308382167 0.5252643344 -0.0306122507 -0.1929078469 0.0604072303
70299580.0 -0.1797989527 0.0669418558 0.5273762172 -0.0372575984 0.5273257516 -0.0377986982 -0.1898215572 0.0615279289
75299550.0 -0.1762767016 0.0680605966 0.5292145823 -0.0441315711 0.529020274 -0.0445990815 -0.1871243598 0.0622717694
80299520.0 -0.1739680561 0.0690537382 0.5312182297 -0.0513041809 0.5312956099 -0.0513402603 -0.1846856723 0.0629206203
85299490.0 -0.1714644951 0.069333312 0.5324624849 -0.0586645713 0.5324255819 -0.0582384423 -0.1829633195 0.0636970376
90299460.0 -0.1696020247 0.0702505978 0.5335529152 -0.0649781361 0.5336544352 -0.0649981784 -0.1804837605 0.0642297963
95299430.0 -0.167229709 0.0709648826 0.5344475803 -0.0726037831 0.5344558933 -0.0721846709 -0.1784775399 0.0649067325
100299400.0 -0.1655772204 0.0715510192 0.5349580421 -0.0792301686 0.5346312658 -0.0789511543 -0.1770112957 0.0656062299
105299370.0 -0.1631890731 0.0722716854 0.5350019784 -0.0856755326 0.5350014639 -0.0858345958 -0.174830925 0.0663671781
110299340.0 -0.1618137106 0.0730870529 0.5348897937 -0.0924425286 0.5350385898 -0.0929558943 -0.173853361 0.0668382151
115299310.0 -0.1601154692 0.0736697645 0.5351824461 -0.0994019749 0.5351622785 -0.0993339273 -0.1725440414 0.0670775978
120299280.0 -0.159168996 0.0744660115 0.5348135207 -0.1065171929 0.5350489924 -0.1061252537 -0.1712543117 0.0678884237
125299250.0 -0.1578891555 0.0752587246 0.5348195645 -0.112875665 0.5347749364 -0.1131313723 -0.1698173152 0.068389507
130299220.0 -0.1565348092 0.0761897457 0.53391498 -0.1194244333 0.533988353 -0.1197381253 -0.1688440162 0.069209421
135299190.0 -0.1552888304 0.0767569355 0.53323968 -0.1262535394 0.5327232589 -0.1262094263 -0.1681732468 0.0700796701
140299160.0 -0.1543678817 0.0781807971 0.5326048472 -0.1329291808 0.532238611 -0.1331924141 -0.1664233429 0.0710145717
145299130.0 -0.1530348504 0.0790439461 0.531840966 -0.1400648445 0.5314742789 -0.1393383125 -0.165919371 0.071680212
150299100.0 -0.1520293831 0.0798109278 0.5303923238 -0.1461913934 0.5300103382 -0.1462575997 -0.1650571187 0.072430635
155299070.0 -0.1511760934 0.0814717688 0.529254358 -0.1532247276 0.5292851239 -0.153031405 -0.1646902678 0.0736918393
160299040.0 -0.1499529644 0.082053289 0.5274449383 -0.158602836 0.5278111467 -0.159174257 -0.163478636 0.0749416019
165299010.0 -0.1491587512 0.0833189362 0.5268485311 -0.1656866987 0.5264941911 -0.1655266989 -0.1625957252 0.0754087043
170298980.0 -0.148280568 0.0844852238 0.524106732 -0.1716897502 0.5247208814 -0.1716881657 -0.161525515 0.0763928638
175298950.0 -0.1472926226 0.0854780051 0.5234876841 -0.1778163528 0.5234257442 -0.17807143 -0.16092109 0.0773401949
180298920.0 -0.1464111125 0.0865981782 0.5218138512 -0.1844277388 0.5214865559 -0.1842837566 -0.1602638996 0.0791162439
185298890.0 -0.1452316586 0.0878622096 0.5194008792 -0.1906637737 0.5200034909 -0.1907717097 -0.1600867559 0.0794870446
190298860.0 -0.1443312641 0.089297524 0.5178505155 -0.1972277128 0.5180709356 -0.1970361152 -0.1584459045 0.0806740955
195298830.0 -0.1433512247 0.0900833498 0.5159834529 -0.2024629782 0.5158138761 -0.2030954643 -0.1579041701 0.0816551575
200298800.0 -0.1425283135 0.0918479192 0.5140350621 -0.2085160034 0.5136627007 -0.2087360176 -0.1569381514 0.0831469969
205298770.0 -0.14178914 0.0930465123 0.5118015801 -0.2147900414 0.5116751071 -0.2148739317 -0.156499437 0.083677973
210298740.0 -0.1409231209 0.0942143899 0.5094825217 -0.221227912 0.509196263 -0.2211592535 -0.1555630095 0.0854362306
215298710.0 -0.1397386547 0.0958281294 0.5068827822 -0.2268910875 0.5071516413 -0.2267146975 -0.1549965513 0.0866482157
220298680.0 -0.1386880107 0.0971296666 0.5040646962 -0.2329219998 0.5047174481 -0.2327534386 -0.1542792049 0.0880158176
225298650.0 -0.1374964013 0.0986262711 0.5019162923 -0.2381301013 0.501986964 -0.2381487957 -0.1533455414 0.0892256291
230298620.0 -0.136875777 0.1000396553 0.499882922 -0.2443293527 0.499633106 -0.2444189637 -0.1525120848 0.0905042534
235298590.0 -0.1359287346 0.1012480117 0.4969744181 -0.2500352496 0.4970364967 -0.2504896634 -0.151681784 0.0915093603
240298560.0 -0.1350690272 0.1025846404 0.4945711367 -0.2556309197 0.4945469502 -0.2555480126 -0.1508493366 0.0930641442
245298530.0 -0.1337782234 0.103911663 0.4908797792 -0.2616185867 0.491482475 -0.2615845996 -0.1498108729 0.0945158352
250298500.0 -0.1330875197 0.1052472995 0.4886521031 -0.2667119849 0.4891044043 -0.2665369244 -0.1490712127 0.0954400272
255298470.0 -0.1320553246 0.1067251087 0.485912076 -0.2726617362 0.4860615048 -0.2727076243 -0.1483663923 0.0966369226
260298440.0 -0.1308507574 0.1083521192 0.4828312446 -0.2779883408 0.4828181093 -0.2780627625 -0.1466899583 0.098325102
265298410.0 -0.1294632961 0.1096518931 0.4797378986 -0.2840665082 0.479678746 -0.2836151058 -0.1464548456 0.099333213
270298380.0 -0.1281520532 0.1111001439 0.4764726904 -0.2893037227 0.4766327877 -0.289429497 -0.1454425294 0.1010625997
275298350.0 -0.1272969535 0.1126323306 0.4736931702 -0.2949158095 0.4738162396 -0.2949252849 -0.1442729209 0.1025097119
280298320.0 -0.1262226109 0.1141603414 0.4706275531 -0.2997672614 0.4702070215 -0.3002890121 -0.1433526335 0.1041023132
285298290.0 -0.1247846999 0.1155961584 0.4669568904 -0.3052108003 0.4667979656 -0.3052523453 -0.1426587262 0.1052094912
290298260.0 -0.1237685188 0.1169182421 0.463861551 -0.3106367332 0.4638856958 -0.310430282 -0.1410769991 0.1066845257
295298230.0 -0.1224927594 0.1181998797 0.4608636718 -0.3157882875 0.4605150885 -0.3156210514 -0.140071488 0.1080459956
300298200.0 -0.1208234873 0.1194026832 0.4568020933 -0.3210928766 0.4572126405 -0.3213136851 -0.1394084247 0.1093307006
305298170.0 -0.1195474658 0.1206657607 0.4536036032 -0.3269192092 0.4538066042 -0.3265669475 -0.1378225118 0.1109283909
310298140.0 -0.1180933072 0.1218487674 0.450018744 -0.3318628152 0.4502859343 -0.3318919927 -0.1371158927 0.1126742138
315298110.0 -0.11718659 0.1232912737 0.4463046626 -0.3368702294 0.4468226361 -0.3369803152 -0.1354778052 0.1134571669
320298080.0 -0.1157370199 0.1247105027 0.4423987414 -0.3421443179 0.4428910085 -0.3420805741 -0.1347384072 0.1145321817
325298050.0 -0.11447771 0.125605063 0.4388526509 -0.3472450771 0.4392623252 -0.3472856357 -0.133880941 0.116159993
330298020.0 -0.1135340624 0.127135217 0.4344598147 -0.3524419154 0.4348985353 -0.3521141141 -0.1331441003 0.1169759932
335297990.0 -0.1122880292 0.1280676416 0.4309955576 -0.35673955 0.4306670503 -0.3570378923 -0.1321078252 0.1183887039
340297960.0 -0.111309865 0.1297968105 0.4261956616 -0.3618177422 0.4268595213 -0.3614993314 -0.1310728033 0.119997028
345297930.0 -0.1098324136 0.1312183959 0.4224009484 -0.3660822225 0.4221410961 -0.3662178275 -0.1297034633 0.1211210688
350297900.0 -0.1083404445 0.1326677134 0.4187609505 -0.3709400787 0.4184460073 -0.3710631657 -0.1286730549 0.1228045362
355297870.0 -0.1068805031 0.1337904857 0.414062148 -0.3753881018 0.4141746586 -0.3756645223 -0.1279827784 0.1247012746
360297840.0 -0.1057029251 0.1349709852 0.4098327151 -0.3804730043 0.4097363389 -0.3802296984 -0.1265942736 0.1259116662
365297810.0 -0.1041134473 0.1364099927 0.4055633493 -0.384639075 0.4060154895 -0.3844064134 -0.1256220976 0.1273115395
370297780.0 -0.1025300984 0.1377688199 0.4012682639 -0.3892705561 0.4015181899 -0.3893259069 -0.1244602092 0.1289812219
375297750.0 -0.1012483364 0.1394375066 0.3979074448 -0.3935478648 0.3973100034 -0.3937006713 -0.1230585836 0.130417425
380297720.0 -0.0995180374 0.1401865631 0.3929154276 -0.3972014879 0.3931200612 -0.3975139301 -0.1217412671 0.131823467
385297690.0 -0.0979078013 0.1417073359 0.3885983466 -0.4017140879 0.3883221604 -0.4020082156 -0.1203512765 0.1333098651
390297660.0 -0.0966234335 0.1429370076 0.3840787018 -0.4065134941 0.3840425721 -0.4063975761 -0.1191466303 0.1342804941
395297630.0 -0.0949043584 0.1439179839 0.3799346599 -0.4102151372 0.3794676869 -0.4101922301 -0.1180749447 0.1359862487
400297600.0 -0.0935965908 0.145542535 0.3753483951 -0.4147411521 0.3754363209 -0.4149792891 -0.1172462756 0.1372095086
405297570.0 -0.0916040623 0.1465341752 0.3704865249 -0.4187405418 0.3704849327 -0.4193686695 -0.1157931473 0.1386042864
410297540.0 -0.0901015582 0.1473894459 0.3656099034 -0.42293705 0.3656741344 -0.4225786241 -0.1143453713 0.1396157614
415297510.0 -0.0883993943 0.1490089513 0.3611298082 -0.4265799713 0.3613788662 -0.4266184892 -0.1134363041 0.1413443366
420297480.0 -0.0869185932 0.1496766951 0.3566872791 -0.4310691394 0.3565103839 -0.4306329895 -0.1117091844 0.1423825877
425297450.0 -0.0848894961 0.1506379132 0.3517597377 -0.4346189285 0.3521282207 -0.4346422116 -0.1101750328 0.1439197961
430297420.0 -0.0833501975 0.152304648 0.3470580441 -0.438807221 0.3472519831 -0.4382764621 -0.1094313118 0.1449776859
435297390.0 -0.0816535436 0.1531254127 0.3422942828 -0.4417932309 0.3422770775 -0.4419056573 -0.1076676907 0.1465935145
440297360.0 -0.0799368742 0.1540521228 0.3371257413 -0.4455854452 0.3368575961 -0.4457332326 -0.1062485 0.1471487424
445297330.0 -0.0779184995 0.1549732331 0.3318372978 -0.4495907106 0.3325634501 -0.4494931344 -0.1051045506 0.1485940883
450297300.0 -0.0762710625 0.1562756719 0.3273005948 -0.4535246346 0.3276950037 -0.4532008395 -0.1038071007 0.1499934908
455297270.0 -0.0749525487 0.1569468657 0.3228781995 -0.4562942948 0.3229127685 -0.4562541678 -0.1021085893 0.1512579394
460297240.0 -0.0731037448 0.1580504763 0.3171844045 -0.4598682212 0.3170175695 -0.4602513946 -0.1005868005 0.1528415237
465297210.0 -0.0711259527 0.1590063622 0.3127606267 -0.4638375016 0.3127032301 -0.4634840816 -0.0996885071 0.1536799436
470297180.0 -0.0693714206 0.1599239386 0.3075317571 -0.4670518613 0.3081198822 -0.4669879307 -0.0987609828 0.1546939691
475297150.0 -0.0680483313 0.1603453842 0.302174171 -0.4700045194 0.3024668398 -0.4698058405 -0.0966956663 0.1560091093
480297120.0 -0.0659142468 0.1612538016 0.2967763441 -0.4732535873 0.2975523348 -0.4730613325 -0.0953354593 0.1572618694
485297090.0 -0.063999356 0.1624860319 0.2921916203 -0.4765283151 0.2922109471 -0.476497866 -0.0937634331 0.1579254919
490297060.0 -0.0621865905 0.1630810046 0.2869795566 -0.4795867791 0.2868559882 -0.4796908388 -0.0920441536 0.1594588919
495297030.0 -0.060529727 0.1641040193 0.2813594441 -0.4826768899 0.2813114314 -0.4828869472 -0.0907302093 0.1599906129
500297000.0 -0.0582166735 0.1649196318 0.2761665742 -0.4859719191 0.2764373381 -0.4857116479 -0.0895637215 0.1614089605
505296970.0 -0.0568930314 0.1653536308 0.2704083105 -0.4883107195 0.2708763338 -0.4887737108 -0.0884164077 0.1625555683
510296940.0 -0.054978609 0.1665640041 0.2655383473 -0.4918734178 0.2658461853 -0.4914208103 -0.0861880511 0.1635914645
515296910.0 -0.0533162101 0.1671951765 0.2599443743 -0.4942004063 0.2603212849 -0.494150021 -0.084794951 0.1646773393
520296880.0 -0.051455695 0.1677387936 0.2547440485 -0.4970764058 0.2552856549 -0.4970068039 -0.083045569 0.1654574878
525296850.0 -0.0497724376 0.1684606953 0.2496478763 -0.4996031238 0.2495126496 -0.5000155873 -0.0813442574 0.1664599662
530296820.0 -0.0476626564 0.1689664626 0.2442351595 -0.5017609811 0.2444957809 -0.5023553071 -0.0805193321 0.1671629607
535296790.0 -0.0457455293 0.1696124344 0.2383960056 -0.5047777239 0.2388527011 -0.504963234 -0.0787227121 0.168047307
540296760.0 -0.0437821151 0.1701680532 0.2330882102 -0.5076565714 0.2330123568 -0.5075267676 -0.0771291183 0.1694820562
545296730.0 -0.0418741868 0.171193482 0.2272500695 -0.5098297081 0.2274061825 -0.5102438803 -0.0754054902 0.1696185965
550296700.0 -0.0399608632 0.1717870826 0.2219903333 -0.5126392783 0.2227413329 -0.5127535681 -0.0739182669 0.1713163857
555296670.0 -0.0377338302 0.171733535 0.216115821 -0.5146884896 0.2168090324 -0.5147417415 -0.0722410594 0.1720122629
560296640.0 -0.0359456538 0.1728247558 0.210748243 -0.5170804045 0.2110961187 -0.516979682 -0.0704913383 0.1728904214
565296610.0 -0.0345188121 0.172964167 0.2052380597 -0.5189487659 0.2050834888 -0.5192409942 -0.0693452333 0.1733445051
570296580.0 -0.0320816763 0.1734154491 0.1993881151 -0.520986978 0.2000381539 -0.5216220567 -0.0674595575 0.1751999985
575296550.0 -0.0305632697 0.1743438832 0.1940498435 -0.5232477825 0.1945664901 -0.5232671186 -0.0654777355 0.175218607
580296520.0 -0.0285897638 0.174760564 0.1884743213 -0.525840315 0.1881217787 -0.5256060948 -0.0640175917 0.1759419216
585296490.0 -0.026367803 0.1748842391 0.1826589512 -0.5272549681 0.1824939958 -0.5272675458 -0.062466149 0.1764075554
590296460.0 -0.0248796685 0.1753244521 0.1769184582 -0.5295183594 0.1766587746 -0.529313887 -0.06072889 0.177781274
595296430.0 -0.0225416542 0.1759821881 0.171469041 -0.5311489355 0.1708653752 -0.531735132 -0.0590422972 0.1780824769
600296400.0 -0.0207528732 0.1763314233 0.1653874352 -0.5333155894 0.1654903129 -0.533352377 -0.0574180569 0.1792889619
605296370.0 -0.0187686793 0.1767080528 0.1597114472 -0.5350694814 0.1597764208 -0.5345787125 -0.0556817934 0.1796203408
610296340.0 -0.0170875408 0.1770554209 0.1543116597 -0.5365371992 0.1543577713 -0.536941477 -0.0538021057 0.1807995572
615296310.0 -0.0149979419 0.177473264 0.1478442771 -0.5380684134 0.1479555794 -0.5377406963 -0.052140761 0.1812317828
620296280.0 -0.0128044564 0.1775087252 0.1422320741 -0.5392924253 0.1422894587 -0.5393549124 -0.0505108374 0.1815476939
625296250.0 -0.0106886817 0.1778890259 0.1358342029 -0.5414798817 0.1362161827 -0.541548267 -0.0485517612 0.1826113173
630296220.0 -0.0084825628 0.1785841396 0.1299485469 -0.542903536 0.1308727539 -0.5427821347 -0.0471837556 0.1832281912
635296190.0 -0.0068409901 0.1785597983 0.1245141625 -0.5434718163 0.1245492829 -0.5432128061 -0.0454217859 0.1834452449
640296160.0 -0.0047804671 0.1783322586 0.1188738446 -0.5449746791 0.1187321467 -0.545136999 -0.0432608259 0.1842885736
645296130.0 -0.0028877521 0.1792546479 0.1128718119 -0.5465585761 0.1130485043 -0.5465281847 -0.0423543513 0.1843102455
650296100.0 -0.0009993273 0.1795204845 0.107206606 -0.5473210021 0.1073536979 -0.5472597798 -0.0402490526 0.1853496618
655296070.0 0.0007932868 0.1792227294 0.101036536 -0.5482475437 0.1010464476 -0.5483845073 -0.038055937 0.1860824403
660296040.0 0.0026809096 0.1797676473 0.0957041496 -0.5492535301 0.0953371997 -0.5493442343 -0.0364793994 0.1862013232
665296010.0 0.0049737958 0.1793666149 0.0897912693 -0.550577998 0.0897530369 -0.5503866831 -0.0348201917 0.1870767186
670295980.0 0.0072244452 0.1800339464 0.0831206382 -0.5514450895 0.0836199684 -0.5512998372 -0.0332083124 0.1873851282
675295950.0 0.0091287837 0.1796805576 0.0775079535 -0.5520104497 0.0775054174 -0.5527248424 -0.0312478025 0.1881190914
680295920.0 0.0111727252 0.1801739146 0.0714319216 -0.5528767853 0.0713895592 -0.5532020448 -0.0294732032 0.1882986042
685295890.0 0.0131180625 0.1799942084 0.0655099578 -0.5538957038 0.0654189473 -0.5541378997 -0.0276536231 0.189019219
690295860.0 0.0154084332 0.1800567542 0.0594952742 -0.5540308678 0.0594269347 -0.5543145829 -0.0257941937 0.1894911696
695295830.0 0.0176157567 0.1796954841 0.0527982776 -0.5553220117 0.0530479278 -0.5550379173 -0.0242473748 0.1895467039
700295800.0 0.0196841034 0.179514903 0.047180205 -0.5556186114 0.04743661 -0.5555805032 -0.0221609579 0.1898398631
705295770.0 0.0215685452 0.1798348957 0.0413339212 -0.555715501 0.0416440022 -0.5561862952 -0.0207590585 0.1901147443
710295740.0 0.0231178054 0.1802089369 0.0356817374 -0.5560225884 0.0352835448 -0.5561092108 -0.0190957548 0.1908977226
715295710.0 0.0252518331 0.1796475882 0.0292947143 -0.5567565743 0.0295930615 -0.5568336883 -0.0171237987 0.1908383184
720295680.0 0.0273227713 0.1794131097 0.0233571573 -0.556660284 0.0235440313 -0.5573574544 -0.0150497437 0.1916625789
725295650.0 0.0297612673 0.1791311642 0.0171109499 -0.5566838309 0.0174204452 -0.5571315847 -0.0132705826 0.191722645
730295620.0 0.0311103652 0.1792071459 0.0114218503 -0.5571454191 0.0118095137 -0.5572099924 -0.0111571111 0.1915214992
735295590.0 0.0336877204 0.1790483441 0.0054758414 -0.5571395817 0.0058776332 -0.5568688822 -0.0094875181 0.1921547221
740295560.0 0.0355018201 0.1788362753 -0.0004614689 -0.5564914039 -0.0006494689 -0.5570972436 -0.0075166244 0.192323337
745295530.0 0.0374787125 0.1784609296 -0.0068371524 -0.5569733473 -0.0059609551 -0.5574084352 -0.0059415461 0.1924945684
750295500.0 0.0396885771 0.1779422031 -0.0126108078 -0.5564861304 -0.0122620595 -0.5567821693 -0.0040383135 0.1925094712
755295470.0 0.0420757142 0.1781176911 -0.0186748439 -0.5570196674 -0.0182526354 -0.5567491576 -0.0023300735 0.1930330785
760295440.0 0.0433128096 0.1776687915 -0.0246583327 -0.5564771038 -0.0245447168 -0.5565870036 -0.0008083658 0.1930481109
765295410.0 0.0451189787 0.177163247 -0.0299534239 -0.5557608196 -0.0301912892 -0.5561714999 0.0018040491 0.193584455
770295380.0 0.0477076976 0.177165631 -0.0368510185 -0.5559947078 -0.0364295008 -0.556263362 0.0035275581 0.1935598869
775295350.0 0.0494151624 0.1766304154 -0.0423326282 -0.5550048484 -0.0422737238 -0.5551116089 0.005054664 0.1932700186
780295320.0 0.0518473734 0.175895207 -0.0484255663 -0.5545354724 -0.0480603474 -0.5550254712 0.0071268089 0.1938565132
785295290.0 0.0534521651 0.176109186 -0.0548259541 -0.5539180922 -0.0542339003 -0.5543922127 0.0085955639 0.1938744145
790295260.0 0.0555947585 0.1755280222 -0.0602615483 -0.5532216092 -0.0603704243 -0.5538834355 0.0108637215 0.1940014308
795295230.0 0.0573362211 0.1750287399 -0.0660726629 -0.552322044 -0.0658616138 -0.5527895441 0.0129247094 0.1942977973
800295200.0 0.0594335547 0.1746989706 -0.0726326114 -0.5521237586 -0.0724880256 -0.5523496235 0.0146788224 0.1942762427
805295170.0 0.0610579761 0.1740462168 -0.0780037236 -0.5507576387 -0.077870504 -0.5512960984 0.0160878492 0.1938632035
810295140.0 0.0633964877 0.1733286754 -0.0838922001 -0.5499218631 -0.0836220897 -0.5509386919 0.018278692 0.1943008297
815295110.0 0.0652112151 0.1728804392 -0.0902511387 -0.5490499814 -0.0900197708 -0.5495180827 0.0197961646 0.193868403
820295080.0 0.0668628589 0.1721214986 -0.0954806011 -0.5482505151 -0.0957870024 -0.5487233677 0.0217815682 0.1939116
825295050.0 0.069126148 0.1714821523 -0.1015426908 -0.546606177 -0.1015488092 -0.547175106 0.0241945188 0.1941022713
830295020.0 0.071142615 0.1713377824 -0.1074364639 -0.5461784956 -0.1080230804 -0.5461397214 0.0256931302 0.1937272645
