!Created with skrf (http://scikit-rf.org).
# Hz S RI R 50.0 
!freq ReS11 ImS11 ReS21 ImS21 ReS12 ImS12 ReS22 ImS22
300000.0 -0.779885032 -0.0881734896 -0.0007990009 -0.000602535 0.0006744636 0.0010575026 -0.0461161272 -0.0576013208
5299970.0 -0.7852342094 -0.0056094948 -3.1265e-05 -0.000154091 -7.3047e-05 4.69147e-05 -0.0460992762 0.0156230266
10299940.0 -0.7880113252 -0.0036646004 -1.46071e-05 -2.3107e-06 -1.3194e-05 -0.0001788388 -0.0400854406 0.0338903071
15299910.0 -0.7934117313 -0.0021573729 -0.0001029707 -1.68637e-05 -0.0002740554 -3.45096e-05 -0.0318632622 0.0484521943
20299880.0 -0.8001550364 0.0019999272 -1.65733e-05 6.712e-05 4.36436e-05 4.21521e-05 -0.0213446776 0.0599361109
25299850.0 -0.806403728 0.0079109625 -5.38319e-05 -0.0001008852 6.63626e-05 -0.00015614 -0.0102003702 0.0692635847
30299820.0 -0.8121338679 0.0153921642 -6.85315e-05 0.0001971971 4.53871e-05 0.0001065351 0.001802372 0.0762233094
35299790.0 -0.8174990731 0.0247385763 -6.22897e-05 -1.94118e-05 5.13026e-05 4.39465e-05 0.0131725228 0.0812011921
40299760.0 -0.8213312487 0.0335009031 0.0001295879 6.10652e-05 7.91e-05 2.38519e-05 0.0246632772 0.0835234626
45299730.0 -0.8242786424 0.0428929866 -2.37662e-05 -5.78421e-05 -0.0001141216 0.0002214441 0.0353629432 0.0855497446
50299700.0 -0.8272964488 0.0531774516 5.8673e-06 4.55967e-05 -6.88586e-05 -5.66952e-05 0.045010012 0.0850646474
55299670.0 -0.8292846042 0.0630283771 5.56397e-05 -0.0001590315 -5.83274e-05 -0.000151438 0.0546126995 0.0843271003
60299640.0 -0.8301594351 0.0735735281 -9.25355e-05 -0.0001301258 2.10997e-05 0.0001386699 0.063420798 0.0821443841
65299610.0 -0.8313319792 0.0830670434 2.64926e-05 6.25237e-05 0.0001752025 0.0002492987 0.070748993 0.0798102287
70299580.0 -0.8317178857 0.0934329139 0.0003724585 -4.83038e-05 9.85366e-05 0.0001013616 0.0779772752 0.0772108798
75299550.0 -0.8315171512 0.1028800084 0.0001181371 -5.6893e-05 -9.32549e-05 8.72241e-05 0.0841426316 0.0736730825
80299520.0 -0.8316317431 0.1130760936 -5.29175e-05 5.55741e-05 -2.40351e-05 6.50208e-05 0.0897851318 0.0703914303
85299490.0 -0.8308767841 0.1225019604 -0.0001739303 0.0001773749 -1.38102e-05 4.2377e-05 0.0947103664 0.0667303453
90299460.0 -0.8304319793 0.131887432 5.29458e-05 9.00821e-05 3.02763e-05 1.94893e-05 0.0992195895 0.0628298898
95299430.0 -0.8288329514 0.1416964572 0.0001359482 5.94325e-05 -0.0001432138 0.0002161957 0.1032834776 0.0591310243
100299400.0 -0.8280256288 0.1506112073 6.6572e-05 -3.61964e-05 2.62657e-05 -4.96127e-05 0.1076192866 0.0551761645
105299370.0 -0.8266418506 0.1600155907 0.0002456738 0.0001017248 5.47767e-05 -5.54493e-05 0.1107954818 0.0511086158
110299340.0 -0.8255394191 0.1694152912 -1.81961e-05 8.1817e-05 0.0001391718 0.000129963 0.1134240537 0.0474900795
115299310.0 -0.8239634746 0.1784420792 0.0001739497 -0.0001195985 -2.82039e-05 0.0002095428 0.1161897618 0.0435132808
120299280.0 -0.822060722 0.1869761137 3.8903e-05 5.22702e-05 -0.000199723 -5.86083e-05 0.1181566672 0.0399692994
125299250.0 -0.8203054249 0.1958115664 -5.86348e-05 -0.0001524418 5.16713e-05 0.0001411159 0.1204088431 0.0359188927
130299220.0 -0.8189451392 0.2050408635 8.93519e-05 5.97743e-05 6.06542e-05 -5.41382e-05 0.1221145046 0.03219243
135299190.0 -0.8171602331 0.2138054039 -0.0001449942 -7.70373e-05 0.0001285707 -5.85772e-05 0.1236196479 0.0287338667
140299160.0 -0.8147839552 0.2226898112 -2.01718e-05 4.90026e-05 3.95208e-05 7.09885e-05 0.1247556063 0.0256241664
145299130.0 -0.812857907 0.2323303803 0.0001058211 0.0001237469 5.47563e-05 3.27506e-05 0.1258536445 0.0220724912
150299100.0 -0.8103883999 0.2411420228 -0.0001078758 0.000174023 0.0001483677 8.61445e-05 0.1267463008 0.0188490268
155299070.0 -0.8078548317 0.2488883569 0.0001831006 0.0002553153 0.0001211467 3.77296e-05 0.1277974015 0.0153140024
160299040.0 -0.8054926589 0.2575365884 -6.04725e-05 -0.0001168358 0.0001217836 -2.6872e-06 0.1281398726 0.0123444471
165299010.0 -0.8028032529 0.2671047775 -0.0001042305 0.0003573417 0.0001471848 -6.67677e-05 0.1289870144 0.0092531264
170298980.0 -0.7999044286 0.2752449217 -0.0001054337 0.0001090301 -2.018e-06 6.8995e-05 0.1291480781 0.0064424204
175298950.0 -0.7971749844 0.2839890622 0.0002025299 0.0001083913 3.24667e-05 7.80844e-05 0.1294096056 0.0033441568
180298920.0 -0.7950706841 0.292275782 1.98066e-05 -7.29018e-05 -7.5556e-05 -5.64399e-05 0.1295290424 0.0005495237
185298890.0 -0.7912805093 0.3006344395 -0.0001100914 8.0922e-06 -2.88012e-05 3.84286e-05 0.1299003384 -0.002296009
190298860.0 -0.7889167486 0.3095342648 -0.0001419841 -3.94177e-05 3.89863e-05 0.0001616448 0.1300591312 -0.0047746548
195298830.0 -0.7852424458 0.3176428094 2.52352e-05 0.0002670376 0.0001182819 4.86166e-05 0.1300329735 -0.0077871377
200298800.0 -0.7814926757 0.3259835786 -6.28259e-05 0.0001385648 2.70521e-05 6.21646e-05 0.1298413638 -0.01062009
205298770.0 -0.7782878853 0.3341779512 -7.44014e-05 0.000174655 2.05639e-05 -3.76346e-05 0.1298300806 -0.0133655977
210298740.0 -0.7751252927 0.3419700066 -5.30933e-05 2.61713e-05 0.0001162792 0.0001800365 0.1297052846 -0.0154619048
215298710.0 -0.771646805 0.3506995506 9.03391e-05 3.75361e-05 -7.16158e-05 -5.167e-06 0.1287840379 -0.018283461
220298680.0 -0.7683960732 0.3584569009 0.00022719 0.0002389263 9.67438e-05 -2.22879e-05 0.1284631738 -0.0206221403
225298650.0 -0.7644943997 0.3660837273 -3.93619e-05 0.0001436049 -6.55266e-05 0.0001939316 0.1279694375 -0.0230279668
230298620.0 -0.7600160225 0.3743956523 -4.6032e-05 0.0001670808 6.66403e-05 0.0001432593 0.1279018742 -0.0253816309
235298590.0 -0.7568912778 0.3827628747 0.0001150881 -6.9498e-06 0.0001195185 0.0003227177 0.1277449253 -0.027176651
240298560.0 -0.7525819528 0.3909649768 0.0002710467 -0.000286929 0.0001739165 0.000125959 0.1265957677 -0.0295994079
245298530.0 -0.7493519931 0.3983394089 -2.3832e-05 0.0001974644 0.0001520595 0.0001236446 0.126304688 -0.0319816095
250298500.0 -0.7446725677 0.4064519646 0.000138776 0.0001587058 0.0001390894 8.21194e-05 0.1255060532 -0.0343065881
255298470.0 -0.7397557281 0.4131798957 -0.0001335781 0.0001325435 0.000143123 1.15645e-05 0.1247521928 -0.0364527493
260298440.0 -0.7360643278 0.4213218749 -0.0001152979 4.72529e-05 0.0002109978 0.0001628191 0.1245799744 -0.0384803766
265298410.0 -0.7314691295 0.4291322181 0.0001294054 0.0002619054 0.0001284197 4.76081e-05 0.1237717832 -0.0401186007
270298380.0 -0.7271078465 0.437142757 -3.53235e-05 0.0001916009 0.0002020412 0.0001891689 0.1230646011 -0.0421650859
275298350.0 -0.7221490314 0.4447204479 0.0001988331 0.0001255024 3.66253e-05 0.000192346 0.122395852 -0.0439396791
280298320.0 -0.7174035061 0.4524880941 0.000187332 0.0001699966 5.71175e-05 0.0001814145 0.1221144164 -0.0461654925
285298290.0 -0.7131305139 0.459853669 0.0002248809 0.0002306686 0.0001943049 -4.00851e-05 0.1210258725 -0.0479699833
290298260.0 -0.708264168 0.4675640066 0.0001472898 6.15856e-05 0.0001118096 4.90197e-05 0.1202929245 -0.0495340095
295298230.0 -0.7028658119 0.474137633 2.73681e-05 5.50992e-05 0.0001871958 0.0003895986 0.119624396 -0.0516051392
300298200.0 -0.6980423047 0.4813931139 2.23543e-05 0.0002884296 7.94433e-05 9.12345e-05 0.1188847514 -0.0532683246
305298170.0 -0.692943381 0.4883057438 0.0001778456 -4.76424e-05 7.83469e-05 2.24263e-05 0.1183693632 -0.055520131
310298140.0 -0.6877353976 0.4959327943 -9.0833e-06 0.0002316691 0.000186483 0.0003355931 0.1168283887 -0.057383508
315298110.0 -0.6830371558 0.5031910563 0.000255501 0.0004272852 1.94326e-05 0.0001660291 0.1156696644 -0.0588655649
320298080.0 -0.677582297 0.5097624034 0.0002601845 8.83364e-05 7.98638e-05 4.55135e-05 0.114968018 -0.0610998693
325298050.0 -0.6719662296 0.5171670482 0.0002177589 9.57057e-05 -0.0001391932 4.82938e-05 0.1136300143 -0.0626521417
330298020.0 -0.6667351495 0.523911415 0.0003169608 0.0002487878 0.000165244 0.0004098942 0.1120957227 -0.0641392021
335297990.0 -0.6610517311 0.5303605296 -0.0001601245 -0.0001040637 0.0001698974 0.0002429153 0.1109579013 -0.0651826016
340297960.0 -0.6564853514 0.5373379974 0.0001491406 0.0002140139 0.0002036016 -0.0001003014 0.1103767655 -0.0666475051
345297930.0 -0.650572472 0.5440363828 -3.7754e-05 0.000191465 0.0002648833 0.0001681281 0.1084851024 -0.0687527471
350297900.0 -0.6444816284 0.5508468998 5.66928e-05 -5.35326e-05 4.44037e-05 9.15916e-05 0.1073540904 -0.0693024904
355297870.0 -0.638150134 0.5580653706 0.0003485982 0.0001754384 0.0002351297 5.58026e-05 0.1060765668 -0.0707492383
360297840.0 -0.6328683516 0.5638341066 0.0001173215 6.00167e-05 0.0002297087 0.0001332457 0.1051881066 -0.0720078525
365297810.0 -0.6278080393 0.570204398 5.5514e-06 0.0001611544 0.0002893546 8.44742e-05 0.1039786326 -0.0737907826
370297780.0 -0.6210853417 0.576534256 0.0002749704 4.55132e-05 4.30346e-05 3.18839e-05 0.1029865826 -0.0745272307
375297750.0 -0.6146661568 0.5832355849 0.0002499581 0.0001459257 0.000175319 0.0001149412 0.101589343 -0.0760776771
380297720.0 -0.60929152 0.5891840933 0.0002006555 2.32022e-05 0.0001580698 0.0004739478 0.1003034338 -0.0772763816
385297690.0 -0.6035060156 0.5952645754 9.96351e-05 0.0001825555 0.0001360571 0.0001311035 0.099409693 -0.0786511757
390297660.0 -0.5975357401 0.6009999348 0.0001233243 0.0003466977 0.0001120864 0.0003204272 0.0979552364 -0.0794898395
395297630.0 -0.5902654279 0.6080602281 -0.0002649355 0.0001917069 0.0002680675 8.91489e-05 0.0970305167 -0.0808787783
400297600.0 -0.5848150212 0.6136721087 0.000148459 0.0001272477 0.0001125371 1.74633e-05 0.0957168154 -0.0820268393
405297570.0 -0.5787080727 0.6192928153 0.0002624189 2.91033e-05 0.0001913837 8.2799e-05 0.09433111 -0.0833759306
410297540.0 -0.5715551711 0.6251333227 0.0002168329 6.45901e-05 0.0001932734 0.0002047522 0.0931416399 -0.0841734323
415297510.0 -0.5649508967 0.630796705 0.0002957236 6.57913e-05 6.76292e-05 9.8864e-06 0.0919278919 -0.0854453013
420297480.0 -0.5594834542 0.6371786972 8.20068e-05 -2.54377e-05 5.50769e-05 2.99137e-05 0.0905644121 -0.0867244358
425297450.0 -0.5519082075 0.6423519666 0.000362067 0.000217415 0.0003142834 5.34913e-05 0.0895461764 -0.0874587403
430297420.0 -0.5459236929 0.647854793 0.0001343264 0.000167544 0.0001372401 3.1828e-05 0.0878722589 -0.0887066018
435297390.0 -0.5391817692 0.6535562379 0.0003078636 0.0002115235 0.0001890685 7.66451e-05 0.0869343093 -0.0896164314
440297360.0 -0.5321701517 0.6589145258 0.0002975791 4.103e-05 0.0002107038 0.0002991013 0.0857236307 -0.0902663187
445297330.0 -0.5249455521 0.6639687072 0.0002127546 0.0001165348 0.0002864367 0.0002257526 0.0844668457 -0.0920912829
450297300.0 -0.5185911965 0.6692520786 3.55446e-05 0.0002049264 0.0003607016 0.0002841246 0.0829688047 -0.0924068666
455297270.0 -0.5118264254 0.6742177332 0.0001004213 0.0002712697 9.54864e-05 2.8873e-06 0.0816691281 -0.0935452724
460297240.0 -0.5055343924 0.6798644858 0.0003840398 7.73236e-05 -5.0667e-06 -4.40802e-05 0.0801654127 -0.0945094139
465297210.0 -0.4983798921 0.6849521319 0.0003958624 0.0001626727 0.0003501123 0.0003135239 0.0791792968 -0.0952390322
470297180.0 -0.490432386 0.6897005362 0.0002828272 -0.0001231284 0.0001331003 4.20518e-05 0.0777673578 -0.0960128552
475297150.0 -0.4834134651 0.6940885941 0.0001387269 -4.24282e-05 7.17346e-05 0.0001366702 0.0764644952 -0.0970653431
480297120.0 -0.4761831295 0.6995210675 0.0002769599 0.0003217021 0.0002635099 -5.93375e-05 0.0751660204 -0.097787821
485297090.0 -0.4691576703 0.7037407536 0.0003576053 0.0003131464 0.0003087235 0.0002015148 0.074114546 -0.0983937569
490297060.0 -0.4629268937 0.708008431 0.0002888111 5.72068e-05 3.14326e-05 9.32462e-05 0.0721986306 -0.0995727395
495297030.0 -0.4552718776 0.7128222451 0.0001917956 0.0001708869 0.0002714259 -3.70701e-05 0.0710391438 -0.0996776241
500297000.0 -0.4474331608 0.718339586 0.0001478449 7.84035e-05 0.0001776877 0.0003198572 0.0698942287 -0.1005046868
505296970.0 -0.4398763494 0.7223505338 0.0002383294 0.0001085952 0.00015381 0.0001571768 0.0684166528 -0.1014926914
510296940.0 -0.4330955594 0.72688776 0.0002261394 0.0001064223 0.000214223 0.0001671757 0.0668967971 -0.1018790153
515296910.0 -0.4252359015 0.7306435998 0.0005303799 -3.19272e-05 0.0003398458 0.0001175291 0.0655116446 -0.102528471
520296880.0 -0.4183845692 0.7350398551 0.0001779366 0.0001621752 0.0002170686 0.0002774226 0.0642372466 -0.1032953113
525296850.0 -0.4105442655 0.7396251377 0.0005144791 0.0001322853 0.000302227 -2.87853e-05 0.0627702436 -0.1036433923
530296820.0 -0.4031218365 0.7433390345 0.0002156281 0.0001335295 6.85767e-05 0.0001564698 0.0614927242 -0.104409489
535296790.0 -0.3964912167 0.7469666231 0.0002375124 2.30004e-05 3.00823e-05 0.0001364886 0.0596355374 -0.1051461957
540296760.0 -0.388297057 0.7503716377 0.0002224655 0.0001442223 0.0002042055 0.0001568884 0.0580573322 -0.1054063579
545296730.0 -0.3805357585 0.7554244462 0.0004014712 0.0001299056 0.0004920088 8.94059e-05 0.0569224633 -0.1061925325
550296700.0 -0.3734291941 0.7586887649 0.0001281364 -0.0001429773 0.0002846446 0.0001670931 0.0553437014 -0.1068408817
555296670.0 -0.3652303343 0.7616021457 0.0004065569 0.0002367015 0.0001668743 -2.48779e-05 0.0540655682 -0.10699828
560296640.0 -0.3578968025 0.7665175356 0.0001453226 0.0003281328 5.43328e-05 9.33631e-05 0.0526703601 -0.1074475953
565296610.0 -0.3506899186 0.7694962156 0.0004083142 -0.0001572335 0.000189727 6.79011e-05 0.0512630211 -0.1080939287
570296580.0 -0.3425513938 0.7723385154 0.0003917508 3.9001e-05 0.0003699859 -3.03276e-05 0.049672234 -0.1086027056
575296550.0 -0.3347736097 0.7765517887 0.0001437403 8.10159e-05 0.0003131597 0.0001572656 0.0481438027 -0.1089371508
580296520.0 -0.3269184277 0.7794617762 0.0001885833 0.000164281 0.0002527093 0.000242327 0.0467340036 -0.1094548511
585296490.0 -0.3197894248 0.7827945253 0.0005509255 -0.0001287928 0.0002038183 0.0001502952 0.0455000538 -0.1098281279
590296460.0 -0.3109355107 0.7858847928 3.22294e-05 -0.0001106759 0.0003503192 9.32884e-05 0.0436680183 -0.1099369198
595296430.0 -0.3029755006 0.7883946016 0.0005624954 -9.02373e-05 0.0003724319 2.30984e-05 0.0423802787 -0.1104813603
600296400.0 -0.295379077 0.7921332695 0.0002206488 -0.0001070043 0.0003072665 4.20462e-05 0.0410686332 -0.1109174157
605296370.0 -0.2878963526 0.7946846476 0.000269264 9.56288e-05 0.0001523878 0.0002722829 0.0396690445 -0.1111405626
610296340.0 -0.2795486909 0.7972709586 0.0002767263 0.0002136379 0.0001957963 0.0001144206 0.0382314687 -0.1113140305
615296310.0 -0.270595822 0.8003905987 0.0002863088 0.0002309175 0.0004740978 -1.20689e-05 0.0369299835 -0.111787061
620296280.0 -0.2633859642 0.8019722686 0.0003767651 -0.0001035399 0.0002105856 0.0001837827 0.0352956517 -0.1122204035
625296250.0 -0.2556084967 0.8052356875 0.0001135566 0.0001156525 0.0002149571 0.0001165263 0.0338820306 -0.1125333031
630296220.0 -0.2463646459 0.8076984577 0.000422801 8.47116e-05 0.0003022815 2.6475e-06 0.0324604273 -0.1121712899
635296190.0 -0.2389678786 0.810322845 0.0003407432 0.0001070342 0.0004404639 3.40972e-05 0.031383234 -0.1124049626
640296160.0 -0.2315068066 0.8125991442 0.0004525099 5.30098e-05 9.03437e-05 0.000213933 0.0294622448 -0.1130894563
645296130.0 -0.2227240706 0.8153003479 0.0003924026 -0.0002020827 0.000672164 0.0003251271 0.0283054671 -0.1126904605
650296100.0 -0.2145635138 0.8169093274 0.0003409612 0.0001872201 0.0001670328 -0.0001977924 0.0267836549 -0.1129966306
655296070.0 -0.2066829643 0.8193798304 0.000419464 0.000358413 0.0004347551 8.35627e-05 0.0257954557 -0.1130765924
660296040.0 -0.1983821715 0.8209044027 0.0002614664 -5.32969e-05 7.94884e-05 5.43106e-05 0.0238676143 -0.1133711003
665296010.0 -0.1893990482 0.8224824357 0.0002171206 -9.2515e-06 0.0003345865 -3.51265e-05 0.0226073289 -0.1128986348
670295980.0 -0.1825560709 0.8243154843 6.08442e-05 4.15236e-05 0.0004855795 -6.85517e-05 0.0206328196 -0.113269521
675295950.0 -0.1734672068 0.8258478251 0.0005908679 0.000173967 0.0003474134 6.35547e-05 0.0193277723 -0.1132140171
680295920.0 -0.1653221748 0.8282034788 3.61023e-05 2.53114e-05 0.0005645361 9.20569e-05 0.0181540108 -0.112997975
685295890.0 -0.1572453937 0.8303243531 0.0001958666 -0.000159135 0.0002136585 9.60702e-05 0.0166390102 -0.1130424183
690295860.0 -0.1492664635 0.8317437467 0.0002752381 0.0001030601 0.0003683765 -4.38771e-05 0.0152419677 -0.1124877131
695295830.0 -0.1406974759 0.8321804036 0.0003507728 -7.17658e-05 0.0002104933 5.83718e-05 0.0136726104 -0.1129558658
700295800.0 -0.1320576591 0.8341559057 0.0005509108 -8.55039e-05 0.0002075855 0.000255535 0.0118578368 -0.1127406219
705295770.0 -0.1243998911 0.8353755395 0.0003792481 1.57599e-05 0.0002466603 -1.95555e-05 0.0106612975 -0.1124617812
710295740.0 -0.1158468423 0.8365710809 0.0003470809 0.0002533563 0.0004716118 -6.0422e-06 0.0091777713 -0.1126643144
715295710.0 -0.1076970376 0.8376131953 0.0005217421 2.56428e-05 0.0001918335 0.0001432947 0.0076826292 -0.1124717139
720295680.0 -0.0990410772 0.8390645777 0.0001511278 6.61846e-05 0.000353205 -0.0001295372 0.0064113018 -0.1123534186
725295650.0 -0.0912616385 0.8400177093 0.0005320821 4.69621e-05 0.0001857213 -0.000155981 0.0047371 -0.1118449214
730295620.0 -0.0827187819 0.840224986 0.0005459533 0.000209407 0.0002479155 0.0001447334 0.0031411178 -0.1119105384
735295590.0 -0.0749627805 0.8413150614 0.0003434968 2.53189e-05 0.0002899816 -5.23467e-05 0.0016525987 -0.112022651
740295560.0 -0.0670451727 0.841762114 0.0004498272 2.59767e-05 0.00046409 -0.000270293 0.0010664006 -0.1117268719
745295530.0 -0.0574912257 0.8429274576 0.0004625189 4.45377e-05 0.0002906726 -8.2866e-05 -0.0005918126 -0.1117177815
750295500.0 -0.0489821647 0.842808439 0.0003768605 5.98252e-05 0.0002179468 -6.7302e-06 -0.002308205 -0.1108890712
755295470.0 -0.0413011317 0.8430998139 0.0004288629 -3.16378e-05 0.0004552091 2.638e-06 -0.0036279249 -0.1111598783
760295440.0 -0.0330576368 0.8431655901 0.0002711002 -0.0002315287 0.0006437179 -3.43613e-05 -0.0051731587 -0.1109227812
765295410.0 -0.0247923262 0.8442059442 0.0001616951 -0.0001791967 0.0004482503 -0.0002337581 -0.0065072993 -0.1103553231
770295380.0 -0.0164303679 0.8444963049 0.0002881582 4.26043e-05 0.0003232449 -0.0001066015 -0.0080307002 -0.1104926955
775295350.0 -0.0077189034 0.8443662967 0.0003614053 7.97398e-05 0.0002118226 -6.01934e-05 -0.0097492981 -0.1099577292
780295320.0 0.0002968456 0.8443590751 0.0003184565 -8.55534e-05 0.0001412692 2.09425e-05 -0.0103877718 -0.1097274164
785295290.0 0.0088309148 0.843629218 0.0002746335 -4.54586e-05 0.0002798676 -0.0002833738 -0.0116577502 -0.1093440983
790295260.0 0.0177918457 0.8443729551 0.0003932651 9.29567e-05 0.0002533208 -0.0002191767 -0.0126598094 -0.1088399728
795295230.0 0.0255998051 0.8435873656 0.0003021994 4.43325e-05 0.0004369926 -0.000298846 -0.0144178332 -0.1086401788
800295200.0 0.0333039173 0.8436825397 0.0005475471 7.07816e-05 0.0005085145 0.0001781438 -0.0158117684 -0.1079318485
805295170.0 0.0425720699 0.8432583217 0.0004745745 -0.000146867 0.0005598996 -0.0001181444 -0.0172028188 -0.10723901
810295140.0 0.0505498518 0.8427107401 0.0003437464 -0.0001855493 0.0002244526 -4.66345e-05 -0.0183533658 -0.1070294828
815295110.0 0.0590665711 0.8419367382 0.0004754617 -0.0002351501 0.0003984318 -0.0004212306 -0.019811534 -0.1066901853
820295080.0 0.0669283962 0.8417132113 0.0005146029 8.68582e-05 0.0004096405 -0.0001256182 -0.0208757335 -0.1061360349
825295050.0 0.0760400993 0.8408450058 0.000655751 0.000136522 0.0002157385 -2.91302e-05 -0.0224525155 -0.1056491542
830295020.0 0.0837885048 0.8401072491 0.0004158031 3.87411e-05 0.0005973956 -6.46531e-05 -0.0234228023 -0.1050848131
835294990.0 0.0918406746 0.8392427583 0.00052155 -0.0002938361 0.0001448859 -9.02252e-05 -0.0249365568 -0.104508356
840294960.0 0.0998369177 0.8383263696 0.0004225825 -0.0001030823 0.0004697355 -0.0002018761 -0.0262383514 -0.1041645815
845294930.0 0.1082398161 0.8371434607 0.0005048884 -1.95015e-05 0.0003275035 -0.0002147689 -0.0273795676 -0.1032677497
850294900.0 0.1172102487 0.8361727401 0.0005108246 -1.64684e-05 0.0002129354 3.05312e-05 -0.0291577018 -0.1026081509
