!Created with skrf (http://scikit-rf.org).
# Hz S RI R 50.0 
!freq ReS11 ImS11 ReS21 ImS21 ReS12 ImS12 ReS22 ImS22
300000.0 -0.2136080057 -0.0571066443 0.0003088473 0.0018651698 0.0012336651 0.0014244389 -0.7731285516 -0.1280096844
5299970.0 -0.2169638555 0.0085733479 -0.0001619321 -0.0001825924 -5.72585e-05 -0.0002444658 -0.7854828628 -0.0068848854
10299940.0 -0.2133878626 0.0193437158 -2.54865e-05 -0.0001275591 -2.7574e-06 -5.08938e-05 -0.7883521808 -0.0035516553
15299910.0 -0.208719651 0.0284701084 -0.0001802074 0.00029933 -8.6354e-06 0.0001220649 -0.7939519029 -0.0013719714
20299880.0 -0.2033877937 0.0358644261 -0.000101587 4.41998e-05 4.98759e-05 3.00083e-05 -0.8003166863 0.0020886613
25299850.0 -0.1977457805 0.0419292775 -7.17963e-05 1.692e-06 4.01665e-05 -8.84256e-05 -0.8068276457 0.0081806313
30299820.0 -0.1922183453 0.0467209018 -6.40218e-05 -1.31872e-05 -0.0001169702 -7.96804e-05 -0.8127799859 0.015657592
35299790.0 -0.18644812 0.0506627156 0.0002183128 -3.30888e-05 0.0001162491 4.20704e-05 -0.8173588385 0.0248271421
40299760.0 -0.180584476 0.0533202923 0.0001281262 8.8421e-06 -0.0001307167 -9.80165e-05 -0.8211885572 0.0341429281
45299730.0 -0.1754418632 0.055495998 0.0002079064 -8.64958e-05 -0.0001060655 3.6462e-06 -0.8255055559 0.0435638468
50299700.0 -0.1708421087 0.0566861404 -0.0001655436 5.70244e-05 -0.0001183352 0.0002042032 -0.827392154 0.0539326754
55299670.0 -0.1665898408 0.0578944946 9.37644e-05 3.56976e-05 -0.000168688 8.80617e-05 -0.8296539983 0.0640296866
60299640.0 -0.1623767706 0.0586259621 -0.00010995 0.0001065424 9.39523e-05 -7.78193e-05 -0.8302091848 0.073959959
65299610.0 -0.1589036395 0.0594083333 0.0001105373 0.000174595 0.0002157461 -0.0001177196 -0.8321537039 0.0838513261
70299580.0 -0.1557815284 0.0595099512 -9.59905e-05 0.0001830004 -8.83217e-05 -1.96401e-05 -0.8318358058 0.0947021405
75299550.0 -0.1527123711 0.0600053651 0.000115378 0.0001063705 -0.0001201527 -6.24922e-05 -0.8324632927 0.1036502429
80299520.0 -0.150031175 0.0602277305 -9.33025e-05 0.0001491486 4.76034e-05 -9.79064e-05 -0.8317780153 0.1137330483
85299490.0 -0.1477935856 0.0596576849 7.16235e-05 0.0001311966 -3.9065e-06 2.82456e-05 -0.8318752654 0.1233951762
90299460.0 -0.1452571678 0.0601408721 4.843e-05 7.01256e-05 -0.0002497391 0.0001260349 -0.8302386227 0.1328089577
95299430.0 -0.1432703107 0.0595850997 7.637e-07 0.0001163094 0.0001183465 -0.0001228018 -0.8291793132 0.1428196242
100299400.0 -0.1417796431 0.0600241792 -5.75627e-05 -2.78086e-05 0.0001363876 -0.0001121265 -0.8284143465 0.1523595358
105299370.0 -0.1399641359 0.0599658574 -0.0002219072 -6.55392e-05 -1.05591e-05 0.0001525671 -0.8268692892 0.1606412703
110299340.0 -0.1386259215 0.059866325 -2.02824e-05 0.0001765137 3.31494e-05 0.0002795504 -0.8257316226 0.1704871974
115299310.0 -0.1370336937 0.0597750974 -0.0001968151 0.0001640387 6.62e-08 0.0002377564 -0.8240744604 0.1797399988
120299280.0 -0.1361132598 0.0597369006 0.0001335005 -0.0001549042 0.0001835221 -6.96889e-05 -0.822136308 0.1886141552
125299250.0 -0.1348972727 0.0598132244 -0.0001193269 -5.20137e-05 -9.42955e-05 1.41787e-05 -0.8211278913 0.1978757087
130299220.0 -0.1342767862 0.0603282988 5.50677e-05 0.0001684854 -1.39895e-05 0.0002223582 -0.8191185486 0.2063348137
135299190.0 -0.1333353634 0.0606049337 1.16311e-05 0.0001400916 0.0001266792 0.0001805574 -0.8169274721 0.2154820472
140299160.0 -0.1324279011 0.0608663765 0.0002690406 4.89187e-05 2.07639e-05 3.0732e-06 -0.8148409074 0.2250948145
145299130.0 -0.1314327366 0.0611310836 0.0001007902 -0.000262907 0.0001645919 8.48228e-05 -0.8127790466 0.2340343975
150299100.0 -0.1308300696 0.0614692453 -0.0001025755 8.4932e-05 -2.78224e-05 -6.44685e-05 -0.8111169121 0.2426390256
155299070.0 -0.1302612815 0.0619895298 -9.76766e-05 1.75653e-05 0.0001878961 -9.44478e-05 -0.8082145227 0.2521970351
160299040.0 -0.1296923727 0.0623583052 -0.0001214401 0.0001158049 0.000157804 -1.86237e-05 -0.805771906 0.2607551691
165299010.0 -0.1289272374 0.0629089414 -2.68941e-05 -9.6024e-06 -9.07185e-05 1.92957e-05 -0.8033163427 0.2694639236
170298980.0 -0.1287817718 0.0635617547 -0.000185001 0.0003002678 7.98968e-05 0.0002129835 -0.8005449387 0.2782234692
175298950.0 -0.1279390679 0.0642097075 7.70699e-05 0.0001490058 -4.12059e-05 -2.23175e-05 -0.7976158683 0.2868303749
180298920.0 -0.1273972791 0.0647723488 0.0001132061 0.0001843207 4.69997e-05 0.000335696 -0.7947029661 0.2951386808
185298890.0 -0.1267061921 0.0652097842 1.43842e-05 5.42955e-05 3.27876e-05 -0.0001711891 -0.7909041179 0.303798948
190298860.0 -0.1262396243 0.0660571306 0.0001242707 -0.0001394489 0.0001322028 -8.30858e-05 -0.7885751721 0.3123887856
195298830.0 -0.1261496553 0.066516497 0.0001321759 0.0001740212 0.0002534046 -4.29929e-05 -0.7851125671 0.3203697713
200298800.0 -0.125166891 0.0673340532 0.000175898 9.85521e-05 -0.0002132081 -7.04595e-05 -0.7824717046 0.3288927007
205298770.0 -0.1247230905 0.0682647733 0.0002401984 6.85071e-05 0.0001060669 0.0002266545 -0.778194074 0.3371577478
210298740.0 -0.1246111199 0.0689433592 3.50767e-05 0.0002647194 0.000238079 1.09029e-05 -0.7752421593 0.3455074746
215298710.0 -0.1240448017 0.0695140411 0.0002028161 -9.73113e-05 5.27654e-05 -3.5253e-05 -0.7714092243 0.3533661882
220298680.0 -0.1235962503 0.0705193755 1.11699e-05 2.28501e-05 0.0001535069 0.0002083346 -0.7677672637 0.3617383413
225298650.0 -0.1232913612 0.071149015 0.000277438 0.0001015943 -6.35473e-05 -9.6845e-06 -0.7641167808 0.3696313854
230298620.0 -0.1228677198 0.0722303269 3.10917e-05 0.0002080426 0.0002495368 0.0001599881 -0.7602491137 0.378214866
235298590.0 -0.1220836081 0.0731576005 -2.73558e-05 0.0001743056 4.26889e-05 0.0001361783 -0.7553033348 0.3862144366
240298560.0 -0.1216417428 0.0739459077 0.0002791008 1.6861e-05 -0.0001155294 -0.0001404298 -0.7511585671 0.3946157414
245298530.0 -0.1213975547 0.0749964313 -7.43321e-05 6.27069e-05 0.0001650558 -8.11457e-05 -0.7474589649 0.4022069777
250298500.0 -0.1208440305 0.0757178512 0.0001311959 3.79535e-05 0.000149456 1.8253e-05 -0.743630353 0.4098949423
255298470.0 -0.1206031805 0.0764889489 7.18509e-05 5.59222e-05 2.36577e-05 0.0001116257 -0.7389144463 0.417133887
260298440.0 -0.1199727382 0.0773801187 0.0001598118 4.91053e-05 8.29559e-05 6.63054e-05 -0.7343510206 0.4260339887
265298410.0 -0.1193410231 0.0788004562 7.41458e-05 2.82018e-05 -0.0001007957 7.87636e-05 -0.7304561624 0.432956102
270298380.0 -0.1189916349 0.0798105433 2.35584e-05 -0.000196219 -2.10356e-05 0.0001001367 -0.725635096 0.440937572
275298350.0 -0.1185744404 0.0807428305 0.0002565659 0.0001166033 3.78172e-05 -9.68863e-05 -0.7211393063 0.4486445349
280298320.0 -0.1176502484 0.0816780358 3.49526e-05 0.0003879081 8.95306e-05 2.2405e-05 -0.7158553341 0.4558035604
285298290.0 -0.1168126976 0.0829656858 0.0001879769 0.0001320722 -5.62017e-05 0.0001930491 -0.7111066914 0.4640246652
290298260.0 -0.1167118375 0.0836649287 6.54178e-05 5.16708e-05 -5.67517e-05 -0.0002349915 -0.7064335676 0.4712136002
295298230.0 -0.1157491763 0.0846912619 8.14264e-05 1.28472e-05 -7.9423e-05 5.24632e-05 -0.7015825515 0.4780483762
300298200.0 -0.1152656119 0.0857848922 -1.45312e-05 4.86656e-05 -3.67173e-05 -0.000122966 -0.696543023 0.4857418051
305298170.0 -0.1145980546 0.0865738709 0.0002400529 3.32402e-05 7.61757e-05 0.0003485682 -0.6906740826 0.4933624186
310298140.0 -0.1140189688 0.0880153187 0.0002182656 0.0001358107 -0.0001024718 3.55594e-05 -0.6866524053 0.5001849063
315298110.0 -0.1134270659 0.0889001849 -3.07668e-05 0.0002233118 2.42052e-05 0.00017343 -0.680678465 0.5074290706
320298080.0 -0.1126390013 0.0896648194 0.00021625 -5.47523e-05 8.67928e-05 0.0003002074 -0.6760647934 0.5145164375
325298050.0 -0.1118660516 0.0907755326 6.80691e-05 3.96049e-05 5.11531e-05 3.58005e-05 -0.6697472003 0.5214607627
330298020.0 -0.1114343629 0.0914798244 9.56533e-05 0.0001182614 0.0001345506 -3.20354e-05 -0.6646610645 0.5285748836
335297990.0 -0.1112396828 0.0925967709 0.0001936102 0.0002481417 0.0001493188 -9.89998e-05 -0.6589513085 0.5358008078
340297960.0 -0.1108701996 0.0938442189 0.0001620085 -0.0002200322 6.10999e-05 0.0002678749 -0.6532888741 0.5427577401
345297930.0 -0.1099013693 0.0949523831 6.51237e-05 5.19735e-05 2.33588e-05 9.0174e-06 -0.6479258229 0.5482637334
350297900.0 -0.1092167164 0.096081434 -1.89134e-05 0.0001204961 9.34946e-05 0.0001462665 -0.6422694537 0.555854754
355297870.0 -0.1083866158 0.0971213588 7.8258e-06 0.00014216 -0.0001190113 -7.63891e-05 -0.6369791323 0.5616959431
360297840.0 -0.1077108304 0.098079183 8.446e-07 0.0001555005 0.0002919878 -1.69334e-05 -0.6297759443 0.5684514543
365297810.0 -0.1073360223 0.0993804985 -0.0002050132 -3.21572e-05 0.0002157449 -0.0001693578 -0.6236596449 0.5754076319
370297780.0 -0.1063302727 0.1005666438 0.0001169608 -0.0001083679 -3.1931e-06 0.0004677796 -0.6182842092 0.5819655816
375297750.0 -0.1056546787 0.1016174387 0.000108814 8.61e-07 4.96711e-05 0.000166959 -0.6122401265 0.5878037731
380297720.0 -0.1049710999 0.1026533304 7.49127e-05 -5.2432e-06 0.0001788439 0.0002166088 -0.6063008959 0.5939168506
385297690.0 -0.1043607904 0.1039157111 0.0002420066 0.0001885535 0.000212553 -2.37342e-05 -0.5998577779 0.6000848208
390297660.0 -0.1035026547 0.1051282483 -7.51806e-05 0.0002018489 0.000251186 -4.36861e-05 -0.5937372233 0.6060854937
395297630.0 -0.1021922504 0.1058755755 4.24289e-05 0.000175117 0.0002196385 6.34539e-05 -0.5869885353 0.6128746284
400297600.0 -0.101389356 0.1073398006 0.0001819458 -1.12179e-05 9.49629e-05 5.61916e-05 -0.5809725151 0.6183566865
405297570.0 -0.1009494301 0.1081090789 0.0002548867 0.0002475833 0.0001256038 0.0001339427 -0.5742475738 0.6243622114
410297540.0 -0.0998869773 0.1091643839 0.0001134661 5.7434e-05 0.0003102859 9.33653e-05 -0.5675480327 0.6304388516
415297510.0 -0.0993031981 0.1101178623 0.0001111277 9.13108e-05 0.0001559237 9.563e-06 -0.561331442 0.6357531214
420297480.0 -0.0982644046 0.1113785264 3.7714e-05 3.02526e-05 7.33176e-05 -3.37571e-05 -0.5545671212 0.6417167617
425297450.0 -0.0975167046 0.112580112 0.0001194357 0.0002230517 0.0001651921 -8.5917e-05 -0.5481157145 0.6474192444
430297420.0 -0.096184076 0.1133119834 -4.22558e-05 -6.41325e-05 0.000102144 -4.51228e-05 -0.5412136214 0.6528643814
435297390.0 -0.0956736094 0.1145520321 -0.0001631874 -6.69394e-05 0.0001262688 9.37493e-05 -0.5341852603 0.6584873755
440297360.0 -0.094357236 0.1154891253 0.0005202655 4.14967e-05 0.0003387856 0.0001269111 -0.5279541512 0.6635505995
445297330.0 -0.0935305132 0.1165277014 0.0003809743 0.0001865363 0.0002423071 7.09518e-05 -0.5205936479 0.668588235
450297300.0 -0.0924302996 0.1176277503 0.000331905 9.42901e-05 1.71227e-05 1.76523e-05 -0.5135448753 0.6737964582
455297270.0 -0.0916995427 0.1187763919 -0.0001205247 9.25676e-05 0.0002420764 1.71208e-05 -0.5068688782 0.6783366017
460297240.0 -0.090541492 0.1195711972 3.70215e-05 -5.56207e-05 9.41725e-05 1.964e-05 -0.5003035072 0.6841859391
465297210.0 -0.0894084306 0.1207195143 0.0001037257 3.55191e-05 0.0004255697 0.0001343282 -0.4927209482 0.6894362668
470297180.0 -0.08852607 0.1216720827 0.0001259687 -5.7158e-06 0.0002870071 5.93799e-05 -0.4855790175 0.6948900881
475297150.0 -0.0877114298 0.1224837157 0.0001705032 -3.9217e-05 0.0002438551 8.29737e-05 -0.4782869621 0.6991927265
480297120.0 -0.086277605 0.1236829648 0.0001426348 -8.34429e-05 4.78868e-05 1.38909e-05 -0.4710860686 0.7041581048
485297090.0 -0.0852114522 0.1247952969 -7.30357e-05 8.98133e-05 0.000286773 0.0001252186 -0.4637316669 0.7084215764
490297060.0 -0.0843980248 0.1258007029 -6.04776e-05 0.0001745695 4.58176e-05 -0.0002587186 -0.4566487407 0.7130152924
495297030.0 -0.0831534223 0.1267528176 0.0001530656 -1.07235e-05 0.0003069353 9.46174e-05 -0.4495552477 0.7175573962
500297000.0 -0.0820649708 0.127718568 0.000315443 -1.37597e-05 0.0001094904 -0.0001136199 -0.4416450631 0.7230052312
505296970.0 -0.0809282163 0.1284667477 0.0001897081 4.16794e-05 0.0001179662 8.41709e-05 -0.4346506666 0.7269977214
510296940.0 -0.0797452344 0.1294463721 0.0002040657 0.0002167749 0.0002055078 3.60621e-05 -0.4263657842 0.731097112
515296910.0 -0.0786091257 0.1301081552 0.0001795329 7.7746e-05 6.69639e-05 -5.61676e-05 -0.4193574284 0.7356404358
520296880.0 -0.077688888 0.1311720947 8.5936e-05 0.0001403157 -6.0213e-05 -9.798e-07 -0.4118979541 0.7397125612
525296850.0 -0.0763755404 0.1317875811 6.53893e-05 4.86527e-05 0.0003109701 4.86851e-05 -0.4045057141 0.7434273189
530296820.0 -0.0752197216 0.1331105069 0.0002531679 0.0003336763 0.0001427301 3.28108e-05 -0.3971413163 0.7474753971
535296790.0 -0.0741830426 0.1338554046 0.0002959928 -3.23235e-05 0.0002111353 7.59415e-05 -0.3899395397 0.7511543041
540296760.0 -0.0732289155 0.1347703068 -2.86683e-05 -6.8548e-06 0.0001382069 0.0001479904 -0.3817825192 0.7555503099
545296730.0 -0.0719178349 0.1358717734 0.0001646968 9.53319e-05 0.0002345974 5.421e-07 -0.3743179876 0.7589549878
550296700.0 -0.0703360222 0.1365360303 0.0002403499 0.0003707622 0.0002628018 0.0001003553 -0.3659106474 0.762693159
555296670.0 -0.0693493359 0.1370863709 9.34709e-05 -0.0001162008 0.0003227066 -9.58116e-05 -0.3584175437 0.7672696703
560296640.0 -0.0679443528 0.1381925504 0.0002734264 -7.75206e-05 0.0001261301 -3.15106e-05 -0.3506395743 0.7702030985
565296610.0 -0.0669311968 0.139036015 0.0002858807 0.0001291311 0.000122175 0.0001064342 -0.3430035657 0.7737032626
570296580.0 -0.065950533 0.1397913949 8.01722e-05 -0.0001912603 0.0002057205 -3.80636e-05 -0.3351720319 0.7776109857
575296550.0 -0.0644053063 0.14082816 0.000147944 -0.0001202484 0.0002717328 9.6453e-06 -0.3270374725 0.7808334812
580296520.0 -0.0628792374 0.1415732063 9.86048e-05 0.0002845222 0.0003513945 6.08757e-05 -0.318351287 0.7832633725
585296490.0 -0.0620496484 0.1419501055 8.80993e-05 3.52155e-05 0.0002629228 0.0001308535 -0.3110108232 0.7871275854
590296460.0 -0.0604960966 0.1430148548 0.0001039991 3.52842e-05 0.0002320247 5.5067e-06 -0.3032284983 0.7899880596
595296430.0 -0.0593439394 0.1434036353 0.0001423029 -0.0001801049 0.0002533177 5.5379e-05 -0.2953492091 0.7926074107
600296400.0 -0.058089807 0.1446260857 0.0003567044 -0.0002831648 0.0001212449 5.30509e-05 -0.2872968326 0.7954726127
605296370.0 -0.0568431943 0.1452513178 0.0004030958 3.37743e-05 0.0002277338 -4.71667e-05 -0.2787513741 0.7989667623
610296340.0 -0.0554605311 0.1457429362 0.0002705476 3.01211e-05 0.0001845087 3.779e-05 -0.2705220018 0.8014912581
615296310.0 -0.0539800119 0.1463506013 0.0002950064 7.80681e-05 0.0001493505 -3.26733e-05 -0.2619894629 0.8033999487
620296280.0 -0.0529423267 0.1470569256 0.0001402315 -2.82476e-05 0.0002035962 0.0002204613 -0.254500351 0.8066907008
625296250.0 -0.0515643422 0.1479953005 0.0004013836 0.0001610937 -1.14602e-05 -0.0001692988 -0.2458563806 0.8084222084
630296220.0 -0.0500547577 0.1483392005 6.06321e-05 -0.0001646809 0.0001041582 -6.51605e-05 -0.2382671862 0.8115075683
635296190.0 -0.0489683844 0.1494524489 -3.76201e-05 -8.711e-07 0.0002077119 -1.04598e-05 -0.2300922572 0.8135191991
640296160.0 -0.0472624813 0.1498458909 0.0003668952 0.0001119643 0.0004417831 -6.77846e-05 -0.2217397987 0.816329835
645296130.0 -0.0462372662 0.1509201262 0.0005675952 -3.06148e-05 0.0002166782 8.2272e-05 -0.2135199871 0.8184671912
650296100.0 -0.0447307391 0.1511681217 0.0005345313 2.84241e-05 0.0001205656 -0.0001024287 -0.2057090773 0.8195652219
655296070.0 -0.0432927869 0.151934146 0.0002943473 2.24411e-05 0.0002224433 -8.70123e-05 -0.1968110178 0.8216776165
660296040.0 -0.0420802657 0.1524033979 0.0005241693 -4.4849e-05 3.21786e-05 -0.0001291511 -0.1881693419 0.8235554122
665296010.0 -0.0403562097 0.1526736789 0.0004631643 5.62e-05 0.0001441985 -5.85378e-05 -0.1795861829 0.8258197546
670295980.0 -0.0393292138 0.1537708095 0.0002480022 -7.79567e-05 0.0001657464 8.80453e-05 -0.1723978057 0.8272050578
675295950.0 -0.0381438068 0.1542570758 0.000108752 4.51262e-05 0.0003833928 1.20317e-05 -0.1642275277 0.8291613843
680295920.0 -0.0362613449 0.154833523 0.0003235476 0.0001361846 0.000254011 -8.64466e-05 -0.1556720338 0.8313555434
685295890.0 -0.0348401517 0.155403233 0.0001448562 9.1101e-05 0.0002457189 -6.9492e-06 -0.1467278898 0.8326083478
690295860.0 -0.0334472553 0.1559692638 0.0004093463 1.09692e-05 0.0001642586 -0.0003814701 -0.1389404457 0.8341082304
695295830.0 -0.0323476467 0.1564606311 9.39813e-05 -6.81392e-05 0.00055642 -6.76702e-05 -0.1298577544 0.8353440412
700295800.0 -0.0304686151 0.1567477249 0.0001655103 -6.7899e-05 0.0001898824 -8.61549e-05 -0.1230108567 0.8358870798
705295770.0 -0.0291069512 0.1577276224 0.00014057 -8.91594e-05 0.0003612878 -8.49679e-05 -0.1139866047 0.8386171864
710295740.0 -0.0278010727 0.1580698619 0.000292953 0.0001634681 0.0001346449 -5.97425e-05 -0.1055378618 0.8384757249
715295710.0 -0.026379907 0.1581795278 0.0002023574 6.21954e-05 0.0002429579 4.11296e-05 -0.096704393 0.8395212229
720295680.0 -0.0250616172 0.1587985348 0.0005486682 -9.77781e-05 0.0001849569 -7.16933e-05 -0.0885808062 0.8406928939
725295650.0 -0.0237474035 0.1593529231 0.0001859354 0.0001981078 0.0001828449 -1.1566e-06 -0.0803945477 0.8420215314
730295620.0 -0.0218580676 0.1596679452 0.0003230318 0.0002146182 0.0002591808 -0.0002457943 -0.0724820521 0.8422425678
735295590.0 -0.020473061 0.1599345279 0.0002123204 -0.0001383771 0.0002000587 -1.36054e-05 -0.0639630407 0.8425413593
740295560.0 -0.0188885076 0.1605764342 0.0005539252 0.0001859821 0.0001978847 4.81488e-05 -0.055030697 0.8442528769
745295530.0 -0.017887316 0.1609521896 0.0003608547 -0.00031091 0.0002186965 6.19904e-05 -0.0464001436 0.8438134694
750295500.0 -0.0158352249 0.161380926 0.0002542916 -0.0001199762 0.0004130252 4.96818e-05 -0.038472787 0.8438306704
755295470.0 -0.0144928527 0.1616084793 0.0003437756 -3.83409e-05 0.000334407 8.40051e-05 -0.0295840485 0.8438963891
760295440.0 -0.0132029283 0.1618238269 0.0001008754 -0.0001626681 0.000197604 -0.0003848325 -0.0214050365 0.844528512
765295410.0 -0.0115139329 0.1624051381 0.0002591447 0.0001700114 0.0003017617 -2.68094e-05 -0.0133349962 0.8448152515
770295380.0 -0.0102382783 0.162425665 0.0002110725 1.99574e-05 6.64196e-05 0.0001652486 -0.0045882272 0.8453649496
775295350.0 -0.0088305737 0.1627274773 0.0003144032 -3.18173e-05 0.0002642288 -0.0002812245 0.0032699519 0.844556391
780295320.0 -0.0072223106 0.1631493691 0.0004852524 2.64184e-05 0.0004612138 0.0001730596 0.0118080868 0.8446854319
785295290.0 -0.0056314788 0.1632654577 0.0001330038 -1.3551e-06 0.000123774 -3.99171e-05 0.0208918508 0.8445915267
790295260.0 -0.0040009616 0.1638607197 0.000153153 -0.0001124912 0.0001530061 5.7355e-05 0.0298148957 0.8449272241
795295230.0 -0.0026335658 0.163789203 0.0003862981 7.1327e-06 0.0003065399 -0.0002658663 0.0383179196 0.8434076308
800295200.0 -0.0011575071 0.1642896794 0.0001802115 -0.0001490102 0.0002010273 6.83548e-05 0.0466307704 0.8435576756
805295170.0 0.0007451399 0.1641074577 0.0002498685 3.5203e-05 0.0004144006 -0.0002131723 0.0544111857 0.8432071958
810295140.0 0.0023506729 0.1643598727 8.11366e-05 -5.19027e-05 0.0002451143 0.0002086662 0.0633640721 0.8426309447
815295110.0 0.003566091 0.1642508627 0.0002854041 -0.0001005168 0.0005789818 9.27108e-05 0.071641712 0.84174212
820295080.0 0.0051229703 0.164967886 0.0003461238 -0.000376018 0.0001800037 -0.0001202305 0.0795547748 0.841337243
825295050.0 0.0070590951 0.16479576 0.0001890326 -4.32847e-05 0.0003420664 5.92169e-05 0.0880477735 0.8405145551
830295020.0 0.0085099118 0.1652224508 0.0003885478 -0.0001051288 0.0004084592 -0.000131497 0.0972508356 0.8392468115
835294990.0 0.0098259723 0.1654070648 0.0003632779 -0.0001306213 0.000175411 0.0001006683 0.1044419198 0.8388267279
840294960.0 0.0116000471 0.1655290207 0.0004166369 -0.0001754787 0.0004399235 3.88835e-05 0.1130467248 0.8369248066
845294930.0 0.0131890789 0.1654191329 0.0002567877 -0.0002369411 0.0004684377 1.08398e-05 0.1215393672 0.8355961092
850294900.0 0.0147050524 0.1657334831 6.76498e-05 8.80477e-05 0.0003671944 -0.0001908849 0.129372757 0.8347310536
