!Created with skrf (http://scikit-rf.org).
# Hz S RI R 50.0 
!freq ReS11 ImS11 ReS21 ImS21 ReS12 ImS12 ReS22 ImS22
300000.0 -0.1005375853 -0.0701160544 0.6319321371 0.0653957716 0.6255183912 0.0650226812 -0.1017311191 -0.0770930572
5299970.0 -0.1021352394 0.0133096085 0.6303001594 0.0101444982 0.6304081994 0.010148052 -0.100458108 0.0131732801
10299940.0 -0.0971503107 0.0293927639 0.6337639601 0.0152447808 0.6343202968 0.0156619572 -0.0957282003 0.0303965425
15299910.0 -0.090115968 0.0426332749 0.640465656 0.0205644125 0.6407881889 0.0199459761 -0.0884565059 0.0435033352
20299880.0 -0.0815025745 0.0530222081 0.6484951691 0.0241742967 0.6487234843 0.0238765858 -0.0800193888 0.0543772897
25299850.0 -0.0724700703 0.0622706663 0.6578305715 0.0251388073 0.6577885254 0.0252289831 -0.0696776659 0.0634165591
30299820.0 -0.0621800311 0.0688711147 0.6672663891 0.0242223211 0.6675429295 0.0242616121 -0.0599049845 0.0699202196
35299790.0 -0.0522846486 0.0734917772 0.6771916662 0.0211712803 0.6771135933 0.0212564073 -0.0496244849 0.0749414616
40299760.0 -0.043367509 0.0771673617 0.6864703807 0.0175716378 0.6867176664 0.0175309266 -0.0403357558 0.077583658
45299730.0 -0.0340262366 0.0791563916 0.6949205508 0.0118375445 0.6957957365 0.0119443356 -0.0312360103 0.0799847354
50299700.0 -0.0256140555 0.0802229418 0.7035804557 0.0051415256 0.7037475909 0.0051922484 -0.0226747325 0.0807780566
55299670.0 -0.0178351402 0.0802459093 0.7108972754 -0.0033847994 0.7104397792 -0.0028281713 -0.0146186336 0.0806476482
60299640.0 -0.0101621377 0.0798543426 0.7174415139 -0.0113501749 0.7175596582 -0.0112749187 -0.0077955227 0.0796170639
65299610.0 -0.0036031254 0.0788417043 0.7233560201 -0.0206961455 0.7240911448 -0.0198357684 -0.0010909969 0.0787395013
70299580.0 0.0024968588 0.0776705466 0.7288884102 -0.0296778554 0.7287990564 -0.0290565109 0.0048527584 0.0767816576
75299550.0 0.0080767837 0.0759548076 0.7327043002 -0.0388514137 0.7329099034 -0.0389889082 0.009996936 0.0746902792
80299520.0 0.013021014 0.0735713275 0.736826499 -0.0489408917 0.7373551505 -0.0489009507 0.0151810306 0.0728282834
85299490.0 0.0176511315 0.0713742649 0.7403263611 -0.0586500687 0.7402401833 -0.0584948042 0.0193548404 0.0699215137
90299460.0 0.0217282741 0.0690976437 0.742507821 -0.0695761973 0.7433380468 -0.0688412773 0.0236359679 0.0678455526
95299430.0 0.0256345109 0.0664444799 0.7458138355 -0.0787132783 0.7455748855 -0.0792401039 0.0272266753 0.0654366237
100299400.0 0.0289254542 0.0647011488 0.7465307227 -0.0889471978 0.7469943062 -0.0891727759 0.0309227625 0.0625004162
105299370.0 0.032365687 0.0620250815 0.7484668838 -0.0996297324 0.7492978806 -0.0996018083 0.0340298907 0.0606335044
110299340.0 0.0349957893 0.0597271637 0.7496967759 -0.1091627142 0.749735714 -0.1088434888 0.0362907924 0.0577629156
115299310.0 0.0373971826 0.057136476 0.7505300676 -0.1194815252 0.7507779161 -0.1196234066 0.0390345607 0.0553473319
120299280.0 0.0398542638 0.0545720025 0.7511672022 -0.1295756061 0.7517300422 -0.1298101235 0.0413912797 0.0532232733
125299250.0 0.0419150641 0.0524191666 0.7514035984 -0.1390426471 0.7516078592 -0.1387786742 0.0429014141 0.0502314888
130299220.0 0.0435978949 0.0498889378 0.7515049701 -0.1493365674 0.7517345241 -0.1492711734 0.0448582698 0.0480973125
135299190.0 0.0453957939 0.0483970854 0.750937784 -0.1590195556 0.7508321636 -0.1585777256 0.0464895661 0.0459797568
140299160.0 0.0465972575 0.0461425371 0.7507101296 -0.1689257583 0.7509098346 -0.1690574225 0.0478692642 0.0442996869
145299130.0 0.0481211794 0.0438686299 0.7502578342 -0.1781947198 0.7495143094 -0.1784408132 0.0495144013 0.0420235924
150299100.0 0.0497406191 0.0422196842 0.7482842842 -0.187415308 0.7488348408 -0.1877467158 0.0507459252 0.0400719056
155299070.0 0.050234875 0.0396747664 0.7481281044 -0.198776589 0.7477043203 -0.1981047796 0.0517497419 0.0383376757
160299040.0 0.0518309038 0.0380215729 0.7462987469 -0.2075917815 0.7457843329 -0.2075176312 0.052197559 0.0360619874
165299010.0 0.052466769 0.0362610077 0.7447983023 -0.217021417 0.7447539175 -0.2176523643 0.0534500287 0.0348485741
170298980.0 0.0532932453 0.0339383512 0.7428264294 -0.2263099466 0.7431982718 -0.226136795 0.0542444721 0.0330193567
175298950.0 0.0536485247 0.0322065892 0.7415625802 -0.2354488049 0.7411862179 -0.2351727662 0.0547240556 0.0314847631
180298920.0 0.0543878691 0.0306153889 0.7392209318 -0.2447914009 0.7390374837 -0.2441971225 0.0555359962 0.0297924643
185298890.0 0.0555742998 0.0287234087 0.7363355369 -0.254126302 0.7364724683 -0.2540253089 0.0558923951 0.0284771073
190298860.0 0.0555463321 0.0273825199 0.734371144 -0.2631594426 0.7342696231 -0.2630438163 0.0564586648 0.0263974398
195298830.0 0.0561315213 0.0252316673 0.7317945124 -0.2721900051 0.7317465557 -0.2718901437 0.0572922098 0.0249451118
200298800.0 0.0563916278 0.0240275557 0.728865336 -0.2813330771 0.729250702 -0.2815673651 0.0566898461 0.0235095702
205298770.0 0.0571022223 0.0226425716 0.7260651611 -0.2903204446 0.7262885276 -0.2897003049 0.0572851788 0.0214028043
210298740.0 0.0571529284 0.0209083212 0.7230057852 -0.2984542643 0.7228075029 -0.298291257 0.0578031916 0.0210097399
215298710.0 0.0567267638 0.0197683156 0.7204313432 -0.3072183581 0.7198874334 -0.3074626411 0.0576772416 0.0195708436
220298680.0 0.0574168102 0.0174752957 0.7161592145 -0.3156580343 0.7168884441 -0.3160294882 0.0574669422 0.0179165127
225298650.0 0.0578855565 0.0165333722 0.7139246051 -0.324763167 0.7142134395 -0.3249632225 0.0574557103 0.0165478325
230298620.0 0.057969059 0.0157148979 0.7105353528 -0.3327184796 0.7107143141 -0.333465594 0.0573367116 0.0148725502
235298590.0 0.0578201413 0.0146706749 0.706953506 -0.3414301029 0.7067165932 -0.3409751114 0.0575898311 0.0135996824
240298560.0 0.0583264316 0.0136237125 0.7036808899 -0.3500966531 0.7032130803 -0.350215497 0.0577005737 0.012946258
245298530.0 0.0579560103 0.011991063 0.7000490316 -0.3582731125 0.6993617928 -0.3582254511 0.0584235081 0.0108701381
250298500.0 0.0584982559 0.0108662065 0.6951333998 -0.3668889847 0.6947951252 -0.3660406232 0.0581316014 0.0099579889
255298470.0 0.0582255269 0.0092141175 0.691658178 -0.3742833005 0.6914975934 -0.3741744216 0.0584295853 0.0090595224
260298440.0 0.0579345228 0.0080838072 0.6874777978 -0.3835100674 0.6871518454 -0.3824731925 0.0583729929 0.0079437217
265298410.0 0.0587569241 0.0075165191 0.6834434656 -0.3912959714 0.6839038283 -0.3905309038 0.0581799564 0.0068073856
270298380.0 0.0584228225 0.0061658804 0.6799617312 -0.39842738 0.6796561805 -0.3985160208 0.0579215693 0.0059806799
275298350.0 0.0589806593 0.0051371963 0.6753685825 -0.4067086587 0.6756287369 -0.4066586029 0.0584655843 0.0043424049
280298320.0 0.0586570978 0.0041920256 0.6711840808 -0.4144981265 0.6708001473 -0.4141604492 0.0585284919 0.0034341468
285298290.0 0.0586359166 0.0031104051 0.6662953966 -0.4226943299 0.6663107461 -0.4226090026 0.0586260833 0.0024341429
290298260.0 0.0592980843 0.0020473679 0.6619568025 -0.4293725038 0.6620580146 -0.4301576515 0.0586308591 0.0017592935
295298230.0 0.0588642998 0.0006911937 0.6577332748 -0.4373368974 0.6573684025 -0.437773458 0.0592436507 0.0003225848
300298200.0 0.0585574351 -0.0003689295 0.6530926291 -0.4452296907 0.6526768853 -0.4457021674 0.0587534495 -0.0010013469
305298170.0 0.058880465 -0.0013992391 0.6479853757 -0.4532406034 0.64792938 -0.4530948116 0.059082561 -0.0018621555
310298140.0 0.0583804978 -0.0024345998 0.6432791171 -0.460646686 0.6433276385 -0.4608042161 0.0594120048 -0.0030049177
315298110.0 0.0581851905 -0.0040792039 0.6379451947 -0.468351103 0.6383646818 -0.4686848884 0.0588276915 -0.0044492784
320298080.0 0.05853503 -0.0048978207 0.6324383707 -0.4763089757 0.6324656912 -0.476023737 0.0585964755 -0.005395838
325298050.0 0.0576196784 -0.006105373 0.6268697715 -0.4837857222 0.6273262484 -0.4835516296 0.0580980559 -0.0063936445
330298020.0 0.0572530621 -0.0074471534 0.6211079976 -0.4911108101 0.6218809952 -0.4907552505 0.0573797277 -0.0072424303
335297990.0 0.0570427184 -0.0086016449 0.6158330928 -0.4978741284 0.6156781436 -0.4979540938 0.0566769444 -0.0077042308
340297960.0 0.0562055753 -0.0090250739 0.6096240094 -0.5047919449 0.6091240608 -0.5050322856 0.0567473025 -0.0088122648
345297930.0 0.055679932 -0.0091455753 0.6039267353 -0.5120753244 0.6041439374 -0.5121698121 0.0565059739 -0.0099280302
350297900.0 0.0551642908 -0.0110130991 0.5975799214 -0.519525548 0.5979247912 -0.5186942211 0.0554837688 -0.0097995218
355297870.0 0.0548490419 -0.0108242677 0.592217791 -0.5250976854 0.5927313786 -0.5254388239 0.0551917218 -0.0107695851
360297840.0 0.0548123808 -0.0115463288 0.5873462722 -0.5315875915 0.5872167839 -0.531503281 0.0549848761 -0.0109566066
365297810.0 0.0540110259 -0.0119367479 0.5803979127 -0.5388569708 0.5813435306 -0.5384541524 0.0547932647 -0.0116145694
370297780.0 0.0544034553 -0.0132931367 0.5744996333 -0.5450971439 0.5754652411 -0.5445721428 0.0542418975 -0.0125409559
375297750.0 0.0536580921 -0.0138709453 0.568501711 -0.5511283727 0.5693200924 -0.5511753306 0.0543161717 -0.0130724037
380297720.0 0.0533816926 -0.0145191873 0.562138425 -0.5577390376 0.5627498563 -0.557306001 0.0535737034 -0.0142584786
385297690.0 0.0526573072 -0.0152528917 0.5560097579 -0.5638624779 0.5557863977 -0.5637391576 0.0534146037 -0.0141615573
390297660.0 0.0526748515 -0.0152526734 0.5502842468 -0.56983932 0.5501789137 -0.5700153042 0.0525484249 -0.0152609612
395297630.0 0.0524208103 -0.0161615562 0.5440841356 -0.5763320575 0.5441030973 -0.576128315 0.0531419726 -0.0158466413
400297600.0 0.0519121662 -0.016878838 0.5372508383 -0.5822728123 0.5376996187 -0.5822261399 0.052336712 -0.016196679
405297570.0 0.051087185 -0.0175407745 0.5310861289 -0.5879889761 0.5309185196 -0.5881087729 0.0515465668 -0.0169079021
410297540.0 0.051230032 -0.0181933327 0.5248095293 -0.5945632759 0.5254456838 -0.5947194528 0.0512073103 -0.0172452437
415297510.0 0.0512411058 -0.0188068715 0.5177095826 -0.6000840009 0.518239635 -0.6002019222 0.0509703809 -0.0176815628
420297480.0 0.0508242722 -0.0190295429 0.5111529941 -0.6060379263 0.5107709004 -0.6061746702 0.0506191787 -0.0190480984
425297450.0 0.0502751357 -0.0206949375 0.5050861399 -0.6115537931 0.5048022572 -0.6112521732 0.0495585719 -0.0187264913
430297420.0 0.0498909261 -0.0207629802 0.4975665395 -0.6167259685 0.4978417776 -0.6165858268 0.0494840331 -0.0200749821
435297390.0 0.049470754 -0.0214433267 0.4912173024 -0.622146392 0.4906037173 -0.6226741187 0.0500231848 -0.020449694
440297360.0 0.0492268062 -0.0217568291 0.4838542185 -0.6275549171 0.484016092 -0.6276932306 0.0489114729 -0.0215774201
445297330.0 0.0485517293 -0.023106582 0.4779950861 -0.6334183557 0.4777550978 -0.6326207253 0.0491219678 -0.0225036647
450297300.0 0.0487423553 -0.0230830457 0.4705277037 -0.6385383606 0.4704154331 -0.6386880655 0.0483665774 -0.02275887
455297270.0 0.0482974615 -0.0236851701 0.462995174 -0.643716005 0.4638788882 -0.6438285123 0.0478617954 -0.0232886895
460297240.0 0.0475212629 -0.024294841 0.456006678 -0.6489042729 0.4559779166 -0.6489771706 0.0477273907 -0.0236957094
465297210.0 0.0475466035 -0.0250064593 0.4493427505 -0.6540579612 0.4489010314 -0.6542099336 0.0474480987 -0.02471862
470297180.0 0.0470596615 -0.0256686631 0.4413816768 -0.6588985939 0.4415554295 -0.6589562123 0.0470210005 -0.0247667581
475297150.0 0.0468092801 -0.0263193011 0.4341564803 -0.6633159835 0.4346687027 -0.663613749 0.0470097137 -0.0260779701
480297120.0 0.0459929607 -0.0263331677 0.4269579417 -0.6687659955 0.4271204737 -0.6687501088 0.0469551021 -0.0257858124
485297090.0 0.045471233 -0.0271446158 0.4201706524 -0.6728716342 0.4200150194 -0.6727660625 0.0462791305 -0.0268543806
490297060.0 0.0446712233 -0.027766577 0.4132163202 -0.6783569579 0.4129851172 -0.6770606689 0.0458884241 -0.0264602474
495297030.0 0.0445590806 -0.0282338499 0.4049745705 -0.6823853382 0.4053531743 -0.6821065452 0.0449609542 -0.0276756979
500297000.0 0.0439875718 -0.0289752242 0.3971619951 -0.6863703105 0.3966423982 -0.686104027 0.044807172 -0.0278157292
505296970.0 0.043856169 -0.0293716247 0.3899660011 -0.6908648579 0.3896564371 -0.6906662737 0.04413034 -0.0282293192
510296940.0 0.043336966 -0.0294217374 0.3821771999 -0.6952876171 0.3820698028 -0.6954084718 0.0444472804 -0.0284423109
515296910.0 0.0426172759 -0.0296777505 0.3747255193 -0.6998665809 0.3743376571 -0.6994114439 0.0439617553 -0.0288751779
520296880.0 0.0421085674 -0.0304380042 0.3667758294 -0.7038207697 0.3671077218 -0.7035104803 0.0432552245 -0.0294875512
525296850.0 0.0419459852 -0.0314155762 0.3584008378 -0.7076115611 0.3597953853 -0.7073203862 0.0426184576 -0.0296453018
530296820.0 0.0415289165 -0.0314357133 0.3512813029 -0.7115204957 0.3514310055 -0.7112590432 0.0423092491 -0.0300763151
535296790.0 0.040323664 -0.0318872556 0.3439228012 -0.7147723145 0.3438615197 -0.7148278939 0.0417774567 -0.030966064
540296760.0 0.039947585 -0.0320066192 0.3359942462 -0.7193363504 0.3359246997 -0.7192530297 0.0408317196 -0.0305469918
545296730.0 0.0394428685 -0.0328163993 0.3274370869 -0.7219861054 0.3279911337 -0.7223061813 0.040489669 -0.0313589143
550296700.0 0.0395379729 -0.032799071 0.3195489356 -0.7262049408 0.3198153895 -0.7266172706 0.0396547493 -0.0317948525
555296670.0 0.0384593459 -0.0331805986 0.3123336863 -0.7297301264 0.3123973383 -0.7296274948 0.0393615586 -0.0318477023
560296640.0 0.0385905828 -0.033320886 0.303913435 -0.7334197615 0.3039507599 -0.7330444621 0.0388909388 -0.0325160706
565296610.0 0.0373461785 -0.0336598254 0.2952732811 -0.7362575961 0.2959057945 -0.736455328 0.037820621 -0.0330310526
570296580.0 0.0369231192 -0.0341547675 0.2880716023 -0.7398280653 0.2872776142 -0.7390933243 0.0375231181 -0.0327179788
575296550.0 0.0361773291 -0.0343656927 0.2794105688 -0.7429169722 0.2795883744 -0.7429939737 0.0375842671 -0.0335981595
580296520.0 0.0362317796 -0.0344672511 0.2716285159 -0.7457641811 0.271954127 -0.7460806133 0.0367131814 -0.0341779236
585296490.0 0.0352325026 -0.035797303 0.2634537577 -0.7481702047 0.2634947542 -0.7485603068 0.0362494789 -0.0340652849
590296460.0 0.0353964989 -0.035799787 0.2552798528 -0.7505638918 0.2552358646 -0.7514891512 0.0347310332 -0.0345287728
595296430.0 0.0348559853 -0.0357188071 0.2463147169 -0.7543493676 0.2468678809 -0.7541358068 0.0351412354 -0.0350210651
600296400.0 0.0337936033 -0.0364109055 0.2385987162 -0.7570750794 0.2389632155 -0.7569409562 0.0342180908 -0.0357007503
605296370.0 0.033598671 -0.0365591194 0.2304825837 -0.7590806224 0.2306070984 -0.7594447218 0.0334206433 -0.0357186908
610296340.0 0.0330876733 -0.0369692664 0.2216177458 -0.7617861007 0.2223121146 -0.7617066539 0.0338275791 -0.0359618788
615296310.0 0.0327450617 -0.0375828996 0.2142252461 -0.7640076547 0.2133379086 -0.7649376689 0.0329871031 -0.0362417403
620296280.0 0.0320822117 -0.0382100716 0.2057121681 -0.76658917 0.2054341739 -0.7659693357 0.0323620934 -0.0368745654
625296250.0 0.0311036141 -0.038754911 0.1977985316 -0.7687394716 0.1970772185 -0.7691706132 0.032406023 -0.0369324511
630296220.0 0.031631359 -0.038107273 0.1883687577 -0.7706863418 0.1883020919 -0.7706792834 0.0315547002 -0.0369263564
635296190.0 0.0295875729 -0.0391076535 0.180033057 -0.772425357 0.1800688761 -0.7727754155 0.0310933648 -0.0375802214
640296160.0 0.0291830842 -0.0389393629 0.1718879612 -0.7742746518 0.1720179587 -0.774591695 0.0303469273 -0.0376761912
645296130.0 0.0287976464 -0.039286411 0.1632984766 -0.7761433589 0.1637357898 -0.7767650121 0.0304023858 -0.038025209
650296100.0 0.0284348431 -0.0396207341 0.1544928345 -0.7782963757 0.1549191784 -0.7785795637 0.0301231436 -0.0390034767
655296070.0 0.0276324764 -0.0402016564 0.1461887327 -0.7804637896 0.146584329 -0.7800063505 0.0289584179 -0.0383612292
660296040.0 0.0264371945 -0.0408236474 0.1383801236 -0.7816551855 0.1380887122 -0.7816483962 0.0289119315 -0.0389271581
665296010.0 0.026863619 -0.0404212308 0.1291563661 -0.7825104057 0.1294583665 -0.7824884331 0.0282499877 -0.0384145535
670295980.0 0.0245470601 -0.0405111214 0.1203911507 -0.7841720626 0.1207486459 -0.7842099469 0.0272052059 -0.0389697423
675295950.0 0.0248510793 -0.0402337479 0.1122573715 -0.785375386 0.1124312089 -0.7848365063 0.026339404 -0.0390101149
680295920.0 0.0240356427 -0.0414408187 0.1030220502 -0.7861743971 0.1029807427 -0.7871040235 0.0261675779 -0.038694781
685295890.0 0.0237859067 -0.0403306744 0.0948051593 -0.787966039 0.0948589363 -0.7875729645 0.0254008701 -0.0392098226
690295860.0 0.0234254565 -0.0407981033 0.0863516391 -0.7877925723 0.0864607871 -0.7887153428 0.024746541 -0.0384242076
695295830.0 0.0229925816 -0.0412067031 0.0783484989 -0.7894324803 0.0775225495 -0.7893740953 0.0240784473 -0.0389289285
700295800.0 0.0221349142 -0.0417379037 0.068982005 -0.790214063 0.0690192826 -0.7897134218 0.0234420837 -0.038625923
705295770.0 0.021316463 -0.0408286293 0.060431878 -0.7911403017 0.0606660582 -0.7906915901 0.0228049119 -0.0390697263
710295740.0 0.0209012712 -0.0415410142 0.052078371 -0.7918651162 0.0524058918 -0.7921559971 0.022884145 -0.0398998661
715295710.0 0.019729077 -0.0418054077 0.0438084541 -0.7924388041 0.0431329665 -0.791920229 0.0221651065 -0.0398837628
720295680.0 0.0194864118 -0.041829096 0.0345018752 -0.7926142091 0.0352880666 -0.7922230085 0.0213037068 -0.0391513335
725295650.0 0.0192029681 -0.0417613993 0.0260749435 -0.7928969668 0.0264969698 -0.7925999537 0.0200927429 -0.0391562942
730295620.0 0.0188395543 -0.0415110538 0.0172923756 -0.7926194557 0.0172790277 -0.7931607715 0.0195731136 -0.0398150636
735295590.0 0.0178057194 -0.0413731123 0.0089464472 -0.7934595417 0.0085593436 -0.7932975392 0.0186718638 -0.0399571636
740295560.0 0.0169893407 -0.0416531741 -8.06342e-05 -0.7930833656 0.0003369386 -0.792983043 0.0190111518 -0.0397326938
745295530.0 0.0165554437 -0.0414164637 -0.0079335755 -0.7925498386 -0.0086979108 -0.7926830932 0.0181726923 -0.0403060365
750295500.0 0.0162392299 -0.0419078467 -0.0165424558 -0.7931156989 -0.0172891788 -0.793038901 0.0176225334 -0.0401671236
755295470.0 0.0156814632 -0.0423790916 -0.0254858596 -0.7929676484 -0.025427789 -0.7932292398 0.0173513195 -0.040594879
760295440.0 0.0148081869 -0.0418663054 -0.034382019 -0.792442267 -0.0340570876 -0.7928955473 0.0162620659 -0.0404797998
765295410.0 0.0140260559 -0.0419431977 -0.0431334428 -0.7919699393 -0.0433326845 -0.792117464 0.0160095748 -0.0402672416
770295380.0 0.0131374003 -0.0422438504 -0.0516539088 -0.7912750046 -0.0516645057 -0.7915373035 0.0150543744 -0.0408603686
775295350.0 0.0125893103 -0.0430745983 -0.0604800046 -0.7902158348 -0.0602450395 -0.7907310264 0.0133740747 -0.040299878
780295320.0 0.012367968 -0.0423296128 -0.069089525 -0.7901331352 -0.0682263428 -0.7898531758 0.0134663957 -0.0412979376
785295290.0 0.0112200473 -0.0429947708 -0.0772968122 -0.7885617458 -0.0770617286 -0.7890385466 0.0138344493 -0.040572426
790295260.0 0.0113859256 -0.0419572278 -0.0855375513 -0.7883596633 -0.0845037469 -0.7880785841 0.012978462 -0.0407712883
795295230.0 0.0105885637 -0.0426499892 -0.094105594 -0.787139449 -0.0937340178 -0.7873822029 0.0123797989 -0.0403765925
800295200.0 0.0092226566 -0.0421525676 -0.1038844981 -0.7858439014 -0.1026434462 -0.7862066374 0.011777497 -0.040877499
805295170.0 0.0090025168 -0.0423930052 -0.1117971195 -0.784539437 -0.1121125263 -0.7850350938 0.0109616196 -0.0404195794
810295140.0 0.0078844275 -0.0429762271 -0.1195312176 -0.7840082386 -0.1197446971 -0.7837369256 0.0110366938 -0.0402348685
815295110.0 0.0078956025 -0.0427962458 -0.1283109328 -0.7820875822 -0.1285709647 -0.7824974174 0.0097347005 -0.040194524
820295080.0 0.006825427 -0.0417766976 -0.1368381162 -0.7803929194 -0.1365498883 -0.7806418446 0.0094570862 -0.0404412386
825295050.0 0.0070371308 -0.0420607801 -0.1443188725 -0.778635466 -0.1451505273 -0.7789175551 0.0092154364 -0.0403158733
830295020.0 0.0059904984 -0.0417820598 -0.1545462203 -0.7774717822 -0.1539185241 -0.7774400529 0.0092417327 -0.0398979906
