!Created with skrf (http://scikit-rf.org).
# Hz S RI R 50.0 
!freq ReS11 ImS11 ReS21 ImS21 ReS12 ImS12 ReS22 ImS22
300000.0 -0.3207340952 -0.0808788754 0.3773525461 0.0433044634 0.3729697545 0.0397809746 -0.3192630557 -0.0958992549
5299970.0 -0.3265073994 0.004687225 0.3781704519 0.0020757836 0.3782015751 0.0024583193 -0.323825011 0.0048565244
10299940.0 -0.3241598289 0.013441927 0.379316037 0.0022417878 0.3795241622 0.0023609815 -0.3215186865 0.0161530242
15299910.0 -0.3213710414 0.0205615414 0.3818891661 0.0019993603 0.3819105864 0.0018799541 -0.318208461 0.0236071248
20299880.0 -0.3187026807 0.0264271753 0.3849426391 0.0018800509 0.3846242323 0.0013421916 -0.3146509873 0.0302052136
25299850.0 -0.3157021301 0.0314944238 0.3880357263 0.0001323221 0.3879812173 0.0002059152 -0.3106522153 0.036106985
30299820.0 -0.3126568386 0.0359582423 0.3914487698 -0.002276368 0.3915433427 -0.0024424629 -0.3070862024 0.0408397049
35299790.0 -0.3102061315 0.0399158338 0.3950328813 -0.005530405 0.3949961933 -0.0053313506 -0.3040004529 0.0451353112
40299760.0 -0.3074326134 0.043744849 0.3981983076 -0.0088837618 0.3981303644 -0.0088253707 -0.3001437048 0.048479675
45299730.0 -0.3044753733 0.0466019751 0.4007497265 -0.0128070073 0.4010765832 -0.0126164816 -0.2974577637 0.0516504408
50299700.0 -0.3024692425 0.0496238768 0.4034301918 -0.017201708 0.4030835261 -0.0170516715 -0.2943778114 0.0544726545
55299670.0 -0.3003730476 0.0520433924 0.4056406727 -0.022447748 0.4054989922 -0.0222866552 -0.2915481493 0.057268711
60299640.0 -0.2981645949 0.0550409001 0.4077278879 -0.0269680823 0.4075052247 -0.0266098239 -0.2889135648 0.0593718027
65299610.0 -0.296264922 0.0575307977 0.4090524941 -0.0318684156 0.409013243 -0.0317562707 -0.2872191486 0.0615141772
70299580.0 -0.2946072344 0.0601005924 0.4104619132 -0.0370516038 0.4103646402 -0.0369264229 -0.2851592731 0.0637530322
75299550.0 -0.2929979231 0.0625519024 0.4114770273 -0.0422380273 0.411185136 -0.0421818402 -0.2830256275 0.0657206954
80299520.0 -0.2915850084 0.064848843 0.4124221575 -0.0474838287 0.4125926591 -0.0477032623 -0.2816393445 0.0681329388
85299490.0 -0.290372106 0.0671101236 0.4126052332 -0.0527590673 0.4127728674 -0.0523336896 -0.2798076916 0.0699856641
90299460.0 -0.2888753809 0.0694543342 0.4129595301 -0.0579606934 0.4134211337 -0.0579125972 -0.2784025812 0.0721733889
95299430.0 -0.2873363722 0.0715342521 0.413921854 -0.0630708602 0.4135287792 -0.0633477152 -0.2766651168 0.0743468032
100299400.0 -0.2864447342 0.0741044774 0.4132297444 -0.0683367701 0.4131740361 -0.0684110862 -0.2751521291 0.075852607
105299370.0 -0.2853617819 0.0764713318 0.4131769399 -0.0736498179 0.4133725913 -0.0737118907 -0.2735428533 0.0780845447
110299340.0 -0.2842365911 0.0785625551 0.413558416 -0.0787301581 0.4130609436 -0.0784735105 -0.2729275693 0.0800617368
115299310.0 -0.2831261866 0.0810373789 0.4130059901 -0.0839332344 0.4125380309 -0.083943308 -0.2719296619 0.0825125846
120299280.0 -0.2821358426 0.083042155 0.4122928963 -0.088875474 0.4124195505 -0.0889660412 -0.2704897663 0.0846298782
125299250.0 -0.2809489012 0.0853910357 0.4119327543 -0.0939208341 0.4121074563 -0.0937440276 -0.2695386035 0.0861894006
130299220.0 -0.2804349466 0.0882148994 0.4112879535 -0.0992402782 0.4110450168 -0.099310829 -0.2682712445 0.0886840377
135299190.0 -0.2793703107 0.0908490004 0.4105603057 -0.1040535319 0.4102112905 -0.1038032584 -0.2670530081 0.0909306333
140299160.0 -0.2785845277 0.0930999648 0.4095704911 -0.1091703412 0.4097215302 -0.1094306322 -0.2662513532 0.0933697644
145299130.0 -0.2773787834 0.0955495491 0.408823162 -0.1140901226 0.4087830661 -0.1140228246 -0.2655951079 0.095780534
150299100.0 -0.2760879329 0.0980549195 0.4075946596 -0.1186892134 0.4077184791 -0.118490397 -0.264267998 0.0983340605
155299070.0 -0.275433778 0.1008071134 0.4068439501 -0.1242230495 0.4061889938 -0.1239420441 -0.2633032571 0.1006629826
160299040.0 -0.2744274607 0.1034533821 0.4054307826 -0.1287693953 0.4051498019 -0.1289026111 -0.2626761644 0.1031698873
165299010.0 -0.2736919343 0.1059289009 0.4041747704 -0.1340807009 0.4041290103 -0.1336258947 -0.2613616078 0.1058483632
170298980.0 -0.2727645797 0.1087297315 0.4025449764 -0.138725022 0.4029769533 -0.1384568985 -0.2603017219 0.1080867983
175298950.0 -0.2719605598 0.1113120846 0.4020911987 -0.1433168051 0.4012726785 -0.1431389755 -0.2594091907 0.11065392
180298920.0 -0.2711957762 0.1140294022 0.3999962783 -0.1480362879 0.4002038529 -0.1475946231 -0.2585220913 0.1136873604
185298890.0 -0.2695237666 0.1163255244 0.3983543194 -0.152789806 0.3982802591 -0.1527897572 -0.2573218388 0.1157420608
190298860.0 -0.2685305676 0.1193893894 0.3971261563 -0.1572670468 0.3969875464 -0.1573749286 -0.2562343103 0.1183411612
195298830.0 -0.2677622701 0.1218276136 0.3949572482 -0.1622388619 0.3952955135 -0.1619114026 -0.2551134666 0.1208134126
200298800.0 -0.2664454751 0.1246347532 0.3934019253 -0.1671248009 0.3937170201 -0.1667301485 -0.2542411885 0.1234013929
205298770.0 -0.2655054636 0.127253511 0.3915611128 -0.1716133384 0.3915847667 -0.1708973797 -0.2532776125 0.1256870582
210298740.0 -0.2641962523 0.1299063736 0.3896040497 -0.1756264011 0.3897802987 -0.1756698465 -0.2516984269 0.1286826149
215298710.0 -0.2634000601 0.1327680549 0.3876260271 -0.1801498376 0.3879689037 -0.1806352173 -0.251247928 0.1310696171
220298680.0 -0.262119539 0.1353530182 0.3858306624 -0.1847326344 0.3856259833 -0.1848524164 -0.2499927788 0.1337546749
225298650.0 -0.2610496325 0.1381212303 0.3840145779 -0.1892653058 0.3839828312 -0.1891699466 -0.248926998 0.1358940999
230298620.0 -0.2597325022 0.1407549359 0.3818516777 -0.1932613006 0.3823340198 -0.1937991437 -0.2478256776 0.1383864555
235298590.0 -0.2586180705 0.1435094976 0.3798971963 -0.1978180887 0.3797769654 -0.1973450956 -0.2461819905 0.1411373972
240298560.0 -0.2569928016 0.1464745232 0.3777521036 -0.2026951912 0.3773814906 -0.2024947324 -0.2447628217 0.14414468
245298530.0 -0.2559309924 0.1488609431 0.3757621783 -0.2069343142 0.3754897841 -0.2067496182 -0.2439290939 0.1461444486
250298500.0 -0.2542196845 0.151761832 0.3727111673 -0.2111119462 0.3725326372 -0.2107173869 -0.2428634883 0.1485315122
255298470.0 -0.2527217793 0.1542119352 0.3704713481 -0.2148381279 0.3707106893 -0.2150894201 -0.2413650312 0.1508372895
260298440.0 -0.2516931796 0.1568436381 0.368416212 -0.2195067081 0.3685485733 -0.2193229856 -0.2397615174 0.1539466788
265298410.0 -0.2499742428 0.1599437111 0.365794253 -0.2236311822 0.3660643084 -0.2233920618 -0.2383838359 0.1562365739
270298380.0 -0.2488472762 0.1627151131 0.3635136188 -0.2274833517 0.363555442 -0.2274013801 -0.2365784188 0.1587637833
275298350.0 -0.2469111795 0.1653413785 0.3607681062 -0.2321021418 0.3613043262 -0.231713234 -0.2350394527 0.1611997033
280298320.0 -0.2450488865 0.1682294051 0.3588723382 -0.2359553722 0.3583738321 -0.2356850766 -0.233094632 0.1638789647
285298290.0 -0.2437329774 0.1708110998 0.3558800446 -0.2399626909 0.3557729471 -0.2400070756 -0.2320940152 0.1661558317
290298260.0 -0.2417199309 0.1732498329 0.3530808601 -0.2440032125 0.3532120288 -0.2437871401 -0.2301648683 0.1688613286
295298230.0 -0.2400763615 0.1754931316 0.3504251039 -0.2477568137 0.3507051094 -0.2477015502 -0.2285328224 0.1709367952
300298200.0 -0.238520398 0.178280357 0.3483544481 -0.2514779609 0.3477503881 -0.2516950149 -0.2265484368 0.1734476109
305298170.0 -0.2366163392 0.180520372 0.3448126395 -0.2558623817 0.3449163199 -0.2558563872 -0.2245871288 0.175691438
310298140.0 -0.2350222581 0.1832273962 0.3423697272 -0.2594267031 0.3423369533 -0.2596482005 -0.2231888319 0.1780956886
315298110.0 -0.2330496665 0.1857816154 0.3396367769 -0.2637509594 0.3398594158 -0.26344622 -0.2214527416 0.1804750403
320298080.0 -0.231446066 0.1882290249 0.3360969318 -0.2675796082 0.3363524921 -0.2675939755 -0.2194331947 0.1829710482
325298050.0 -0.229417995 0.1906114001 0.3333765614 -0.2713756463 0.3330814986 -0.2714392305 -0.217951109 0.1852812708
330298020.0 -0.2276598587 0.1929494805 0.3299710795 -0.27510622 0.3305467283 -0.2749336347 -0.2163740592 0.1880111589
335297990.0 -0.2254708277 0.1954271147 0.3269920904 -0.2784453591 0.3270652227 -0.2787378341 -0.2146980896 0.1906056354
340297960.0 -0.2243015428 0.198274449 0.323733568 -0.2823134213 0.3236318838 -0.2825345262 -0.2121747262 0.1931513474
345297930.0 -0.222244825 0.2010394709 0.3207994228 -0.2862314758 0.3206003449 -0.2860310062 -0.2106694536 0.195037556
350297900.0 -0.2202685738 0.2029426861 0.3168004648 -0.2894135158 0.3171892229 -0.2896258184 -0.2089099174 0.197911503
355297870.0 -0.2179612238 0.2058953065 0.3141842262 -0.2929348313 0.3139300347 -0.293156289 -0.2069215371 0.2001727069
360297840.0 -0.2160497636 0.2083706448 0.3111810038 -0.2961101169 0.3114680336 -0.2962512048 -0.2051641842 0.2029463857
365297810.0 -0.2141589697 0.2109780398 0.3075840514 -0.3000716208 0.3076305697 -0.2998189532 -0.2028088409 0.204931898
370297780.0 -0.2117895735 0.2133859935 0.3045187416 -0.3030901578 0.304061629 -0.3027547275 -0.2006156736 0.2075865118
375297750.0 -0.2095196613 0.2155611403 0.3011745584 -0.3062691407 0.3011929526 -0.3067071644 -0.198643807 0.2095581379
380297720.0 -0.207193151 0.2178809962 0.2973025032 -0.3097628638 0.2975460798 -0.3094808465 -0.19702778 0.2116851743
385297690.0 -0.2055003436 0.2203251434 0.2940101334 -0.3128822585 0.2939684954 -0.31325487 -0.1949043292 0.2142744397
390297660.0 -0.2033164414 0.2227827575 0.2904414075 -0.3164194989 0.2902957813 -0.3159488323 -0.1927203537 0.216196237
395297630.0 -0.2007039743 0.2253707735 0.2868747439 -0.3200580995 0.2869353796 -0.319732299 -0.1901998998 0.2188624415
400297600.0 -0.1984623447 0.2274325015 0.2832702832 -0.3230661934 0.2835503488 -0.3226311184 -0.1878650486 0.2207431559
405297570.0 -0.1964542841 0.2295112053 0.2796742354 -0.3256054016 0.279879856 -0.3258420084 -0.1862505913 0.2229239762
410297540.0 -0.1934324693 0.2315876382 0.2760954472 -0.3284347232 0.2766044095 -0.3288877918 -0.1838327892 0.2250485633
415297510.0 -0.19120469 0.2338542631 0.2720938395 -0.3315524571 0.2727493326 -0.331874435 -0.1815775047 0.2272109559
420297480.0 -0.1892866685 0.2365193755 0.2686696148 -0.3347358589 0.268766552 -0.3350510993 -0.1793682531 0.2291925363
425297450.0 -0.1867667642 0.2380846147 0.2654727761 -0.3372889699 0.2658298573 -0.3378553687 -0.1773173735 0.2313466245
430297420.0 -0.184238223 0.2404812623 0.2615569778 -0.3402004605 0.2614128408 -0.3399396447 -0.1746440033 0.233159081
435297390.0 -0.1820380076 0.2425268572 0.2577081068 -0.3432636553 0.2573050349 -0.3436784571 -0.1717605557 0.2349251617
440297360.0 -0.1789781738 0.2441809629 0.2537895294 -0.3458946529 0.2542323086 -0.3462071905 -0.169538007 0.2371103307
445297330.0 -0.1766038845 0.2463205261 0.2504295121 -0.348703335 0.2500504595 -0.3484239278 -0.167234105 0.2386813136
450297300.0 -0.1740736235 0.2483925771 0.2462447309 -0.3516763139 0.2460742646 -0.3516227487 -0.164751949 0.2405708802
455297270.0 -0.1715205093 0.2506413164 0.2422919702 -0.3539661485 0.2424165575 -0.3541740452 -0.1622921211 0.2421662986
460297240.0 -0.1692373572 0.2523567369 0.238251122 -0.356548352 0.2386182959 -0.3569465038 -0.1596175617 0.2444513801
465297210.0 -0.1660423769 0.2544412507 0.2347751837 -0.3593987869 0.2344472163 -0.3596217839 -0.1568355382 0.245926447
470297180.0 -0.1635663546 0.2563737144 0.2304415444 -0.3619147012 0.2304428455 -0.3617409125 -0.1540979204 0.2481419621
475297150.0 -0.1608532378 0.2577897664 0.2263379029 -0.3635848048 0.2269749525 -0.3640007098 -0.1515931221 0.249576663
480297120.0 -0.1582043184 0.2599920843 0.2224638896 -0.3667787669 0.222340112 -0.3669706761 -0.1487352477 0.2513014249
485297090.0 -0.1555425793 0.2617364588 0.2187136329 -0.3687160872 0.2187411219 -0.368688301 -0.1461010607 0.252866267
490297060.0 -0.1531429173 0.2637262586 0.2145147591 -0.3711244336 0.2147830775 -0.3713325925 -0.1433220343 0.255009327
495297030.0 -0.1503806369 0.2653523617 0.2102051651 -0.3738736272 0.210553154 -0.3737039055 -0.1412086072 0.2568659983
500297000.0 -0.1473925072 0.2668673114 0.2064141597 -0.375779012 0.2058522912 -0.3756256458 -0.1380705871 0.2584905907
505296970.0 -0.1444505315 0.2686827968 0.2021479179 -0.3779355646 0.202056155 -0.3783200731 -0.1355167564 0.2600725051
510296940.0 -0.141592192 0.270496371 0.197895441 -0.3803839401 0.1977500928 -0.3803268146 -0.132694683 0.2619464082
515296910.0 -0.1387108351 0.2721991425 0.1934569372 -0.3823424552 0.1936827376 -0.3824488141 -0.1296549663 0.2634107749
520296880.0 -0.136246796 0.2735567579 0.1895992401 -0.3846481073 0.1896137836 -0.3844064798 -0.1272477128 0.264659465
525296850.0 -0.1329939325 0.2747151022 0.1848945838 -0.3861196094 0.1856575699 -0.3866528382 -0.1246560516 0.2666994787
530296820.0 -0.13036415 0.2767712838 0.1808601897 -0.3885842398 0.1810499295 -0.3883272142 -0.1214599624 0.2679737393
535296790.0 -0.127574453 0.2783907553 0.1771892537 -0.3903613769 0.1769039073 -0.3900524842 -0.1192520543 0.269291561
540296760.0 -0.1247810985 0.279726345 0.1728699871 -0.3923768607 0.1724052151 -0.3922623822 -0.1162710281 0.2715284791
545296730.0 -0.1218224961 0.2811375589 0.167942893 -0.3938055395 0.1682211694 -0.394157854 -0.1133545624 0.2726974287
550296700.0 -0.1183237083 0.2825735612 0.1638343599 -0.3958075233 0.1640539164 -0.395636203 -0.1111416109 0.2735109395
555296670.0 -0.1158480161 0.2839069964 0.1596094277 -0.3972882288 0.1596782344 -0.3973045386 -0.1078166626 0.2752492033
560296640.0 -0.11272328 0.2855963354 0.1553686036 -0.3995393984 0.1553337936 -0.3992542164 -0.1044494121 0.2767150214
565296610.0 -0.1099693116 0.2868113447 0.1507062345 -0.4007119955 0.1510340452 -0.4007039313 -0.1020000469 0.2777456948
570296580.0 -0.1067716604 0.2881151114 0.1461692983 -0.4029419842 0.1460225003 -0.4023034314 -0.0997780412 0.279213577
575296550.0 -0.1038337502 0.2897161758 0.1422568948 -0.4041880387 0.1419998972 -0.4041612394 -0.0965182054 0.2799025596
580296520.0 -0.1006579481 0.2906819025 0.1373714892 -0.4057813146 0.1376746347 -0.4055273484 -0.0933418987 0.280872834
585296490.0 -0.0977732011 0.2915215078 0.1333233663 -0.4067700021 0.133345124 -0.4071699657 -0.0906064056 0.2825530622
590296460.0 -0.0944425142 0.2926084535 0.1288569126 -0.4083159518 0.128838831 -0.4083472346 -0.0879857148 0.2833978827
595296430.0 -0.0915741126 0.2939576115 0.1238936743 -0.4097474422 0.1241699016 -0.409504888 -0.0846963535 0.2839799006
600296400.0 -0.0886323701 0.2949723714 0.1195469801 -0.4107824911 0.119777397 -0.4107116495 -0.0820191454 0.2851322282
605296370.0 -0.0856848325 0.2963719928 0.1151265456 -0.4123680593 0.1153044406 -0.4122106929 -0.0785424048 0.2862334854
610296340.0 -0.0823724834 0.2968982278 0.1105205519 -0.4133304612 0.1107631035 -0.4131784878 -0.0754057811 0.286934251
615296310.0 -0.0786646314 0.2980004082 0.1059272858 -0.4145327307 0.1060858211 -0.4146387375 -0.0722987198 0.2879978981
620296280.0 -0.0759719867 0.2987974858 0.1016227398 -0.4155417218 0.1019783127 -0.4152404404 -0.0697618069 0.2889598371
625296250.0 -0.07291221 0.2996952715 0.0975915936 -0.416584009 0.0972672829 -0.417026365 -0.0662649359 0.2894681813
630296220.0 -0.0693236887 0.3010990577 0.0919995563 -0.4179791461 0.0924637146 -0.4177325419 -0.0630745705 0.2909182021
635296190.0 -0.0669219415 0.3014960068 0.0881045454 -0.4186004682 0.0880256671 -0.4184378464 -0.0603536026 0.2913256308
640296160.0 -0.0635454831 0.3024370225 0.0836683225 -0.419442475 0.083824517 -0.4194646084 -0.0571878349 0.2921739328
645296130.0 -0.0603986551 0.3034386905 0.0789601082 -0.4198288822 0.0789718094 -0.4203151726 -0.0540404466 0.2932525201
650296100.0 -0.0571070459 0.3039866849 0.0741896508 -0.420780158 0.0745300349 -0.4205758372 -0.0507871527 0.2930265248
655296070.0 -0.0543397476 0.3045646609 0.0703701941 -0.4217072461 0.06971711 -0.4214761743 -0.0475488857 0.2939834126
660296040.0 -0.0511831605 0.3050119573 0.0655650036 -0.4221875439 0.0652306793 -0.4226658812 -0.0443282307 0.2949412533
665296010.0 -0.0474507443 0.3057347893 0.0602988364 -0.4230278993 0.0605007078 -0.4232191012 -0.0412982768 0.2957901798
670295980.0 -0.0447754098 0.3068016234 0.0560618765 -0.4231755938 0.0562028521 -0.4234768331 -0.0382978228 0.2961578785
675295950.0 -0.041257355 0.3074561264 0.0514101284 -0.4238832836 0.0515486258 -0.4238625673 -0.0355541081 0.2966955502
680295920.0 -0.0383979541 0.3077773058 0.0469553024 -0.4244580331 0.0465236585 -0.4251621783 -0.0319952494 0.2979507675
685295890.0 -0.0347298984 0.3086614765 0.0422575571 -0.4253778551 0.0422980706 -0.4254368394 -0.0287475334 0.2983655764
690295860.0 -0.0313984068 0.3090804366 0.0374552379 -0.4255262618 0.0376323344 -0.4258677607 -0.0256006221 0.2992200563
695295830.0 -0.0283835328 0.3093007578 0.033449165 -0.4258487434 0.0329592557 -0.425862243 -0.0224601514 0.299371017
700295800.0 -0.0248791758 0.309637247 0.0281599245 -0.4260353609 0.0280053524 -0.4261682935 -0.0197319728 0.3000128781
705295770.0 -0.0221618103 0.310391679 0.0238676099 -0.4262198783 0.0239072254 -0.426509065 -0.0163249613 0.3005773319
710295740.0 -0.0184549065 0.3108539013 0.0195485696 -0.42693743 0.0194424573 -0.426707421 -0.0134208518 0.3001746617
715295710.0 -0.0156141151 0.3108319231 0.0150490542 -0.4267149206 0.0143459058 -0.426568142 -0.0098069727 0.3008603963
720295680.0 -0.0123105288 0.3112728358 0.0100956371 -0.4269630374 0.0104269414 -0.426881002 -0.0071712993 0.3011739379
725295650.0 -0.0087967203 0.3116532951 0.005268357 -0.4270795137 0.0054680364 -0.4270067792 -0.0039481977 0.3014772754
730295620.0 -0.005389725 0.3120240518 0.0008004456 -0.4269446181 0.0005660142 -0.4269542116 -0.0010160006 0.3015832311
735295590.0 -0.0022764244 0.3121541568 -0.0038588661 -0.4268620854 -0.0039774934 -0.4270044514 0.0020902553 0.3016916539
740295560.0 0.0008236214 0.3122715778 -0.008370541 -0.426605858 -0.0085747644 -0.4269128291 0.0057202616 0.3018874286
745295530.0 0.0041116787 0.312373369 -0.0133048933 -0.4263344911 -0.0134898078 -0.4265531313 0.0086327773 0.3015020461
750295500.0 0.0076353416 0.3122113435 -0.0175638026 -0.4261329332 -0.0174789299 -0.4266308117 0.01141555 0.3021036292
755295470.0 0.0108424555 0.3120032471 -0.0222447084 -0.4259030225 -0.0224952848 -0.4261284331 0.0150853097 0.3012931514
760295440.0 0.0140645169 0.3122710572 -0.0269468616 -0.4260320739 -0.0269715428 -0.426173209 0.0180128485 0.3015750014
765295410.0 0.0173350116 0.3123149756 -0.0316211293 -0.4252412026 -0.0320078457 -0.4255789156 0.0212567235 0.3017387022
770295380.0 0.0204246553 0.3121302178 -0.0363591737 -0.424769265 -0.0364814557 -0.4248442958 0.0243700088 0.3014337041
775295350.0 0.0232886845 0.3120767982 -0.0405676122 -0.4244519221 -0.0402683017 -0.4244814816 0.0270360175 0.3010702744
780295320.0 0.0268156774 0.3119029845 -0.0450204872 -0.4238993956 -0.044845367 -0.4239201525 0.030380932 0.3008782941
785295290.0 0.0298129906 0.3113920187 -0.0498823433 -0.4230620045 -0.0499418905 -0.4232688421 0.0338963316 0.3008788272
790295260.0 0.0337985365 0.3116904783 -0.0546376221 -0.423019838 -0.053853394 -0.4228172085 0.0369626552 0.3006028935
795295230.0 0.036636256 0.311314919 -0.0591251588 -0.4220791476 -0.0583367662 -0.4223979273 0.0404405498 0.3003304959
800295200.0 0.0394567099 0.3110592717 -0.0638430004 -0.4215177332 -0.063739554 -0.4212749761 0.0434917218 0.2998076577
805295170.0 0.0431246557 0.3105556244 -0.068017035 -0.420647347 -0.0681779166 -0.420875373 0.046541717 0.2998591121
810295140.0 0.0462923749 0.310292244 -0.0724803776 -0.419797466 -0.0727438964 -0.4199810536 0.0501530563 0.2989659399
815295110.0 0.0495683579 0.3096563552 -0.0769862302 -0.4185907181 -0.0768769045 -0.4194471482 0.0528864006 0.2989500014
820295080.0 0.052801237 0.309811553 -0.0818189073 -0.4178154068 -0.0815291277 -0.4182326135 0.0563026334 0.2984356294
825295050.0 0.056405831 0.3090212265 -0.0860386383 -0.4166874554 -0.0861004892 -0.4172803804 0.0594303046 0.2982505665
830295020.0 0.0592939527 0.3087522114 -0.0908627111 -0.416349674 -0.0908578469 -0.4160354525 0.0632965029 0.2976628699
