!Created with skrf (http://scikit-rf.org).
# Hz S RI R 50.0 
!freq ReS11 ImS11 ReS21 ImS21 ReS12 ImS12 ReS22 ImS22
300000.0 -0.7719459096 -0.163845526 -0.0011053175 0.000489965 -0.0005317011 0.0005295503 0.8598213414 -0.0029313694
5299970.0 -0.7859694389 -0.008671301 0.0001202109 0.0001506488 0.0001842436 7.17756e-05 0.8599318693 -0.0103109446
10299940.0 -0.7893197973 -0.0057786466 8.61487e-05 -3.95913e-05 -6.31299e-05 -0.0001754588 0.858088408 -0.0191806251
15299910.0 -0.7943312781 -0.0032524673 -5.24755e-05 9.23558e-05 9.18434e-05 0.0002007606 0.8575149891 -0.0276517976
20299880.0 -0.8007768697 0.0010215236 -4.104e-05 0.0001070978 0.000195217 -0.0001010156 0.8561411248 -0.0358156487
25299850.0 -0.8077527551 0.0067419644 2.24703e-05 -8.15661e-05 0.0001593646 6.61535e-05 0.8558878616 -0.0437363979
30299820.0 -0.814341833 0.0133848653 -1.1738e-06 2.82182e-05 -8.58817e-05 2.62988e-05 0.8554113322 -0.0523714063
35299790.0 -0.8185345811 0.0230517981 -7.43104e-05 5.55664e-05 -2.77144e-05 -0.0001406783 0.8549142946 -0.0611253129
40299760.0 -0.823341204 0.0318602931 -6.1326e-06 0.0001743416 -0.0002066216 1.94883e-05 0.8537413465 -0.0691119142
45299730.0 -0.8268003086 0.0418490728 0.0001055541 5.98798e-05 -0.0001305909 1.42041e-05 0.8528499008 -0.0776152224
50299700.0 -0.8291114906 0.0515394888 7.19809e-05 5.68703e-05 0.0001475555 3.61318e-05 0.852174666 -0.0857279493
55299670.0 -0.8315992727 0.0613444958 -3.31067e-05 -4.84987e-05 9.01756e-05 -5.12909e-05 0.850918015 -0.0935785551
60299640.0 -0.8327004364 0.0721642809 -5.10212e-05 -2.03464e-05 -2.8896e-05 3.5011e-06 0.8498521144 -0.1022700998
65299610.0 -0.8338814902 0.0821432478 0.0001877505 -4.28789e-05 -4.9184e-06 0.0002410543 0.8493836215 -0.110836668
70299580.0 -0.8337724448 0.0918808056 7.50594e-05 -8.44518e-05 0.000147861 -2.6042e-05 0.8474213167 -0.1190896367
75299550.0 -0.8337551303 0.101676263 -9.70464e-05 -0.0001548354 4.16067e-05 6.3726e-06 0.8459379253 -0.1269289084
80299520.0 -0.8339638704 0.1124079095 0.0001424921 -2.90809e-05 9.2672e-05 -3.29859e-05 0.845186706 -0.1356909747
85299490.0 -0.8324761124 0.1212683085 1.69362e-05 8.49363e-05 -8.3742e-06 2.59265e-05 0.843606556 -0.1434822431
90299460.0 -0.8322424762 0.1317583525 -0.0001074968 3.53109e-05 4.3166e-06 4.22813e-05 0.8422271196 -0.1512156246
95299430.0 -0.8316107775 0.1411091149 -8.68443e-05 5.99497e-05 -4.09142e-05 8.22958e-05 0.840655954 -0.1602188359
100299400.0 -0.8308584277 0.1497815116 -0.0002724491 -0.0002028104 -6.42628e-05 7.365e-07 0.8392745789 -0.168508245
105299370.0 -0.829062277 0.1593268784 4.31904e-05 -4.88174e-05 -8.54491e-05 3.33825e-05 0.8375735037 -0.176320605
110299340.0 -0.8272098555 0.1680196347 1.74397e-05 0.0001026036 4.51365e-05 -2.61506e-05 0.8357829196 -0.1847188597
115299310.0 -0.8260049464 0.1775542531 8.5066e-06 0.0001071773 2.6299e-06 9.68945e-05 0.8333864984 -0.1926974434
120299280.0 -0.8247716932 0.186649262 -6.6518e-06 -2.45841e-05 -0.0001344143 -3.2414e-06 0.8315122261 -0.2007759554
125299250.0 -0.8225273697 0.1952750858 -0.0001597075 -1.9971e-05 3.3686e-06 -0.0001654643 0.8298599578 -0.2092676076
130299220.0 -0.8209130962 0.2052231641 -0.0001364362 -0.0001482971 8.18636e-05 -1.29485e-05 0.8276745335 -0.2167098876
135299190.0 -0.8187639888 0.2144630731 0.0001309864 -7.08946e-05 -6.8674e-06 -3.19041e-05 0.8255252485 -0.2247426218
140299160.0 -0.8174270387 0.2233477738 -9.85971e-05 -0.0001653496 -1.23881e-05 -0.0001268452 0.8225103108 -0.2330232347
145299130.0 -0.8147072318 0.232111135 4.53708e-05 -9.04038e-05 -2.91627e-05 -0.0001053604 0.8207233472 -0.2415691168
150299100.0 -0.8117605209 0.2410049844 -0.0001357432 -3.75789e-05 7.93998e-05 -3.44723e-05 0.8179252047 -0.2492262471
155299070.0 -0.8096924503 0.2501138682 0.0001191592 -7.07242e-05 -0.0001120638 -7.44827e-05 0.8157282248 -0.2577265116
160299040.0 -0.807627696 0.2594698294 -7.74689e-05 -0.0001655692 4.65595e-05 9.41069e-05 0.8128827001 -0.2652122174
165299010.0 -0.8045835827 0.2674460071 0.0002387359 0.0001070858 9.92436e-05 0.000137137 0.81046595 -0.2738177271
170298980.0 -0.8014374956 0.2766546602 -2.85794e-05 9.5259e-05 0.0001277106 0.0002051786 0.807637097 -0.281144099
175298950.0 -0.7989226905 0.2847051297 0.000137867 -9.94205e-05 0.0001352535 -5.74929e-05 0.8049035688 -0.2888831782
180298920.0 -0.7963025702 0.2934799693 1.108e-05 7.40172e-05 -0.0001055912 -0.0001584079 0.8021416187 -0.2969053151
185298890.0 -0.7928661997 0.3018135193 -0.000184174 5.79876e-05 2.70422e-05 1.7341e-06 0.7989056349 -0.3049931918
190298860.0 -0.7893358993 0.3110543384 -0.0001370637 0.0001544526 7.90473e-05 -4.5364e-06 0.7955081924 -0.3127478211
195298830.0 -0.7860844949 0.3192980449 -0.0001867455 2.57311e-05 -0.0001966447 -2.2859e-06 0.792777 -0.3202692435
200298800.0 -0.7830741582 0.3279879795 3.57997e-05 0.0002155145 0.0001052537 -6.19873e-05 0.7888215586 -0.3278855126
205298770.0 -0.778752448 0.33644873 -4.27025e-05 -7.73173e-05 -9.70332e-05 -9.39269e-05 0.7864376328 -0.3358711671
210298740.0 -0.7757735711 0.3447838034 6.60244e-05 -5.31474e-05 0.0001376481 -2.8331e-05 0.7829770738 -0.3436671505
215298710.0 -0.7726034781 0.3533740691 3.41755e-05 -4.16825e-05 -0.0001263255 -1.76532e-05 0.7792774101 -0.3511802153
220298680.0 -0.7689918641 0.3611481337 -0.0001218984 -3.7748e-06 -8.1624e-05 8.77219e-05 0.7757128402 -0.3583955635
225298650.0 -0.7646969374 0.3697566377 -0.0001043606 3.6832e-05 -5.73821e-05 -0.0001864216 0.7724859746 -0.3665001606
230298620.0 -0.7612478604 0.3779607129 8.07182e-05 1.23416e-05 8.689e-06 -0.0001132934 0.7688248155 -0.3739301795
235298590.0 -0.7574779557 0.3860703483 7.741e-06 -3.19676e-05 -4.83482e-05 -1.36869e-05 0.7647693113 -0.3810649087
240298560.0 -0.7528820466 0.3937987077 -0.0002272101 5.5287e-06 3.3554e-06 0.0002232949 0.7610678005 -0.3886262471
245298530.0 -0.7491017063 0.401571381 0.0002203446 7.40241e-05 4.52433e-05 0.0001865359 0.7571265402 -0.395826303
250298500.0 -0.7444153009 0.4093889193 -6.35143e-05 8.12561e-05 0.0001960519 -0.0001264952 0.7533778102 -0.403776626
255298470.0 -0.7407133706 0.4176351104 4.50356e-05 -9.11383e-05 -0.0001344579 0.0001065181 0.7491060328 -0.4112017284
260298440.0 -0.7362494456 0.4254048728 -5.88629e-05 9.04364e-05 -0.0001152826 -0.0001383103 0.7452840934 -0.4181560385
265298410.0 -0.7319296165 0.432728706 -8.48017e-05 -0.0002470889 -0.0001012414 -2.99429e-05 0.7412414601 -0.4254511425
270298380.0 -0.7273462914 0.440491099 -0.000164645 -9.9714e-05 -0.0001468269 -3.4363e-05 0.7376699299 -0.4329530773
275298350.0 -0.7234900747 0.4481232233 -0.0001973346 0.0002494701 -6.90422e-05 0.0001722253 0.7327899405 -0.4402932779
280298320.0 -0.7182581928 0.45577716 -9.38481e-05 -4.775e-05 -0.0002914629 -7.96589e-05 0.7283205202 -0.4474631308
285298290.0 -0.7134770203 0.4632286666 8.24092e-05 0.0002694723 -0.0002758653 9.70427e-05 0.7239186988 -0.4541405269
290298260.0 -0.7081720034 0.4707405092 -0.000153162 0.0001989074 0.0001106161 -6.00533e-05 0.7201508522 -0.4611143603
295298230.0 -0.7037574698 0.4787301482 0.0001154206 7.59731e-05 0.0001329319 0.0001447313 0.7159896281 -0.4682135315
300298200.0 -0.6990872897 0.4857063915 0.0001914387 9.79297e-05 3.33552e-05 -9.65198e-05 0.7110162999 -0.4751943935
305298170.0 -0.6949013901 0.4929440006 -6.4493e-06 -0.0001303597 1.56458e-05 -3.84379e-05 0.7059436262 -0.482467907
310298140.0 -0.6892246746 0.4995808528 0.0001851098 -0.0001249002 -5.08004e-05 8.98963e-05 0.7021256117 -0.4895847983
315298110.0 -0.6846460554 0.5069913696 0.0001340784 -0.0002455842 -7.38812e-05 0.0001832586 0.6975941011 -0.4969608359
320298080.0 -0.6788980332 0.5142505529 -0.000110912 6.76585e-05 9.11314e-05 -2.06343e-05 0.6923960683 -0.5049426819
325298050.0 -0.6732587865 0.5210066169 -1.02671e-05 -7.88971e-05 4.97531e-05 -6.74557e-05 0.6875131675 -0.5121893842
330298020.0 -0.6680852497 0.5279497987 0.0001518145 9.52434e-05 2.40702e-05 -0.0001110541 0.6819887065 -0.5200153156
335297990.0 -0.6626966353 0.5346932517 0.0001598729 -0.0001628083 2.89676e-05 -0.0001249421 0.6763630558 -0.526482359
340297960.0 -0.6578313885 0.5416590716 -0.0001698983 8.11015e-05 0.0001826069 -0.0002024453 0.6693782929 -0.5325953051
345297930.0 -0.6516589938 0.5484617092 3.57718e-05 -0.0001436714 9.1491e-06 -7.57326e-05 0.6640424222 -0.5389167252
350297900.0 -0.64637414 0.555416425 0.0001354747 -0.0003254757 -0.0001024404 5.58673e-05 0.6581540565 -0.5456204731
355297870.0 -0.6409993303 0.5614392179 0.0001894048 -0.000267354 -3.13064e-05 1.92046e-05 0.653210532 -0.5519294411
360297840.0 -0.6348989064 0.5681766054 -7.78339e-05 2.39909e-05 -0.0001406893 -1.53405e-05 0.6468938128 -0.55739708
365297810.0 -0.6293816049 0.5751040095 8.52802e-05 -0.0001374644 4.06939e-05 -6.45209e-05 0.6414920418 -0.5641378937
370297780.0 -0.6236235344 0.5805793652 0.0001761547 8.7548e-06 -8.4139e-06 0.0001607226 0.6351907604 -0.5697726024
375297750.0 -0.6182238519 0.587055906 8.40142e-05 -0.0002134483 -0.0001483138 -9.90343e-05 0.6297393608 -0.5762564301
380297720.0 -0.6118705934 0.5935331724 0.0002087839 -5.22917e-05 0.0001715855 -0.0001032069 0.6245633225 -0.5816411516
385297690.0 -0.6055930127 0.6000803674 5.53287e-05 -3.2149e-06 1.79544e-05 4.1401e-06 0.6180459433 -0.5878115761
390297660.0 -0.5982449584 0.6055646773 -0.0001748898 -1.85236e-05 0.0001877696 -5.20894e-05 0.6126604296 -0.5936288232
395297630.0 -0.5925801962 0.612258143 -9.19143e-05 0.0001021886 -5.56056e-05 -2.6884e-06 0.6063077778 -0.5993550713
400297600.0 -0.5865623651 0.6184553076 0.0001351146 7.2947e-06 -0.0001241503 -0.0001564034 0.6005045391 -0.6054485083
405297570.0 -0.5806515847 0.6229830635 -6.24797e-05 0.0002286449 6.73486e-05 5.72705e-05 0.5944089691 -0.6110367261
410297540.0 -0.5739122317 0.6300256291 -0.0001205039 5.412e-06 -0.0001677764 -0.0001118056 0.5879936807 -0.6167878731
415297510.0 -0.5676677907 0.6356562431 0.0001079294 0.0001284707 -7.63461e-05 1.29069e-05 0.5819113402 -0.6226809419
420297480.0 -0.5606459603 0.641110614 5.8942e-06 1.07629e-05 -6.62399e-05 -3.22323e-05 0.5763917559 -0.6276268313
425297450.0 -0.5544623403 0.6465229758 -3.2284e-06 -5.1279e-05 -3.66832e-05 -5.13437e-05 0.5700069361 -0.6339853013
430297420.0 -0.547999287 0.6522344066 0.0001353177 -0.0002660359 0.0001726653 -4.3468e-05 0.5632575894 -0.6397486763
435297390.0 -0.5410803502 0.657304045 2.45008e-05 -0.0001936021 -0.0001988429 8.3465e-05 0.5566684847 -0.6450871196
440297360.0 -0.5335319894 0.6629703474 5.9531e-06 -0.0001395236 -6.98893e-05 -0.0001064947 0.5503284592 -0.650000743
445297330.0 -0.5270321166 0.6679885775 3.89226e-05 1.10034e-05 -2.28722e-05 -4.29572e-05 0.5437496636 -0.6544617455
450297300.0 -0.5202813811 0.6735029584 -0.0001967574 -5.01665e-05 -2.82628e-05 0.0001183573 0.5373529502 -0.6603045454
455297270.0 -0.5136023589 0.6781894499 7.20634e-05 -4.05607e-05 7.381e-05 0.0001235819 0.5314081948 -0.6653585283
460297240.0 -0.5059639354 0.684377369 0.0001374427 -0.0002021436 -7.96204e-05 -0.0001135434 0.5238393906 -0.6711262932
465297210.0 -0.4990278402 0.6891248215 -5.66556e-05 -5.85883e-05 9.09685e-05 -4.63628e-05 0.5175862277 -0.6756793191
470297180.0 -0.4915531127 0.694235337 3.19e-05 -2.87697e-05 -7.75947e-05 -5.09812e-05 0.5109381049 -0.6805830402
475297150.0 -0.4846170916 0.6989234744 7.23864e-05 9.05959e-05 -4.40785e-05 0.0001392236 0.50470874 -0.6856237578
480297120.0 -0.4766865173 0.7042938802 -0.0001440711 -6.34136e-05 -8.31291e-05 0.0002047005 0.4968782267 -0.6905049526
485297090.0 -0.4696522127 0.7085115755 3.79258e-05 -1.95793e-05 -0.0001440365 0.0001132211 0.4907589863 -0.6956433322
490297060.0 -0.4620528357 0.7140509796 7.56088e-05 3.13255e-05 -5.73463e-05 6.58591e-05 0.4834252294 -0.700002371
495297030.0 -0.4547008313 0.7184213131 0.0001288646 -0.0003651696 -9.40156e-05 -6.04744e-05 0.4763799943 -0.7049403918
500297000.0 -0.4470168954 0.7218505712 6.1621e-05 -1.42577e-05 -3.28463e-05 -0.0001352709 0.4694986764 -0.7092887866
505296970.0 -0.4396675727 0.7268650058 3.59234e-05 -1.81618e-05 -3.3337e-06 3.39683e-05 0.4621303499 -0.7133631445
510296940.0 -0.4317157456 0.7311388727 -0.0001035022 -0.0002499678 1.63434e-05 4.6207e-05 0.4544584315 -0.7181886847
515296910.0 -0.4237735471 0.7357225515 0.0001004395 -1.66601e-05 -1.48013e-05 -8.0811e-05 0.4478157476 -0.7226103174
520296880.0 -0.4159472819 0.7400482202 5.87128e-05 -9.37235e-05 -5.45278e-05 0.0001441994 0.4408841033 -0.7270680783
525296850.0 -0.4083732826 0.7439532793 -0.0001068384 -0.0001539705 3.18982e-05 -0.0001195959 0.4339389626 -0.7314078623
530296820.0 -0.401048531 0.7483554818 5.61384e-05 -0.0001042272 -0.0001190843 9.86132e-05 0.4267213654 -0.7356873704
535296790.0 -0.3927451615 0.7521633063 6.03337e-05 -3.65183e-05 -0.0001199235 -0.0001150395 0.419717397 -0.7391594497
540296760.0 -0.3849927566 0.7561324757 -4.5505e-05 7.07827e-05 -9.7922e-06 -0.0001620108 0.4117095883 -0.7435559154
545296730.0 -0.3774156428 0.7607826282 0.0001608072 -0.0001403904 -0.0001914041 -0.0001389512 0.4042455987 -0.7474366366
550296700.0 -0.368986087 0.7639789637 3.06708e-05 -3.53308e-05 -1.4291e-05 7.76121e-05 0.3967448417 -0.7507606968
555296670.0 -0.3613541077 0.7672826168 1.62217e-05 -4.91513e-05 2.73554e-05 -4.34683e-05 0.3887677666 -0.7552316017
560296640.0 -0.3532493796 0.7708491543 -0.0002031969 0.0002479524 -2.11258e-05 0.0001609512 0.3814720597 -0.7589860905
565296610.0 -0.3457037315 0.7742125755 2.02198e-05 7.85997e-05 -0.0001681563 0.0001082154 0.3747006903 -0.762151247
570296580.0 -0.3368715492 0.7782637133 -0.0001476164 9.82247e-05 4.66043e-05 6.20891e-05 0.3663318488 -0.7662999334
575296550.0 -0.3282171483 0.7816054299 -0.0001030464 -3.99178e-05 -0.0001145258 -2.54965e-05 0.359055189 -0.7694358656
580296520.0 -0.3208532936 0.7845686867 -0.0001085361 0.0002088554 7.69467e-05 6.56222e-05 0.3511564227 -0.7725349871
585296490.0 -0.3122125575 0.7879152184 0.0001491417 5.4054e-06 0.0001159103 5.45758e-05 0.3433258806 -0.7758860223
590296460.0 -0.3036087194 0.7909541261 9.94028e-05 0.0001896451 0.0001195332 -0.0001680942 0.3352394685 -0.7794358694
595296430.0 -0.296190552 0.7942929139 -0.0001439913 -2.2085e-05 -6.79516e-05 -7.26312e-05 0.3282675873 -0.782735944
600296400.0 -0.2881145696 0.7970463461 0.0002226269 -3.61712e-05 3.65685e-05 9.8899e-06 0.3206080383 -0.7855899534
605296370.0 -0.2797909519 0.799976548 -7.61567e-05 8.30784e-05 -3.70615e-05 -1.77128e-05 0.3126837351 -0.788167447
610296340.0 -0.2713214405 0.8028920031 -0.0002225902 0.0001405927 0.0001864265 3.0597e-05 0.3034958158 -0.7918593441
615296310.0 -0.2628335429 0.8052285597 -9.30176e-05 1.17942e-05 -0.000178431 -0.0003189195 0.2963982145 -0.7945800944
620296280.0 -0.2550182999 0.8082596339 0.0002421662 -9.7817e-06 -1.01957e-05 0.0001311094 0.2885131054 -0.796679585
625296250.0 -0.2477904843 0.8101089081 -7.43186e-05 0.0001238677 0.0003088314 1.37302e-05 0.2805667324 -0.8001519054
630296220.0 -0.2386875048 0.8134413281 -1.54526e-05 4.96919e-05 0.0001857235 4.89027e-05 0.2728505376 -0.8023062472
635296190.0 -0.2301549111 0.8155443283 -0.0003107578 0.0002253107 -4.7543e-05 -0.0001296019 0.2642541686 -0.8047083475
640296160.0 -0.2213317924 0.817928826 -1.13876e-05 -0.0001229333 -8.53311e-05 3.97417e-05 0.2563631483 -0.8072446198
645296130.0 -0.2135100977 0.8205774053 2.74786e-05 -0.0002492867 -3.50031e-05 0.0001359826 0.2481477891 -0.8093349167
650296100.0 -0.2050597461 0.8218206733 -1.55727e-05 -2.00668e-05 -4.58656e-05 -9.88445e-05 0.240412624 -0.8126288354
655296070.0 -0.1977524226 0.824154064 -0.0001668968 -1.01949e-05 3.05584e-05 0.0002498134 0.2316324546 -0.8147339272
660296040.0 -0.188897615 0.8261651445 0.0001192443 0.0002325885 8.28939e-05 3.70272e-05 0.2245168443 -0.8167949117
665296010.0 -0.1805125744 0.8286501845 -0.000188506 -1.75682e-05 -0.0001914969 -0.0001919606 0.216485373 -0.8185545303
670295980.0 -0.1723202039 0.8305457341 -3.37821e-05 0.0001284034 -6.44965e-05 0.000126549 0.2080484879 -0.8204052677
675295950.0 -0.1635117676 0.8318109266 3.86776e-05 -4.14056e-05 4.2699e-06 -8.34686e-05 0.1995814261 -0.8224479126
680295920.0 -0.1568616271 0.8338744403 -4.95009e-05 6.28396e-05 0.0001450122 -5.54672e-05 0.1912770693 -0.8240707416
685295890.0 -0.1472600965 0.8358259547 7.00077e-05 5.3087e-06 6.90604e-05 -1.7257e-05 0.18361597 -0.8257026174
690295860.0 -0.1391281109 0.8368214785 0.0002520946 -4.07801e-05 6.55568e-05 -0.0002450642 0.1750536167 -0.8280853366
695295830.0 -0.1306204072 0.8384779359 -5.9582e-05 -0.0001536072 -8.3814e-05 0.0001293922 0.1666044649 -0.8291067548
700295800.0 -0.1223165312 0.8401118702 -0.0001089679 0.0001411112 -0.0001027614 -8.58426e-05 0.1584879551 -0.8307377861
705295770.0 -0.1144005458 0.8411896959 -0.0001219956 -2.47175e-05 0.0001893855 0.000238795 0.1496286403 -0.8316196307
710295740.0 -0.1063129564 0.8419810471 -4.30091e-05 -0.0001801197 -0.0001761108 1.07087e-05 0.1421663552 -0.8331121824
715295710.0 -0.0977262156 0.8438623949 3.05029e-05 2.12033e-05 6.13692e-05 4.77808e-05 0.1343492313 -0.8345144293
720295680.0 -0.0889538932 0.844002541 -7.41874e-05 8.66549e-05 -2.06228e-05 4.96916e-05 0.1258639654 -0.8358677395
725295650.0 -0.0811812777 0.8457047789 -0.0001486815 4.3338e-05 2.58205e-05 2.571e-07 0.11722236 -0.8364950008
730295620.0 -0.0738240941 0.847147412 -4.0151e-06 2.49389e-05 -0.000154306 -8.50555e-05 0.1084017425 -0.8377707685
735295590.0 -0.0653247269 0.8478901338 9.2335e-06 -8.61934e-05 -7.97943e-05 8.9846e-06 0.100615979 -0.8381886373
740295560.0 -0.0572358131 0.8478257859 -1.69993e-05 -6.31056e-05 5.52894e-05 3.67489e-05 0.091740446 -0.8390853769
745295530.0 -0.0485441763 0.8486063573 -5.30781e-05 -0.0002028479 0.0002851716 -4.93914e-05 0.0832610224 -0.8397247215
750295500.0 -0.0408731174 0.8490166107 2.474e-07 -0.0001346751 9.92742e-05 9.57122e-05 0.0747670551 -0.8407089591
755295470.0 -0.0321503521 0.849975469 0.0001571462 6.33061e-05 5.1192e-06 -6.12035e-05 0.066992989 -0.8408125256
760295440.0 -0.0238053765 0.8513261783 0.0001638811 -8.6896e-05 0.0001396797 -3.09464e-05 0.0586502587 -0.8413828718
765295410.0 -0.0157012728 0.8505086094 0.0001181232 9.26411e-05 0.0001599096 -2.98012e-05 0.0494554497 -0.841964226
770295380.0 -0.0080443991 0.8510365434 -0.0001094091 -6.21787e-05 -2.67357e-05 -0.0001106588 0.0419312731 -0.8420726669
775295350.0 4.88002e-05 0.851395147 3.82569e-05 0.0001106592 5.955e-06 0.0001135281 0.0341334789 -0.8428440857
780295320.0 0.0088586416 0.8513772747 -0.000107599 -6.5858e-06 -9.30267e-05 -0.0001240944 0.0252324206 -0.8429029276
785295290.0 0.0172598317 0.8510586454 -0.0001284538 8.82985e-05 -0.0001291761 -0.0001981516 0.0160658716 -0.8425177726
790295260.0 0.024977738 0.8504554358 6.33618e-05 -0.0001455884 0.0001018111 1.39745e-05 0.0083979346 -0.841906719
795295230.0 0.0329992108 0.850574311 -2.3006e-05 0.000202015 7.11116e-05 -0.0001146145 -0.0005890436 -0.8433778174
800295200.0 0.0410583288 0.8507104952 2.49247e-05 1.20822e-05 9.51182e-05 -0.0001325781 -0.0089484246 -0.8422973813
805295170.0 0.0494594525 0.8505962716 0.0001562937 -9.47874e-05 -0.0001783511 -0.000145222 -0.0165579272 -0.842598697
810295140.0 0.0581968909 0.8509822775 -0.0002324557 8.82424e-05 -9.40493e-05 -0.0001413844 -0.0257831223 -0.8413901525
815295110.0 0.0656856051 0.8495698621 8.76251e-05 -5.11462e-05 -2.30879e-05 -0.0002049707 -0.0342710406 -0.8414000143
820295080.0 0.0737409779 0.8492698955 9.04744e-05 3.27675e-05 -1.22008e-05 7.25413e-05 -0.0424769747 -0.840098186
825295050.0 0.0826076205 0.8483742474 7.86023e-05 0.0001657339 0.0001763393 3.93428e-05 -0.050483034 -0.8396362635
830295020.0 0.0909080418 0.8476779881 0.0002601698 0.0001531329 1.4989e-05 0.0001863571 -0.0597240606 -0.8397554946
835294990.0 0.0983407121 0.8467216583 -6.89126e-05 1.52296e-05 -6.06198e-05 0.000171063 -0.0677966711 -0.8381401557
840294960.0 0.1071625393 0.8450895401 8.51301e-05 -7.84826e-05 0.0001040649 -0.0001020946 -0.0756496603 -0.8377376687
845294930.0 0.1147542964 0.8442614368 2.7011e-05 -7.47012e-05 -2.64363e-05 -8.32737e-05 -0.0847966221 -0.8362201985
