!Created with skrf (http://scikit-rf.org).
# Hz S RI R 50.0 
!freq ReS11 ImS11 ReS21 ImS21 ReS12 ImS12 ReS22 ImS22
300000.0 -0.0422043015 -0.0720839323 -0.000737269 -0.0019031066 0.0014061186 0.0010017042 -0.763266488 -0.200646062
5299970.0 -0.0460745674 0.0142788866 -2.87178e-05 0.0002029856 -8.28379e-05 2.83517e-05 -0.785064793 -0.0099785062
10299940.0 -0.0401902036 0.032678532 0.0002476354 -0.0001342761 -4.81601e-05 -0.0001295416 -0.7871782753 -0.0054409888
15299910.0 -0.0315178515 0.0474546579 0.0002252727 0.0002435279 6.44912e-05 3.34344e-05 -0.7927192303 -0.002600372
20299880.0 -0.0214344037 0.0593865511 5.42386e-05 -2.64392e-05 0.0001451944 0.0001936714 -0.799618013 0.0017008415
25299850.0 -0.0099613192 0.0688243113 0.0001644296 -6.33009e-05 0.0001243372 1.50622e-05 -0.8061686468 0.0076464596
30299820.0 0.0014876095 0.0757589911 -0.0001065882 0.0001309588 4.80164e-05 -5.28759e-05 -0.8118090095 0.0157094455
35299790.0 0.0132591779 0.0803783402 -5.65309e-05 -0.0001590946 -0.0002591877 0.0001171315 -0.8166026981 0.0246730605
40299760.0 0.0245174643 0.0832059992 -0.0001768748 8.0957e-06 3.73632e-05 -1.43031e-05 -0.8210974296 0.0340112613
45299730.0 0.0352536112 0.0844446401 -0.0001287091 -3.54104e-05 -0.0001563981 7.42075e-05 -0.824116499 0.0437322932
50299700.0 0.0455959717 0.0842765868 -0.0001061713 6.95746e-05 9.23251e-05 7.76205e-05 -0.8260072204 0.0536957278
55299670.0 0.0549991209 0.0835589419 1.65458e-05 0.0003610219 -1.82077e-05 -2.48801e-05 -0.8285169253 0.063551515
60299640.0 0.0634273749 0.0814774303 -0.0001027252 -3.79231e-05 -1.18098e-05 -0.0001157248 -0.829323437 0.0738559166
65299610.0 0.0715629677 0.079521884 -5.64047e-05 -0.0001394573 9.65567e-05 -4.45921e-05 -0.8301703367 0.0838798623
70299580.0 0.0782091257 0.0760897267 -2.71814e-05 -0.0001904291 2.9112e-05 0.0002140756 -0.8308866576 0.0938810707
75299550.0 0.0848332253 0.0730731097 0.000137124 6.17264e-05 3.86032e-05 3.03855e-05 -0.8307974803 0.1040483689
80299520.0 0.0903415109 0.0693929123 -5.28002e-05 -0.0001019045 0.0001149409 -0.0001046223 -0.8304936113 0.1133826045
85299490.0 0.0955488879 0.0656060862 -4.0311e-05 1.11906e-05 0.0001022945 0.0002005577 -0.8294772663 0.123049541
90299460.0 0.1006181727 0.0617504411 -0.0001063521 -0.0002506772 -6.8756e-06 7.84469e-05 -0.828436932 0.1328619554
95299430.0 0.1044451844 0.0581872006 0.0002093716 0.0001395007 -1.16904e-05 7.77349e-05 -0.8282256092 0.1426684327
100299400.0 0.1084235907 0.0541564999 5.39357e-05 -1.5158e-06 -4.09261e-05 -2.46079e-05 -0.8263274563 0.1517741735
105299370.0 0.1114422834 0.0501661112 0.0002279742 -8.0949e-05 -9.59298e-05 2.43742e-05 -0.8258235687 0.1607293748
110299340.0 0.1144680296 0.0464337911 -0.0002363775 0.0001029501 3.48519e-05 0.0002364275 -0.8243886469 0.1694313275
115299310.0 0.1169886913 0.0427533634 0.0001861247 -0.0001013475 -0.0001922759 0.0001176746 -0.8226306765 0.1790847786
120299280.0 0.1194557072 0.0389298775 -4.55417e-05 1.32914e-05 0.0003349033 3.72134e-05 -0.8207308933 0.1882839774
125299250.0 0.1213006167 0.0351268875 1.19782e-05 -0.0001579535 0.0001253105 6.518e-06 -0.8191498341 0.1970573471
130299220.0 0.1232050795 0.0311784777 9.63561e-05 -3.7324e-06 0.0001650425 9.49633e-05 -0.8171226709 0.2057045878
135299190.0 0.1248780186 0.0278591302 0.0001254868 0.0001924531 5.96121e-05 -5.98466e-05 -0.8158027077 0.2151803926
140299160.0 0.1264388902 0.0243769681 4.73264e-05 -3.52975e-05 3.26845e-05 -8.2885e-06 -0.813907024 0.2230223726
145299130.0 0.1274845795 0.0210798389 -4.94879e-05 0.0004409347 -1.50259e-05 8.341e-07 -0.8115046543 0.2324577698
150299100.0 0.1282067293 0.0176295537 -9.43564e-05 1.23965e-05 5.3975e-05 2.9463e-06 -0.8096384037 0.2410001063
155299070.0 0.1289676874 0.0148277007 -7.58089e-05 0.000166568 0.0001379939 0.0002337789 -0.8068805029 0.2506558026
160299040.0 0.1298363809 0.011501433 -0.0001480766 0.0001026614 0.0001818683 -2.97861e-05 -0.8043081722 0.2590189157
165299010.0 0.130535232 0.0085553288 -3.14933e-05 8.91152e-05 5.63543e-05 -4.07334e-05 -0.8012496202 0.2672472293
170298980.0 0.1309409494 0.0052197646 4.96641e-05 -9.60706e-05 -2.25919e-05 0.0002731133 -0.7997088802 0.2757906215
175298950.0 0.1312570858 0.002360947 7.18465e-05 0.0001891088 8.27126e-05 0.0001011368 -0.7960549074 0.2846422626
180298920.0 0.1314849179 -0.000362689 -2.24777e-05 9.88106e-05 -6.6561e-05 2.19844e-05 -0.7931616151 0.2930558688
185298890.0 0.1317559097 -0.0033041067 -3.55211e-05 -0.0001130787 -0.0001251598 0.000165198 -0.7898627799 0.3017818166
190298860.0 0.1318895783 -0.0057649986 -0.0001474294 0.0002239598 -4.46852e-05 7.95225e-05 -0.7867057351 0.3098788947
195298830.0 0.1320192191 -0.0083973717 4.6654e-06 -6.3886e-06 -5.38105e-05 -3.95855e-05 -0.7839552567 0.3179143155
200298800.0 0.1320283991 -0.0111155135 0.0002231088 6.37015e-05 2.64119e-05 7.79154e-05 -0.7807064194 0.3265597674
205298770.0 0.1313249716 -0.013640742 0.000269135 0.0002042194 0.0001848551 7.45961e-05 -0.777625399 0.3351731935
210298740.0 0.1314731375 -0.0160696187 -3.00676e-05 0.0002002859 0.0001127952 0.000311204 -0.7742790456 0.3433650773
215298710.0 0.131030239 -0.0185542646 -7.39428e-05 -7.26606e-05 2.90225e-05 0.0001678466 -0.7701258428 0.3516469994
220298680.0 0.1310065715 -0.0209396 -0.000221163 0.0002204371 1.45718e-05 0.000191449 -0.7665706774 0.3598159002
225298650.0 0.1305964119 -0.0233464196 -9.44927e-05 4.4867e-05 0.0001837845 9.67471e-05 -0.7626270148 0.3675626594
230298620.0 0.1299375041 -0.0254124319 0.0001786604 8.39945e-05 0.0001044409 0.0001362682 -0.7591869125 0.3753422527
235298590.0 0.129630879 -0.0276485788 4.67461e-05 7.68573e-05 0.0001218724 4.35816e-05 -0.7550858831 0.3830789557
240298560.0 0.1286893538 -0.0297590018 0.0002041456 7.22263e-05 -4.3008e-06 0.0002010005 -0.7510042898 0.3905354021
245298530.0 0.1282402066 -0.0317940422 0.0002287117 0.0004301479 0.0002311422 0.0002493249 -0.7471286896 0.3990261208
250298500.0 0.1278242316 -0.033933083 -4.68405e-05 4.281e-06 -1.28805e-05 0.0001532377 -0.7429371581 0.4071945604
255298470.0 0.1272382726 -0.0359081533 -4.39591e-05 0.0002433798 4.3444e-05 0.0001801687 -0.7384250615 0.4151902479
260298440.0 0.1269146729 -0.0381407768 0.0001532939 0.0001096262 0.0002390312 0.0001388877 -0.7338933188 0.422024164
265298410.0 0.1256500883 -0.0398217715 -7.96103e-05 8.14268e-05 4.71519e-05 0.0001079939 -0.7292031471 0.4297627413
270298380.0 0.125082125 -0.0419316377 9.0081e-06 0.0001476741 0.0001217797 4.61581e-05 -0.7252391686 0.4381059404
275298350.0 0.1244143476 -0.0436848866 -1.84923e-05 0.0001592092 6.66162e-05 7.83692e-05 -0.720189919 0.4452660208
280298320.0 0.1234804117 -0.0457457703 0.0001263489 0.0001625902 7.86451e-05 0.0003182293 -0.7160151016 0.4525924829
285298290.0 0.1230386587 -0.0473522454 3.46889e-05 2.8687e-06 0.0001587347 -0.0001592828 -0.7115820226 0.46051809
290298260.0 0.1218436893 -0.048906962 -7.45384e-05 0.0001450274 0.0001777267 -1.72693e-05 -0.7061089021 0.4679500534
295298230.0 0.1212379102 -0.0511046723 0.0002254742 -9.04289e-05 0.0001429294 6.53599e-05 -0.7012013426 0.4745576226
300298200.0 0.12032691 -0.0524607839 0.0002779045 8.91021e-05 0.0001625236 0.0001680415 -0.696656974 0.482762301
305298170.0 0.1192525226 -0.0545336238 -5.3382e-06 0.000131815 0.0001889056 0.0002009339 -0.6910406741 0.4894175113
310298140.0 0.1185308298 -0.0567020768 0.0001635657 3.2175e-05 3.16205e-05 0.0002058793 -0.6863329474 0.4968253811
315298110.0 0.1174682197 -0.0583643401 7.19099e-05 0.0001633676 0.000174033 7.03389e-05 -0.6810874214 0.5039145533
320298080.0 0.116311152 -0.0602831489 7.60052e-05 0.0001032763 0.0002916263 7.13501e-05 -0.6763769968 0.5106434111
325298050.0 0.1146841999 -0.0619666155 0.00012933 6.7204e-06 7.89093e-05 3.81161e-05 -0.6705302383 0.518039978
330298020.0 0.1135312568 -0.0634700602 0.0001772071 0.0001894132 -8.451e-07 4.92412e-05 -0.6654153956 0.5243418742
335297990.0 0.111993017 -0.0649428946 4.7699e-05 0.0001831196 7.24167e-05 8.88285e-05 -0.6591989242 0.5320679023
340297960.0 0.1108632357 -0.0662140261 9.17957e-05 0.0001375318 0.0001645705 0.000254628 -0.6539969643 0.5383602255
345297930.0 0.1099622336 -0.0674241316 0.0003519756 -2.29257e-05 3.69909e-05 7.39186e-05 -0.6486195784 0.5446777608
350297900.0 0.1084975366 -0.0693277993 0.0001066529 9.68044e-05 8.46133e-05 9.54588e-05 -0.6435119066 0.5510418963
355297870.0 0.1074040756 -0.0706252996 2.54669e-05 -2.15812e-05 0.0002514945 0.000189957 -0.6368290076 0.5584190745
360297840.0 0.1061095678 -0.0717629096 0.0001567761 6.393e-06 0.0003350088 0.0002727496 -0.6307788717 0.5648490496
365297810.0 0.10509678 -0.0732538868 -5.19213e-05 4.77926e-05 0.0002890909 -7.83857e-05 -0.6253853609 0.570710177
370297780.0 0.1037958698 -0.0745963381 4.21551e-05 8.43399e-05 0.0001945493 0.0002576401 -0.6195550139 0.5775771356
375297750.0 0.1027546588 -0.0758458057 0.0001727146 7.87371e-05 5.13645e-05 9.85676e-05 -0.6131174056 0.5838153208
380297720.0 0.1014790915 -0.0765970739 8.49804e-05 -1.57712e-05 0.0002722374 0.0001726197 -0.6065392509 0.5901006905
385297690.0 0.1003521931 -0.0781174189 9.91798e-05 0.0001210164 2.72946e-05 0.0001524519 -0.6010232525 0.5966014737
390297660.0 0.0989901873 -0.0796729447 0.0003504485 1.90459e-05 7.6924e-05 2.1681e-06 -0.5943689389 0.6014734656
395297630.0 0.0978084722 -0.0807883265 9.875e-06 0.0002394912 0.0003090368 0.0001835356 -0.5876024462 0.6081777758
400297600.0 0.0963912715 -0.0817920253 0.0001564915 0.0001417048 8.95163e-05 0.0002210095 -0.582581571 0.614375832
405297570.0 0.0951152583 -0.0831352675 5.244e-06 -5.46295e-05 0.0001655735 0.00017639 -0.5750613889 0.6202332287
410297540.0 0.0941809216 -0.0844415033 0.0003084312 -5.76111e-05 5.5212e-05 0.0001548316 -0.5691378772 0.6261041145
415297510.0 0.0927102322 -0.0854219486 0.0002092963 -8.78652e-05 6.06248e-05 0.0002241698 -0.5629013899 0.6314977828
420297480.0 0.091198541 -0.0868132845 0.0001802965 9.27071e-05 -2.62198e-05 0.0001707852 -0.5561889232 0.637706814
425297450.0 0.0904644145 -0.0876989554 0.0002240234 4.9276e-05 0.0002978603 0.0001810869 -0.5497518681 0.6428074661
430297420.0 0.0888847947 -0.0888784284 0.000224814 0.0003579068 0.000213221 -2.82034e-05 -0.5430647695 0.6483405546
435297390.0 0.0876471456 -0.0899851836 0.0001203157 -1.0605e-06 0.0001263505 9.56136e-05 -0.5364449131 0.6543149905
440297360.0 0.0862562758 -0.0909131269 0.0002657834 0.0001471362 0.0002330558 -3.5763e-06 -0.5299655286 0.6597528574
445297330.0 0.0852250155 -0.0922592432 0.0002944374 8.91443e-05 0.0005461262 0.0001390435 -0.5230648172 0.6654112832
450297300.0 0.083977089 -0.0934375841 0.0002364906 0.0003218883 0.0002436606 1.90417e-05 -0.5161516938 0.6700506853
455297270.0 0.0826570565 -0.0939748644 0.0002962061 0.0001844144 0.0001852999 7.76844e-05 -0.509194723 0.6751524132
460297240.0 0.0812171684 -0.0950185347 0.0003292123 8.06396e-05 0.0004027104 0.0002077676 -0.5022233329 0.6799176323
465297210.0 0.0801498092 -0.0957016742 0.0001882748 2.82409e-05 0.0001873551 0.0003191555 -0.4955414438 0.6859062755
470297180.0 0.0787123871 -0.0968168033 0.0001667567 0.0002250345 0.0002699767 -0.0001264441 -0.4878060125 0.6904207794
475297150.0 0.0770974365 -0.0976637091 0.000252834 9.48863e-05 0.0002856991 0.0001320176 -0.4809671701 0.6955498737
480297120.0 0.0761212519 -0.0987814608 0.000125563 -6.6667e-05 0.0002639672 2.9766e-05 -0.4745183144 0.7000762677
485297090.0 0.0749235086 -0.0995265904 0.0002057264 1.14977e-05 0.0001505541 3.41829e-05 -0.4672676549 0.7051177623
490297060.0 0.0739109104 -0.1004257812 0.00033786 1.70246e-05 0.0003644929 0.0003146715 -0.4596308722 0.7092148259
495297030.0 0.0724446987 -0.1013366823 0.0001776669 0.000390944 6.83336e-05 0.0002506686 -0.4525049447 0.7138803512
500297000.0 0.0707608078 -0.1020674039 0.0003603685 0.0001463599 0.0002440699 0.000249605 -0.4454478097 0.7184533132
505296970.0 0.0695796578 -0.1028859962 -0.0002669254 4.81352e-05 0.0003034641 0.0001959199 -0.4372172919 0.72247656
510296940.0 0.0685507246 -0.1034234073 0.0002653006 0.0002113805 0.0001207373 0.0002233024 -0.4296838178 0.7276394023
515296910.0 0.0667966268 -0.103946943 0.0002178811 5.49583e-05 0.0003627818 -1.22392e-05 -0.4230963114 0.7311451776
520296880.0 0.0659715746 -0.1048880869 0.0003866014 0.0001994459 0.0001843188 0.000138639 -0.4154241252 0.7361376792
525296850.0 0.0645389108 -0.1056997911 0.0002049901 0.0001597206 9.81564e-05 -1.2635e-06 -0.4077384641 0.7395752395
530296820.0 0.0627862701 -0.1059127398 0.0005027466 -9.22321e-05 0.0001959159 3.3457e-06 -0.4004567717 0.743707449
535296790.0 0.0620530763 -0.1067233722 0.0005135829 -1.3033e-06 0.0001814327 0.0001651217 -0.393022259 0.7480411986
540296760.0 0.0605972457 -0.1073278485 0.0001470699 -4.74628e-05 0.0005270334 7.088e-07 -0.3849234739 0.7514637914
545296730.0 0.0589658963 -0.1076957803 0.0003349796 0.0001233277 0.0005079124 0.0001364586 -0.3774854069 0.7558852665
550296700.0 0.0581621837 -0.1083747169 0.0001393698 5.33541e-05 0.0001628357 0.0002416507 -0.3697539175 0.7593444628
555296670.0 0.0565706999 -0.1089849384 0.0004233208 6.50567e-05 0.0003915094 4.46539e-05 -0.362202567 0.7623066254
560296640.0 0.0553936397 -0.1093539782 0.0001317434 0.0002183845 0.0003041055 -8.01819e-05 -0.3541960422 0.7665221595
565296610.0 0.0537866927 -0.1098292006 0.0002729878 0.0002277048 0.0004457651 8.23958e-05 -0.3465129056 0.7694857414
570296580.0 0.0525017117 -0.1099940638 0.0003875244 7.39693e-05 0.000457297 -8.31232e-05 -0.3389980928 0.7733517951
575296550.0 0.0509982348 -0.1106733286 0.0002629491 0.0001633288 0.0002648903 -8.12564e-05 -0.3309261646 0.776033347
580296520.0 0.0498023854 -0.1108373101 0.0002465598 0.0002269032 0.0003880046 5.80959e-05 -0.3231134909 0.7795852032
585296490.0 0.0483633168 -0.1111114622 0.0003503109 -2.67722e-05 0.0005314753 0.0002106465 -0.315103752 0.7833881715
590296460.0 0.0471698928 -0.1113488862 0.0004282841 4.5675e-05 0.0003227756 6.8839e-05 -0.3077271292 0.785561591
595296430.0 0.0456316029 -0.1118641075 0.000404753 0.0001618266 0.0002585248 7.71496e-05 -0.2997387294 0.7892215901
600296400.0 0.0442398485 -0.1121111612 0.0004203689 -6.6637e-06 0.0003521438 0.0002310794 -0.2916642193 0.7917709135
605296370.0 0.0425799832 -0.1123799455 0.0003577524 0.0001080185 0.0002531822 9.86139e-05 -0.2838856691 0.7953382907
610296340.0 0.04161566 -0.1124194763 0.0003756319 0.0002587885 0.0003185513 6.29787e-05 -0.2759691095 0.7975721817
615296310.0 0.0400777014 -0.1127379117 0.0002782343 5.82107e-05 0.00037274 -2.8563e-05 -0.2673072537 0.8009737696
620296280.0 0.0388325285 -0.1126717926 0.0003147932 3.13002e-05 0.0003394041 -2.49328e-05 -0.2599738097 0.803315497
625296250.0 0.0371908399 -0.1128859578 0.0004349819 -5.30316e-05 0.0003249279 6.11517e-05 -0.2514442532 0.8050722342
630296220.0 0.035839773 -0.112995848 0.0004854544 -0.0001408457 0.0004337918 1.15222e-05 -0.2435256772 0.8079637256
635296190.0 0.0343992496 -0.1128375116 0.0002350549 -0.00010947 0.0002153408 1.17561e-05 -0.235446735 0.8100385382
640296160.0 0.03288432 -0.1132813259 0.0003901476 0.0001153531 0.000452204 0.0001769434 -0.2268623967 0.8125607517
645296130.0 0.0321814485 -0.1133135026 0.0002000567 -0.0001350407 8.39345e-05 3.80796e-05 -0.2194067086 0.8143082598
650296100.0 0.0302018116 -0.1133946819 0.0002923948 5.81801e-05 0.0003350202 -4.40629e-05 -0.2107181643 0.8168337781
655296070.0 0.0289004187 -0.1133123996 0.0001599959 0.0001746599 0.0002047219 0.0001232949 -0.2032846946 0.8190391994
660296040.0 0.0273769316 -0.1132578793 0.0003882295 -9.68235e-05 0.0004090467 0.0001363453 -0.193691951 0.8213606231
665296010.0 0.0257901214 -0.1132629839 0.0004239195 -0.0002319611 0.0005422256 -2.63765e-05 -0.1859220004 0.8223282807
670295980.0 0.0245375803 -0.113218861 0.0003846537 -6.00832e-05 0.0002320391 0.0001061868 -0.1783708886 0.8243228779
675295950.0 0.0227942573 -0.1133395169 0.0006198424 7.05123e-05 0.000301855 -6.87408e-05 -0.1697681623 0.8262946435
680295920.0 0.0212509268 -0.1131787707 0.0005041735 -3.05009e-05 0.0002500138 4.27177e-05 -0.1611276758 0.8278923382
685295890.0 0.0200882571 -0.1130601889 0.0002744334 0.0003175609 0.0005558662 5.03609e-05 -0.1529619003 0.8294784861
690295860.0 0.0184552184 -0.1129965641 0.0003032473 -5.46365e-05 0.0002810146 1.69737e-05 -0.1449546503 0.8313233395
695295830.0 0.0168115137 -0.1127992898 0.0003206225 3.52492e-05 0.0004086951 0.000149723 -0.136524342 0.8330020201
700295800.0 0.0157008694 -0.1125378536 5.10616e-05 0.0001248232 0.0004171307 2.40116e-05 -0.1281650999 0.8334852764
705295770.0 0.0140342788 -0.1123773957 0.0002624011 -0.0001178931 0.0004339474 8.48747e-05 -0.1200292394 0.8351891283
710295740.0 0.0126253091 -0.1121469517 0.0002143161 0.000302915 0.0005398601 -2.39568e-05 -0.1119595909 0.8363398953
715295710.0 0.0115640727 -0.1119275679 0.0005305675 6.87595e-05 0.0003354597 5.78811e-05 -0.1033765598 0.8366469012
720295680.0 0.0097433776 -0.1119716446 0.0005445708 9.50502e-05 0.000328333 -6.65986e-05 -0.0944388244 0.83786723
725295650.0 0.0080510335 -0.1115179794 0.0003156137 1.79891e-05 0.0002847913 8.0136e-06 -0.0869993285 0.8397269224
730295620.0 0.0064933378 -0.1115142977 0.000236569 0.0001292861 0.0003152889 8.03803e-05 -0.0784382659 0.83985744
735295590.0 0.0051552163 -0.1108708065 0.0005078768 -0.0001926866 0.0003321646 7.82263e-05 -0.0696937177 0.840077681
740295560.0 0.003462602 -0.1105547763 0.0001934157 -0.0001999523 0.0003746023 -0.0001587342 -0.0615814597 0.8413220562
745295530.0 0.0020798211 -0.1105990792 0.0002238553 1.13264e-05 0.0004998459 3.61824e-05 -0.0535076781 0.8415818472
750295500.0 0.0005884271 -0.1101232817 0.0003327063 0.0001205445 0.0003352133 6.59647e-05 -0.044697873 0.841975783
755295470.0 -0.001073453 -0.1096964711 0.0001807636 -2.6291e-06 0.0004112308 -0.0001174626 -0.0367153063 0.8427615697
760295440.0 -0.0023358838 -0.1091818761 0.0004976821 -6.3095e-06 0.0004834698 -8.07569e-05 -0.0280443657 0.842764409
765295410.0 -0.0037355003 -0.109246357 0.0002844312 -0.0001027232 0.00040396 -5.00034e-05 -0.019558401 0.8431071027
770295380.0 -0.0052752859 -0.1087000854 0.0003467421 -2.2841e-06 0.0003434403 -4.24123e-05 -0.0112161706 0.8435612882
775295350.0 -0.0068024214 -0.1085197528 0.00025788 -1.98017e-05 0.0001467484 -1.88469e-05 -0.0034760115 0.8431341915
780295320.0 -0.0082077461 -0.1079170049 0.000313817 -0.000209647 0.000355955 -0.0001567973 0.0054110076 0.8434842076
785295290.0 -0.0095161407 -0.107795053 0.0003479476 -0.0001989679 0.0004618984 -0.0002366203 0.0130132302 0.8436072828
790295260.0 -0.011184194 -0.1074097542 0.0004019032 -0.0001406594 0.0004655003 0.0001285039 0.0216189095 0.8434823581
795295230.0 -0.0124595434 -0.1071320725 0.0004390251 -0.0002837769 0.0002646954 -6.45746e-05 0.0299228342 0.8421421121
800295200.0 -0.0140380293 -0.1065268147 0.0001460694 -0.0002036191 0.0004988296 0.0001401169 0.0384865805 0.841797881
805295170.0 -0.0155506098 -0.1060378672 0.0006388735 -3.04302e-05 0.000392397 -0.0001603596 0.0475769466 0.8414861514
810295140.0 -0.0167101433 -0.1052466623 0.0002522612 0.0001352203 0.0003824442 -0.0001296015 0.056096276 0.8414371507
815295110.0 -0.0184330083 -0.1051408998 0.0005952031 -4.19035e-05 0.000454829 -0.0001863439 0.0633219443 0.8411434723
820295080.0 -0.0197911145 -0.1045854532 0.0004495414 -0.0001660345 0.0001640655 -3.19751e-05 0.0715197652 0.8401501326
825295050.0 -0.0214630862 -0.1046005525 0.0003582476 -0.0002466402 0.0002947568 -4.10399e-05 0.0799964165 0.8392808224
830295020.0 -0.0226116759 -0.1037126026 0.0003383049 -0.000279272 0.000457865 -0.0001021176 0.0882066217 0.8379469922
835294990.0 -0.0239775857 -0.1033876815 0.0001826602 -0.0001263051 0.0005842016 -0.0001181976 0.097017031 0.8378447391
840294960.0 -0.0253227233 -0.1027991491 0.0004224337 -8.91534e-05 0.0003186619 -0.0002595091 0.1055778627 0.8366879626
845294930.0 -0.0268219801 -0.1019771458 0.0005259316 -0.0001057952 0.0004267774 -3.9164e-05 0.113935985 0.8354298498
850294900.0 -0.0276543432 -0.1017351354 0.0005618848 -0.0001122006 0.000431701 -7.25488e-05 0.1214652626 0.8348896397
