!Created with skrf (http://scikit-rf.org).
# Hz S RI R 50.0 
!freq ReS11 ImS11 ReS21 ImS21 ReS12 ImS12 ReS22 ImS22
300000.0 -0.7758868362 -0.0988074302 -0.001644334 0.0021400428 0.0006274139 0.0004489291 -0.048900868 -0.0597658934
5299970.0 -0.7850174668 -0.0056523571 -1.34044e-05 7.8306e-06 6.65746e-05 2.02059e-05 -0.0498804409 0.0156325621
10299940.0 -0.7879224744 -0.0038519295 -2.86473e-05 -2.57009e-05 0.0001629518 1.0661e-05 -0.0440794868 0.0338216361
15299910.0 -0.7933227788 -0.001423956 -4.96036e-05 4.66117e-05 0.0001933103 -9.18751e-05 -0.0355860118 0.0481911682
20299880.0 -0.800393896 0.0022605044 -0.0002487308 0.0002606016 -7.79009e-05 8.60459e-05 -0.0252122485 0.059756832
25299850.0 -0.8066464532 0.0076840258 0.0001209274 -4.14677e-05 -0.0001481849 5.6489e-06 -0.0139097765 0.0691945028
30299820.0 -0.812697638 0.0158735646 1.23815e-05 -9.18431e-05 2.45784e-05 0.0001292006 -0.0023186521 0.0763470913
35299790.0 -0.8174617121 0.0249538008 -0.0002441726 0.0001942998 -5.297e-07 0.000142392 0.0091861368 0.0811531959
40299760.0 -0.8217491712 0.0337436903 0.0001696432 -1.56067e-05 -8.61541e-05 -5.3289e-05 0.0206163443 0.0834182401
45299730.0 -0.8247625494 0.0428806016 5.88653e-05 0.0001882443 -8.96191e-05 7.75322e-05 0.0315837403 0.0851780705
50299700.0 -0.8272348356 0.05332164 -9.00876e-05 -0.0001440586 2.74624e-05 -0.0001184122 0.0416434909 0.0847340943
55299670.0 -0.8291382782 0.063294929 5.83105e-05 -4.70791e-05 -0.0001013257 4.0525e-05 0.0509265268 0.0836221271
60299640.0 -0.8305098594 0.0733787756 5.8077e-05 0.0001270079 2.15211e-05 -9.4048e-05 0.0595809248 0.0816759868
65299610.0 -0.8309723365 0.0838280843 8.73728e-05 0.0001000532 0.0002641773 5.21805e-05 0.0671283213 0.0789364261
70299580.0 -0.8318635728 0.093665465 0.0002471103 0.0001804671 8.31764e-05 0.000146859 0.0741455034 0.0761768225
75299550.0 -0.8316741299 0.1042088925 -0.0001102432 3.60087e-05 -0.0002124502 -1.95988e-05 0.0803504699 0.0722780039
80299520.0 -0.8319870394 0.1135636356 -5.3644e-05 -0.0001740782 -0.000123234 3.64598e-05 0.0860347449 0.0690460531
85299490.0 -0.8311814468 0.1225503408 -0.0001702861 9.50468e-05 -5.08733e-05 -0.0001223423 0.0912469946 0.0650295697
90299460.0 -0.8301590804 0.1326389152 7.79262e-05 0.0001468737 0.0001673674 9.81677e-05 0.0956395291 0.0609699441
95299430.0 -0.8295861289 0.1420685599 -2.48522e-05 -0.0001251242 7.01249e-05 9.08409e-05 0.0996688236 0.0570156665
100299400.0 -0.8278127408 0.1510364949 -7.33978e-05 0.000147256 3.90644e-05 -2.75604e-05 0.103416493 0.052631406
105299370.0 -0.8271037207 0.160323413 4.54407e-05 0.0001103691 0.0001488959 5.47198e-05 0.1070091115 0.0488547316
110299340.0 -0.8249587308 0.1699254043 -0.0001795569 0.0001451066 -0.0002223704 0.0001006922 0.1094857531 0.0444590353
115299310.0 -0.8241935051 0.1787138011 -0.0001539301 9.06474e-05 -1.93304e-05 8.25155e-05 0.1125293628 0.0405715181
120299280.0 -0.8222566367 0.1871942528 -0.0001417316 0.0002330189 0.0001026557 -0.00014512 0.1145287941 0.0366867504
125299250.0 -0.820502442 0.1958603901 0.0001515064 -0.0001595645 0.00021331 2.3264e-05 0.116410031 0.032450656
130299220.0 -0.8190089471 0.205931733 -0.0001493179 -6.19759e-05 -3.09863e-05 0.0002199651 0.118226334 0.0285191027
135299190.0 -0.8172499413 0.2146297579 -7.64947e-05 0.0001313652 7.16433e-05 -3.68756e-05 0.1200389753 0.0251374009
140299160.0 -0.8149598831 0.2232823323 0.0001589453 6.24487e-05 0.0001286335 -1.83638e-05 0.1208150419 0.0213633399
145299130.0 -0.8125172544 0.2323895751 -7.92207e-05 -3.54449e-05 5.16802e-05 3.45625e-05 0.1221150526 0.0178021615
150299100.0 -0.8103157588 0.2407008114 7.80051e-05 3.45605e-05 0.0001435141 -0.0001524651 0.1229666627 0.014971096
155299070.0 -0.807819302 0.2494210602 -0.0001969858 -4.24702e-05 1.21598e-05 3.91747e-05 0.1241999817 0.0115249852
160299040.0 -0.8052113206 0.2584323714 0.0001167627 4.55623e-05 0.000161402 5.81579e-05 0.1240109847 0.0082805564
165299010.0 -0.8028729045 0.2672337668 0.0001617438 7.6024e-05 -2.31729e-05 -7.24599e-05 0.124725607 0.0046955726
170298980.0 -0.7998945659 0.275951996 -0.0001347223 6.66032e-05 -4.24744e-05 0.0001124974 0.1249041336 0.0016897334
175298950.0 -0.7970353773 0.2843448147 -5.59831e-05 1.70834e-05 2.46852e-05 0.0001531738 0.1253365246 -0.0014112159
180298920.0 -0.7946760589 0.2927126098 0.0001364926 0.0002104688 2.8866e-06 -0.0001155679 0.1252874641 -0.004273898
185298890.0 -0.7917944175 0.3010073569 -0.0001163102 0.0001413452 -8.10897e-05 -0.0001457597 0.1256176808 -0.007328723
190298860.0 -0.7883006686 0.3098223854 8.52474e-05 -1.41222e-05 -3.38318e-05 -0.0001670511 0.1256568067 -0.0100170234
195298830.0 -0.7852688643 0.3177889765 8.53979e-05 -1.9479e-05 0.0003273216 5.27471e-05 0.1252731586 -0.012881461
200298800.0 -0.7814088297 0.3262306192 -0.000147497 -0.0001633396 0.0001234109 8.58084e-05 0.1245711748 -0.0160302352
205298770.0 -0.778724179 0.3342813871 -3.5123e-06 -9.2486e-05 7.07721e-05 0.000159961 0.1244268933 -0.018563694
210298740.0 -0.7750438954 0.342767074 0.0001739333 -4.40254e-05 -6.57856e-05 0.0001123297 0.1243678989 -0.0210076964
215298710.0 -0.771842969 0.3508131584 -1.39762e-05 8.43275e-05 0.0002553122 -0.0001198306 0.1234140195 -0.0237368123
220298680.0 -0.7675126879 0.3587292166 3.94459e-05 2.57046e-05 3.14886e-05 -0.0001016637 0.1227827197 -0.0262913993
225298650.0 -0.7641107184 0.3665874839 -2.69531e-05 4.69532e-05 3.7373e-06 -7.65786e-05 0.1223207487 -0.0287040596
230298620.0 -0.7604641235 0.3744631253 8.69976e-05 0.0002354312 -7.12434e-05 -1.40716e-05 0.1214667708 -0.031083779
235298590.0 -0.755725406 0.3829746505 2.12595e-05 0.0001588021 3.2939e-05 -7.19968e-05 0.121190859 -0.0336525101
240298560.0 -0.7525108779 0.3910467809 0.0001524568 -1.519e-07 2.82061e-05 -6.1856e-06 0.1203696019 -0.035980988
245298530.0 -0.7486644272 0.3992769036 2.356e-06 0.0002360475 -0.0001350161 0.0001155696 0.1195128509 -0.038475309
250298500.0 -0.7441315402 0.4066438259 0.00020433 -8.11759e-05 -0.0001449641 7.04741e-05 0.1185970121 -0.040604172
255298470.0 -0.7392020462 0.4141411542 2.92937e-05 0.0002457788 0.0001339102 4.13238e-05 0.1178650372 -0.0431445748
260298440.0 -0.7356204001 0.4217071682 -6.80916e-05 0.0001202553 4.26572e-05 0.0001019556 0.1173928593 -0.045200151
265298410.0 -0.7309398549 0.4298762839 9.88264e-05 0.0002345758 -9.6249e-05 6.72274e-05 0.116546158 -0.0472874346
270298380.0 -0.7270284772 0.4373923264 7.41202e-05 9.33494e-05 2.3315e-06 1.78835e-05 0.1158108913 -0.0493970211
275298350.0 -0.7223017174 0.4451637963 -3.20843e-05 5.80375e-05 5.95251e-05 -4.57682e-05 0.1148243004 -0.0514016068
280298320.0 -0.717072771 0.4522893766 -0.000104299 -4.63512e-05 0.0001899727 -4.396e-06 0.1138553544 -0.0538730496
285298290.0 -0.7124127078 0.4604431915 0.0001136715 0.0002003529 0.0001435743 6.3292e-05 0.1129324358 -0.0557296559
290298260.0 -0.7076836264 0.4675950085 -4.03073e-05 6.06615e-05 -3.13748e-05 0.0001528939 0.1121138642 -0.0574782999
295298230.0 -0.7023091124 0.4743814516 -1.85548e-05 0.0002797165 0.0001922588 6.51212e-05 0.111317005 -0.0598094896
300298200.0 -0.6980546887 0.4818390844 0.000136392 -2.89484e-05 1.65196e-05 8.03728e-05 0.110263949 -0.0613020836
305298170.0 -0.6926176135 0.488190419 0.0001882177 -2.32706e-05 0.0002203537 2.73207e-05 0.1095465661 -0.0636433459
310298140.0 -0.6875391 0.4963742393 -1.08335e-05 0.0003595064 -3.98215e-05 8.01129e-05 0.108014224 -0.0659694259
315298110.0 -0.6826602792 0.5032976681 2.17152e-05 0.0001296713 1.22712e-05 0.0001756223 0.1068686903 -0.0675028916
320298080.0 -0.6773369808 0.5103077212 3.69261e-05 6.36374e-05 -0.0001646549 0.0001504877 0.105805337 -0.0691160659
325298050.0 -0.6719723915 0.5171471613 -0.0001073689 -5.1025e-06 5.51081e-05 2.38122e-05 0.1042145902 -0.0710106494
330298020.0 -0.6663064301 0.5242341463 9.37121e-05 9.26945e-05 -1.87389e-05 0.0001321821 0.1027118992 -0.072414911
335297990.0 -0.6606812549 0.5308726962 5.66035e-05 0.0001594243 8.71412e-05 7.81374e-05 0.1014621731 -0.0736691875
340297960.0 -0.6556872423 0.5379894897 -2.39975e-05 0.0001091981 0.0001778456 -3.38516e-05 0.100297412 -0.0750600229
345297930.0 -0.6497342959 0.544432317 0.0001512539 -6.0603e-06 0.0001501937 0.0001715732 0.0984732501 -0.0766461222
350297900.0 -0.6443980584 0.5515266467 -5.69162e-05 0.0001004009 0.0002607163 0.0001087203 0.0971453933 -0.0776671385
355297870.0 -0.6379043715 0.5581066997 0.0001125081 -5.09915e-05 0.0001432001 -0.0002184825 0.0957908954 -0.0792712004
360297840.0 -0.6325843066 0.564016472 5.04466e-05 6.67092e-05 3.52957e-05 -8.22016e-05 0.0944342385 -0.0807724989
365297810.0 -0.627562508 0.5706392542 -6.86235e-05 0.000199368 1.49431e-05 -7.86231e-05 0.093106959 -0.081843962
370297780.0 -0.620199809 0.5766420458 -6.2482e-05 0.0001919293 0.0002232653 -0.0001194411 0.0920430392 -0.0832497115
375297750.0 -0.6144034819 0.5832619019 -7.94234e-05 0.0001420294 0.0002208289 0.0002385842 0.0901590267 -0.0847555437
380297720.0 -0.6086531112 0.5893857943 9.5942e-06 5.14621e-05 0.0002342954 -3.50331e-05 0.0883467669 -0.0856308308
385297690.0 -0.6031768649 0.5960480477 3.21305e-05 -8.00489e-05 -6.63353e-05 0.0001245907 0.0874596731 -0.0869343113
390297660.0 -0.5967868451 0.6016116286 0.0001395531 0.0002345447 6.97149e-05 2.39973e-05 0.0854252247 -0.0880031412
395297630.0 -0.5898200363 0.6084812908 -0.0003167338 3.93811e-05 -0.0001249178 5.67861e-05 0.0844888618 -0.0891020367
400297600.0 -0.5837061563 0.6141311334 0.0002759241 -0.0002137633 0.0002460031 -1.966e-05 0.0828862188 -0.0905497388
405297570.0 -0.5781799025 0.6197828025 3.17096e-05 -0.0002033287 2.21876e-05 -3.38514e-05 0.0814080693 -0.091579076
410297540.0 -0.5706691593 0.625271524 7.9683e-06 -7.5719e-05 0.0002444877 0.0003153533 0.0798368011 -0.0925947957
415297510.0 -0.5641678839 0.6313622824 0.0002032225 7.93498e-05 0.0001100628 0.000185487 0.0780622047 -0.0939236472
420297480.0 -0.5591505739 0.6370300742 8.274e-05 -3.94672e-05 -3.24781e-05 6.84822e-05 0.0767042165 -0.0949982368
425297450.0 -0.5518577555 0.6427355914 0.00022528 0.0001423564 -0.0001206858 -8.31997e-05 0.0751968695 -0.0959050119
430297420.0 -0.5449621829 0.6486688698 0.0002027809 0.0001267565 0.0001983647 0.0002227769 0.0736807729 -0.097387365
435297390.0 -0.5383353494 0.6534287149 0.0001244973 -0.0001117673 -4.20236e-05 -0.0001142398 0.0725154574 -0.0983807493
440297360.0 -0.531507615 0.6588900822 0.0001210235 -7.8407e-05 0.0001018005 1.06494e-05 0.0707504202 -0.0990779263
445297330.0 -0.5249021184 0.6645216671 -0.0001607713 -2.415e-05 0.0001761306 -7.49776e-05 0.0695181464 -0.1007519309
450297300.0 -0.5175128564 0.6692342513 -0.0002216543 -7.97612e-05 -0.0001123671 0.0002714954 0.067387318 -0.101187992
455297270.0 -0.5115282873 0.6748817228 0.0001849549 0.0001064719 5.66138e-05 1.86619e-05 0.0659997349 -0.1021307199
460297240.0 -0.5045124254 0.6799610186 0.000195803 -4.55482e-05 0.0001831114 0.0001044084 0.0645444869 -0.1026906268
465297210.0 -0.4978505131 0.6851541645 0.0002617874 -9.14661e-05 0.0002136547 0.0002384177 0.0631875548 -0.104012164
470297180.0 -0.490129139 0.690094172 8.9362e-06 4.81e-05 2.76177e-05 2.366e-07 0.0615569801 -0.1046442987
475297150.0 -0.4832739867 0.6949802184 0.0002043766 -6.74781e-05 7.97555e-05 0.0001841151 0.0600500077 -0.1056580035
480297120.0 -0.4758533831 0.6994917797 0.0002446005 -4.9196e-06 0.0002041678 7.6563e-06 0.058486682 -0.106067638
485297090.0 -0.4690508672 0.7046503381 -4.10778e-05 0.0001423188 0.0003571644 3.40354e-05 0.0569368153 -0.1068189875
490297060.0 -0.4618775083 0.7088471512 0.000183395 0.00027271 7.94673e-05 0.0001213729 0.0554021001 -0.1077534186
495297030.0 -0.4542299385 0.7131277481 8.63727e-05 -5.0005e-05 1.09736e-05 -0.0001741994 0.0537066266 -0.1080665109
500297000.0 -0.4471809037 0.7177282991 6.89483e-05 6.26418e-05 3.76504e-05 -3.80613e-05 0.0523035496 -0.1087048285
505296970.0 -0.4399786848 0.7228642928 0.0002291195 -0.000170494 8.9121e-05 5.0537e-06 0.0503690147 -0.1092655165
510296940.0 -0.4327421561 0.7266366262 0.0002062092 -5.036e-07 7.12018e-05 2.67324e-05 0.0489051441 -0.1098364654
515296910.0 -0.4241912184 0.7305199515 -2.00798e-05 0.0001545741 0.0001799897 6.6859e-05 0.0474563275 -0.1103632141
520296880.0 -0.41853238 0.735415535 -7.97772e-05 0.0001796291 -2.06258e-05 0.0001137692 0.0454470822 -0.1108848829
525296850.0 -0.4096279535 0.7389933398 0.0002581228 0.0001658013 0.0001577331 0.0001098751 0.0440830025 -0.1109638853
530296820.0 -0.4025321265 0.7431802555 0.0001751367 0.0001903547 5.12915e-05 8.70615e-05 0.0423684417 -0.111700848
535296790.0 -0.3955654173 0.7471435351 9.57283e-05 0.000166308 0.0002906508 4.55259e-05 0.0404010468 -0.1123659515
540296760.0 -0.3881131802 0.7511980679 0.0001338516 -2.79249e-05 -4.4824e-05 -0.0001238196 0.0388600347 -0.1124091573
545296730.0 -0.3804896808 0.7555181449 4.06687e-05 2.14111e-05 0.0002448683 0.0003172747 0.0371434523 -0.1131664792
550296700.0 -0.3726967584 0.7594696031 0.0001241758 2.59639e-05 7.55688e-05 2.18382e-05 0.0353516942 -0.1134722891
555296670.0 -0.3642312997 0.7619731593 0.0001561236 7.66171e-05 8.82928e-05 0.0001871759 0.0340137524 -0.113644639
560296640.0 -0.3574320806 0.7664743947 0.0002222336 -2.27657e-05 2.39348e-05 -0.0001105628 0.0321794146 -0.1138935745
565296610.0 -0.3493433947 0.77022313 0.0001143654 -4.39505e-05 0.0002055809 0.0001778175 0.0303476335 -0.1143151157
570296580.0 -0.3415289359 0.7732365791 7.57773e-05 1.91504e-05 0.0002965138 -4.15705e-05 0.0282261566 -0.1145167999
575296550.0 -0.3341511168 0.7762819898 9.52899e-05 -0.0001692776 0.0002540065 0.0002075208 0.0267280766 -0.1149293561
580296520.0 -0.3255612864 0.7794842162 4.01061e-05 -0.0001164114 3.63362e-05 1.5138e-05 0.0250576253 -0.1153903705
585296490.0 -0.3190416307 0.7829256617 7.86072e-05 -6.249e-05 4.1969e-05 -6.83101e-05 0.0236266528 -0.1158580252
590296460.0 -0.3103904715 0.7857350552 0.000428237 -0.0001342849 0.0001380755 -6.095e-07 0.0214928187 -0.115759554
595296430.0 -0.3022195007 0.7884570284 0.0001515781 2.66037e-05 7.24076e-05 -8.84794e-05 0.0197253359 -0.1159959887
600296400.0 -0.2944305392 0.7919495025 1.73816e-05 0.0001538482 0.0001932788 0.0001295811 0.0178755454 -0.1162246777
605296370.0 -0.2869741915 0.7947553341 0.0001840606 -5.21856e-05 0.0001527621 -3.10057e-05 0.016579497 -0.1164913379
610296340.0 -0.2782602834 0.7968710638 0.0001070503 2.13073e-05 0.0001771381 1.36085e-05 0.0149341885 -0.1165184917
615296310.0 -0.2699276153 0.8003130314 0.0003830982 0.000119596 0.0001839354 8.80624e-05 0.0133228465 -0.1168049978
620296280.0 -0.2627076101 0.8024842739 0.0001068251 4.45652e-05 -8.75955e-05 -9.1681e-06 0.0117651246 -0.1167292892
625296250.0 -0.2545359627 0.8056709975 8.36056e-05 -7.32679e-05 0.0001721313 0.0001447124 0.0103040863 -0.1169863865
630296220.0 -0.2455280278 0.807478075 0.0002364237 5.80588e-05 0.0002287313 5.1495e-05 0.0081637121 -0.1167721178
635296190.0 -0.2382037903 0.8107907274 8.60997e-05 7.82938e-05 3.48368e-05 5.39529e-05 0.006935649 -0.1171119021
640296160.0 -0.2306418119 0.8124508506 6.92747e-05 -0.0002747234 0.0002193522 -3.44692e-05 0.004993248 -0.1170839104
645296130.0 -0.2222186418 0.8152400465 0.0002645897 2.59622e-05 0.0002144365 3.99319e-05 0.0033664144 -0.1169355438
650296100.0 -0.2142634675 0.8169425691 9.91986e-05 -0.0001709766 8.33701e-05 2.90672e-05 0.0019391641 -0.1169355487
655296070.0 -0.2056359142 0.8189531146 9.75501e-05 -0.000105874 7.57931e-05 -4.43202e-05 0.0005903749 -0.1167037474
660296040.0 -0.1973057453 0.8203540083 0.0002123813 -0.0001262112 3.91308e-05 -0.0001115614 -0.0014642646 -0.1167970848
665296010.0 -0.1894727717 0.8226102764 -1.75589e-05 8.8264e-06 0.0002325559 7.5011e-05 -0.003109362 -0.1162230975
670295980.0 -0.1815157488 0.8242705336 7.3789e-05 -6.40058e-05 0.000132041 -3.10708e-05 -0.0048237371 -0.1159820858
675295950.0 -0.172911834 0.826080741 -2.14593e-05 -0.000233383 0.0002398772 -0.0001432053 -0.0064054906 -0.1155385588
680295920.0 -0.1645505471 0.8278225476 0.0001570702 1.61598e-05 0.0001350165 7.10584e-05 -0.0081276741 -0.1157024055
685295890.0 -0.1563193724 0.8302482845 0.0001720416 1.45653e-05 0.0002075579 2.36061e-05 -0.0095324494 -0.1151396877
690295860.0 -0.1485032635 0.8307168562 0.0001290241 0.000163512 0.0002091793 -0.0001511243 -0.0112437961 -0.114438335
695295830.0 -0.1401682497 0.8323338409 4.59091e-05 3.31705e-05 0.0001477101 -0.0001982831 -0.0129610038 -0.1143819186
700295800.0 -0.1313475959 0.833708901 0.0004450373 0.0001716765 -8.89769e-05 -0.0002850624 -0.0147348975 -0.1139011702
705295770.0 -0.123599079 0.8349122902 0.0002952198 -4.20175e-05 9.26805e-05 -1.89728e-05 -0.0163868961 -0.1131256418
710295740.0 -0.1157943197 0.8364733998 0.0001224681 -8.835e-07 0.0002787819 -3.13143e-05 -0.0180701625 -0.1131846548
715295710.0 -0.1065740396 0.8378036688 -7.28971e-05 1.11334e-05 3.36262e-05 4.16113e-05 -0.0196941605 -0.1127376109
720295680.0 -0.0981300018 0.8385913959 0.0002457552 -0.0002543845 2.5388e-06 -2.16754e-05 -0.0210312954 -0.1121953862
725295650.0 -0.0903584191 0.8392508322 -9.195e-07 -0.0002265629 -5.7832e-05 0.0001015966 -0.0233764039 -0.1117548815
730295620.0 -0.0812809374 0.8397107284 0.0002447903 -5.75142e-05 0.0003009459 -9.72522e-05 -0.0249378639 -0.1114060666
735295590.0 -0.0736430115 0.8411405048 9.94063e-05 0.0001397016 0.0001035036 -0.0001820173 -0.0266199789 -0.1112660246
740295560.0 -0.0649791835 0.8424291069 0.0001672084 -3.1527e-05 0.0001382622 -2.24691e-05 -0.0278959091 -0.1102825194
745295530.0 -0.0572836526 0.8426983467 0.0002562573 -0.0001963634 0.0001643647 -2.13866e-05 -0.0298022508 -0.1098829145
750295500.0 -0.0480781438 0.8429114767 0.0003822714 -5.951e-06 7.87985e-05 -0.0001069351 -0.0310891244 -0.1095152146
755295470.0 -0.0399510564 0.8428468059 -5.29309e-05 -0.0001068595 0.00016457 -3.20147e-05 -0.0328649022 -0.1094697491
760295440.0 -0.0323094467 0.842802093 -2.10425e-05 0.0002524733 2.86398e-05 6.78543e-05 -0.0348630524 -0.1087145847
765295410.0 -0.023496775 0.8442477412 -0.0001454035 -0.0001082906 0.000177099 5.37459e-05 -0.0358927321 -0.1080309413
770295380.0 -0.0158840437 0.843866973 0.0001390549 6.04821e-05 0.0001857958 -0.000160117 -0.0382226635 -0.1076411919
775295350.0 -0.0070195959 0.8440807718 0.0001103299 -5.26206e-05 0.0002942227 0.0001512794 -0.0395812409 -0.1068033556
780295320.0 0.0017715072 0.8443301817 0.0001345688 0.0001873317 -5.7244e-06 -0.0001622652 -0.0408329284 -0.1060945302
785295290.0 0.0092231272 0.8436170393 0.000338119 -1.1845e-05 0.0002020391 3.5836e-05 -0.0422809265 -0.1058337519
790295260.0 0.0185815673 0.8436506343 0.0002774148 5.36183e-05 0.0003268779 1.32282e-05 -0.0432279548 -0.1052274047
795295230.0 0.0263152923 0.8436065263 0.0002628078 5.84155e-05 0.0002775187 1.56863e-05 -0.0450453086 -0.1044224292
800295200.0 0.0342307186 0.8427724677 7.59651e-05 -0.0001548259 0.0001378811 1.21859e-05 -0.0466342662 -0.1034880442
805295170.0 0.0431818093 0.8431678971 0.0002377122 5.74871e-05 8.11222e-05 2.77506e-05 -0.0485521907 -0.1027866406
810295140.0 0.0516246242 0.8422961722 2.61833e-05 8.9124e-06 8.24469e-05 -0.0001311554 -0.0489360277 -0.102176284
815295110.0 0.0598642687 0.8415856885 0.0004081033 9.27857e-05 0.0003403822 -0.0002258012 -0.0508544386 -0.1011615689
820295080.0 0.0680859727 0.8409238568 0.0002013485 8.75143e-05 0.0001568531 7.85563e-05 -0.052225336 -0.1004764884
825295050.0 0.077167085 0.8400792115 0.0001718477 -0.0002412602 0.0001068657 0.000113233 -0.0534884064 -0.0994797646
830295020.0 0.0844576531 0.839747541 5.70893e-05 -0.0002530117 0.0001004577 -0.0002106744 -0.0547182142 -0.0988911038
835294990.0 0.0924863896 0.8388370292 0.0002018088 -4.81082e-05 -0.0002432809 7.45303e-05 -0.0566842026 -0.0978350417
840294960.0 0.1009342531 0.8383114917 0.0003511742 2.48565e-05 0.0002234431 -0.0002049058 -0.0576048644 -0.0968133178
845294930.0 0.1088801247 0.8361749702 9.03639e-05 -3.48924e-05 0.0001355691 -4.93662e-05 -0.059053306 -0.0957498519
850294900.0 0.1177649491 0.8359597979 0.0003166383 -2.25516e-05 0.0002424269 4.87814e-05 -0.060791301 -0.0948237773
