!Created with skrf (http://scikit-rf.org).
# Hz S RI R 50.0 
!freq ReS11 ImS11 ReS21 ImS21 ReS12 ImS12 ReS22 ImS22
300000.0 -0.7751880363 -0.1786248599 -0.003475855 0.0014095941 -0.0017661145 0.0020855045 -0.7608925102 -0.1818143544
5299970.0 -0.786205619 -0.0094331955 -6.48606e-05 -6.23261e-05 -8.55479e-05 0.0001430228 -0.7847546761 -0.0090811685
10299940.0 -0.7891011566 -0.0058334887 0.0001376414 -0.0001774327 -8.25958e-05 0.0002396457 -0.7875006358 -0.0051102897
15299910.0 -0.7945261454 -0.0034184556 0.0001060357 -8.82253e-05 -9.9274e-06 5.16017e-05 -0.7927705619 -0.0025539982
20299880.0 -0.8014871734 0.0008092928 0.0001036813 3.72245e-05 7.60794e-05 1.65741e-05 -0.7993950132 0.0016282644
25299850.0 -0.8074421165 0.0069727916 0.0002120291 7.347e-06 3.37631e-05 -0.0001824521 -0.806044232 0.0076927264
30299820.0 -0.8137412354 0.0140835152 0.0002017413 -3.5146e-06 -1.87382e-05 -0.0001900761 -0.8119039878 0.0158865205
35299790.0 -0.8184258848 0.0231943675 0.0001255752 7.00555e-05 2.47757e-05 0.0001818045 -0.8169550772 0.0244898749
40299760.0 -0.8236622629 0.0319579521 -7.58262e-05 -9.44739e-05 -1.71449e-05 -3.04834e-05 -0.8215164487 0.033659285
45299730.0 -0.8267905908 0.0415744621 -0.0001516696 1.84348e-05 8.32716e-05 -0.0001056573 -0.8245322521 0.0435538139
50299700.0 -0.828860892 0.0520250554 4.71765e-05 -4.54445e-05 2.932e-06 -0.0003071854 -0.826302258 0.0535742447
55299670.0 -0.8310992541 0.0614679385 0.0001008402 -0.0001150728 0.0001112886 -0.0002039576 -0.8286367099 0.064098668
60299640.0 -0.8323249069 0.0716203133 0.000103281 9.81736e-05 -4.48442e-05 -3.70739e-05 -0.8294284517 0.0740191891
65299610.0 -0.8334444164 0.081984775 7.6145e-05 -0.0001460361 -5.38285e-05 -0.0003438042 -0.8303220902 0.0837032161
70299580.0 -0.8335506977 0.09171629 -4.44953e-05 3.61097e-05 -0.0001029021 -8.77036e-05 -0.8313182415 0.0934947769
75299550.0 -0.8342089332 0.1016438349 -1.19644e-05 -3.08826e-05 0.000111099 -7.18657e-05 -0.83098818 0.1044414544
80299520.0 -0.8342859029 0.1120394282 4.69347e-05 -6.08269e-05 -2.7716e-06 0.0001942011 -0.8306823554 0.1137759012
85299490.0 -0.8327625238 0.1214229663 3.88629e-05 0.0001476935 -0.0001102527 -1.84144e-05 -0.8300661576 0.1233811078
90299460.0 -0.8323177683 0.1311271181 -0.0001267711 -4.5709e-06 -3.54751e-05 -2.36225e-05 -0.8287112133 0.1329529079
95299430.0 -0.8316609843 0.1407829172 -0.0001914393 2.73424e-05 -4.02503e-05 -2.38597e-05 -0.82801493 0.1425193968
100299400.0 -0.8306038848 0.1497782291 -0.0001600229 -3.31944e-05 -5.67688e-05 -3.119e-06 -0.8272391257 0.1516767296
105299370.0 -0.8283624876 0.1591271071 6.98245e-05 0.0001467052 8.95904e-05 -8.54067e-05 -0.8259859905 0.1611218297
110299340.0 -0.8275850746 0.1679798173 0.0001295248 -8.8034e-05 0.0001870942 9.73454e-05 -0.8246151846 0.1699568993
115299310.0 -0.8260397968 0.1777460542 6.78929e-05 -1.33155e-05 8.6409e-06 3.87386e-05 -0.8232331764 0.1790771531
120299280.0 -0.8245387011 0.1869126445 0.000133774 -0.0002497937 3.78611e-05 -9.43529e-05 -0.820911051 0.1877002497
125299250.0 -0.8225337698 0.1957296413 -0.0001521557 4.91297e-05 -0.0001030231 2.9854e-05 -0.8198150283 0.197176438
130299220.0 -0.8210147564 0.2054256023 -2.74954e-05 -0.0001568772 0.0001078166 2.77196e-05 -0.817138512 0.2058125789
135299190.0 -0.8189992637 0.2140320203 0.00011317 6.86501e-05 -4.34692e-05 -4.90384e-05 -0.8157313887 0.214918876
140299160.0 -0.817059024 0.2236382768 0.0001230841 0.0001015325 1.20615e-05 -8.15104e-05 -0.8139246329 0.2233449408
145299130.0 -0.8145788088 0.232268465 -7.13779e-05 -7.68409e-05 -4.87893e-05 -3.6532e-06 -0.8117420671 0.2327551984
150299100.0 -0.811818234 0.2407957961 -6.91258e-05 -8.35274e-05 -7.23152e-05 -0.0002719847 -0.8089910556 0.241633824
155299070.0 -0.8097954004 0.2498684774 1.00701e-05 2.05947e-05 -9.0054e-06 2.18979e-05 -0.8072239427 0.2506475169
160299040.0 -0.8076844998 0.2589591148 -0.0001895247 -0.0001833938 -9.43728e-05 -0.0001167782 -0.804561385 0.2591462081
165299010.0 -0.8043688845 0.2675718515 -6.27491e-05 0.0001389587 -4.4766e-06 6.48831e-05 -0.8015003197 0.2674456607
170298980.0 -0.8018378277 0.2762043253 -0.0001069081 -1.46247e-05 4.78737e-05 -0.000127296 -0.7991174454 0.2758204654
175298950.0 -0.7987483173 0.2846999864 -5.83941e-05 0.0002663156 -5.63956e-05 -4.76324e-05 -0.7960719867 0.2847817527
180298920.0 -0.7961053028 0.2933972257 7.53877e-05 -0.0001672332 -5.8926e-06 8.93345e-05 -0.7932157738 0.293337711
185298890.0 -0.7927387043 0.3023063192 -0.0001240638 7.85e-05 -6.40634e-05 -0.0001308475 -0.7900726637 0.3016171889
190298860.0 -0.7895967338 0.3111662855 -3.95401e-05 5.3468e-05 1.55931e-05 -0.0002382343 -0.7870771168 0.3102626899
195298830.0 -0.7867530548 0.3194669218 1.6464e-05 -5.46634e-05 -6.7099e-05 -0.0001375159 -0.7837771751 0.3181699026
200298800.0 -0.7827942799 0.3276121508 -0.0001492073 -4.3169e-05 1.3489e-06 -1.04947e-05 -0.7807249256 0.326467426
205298770.0 -0.7797324155 0.3361657627 1.49193e-05 -0.0001325821 -1.9324e-06 -1.1905e-06 -0.7773603227 0.3349505906
210298740.0 -0.7763360964 0.3446086235 -0.00034326 -3.23957e-05 0.0001502544 0.0001807675 -0.7738627435 0.3433985782
215298710.0 -0.7724665864 0.3529741477 -8.99615e-05 -0.0003704344 -7.7697e-05 -8.32876e-05 -0.7707802505 0.3512756993
220298680.0 -0.7687140625 0.3605895449 7.16153e-05 3.41757e-05 0.0001015968 -0.0001095524 -0.7667182408 0.3592896808
225298650.0 -0.7646242106 0.3697437129 -5.31258e-05 -0.0001311109 -0.000113668 -9.5056e-06 -0.7633488245 0.36708607
230298620.0 -0.7609963295 0.378202224 -0.0001432424 7.44705e-05 -4.13054e-05 0.0001227118 -0.7588606566 0.3753302886
235298590.0 -0.7568659191 0.3862452952 5.10764e-05 -2.1563e-06 -0.0001261509 7.08529e-05 -0.7549962581 0.3831655721
240298560.0 -0.752662729 0.3934217363 -0.0001230291 -0.0001202397 1.65669e-05 2.09024e-05 -0.7510757612 0.3909954663
245298530.0 -0.7486630967 0.4016862819 7.88652e-05 -0.0001329361 -0.0001179264 4.4954e-05 -0.7470466577 0.3991341349
250298500.0 -0.7448058334 0.4090696787 6.22493e-05 0.0001952122 -1.75583e-05 -0.0002522417 -0.7428178964 0.4069927963
255298470.0 -0.7402659358 0.417356671 -5.48329e-05 0.0001179032 1.20204e-05 0.00011238 -0.738553386 0.4150332811
260298440.0 -0.736216075 0.4250960698 4.74789e-05 -3.20204e-05 0.0001027599 -0.0001228452 -0.7340053706 0.4219854219
265298410.0 -0.7315744584 0.4325351107 4.80592e-05 0.0002259378 -0.0001368098 -0.0001057001 -0.7296957342 0.4300102181
270298380.0 -0.7268460733 0.4410889649 1.22585e-05 -4.3549e-06 -2.0119e-05 -8.70992e-05 -0.725327218 0.4382262272
275298350.0 -0.7233771153 0.4481671928 -0.0001457282 5.41635e-05 0.0002197693 -0.0001435493 -0.7202299798 0.4454959948
280298320.0 -0.7179726693 0.4557066686 -0.0001557133 -0.0001664889 -3.43209e-05 0.0001037453 -0.7163960285 0.4526570133
285298290.0 -0.7132822717 0.4634283039 9.54594e-05 -0.0001546792 7.78436e-05 0.0002630236 -0.7117430574 0.460546508
290298260.0 -0.7085357906 0.4710074175 9.25245e-05 -9.01824e-05 -7.1014e-05 -2.71365e-05 -0.7066574689 0.4677159616
295298230.0 -0.7039066678 0.4781816431 9.32132e-05 6.24361e-05 1.01801e-05 6.58779e-05 -0.7016951612 0.4746605164
300298200.0 -0.6994993391 0.4857380807 0.0001365302 -0.0001157529 4.49487e-05 -0.0002401686 -0.6966697271 0.4825121095
305298170.0 -0.6942983202 0.4923572558 -0.0001045386 4.18783e-05 -0.0002364781 -5.32694e-05 -0.691333919 0.4898975885
310298140.0 -0.688991632 0.4994269701 -6.65268e-05 -0.0001157141 1.02195e-05 5.93144e-05 -0.6868857309 0.4968970807
315298110.0 -0.6844907221 0.507201247 0.0001830455 6.9713e-06 -8.73396e-05 -0.000120547 -0.6809222383 0.5038749344
320298080.0 -0.6789180578 0.5143738266 -1.3111e-05 0.0001192586 -0.0001345956 2.00076e-05 -0.6758538768 0.5107322453
325298050.0 -0.6735063683 0.521077568 0.0001147715 6.796e-05 8.53846e-05 6.28453e-05 -0.6702965197 0.5178118396
330298020.0 -0.6684452014 0.5279383122 -4.86982e-05 4.27722e-05 0.0001151157 -4.7439e-05 -0.6651163578 0.5246729687
335297990.0 -0.6628232309 0.5347734073 -7.28031e-05 -2.06226e-05 4.446e-05 -4.75867e-05 -0.6595527807 0.5316512752
340297960.0 -0.6575503138 0.5416176324 8.79412e-05 1.1166e-06 -1.89316e-05 -3.4677e-06 -0.6540285836 0.5385719767
345297930.0 -0.6517200888 0.548240819 -0.000138957 -0.0002458676 -4.59699e-05 4.87481e-05 -0.6487351178 0.5451576785
350297900.0 -0.6460308462 0.5550669021 -3.64595e-05 0.0001035876 -5.64698e-05 0.0001102979 -0.643029081 0.5513245819
355297870.0 -0.6407198321 0.5616020951 8.0919e-05 0.0001257251 6.91691e-05 -0.0001201615 -0.6369218607 0.5588644422
360297840.0 -0.6345413935 0.5684450088 0.0001258662 6.45673e-05 9.64479e-05 -0.0001318481 -0.630542534 0.565070121
365297810.0 -0.6294536084 0.5743484254 -0.0001127451 0.0001737631 0.0001811924 8.6126e-06 -0.6256123189 0.5709690903
370297780.0 -0.6232129844 0.5808091956 6.81012e-05 0.0001188419 9.94406e-05 1.59567e-05 -0.6194888098 0.5776613142
375297750.0 -0.6178756042 0.5877214716 -1.30803e-05 8.65623e-05 8.39309e-05 5.5254e-05 -0.6132714185 0.5841278072
380297720.0 -0.6123365306 0.593654813 -0.0001102369 -6.98358e-05 -0.0001015104 -7.9527e-05 -0.6066079678 0.5905153607
385297690.0 -0.6058145376 0.5999825253 0.0001389388 -9.15226e-05 0.0001195538 3.379e-07 -0.6010329523 0.5967284526
390297660.0 -0.5982327111 0.6055519089 -5.97369e-05 8.0498e-06 4.89808e-05 -5.067e-07 -0.594376186 0.6024911275
395297630.0 -0.5932922123 0.6121702612 0.0002551259 0.0002177139 -3.23089e-05 0.0001377801 -0.5880831046 0.6075189639
400297600.0 -0.5863356523 0.6188447316 8.22048e-05 -6.7406e-05 -7.67347e-05 0.0001278954 -0.5826114907 0.6139726642
405297570.0 -0.5805250087 0.6233958612 0.000188227 0.0001247722 5.37405e-05 0.0001453074 -0.5755050115 0.6198792016
410297540.0 -0.5737825571 0.6299580515 0.0001527018 0.0001085864 -7.76508e-05 -8.51206e-05 -0.5698337675 0.6259280085
415297510.0 -0.5677242225 0.6355046968 -3.74048e-05 0.0001785672 2.28418e-05 -1.02243e-05 -0.5630382588 0.6311361255
420297480.0 -0.5608707847 0.6409558472 -7.60022e-05 9.08758e-05 -0.0001023265 4.92516e-05 -0.5559969098 0.638131092
425297450.0 -0.554342631 0.6466887208 3.53354e-05 7.4174e-05 7.2783e-06 -4.46375e-05 -0.5497842285 0.6426749202
430297420.0 -0.5478714284 0.6521244178 -0.0001049935 3.882e-06 -0.0001554823 4.67348e-05 -0.543640652 0.6481402447
435297390.0 -0.5412120421 0.6576257471 5.28267e-05 -6.40324e-05 0.0001235703 -0.0001011494 -0.5369587595 0.6538092357
440297360.0 -0.533931503 0.6629010842 -0.0001797655 0.0001265833 -0.0001406814 7.73957e-05 -0.530041724 0.6595937938
445297330.0 -0.5265795679 0.6682240744 -0.0002195849 -0.0001859491 -4.26361e-05 -0.0001737556 -0.5227300501 0.6646755546
450297300.0 -0.5201348801 0.6734600974 5.53973e-05 -7.81956e-05 -0.0002226975 -2.88584e-05 -0.5153958558 0.6698501248
455297270.0 -0.5136467867 0.6785199646 6.62652e-05 0.0001729151 1.34715e-05 7.31447e-05 -0.5090112802 0.6752238582
460297240.0 -0.5056508349 0.6842850566 -0.0002217508 -7.4701e-05 -7.07501e-05 -4.8878e-06 -0.5023737965 0.6796877511
465297210.0 -0.4991620228 0.6890719736 -8.37423e-05 -3.36862e-05 8.95416e-05 0.0001556652 -0.4951777858 0.6857800921
470297180.0 -0.4915943803 0.6940075569 -0.0001017052 6.05112e-05 7.61885e-05 -4.73236e-05 -0.4877722367 0.6903849284
475297150.0 -0.4851842859 0.6991704419 -7.9861e-06 -0.0002329393 -1.63818e-05 0.0001495338 -0.481176579 0.6953062257
480297120.0 -0.4768187664 0.7041832713 -5.68305e-05 8.41105e-05 8.09058e-05 -0.0001351866 -0.4741859414 0.7004032813
485297090.0 -0.4698922299 0.7084689648 -4.99746e-05 0.0001484595 5.9546e-06 -5.7917e-05 -0.4670241969 0.7045380466
490297060.0 -0.4620977483 0.7135788838 -6.04047e-05 -7.55329e-05 -1.07105e-05 -4.00667e-05 -0.459873772 0.7091296618
495297030.0 -0.4548143933 0.7183474091 0.0002527911 -9.7808e-05 -6.8751e-05 -0.0001206022 -0.4520855809 0.7133988858
500297000.0 -0.446967162 0.7225200477 8.86961e-05 -4.59141e-05 0.0001596925 -0.0001032649 -0.4449662555 0.7181963558
505296970.0 -0.4394451651 0.7271476671 -1.35497e-05 -6.39528e-05 -3.95257e-05 -0.0001108612 -0.4375502914 0.7228329228
510296940.0 -0.4317456739 0.7315777154 1.46864e-05 -0.0001409336 -3.85374e-05 7.93061e-05 -0.429587969 0.7275302613
515296910.0 -0.424126282 0.7358385846 6.65798e-05 0.0001037202 2.73779e-05 -0.0001475862 -0.4227279278 0.7312729898
520296880.0 -0.4163801868 0.7400135927 -2.89642e-05 -6.53136e-05 5.05923e-05 3.1007e-05 -0.4151176932 0.7361051432
525296850.0 -0.4084036697 0.7439415807 -0.0001303473 0.0001078996 0.0002629996 -0.0001010909 -0.4081977756 0.739801804
530296820.0 -0.4016490728 0.7483617682 -0.0001797654 0.0001487277 0.0001359527 -8.64161e-05 -0.4006104733 0.743517718
535296790.0 -0.3928038341 0.7514508348 4.09463e-05 -0.0001150618 -6.7422e-05 -5.98769e-05 -0.3927479935 0.7484027416
540296760.0 -0.3849171376 0.7560479443 5.4806e-06 -6.96246e-05 -1.28648e-05 8.48586e-05 -0.3851743412 0.7513600291
545296730.0 -0.3772351983 0.7602130556 -0.0001181408 2.18764e-05 -0.0001847493 -8.0142e-05 -0.3775798142 0.7555676449
550296700.0 -0.3692479945 0.7633360413 3.08875e-05 -0.0002119695 1.13869e-05 3.5803e-05 -0.3702932508 0.7595742637
555296670.0 -0.3614919191 0.7671710289 0.0001863206 -0.0001514697 -1.09255e-05 0.00022744 -0.3620372457 0.7623338986
560296640.0 -0.353258865 0.7705545169 9.89357e-05 -9.802e-06 -0.0001227725 7.25509e-05 -0.3543255976 0.766529623
565296610.0 -0.3451252832 0.7741074274 -1.54719e-05 0.0001495662 9.14474e-05 -5.45097e-05 -0.3464084684 0.7701437388
570296580.0 -0.3371672752 0.7779166025 6.7557e-05 8.9325e-05 0.0001147327 -5.01384e-05 -0.3391090444 0.7729888328
575296550.0 -0.327979114 0.7813121923 -0.0001871441 -0.0001769649 -9.99109e-05 5.0143e-06 -0.3304520359 0.7764695476
580296520.0 -0.3208586378 0.784351574 -1.61195e-05 9.94717e-05 -0.0001458016 -0.0001092771 -0.3234973694 0.7797304007
585296490.0 -0.3123135257 0.7875671762 0.0001365924 -0.0001618834 4.63618e-05 -0.0001106175 -0.3148973429 0.7834884086
590296460.0 -0.3038219197 0.7907796122 8.52888e-05 -3.80174e-05 0.0001046153 5.07583e-05 -0.3081110202 0.785941869
595296430.0 -0.2962653928 0.7939565565 0.0001073723 -0.0002714455 2.20361e-05 -8.29088e-05 -0.2997734431 0.7888666582
600296400.0 -0.2881175711 0.7968756821 -0.0001327692 -0.0002165108 -4.57902e-05 -4.72312e-05 -0.2917919991 0.7922682806
605296370.0 -0.2796303597 0.7997451347 1.17632e-05 7.5781e-06 -2.32165e-05 -3.11205e-05 -0.2834874878 0.7952694533
610296340.0 -0.2715708592 0.8028038434 -7.0203e-05 0.0001588572 -1.0589e-06 -3.73146e-05 -0.2760259204 0.7977551769
615296310.0 -0.2628829176 0.805192926 0.0004279091 -0.0001957788 9.04002e-05 5.62561e-05 -0.2673283086 0.8006429131
620296280.0 -0.255148427 0.8082016036 -0.0002422285 0.0001088155 4.81577e-05 -6.05442e-05 -0.2598546671 0.8033727291
625296250.0 -0.2476168012 0.8103502183 2.79314e-05 -0.0003015714 -4.80221e-05 -0.0001105111 -0.2520617001 0.805084303
630296220.0 -0.2384710006 0.8132297372 8.95578e-05 1.05195e-05 2.3113e-05 0.0001185019 -0.243127908 0.8081877951
635296190.0 -0.2302342086 0.8157559524 9.95826e-05 3.52157e-05 -0.0001235854 -0.0002043744 -0.2353985382 0.8101026604
640296160.0 -0.221693503 0.8177736963 -1.56202e-05 0.0004083708 0.0001659992 -3.5279e-06 -0.2270723341 0.8127178855
645296130.0 -0.2133659786 0.8202891529 4.40723e-05 -0.0001348141 7.21441e-05 9.79964e-05 -0.2196788456 0.8145482231
650296100.0 -0.2055435587 0.8221007833 -3.22371e-05 -0.0002079509 5.28166e-05 7.82679e-05 -0.210600292 0.8164938433
655296070.0 -0.1972774314 0.8243186873 0.0001044989 -3.06923e-05 -8.72098e-05 -1.67369e-05 -0.2031083946 0.8187435383
660296040.0 -0.1888234219 0.826005021 0.0001974097 -0.0002014555 8.60744e-05 -0.0002788286 -0.1943860441 0.8209509815
665296010.0 -0.1812677236 0.828237902 -2.09234e-05 -0.0001067224 2.61693e-05 -0.0001179529 -0.1860401975 0.8225311837
670295980.0 -0.1732799687 0.8309089772 0.0002252814 -5.13239e-05 0.0001576373 0.0002477192 -0.1781601929 0.8244110671
675295950.0 -0.1635377255 0.8317596093 -3.02149e-05 -0.0001247068 9.13348e-05 -3.83567e-05 -0.1696475107 0.8266809405
680295920.0 -0.1568457055 0.8337650156 -0.0001072668 3.48689e-05 -0.0001368949 0.0001271716 -0.16126087 0.8280436371
685295890.0 -0.1470701777 0.8356025243 -0.0002003926 0.0001439025 8.81579e-05 -4.81339e-05 -0.1528671538 0.8293710026
690295860.0 -0.1389325482 0.8367036863 -2.42476e-05 1.03181e-05 8.2507e-05 -5.69528e-05 -0.1452891758 0.8313034828
695295830.0 -0.1308256968 0.838520194 -3.84862e-05 9.53728e-05 -2.95001e-05 -0.0001358551 -0.1363853086 0.8327601616
700295800.0 -0.1224907378 0.8403360882 3.85222e-05 -0.000141065 4.24511e-05 6.04046e-05 -0.1277322729 0.8336860113
705295770.0 -0.1145173084 0.8421657711 -0.0001390178 0.0001059867 -0.0002207106 -6.74457e-05 -0.119922769 0.8351572649
710295740.0 -0.1067399088 0.8420995876 -1.05462e-05 -8.9133e-06 -2.92754e-05 6.97245e-05 -0.111238496 0.8361028277
715295710.0 -0.097530696 0.8436837386 -0.0001422598 7.069e-07 -4.91423e-05 -2.88587e-05 -0.1032214637 0.8365929647
720295680.0 -0.0888243286 0.8444071124 4.1266e-05 -3.13033e-05 -7.342e-07 0.0001673594 -0.0948335874 0.8375244574
725295650.0 -0.0815334747 0.8456292262 0.0001434104 -0.000202248 -7.4137e-05 0.0001563829 -0.0867968692 0.8392259122
730295620.0 -0.073810751 0.8464728434 -7.16558e-05 -4.67675e-05 -7.98807e-05 0.0001584321 -0.0786225293 0.8397564754
735295590.0 -0.0654346398 0.8479237547 -2.52699e-05 -0.0001606043 9.8733e-06 -6.6397e-06 -0.0693815039 0.8405705918
740295560.0 -0.0574356904 0.848285526 -3.64088e-05 -0.0001140042 -4.8424e-06 4.94888e-05 -0.0614396625 0.841288953
745295530.0 -0.0485123504 0.8484195653 -6.88328e-05 6.71848e-05 -0.0002295582 0.0001621491 -0.0538203769 0.8417111633
750295500.0 -0.0405441105 0.8492158069 -0.0002085899 0.0001548375 9.73256e-05 0.0001512717 -0.044865117 0.8421524072
755295470.0 -0.0323172036 0.8496895935 -0.0002473584 0.0001194005 -7.29426e-05 -1.0747e-06 -0.0363116782 0.8428879255
760295440.0 -0.0238786463 0.8504319322 -8.75611e-05 5.12207e-05 0.0001096636 -2.57156e-05 -0.0274167883 0.8426296971
765295410.0 -0.0158534612 0.8500926827 0.0001934025 1.66227e-05 1.31744e-05 4.4322e-05 -0.0193715494 0.8435283249
770295380.0 -0.0082281268 0.8508055906 -0.0001092787 -5.38591e-05 0.0001244742 -0.0001431654 -0.0113399513 0.8434664125
775295350.0 0.0005130228 0.8513165095 -8.72565e-05 9.406e-05 7.83612e-05 5.05887e-05 -0.0028718305 0.8431571752
780295320.0 0.0089110014 0.8510487436 -1.21413e-05 3.89348e-05 0.000137194 0.0002224945 0.0056959192 0.8435745662
785295290.0 0.0167720292 0.8512422829 3.73315e-05 0.0001119822 -4.09876e-05 -0.000202655 0.0135827894 0.8437031083
790295260.0 0.0250661912 0.8506294484 0.0001025092 9.6227e-05 0.0001266455 0.0001680664 0.0217172019 0.843218512
795295230.0 0.0333312687 0.8503798115 5.01148e-05 7.3262e-05 -3.30958e-05 2.03854e-05 0.0303146489 0.842388628
800295200.0 0.0412305493 0.8508328913 0.0001713575 5.54706e-05 -0.000116342 -2.77354e-05 0.0380393138 0.8422095566
805295170.0 0.0493379148 0.8509434248 5.69267e-05 -3.87206e-05 5.79269e-05 7.97143e-05 0.0471301678 0.8418486
810295140.0 0.0578968915 0.850040517 1.4955e-06 -0.0001274169 5.19851e-05 0.0001560666 0.0559121346 0.8410073752
815295110.0 0.0653501889 0.84975336 9.66184e-05 0.0001303564 -8.3823e-06 0.0001264905 0.0635775113 0.8407946506
820295080.0 0.0736908069 0.8490165327 0.0001262407 -8.26651e-05 -2.10829e-05 -0.0001073758 0.0718255336 0.8403391565
825295050.0 0.0816910332 0.8482227725 -6.78682e-05 7.0171e-05 -7.3897e-05 -8.43805e-05 0.0799864489 0.8394270321
830295020.0 0.0907272916 0.8475101429 -0.0001133673 -0.0002262525 2.39245e-05 0.0001009899 0.0880639647 0.8381711035
835294990.0 0.0983925385 0.8465285098 0.0001972436 -0.0001015671 4.89615e-05 -3.97856e-05 0.0968476392 0.8377633717
840294960.0 0.10713845 0.8455097219 -8.2463e-06 -5.48027e-05 0.0003048406 5.5087e-06 0.1056743853 0.8365308309
845294930.0 0.1153614972 0.8448130179 -0.0001490287 -4.28088e-05 0.0001108983 -9.1468e-05 0.1137699807 0.8353204851
850294900.0 0.1237668492 0.8432392406 -0.000195258 -0.0001038223 -0.0001106757 -5.73928e-05 0.121474666 0.8346759909
