!Created with skrf (http://scikit-rf.org).
# Hz S RI R 50.0 
!freq ReS11 ImS11 ReS21 ImS21 ReS12 ImS12 ReS22 ImS22
300000.0 -0.7781627792 -0.1232262838 0.000354449 0.0005105941 -0.0007113857 0.0006939487 0.8594147921 -0.0024372667
5299970.0 -0.7855265991 -0.006230152 8.2746e-06 -1.19265e-05 0.0001541231 -3.76301e-05 0.8598050979 -0.0101779607
10299940.0 -0.7879260944 -0.0045157931 4.52487e-05 -0.0001034175 0.0001799934 4.40409e-05 0.8586437739 -0.0186381736
15299910.0 -0.7931214541 -0.0020397454 0.0001264767 -0.0002497349 -7.80354e-05 -0.0001670361 0.8572797529 -0.0270654106
20299880.0 -0.8003174179 0.0020054366 0.000252157 8.015e-07 -2.279e-07 -1.72726e-05 0.8570710483 -0.0359701211
25299850.0 -0.8065736111 0.0075754242 -0.0001918255 5.89871e-05 8.5757e-05 -1.71882e-05 0.8562561544 -0.0437885739
30299820.0 -0.8128684113 0.0152880968 1.91879e-05 3.71247e-05 -3.82824e-05 0.0001375806 0.8549794382 -0.0521953413
35299790.0 -0.8172627594 0.0244314814 -0.000147264 -3.72853e-05 0.0001055455 -8.40611e-05 0.8544230683 -0.0597064148
40299760.0 -0.8217974083 0.033695494 -4.37728e-05 0.0001290808 9.96597e-05 4.11089e-05 0.8534911255 -0.0678832097
45299730.0 -0.8242905174 0.043060205 -1.45869e-05 -0.0001704813 -4.3319e-05 4.19502e-05 0.8524990206 -0.0765586534
50299700.0 -0.8274483014 0.0531064254 -0.0001665629 -0.0001798279 -0.0001386675 -0.0001020381 0.8517066532 -0.0845259671
55299670.0 -0.8295677557 0.0632712957 0.0002645598 -0.00019124 4.83858e-05 7.2043e-06 0.8508295867 -0.0927301056
60299640.0 -0.8301990875 0.0739769416 9.07478e-05 0.0001565215 -0.0001326858 7.9608e-06 0.8501143196 -0.1008521414
65299610.0 -0.8305295565 0.0833952229 8.03682e-05 7.22412e-05 5.8207e-06 5.3021e-05 0.8488569142 -0.1088299214
70299580.0 -0.8315926026 0.0933923628 -0.0001072971 -0.0003452049 -0.0001454277 -9.56296e-05 0.8474556206 -0.1172264346
75299550.0 -0.8315774699 0.1036236573 -0.0001607062 -7.87402e-05 5.05768e-05 0.0002114998 0.8460541993 -0.1257866287
80299520.0 -0.8318493119 0.1134610444 6.48532e-05 -3.24394e-05 -4.18027e-05 8.67494e-05 0.84464874 -0.133785284
85299490.0 -0.8310888936 0.1225690162 -0.000146942 -0.000192952 -8.0301e-05 4.47536e-05 0.8439049575 -0.1421775123
90299460.0 -0.8297141983 0.1322165458 0.0002192915 -0.0002857153 4.86666e-05 3.39444e-05 0.8416228352 -0.1499592161
95299430.0 -0.8289373504 0.1415378525 -0.0001690783 -0.0001190766 4.2675e-05 -7.10815e-05 0.8401789402 -0.1579831514
100299400.0 -0.8276126992 0.1506948539 -0.0002140432 1.23682e-05 -7.77817e-05 8.7672e-06 0.8394750047 -0.1668140484
105299370.0 -0.8267706938 0.1600817558 -0.0001396039 2.79594e-05 4.4901e-06 0.0001783285 0.8372708299 -0.1747893381
110299340.0 -0.8250481783 0.1690714534 -0.0001165355 0.0002641782 0.0001219365 0.000118767 0.835589155 -0.1827181671
115299310.0 -0.8239610811 0.1789475309 -0.0001167586 2.27681e-05 -0.0001284228 -2.86364e-05 0.8341042746 -0.1909489685
120299280.0 -0.8221603977 0.1870963169 -6.10931e-05 -0.0001221885 4.41383e-05 -0.000126837 0.8324086192 -0.1992187938
125299250.0 -0.8201441028 0.1955224641 -4.036e-05 -8.13926e-05 -9.72278e-05 0.0001237661 0.8306319327 -0.2066460218
130299220.0 -0.8181834568 0.2055564393 -6.7016e-06 -0.0001005586 -0.0001441413 -5.75541e-05 0.8290347069 -0.2151772431
135299190.0 -0.8166071146 0.2145769317 -1.32024e-05 0.0002646889 7.62274e-05 7.18622e-05 0.826433222 -0.2230405252
140299160.0 -0.8148844026 0.2232176609 3.3866e-05 2.85539e-05 0.0001902207 -5.63136e-05 0.8240895108 -0.2309331548
145299130.0 -0.8124395428 0.23220822 1.8174e-05 -1.98441e-05 3.65192e-05 0.000214406 0.8216312957 -0.2387094259
150299100.0 -0.8098985651 0.2409657784 0.0001671294 -6.05227e-05 0.0001158936 -0.0001165534 0.8196633982 -0.246929271
155299070.0 -0.8075141705 0.2494339413 1.70756e-05 2.23157e-05 -6.49944e-05 5.6533e-06 0.8175419092 -0.2546997904
160299040.0 -0.8051451413 0.2582637858 5.25997e-05 -1.98126e-05 2.05859e-05 0.0001217857 0.8147095466 -0.2623274816
165299010.0 -0.8026661297 0.2669527682 -2.99167e-05 -5.29208e-05 -3.25322e-05 0.0001412931 0.8116171145 -0.2710315793
170298980.0 -0.8000426215 0.2749927222 -7.1305e-06 5.19886e-05 -4.87907e-05 -8.32217e-05 0.8089350868 -0.2781885855
175298950.0 -0.7972788499 0.2844718977 -1.11153e-05 -4.60845e-05 -1.2012e-06 -0.0001580236 0.8066571598 -0.2861542981
180298920.0 -0.7946417236 0.293193457 -0.0001466238 -6.22883e-05 4.00754e-05 -6.84099e-05 0.8038727444 -0.2941653109
185298890.0 -0.7912138242 0.3010405292 1.45743e-05 -0.000142671 6.8512e-06 9.79554e-05 0.8007027392 -0.3019827357
190298860.0 -0.7888504141 0.3098365464 0.0001417479 -0.0001252417 -4.26036e-05 7.548e-05 0.7975801843 -0.3085822739
195298830.0 -0.7853621011 0.3177972786 -8.96121e-05 -3.94916e-05 3.3444e-06 -3.0759e-06 0.7946684006 -0.316878235
200298800.0 -0.7813741372 0.3262575184 -0.0001545647 -0.000229654 -1.52134e-05 0.0002600496 0.7913589153 -0.3248901297
205298770.0 -0.7784312015 0.3344924175 -3.69228e-05 0.0001686726 -4.97024e-05 0.0002086222 0.7876941684 -0.3318921475
210298740.0 -0.7749391022 0.3426642872 1.17106e-05 -4.21567e-05 0.0001696852 -2.53162e-05 0.7845288656 -0.3396655303
215298710.0 -0.7714864686 0.3505007234 -3.30408e-05 0.000152185 7.85611e-05 -1.89997e-05 0.781296884 -0.3471273826
220298680.0 -0.767425657 0.3589926537 -2.02203e-05 4.91004e-05 -0.0003130758 5.51685e-05 0.7777732251 -0.3547752645
225298650.0 -0.7641286363 0.366670378 -5.05472e-05 -0.0002228362 -0.0001493985 4.85669e-05 0.7735509506 -0.3614632855
230298620.0 -0.760318867 0.3747887813 2.9521e-06 -2.32111e-05 -0.0001347308 -1.13295e-05 0.7708058189 -0.3694351483
235298590.0 -0.7557053676 0.3834009436 -1.40661e-05 3.61548e-05 8.91787e-05 -0.0002180945 0.7668535785 -0.3769812136
240298560.0 -0.7524513679 0.3912445534 6.1444e-05 0.0002150862 0.0002474963 -0.0001721751 0.7633214166 -0.3845812065
245298530.0 -0.74852396 0.3989413198 -9.71141e-05 0.0001853526 -7.52208e-05 -8.62079e-05 0.759101037 -0.3919193174
250298500.0 -0.7444294472 0.4068096797 0.0001649975 0.0001734201 -1.048e-06 -1.22037e-05 0.7553605286 -0.3992147263
255298470.0 -0.739904715 0.4139907936 -7.75159e-05 0.0001709989 0.0001203641 -4.92158e-05 0.7514079526 -0.4069073179
260298440.0 -0.7350416551 0.4209019119 0.00019761 -0.0001294061 -0.0001241286 7.4975e-06 0.747619785 -0.4137860903
265298410.0 -0.7312737705 0.4297553674 4.7826e-06 0.0001729683 1.90854e-05 4.47869e-05 0.7433458211 -0.4212502399
270298380.0 -0.7267894687 0.4368234081 9.79679e-05 -0.0001727235 -7.60506e-05 -2.63777e-05 0.7400058695 -0.4280425225
275298350.0 -0.7214940624 0.4445128918 0.0003245039 -3.82899e-05 -0.0001282402 9.18933e-05 0.7353503852 -0.4353097449
280298320.0 -0.7167754923 0.452395122 -0.000254838 -0.0002378027 -0.0001556514 -3.32591e-05 0.7322397007 -0.4430796624
285298290.0 -0.7127324216 0.4602639997 3.00488e-05 -8.50073e-05 -9.3883e-05 5.63967e-05 0.7279763451 -0.449672196
290298260.0 -0.7081060611 0.4677163422 -0.0001324244 3.14973e-05 2.45118e-05 -2.82013e-05 0.7232589783 -0.4566975418
295298230.0 -0.7022740941 0.4745988697 -2.13058e-05 9.33701e-05 -0.0002263042 -0.0002315359 0.7194312322 -0.4640540854
300298200.0 -0.6977887052 0.4816336636 -3.00945e-05 -8.9564e-05 3.5534e-06 -7.35802e-05 0.715402334 -0.4715420256
305298170.0 -0.6923882671 0.4883846293 -2.5787e-05 0.0001090698 -1.12032e-05 -8.10527e-05 0.710913249 -0.4792719732
310298140.0 -0.6874563406 0.4961455926 1.80657e-05 -0.000264719 9.97799e-05 -1.84014e-05 0.7059436043 -0.4867695833
315298110.0 -0.6827007932 0.5032701691 -3.83563e-05 0.0001614809 -0.0001166214 0.0002444823 0.7008893526 -0.4945626661
320298080.0 -0.6772498896 0.5100958872 -0.0003148859 -0.0001766466 -0.0001670782 9.0291e-06 0.6957887815 -0.5019418007
325298050.0 -0.6719365001 0.5175669387 -0.0001927185 -6.55777e-05 -0.0001008842 1.81145e-05 0.6904962704 -0.509253517
330298020.0 -0.6664199298 0.5243720125 -6.45628e-05 -9.53114e-05 -2.329e-05 0.0002522832 0.6840049909 -0.5151123091
335297990.0 -0.661218413 0.5307045161 0.0002855494 9.9343e-06 4.9993e-06 -8.84057e-05 0.6789571623 -0.5213595229
340297960.0 -0.6558957089 0.5380102185 7.78414e-05 -4.49118e-05 -6.65822e-05 1.9195e-06 0.673246284 -0.5272646372
345297930.0 -0.6498996945 0.5443131925 3.83058e-05 -4.03915e-05 -0.0001041701 -2.41242e-05 0.6674896136 -0.5344249714
350297900.0 -0.6447058847 0.5515331086 4.8705e-06 -0.0001646435 0.0001213575 -1.03003e-05 0.6620850158 -0.5397320738
355297870.0 -0.6383297816 0.5588294408 -6.27011e-05 2.62068e-05 -4.96061e-05 -0.0001874916 0.6565023719 -0.5460736328
360297840.0 -0.6327685072 0.5633878389 -0.0001649473 5.395e-06 6.82068e-05 9.59924e-05 0.6513120129 -0.5525370288
365297810.0 -0.6273574922 0.5704021652 0.0001449681 0.0002032579 -2.49906e-05 4.01387e-05 0.6462369809 -0.5584010451
370297780.0 -0.6212366691 0.5765294809 9.92291e-05 -0.0001118663 6.07579e-05 -0.0001127158 0.6402587613 -0.5641198141
375297750.0 -0.6145421531 0.5831035537 0.0001075915 -0.0001620928 -5.75498e-05 -3.39139e-05 0.6345986423 -0.5706358105
380297720.0 -0.6086483639 0.5891182438 3.97749e-05 -0.0001613261 -0.0001725137 0.000114515 0.6283831218 -0.5764316294
385297690.0 -0.6029878501 0.5953293521 0.0001709529 0.0002465465 7.92332e-05 1.587e-05 0.623089022 -0.5823822929
390297660.0 -0.5970825443 0.6014953002 -0.0001246582 7.02813e-05 -0.0002539241 -5.419e-07 0.6167800392 -0.5885559958
395297630.0 -0.5899578582 0.6082601037 -6.98777e-05 -7.29823e-05 -1.52914e-05 -2.08962e-05 0.6109746192 -0.5941015295
400297600.0 -0.5837099066 0.614085951 -3.92265e-05 0.0001812481 0.0001805646 -0.0001526917 0.6052661473 -0.5995169633
405297570.0 -0.5779209427 0.6197916614 3.80496e-05 -0.0001622693 -6.26478e-05 -4.53871e-05 0.5997621362 -0.6060845584
410297540.0 -0.5712331216 0.6250850966 8.6522e-05 3.26426e-05 0.0001554458 4.51213e-05 0.5931541417 -0.6117985528
415297510.0 -0.5646549095 0.6309703838 6.8442e-05 -0.0001169196 -5.30067e-05 -9.5089e-05 0.587277904 -0.6174049953
420297480.0 -0.559647041 0.6371630339 7.21693e-05 -0.0001408553 -0.0001847188 -1.69593e-05 0.5816106189 -0.6223844019
425297450.0 -0.551780062 0.6423481929 -3.40451e-05 -0.00014715 -2.07974e-05 -0.000174726 0.5755801785 -0.6287732406
430297420.0 -0.5457425642 0.6480930817 -9.36663e-05 3.97663e-05 1.9725e-05 0.0002172502 0.568610477 -0.6346368294
435297390.0 -0.538803293 0.6535171031 9.66528e-05 -0.0001799145 5.12738e-05 3.265e-05 0.5629326768 -0.6397187489
440297360.0 -0.5320344983 0.658643117 -0.0001438765 6.68781e-05 9.12013e-05 -4.411e-05 0.5563119857 -0.6451641214
445297330.0 -0.5246580678 0.6647422678 0.0002071864 3.32546e-05 2.62935e-05 4.03689e-05 0.5504622739 -0.6509345519
450297300.0 -0.5183255031 0.6689638965 -0.0001256384 0.0001199871 4.5243e-06 -5.3504e-06 0.5436448969 -0.655480682
455297270.0 -0.5111748573 0.6744095482 -4.3987e-06 0.0001850584 -0.0001565191 -7.88956e-05 0.5376000496 -0.6609031218
460297240.0 -0.5048018263 0.6793657733 -6.80407e-05 0.0001511595 -0.0001020229 0.0002022158 0.5306525045 -0.6671206367
465297210.0 -0.4977377406 0.6851177479 -4.9785e-05 3.50588e-05 3.09152e-05 0.0002333126 0.5245760612 -0.6711702434
470297180.0 -0.4902156274 0.6896091186 -0.0002688222 1.14509e-05 -6.47977e-05 5.14849e-05 0.5183408814 -0.6766531215
475297150.0 -0.4833787388 0.6946232298 -0.0002116328 -0.0002087809 7.62585e-05 -0.0002448515 0.5110126891 -0.6817174546
480297120.0 -0.4764684754 0.6991043019 8.22587e-05 4.75149e-05 -0.0002415554 -2.34816e-05 0.5047845242 -0.685885224
485297090.0 -0.4692222457 0.7040908348 -5.14775e-05 -0.0001698342 0.0001024395 5.5607e-06 0.4980770512 -0.6909601588
490297060.0 -0.4621341556 0.7087642299 0.0001309796 -4.43647e-05 0.0001928542 0.0001470904 0.4906344137 -0.6961342004
495297030.0 -0.4551822018 0.7134708695 0.0001285944 -1.78365e-05 0.0001029184 -8.7144e-06 0.4835154104 -0.7007573742
500297000.0 -0.4478595941 0.7182879403 -9.8863e-05 -0.0001635308 -2.29612e-05 0.0001091942 0.4771828811 -0.7052822396
505296970.0 -0.4405705892 0.7222580596 0.0001746956 -6.1017e-05 -6.4893e-05 1.28623e-05 0.4697765569 -0.7100598885
510296940.0 -0.4326110914 0.726796299 1.61399e-05 6.3134e-06 -5.17559e-05 -8.4361e-05 0.4627306379 -0.7147198033
515296910.0 -0.4242367628 0.7304346017 -0.0001702086 -4.95692e-05 -0.0002163943 0.0001869009 0.4560313718 -0.7182935213
520296880.0 -0.4182616127 0.7355331262 -0.0001501279 0.0001746212 2.389e-07 -6.97196e-05 0.4486892185 -0.7231258941
525296850.0 -0.4102548663 0.7393440216 0.0002998135 6.11638e-05 -0.0001258045 1.0492e-05 0.4418459939 -0.7266808278
530296820.0 -0.4023470348 0.7435480905 0.0001042829 0.0001309573 0.0001186571 -7.9147e-05 0.4346865512 -0.7310066704
535296790.0 -0.3959598462 0.7468521463 0.0001032023 -5.23483e-05 6.8522e-06 -1.48597e-05 0.4268035717 -0.7354402976
540296760.0 -0.3884257844 0.7507395958 7.9971e-05 -1.46473e-05 0.0001575341 -1.51874e-05 0.4198342287 -0.7386101981
545296730.0 -0.3806305867 0.7548899919 3.14523e-05 -5.88697e-05 -7.56534e-05 -0.0002690142 0.4127103171 -0.7430993963
550296700.0 -0.3732568889 0.7592757802 -0.0002083812 0.0001351654 5.55937e-05 -6.48412e-05 0.4050340722 -0.7478943055
555296670.0 -0.3648263431 0.7613491489 2.70916e-05 -0.0002081974 3.7513e-06 0.000143985 0.3974899201 -0.7507749187
560296640.0 -0.3573577021 0.7659919673 -0.0001225347 5.6313e-05 8.99486e-05 -0.0001334669 0.3899573112 -0.7547319979
565296610.0 -0.3494778594 0.7695277637 3.432e-06 -7.8314e-06 4.77559e-05 0.000252596 0.3822332448 -0.7580041741
570296580.0 -0.3417560787 0.7723517818 -0.0002004293 -7.8125e-05 -0.0002844028 1.77735e-05 0.3746829873 -0.7617298022
575296550.0 -0.3340458057 0.7766501136 6.8191e-05 -6.84685e-05 3.09198e-05 3.06201e-05 0.3677402434 -0.7653365385
580296520.0 -0.3262489392 0.779336651 0.0001897271 1.68337e-05 9.16655e-05 -5.31717e-05 0.3602267755 -0.7692277275
585296490.0 -0.3188826844 0.7827056678 -0.0002464005 0.0001307142 -8.03583e-05 6.51135e-05 0.3527476583 -0.7727110186
590296460.0 -0.3102565813 0.785587746 -4.12062e-05 -3.69255e-05 3.23209e-05 0.0001611166 0.3444582428 -0.7753945107
595296430.0 -0.302531751 0.7879918813 0.0001425125 -0.0001200133 0.0001896986 -0.0001375772 0.3367950109 -0.7787926381
600296400.0 -0.2947457856 0.791793184 8.8235e-06 0.0001870757 -0.0001192448 9.32397e-05 0.3296882413 -0.782769456
605296370.0 -0.2876433025 0.794471481 1.01913e-05 -0.0002095919 -5.93226e-05 -0.0001334534 0.3213002238 -0.7857053564
610296340.0 -0.2791361148 0.7969179521 -5.98745e-05 0.0001102673 -6.46666e-05 -7.00313e-05 0.3138736423 -0.787967605
615296310.0 -0.2696878374 0.8001076035 -6.77675e-05 6.9259e-06 -3.61208e-05 -2.77818e-05 0.3062540564 -0.7913021044
620296280.0 -0.262784063 0.8018243484 5.61468e-05 2.46991e-05 -0.0001081658 -7.16963e-05 0.298240987 -0.7945973138
625296250.0 -0.254737094 0.8052541296 0.0001071966 7.705e-06 0.0001594708 -0.0001772974 0.2908130294 -0.7974162576
630296220.0 -0.2462234738 0.8080476707 -6.15464e-05 -6.89119e-05 6.95239e-05 -4.36213e-05 0.2827523738 -0.7991378989
635296190.0 -0.2383825531 0.8102247285 3.66103e-05 -9.60663e-05 8.713e-06 -0.000261312 0.2758512613 -0.802471163
640296160.0 -0.2312893078 0.8120393299 4.19578e-05 8.02141e-05 4.66079e-05 0.0001586375 0.2664698207 -0.8051257496
645296130.0 -0.2224636376 0.814762632 -0.0002097087 -7.55624e-05 7.99244e-05 0.0001191142 0.2593936847 -0.8076084812
650296100.0 -0.2146479792 0.8165444017 0.0001306291 0.0001218235 -3.52941e-05 -0.0002470915 0.2515796729 -0.8109289057
655296070.0 -0.2059496055 0.818953547 -0.0001279954 -3.9404e-05 -1.16431e-05 0.0001724533 0.2443786527 -0.812072917
660296040.0 -0.1980634512 0.8206931809 1.65685e-05 -0.0001936974 -3.63671e-05 -4.0507e-06 0.2356128443 -0.814986939
665296010.0 -0.1892284588 0.8222578537 -0.0002683593 1.74127e-05 5.71452e-05 -9.75757e-05 0.2272163263 -0.8167590393
670295980.0 -0.1818406404 0.8244406114 7.93536e-05 -9.04941e-05 3.21944e-05 3.24458e-05 0.2184471505 -0.8188686773
675295950.0 -0.1727873557 0.8263869458 -0.0001045963 -9.84487e-05 -2.5808e-05 -0.0002511362 0.2102194563 -0.8208320293
680295920.0 -0.1650682464 0.8278893863 -0.0001416758 -0.0001766521 -4.26073e-05 8.13338e-05 0.2031879763 -0.8224034319
685295890.0 -0.1563126756 0.830361204 0.0002211871 -0.0001060853 7.26506e-05 -3.99443e-05 0.1944922733 -0.824045013
690295860.0 -0.1489143719 0.8311661547 -3.91627e-05 -0.0001171487 2.88193e-05 -7.12051e-05 0.1860133197 -0.8256825938
695295830.0 -0.1403137409 0.8325748618 -2.39068e-05 0.00019096 -0.0001397377 -2.4575e-05 0.1780229465 -0.8276355303
700295800.0 -0.1313226034 0.8334413516 -1.2292e-05 4.81989e-05 -1.99998e-05 8.88107e-05 0.1696441038 -0.8294397386
705295770.0 -0.1241876251 0.8352852445 3.55347e-05 -0.0001255727 -4.0232e-05 -2.91514e-05 0.1615639151 -0.8296027377
710295740.0 -0.1155066433 0.8360799489 -0.0001484676 6.3816e-06 3.06423e-05 -4.71085e-05 0.1530520265 -0.8317196729
715295710.0 -0.1071155249 0.8373561914 0.0001858915 -1.87234e-05 8.25305e-05 -4.30758e-05 0.145232544 -0.8328166767
720295680.0 -0.0989071139 0.8383556358 -0.0002020523 -0.0001813014 0.0001388289 -5.64512e-05 0.1367971921 -0.8344861626
725295650.0 -0.090335916 0.8397920968 2.11136e-05 4.34333e-05 -0.0001850032 -6.888e-05 0.1283724102 -0.8347596664
730295620.0 -0.081777663 0.8405386761 -0.0001303338 3.23145e-05 -0.0001370958 -3.96181e-05 0.1193304337 -0.8363034117
735295590.0 -0.0738055412 0.8412824243 2.14527e-05 2.61936e-05 0.0001794104 3.13087e-05 0.1115969705 -0.8379309779
740295560.0 -0.0656858495 0.8420168061 -8.17625e-05 0.0001542178 2.22146e-05 0.0001512821 0.1032817413 -0.8380083493
745295530.0 -0.0574102938 0.8425235859 1.64656e-05 -6.44765e-05 6.28339e-05 -0.0002079023 0.0951289842 -0.8387414413
750295500.0 -0.0480328068 0.8423504423 9.50407e-05 -0.0001068375 -5.77135e-05 -0.0001417042 0.0866167895 -0.8401940472
755295470.0 -0.04038414 0.842918236 -6.39422e-05 0.0001441612 -0.0001248895 0.0002860184 0.0789592084 -0.8414024911
760295440.0 -0.032410763 0.8431311597 9.16615e-05 -5.19805e-05 0.0002475689 -6.77921e-05 0.0699432631 -0.8416319748
765295410.0 -0.0239760335 0.8438886357 -8.77245e-05 -0.0002293677 -1.51811e-05 -3.72397e-05 0.0618603566 -0.8419763105
770295380.0 -0.0156839547 0.8442114614 1.01869e-05 0.0002317523 0.0001320553 -9.78459e-05 0.0529847347 -0.8428848802
775295350.0 -0.0074847652 0.8443535581 5.37292e-05 -0.0001006556 -0.0001290932 -0.0001757791 0.0444666436 -0.8431499155
780295320.0 0.0014322821 0.8443740558 -0.0001468572 8.31733e-05 0.0002214945 0.0002436676 0.0367324095 -0.8432879917
785295290.0 0.0094140579 0.8433979395 -0.000213198 3.68692e-05 -2.60469e-05 7.45004e-05 0.0285349316 -0.8437717571
790295260.0 0.0187392931 0.8438314184 -9.62818e-05 -9.01031e-05 9.02173e-05 -8.76551e-05 0.021021998 -0.8436741465
795295230.0 0.025713398 0.8435071197 -7.78791e-05 -2.95334e-05 -0.000124349 0.0001078508 0.011816239 -0.8442318261
800295200.0 0.0341985261 0.8429352388 -0.000218062 -4.20267e-05 -0.0001893505 -8.46183e-05 0.003496124 -0.8436358501
805295170.0 0.0430114066 0.8425534428 -0.0002942409 7.88121e-05 -0.0001139557 0.0001937778 -0.0048735649 -0.8435176396
810295140.0 0.0514216599 0.8424287925 -0.0001425646 -0.000216165 -8.81234e-05 2.6729e-05 -0.0127675229 -0.8439045326
815295110.0 0.0594135011 0.8415314435 -9.07804e-05 6.99347e-05 -6.75229e-05 -0.000188626 -0.0219404701 -0.8432453139
820295080.0 0.0674408057 0.8411208655 -9.71651e-05 -0.0001354916 -4.06245e-05 -9.14969e-05 -0.0296702156 -0.8426808549
825295050.0 0.0768655054 0.8399359455 -3.58356e-05 0.0001220399 -6.85522e-05 -0.0001474575 -0.0374178576 -0.8426735736
830295020.0 0.084238835 0.8397843642 1.05357e-05 0.0002082327 -0.0001954668 6.52168e-05 -0.045829308 -0.8415186689
835294990.0 0.0929512675 0.8393126086 -0.0002267905 -0.0001480059 1.56397e-05 0.0001012909 -0.0542833051 -0.8414635172
840294960.0 0.1008652477 0.8380389825 2.74789e-05 -4.97212e-05 -0.0002125012 0.000321784 -0.063115717 -0.8404990381
845294930.0 0.1088164817 0.8368196687 -6.63151e-05 -4.887e-06 -3.09388e-05 -3.8035e-05 -0.0712155428 -0.8391621402
