!Created with skrf (http://scikit-rf.org).
# Hz S RI R 50.0 
!freq ReS11 ImS11 ReS21 ImS21 ReS12 ImS12 ReS22 ImS22
300000.0 -0.2394279263 -0.0807875925 0.472758856 0.0534287343 0.4683260837 0.0527254319 -0.2420769223 -0.0935396891
5299970.0 -0.2443750866 0.0070602392 0.4736889465 0.0049013171 0.473802198 0.0048357602 -0.2445085047 0.0072119712
10299940.0 -0.241147176 0.0187137133 0.4756492425 0.0062969017 0.4755040027 0.0064286819 -0.2408601367 0.0201203188
15299910.0 -0.2368317728 0.0280845766 0.4794334207 0.0076323329 0.4794367954 0.0079810921 -0.2364480914 0.0296834398
20299880.0 -0.2320609911 0.03548511 0.4841275744 0.0084818958 0.4839183718 0.0084986806 -0.2308829146 0.0374669808
25299850.0 -0.2269888511 0.0419873499 0.4891257047 0.0075526951 0.4889546976 0.0074856417 -0.2248820335 0.0437490885
30299820.0 -0.2214057964 0.0472224228 0.494561427 0.0057826125 0.4945201314 0.0052387625 -0.2192011169 0.0492946558
35299790.0 -0.2161774853 0.0513455924 0.500056643 0.002101825 0.4998128603 0.0021689527 -0.2135729878 0.0534613675
40299760.0 -0.2115952103 0.0548695178 0.5049568805 -0.0014971688 0.5051901608 -0.0013996716 -0.2082319592 0.0559365495
45299730.0 -0.2068861013 0.057659734 0.5097075544 -0.0064550419 0.5098841157 -0.0063127666 -0.2034048122 0.0587001474
50299700.0 -0.2021983832 0.059812835 0.5144305858 -0.0120535164 0.5141820763 -0.0117448089 -0.198505805 0.0605535447
55299670.0 -0.1982587771 0.0618497389 0.5176562157 -0.0184771065 0.5176941425 -0.0177659052 -0.1943578917 0.0622184968
60299640.0 -0.1941995724 0.063620261 0.5214038803 -0.0245903393 0.5213971258 -0.0240422107 -0.1905226112 0.0630189247
65299610.0 -0.1909994124 0.0649349923 0.5238168186 -0.0307763719 0.5237817449 -0.0303469095 -0.1871415597 0.0641949678
70299580.0 -0.1878974063 0.0661526993 0.5266653375 -0.0373261331 0.5264717508 -0.037310775 -0.1837839397 0.0648853516
75299550.0 -0.1850641258 0.0672998518 0.5282289011 -0.0442251233 0.5283295333 -0.0441379502 -0.1808496002 0.0651940885
80299520.0 -0.1824726138 0.0680603296 0.5302355762 -0.0511838831 0.5303842246 -0.0507900502 -0.1782954165 0.0658200839
85299490.0 -0.1802306667 0.0687655826 0.5317281267 -0.0573858907 0.5316941337 -0.0572444634 -0.176210149 0.0662466278
90299460.0 -0.1779301064 0.0699566593 0.5324942449 -0.0647380412 0.5333162992 -0.0649980161 -0.1738060448 0.0668265207
95299430.0 -0.1755482579 0.0705023618 0.5337628652 -0.0718285699 0.5336475582 -0.0716499138 -0.1716013733 0.0672118482
100299400.0 -0.1738270926 0.0717796189 0.5336734675 -0.0785953808 0.5338764656 -0.0784572925 -0.1691600294 0.0673045455
105299370.0 -0.1718168525 0.0722938867 0.5340084084 -0.0858502923 0.5346225198 -0.0852297804 -0.1673969282 0.0678557104
110299340.0 -0.1702732201 0.073222602 0.5344845396 -0.0923082997 0.5346348136 -0.0920092714 -0.1666153864 0.0684698489
115299310.0 -0.1687346111 0.074171238 0.5343285855 -0.0991739734 0.5341952522 -0.0989064944 -0.1647791761 0.0690449507
120299280.0 -0.167247847 0.0745716084 0.5345791612 -0.1057344213 0.534113005 -0.1062636622 -0.1632586359 0.0695742913
125299250.0 -0.1661206864 0.0756465045 0.5337360019 -0.1123271028 0.5342174739 -0.1124067341 -0.1624747403 0.0697437553
130299220.0 -0.1649500534 0.0767646193 0.5333155648 -0.1193410886 0.5331267916 -0.1193615276 -0.161018811 0.0702979169
135299190.0 -0.1638713002 0.0777037339 0.5328185709 -0.1260137874 0.5325570433 -0.1258158642 -0.1595634528 0.0711492365
140299160.0 -0.1625167342 0.0790937752 0.5318638945 -0.1329607579 0.5317046593 -0.132633941 -0.1587845888 0.0721044224
145299130.0 -0.1613062341 0.0798765932 0.5310842985 -0.1397198029 0.530531289 -0.1392859926 -0.1581003408 0.0727277198
150299100.0 -0.1602814021 0.0811158402 0.5299898685 -0.1455462706 0.530125445 -0.1450962618 -0.1569771953 0.0739731796
155299070.0 -0.1595700172 0.0820567856 0.529122584 -0.1522441749 0.5285188414 -0.1521322956 -0.1559712197 0.0748950314
160299040.0 -0.1580505496 0.0834280971 0.5275022833 -0.158490718 0.5268067654 -0.1590855692 -0.1556606437 0.0755005966
165299010.0 -0.1575010446 0.0844769733 0.5259417642 -0.1652136819 0.5258320805 -0.1654257944 -0.1542831283 0.0767453452
170298980.0 -0.1565686991 0.085538012 0.5240637288 -0.1716188458 0.5243869715 -0.1715936764 -0.1536410062 0.0775829135
175298950.0 -0.1554825097 0.0870353988 0.5229919674 -0.1773590422 0.5225154476 -0.177768648 -0.1530850162 0.0787880889
180298920.0 -0.1547581852 0.0883293264 0.5210029417 -0.184108532 0.5205747296 -0.183760279 -0.1520038443 0.0797874763
185298890.0 -0.1530099045 0.0895264929 0.5187620895 -0.1904528242 0.5187028778 -0.190226224 -0.151283276 0.0809480686
190298860.0 -0.1525300829 0.0909231195 0.5171195254 -0.1963901926 0.5176106188 -0.196512071 -0.1504552739 0.0818122997
195298830.0 -0.1517805906 0.0917946741 0.515265244 -0.2025845372 0.5153362069 -0.2024507192 -0.1496734928 0.0829942154
200298800.0 -0.1505705789 0.0937841962 0.5130779302 -0.2090529674 0.5131103258 -0.2087058518 -0.1494578449 0.0842202776
205298770.0 -0.1499108901 0.0949935431 0.5104766834 -0.2152561048 0.510666458 -0.2146453353 -0.1484162412 0.0848979968
210298740.0 -0.1489724849 0.0961110629 0.508452842 -0.2203606737 0.508597693 -0.2206095257 -0.1477397998 0.0866860095
215298710.0 -0.1483118278 0.0977477885 0.5061893491 -0.2267765997 0.5061232374 -0.2268320707 -0.1472481344 0.0874210326
220298680.0 -0.1469409295 0.0990521284 0.5033679301 -0.232896348 0.5037916527 -0.2326203931 -0.1466696296 0.0885870908
225298650.0 -0.1462862705 0.1004617448 0.5016306252 -0.2384817832 0.5016183082 -0.2385802757 -0.1461126388 0.089585765
230298620.0 -0.1450400537 0.102069245 0.49893569 -0.2439348904 0.4994360697 -0.2443492233 -0.1456966626 0.0907734969
235298590.0 -0.1441413218 0.1036937076 0.496147127 -0.250007792 0.4964252476 -0.249813915 -0.1448234269 0.0923351841
240298560.0 -0.1431164732 0.1052204264 0.4939610307 -0.2562666769 0.4934328024 -0.2561540645 -0.1440153813 0.0936385887
245298530.0 -0.1421516696 0.1064300333 0.4910234456 -0.2615431111 0.4908531328 -0.2615744696 -0.1427403179 0.0943287332
250298500.0 -0.1407060371 0.1079211758 0.4872323798 -0.267326558 0.4872738924 -0.2666061261 -0.1422526142 0.095652557
255298470.0 -0.1401644951 0.1092267651 0.4845599223 -0.2726515671 0.4849058519 -0.2724149899 -0.1413291437 0.0968491873
260298440.0 -0.1390865093 0.1106527338 0.4818152384 -0.2785805157 0.482054366 -0.2780948038 -0.140254903 0.098084094
265298410.0 -0.1378052838 0.1124470617 0.4789357844 -0.2840637448 0.4792305224 -0.2835467574 -0.1397496787 0.099396875
270298380.0 -0.1363993694 0.1138994318 0.4762782191 -0.288906024 0.4761150746 -0.2892228173 -0.1387878291 0.1008720756
275298350.0 -0.1353877406 0.1153967615 0.4728035759 -0.294921926 0.4731443923 -0.2945818188 -0.1379654702 0.1017860834
280298320.0 -0.1339260654 0.1169619764 0.4696058975 -0.3002290202 0.4698171596 -0.2994102204 -0.1369362754 0.1029856814
285298290.0 -0.1326927713 0.118155856 0.4665849738 -0.3052311824 0.4665778095 -0.305116805 -0.1357513945 0.1040576746
290298260.0 -0.1314526026 0.1196369611 0.4629636368 -0.3104594768 0.4632635582 -0.3106051569 -0.1347718015 0.1058673648
295298230.0 -0.1302841394 0.1207448253 0.4597356591 -0.3156846845 0.4595994225 -0.3157748072 -0.1337018444 0.1067927634
300298200.0 -0.1291988324 0.1222768432 0.4565177535 -0.3208174517 0.456606006 -0.3215371073 -0.1327870783 0.1081520196
305298170.0 -0.1276776746 0.123580965 0.4527640603 -0.3268926565 0.452642397 -0.3263788872 -0.1313389905 0.1093062008
310298140.0 -0.1265672144 0.125041155 0.4493145002 -0.3315926474 0.4492537647 -0.3318162151 -0.130677869 0.1103687944
315298110.0 -0.125276804 0.1259817361 0.4455581371 -0.336367351 0.4458651499 -0.3367844992 -0.1299021085 0.1113115174
320298080.0 -0.1237958828 0.1275061765 0.4413568575 -0.34201191 0.4418200867 -0.3416562764 -0.1286952671 0.112702553
325298050.0 -0.1225534873 0.1288674202 0.4380433879 -0.3468816414 0.4378167088 -0.347129638 -0.1277817563 0.1139139459
330298020.0 -0.1212111041 0.1300478901 0.4339729485 -0.3517697303 0.4340567897 -0.3521419768 -0.1273334837 0.1152081617
335297990.0 -0.1201151541 0.1311685142 0.4300859085 -0.3566001568 0.4295594593 -0.3569283304 -0.1266499429 0.1170064488
340297960.0 -0.1192664106 0.1329545914 0.4254434087 -0.3614516039 0.4252896894 -0.3615190711 -0.1249595845 0.1181087918
345297930.0 -0.1180836467 0.1345228983 0.4217725153 -0.3663776502 0.4216005897 -0.3658535261 -0.1243609591 0.1189157566
350297900.0 -0.1168355982 0.1355858495 0.4173064567 -0.3710281206 0.4169617089 -0.3708719818 -0.123537439 0.1209487397
355297870.0 -0.1150596147 0.1376316522 0.4132364441 -0.3756527073 0.4134395336 -0.3751120519 -0.1225392657 0.1219367174
360297840.0 -0.1136237982 0.138663494 0.4094210465 -0.3798442906 0.4095616934 -0.3797633391 -0.121465178 0.1237551544
365297810.0 -0.1123003461 0.1404439928 0.4046894326 -0.384461222 0.4050545033 -0.3847881176 -0.1202717302 0.1248710818
370297780.0 -0.1106690562 0.1412402834 0.4001191723 -0.3889329362 0.4009723454 -0.3886615375 -0.1192993154 0.1263867691
375297750.0 -0.1090146902 0.1427172909 0.3958979533 -0.393335587 0.3969904596 -0.3932881564 -0.1178793564 0.1274665733
380297720.0 -0.1079898283 0.1439908875 0.3919841019 -0.3977518664 0.3920265454 -0.3969616465 -0.1170356383 0.1284845319
385297690.0 -0.1064633541 0.1453962161 0.3876334828 -0.4021277143 0.3873439216 -0.401554837 -0.1158639447 0.1301915097
390297660.0 -0.1047422572 0.1469988371 0.3834075894 -0.4061315575 0.3830857585 -0.405747188 -0.1148594188 0.1310351546
395297630.0 -0.1030628485 0.1482242883 0.3788228683 -0.4104123597 0.3787433016 -0.4106988663 -0.1132476033 0.1328226068
400297600.0 -0.1016286897 0.1496691227 0.3739270617 -0.4146991705 0.374305625 -0.4145970819 -0.112217602 0.1337969222
405297570.0 -0.1002319546 0.1507838515 0.369566916 -0.4183241304 0.369879283 -0.4179894308 -0.1110879254 0.134851602
410297540.0 -0.0983464595 0.1518001622 0.3650629067 -0.4226910855 0.3654945008 -0.4224718268 -0.1101374844 0.1364274502
415297510.0 -0.0965977382 0.1533527705 0.3600324684 -0.4268202239 0.3607149213 -0.4266112314 -0.1087335983 0.1374626417
420297480.0 -0.0952278658 0.1547011386 0.3555097561 -0.4308789886 0.3557231024 -0.430872928 -0.1076535123 0.1385551444
425297450.0 -0.0934920477 0.1554439773 0.351171274 -0.4340981864 0.3513127511 -0.4343677709 -0.1067157838 0.1398255644
430297420.0 -0.0917609917 0.1565043074 0.3460008463 -0.4376963486 0.3460907787 -0.4377475001 -0.1053875186 0.1405889094
435297390.0 -0.0900251664 0.1575833197 0.3408619707 -0.4420532892 0.3412433645 -0.441799493 -0.1031888699 0.1418975412
440297360.0 -0.0884699312 0.1591016867 0.3361603616 -0.4456007875 0.3364347683 -0.4456885379 -0.1022781379 0.1430611798
445297330.0 -0.0866724371 0.1600030844 0.331747355 -0.4493938621 0.3315363517 -0.4490639629 -0.1006499266 0.1438824951
450297300.0 -0.0849611436 0.1608371776 0.3268429211 -0.4526802116 0.3265212174 -0.4530664049 -0.0994819354 0.144692401
455297270.0 -0.0832129113 0.162111404 0.3212894319 -0.4563118364 0.3216586566 -0.4564223185 -0.0980184275 0.1457509628
460297240.0 -0.0816440358 0.1630269034 0.316696443 -0.4598359466 0.3166265861 -0.4599971935 -0.096525294 0.1471648642
465297210.0 -0.0794752613 0.1644319827 0.3118667813 -0.4633095217 0.3115982504 -0.4634065261 -0.0950487458 0.1478854836
470297180.0 -0.0776642463 0.1652353084 0.305695928 -0.4667418642 0.3066629416 -0.4667963775 -0.0937368955 0.1493622043
475297150.0 -0.0758189998 0.1659211293 0.3010507683 -0.4693863354 0.3012595599 -0.4694723496 -0.0920498424 0.1499721471
480297120.0 -0.074151032 0.1673355484 0.296162872 -0.4734651529 0.2963411106 -0.473642523 -0.0903234906 0.1511978503
485297090.0 -0.0722427915 0.1683515963 0.2909232953 -0.476389697 0.2914966816 -0.476072966 -0.0890052038 0.152168049
490297060.0 -0.0710589613 0.1692920249 0.2861230206 -0.4792325081 0.2860063507 -0.4791891898 -0.0876967869 0.1533846477
495297030.0 -0.0689057953 0.1700283071 0.2804554107 -0.4827718727 0.2809013559 -0.4825183032 -0.0864707544 0.1543532159
500297000.0 -0.0668257507 0.17070306 0.2751685564 -0.4850812764 0.2750468721 -0.4852131023 -0.0845967678 0.155808573
505296970.0 -0.0648468881 0.17171094 0.2701405607 -0.4882129566 0.2696723288 -0.4883587453 -0.0832647553 0.1563118487
510296940.0 -0.0631637103 0.1724212334 0.2642500988 -0.4916688711 0.2646066809 -0.491327343 -0.0816120671 0.1577962606
515296910.0 -0.0611639422 0.1736662701 0.2590356132 -0.4940150238 0.2591770844 -0.4942381812 -0.0800718646 0.1586817587
520296880.0 -0.0595486429 0.1743934639 0.2539304301 -0.4974358888 0.2537331115 -0.4969978941 -0.0786691382 0.1590017392
525296850.0 -0.0573911861 0.1744748853 0.2482052673 -0.4993078192 0.248881371 -0.4997642829 -0.0772170589 0.16046704
530296820.0 -0.055497155 0.175644654 0.243072795 -0.5022246776 0.2430981241 -0.502246759 -0.0754986531 0.1616685899
535296790.0 -0.053814425 0.1765792594 0.2378896813 -0.5044754101 0.2376397616 -0.504361249 -0.0744045604 0.1617769955
540296760.0 -0.0517906699 0.1771902924 0.2320563445 -0.5076516916 0.2316440173 -0.5076808858 -0.0728654716 0.1634775066
545296730.0 -0.0496697401 0.1782057355 0.2260905043 -0.5097106584 0.2261640289 -0.5098715554 -0.0713543647 0.1638837804
550296700.0 -0.0476339983 0.1789043971 0.2205990313 -0.5123142378 0.221001836 -0.5121653633 -0.0697500965 0.164987479
555296670.0 -0.0460810379 0.1792605415 0.215405663 -0.5146605029 0.2153052442 -0.5147059333 -0.0680572986 0.1659574811
560296640.0 -0.0434404002 0.1801947961 0.2096678743 -0.5172113932 0.2098902204 -0.5167894562 -0.0666254321 0.1667021448
565296610.0 -0.0420243987 0.1808713986 0.2037433984 -0.5193582437 0.2041495839 -0.5192793452 -0.065205881 0.1671556954
570296580.0 -0.0400794569 0.1812661202 0.1983841092 -0.5217958098 0.1978885813 -0.521661763 -0.0635040371 0.1682045035
575296550.0 -0.0381584467 0.1822991952 0.193005698 -0.5236457607 0.1925271205 -0.5233213324 -0.0614945495 0.1687591619
580296520.0 -0.0359964691 0.1824885287 0.1870215575 -0.5255134763 0.1871719023 -0.5255030297 -0.0602374791 0.169163006
585296490.0 -0.0340806172 0.1824368159 0.1814432822 -0.526868856 0.1816918428 -0.5276924256 -0.058602374 0.1702283736
590296460.0 -0.0317497533 0.1834984471 0.1756643884 -0.5292647157 0.1757920492 -0.5290582648 -0.0573238273 0.1710971729
595296430.0 -0.029617143 0.18391111 0.1689988303 -0.5313971102 0.1695492143 -0.5311752495 -0.0552004156 0.1711364493
600296400.0 -0.0279611493 0.1845641822 0.1639038442 -0.5330596955 0.1640045163 -0.5326022651 -0.0536239691 0.1720164865
605296370.0 -0.0258825116 0.1849123649 0.1581920861 -0.5346142848 0.1583963091 -0.5344903255 -0.0519751294 0.1726122439
610296340.0 -0.0238836603 0.1852745741 0.1520935374 -0.5363457572 0.1525133594 -0.5360850309 -0.0502158378 0.1735715762
615296310.0 -0.0212737733 0.1855089006 0.1463861206 -0.5374499906 0.1464694654 -0.5381775572 -0.0483747641 0.1737451608
620296280.0 -0.0195943901 0.1857667089 0.1405920131 -0.5395976924 0.1408331531 -0.5389549637 -0.0470579394 0.1746063955
625296250.0 -0.0178674299 0.1856996514 0.1353407343 -0.5407706894 0.1352564034 -0.541138316 -0.0448564962 0.1751384595
630296220.0 -0.0146823971 0.1865835926 0.1283867722 -0.5426619486 0.1284499167 -0.5420811542 -0.0436596701 0.1761267823
635296190.0 -0.0139084385 0.1866916173 0.123127872 -0.5437554254 0.1232326789 -0.5436790625 -0.041382531 0.1762003357
640296160.0 -0.011662282 0.1870995844 0.1171327203 -0.5443290093 0.1175028611 -0.5452095692 -0.0397396294 0.17696716
645296130.0 -0.0094755351 0.1876201319 0.1111014602 -0.5458586596 0.1117865236 -0.5459755843 -0.0379471841 0.1776779809
650296100.0 -0.0072733904 0.1876593973 0.1052381849 -0.5471911763 0.105383511 -0.5469483936 -0.0362184627 0.177719937
655296070.0 -0.0050824173 0.187838611 0.0996896602 -0.5483201504 0.0994450727 -0.5482151067 -0.0343864784 0.1782532375
660296040.0 -0.0035803573 0.1874835981 0.0935431869 -0.5490942701 0.0934737412 -0.5494591019 -0.0323283895 0.1788523485
665296010.0 -0.0008733553 0.1879704672 0.0871640514 -0.5500530078 0.0879371588 -0.5503059271 -0.0305521651 0.1797478593
670295980.0 0.0001553848 0.1880782533 0.0818280211 -0.5505715174 0.0817057821 -0.5510482916 -0.0294338059 0.1800074587
675295950.0 0.0028840279 0.1885744093 0.0756182851 -0.55169666 0.0757807788 -0.5516081971 -0.0276868781 0.1803752068
680295920.0 0.0046956031 0.1883256636 0.069311256 -0.5521818462 0.0693995874 -0.5524575084 -0.0258064119 0.1813733101
685295890.0 0.0070058444 0.1890466542 0.0636062962 -0.5534953235 0.063679469 -0.5535513083 -0.0237560635 0.1816051882
690295860.0 0.0090657502 0.1887490713 0.0575973911 -0.5530625131 0.0580070695 -0.5541019366 -0.0226582044 0.1825088288
695295830.0 0.0112224814 0.1888734707 0.0520894648 -0.5540811123 0.0514790666 -0.5540538222 -0.0203896146 0.1826582245
700295800.0 0.0132666387 0.1888288477 0.0455371519 -0.5547221691 0.0456963161 -0.5546112333 -0.019166765 0.1835280915
705295770.0 0.0151435726 0.1890455895 0.0399534784 -0.5552387978 0.040011346 -0.5556244545 -0.0173331916 0.1837137177
710295740.0 0.0176942653 0.1888774488 0.0338678621 -0.5563837628 0.0341204216 -0.556213489 -0.0153270315 0.1834933884
715295710.0 0.0192604101 0.1886796797 0.0282736122 -0.5562670613 0.0277537352 -0.5559419701 -0.0134868895 0.1837344112
720295680.0 0.0214335423 0.1887779701 0.0219766005 -0.5566902516 0.0223648362 -0.5560638242 -0.0117278481 0.1843568801
725295650.0 0.0235035741 0.1883407625 0.0155414257 -0.5562594599 0.0160494603 -0.556719273 -0.0105001716 0.1849108063
730295620.0 0.0258348051 0.1885674932 0.0096492989 -0.5560246716 0.0101553625 -0.5565000355 -0.0089183189 0.1847312131
735295590.0 0.0279131943 0.1884756554 0.0039364744 -0.5565874745 0.0035814931 -0.5565403345 -0.006664067 0.184764807
740295560.0 0.0297234036 0.1883549848 -0.0018566031 -0.5563671971 -0.0023308007 -0.5566907527 -0.0044464532 0.1853169787
745295530.0 0.0318503868 0.1881535648 -0.0082268651 -0.5560291059 -0.0082840243 -0.5564573676 -0.0029075533 0.1849848942
750295500.0 0.0342345611 0.1877990891 -0.0140933097 -0.5559598279 -0.0137177524 -0.5563732873 -0.0013026027 0.1853269817
755295470.0 0.0360025921 0.1873872281 -0.0199778587 -0.5558810924 -0.0203576743 -0.5562610642 0.0009524449 0.1853508261
760295440.0 0.0381058133 0.1873801683 -0.0262950371 -0.5561408479 -0.0259314899 -0.5563446499 0.0024287901 0.1854970283
765295410.0 0.0400312436 0.1874233059 -0.032196069 -0.5559129376 -0.0322573106 -0.5557144349 0.0044906482 0.1858795574
770295380.0 0.0420613693 0.1865283218 -0.0382153122 -0.555188928 -0.0385172166 -0.5549406596 0.0059774148 0.1858715841
775295350.0 0.0438488848 0.1857858954 -0.0444124006 -0.5541987114 -0.0438556274 -0.5543529912 0.0069802372 0.1860324357
780295320.0 0.0459655276 0.1858299244 -0.0501653096 -0.5536613389 -0.0492961961 -0.5540314355 0.0094538194 0.1856015552
785295290.0 0.0480177312 0.1847977593 -0.0563621321 -0.5530531822 -0.0559993731 -0.5530067366 0.0118138072 0.1858835983
790295260.0 0.0505071676 0.1853835717 -0.0616570547 -0.5527939387 -0.0615150853 -0.5527944402 0.0134404468 0.1859633913
795295230.0 0.0522344442 0.1844869762 -0.0679218116 -0.5515983603 -0.0675922974 -0.5520071507 0.0154444229 0.1862111065
800295200.0 0.0540954386 0.1842143558 -0.0740396154 -0.5509353976 -0.0736901867 -0.5510136487 0.0172869235 0.1856087566
805295170.0 0.0564362278 0.1836515653 -0.0802085194 -0.5500436003 -0.0798500745 -0.5507055153 0.0190029434 0.186209258
810295140.0 0.0581611846 0.1828743815 -0.0857967887 -0.5490425162 -0.085522268 -0.549507093 0.0212146012 0.1861552732
815295110.0 0.0604357611 0.1821936608 -0.0916100242 -0.5476859803 -0.0910896283 -0.5482091942 0.0224943997 0.1860692455
820295080.0 0.0618514614 0.1823071452 -0.0976351394 -0.546861336 -0.0971675468 -0.5475431224 0.0246736347 0.1860030237
825295050.0 0.0648208221 0.1814421101 -0.1032528954 -0.545654872 -0.1028487411 -0.5460358801 0.0264260924 0.1860287692
830295020.0 0.0663211246 0.1811051114 -0.1095943419 -0.5447259625 -0.1092625892 -0.5446174475 0.0288884777 0.1858131599
