!Created with skrf (http://scikit-rf.org).
# Hz S RI R 50.0 
!freq ReS11 ImS11 ReS21 ImS21 ReS12 ImS12 ReS22 ImS22
300000.0 -0.7740938356 -0.1774258521 -0.0001777081 -0.0004479205 -0.0006547691 0.0005247049 0.8594158551 -0.0022340286
5299970.0 -0.786116598 -0.0093834156 7.14626e-05 6.40783e-05 -7.18622e-05 -5.87054e-05 0.8594637111 -0.0103045388
10299940.0 -0.7896108572 -0.0059173707 0.0002235357 2.80233e-05 -8.904e-06 -8.98387e-05 0.8581019228 -0.0189912499
15299910.0 -0.7942005281 -0.0031405075 -7.38626e-05 -0.0002196582 -8.56026e-05 -5.75751e-05 0.857021173 -0.0279126548
20299880.0 -0.8011921044 0.0005099438 0.0001167647 -0.000127693 1.0929e-06 2.3652e-06 0.8567265191 -0.0355127773
25299850.0 -0.807629114 0.0068849919 -0.0001918311 3.61365e-05 -4.17916e-05 3.9456e-05 0.855633602 -0.0439974401
30299820.0 -0.8141650895 0.0140335825 1.39844e-05 6.85154e-05 -0.0001628551 -7.06359e-05 0.8554671231 -0.0524627152
35299790.0 -0.8188234485 0.0230657 4.8742e-05 -3.0212e-06 -4.59005e-05 -5.79849e-05 0.8544933323 -0.0608295002
40299760.0 -0.8234844244 0.0317859926 9.53623e-05 -6.5026e-06 -0.0001183955 -0.0001899215 0.8540099774 -0.0687360263
45299730.0 -0.8267227567 0.0415244511 -2.61308e-05 0.0002064694 2.26401e-05 4.2974e-06 0.8522460092 -0.0775137794
50299700.0 -0.8292945104 0.0522280935 -6.35354e-05 2.65936e-05 -7.54541e-05 -0.0002207317 0.8521421748 -0.085596355
55299670.0 -0.8311415633 0.0615607155 2.62529e-05 3.20806e-05 -7.21243e-05 -0.0001293544 0.8508433894 -0.0933924165
60299640.0 -0.8325146232 0.0720551489 -8.95451e-05 -5.8491e-06 -0.000251105 -2.63002e-05 0.8498011442 -0.1023910805
65299610.0 -0.8335883405 0.0812795778 0.0001231094 -1.37762e-05 -0.0001374469 -4.33562e-05 0.8490883194 -0.1106600889
70299580.0 -0.8337047707 0.0916267886 5.17794e-05 -0.0001434139 -5.34534e-05 -0.0001904958 0.8476939345 -0.1186234463
75299550.0 -0.833644099 0.1016803691 0.0001841414 -7.539e-05 7.69881e-05 -8.66412e-05 0.8457862817 -0.1270849876
80299520.0 -0.8339269579 0.1121617243 0.0001329336 0.0001481991 5.7945e-06 6.10248e-05 0.8452612459 -0.1357989816
85299490.0 -0.8324300612 0.1212780162 0.0001628199 0.0001713901 4.58082e-05 -5.79076e-05 0.8440883515 -0.1432721124
90299460.0 -0.831993704 0.131687705 -0.0002477567 7.62406e-05 -4.03566e-05 -6.36106e-05 0.842321716 -0.1514773731
95299430.0 -0.8314043522 0.1405761136 -0.0001579198 8.81875e-05 -7.93168e-05 7.08264e-05 0.8404451019 -0.1600419963
100299400.0 -0.8306716351 0.1498551975 -1.96981e-05 0.0001956671 -1.11714e-05 3.63958e-05 0.8389153963 -0.1677800107
105299370.0 -0.8289055279 0.1592867839 -0.0001474534 -7.33714e-05 8.74887e-05 -0.0001821474 0.8375779895 -0.1760189857
110299340.0 -0.827538969 0.1685170743 -9.438e-07 4.791e-06 -7.23591e-05 -8.84236e-05 0.8357236407 -0.184293092
115299310.0 -0.8260292389 0.1779316953 6.3452e-06 -6.4014e-05 6.30561e-05 -0.00014631 0.8331458247 -0.1926318197
120299280.0 -0.824550665 0.1867635464 1.13579e-05 -0.0001603309 1.51185e-05 1.3317e-05 0.8319263259 -0.2007588669
125299250.0 -0.8230116843 0.1955059885 -1.44747e-05 6.89373e-05 -1.89071e-05 -9.00483e-05 0.8297789463 -0.208919922
130299220.0 -0.8207224508 0.2050726044 8.55631e-05 -5.29287e-05 0.000168028 9.66893e-05 0.8275496655 -0.2167019845
135299190.0 -0.8180048575 0.2144261481 0.0001773218 -9.99127e-05 8.95218e-05 -1.75856e-05 0.8255935554 -0.2254311085
140299160.0 -0.8171256568 0.2238371924 0.0002831953 -6.68257e-05 5.31948e-05 -1.03714e-05 0.823077605 -0.2331785045
145299130.0 -0.814630449 0.2323394062 6.91437e-05 8.79121e-05 0.0001720332 3.50634e-05 0.8202271126 -0.2416426964
150299100.0 -0.8119642112 0.2402174938 0.000216707 9.1791e-06 8.35433e-05 0.0001055551 0.8182582919 -0.2493259054
155299070.0 -0.8094903028 0.2498054523 -6.56128e-05 -8.5809e-05 1.16195e-05 -3.7576e-06 0.8154675867 -0.2576314166
160299040.0 -0.8072457464 0.2592365864 -0.0001126938 6.2624e-05 -3.73801e-05 -0.0002120048 0.8129953896 -0.2648615506
165299010.0 -0.804690007 0.2673812646 -4.42514e-05 8.33521e-05 -8.965e-07 0.0001016453 0.8109844347 -0.2729676505
170298980.0 -0.8019319471 0.276197979 4.9639e-06 0.0001512154 -4.29801e-05 -9.94689e-05 0.8069338395 -0.2809732356
175298950.0 -0.7989404737 0.2847603688 -0.0003225613 4.76409e-05 -0.000125617 0.0001217377 0.8045063743 -0.2888369769
180298920.0 -0.7960393501 0.2935636151 7.94651e-05 -3.83011e-05 1.78679e-05 -0.0001282132 0.8020583633 -0.2970138746
185298890.0 -0.7931659629 0.3022267654 -1.59837e-05 -6.1435e-05 0.0002616375 -0.0001812147 0.7992112483 -0.3046373455
190298860.0 -0.789362532 0.3111745475 2.29017e-05 8.63633e-05 0.0001793619 3.1058e-06 0.7953594893 -0.3124438078
195298830.0 -0.7862929252 0.319179356 -8.80405e-05 2.58347e-05 -2.45668e-05 6.0201e-06 0.7930370534 -0.3202013479
200298800.0 -0.7829650977 0.3278466872 0.0001839055 7.79736e-05 0.0001757883 -4.4404e-06 0.7891317526 -0.3279646694
205298770.0 -0.7790446514 0.3366254266 -4.69499e-05 -0.0001700693 -5.74625e-05 7.54692e-05 0.7870849142 -0.335954772
210298740.0 -0.7757671023 0.3447102833 -0.0001112318 -6.17253e-05 8.744e-07 -7.0979e-06 0.7831984513 -0.3435278459
215298710.0 -0.7721765703 0.3532066447 -0.0001042223 -5.86209e-05 -5.9489e-06 0.0001033846 0.7799598791 -0.3511181494
220298680.0 -0.7690744857 0.3608053501 -0.000127979 -2.77212e-05 -4.87389e-05 -6.353e-05 0.7759023144 -0.3584564544
225298650.0 -0.7650875487 0.3695778477 5.85502e-05 0.0001460934 4.63672e-05 -0.0001234411 0.7722760416 -0.3660995247
230298620.0 -0.7614614758 0.3773307543 7.92821e-05 -0.0002503379 8.33929e-05 -3.84067e-05 0.7691901414 -0.3734129192
235298590.0 -0.7572726022 0.3858846668 7.5395e-06 6.57756e-05 -5.91667e-05 4.60825e-05 0.7647606618 -0.3808131853
240298560.0 -0.7529081192 0.3935479201 -1.55552e-05 8.4059e-05 0.0001510776 4.58757e-05 0.7618659663 -0.3884953878
245298530.0 -0.7489794067 0.4016089407 5.25507e-05 -0.0001385158 -6.0353e-05 7.06875e-05 0.7573833367 -0.3957245103
250298500.0 -0.7447638417 0.4095577872 5.57185e-05 1.71441e-05 -4.64719e-05 1.17295e-05 0.7531156448 -0.4033119405
255298470.0 -0.7408630978 0.4171295503 -0.0002389214 -9.9568e-06 4.82811e-05 6.72077e-05 0.7495593497 -0.4107298753
260298440.0 -0.7365398008 0.424897888 8.01377e-05 -6.68178e-05 -7.67398e-05 -0.0001053135 0.7451423533 -0.4179606721
265298410.0 -0.731672415 0.4326976026 8.03369e-05 -8.21306e-05 6.3544e-06 0.0001517982 0.7414437003 -0.4250660789
270298380.0 -0.7272291831 0.4405111906 -0.0001018541 -8.27584e-05 9.81709e-05 7.5742e-06 0.7375710731 -0.4321136378
275298350.0 -0.7231299833 0.4484398582 -3.04939e-05 7.59863e-05 -0.0001678946 -5.83605e-05 0.7327810698 -0.4400258444
280298320.0 -0.7184712916 0.4556541626 -4.00719e-05 -2.0213e-06 -2.38837e-05 0.0002758764 0.7289789823 -0.446750817
285298290.0 -0.7137411387 0.4634181051 6.19305e-05 -8.76569e-05 -4.37446e-05 -0.0001756918 0.7244518559 -0.45349921
290298260.0 -0.7087063831 0.4709458863 9.46407e-05 6.87356e-05 6.26277e-05 8.6249e-06 0.7200679347 -0.4605322917
295298230.0 -0.7040861163 0.4780430736 -0.0001508748 -1.6194e-05 -0.0001103843 0.0001078337 0.7160076714 -0.4676333307
300298200.0 -0.6992791278 0.4857162727 4.77478e-05 0.0001612228 -0.0002286661 0.0001160519 0.7113371476 -0.4752043985
305298170.0 -0.6945748302 0.4924697247 -5.85803e-05 0.0001926538 -9.55993e-05 -0.0001337434 0.7062813219 -0.482230552
310298140.0 -0.6891603707 0.4995894641 -0.0001500051 0.0001302506 -0.0002214858 -5.35593e-05 0.702357817 -0.4894645217
315298110.0 -0.6844971843 0.5069322754 -6.20077e-05 -0.0002647219 -0.0001131229 3.75698e-05 0.6975370321 -0.4967268334
320298080.0 -0.6788215159 0.514383355 -0.0001165239 5.1523e-06 3.3198e-06 -8.87484e-05 0.6925521069 -0.5045063019
325298050.0 -0.6736209782 0.520658112 0.0001275606 -0.0001328942 -0.0001362235 -0.0001304216 0.6876801364 -0.51207876
330298020.0 -0.6686882453 0.5280539235 0.0001359036 -4.47195e-05 0.0002138311 -0.0001992257 0.6822527377 -0.5193432597
335297990.0 -0.6631367791 0.5347494204 0.0001069455 -9.43569e-05 1.7273e-05 -1.36182e-05 0.6761356154 -0.5261912658
340297960.0 -0.6579781699 0.5412643218 1.89508e-05 2.45873e-05 -1.8285e-05 -7.17586e-05 0.6700587194 -0.5319715993
345297930.0 -0.6520765776 0.5480671772 0.0001020239 0.0001230886 6.87799e-05 -4.67559e-05 0.6646542898 -0.5388764895
350297900.0 -0.6461178628 0.554934213 -3.8655e-06 2.928e-06 0.0001041811 4.66834e-05 0.6583792316 -0.5453451321
355297870.0 -0.6413668694 0.5611332361 -0.0001551075 0.000331932 0.0001522284 -2.2223e-05 0.6529027762 -0.5517142627
360297840.0 -0.6351893594 0.5678522243 3.09598e-05 0.0002409764 7.74952e-05 -0.0001181842 0.6471349566 -0.5571241023
365297810.0 -0.6293664688 0.574655821 -0.0002050537 -9.29411e-05 1.56721e-05 6.97117e-05 0.6416813184 -0.5636427935
370297780.0 -0.6234620158 0.580646962 0.000110668 0.0002246131 0.0001550388 -9.31524e-05 0.6359184745 -0.5692959367
375297750.0 -0.6179258085 0.5871838881 -2.4776e-06 -0.0001530487 0.0001167505 -1.1954e-06 0.6302611329 -0.5759418001
380297720.0 -0.6123285552 0.5932738206 0.0001193589 0.0001403491 -0.0001049893 -6.7324e-06 0.6243634414 -0.5812613525
385297690.0 -0.605569418 0.5991551636 -4.53051e-05 0.0001212929 6.64015e-05 -2.10868e-05 0.6183151014 -0.5878992409
390297660.0 -0.598527122 0.605864542 -0.0002924705 0.0001072286 -7.78867e-05 7.59312e-05 0.6121429366 -0.5931746513
395297630.0 -0.5925328197 0.6118998968 0.0002065118 -0.0001851845 -5.76659e-05 6.82224e-05 0.606533909 -0.5995021383
400297600.0 -0.5870137667 0.6178891781 -0.0001810876 -0.000100567 -0.0001184197 0.0001259105 0.6004118596 -0.6050816605
405297570.0 -0.5805356624 0.6232886746 -6.3014e-06 3.80883e-05 0.0001334117 0.000293452 0.5941447945 -0.6108285832
410297540.0 -0.5735740131 0.6298511711 -6.23782e-05 0.0001987001 -0.0002015092 -4.66305e-05 0.5882668068 -0.6169438
415297510.0 -0.5676426522 0.635506128 -2.4459e-05 -5.82268e-05 -0.0001410679 0.0001319048 0.5823451776 -0.6221988532
420297480.0 -0.5607640986 0.6410780797 8.23782e-05 -0.0002563211 -2.55019e-05 3.62163e-05 0.5759961216 -0.627119512
425297450.0 -0.5544550856 0.6462666261 0.0001687109 0.0001416823 -6.0346e-05 -1.45862e-05 0.5701399861 -0.6337408922
430297420.0 -0.5478628776 0.6517462038 -0.0001868098 0.0003323103 -0.0002028749 9.16934e-05 0.5638460189 -0.6391670679
435297390.0 -0.5415745223 0.6571791298 9.6406e-06 -0.0001589303 -7.82444e-05 -0.000119381 0.5565636036 -0.6447544593
440297360.0 -0.533563575 0.6630487664 -0.0001858232 -0.0001618582 -7.6393e-06 3.74252e-05 0.5511242054 -0.6494722672
445297330.0 -0.5267653557 0.6682804566 0.0001374848 0.0001277726 -6.59631e-05 6.26845e-05 0.5439049667 -0.6542441381
450297300.0 -0.5200170441 0.6738354143 -5.35309e-05 -6.05268e-05 -0.0001279836 -2.388e-06 0.5376259012 -0.6601916017
455297270.0 -0.5138056725 0.6781810848 0.0002844031 0.0002077824 0.0001056734 -0.000161851 0.5312122557 -0.6649971416
460297240.0 -0.5062846932 0.6845920884 0.0002220111 -0.0001719839 -1.7348e-06 -9.20087e-05 0.5245947822 -0.6705027423
465297210.0 -0.4993227278 0.6893902447 7.2423e-05 -7.58271e-05 -2.35515e-05 7.98692e-05 0.5177934014 -0.6750895917
470297180.0 -0.4920480837 0.6941221313 -0.000175423 -0.0002614483 -0.0001351521 0.000227124 0.5112701434 -0.6801971284
475297150.0 -0.4852881974 0.6992073875 -3.29686e-05 -6.1687e-06 -0.0001438141 2.57368e-05 0.5046349782 -0.6851947257
480297120.0 -0.4770327865 0.7042177774 0.0001387734 0.0001002385 -1.85755e-05 -9.90816e-05 0.4975442503 -0.6900815352
485297090.0 -0.4699503801 0.7085580258 7.5023e-05 5.22516e-05 -0.0002068868 -2.13704e-05 0.4910311104 -0.6949528
490297060.0 -0.4622455064 0.7135160267 -0.0001132877 0.000120816 0.0002147355 0.0001307097 0.4835873569 -0.6994908614
495297030.0 -0.4550178744 0.7178748358 -0.0001118617 -1.6979e-06 -2.49468e-05 3.84481e-05 0.4767783987 -0.7043497552
500297000.0 -0.447302899 0.7223083112 9.46289e-05 -5.60967e-05 0.0001620982 -6.43995e-05 0.4701056732 -0.7085037726
505296970.0 -0.4394591831 0.7272236477 -0.0001241547 4.31217e-05 -4.54708e-05 7.35799e-05 0.4620849828 -0.7133872563
510296940.0 -0.4317827942 0.7314288799 -2.08125e-05 5.18867e-05 0.0001867306 8.23829e-05 0.4551438088 -0.7175823486
515296910.0 -0.4244537505 0.7357086657 0.0001523238 -0.0001112222 6.59603e-05 -0.000102956 0.4482373448 -0.7224188197
520296880.0 -0.4159829504 0.7396730956 1.05232e-05 1.67576e-05 1.16095e-05 4.06991e-05 0.441260056 -0.7271069879
525296850.0 -0.4081882625 0.7439420761 -6.07248e-05 0.0001918127 -3.97584e-05 2.27395e-05 0.4340466664 -0.7309247205
530296820.0 -0.4011430372 0.7477427303 -3.62892e-05 7.88653e-05 7.92385e-05 0.0001887131 0.4268035827 -0.7349836035
535296790.0 -0.3929914485 0.7517188897 0.000144343 8.68412e-05 3.73895e-05 -0.0001116465 0.4200972213 -0.7385770567
540296760.0 -0.3849232402 0.7558780354 3.17984e-05 -9.72706e-05 -8.98719e-05 7.86335e-05 0.4119741706 -0.7426288618
545296730.0 -0.3773462577 0.760237117 0.0001932547 0.000111102 -7.73376e-05 -1.82531e-05 0.4045049807 -0.7471730244
550296700.0 -0.3692671409 0.7637382677 0.0001036452 -6.74938e-05 -0.0001731244 -1.1039e-05 0.397287025 -0.7503397615
555296670.0 -0.361379961 0.7674542255 2.9538e-05 0.000285077 3.6335e-05 7.50748e-05 0.3893810877 -0.7548520495
560296640.0 -0.3530338012 0.7707074518 0.0001232475 -0.0001188219 -3.41272e-05 0.0001181382 0.3820469476 -0.7583870368
565296610.0 -0.3456240935 0.7744949624 -0.0001199002 0.0001904134 4.1697e-06 -9.79764e-05 0.3747088372 -0.7618454743
570296580.0 -0.3374688626 0.7782120859 -6.1336e-06 -1.6706e-06 -0.0003944993 -2.57291e-05 0.3671019853 -0.7660702738
575296550.0 -0.3285087087 0.7808942117 5.98391e-05 6.55518e-05 -6.9537e-06 9.63023e-05 0.3594573909 -0.7688254056
580296520.0 -0.32108289 0.7839266435 -3.79438e-05 -0.0001492047 -4.59867e-05 1.16619e-05 0.351444518 -0.7723355227
585296490.0 -0.3128418095 0.787510767 3.22394e-05 -2.41357e-05 -6.6684e-05 -0.0001936055 0.3439541144 -0.7751047351
590296460.0 -0.3042579167 0.7902902403 -6.7832e-06 0.0003788609 -0.0003032225 -1.00052e-05 0.3359578452 -0.779259482
595296430.0 -0.2962221234 0.7937254669 7.48178e-05 0.0001227221 0.0001880483 5.77147e-05 0.3284600981 -0.782473609
600296400.0 -0.2884190294 0.796632262 -2.86337e-05 -0.0001227724 -8.08912e-05 0.0003356531 0.3205147914 -0.7844872624
605296370.0 -0.2799553314 0.7997254215 0.0003041275 -2.02207e-05 -5.55608e-05 0.00027362 0.3129000196 -0.7883644657
610296340.0 -0.2716978082 0.8031699434 0.000290796 -3.61927e-05 9.08153e-05 -5.89241e-05 0.3041739523 -0.7910242725
615296310.0 -0.262911558 0.8055330874 0.0002208137 -0.0002756766 -2.71166e-05 -2.8592e-06 0.2965006913 -0.7939731112
620296280.0 -0.2552018426 0.8083706481 6.37391e-05 0.0001715282 0.000154964 0.0001083598 0.2892137908 -0.7964034564
625296250.0 -0.2472885045 0.8100571554 -0.0002089592 0.0001199927 -4.76901e-05 -0.0001202331 0.280805439 -0.7998372663
630296220.0 -0.2386842804 0.8132211704 -8.52718e-05 0.0002404675 -0.000119211 -6.71497e-05 0.2728381498 -0.8018708909
635296190.0 -0.2303979354 0.8154360951 -0.0001846833 4.6344e-06 -9.36374e-05 0.0001473584 0.2648292067 -0.8041343983
640296160.0 -0.2220864293 0.8174716923 -5.43421e-05 4.46255e-05 -7.1107e-06 0.0001700238 0.2567039752 -0.8070663983
645296130.0 -0.2141406333 0.8201163189 0.0002160204 -0.0001559788 0.0001269414 -2.03684e-05 0.2483485901 -0.8093492427
650296100.0 -0.2058920748 0.822063946 -0.000144279 -9.23602e-05 8.8558e-06 0.0001650762 0.2407968624 -0.8118494293
655296070.0 -0.1976895053 0.8243486789 2.8037e-06 -0.0001791611 1.38857e-05 0.0001878213 0.2327917863 -0.8143964272
660296040.0 -0.1893124564 0.8261358067 -2.65045e-05 -2.76601e-05 0.000204355 -2.2844e-05 0.2247129155 -0.8165408259
665296010.0 -0.180869299 0.8282993548 0.0001711728 9.3511e-05 6.63579e-05 0.0001302568 0.2167069681 -0.8179261169
670295980.0 -0.1728172538 0.8303592179 0.0001589454 0.0001220892 0.0001146367 -1.33073e-05 0.2081295914 -0.8201506626
675295950.0 -0.1638581468 0.8322182824 4.44e-05 0.0001131256 -9.71169e-05 -6.98378e-05 0.1995874587 -0.8222160335
680295920.0 -0.1568520353 0.8340251938 0.0001957517 -0.0001847001 0.0001213 0.0001035772 0.1917515422 -0.8241217903
685295890.0 -0.1474055995 0.8361657793 -9.6183e-05 6.92506e-05 -2.64225e-05 0.0001059315 0.1835471397 -0.8254939454
690295860.0 -0.1387788876 0.8364342559 8.67769e-05 7.67819e-05 -0.0001281463 3.16876e-05 0.175316126 -0.827521465
695295830.0 -0.1307332024 0.8389424189 -0.0003443111 0.0001255331 7.26813e-05 1.06227e-05 0.1670223368 -0.8282758007
700295800.0 -0.1220969792 0.839820751 4.00983e-05 -1.38106e-05 0.0001172753 2.13362e-05 0.1588226486 -0.830265369
705295770.0 -0.1145529341 0.8413245556 6.35351e-05 0.0001738186 -0.0001353521 -5.35949e-05 0.1503877504 -0.8312947761
710295740.0 -0.1071510406 0.8418481046 1.13254e-05 9.2706e-06 5.1928e-06 -0.0001472428 0.1429933634 -0.832471505
715295710.0 -0.0974481281 0.8440450963 -6.477e-07 5.10429e-05 -5.33751e-05 0.0002185686 0.1348018543 -0.8345563498
720295680.0 -0.0890153203 0.8442915504 0.0001137705 -4.20177e-05 -0.0003626122 7.84701e-05 0.1261649711 -0.8357008102
725295650.0 -0.0818423049 0.8459638993 -1.04342e-05 3.16889e-05 0.0001305302 7.89492e-05 0.1173302704 -0.8363024107
730295620.0 -0.0737367207 0.8461931145 -4.29549e-05 0.000211663 0.0001752924 0.0001158071 0.1088128035 -0.8373169075
735295590.0 -0.0657381532 0.8472059296 -8.23018e-05 3.48599e-05 -1.50133e-05 -3.25e-08 0.1011987409 -0.8379963926
740295560.0 -0.0575617992 0.847503371 -7.05412e-05 0.0002389734 2.1818e-05 2.40373e-05 0.0923011478 -0.8385806783
745295530.0 -0.0489958943 0.8482937235 -0.0002261036 -0.0001193576 5.31422e-05 -7.70716e-05 0.0836139721 -0.8398619361
750295500.0 -0.0412634846 0.8491853538 5.1011e-06 3.38831e-05 -0.0001382262 4.3119e-05 0.075613317 -0.8406765732
755295470.0 -0.0323232812 0.8493800485 0.0002568499 0.0001114944 -2.17722e-05 -2.92391e-05 0.0671168483 -0.8401154456
760295440.0 -0.0243300584 0.8508330549 -1.69971e-05 -0.0001618495 6.62039e-05 0.0002737124 0.0591346405 -0.8415482498
765295410.0 -0.0158759539 0.8504441473 0.0001638381 -0.0001394822 0.0001602735 2.62033e-05 0.0501894726 -0.8414032568
770295380.0 -0.0084224428 0.8513163501 5.73007e-05 6.53224e-05 -5.71532e-05 -2.5988e-05 0.0423604617 -0.8418755557
775295350.0 -0.0002596887 0.851084375 3.72227e-05 -0.0001308591 0.0001330045 -6.91656e-05 0.0342167487 -0.8425842789
780295320.0 0.0088991808 0.8517565087 -0.0002027468 1.96857e-05 1.25269e-05 0.0002567039 0.025474058 -0.842759779
785295290.0 0.016658919 0.8515528451 -0.0002109649 0.0002066396 8.3498e-05 1.68338e-05 0.0162822516 -0.8422554539
790295260.0 0.0251027133 0.8503448629 0.0002401538 6.58985e-05 6.47663e-05 2.25122e-05 0.0083868683 -0.8423350367
795295230.0 0.0331418163 0.8503178697 -1.1387e-06 -0.0002055091 8.74017e-05 2.29932e-05 -0.0006402027 -0.8431457891
800295200.0 0.0410583949 0.8505751006 -0.0001787948 2.05983e-05 -8.28786e-05 -0.0001814031 -0.00829826 -0.8418847525
805295170.0 0.0494958437 0.8503474043 8.77934e-05 3.02214e-05 0.0001061284 0.0001619646 -0.0160334891 -0.8419334724
810295140.0 0.0578565298 0.8499028188 -1.15864e-05 4.68172e-05 -5.29492e-05 -7.13939e-05 -0.025169626 -0.8412751173
815295110.0 0.0651793145 0.8495942796 -8.32223e-05 8.71973e-05 -0.0002386591 -0.0001593965 -0.0342264366 -0.8412136813
820295080.0 0.0738518616 0.8490074093 -2.42683e-05 0.0001576393 -0.0001915709 3.3869e-05 -0.0422168409 -0.8396620819
825295050.0 0.0819285876 0.8481654129 7.03658e-05 -4.86198e-05 -0.0001163078 -2.43668e-05 -0.0507361511 -0.8396944179
830295020.0 0.0910304511 0.847553973 -0.0001623155 3.42648e-05 -0.0001471805 -2.51744e-05 -0.0589528872 -0.8393371221
835294990.0 0.0982461418 0.8466700838 0.0001284911 -6.27514e-05 0.0001245234 0.000290406 -0.0669393984 -0.8383803625
840294960.0 0.1066118728 0.845449695 9.21863e-05 2.28679e-05 1.95297e-05 -0.0001086384 -0.0754257622 -0.8371110729
845294930.0 0.1148182162 0.8443905255 0.0001197715 0.0001241225 0.0001101041 -6.10622e-05 -0.0840681794 -0.8363820754
850294900.0 0.1240045685 0.8435635938 -0.0003172201 -0.0001475748 -4.92282e-05 0.0001179439 -0.0920831397 -0.8353079175
