!Created with skrf (http://scikit-rf.org).
# Hz S RI R 50.0 
!freq ReS11 ImS11 ReS21 ImS21 ReS12 ImS12 ReS22 ImS22
300000.0 -0.1000911185 -0.0722993543 0.6306972018 0.067177471 0.6250789739 0.0678788715 -0.1017054377 -0.0793023602
5299970.0 -0.1020798016 0.0128531796 0.6305558068 0.0101287668 0.6308075378 0.0104040825 -0.1009115662 0.0131535077
10299940.0 -0.0972134964 0.0289924068 0.634089385 0.0150943487 0.6340054564 0.0157919587 -0.0958732308 0.0302466208
15299910.0 -0.0900577454 0.0425834835 0.6407230774 0.0201462236 0.6406775871 0.0207703969 -0.0888618414 0.0434604446
20299880.0 -0.0815562748 0.0529661297 0.6484954014 0.0242642986 0.6481748901 0.0244901154 -0.0799593526 0.0543331763
25299850.0 -0.0721262206 0.0622482785 0.6576917012 0.0248453941 0.6576064622 0.0253653959 -0.0699777597 0.0632938825
30299820.0 -0.0622988413 0.0688343041 0.6671549902 0.0244420892 0.6672068733 0.0245250395 -0.0599939865 0.0700359851
35299790.0 -0.0525549221 0.0736590732 0.6771667753 0.0212931907 0.6771760468 0.0212714361 -0.0497820954 0.074967629
40299760.0 -0.0432466948 0.0773904325 0.686338875 0.0171832006 0.6864164929 0.0177643147 -0.0404477833 0.0774355654
45299730.0 -0.0340822841 0.0794672065 0.6947141277 0.0117011771 0.6950983559 0.0122737151 -0.0314308636 0.0798126934
50299700.0 -0.0257583177 0.0802107143 0.7039602693 0.0046255329 0.7034253122 0.0056665148 -0.0225881382 0.0806021122
55299670.0 -0.0175863932 0.0804835711 0.7106810753 -0.003596694 0.7108338136 -0.0023523801 -0.0149616703 0.0806998016
60299640.0 -0.0099803969 0.0801435906 0.7174955647 -0.011264934 0.7178110391 -0.0109665182 -0.0076116917 0.0795943087
65299610.0 -0.0037074584 0.0789544646 0.7234294162 -0.0204181642 0.7233502848 -0.019800585 -0.0010698088 0.0785182746
70299580.0 0.0025547197 0.0776376388 0.7285634068 -0.0291226022 0.7284919236 -0.0287027534 0.005053001 0.0768277198
75299550.0 0.0080589068 0.0759284182 0.732802862 -0.0388887465 0.7327060288 -0.038337592 0.0101946909 0.0750000804
80299520.0 0.0129291154 0.0737265001 0.7370251229 -0.0487087753 0.7372715618 -0.0490869426 0.0151286354 0.0729383602
85299490.0 0.0176230024 0.0714463295 0.7402318964 -0.0584742969 0.7405131889 -0.0585511898 0.0193767695 0.0697811047
90299460.0 0.021895359 0.0689553514 0.7426244107 -0.0694484317 0.7436503844 -0.0686204869 0.0236375825 0.0678543241
95299430.0 0.0258606117 0.0666959414 0.7456600897 -0.0789301432 0.7454108253 -0.0790090333 0.0273734863 0.0656055489
100299400.0 0.0290862698 0.0647681827 0.7465343461 -0.0887878872 0.746838173 -0.0888430344 0.0310650384 0.0627963571
105299370.0 0.0321906496 0.0620652343 0.7487876978 -0.0993550399 0.7489318662 -0.0991675318 0.0340595489 0.0609278369
110299340.0 0.0347251839 0.0597201232 0.7495646296 -0.1088133844 0.7497382092 -0.1087270781 0.0359263248 0.0579031044
115299310.0 0.0374483904 0.0572080172 0.7506021268 -0.1191108635 0.7505905858 -0.1191578907 0.0390805136 0.0556156572
120299280.0 0.0398520571 0.0547275752 0.7513751456 -0.1293487564 0.7514303794 -0.1293235758 0.0413881003 0.0531779941
125299250.0 0.041832534 0.0524686744 0.7513107093 -0.1388196414 0.7516561386 -0.1388355561 0.0427447868 0.050474232
130299220.0 0.0436639932 0.0503688774 0.7517163932 -0.1492008163 0.7510641505 -0.148731711 0.0447986102 0.04827748
135299190.0 0.0453279649 0.0484464596 0.7512401292 -0.1588524196 0.7509656135 -0.1582256263 0.0466267525 0.046174185
140299160.0 0.0466749291 0.0461035682 0.750891775 -0.169075378 0.75091128 -0.1685674243 0.0480614563 0.044712528
145299130.0 0.0481077811 0.0440924977 0.7503262731 -0.1780727791 0.7497641078 -0.1783312816 0.0493615998 0.0420864705
150299100.0 0.0496902931 0.0422815877 0.7488314918 -0.1870275 0.748667179 -0.1872630036 0.0509702023 0.0401320721
155299070.0 0.0502663735 0.0397682233 0.7478622389 -0.1979816686 0.7474714053 -0.1971741184 0.0518040713 0.0383405946
160299040.0 0.0517526412 0.03815611 0.7463437864 -0.2072130438 0.7462823595 -0.2067397518 0.0522367954 0.0365049867
165299010.0 0.0523929628 0.0365219074 0.7449029013 -0.2164604916 0.7447814423 -0.2168332962 0.053647095 0.0348311408
170298980.0 0.0533810987 0.0341281317 0.7426821874 -0.2263383019 0.7431692142 -0.2259890116 0.0541400109 0.0331039488
175298950.0 0.0538719129 0.0323621583 0.7411571281 -0.2356619374 0.7406441961 -0.2352010497 0.0546874067 0.0314164822
180298920.0 0.0544169947 0.0306429359 0.7392899015 -0.2451372609 0.7387134821 -0.2441149272 0.0553227416 0.0296825255
185298890.0 0.0554576451 0.029014438 0.7365483903 -0.2535674281 0.7366311108 -0.2534402061 0.055720004 0.0282868758
190298860.0 0.0553164371 0.0273451614 0.7343274167 -0.2630294144 0.7347553565 -0.2626896073 0.056295278 0.0263710257
195298830.0 0.0561769724 0.0253892936 0.7321079181 -0.2718576072 0.7324042095 -0.2713221214 0.0571965305 0.0252242189
200298800.0 0.0563696319 0.0240859509 0.7289602909 -0.2812895254 0.7294838208 -0.2810936628 0.0567019019 0.023843298
205298770.0 0.0567075827 0.0229748994 0.7259038879 -0.2899508259 0.7257205166 -0.2893874747 0.0573797788 0.0215433109
210298740.0 0.0572245168 0.0211360294 0.7230100536 -0.2981498397 0.7234390263 -0.298133935 0.0581731697 0.02143641
215298710.0 0.0570181653 0.0198327529 0.7204479417 -0.307457296 0.7203405016 -0.3071993347 0.0578592691 0.020123288
220298680.0 0.0576554782 0.0180049402 0.7167862803 -0.3156906144 0.7166818512 -0.3156885142 0.0577886649 0.0180079644
225298650.0 0.0579637162 0.0168284445 0.7137053317 -0.3247616231 0.7139859246 -0.3244927438 0.0576216557 0.0166371923
230298620.0 0.0578420663 0.0159511053 0.7109470598 -0.3328156128 0.7109759611 -0.3325627738 0.057576036 0.0150979759
235298590.0 0.0579631041 0.0147916844 0.7070341972 -0.3413543999 0.706917757 -0.3410425393 0.05791535 0.0136240944
240298560.0 0.0580467201 0.0134486514 0.7038024753 -0.3499926635 0.7032576736 -0.3493942432 0.0578610786 0.013122833
245298530.0 0.0577899723 0.0122769498 0.6999217378 -0.3582542543 0.6998578962 -0.3580946539 0.058509575 0.0110149621
250298500.0 0.0584570202 0.0110733213 0.6952243271 -0.3663312071 0.6951404217 -0.3656028363 0.0579648088 0.0103985427
255298470.0 0.0584788439 0.0093675613 0.69123583 -0.3741881437 0.691571146 -0.37362982 0.0583495813 0.0093009158
260298440.0 0.0580386465 0.0082139564 0.6876736648 -0.3828724082 0.6881249782 -0.3822067492 0.0584813821 0.0077438706
265298410.0 0.0589624015 0.0077353195 0.683572577 -0.390805665 0.6840571425 -0.3903945533 0.0584505535 0.0066365406
270298380.0 0.0585867766 0.0063927694 0.6796752777 -0.3980637911 0.6798933976 -0.3982020772 0.0578260229 0.0058844227
275298350.0 0.0589812748 0.0054719078 0.6754848752 -0.4067288207 0.6755448062 -0.4063506836 0.0583850585 0.0044656063
280298320.0 0.0588212356 0.004332107 0.6715042543 -0.4145253785 0.6713232754 -0.4140917869 0.0587550718 0.0036473041
285298290.0 0.058600466 0.0032649254 0.6666000631 -0.4222709267 0.6661789322 -0.4221180533 0.0585168783 0.0022565115
290298260.0 0.0591849656 0.0022304257 0.6622539027 -0.4297526178 0.6619478131 -0.4297356456 0.0588333017 0.0019405407
295298230.0 0.0589495767 0.0008199177 0.6576635482 -0.4370615556 0.6576959777 -0.4374777487 0.0592972849 0.000314981
300298200.0 0.0585290754 7.11519e-05 0.6532474381 -0.444975182 0.653229657 -0.4455430059 0.0588854096 -0.0007361065
305298170.0 0.058790241 -0.001302365 0.647397972 -0.4530059972 0.6481257135 -0.4528843699 0.0593974599 -0.0020866085
310298140.0 0.0585293082 -0.0023357814 0.6431210074 -0.4607632349 0.643536799 -0.4606382957 0.0594404922 -0.0029795755
315298110.0 0.0585061151 -0.0038350155 0.6379077769 -0.4681926583 0.6386311876 -0.4681895619 0.0587327779 -0.0042394132
320298080.0 0.05853986 -0.004673487 0.6323367886 -0.4762437817 0.6331535061 -0.4756565402 0.058868215 -0.005256079
325298050.0 0.057859082 -0.005968958 0.627363746 -0.4835057935 0.6270756289 -0.4828535783 0.0578913719 -0.0063069756
330298020.0 0.0574386871 -0.0073826012 0.6215696676 -0.4901926151 0.6220838982 -0.4909583327 0.0576785285 -0.0076058035
335297990.0 0.0572665892 -0.0086186553 0.616086041 -0.4976491865 0.615389809 -0.4978859786 0.0566581735 -0.0076146312
340297960.0 0.0562180694 -0.0087997597 0.6102065857 -0.5046876046 0.6095567691 -0.5045075596 0.0569214378 -0.0085614912
345297930.0 0.055813514 -0.0091565518 0.6042276748 -0.5115323598 0.604230968 -0.5119537479 0.0566352612 -0.0097787355
350297900.0 0.0552937876 -0.0109030158 0.5973955552 -0.5188149862 0.5980901511 -0.5180694749 0.0555907215 -0.0098395819
355297870.0 0.0550069722 -0.0104677474 0.5925785128 -0.5249256092 0.5925977253 -0.5246321898 0.0552781027 -0.0108899901
360297840.0 0.0547357895 -0.0115097627 0.5873964608 -0.5317092649 0.5875818435 -0.5312069612 0.0550088818 -0.0111401956
365297810.0 0.0540569297 -0.0118538091 0.5811105096 -0.5384882447 0.5815000806 -0.537973989 0.0547238627 -0.0115918171
370297780.0 0.0545248348 -0.012870117 0.5747413419 -0.5451672841 0.57525729 -0.5439349428 0.0541758872 -0.0124321966
375297750.0 0.0539484121 -0.0136233822 0.5690750155 -0.5506309785 0.5699650092 -0.5508518006 0.0545687082 -0.0128306905
380297720.0 0.053616904 -0.0142406576 0.5628654233 -0.5571530172 0.5631254931 -0.5568308923 0.05374414 -0.0137744335
385297690.0 0.0527827274 -0.0150831403 0.5563409612 -0.5644056582 0.5568662198 -0.563368707 0.0532815882 -0.0141815659
390297660.0 0.0527472582 -0.0153426614 0.5507511951 -0.5693245755 0.550250309 -0.5694054268 0.0527815805 -0.0154243412
395297630.0 0.0524274091 -0.0157243822 0.5442883804 -0.5759949887 0.5445260363 -0.5760737231 0.053084174 -0.0160203904
400297600.0 0.0519209359 -0.0164282478 0.5374985837 -0.5825483893 0.5379309517 -0.58210427 0.052306646 -0.0159149646
405297570.0 0.0515616435 -0.0173594121 0.5316076326 -0.5876636683 0.5312249725 -0.5872743342 0.0518103813 -0.0168788619
410297540.0 0.051790144 -0.0179815596 0.5250149791 -0.593985241 0.5254961085 -0.5937025934 0.0517005389 -0.0170687897
415297510.0 0.0514189646 -0.0186719552 0.5180955766 -0.6000132977 0.5185416538 -0.5996578068 0.0512505245 -0.0177886474
420297480.0 0.0510284098 -0.018856933 0.5115771786 -0.606255938 0.5116071376 -0.60560161 0.0507012592 -0.0190042577
425297450.0 0.0502260424 -0.0203822462 0.5054553299 -0.6112741154 0.5056159108 -0.6109419462 0.0495676093 -0.0186797578
430297420.0 0.0499792198 -0.0208612861 0.498309318 -0.6159708961 0.4985104058 -0.6160740768 0.0496133995 -0.0203342235
435297390.0 0.0495759404 -0.0211105394 0.4910467935 -0.6223339862 0.4914117837 -0.6217810948 0.0503136551 -0.0203900205
440297360.0 0.0495088545 -0.0216258124 0.484830065 -0.6275021451 0.4849923013 -0.627764651 0.0490858701 -0.0213216405
445297330.0 0.04879071 -0.0228777921 0.4774900034 -0.6330035929 0.4781376202 -0.6322281892 0.0491888552 -0.0224226413
450297300.0 0.048710935 -0.0230820912 0.4707725273 -0.6381984851 0.4708090967 -0.6385197736 0.0485780369 -0.0230472814
455297270.0 0.0483286039 -0.0239140932 0.4629604602 -0.6440467727 0.4641559091 -0.6435041624 0.0484006214 -0.023264849
460297240.0 0.0478290299 -0.0242702701 0.4563372479 -0.6485287335 0.4565218775 -0.6486643346 0.0481028422 -0.0236920091
465297210.0 0.047876226 -0.0247656498 0.4494992364 -0.6538403547 0.4496543446 -0.6542860059 0.0476085605 -0.0246636219
470297180.0 0.0471459312 -0.0255285074 0.4417109661 -0.6583243774 0.4422759588 -0.6582412636 0.0471142321 -0.0245980909
475297150.0 0.0468820871 -0.0262949528 0.4348489464 -0.6630575796 0.4353168591 -0.6627298235 0.0472639212 -0.0257666717
480297120.0 0.0462720396 -0.026097284 0.4274536649 -0.6681681417 0.4274924207 -0.6684290673 0.047204542 -0.0256519798
485297090.0 0.0454503454 -0.0268513868 0.4203049759 -0.6727858818 0.4206298235 -0.6725274121 0.0465969551 -0.0270705382
490297060.0 0.0447254446 -0.0274545119 0.413216285 -0.6775934915 0.4135679987 -0.6768892814 0.0462014975 -0.0266137016
495297030.0 0.0448868335 -0.0280503882 0.4053963657 -0.6819351633 0.4061799991 -0.6818148655 0.0452875309 -0.0275377461
500297000.0 0.0443003079 -0.0286132746 0.3976934916 -0.6859514384 0.3979000925 -0.6856190559 0.044957651 -0.0271632558
505296970.0 0.0440599309 -0.028985727 0.3908427292 -0.6907986471 0.3899837667 -0.6905123166 0.0446024972 -0.0280053659
510296940.0 0.0436433288 -0.0293622272 0.382726637 -0.6950872923 0.3826139913 -0.6952911166 0.0443533936 -0.0282554589
515296910.0 0.0427821468 -0.0296090513 0.3747034409 -0.6993230994 0.3751092764 -0.699070884 0.0441202574 -0.0288053068
520296880.0 0.0422962334 -0.0304840357 0.3669253855 -0.7038713661 0.3674259273 -0.7027988767 0.0432522247 -0.0295520975
525296850.0 0.04231169 -0.0313015012 0.3589859093 -0.7077654912 0.3602820424 -0.7070512497 0.0426201308 -0.0298067788
530296820.0 0.0414859681 -0.0311693135 0.3517696983 -0.7112174686 0.3520911137 -0.7116158043 0.0424776327 -0.0300676528
535296790.0 0.0406692799 -0.0316786807 0.3444217506 -0.7152255602 0.3442118363 -0.714717409 0.0421780681 -0.0309895565
540296760.0 0.0401690703 -0.031662558 0.3365154154 -0.7192044477 0.3363243699 -0.718739162 0.0411142691 -0.0304100154
545296730.0 0.0395663781 -0.032439854 0.3279575228 -0.7223044142 0.3281521496 -0.7223265729 0.040418738 -0.031214397
550296700.0 0.039965791 -0.0323688303 0.320158799 -0.7258117134 0.3201359565 -0.7261997571 0.0400734034 -0.0318596395
555296670.0 0.0387259553 -0.0328954721 0.3126615758 -0.7295544741 0.3128761469 -0.7294985171 0.0395880892 -0.0319360934
560296640.0 0.0385861629 -0.0327906871 0.3040391784 -0.7331038966 0.3046134792 -0.7326301666 0.0388681465 -0.0325523331
565296610.0 0.0375866933 -0.0336995332 0.296107474 -0.7364660647 0.2967352864 -0.7365839655 0.0382790865 -0.033376517
570296580.0 0.0371940658 -0.0339546981 0.2885524925 -0.7395908282 0.2875056842 -0.7390126506 0.0377896444 -0.0327737539
575296550.0 0.0362547822 -0.033853613 0.2802556451 -0.7427768935 0.280289342 -0.7424477632 0.0374743648 -0.0335840904
580296520.0 0.0362445542 -0.0346160477 0.2719488968 -0.746069342 0.2722493359 -0.7455445863 0.0368817183 -0.0343877694
585296490.0 0.0355442839 -0.0355104762 0.2637791016 -0.7483670926 0.2643458162 -0.7484401272 0.0363009945 -0.0343404512
590296460.0 0.0358808201 -0.0354292049 0.2560551061 -0.7507318832 0.2560008013 -0.750907489 0.0348430545 -0.0346851588
595296430.0 0.035115873 -0.0354739785 0.2469777402 -0.7543875304 0.2475696516 -0.7541065444 0.0354023266 -0.0351828301
600296400.0 0.0340453112 -0.036282025 0.2393656527 -0.7568722937 0.2392379474 -0.7566236889 0.0343172285 -0.0356294387
605296370.0 0.0336656665 -0.036413999 0.2311059506 -0.759380282 0.2312794506 -0.7590381038 0.0340486154 -0.0358602343
610296340.0 0.0332859104 -0.036810958 0.2218801656 -0.7619093919 0.2232176251 -0.7614963778 0.0336776467 -0.0363973389
615296310.0 0.0330718284 -0.037411291 0.2143540191 -0.7638334611 0.2141822826 -0.7642824261 0.0331894713 -0.0362661169
620296280.0 0.0323155317 -0.0379674179 0.2063424248 -0.7662017297 0.2059410236 -0.7659432081 0.0325521076 -0.0368023357
625296250.0 0.0312826031 -0.0387030239 0.1983183651 -0.7687133752 0.1980557451 -0.7688731266 0.0328096053 -0.0369267983
630296220.0 0.0317681369 -0.0380185787 0.1888239355 -0.7703632496 0.1886467553 -0.7703862901 0.0315802864 -0.0372115926
635296190.0 0.0300025563 -0.0389829826 0.1806836881 -0.7724427842 0.1807784654 -0.7728854427 0.0313969713 -0.0375102629
640296160.0 0.0295439451 -0.0387457426 0.1721847071 -0.7742607297 0.1727436309 -0.7747351453 0.0306856829 -0.0377498263
645296130.0 0.029327233 -0.0391608994 0.163366929 -0.7764530913 0.1639592196 -0.7761624536 0.0302092453 -0.0378675947
650296100.0 0.028663766 -0.0394467872 0.1554387712 -0.7783228185 0.155772686 -0.7778278413 0.0301527352 -0.0388613357
655296070.0 0.0276224549 -0.0398639131 0.1467865739 -0.7800954665 0.1473003534 -0.7800139333 0.0296493259 -0.0387114675
660296040.0 0.0266250549 -0.0404209882 0.1384665864 -0.781462297 0.1388336684 -0.7819268815 0.0291719706 -0.0389018371
665296010.0 0.0271063243 -0.0401708293 0.1293345967 -0.7829583614 0.1295765501 -0.7824922967 0.0281785379 -0.038556352
670295980.0 0.0250658084 -0.0402751789 0.1210875448 -0.7840196455 0.1216392134 -0.7839419984 0.0274152866 -0.0390607406
675295950.0 0.025465394 -0.040223083 0.1134498641 -0.7853642039 0.112922116 -0.7847944414 0.0267639827 -0.039431098
680295920.0 0.0243466737 -0.0411196125 0.1039076097 -0.7865801977 0.1034802994 -0.7868022919 0.0262264146 -0.0386701377
685295890.0 0.0242080518 -0.0401769821 0.0956070805 -0.7879392629 0.0952275021 -0.7877741587 0.0256776343 -0.0392838243
690295860.0 0.023891274 -0.0408410569 0.0870068216 -0.7879467985 0.0868583606 -0.788859819 0.0246920614 -0.0384397791
695295830.0 0.0232733057 -0.0412562408 0.078906987 -0.7892186163 0.0783092642 -0.7895179413 0.0241733736 -0.0391137519
700295800.0 0.0223925607 -0.041720599 0.0697257131 -0.7898094706 0.0692707728 -0.7897090855 0.02374519 -0.0384850117
705295770.0 0.0214084003 -0.0405966207 0.0606863084 -0.7911211089 0.0613574156 -0.7909225767 0.0229037185 -0.0390503031
710295740.0 0.0212817113 -0.0413671609 0.0526773992 -0.7923862528 0.053317121 -0.7918932173 0.0228775442 -0.04004448
715295710.0 0.0201405762 -0.0416210019 0.044206844 -0.792335502 0.0434597572 -0.7923288621 0.0220863246 -0.0397746325
720295680.0 0.0199451701 -0.0417372906 0.0356098423 -0.7925542651 0.0359530676 -0.7919967809 0.0215070085 -0.0391813586
725295650.0 0.0192868133 -0.0416063157 0.026514048 -0.7923030319 0.0268942201 -0.7929200654 0.0200814249 -0.0394669676
730295620.0 0.0189673586 -0.0411786443 0.0176126982 -0.7925859461 0.018404016 -0.7929302489 0.0197799908 -0.0400828133
735295590.0 0.0180523967 -0.0412495304 0.0093628576 -0.7937463537 0.0096639006 -0.7934757787 0.018998835 -0.0401444514
740295560.0 0.0172721318 -0.0414933908 0.0008144261 -0.7929850468 0.0009154886 -0.7933248347 0.0189752807 -0.0400066344
745295530.0 0.0169724615 -0.0412609148 -0.0078978965 -0.7922122918 -0.0081341415 -0.7933292165 0.018034203 -0.0404016529
750295500.0 0.0163430208 -0.0415539788 -0.016017866 -0.7930876518 -0.016542735 -0.7932405761 0.0173197341 -0.0403228193
755295470.0 0.0159508057 -0.042150222 -0.024277612 -0.7928894834 -0.024518695 -0.7929886725 0.0175453574 -0.0408499513
760295440.0 0.0150633641 -0.0415833599 -0.0337915041 -0.7931098066 -0.0336442631 -0.792876888 0.0165356232 -0.0407605634
765295410.0 0.0146331558 -0.0420113627 -0.0425146527 -0.79202464 -0.0426500446 -0.7925806161 0.0160970921 -0.0404937809
770295380.0 0.013200304 -0.042044558 -0.0516414366 -0.7913330789 -0.0510915653 -0.7915804594 0.0153236289 -0.0409509484
775295350.0 0.0127952187 -0.0426670928 -0.0600273038 -0.7904546134 -0.0588133931 -0.79093593 0.0137399914 -0.040765336
780295320.0 0.0127459015 -0.042177391 -0.0681986111 -0.7896778851 -0.0673189238 -0.7901102739 0.0135664564 -0.0413653074
785295290.0 0.0116111313 -0.0427511067 -0.0771828586 -0.7892687628 -0.0764256376 -0.7891044778 0.0141065705 -0.0407542169
790295260.0 0.0116796318 -0.0414953874 -0.0847021294 -0.7880831772 -0.0843363309 -0.7882043373 0.0127158777 -0.0409821779
795295230.0 0.0109449045 -0.0425255803 -0.0938431892 -0.7873003169 -0.0929144187 -0.787563935 0.0125915968 -0.0402420241
800295200.0 0.0097849647 -0.04191784 -0.1029632703 -0.7859393387 -0.102090469 -0.7864346423 0.0117071917 -0.0412356919
805295170.0 0.0094340064 -0.0425117222 -0.1109523288 -0.7846049348 -0.1107373813 -0.7854759192 0.0112675616 -0.0404860655
810295140.0 0.0083403404 -0.0426239651 -0.1196690712 -0.7837165119 -0.1190977525 -0.7838558944 0.011390371 -0.0405441376
815295110.0 0.0080763506 -0.0427226011 -0.1276291993 -0.7826669476 -0.1276873198 -0.7822992681 0.0100548209 -0.0404876291
820295080.0 0.0069359941 -0.0416449544 -0.1364922525 -0.7805641694 -0.1356233371 -0.7809213333 0.0094711373 -0.0403516956
825295050.0 0.0071458962 -0.0419913848 -0.1436553451 -0.7787642407 -0.1447806579 -0.7793254702 0.009469251 -0.0404529841
830295020.0 0.0063131828 -0.0417980203 -0.1534450089 -0.7776339344 -0.1533748441 -0.7775346038 0.0094504821 -0.0401372353
