!Created with skrf (http://scikit-rf.org).
# Hz S RI R 50.0 
!freq ReS11 ImS11 ReS21 ImS21 ReS12 ImS12 ReS22 ImS22
300000.0 -0.2364737048 -0.0924663594 0.4699510752 0.0626739608 0.4682952176 0.0587458038 -0.2367672342 -0.1002390857
5299970.0 -0.2451561474 0.0065815607 0.4748340698 0.0052313137 0.4747929318 0.0051399387 -0.2409714865 0.0073101824
10299940.0 -0.2417469537 0.0177578218 0.4766811355 0.006311515 0.4768330323 0.0062916265 -0.2373425426 0.0202290768
15299910.0 -0.2374205712 0.0269338579 0.4805021326 0.0074911832 0.4807164219 0.0072500739 -0.2328044436 0.0303191581
20299880.0 -0.2328786322 0.0339058349 0.485042623 0.0087526638 0.4848514346 0.007859061 -0.2277475547 0.0379842694
25299850.0 -0.2276559791 0.0403178379 0.4901526963 0.0069898622 0.4901915794 0.0069342134 -0.2217441668 0.0449068375
30299820.0 -0.2223145467 0.045129098 0.4953955409 0.0049427406 0.495351559 0.0047171017 -0.2157476865 0.0504808464
35299790.0 -0.2174894208 0.0489780808 0.5008372155 0.0015972253 0.5007571581 0.0016347874 -0.2104649394 0.0545613952
40299760.0 -0.2126402068 0.0525592084 0.5059665223 -0.0023513985 0.5060272889 -0.0023373941 -0.2051272692 0.0576874278
45299730.0 -0.2081239801 0.0547311306 0.5103768124 -0.0068605278 0.5105611951 -0.0068836483 -0.2003946806 0.0606730411
50299700.0 -0.2037679077 0.0567767725 0.5150169481 -0.0127890546 0.5149581787 -0.0120585529 -0.1955059805 0.0626618716
55299670.0 -0.1999665272 0.058307958 0.5187220859 -0.0190099653 0.5183986918 -0.0185909128 -0.1912690728 0.0643370929
60299640.0 -0.1958315014 0.0600008057 0.5216681395 -0.0253117466 0.5219912057 -0.0245607591 -0.1875144779 0.065457792
65299610.0 -0.1929997344 0.0609899231 0.5248873016 -0.0312855649 0.5247121877 -0.0313213213 -0.1841532162 0.0669483281
70299580.0 -0.1898505002 0.0624348217 0.527035565 -0.0379316573 0.5268230002 -0.0377993714 -0.1809794906 0.0676414652
75299550.0 -0.1870740097 0.0630782914 0.529069308 -0.0448550043 0.52902769 -0.0446657726 -0.1778516042 0.0683959081
80299520.0 -0.1846615746 0.0637439918 0.5308170676 -0.0515173258 0.5306873017 -0.0516469423 -0.1753550267 0.0694154523
85299490.0 -0.182475132 0.0640618203 0.5319691577 -0.0580559664 0.5321699626 -0.0579530354 -0.1729993833 0.0697776064
90299460.0 -0.1803428576 0.0648259242 0.5326920184 -0.065164424 0.5332032527 -0.0651979296 -0.1705650365 0.0704256426
95299430.0 -0.1779996351 0.0653243358 0.5338174998 -0.0720924094 0.5341001904 -0.0725475989 -0.1683368185 0.0714719922
100299400.0 -0.1765037248 0.0663163537 0.5339612772 -0.0788673236 0.5340589684 -0.0790691483 -0.1659073453 0.0713374796
105299370.0 -0.1749467913 0.0670047986 0.5342749938 -0.0866355533 0.5349957275 -0.0859989828 -0.1640984548 0.0725245803
110299340.0 -0.1733760173 0.0675009264 0.5354119687 -0.0922689043 0.5346919593 -0.0924719425 -0.1627500233 0.0730103224
115299310.0 -0.1718717987 0.0681094577 0.5343679671 -0.0998908709 0.5349239639 -0.0994571463 -0.1612938785 0.0735495191
120299280.0 -0.1706462545 0.0685063364 0.5343726456 -0.1064131147 0.5346270567 -0.1063293932 -0.1593292304 0.0743883879
125299250.0 -0.1695787414 0.0692266606 0.5343446521 -0.112965456 0.5343300693 -0.1127272191 -0.1584525656 0.0745344327
130299220.0 -0.1685463162 0.0703741466 0.5329975244 -0.1200762683 0.5332077409 -0.1195849896 -0.1573624129 0.0757079211
135299190.0 -0.1675267338 0.0713524443 0.5330110017 -0.1264819984 0.5328087109 -0.1262111777 -0.1559040964 0.0763476955
140299160.0 -0.1666419716 0.0721833748 0.5319426003 -0.1332573833 0.5321865051 -0.133143309 -0.1546719737 0.0779742491
145299130.0 -0.1655341997 0.072920461 0.5310905276 -0.1397764208 0.5310373198 -0.1395349161 -0.1533275239 0.0786705194
150299100.0 -0.1639918015 0.073968425 0.5296095382 -0.1458615936 0.5301534677 -0.1455952451 -0.1520943932 0.080388352
155299070.0 -0.1637506085 0.0745501 0.5292265771 -0.1533059493 0.5285027088 -0.1528169048 -0.1511298733 0.0810493048
160299040.0 -0.162817283 0.0758999165 0.5275625763 -0.159047913 0.5271833582 -0.1592555977 -0.1503492716 0.0822299206
165299010.0 -0.1621619418 0.0767480249 0.5261722927 -0.1654923863 0.5259987176 -0.1659331941 -0.1490640195 0.0836353569
170298980.0 -0.1614327479 0.0778495806 0.5241176358 -0.1720334663 0.524623272 -0.1717851394 -0.1480611199 0.0846369057
175298950.0 -0.1608022299 0.0789059313 0.5231480733 -0.178120405 0.52296728 -0.1779641104 -0.1473821036 0.0859816507
180298920.0 -0.160203286 0.0800011983 0.5207492728 -0.18431305 0.5209238803 -0.1839210571 -0.1464722373 0.0875673165
185298890.0 -0.1586713186 0.080972161 0.5189992936 -0.1907588795 0.5190037287 -0.1905649578 -0.1454836926 0.0887164867
190298860.0 -0.1582115831 0.082546039 0.5174867979 -0.1970516606 0.5176323033 -0.1967395221 -0.144561182 0.0897974108
195298830.0 -0.1576475145 0.0834316462 0.5148410745 -0.2026416357 0.5154076189 -0.2025991791 -0.1433780786 0.0912221908
200298800.0 -0.1566758175 0.0845641608 0.5129196504 -0.2091747175 0.5130733763 -0.2093834027 -0.14292956 0.0926825691
205298770.0 -0.1558994829 0.0858351863 0.5105728205 -0.215308024 0.5108837016 -0.2150408774 -0.1418603687 0.0934493854
210298740.0 -0.1553461992 0.0870395306 0.5082549065 -0.2207318833 0.5089377639 -0.2206631103 -0.1409783154 0.0955104318
215298710.0 -0.1550832531 0.088412945 0.5064997365 -0.2272940191 0.5065594009 -0.2271361113 -0.1404805008 0.0966378944
220298680.0 -0.1542005097 0.0890042141 0.5033913693 -0.2325890944 0.5037701891 -0.2328409789 -0.1395361699 0.0974986507
225298650.0 -0.1533845645 0.0907797026 0.5015334412 -0.2388838619 0.5017329981 -0.2385876959 -0.1388733239 0.0987358102
230298620.0 -0.1526094598 0.092097316 0.499267068 -0.2442815692 0.4993133115 -0.2444240137 -0.1379351396 0.1003285343
235298590.0 -0.1517293309 0.0937670119 0.4962470976 -0.2498059965 0.4962401276 -0.2496741358 -0.137016246 0.1016433479
240298560.0 -0.1510646939 0.095100977 0.4937302645 -0.2562850611 0.4932728099 -0.255992972 -0.1358524777 0.1033601241
245298530.0 -0.1505354143 0.0962866015 0.4910520836 -0.2618500759 0.4908795278 -0.2616355297 -0.1345642185 0.104072874
250298500.0 -0.149218975 0.0978111291 0.4873062617 -0.267475806 0.487576673 -0.2666108158 -0.1342136115 0.1055435056
255298470.0 -0.148691054 0.0985942851 0.4845802173 -0.2725708501 0.4848420094 -0.2727250478 -0.1326867288 0.1069897714
260298440.0 -0.1479730896 0.0997950261 0.4817321191 -0.2783472254 0.4824352215 -0.278326409 -0.1314097995 0.1083391229
265298410.0 -0.1467320574 0.1018719801 0.4787923611 -0.2844282274 0.479444948 -0.2836525586 -0.130753853 0.1097324296
270298380.0 -0.1460466304 0.1029524278 0.4762826327 -0.2889355808 0.4762320544 -0.2892400772 -0.1296679831 0.1112817685
275298350.0 -0.1448060191 0.1042599083 0.4728758034 -0.2949212222 0.4730883727 -0.2948408234 -0.1282741571 0.1122258349
280298320.0 -0.1438909624 0.1058619543 0.4698431174 -0.3002793273 0.4697852686 -0.2998188886 -0.1266423185 0.113705347
285298290.0 -0.143000734 0.1072847043 0.4664023895 -0.3053650531 0.4662913251 -0.3055622856 -0.1255023928 0.1146706827
290298260.0 -0.1417173667 0.1084346707 0.4630411381 -0.310461517 0.463414417 -0.3106280502 -0.1242716457 0.116543249
295298230.0 -0.1408253643 0.1094585513 0.4601535112 -0.3155785359 0.4596552483 -0.315645472 -0.1225174801 0.117266342
300298200.0 -0.140205598 0.1110092824 0.456443675 -0.3208579887 0.4564413862 -0.3212698243 -0.1219209653 0.1189045452
305298170.0 -0.1390127259 0.1120519982 0.4524693465 -0.3263447407 0.4527372397 -0.3262397768 -0.1198864412 0.1199391589
310298140.0 -0.1378540927 0.1135885711 0.4495125648 -0.3313793838 0.4495093955 -0.331265642 -0.1189894892 0.12134234
315298110.0 -0.1371553452 0.1145867674 0.4458431261 -0.3370305215 0.4459295793 -0.3370376278 -0.117649992 0.1226758587
320298080.0 -0.1358787475 0.1159614497 0.4415434373 -0.3420405498 0.4419474677 -0.3416587899 -0.1164437995 0.1241769834
325298050.0 -0.1349516632 0.1169798142 0.4378482606 -0.3471926155 0.4378595507 -0.3466648615 -0.1154911709 0.1253486724
330298020.0 -0.1341072317 0.1181163699 0.4338360682 -0.3519189361 0.4338970018 -0.3521048354 -0.1138981401 0.1266503733
335297990.0 -0.1329816987 0.1194932889 0.4302224623 -0.3566618262 0.4300355736 -0.3569443501 -0.1130039374 0.128393021
340297960.0 -0.1324425799 0.1209844287 0.4254738738 -0.3613415312 0.4254836369 -0.3617345337 -0.1111386216 0.1297496998
345297930.0 -0.131513476 0.1228495845 0.4217065518 -0.366560658 0.4216670261 -0.3662274101 -0.1102982807 0.1304624632
350297900.0 -0.1304199367 0.1235508548 0.4170656547 -0.3708015227 0.4175743746 -0.3707304099 -0.109333046 0.1324221757
355297870.0 -0.1292891575 0.1255205461 0.4130320289 -0.37536495 0.4137037785 -0.3750315436 -0.10789123 0.1338302344
360297840.0 -0.1281264247 0.1268550711 0.4097368499 -0.3799569154 0.4099526425 -0.3795083716 -0.1066751049 0.1354329614
365297810.0 -0.1271981883 0.128381387 0.4050339273 -0.3846567034 0.4054939421 -0.3842742625 -0.1048530118 0.1364852803
370297780.0 -0.1257880619 0.1294739969 0.4005926548 -0.3889794886 0.401288906 -0.3883909462 -0.1038202842 0.1381262818
375297750.0 -0.1244347462 0.1307443435 0.3970302432 -0.3931621869 0.3970524804 -0.3931274738 -0.1021592022 0.1392700312
380297720.0 -0.1233788227 0.1319989241 0.3921346721 -0.3974088989 0.3922616252 -0.3970792882 -0.1013405139 0.1406439445
385297690.0 -0.1227343796 0.1334957845 0.3881708691 -0.4017199524 0.3874644695 -0.4017293042 -0.0993601112 0.1421476184
390297660.0 -0.1211454186 0.1351365961 0.3835858064 -0.4061842984 0.3833446002 -0.4057502165 -0.0981820278 0.1432253417
395297630.0 -0.1196242157 0.1362421673 0.3790357676 -0.4101021867 0.378823661 -0.4102134275 -0.0963951943 0.1443094385
400297600.0 -0.118817067 0.1376546463 0.374521078 -0.4143883431 0.374415418 -0.4146659422 -0.0950457645 0.1457734722
405297570.0 -0.1176903531 0.138792254 0.3699177652 -0.418133214 0.3700011564 -0.4183367699 -0.0935877496 0.1472075063
410297540.0 -0.1159839569 0.140227645 0.365058233 -0.422442484 0.3657313651 -0.4225687959 -0.0921539671 0.148114906
415297510.0 -0.1146211033 0.1414539291 0.3602919525 -0.4267624271 0.360854002 -0.426707978 -0.0904097422 0.1490281283
420297480.0 -0.1134409099 0.1426841804 0.3556329518 -0.4303783134 0.3558438123 -0.4304808968 -0.089317153 0.1503285051
425297450.0 -0.1119180979 0.1435216405 0.3513476026 -0.4344489004 0.351569026 -0.4342479341 -0.0879061128 0.1518047054
430297420.0 -0.1106659284 0.1448431351 0.3464356638 -0.4379251908 0.3465992025 -0.4377223493 -0.0859506312 0.1523992263
435297390.0 -0.1093712022 0.1461447388 0.3415614957 -0.4418752668 0.3410148257 -0.4419240927 -0.0836887964 0.1536169847
440297360.0 -0.1078684799 0.1475054533 0.3366972914 -0.4453271771 0.3365089328 -0.4452506795 -0.0821889696 0.1542437368
445297330.0 -0.1066065358 0.148406711 0.3322334047 -0.4492670671 0.3320976515 -0.4487721047 -0.0805478014 0.1548783209
450297300.0 -0.1050558085 0.1494439783 0.3269984051 -0.4527972061 0.3268146929 -0.4529336621 -0.0789518549 0.1561304361
455297270.0 -0.1037535031 0.1509300137 0.3215498622 -0.4561855349 0.3218982747 -0.4566828931 -0.077305158 0.1569135934
460297240.0 -0.10248397 0.151996385 0.3164850812 -0.4594742031 0.3168748667 -0.4599539394 -0.0756785728 0.158220207
465297210.0 -0.1008460856 0.1531693739 0.3119282968 -0.4631302811 0.3119556995 -0.4633185907 -0.0734504923 0.1590400204
470297180.0 -0.0993137662 0.1537126021 0.3066959431 -0.4665172224 0.3068024617 -0.4663570953 -0.0717562393 0.1602063732
475297150.0 -0.0977850592 0.1547548693 0.3011984991 -0.469302268 0.3020437778 -0.4693064973 -0.0695732299 0.1606455876
480297120.0 -0.0964034127 0.1561326928 0.2967484783 -0.4732174272 0.2962329802 -0.4733745984 -0.0675870353 0.1618250488
485297090.0 -0.0950737209 0.1570775762 0.2919150578 -0.475994142 0.2917220063 -0.4760525231 -0.0661750097 0.1626607833
490297060.0 -0.0938469554 0.1584285082 0.2859123244 -0.4794601737 0.286338275 -0.4791610566 -0.0640956298 0.1639164642
495297030.0 -0.0920544115 0.1591757323 0.2808742254 -0.4824129842 0.2814433896 -0.4822782217 -0.0626015306 0.1646030422
500297000.0 -0.0903917874 0.1602196147 0.2756899423 -0.4847853943 0.2754562295 -0.4851329442 -0.0605245975 0.166050355
505296970.0 -0.0885987807 0.1613214154 0.2702002386 -0.4882189871 0.2701857004 -0.4885722541 -0.0587397995 0.1665198633
510296940.0 -0.0870210353 0.1624814614 0.2652247968 -0.4910104124 0.2648920155 -0.4917390225 -0.0567105398 0.1675047173
515296910.0 -0.0857229143 0.1632340606 0.2593576199 -0.4941135293 0.25949685 -0.4938659845 -0.0550406183 0.1683646831
520296880.0 -0.084236627 0.1645755342 0.254112647 -0.4975189856 0.2544137963 -0.4966294727 -0.0534124172 0.168961724
525296850.0 -0.0824795547 0.1648386775 0.2486393986 -0.4992791026 0.249359496 -0.4993724799 -0.0517056521 0.1699457581
530296820.0 -0.0808732335 0.166337168 0.2432217449 -0.5020697605 0.2434160064 -0.5020322413 -0.0494848086 0.1708090767
535296790.0 -0.0796479462 0.1671085714 0.2381002019 -0.5042841742 0.2381022796 -0.5044608477 -0.0478044949 0.1711306873
540296760.0 -0.0779201045 0.1682994109 0.2325011027 -0.5078230046 0.2325784959 -0.5073952825 -0.0461722824 0.1723512866
545296730.0 -0.0763373324 0.1689317822 0.22646179 -0.5099454977 0.2267685462 -0.5096047551 -0.0442086899 0.1726946338
550296700.0 -0.0742295899 0.1698328062 0.2210519141 -0.5121695536 0.2213021495 -0.5124697902 -0.0424601378 0.173664873
555296670.0 -0.0730946585 0.1705290393 0.216077478 -0.5143949285 0.2159345616 -0.5145605669 -0.0402573836 0.1745564985
560296640.0 -0.0711678931 0.1717556495 0.2098395436 -0.5168931255 0.2105375141 -0.516605463 -0.0388071945 0.1748513405
565296610.0 -0.06994337 0.1728397169 0.2043631732 -0.5193436985 0.2046664862 -0.5190395096 -0.0368624923 0.1751094989
570296580.0 -0.068099895 0.1732209895 0.198798646 -0.5218772316 0.198551257 -0.5214298241 -0.0349066504 0.1763232928
575296550.0 -0.0666113938 0.1742686721 0.1932885647 -0.5236033143 0.193225593 -0.5232466313 -0.0327820806 0.1765981013
580296520.0 -0.0645308681 0.1750552705 0.1876146559 -0.5255145319 0.1878543908 -0.5255722631 -0.0311898752 0.17683398
585296490.0 -0.0630242202 0.175290655 0.1818927106 -0.5274410145 0.1821298704 -0.5274588399 -0.0291390942 0.177426772
590296460.0 -0.0608976858 0.1764817152 0.1759353743 -0.5285440949 0.1760259012 -0.5291385868 -0.0276811549 0.1781162445
595296430.0 -0.0594723823 0.1772557643 0.1698700705 -0.5313000055 0.1701116019 -0.5308585841 -0.0252031664 0.1777756801
600296400.0 -0.0577240294 0.1778267321 0.1645821864 -0.5325003859 0.164422634 -0.5325577597 -0.0233450309 0.1785262527
605296370.0 -0.0562413377 0.1786820045 0.1586868742 -0.5343248141 0.1591787558 -0.5345855191 -0.0215167072 0.1789411669
610296340.0 -0.0540598589 0.1791963367 0.1527437218 -0.5362904319 0.152794982 -0.5361012637 -0.0191336852 0.1792736351
615296310.0 -0.052432324 0.1794529139 0.1469315468 -0.5373951927 0.1469807838 -0.53805736 -0.017069289 0.1790509446
620296280.0 -0.0507959704 0.1801280131 0.1413876448 -0.5394440646 0.1413748633 -0.5390624184 -0.01552984 0.1797638288
625296250.0 -0.049242103 0.1805559754 0.1358880065 -0.5406861787 0.1355675736 -0.540902678 -0.0126525564 0.1798566233
630296220.0 -0.0467429496 0.1814618905 0.1292960377 -0.5425819189 0.1292993067 -0.5419075101 -0.0108210672 0.1803587491
635296190.0 -0.0460129723 0.1821176757 0.1235814593 -0.5434712158 0.1237808737 -0.5435960822 -0.0089329939 0.1806792857
640296160.0 -0.0442008211 0.182794217 0.1176316876 -0.5443962507 0.1183038034 -0.5448278716 -0.0068638118 0.180462574
645296130.0 -0.0423265998 0.1833295967 0.1116690615 -0.5457592732 0.1123494041 -0.5457524225 -0.0048472558 0.1812400435
650296100.0 -0.0402050912 0.1836892528 0.106140907 -0.5473449995 0.1059062601 -0.5472525974 -0.0025007213 0.180639554
655296070.0 -0.0387086738 0.183958689 0.0998702042 -0.5480620641 0.1002868283 -0.5482128011 -0.0003945355 0.1812083116
660296040.0 -0.0371807909 0.1842403763 0.0942740018 -0.5491349226 0.0946396427 -0.5492220576 0.0016490497 0.1819911062
665296010.0 -0.0347339096 0.1849513599 0.0873521866 -0.5501162292 0.0884142207 -0.550237767 0.0037799811 0.1818262127
670295980.0 -0.0336558284 0.1858833419 0.0826488039 -0.5509500359 0.0826456376 -0.5510735537 0.0053580137 0.1818982143
675295950.0 -0.0315781534 0.1862945859 0.0763737497 -0.5518315404 0.0766280809 -0.5512850277 0.00730511 0.1822944036
680295920.0 -0.030194026 0.1864105025 0.0703655275 -0.551891198 0.0700701839 -0.5531148932 0.0094989937 0.1826618265
685295890.0 -0.0279026551 0.1875234736 0.0646264267 -0.553287832 0.0640531495 -0.5531789249 0.01147781 0.1824585751
690295860.0 -0.0257205612 0.1877547359 0.0585228425 -0.5538009556 0.0584991204 -0.5543579574 0.0133226881 0.1831268996
695295830.0 -0.0243768256 0.1878441159 0.052865406 -0.5542277173 0.0522133309 -0.5541848147 0.0155401484 0.1827824722
700295800.0 -0.0222575537 0.188052154 0.0463597522 -0.5551192709 0.0460176613 -0.5549593351 0.0176200963 0.1835466613
705295770.0 -0.0208707284 0.1892419608 0.040576006 -0.5552823842 0.0408708167 -0.5556999766 0.0195314413 0.1832659712
710295740.0 -0.0187408125 0.1890442365 0.0343640057 -0.5559843527 0.0347165557 -0.5560603332 0.0218213972 0.1826581876
715295710.0 -0.0174074496 0.1893776346 0.0290335917 -0.5560442233 0.0285160567 -0.5558703625 0.0234257132 0.1828308991
720295680.0 -0.0154668265 0.1896769562 0.0223799484 -0.5566209887 0.0228053239 -0.5564253215 0.0255863911 0.1830647536
725295650.0 -0.0133841633 0.1899815008 0.0166377775 -0.5565924599 0.0167419103 -0.5571230094 0.0272461483 0.1831987016
730295620.0 -0.0111548908 0.1904173197 0.0103178545 -0.5561744524 0.0105459087 -0.557084299 0.0293262444 0.182935574
735295590.0 -0.0095048642 0.1908058962 0.0046833594 -0.5566559588 0.0046379392 -0.5569044049 0.0308607857 0.1820744951
740295560.0 -0.0080183872 0.1910537556 -0.0014119475 -0.5565745404 -0.0015045848 -0.5568951223 0.0336330707 0.1827018611
745295530.0 -0.0058872633 0.1913695726 -0.0074176925 -0.5561376094 -0.0074333458 -0.5568508617 0.0352794959 0.1817163547
750295500.0 -0.0037669215 0.1911059848 -0.0135118305 -0.5562241211 -0.0132844216 -0.5566647176 0.0371200777 0.1816101688
755295470.0 -0.0021469186 0.1912540951 -0.0189399657 -0.5562932826 -0.0192248498 -0.5564720713 0.0394592789 0.1812126021
760295440.0 -0.0006626488 0.1917278377 -0.025241663 -0.556337106 -0.0256375406 -0.5563330858 0.0410819277 0.1808291753
765295410.0 0.0016008766 0.191834031 -0.0312840534 -0.5558232009 -0.0320332738 -0.5558461873 0.0434868095 0.1804919227
770295380.0 0.0030562528 0.1918519737 -0.0377074308 -0.5549377148 -0.0376605587 -0.5553316029 0.045214865 0.180018559
775295350.0 0.004883824 0.1914973784 -0.0436066029 -0.5543480579 -0.0430629515 -0.5548219287 0.0464989727 0.1798765788
780295320.0 0.0070121736 0.1919971229 -0.0494033271 -0.5541940867 -0.0483398356 -0.5545688218 0.0488236316 0.1790737552
785295290.0 0.0085476081 0.191418576 -0.0555650915 -0.5534976396 -0.0550096269 -0.5536465597 0.0513348999 0.1790874412
790295260.0 0.0109611842 0.1922515477 -0.0609084737 -0.5528759384 -0.0602664797 -0.552913449 0.0532545173 0.1782489164
795295230.0 0.0126274081 0.1921914915 -0.0675340317 -0.5523647015 -0.0666646461 -0.5527400706 0.0557148264 0.1781384843
800295200.0 0.0141265298 0.1919908799 -0.0737589712 -0.550817733 -0.0725369656 -0.5514421112 0.0575910269 0.1775365806
805295170.0 0.0164322069 0.1918776634 -0.0791887249 -0.5502233874 -0.079093731 -0.5503827434 0.0593554704 0.1770669085
810295140.0 0.0178729817 0.1915155547 -0.0848132001 -0.5494091296 -0.0847450363 -0.5499939224 0.0617425421 0.1766762228
815295110.0 0.0198137418 0.1915103744 -0.0907688026 -0.5484024599 -0.0902638239 -0.5485822761 0.0635042675 0.1757503622
820295080.0 0.0213834791 0.1921213746 -0.0965555139 -0.5472883789 -0.0961929827 -0.5475411189 0.0656571575 0.1753713455
825295050.0 0.0240716083 0.1917564683 -0.1022096288 -0.5459887018 -0.1020903031 -0.5463244061 0.0677365824 0.1749596579
830295020.0 0.0255580772 0.1916479977 -0.1084484309 -0.5451914411 -0.1085644133 -0.5449442922 0.0703110748 0.1742101825
