!Created with skrf (http://scikit-rf.org).
# Hz S RI R 50.0 
!freq ReS11 ImS11 ReS21 ImS21 ReS12 ImS12 ReS22 ImS22
300000.0 -0.3201034446 -0.1007708913 0.3741535619 0.0499429846 0.3760881578 0.0541936117 -0.3199906013 -0.1100402123
5299970.0 -0.3237226686 0.0051713478 0.3784773626 0.0024858435 0.3786013004 0.0031984533 -0.326327118 0.0029751861
10299940.0 -0.3208408989 0.0157525015 0.3795856665 0.0025261843 0.3801317545 0.0024663372 -0.32434876 0.0129245515
15299910.0 -0.3182140478 0.0238040311 0.3818993345 0.0021027005 0.3819641497 0.0023517742 -0.3213273681 0.0198903532
20299880.0 -0.3141894504 0.0301005224 0.3848757565 0.0016644595 0.3852985855 0.0016002801 -0.3185656111 0.0259847737
25299850.0 -0.3106535 0.0356373831 0.3882719235 -6.3878e-06 0.3885032358 4.3383e-06 -0.3158417728 0.0310550995
30299820.0 -0.3064882881 0.0406440192 0.3921829837 -0.002216425 0.3915726488 -0.0023664522 -0.3126502498 0.0355901757
35299790.0 -0.3029137099 0.0445950156 0.3953356396 -0.0053652954 0.3954999905 -0.0051092507 -0.3097919168 0.0395023446
40299760.0 -0.2998188392 0.0479083301 0.3982282914 -0.0085517458 0.3985220684 -0.008886139 -0.3070825082 0.0430923024
45299730.0 -0.2964632019 0.0516094382 0.4011003503 -0.0129956527 0.4014850028 -0.012615051 -0.3050345695 0.0461261783
50299700.0 -0.2931750075 0.0538650447 0.4033190142 -0.0172028007 0.4037179187 -0.0171352141 -0.3022694852 0.0490115242
55299670.0 -0.2906705675 0.0571115551 0.4056186837 -0.0219629238 0.4060361865 -0.0218897852 -0.3005665683 0.0517279467
60299640.0 -0.2880198926 0.0589430423 0.407453674 -0.0270248169 0.4076087056 -0.0269654394 -0.298141096 0.0544673492
65299610.0 -0.2860865038 0.0615822784 0.4093669104 -0.0315470194 0.4094651664 -0.0318499076 -0.2962391261 0.057337947
70299580.0 -0.2838285074 0.0635902949 0.4105211854 -0.0368083126 0.4106524527 -0.0366541423 -0.2948425275 0.0591922748
75299550.0 -0.2819913657 0.065920277 0.4114950969 -0.0419940581 0.4114742969 -0.0421552763 -0.2932184436 0.0621407214
80299520.0 -0.2802898932 0.0679935695 0.4130093856 -0.0472662213 0.4126235503 -0.0473875111 -0.2916382702 0.0640647009
85299490.0 -0.2785287213 0.0698389978 0.4129116268 -0.0527045381 0.4128820228 -0.0528251414 -0.290039384 0.0663075282
90299460.0 -0.2769021479 0.0719872116 0.4134310191 -0.0575750244 0.413707473 -0.057960992 -0.2885323352 0.0688616367
95299430.0 -0.2754564763 0.0740557741 0.4140432966 -0.0634618309 0.4138409301 -0.0633034005 -0.2876085987 0.0714095678
100299400.0 -0.2743535634 0.0763238691 0.4133709952 -0.0686246248 0.413618523 -0.0685222992 -0.286576912 0.0730728342
105299370.0 -0.272778213 0.0785372489 0.4131426449 -0.0733101186 0.413677875 -0.0737389662 -0.2850095278 0.0754855224
110299340.0 -0.2718392369 0.0805418002 0.413073453 -0.0785097349 0.4135403062 -0.0789186401 -0.2840526405 0.0779598215
115299310.0 -0.270490755 0.0824854471 0.4127707926 -0.0834313115 0.4132504925 -0.083590444 -0.2830396019 0.0800769893
120299280.0 -0.2697846346 0.0846050372 0.4130398828 -0.0890017821 0.4128563475 -0.0892623212 -0.2823521215 0.0828196418
125299250.0 -0.2689471094 0.0866319663 0.4122982163 -0.0939774558 0.4124622212 -0.0942019237 -0.2814660786 0.0847130593
130299220.0 -0.2678205007 0.0890555206 0.4116659896 -0.0986162372 0.4115542967 -0.0990732055 -0.2804279259 0.0872427662
135299190.0 -0.2668430559 0.0911170424 0.4110636473 -0.1040319596 0.4106551608 -0.1041558073 -0.2795792312 0.0897598721
140299160.0 -0.2657221872 0.0936301253 0.4099366565 -0.1090404505 0.4102116106 -0.1092747399 -0.2784370091 0.0923568044
145299130.0 -0.2647267781 0.0959037353 0.4091899549 -0.1144142332 0.4089985078 -0.113880704 -0.2778462159 0.0945409702
150299100.0 -0.2638168602 0.0980321031 0.4079126843 -0.1190699031 0.408275517 -0.1190436064 -0.2768555579 0.097096325
155299070.0 -0.2628572345 0.1009649679 0.4074183511 -0.1241884104 0.4071614469 -0.1243658771 -0.2763664145 0.0995325981
160299040.0 -0.2620538088 0.1029522934 0.4058596287 -0.1287478687 0.4060180008 -0.1288527553 -0.2750238839 0.1025729267
165299010.0 -0.2611106767 0.1054856654 0.4046331596 -0.1337933758 0.4045204961 -0.1339013183 -0.2740150519 0.1046670331
170298980.0 -0.2602315651 0.1077597767 0.4024914012 -0.1385951782 0.4030506185 -0.1384755928 -0.2730592914 0.1073195492
175298950.0 -0.2590263602 0.1104043921 0.4022463732 -0.1433059522 0.4019513491 -0.1432978503 -0.2720553251 0.1099400852
180298920.0 -0.2579517158 0.1125406449 0.4005435252 -0.1482243563 0.400373746 -0.1478443119 -0.2708365091 0.1126976545
185298890.0 -0.2568792616 0.1152651356 0.398737769 -0.1525255449 0.3990333806 -0.1525694882 -0.2703341785 0.1148929554
190298860.0 -0.2558737432 0.1178778914 0.3971590958 -0.1574951429 0.397358581 -0.1574817462 -0.2688830088 0.1176570217
195298830.0 -0.2547101583 0.1201041035 0.3957916586 -0.1618263448 0.3957462782 -0.1622025613 -0.2679080241 0.1202435503
200298800.0 -0.2537442897 0.1226882901 0.3938188593 -0.1662137051 0.3938306324 -0.1666997418 -0.2665260876 0.1232271909
205298770.0 -0.2526294697 0.1250590826 0.3923158182 -0.1709228094 0.3924609214 -0.1712062216 -0.2657484402 0.1254090413
210298740.0 -0.2516863137 0.1277082635 0.3904211285 -0.1758236912 0.3904169502 -0.1758019579 -0.2645761109 0.1282468879
215298710.0 -0.2503084397 0.1302514353 0.3881421138 -0.1803771893 0.3884528284 -0.1801723797 -0.2637748796 0.1310382765
220298680.0 -0.2492525545 0.1326074613 0.3864319423 -0.1846618689 0.386272815 -0.1848331023 -0.2621693665 0.1338880457
225298650.0 -0.2478983223 0.1354063271 0.384084586 -0.1890967252 0.3843172501 -0.18908505 -0.2611567617 0.1367231945
230298620.0 -0.2464669179 0.1383897547 0.3824731629 -0.1936984853 0.3826258918 -0.1936704851 -0.2595797819 0.1391516318
235298590.0 -0.2457311644 0.1404812268 0.3804703389 -0.1979779143 0.3807009785 -0.1977859616 -0.2587266778 0.1413773533
240298560.0 -0.2441797298 0.1431269587 0.3782097666 -0.2019829546 0.3782012452 -0.2020350055 -0.2569910241 0.1444575724
245298530.0 -0.2426274941 0.1456900772 0.3755267248 -0.2066490702 0.3758303597 -0.2068593466 -0.2557019915 0.1473966411
250298500.0 -0.2416187782 0.1482656829 0.3738477544 -0.2104877703 0.3740257836 -0.2101783153 -0.2542475664 0.1496192099
255298470.0 -0.2399907566 0.1510033782 0.3712242815 -0.2151893429 0.3713229705 -0.2150917064 -0.2528096916 0.1524846896
260298440.0 -0.2384143361 0.1535366355 0.3689629727 -0.2192051632 0.3688877169 -0.219598795 -0.2510099881 0.1552377953
265298410.0 -0.2371447096 0.1561357385 0.3665520082 -0.2236497763 0.3666222543 -0.2234294165 -0.2496480387 0.1577332292
270298380.0 -0.2353049526 0.1587141429 0.3635189928 -0.2277598532 0.3642518562 -0.2275637672 -0.2479503962 0.1605201408
275298350.0 -0.2342159041 0.1612311924 0.3615858482 -0.2322389476 0.3618876792 -0.2319140073 -0.2463274465 0.163228531
280298320.0 -0.2326640902 0.163669715 0.3592226896 -0.2354516669 0.3589812832 -0.2361611315 -0.2447949126 0.1657637552
285298290.0 -0.2309523309 0.166414217 0.3563913196 -0.2400676824 0.3561159242 -0.2400833484 -0.2431817011 0.1685958387
290298260.0 -0.2294884464 0.168821145 0.3540054587 -0.2435259245 0.353818162 -0.244284174 -0.2412095331 0.1715286675
295298230.0 -0.2277516217 0.1711057114 0.3511286745 -0.2476627418 0.3510150639 -0.24813502 -0.2396333212 0.173804557
300298200.0 -0.2257408249 0.1736853019 0.3484596315 -0.2519292286 0.3484923035 -0.2521669819 -0.2380065853 0.1763856489
305298170.0 -0.2242040976 0.1758478621 0.3459812924 -0.2559252582 0.3455929265 -0.2558620437 -0.2357940775 0.1790599941
310298140.0 -0.2221082587 0.1783664879 0.3429207039 -0.2600131317 0.3429705186 -0.260298158 -0.2344926277 0.18204861
315298110.0 -0.2204725873 0.1808997542 0.3398002572 -0.2639299761 0.3401055419 -0.2641669927 -0.2321835981 0.1844373543
320298080.0 -0.2188374388 0.1833327688 0.3370356995 -0.2678772899 0.3374799568 -0.2677690706 -0.2301508818 0.1867629198
325298050.0 -0.2169987412 0.1853846223 0.3342825093 -0.2715620077 0.3341524908 -0.2718985311 -0.2281739365 0.1892948782
330298020.0 -0.215182961 0.1879637525 0.3305232754 -0.2754510455 0.330619255 -0.2753141382 -0.2267969923 0.1916511459
335297990.0 -0.2135082801 0.1903092266 0.3274120013 -0.2790962815 0.327539607 -0.2789919102 -0.2247563867 0.194490632
340297960.0 -0.2119103346 0.1927908249 0.3241659289 -0.2826207616 0.3245945432 -0.2826450658 -0.2228380973 0.196742276
345297930.0 -0.2099275505 0.1950117973 0.3210393741 -0.2857385956 0.3209376305 -0.2862048289 -0.2207577022 0.1993106562
350297900.0 -0.2076118679 0.197669606 0.3181013983 -0.2893410058 0.3183842333 -0.2897141822 -0.2187924252 0.2021409972
355297870.0 -0.2058832577 0.1998504662 0.3145867909 -0.2933446262 0.3149549536 -0.2933813788 -0.2167654904 0.2046296892
360297840.0 -0.2038850544 0.2025175957 0.3117411191 -0.2971779911 0.3111056612 -0.2967177594 -0.214637001 0.20702362
365297810.0 -0.2015169283 0.2044104146 0.307853112 -0.2999615508 0.3080782996 -0.3002166491 -0.2123649883 0.2100302803
370297780.0 -0.1992616625 0.2066670513 0.3044040561 -0.3033861091 0.304764729 -0.3038259213 -0.2105526519 0.2121727276
375297750.0 -0.1974804006 0.2094414043 0.3018285543 -0.306971527 0.3014496895 -0.3072660079 -0.2079129796 0.2147078135
380297720.0 -0.1951620436 0.2112153972 0.2979093597 -0.3100642209 0.2978594407 -0.3100405928 -0.2056120678 0.2174314446
385297690.0 -0.1931162065 0.2135437569 0.2946141387 -0.3129427521 0.2943993171 -0.3134731168 -0.2036581084 0.2198458999
390297660.0 -0.1911466846 0.2158362518 0.2908384198 -0.3168938695 0.2908844566 -0.3170250618 -0.2014212608 0.2220563824
395297630.0 -0.1887304506 0.2181609773 0.2875992317 -0.319930432 0.2871627624 -0.3195748846 -0.1989971318 0.2246252623
400297600.0 -0.1869076744 0.2203169935 0.2841217517 -0.3225609961 0.2840441787 -0.3231128583 -0.1971440321 0.226484897
405297570.0 -0.1842435239 0.2224643361 0.2803893045 -0.325938308 0.2802712206 -0.3263103225 -0.1946806196 0.2292648663
410297540.0 -0.1819478603 0.2243234917 0.2762955632 -0.3288719367 0.2764441791 -0.3289553237 -0.192316468 0.2310724428
415297510.0 -0.1794851549 0.2266665975 0.2730530916 -0.3320235332 0.2729859651 -0.3320076699 -0.1898755353 0.2339487236
420297480.0 -0.1771586507 0.2284175412 0.2693685989 -0.3352037467 0.2692518241 -0.3350656523 -0.1874881346 0.2356099175
425297450.0 -0.1745171258 0.2303087308 0.2651997826 -0.337932309 0.2659552948 -0.3378735879 -0.1849367467 0.2382036758
430297420.0 -0.172550385 0.2327433753 0.2618769088 -0.3410727466 0.2619079072 -0.3410287787 -0.1823074538 0.2401380138
435297390.0 -0.1696982017 0.2346137888 0.2582303262 -0.3434683962 0.2583122899 -0.3433034065 -0.1796935757 0.2424674814
440297360.0 -0.167302371 0.2365141977 0.2539744494 -0.3464192687 0.2540295003 -0.3461544328 -0.1774723391 0.2443119119
445297330.0 -0.164980729 0.2383865771 0.2502345045 -0.3493148475 0.2504608131 -0.3489810581 -0.175017516 0.2461001194
450297300.0 -0.1623194281 0.2403178876 0.2465109177 -0.3516279206 0.2468147935 -0.3522004871 -0.1726824385 0.2485165383
455297270.0 -0.1601375642 0.2422155649 0.2429196602 -0.3543243248 0.2429968513 -0.3544636264 -0.1695955634 0.2504989845
460297240.0 -0.1574988342 0.2439982746 0.2384638451 -0.3569140144 0.2384103997 -0.3572014528 -0.1669394029 0.2530394489
465297210.0 -0.1545858032 0.245670179 0.2348921164 -0.3596306091 0.2350215011 -0.3600101235 -0.1649952505 0.2544715668
470297180.0 -0.1522274264 0.2476589375 0.2309380061 -0.3619071773 0.2310111761 -0.3621611433 -0.1624225432 0.2569480668
475297150.0 -0.1498945238 0.2492590256 0.2267046365 -0.3645012927 0.2270723273 -0.364183734 -0.159263816 0.2586154036
480297120.0 -0.1472930502 0.2508449076 0.2226942034 -0.3667278417 0.2230623946 -0.3669731601 -0.1569076894 0.2609372393
485297090.0 -0.1442583769 0.2526278742 0.2189271847 -0.3691672909 0.2188761696 -0.3691965632 -0.154253757 0.2621560092
490297060.0 -0.1414700133 0.2542525059 0.2146264545 -0.3717315982 0.2148192134 -0.3716180413 -0.1514660428 0.2642312927
495297030.0 -0.1390439369 0.2562716391 0.2102667704 -0.374099219 0.2101775201 -0.3739502146 -0.1485165479 0.265652404
500297000.0 -0.1360849786 0.2575671961 0.2064343972 -0.3762911645 0.2065779519 -0.376354587 -0.1462168679 0.2677406218
505296970.0 -0.1336274889 0.2591623368 0.2022214597 -0.3782053395 0.2020529584 -0.37836776 -0.1438488668 0.269348718
510296940.0 -0.1307801607 0.260966246 0.1980256347 -0.3806465489 0.1983035835 -0.3805370012 -0.1405931014 0.2712471063
515296910.0 -0.1283042681 0.2623584178 0.1937557476 -0.3822040533 0.1939850554 -0.3826194765 -0.1379523901 0.2731251326
520296880.0 -0.125292443 0.2638308191 0.1898685387 -0.3848092312 0.1901981306 -0.384734295 -0.1349262438 0.2742469019
525296850.0 -0.12257319 0.265250142 0.1856434595 -0.3867890109 0.1858833355 -0.3866755138 -0.1319659949 0.276327156
530296820.0 -0.1199854781 0.2664576727 0.1814412721 -0.3879456184 0.1812793506 -0.3883862128 -0.1297941394 0.2777502492
535296790.0 -0.1168890815 0.2680263323 0.1769942767 -0.3903184912 0.1771535 -0.3901936569 -0.1266140981 0.2789808467
540296760.0 -0.1141931769 0.26934732 0.1728326578 -0.3925081133 0.172163748 -0.3927752586 -0.1240988159 0.2808695356
545296730.0 -0.1115077853 0.2708504074 0.1682217743 -0.3940930068 0.1684245983 -0.3942583621 -0.1215190809 0.2817675164
550296700.0 -0.1086617333 0.2716473315 0.1641082444 -0.3952288748 0.1645384967 -0.3960875681 -0.1182904922 0.2838961543
555296670.0 -0.1057388415 0.2735363579 0.1602087305 -0.3977000758 0.160031371 -0.3979864443 -0.1154452768 0.2851908509
560296640.0 -0.1027437377 0.2745448067 0.1555954194 -0.3991553893 0.1557131181 -0.399070899 -0.1121086456 0.2863706083
565296610.0 -0.1003395176 0.2757241931 0.151363876 -0.4007763262 0.1510327201 -0.4009931277 -0.1094527293 0.2877923069
570296580.0 -0.0972856182 0.2767831177 0.1467805868 -0.4023811487 0.1470764673 -0.402750084 -0.1062970407 0.2893250281
575296550.0 -0.0939968463 0.2780287948 0.1420716411 -0.4040269993 0.1426676128 -0.4041021512 -0.1032676995 0.2904809677
580296520.0 -0.0912319067 0.2792227044 0.1380259044 -0.405389743 0.1380880322 -0.4057037674 -0.1004549905 0.2916429822
585296490.0 -0.0881321805 0.280071521 0.133857006 -0.4071378157 0.133508443 -0.4069621215 -0.0976840014 0.2924250691
590296460.0 -0.0853513002 0.2811671767 0.1289731467 -0.4078891442 0.1292304113 -0.4086552162 -0.0945666612 0.2941845136
595296430.0 -0.0821543201 0.2824730888 0.1248423935 -0.4095805692 0.1246020421 -0.4100417463 -0.091377062 0.295161839
600296400.0 -0.0795089505 0.2836482905 0.1204145625 -0.4108498459 0.1206076514 -0.4108566035 -0.0885275243 0.2962560483
605296370.0 -0.0762711571 0.284769055 0.1157777499 -0.4125192865 0.1158553327 -0.4122385706 -0.0853859675 0.2973361922
610296340.0 -0.0732701758 0.2852815398 0.1115461707 -0.4134290534 0.1112773387 -0.4139020961 -0.0820217085 0.2984912018
615296310.0 -0.0703097061 0.2866215164 0.1068042583 -0.4144106194 0.1065526478 -0.4144981935 -0.0787739983 0.299303721
620296280.0 -0.0672133261 0.2872535529 0.1024391457 -0.4152667227 0.1024220485 -0.4158517673 -0.0760504027 0.3001175074
625296250.0 -0.0641109387 0.2882157288 0.0979626284 -0.4166213775 0.0976830847 -0.4170377797 -0.0731832939 0.3014566751
630296220.0 -0.0610771249 0.2891377462 0.0929801042 -0.4179329944 0.093879695 -0.4179044386 -0.0699687097 0.3021859146
635296190.0 -0.0582219207 0.2899942402 0.0886676647 -0.4183442695 0.0887262624 -0.4183030222 -0.0671017135 0.3029339457
640296160.0 -0.0548369289 0.2899406401 0.0843763909 -0.4193439218 0.0841190618 -0.4195315904 -0.0635949708 0.3036024685
645296130.0 -0.0518786392 0.291302048 0.0793315633 -0.4207214594 0.0799673674 -0.4203735655 -0.0612155549 0.3043864694
650296100.0 -0.049035605 0.292130821 0.0753566441 -0.4212084608 0.074978616 -0.4210456239 -0.0577588151 0.3052612422
655296070.0 -0.0456668506 0.292577384 0.070275358 -0.4218578114 0.0704601401 -0.4218311531 -0.0542611564 0.305820245
660296040.0 -0.0430739142 0.2935409983 0.0662243278 -0.4225932038 0.0659521913 -0.422445224 -0.0512933348 0.3064519177
665296010.0 -0.0396495873 0.2939575931 0.0616660289 -0.4232888617 0.061643319 -0.4231623097 -0.0482738289 0.3073532539
670295980.0 -0.0362487975 0.2944242756 0.056590873 -0.4236457943 0.0570141149 -0.4237911028 -0.0451635874 0.3077530291
675295950.0 -0.0332216104 0.29484566 0.0519601332 -0.4242913515 0.0522953482 -0.4244555693 -0.0418836931 0.3087039098
680295920.0 -0.0303300763 0.2957191072 0.0472426112 -0.4250927309 0.0474380465 -0.4249745063 -0.038304702 0.3092011978
685295890.0 -0.0271088983 0.2959811615 0.0432860279 -0.425152624 0.0426687174 -0.4257048265 -0.0352603105 0.3098812779
690295860.0 -0.0238097934 0.2963239144 0.0382872296 -0.4253029933 0.0377847422 -0.4258728394 -0.0321134617 0.310358844
695295830.0 -0.0208483997 0.2968071063 0.0330862041 -0.4261900961 0.0334722791 -0.4262579062 -0.0291069823 0.310894997
700295800.0 -0.0175110086 0.2972693214 0.0289725688 -0.4263381685 0.0287308414 -0.4265902109 -0.0254347135 0.3107676543
705295770.0 -0.0140257427 0.2974234609 0.024317562 -0.4267066706 0.0245109358 -0.4264767758 -0.0224204181 0.3114503184
710295740.0 -0.0115563317 0.2981262879 0.0198567424 -0.4268869008 0.0199615565 -0.4266826853 -0.0196875039 0.31205344
715295710.0 -0.008406013 0.2983888378 0.015159798 -0.4272941218 0.0152954829 -0.4271627329 -0.0164386153 0.3120359375
720295680.0 -0.0048110618 0.2980964724 0.0101744473 -0.4269092222 0.0105704884 -0.427645408 -0.0124028416 0.31263891
725295650.0 -0.0013937433 0.2985785024 0.0056695329 -0.4268132443 0.0056443479 -0.427195838 -0.0095314816 0.3130754747
730295620.0 0.0012600304 0.2984122134 0.0008529935 -0.4272927199 0.0012357812 -0.4269989598 -0.0060488053 0.3127065867
735295590.0 0.0046425241 0.2987081407 -0.0032604724 -0.4269269679 -0.0031457705 -0.4270865746 -0.0026540644 0.3131799573
740295560.0 0.0075764724 0.2991289473 -0.0079688812 -0.4267667986 -0.0082407602 -0.4269807966 0.0003072508 0.3130517055
745295530.0 0.0111103819 0.298729301 -0.0126799002 -0.426602975 -0.0125107381 -0.4272259536 0.0033836943 0.3134472126
750295500.0 0.0138887361 0.2987970264 -0.0166828306 -0.4264539362 -0.0172237808 -0.4265026946 0.0071777966 0.3133626317
755295470.0 0.017723576 0.2990276846 -0.0217509695 -0.4259256223 -0.0218667295 -0.4267839481 0.0098652201 0.3136327562
760295440.0 0.0204557561 0.2986357587 -0.0263594839 -0.4259437892 -0.0261933107 -0.4259694766 0.0129450109 0.3134460775
765295410.0 0.023634515 0.2987709461 -0.0307048677 -0.425375193 -0.031020229 -0.4258134909 0.0171383759 0.3135849187
770295380.0 0.0268860251 0.298785904 -0.0358151159 -0.4252010821 -0.0354084916 -0.425672982 0.0201642024 0.3133937002
775295350.0 0.0298831077 0.2988041147 -0.0403916838 -0.4246509805 -0.0401526784 -0.4248825638 0.0229062425 0.3131508958
780295320.0 0.0335234918 0.2982936017 -0.0446537014 -0.4246003844 -0.0444322874 -0.4243920715 0.0264059424 0.3133435316
785295290.0 0.0363362445 0.2982738198 -0.0494596075 -0.4232847617 -0.0492268164 -0.4236732869 0.02938516 0.3132080068
790295260.0 0.039382031 0.2981627216 -0.0539418055 -0.4233810991 -0.0539207602 -0.4238188265 0.0329758968 0.3133054756
795295230.0 0.0426315352 0.2979737008 -0.0584709555 -0.4224914326 -0.0581140741 -0.4227264386 0.0362984339 0.3133009855
800295200.0 0.0460246465 0.297582086 -0.0633253021 -0.4216058434 -0.0634336764 -0.4220782823 0.0396938982 0.3124718519
805295170.0 0.0489110254 0.2973102895 -0.0679306828 -0.4206818123 -0.0673588484 -0.4209667651 0.0423783352 0.3122478908
810295140.0 0.0519563092 0.2967157548 -0.0716721572 -0.4204681034 -0.0720948643 -0.4207132897 0.0459409303 0.312699651
815295110.0 0.0554780142 0.2963357 -0.0765150576 -0.419370271 -0.0769219374 -0.4192739204 0.0490059067 0.3115018397
820295080.0 0.0583904283 0.2957022205 -0.0810497443 -0.4185552111 -0.0810970644 -0.4190052854 0.0518885729 0.3116464936
825295050.0 0.0617601611 0.2951172266 -0.085814724 -0.4170878326 -0.0858164799 -0.4177914839 0.0557724525 0.3110614675
830295020.0 0.0644856034 0.2951998062 -0.0901927679 -0.4165399252 -0.0905991042 -0.417115196 0.0588137139 0.3105614875
