!Created with skrf (http://scikit-rf.org).
# Hz S RI R 50.0 
!freq ReS11 ImS11 ReS21 ImS21 ReS12 ImS12 ReS22 ImS22
300000.0 -0.7815093372 -0.1312318538 -0.0006575251 -0.0004902219 -0.0001390594 0.0006453924 0.8595788038 -0.0026111025
5299970.0 -0.7851508873 -0.0067722186 0.00018667 -0.0002977374 -0.0001653491 -0.0001162391 0.8601909657 -0.0104016381
10299940.0 -0.7879516326 -0.0043393663 -6.12287e-05 -8.36942e-05 -1.35504e-05 0.0001440354 0.8587425655 -0.0185937874
15299910.0 -0.793542337 -0.0022297306 1.62195e-05 1.00327e-05 -3.60232e-05 -7.7403e-05 0.8573744882 -0.027641168
20299880.0 -0.8003649389 0.0021481753 1.39232e-05 9.56655e-05 3.07152e-05 4.8123e-06 0.8569921373 -0.035867426
25299850.0 -0.8061508966 0.0075741269 0.0001196907 -0.0001186787 -0.0001637685 9.47346e-05 0.8566377732 -0.0435582781
30299820.0 -0.8123122826 0.0153638641 -0.0001144833 5.51752e-05 -6.1849e-06 -4.41406e-05 0.8552840542 -0.0520198561
35299790.0 -0.8172879565 0.0247157972 0.00010323 -2.78022e-05 -1.585e-05 0.0001488044 0.8547869974 -0.0596889307
40299760.0 -0.8217649351 0.0337140501 -0.0001259289 -0.0001544093 3.99875e-05 1.29088e-05 0.8532077463 -0.0679846766
45299730.0 -0.8244157559 0.0435265177 -0.0002704983 5.7133e-05 4.74528e-05 8.57602e-05 0.8519818099 -0.0763509917
50299700.0 -0.8274099454 0.052933764 -0.0001712215 -0.0001422694 -4.42571e-05 -0.0002701448 0.8512808804 -0.0840947026
55299670.0 -0.8292958931 0.0631070682 0.0001240631 -0.0001153913 0.0001034111 -1.55837e-05 0.8502910859 -0.0931973696
60299640.0 -0.8300946955 0.0737286229 0.0002885352 -8.19127e-05 0.0001009116 0.0001506761 0.848854652 -0.1009438148
65299610.0 -0.8311968969 0.083840573 0.0001217474 -0.0001109018 -0.00014892 3.01253e-05 0.848631667 -0.1088789956
70299580.0 -0.8317810152 0.0937303389 -0.0001707339 0.000129438 4.82527e-05 3.05534e-05 0.8466271245 -0.1172680285
75299550.0 -0.831994672 0.103982463 3.89973e-05 -0.000174665 0.0002272435 0.000116872 0.8452173207 -0.1260365251
80299520.0 -0.8320743592 0.1138189186 -2.86389e-05 0.0001232558 6.98432e-05 -8.06519e-05 0.8440219487 -0.1334811953
85299490.0 -0.8314647338 0.1228306535 -1.27997e-05 8.57621e-05 9.76051e-05 5.59852e-05 0.8433820332 -0.1421239552
90299460.0 -0.8300876665 0.1328468359 -0.0002522549 0.0001149374 -9.2877e-06 -4.49428e-05 0.8410441832 -0.1502764114
95299430.0 -0.8290314416 0.1424703084 -5.33006e-05 6.34048e-05 0.0003070562 -5.56932e-05 0.8394451941 -0.1586630207
100299400.0 -0.828129495 0.1513880857 -3.03378e-05 2.13904e-05 7.58344e-05 -1.57971e-05 0.8383869213 -0.1668620129
105299370.0 -0.8271735927 0.1604590091 4.84002e-05 -6.25066e-05 9.32949e-05 0.0002187932 0.8368394077 -0.1749811832
110299340.0 -0.8256576442 0.1695091191 -6.90014e-05 -5.93568e-05 4.18719e-05 -0.0001114499 0.8345126905 -0.183159405
115299310.0 -0.8241377104 0.1785983495 9.54775e-05 -4.5172e-05 8.98728e-05 -0.0002049149 0.8335637835 -0.1908656882
120299280.0 -0.8223348536 0.1875516921 0.0002048921 0.0001001375 0.0002133176 -8.06895e-05 0.8319770513 -0.1992831043
125299250.0 -0.8206653756 0.1961743237 -1.39275e-05 -3.85426e-05 -8.09398e-05 -0.0002267697 0.8296325275 -0.2072664746
130299220.0 -0.8188864591 0.2058133231 -0.0001312832 7.72203e-05 -0.0003295133 -1.97939e-05 0.8280316573 -0.2155058227
135299190.0 -0.8169935882 0.2142820579 9.08223e-05 -7.52857e-05 2.70131e-05 -3.94352e-05 0.826044054 -0.2233790057
140299160.0 -0.814539381 0.2232968424 4.62179e-05 0.000133919 -2.47425e-05 -8.56164e-05 0.8237915871 -0.2311491157
145299130.0 -0.8123198151 0.2324955659 -5.01956e-05 -0.0001194225 2.71705e-05 -0.0002021185 0.8223794894 -0.2384909069
150299100.0 -0.8096923811 0.2409221379 6.56567e-05 7.12878e-05 -0.000172678 -5.1808e-06 0.8193566316 -0.2470520433
155299070.0 -0.8074877312 0.2497333523 1.36376e-05 -2.2763e-06 -0.0001713103 6.5753e-06 0.8171542236 -0.2552520782
160299040.0 -0.8049040362 0.2584271067 -0.000123533 -1.26956e-05 2.08879e-05 -3.9862e-06 0.8147777485 -0.263165185
165299010.0 -0.8027598575 0.2669370479 -2.81301e-05 -7.6369e-05 7.54748e-05 -0.0001452249 0.8116416071 -0.2706134017
170298980.0 -0.7994487187 0.2759107716 7.9388e-06 -3.2214e-06 7.58185e-05 4.7113e-06 0.8087455799 -0.2783080275
175298950.0 -0.7971258665 0.2845103762 6.07377e-05 7.95392e-05 -0.0001692917 -0.0001242471 0.8064924058 -0.2863936631
180298920.0 -0.7946051768 0.2931995406 7.63076e-05 -4.59486e-05 0.0001856766 0.0001903354 0.8039136675 -0.2943932734
185298890.0 -0.7907878656 0.3009481669 3.38884e-05 -2.14392e-05 3.6617e-05 -0.0001524264 0.8003212666 -0.3020261313
190298860.0 -0.7882638721 0.3103923029 -0.000127318 -0.0001344756 -7.78348e-05 -8.69794e-05 0.7977971863 -0.3090594779
195298830.0 -0.7857438353 0.3179119558 -0.0001463366 0.0001905246 0.0001434856 -0.0001386808 0.7939484946 -0.3173671944
200298800.0 -0.781382262 0.3261253344 1.20749e-05 0.0001869676 -4.76557e-05 4.93424e-05 0.7908639539 -0.3246726055
205298770.0 -0.7786527705 0.334399657 -7.0681e-06 -2.73642e-05 4.1877e-06 8.85601e-05 0.7876387093 -0.3320468406
210298740.0 -0.7751484626 0.3420823695 -0.0001849505 -0.0001765554 -9.32298e-05 0.0001318126 0.7838356818 -0.3391062533
215298710.0 -0.7714671157 0.3507281545 3.45792e-05 -2.38937e-05 1.51204e-05 4.36314e-05 0.7803467355 -0.3470993353
220298680.0 -0.7676646629 0.3588543493 -7.0488e-05 7.12599e-05 2.7644e-06 0.0001811503 0.7769632409 -0.3545851958
225298650.0 -0.7642147501 0.3667603641 -0.0004282925 0.0001673389 2.08855e-05 -0.0001365836 0.7732548736 -0.362128318
230298620.0 -0.7599620748 0.3749088034 0.0001965122 -4.82179e-05 -0.0001381931 -8.73126e-05 0.7695870624 -0.3693025576
235298590.0 -0.7561975404 0.3839450271 -3.84052e-05 5.99169e-05 3.32461e-05 7.43028e-05 0.7656834541 -0.3770701948
240298560.0 -0.75288041 0.3915265822 -1.43952e-05 2.93164e-05 0.0001090098 -5.92307e-05 0.7627457666 -0.3845169302
245298530.0 -0.748363321 0.399089749 6.83719e-05 -6.10162e-05 4.07323e-05 5.6418e-06 0.7582137657 -0.3917725311
250298500.0 -0.7440272483 0.4070436376 -0.0001934617 -0.0002071894 0.0003008556 1.3363e-05 0.7545933191 -0.3993640743
255298470.0 -0.7395245757 0.4140310985 -7.9583e-05 1.31906e-05 0.0001348005 0.0001146616 0.7511307888 -0.4068573828
260298440.0 -0.7355318982 0.4218813478 -1.77934e-05 -2.63077e-05 1.7596e-06 -3.36012e-05 0.7466731248 -0.4136549351
265298410.0 -0.7313151177 0.4303287764 8.35797e-05 1.43836e-05 -0.0001029626 -0.0001355087 0.7431581229 -0.4214494311
270298380.0 -0.72674454 0.4377839317 -6.03822e-05 8.4329e-06 -4.0675e-06 -1.84049e-05 0.7389793313 -0.4280314183
275298350.0 -0.7219894474 0.445148436 0.0001166316 4.97783e-05 0.0004063961 -3.6934e-05 0.7350191683 -0.435544343
280298320.0 -0.7168594111 0.4528165945 0.0001470168 3.83479e-05 1.3467e-05 -7.08266e-05 0.7314890332 -0.4426094807
285298290.0 -0.7126945571 0.4600445385 2.49505e-05 -1.14185e-05 5.9319e-06 3.98955e-05 0.7273012218 -0.4503347365
290298260.0 -0.7081393932 0.4676602256 -5.8864e-05 -1.60286e-05 0.0001443593 -5.43169e-05 0.7232180886 -0.4567921596
295298230.0 -0.7023070821 0.4745377035 8.086e-06 1.02225e-05 -7.67039e-05 -4.40335e-05 0.7189140163 -0.4640443583
300298200.0 -0.6977535089 0.4818468604 7.70016e-05 5.77434e-05 -7.51607e-05 7.18028e-05 0.7148742149 -0.4718482168
305298170.0 -0.6924693645 0.4884111127 1.07688e-05 -3.77484e-05 2.53134e-05 -0.0001049292 0.7113169811 -0.479317682
310298140.0 -0.6872810293 0.496478223 -8.59716e-05 0.0001243902 -2.00092e-05 0.0001632275 0.7059884377 -0.4870745841
315298110.0 -0.6826650715 0.5032600214 -0.0001523619 5.61172e-05 -5.73829e-05 -1.98156e-05 0.7004341176 -0.4949686373
320298080.0 -0.6772730128 0.5101496615 -7.02796e-05 5.13779e-05 -1.99392e-05 -7.5415e-05 0.6956982516 -0.5022240437
325298050.0 -0.6715960234 0.5176357144 5.58465e-05 -0.0001522562 -0.00015753 0.0001189349 0.6900135943 -0.5092774358
330298020.0 -0.6658338036 0.5240261626 4.75046e-05 7.78789e-05 -0.0001759696 -5.27512e-05 0.6834637881 -0.5157008289
335297990.0 -0.6606789466 0.5309216012 0.0001406168 3.75908e-05 -8.87213e-05 -0.0002368773 0.6785529373 -0.5223361476
340297960.0 -0.655418253 0.5381589048 -1.46726e-05 -4.0425e-05 0.0002065209 -0.0001352329 0.6735219404 -0.5277583752
345297930.0 -0.6500598903 0.5440925404 8.31214e-05 -8.08342e-05 -0.0001699723 2.60134e-05 0.6676285963 -0.5346672991
350297900.0 -0.64419949 0.5507781698 -0.0002672144 0.0001061975 0.0001219481 -0.0001449827 0.6614880079 -0.5397982684
355297870.0 -0.6377749127 0.5580404672 7.0589e-05 0.0001109017 -7.09239e-05 1.38826e-05 0.6562909708 -0.5461961221
360297840.0 -0.6324813272 0.5632697796 0.0001767701 1.65569e-05 0.0001474412 -0.0001102954 0.6510446063 -0.5527805693
365297810.0 -0.6271735445 0.5704055369 -0.0001168369 -0.0001251635 -0.0001289788 7.08774e-05 0.6457364604 -0.5591799755
370297780.0 -0.6206272361 0.576936539 -0.0001611299 -0.0001204616 8.72064e-05 -5.09751e-05 0.639845602 -0.5638182414
375297750.0 -0.6142479558 0.5837115954 1.08921e-05 -4.25486e-05 -3.18927e-05 3.35231e-05 0.6340087905 -0.5707606903
380297720.0 -0.6087243837 0.589023243 0.0002906279 -0.0002090264 0.0001187553 -8.1655e-06 0.6273488129 -0.5764055777
385297690.0 -0.603113343 0.5959704464 -0.0001355022 0.0001776656 3.96374e-05 1.48445e-05 0.6224086264 -0.5820534217
390297660.0 -0.5966170862 0.6019810727 -8.86171e-05 6.59198e-05 -4.81011e-05 6.6529e-05 0.6162441355 -0.588034968
395297630.0 -0.5899695256 0.6083123022 1.57756e-05 -0.0001125891 7.15369e-05 -5.164e-06 0.6105595225 -0.5935395208
400297600.0 -0.5836429587 0.6141687253 -4.6788e-06 -0.0002879629 -9.80022e-05 0.0001060722 0.6044495874 -0.5991805495
405297570.0 -0.5778725046 0.6199617586 -6.69237e-05 5.41332e-05 -5.56131e-05 -0.000100708 0.5983921039 -0.60541057
410297540.0 -0.570708038 0.6253841839 -0.0001797946 0.0001922442 -0.0002600351 6.58743e-05 0.5928987786 -0.6112297227
415297510.0 -0.5643483242 0.6312786285 -0.0001151503 -0.0001028677 3.82439e-05 8.8952e-06 0.5862289723 -0.6172494844
420297480.0 -0.5584548239 0.6375087979 0.0002320464 -0.0001590199 2.34384e-05 -0.000127006 0.5810749134 -0.6228096292
425297450.0 -0.5512121268 0.6433646881 0.0002363204 0.0001359141 -4.65708e-05 1.12345e-05 0.5748787317 -0.6284270098
430297420.0 -0.5445116831 0.6487273502 -0.0001160967 2.02331e-05 2.36882e-05 -0.0001136433 0.568020111 -0.6342581755
435297390.0 -0.5379206767 0.6535797212 -9.3689e-06 2.89287e-05 3.33888e-05 -2.17423e-05 0.5617612014 -0.6391791927
440297360.0 -0.5314285833 0.659559305 0.0001702246 -0.0001481149 -0.0001349632 1.4413e-06 0.5554836474 -0.6452028125
445297330.0 -0.5244677569 0.664708667 0.0001347385 -0.0001084036 -0.0002657621 8.77898e-05 0.5500127438 -0.6513432201
450297300.0 -0.5178409944 0.6692425406 2.19396e-05 -0.0001558997 0.0001062587 -2.2504e-05 0.5433526822 -0.655190202
455297270.0 -0.5108066471 0.6743473497 1.89487e-05 -0.0002196094 0.0001069753 -8.51238e-05 0.536632013 -0.6614936705
460297240.0 -0.5046226609 0.6794777843 -4.02542e-05 6.40365e-05 -1.75474e-05 -0.000265738 0.5300620069 -0.6669156131
465297210.0 -0.497387561 0.6850762878 -3.00242e-05 2.9194e-05 -1.53926e-05 2.23355e-05 0.5238573482 -0.6714450988
470297180.0 -0.4900847698 0.6899735547 -0.0003065387 -3.80529e-05 9.67355e-05 0.0002770293 0.516788269 -0.6762535011
475297150.0 -0.4831261197 0.6944418858 0.0001320483 -0.0001469152 -0.0001274399 -1.147e-06 0.5102948228 -0.6816318534
480297120.0 -0.4763602011 0.6994551378 -2.60552e-05 0.0002135081 -4.97198e-05 -0.0001647701 0.5045707911 -0.6861888561
485297090.0 -0.4686873959 0.7040517038 5.35602e-05 9.7551e-05 -8.19632e-05 -6.07211e-05 0.4976718318 -0.6914406507
490297060.0 -0.4619703354 0.7089447646 0.0001042831 8.79136e-05 7.3589e-05 2.7316e-06 0.4904641652 -0.6962030134
495297030.0 -0.4543486836 0.7135963707 -1.5798e-05 7.2978e-05 -8.60613e-05 0.0001223275 0.4833048155 -0.7004737682
500297000.0 -0.4478655507 0.7180184376 -1.30194e-05 1.87652e-05 0.0001583767 -4.64839e-05 0.4767257011 -0.7053141401
505296970.0 -0.4397837708 0.7223312279 2.22725e-05 5.10896e-05 -0.0001171923 5.30787e-05 0.4693628078 -0.7101840188
510296940.0 -0.4331671765 0.7268833535 0.0001312347 -4.66359e-05 -0.000105494 4.61165e-05 0.462461417 -0.7146182057
515296910.0 -0.4242683525 0.7309834837 0.000128488 -0.0001355683 -0.0001065571 -6.0687e-05 0.4556495961 -0.7184121891
520296880.0 -0.4175339845 0.7354874486 -7.31811e-05 0.0001149625 9.37182e-05 0.0001454318 0.4479148013 -0.7229817987
525296850.0 -0.4099921738 0.7389305728 -7.68016e-05 -9.24557e-05 4.32398e-05 -4.33889e-05 0.4414432299 -0.7263601177
530296820.0 -0.4022072468 0.7437993752 2.69163e-05 -6.8007e-06 0.0001342329 -1.41423e-05 0.4343505902 -0.7306279487
535296790.0 -0.3954610921 0.7468670554 5.12544e-05 -0.0004866209 0.0001103104 -2.4846e-05 0.4261678538 -0.7355906437
540296760.0 -0.3875550054 0.7512518093 -8.80055e-05 0.0002048483 0.0001575119 -0.0001893449 0.4188127776 -0.7387587168
545296730.0 -0.3803277371 0.7550056673 8.84046e-05 -0.0001924656 0.0001048185 5.0824e-06 0.4119417759 -0.7428360027
550296700.0 -0.3726677133 0.7591821681 -0.0001037891 -6.5879e-06 8.4296e-05 -0.0001220685 0.4045664522 -0.7470632638
555296670.0 -0.3639781129 0.7620765429 0.0001052262 0.0001348417 2.15903e-05 -6.26241e-05 0.3969407751 -0.7502287227
560296640.0 -0.3567543871 0.7663739433 -6.07028e-05 0.00018576 -8.58907e-05 0.0001130095 0.3890700079 -0.7535310983
565296610.0 -0.349353644 0.7702083752 -8.21648e-05 -0.000253331 -3.36908e-05 -0.0001755206 0.3816402951 -0.7575164781
570296580.0 -0.341715625 0.7725601856 1.62773e-05 0.0002434217 0.000231778 0.000176367 0.3738651703 -0.7615885135
575296550.0 -0.3346268046 0.776764356 1.2741e-06 6.139e-05 -8.98446e-05 -3.35401e-05 0.366557053 -0.7645726009
580296520.0 -0.3257633421 0.7800357471 -5.50311e-05 0.000111675 -1.00215e-05 2.6402e-06 0.3593316849 -0.7683237184
585296490.0 -0.3179637808 0.7824744295 1.37226e-05 9.55434e-05 -9.1409e-06 -0.0001241304 0.3522966431 -0.7721969768
590296460.0 -0.310228563 0.7857953484 6.27113e-05 0.0001752707 -7.59386e-05 -0.0001484257 0.3431461606 -0.7749981625
595296430.0 -0.3023238627 0.7883120745 0.0002098605 -0.0001001464 -3.72318e-05 8.8605e-05 0.3361826812 -0.7784203045
600296400.0 -0.2943648059 0.7923691107 7.28983e-05 5.09062e-05 0.0001032145 8.46251e-05 0.3291818619 -0.7822859851
605296370.0 -0.2871767852 0.7944600112 -4.87234e-05 0.000176087 -9.92371e-05 0.0001459734 0.3209333082 -0.7851937725
610296340.0 -0.2787708609 0.797083275 -0.0002030315 3.78434e-05 0.0001581453 -2.45993e-05 0.3130398089 -0.7878833146
615296310.0 -0.2701471146 0.8001662877 -0.00011573 1.58787e-05 -0.0002531423 -7.38543e-05 0.3051208832 -0.7913316229
620296280.0 -0.2623951272 0.8025131221 -0.0001682359 -5.28015e-05 -0.0001890868 0.0001378364 0.2976725482 -0.7945685861
625296250.0 -0.254546951 0.8054219186 2.9194e-06 6.8522e-05 3.3719e-06 0.0001787176 0.2903540937 -0.7972382328
630296220.0 -0.2455988028 0.8079009556 -9.9716e-06 6.5484e-05 -9.89404e-05 -0.000364332 0.2819217399 -0.799885377
635296190.0 -0.238243162 0.8101801694 4.4442e-05 8.12749e-05 -0.0001174324 2.7041e-05 0.2744469516 -0.8026891954
640296160.0 -0.2305450009 0.8122840778 -9.17718e-05 2.23417e-05 -0.0001460169 7.47041e-05 0.2655870227 -0.8052727829
645296130.0 -0.2218835469 0.8150140246 -9.44633e-05 -5.53227e-05 7.47522e-05 0.0001477005 0.2585847682 -0.807510761
650296100.0 -0.2139173706 0.8167640514 -3.39277e-05 0.0001510372 -4.54558e-05 3.81726e-05 0.2508579361 -0.8109794249
655296070.0 -0.2057758819 0.8191790787 -0.0001231869 9.58242e-05 -8.07766e-05 -2.62276e-05 0.2429329161 -0.8125186979
660296040.0 -0.1972930555 0.8205042411 -5.81593e-05 -6.94364e-05 0.0001268801 -8.258e-07 0.2351847264 -0.814804009
665296010.0 -0.1891697131 0.8220617337 1.6123e-06 0.0001897807 6.138e-07 -2.44578e-05 0.2264318656 -0.8169363309
670295980.0 -0.1816455166 0.8242586602 -5.64752e-05 6.85046e-05 0.0001582898 -9.77737e-05 0.2185184909 -0.8188815044
675295950.0 -0.1727010043 0.8257615469 -0.0001229399 7.07064e-05 -0.0001112499 2.92345e-05 0.2096759327 -0.8203450073
680295920.0 -0.1644744302 0.8280758581 6.43784e-05 1.93267e-05 -5.782e-07 3.0077e-06 0.2021058433 -0.8219915381
685295890.0 -0.1561084056 0.8300916235 -0.0001164527 2.93283e-05 -8.59949e-05 0.0001679686 0.1943004088 -0.8245079436
690295860.0 -0.1483599568 0.8308470419 -0.0001014567 -6.74236e-05 9.91927e-05 -8.95243e-05 0.1858681764 -0.8255640912
695295830.0 -0.1401994889 0.8315420283 -3.7398e-06 -6.915e-07 0.0001371665 -0.0002031532 0.1773081303 -0.8269812886
700295800.0 -0.1311726026 0.8338317984 -3.13472e-05 -0.0002168496 -4.69895e-05 1.96405e-05 0.1694553282 -0.8291920024
705295770.0 -0.1229017608 0.8354117607 -7.27142e-05 6.42491e-05 5.87265e-05 8.41959e-05 0.1608269456 -0.8291769661
710295740.0 -0.1153033879 0.8362427782 9.84184e-05 0.0001653244 -8.3907e-05 1.96335e-05 0.152838504 -0.8313271179
715295710.0 -0.1070273118 0.8373369837 4.54569e-05 7.64314e-05 -9.03209e-05 7.99089e-05 0.1447447589 -0.8326891971
720295680.0 -0.0983575583 0.8384573197 0.0001865407 3.31772e-05 0.0002098736 0.0001094455 0.1361397136 -0.8335855059
725295650.0 -0.0901353366 0.8397939329 -6.61271e-05 0.0001143175 -5.52617e-05 -0.0001403954 0.1283299917 -0.8341245245
730295620.0 -0.0812050232 0.8399338365 0.0001244211 -1.75557e-05 0.0001717382 -0.0002661506 0.1190121288 -0.8355326658
735295590.0 -0.0735548384 0.8411586125 -4.3487e-05 0.0002200053 8.17437e-05 -1.06727e-05 0.1107170402 -0.8377259217
740295560.0 -0.065037784 0.8420524606 6.33607e-05 9.66951e-05 2.00618e-05 0.000124669 0.102801789 -0.8379076949
745295530.0 -0.0564762936 0.8427507176 0.0002032205 -0.0003123973 -4.83338e-05 -6.3407e-05 0.0946694856 -0.8378935754
750295500.0 -0.0475947059 0.8430139933 -1.46495e-05 -3.96443e-05 0.0002043023 0.0003184825 0.0861455413 -0.8388169074
755295470.0 -0.0400712344 0.843224907 0.0002986116 -0.0002076953 0.0001200494 0.0001010164 0.0782298506 -0.8405399714
760295440.0 -0.0316244207 0.8434104932 -0.0001326221 -0.0001253439 -0.0001177451 -3.92661e-05 0.0694541806 -0.8413162911
765295410.0 -0.0235956713 0.8434632286 8.59783e-05 2.78188e-05 -4.97204e-05 0.0002061221 0.0612571636 -0.8417330999
770295380.0 -0.0153343849 0.8437437241 0.0001221937 0.0001054557 0.0002065122 3.29563e-05 0.052393126 -0.8425032287
775295350.0 -0.0069565909 0.8438926944 -0.0001410949 0.0001909841 0.0001410277 0.0001993533 0.0441303655 -0.8425299272
780295320.0 0.0016052799 0.8435357083 1.29986e-05 -7.2619e-06 -0.0001180249 6.88168e-05 0.036507028 -0.842908137
785295290.0 0.0094778389 0.8433574646 -7.89248e-05 -2.63033e-05 1.76505e-05 0.0002137878 0.0276838417 -0.8429303036
790295260.0 0.0187277366 0.8438862276 -8.83741e-05 6.18418e-05 2.56761e-05 -0.0001254233 0.0202027816 -0.8440906888
795295230.0 0.02646872 0.8439111951 4.56834e-05 -3.35764e-05 2.64239e-05 0.0001022723 0.0113846265 -0.843662272
800295200.0 0.0350742407 0.8433505238 -6.93348e-05 3.5994e-06 0.0001692456 0.0001406236 0.0029695608 -0.8438588771
805295170.0 0.0436640018 0.8427411984 1.39162e-05 5.28702e-05 -3.19988e-05 5.10727e-05 -0.0058504401 -0.8438001932
810295140.0 0.052059488 0.842239082 7.34962e-05 -2.40098e-05 -3.717e-06 4.07984e-05 -0.0128012791 -0.8441408033
815295110.0 0.0600087023 0.8418556247 2.53e-07 -0.0001288552 4.87729e-05 8.62249e-05 -0.0220646498 -0.8427905872
820295080.0 0.0681058831 0.8410668433 -3.88935e-05 -1.52943e-05 -6.34926e-05 -0.0001465874 -0.0303938735 -0.8430095958
825295050.0 0.0772409149 0.8402926193 4.52122e-05 8.77083e-05 -0.0001291827 0.0002133748 -0.0379581408 -0.8423514097
830295020.0 0.0847606588 0.8393033169 8.70235e-05 -0.0001469853 -7.15155e-05 -0.000158916 -0.0460191873 -0.8414302954
835294990.0 0.0931054417 0.8386747838 2.81799e-05 -0.0001682677 0.0001023783 -6.80443e-05 -0.055219076 -0.8410124899
840294960.0 0.1007480423 0.8378355015 -2.41916e-05 2.0402e-05 -3.48232e-05 -1.24992e-05 -0.0632583191 -0.8401329668
845294930.0 0.109318668 0.836788571 0.0001077992 -0.0002221741 0.0001653532 -0.0001138269 -0.0718324028 -0.8385912362
850294900.0 0.117548131 0.8360758661 -0.0001340774 0.0002037427 5.83817e-05 2.64582e-05 -0.0801635899 -0.8382208968
