!Created with skrf (http://scikit-rf.org).
# Hz S RI R 50.0 
!freq ReS11 ImS11 ReS21 ImS21 ReS12 ImS12 ReS22 ImS22
300000.0 -0.0440114369 -0.0673492475 -0.0008145834 -0.0004657217 2.58807e-05 0.0013168568 -0.7683612871 -0.1832623233
5299970.0 -0.0457430506 0.0145347478 0.0003979964 0.0001018081 -0.0002650854 0.0001109164 -0.7849355154 -0.0092702055
10299940.0 -0.04036215 0.0328415401 1.08505e-05 -0.0001511017 -6.345e-05 -8.37455e-05 -0.7875788357 -0.0053715158
15299910.0 -0.031695351 0.0476436853 -6.65557e-05 0.0001312637 2.7005e-05 0.0001617727 -0.7925396975 -0.0026563358
20299880.0 -0.0217277519 0.0594652627 0.0001735337 4.28085e-05 -3.98107e-05 0.0001369114 -0.7993129978 0.0020653307
25299850.0 -0.0098797647 0.0687616626 1.75293e-05 0.0003071234 8.70269e-05 -0.0003220825 -0.8063431792 0.008109039
30299820.0 0.0012980509 0.0755892419 -0.0001405 0.0001590332 -4.14516e-05 3.47651e-05 -0.8120159616 0.0152363707
35299790.0 0.01304854 0.0802852666 6.21162e-05 -4.387e-06 -9.45363e-05 -0.0001641195 -0.8169681615 0.024624877
40299760.0 0.0245840261 0.0830275378 -0.0001875405 -0.0001356551 2.8147e-05 6.2651e-05 -0.8215390616 0.0340035133
45299730.0 0.0350987078 0.0843340544 1.60626e-05 -7.8527e-06 6.65063e-05 -1.8033e-06 -0.8242722754 0.0435998406
50299700.0 0.0455159252 0.0843785843 7.92417e-05 -0.0001314418 -0.000197807 -6.35233e-05 -0.826364838 0.0537574757
55299670.0 0.0546218724 0.0832234149 -7.06088e-05 2.89153e-05 1.29004e-05 8.85924e-05 -0.8288312004 0.0635031606
60299640.0 0.0635282686 0.0815983688 -9.2833e-05 -1.00181e-05 -6.974e-06 -0.0001881506 -0.8296655376 0.0738437545
65299610.0 0.0718514607 0.0791832189 -0.0001095554 -0.0001152142 6.1562e-05 -7.58587e-05 -0.8304608276 0.0841649742
70299580.0 0.0780870506 0.0759530517 -8.7252e-06 8.83707e-05 5.87409e-05 -0.00023649 -0.8313805152 0.0935889783
75299550.0 0.0846711398 0.0731234524 0.0002935801 -5.25e-05 0.0001115778 0.0001988307 -0.8308916308 0.1041897975
80299520.0 0.0904446257 0.0692724645 9.14193e-05 1.70592e-05 -4.99883e-05 -2.24521e-05 -0.8304636489 0.1138246753
85299490.0 0.095520845 0.0655932622 -0.0002240864 -0.0002048946 1.48672e-05 8.2505e-06 -0.8301023475 0.1233322932
90299460.0 0.1005713466 0.0620006686 -0.0001107544 0.0001141514 0.0002186449 -0.0001220814 -0.8291445163 0.132334991
95299430.0 0.1045583091 0.0582736863 4.983e-06 0.0001483414 0.0001478551 5.90106e-05 -0.8283741756 0.1423421836
100299400.0 0.1082045434 0.0541952214 4.06644e-05 0.0001230445 -4.69361e-05 -0.0001290272 -0.8272926163 0.151332677
105299370.0 0.1114905704 0.0502601242 -0.0004210055 0.0001729296 -2.29911e-05 -0.0001239254 -0.825900014 0.1607952726
110299340.0 0.1145662163 0.0463760455 0.0002230093 1.83081e-05 -1.94417e-05 0.0001788914 -0.8242920022 0.1700495557
115299310.0 0.1167829914 0.0427311404 0.0001117742 -0.0001210052 0.0002395605 6.1524e-06 -0.8230909053 0.1789143599
120299280.0 0.1193818326 0.0390804713 7.48721e-05 0.0002282085 0.0001203749 -4.12428e-05 -0.8213823917 0.1875032993
125299250.0 0.1211545397 0.0351399047 6.88476e-05 0.000135994 -2.18808e-05 5.29008e-05 -0.8195964809 0.1968925232
130299220.0 0.1232400598 0.031210441 0.0002183652 0.0001026743 4.33226e-05 -0.0001492122 -0.8177632159 0.2056827712
135299190.0 0.124857716 0.027731888 -0.0001057062 0.0001642687 0.0001892523 0.0001346367 -0.8161263582 0.215100497
140299160.0 0.1261995697 0.0243941461 0.0002502272 -0.0001160311 4.77138e-05 0.0001226023 -0.8142789985 0.2230513721
145299130.0 0.1274875907 0.0212207343 -5.87704e-05 -0.0001557557 2.78105e-05 0.0002370646 -0.8121961806 0.2323138608
150299100.0 0.1284525806 0.0177090683 8.31436e-05 -5.9466e-06 -0.0001360546 0.000163262 -0.809478538 0.2412665279
155299070.0 0.1292285668 0.0147320707 -4.21057e-05 0.0002815955 0.0003266777 0.000192051 -0.8072812998 0.2504322613
160299040.0 0.1296491683 0.0117033006 0.0001453644 0.000245603 -6.48061e-05 -6.26871e-05 -0.8048204797 0.2592916155
165299010.0 0.1303670731 0.0088137822 0.0002302909 0.0001414368 0.0001357061 0.0001372149 -0.801478664 0.267418529
170298980.0 0.130859242 0.0054738233 0.0001109757 0.0001413675 1.4201e-06 -5.92962e-05 -0.799510156 0.2753436057
175298950.0 0.131440148 0.002392811 -0.0001408228 8.4597e-05 -7.171e-05 -1.5618e-05 -0.7964545146 0.2847763701
180298920.0 0.1314347908 -0.0002892364 0.0002153884 6.71914e-05 3.83708e-05 0.0002013079 -0.7932726535 0.2931690603
185298890.0 0.1315878393 -0.0032183515 9.90417e-05 -3.53741e-05 0.0002718752 0.0001403899 -0.7903385714 0.3016992898
190298860.0 0.1316689277 -0.0057988914 4.26692e-05 0.000330178 -0.0001136704 0.0001738188 -0.7876165005 0.3097780814
195298830.0 0.1317905676 -0.0082276009 6.4794e-05 0.0001728124 7.56689e-05 5.04927e-05 -0.7839360163 0.3180437103
200298800.0 0.1319990296 -0.011195685 -7.00267e-05 6.82411e-05 -4.19976e-05 3.62422e-05 -0.7809098534 0.3264767293
205298770.0 0.1311643421 -0.0135877785 6.42294e-05 -4.98688e-05 0.0002316991 6.90819e-05 -0.7773483489 0.3351489844
210298740.0 0.1315772022 -0.0160621595 1.22174e-05 0.000105246 9.11251e-05 0.0002121977 -0.7743459775 0.3435709951
215298710.0 0.131128209 -0.0185267811 3.77143e-05 1.50362e-05 0.0001705499 0.0001538118 -0.7708517315 0.3516738096
220298680.0 0.1310971739 -0.0207403635 9.8311e-06 0.0001406268 -2.4371e-06 5.52596e-05 -0.7666666388 0.3595008884
225298650.0 0.1304754899 -0.0234278515 -1.94831e-05 5.1743e-05 -2.80656e-05 -5.563e-06 -0.7628239792 0.3677812994
230298620.0 0.1299263669 -0.0252771593 -2.32684e-05 0.0001467247 9.43587e-05 6.3185e-06 -0.7591091981 0.3756011268
235298590.0 0.1294479941 -0.0275267858 -0.0002299298 9.42638e-05 6.31255e-05 -6.76002e-05 -0.7552657172 0.3833760332
240298560.0 0.1288973032 -0.0297030648 0.0001475649 0.0002648302 8.36999e-05 0.0001280489 -0.751080815 0.3910560604
245298530.0 0.1283093895 -0.0318830287 0.0002860758 7.12795e-05 6.47157e-05 0.0002341626 -0.7472357641 0.3987026632
250298500.0 0.1278450576 -0.0337975894 0.0002078207 1.58993e-05 8.93126e-05 0.0002162072 -0.7431449251 0.4078004787
255298470.0 0.127345365 -0.0356035643 0.0001838073 7.01252e-05 6.34194e-05 0.0001991715 -0.7388073436 0.4146383136
260298440.0 0.1267510927 -0.0380741479 0.0001110094 0.0001182247 0.0001030868 -3.277e-06 -0.7340566575 0.4220059867
265298410.0 0.1254813054 -0.0397451159 6.12939e-05 0.0001507827 0.0001513782 5.30995e-05 -0.7302237424 0.429960637
270298380.0 0.125001491 -0.0416912065 -2.21462e-05 0.0003438909 0.0003006647 0.0002798506 -0.7251465147 0.4381727242
275298350.0 0.1242050959 -0.0435753793 -3.19675e-05 0.0001795238 0.0001411021 0.0004311715 -0.7202023155 0.4458072951
280298320.0 0.1234811997 -0.0454430498 2.70557e-05 9.15347e-05 0.0001564462 -2.5463e-06 -0.7164118524 0.4526463964
285298290.0 0.1227988228 -0.0470903147 0.0001231397 1.8343e-06 0.0001526342 0.0002089342 -0.7126222567 0.4603937736
290298260.0 0.1217349862 -0.0489383223 0.0001755267 0.0002339263 0.0002382039 0.0001991822 -0.7067334653 0.4672277031
295298230.0 0.1209684714 -0.0509225879 0.0001663607 0.0001917803 0.0001371313 -8.96203e-05 -0.7016081552 0.47485798
300298200.0 0.1204000862 -0.0526335433 -2.4624e-06 6.07135e-05 0.0001248237 0.000305133 -0.6968877989 0.4826127801
305298170.0 0.1195503316 -0.0545386619 -8.77155e-05 -2.39283e-05 0.0001992724 -5.78763e-05 -0.6917940537 0.4894477088
310298140.0 0.1184996836 -0.05661452 3.82667e-05 -8.26599e-05 0.000139632 7.74276e-05 -0.6863619206 0.496872955
315298110.0 0.1173641421 -0.0583793804 5.34413e-05 -0.0001167388 0.0002799323 0.0002517573 -0.6815894473 0.5037630707
320298080.0 0.1161838903 -0.0602268311 0.0001999279 7.42796e-05 0.0001368744 0.0001484717 -0.6762988767 0.5103655493
325298050.0 0.1143876882 -0.062348305 3.86025e-05 -5.11831e-05 9.70185e-05 -3.871e-06 -0.6702654405 0.517562299
330298020.0 0.1136232893 -0.0633581426 0.0002429004 9.50025e-05 -6.4551e-06 0.0001865773 -0.6653678443 0.5242899765
335297990.0 0.1120773823 -0.0646946865 6.45569e-05 0.0001442251 7.19203e-05 6.267e-05 -0.6594916047 0.5314671014
340297960.0 0.1108897163 -0.0661101439 9.20847e-05 8.904e-05 0.000165731 5.4587e-06 -0.6538153987 0.5381909215
345297930.0 0.109884885 -0.0676877672 0.0001660516 -5.378e-07 0.0001053135 -2.26322e-05 -0.6489146607 0.5451649941
350297900.0 0.1084608197 -0.0691076502 5.79962e-05 0.0004015887 0.0001760382 4.97708e-05 -0.6436489472 0.5516478693
355297870.0 0.1075545502 -0.0705319919 0.0002444548 7.13816e-05 0.000335719 -7.79841e-05 -0.6368700914 0.5580290837
360297840.0 0.1062169216 -0.0716857811 0.0002663916 0.0002383344 6.00292e-05 -6.92928e-05 -0.6307499941 0.5648054116
365297810.0 0.1051097513 -0.0732664935 0.0002149455 0.000177989 0.0002190943 -1.53468e-05 -0.6254670957 0.5706563097
370297780.0 0.1036708699 -0.0747170645 0.0002122477 -3.8614e-05 0.0002663016 -0.0001678118 -0.6197946088 0.5776401303
375297750.0 0.1027159074 -0.0756114157 0.0001062779 -8.60091e-05 0.0001473011 5.21745e-05 -0.6131958882 0.5838062376
380297720.0 0.1014066556 -0.0765458998 0.0002897841 -1.19355e-05 0.0001297125 -6.04576e-05 -0.6069755089 0.5900662587
385297690.0 0.1002385637 -0.078083996 0.000184303 0.0001249641 0.0001270435 2.5821e-05 -0.6016127495 0.5962778609
390297660.0 0.0989436829 -0.0794590325 0.0003246415 0.0002576589 0.0001479098 0.0001655857 -0.5948916011 0.6024676954
395297630.0 0.0978180206 -0.0806535469 0.0002861029 0.0001854458 0.0003080351 0.000357079 -0.5882568175 0.6080725623
400297600.0 0.0960945833 -0.0817479475 8.13631e-05 5.58841e-05 5.39866e-05 7.33442e-05 -0.5825608474 0.6143873101
405297570.0 0.0951700458 -0.0831322929 2.34172e-05 0.0002173091 0.0001854298 6.68104e-05 -0.5753612022 0.6203319272
410297540.0 0.0942315705 -0.0842753561 0.0002105561 3.05738e-05 0.0001024682 4.73408e-05 -0.5691757512 0.6259783839
415297510.0 0.0925595398 -0.08519222 0.0001972263 -1.66755e-05 0.0001100817 0.0002366334 -0.5635863134 0.6315272744
420297480.0 0.0914768822 -0.0866454542 8.30421e-05 0.0001430555 0.0001809165 5.55485e-05 -0.5561596788 0.6379337742
425297450.0 0.0903254133 -0.0876889772 0.0001789683 0.0001799426 -4.35894e-05 0.0002114093 -0.5496411379 0.6425556805
430297420.0 0.089018475 -0.0890597262 0.0001253148 0.0001769739 0.0001256839 0.0001863612 -0.5428284145 0.6483613479
435297390.0 0.0876100363 -0.0898467295 0.000141695 -3.2811e-06 0.0001600373 0.0002158627 -0.5364388888 0.6542896146
440297360.0 0.0862789118 -0.0910410051 8.60766e-05 8.92317e-05 7.71966e-05 2.0415e-06 -0.5303661496 0.6598343313
445297330.0 0.0853399131 -0.0921708804 -2.70308e-05 0.0001157506 0.0002059542 -0.0001023665 -0.5227980873 0.6646513498
450297300.0 0.0837928401 -0.0933169314 0.0003543221 0.0001190019 8.30235e-05 0.0001416389 -0.5157680664 0.6697338451
455297270.0 0.0822846402 -0.0942363487 0.0002073529 -1.48378e-05 6.37235e-05 0.0001576738 -0.5089888733 0.675298671
460297240.0 0.0813096649 -0.0950096521 0.0002650572 4.621e-05 0.0002828094 0.0001984143 -0.5017497607 0.6798135173
465297210.0 0.080239078 -0.0959905343 0.0001959503 0.0001540836 0.0001578999 0.000167782 -0.4949254633 0.6855854418
470297180.0 0.0786351486 -0.0966788893 0.0002444777 0.0001781449 0.0001785405 0.0001359454 -0.488405707 0.6905871171
475297150.0 0.0771355143 -0.0976212109 0.0001371797 3.01457e-05 0.0001439865 0.0003180632 -0.4810042816 0.6952082157
480297120.0 0.0761146635 -0.0986943324 7.43165e-05 0.000133335 0.0004265831 8.70886e-05 -0.4745640166 0.7000951902
485297090.0 0.0747904952 -0.0993147687 0.0001462619 0.0002067982 0.0002574369 0.0002364025 -0.4669807957 0.7045367241
490297060.0 0.0739323542 -0.1004838666 0.0002671386 0.0001978962 0.0003504609 0.0002000686 -0.4599482875 0.7092349579
495297030.0 0.072451291 -0.1011978451 5.0199e-05 0.0002750503 0.0001722694 0.0001112484 -0.4523724808 0.7137118695
500297000.0 0.0708164019 -0.1016271335 0.000206258 0.0001638895 0.0002861762 9.0051e-05 -0.444955556 0.7180691215
505296970.0 0.0697633252 -0.1026038676 0.0001303005 2.78512e-05 0.0002349956 0.0002172751 -0.4376819133 0.7222847783
510296940.0 0.0685065532 -0.1032672625 0.0001636827 0.0001345559 0.0002895039 -9.29635e-05 -0.4301716027 0.7274335131
515296910.0 0.0669461136 -0.1038648668 0.0001252886 5.48937e-05 0.0004236857 2.14371e-05 -0.4230702807 0.7309644965
520296880.0 0.0657517502 -0.1047684854 0.0003997663 -0.000159723 0.0003949775 0.0001537074 -0.4149933674 0.735781787
525296850.0 0.0641024005 -0.1056453132 0.0001118599 9.35442e-05 0.0002801377 4.01727e-05 -0.4081578802 0.7394046529
530296820.0 0.0629105535 -0.1061824181 0.0002178782 0.0001244618 0.0003023183 0.0001312538 -0.4008898508 0.7437017057
535296790.0 0.0621287162 -0.1067218006 0.0003578626 -8.8768e-06 0.000246279 -9.98211e-05 -0.3932522242 0.7479602201
540296760.0 0.0607059487 -0.1072513537 0.0003294487 0.0001326769 0.0002845545 4.61809e-05 -0.385033848 0.7511891623
545296730.0 0.0590670878 -0.1076050247 9.47975e-05 0.0001461626 0.0003324131 -2.24553e-05 -0.3773027977 0.7552646162
550296700.0 0.0578970286 -0.1082459471 0.0003079109 -4.3366e-06 0.0003652158 -3.63142e-05 -0.3699358212 0.7592435981
555296670.0 0.0564828001 -0.1086705548 0.000271394 8.82624e-05 0.0001091449 0.0001871643 -0.3625143478 0.7620598297
560296640.0 0.0553134409 -0.1091186407 0.0002861444 1.21381e-05 0.0002559547 0.0001835064 -0.3544879435 0.7663316153
565296610.0 0.053548971 -0.1098107154 0.0002383339 -1.05407e-05 0.0004181191 9.13102e-05 -0.3469172879 0.7701077843
570296580.0 0.0522096314 -0.1100001006 0.0003119191 0.0001851753 0.0003203277 2.28164e-05 -0.3394508709 0.7727357426
575296550.0 0.0511370405 -0.1105357441 0.0003747622 -7.68156e-05 0.0003278483 9.08368e-05 -0.3306720022 0.7762195798
580296520.0 0.049766062 -0.1106874068 0.0005282823 -0.0002412539 0.0002823019 8.94066e-05 -0.3235717846 0.7796424963
585296490.0 0.048322562 -0.1109655454 -1.18763e-05 0.0001331918 0.0002378874 4.6492e-05 -0.3150744572 0.7832834375
590296460.0 0.047296361 -0.1113991648 0.0004618261 7.76329e-05 0.000470472 6.47687e-05 -0.3078320436 0.7853327519
595296430.0 0.0454009736 -0.1118146485 0.0001635252 7.67878e-05 0.0003035876 3.97967e-05 -0.2996808332 0.7892040322
600296400.0 0.0443118929 -0.1122805311 0.0005500903 0.0001283122 0.0003263789 -3.80165e-05 -0.2916659598 0.7915451619
605296370.0 0.0426748808 -0.1120700022 8.01959e-05 -3.53331e-05 0.0003769909 -0.0001748937 -0.2837021193 0.7953751375
610296340.0 0.0414626771 -0.1123552684 0.0004256842 0.0001071053 0.0001484012 3.58663e-05 -0.2758739508 0.7974372465
615296310.0 0.040070693 -0.1126336646 0.0001496826 -3.27037e-05 0.0003605357 4.19044e-05 -0.2671187313 0.8005453934
620296280.0 0.0386869576 -0.1123102912 0.0002781673 -6.10152e-05 0.000299407 1.626e-07 -0.2600812064 0.8029956085
625296250.0 0.037088326 -0.1131178879 0.0003338982 -8.413e-07 0.0002555055 5.15018e-05 -0.2513436828 0.8050928424
630296220.0 0.0357757102 -0.1127998532 0.0003424097 0.0001212055 0.0003084402 0.0001234106 -0.2431414508 0.8078857173
635296190.0 0.0343176634 -0.1130856814 0.0001288614 7.70068e-05 0.000352185 0.0001044368 -0.2354318635 0.8099923164
640296160.0 0.0328001799 -0.1132042978 0.0003072912 0.0002494375 0.0003572402 1.58027e-05 -0.2269373815 0.8124951911
645296130.0 0.0319942864 -0.1131476311 0.0004167249 2.23234e-05 0.0002433555 0.0001745005 -0.2190889467 0.8148135358
650296100.0 0.0301252172 -0.1131976896 0.0001465037 0.0001748912 0.0002715837 0.0003641154 -0.2107297081 0.8168012886
655296070.0 0.0285534821 -0.1131517233 0.0002575847 -5.31852e-05 0.0003220589 5.79583e-05 -0.2026785288 0.8191023954
660296040.0 0.0270811806 -0.1132425938 0.0002784225 0.0002565648 0.0003211352 -0.0001910271 -0.1942893118 0.8209679693
665296010.0 0.0259313924 -0.1130341241 0.0003762004 0.0001432329 0.0003042524 1.0361e-06 -0.1857485488 0.8223053203
670295980.0 0.0243240383 -0.1132959823 0.0001278122 0.0001045349 0.000482502 -1.50028e-05 -0.177874882 0.8244859165
675295950.0 0.0227534303 -0.113436577 0.0003518666 -0.0001685151 0.0004245136 3.72814e-05 -0.1696177863 0.8261782998
680295920.0 0.0211524775 -0.113125743 0.0004555292 -3.94137e-05 0.0002748939 -1.35751e-05 -0.1613303969 0.8278130179
685295890.0 0.0200745285 -0.1129316193 0.0002645983 -0.0001424157 0.0003939999 -9.9911e-06 -0.1535256431 0.82907683
690295860.0 0.0185235209 -0.1129310962 0.0002259828 4.05176e-05 0.0002599896 -5.95241e-05 -0.1449704526 0.8310171021
695295830.0 0.0167355253 -0.112804689 0.0004139736 0.0001016315 0.0003169044 2.36504e-05 -0.1371760686 0.8328748657
700295800.0 0.0155596386 -0.1125833949 0.0003685732 -8.45005e-05 0.0003268031 0.0001248747 -0.1280132014 0.8337853352
705295770.0 0.013890374 -0.1123954431 0.0003446627 -0.0001293596 0.000280608 -2.76579e-05 -0.1203427209 0.835209112
710295740.0 0.0126561177 -0.112309001 0.0004089658 8.49536e-05 0.0001260035 -9.9566e-06 -0.1113938899 0.835748657
715295710.0 0.0113176026 -0.1118757962 0.0001166333 0.0001199564 0.0001645456 5.9527e-05 -0.103006554 0.8363462357
720295680.0 0.0098558902 -0.1118317981 0.0005060708 -4.72715e-05 0.0003625333 -5.14981e-05 -0.0944981321 0.8377154283
725295650.0 0.0081873129 -0.1113675998 0.0003712504 6.6698e-05 0.0004487811 -8.00796e-05 -0.0867899031 0.8396418737
730295620.0 0.0063933816 -0.1113289001 0.0002168234 0.0001154371 0.0003922667 9.7652e-05 -0.0784450646 0.8399368608
735295590.0 0.0051054265 -0.1108977497 0.0004053611 -0.0002311455 0.0004316923 6.88913e-05 -0.069466414 0.8400848371
740295560.0 0.0035300077 -0.1108287919 0.000311042 1.2109e-06 0.000325649 0.0001613932 -0.0611967446 0.8412876137
745295530.0 0.0021287136 -0.1103626517 0.000495434 0.0001392672 0.0004690526 4.00427e-05 -0.0532635226 0.8415469994
750295500.0 0.0004964062 -0.1100943396 0.0001411706 -6.93834e-05 0.0004855926 -0.0002027166 -0.0446028368 0.8423002689
755295470.0 -0.0008505648 -0.1098370731 0.0004580331 0.0001265699 0.0004986009 1.84774e-05 -0.0366139354 0.8430617002
760295440.0 -0.0023601022 -0.1093738329 0.000304127 -0.0003847514 0.0004820052 -8.4994e-05 -0.0275943841 0.842667165
765295410.0 -0.0036358819 -0.1093262575 0.0003652195 7.39371e-05 0.0005978405 -1.05765e-05 -0.0190074355 0.8432463648
770295380.0 -0.005223453 -0.1086071247 0.0005509089 -0.0001767691 0.0003743914 5.06961e-05 -0.0112446001 0.8435817747
775295350.0 -0.0067318116 -0.108275543 0.0005111633 -0.0002964674 0.0004524015 -5.81415e-05 -0.0029037224 0.8431346002
780295320.0 -0.0081247638 -0.1078534278 0.0003546553 -4.5204e-06 0.000293741 -0.000252572 0.0056446918 0.8435894769
785295290.0 -0.0096806619 -0.1076667081 0.0006105349 -4.49293e-05 0.0004098109 -0.0001866288 0.0136380192 0.8433503971
790295260.0 -0.0111053746 -0.1073744278 0.0003393187 -8.56184e-05 0.0003401403 3.51547e-05 0.0221539788 0.8431787253
795295230.0 -0.0126485181 -0.1071187818 0.0003914777 -5.86479e-05 0.0004371446 -0.0001012523 0.0304467626 0.8424970375
800295200.0 -0.0140154114 -0.1066128325 0.0003029181 0.0001995893 0.0003265284 -0.000202979 0.0388723494 0.8421779405
805295170.0 -0.0155288094 -0.1059078285 0.000144248 -0.0001444537 0.0003061112 5.5891e-05 0.0476643777 0.8421129631
810295140.0 -0.0169303728 -0.1051349893 0.0004460912 0.0001001577 0.0002212159 -5.38409e-05 0.0559171762 0.8411395194
815295110.0 -0.0184306501 -0.105019447 0.0007329261 -0.0002145557 0.0004702729 3.03391e-05 0.0635116303 0.8409161796
820295080.0 -0.0198335689 -0.1044895643 0.0004274802 -0.0001496368 0.000279763 -0.0002644413 0.0715175575 0.8402895547
825295050.0 -0.0212396746 -0.1040963506 0.0003916664 0.0001099773 0.0004993517 -9.6972e-06 0.0806285175 0.8395837663
830295020.0 -0.0225953388 -0.1036383452 0.0003876052 -0.0001245633 0.0001955679 -0.0002860287 0.0881355865 0.8383264406
835294990.0 -0.02396214 -0.1030227059 0.0001078179 -9.93322e-05 0.0002990052 -0.0002931719 0.0968604064 0.8375727067
840294960.0 -0.0254633164 -0.1029001702 0.0002108829 -0.0001445695 0.0004355191 -5.53503e-05 0.1061670331 0.8366226414
845294930.0 -0.0269171456 -0.1018848462 0.0003106488 -0.0001554606 0.000616451 -3.38861e-05 0.1136617201 0.8354833183
850294900.0 -0.0279116092 -0.1017887803 0.0005378971 -0.0001381241 0.0005110865 -9.29382e-05 0.1220923328 0.8344617403
