!Created with skrf (http://scikit-rf.org).
# Hz S RI R 50.0 
!freq ReS11 ImS11 ReS21 ImS21 ReS12 ImS12 ReS22 ImS22
300000.0 -0.2386649814 -0.0999750529 0.4683901147 0.0657736408 0.4697875506 0.0713111465 -0.2375172417 -0.1142694958
5299970.0 -0.2437226425 0.0070729225 0.4739802746 0.0053743269 0.4735932737 0.0057208512 -0.2436433084 0.0059324448
10299940.0 -0.240170091 0.0197441508 0.4758023408 0.0066742785 0.4758062206 0.0067322741 -0.2408573055 0.0182796759
15299910.0 -0.2359851274 0.029470339 0.4793522876 0.0077668098 0.4794025746 0.0078398293 -0.2365404004 0.027407434
20299880.0 -0.2305313235 0.037143292 0.4841780091 0.0082567516 0.4844278865 0.0084645126 -0.2318568275 0.0354370594
25299850.0 -0.2246435146 0.0435271494 0.489267354 0.0073697645 0.4896482741 0.0074935243 -0.2266097987 0.0417335324
30299820.0 -0.2189695177 0.0485387247 0.4950914909 0.0057486397 0.4945696108 0.0052946369 -0.2214961846 0.0468291714
35299790.0 -0.2130385152 0.0527152856 0.50045386 0.0021958026 0.5004171617 0.0022119932 -0.2159338525 0.051097165
40299760.0 -0.2073754584 0.0556846447 0.5052428359 -0.0016494111 0.5056731509 -0.001723448 -0.2114332508 0.0546914579
45299730.0 -0.2025285131 0.0584827621 0.5103206168 -0.0064634236 0.510115164 -0.006492763 -0.2063860033 0.0572081594
50299700.0 -0.1974870503 0.0601014384 0.513993655 -0.0120259115 0.5143451712 -0.0123332555 -0.2018156543 0.0596677702
55299670.0 -0.1935088783 0.0618774017 0.5175548465 -0.0182670027 0.5183205866 -0.0178799858 -0.1983170206 0.0614704356
60299640.0 -0.1893386526 0.062560593 0.5211243114 -0.0241628936 0.5214259274 -0.0242439115 -0.1945288226 0.0634870911
65299610.0 -0.1862111273 0.063843029 0.5244284104 -0.0304985678 0.5247867282 -0.0307250296 -0.1910523893 0.0647002106
70299580.0 -0.182658235 0.0643195184 0.5268286826 -0.036795837 0.5267403456 -0.0369588286 -0.1880146842 0.0656591571
75299550.0 -0.1797373614 0.0649844333 0.5284825091 -0.0438891168 0.5287665441 -0.0443318063 -0.1851235997 0.0670439882
80299520.0 -0.1770884584 0.0657805138 0.5307710901 -0.0509349418 0.5309019905 -0.0508397945 -0.1826089597 0.0674815452
85299490.0 -0.1746637581 0.065913439 0.5321888781 -0.0576656086 0.5320531163 -0.0575361755 -0.1803480258 0.0685222813
90299460.0 -0.1723459441 0.0664468074 0.5328897612 -0.0643897805 0.5335386788 -0.0646441489 -0.1777630406 0.0692205404
95299430.0 -0.1703504482 0.0671903008 0.5340433543 -0.0721174894 0.5343712778 -0.0719096867 -0.1758577259 0.070595016
100299400.0 -0.1686224913 0.0675432537 0.5340365316 -0.0788003831 0.5343161533 -0.0785424683 -0.1741772297 0.0706632052
105299370.0 -0.1671586206 0.068248338 0.5345389753 -0.0854072084 0.5348528207 -0.0856119301 -0.1719977523 0.0720174819
110299340.0 -0.1656899398 0.0686577683 0.5348042163 -0.0921208423 0.5346078643 -0.0923266059 -0.1706701536 0.0723211768
115299310.0 -0.1639078929 0.0685640253 0.5347260939 -0.0987113515 0.5349451829 -0.0990553078 -0.1690821934 0.0731208503
120299280.0 -0.1628961144 0.0693577475 0.5346729186 -0.1061011328 0.5347266695 -0.1059998243 -0.1679857974 0.0743074243
125299250.0 -0.1617156889 0.0699412803 0.5342427205 -0.1123291481 0.5344993286 -0.1126155853 -0.1664540753 0.0747513717
130299220.0 -0.1604271939 0.070533642 0.5336242875 -0.1187774632 0.5336139537 -0.1195525135 -0.1652442379 0.0760466476
135299190.0 -0.15941446 0.0710999069 0.5328991566 -0.1255442999 0.5325495766 -0.1258179431 -0.1640783219 0.0768209655
140299160.0 -0.1585486302 0.0722480357 0.5323865636 -0.1327108664 0.532418485 -0.1327730257 -0.1630219134 0.078120039
145299130.0 -0.157594678 0.0728535351 0.5315663715 -0.139663341 0.5314101279 -0.139051149 -0.1622266985 0.0789736542
150299100.0 -0.1565190454 0.0734684298 0.5301971055 -0.1459320529 0.5305284531 -0.1456865871 -0.1611708943 0.0797857229
155299070.0 -0.155884097 0.0747374392 0.5290481129 -0.1523779408 0.5292832102 -0.1525659043 -0.1602542979 0.0810104178
160299040.0 -0.1546464483 0.0752284812 0.5273359595 -0.158460859 0.5278040361 -0.1589612747 -0.1592253596 0.0826187372
165299010.0 -0.1541790825 0.0760663734 0.5261321481 -0.1657203593 0.5262071348 -0.1654696565 -0.1581453465 0.0833909414
170298980.0 -0.1536628898 0.0769905061 0.5244134094 -0.1714345144 0.5246120305 -0.171387051 -0.1567872837 0.0846471088
175298950.0 -0.1526593167 0.0782453808 0.5233440285 -0.1779254089 0.523315339 -0.178007513 -0.1560577406 0.0855793881
180298920.0 -0.1517030165 0.0789233897 0.5211376173 -0.1841308228 0.5213285119 -0.1844472136 -0.1551164753 0.0872593754
185298890.0 -0.1508490318 0.0803409751 0.5189271596 -0.1906232032 0.5194648849 -0.1905747747 -0.1545835276 0.0879400898
190298860.0 -0.1501562247 0.0815445965 0.5172475346 -0.1968843949 0.5175710419 -0.1966138675 -0.152743404 0.0894848736
195298830.0 -0.1495395292 0.0822163396 0.515346871 -0.2025163361 0.5155619503 -0.2032978324 -0.1518888039 0.0907452202
200298800.0 -0.148750056 0.0834543123 0.5135782431 -0.208710692 0.5135143046 -0.2086926352 -0.1508400917 0.0920623716
205298770.0 -0.1480819866 0.0844981245 0.5118576089 -0.2145996287 0.5114019695 -0.2147763185 -0.1499991777 0.0931536504
210298740.0 -0.1477774633 0.0857171235 0.5095856586 -0.2212394613 0.5092162026 -0.2209870508 -0.1489069684 0.094501734
215298710.0 -0.146656768 0.0867874268 0.5071535734 -0.2267173326 0.5066606444 -0.2267852964 -0.1485993921 0.0959602187
220298680.0 -0.145944745 0.088016262 0.5042887625 -0.2331075759 0.5044314742 -0.2329774498 -0.1468884132 0.0975281617
225298650.0 -0.1447203542 0.089318306 0.5014824119 -0.2380825768 0.5017037748 -0.2384141802 -0.1461179561 0.0990024687
230298620.0 -0.1443014791 0.0906670122 0.4997698894 -0.2443952183 0.4993965813 -0.2443953774 -0.1449003479 0.1002079663
235298590.0 -0.1435880253 0.0915193079 0.4970076519 -0.249943893 0.4968572335 -0.2502406193 -0.1441368764 0.101342181
240298560.0 -0.142774589 0.0929611714 0.4942018392 -0.2551793758 0.4943365042 -0.2554691152 -0.1430856634 0.1030490791
245298530.0 -0.141706114 0.09415543 0.4907014655 -0.2613399953 0.4913620994 -0.2616837473 -0.1418777648 0.1044943288
250298500.0 -0.1414070453 0.0952792282 0.4884625217 -0.2666984634 0.4888527496 -0.2666054577 -0.1406326363 0.1062989567
255298470.0 -0.140520836 0.0969209238 0.4853470468 -0.2731509689 0.4854730305 -0.272436716 -0.1395047252 0.107117577
260298440.0 -0.1397089329 0.097939914 0.4826196495 -0.2780642006 0.4825928845 -0.2783156709 -0.1380706194 0.1087535075
265298410.0 -0.1387981792 0.0993619198 0.4794821158 -0.2839866306 0.4795081583 -0.284036531 -0.1373681978 0.1101845913
270298380.0 -0.1376259142 0.100625144 0.4761374473 -0.288925865 0.476864329 -0.2892572016 -0.135944647 0.1117515777
275298350.0 -0.1370355645 0.1018235089 0.4729554653 -0.2947976848 0.4734685289 -0.2948805638 -0.1347232337 0.113081932
280298320.0 -0.1361740333 0.1034895615 0.4699454318 -0.2998017753 0.4700370188 -0.3002796209 -0.1333929561 0.1148278475
285298290.0 -0.1351625953 0.1049464637 0.4666892149 -0.3052906314 0.4666048665 -0.3054427938 -0.1322018276 0.1163076143
290298260.0 -0.134101071 0.1059790792 0.4637988387 -0.3106078158 0.463656698 -0.3108839936 -0.1308586465 0.1179430889
295298230.0 -0.1331917133 0.1070163228 0.4605062068 -0.3158890669 0.4599072141 -0.3160137063 -0.12936095 0.1193112485
300298200.0 -0.1320689763 0.1083159601 0.456755032 -0.321193993 0.4569808789 -0.3212355231 -0.1283805426 0.120777088
305298170.0 -0.1309263354 0.1095870408 0.4534103758 -0.3268102283 0.4536215315 -0.3267423868 -0.126284906 0.1224071856
310298140.0 -0.1298456742 0.1105493515 0.4499122149 -0.3315950295 0.4498133391 -0.3323594009 -0.125394528 0.1241355619
315298110.0 -0.1292104951 0.1117452147 0.445689021 -0.336698024 0.4463972928 -0.3368761682 -0.1237134859 0.1250160483
320298080.0 -0.1280390065 0.1132325153 0.4421669537 -0.3423059263 0.4424704999 -0.3422021223 -0.1227412129 0.1262792618
325298050.0 -0.1271894109 0.1141652339 0.4389247993 -0.3474602141 0.4383897665 -0.3475616065 -0.1210887528 0.1276674375
330298020.0 -0.1263081514 0.1156318357 0.4341408706 -0.3520406196 0.4342618273 -0.3522391811 -0.120225626 0.1287629973
335297990.0 -0.1255139446 0.1165802896 0.4305650618 -0.3570971464 0.4303817771 -0.3569549745 -0.1189379143 0.1302950536
340297960.0 -0.1247809653 0.118298138 0.4263590763 -0.3619037001 0.4264799898 -0.3617190767 -0.1175667628 0.1317511732
345297930.0 -0.1237626461 0.1195386786 0.4222495465 -0.366437766 0.4218410404 -0.3661918361 -0.1160487748 0.1330949408
350297900.0 -0.12228786 0.1207522405 0.4177939102 -0.3707278685 0.4181469102 -0.3709644248 -0.1148717005 0.1347411136
355297870.0 -0.1212265493 0.1218859858 0.4133451225 -0.3755557722 0.4139268113 -0.3759176633 -0.1137286503 0.1364254632
360297840.0 -0.1203510197 0.1235555424 0.4095624203 -0.3803493423 0.4094047311 -0.3801843236 -0.1118823001 0.1380324896
365297810.0 -0.1189958698 0.1245897977 0.4054107777 -0.3847349132 0.4055726447 -0.3848205411 -0.1108265633 0.1392561919
370297780.0 -0.1176987281 0.1257875679 0.4009649702 -0.3887057599 0.4011990959 -0.3894622691 -0.1092040035 0.1408058487
375297750.0 -0.1168627388 0.1274775401 0.3974365393 -0.3935029148 0.3967586723 -0.3941780607 -0.1076925139 0.1424321009
380297720.0 -0.1152150122 0.1283835448 0.3923650377 -0.3978643345 0.3926878586 -0.3977951491 -0.1060584524 0.1439814675
385297690.0 -0.114341727 0.1299038822 0.3882312 -0.4016298313 0.3883151241 -0.4018224943 -0.1047843955 0.14508113
390297660.0 -0.1133749523 0.1309438643 0.3836756857 -0.4064188291 0.3835826805 -0.4067536547 -0.1028668881 0.1463836172
395297630.0 -0.1113808194 0.132220284 0.3793942298 -0.4106205065 0.3789658667 -0.4105162006 -0.101423661 0.1477958178
400297600.0 -0.1105183593 0.1334593797 0.3744416211 -0.4145371712 0.3747699535 -0.4153261218 -0.1002547275 0.14903532
405297570.0 -0.1090832178 0.1347809929 0.3705547047 -0.4191338082 0.3704478294 -0.419434859 -0.0985064775 0.1508179627
410297540.0 -0.1077464552 0.135926332 0.3647743803 -0.4228538197 0.3651299064 -0.4225445749 -0.0965666331 0.1518040756
415297510.0 -0.1069332137 0.1373873111 0.360916351 -0.4268012644 0.36085238 -0.4266773961 -0.0951378774 0.1532180199
420297480.0 -0.1053818633 0.137945917 0.3560485625 -0.4310748767 0.3560398473 -0.4308777099 -0.0933128941 0.1540813108
425297450.0 -0.1038180418 0.1389137349 0.3512501904 -0.4347161642 0.3515511699 -0.4346966703 -0.0917185006 0.1560016124
430297420.0 -0.1027279608 0.1404686116 0.3467999442 -0.4385408662 0.346777829 -0.4388362765 -0.0904347869 0.1567178917
435297390.0 -0.1013435619 0.1415420282 0.3419213359 -0.4420778921 0.342127331 -0.4420246864 -0.088593507 0.158168899
440297360.0 -0.0997476072 0.1426151723 0.3368397969 -0.4460909746 0.3364823511 -0.4456177115 -0.0867903199 0.1585575291
445297330.0 -0.0981506171 0.1435533434 0.3312626675 -0.4498389543 0.3315254877 -0.4497432833 -0.0853140245 0.1601651723
450297300.0 -0.096852994 0.1448613066 0.3268538044 -0.4533617617 0.3271633493 -0.4534578769 -0.083527122 0.1613736284
455297270.0 -0.095286656 0.1457676945 0.3220423148 -0.4563384145 0.3224478608 -0.4565916266 -0.0816236969 0.162763699
460297240.0 -0.0945288585 0.1468844812 0.3167186874 -0.4599454801 0.316456779 -0.4604606025 -0.0796196216 0.1643225649
465297210.0 -0.0924899358 0.1478561521 0.3117013858 -0.4635727912 0.3123749506 -0.463869762 -0.0783925358 0.1645694486
470297180.0 -0.0912100261 0.1488592906 0.3068267176 -0.4670110947 0.3069942022 -0.4669754097 -0.0766830778 0.1660473918
475297150.0 -0.0901743459 0.1497197558 0.301598064 -0.4700449583 0.3018238307 -0.4696710864 -0.0744779053 0.1667600495
480297120.0 -0.0882824193 0.1507056392 0.296457189 -0.4729105246 0.2970051541 -0.4732647204 -0.0728301651 0.1682557279
485297090.0 -0.0867317141 0.151461591 0.2915638145 -0.4764749105 0.2915694679 -0.4766322151 -0.0714122677 0.1689677517
490297060.0 -0.0852046953 0.1525647896 0.2861375449 -0.479689429 0.2863347829 -0.4794007534 -0.0692248101 0.170101026
495297030.0 -0.0841354849 0.1538959884 0.2810166875 -0.4823643282 0.2803145403 -0.4827875277 -0.0676512039 0.170878022
500297000.0 -0.0824298396 0.1541027523 0.2752611755 -0.485852507 0.2756810792 -0.4857757575 -0.065897642 0.171795367
505296970.0 -0.0812264862 0.1553506179 0.2698821108 -0.4882558207 0.2701103834 -0.4888076404 -0.0645471039 0.1729960062
510296940.0 -0.0796049236 0.1563649279 0.2650323532 -0.4919255633 0.2654198154 -0.491797287 -0.0619822468 0.1739483515
515296910.0 -0.0782146859 0.1574800605 0.2594072867 -0.4942364375 0.2596685766 -0.4945089513 -0.0604140794 0.1743462917
520296880.0 -0.0765567117 0.1580806892 0.2539208957 -0.4973460869 0.2543354503 -0.4969009692 -0.0583689196 0.1753394731
525296850.0 -0.0750501827 0.1588419596 0.2489806672 -0.49975671 0.248914389 -0.5002861898 -0.0561473917 0.1761737131
530296820.0 -0.0735150352 0.1595980538 0.2434697298 -0.5018309411 0.2433274127 -0.5021672715 -0.0548090792 0.1765571918
535296790.0 -0.0718688227 0.1603888629 0.2377946393 -0.5047642724 0.2381802705 -0.5049614988 -0.0525312668 0.1774049703
540296760.0 -0.0703715086 0.1610483526 0.2322500273 -0.508058304 0.2321734376 -0.5079095698 -0.0512744925 0.1786292969
545296730.0 -0.0687638827 0.1624466085 0.2267558431 -0.5099029196 0.2266811251 -0.5101908461 -0.0489613342 0.1790137977
550296700.0 -0.0675797994 0.1626104658 0.2212674904 -0.5118581756 0.221854359 -0.5124893405 -0.0472564214 0.180128559
555296670.0 -0.0654929464 0.1635720243 0.2157971106 -0.5149459056 0.2157860958 -0.5148861959 -0.0452025313 0.1807631999
560296640.0 -0.0641303836 0.1644079091 0.210323672 -0.5165797991 0.2103054132 -0.5168153915 -0.0433041433 0.1814030959
565296610.0 -0.0626307764 0.1652165715 0.204367994 -0.5194840275 0.2041167987 -0.5190952657 -0.0413104696 0.1817178434
570296580.0 -0.0608131334 0.1657496608 0.199000793 -0.521285449 0.1990512911 -0.5214446211 -0.0392692076 0.1830437651
575296550.0 -0.0592137402 0.1671127722 0.1928662891 -0.5233741586 0.1933378904 -0.5233568497 -0.0370858101 0.1833195014
580296520.0 -0.057767008 0.1674844998 0.1877546389 -0.525486968 0.1872952901 -0.5258589997 -0.0354049475 0.183687671
585296490.0 -0.0561353266 0.1674736662 0.1823745149 -0.5272579934 0.1816558027 -0.5277289696 -0.0335320673 0.1840113988
590296460.0 -0.0547765654 0.1683063192 0.1764749898 -0.5292255324 0.1757742125 -0.5294340687 -0.031269271 0.1849104952
595296430.0 -0.052715877 0.1694306955 0.1704446148 -0.5312996293 0.1700734009 -0.5314274923 -0.0291373024 0.1850135722
600296400.0 -0.0513394031 0.1701363122 0.1648602717 -0.5331747338 0.1651402318 -0.5332263351 -0.0272748741 0.1861282054
605296370.0 -0.0492712707 0.1706003153 0.1586152664 -0.5347233212 0.1592573402 -0.5347642263 -0.0253466857 0.185936676
610296340.0 -0.0480167878 0.1711587871 0.1535219738 -0.5365947641 0.1535854157 -0.5368809209 -0.0234576748 0.1870132728
615296310.0 -0.0462833031 0.1720478381 0.1468267435 -0.5379134919 0.1470345137 -0.5382560691 -0.0211792132 0.1870594992
620296280.0 -0.0445303349 0.1724261654 0.1417001079 -0.5392793817 0.1414477852 -0.5395737068 -0.0192438033 0.187160738
625296250.0 -0.042790445 0.173208373 0.1353128468 -0.5413475213 0.1351466485 -0.5412612937 -0.0171580841 0.18772723
630296220.0 -0.0410775979 0.1738935175 0.1293253492 -0.5424562082 0.1301844489 -0.5427612712 -0.0152961499 0.1885885773
635296190.0 -0.0394031096 0.1742446692 0.123768431 -0.543257455 0.1234670155 -0.5434234057 -0.013268846 0.1883756562
640296160.0 -0.0379967478 0.1746267398 0.1179315492 -0.5449477073 0.1177488862 -0.545366617 -0.0107399353 0.1887332566
645296130.0 -0.036207662 0.1754899008 0.1117591663 -0.5463049879 0.1119899019 -0.5464481021 -0.009457851 0.1888131432
650296100.0 -0.034564539 0.1762326865 0.106813763 -0.5473793489 0.1063298678 -0.5474088987 -0.0071687213 0.189193342
655296070.0 -0.0327973575 0.1762562588 0.100097944 -0.5479724818 0.0998579032 -0.5484257242 -0.0045607323 0.1895276516
660296040.0 -0.031685443 0.1769170433 0.0944906 -0.5490411625 0.0943281123 -0.5492226407 -0.0031087325 0.1894810885
665296010.0 -0.0293583538 0.1771734787 0.0889500511 -0.5503794107 0.0890627806 -0.5504972787 -0.0012674674 0.1902013441
670295980.0 -0.027398108 0.1776204672 0.0822944689 -0.5514844807 0.0828304049 -0.5513571494 0.0006768084 0.18994751
675295950.0 -0.0257191978 0.1781079759 0.076648264 -0.5522599522 0.0768119133 -0.5526930104 0.0030820302 0.1905601853
680295920.0 -0.0240701768 0.1787718891 0.0705332629 -0.5531827523 0.070400967 -0.5532807207 0.0053643133 0.1905580918
685295890.0 -0.022173136 0.1789218217 0.0644486569 -0.5535556011 0.0643812452 -0.553924512 0.0071279746 0.1905075841
690295860.0 -0.0203518246 0.1794464292 0.058435533 -0.5541568062 0.0583276158 -0.5537948274 0.0097771152 0.1907308518
695295830.0 -0.018310707 0.1795550806 0.0516467753 -0.5545062724 0.0522822095 -0.5548861537 0.0109884426 0.1908906471
700295800.0 -0.0166035391 0.1801107158 0.046613052 -0.5554339259 0.0465724215 -0.5555886458 0.0135174552 0.1904815356
705295770.0 -0.0148565267 0.1803092503 0.0401535612 -0.5557341684 0.0406666497 -0.5557442186 0.0150558065 0.1906487493
710295740.0 -0.0132090056 0.1807701927 0.0345335888 -0.5558079995 0.0344568545 -0.5560165317 0.0169329248 0.1908005317
715295710.0 -0.0116896316 0.1808683256 0.0285459881 -0.5565171596 0.0288568232 -0.5566508833 0.0193755545 0.1902937165
720295680.0 -0.0099774249 0.1809640479 0.0225515096 -0.5563736657 0.0227562306 -0.5567943697 0.021947897 0.1907386048
725295650.0 -0.0076563475 0.1815031752 0.016304749 -0.5563839609 0.0168462486 -0.5565583182 0.0235605151 0.1902928858
730295620.0 -0.0064826406 0.1816093657 0.010376032 -0.5569351394 0.0104979297 -0.5570877314 0.0261004741 0.1899169393
735295590.0 -0.0042751702 0.1818337238 0.0047274863 -0.557126376 0.004624743 -0.5572529932 0.027937852 0.1900090594
740295560.0 -0.0026389907 0.1822062285 -0.0018028093 -0.5564849601 -0.0015285252 -0.5568564165 0.0299576786 0.1896608614
745295530.0 -0.0008419786 0.182038944 -0.0072737703 -0.5569949987 -0.0071244778 -0.5570739933 0.0319279683 0.189826721
750295500.0 0.0008143514 0.1820759376 -0.0136175749 -0.5562975308 -0.0132852284 -0.5564574916 0.03408068 0.188889464
755295470.0 0.0029548173 0.1826441993 -0.0190628672 -0.5567051537 -0.0190609722 -0.5564642664 0.0360841813 0.1891234967
760295440.0 0.0042214433 0.1829228517 -0.0257627229 -0.556106307 -0.0256010974 -0.5562032372 0.0377258183 0.1888426048
765295410.0 0.0061248056 0.1826648451 -0.0309780079 -0.5558856933 -0.031206056 -0.5561216706 0.0406706128 0.1889437947
770295380.0 0.0082845461 0.1826546655 -0.0373785168 -0.5551572414 -0.037327376 -0.5557013648 0.0424716864 0.1886823113
775295350.0 0.0100990507 0.1832329522 -0.0435717319 -0.5547069145 -0.0431905388 -0.554742304 0.0439600309 0.1876649289
780295320.0 0.0119921637 0.1831867971 -0.0493456415 -0.5547910079 -0.0489680762 -0.5546732396 0.0462719023 0.1879167931
785295290.0 0.0134691728 0.1834642573 -0.0553089261 -0.5533881137 -0.0554244411 -0.5540018281 0.0479529373 0.1874826882
790295260.0 0.0152808306 0.1830415596 -0.0612577995 -0.5532281438 -0.0613092363 -0.5535513126 0.0504184685 0.1870608171
795295230.0 0.017221325 0.1832640166 -0.0668382907 -0.5519762573 -0.0666753888 -0.552540548 0.052474156 0.1869260182
800295200.0 0.0189705443 0.1831060333 -0.0734305606 -0.5520048434 -0.0733867787 -0.5519415423 0.0545892127 0.186105152
805295170.0 0.0205511337 0.1830221481 -0.0788195295 -0.5505668852 -0.0791299501 -0.5508356301 0.0563390359 0.1855612178
810295140.0 0.0225416153 0.1831000647 -0.084644705 -0.5501802348 -0.0848227662 -0.5504097585 0.0581984606 0.1854859749
815295110.0 0.0244286791 0.1830090485 -0.090924318 -0.549015427 -0.0907951289 -0.5491534762 0.0604670459 0.1846322335
820295080.0 0.0259866495 0.1826604246 -0.0968516174 -0.5478069759 -0.0966418037 -0.5480891097 0.062596651 0.1842744171
825295050.0 0.0281347445 0.1827768877 -0.1026479923 -0.5464419162 -0.1025980303 -0.5467989543 0.0647580221 0.1838373083
830295020.0 0.0298385328 0.1829423629 -0.1087261765 -0.5454006824 -0.1091110208 -0.5456384243 0.0662930893 0.1830256371
