!Created with skrf (http://scikit-rf.org).
# Hz S RI R 50.0 
!freq ReS11 ImS11 ReS21 ImS21 ReS12 ImS12 ReS22 ImS22
300000.0 -0.2112948512 -0.0739655795 -0.0012350447 -0.0004303057 -0.0008123076 -0.0001278553 -0.7720599969 -0.157971984
5299970.0 -0.2141432488 0.0088706258 -0.000193238 2.71749e-05 0.0001241414 -0.0001400704 -0.7849438788 -0.0083714759
10299940.0 -0.2102329046 0.0213509376 0.0002596031 4.53633e-05 0.0001154312 -4.34343e-05 -0.7879594823 -0.0050910938
15299910.0 -0.2053020728 0.0312453715 0.0001437611 -0.0001154699 2.02505e-05 8.89915e-05 -0.7936181125 -0.0031933032
20299880.0 -0.1995058369 0.0391294832 -8.466e-06 1.7949e-05 0.0001062073 -0.0001478161 -0.8002181058 0.0016180704
25299850.0 -0.1930835682 0.0455326896 -0.0001624545 -6.90228e-05 -6.18821e-05 -4.95828e-05 -0.8064274807 0.0075410061
30299820.0 -0.1862503895 0.0504098687 8.5063e-06 -5.38873e-05 7.51503e-05 -0.000104295 -0.8122620855 0.014938494
35299790.0 -0.1797244123 0.0546676624 -1.78124e-05 -4.9146e-06 -8.45844e-05 -0.000148619 -0.8176892576 0.0240208501
40299760.0 -0.1738463625 0.0569485486 4.47048e-05 -4.40338e-05 -6.52251e-05 0.0001448898 -0.8213238885 0.0332534353
45299730.0 -0.168555568 0.0592920572 -0.0001653994 -3.39705e-05 -3.4414e-05 1.2477e-06 -0.8251046487 0.0425420013
50299700.0 -0.162936489 0.060701317 4.2462e-05 0.00018007 -1.38257e-05 0.0002353439 -0.8279387079 0.0525153833
55299670.0 -0.1584166709 0.0616869058 0.0001352635 5.81416e-05 -0.0001854876 8.38264e-05 -0.8301053448 0.0629500837
60299640.0 -0.153813166 0.0621397309 -9.1489e-05 7.1299e-05 -4.40534e-05 0.0001746726 -0.8314666987 0.0729658827
65299610.0 -0.150036059 0.06271681 1.93115e-05 0.0002307135 -2.70968e-05 -0.0001117616 -0.8308843474 0.0830910743
70299580.0 -0.1464598221 0.0626976341 5.69343e-05 4.61914e-05 -0.0002223236 -8.81647e-05 -0.8324022857 0.092529668
75299550.0 -0.1430881612 0.0625269045 0.0001510407 0.0001127531 7.512e-06 0.0001443663 -0.8323360465 0.1026946557
80299520.0 -0.1403416801 0.0627707681 -5.97713e-05 0.0002321108 -0.0001227481 0.0001756718 -0.8317554831 0.1121815199
85299490.0 -0.1375807571 0.0621023175 0.0001175997 0.0001147411 -4.07777e-05 8.82629e-05 -0.8316792683 0.1217167891
90299460.0 -0.135427553 0.0622101566 -3.90075e-05 -9.63417e-05 0.0001400923 0.0003592622 -0.8307816449 0.1317639419
95299430.0 -0.1333363749 0.0618778076 -0.0001685234 -5.22417e-05 0.0001908935 -9.81098e-05 -0.8296667075 0.1410729521
100299400.0 -0.1317456772 0.0619124171 0.0001516125 -5.2362e-05 0.0001794374 -0.0001229172 -0.828354009 0.149713346
105299370.0 -0.1298811449 0.0616823792 -2.60451e-05 -6.42108e-05 1.68148e-05 3.2435e-05 -0.8274386776 0.1593749981
110299340.0 -0.1281619312 0.0613440711 -0.0001579522 -0.0001799953 5.31609e-05 1.99528e-05 -0.8265292091 0.1684232223
115299310.0 -0.1269616397 0.0611631018 -3.38241e-05 0.0001307584 -5.89784e-05 -0.0002020101 -0.824286991 0.1771839147
120299280.0 -0.12563428 0.0612478706 -1.56564e-05 0.0001976349 -0.0001173409 0.0001538861 -0.8230388206 0.1864462801
125299250.0 -0.124779986 0.060903488 6.44022e-05 0.0001730358 -0.0001903054 5.47971e-05 -0.8214581705 0.1958127633
130299220.0 -0.123191116 0.0612540611 9.03372e-05 0.0001217379 -2.21597e-05 6.41192e-05 -0.820329971 0.2046052251
135299190.0 -0.1224007985 0.0610768631 -0.0001007787 3.612e-05 -8.91463e-05 0.0001268236 -0.8179563209 0.2123576676
140299160.0 -0.1215860996 0.061302094 -0.0001008989 5.99849e-05 3.58366e-05 -7.22591e-05 -0.8151538866 0.2213082645
145299130.0 -0.1207116847 0.0613766937 5.58517e-05 -2.91898e-05 -0.0001588014 0.0001522858 -0.8135209391 0.2302834007
150299100.0 -0.1200299291 0.0615589428 -7.66106e-05 -7.06006e-05 0.0002361391 0.0001136952 -0.8112729112 0.2386859096
155299070.0 -0.1193970094 0.0620681733 -3.29577e-05 4.7301e-05 0.0001653972 2.4659e-05 -0.8098059467 0.2476194127
160299040.0 -0.1184892858 0.0623644833 0.0001613634 4.81077e-05 -0.0001961071 3.39395e-05 -0.8073902697 0.2565701714
165299010.0 -0.1181451691 0.0624162811 -8.94424e-05 3.22805e-05 0.0001501879 -2.77099e-05 -0.8044318442 0.2649224489
170298980.0 -0.1175889053 0.0627920643 1.77363e-05 -0.0001344933 -2.10823e-05 0.0001564961 -0.8020701931 0.2736814601
175298950.0 -0.1168723931 0.0636169884 5.7734e-05 7.37024e-05 0.0001886583 -7.5343e-05 -0.7989067173 0.2824118548
180298920.0 -0.1163257207 0.0635631715 -4.36536e-05 -0.0002018276 5.7682e-05 5.89864e-05 -0.7954305373 0.2901382253
185298890.0 -0.1159560875 0.0642338546 0.0002320846 9.7106e-06 7.89483e-05 4.96683e-05 -0.7927634845 0.2985899731
190298860.0 -0.1151762655 0.0644215295 4.47373e-05 0.0001569951 3.23512e-05 3.7822e-05 -0.7897168143 0.3076916163
195298830.0 -0.1143694703 0.0651526791 2.63787e-05 0.0002945496 0.0001579759 0.0001496129 -0.7867494331 0.3159268376
200298800.0 -0.1145335601 0.0659128553 -0.0001092063 9.87592e-05 0.0001437076 1.98534e-05 -0.7831032367 0.3239857896
205298770.0 -0.1139327766 0.0664825817 -5.50399e-05 4.12693e-05 1.60089e-05 -4.3256e-05 -0.7800078609 0.3325274232
210298740.0 -0.1131928296 0.067049799 0.0001571666 0.0001824623 -1.41771e-05 5.41911e-05 -0.7766549383 0.3410843722
215298710.0 -0.1129658164 0.0677477405 -0.0001285688 0.0001067943 -0.0002426386 0.0001074712 -0.7731875838 0.3483425077
220298680.0 -0.1125235912 0.0685465634 -6.12107e-05 0.0002110856 0.0001789491 0.000217542 -0.7694394083 0.3575292818
225298650.0 -0.111827982 0.0692558357 -0.0001617208 -7.79325e-05 7.74595e-05 9.82939e-05 -0.7655380337 0.3648878398
230298620.0 -0.1116155041 0.0701290792 3.4392e-05 -8.58455e-05 9.21312e-05 0.0001828466 -0.7615952935 0.3729752694
235298590.0 -0.1111809456 0.0706022522 -5.2932e-06 0.0001968291 -0.0002155302 0.0001237294 -0.7579615768 0.3808472798
240298560.0 -0.1106381593 0.0717129668 -7.35998e-05 -6.67464e-05 1.12733e-05 2.83044e-05 -0.7542324601 0.3887993137
245298530.0 -0.1101331008 0.0723697545 4.53308e-05 5.06792e-05 0.0002292761 1.46664e-05 -0.7501135201 0.3963938446
250298500.0 -0.1098419578 0.0731907298 -1.1561e-05 0.0003625238 -1.5743e-06 0.0001947919 -0.7458758371 0.4045701
255298470.0 -0.1092586607 0.0737583287 8.38711e-05 0.0001525423 -0.0002228514 0.0001693149 -0.7415516785 0.4124597299
260298440.0 -0.1085037904 0.0750315121 7.25786e-05 8.3952e-06 0.0001158365 -5.09656e-05 -0.7370242428 0.4200698546
265298410.0 -0.1079864621 0.075918798 -4.43997e-05 -0.0001618991 0.0001149789 0.0001957874 -0.7324762166 0.4275268367
270298380.0 -0.1077949463 0.0765784403 0.0001592596 0.0002384373 -0.0001173177 7.84199e-05 -0.7276117012 0.4352881779
275298350.0 -0.1070683906 0.0775337832 3.28384e-05 0.0001495457 0.0001489126 0.0003501557 -0.7228542706 0.4433590941
280298320.0 -0.106662199 0.0783832668 9.04154e-05 0.0002240289 2.77942e-05 9.00259e-05 -0.7183646311 0.4503295816
285298290.0 -0.1059560314 0.0795403618 -4.63666e-05 -0.0001025202 0.0002354166 0.0002897719 -0.71334959 0.4582052778
290298260.0 -0.1053450911 0.0803733318 0.0002663058 0.0001843358 0.0001231789 0.0001037998 -0.7083956913 0.4655029132
295298230.0 -0.1048612975 0.08119486 0.0002974741 0.0001522463 6.26757e-05 9.20988e-05 -0.7041778023 0.4730429276
300298200.0 -0.1041857973 0.0817445377 -5.70276e-05 -5.08723e-05 0.0001965544 0.0001950221 -0.6985309371 0.4800109437
305298170.0 -0.1032848752 0.0831262224 1.30173e-05 0.0001653966 0.0002039401 0.0002797358 -0.6933442231 0.4879879108
310298140.0 -0.1030442005 0.083419502 -7.30344e-05 0.0002206315 9.16879e-05 6.101e-06 -0.6892158276 0.4951446614
315298110.0 -0.1025558383 0.0845507744 -7.32421e-05 0.0001799676 -7.439e-07 0.0001288671 -0.6831191353 0.5020332976
320298080.0 -0.1018456943 0.0851710365 2.01845e-05 0.0003067622 0.0001879629 0.000217212 -0.677936905 0.5095652087
325298050.0 -0.1012952068 0.0860182122 0.0001161801 0.000141734 9.7357e-05 0.0003104455 -0.6720402304 0.5162782227
330298020.0 -0.1009202039 0.0872942165 0.0001791616 3.41676e-05 6.36889e-05 -3.26705e-05 -0.6661789914 0.5232924315
335297990.0 -0.100246681 0.088096294 0.0002250195 5.71002e-05 0.0002009332 0.0001490615 -0.6614370968 0.5301020678
340297960.0 -0.0999751182 0.0891277902 -4.06951e-05 0.0001284608 2.74382e-05 0.0001620365 -0.6554152714 0.537553172
345297930.0 -0.0993664698 0.0899367811 7.9392e-06 0.0003155264 -1.99513e-05 0.0001007466 -0.6495102311 0.5435796529
350297900.0 -0.0982370136 0.0913140305 0.0002157115 7.63701e-05 8.80568e-05 0.0001008692 -0.6440775688 0.5510764681
355297870.0 -0.0979588122 0.0922379254 0.0002783655 5.8531e-06 -5.70401e-05 7.4671e-05 -0.6379694951 0.5572090455
360297840.0 -0.0972561059 0.0930626884 0.0002869653 0.0002609544 0.0001061262 0.0001191944 -0.6319378657 0.5638561224
365297810.0 -0.0964414265 0.0940568333 -2.88469e-05 0.0001424145 0.0003170798 9.82629e-05 -0.6264943459 0.5704850638
370297780.0 -0.0960594193 0.095120604 7.01419e-05 5.66383e-05 0.0002209643 -1.48403e-05 -0.6210472242 0.5763825934
375297750.0 -0.0951478441 0.096011849 0.0004285758 -0.0001496034 8.26127e-05 0.0001071464 -0.6142150681 0.58319141
380297720.0 -0.0940666307 0.0971961781 0.0002650033 5.11525e-05 0.0001775228 6.15733e-05 -0.6079360534 0.590090633
385297690.0 -0.0935336824 0.098414792 0.0001022322 0.0002142821 -4.99893e-05 6.6083e-06 -0.6020418869 0.5961145031
390297660.0 -0.0926976441 0.099268541 0.0001899129 -0.0001949652 1.51792e-05 2.7752e-06 -0.5948594265 0.6014141258
395297630.0 -0.0918251951 0.1002004976 0.0001518259 0.0001889062 0.0001931386 5.48134e-05 -0.588739194 0.6081319714
400297600.0 -0.0911693569 0.1013160987 0.0001072496 0.000148994 0.0001237905 4.82376e-05 -0.5829599312 0.613625728
405297570.0 -0.0902586916 0.102246814 3.09424e-05 9.57623e-05 0.0003651467 0.0001143721 -0.576820116 0.6201482798
410297540.0 -0.08943147 0.1030646382 -7.63082e-05 0.0001730462 -2.8769e-06 3.24104e-05 -0.5698550527 0.6257964415
415297510.0 -0.0886220406 0.1042109163 0.0003747697 0.0001363615 0.0001029835 0.0001672508 -0.5635947499 0.6324036207
420297480.0 -0.0877539214 0.1049894941 0.0002469566 5.9354e-05 0.0002152 0.0001229366 -0.5568705037 0.6368479298
425297450.0 -0.0868149773 0.1061914743 0.000259466 5.97095e-05 0.0001446424 1.09957e-05 -0.5501800927 0.6436567191
430297420.0 -0.0862310563 0.1069715042 0.0002846284 7.71518e-05 0.0002729316 4.29377e-05 -0.5433507607 0.6485444863
435297390.0 -0.08500867 0.1079198281 0.0001261781 0.0001133373 5.48477e-05 6.51916e-05 -0.536372242 0.6538029138
440297360.0 -0.0841188043 0.1087640296 4.99152e-05 3.25081e-05 7.16131e-05 0.0001547906 -0.5303034728 0.6587829874
445297330.0 -0.0833279671 0.1098243371 2.1611e-06 0.0001025497 4.81176e-05 0.000139508 -0.5233719258 0.6648971482
450297300.0 -0.0823242037 0.1106439424 8.9894e-06 5.68764e-05 -3.05412e-05 0.0001020578 -0.5165160357 0.6697082862
455297270.0 -0.0814362731 0.1118129747 0.0002470313 0.0001318443 8.05885e-05 0.0001459148 -0.5098674288 0.6748256476
460297240.0 -0.0806831191 0.112953632 8.5691e-06 4.75279e-05 9.61133e-05 -5.65251e-05 -0.5023352243 0.680589711
465297210.0 -0.0792198659 0.1133837528 8.12083e-05 0.0003035879 0.000214499 0.0002722335 -0.4960782578 0.6849246253
470297180.0 -0.0783813778 0.1146158993 5.87835e-05 -4.40774e-05 0.0003626929 0.0001400666 -0.4887889726 0.6896040598
475297150.0 -0.0775478598 0.1155349658 0.0002107521 0.0001915245 8.05473e-05 0.0001840671 -0.4816995522 0.6948967662
480297120.0 -0.0766516222 0.1161614346 8.45472e-05 0.0001277057 0.000288992 -1.60114e-05 -0.4749826676 0.6999706663
485297090.0 -0.0754317038 0.1172773616 0.0001749032 0.0001022065 0.0001493547 -4.507e-05 -0.4674499217 0.7045590365
490297060.0 -0.0746693195 0.1182434188 5.80755e-05 0.0001322786 9.13005e-05 -8.68644e-05 -0.460614568 0.7084110429
495297030.0 -0.0735290826 0.118987591 0.0001593667 0.000130609 8.08753e-05 1.50772e-05 -0.4527864548 0.7128425166
500297000.0 -0.0725805336 0.1195370179 0.0002751407 0.0001556745 5.20232e-05 -1.50958e-05 -0.446241546 0.7177331838
505296970.0 -0.0717124747 0.1206179523 0.000213614 8.74721e-05 0.0001544896 -0.0001353516 -0.4394906495 0.7220264516
510296940.0 -0.0704167357 0.1216139728 9.19774e-05 7.84159e-05 0.0001553857 -6.75813e-05 -0.4314202948 0.7264300159
515296910.0 -0.0693244505 0.122717739 -1.26269e-05 -1.63695e-05 0.0001688124 9.64158e-05 -0.4243173645 0.7308748337
520296880.0 -0.0682813361 0.1234759499 0.0002294408 -1.69432e-05 4.77665e-05 -6.00018e-05 -0.4169929885 0.7348157172
525296850.0 -0.0668343793 0.124037206 0.0002741252 7.78761e-05 0.0001262412 3.37867e-05 -0.4091828157 0.7396593994
530296820.0 -0.0657781741 0.1248438134 0.0001996673 0.0001777658 0.0001357707 -0.0001036423 -0.4025430618 0.7426441145
535296790.0 -0.0647998422 0.1256588978 0.0002729458 5.37142e-05 0.0003538876 5.74257e-05 -0.3953444059 0.7465494729
540296760.0 -0.0638187949 0.1262314154 -5.72144e-05 0.0001035747 0.000258736 -3.19208e-05 -0.3876405803 0.7511212122
545296730.0 -0.0624605528 0.1272135483 8.16914e-05 -2.41046e-05 0.0002388369 2.51315e-05 -0.3803587993 0.754436909
550296700.0 -0.0616510336 0.1281412878 0.0004019208 -2.31682e-05 0.0001300187 6.49016e-05 -0.3728306501 0.7581229663
555296670.0 -0.0600870348 0.1289252743 0.0001299241 7.83016e-05 0.0002118978 0.0001341853 -0.3646447916 0.7616491207
560296640.0 -0.0590829019 0.1296216792 0.0003336872 2.26715e-05 -4.86275e-05 9.0474e-05 -0.3568816715 0.7657092046
565296610.0 -0.0578099971 0.13050653 0.0002907758 0.0001297159 0.0002901415 0.0001273389 -0.3496549831 0.768733031
570296580.0 -0.0568106978 0.1309501745 -3.51446e-05 -8.81308e-05 0.0001377356 9.66609e-05 -0.3425607338 0.772722813
575296550.0 -0.0555788688 0.1318738405 0.0004583327 4.4222e-05 0.0001892865 -0.0002248021 -0.3339093465 0.7761865733
580296520.0 -0.0543647543 0.1324222766 3.79697e-05 7.90592e-05 0.0003660245 5.0519e-05 -0.3264385112 0.7788605356
585296490.0 -0.0532681624 0.1332327155 0.0001906099 2.99669e-05 0.0002525491 3.86006e-05 -0.3191100623 0.7822902412
590296460.0 -0.0520266042 0.1339359832 0.0002237984 0.000135992 0.0001518705 3.43651e-05 -0.3112155385 0.7853299126
595296430.0 -0.0505535153 0.1346389113 9.82183e-05 0.0001422546 0.0001598392 -5.00049e-05 -0.3035203775 0.7880904519
600296400.0 -0.0495237425 0.1351964375 0.0005044683 0.0001327245 0.0001402873 -0.0001115219 -0.2958513369 0.7912060335
605296370.0 -0.0480885348 0.1359326083 4.02847e-05 7.8842e-05 0.0001454744 -2.00781e-05 -0.2880277384 0.7944305015
610296340.0 -0.0468638975 0.1364151217 3.13037e-05 -5.98308e-05 0.0001272555 2.11277e-05 -0.2795654558 0.7971713935
615296310.0 -0.045542361 0.1374997685 0.0001375628 7.61172e-05 0.0002367592 -2.11082e-05 -0.2720194415 0.7994620341
620296280.0 -0.044340235 0.1377174298 0.0001787162 -8.70359e-05 0.0003005193 -0.0001371404 -0.264451569 0.8019491516
625296250.0 -0.0430460745 0.1385733719 0.00013957 6.58031e-05 0.0001646428 -0.0001048231 -0.2567146051 0.8044162648
630296220.0 -0.0418628071 0.1393802201 0.0001298816 -0.000213964 0.0002484629 6.50709e-05 -0.2482191556 0.8076881529
635296190.0 -0.040499068 0.1395953408 5.82341e-05 1.48233e-05 0.0004147227 3.57244e-05 -0.2403329966 0.8097851688
640296160.0 -0.0391277498 0.1400966773 9.09843e-05 8.79585e-05 0.0001537348 -2.98228e-05 -0.2317209202 0.8118559028
645296130.0 -0.0380903683 0.1411718709 0.0004152732 -7.63972e-05 0.0004058757 -3.9254e-06 -0.2244644679 0.8138404359
650296100.0 -0.0364524893 0.1416852247 0.0002525708 -0.0001340864 5.58863e-05 9.74887e-05 -0.216203942 0.8164979421
655296070.0 -0.0351574448 0.1420681647 0.0004193017 6.99652e-05 0.0001274226 -0.0001255533 -0.2084001294 0.818041095
660296040.0 -0.0340084623 0.1427223389 0.0002800235 0.0001921347 0.0003358117 8.75691e-05 -0.2003674465 0.8204308591
665296010.0 -0.0326467197 0.1430327055 0.0002709803 0.0001629876 0.0001082588 -0.0002324106 -0.1922166552 0.822415335
670295980.0 -0.0311313612 0.1436579658 0.0002625852 0.000101762 0.0004303752 2.31866e-05 -0.1845810721 0.8240785111
675295950.0 -0.0298677583 0.1438657999 0.0002104545 5.29587e-05 0.0002661306 0.000195734 -0.1757905192 0.8258066577
680295920.0 -0.0285487863 0.1446154504 0.0003211952 -3.07936e-05 0.0003653805 -3.57481e-05 -0.1676672932 0.8276709658
685295890.0 -0.0271228602 0.145085287 0.0002413221 -3.43594e-05 0.0001928201 9.55965e-05 -0.1595093434 0.8287637059
690295860.0 -0.0259089366 0.1456517006 -1.87358e-05 -6.72878e-05 0.0002947383 3.192e-06 -0.1512793103 0.8305052741
695295830.0 -0.0243076598 0.1459547644 0.0001045975 6.31309e-05 0.0001239032 -5.36192e-05 -0.1431007336 0.8323532199
700295800.0 -0.0230296335 0.1461519141 0.0001311185 -9.9501e-05 -3.34377e-05 0.0001285994 -0.1345766781 0.833063713
705295770.0 -0.0214462917 0.1469509798 0.000158844 5.09053e-05 0.00042117 3.48461e-05 -0.1271518751 0.8350723401
710295740.0 -0.0198943022 0.147216747 -0.0001941151 -0.0001791872 0.0001710796 -0.0001025814 -0.1190815967 0.8362333878
715295710.0 -0.0190287654 0.1477715757 0.0004756504 -0.0002113013 8.41467e-05 0.0001480615 -0.1103358225 0.8375821411
720295680.0 -0.0173804241 0.1478480901 0.0001218826 1.6511e-05 0.0003672737 2.135e-06 -0.1019080093 0.8383989122
725295650.0 -0.0156979237 0.1484221022 0.0001820241 3.48134e-05 0.0003320815 -7.6867e-05 -0.0934908956 0.838986673
730295620.0 -0.0145254399 0.1486023836 -5.21464e-05 1.0514e-06 0.0003905413 -7.4152e-05 -0.0848391552 0.8401591223
735295590.0 -0.012954738 0.1487646961 0.0002853972 -8.96692e-05 0.0001859236 6.88872e-05 -0.0763393925 0.8404105469
740295560.0 -0.0120140547 0.1494891383 0.0003077311 3.08092e-05 0.0001896583 -0.000199964 -0.068857202 0.8406838992
745295530.0 -0.010191071 0.1498233742 0.0001225712 -2.19213e-05 0.0001693959 -1.00925e-05 -0.0603182122 0.8419367896
750295500.0 -0.008915493 0.1499646053 0.0004708507 -0.0002369089 0.0003622671 -0.0001541067 -0.0519018931 0.8423013442
755295470.0 -0.0071686276 0.1505782885 0.0001363326 -2.44016e-05 0.0003276341 8.74501e-05 -0.0443599305 0.8433827594
760295440.0 -0.0061198414 0.1506734851 0.0001255265 5.35894e-05 0.0002805982 -0.0001279441 -0.0360468316 0.8432138083
765295410.0 -0.0047121357 0.1506914005 0.0002320448 -8.0223e-06 0.0002004093 3.18563e-05 -0.0265294949 0.8433938593
770295380.0 -0.0031144433 0.1513817322 7.44416e-05 2.78535e-05 0.0002819265 -8.6308e-06 -0.0186230854 0.8439501804
775295350.0 -0.0018075799 0.1515439629 0.0003249102 -2.5218e-06 0.0003581229 -0.0001530523 -0.0107168955 0.8439102878
780295320.0 -0.0003604558 0.1513791976 0.0003221067 -0.0001895542 0.0003109581 -8.38496e-05 -0.0021171497 0.8444814584
785295290.0 0.0014886439 0.1521023552 0.000336312 0.0001162343 0.0002436897 7.505e-06 0.0061655737 0.8443134242
790295260.0 0.00278361 0.1520675995 3.0815e-05 -0.0004084724 0.0004129138 -2.35336e-05 0.0150197198 0.8439580793
795295230.0 0.0042950147 0.1524804009 0.0004967645 -5.71919e-05 0.0003004423 -6.42788e-05 0.0230110102 0.8443792576
800295200.0 0.0060625632 0.1525576077 0.0003371287 7.76874e-05 0.0003437328 -9.891e-05 0.0316358271 0.8434440349
805295170.0 0.0072091348 0.1527305779 0.0002791853 0.0001491098 0.0001544054 6.82166e-05 0.0390447792 0.8429295854
810295140.0 0.0089116087 0.1527183429 0.0002657184 -0.0001065379 0.0002512831 8.43197e-05 0.0474569165 0.8438050672
815295110.0 0.0105911907 0.1528284761 0.0001805291 -0.0002835613 0.0003164274 0.0001837859 0.056030753 0.8426913359
820295080.0 0.0115886368 0.1527897196 0.0003199553 -6.22438e-05 0.0001002539 -0.0001073931 0.0640966134 0.8419159557
825295050.0 0.0133155249 0.1531695404 0.0002590839 0.0001011063 0.0003984617 -4.20269e-05 0.0726196051 0.8414299183
830295020.0 0.0150032496 0.1532456531 0.0001617397 -0.0001486256 0.0002551673 -8.96718e-05 0.0805777949 0.84024026
835294990.0 0.0160255903 0.1532393741 0.0003536302 -0.0002315816 0.0003352166 -1.63982e-05 0.0889170625 0.8392056895
840294960.0 0.0177231068 0.1531393809 0.0002800423 -0.0001912621 0.0001444926 -9.59346e-05 0.0971077149 0.8387343713
845294930.0 0.0191576397 0.1533793686 0.0001884908 -7.58636e-05 1.65189e-05 -0.0001873983 0.105570387 0.8380485052
850294900.0 0.0206219914 0.1533304678 0.0001811492 -6.10727e-05 0.0001790526 0.000110819 0.11374211 0.8367732914
