!Created with skrf (http://scikit-rf.org).
# Hz S RI R 50.0 
!freq ReS11 ImS11 ReS21 ImS21 ReS12 ImS12 ReS22 ImS22
300000.0 -0.7802979375 -0.089733904 -0.0011804646 0.0002775984 4.84664e-05 -0.0001579289 -0.0451200418 -0.0594781626
5299970.0 -0.7850589104 -0.0054279302 0.000265026 0.0002615179 6.48957e-05 5.93412e-05 -0.0455057738 0.0155818559
10299940.0 -0.7879238121 -0.0036294873 0.0001503258 4.50007e-05 -0.0001612775 -7.6548e-06 -0.0399254172 0.0339428181
15299910.0 -0.7932021626 -0.0020152269 1.85885e-05 -1.10311e-05 -1.33252e-05 4.25334e-05 -0.031346093 0.0482934668
20299880.0 -0.800120264 0.0022436049 -3.49143e-05 0.000181117 0.0001484319 0.0001377009 -0.0210780885 0.0602536069
25299850.0 -0.8060126618 0.0076816983 2.93036e-05 0.0001250638 -4.84518e-05 -1.26599e-05 -0.0098858249 0.0694769002
30299820.0 -0.8124981304 0.0154292974 -0.0001043017 -3.94457e-05 -6.5127e-06 7.99386e-05 0.0017701531 0.0765974045
35299790.0 -0.817471837 0.0248389253 0.0002152221 -1.10564e-05 -1.20328e-05 0.0001880519 0.0132825755 0.0812999651
40299760.0 -0.8214483365 0.0341186063 0.0002129722 -8.5728e-06 -3.04174e-05 -6.85587e-05 0.0245407812 0.0840318048
45299730.0 -0.8246105138 0.0432649519 4.09107e-05 6.859e-07 6.2435e-05 -0.0001142147 0.0355025585 0.0855590784
50299700.0 -0.827046847 0.0532792067 -0.000168715 -0.000186249 2.55585e-05 9.91354e-05 0.0452545129 0.0852388056
55299670.0 -0.8294000732 0.0633542968 -5.25541e-05 -0.0001586772 9.81039e-05 0.0001559926 0.0543623532 0.0840602196
60299640.0 -0.8302659531 0.0737215392 3.51101e-05 -1.18778e-05 0.0002925037 -7.36864e-05 0.063030184 0.0823136722
65299610.0 -0.8312965464 0.0841073025 0.000173331 6.07449e-05 -0.0001763099 0.000113717 0.0705559482 0.080169772
70299580.0 -0.8317434724 0.0940811392 -0.0001053062 -0.0001599594 1.52268e-05 -1.15642e-05 0.0776136031 0.0774352971
75299550.0 -0.8316990701 0.103592815 0.0002233931 -1.51753e-05 1.89032e-05 4.99256e-05 0.0838217677 0.0735414416
80299520.0 -0.8318563624 0.1136808781 -1.54702e-05 0.0001298787 8.32166e-05 -2.15671e-05 0.0895410713 0.0704803254
85299490.0 -0.8309784193 0.1229412277 0.0001769539 -0.0001321436 1.90618e-05 7.71379e-05 0.0944816434 0.0665177972
90299460.0 -0.8300564396 0.132498217 0.0001266427 -0.000165555 0.0001400859 -0.0001675505 0.0991472311 0.0628402978
95299430.0 -0.8293793558 0.1418745818 -2.21384e-05 4.6204e-05 0.0001514598 -1.983e-07 0.1031991032 0.059399906
100299400.0 -0.8284060114 0.1513952495 -0.0002663947 -6.8814e-06 -1.17221e-05 0.0002053303 0.1074157351 0.0550450558
105299370.0 -0.8269899476 0.1601750312 -4.003e-05 0.0004315699 0.0001332642 0.0003153591 0.1104662226 0.0510605045
110299340.0 -0.825496728 0.1698814121 -3.83133e-05 7.09511e-05 2.40449e-05 2.00988e-05 0.1132440879 0.0473432147
115299310.0 -0.8239497936 0.1786704947 -4.42457e-05 -2.45424e-05 -0.0001137626 9.85687e-05 0.1159934778 0.04335551
120299280.0 -0.8219512755 0.1871240908 -6.90877e-05 0.0002274672 0.0002478668 9.90386e-05 0.1183526392 0.0394901076
125299250.0 -0.820417264 0.1959267106 -1.04495e-05 -8.89374e-05 6.401e-05 4.35381e-05 0.1203120928 0.035645267
130299220.0 -0.8189808582 0.2056497086 2.03839e-05 3.51515e-05 -2.63276e-05 9.50107e-05 0.122083624 0.0317996725
135299190.0 -0.8170820055 0.2142603487 -2.5168e-06 0.0002195244 4.60161e-05 0.0001137931 0.1236770956 0.0283541556
140299160.0 -0.8146141726 0.223229987 -0.0001487785 -4.97144e-05 -1.74547e-05 -3.36942e-05 0.1251388671 0.025025058
145299130.0 -0.8124644151 0.2320057401 1.38824e-05 -5.9167e-06 0.0001376381 5.8633e-06 0.1259653316 0.0216252088
150299100.0 -0.8102985725 0.2412596451 -3.8502e-05 0.00021172 5.73495e-05 -0.0001034669 0.1270203779 0.0187510785
155299070.0 -0.8077289773 0.2497639005 0.0001045839 2.62144e-05 4.55519e-05 0.000125542 0.1279856212 0.0155548216
160299040.0 -0.8056566587 0.2584470591 0.0001433765 0.0001036898 -9.85666e-05 1.17994e-05 0.1284317472 0.0123149726
165299010.0 -0.8027981833 0.2668856472 4.11161e-05 0.0002953649 0.0001073829 -1.6056e-06 0.1291246423 0.0090871466
170298980.0 -0.7999377647 0.2756368433 -0.0001511771 0.0001946487 -1.57125e-05 -0.0001118103 0.1295940384 0.006011359
175298950.0 -0.7972092086 0.2842917789 0.0002183741 0.0001353013 9.4032e-06 5.23963e-05 0.1299120523 0.0034397486
180298920.0 -0.7949775047 0.2930314513 -0.000162257 0.0001009061 -6.6989e-06 0.0002861007 0.1300093368 0.0005876991
185298890.0 -0.7908582317 0.3011077066 -6.51719e-05 0.0002640641 -7.50452e-05 8.70861e-05 0.1301926095 -0.0025149764
190298860.0 -0.7882618542 0.3098241535 0.000140373 0.0001134303 0.0001364317 0.0002377477 0.130211491 -0.0047851436
195298830.0 -0.784941415 0.3182238251 -6.4165e-05 0.000148208 0.0001334309 -9.5936e-06 0.1301848207 -0.007589368
200298800.0 -0.781282355 0.3260619333 2.95212e-05 0.0001167018 0.0001067731 -1.1002e-05 0.1299903773 -0.0103953724
205298770.0 -0.7784060721 0.3342356832 0.0001604567 6.01425e-05 -4.18415e-05 0.0001111321 0.1296325584 -0.0133062125
210298740.0 -0.7748855478 0.3426422865 0.0002028742 0.0001095413 1.93046e-05 4.27217e-05 0.1294578514 -0.0154389983
215298710.0 -0.7716613198 0.3511344625 0.0001259061 0.0002715734 -3.98142e-05 -1.83213e-05 0.1289903005 -0.0176405726
220298680.0 -0.7671836007 0.3587848887 3.18573e-05 -7.4964e-06 4.70107e-05 1.1826e-06 0.1285906974 -0.0202779973
225298650.0 -0.7640110332 0.3664120378 -4.2768e-05 5.65279e-05 -0.0001064981 4.13783e-05 0.127953281 -0.0228709577
230298620.0 -0.7599539426 0.3748015042 5.43654e-05 0.000155124 0.0001464349 3.48611e-05 0.127581304 -0.0251945575
235298590.0 -0.7564718968 0.3834811732 8.73494e-05 0.0001709351 8.17358e-05 0.0001021758 0.1270111511 -0.027274281
240298560.0 -0.7520833473 0.3914035045 0.0001801009 0.0001098392 0.000209754 -2.56605e-05 0.1265953826 -0.0295938565
245298530.0 -0.7484650971 0.3989679568 0.0001805056 0.0003375164 0.0002878387 0.0001241541 0.1258891784 -0.0319788762
250298500.0 -0.7439371358 0.4073003477 0.0001259839 -2.84274e-05 0.0001670712 0.0002084516 0.1251855579 -0.0339605589
255298470.0 -0.7398788211 0.4135911008 0.0002119266 0.000209927 1.24613e-05 0.0001000006 0.1246778152 -0.0364705416
260298440.0 -0.7358532826 0.4218281031 -6.69434e-05 8.53475e-05 -7.59978e-05 0.0001721991 0.1240503918 -0.0384792294
265298410.0 -0.7310614255 0.4299276678 0.0001695123 4.10993e-05 -2.6349e-05 -2.16923e-05 0.1234038824 -0.0401438974
270298380.0 -0.7267889171 0.4373143789 -5.65387e-05 0.0002343451 0.0001242754 0.0002744053 0.1226805351 -0.0423364326
275298350.0 -0.7219510531 0.4449120479 0.0002080443 0.0001267533 -1.35305e-05 -2.47254e-05 0.1220417687 -0.0442914379
280298320.0 -0.7172745064 0.4524092883 0.0001341073 -4.18395e-05 -3.04906e-05 0.0001453163 0.1215593334 -0.0464201315
285298290.0 -0.7130272091 0.4607581396 0.0002417093 0.0001004524 7.68709e-05 0.0001368723 0.1207467033 -0.0480340241
290298260.0 -0.7078330413 0.4674949526 0.0001253658 0.0001842029 -2.46311e-05 0.000136242 0.1200906672 -0.0499949217
295298230.0 -0.7022249736 0.4746309797 -0.0001061223 -1.30746e-05 0.0002432876 0.0001723978 0.1191807571 -0.0523546903
300298200.0 -0.6978774909 0.4819745341 0.0002895914 0.0001402378 0.0002404916 0.0001175287 0.1185990009 -0.0532608627
305298170.0 -0.692116335 0.4886545107 0.0003403404 0.0001538931 7.0661e-05 -4.91712e-05 0.1182833581 -0.0559752281
310298140.0 -0.6872388228 0.496254358 -1.7566e-05 3.12957e-05 0.0003676067 -1.53545e-05 0.1167517979 -0.0576554982
315298110.0 -0.6826288731 0.5031219279 3.64721e-05 0.000102572 0.0001824533 0.0001871398 0.1158449973 -0.0592605735
320298080.0 -0.6773311948 0.5106761941 5.71496e-05 0.0002532087 0.0001481072 0.0001941741 0.1152285625 -0.0612104286
325298050.0 -0.6716068534 0.5173513138 0.0001768825 0.0001055817 5.44427e-05 -7.87289e-05 0.1138333797 -0.063452547
330298020.0 -0.6663021521 0.5243921492 0.0001715364 0.0001773893 0.000241524 0.0001008094 0.1123116841 -0.0642263916
335297990.0 -0.660759831 0.5309045274 0.0002298136 7.79647e-05 0.0001677232 9.79234e-05 0.1111922801 -0.0652889715
340297960.0 -0.6555777682 0.5378807472 0.0001793282 0.000117956 0.0001017183 3.13127e-05 0.1102700469 -0.0671646413
345297930.0 -0.6495665952 0.5445933602 -0.0002104762 -6.51596e-05 0.00015247 -2.88392e-05 0.1086895989 -0.0685934557
350297900.0 -0.6440689374 0.5509168372 0.0001605831 0.0001253162 0.0001706935 7.68336e-05 0.1077659521 -0.0692428159
355297870.0 -0.638209613 0.5580385196 0.0002207533 0.0001080908 0.0002237325 3.3532e-06 0.1064696307 -0.0709784851
360297840.0 -0.6323097875 0.5641421986 -7.05461e-05 0.0002619948 -5.0136e-06 3.78623e-05 0.1052340874 -0.0722466992
365297810.0 -0.6271033674 0.5706810556 0.0003659015 0.0003129602 3.12994e-05 -4.32183e-05 0.1043486542 -0.0735343656
370297780.0 -0.6207171895 0.5772782212 6.70628e-05 0.0002095081 0.0001783861 0.00018268 0.1032810474 -0.074623326
375297750.0 -0.6148305469 0.5832193799 0.0002105907 -4.75603e-05 -4.19363e-05 0.0001274779 0.1017354841 -0.0762004551
380297720.0 -0.6086920593 0.5886075363 0.0003389624 -3.39827e-05 -2.42313e-05 0.0001737232 0.0999371272 -0.0772949206
385297690.0 -0.603352814 0.5955669575 0.0001587188 -7.11248e-05 8.58343e-05 0.0003707327 0.0991713237 -0.0785515232
390297660.0 -0.5967260828 0.6018813632 1.65408e-05 0.0002804406 0.0001822412 0.0001900614 0.0977606121 -0.0794534427
395297630.0 -0.5898933092 0.6081223584 0.0002088825 9.87088e-05 6.49719e-05 0.0001810569 0.0967103716 -0.080560024
400297600.0 -0.5837041266 0.613775761 0.0003017842 -1.39791e-05 7.32356e-05 0.0001855433 0.0958011333 -0.081691081
405297570.0 -0.5776046604 0.6193581285 0.0003166169 -4.02389e-05 7.15112e-05 0.0001215229 0.094086904 -0.08293981
410297540.0 -0.5707036218 0.6251339563 0.0001547093 3.32489e-05 9.0786e-05 0.0001332359 0.0929809156 -0.0840214776
415297510.0 -0.5644917894 0.6313396692 0.0003062623 4.91365e-05 0.0001928212 3.93618e-05 0.0914887196 -0.0854244263
420297480.0 -0.5588315633 0.6373160666 0.0002489645 0.0001405353 0.0002564605 0.0002358429 0.0905035497 -0.0863993422
425297450.0 -0.5514513076 0.6425565794 0.0002331721 0.0001324242 0.0001976063 -1.0219e-06 0.0891843297 -0.0874572414
430297420.0 -0.5452811156 0.6484475246 -3.71472e-05 0.0002293771 0.0003328859 2.98177e-05 0.0876094699 -0.0887231807
435297390.0 -0.538693108 0.6536607847 7.40138e-05 0.0001546936 0.0004843113 0.0001196989 0.0865656747 -0.0899867524
440297360.0 -0.5319863836 0.6593529906 0.0002935627 0.0001371043 0.0002337831 0.0002461047 0.0852643142 -0.0906199517
445297330.0 -0.5249273765 0.6645614627 0.0002368564 0.0001462793 0.0002802937 0.0002045182 0.0840207673 -0.0922714821
450297300.0 -0.5180770618 0.6688929231 0.0001437535 0.0001580349 0.0001977839 0.0001440601 0.0829233446 -0.0927537661
455297270.0 -0.511409415 0.6744978135 0.0002712701 -5.30031e-05 0.0001025912 0.0002976635 0.0814120404 -0.0939431983
460297240.0 -0.5044291014 0.6797735819 0.0001395372 4.13137e-05 0.000211029 6.56747e-05 0.0802395644 -0.0944966693
465297210.0 -0.4972761318 0.6851677093 0.0002791902 -5.36047e-05 4.54909e-05 0.0002203812 0.0787471203 -0.0954819291
470297180.0 -0.4901764759 0.6897474265 0.0005930529 2.3987e-05 0.0002175963 1.63294e-05 0.0775284086 -0.09621743
475297150.0 -0.4832415867 0.694574623 0.0002615354 6.79823e-05 0.0002234944 0.000154849 0.0764941315 -0.0976164622
480297120.0 -0.4762670959 0.6994714736 0.0003096261 3.77538e-05 0.0003187814 1.28798e-05 0.075253135 -0.0979632788
485297090.0 -0.4686399662 0.7039114772 0.0002648034 0.000186561 0.0004219605 1.79888e-05 0.0739315443 -0.0988721556
490297060.0 -0.4621733234 0.7087142817 0.0003992714 0.000321353 0.0001662106 -0.0001217812 0.0724441791 -0.0996287894
495297030.0 -0.4546307269 0.7130223615 0.0003612387 1.58025e-05 0.000319212 -7.74051e-05 0.0710746866 -0.1000619801
500297000.0 -0.4478396587 0.7180712086 0.000304322 4.95371e-05 0.0002062549 -5.29816e-05 0.0696649737 -0.100797008
505296970.0 -0.4400800974 0.7228183521 0.0002634938 0.0002199881 0.0002549305 2.07938e-05 0.0683211554 -0.1017257373
510296940.0 -0.4326641873 0.7269166907 0.0001752561 9.8789e-05 0.0001094918 8.05142e-05 0.0672135823 -0.102290103
515296910.0 -0.4244857341 0.7304237857 0.0001760244 -8.5058e-05 0.0003575788 9.04219e-05 0.0657331195 -0.1028032298
520296880.0 -0.4175183408 0.7357054117 0.0001006437 2.5148e-06 0.0001757708 0.000197249 0.0641217138 -0.1037020811
525296850.0 -0.4101418923 0.739202983 0.0002370005 0.0002712941 0.000237589 2.26002e-05 0.0631530126 -0.1036932043
530296820.0 -0.4021760952 0.7434902671 6.09358e-05 3.68301e-05 0.000142757 -2.66137e-05 0.0613484269 -0.1043031358
535296790.0 -0.3955391229 0.7469988389 0.0003666368 0.0001299112 0.0004499878 -7.41565e-05 0.0594073956 -0.1051625829
540296760.0 -0.3877315221 0.7507566592 0.000231962 9.73212e-05 0.0004155232 0.0001208718 0.0583776241 -0.1053875764
545296730.0 -0.3807106698 0.7552225345 0.0002128976 -2.55698e-05 0.0001228147 0.0002320148 0.0567500918 -0.1060998694
550296700.0 -0.3730648338 0.7585419832 0.000304153 -0.0001283335 0.0002801539 0.000230659 0.0550930729 -0.1064976067
555296670.0 -0.3648220105 0.76163335 0.0002813515 0.000141167 0.0001001949 0.000261226 0.05379179 -0.1066500906
560296640.0 -0.3568066439 0.7664698668 0.0003712563 -0.0001157923 -5.58157e-05 0.0001410367 0.0526505553 -0.1076856252
565296610.0 -0.3493648477 0.769611707 0.0002823083 0.0001012107 0.000321026 0.0002541152 0.0507155395 -0.1079363524
570296580.0 -0.3422484155 0.7722352004 -3.0148e-06 0.0001998316 0.000297795 -5.33062e-05 0.049396935 -0.1082156507
575296550.0 -0.3343812497 0.7768029137 0.0003482214 0.0001757052 0.0001778548 3.05225e-05 0.0480107121 -0.1088065647
580296520.0 -0.326622169 0.7795001518 0.0001914997 0.0001769499 0.0003162997 0.0001023717 0.0465622404 -0.1091948938
585296490.0 -0.3183853236 0.7826703971 0.0003636877 8.3145e-06 0.0003562663 0.0001248176 0.0453636975 -0.1098497401
590296460.0 -0.3104273337 0.7859697354 0.0002325069 7.40689e-05 0.0003248237 -0.0001177998 0.043402397 -0.1098454774
595296430.0 -0.3026054414 0.7883407653 0.0001982754 0.0001313409 0.0002690656 -1.682e-07 0.0422389504 -0.1106948585
600296400.0 -0.2946962939 0.7917974976 0.0003005074 -0.0001449476 0.0004780766 0.0001213303 0.040572364 -0.1111092345
605296370.0 -0.2870666402 0.7943743755 0.0003370393 -1.07254e-05 0.0003456784 0.0001645358 0.0393236078 -0.1112733777
610296340.0 -0.2785245044 0.7976348456 0.0004284921 -7.1602e-06 0.0004227513 7.0464e-06 0.0378018165 -0.1115991673
615296310.0 -0.2700644446 0.7998543964 0.0004458228 0.0001101841 0.0001263459 6.75602e-05 0.0362647112 -0.112135084
620296280.0 -0.2623255713 0.8024004904 0.0003628696 4.00665e-05 0.0001616977 3.2426e-06 0.0350125168 -0.1122628288
625296250.0 -0.2547157345 0.8053542659 0.0002654563 0.0001556637 0.0003382618 6.49414e-05 0.0337312834 -0.112562826
630296220.0 -0.2459793065 0.8080437732 0.0004960711 0.0001248565 7.26388e-05 0.000423093 0.0320218856 -0.1123404711
635296190.0 -0.2384608359 0.8104514673 0.0002922068 -3.47972e-05 0.000444751 -0.0001468839 0.0307650805 -0.112526414
640296160.0 -0.2305412317 0.8123005462 0.0003147127 6.20338e-05 0.0005126785 -6.24997e-05 0.0294087797 -0.1129760012
645296130.0 -0.2220768889 0.8152559339 2.58475e-05 -8.29867e-05 0.0003602964 7.6914e-06 0.027946195 -0.1131070161
650296100.0 -0.2140679657 0.816734934 0.0003964372 0.0001005116 0.0001959909 5.322e-06 0.0265949962 -0.113708192
655296070.0 -0.2056636769 0.8186767482 9.57458e-05 -0.0001510947 0.0002821523 0.0001483923 0.0255432165 -0.1133928486
660296040.0 -0.1974639874 0.8206959156 0.0001885247 1.92136e-05 0.0004034926 0.0002398171 0.0240742338 -0.1134710388
665296010.0 -0.1890908783 0.8221528631 0.000347471 -0.0002630382 0.0004898874 -9.1633e-05 0.0224787047 -0.1135140835
670295980.0 -0.1816454108 0.8241212843 0.0003377273 0.0002470404 0.0002270097 -0.0001492403 0.0208633668 -0.1133761715
675295950.0 -0.1732094603 0.826431176 0.000458243 -0.0001171929 0.0002381324 -1.4346e-06 0.019413407 -0.1134317254
680295920.0 -0.1647944881 0.8281976208 0.0006062854 -5.30957e-05 0.0003269787 -0.0001536917 0.0183425706 -0.1132251615
685295890.0 -0.1565399448 0.8299346389 0.0003914463 -0.0001241016 0.0004617399 -0.0001394581 0.0167175185 -0.1133020563
690295860.0 -0.1483071314 0.8308006362 0.0002903302 0.0001066728 0.0002209654 -5.33331e-05 0.0151569862 -0.1128702362
695295830.0 -0.140174799 0.831824358 0.0003963183 -6.77254e-05 0.0002949948 0.0001136056 0.0139439448 -0.1127585485
700295800.0 -0.1313587844 0.8336589829 0.000396343 4.12044e-05 0.0003468509 -0.0001393044 0.0119898772 -0.1127622001
705295770.0 -0.1237370243 0.8355012254 0.0004956873 5.68971e-05 0.000369148 0.0001075201 0.0107063143 -0.1122744869
710295740.0 -0.1150496232 0.8359154088 0.0004851439 7.61542e-05 0.0001727876 6.9799e-06 0.0091442209 -0.1126247865
715295710.0 -0.1070640086 0.8372097232 0.0003583512 6.49199e-05 0.0003527072 -7.23899e-05 0.0078765128 -0.1122895919
720295680.0 -0.0988975059 0.8384790226 0.0002897794 -2.24027e-05 0.0004221055 -7.41292e-05 0.0063198984 -0.1122439034
725295650.0 -0.0903017326 0.8388767613 0.0005091898 -0.000366688 0.0003783409 -0.0001376547 0.0048826422 -0.1118749526
730295620.0 -0.0816776992 0.840098784 0.0003948873 -9.59667e-05 0.0003660603 -0.0001112292 0.0033391357 -0.1117539851
735295590.0 -0.0735806883 0.8414436623 0.000448007 9.7902e-05 0.0004475517 -1.4047e-06 0.0016646918 -0.1115433528
740295560.0 -0.0656902806 0.8424788036 0.0002097248 -0.0002179287 0.0004089738 -6.34017e-05 0.0003738883 -0.1113919826
745295530.0 -0.0568818808 0.8424561452 0.0003326 -0.0001116252 0.0005524304 -0.0001578835 -0.0011849817 -0.1113344843
750295500.0 -0.0480864983 0.8427916781 0.00037035 -6.85348e-05 0.0003285099 0.0001712343 -0.0025612807 -0.111108517
755295470.0 -0.0400156591 0.8426980049 0.0003525666 1.76237e-05 0.000374191 -3.6877e-06 -0.0036895524 -0.1109808065
760295440.0 -0.0319822205 0.8434327469 0.0004285481 -2.63416e-05 0.0003569345 3.7839e-06 -0.0052560093 -0.1109231081
765295410.0 -0.0235837907 0.8439255224 0.0003835099 -7.80203e-05 0.0003025924 -1.73275e-05 -0.0067759515 -0.1105247928
770295380.0 -0.0148187525 0.8440932453 0.0004984872 -0.0001531086 0.0002024163 6.09652e-05 -0.0084772532 -0.1102504435
775295350.0 -0.0072288144 0.8440348103 0.0003319794 -6.6802e-05 0.0005173903 -5.06923e-05 -0.0098404194 -0.1099463139
780295320.0 0.001767469 0.844523845 0.0003570929 3.00887e-05 0.0004300429 0.0001046659 -0.0110465462 -0.1100229604
785295290.0 0.0095157362 0.8435422515 0.0003048464 -0.0001204473 0.000297148 -6.84932e-05 -0.0122155383 -0.1092547572
790295260.0 0.0180709345 0.8438175175 0.0001568257 -5.95148e-05 0.0004084256 6.7468e-05 -0.0134123835 -0.1091453348
795295230.0 0.0261012837 0.8433154695 0.0004048584 -0.0001009131 0.0004648282 -0.000178273 -0.0146556727 -0.1087584669
800295200.0 0.0347504982 0.842569366 0.0004266408 -9.42081e-05 0.0003845325 -6.77008e-05 -0.0161653578 -0.1082444092
805295170.0 0.043255873 0.842704252 0.0004705844 -0.0001073192 0.0004366027 -0.0001071455 -0.0176065263 -0.1077859658
810295140.0 0.0516618225 0.8422432756 0.0004946989 -3.69794e-05 0.0005237718 -3.12025e-05 -0.0184689901 -0.1076350075
815295110.0 0.0601926201 0.8417542863 0.0004486792 -3.3822e-06 0.0003518414 -5.81438e-05 -0.0198767232 -0.107076293
820295080.0 0.0677117639 0.8405459602 0.0003910375 3.61842e-05 7.39603e-05 -0.0001805259 -0.0211822619 -0.1064001046
825295050.0 0.0771247381 0.8402849928 0.0004446918 -0.0001635201 0.0003895831 -0.0001314859 -0.0226110893 -0.1059102116
830295020.0 0.0849872048 0.8394518232 0.0005312524 -0.0003150624 0.0004726591 -9.63834e-05 -0.0233416779 -0.1051919106
835294990.0 0.0932966207 0.8388799857 0.0003092003 -4.25865e-05 0.0005168626 -9.11705e-05 -0.0249611125 -0.104981823
840294960.0 0.1008620703 0.8379786334 0.0001345711 -0.0001387174 0.0003954999 0.0001226662 -0.0264626152 -0.1043165512
845294930.0 0.1089760516 0.8364222184 0.0003873556 -0.0002909574 0.0004119688 -4.30499e-05 -0.0277190902 -0.1033826976
850294900.0 0.117386155 0.8361198276 0.0005730821 -0.0003209969 0.000416007 -0.0001487363 -0.029018638 -0.1028669717
