!Created with skrf (http://scikit-rf.org).
# Hz S RI R 50.0 
!freq ReS11 ImS11 ReS21 ImS21 ReS12 ImS12 ReS22 ImS22
300000.0 0.8609617288 -0.0023712542 -0.0008503166 0.0003332285 7.91839e-05 0.0004215139 -0.7736216685 -0.1704203351
5299970.0 0.8598642903 -0.0103555603 -0.0001326863 -0.0001251587 -0.0001818191 0.0001126511 -0.7843470094 -0.0092191303
10299940.0 0.8589380063 -0.0194755603 -0.0003119435 -8.02359e-05 1.75218e-05 -2.0727e-06 -0.7878005863 -0.005036959
15299910.0 0.8577232244 -0.027860851 0.0001878198 0.0001491435 8.06302e-05 -4.21757e-05 -0.7929876247 -0.0033807351
20299880.0 0.8575921348 -0.0361465566 0.0001551023 0.0002428148 0.0001751912 2.36417e-05 -0.7998118388 0.0013615581
25299850.0 0.8569378914 -0.0438423004 0.0002098043 -0.0002159582 -0.0001166066 -1.97896e-05 -0.8062082875 0.0073023033
30299820.0 0.8557925364 -0.0525813296 0.0003583472 1.28076e-05 1.0448e-06 3.1927e-06 -0.812176255 0.0147487084
35299790.0 0.8550239358 -0.0599228775 7.9342e-05 9.82451e-05 4.14577e-05 -0.0002087876 -0.8177662495 0.0242011525
40299760.0 0.8542112545 -0.0682069877 -0.000138499 1.64373e-05 -0.0001758915 5.42007e-05 -0.8213400644 0.0332763059
45299730.0 0.8537678219 -0.0764845133 -5.91814e-05 -7.87535e-05 -7.59571e-05 -2.6054e-06 -0.8251717562 0.0423855324
50299700.0 0.8520700915 -0.084909296 3.0455e-06 4.02907e-05 -0.0001332089 2.80109e-05 -0.8275494051 0.0525102256
55299670.0 0.8515018028 -0.0931323505 0.0001282973 5.1822e-05 -8.91299e-05 -2.6016e-06 -0.829308663 0.0631750831
60299640.0 0.8509803431 -0.1008802716 -2.0991e-05 1.29791e-05 1.20924e-05 1.5804e-05 -0.8308167796 0.0737088644
65299610.0 0.8501203566 -0.1089307061 7.78338e-05 2.15659e-05 -5.70769e-05 0.0001219788 -0.8313442624 0.0830571804
70299580.0 0.8489084998 -0.1177547746 -9.9004e-05 -5.35916e-05 -0.0001577671 9.22241e-05 -0.8317074881 0.0926315585
75299550.0 0.8473702462 -0.1263722965 3.84169e-05 6.67606e-05 4.26606e-05 0.0001797536 -0.8325745452 0.1023898665
80299520.0 0.8453475575 -0.1336192825 -0.0002554536 -0.000157278 -9.32233e-05 4.39995e-05 -0.8319040104 0.1123227539
85299490.0 0.8446557037 -0.1426742027 -0.0001394365 -0.0001516386 -5.78982e-05 6.63655e-05 -0.8318641699 0.1220630505
90299460.0 0.8428019172 -0.1503707978 -4.96131e-05 4.41361e-05 -1.42029e-05 -8.21231e-05 -0.8303469653 0.1314032226
95299430.0 0.8415080125 -0.1588574201 -0.0001553988 4.25125e-05 0.0001303673 1.7534e-05 -0.8296921117 0.1417197477
100299400.0 0.8402258472 -0.1666839001 0.0001233791 5.46058e-05 -6.01217e-05 -6.89143e-05 -0.8290091712 0.1495214008
105299370.0 0.838687254 -0.1753123127 -3.03017e-05 -0.0001363372 -0.0002081246 -4.86336e-05 -0.8273764557 0.159138417
110299340.0 0.8363374901 -0.183262362 -8.72469e-05 0.0001713857 0.0001267053 -0.000130899 -0.8266710817 0.1685546344
115299310.0 0.8346918257 -0.1919604207 -0.0001061614 0.0001169341 4.5108e-06 9.47322e-05 -0.8247816485 0.1772835341
120299280.0 0.8325635528 -0.199096854 0.000161858 -0.0001548465 2.7633e-05 -5.3112e-05 -0.8231166081 0.1860667754
125299250.0 0.8303705595 -0.2076442767 -7.20447e-05 1.81986e-05 -9.91942e-05 3.42682e-05 -0.8217933352 0.1958197331
130299220.0 0.8287523594 -0.2157311521 0.0001601908 2.08879e-05 1.93842e-05 -3.26947e-05 -0.8202895206 0.2040306322
135299190.0 0.8264806008 -0.2230987482 -0.000188954 -0.0001651884 5.13077e-05 6.1028e-05 -0.8181911392 0.2127615378
140299160.0 0.8249554325 -0.2315574778 -0.0001596759 -0.0001884209 -0.0002423093 -1.24844e-05 -0.8161532703 0.2214724002
145299130.0 0.8221058122 -0.2397485158 3.27202e-05 0.000172658 1.89789e-05 -2.8203e-06 -0.8136157911 0.2299675832
150299100.0 0.8203475416 -0.247391702 7.21672e-05 1.44671e-05 4.12742e-05 8.3206e-06 -0.8119916418 0.2388911173
155299070.0 0.8169066882 -0.2556163948 0.0001280464 0.0001904827 -1.72353e-05 2.64075e-05 -0.8094591936 0.247555909
160299040.0 0.8147760613 -0.2635978242 0.0001405381 -0.0001277653 -2.19767e-05 -7.12528e-05 -0.8074970005 0.2566587077
165299010.0 0.8115747739 -0.2714569181 0.0001022791 -0.0002262671 6.89472e-05 -2.58028e-05 -0.8044964591 0.2650340629
170298980.0 0.8090913472 -0.2790564913 -8.76049e-05 -3.21125e-05 -3.5779e-05 0.000113291 -0.8018863656 0.2732684992
175298950.0 0.8062356794 -0.2869019771 -9.8711e-06 -0.0001793647 -0.0001355043 -0.0001443496 -0.7991554473 0.2821712829
180298920.0 0.8034475901 -0.2947398894 2.88805e-05 7.20476e-05 2.02838e-05 -0.0001791492 -0.7957166429 0.2905348496
185298890.0 0.8002644307 -0.3029019342 0.0001473151 9.91193e-05 1.13672e-05 7.23225e-05 -0.7932028779 0.2982292605
190298860.0 0.7978357431 -0.3107476406 -9.87551e-05 -9.69826e-05 -0.0001658502 -4.02642e-05 -0.7894432229 0.3074529414
195298830.0 0.7940643757 -0.3178461825 -3.4581e-06 -9.43171e-05 -9.057e-05 -1.47391e-05 -0.7871746298 0.3158584939
200298800.0 0.7911660107 -0.326146864 1.15657e-05 9.64532e-05 -9.7002e-06 1.71116e-05 -0.7832482013 0.3240649253
205298770.0 0.7879482777 -0.3341286556 -7.3322e-06 1.71492e-05 8.32759e-05 -0.0001049763 -0.7797735797 0.3326372629
210298740.0 0.7852003631 -0.3409939457 -0.0001800142 8.12086e-05 0.0002418823 -0.0001388727 -0.7767247225 0.3402482788
215298710.0 0.7812030184 -0.3485534738 0.0003888266 -3.1663e-06 6.17582e-05 -0.0001405663 -0.7735716732 0.3482501877
220298680.0 0.7785827587 -0.3565803604 0.0001441747 0.0001394526 -0.0001060018 4.82281e-05 -0.7691071255 0.3568354578
225298650.0 0.7740821288 -0.3635500261 -6.63114e-05 0.0001487063 1.13898e-05 8.27416e-05 -0.7654563006 0.3646654335
230298620.0 0.7709635682 -0.3712709136 -2.00618e-05 0.0001583302 0.0001455378 0.0001658677 -0.7614550511 0.3727388558
235298590.0 0.7673532194 -0.3790452048 -5.70176e-05 -5.76375e-05 6.16482e-05 0.0001357684 -0.7576370078 0.3804819051
240298560.0 0.7630937508 -0.3867305277 0.0001017808 -0.000284864 -1.50765e-05 5.61639e-05 -0.7537170678 0.3882672093
245298530.0 0.7594456366 -0.3931036212 0.0002369067 -5.59884e-05 1.08855e-05 -1.07295e-05 -0.7500630869 0.3963267543
250298500.0 0.7559424665 -0.4009145801 -0.0001020735 6.20977e-05 2.29558e-05 -0.0002171427 -0.7457255058 0.4046337384
255298470.0 0.7519924003 -0.4087878632 -0.0001740401 0.0001612684 -7.38406e-05 0.0001602194 -0.7411782282 0.4125366559
260298440.0 0.7476631595 -0.4152915168 0.0001663152 -6.13338e-05 -2.63236e-05 -7.01557e-05 -0.7367098477 0.4197053859
265298410.0 0.7436726005 -0.4225402569 3.65331e-05 8.129e-06 -0.0002138086 0.0001128912 -0.7323348238 0.4275035415
270298380.0 0.7397830332 -0.4296167122 -8.3764e-06 3.65907e-05 -0.0001174402 1.97307e-05 -0.7273304305 0.4349779609
275298350.0 0.736170879 -0.4370263494 -0.0002764233 -0.0001337319 0.0001512765 7.21337e-05 -0.722615922 0.4429343046
280298320.0 0.7314924577 -0.4439504005 -0.000158146 8.7807e-05 -0.0001781398 -6.55381e-05 -0.7183442474 0.449818697
285298290.0 0.7272966151 -0.4511305512 -0.0002430096 -0.0001101125 -9.82158e-05 -3.98139e-05 -0.7130773716 0.4575601894
290298260.0 0.7232431939 -0.458595565 -3.023e-06 -8.59817e-05 4.556e-07 3.06575e-05 -0.7086110392 0.4658038865
295298230.0 0.718976076 -0.466217679 -2.9599e-05 -0.00016314 -2.36476e-05 3.92146e-05 -0.70346565 0.4729270452
300298200.0 0.714301816 -0.4734335128 -7.97812e-05 -5.69901e-05 -1.31986e-05 8.79077e-05 -0.6983416405 0.4798667661
305298170.0 0.7105754723 -0.4798006687 0.0001861739 0.0002015574 -2.80487e-05 0.0001339737 -0.6930010861 0.4876218864
310298140.0 0.7057708009 -0.4881429204 -3.31885e-05 3.06246e-05 5.0532e-05 0.0001250338 -0.6882504522 0.4948914377
315298110.0 0.7006540785 -0.4956664226 3.1371e-05 -6.2326e-05 1.48011e-05 -8.47148e-05 -0.6829870217 0.5023385046
320298080.0 0.6950530578 -0.5022044503 0.0001728138 0.0001239368 -0.0001650461 1.567e-07 -0.677552757 0.5091636928
325298050.0 0.6900239044 -0.5104417573 -0.0002150827 8.86026e-05 2.79967e-05 7.36733e-05 -0.6723539087 0.5158105535
330298020.0 0.6835310798 -0.5165835337 -0.0001209911 -1.12731e-05 1.65635e-05 -1.35138e-05 -0.6663773411 0.5231557912
335297990.0 0.6783297629 -0.523039245 0.0001980144 -3.86191e-05 0.0002336529 -1.71722e-05 -0.6609948361 0.5300992244
340297960.0 0.6723252257 -0.5292716839 -1.27559e-05 -8.4289e-06 -2.21816e-05 -5.54285e-05 -0.6554112801 0.536713672
345297930.0 0.6666749067 -0.5357042245 -0.0003139135 -6.19347e-05 -0.0001049632 -4.23701e-05 -0.6497326615 0.543954367
350297900.0 0.6618402641 -0.5421794499 -8.11977e-05 -1.05606e-05 8.4331e-06 2.88488e-05 -0.6438070285 0.5506964494
355297870.0 0.6557067609 -0.5484796819 7.3876e-05 -0.0001159651 0.0001441906 5.82291e-05 -0.6381368629 0.5570529981
360297840.0 0.6509276318 -0.5546222214 8.82129e-05 3.80122e-05 -0.0001688708 -6.21011e-05 -0.6321560582 0.563759055
365297810.0 0.6455033047 -0.5601353305 0.0001070697 9.39533e-05 9.18239e-05 -4.1277e-05 -0.6259581131 0.5704362769
370297780.0 0.6396788636 -0.5660871208 -0.0002834695 6.75903e-05 0.000139915 -1.2833e-06 -0.6202237764 0.5765478721
375297750.0 0.6337221672 -0.5722645935 3.7543e-05 -2.63619e-05 0.0001558129 3.54611e-05 -0.6138606568 0.5831413543
380297720.0 0.6290952501 -0.5784763859 -9.79784e-05 0.0001395069 4.68365e-05 -6.70086e-05 -0.6078205145 0.5905668004
385297690.0 0.6224758897 -0.5843169743 -6.9044e-06 -0.0001784118 0.0001230171 9.9474e-06 -0.6019940089 0.5963241052
390297660.0 0.6170654056 -0.5904724807 -5.80349e-05 8.3732e-06 4.98328e-05 -9.6987e-05 -0.5955937422 0.6016215185
395297630.0 0.6108708863 -0.5968036084 0.0002249915 -1.1355e-06 5.58724e-05 0.0001273807 -0.5889525783 0.6082017524
400297600.0 0.6046074836 -0.6021022275 0.0001328385 0.0001045946 0.0001607056 4.47433e-05 -0.5831472403 0.6141693573
405297570.0 0.5993144711 -0.6078495697 8.50335e-05 0.0002527024 9.15996e-05 -0.0001325297 -0.5771255196 0.6201948186
410297540.0 0.5932481526 -0.613340179 7.64192e-05 1.81364e-05 0.0001155219 -0.0001583766 -0.5695377236 0.625475185
415297510.0 0.5872540881 -0.6192557192 8.31543e-05 -0.0001774055 -0.0001052314 0.0001059236 -0.5637877864 0.632550135
420297480.0 0.5806187264 -0.6249417979 1.42489e-05 -6.2475e-06 -1.54784e-05 -0.0001304763 -0.5571676916 0.6367457028
425297450.0 0.5745957017 -0.6303402888 4.5607e-05 -1.8587e-05 1.9436e-06 -2.39933e-05 -0.5500850373 0.6430405693
430297420.0 0.5686002559 -0.6357412269 2.45938e-05 0.0001010523 0.0002348007 -8.88963e-05 -0.5435172445 0.6484913779
435297390.0 0.5621794578 -0.6412854 -5.86023e-05 -4.35857e-05 9.20154e-05 -2.01937e-05 -0.5368732992 0.6540916526
440297360.0 0.55608094 -0.647296952 -1.06971e-05 -7.31616e-05 4.78715e-05 5.42604e-05 -0.5300721963 0.6587683269
445297330.0 0.5497645486 -0.6522528738 0.0001249331 -5.40809e-05 -0.0001483758 -7.87846e-05 -0.5240915408 0.6646409122
450297300.0 0.5433498669 -0.657400235 3.09536e-05 1.41136e-05 -0.0001865116 -8.632e-07 -0.516759303 0.6702714302
455297270.0 0.535891441 -0.6623539512 4.31055e-05 0.000242443 -7.1121e-05 -9.57475e-05 -0.5098418775 0.6751390145
460297240.0 0.5300510145 -0.667565837 6.31671e-05 -5.86928e-05 -2.016e-05 0.0001803307 -0.5026562523 0.6805342683
465297210.0 0.5238516907 -0.6732630751 1.97574e-05 -5.2303e-05 5.30306e-05 -9.27058e-05 -0.4962248502 0.6850880742
470297180.0 0.5166072261 -0.6783351275 2.05385e-05 9.28567e-05 0.0001175883 -0.0002562093 -0.48946693 0.6895881154
475297150.0 0.5100119442 -0.6827599272 -0.0001708297 -3.86195e-05 5.872e-06 -3.5052e-05 -0.4822311338 0.6945629856
480297120.0 0.5037177583 -0.6878482495 0.0001168158 0.0002259704 -1.3346e-06 8.05046e-05 -0.4754310471 0.6998892792
485297090.0 0.4967364268 -0.6918904383 -7.41567e-05 -5.50246e-05 8.259e-07 0.0001954914 -0.4678868822 0.7040980671
490297060.0 0.4900028035 -0.6975033117 2.37356e-05 4.26555e-05 -0.0001002717 0.0001094715 -0.4609303692 0.7086433711
495297030.0 0.4830056233 -0.7024064565 1.02241e-05 0.0001067587 2.17377e-05 -6.03254e-05 -0.4533014875 0.7126629369
500297000.0 0.4764020936 -0.7065340927 0.0001209816 -2.24668e-05 -5.34868e-05 -0.0001023277 -0.4467924813 0.7179172042
505296970.0 0.468465585 -0.711305774 0.000120372 7.87034e-05 3.06262e-05 -5.95707e-05 -0.4400117258 0.7216122261
510296940.0 0.4612628167 -0.7153425894 1.3043e-06 0.0001930365 3.6085e-06 -0.0002602243 -0.4318193901 0.7266343458
515296910.0 0.4549823969 -0.7203690691 8.49534e-05 0.0002355785 -7.7953e-06 -0.0001544938 -0.4245647591 0.7306262748
520296880.0 0.4477878758 -0.724529361 -8.96521e-05 8.3424e-06 0.000190344 -5.0924e-06 -0.4176489024 0.7349555287
525296850.0 0.4397382072 -0.7290001496 -0.0001960617 8.90042e-05 9.08761e-05 -2.26019e-05 -0.4097847659 0.7391222151
530296820.0 0.4327703991 -0.7327911174 -0.0001896825 -4.43564e-05 5.84839e-05 -4.60245e-05 -0.402918375 0.7427826249
535296790.0 0.4258701693 -0.7363977697 -0.0001704476 0.0001041981 7.66235e-05 7.70239e-05 -0.3952171786 0.7459664688
540296760.0 0.4188141804 -0.7415643775 6.17072e-05 -3.35189e-05 0.0001517269 6.97753e-05 -0.3877417782 0.7507431752
545296730.0 0.4112758533 -0.7447632617 0.0002148179 -9.65808e-05 -8.94306e-05 9.64586e-05 -0.3804681564 0.7536878971
550296700.0 0.4038796731 -0.7488086622 -2.69906e-05 1.40478e-05 -0.000329625 -0.0002379489 -0.373094373 0.7574519431
555296670.0 0.3960937407 -0.7530121911 0.0001049628 0.0001819754 5.28214e-05 0.0001695746 -0.3651716922 0.7614912606
560296640.0 0.3895201653 -0.7568870639 0.0002116838 -0.0001301652 0.0002284398 0.0002118573 -0.3575353352 0.7648835703
565296610.0 0.3813763256 -0.7608304243 -8.17596e-05 0.0001690714 -0.0001400493 0.0001394279 -0.350217767 0.7687676716
570296580.0 0.3745274029 -0.7645577967 -0.0001224792 -0.0001420125 -7.95874e-05 -0.0001636527 -0.342898492 0.7723907143
575296550.0 0.3671791406 -0.7671760573 -5.07085e-05 0.0001120375 0.0001323388 0.0001583819 -0.3347992476 0.775551453
580296520.0 0.3593860265 -0.7706349008 -1.42444e-05 8.30198e-05 9.80571e-05 -4.79867e-05 -0.3266740482 0.7790204974
585296490.0 0.3511469242 -0.7743021286 -2.69056e-05 -1.95565e-05 -1.77234e-05 -1.76639e-05 -0.3193052359 0.7813249742
590296460.0 0.3434800294 -0.7784299469 -8.60024e-05 0.0001319418 -2.05234e-05 7.75825e-05 -0.3113542344 0.7845233585
595296430.0 0.3362979269 -0.780463786 0.0001216177 -1.9038e-05 -7.80973e-05 7.23771e-05 -0.303072613 0.7868853321
600296400.0 0.3285580294 -0.7839979653 5.0904e-06 -4.32904e-05 1.91936e-05 -1.95859e-05 -0.2957070423 0.7911388799
605296370.0 0.3205090687 -0.7867152844 3.86575e-05 -0.00014668 6.50774e-05 -2.79299e-05 -0.288189665 0.7942176404
610296340.0 0.3131973662 -0.7901821638 -4.69599e-05 6.07304e-05 8.6438e-05 -3.3168e-05 -0.2802185017 0.7969831301
615296310.0 0.3050199114 -0.7927252694 -5.74998e-05 1.12567e-05 7.714e-06 0.0001331149 -0.2725395179 0.7997666659
620296280.0 0.2969328372 -0.7960964757 -1.65044e-05 -0.0002651865 -5.66186e-05 -6.5836e-05 -0.2648895124 0.8017709274
625296250.0 0.2897765486 -0.798639594 -9.67637e-05 -3.94365e-05 -6.45001e-05 0.0001160421 -0.2568043778 0.8040749956
630296220.0 0.2811568604 -0.8012627116 0.0001431681 0.0001509678 -0.0002011288 5.04495e-05 -0.2485219975 0.8068334063
635296190.0 0.2735734786 -0.8041088351 -3.61559e-05 7.45938e-05 -1.73611e-05 -8.65337e-05 -0.2409358831 0.8091613784
640296160.0 0.2658056519 -0.8062574051 -0.0001153654 -5.08555e-05 -0.0001880922 1.76603e-05 -0.2324144695 0.8115245972
645296130.0 0.2575589081 -0.8088110307 -6.44072e-05 1.63892e-05 -8.09483e-05 -7.68955e-05 -0.2247139344 0.81378007
650296100.0 0.2495364223 -0.8109629838 0.0001112704 -0.0001927388 -0.0001063439 -0.0001303883 -0.2165491134 0.8166304231
655296070.0 0.2417750258 -0.8136661015 0.0001520823 1.78985e-05 -7.19563e-05 0.000124865 -0.2082423637 0.8179618692
660296040.0 0.2327307645 -0.8153347121 3.62651e-05 -6.69343e-05 -2.79679e-05 -5.5419e-05 -0.20051409 0.8204247351
665296010.0 0.2251768545 -0.8174065249 6.6811e-06 -8.48455e-05 3.13918e-05 0.000156244 -0.1925854472 0.8222652501
670295980.0 0.2175758348 -0.819933132 -0.0001871375 -0.0001247849 7.18721e-05 -9.17044e-05 -0.1850239944 0.8235595898
675295950.0 0.2094479467 -0.8219116668 -3.04353e-05 -0.0003570048 -0.0001529982 5.72269e-05 -0.1761171116 0.8262012591
680295920.0 0.2007315085 -0.8239209346 6.69586e-05 0.0002961125 -0.0001144429 -7.92876e-05 -0.1679346449 0.8275857592
685295890.0 0.1925720226 -0.8253087114 2.41761e-05 8.316e-05 5.36652e-05 -0.0001836119 -0.1598039299 0.8293692263
690295860.0 0.1852408165 -0.8273331836 -0.0001884655 -0.0001156853 -5.07541e-05 -4.24744e-05 -0.1515899361 0.8302797156
695295830.0 0.1767929204 -0.8284815187 -0.0001154995 -9.27064e-05 -5.06992e-05 0.0001806121 -0.1434623695 0.8321677156
700295800.0 0.1687045779 -0.8306672148 -8.06314e-05 -0.000190352 -0.0001192197 -4.5309e-06 -0.1349217586 0.8338331169
705295770.0 0.1605876346 -0.8318141957 -0.0001360302 0.0001505679 9.1549e-06 5.40535e-05 -0.1276658026 0.835225236
710295740.0 0.1516273881 -0.8331043745 -8.73121e-05 -1.209e-05 0.0001214849 8.22064e-05 -0.1193999589 0.8367867704
715295710.0 0.14349332 -0.8345474122 2.61812e-05 -4.05105e-05 0.0001009412 2.46654e-05 -0.1108508792 0.836673793
720295680.0 0.1356112748 -0.8360821233 -9.7393e-06 -4.7615e-06 4.92167e-05 -0.000154171 -0.1025626826 0.83889009
725295650.0 0.1276313274 -0.8370057013 0.000139946 -1.89086e-05 3.35693e-05 3.22196e-05 -0.0935309886 0.8399192365
730295620.0 0.1191131816 -0.8386609434 -1.48965e-05 -9.1609e-06 -1.50087e-05 0.0001264056 -0.0850059586 0.8403996799
735295590.0 0.1109634217 -0.8387162655 -0.0001413818 7.12574e-05 5.24988e-05 -3.20101e-05 -0.0768172001 0.8404408765
740295560.0 0.1028045129 -0.8404557466 0.0002630163 -0.000239731 0.0001313043 -4.79777e-05 -0.0690156145 0.8411538051
745295530.0 0.0942216447 -0.8411479075 -2.29497e-05 5.44691e-05 -9.83842e-05 0.0001150997 -0.0604694849 0.8421757995
750295500.0 0.0860594096 -0.8415549555 -9.70494e-05 -3.00079e-05 -7.62769e-05 0.0002485437 -0.0525836155 0.8426211002
755295470.0 0.0777158855 -0.8426800895 -3.63231e-05 0.000138201 4.53467e-05 -2.81362e-05 -0.0444688091 0.8433636488
760295440.0 0.0688421005 -0.8425374636 -8.65962e-05 -4.23387e-05 8.07534e-05 1.44847e-05 -0.0362329497 0.8434748169
765295410.0 0.0607670842 -0.8436101344 7.52222e-05 3.1301e-06 -3.7227e-05 -0.0002735316 -0.0273809422 0.8438418831
770295380.0 0.0525680697 -0.844234941 0.0001351628 2.81409e-05 4.17717e-05 -9.53314e-05 -0.0188716753 0.8440050435
775295350.0 0.0443829082 -0.8442634623 3.92806e-05 1.7276e-05 0.0001581637 -0.0001299547 -0.0117969459 0.8438317157
780295320.0 0.0349278799 -0.8446371731 -0.0003197595 1.14796e-05 7.64289e-05 0.0001499885 -0.0026479176 0.8446897192
785295290.0 0.026883567 -0.8446443967 -4.817e-06 -9.12305e-05 8.42371e-05 8.93165e-05 0.0049366181 0.8444778509
790295260.0 0.0194171735 -0.8449615596 0.0001752638 1.90832e-05 -0.000312955 0.0001294183 0.0142283511 0.8441626725
795295230.0 0.0111710918 -0.8444986929 0.0001322408 -0.0001910327 -0.0001224655 -0.0001114996 0.022296786 0.8440126393
800295200.0 0.0029277795 -0.8437251874 3.10068e-05 -8.66061e-05 -9.9665e-05 3.90219e-05 0.0303878161 0.8437883973
805295170.0 -0.0056466171 -0.844571826 -7.68e-08 -0.0001051851 -0.000138336 -0.0001690088 0.0387764657 0.8428979728
810295140.0 -0.0142695592 -0.8441733942 -0.0002554667 2.28622e-05 -3.44345e-05 5.79254e-05 0.0466622214 0.8438086696
815295110.0 -0.0222153352 -0.8436345137 0.0001555044 0.0001372134 3.61354e-05 0.0001326396 0.0554440585 0.8425254672
820295080.0 -0.0311850189 -0.8434093185 5.5792e-05 -0.000203913 -9.51218e-05 2.29997e-05 0.0631344143 0.8415007448
825295050.0 -0.0391273266 -0.843018474 -0.0001962621 -0.0003083779 -0.0001074656 -6.60204e-05 0.0716395825 0.841203889
830295020.0 -0.0473247738 -0.8424780727 -0.000108371 -6.14581e-05 1.6839e-06 0.0001340936 0.0798237863 0.8401649936
835294990.0 -0.0554305518 -0.8420930898 0.000245833 0.0001008284 6.68143e-05 -7.37679e-05 0.088072294 0.8396373511
840294960.0 -0.0638918577 -0.84106849 0.0001048378 0.0002085006 -6.0286e-05 0.0003197652 0.0957813083 0.8386325374
845294930.0 -0.0718808146 -0.8400632189 0.0001059598 0.0001668329 -6.4891e-05 0.0002180352 0.1039560641 0.8377339166
850294900.0 -0.0806053331 -0.8392113117 -7.1911e-06 7.03455e-05 3.65774e-05 0.0001336378 0.1129534894 0.8363631256
