!Created with skrf (http://scikit-rf.org).
# Hz S RI R 50.0 
!freq ReS11 ImS11 ReS21 ImS21 ReS12 ImS12 ReS22 ImS22
300000.0 -0.7802697869 -0.1011538604 0.0007677584 -0.0011767861 -0.0005375578 -0.0002741895 -0.0460689161 -0.0614785555
5299970.0 -0.784966329 -0.0054372676 0.0001107794 -0.0001064345 -5.86473e-05 9.34655e-05 -0.045609189 0.0156853888
10299940.0 -0.7880996623 -0.0039044123 0.0001103111 -3.84623e-05 -0.0001211273 -1.89576e-05 -0.0400546617 0.0338878039
15299910.0 -0.793594835 -0.0016476927 0.000139197 -9.22449e-05 0.0001323044 5.65792e-05 -0.0317915077 0.0482621604
20299880.0 -0.7995754247 0.0020169589 3.953e-07 6.0732e-05 1.53678e-05 0.0001128344 -0.0209843015 0.0601534792
25299850.0 -0.8067496576 0.0078019949 0.0001853283 -0.0001920224 -6.20955e-05 -9.747e-07 -0.0101032135 0.0692630397
30299820.0 -0.8122375316 0.0156037815 -1.10162e-05 9.825e-06 6.91504e-05 1.76108e-05 0.0016122934 0.0764717359
35299790.0 -0.8172669376 0.0246856929 0.0001336011 -1.51328e-05 -1.14389e-05 -0.0001100526 0.0132700095 0.0815002448
40299760.0 -0.8207870601 0.0338771972 -7.33565e-05 -0.0001930162 -7.01871e-05 0.0001594569 0.0244693362 0.0840448069
45299730.0 -0.8246288876 0.042950558 0.0001667277 -9.10978e-05 0.0002364001 0.0001258453 0.0356393977 0.0858127175
50299700.0 -0.8273966674 0.0534320012 -7.94582e-05 -6.56794e-05 9.52619e-05 9.35928e-05 0.045264287 0.085369295
55299670.0 -0.8294192963 0.0627742114 8.59722e-05 5.114e-05 -0.0001330088 3.97599e-05 0.0544262251 0.0842458748
60299640.0 -0.830794183 0.0737541493 7.82293e-05 -0.0001680338 1.67629e-05 6.35615e-05 0.0631577165 0.0827410383
65299610.0 -0.8305470878 0.0840753852 0.0001245122 -0.0001067613 0.0002150779 -1.9976e-05 0.0709245489 0.0800968867
70299580.0 -0.8316956241 0.0938895822 0.0001744774 0.0001023474 0.0001070277 1.7054e-05 0.0774340153 0.077503529
75299550.0 -0.8316396749 0.1034667232 0.0001288286 -0.000117319 0.0001363061 0.000193768 0.0840701133 0.0736424099
80299520.0 -0.8318619321 0.1133848302 0.0001891855 0.0001514918 0.0001357935 2.5635e-05 0.0896454849 0.0705482135
85299490.0 -0.8309047804 0.1226960987 -7.12919e-05 -2.0665e-06 0.0002118495 -4.02752e-05 0.0946616864 0.0665526122
90299460.0 -0.8305915559 0.1319011101 -3.08619e-05 3.69031e-05 0.0001222206 0.000168529 0.0994141698 0.0627024584
95299430.0 -0.8289153777 0.1419223334 -0.0001217469 3.71301e-05 -0.0002189068 -2.2348e-05 0.1032056986 0.05913589
100299400.0 -0.8284326043 0.1512200393 -0.0001526517 0.0001730072 0.0001653278 5.01275e-05 0.1072805945 0.0547011303
105299370.0 -0.8272963345 0.1604280272 -4.86707e-05 7.3288e-06 -3.97127e-05 -4.9833e-05 0.1107712216 0.0509738163
110299340.0 -0.825744202 0.1700598643 -0.0002320186 5.91548e-05 6.75533e-05 0.0001068872 0.1133047044 0.0476276503
115299310.0 -0.8238136851 0.1785221879 2.95832e-05 -0.0001026548 3.4089e-06 -4.70264e-05 0.1157321236 0.0432449726
120299280.0 -0.8221464672 0.187329273 -0.0001634653 0.0001010446 1.02701e-05 -3.47951e-05 0.1182480489 0.0394946319
125299250.0 -0.8204389759 0.1966911526 0.0001339857 0.0001108338 7.56819e-05 5.11565e-05 0.1202622636 0.035537602
130299220.0 -0.8188131331 0.2053920762 0.0001711328 -0.0001536177 -0.0001439069 0.0003140095 0.1218379393 0.03167355
135299190.0 -0.8164585578 0.2140748808 -6.55905e-05 0.0002162902 2.62937e-05 6.46137e-05 0.1236061526 0.0285821167
140299160.0 -0.8147759038 0.2231348287 -1.4555e-05 7.48569e-05 2.50765e-05 0.0001213616 0.1250035999 0.025078
145299130.0 -0.812511366 0.2323002488 -9.1598e-06 -1.70371e-05 0.0001638828 0.0002199321 0.1262083168 0.0218216076
150299100.0 -0.8104650518 0.2409718906 8.00982e-05 0.0001643658 0.0001325995 -4.61006e-05 0.1272724534 0.018782038
155299070.0 -0.8075059682 0.2500691253 5.59155e-05 -0.0002001897 9.35355e-05 3.51198e-05 0.1279327201 0.0156351755
160299040.0 -0.805216221 0.2580888978 2.33678e-05 7.77503e-05 0.000102527 2.11632e-05 0.1281807507 0.0122611148
165299010.0 -0.802704985 0.2669911237 -7.03057e-05 0.0002277137 -1.3845e-06 0.0002162859 0.1291824263 0.0092671372
170298980.0 -0.7997376232 0.2755860569 0.0001070518 -9.44903e-05 0.0001143613 6.70326e-05 0.1296323561 0.0060781497
175298950.0 -0.7966334761 0.2842524502 0.0002065268 0.0002805986 2.91225e-05 0.0001569284 0.1296876719 0.0030276874
180298920.0 -0.7946474764 0.2927933034 5.88664e-05 0.0002294088 9.70889e-05 0.0002346208 0.1299179086 0.0003221521
185298890.0 -0.7908744073 0.3007280571 8.23617e-05 0.0001963615 5.76179e-05 0.0002000693 0.1302930853 -0.0020605454
190298860.0 -0.7883112628 0.3092252947 6.85014e-05 3.06568e-05 1.78641e-05 -3.08879e-05 0.1303345027 -0.0048951693
195298830.0 -0.785191633 0.3183514112 -7.83271e-05 0.0002457698 0.0001745876 0.0002817708 0.1299468942 -0.0076417013
200298800.0 -0.781235405 0.326050587 0.0001566913 4.31973e-05 -0.0001289302 -7.45226e-05 0.1298141944 -0.0104564618
205298770.0 -0.7786338327 0.3344622435 6.58508e-05 0.0002130182 2.7568e-05 0.0002217371 0.1297287279 -0.0132632469
210298740.0 -0.7746572686 0.3425524025 8.18996e-05 -4.66215e-05 -7.26597e-05 0.0002504675 0.1295505048 -0.0150871475
215298710.0 -0.7719385379 0.3506497617 -0.0001207161 0.0001916026 0.0003328184 0.0001511555 0.1290938856 -0.0179478679
220298680.0 -0.7677462985 0.3582816639 3.30191e-05 -4.50978e-05 0.0001845304 2.48243e-05 0.1282720872 -0.0204717
225298650.0 -0.764194808 0.3664588089 -0.0001410684 0.0003147497 2.38503e-05 0.0002776937 0.1279419997 -0.0226215255
230298620.0 -0.7599992358 0.3747287716 7.1898e-05 0.0001645247 0.0002254367 3.12588e-05 0.1278159046 -0.0251223748
235298590.0 -0.7563927934 0.3830133163 0.0001373655 0.0002201612 7.2343e-06 6.50491e-05 0.1272741706 -0.0272863339
240298560.0 -0.7521287522 0.3906759183 0.000101035 0.0001977482 0.0001882755 0.0001846786 0.1266904411 -0.0293357216
245298530.0 -0.7483945778 0.3985194975 6.25529e-05 -7.59986e-05 0.0001128472 4.6166e-06 0.1260420696 -0.0318675131
250298500.0 -0.7437094775 0.4071644759 -3.21311e-05 0.0002026501 0.0001410645 0.0003150964 0.1252508715 -0.0341490306
255298470.0 -0.7393548021 0.4139110481 -2.76568e-05 -2.7174e-06 -2.10783e-05 -3.72028e-05 0.1246574169 -0.0363208049
260298440.0 -0.7351091849 0.4222082676 0.0002258759 0.0002131165 3.005e-05 2.073e-05 0.1239523533 -0.0382930002
265298410.0 -0.7314328257 0.4296643119 -8.0832e-05 0.0001979383 -3.49103e-05 0.0001146641 0.1231869734 -0.0402736749
270298380.0 -0.7271748802 0.4377096337 0.0002477598 -9.43077e-05 0.0002140717 0.0002470942 0.1228066852 -0.0420543524
275298350.0 -0.7220800369 0.4450383384 6.67726e-05 4.58432e-05 0.0001551248 0.0001805693 0.1220425378 -0.0441514267
280298320.0 -0.7171552063 0.4527479034 9.24302e-05 0.0003830561 3.95496e-05 0.0003642939 0.1213532097 -0.046361208
285298290.0 -0.7127509278 0.4603629623 0.0002119807 0.0001567368 0.0002081276 0.0001846611 0.1206402298 -0.0479115893
290298260.0 -0.7077028728 0.4674714476 0.0002528567 7.61865e-05 0.0001712895 -6.88304e-05 0.1198853885 -0.050066129
295298230.0 -0.7023801359 0.4745552494 0.0001912188 0.0003012818 0.0001247255 -1.0952e-05 0.1194778117 -0.0521824931
300298200.0 -0.6975841802 0.4819654209 0.0002432101 0.0001210296 0.0002594452 5.58622e-05 0.1186070187 -0.053760904
305298170.0 -0.6922192251 0.4885666492 -1.02847e-05 0.0001215742 2.8162e-06 5.97178e-05 0.1181803605 -0.055787073
310298140.0 -0.6875878456 0.4967495032 9.22105e-05 2.68992e-05 0.0002143581 0.000106462 0.1167967621 -0.0579123889
315298110.0 -0.6826931561 0.5031950387 0.0001398452 0.0001503178 0.0001642052 0.000210554 0.115743775 -0.0593603777
320298080.0 -0.6776788264 0.5104357651 0.0001771217 0.0001693102 0.0003113062 0.0001143018 0.1147396847 -0.0613392547
325298050.0 -0.6720388517 0.5174796427 0.000150813 0.0001664134 0.0003073919 2.00722e-05 0.1136473204 -0.0629961625
330298020.0 -0.6661867535 0.5240027128 8.1308e-05 6.54382e-05 -4.6319e-05 0.0001988889 0.1123799599 -0.0643233978
335297990.0 -0.6612198562 0.5308509692 4.8443e-05 -0.0001157478 9.93844e-05 3.92204e-05 0.1110409532 -0.0656393786
340297960.0 -0.6559338745 0.5380031941 0.0003079392 -5.43634e-05 0.0002991078 0.0001392462 0.1103046762 -0.0669586301
345297930.0 -0.6501160909 0.5445607376 3.48427e-05 9.5947e-06 0.0002496805 0.0002808124 0.1089081079 -0.0686313121
350297900.0 -0.6445423556 0.5510890751 1.12018e-05 9.10403e-05 0.0002309465 0.0001891017 0.1075055881 -0.0693466897
355297870.0 -0.6384713538 0.5584813479 7.85758e-05 6.36537e-05 0.0002444084 0.000138611 0.106652093 -0.0712754279
360297840.0 -0.6322611065 0.5639452563 0.0003241284 0.000198926 0.0001133498 -6.96005e-05 0.1053058775 -0.072088831
365297810.0 -0.6271461763 0.5705148259 0.0003896727 2.57599e-05 6.79852e-05 4.26573e-05 0.1041149709 -0.0734112456
370297780.0 -0.6207571685 0.5770217527 -0.0001157314 0.0002209771 0.0002991938 0.0001040397 0.1032291299 -0.0747836802
375297750.0 -0.6143003148 0.5836675295 6.08295e-05 0.0001983316 0.0003426812 0.0003888348 0.1016665555 -0.0760990142
380297720.0 -0.6087092377 0.589485312 0.000323947 0.0002213773 0.0001446214 8.29912e-05 0.1001413589 -0.0769902195
385297690.0 -0.6028327893 0.5954083425 0.0002284381 0.0001970314 0.0002728771 0.0001342553 0.0994106109 -0.0783760133
390297660.0 -0.5968558597 0.6013719925 0.0002172212 0.0002198437 0.0001515238 0.0003308839 0.0977681219 -0.0794984429
395297630.0 -0.5901140828 0.6083337299 0.0002420409 0.000220609 -1.99333e-05 0.0002531186 0.0969166679 -0.0806775274
400297600.0 -0.5834079078 0.6140392236 4.39402e-05 7.24574e-05 0.0001074691 0.0002080309 0.0958062963 -0.0819464365
405297570.0 -0.5777790031 0.6196746957 0.0001951131 0.0001425273 0.0001591981 0.0003625401 0.0940314691 -0.0831591597
410297540.0 -0.5714349807 0.6249976156 0.0002853182 4.43076e-05 0.0001560061 0.0001043201 0.0928168973 -0.0842066962
415297510.0 -0.564177114 0.6312215611 0.0002518638 0.0002487663 0.0002405586 6.20224e-05 0.0915434605 -0.0855175975
420297480.0 -0.5588787065 0.6372052344 4.42742e-05 -1.34256e-05 0.0002432251 -4.08907e-05 0.0904085683 -0.0864255606
425297450.0 -0.5512814676 0.6423177248 -4.97263e-05 4.11336e-05 0.0003071133 4.87206e-05 0.0890781069 -0.0873234037
430297420.0 -0.5455764421 0.648329109 0.00022717 0.000106112 0.0002271071 0.0001897187 0.0876125543 -0.0887998383
435297390.0 -0.538713709 0.654154389 0.0001618958 -2.36185e-05 0.000318639 0.000204958 0.0866845719 -0.0898952828
440297360.0 -0.5315853964 0.6589561189 0.0001985036 0.0001063003 0.000203591 0.0001227684 0.0851475681 -0.0908554966
445297330.0 -0.5247564649 0.6644697938 0.0002798832 -1.97814e-05 0.0001276267 6.88159e-05 0.0841500547 -0.0921742886
450297300.0 -0.5181575695 0.6697776119 0.0002070866 0.0003094028 0.0001770385 0.000131632 0.0828917093 -0.0925679506
455297270.0 -0.5107093069 0.6748853981 0.0001171834 0.0002554063 0.0002712256 0.0001854624 0.0812148697 -0.0937616504
460297240.0 -0.5047958202 0.6797823737 0.000384645 7.15275e-05 0.0001337375 7.67726e-05 0.0804713894 -0.0947478379
465297210.0 -0.4972118867 0.6851572772 0.0001525715 0.0001836952 0.0001125721 6.56218e-05 0.0787306644 -0.0953527636
470297180.0 -0.4901880123 0.6895456673 0.0001231067 -4.73908e-05 0.0001707363 7.63183e-05 0.0773371901 -0.0960106565
475297150.0 -0.4831834625 0.6944813828 -0.0001298531 -0.0001057253 7.69378e-05 7.0541e-06 0.0761967878 -0.0975190782
480297120.0 -0.4763083611 0.6994603032 0.0002841713 0.0002634655 0.0002432943 0.0001611821 0.0752647329 -0.0981516067
485297090.0 -0.4688762547 0.7043674812 0.0002710836 0.0001964401 0.000372681 2.30624e-05 0.0737546602 -0.0985832413
490297060.0 -0.4618722396 0.7085696609 0.0003064425 0.000178393 0.0004483467 -6.64161e-05 0.0722600618 -0.0997340156
495297030.0 -0.4547633595 0.7130051743 0.0003047084 7.07785e-05 0.0003001949 0.0001519567 0.0711406551 -0.100019206
500297000.0 -0.4476701676 0.7178489784 0.0001978415 0.0001916924 0.0003225535 0.0002203912 0.0698618857 -0.1006279274
505296970.0 -0.4398624701 0.7225257852 0.0003199928 1.9532e-06 0.0003266111 4.04101e-05 0.0684579052 -0.1014534924
510296940.0 -0.4325043236 0.7267508031 7.77858e-05 8.37474e-05 0.0001619717 0.0001596749 0.0671052355 -0.1022628386
515296910.0 -0.4242202768 0.7307825895 0.0001660876 0.0001822987 0.0003282972 -0.00014293 0.0657306372 -0.1026400999
520296880.0 -0.4182666354 0.7360496188 0.0002761162 -4.79203e-05 0.0003454896 0.000125762 0.0642564765 -0.1035881661
525296850.0 -0.4095979274 0.739221465 0.0001382384 7.14269e-05 0.0002771709 0.0001244553 0.0627561361 -0.103813072
530296820.0 -0.4024111409 0.743450077 0.0003050796 -5.37662e-05 0.0002891751 -3.49894e-05 0.0616498977 -0.1043546141
535296790.0 -0.3960417112 0.7466279654 0.0002301392 0.0002604687 0.0001904104 8.41817e-05 0.0596038542 -0.1053558035
540296760.0 -0.3880016948 0.7512278157 5.0578e-05 -1.0778e-06 0.0001538795 5.23383e-05 0.0583356002 -0.1054289402
545296730.0 -0.3805740959 0.7550677265 0.0003304491 0.0002024368 0.0001071488 9.66359e-05 0.0568331674 -0.1059816847
550296700.0 -0.3727816234 0.7592930444 0.0001138887 -9.13372e-05 0.0003005653 0.0001000681 0.055436819 -0.1065979965
555296670.0 -0.3649749467 0.7619149701 0.0001505112 0.0003002316 0.0001852477 6.95556e-05 0.0540973932 -0.1066264566
560296640.0 -0.3576998514 0.7662897244 0.0001176802 0.0001178524 0.000244276 9.95717e-05 0.0526749659 -0.1074992431
565296610.0 -0.3496321398 0.7698640821 0.0001076482 9.0227e-05 0.0001944169 0.0001187122 0.0508952587 -0.1080595949
570296580.0 -0.3420243415 0.7721978287 0.0002670422 0.0003599449 0.0001243035 0.0002674729 0.0495835211 -0.1083798504
575296550.0 -0.3341303718 0.7766814828 0.0002592316 6.98626e-05 0.0002519089 0.0002084708 0.0479296384 -0.1087267495
580296520.0 -0.325899709 0.7797287097 0.0002284348 8.0771e-06 0.0002065911 -0.0002325695 0.0465441242 -0.1091545722
585296490.0 -0.3181390807 0.7828725863 0.0002306795 4.89713e-05 0.000207919 6.64415e-05 0.0454375045 -0.1097214748
590296460.0 -0.3102874203 0.7862423857 0.0003433491 0.0001554546 0.00037748 0.0002062436 0.0435512562 -0.1101247586
595296430.0 -0.3028230804 0.7880968646 0.0001207224 4.15396e-05 0.0002133192 -2.52916e-05 0.0420366356 -0.1105673249
600296400.0 -0.2946575902 0.7924477583 0.0003675248 5.68189e-05 0.0001188748 1.97338e-05 0.0408336869 -0.1110383175
605296370.0 -0.2873472021 0.7943922292 0.0003358305 -7.6337e-06 0.0001861204 0.0001142794 0.039185646 -0.1110978082
610296340.0 -0.2788653545 0.7972770177 0.000220321 7.2437e-05 6.98949e-05 -3.18491e-05 0.037729564 -0.1113903163
615296310.0 -0.2702194482 0.8000336809 0.0003995508 0.0001284118 0.0002945649 5.03458e-05 0.0363723604 -0.1118965574
620296280.0 -0.2620957309 0.8019326684 0.0001891318 -4.40011e-05 0.0004176699 7.33884e-05 0.0350718536 -0.1124090889
625296250.0 -0.2545291556 0.8055624111 0.0004642409 -1.5093e-06 0.0004712412 5.18482e-05 0.0339437878 -0.11257925
630296220.0 -0.2454451293 0.80824363 0.0003664976 1.07953e-05 0.0003495746 -8.53991e-05 0.0319936317 -0.1124024318
635296190.0 -0.2385785686 0.8103281934 0.0003661563 -1.9656e-05 0.0002277927 0.0001672182 0.0308143605 -0.1127244845
640296160.0 -0.2306954019 0.8124324384 0.0004220185 6.69774e-05 0.0003599878 -0.0001066076 0.0292211676 -0.1131800241
645296130.0 -0.2224917877 0.8151057908 0.0003387579 -7.49661e-05 0.0003640127 -0.00011736 0.0280147313 -0.113327674
650296100.0 -0.2137898688 0.8165284082 0.0002520631 7.12614e-05 0.0004824147 -0.0001559557 0.0265849835 -0.1137997724
655296070.0 -0.2056975808 0.8189326514 0.0005070289 0.0001456459 0.0001516905 1.29701e-05 0.0251965517 -0.1133693922
660296040.0 -0.1977653332 0.8205120009 0.000267751 6.57444e-05 0.0003775285 9.59047e-05 0.024085652 -0.1135673547
665296010.0 -0.1891128891 0.8221838962 0.0002234688 -9.38e-07 0.0002184674 3.011e-05 0.0224547024 -0.1133328391
670295980.0 -0.181762045 0.8247469707 0.0005008924 0.0002143787 0.000214024 0.0001292164 0.0210258862 -0.1137810332
675295950.0 -0.1729258584 0.8261401287 0.0002983905 0.0001121097 0.0002745163 -6.35997e-05 0.0194195239 -0.1133489495
680295920.0 -0.165020432 0.828144707 0.0003602903 -0.0001038514 0.000348962 5.18566e-05 0.0181629161 -0.1131266654
685295890.0 -0.1561739336 0.8302360772 0.0003566063 -0.0001586364 0.0003856637 -0.0001341648 0.0167081739 -0.1132143686
690295860.0 -0.1485677316 0.8302789771 0.0002006668 -0.0001277793 0.0003667138 -1.78565e-05 0.0152501644 -0.1128510868
695295830.0 -0.1402046699 0.8323907469 0.0003565664 -5.72829e-05 0.000381414 -5.72538e-05 0.0136620975 -0.1130486123
700295800.0 -0.1314221017 0.8336464626 0.0002623821 -8.4826e-05 0.000393614 -9.61531e-05 0.0120862186 -0.1130058797
705295770.0 -0.123543949 0.8354192548 0.0001383792 -0.0001934352 0.0001242908 -0.0002170567 0.0106882103 -0.1124066437
710295740.0 -0.1149790735 0.8361842568 0.0003259065 0.0001167376 0.0004164726 0.0002025873 0.0089669881 -0.1128141855
715295710.0 -0.1067166213 0.8372605463 0.0005046748 3.64572e-05 0.0002405649 -0.0002306979 0.0078949267 -0.1123030318
720295680.0 -0.098583391 0.8384968639 0.0002646955 0.0001716712 0.000236877 7.70255e-05 0.0066452074 -0.1121227748
725295650.0 -0.0902948454 0.8396044332 0.0003137679 -6.96508e-05 0.0004349483 3.77274e-05 0.0049006006 -0.1117012166
730295620.0 -0.0812991471 0.8405340819 0.0002589895 -6.9496e-06 0.0005002591 -0.0002558498 0.0033538421 -0.1119098529
735295590.0 -0.0735936171 0.8416187002 0.0002896472 -0.0002769378 0.0002674462 -0.0001894639 0.0015434269 -0.1118078393
740295560.0 -0.065189685 0.84188299 0.0004155012 -9.89892e-05 0.0003484373 4.16836e-05 0.0005985483 -0.1112562719
745295530.0 -0.0567453227 0.842289727 0.0004777158 8.256e-06 0.0001393796 6.81111e-05 -0.0007828407 -0.1113714147
750295500.0 -0.0485846329 0.8432906202 0.0003730834 7.72164e-05 0.0004634454 -4.63731e-05 -0.0025259499 -0.1110037708
755295470.0 -0.0401495382 0.8429322942 0.0003626362 0.0001284428 0.0005296982 -5.24141e-05 -0.003811756 -0.1112480893
760295440.0 -0.0322447476 0.8431366362 0.0006911199 0.0001908822 0.0002840318 5.13435e-05 -0.0053751605 -0.1109174553
765295410.0 -0.0232101497 0.8440135607 0.0005705905 -3.72421e-05 0.0001993969 -0.0001290814 -0.0066177319 -0.1104286038
770295380.0 -0.0157589222 0.8438611812 0.000456742 9.3645e-05 0.0004309981 -0.0002256636 -0.0083382371 -0.1102966625
775295350.0 -0.00720183 0.8435648834 0.0002650401 0.0001729758 0.0003203955 3.4189e-06 -0.0097337385 -0.1099666142
780295320.0 0.0013604963 0.8439516283 0.0003394069 -8.7108e-05 0.0004786444 -0.0001146091 -0.0109779015 -0.1097968552
785295290.0 0.0096698171 0.8437168333 -4.66588e-05 -9.0578e-05 0.0003406302 -4.3466e-06 -0.0121504285 -0.1093899281
790295260.0 0.0184376201 0.8434831243 0.0003964743 8.767e-05 0.0002633872 -0.0001047854 -0.0133796021 -0.1092041878
795295230.0 0.0261491594 0.8431082361 0.0003201098 -0.0001055325 0.0004502343 -3.35392e-05 -0.0148724959 -0.1090049088
800295200.0 0.0341813611 0.8428474455 0.0004588375 -0.0003305817 0.0004867695 -0.0001231598 -0.0161161512 -0.1079725058
805295170.0 0.0436383238 0.8427631281 0.0005379084 -0.000179559 0.0006899749 -0.0001034709 -0.0175387182 -0.107594289
810295140.0 0.0513305541 0.8424053442 0.0003392367 -0.0001247706 0.0005791921 -0.0001505727 -0.0185055543 -0.1075197027
815295110.0 0.0594554771 0.8414260651 0.0003567087 -0.0002817703 0.0004120521 -0.0001620535 -0.0205115704 -0.1070246409
820295080.0 0.0678073694 0.8408169126 0.0004102349 -0.0001528234 0.0002265511 -7.13187e-05 -0.0210678498 -0.1063554761
825295050.0 0.0768026385 0.8401802345 0.0003611428 -0.0002883574 0.0004835827 -0.0002542078 -0.0226504414 -0.1060118495
830295020.0 0.0843597273 0.8396961772 0.0004832838 -0.0001682957 0.0005230946 -0.0001517668 -0.0233669826 -0.1055314581
835294990.0 0.0928232013 0.8392457779 0.0002689552 4.6782e-06 0.0002938894 -6.4424e-05 -0.0248937572 -0.1047753346
840294960.0 0.1007626231 0.8381415516 0.0003442272 -0.0002546035 0.0002662725 -0.0001951014 -0.0263324074 -0.1040150007
845294930.0 0.1090685466 0.8362917862 0.0003577687 -9.01571e-05 0.0004415456 -0.0001424724 -0.0275245547 -0.1036730613
850294900.0 0.1169926135 0.8357948359 0.0005926383 -0.0001019819 0.0004747078 -0.0001577227 -0.0290128278 -0.1026585418
