!Created with skrf (http://scikit-rf.org).
# Hz S RI R 50.0 
!freq ReS11 ImS11 ReS21 ImS21 ReS12 ImS12 ReS22 ImS22
300000.0 -0.2381854373 -0.1116874169 0.4687765769 0.07199686 0.4718969458 0.0749382594 -0.2376218286 -0.1155763414
5299970.0 -0.2407369554 0.0066069448 0.4752746846 0.0054303951 0.4750460931 0.0056364963 -0.2446951851 0.0055322956
10299940.0 -0.2372888313 0.0200107824 0.4770175677 0.0062613426 0.477002674 0.0065197576 -0.241883843 0.0175320665
15299910.0 -0.2330693958 0.02964116 0.4806045099 0.0078409778 0.4807400633 0.0076978855 -0.2374743543 0.0267363421
20299880.0 -0.2277323842 0.0376192731 0.4854782563 0.0083032864 0.485290238 0.0079060761 -0.2329021998 0.0339441384
25299850.0 -0.2220501812 0.044218527 0.4909416704 0.0068413867 0.4908695537 0.0069938423 -0.2278547101 0.0401501419
30299820.0 -0.2160371473 0.0496467698 0.4962814476 0.0052097875 0.4960109098 0.0048184718 -0.2227724317 0.0451317266
35299790.0 -0.2100933498 0.0540259942 0.5013260091 0.0016648758 0.5012683628 0.0016825351 -0.2176693218 0.048630957
40299760.0 -0.2048320944 0.0569890502 0.5066658246 -0.0018560085 0.5063214674 -0.0022423725 -0.2129097397 0.0520818885
45299730.0 -0.199714801 0.0602437044 0.5115764055 -0.0071784236 0.5114678349 -0.0068653197 -0.2080640326 0.0543967531
50299700.0 -0.1945324969 0.0622057029 0.5146709991 -0.0129665362 0.5151310166 -0.0130765798 -0.2032846557 0.0563210904
55299670.0 -0.1906231443 0.0638404452 0.5183921148 -0.018588665 0.5188614884 -0.0185231157 -0.1998959438 0.0582142504
60299640.0 -0.1864576323 0.0649030698 0.5219532498 -0.0248661774 0.5222032684 -0.0248203993 -0.1963649872 0.0597077149
65299610.0 -0.1831438492 0.0665576762 0.5250010445 -0.0308065079 0.5252542229 -0.0310618056 -0.1930349456 0.0605243217
70299580.0 -0.1796883676 0.0670664345 0.5273836126 -0.037443999 0.5272875606 -0.0379133682 -0.1901858034 0.061539976
75299550.0 -0.1765395946 0.0679271141 0.5291538746 -0.0445518772 0.5294249686 -0.0446294824 -0.1871043867 0.0626229066
80299520.0 -0.17406223 0.0690431908 0.531545509 -0.051838016 0.5315343685 -0.0518491001 -0.1848495032 0.0630242706
85299490.0 -0.1716216911 0.0696598808 0.5325742742 -0.0587599697 0.5323551836 -0.0581144019 -0.1827733773 0.0635948103
90299460.0 -0.1694310813 0.0702587761 0.5334154489 -0.064726553 0.5336068492 -0.0655355193 -0.18014539 0.0644345394
95299430.0 -0.1671174922 0.0709395573 0.5346062025 -0.0723069513 0.5344502452 -0.072229002 -0.1785274531 0.0648462533
100299400.0 -0.1655228703 0.071885981 0.534858081 -0.0788343353 0.5347213541 -0.0789870133 -0.1769494658 0.0653019448
105299370.0 -0.1635332877 0.0722028431 0.5345322687 -0.0853401814 0.5351409068 -0.0858313276 -0.1747403086 0.0663051739
110299340.0 -0.1621272868 0.0730521402 0.5347966475 -0.0927303826 0.5349874135 -0.0927552848 -0.1737199333 0.0665951385
115299310.0 -0.1603749938 0.0736582764 0.5349683206 -0.0993312621 0.5354499624 -0.099322327 -0.1724491041 0.0672382662
120299280.0 -0.1590089429 0.0744078674 0.5349437179 -0.1064338832 0.5349454697 -0.1063911864 -0.1712687473 0.0681407038
125299250.0 -0.1579337922 0.0750167562 0.5345391774 -0.112840972 0.5349051582 -0.1132834537 -0.1699293281 0.0685995612
130299220.0 -0.1565657817 0.0761163582 0.5341123286 -0.1191759737 0.5341741165 -0.1200965031 -0.1688317576 0.0695426128
135299190.0 -0.1553166741 0.0767515713 0.5334118455 -0.1258801322 0.5328345926 -0.1262999523 -0.1680005726 0.0703106868
140299160.0 -0.1544920551 0.0782364353 0.5324832013 -0.1331488288 0.532678308 -0.1330143965 -0.166741454 0.0710288696
145299130.0 -0.1531287415 0.0791052685 0.5316271629 -0.1398420108 0.5312278809 -0.139140979 -0.1658426996 0.0716952006
150299100.0 -0.1520663763 0.0797916134 0.5303813332 -0.1459690412 0.5307366997 -0.1462020276 -0.1650772376 0.0727584393
155299070.0 -0.1512240166 0.0814580642 0.5292494226 -0.1531493482 0.5293218073 -0.152812819 -0.1645095923 0.0732419079
160299040.0 -0.1499690515 0.082145986 0.5275075664 -0.1587270434 0.5278065138 -0.1592273577 -0.1634427195 0.0748385632
165299010.0 -0.1490782378 0.0832297892 0.5267700149 -0.1657547951 0.5268015199 -0.1658305071 -0.1628889377 0.0755379046
170298980.0 -0.1484938224 0.0842738361 0.5241611176 -0.1716470059 0.5248100979 -0.1717493767 -0.1616944951 0.0765065666
175298950.0 -0.1473910904 0.0854730554 0.5236777675 -0.1775302917 0.523637361 -0.1781196998 -0.1609471091 0.0777726873
180298920.0 -0.1462583525 0.0868901931 0.5214369639 -0.1846069684 0.5218206444 -0.1840549181 -0.1601820049 0.0789909236
185298890.0 -0.145258677 0.0878438683 0.5192130455 -0.1903431085 0.519715711 -0.1902791708 -0.159687691 0.0795404891
190298860.0 -0.1444763289 0.0895566802 0.5177630056 -0.1970818555 0.5181292078 -0.1969784286 -0.1583794036 0.0808269092
195298830.0 -0.1433706239 0.0901798258 0.5156818313 -0.2022241496 0.5159922439 -0.2030871616 -0.1580562126 0.0817768637
200298800.0 -0.142688765 0.0916929008 0.5139136877 -0.2083603288 0.5137919107 -0.2087167625 -0.156729294 0.0831524814
205298770.0 -0.1418437206 0.0930009234 0.5120103578 -0.214869639 0.5115847342 -0.2149971476 -0.15645279 0.0841791653
210298740.0 -0.1408701634 0.0941289508 0.5093057044 -0.221215517 0.5097200281 -0.2213615498 -0.1555214465 0.085642838
215298710.0 -0.139991412 0.0958250073 0.5072388475 -0.2266980075 0.5072422314 -0.2267729487 -0.155120234 0.0867893775
220298680.0 -0.1387901358 0.0971798778 0.504176146 -0.2328731495 0.5048082043 -0.2327600329 -0.1539410499 0.0882200394
225298650.0 -0.1376447215 0.0984783235 0.502308269 -0.238136069 0.502006378 -0.2382868168 -0.1535433076 0.0893172656
230298620.0 -0.137205969 0.0998447505 0.5001845865 -0.2442422065 0.4997997313 -0.2445180281 -0.1523813483 0.0906446349
235298590.0 -0.1360604207 0.1011655366 0.4973889167 -0.2498554321 0.4969480557 -0.2504837938 -0.1517271839 0.0916736771
240298560.0 -0.1351691311 0.102425121 0.4943845211 -0.2553964535 0.4945690643 -0.2553954758 -0.1508290536 0.0933149977
245298530.0 -0.1337126372 0.1042030738 0.4906045443 -0.2615350461 0.4915021648 -0.2615126822 -0.1500640131 0.0945562191
250298500.0 -0.1329863243 0.1052570238 0.4886283448 -0.2664736846 0.4892043975 -0.2666962009 -0.1490750733 0.0958967108
255298470.0 -0.1319126349 0.1067699255 0.4855974292 -0.2728590319 0.4858254708 -0.272595167 -0.1481232222 0.0968363459
260298440.0 -0.1306833232 0.1080700855 0.4829088607 -0.277940456 0.4830526358 -0.2783832301 -0.1470478941 0.0985760208
265298410.0 -0.1295233862 0.1097217689 0.4797689364 -0.2839966691 0.4797239588 -0.2838076637 -0.1465488515 0.0999009375
270298380.0 -0.1282725796 0.1110891112 0.4762146586 -0.2891102672 0.4768706543 -0.2894080675 -0.1456488957 0.1013211347
275298350.0 -0.12729125 0.1125088047 0.4732823673 -0.2946976049 0.4737914771 -0.2949476182 -0.1442972353 0.1024248673
280298320.0 -0.1261068856 0.1139291395 0.4707706311 -0.2998882829 0.470119059 -0.3003277998 -0.1434371834 0.1038396246
285298290.0 -0.1250058886 0.115627052 0.467065505 -0.3050217925 0.4671829781 -0.305534831 -0.1427080892 0.105374821
290298260.0 -0.1238873651 0.116913866 0.4638603758 -0.3103348478 0.464214951 -0.3109772189 -0.1412044388 0.1068087213
295298230.0 -0.1224683466 0.1181129216 0.4604918865 -0.315478226 0.4601606648 -0.3162071512 -0.1402482699 0.1080974124
300298200.0 -0.1208025805 0.1193129383 0.4566600404 -0.3211657767 0.4573194257 -0.3209942304 -0.1394221986 0.1096172069
305298170.0 -0.1197639615 0.1208003683 0.4539892258 -0.326631509 0.4539170579 -0.3267045993 -0.1378976946 0.1109212763
310298140.0 -0.117940949 0.1219055821 0.4499741911 -0.3320826507 0.4498136316 -0.3321859872 -0.1370785555 0.1124502246
315298110.0 -0.1170871647 0.1233042055 0.4463962722 -0.3367793176 0.4466361118 -0.3369403307 -0.1359069389 0.1132440382
320298080.0 -0.115760556 0.1245564802 0.442797009 -0.341781356 0.4427324926 -0.3419084201 -0.1348388286 0.1145949115
325298050.0 -0.1147031417 0.1257276393 0.4393768635 -0.3474713018 0.4391744539 -0.3472756313 -0.1339393138 0.1158433675
330298020.0 -0.1133970825 0.1269094514 0.4345590962 -0.3516314513 0.4347602292 -0.3518804893 -0.1330670636 0.1168610807
335297990.0 -0.1121538026 0.1280196056 0.4305930484 -0.3566192129 0.4309275769 -0.3572562828 -0.1320280265 0.1186122605
340297960.0 -0.1116154513 0.1298864727 0.4268019569 -0.3617933828 0.4270863398 -0.3614510703 -0.1315363125 0.1201968144
345297930.0 -0.110167006 0.1313744829 0.4227610739 -0.3658063327 0.4222767291 -0.3660717815 -0.1297131565 0.1212073238
350297900.0 -0.1082244566 0.1325560234 0.4182359906 -0.3708560134 0.4185568126 -0.3710615833 -0.1287820952 0.1230988255
355297870.0 -0.1072599206 0.133888421 0.4139291375 -0.3753809793 0.4139965091 -0.3756433371 -0.1278695269 0.1242520757
360297840.0 -0.1055248647 0.1354619885 0.4099300991 -0.3802186323 0.4098908924 -0.3800132092 -0.1263548501 0.1258708551
365297810.0 -0.1042244171 0.1364046685 0.4056160143 -0.3844351052 0.4059825961 -0.3847783884 -0.125576622 0.1276036453
370297780.0 -0.1025519551 0.1377642199 0.4015941525 -0.3887602554 0.4020320069 -0.3893879983 -0.1242916669 0.1289205577
375297750.0 -0.1014655193 0.139433355 0.3980552685 -0.3935579551 0.3974189668 -0.3936854172 -0.1231475589 0.1302833643
380297720.0 -0.0995905312 0.1401859296 0.3931280867 -0.397683897 0.3928768877 -0.3975665403 -0.1217156391 0.1316650465
385297690.0 -0.0980308558 0.1419224195 0.3884661636 -0.4014978646 0.3884978024 -0.4019747996 -0.1205732147 0.1333516623
390297660.0 -0.0967498714 0.1427526054 0.3841202205 -0.4061577013 0.3840340782 -0.4067549919 -0.1192322895 0.1340537118
395297630.0 -0.0947402515 0.1440898353 0.3798883656 -0.4104726514 0.3797611211 -0.410025376 -0.1182236519 0.135729818
400297600.0 -0.0935368203 0.1453804177 0.3750805714 -0.4144172817 0.3755087198 -0.4146879648 -0.1172733586 0.1366946241
405297570.0 -0.0917017378 0.146747292 0.3702392725 -0.418851772 0.3706564076 -0.4188757051 -0.1158279579 0.1385726302
410297540.0 -0.0899888236 0.1475459976 0.36568988 -0.4227001255 0.3660844886 -0.4227499331 -0.1143784656 0.1396566625
415297510.0 -0.0883431581 0.1490301495 0.3614134766 -0.4264690049 0.3617540548 -0.4269381256 -0.113310298 0.1413537834
420297480.0 -0.086831547 0.1497630988 0.3559903301 -0.4305241322 0.3565345751 -0.4304434617 -0.1116195194 0.142151865
425297450.0 -0.0849470506 0.1508956842 0.3515617812 -0.4347127568 0.3524481638 -0.4347518085 -0.1105396646 0.1442901006
430297420.0 -0.0835428547 0.1524269706 0.3472136403 -0.4387014468 0.3474833306 -0.438457177 -0.1093788215 0.1449322409
435297390.0 -0.0817247542 0.1531079218 0.3424079356 -0.4420368927 0.3426696023 -0.441860401 -0.1077746615 0.1464850559
440297360.0 -0.0799313329 0.1542522537 0.337062865 -0.4458287913 0.3370355839 -0.4457203383 -0.1062645559 0.1473370957
445297330.0 -0.0781006219 0.155108917 0.331990708 -0.4498445912 0.332468924 -0.449747562 -0.104997492 0.1484419539
450297300.0 -0.0764881403 0.1558125757 0.3275427724 -0.4528370619 0.3274460682 -0.4532158688 -0.1034243285 0.1500972475
455297270.0 -0.074719422 0.1569716322 0.3229121643 -0.4566946932 0.3233071545 -0.4566745942 -0.1020582014 0.1511362186
460297240.0 -0.0733488403 0.1578976813 0.3177477531 -0.4597552717 0.317515098 -0.4602677045 -0.1006082854 0.1527402204
465297210.0 -0.0711764774 0.1588050207 0.3122504568 -0.4634369099 0.3131186468 -0.4634198078 -0.0996731174 0.1533669106
470297180.0 -0.0696200959 0.1600345745 0.3074215087 -0.4669062502 0.3080194136 -0.4671292697 -0.0983235799 0.1547861688
475297150.0 -0.0678234249 0.1604284661 0.3025420229 -0.4696843146 0.3026804881 -0.4695014422 -0.0964444421 0.1558164354
480297120.0 -0.0658795659 0.1613294249 0.2970902692 -0.473087555 0.2975514901 -0.4730501621 -0.0950541171 0.1573499996
485297090.0 -0.0638641381 0.1622626057 0.2920633558 -0.4760763108 0.292322214 -0.4764827087 -0.0938561141 0.1579324557
490297060.0 -0.0619409206 0.1627697568 0.286828708 -0.4795029894 0.2870214782 -0.4797216303 -0.0919534484 0.1594515847
495297030.0 -0.0606913744 0.1640206241 0.2812801685 -0.4829337144 0.2813708231 -0.4826979513 -0.0906167071 0.1603094599
500297000.0 -0.0585329566 0.1646590253 0.2763383938 -0.4853726094 0.2764107909 -0.4855693781 -0.0895883998 0.1613635143
505296970.0 -0.0570342083 0.165621111 0.2710954377 -0.4881999742 0.270764433 -0.4884730263 -0.0879962599 0.16268904
510296940.0 -0.0550627232 0.1662881142 0.2655825839 -0.4916133723 0.2657498351 -0.4916570749 -0.0861302494 0.163835663
515296910.0 -0.0533328767 0.1672745884 0.2600660464 -0.4940425343 0.2604941152 -0.4943594632 -0.0847206795 0.1647527043
520296880.0 -0.0514410686 0.1675208184 0.2548788571 -0.4966559283 0.2550861561 -0.4966738659 -0.083036448 0.1657876031
525296850.0 -0.0495134106 0.1683811982 0.2493549822 -0.4998242598 0.249633838 -0.5000888175 -0.081335749 0.166569404
530296820.0 -0.047528502 0.1691290132 0.2445321334 -0.5018157914 0.2442328528 -0.5020555651 -0.0803376858 0.1671050442
535296790.0 -0.0457341682 0.1698557439 0.2385206842 -0.5048135812 0.2389586601 -0.5049112101 -0.0788467116 0.1682361917
540296760.0 -0.0440926133 0.1700962757 0.2332439361 -0.5076326672 0.2328667359 -0.5075280026 -0.0774703735 0.1693422629
545296730.0 -0.0418804392 0.1712670489 0.2275779287 -0.5098480252 0.2276010862 -0.5101520338 -0.0755342017 0.1699973209
550296700.0 -0.0401552667 0.1715390491 0.2221493443 -0.5123632337 0.2225333348 -0.5129162494 -0.0740362028 0.1714730264
555296670.0 -0.0379579464 0.172225245 0.2166008267 -0.5147903925 0.2167206514 -0.5151007386 -0.0722498771 0.1723283683
560296640.0 -0.0361537173 0.1724397888 0.2110014541 -0.5170590294 0.2109159404 -0.5172249321 -0.0707133439 0.1731024608
565296610.0 -0.0345395363 0.1731586187 0.205059641 -0.5191679675 0.2050828082 -0.5192514943 -0.0690504125 0.1737078646
570296580.0 -0.0321233463 0.1736885275 0.1995610942 -0.5211465424 0.2000958342 -0.5215512876 -0.0676071717 0.17481719
575296550.0 -0.0301637899 0.1747552762 0.1936072104 -0.5236601423 0.1945319227 -0.5233269105 -0.0653612715 0.175239314
580296520.0 -0.0289833839 0.1748265106 0.1887055698 -0.525651541 0.1883265469 -0.525734141 -0.0644122898 0.1763078766
585296490.0 -0.0264868212 0.1748128952 0.1829412339 -0.5276700566 0.1828342442 -0.5275657226 -0.0626143649 0.1766076451
590296460.0 -0.0248899065 0.1751550764 0.1767371251 -0.5289939935 0.1770603802 -0.5297079193 -0.0608843066 0.1780652554
595296430.0 -0.022758542 0.1757886938 0.1708322563 -0.531231633 0.1711020339 -0.5316587548 -0.0591586669 0.1780339644
600296400.0 -0.0207912387 0.1764434287 0.1656696615 -0.5332584093 0.1657226657 -0.5333663244 -0.0575659552 0.1791233599
605296370.0 -0.0186826892 0.1771237962 0.159688575 -0.5350980007 0.1599010378 -0.5346375948 -0.0558378385 0.1795398457
610296340.0 -0.0167309107 0.1772494042 0.1544523551 -0.5367723876 0.1539316234 -0.5369811962 -0.0540030392 0.1810213998
615296310.0 -0.014713392 0.1776051846 0.1478110754 -0.5381223714 0.1480305532 -0.5381858512 -0.0521755201 0.1812588242
620296280.0 -0.0128409354 0.1777515241 0.1424399541 -0.5393836421 0.1421803351 -0.539639479 -0.0504759335 0.181566482
625296250.0 -0.0107006281 0.1779087377 0.1358718403 -0.5408833586 0.1366439336 -0.5413781037 -0.0488874918 0.1828154129
630296220.0 -0.0087250269 0.1784260301 0.1304167807 -0.5423629938 0.1310981877 -0.5428052223 -0.0473172916 0.183308215
635296190.0 -0.0065276072 0.1786643954 0.1244538443 -0.5434925731 0.1243475168 -0.5436896752 -0.0454451113 0.1837867024
640296160.0 -0.0049767165 0.1786812997 0.1184926255 -0.5450385177 0.1190667104 -0.5453050151 -0.0434723144 0.1840871662
645296130.0 -0.0027565928 0.1792022898 0.112854562 -0.5467227022 0.112901035 -0.5464583393 -0.0424964713 0.1845966504
650296100.0 -0.000982649 0.1795298113 0.1074036114 -0.5472708705 0.10712795 -0.5472141536 -0.0401145222 0.1851956418
655296070.0 0.0011523294 0.1793587002 0.1012633052 -0.5482360693 0.101130965 -0.5485188097 -0.0382314431 0.1859178125
660296040.0 0.0027985505 0.1797620518 0.0951759072 -0.5490301409 0.095586161 -0.5493044116 -0.0367501075 0.1862777608
665296010.0 0.0050954522 0.1794708993 0.0897429414 -0.5504478196 0.0896032152 -0.5504227932 -0.0350582601 0.1872960897
670295980.0 0.0072228461 0.1799998781 0.0833823445 -0.5513984199 0.0839409675 -0.5517671243 -0.0335473282 0.1874107656
675295950.0 0.0092512718 0.1798230702 0.077342493 -0.5519714625 0.077778082 -0.5526884771 -0.0311918736 0.1884240959
680295920.0 0.011252374 0.1803421042 0.0712549675 -0.5527300757 0.071621679 -0.5535476868 -0.0296163 0.1881906193
685295890.0 0.0129310247 0.1800187043 0.0655536147 -0.5536145529 0.0655171864 -0.5541277466 -0.0278457371 0.188863915
690295860.0 0.0152054676 0.1800655671 0.0595061795 -0.5541738278 0.0593215258 -0.5541276214 -0.02577402 0.1895591275
695295830.0 0.0176910363 0.1798015763 0.0529015946 -0.5547498329 0.0534154909 -0.5554701807 -0.0243537075 0.189779734
700295800.0 0.0195982983 0.1799625027 0.0471471781 -0.5554196751 0.0477214603 -0.5555278025 -0.0226245651 0.1899503889
705295770.0 0.0216277756 0.1798315507 0.0414438002 -0.5558575643 0.0419653003 -0.5560697226 -0.020773579 0.1901914935
710295740.0 0.023468436 0.1799657683 0.0352335195 -0.5562054837 0.0357630169 -0.5559505583 -0.0195177031 0.1907964923
715295710.0 0.0254920493 0.1797864644 0.0292936478 -0.5565969696 0.0298133587 -0.556713772 -0.0169967497 0.1905417112
720295680.0 0.027004179 0.1794711972 0.0233826627 -0.5568157427 0.0233885588 -0.55710063 -0.0148464067 0.1911681032
725295650.0 0.029823467 0.1793800552 0.0170795344 -0.5567455707 0.0177549978 -0.5570535268 -0.0134315748 0.1918394505
730295620.0 0.0311484558 0.1791473553 0.0113648935 -0.5568733727 0.0114351722 -0.5572429275 -0.011269291 0.1915317624
735295590.0 0.033701495 0.17875878 0.0054234882 -0.5570526192 0.0060813775 -0.5574901307 -0.0094948222 0.1923453992
740295560.0 0.0354067849 0.1789866523 -0.0005123852 -0.5570489668 -0.0007575711 -0.5573667843 -0.0074015931 0.192269783
745295530.0 0.0374618179 0.1783230231 -0.0064118495 -0.5571131069 -0.0061404935 -0.5575471488 -0.0060122607 0.1928359764
750295500.0 0.0393822738 0.1781415268 -0.0125921966 -0.5563867788 -0.0121037258 -0.5569617097 -0.0040241865 0.1924354115
755295470.0 0.0417959539 0.1779872129 -0.0184469043 -0.5566784413 -0.0183322301 -0.5570773152 -0.0023083254 0.1932138205
760295440.0 0.0433240783 0.1777458343 -0.0251318827 -0.5565357731 -0.0243930272 -0.5568143351 -0.0007426305 0.193185267
765295410.0 0.0452568726 0.177247596 -0.0295832052 -0.5560679899 -0.0302884801 -0.5564323639 0.002177478 0.1935952008
770295380.0 0.0478059957 0.1770218233 -0.036514837 -0.5554857189 -0.0361867267 -0.5560544477 0.0036846028 0.1935213299
775295350.0 0.0497383133 0.1766928699 -0.0424904574 -0.5550357965 -0.0422972402 -0.5551124554 0.0051530317 0.1933358366
780295320.0 0.051608531 0.1761336732 -0.048167875 -0.5543456082 -0.048096484 -0.5552261494 0.0070504741 0.1939376368
785295290.0 0.0532023154 0.1761736304 -0.0537588633 -0.5537236244 -0.0543805587 -0.5544083943 0.0087247325 0.1936785086
790295260.0 0.0554828741 0.1755614179 -0.0604963569 -0.5537453058 -0.0603715824 -0.5541125079 0.0110215837 0.1937716513
795295230.0 0.0573861724 0.1748647398 -0.0655241656 -0.5524856336 -0.065689814 -0.5527631208 0.0127271726 0.1946571558
800295200.0 0.0593523318 0.1745990549 -0.0724345414 -0.5520952283 -0.0725185933 -0.5524829588 0.0145544745 0.1940998006
805295170.0 0.0610499055 0.1739338298 -0.0777205589 -0.5505339692 -0.0778241421 -0.5513851412 0.0162946017 0.1940155052
810295140.0 0.0632084755 0.1737212659 -0.0839433845 -0.5503228671 -0.0835576825 -0.5511938413 0.0184131849 0.1944754956
815295110.0 0.0651302879 0.17304729 -0.0900256952 -0.5489994075 -0.0897082953 -0.549435111 0.0197856652 0.1938731408
820295080.0 0.0668702286 0.1719992553 -0.0956804113 -0.5482269901 -0.09583382 -0.5489398886 0.0216342495 0.1943237129
825295050.0 0.0689904159 0.1716007081 -0.1016353151 -0.5469520481 -0.1013419356 -0.5475033563 0.0239112639 0.1940243043
830295020.0 0.0709357492 0.1714168669 -0.1075879122 -0.5457847112 -0.1079537381 -0.5462945761 0.0253894219 0.1937640159
