!Created with skrf (http://scikit-rf.org).
# Hz S RI R 50.0 
!freq ReS11 ImS11 ReS21 ImS21 ReS12 ImS12 ReS22 ImS22
300000.0 -0.3154503447 -0.1268860475 0.3717268095 0.0646838146 0.3704280501 0.0647378605 -0.3138371339 -0.1311549332
5299970.0 -0.3248231287 0.0029148125 0.3783482399 0.0030343955 0.3787765143 0.003270438 -0.3260010663 0.0020140414
10299940.0 -0.3228538343 0.0140038184 0.3802950898 0.0027063013 0.3800152957 0.0032158368 -0.3235692516 0.0126314147
15299910.0 -0.3192513075 0.0224475901 0.3819562157 0.0027843487 0.3821775179 0.0026923975 -0.320622245 0.0199905763
20299880.0 -0.315746026 0.0291192621 0.3849384787 0.0017034481 0.3855267748 0.0018114909 -0.3177271215 0.0259742909
25299850.0 -0.3115376705 0.0346874803 0.3885055945 0.0004316959 0.3887060694 0.0001550814 -0.3146110693 0.0313749735
30299820.0 -0.3085547552 0.0394110024 0.392218846 -0.002027077 0.3919157191 -0.0020735624 -0.3120529575 0.0356048037
35299790.0 -0.3045082209 0.0434508265 0.3950766423 -0.0048878819 0.3954859719 -0.0053123497 -0.3092787133 0.0402902229
40299760.0 -0.3013945968 0.0467386266 0.3984744989 -0.0085238969 0.3985977347 -0.0086068701 -0.3066674634 0.0430425139
45299730.0 -0.2982516409 0.0500274755 0.4011798272 -0.0124746854 0.4018039152 -0.0127476687 -0.3036212662 0.046730984
50299700.0 -0.2947740701 0.0529340192 0.4038238688 -0.0175389384 0.4038670925 -0.0172265862 -0.3013246106 0.0495446539
55299670.0 -0.2923126423 0.0552421736 0.4057778098 -0.0215867554 0.4061511486 -0.0216358237 -0.2995880736 0.0520523414
60299640.0 -0.2896982546 0.0577796326 0.407923988 -0.0269814429 0.4076103767 -0.0268399684 -0.2970866292 0.0547897448
65299610.0 -0.2873528848 0.0601313915 0.4098504192 -0.0317355961 0.4098215718 -0.0317243063 -0.2952911611 0.0572419708
70299580.0 -0.2851492012 0.0619583931 0.4105277599 -0.0366270773 0.4109839547 -0.0367851744 -0.2936148144 0.0598765658
75299550.0 -0.2834519474 0.0643127268 0.4113532979 -0.0420905558 0.412049633 -0.0421609036 -0.2916868994 0.0624014205
80299520.0 -0.2819416392 0.066599209 0.412821386 -0.0473147859 0.4130183336 -0.0473486539 -0.2906440854 0.0649312849
85299490.0 -0.2797586373 0.0683384247 0.4135654664 -0.0524069541 0.4137303451 -0.0528199557 -0.2892554558 0.0671478773
90299460.0 -0.2783074218 0.0709265095 0.4138373306 -0.0579144811 0.4135066129 -0.0575598274 -0.2878120722 0.0693878656
95299430.0 -0.2770055261 0.0725259027 0.4142191835 -0.0631041159 0.4142802044 -0.063139483 -0.2868022827 0.0720006673
100299400.0 -0.2751397792 0.0748718701 0.4140260526 -0.0681986131 0.4138928205 -0.0683241314 -0.2852822328 0.0743210363
105299370.0 -0.2741473469 0.0769978024 0.4138400123 -0.0733015207 0.414208845 -0.0736341302 -0.2839404708 0.076356823
110299340.0 -0.2726633358 0.0786940291 0.4140490944 -0.0782996628 0.4144066002 -0.0782401299 -0.2832434506 0.0787021822
115299310.0 -0.2717209084 0.0809045986 0.413614085 -0.083172335 0.4135491334 -0.0838281729 -0.2823736959 0.0814690203
120299280.0 -0.2704610136 0.0833220875 0.4134660516 -0.0888395538 0.4130848088 -0.0890925752 -0.2811666551 0.08355909
125299250.0 -0.2693070226 0.0853718637 0.4122452018 -0.0940662132 0.4125629999 -0.0936912638 -0.2802577324 0.0859052541
130299220.0 -0.2684867914 0.0872480034 0.4122936496 -0.0989764022 0.4120180244 -0.0995954852 -0.279201232 0.0883287692
135299190.0 -0.2675866195 0.0901269727 0.4113444952 -0.1040156424 0.4113596012 -0.1042525056 -0.2782635034 0.0907788661
140299160.0 -0.2662873089 0.0920365189 0.4106796918 -0.1089569248 0.4105516462 -0.1087729887 -0.2779181828 0.09319852
145299130.0 -0.2654059932 0.0948424181 0.4097781682 -0.1141265239 0.4096274119 -0.1140334447 -0.2767259214 0.0956490457
150299100.0 -0.2643598623 0.0967920158 0.4086850507 -0.1189101228 0.408328421 -0.119169951 -0.2755744648 0.0985146314
155299070.0 -0.2631252322 0.0992973549 0.4067679121 -0.1237394862 0.4074291906 -0.1239298192 -0.2747438879 0.10102134
160299040.0 -0.2621890959 0.10196513 0.4062071935 -0.1287059927 0.4061948508 -0.1285992708 -0.2739878504 0.1037206251
165299010.0 -0.2613363394 0.104429328 0.4050651865 -0.1332546 0.404677581 -0.1334213341 -0.2727659558 0.1059127029
170298980.0 -0.2600969043 0.1064550083 0.4033319478 -0.1384211492 0.4038786704 -0.1386463588 -0.2721643666 0.1088908612
175298950.0 -0.259065474 0.1093400556 0.4020533764 -0.1429516614 0.4022812168 -0.1433864737 -0.2709757436 0.1113213083
180298920.0 -0.2581847115 0.1117952663 0.4006711204 -0.1481649556 0.4008893139 -0.1481585944 -0.269937492 0.1140868812
185298890.0 -0.2572336782 0.1143931797 0.3996021782 -0.1525127093 0.3990385351 -0.1527620182 -0.268478064 0.116597003
190298860.0 -0.2557185898 0.1172732092 0.3969113792 -0.1572605058 0.3980855031 -0.1570995032 -0.2681962962 0.1193370009
195298830.0 -0.2545963009 0.1198114895 0.3960834214 -0.1617068203 0.3961323276 -0.1619561123 -0.2668083647 0.1218902841
200298800.0 -0.2533449749 0.122076711 0.3942823476 -0.1668964571 0.3942118191 -0.1664987542 -0.2657247931 0.1244314267
205298770.0 -0.2527984172 0.1249322418 0.3922533238 -0.1710289698 0.3925040161 -0.1709782759 -0.2645710163 0.1269999212
210298740.0 -0.2516106897 0.1275255798 0.3906571496 -0.1756747593 0.3906954518 -0.1757731029 -0.2639565815 0.1299385285
215298710.0 -0.2505180615 0.130320229 0.388383736 -0.1797513461 0.3889832315 -0.1801745084 -0.2623445819 0.1328198407
220298680.0 -0.2488064754 0.1327311587 0.3863566827 -0.184792391 0.3867015537 -0.1848902949 -0.261245622 0.1353665673
225298650.0 -0.2478592048 0.1353499444 0.3844174451 -0.1887459233 0.3849220367 -0.1888469643 -0.26007834 0.1379685596
230298620.0 -0.2464123324 0.1380622569 0.3823045486 -0.1933188063 0.382964101 -0.1936250661 -0.2588063537 0.1408543995
235298590.0 -0.2457301764 0.1405621019 0.3810982711 -0.1978737083 0.3806230263 -0.1978150107 -0.2576193304 0.1432688379
240298560.0 -0.2440629678 0.1432835211 0.3782764592 -0.2019028142 0.3785747353 -0.2020648934 -0.2560123028 0.1458267043
245298530.0 -0.2430020019 0.1457209598 0.3763275761 -0.2065222599 0.3763329564 -0.2067387599 -0.2550582771 0.1488169056
250298500.0 -0.2413310785 0.148492714 0.3738924144 -0.2108534685 0.3741578294 -0.2106919323 -0.2535165107 0.151746699
255298470.0 -0.2401161201 0.1512976886 0.3716257646 -0.2147965121 0.3723247869 -0.2151182261 -0.2519277424 0.154417683
260298440.0 -0.2386828886 0.1534684618 0.3694617015 -0.2186086051 0.369304159 -0.2192649664 -0.2507214747 0.156946413
265298410.0 -0.2374337278 0.1565290101 0.3668819142 -0.2234104144 0.3665727694 -0.2235931953 -0.2485927798 0.1593661679
270298380.0 -0.2360214777 0.158718038 0.3642128093 -0.2275154714 0.3644769386 -0.2277287633 -0.2474315481 0.1623497418
275298350.0 -0.2346896217 0.1616288716 0.3615925908 -0.231315599 0.3620706929 -0.2315837366 -0.2456947498 0.1650702969
280298320.0 -0.2329793495 0.16399469 0.3592826966 -0.23473846 0.3597288916 -0.2358826085 -0.2444836644 0.1675958779
285298290.0 -0.2315473572 0.1665541043 0.3569805281 -0.2393391058 0.3570114598 -0.2395099219 -0.2429107849 0.1703713865
290298260.0 -0.2299521738 0.1692976102 0.3543397408 -0.2438335149 0.3544848422 -0.2439057802 -0.2411145913 0.1729342745
295298230.0 -0.2285950278 0.1713759071 0.3516784259 -0.2476381058 0.3516118138 -0.2478939645 -0.2394150364 0.1754089267
300298200.0 -0.2266858029 0.1743591444 0.3489805484 -0.2518062495 0.3487765428 -0.2513625426 -0.2374324972 0.1780645284
305298170.0 -0.2254310945 0.1768329446 0.3462028533 -0.255711532 0.3465447312 -0.2559306862 -0.2355451617 0.1806145574
310298140.0 -0.2232006416 0.1788349954 0.3431877268 -0.2595584754 0.3437477202 -0.2594471811 -0.2339529741 0.1830688802
315298110.0 -0.2217757365 0.1815302511 0.3408370299 -0.2637358547 0.3408176752 -0.2635344325 -0.2321832088 0.1852775776
320298080.0 -0.2201861942 0.1838445807 0.3370098888 -0.2676572264 0.3378876586 -0.2675830967 -0.2306241602 0.1879270242
325298050.0 -0.218785513 0.1859069751 0.3344132536 -0.2711129877 0.3350217226 -0.27093022 -0.2286508328 0.190174462
330298020.0 -0.21716155 0.1886582282 0.3314586193 -0.2750864553 0.3318562203 -0.2749560724 -0.2269029789 0.1926622687
335297990.0 -0.2153924025 0.1908749409 0.3282714127 -0.2783931124 0.3285322202 -0.2788536585 -0.2251884241 0.1953593705
340297960.0 -0.2135505711 0.1932102267 0.3244864822 -0.2825102042 0.3249936466 -0.2824574652 -0.2228930927 0.1981079966
345297930.0 -0.2117415451 0.1955870108 0.3217039921 -0.2863034029 0.3220680931 -0.2858996622 -0.2215216285 0.2003616693
350297900.0 -0.2100649367 0.1980320782 0.3187250828 -0.2892896095 0.3191429647 -0.2892749294 -0.2197538133 0.2027862018
355297870.0 -0.2083064446 0.2002511722 0.3155542514 -0.2924648679 0.3155818264 -0.2925842821 -0.2172089629 0.2056906064
360297840.0 -0.206424883 0.2029741872 0.312010538 -0.2965953582 0.3129829275 -0.2967249902 -0.2154500911 0.2078145054
365297810.0 -0.2045965648 0.2052347164 0.3091330605 -0.2995034891 0.308994791 -0.2996714222 -0.2130624898 0.2100778839
370297780.0 -0.2024581952 0.2073458097 0.30536696 -0.3032795478 0.3058234301 -0.3032319952 -0.2112325824 0.2128778942
375297750.0 -0.200597492 0.2096462833 0.3025143318 -0.3063121907 0.302722544 -0.306530878 -0.2090437585 0.2152279933
380297720.0 -0.1988090022 0.2121013601 0.2992284835 -0.3098793217 0.2992811428 -0.3099710511 -0.2069406342 0.2178273186
385297690.0 -0.1967579501 0.2140574388 0.2954383123 -0.3131397702 0.2956386985 -0.3134210214 -0.2044887528 0.2199807928
390297660.0 -0.1942591823 0.2162581442 0.292018878 -0.3159977958 0.2922458909 -0.3161418906 -0.2021177257 0.2218263714
395297630.0 -0.1919606128 0.2184172288 0.2886048551 -0.3191209634 0.2883369238 -0.3189950289 -0.199623088 0.2242878404
400297600.0 -0.1903349212 0.2206269236 0.2852955999 -0.3226792576 0.2853555181 -0.3222029061 -0.1974997005 0.2267040828
405297570.0 -0.188304615 0.2224826819 0.2814960303 -0.3257033547 0.2815314562 -0.3258831929 -0.1950244784 0.229088324
410297540.0 -0.1856019631 0.2250397247 0.2777718172 -0.3288304739 0.2778636871 -0.3286731061 -0.1927116109 0.2312094685
415297510.0 -0.1837369463 0.227113596 0.2742225145 -0.3318132592 0.2742850197 -0.3317949207 -0.1902387429 0.2335381446
420297480.0 -0.1812369085 0.2286684163 0.2706886853 -0.3344473317 0.2710644618 -0.3348124622 -0.1879445733 0.2359771713
425297450.0 -0.1785243383 0.2306691358 0.2668977088 -0.3374985103 0.2666886708 -0.3376724194 -0.1853323495 0.2375630471
430297420.0 -0.1764235226 0.2329786688 0.2634262754 -0.3407836174 0.2632859305 -0.3404204538 -0.1826348881 0.2398205819
435297390.0 -0.1745657209 0.2345239702 0.2592757603 -0.3435788941 0.2594271581 -0.3438196851 -0.180915866 0.2423255997
440297360.0 -0.1713676638 0.236749425 0.2552318599 -0.3462797763 0.2553709451 -0.3464176224 -0.1782261531 0.2440774344
445297330.0 -0.1691079036 0.2385742254 0.2520321885 -0.3489158755 0.2519452802 -0.349107605 -0.1754893367 0.2463503351
450297300.0 -0.1668385508 0.2405265335 0.2478812139 -0.3517873844 0.2483989143 -0.3516439645 -0.1730807625 0.248298578
455297270.0 -0.1646347255 0.2421383211 0.2442363338 -0.3541647393 0.2442481503 -0.3546694556 -0.17038088 0.2504474136
460297240.0 -0.1615865402 0.2439846318 0.2403137531 -0.3571712801 0.2404555403 -0.3572558277 -0.1675353841 0.2522581603
465297210.0 -0.1593665093 0.245929305 0.2359878841 -0.3594569793 0.235955271 -0.36001856 -0.1647658899 0.2544721476
470297180.0 -0.1564835957 0.2478310849 0.2320369399 -0.362104424 0.2322900894 -0.3621678423 -0.1623487929 0.2559298111
475297150.0 -0.1541739668 0.2495100452 0.2282592946 -0.3645809753 0.2281839195 -0.3649625873 -0.159317692 0.2580815451
480297120.0 -0.1510465004 0.2512590083 0.2241559779 -0.3671155898 0.2241052938 -0.3670975192 -0.1570232845 0.2599849828
485297090.0 -0.1486571688 0.2528173312 0.2200907115 -0.3694682718 0.2201441845 -0.3698322296 -0.154464179 0.2617171306
490297060.0 -0.1454162944 0.2545672337 0.2157296719 -0.3724027419 0.2162841756 -0.3721863767 -0.1515886581 0.2633173329
495297030.0 -0.1432555016 0.2561885704 0.2118948637 -0.3744880257 0.2117611315 -0.3742850964 -0.1485890014 0.2647691606
500297000.0 -0.1405023176 0.2580433989 0.2081884106 -0.3762843181 0.207627185 -0.376714025 -0.1455329591 0.2669750648
505296970.0 -0.1369082104 0.2596243301 0.2032906289 -0.3789598823 0.2037526626 -0.3785436675 -0.1429067214 0.2680412823
510296940.0 -0.1343805786 0.2611981692 0.1996174781 -0.3815809779 0.1994751494 -0.3814453734 -0.1394683484 0.2704303928
515296910.0 -0.1316989278 0.262973615 0.195113025 -0.3832784394 0.1948933948 -0.3831228522 -0.1374357249 0.2714993149
520296880.0 -0.1288209607 0.2640694039 0.1912104386 -0.3849697334 0.1908155055 -0.3849974694 -0.1339802691 0.2733121453
525296850.0 -0.1260250487 0.2657102486 0.1866552758 -0.3870240945 0.1864468834 -0.3870188225 -0.1313273677 0.2748872333
530296820.0 -0.1233985659 0.2670796446 0.1824165875 -0.3892048104 0.1824702581 -0.3890515812 -0.1281298933 0.2758707271
535296790.0 -0.1199591735 0.2684385163 0.1783598327 -0.3910680075 0.1783316698 -0.3912375346 -0.1253766384 0.2778987003
540296760.0 -0.1170185514 0.2700470775 0.1737201601 -0.3932173684 0.1735971131 -0.3925984013 -0.1228391791 0.2789432789
545296730.0 -0.1145764146 0.2717914811 0.1698016376 -0.3943146113 0.1692845233 -0.3944431042 -0.1193418539 0.2804471958
550296700.0 -0.1114259292 0.2729605166 0.1652779339 -0.396725846 0.1647017429 -0.3968625115 -0.1164756778 0.281923648
555296670.0 -0.108438783 0.2744715462 0.1609568571 -0.3985781746 0.1607575965 -0.3982474967 -0.113708162 0.2829715418
560296640.0 -0.1049979148 0.2753767297 0.1562256166 -0.3999364245 0.1566717906 -0.3999438407 -0.1105423748 0.2846725878
565296610.0 -0.1026674074 0.2768153611 0.1525295858 -0.4018742458 0.1523372457 -0.4016631898 -0.107701946 0.286189357
570296580.0 -0.0996217789 0.2783223705 0.1474995908 -0.4032416451 0.147544668 -0.4032604431 -0.1047713351 0.2873870437
575296550.0 -0.0962391137 0.2794736404 0.143422588 -0.4051657183 0.1432144202 -0.4048656677 -0.101554271 0.2885854538
580296520.0 -0.0935342288 0.2807972239 0.1390125807 -0.4061196669 0.1387113158 -0.4063961309 -0.0986070646 0.28971514
585296490.0 -0.0903778334 0.282058142 0.1347711557 -0.4074870527 0.1341003554 -0.4076685255 -0.0953266365 0.2910353131
590296460.0 -0.0870408384 0.282945329 0.1301767865 -0.409348187 0.1301060376 -0.4092114162 -0.0926453196 0.2922511554
595296430.0 -0.083831517 0.2844268599 0.124966822 -0.4105143868 0.1250553592 -0.4102412682 -0.0891032221 0.2930950122
600296400.0 -0.0807930522 0.2853032373 0.1206906987 -0.4115965315 0.1207979432 -0.4119066533 -0.0860841529 0.294337464
605296370.0 -0.0778744605 0.286279978 0.1168435308 -0.4128150399 0.116064489 -0.4131377858 -0.0830401575 0.295317886
610296340.0 -0.0744531336 0.2875534305 0.1119546546 -0.4137839495 0.1121141969 -0.4143505384 -0.0799803824 0.2963774677
615296310.0 -0.0712442641 0.2883981782 0.1075061924 -0.4153789371 0.1068242529 -0.4155303065 -0.0764039555 0.2972880247
620296280.0 -0.0684003802 0.2897454951 0.1027874888 -0.4166296678 0.1026190336 -0.4164066937 -0.0736467011 0.2985142993
625296250.0 -0.0652067911 0.2902884791 0.0983177357 -0.4175852811 0.0982975354 -0.4173624075 -0.0706108283 0.2988765566
630296220.0 -0.0619634417 0.2915880442 0.0933272838 -0.4183683887 0.0935226655 -0.4185470136 -0.0672773302 0.2998488088
635296190.0 -0.0590471565 0.2927507306 0.0893851835 -0.4193524619 0.0890581346 -0.4194241639 -0.0644474596 0.3010268133
640296160.0 -0.0558402021 0.2931656441 0.084217019 -0.4204475567 0.0845609303 -0.4203880656 -0.06137531 0.3015020829
645296130.0 -0.0528530861 0.2942830202 0.0799140052 -0.4211213359 0.0798555874 -0.4210158811 -0.0580960484 0.3021028584
650296100.0 -0.0497712716 0.2952622227 0.0755492798 -0.422395226 0.0753131665 -0.4221796059 -0.0543119524 0.3028024622
655296070.0 -0.0466669984 0.2956420957 0.0708815659 -0.4227266445 0.0704035514 -0.4225880518 -0.0518221215 0.3039267046
660296040.0 -0.0434446125 0.2965272285 0.0661761473 -0.4232521677 0.0661046189 -0.4235058524 -0.0480333944 0.3043774619
665296010.0 -0.040620075 0.2973659967 0.0615904014 -0.4235170758 0.061191059 -0.4237421901 -0.0451146233 0.3048954158
670295980.0 -0.0372211997 0.2983317918 0.0568972376 -0.4246981105 0.0565909871 -0.4242024389 -0.041989614 0.3052875054
675295950.0 -0.0340367203 0.2987695389 0.0523591343 -0.4250204335 0.0521486529 -0.4254255769 -0.0388138727 0.3065049944
680295920.0 -0.0312376337 0.2993408936 0.0480589287 -0.4254375053 0.0475056682 -0.4253581959 -0.0350873505 0.3065123491
685295890.0 -0.0276455949 0.3001466489 0.0431229683 -0.4265759662 0.0430276825 -0.4264590321 -0.0321390431 0.3074490998
690295860.0 -0.0246930886 0.3006569571 0.0386613251 -0.4265477691 0.0382505653 -0.4267280668 -0.0289644123 0.3079031805
695295830.0 -0.0216190279 0.3011692467 0.0343179045 -0.4267914435 0.0337465343 -0.4269091391 -0.0259794237 0.3085432093
700295800.0 -0.0183866328 0.3017430421 0.029838992 -0.427112419 0.0295501241 -0.4274108932 -0.0226238678 0.3088575002
705295770.0 -0.0156158462 0.302207565 0.0248861282 -0.4272980698 0.024896337 -0.4275719481 -0.0194102654 0.3094376161
710295740.0 -0.0125526081 0.3024114604 0.0203799192 -0.4275476675 0.019884332 -0.4276057713 -0.0159046834 0.3094147932
715295710.0 -0.009085349 0.3029700359 0.0156748421 -0.4280526743 0.0155294267 -0.4278103977 -0.0128025872 0.3095051525
720295680.0 -0.0055725592 0.303202268 0.0108732736 -0.4278321929 0.0108173098 -0.4280788258 -0.009375634 0.3097517627
725295650.0 -0.0030537984 0.3034268409 0.0065528515 -0.4277920054 0.0063309586 -0.4280829936 -0.0066686777 0.3103929527
730295620.0 -0.0003201016 0.3038862015 0.0019202027 -0.4275296151 0.0016210531 -0.4277779321 -0.0033950795 0.3109119896
735295590.0 0.0029421083 0.3041288906 -0.0029481144 -0.4278660223 -0.0027325008 -0.4281763276 9.8279e-06 0.3104288137
740295560.0 0.0057537807 0.304379079 -0.0075275191 -0.4279800746 -0.0072714366 -0.4284128694 0.0031959381 0.3109540158
745295530.0 0.0092626413 0.3046681486 -0.0120388014 -0.4271982104 -0.0118005348 -0.4275745595 0.0062438344 0.3111430125
750295500.0 0.012073521 0.3048597761 -0.0162169624 -0.4277010207 -0.0168117346 -0.4276992945 0.009649005 0.3110201191
755295470.0 0.0152340734 0.3048635539 -0.0210697394 -0.4273671133 -0.02131792 -0.4278053083 0.0128754892 0.3113847504
760295440.0 0.0182708625 0.305022031 -0.0261788312 -0.427101379 -0.0259953045 -0.4270291228 0.016580822 0.3106530592
765295410.0 0.0216210019 0.3049515017 -0.0305367372 -0.4266131057 -0.0306309749 -0.426946754 0.0195757635 0.3112070194
770295380.0 0.0243136228 0.3051487985 -0.0350281319 -0.4262762966 -0.0348926016 -0.4265426547 0.0224801192 0.3107480062
775295350.0 0.0274222542 0.3050672541 -0.0396492527 -0.4260156404 -0.0397614622 -0.4256921192 0.0260004272 0.3107927853
780295320.0 0.0308427676 0.3054025979 -0.0440466204 -0.4249537984 -0.044198642 -0.4253026534 0.0297843246 0.3108317832
785295290.0 0.0335592214 0.3046751217 -0.0486571012 -0.4247236699 -0.048754297 -0.4250313108 0.0324081865 0.3109712244
790295260.0 0.0365698274 0.304565695 -0.0532646668 -0.4244619148 -0.0529545013 -0.4246646776 0.0356979445 0.3109570691
795295230.0 0.0398958293 0.3042667345 -0.057886869 -0.4236257221 -0.0579910736 -0.4237869785 0.0388450419 0.3096889891
800295200.0 0.0425452059 0.3043639395 -0.0619890792 -0.4229134613 -0.0624621547 -0.42342653 0.0418572189 0.3100265549
805295170.0 0.0455059363 0.3041966965 -0.0667950628 -0.4225385858 -0.0668771907 -0.4228651575 0.0457518919 0.3095000121
810295140.0 0.0490255707 0.3038479932 -0.0712967799 -0.4211550778 -0.0715253849 -0.4217226304 0.0490056662 0.3091345439
815295110.0 0.0518192894 0.3037772948 -0.0759220898 -0.4206790065 -0.0758587435 -0.4210339814 0.0519298202 0.3088620315
820295080.0 0.0547555448 0.303357287 -0.0802233697 -0.4198394461 -0.0803779792 -0.4202201043 0.0545332742 0.3089346355
825295050.0 0.0574623127 0.3026323201 -0.0849158063 -0.419158075 -0.0847208561 -0.4188555522 0.0584615065 0.3082226445
830295020.0 0.0609869493 0.3024516708 -0.0894798301 -0.4181538112 -0.0893341228 -0.4181092517 0.0613349392 0.3074433372
