!Created with skrf (http://scikit-rf.org).
# Hz S RI R 50.0 
!freq ReS11 ImS11 ReS21 ImS21 ReS12 ImS12 ReS22 ImS22
300000.0 -0.2400674547 -0.0810662514 0.4722083334 0.053926876 0.4679497421 0.0528639789 -0.2400305418 -0.0934372385
5299970.0 -0.2439644569 0.0071073339 0.4732898678 0.0049025085 0.4737122737 0.0050908996 -0.2440929765 0.0072376795
10299940.0 -0.2410590324 0.0188533869 0.4754637649 0.0060321526 0.4755598392 0.0061588947 -0.2408255428 0.0202499564
15299910.0 -0.2366600227 0.027919286 0.479322934 0.0074348881 0.4792208182 0.0077943224 -0.2361267166 0.0297924031
20299880.0 -0.2320510706 0.0354146922 0.4837310888 0.0086764531 0.4837060461 0.0083365258 -0.2309485573 0.0373676272
25299850.0 -0.2267722485 0.04210569 0.4888663603 0.0075602681 0.4889274891 0.0073851228 -0.2248256067 0.0439923408
30299820.0 -0.2214783664 0.0470883607 0.4944572066 0.0053614292 0.4944798538 0.0054256213 -0.2190195565 0.0490532382
35299790.0 -0.2161053547 0.0515033524 0.500109181 0.0021362349 0.4998630268 0.0019129023 -0.2138194561 0.0535395822
40299760.0 -0.2115191252 0.0551076748 0.5050546325 -0.0016293959 0.5050721836 -0.0015960245 -0.2081558348 0.0559396742
45299730.0 -0.2064455245 0.0578066712 0.5092916582 -0.0066022791 0.5099513016 -0.0063649478 -0.2032890555 0.0589527996
50299700.0 -0.2021747955 0.0601638622 0.5143386987 -0.01255343 0.5140156178 -0.0118028669 -0.198401602 0.060698044
55299670.0 -0.1986014908 0.0618034379 0.5177288498 -0.0184817477 0.5177668491 -0.0181076903 -0.1941126003 0.0624523581
60299640.0 -0.1940411636 0.0635266765 0.521048348 -0.0246195048 0.5213871124 -0.0238517396 -0.190408252 0.0628112512
65299610.0 -0.1913748427 0.0644537847 0.5241900297 -0.0309467164 0.5238660687 -0.030890603 -0.186912737 0.0641239174
70299580.0 -0.1880118642 0.0663485487 0.5266661493 -0.0373887914 0.5265520344 -0.0371166346 -0.1836221689 0.0648433641
75299550.0 -0.1849532382 0.0673605614 0.5284094448 -0.043945961 0.5284196314 -0.0441552041 -0.1808752947 0.065394359
80299520.0 -0.1822650394 0.0681629768 0.5306038149 -0.0512299019 0.5305001389 -0.0511797514 -0.1783829416 0.065779176
85299490.0 -0.1802469434 0.0689272768 0.5318643008 -0.0576352148 0.5317238761 -0.0576350646 -0.1759307925 0.0662918563
90299460.0 -0.1781904614 0.0697407452 0.5329964393 -0.0647436191 0.5329098973 -0.0646889444 -0.1736011554 0.0666832411
95299430.0 -0.1756802761 0.0701672006 0.5336850899 -0.0716691127 0.5335333222 -0.0719850324 -0.1715201995 0.0674533661
100299400.0 -0.173862489 0.0716153948 0.5333852003 -0.078182696 0.5339424108 -0.078575307 -0.169378473 0.0672759104
105299370.0 -0.1719617614 0.0724139853 0.5340413887 -0.0859017497 0.5343572019 -0.0853969293 -0.167670599 0.0680036516
110299340.0 -0.1704179229 0.0733544903 0.5349857538 -0.0918908156 0.5342775308 -0.0922321176 -0.1662645595 0.0682558707
115299310.0 -0.1688846464 0.0741258149 0.5344591384 -0.0995311172 0.5346218743 -0.0990010719 -0.1649397717 0.0686459326
120299280.0 -0.167349741 0.0746735996 0.5342720622 -0.1059979441 0.5342402513 -0.1061018234 -0.1634156885 0.0697711856
125299250.0 -0.1659077779 0.0754632647 0.533901164 -0.1125059642 0.5337404314 -0.1126133387 -0.1624994541 0.0696796491
130299220.0 -0.1650498001 0.0769035441 0.5329984719 -0.1191722212 0.5331541088 -0.1193572887 -0.161072194 0.0703672574
135299190.0 -0.1637542255 0.0780014972 0.5330419953 -0.1259772463 0.5325320063 -0.1259026701 -0.1594798596 0.0710101072
140299160.0 -0.1625907192 0.0791047732 0.5320096046 -0.1329635873 0.5317883165 -0.1328723619 -0.1588020812 0.0722577986
145299130.0 -0.161536308 0.0798931563 0.5311286443 -0.1392539466 0.5309469039 -0.1394934278 -0.1580116584 0.0725278909
150299100.0 -0.1601164969 0.0810863862 0.5298597605 -0.1454764817 0.5297973077 -0.1456792505 -0.1568825313 0.0739970117
155299070.0 -0.1596256754 0.0822081825 0.5287535932 -0.1529693886 0.5285649425 -0.1524794278 -0.15591526 0.0746764595
160299040.0 -0.1582637807 0.0833366178 0.527259652 -0.1591142301 0.5268083493 -0.1588925731 -0.1554331384 0.0754852475
165299010.0 -0.1575016608 0.0847362995 0.5258011818 -0.1654226108 0.5257111714 -0.1654474149 -0.1541500506 0.0766227567
170298980.0 -0.1565213386 0.0858638615 0.5243015687 -0.1720476131 0.5243725026 -0.1716839463 -0.1533466334 0.0775915945
175298950.0 -0.155356292 0.0870873787 0.523263623 -0.1779667967 0.522428312 -0.1780138419 -0.1527126076 0.0788303697
180298920.0 -0.1546375103 0.0883323846 0.5208403047 -0.184229365 0.5204302764 -0.1837983167 -0.1520771797 0.0798701392
185298890.0 -0.1533780583 0.0894450128 0.5191166974 -0.1903809522 0.5189789291 -0.1903975711 -0.151437609 0.0809936208
190298860.0 -0.1528421845 0.0911391895 0.5173331302 -0.1968789428 0.517488768 -0.1965535048 -0.1507637726 0.0816677645
195298830.0 -0.1520138727 0.092113567 0.5150246213 -0.2025395067 0.5152123365 -0.2023534789 -0.1498812447 0.0828014136
200298800.0 -0.1507508664 0.0934934855 0.5134557137 -0.208976696 0.5131085395 -0.2088992621 -0.1495453329 0.083977269
205298770.0 -0.149839468 0.0950797844 0.5107628218 -0.2153677323 0.5109748561 -0.2147185292 -0.1483724817 0.0846206074
210298740.0 -0.1489464801 0.0959232573 0.5081968814 -0.2206982828 0.5085148859 -0.2206417786 -0.1476085193 0.0866653366
215298710.0 -0.1483167121 0.0978187484 0.5061949816 -0.2269828462 0.5061934563 -0.2272243348 -0.1471743673 0.0877384172
220298680.0 -0.1470945789 0.0987569896 0.5035629695 -0.2329233294 0.5035977388 -0.232646452 -0.1468486225 0.088540282
225298650.0 -0.1459645518 0.1002732056 0.5014242179 -0.2385720833 0.5014498225 -0.2391618917 -0.1461813515 0.0897528957
230298620.0 -0.1450826831 0.1019913688 0.4989811388 -0.2440144272 0.4996430683 -0.2444883515 -0.1455800015 0.0907613434
235298590.0 -0.1439632509 0.103822879 0.4961272406 -0.2501592868 0.4964774061 -0.2497851062 -0.1448205613 0.0921907691
240298560.0 -0.1430289485 0.1047699067 0.4936789188 -0.2562740434 0.4933537686 -0.2561295947 -0.1438344356 0.0936525788
245298530.0 -0.1422201677 0.1062538013 0.4911523581 -0.2617749419 0.4907412961 -0.2618658546 -0.1427287806 0.0941110261
250298500.0 -0.1408193162 0.1078941655 0.4873669398 -0.2677495234 0.4875240573 -0.2672090217 -0.1424784981 0.0958592699
255298470.0 -0.1398638457 0.1090668174 0.4843862623 -0.2726646025 0.4847237723 -0.2727868598 -0.1417038988 0.0968507978
260298440.0 -0.1391815678 0.1106848984 0.4820198275 -0.2790766008 0.4821873036 -0.2783871372 -0.1403426724 0.0982116697
265298410.0 -0.1375444721 0.1124447415 0.4787036563 -0.2843396794 0.4792720716 -0.2837985692 -0.1399934319 0.099445446
270298380.0 -0.1365709604 0.1137919314 0.475967397 -0.2890706681 0.4761321365 -0.289198477 -0.138814604 0.1009824285
275298350.0 -0.1352545516 0.1151357443 0.4725947555 -0.2949672628 0.4731202863 -0.2946474292 -0.138074723 0.101561919
280298320.0 -0.133857034 0.1168344617 0.4696160701 -0.3000152075 0.4696938791 -0.299777726 -0.1368106346 0.1030536907
285298290.0 -0.13280101 0.118075594 0.466287386 -0.3051079137 0.4663728656 -0.3054721804 -0.135894886 0.1038412276
290298260.0 -0.1315578685 0.1196011 0.4629189326 -0.3106661032 0.4627985854 -0.3105566606 -0.134905566 0.1058435154
295298230.0 -0.1301245154 0.1207848572 0.4598996654 -0.315704339 0.4595231793 -0.3159553404 -0.1337226744 0.1066271806
300298200.0 -0.1292625401 0.1225226096 0.4565343606 -0.3209296263 0.4562480512 -0.3213641654 -0.1329225158 0.1080734661
305298170.0 -0.127464443 0.1236282267 0.452304565 -0.3268822857 0.4526327611 -0.3263726295 -0.131277539 0.1090360124
310298140.0 -0.1266560043 0.1250807797 0.4492797207 -0.3317582857 0.4493736797 -0.3316856473 -0.1305552997 0.1103827958
315298110.0 -0.125302904 0.1264862675 0.4455928992 -0.3366772592 0.445705459 -0.3370705131 -0.1295660173 0.1112717916
320298080.0 -0.123625522 0.127693046 0.4413257205 -0.34206003 0.441548088 -0.3419900247 -0.1287206794 0.1127678926
325298050.0 -0.1225482752 0.1288698331 0.4381800531 -0.3475069539 0.4375859772 -0.3467730017 -0.1279017996 0.1142329484
330298020.0 -0.1215000315 0.1300101905 0.4339713885 -0.3522188956 0.4338834471 -0.3521509368 -0.1269757396 0.1151019953
335297990.0 -0.1201569521 0.1308809731 0.4298553401 -0.3566487034 0.4293659285 -0.3568898123 -0.1267772295 0.1169480006
340297960.0 -0.1195364064 0.133139332 0.4253233593 -0.3617700937 0.4254784599 -0.3619692545 -0.1250373794 0.1181771733
345297930.0 -0.1178162067 0.1342222074 0.4214291139 -0.3666287855 0.4213050101 -0.3664925081 -0.1241658262 0.119065599
350297900.0 -0.1164624414 0.135592715 0.4166929944 -0.3711764518 0.4171836901 -0.3709785206 -0.1233586591 0.1210112459
355297870.0 -0.1148563332 0.1374481417 0.4127590169 -0.3755890396 0.4130825475 -0.3755953634 -0.1224242031 0.1219080502
360297840.0 -0.1136007685 0.1387402091 0.4095475317 -0.3800341966 0.4093762946 -0.3800378858 -0.121116375 0.123884374
365297810.0 -0.1122972876 0.1402696217 0.404790031 -0.3845997878 0.405205123 -0.3847937446 -0.1201894341 0.1251620404
370297780.0 -0.1107489698 0.1411942509 0.4005239769 -0.3889372952 0.4008610081 -0.3885496336 -0.1193749719 0.1262696691
375297750.0 -0.1092715419 0.1428055045 0.3961887078 -0.3934745846 0.3967018251 -0.3936545232 -0.1179032034 0.127251084
380297720.0 -0.1078414703 0.1441596592 0.3917756884 -0.3980323223 0.3918934242 -0.3971109059 -0.1170604807 0.1284013858
385297690.0 -0.1066341759 0.1454900308 0.3877335273 -0.4019592306 0.3873283285 -0.4018448922 -0.1155709892 0.1303600346
390297660.0 -0.1046345769 0.1470436454 0.3831124733 -0.4066538116 0.3830263923 -0.4061790253 -0.1146673149 0.1311754471
395297630.0 -0.1032895832 0.1482692075 0.3791262982 -0.410574721 0.3785648156 -0.4104042264 -0.1130980806 0.1322722979
400297600.0 -0.1016290488 0.1496917925 0.3738612805 -0.4152834981 0.3742161952 -0.4143242168 -0.1121221636 0.1336121201
405297570.0 -0.1002236757 0.1506167349 0.3694399203 -0.4185188537 0.3694427488 -0.4181261778 -0.1111248564 0.1349263414
410297540.0 -0.0984625606 0.1516291329 0.3650742168 -0.4228181722 0.3651449566 -0.4227755721 -0.1102516254 0.1364296522
415297510.0 -0.0966420943 0.1530322079 0.3599687872 -0.4269532045 0.3603952227 -0.4268042677 -0.1087967769 0.1375894152
420297480.0 -0.0952593578 0.1546302935 0.3554422566 -0.4307705255 0.3553216248 -0.4307777987 -0.1074824652 0.1384999477
425297450.0 -0.0933014555 0.1551414839 0.3506720058 -0.434206239 0.3513791169 -0.434793546 -0.1068130545 0.1401553725
430297420.0 -0.0917439562 0.1567473127 0.3458090215 -0.4377128754 0.3455892598 -0.4380103108 -0.1051137509 0.1408143906
435297390.0 -0.0903214945 0.1578921601 0.3408606339 -0.442071285 0.3407620393 -0.4421814166 -0.1032304796 0.1420590365
440297360.0 -0.0883443725 0.1591393725 0.3361334564 -0.4458742176 0.3362708583 -0.4459769694 -0.102306369 0.1429508115
445297330.0 -0.0867171956 0.1597807119 0.3316966456 -0.4491311148 0.3314241632 -0.4492607551 -0.1008390384 0.1437919337
450297300.0 -0.0848511419 0.1610876869 0.3267289828 -0.4529787766 0.3266035846 -0.4533255624 -0.0996174516 0.1447259705
455297270.0 -0.0832144269 0.1619354901 0.321501912 -0.4565416276 0.3218857358 -0.4566459227 -0.0984524157 0.1456810728
460297240.0 -0.0814637989 0.163126964 0.3165043899 -0.4600708645 0.3165005242 -0.4600595655 -0.0969962607 0.1472833826
465297210.0 -0.0793075429 0.1643843719 0.3114987736 -0.4633702183 0.3116411427 -0.4637552536 -0.0953006188 0.1479317655
470297180.0 -0.0775026716 0.1651624248 0.3060598627 -0.466666735 0.3061584229 -0.4669416731 -0.0932906274 0.1491950585
475297150.0 -0.0760280653 0.1658206581 0.3013431656 -0.469562015 0.3017484632 -0.4693853249 -0.0916877725 0.1500703334
480297120.0 -0.0742347151 0.1674533184 0.29621796 -0.4737050667 0.2958803764 -0.4735251887 -0.0903425617 0.1513696278
485297090.0 -0.0725134373 0.1680829102 0.2911058026 -0.4759202638 0.2911315545 -0.4761996215 -0.0890289717 0.1522677373
490297060.0 -0.0709453985 0.1691060291 0.28576782 -0.47960701 0.2857114677 -0.4791709819 -0.0875284033 0.1532537098
495297030.0 -0.0689036306 0.1699128395 0.2801677623 -0.4824876306 0.2805672542 -0.4825603833 -0.0865283195 0.1542241788
500297000.0 -0.0670556568 0.1704868593 0.275218201 -0.4848932777 0.2747355574 -0.4853050384 -0.084371979 0.155768763
505296970.0 -0.0649877602 0.1715211956 0.2698094552 -0.4885596537 0.2696091639 -0.4883628276 -0.0833382353 0.1565055729
510296940.0 -0.0632010209 0.1726593006 0.2644256923 -0.4914236785 0.2642795442 -0.4916827612 -0.0813859901 0.1575827589
515296910.0 -0.0610030538 0.1734192312 0.2591155901 -0.4943728223 0.2590809294 -0.4941582672 -0.0801142902 0.1584560134
520296880.0 -0.0594930371 0.1742667774 0.253807902 -0.4970150304 0.2537601273 -0.4967273747 -0.0788015936 0.1593514743
525296850.0 -0.0573890646 0.1745705863 0.2481185652 -0.4997412348 0.2486282759 -0.4997163463 -0.0774537161 0.1602049978
530296820.0 -0.0551407399 0.1756560231 0.2425678847 -0.5022590752 0.242521095 -0.5022690149 -0.0756923726 0.161321837
535296790.0 -0.0537093559 0.1763066961 0.2377555381 -0.5046997248 0.2374988479 -0.5042896508 -0.0743276918 0.1617160935
540296760.0 -0.0519176218 0.1777197551 0.2317838149 -0.5079917355 0.2317382925 -0.5074904191 -0.072907959 0.163470609
545296730.0 -0.0498516688 0.1777467534 0.2258756515 -0.5097111846 0.2261763246 -0.5100153917 -0.0714297483 0.1639386967
550296700.0 -0.0474402367 0.1787416342 0.2201424091 -0.5123878502 0.220838252 -0.5122427753 -0.0697492684 0.1650190258
555296670.0 -0.0458706478 0.1793918276 0.2153529595 -0.5144628616 0.2153662824 -0.5145942337 -0.06804232 0.1659197978
560296640.0 -0.0436471534 0.1801926392 0.2091707617 -0.5171473304 0.209371333 -0.5171653763 -0.0664221743 0.1666746335
565296610.0 -0.0419964021 0.180705721 0.2037678114 -0.519422254 0.2041147405 -0.5192290725 -0.0651105582 0.167238657
570296580.0 -0.0400136645 0.1810984438 0.1981723475 -0.5217395343 0.1978768374 -0.5213884587 -0.0638072729 0.1683458715
575296550.0 -0.0382812421 0.1820413154 0.1928151466 -0.5241794024 0.1923671156 -0.5236726522 -0.0618241624 0.1688634687
580296520.0 -0.0355677968 0.182435833 0.186787054 -0.5259540341 0.18655821 -0.5257474306 -0.0602369029 0.169386953
585296490.0 -0.0341060065 0.1825871145 0.1810318467 -0.5270557519 0.1812717217 -0.5277699376 -0.0587869368 0.1702952319
590296460.0 -0.0316206443 0.1834530638 0.1757839455 -0.528715742 0.1755195609 -0.5289992716 -0.0572919885 0.1710394055
595296430.0 -0.0296077765 0.1839008804 0.1691980272 -0.5312467326 0.1694483841 -0.5311252319 -0.0552568486 0.17120213
600296400.0 -0.0280335925 0.1845570061 0.1637903838 -0.5331626616 0.1638289607 -0.5328349917 -0.0541141047 0.1720168298
605296370.0 -0.0257943084 0.1848591215 0.1579513809 -0.5345852576 0.1581511626 -0.5349191021 -0.0520011379 0.1729412199
610296340.0 -0.0238867335 0.1851577241 0.1522157786 -0.5363958 0.1522072403 -0.5362952427 -0.050267683 0.1733691654
615296310.0 -0.0215196622 0.1853035314 0.1460850625 -0.5377591685 0.1459361653 -0.5381634691 -0.0484292332 0.1739593469
620296280.0 -0.0196953917 0.1856023239 0.140382059 -0.5391777386 0.1406176423 -0.5393150824 -0.0472164837 0.1746569761
625296250.0 -0.0176500916 0.1858170353 0.1350573411 -0.5409170836 0.1345553487 -0.5412504038 -0.0448976282 0.1749949439
630296220.0 -0.0150527102 0.1865073723 0.1283049558 -0.542379319 0.1281915148 -0.5424310906 -0.043543379 0.1758573125
635296190.0 -0.0136432454 0.1865300113 0.1227589768 -0.5436216313 0.1228325518 -0.5437191429 -0.0415629376 0.1765108518
640296160.0 -0.0116465228 0.1869366426 0.1170210561 -0.5447851593 0.1173613348 -0.5451883372 -0.0398647758 0.1767404213
645296130.0 -0.0094133255 0.1872438621 0.1108718089 -0.5458283841 0.1113196832 -0.5458941528 -0.0381354427 0.1777422368
650296100.0 -0.0072150742 0.1872279353 0.105226778 -0.5468246017 0.105342068 -0.5471383509 -0.0360763673 0.1774691206
655296070.0 -0.0053964657 0.1876816324 0.0994483533 -0.5485081434 0.0995387729 -0.5480395431 -0.0344305868 0.1782881627
660296040.0 -0.003819371 0.1874953473 0.0936112127 -0.5490403842 0.093358122 -0.5494197288 -0.0323687967 0.1788769493
665296010.0 -0.0008868309 0.1875950476 0.0871585007 -0.550103389 0.0874073905 -0.5500662963 -0.0307705309 0.1796931531
670295980.0 -6.88703e-05 0.1883442074 0.0811990929 -0.5508188505 0.0811754979 -0.5512164426 -0.0294343957 0.1797731833
675295950.0 0.0028478395 0.188364889 0.0757589659 -0.5516184299 0.0756205172 -0.5516666939 -0.0275537326 0.180514722
680295920.0 0.0044808842 0.1880025639 0.0692533858 -0.5522312103 0.0687851614 -0.5529830842 -0.025474068 0.1812697972
685295890.0 0.0069967538 0.1889621472 0.0636727588 -0.5530983423 0.0633303375 -0.5531210719 -0.0240803905 0.181530669
690295860.0 0.0092706485 0.1889488686 0.0573369848 -0.5535136971 0.0574687621 -0.5539627928 -0.0222969655 0.1824898696
695295830.0 0.0114099296 0.1885087353 0.0514848465 -0.554409311 0.0512793025 -0.5546028402 -0.0202711613 0.1826114378
700295800.0 0.0132176154 0.1883326734 0.0454982541 -0.5545033282 0.0451267055 -0.5548476722 -0.0188892311 0.1834250237
705295770.0 0.0150474346 0.1892099333 0.0393759496 -0.5554344327 0.0398186217 -0.5553059304 -0.0171311466 0.1837511848
710295740.0 0.0173012713 0.1886247467 0.0337621808 -0.5563740966 0.0339586022 -0.5561294197 -0.0151950471 0.1837439248
715295710.0 0.0192687819 0.1885069988 0.0279243869 -0.5559568856 0.0274773411 -0.5557520828 -0.0132728394 0.1840067734
720295680.0 0.0213711658 0.18863714 0.0219590827 -0.5564886706 0.0218929689 -0.5563353768 -0.0117424783 0.1845254421
725295650.0 0.0238736572 0.1886535561 0.0156698684 -0.5568062475 0.015894249 -0.5568461028 -0.0103181925 0.1851307058
730295620.0 0.025911759 0.1884519208 0.0094725341 -0.5563673753 0.0097329082 -0.5567703837 -0.0085090879 0.1849925447
735295590.0 0.0276963985 0.1880730396 0.0037018032 -0.5565292764 0.0035054579 -0.5567277808 -0.0068929738 0.1846940944
740295560.0 0.0295123793 0.1882302991 -0.0023285548 -0.556531934 -0.0024967621 -0.5563583087 -0.0043002609 0.1853987684
745295530.0 0.0319936803 0.1882407268 -0.0085329355 -0.5560517769 -0.0086836323 -0.5564089235 -0.0026323931 0.1851544076
750295500.0 0.0341040799 0.1878344982 -0.0143886115 -0.5561680263 -0.0145580428 -0.5564362495 -0.0012055116 0.185646062
755295470.0 0.0361590798 0.1873361474 -0.0203244497 -0.5560253619 -0.0205515965 -0.5560330633 0.0010019791 0.1853899622
760295440.0 0.0378384682 0.187134336 -0.0262060731 -0.5563870582 -0.0265491736 -0.5561441116 0.0025305196 0.185675444
765295410.0 0.0402189312 0.1868912948 -0.0324475362 -0.5557994812 -0.0327211652 -0.5555662235 0.004477208 0.1861837528
770295380.0 0.0417746795 0.186545125 -0.0383293573 -0.5550695705 -0.0384893456 -0.5550568207 0.005734589 0.1857441243
775295350.0 0.0437397313 0.1857950054 -0.0441710744 -0.554176595 -0.0440859652 -0.5544418101 0.0074110677 0.186130262
780295320.0 0.046393542 0.1857886382 -0.050899194 -0.5539970923 -0.0500918974 -0.5539531461 0.0093404732 0.1856552563
785295290.0 0.047873443 0.1849990886 -0.0566505286 -0.5526856962 -0.0563010484 -0.5536719152 0.0116101841 0.1861391907
790295260.0 0.0504909106 0.1851242266 -0.0617928005 -0.5527300242 -0.0613698544 -0.5524824254 0.0133171826 0.1859775682
795295230.0 0.0523979968 0.1843619364 -0.0680729029 -0.5517670077 -0.0675292068 -0.5518417597 0.0154669383 0.1861728747
800295200.0 0.0540595381 0.1842662091 -0.074389452 -0.5508665168 -0.073746474 -0.5508896856 0.0168191416 0.1860972505
805295170.0 0.0564256848 0.1834464431 -0.0801464185 -0.550172371 -0.0802173896 -0.5503741919 0.0189204622 0.1861538192
810295140.0 0.058073052 0.1825445219 -0.0854896956 -0.548956683 -0.0856975938 -0.5494807751 0.0214516527 0.1861375545
815295110.0 0.0602449978 0.1820704925 -0.0917700635 -0.5480374675 -0.0913984009 -0.5483656075 0.0228143533 0.1862938389
820295080.0 0.0619913743 0.1820870084 -0.0973325723 -0.5471163039 -0.0973587227 -0.5470940336 0.0247510205 0.1860123699
825295050.0 0.0646768376 0.1815628829 -0.1032188667 -0.545984548 -0.1034474747 -0.5461329207 0.0264839377 0.1861923843
830295020.0 0.0662728048 0.1809198144 -0.1093428643 -0.5449604246 -0.1094456434 -0.544894023 0.0291094013 0.1858957564
