!Created with skrf (http://scikit-rf.org).
# Hz S RI R 50.0 
!freq ReS11 ImS11 ReS21 ImS21 ReS12 ImS12 ReS22 ImS22
300000.0 -0.2375919728 -0.1132088192 0.4672639016 0.0747233985 0.470337084 0.0779512216 -0.2345112624 -0.1188932262
5299970.0 -0.2407182825 0.0069758969 0.475355025 0.0051039683 0.4749170391 0.0055273092 -0.2445422107 0.0054196351
10299940.0 -0.2371939487 0.0199578856 0.4773608183 0.0063519475 0.4770618486 0.006251421 -0.241529933 0.0175015808
15299910.0 -0.233099334 0.0298016641 0.4806523748 0.0073893628 0.4802299353 0.0079826845 -0.2371590537 0.0263901873
20299880.0 -0.2274545151 0.0376552809 0.4850857276 0.0081771416 0.4851161066 0.0079467298 -0.232541256 0.0338976789
25299850.0 -0.2216114009 0.0444283418 0.4903185955 0.0068032466 0.4903972048 0.0069100737 -0.2276061219 0.0401437178
30299820.0 -0.2158143531 0.0494095316 0.4960793642 0.005217798 0.4956856189 0.0047355395 -0.2223305462 0.0449114226
35299790.0 -0.2100263115 0.0540756371 0.5011668317 0.0016710972 0.5011646969 0.0018930301 -0.2172703963 0.0486595232
40299760.0 -0.2043912664 0.0571348126 0.5062083678 -0.0019231124 0.506376088 -0.0022754938 -0.2128475877 0.0523893598
45299730.0 -0.1996069573 0.0602902854 0.5110887845 -0.0073596113 0.5107918313 -0.0069192057 -0.2079252452 0.0546156647
50299700.0 -0.194665485 0.0619824329 0.5149069171 -0.0126597561 0.5152928571 -0.0128079898 -0.2035507233 0.0566106462
55299670.0 -0.190682878 0.0638144182 0.5185878554 -0.0184793131 0.518671478 -0.0186512553 -0.1996695635 0.057935514
60299640.0 -0.1864712387 0.0649481695 0.521833246 -0.0250803588 0.5221172154 -0.02466039 -0.1962633349 0.0597528266
65299610.0 -0.1829837549 0.0664157402 0.5250350266 -0.0307731353 0.5252603739 -0.0310164758 -0.1928748556 0.0606672605
70299580.0 -0.1797046749 0.0670203023 0.5272575142 -0.037346688 0.5271058713 -0.0377355454 -0.1900417254 0.0615459632
75299550.0 -0.176278607 0.0679952937 0.529126015 -0.0444644664 0.5291725192 -0.0445338282 -0.1870552964 0.0627113522
80299520.0 -0.1740331789 0.0689063052 0.5314780297 -0.0513598777 0.5312148939 -0.051483906 -0.1849073923 0.0630760307
85299490.0 -0.1712868661 0.0693389241 0.5327868923 -0.0585073105 0.5323973443 -0.0582415449 -0.1825627007 0.0636873795
90299460.0 -0.169397134 0.0703675271 0.5336393946 -0.0650786457 0.5335094692 -0.0655500923 -0.1799804194 0.0645067861
95299430.0 -0.167102657 0.0709924329 0.5345225626 -0.0724824787 0.5346422424 -0.072297159 -0.1784936866 0.0652774532
100299400.0 -0.1655062281 0.0720103401 0.5349676986 -0.0790315529 0.534632844 -0.0788654821 -0.1769631611 0.065494865
105299370.0 -0.1634790747 0.0726980238 0.5347647311 -0.0858739945 0.5349379299 -0.0860895315 -0.1747244393 0.0659822406
110299340.0 -0.1620972208 0.0730626933 0.5351523098 -0.092729735 0.5351318199 -0.0931519145 -0.1737995918 0.0670661532
115299310.0 -0.1602256217 0.0733864244 0.5347704992 -0.0993815679 0.5352035491 -0.0992292899 -0.1720290351 0.0672222433
120299280.0 -0.1592227211 0.07432361 0.5349458381 -0.1062364793 0.534695063 -0.1063170625 -0.1711619251 0.0680830067
125299250.0 -0.1579962837 0.0752393382 0.53463232 -0.1132020885 0.5346159682 -0.1131268756 -0.1698952621 0.0683074973
130299220.0 -0.1566586362 0.0760532904 0.5340248025 -0.1192497989 0.5336271631 -0.1201086698 -0.1690198794 0.0694608605
135299190.0 -0.1551798426 0.0766641434 0.5329344313 -0.1262288414 0.532981486 -0.1264398912 -0.167847505 0.0702792153
140299160.0 -0.1543051527 0.0783984942 0.5323966653 -0.133143248 0.5325575331 -0.1328348893 -0.1669020188 0.071188702
145299130.0 -0.1531719544 0.0790337271 0.5320110766 -0.1396334244 0.5316589408 -0.1393881348 -0.1663428422 0.0716040455
150299100.0 -0.152067838 0.0798253606 0.5303768897 -0.1463608079 0.5304280496 -0.1462469099 -0.1651783795 0.0726010573
155299070.0 -0.1511547176 0.0813739615 0.5293160049 -0.1529384369 0.5292720719 -0.1528924384 -0.1650026868 0.0735249314
160299040.0 -0.1499215224 0.0821673777 0.527637 -0.1585155619 0.527981644 -0.1589636618 -0.1634968254 0.0746422481
165299010.0 -0.1491715517 0.0832792778 0.5269574346 -0.1656284021 0.5263619495 -0.1657866715 -0.1630389763 0.075582742
170298980.0 -0.1485286617 0.0842950041 0.5239944988 -0.1717489645 0.524494204 -0.1719162686 -0.1618237549 0.0764661829
175298950.0 -0.1472576071 0.0856293659 0.5236274148 -0.178060587 0.5233154625 -0.1784112967 -0.1610360011 0.0775135274
180298920.0 -0.1463910535 0.086635815 0.5216056359 -0.1846122408 0.5212591234 -0.184240205 -0.1602542619 0.078993635
185298890.0 -0.1451490621 0.0879594206 0.5190800854 -0.1910296062 0.5194641174 -0.1904206141 -0.1594518741 0.0795825509
190298860.0 -0.1441802598 0.0892042455 0.5173774694 -0.1970081911 0.5177847314 -0.1969273351 -0.1585367205 0.0807714969
195298830.0 -0.14342146 0.0901583937 0.5156113117 -0.2024179288 0.515896806 -0.2029694625 -0.1581154073 0.0815666216
200298800.0 -0.1426118725 0.0917956925 0.5141247786 -0.2084648643 0.513328949 -0.20873965 -0.1569695508 0.0833065885
205298770.0 -0.1417158877 0.09289982 0.5116067685 -0.2150866236 0.5115729436 -0.2148489196 -0.1563608582 0.0837373288
210298740.0 -0.1407666854 0.0944429972 0.5093411944 -0.2215296602 0.5095890457 -0.221378933 -0.1556000609 0.0854375136
215298710.0 -0.139972 0.0957404966 0.5072831125 -0.2267451759 0.5065198844 -0.2268123282 -0.155102365 0.0863912307
220298680.0 -0.1386673497 0.0969938684 0.5043443078 -0.2331389966 0.5047995957 -0.232732669 -0.1540258074 0.0878817062
225298650.0 -0.1376464846 0.0982908674 0.5017574251 -0.2380343743 0.5018851653 -0.238246419 -0.1534446614 0.0892626404
230298620.0 -0.1368374223 0.0999767807 0.4994068289 -0.2444694883 0.4998651714 -0.2446923435 -0.1525516208 0.0904738691
235298590.0 -0.1357015642 0.1010073374 0.4967599896 -0.2502129379 0.4971981506 -0.2505335633 -0.1518689565 0.091302182
240298560.0 -0.1350114059 0.1024999103 0.4943702907 -0.2557620777 0.4942983059 -0.2557247665 -0.1509090055 0.0928673038
245298530.0 -0.1336948866 0.1039660705 0.4909104642 -0.2616068415 0.4913210434 -0.2617417442 -0.149915793 0.0944933905
250298500.0 -0.1331345346 0.1051260618 0.4884647899 -0.2668080507 0.4889668447 -0.2668215231 -0.1490096499 0.0957240659
255298470.0 -0.1320132969 0.1068035878 0.4852885234 -0.2729211922 0.4856465315 -0.2727761457 -0.148199396 0.0964985064
260298440.0 -0.1307797404 0.1078628259 0.4830467277 -0.2780264515 0.4824971318 -0.2783428898 -0.146989767 0.0984801774
265298410.0 -0.129359076 0.1098077634 0.4794488741 -0.283908635 0.479333129 -0.2840321606 -0.1463936312 0.0992300477
270298380.0 -0.1279779069 0.1107761204 0.4758213298 -0.289041691 0.4765137162 -0.2892499337 -0.1452377894 0.1011081751
275298350.0 -0.1273899457 0.1125417369 0.4731382673 -0.2948798399 0.4737378308 -0.2948868278 -0.1443901648 0.102229207
280298320.0 -0.126345952 0.1139607934 0.4702520868 -0.2997219487 0.4699690796 -0.300244558 -0.1430116163 0.1037188025
285298290.0 -0.1251475616 0.1155714833 0.4669530042 -0.3051413423 0.4667219009 -0.3056113873 -0.1425570967 0.1048909238
290298260.0 -0.1236102024 0.1168434527 0.4636674488 -0.3107565496 0.4636254454 -0.3104822984 -0.1410755 0.1066548765
295298230.0 -0.1225003472 0.118011381 0.4607353799 -0.3157646344 0.4600523411 -0.3160363857 -0.1400384644 0.107777464
300298200.0 -0.1208660389 0.1192063333 0.4569926302 -0.3211609373 0.4570872848 -0.3213088497 -0.1393073261 0.1094605814
305298170.0 -0.1197167031 0.1206691896 0.4533937723 -0.3267815785 0.4537878681 -0.3266089728 -0.138017313 0.1110693563
310298140.0 -0.1182060273 0.1218372897 0.4503137755 -0.3317079475 0.4498499462 -0.3318211947 -0.1368194874 0.112171661
315298110.0 -0.1171836247 0.1232033095 0.4462858237 -0.3370353168 0.4465671877 -0.3372312294 -0.1356414145 0.1134541923
320298080.0 -0.1160159307 0.1245642451 0.4423632475 -0.3423009481 0.4426735011 -0.3421155812 -0.1346854524 0.1146819069
325298050.0 -0.1145789964 0.1256653333 0.4391264948 -0.3473623691 0.4387095715 -0.3474067385 -0.1336519942 0.1158337551
330298020.0 -0.1133373 0.1267733694 0.4339156378 -0.3524671861 0.434487099 -0.3520284168 -0.1329646297 0.1172092781
335297990.0 -0.1121139756 0.1281345776 0.4304969612 -0.3573715982 0.4304344933 -0.3569743771 -0.1319192971 0.1182773048
340297960.0 -0.1114515756 0.1296225613 0.4260982404 -0.3620754102 0.4266124219 -0.3615917954 -0.1309814958 0.1198946494
345297930.0 -0.1100783639 0.1311345591 0.4223296055 -0.3662452852 0.4221217107 -0.3662427636 -0.1296515423 0.1211388945
350297900.0 -0.1082054271 0.1325930649 0.4181346119 -0.3706607157 0.4183524282 -0.3709924567 -0.1287390925 0.1228476745
355297870.0 -0.1071833765 0.13383609 0.4139085278 -0.3755844815 0.4139778439 -0.3756059996 -0.1279894358 0.1244137789
360297840.0 -0.1058340408 0.1352698724 0.4102307751 -0.380280909 0.4097593363 -0.3803445007 -0.1264642268 0.1259641837
365297810.0 -0.104290782 0.1365194828 0.4058189062 -0.3844808234 0.4057413559 -0.3844570617 -0.1254037558 0.1273266467
370297780.0 -0.1025679245 0.1374746154 0.4014866795 -0.3889131738 0.4013438461 -0.3892904057 -0.124042668 0.1289300411
375297750.0 -0.101436153 0.1390953898 0.3979578211 -0.3933647264 0.3969667674 -0.3937730154 -0.1229524178 0.1302040747
380297720.0 -0.0995595919 0.1402455678 0.3930499538 -0.3977320267 0.3928247003 -0.3974946354 -0.1217325031 0.1314007183
385297690.0 -0.098262303 0.141595982 0.3883273533 -0.401522063 0.38842901 -0.4020290049 -0.1205815174 0.1334603062
390297660.0 -0.0968498681 0.1426644211 0.3842382031 -0.4065620089 0.3837509039 -0.4065103027 -0.1193259905 0.1341949752
395297630.0 -0.0948515587 0.1439173919 0.379748523 -0.4102343941 0.3796509414 -0.4103696243 -0.1182458859 0.1359902049
400297600.0 -0.0937400799 0.1453394945 0.3750007929 -0.4145926636 0.3752374143 -0.41491246 -0.1173599195 0.1370107017
405297570.0 -0.0917913314 0.1466351769 0.370423019 -0.4190733528 0.3705723578 -0.4189141256 -0.1158523525 0.1386811468
410297540.0 -0.0900002132 0.1475864615 0.3653271574 -0.4228592095 0.3654966248 -0.4225189677 -0.1145015675 0.1397627531
415297510.0 -0.0886007868 0.1492278355 0.3611552041 -0.4266177135 0.3612330446 -0.4270250076 -0.1133864881 0.1416244536
420297480.0 -0.0868748111 0.149660883 0.3562378942 -0.4309638366 0.356464312 -0.4304465359 -0.1115806737 0.1419835271
425297450.0 -0.0849877063 0.1506269566 0.3518420694 -0.4345355922 0.3520168009 -0.434526606 -0.1102690255 0.1438931655
430297420.0 -0.083516669 0.151989696 0.3470627782 -0.4384778204 0.3471075084 -0.438432899 -0.1091580727 0.1449256201
435297390.0 -0.0816021291 0.1527758959 0.3422739667 -0.442007577 0.3423690559 -0.4418130919 -0.1077719782 0.1462099713
440297360.0 -0.0798865836 0.1541501961 0.336969357 -0.4457404124 0.3364570564 -0.4457803861 -0.1067313452 0.1473732745
445297330.0 -0.0778262386 0.1548505103 0.3320362327 -0.449769982 0.332222589 -0.4496978161 -0.1053056301 0.1487889846
450297300.0 -0.0763838818 0.1562966587 0.3275342409 -0.4530995105 0.3274536926 -0.4530828113 -0.1035721215 0.150228399
455297270.0 -0.074806199 0.1571585537 0.3226408596 -0.4565369982 0.3226803791 -0.4565154898 -0.1019419996 0.1511419892
460297240.0 -0.0732470089 0.1579679529 0.3170200711 -0.4603727433 0.3170566788 -0.4602797867 -0.1007487774 0.1523943302
465297210.0 -0.0711699196 0.158816224 0.3126872972 -0.463548825 0.3127582788 -0.4637310263 -0.0997406616 0.1532396299
470297180.0 -0.0695551087 0.1599775594 0.3075808922 -0.4670195654 0.3075065858 -0.4669486654 -0.0983270909 0.1546622575
475297150.0 -0.068068487 0.1606527346 0.3019732863 -0.470021524 0.30254093 -0.4695757138 -0.0963906408 0.1557363666
480297120.0 -0.0657883283 0.1612707109 0.2971193812 -0.4733912815 0.2974695619 -0.4733807848 -0.0951999637 0.1572262237
485297090.0 -0.0640542571 0.1619885596 0.2919785107 -0.4766312449 0.2920354399 -0.4764820186 -0.0938402866 0.1577325644
490297060.0 -0.0620051791 0.1631454968 0.2866730602 -0.4798165638 0.2866685867 -0.4797676883 -0.092405066 0.1592803512
495297030.0 -0.0605831745 0.1641176547 0.2813113818 -0.4826291901 0.2810509914 -0.4825781094 -0.0906139493 0.1599875182
500297000.0 -0.0584277199 0.1645058822 0.2759349871 -0.4857739354 0.2761708294 -0.4857337233 -0.08959958 0.1610482337
505296970.0 -0.056659245 0.1653885899 0.2705817748 -0.4883351066 0.270466864 -0.4886436039 -0.0880697297 0.1623031377
510296940.0 -0.0549622496 0.1664735854 0.265505848 -0.4917115814 0.2653280126 -0.49183923 -0.0860398807 0.1635878283
515296910.0 -0.0534068883 0.167103621 0.2597960693 -0.4941996789 0.2599486814 -0.4939311188 -0.0849676858 0.1643000043
520296880.0 -0.0512638823 0.1676056738 0.254524058 -0.49706749 0.2548115772 -0.4970917236 -0.0831552347 0.1653819188
525296850.0 -0.0493905288 0.1682378931 0.2494677851 -0.5002027669 0.2493955966 -0.4999435557 -0.0811148125 0.1663355607
530296820.0 -0.0474760283 0.1691582577 0.2439584262 -0.5021960813 0.2436744145 -0.5021675059 -0.0803935979 0.1669785745
535296790.0 -0.0455960464 0.1696092627 0.2382928712 -0.5047702087 0.2385154749 -0.5046676539 -0.0785868222 0.1674606432
540296760.0 -0.0440737558 0.1699975018 0.2330142494 -0.5076095668 0.2327714016 -0.507917858 -0.0774421 0.16914671
545296730.0 -0.0417124294 0.1711856666 0.2268649646 -0.5097284918 0.2270918619 -0.5103084827 -0.0753609697 0.1696353979
550296700.0 -0.040423428 0.1716971385 0.2220698532 -0.5124434265 0.2225033534 -0.512661623 -0.0739468004 0.1710742383
555296670.0 -0.0376536367 0.1719435873 0.2162156066 -0.5148212748 0.2161041874 -0.5150824142 -0.0723223081 0.1719895289
560296640.0 -0.0361101087 0.1724529016 0.2108511388 -0.5168257906 0.2107881384 -0.5167955985 -0.070447408 0.172708295
565296610.0 -0.0346572158 0.17302262 0.2050577523 -0.5194254321 0.2050086071 -0.519307309 -0.0690231765 0.1736383822
570296580.0 -0.0320895086 0.1735050309 0.1992080336 -0.5216332971 0.1996189596 -0.5217673208 -0.0674189212 0.1748580742
575296550.0 -0.0303279151 0.1742029907 0.1934997505 -0.5235836511 0.1937092735 -0.5233654399 -0.0655564036 0.1751338181
580296520.0 -0.0285315342 0.174542382 0.1885007092 -0.5255701352 0.1876541279 -0.5254431786 -0.0638859667 0.1758605678
585296490.0 -0.0262966187 0.1748076898 0.1823487066 -0.5272817329 0.1822911743 -0.527465881 -0.0624667092 0.1765200146
590296460.0 -0.0249322106 0.1752958361 0.1765758047 -0.529565736 0.1761175229 -0.5298821227 -0.0603375265 0.1776813423
595296430.0 -0.0228796937 0.1760079045 0.1710440622 -0.5314597507 0.1709417296 -0.5314739178 -0.0589189424 0.1779780216
600296400.0 -0.0208013055 0.1761563916 0.1651546409 -0.5329547585 0.1654821317 -0.5335178922 -0.0574195004 0.1792148711
605296370.0 -0.0185839024 0.1769199286 0.1593556402 -0.5348444497 0.1591223956 -0.5345138653 -0.0556470591 0.1796860902
610296340.0 -0.0168490991 0.1770419699 0.1539741089 -0.5364513478 0.1536956974 -0.536778387 -0.0536901972 0.1807989668
615296310.0 -0.014772691 0.1777624325 0.1476520793 -0.538150575 0.1476730198 -0.5380374729 -0.0519686994 0.1812281815
620296280.0 -0.0128544916 0.1773684212 0.1422365966 -0.5392076161 0.141799722 -0.5394377129 -0.0505885164 0.1814021472
625296250.0 -0.0109172154 0.1779633159 0.135903025 -0.541051349 0.1362448948 -0.5415354868 -0.0486550044 0.1827835285
630296220.0 -0.008700822 0.1783320204 0.1298699778 -0.5426062609 0.1307822239 -0.5427956804 -0.0469275469 0.1831565532
635296190.0 -0.0069213799 0.1785071032 0.1243172311 -0.5435218262 0.1242427406 -0.5433273827 -0.0456478572 0.1836482419
640296160.0 -0.0046498016 0.1785631987 0.1183709043 -0.5450407035 0.118434458 -0.5450988759 -0.0431654628 0.1841445021
645296130.0 -0.0029632519 0.1792749322 0.1124165065 -0.546349812 0.1129892627 -0.5464154797 -0.0423278866 0.1847010169
650296100.0 -0.0012229964 0.1796519793 0.1073303726 -0.5475609703 0.1068632648 -0.5472523322 -0.040178795 0.1851208911
655296070.0 0.0008965076 0.1794709909 0.1008389624 -0.5486618988 0.1007167124 -0.5485274327 -0.0377888143 0.1861451904
660296040.0 0.0027007149 0.1799004217 0.095110553 -0.5493607875 0.0951148814 -0.5492582896 -0.0364538781 0.1862160811
665296010.0 0.004927922 0.1793868039 0.089068586 -0.5504024819 0.0895735616 -0.5504493593 -0.0348866255 0.186767656
670295980.0 0.0073832294 0.1798046286 0.0829451319 -0.5514736433 0.0835603168 -0.5514390422 -0.0337296368 0.1873943094
675295950.0 0.0093138702 0.1797984614 0.0769283112 -0.5519464711 0.0773294119 -0.552776043 -0.0311372249 0.188039697
680295920.0 0.0111707064 0.1799541897 0.071234353 -0.5530170155 0.0709251412 -0.5531375482 -0.0293474605 0.1883274135
685295890.0 0.0128009619 0.1798969348 0.065403845 -0.5539261001 0.0652764718 -0.5538684096 -0.0277260539 0.1886840708
690295860.0 0.015263758 0.1800176857 0.0591277863 -0.5539100985 0.0589375196 -0.5541848168 -0.0257950126 0.1891989092
695295830.0 0.0175518416 0.1797639554 0.0526400199 -0.5548797525 0.0529107099 -0.5550072917 -0.0243924255 0.1899881033
700295800.0 0.0196530241 0.1796545333 0.0469925186 -0.5550902487 0.0473893918 -0.5557691469 -0.0226516786 0.18971767
705295770.0 0.0215980987 0.1799425115 0.0412950088 -0.5558187134 0.0412769328 -0.5559557287 -0.0208313847 0.1903022104
710295740.0 0.0231967798 0.1800193213 0.0353771522 -0.5562721334 0.0353002482 -0.5563055529 -0.0191592054 0.1910837184
715295710.0 0.0250950793 0.1796368065 0.0292103033 -0.5566305237 0.0296384953 -0.5565026663 -0.0172332504 0.1907451195
720295680.0 0.0271872363 0.1794303192 0.0230553086 -0.5566553573 0.0228795641 -0.5570715477 -0.0147758366 0.1913259116
725295650.0 0.029683407 0.1792612575 0.0170917347 -0.5567797579 0.0170691151 -0.556668756 -0.0131961751 0.191810565
730295620.0 0.0312890905 0.1790290929 0.0110630546 -0.5568475393 0.0109994793 -0.5572050053 -0.0112688827 0.191516585
735295590.0 0.0336235952 0.1789445485 0.0050666722 -0.5574694102 0.0055125001 -0.5574640302 -0.0095445405 0.1920899569
740295560.0 0.0355839505 0.1789384663 -0.000877358 -0.556642228 -0.0009105782 -0.5571008633 -0.007334927 0.1920628227
745295530.0 0.0375371036 0.1784503045 -0.0070093323 -0.5566741496 -0.006722417 -0.5568159691 -0.0056889725 0.1924309052
750295500.0 0.0393290114 0.1780372307 -0.0127273001 -0.5563827944 -0.0129930762 -0.5566556882 -0.0037851619 0.1924381178
755295470.0 0.0418104503 0.1779640914 -0.018674951 -0.5563069628 -0.0184765677 -0.556942332 -0.0028465277 0.1930407499
760295440.0 0.0433447479 0.177829247 -0.0249813629 -0.5566286308 -0.0247050638 -0.5569195583 -0.0009917323 0.1931492945
765295410.0 0.0455219455 0.1771388638 -0.030542714 -0.5562526165 -0.030657428 -0.5562019804 0.0019922059 0.1934465255
770295380.0 0.0477874174 0.1769478112 -0.0367750186 -0.5551089075 -0.0366892529 -0.5562276401 0.0036263168 0.193456389
775295350.0 0.0493431386 0.1767153202 -0.042938764 -0.5549177867 -0.0426198386 -0.555160903 0.0048932132 0.1929856845
780295320.0 0.0516371121 0.1761069829 -0.0488235573 -0.5549631716 -0.0484265607 -0.5548379569 0.0072833091 0.1935135525
785295290.0 0.0535146618 0.175863419 -0.0544985977 -0.5536788155 -0.0545140903 -0.5542450441 0.0085782261 0.1933769604
790295260.0 0.0550867584 0.1755926284 -0.0605264161 -0.5537008743 -0.0603282152 -0.5540149049 0.0108012603 0.1933727094
795295230.0 0.0574258921 0.1750344425 -0.0663678355 -0.5524614905 -0.0662716675 -0.5530236805 0.0122841153 0.1941912672
800295200.0 0.0594668506 0.1746041592 -0.0727447177 -0.5518225728 -0.0728444851 -0.5518849347 0.0145095386 0.1938596669
805295170.0 0.0611141932 0.1740778197 -0.0778456335 -0.5509662439 -0.0784628577 -0.5508679022 0.0161123048 0.1933966436
810295140.0 0.0632032014 0.173689905 -0.084055948 -0.5502385577 -0.0841054445 -0.5505347861 0.0182744899 0.1940303907
815295110.0 0.0652713135 0.172861662 -0.0903206534 -0.5491183909 -0.0902377498 -0.5495535521 0.0199102405 0.1934406479
820295080.0 0.0670876489 0.1719473773 -0.0958747996 -0.5482001792 -0.096033333 -0.5483956057 0.0215914247 0.1934152761
825295050.0 0.0693262498 0.171644794 -0.102226152 -0.5465931715 -0.1015429804 -0.5472349557 0.0239256076 0.1935611515
830295020.0 0.0710101089 0.1713664446 -0.1079876922 -0.5458873303 -0.1085084658 -0.5460252478 0.0255457782 0.1931916398
