!Created with skrf (http://scikit-rf.org).
# Hz S RI R 50.0 
!freq ReS11 ImS11 ReS21 ImS21 ReS12 ImS12 ReS22 ImS22
300000.0 -0.2401741937 -0.0728436968 0.4698709473 0.0488927335 0.4672656367 0.0478015295 -0.2413890866 -0.0849093604
5299970.0 -0.2444547239 0.0073211188 0.4734435484 0.0046341957 0.4738413033 0.005116864 -0.2446556929 0.0075465916
10299940.0 -0.2413667289 0.018721695 0.4758745714 0.0060456488 0.4757856587 0.0064486646 -0.2412709993 0.0203582176
15299910.0 -0.2370859904 0.028133238 0.4790313284 0.007933546 0.4795657385 0.0075828035 -0.2365365868 0.0295958122
20299880.0 -0.2321809317 0.0354319145 0.4838430908 0.0086441634 0.4837460677 0.0082087758 -0.231146615 0.0372531949
25299850.0 -0.2269367446 0.0419603592 0.4889747332 0.0071841708 0.4891409174 0.007623386 -0.2252383655 0.0437889787
30299820.0 -0.2216429581 0.046959118 0.4944455623 0.0054345141 0.494517721 0.0055044649 -0.2197217027 0.0489676286
35299790.0 -0.2163135839 0.0515536026 0.5000068688 0.0017489165 0.5000694828 0.0022196534 -0.2137567898 0.0531273434
40299760.0 -0.2112948571 0.0551584269 0.5048418913 -0.0018791991 0.5052038637 -0.0016381634 -0.2083709623 0.0558816162
45299730.0 -0.2067499137 0.0578471644 0.509756584 -0.0062588401 0.5102017162 -0.0061616485 -0.2033533187 0.0586450553
50299700.0 -0.2022681104 0.0597009762 0.5144333115 -0.0116629087 0.5140644032 -0.0116861857 -0.1988085501 0.0603066102
55299670.0 -0.1984869937 0.0617980876 0.5177344553 -0.018238135 0.5178850737 -0.0178607718 -0.1944009394 0.061891329
60299640.0 -0.1941978417 0.0634182922 0.5209778376 -0.0242826887 0.5213249791 -0.0238363764 -0.1905285464 0.0628257686
65299610.0 -0.1913187393 0.0646912195 0.5241098943 -0.0306802832 0.5244101894 -0.0304642565 -0.1872517396 0.0637065418
70299580.0 -0.1881365127 0.0660197969 0.5267630607 -0.0370634362 0.5264457945 -0.037147738 -0.183635171 0.0648408088
75299550.0 -0.1850359459 0.0673249878 0.5280526233 -0.0439932806 0.5284083356 -0.0439708641 -0.1810784825 0.0651114185
80299520.0 -0.1823750556 0.0681260638 0.5306360638 -0.0508969824 0.5305986168 -0.0510642758 -0.178004614 0.0658747519
85299490.0 -0.1799610106 0.0687602064 0.531809511 -0.0577504639 0.5322230943 -0.0573825754 -0.176401415 0.066003535
90299460.0 -0.1776441772 0.0697798092 0.5324003206 -0.064968651 0.5330648881 -0.0642258636 -0.1734019585 0.0664854153
95299430.0 -0.1753939807 0.0704770841 0.5336301328 -0.0714817993 0.5339703746 -0.071825906 -0.1711999235 0.0671838286
100299400.0 -0.1736928464 0.0714245149 0.5336362615 -0.0783141209 0.5336354634 -0.0785969369 -0.1694390604 0.0674091954
105299370.0 -0.172072527 0.0723108464 0.5346221201 -0.085624058 0.5347107547 -0.0853872671 -0.1673903125 0.0681129302
110299340.0 -0.1704233746 0.0731966697 0.5350940219 -0.0921865871 0.5341903605 -0.0919663592 -0.1664359992 0.0685288282
115299310.0 -0.1688539368 0.0740096106 0.5347085116 -0.0988306225 0.5342548995 -0.0989746284 -0.1647339398 0.0692334452
120299280.0 -0.1673506966 0.074469683 0.534289252 -0.1057723515 0.5344386657 -0.105965696 -0.16355723 0.0698438804
125299250.0 -0.1660622305 0.0753842511 0.5344634722 -0.1122377973 0.5339618119 -0.1122086815 -0.1623256735 0.0699524325
130299220.0 -0.1651533933 0.0767152625 0.5335769352 -0.1194626941 0.533264084 -0.1194764449 -0.1610653991 0.0705909795
135299190.0 -0.1637751853 0.0778253324 0.5328771182 -0.1263032463 0.5327397054 -0.1255829678 -0.1599865028 0.0713500714
140299160.0 -0.1628028087 0.0789609451 0.5319095214 -0.1326867485 0.5320901716 -0.1327218989 -0.15891686 0.0726404302
145299130.0 -0.1615126168 0.0800013314 0.5313184836 -0.1392336312 0.5310135133 -0.1389593041 -0.1582637693 0.0730039918
150299100.0 -0.1603937144 0.0812031583 0.5298913747 -0.145285875 0.5299087023 -0.14513788 -0.1571890403 0.0742426847
155299070.0 -0.1595516658 0.0819961984 0.5290655406 -0.1525330733 0.5288652585 -0.1524411504 -0.1562595235 0.0747745358
160299040.0 -0.158314198 0.0834432018 0.5273732536 -0.1587177868 0.5268306007 -0.1585237171 -0.1558792512 0.0755142286
165299010.0 -0.1576107601 0.0846304561 0.5258351343 -0.1654623153 0.5260060702 -0.1652838882 -0.1546605723 0.0768465273
170298980.0 -0.1567954665 0.085833602 0.5243735611 -0.1713714479 0.5247469754 -0.1715665399 -0.1539281238 0.0776440944
175298950.0 -0.1556282735 0.0869157035 0.5231945777 -0.1778068832 0.5227811662 -0.1777431248 -0.1534930863 0.0786900824
180298920.0 -0.1548668578 0.0885289548 0.5209638439 -0.1840152141 0.5212406656 -0.1840277 -0.1527291442 0.0797561716
185298890.0 -0.1532242007 0.089570594 0.5190595052 -0.1907044485 0.51866451 -0.1900107578 -0.1516369509 0.0810299901
190298860.0 -0.1528553128 0.0911795905 0.5175128708 -0.1966335758 0.5176798406 -0.1963608388 -0.1510822043 0.081841336
195298830.0 -0.1519214421 0.0921209547 0.5150962939 -0.2026136859 0.515425983 -0.2021390659 -0.1500635227 0.0829528153
200298800.0 -0.1506583931 0.0938175433 0.5130115197 -0.2088867846 0.5132044147 -0.2088645165 -0.1497859659 0.0837020411
205298770.0 -0.1497716779 0.0949849903 0.5109054721 -0.2148061025 0.5111112778 -0.2145986441 -0.148851366 0.0842823254
210298740.0 -0.1487271865 0.0959560968 0.5083058493 -0.2205120576 0.5085056246 -0.2203468228 -0.1476569839 0.0862782397
215298710.0 -0.1484692422 0.0978872302 0.5067619802 -0.2267056052 0.50635745 -0.2269952805 -0.1473585302 0.0874625753
220298680.0 -0.1468945995 0.0989371344 0.503420533 -0.2324196821 0.5038885415 -0.2324892725 -0.1466645018 0.0884314339
225298650.0 -0.1461934564 0.1003186232 0.5012527381 -0.238690758 0.5016380673 -0.2385735343 -0.1460500117 0.089513527
230298620.0 -0.1450599415 0.1021892722 0.4991300736 -0.2440970509 0.4994923415 -0.2439930386 -0.1453353377 0.0906829501
235298590.0 -0.1440248764 0.1037214221 0.496251718 -0.2500230691 0.4964332475 -0.2495536719 -0.1446316292 0.0920076705
240298560.0 -0.1430998028 0.1049953162 0.4941161017 -0.2562472654 0.4935676411 -0.2559284316 -0.1436887224 0.0934058545
245298530.0 -0.1419462048 0.1065418144 0.4913211727 -0.2616008056 0.4909951184 -0.2616382665 -0.1424585474 0.0942532862
250298500.0 -0.140845609 0.1078321754 0.4874546344 -0.2671576426 0.4873819376 -0.2668025494 -0.1421027596 0.0955093785
255298470.0 -0.139879806 0.1088854953 0.4843663823 -0.272477194 0.4849598886 -0.2724647435 -0.1410599693 0.0967651858
260298440.0 -0.1390359509 0.1105216928 0.4817231271 -0.278290112 0.4821102558 -0.2779515821 -0.1401787655 0.0980750745
265298410.0 -0.1375452704 0.1121552691 0.4792265946 -0.283964022 0.4792296234 -0.2837009904 -0.1395450408 0.0995839413
270298380.0 -0.1368784381 0.1137213508 0.4762303435 -0.2890386833 0.4763357921 -0.2886383714 -0.1387558771 0.1005992531
275298350.0 -0.1349687519 0.1150190493 0.4726355639 -0.2946296089 0.4732277113 -0.2946807184 -0.1380685263 0.1017074138
280298320.0 -0.1342328096 0.1167127266 0.4699068396 -0.3001967022 0.4700139275 -0.2998469738 -0.1364564481 0.1034113875
285298290.0 -0.1329596305 0.118405043 0.4666397137 -0.3052383676 0.4664985866 -0.3052423708 -0.1357623447 0.1044244902
290298260.0 -0.1317463405 0.1196560037 0.4632158433 -0.3100736845 0.4633681434 -0.3106472936 -0.1349178125 0.106172069
295298230.0 -0.1301047504 0.1206732414 0.4594462876 -0.3156227083 0.4598730893 -0.3157569994 -0.133691678 0.1069396423
300298200.0 -0.1294034775 0.1224156489 0.4565445459 -0.3211518806 0.4565754307 -0.3213936166 -0.1329590754 0.1083643032
305298170.0 -0.1275387604 0.1235416635 0.4523989427 -0.3264079831 0.4529382427 -0.3264045538 -0.131520426 0.1092324351
310298140.0 -0.1266060844 0.1251086414 0.4494269218 -0.3312339287 0.4495420202 -0.3310935449 -0.1306050297 0.1107492983
315298110.0 -0.1253634868 0.1260532277 0.4457494868 -0.3362345448 0.4457939919 -0.3369488528 -0.1300143943 0.1117940018
320298080.0 -0.1235876842 0.1275282089 0.4411215982 -0.3419241928 0.441682542 -0.3419032038 -0.1289998613 0.1131958657
325298050.0 -0.1227909681 0.1287845104 0.4382571453 -0.347026417 0.4381178572 -0.3469128933 -0.1281965931 0.1140533258
330298020.0 -0.1212949395 0.1299349291 0.4335969908 -0.3518008245 0.4339280112 -0.351868494 -0.1274991787 0.1152333426
335297990.0 -0.1201589546 0.1316044941 0.4300365251 -0.3568244406 0.4297882875 -0.3567050285 -0.1270642041 0.1172975783
340297960.0 -0.1193398958 0.1333061096 0.4254833996 -0.3615641815 0.4255163147 -0.3616801113 -0.1253720494 0.118404518
345297930.0 -0.1179796363 0.1347670152 0.4214553373 -0.366252652 0.4215939659 -0.3662568339 -0.1247457004 0.1193009322
350297900.0 -0.1166796162 0.1356222512 0.4169320398 -0.3706847849 0.4171689613 -0.3706795859 -0.1237764622 0.1210257533
355297870.0 -0.1148489185 0.1376715084 0.4127626793 -0.3757630982 0.4134567816 -0.3753730107 -0.122964137 0.1220000476
360297840.0 -0.1138313992 0.1388857292 0.4099640288 -0.3793673589 0.4096757337 -0.3800009436 -0.1217556136 0.1232792023
365297810.0 -0.1125191897 0.1406215426 0.4049321885 -0.3845208075 0.405737764 -0.3848697858 -0.1206781863 0.1248385175
370297780.0 -0.1107165206 0.141407638 0.4002211075 -0.3883800817 0.4012831833 -0.3884630188 -0.1193080829 0.126031967
375297750.0 -0.1091189247 0.1427759574 0.3965766152 -0.3933639033 0.3971749216 -0.3935415915 -0.1181920181 0.1271985988
380297720.0 -0.1076927044 0.1439193071 0.39201762 -0.3972768018 0.3921198074 -0.3972126036 -0.1173053189 0.1285331406
385297690.0 -0.106292428 0.1453429109 0.3875619034 -0.4019192307 0.3877602723 -0.401713898 -0.1161234619 0.1298115925
390297660.0 -0.1047028751 0.1468507923 0.3832743611 -0.4060608889 0.38322727 -0.4057853279 -0.1149913115 0.1308481478
395297630.0 -0.10307795 0.1483077331 0.37870978 -0.4101141022 0.3789024427 -0.4106181781 -0.112879969 0.132289531
400297600.0 -0.1014643064 0.1496516838 0.3739312723 -0.4148390066 0.3745644402 -0.4142822411 -0.1124582777 0.1335007749
405297570.0 -0.1002523982 0.1505023271 0.3697370001 -0.4184401928 0.3694770642 -0.4180506493 -0.1111132052 0.1346305061
410297540.0 -0.0985817551 0.1519073988 0.3655138394 -0.4225751608 0.3656144996 -0.4224694493 -0.1096567069 0.136092252
415297510.0 -0.0967408981 0.1528589207 0.3606914965 -0.4268479707 0.3610001957 -0.4267127889 -0.1087417769 0.1373055384
420297480.0 -0.0951652564 0.1544640781 0.3552358642 -0.4306463615 0.3556332173 -0.4304644127 -0.1074876354 0.1384268102
425297450.0 -0.0934116984 0.1552471793 0.3512432873 -0.4343409644 0.351807446 -0.4346406451 -0.1065198279 0.1399123521
430297420.0 -0.0918716402 0.1565329324 0.3460637849 -0.4375653172 0.3464351117 -0.4377683824 -0.1049772997 0.1407223774
435297390.0 -0.0902438174 0.1576017685 0.3409641622 -0.4418224162 0.3409537092 -0.4420867568 -0.1030969446 0.1419819815
440297360.0 -0.0882824225 0.1590834776 0.336603282 -0.4455674781 0.3365967382 -0.4454672693 -0.1021130182 0.1429992269
445297330.0 -0.0868009397 0.160069123 0.3321923417 -0.4494729597 0.3319162187 -0.4488553834 -0.1006265856 0.1439753858
450297300.0 -0.0847416254 0.1610354617 0.3265174624 -0.4524468713 0.3269007224 -0.4531092586 -0.0993024997 0.145048666
455297270.0 -0.0830448243 0.1621828736 0.3221072944 -0.4562541368 0.322273143 -0.4563339861 -0.0980412604 0.146352412
460297240.0 -0.0817850059 0.1630723721 0.3164985444 -0.4598472255 0.3168518976 -0.4597244347 -0.0965143699 0.1476327491
465297210.0 -0.0795834783 0.1643212849 0.3121281234 -0.4632434082 0.3121821777 -0.4634441026 -0.0952693467 0.1484577713
470297180.0 -0.0778894011 0.1651094877 0.3066106393 -0.4664968784 0.3066507731 -0.4666072482 -0.0938305998 0.149627799
475297150.0 -0.075912138 0.165933792 0.301271444 -0.469303316 0.3017544735 -0.4694978716 -0.0918411621 0.1502400008
480297120.0 -0.0741936177 0.1673547083 0.2961508188 -0.473509019 0.2962666955 -0.4736182369 -0.0904538923 0.151829421
485297090.0 -0.0724603768 0.1682275335 0.2912171912 -0.4760190649 0.2912265929 -0.4756035093 -0.0893031535 0.1522448891
490297060.0 -0.0708126067 0.1694671568 0.2860125698 -0.4796614858 0.2861925715 -0.4791479433 -0.0877085887 0.1538649269
495297030.0 -0.0689979457 0.1702559731 0.280517461 -0.4826200037 0.2811676652 -0.4826340357 -0.0866728971 0.1546554752
500297000.0 -0.0670786041 0.1708998276 0.2754368271 -0.4850074646 0.2753105912 -0.4848258385 -0.0851117144 0.1561065795
505296970.0 -0.0648177809 0.1716862263 0.2698290596 -0.4884044549 0.2701578552 -0.4882646753 -0.0834991715 0.156827645
510296940.0 -0.0631434503 0.1727369634 0.2645760634 -0.4913692302 0.2646211075 -0.4918336131 -0.0817802193 0.1576569848
515296910.0 -0.0612917219 0.1735421814 0.2594807251 -0.4941475215 0.2595689198 -0.4940046777 -0.0804297416 0.1585821
520296880.0 -0.0594658877 0.1745167446 0.2538243551 -0.49742227 0.2539840131 -0.4968087201 -0.0789905658 0.1593909712
525296850.0 -0.0571790227 0.1745201101 0.2482575608 -0.4993923811 0.2486753758 -0.4995533568 -0.0775787334 0.1602380532
530296820.0 -0.0553678605 0.1760263296 0.2427928046 -0.5027143555 0.2432043061 -0.5022889255 -0.0758835687 0.1612728498
535296790.0 -0.0536599111 0.17654243 0.2379131223 -0.5047850302 0.2376992967 -0.5041879716 -0.0743369766 0.1618590286
540296760.0 -0.0518390764 0.1773358027 0.2320561835 -0.5074338517 0.2323707026 -0.5075890015 -0.0733908277 0.1632731674
545296730.0 -0.0499912822 0.1778360518 0.2260675541 -0.509932292 0.2266042912 -0.5100809432 -0.0715297449 0.163765132
550296700.0 -0.0473245692 0.1788267677 0.2210330291 -0.5121699522 0.2210496197 -0.5125720273 -0.0701076327 0.1650922145
555296670.0 -0.0457594505 0.1792796985 0.2154837611 -0.5147173337 0.2155206594 -0.5146519801 -0.0681882388 0.1657728689
560296640.0 -0.0436191797 0.1802676464 0.2095560988 -0.5171562896 0.2099559454 -0.517242581 -0.0665569172 0.1662732473
565296610.0 -0.0420899532 0.1805820047 0.2039771678 -0.5191572492 0.2044281408 -0.5187919078 -0.0652684104 0.1666732398
570296580.0 -0.040032624 0.1812656465 0.198404263 -0.5220614875 0.198186794 -0.5212574904 -0.0633648914 0.1679578126
575296550.0 -0.0381897338 0.182020087 0.1931618011 -0.5234644947 0.1927965685 -0.5237137686 -0.0618533598 0.1686058044
580296520.0 -0.0359346139 0.1825645771 0.1870873515 -0.5261572042 0.1871957178 -0.5256188624 -0.0600095153 0.1691995825
585296490.0 -0.0341665829 0.182614613 0.1816374372 -0.5270401444 0.1815885756 -0.5275458722 -0.0585372724 0.1705523796
590296460.0 -0.0316118292 0.183477611 0.1755678162 -0.5286859344 0.1760890305 -0.5291048441 -0.0572048697 0.170891273
595296430.0 -0.0296683625 0.1840437815 0.16961729 -0.5311479887 0.169764905 -0.5310000088 -0.0550443193 0.1712751673
600296400.0 -0.0280889773 0.1843877571 0.1643665241 -0.5328464332 0.1643753731 -0.5323801126 -0.053674816 0.1722012553
605296370.0 -0.0259128493 0.184734529 0.1582559088 -0.5347444999 0.1588410881 -0.534588818 -0.0518050525 0.1726684578
610296340.0 -0.0236693238 0.1852609495 0.1521433178 -0.5361761293 0.1527347811 -0.5361529601 -0.0499155579 0.1734485951
615296310.0 -0.0214609846 0.1855949436 0.1466012516 -0.5378111025 0.1464483406 -0.5383223425 -0.0481944973 0.1741589977
620296280.0 -0.0196397162 0.1857218634 0.141258368 -0.5395176465 0.1406972596 -0.5389194271 -0.046739128 0.1745688881
625296250.0 -0.0176428896 0.1860270931 0.135476558 -0.5410318687 0.1349987981 -0.5408578592 -0.0447724586 0.1755511973
630296220.0 -0.0147975219 0.1866866494 0.1284928427 -0.5423688228 0.1289807284 -0.5418738585 -0.0432949354 0.1762315687
635296190.0 -0.0139233207 0.1868929162 0.1231907168 -0.5432035394 0.1236288586 -0.5437022124 -0.041436653 0.1765005114
640296160.0 -0.0115423742 0.1872260937 0.1173953147 -0.5444319677 0.1177488522 -0.5449632733 -0.0397084658 0.177416042
645296130.0 -0.0094683884 0.1875249544 0.1113801133 -0.5458118514 0.1120078198 -0.5457909077 -0.0379511389 0.1781243181
650296100.0 -0.0071798685 0.1878140817 0.1053868129 -0.5469308246 0.105520724 -0.547418783 -0.0360543635 0.177881816
655296070.0 -0.0056243785 0.1879236321 0.0997950407 -0.548273553 0.0998605861 -0.5483254898 -0.0342301047 0.1790031913
660296040.0 -0.0036623635 0.1878938378 0.093903684 -0.5494134627 0.0941342703 -0.5495075039 -0.0326323879 0.1794828791
665296010.0 -0.0008381651 0.1879854889 0.0875628247 -0.5500468592 0.0877763176 -0.5502594858 -0.0309446267 0.1798874753
670295980.0 0.0003863019 0.1885068383 0.0818491522 -0.5510526365 0.0822473079 -0.5509838668 -0.0296130055 0.1803912236
675295950.0 0.0028649426 0.1888896415 0.0761449815 -0.5520513211 0.0760667184 -0.551368001 -0.0280622828 0.1808704245
680295920.0 0.0046589283 0.1886469953 0.0699126076 -0.5522891624 0.0694218351 -0.5531115937 -0.0258400252 0.1819328724
685295890.0 0.0071699145 0.1891454217 0.063658658 -0.553661653 0.0640266001 -0.5532871122 -0.024270484 0.1816588909
690295860.0 0.0092823909 0.1888021967 0.0577835316 -0.5533385589 0.0582398153 -0.5543152476 -0.0227734742 0.1827502351
695295830.0 0.0110555579 0.1886697175 0.0522487084 -0.5541789042 0.0517581106 -0.5544153754 -0.0206881864 0.1829498218
700295800.0 0.0133821106 0.1884727986 0.04559135 -0.5546800656 0.0459597017 -0.5547814202 -0.0193852476 0.1835010219
705295770.0 0.0149408568 0.1891547603 0.0400441941 -0.5550986433 0.0405028215 -0.5553819114 -0.0173787838 0.1837814489
710295740.0 0.017388672 0.1887122334 0.0340643711 -0.5562037718 0.034224604 -0.5561142053 -0.0158038132 0.1835208237
715295710.0 0.0190265376 0.18871037 0.0286800612 -0.5562684235 0.0278900436 -0.5557504535 -0.0133994509 0.1837461247
720295680.0 0.0213569065 0.1887742286 0.0222399596 -0.5567190066 0.0223825404 -0.5562124612 -0.0120603026 0.1844563321
725295650.0 0.0234175512 0.1885568432 0.0159337741 -0.5567889154 0.0161238333 -0.5565528631 -0.0104016097 0.1847926897
730295620.0 0.0258359847 0.1887226063 0.0096541768 -0.5566890994 0.0102700709 -0.5567797548 -0.008764708 0.1845209759
735295590.0 0.0277214359 0.1887373824 0.0043755893 -0.5567515645 0.0040342733 -0.556271882 -0.007123864 0.1845463244
740295560.0 0.0294373625 0.1885383973 -0.001703695 -0.5566342314 -0.0019401964 -0.5567218226 -0.0046110142 0.1852412657
745295530.0 0.031732494 0.1881553339 -0.0076232668 -0.5559554284 -0.0079906116 -0.556355158 -0.0026525671 0.1849195789
750295500.0 0.0340379231 0.1877035763 -0.0138718335 -0.5558520619 -0.0136934058 -0.5566181938 -0.0011971662 0.1854128232
755295470.0 0.0359894003 0.1875470379 -0.0199968047 -0.5561589711 -0.0197970975 -0.556407399 0.0010888049 0.1850831504
760295440.0 0.0379359506 0.1874765273 -0.0259384053 -0.5561120553 -0.0258498549 -0.5561049774 0.0026516761 0.1856836868
765295410.0 0.0400725219 0.1872058881 -0.0318609694 -0.5557587286 -0.032073379 -0.5557099387 0.004397559 0.1858706499
770295380.0 0.0415983889 0.186851717 -0.0379937963 -0.5553942642 -0.0380192857 -0.5550866092 0.0058800076 0.1859165008
775295350.0 0.0438961485 0.1857632771 -0.0440105468 -0.5542339982 -0.0436696121 -0.5548490168 0.007413512 0.1861058569
780295320.0 0.0462414699 0.1860656376 -0.0498904079 -0.5540605024 -0.0492485154 -0.5541183351 0.009640879 0.1860034636
785295290.0 0.0478682886 0.1851327163 -0.0558389396 -0.5530011593 -0.0554765194 -0.5535720139 0.0117853768 0.1861407117
790295260.0 0.0507593749 0.1854214979 -0.0614945464 -0.5526537256 -0.0608381372 -0.5524691835 0.0136874361 0.1861225978
795295230.0 0.052301912 0.1845868009 -0.0680749972 -0.551887659 -0.0672545264 -0.5520403075 0.0159370399 0.1864844521
800295200.0 0.0540981091 0.1844906844 -0.074162592 -0.5512921368 -0.0736835143 -0.5510792723 0.0173813127 0.1862176633
805295170.0 0.0563199596 0.1836183534 -0.0794393661 -0.5500468988 -0.0796820846 -0.5507273497 0.0187968671 0.186127691
810295140.0 0.0582334691 0.1831525943 -0.0850703105 -0.5493466925 -0.0855882059 -0.5496091446 0.0210965179 0.1865899308
815295110.0 0.0602912132 0.182320031 -0.0913155988 -0.5479699077 -0.0912593275 -0.5487440424 0.022628285 0.1863613957
820295080.0 0.0623235911 0.1825644115 -0.0974695504 -0.547341458 -0.0968500638 -0.547302879 0.0247379939 0.1864301653
825295050.0 0.0646610818 0.1816938353 -0.1025747379 -0.5461968909 -0.1028690237 -0.546517603 0.0266366649 0.186378771
830295020.0 0.0664240574 0.1812438064 -0.1093006718 -0.5448401939 -0.1086849921 -0.5450403469 0.0290616852 0.1865937802
