!Created with skrf (http://scikit-rf.org).
# Hz S RI R 50.0 
!freq ReS11 ImS11 ReS21 ImS21 ReS12 ImS12 ReS22 ImS22
300000.0 -0.777404264 -0.1756301217 0.0009790632 0.0021009615 0.0005345922 0.0004390922 -0.0467758015 -0.0761678256
5299970.0 -0.7863950728 -0.0095458728 0.0003665062 -0.0002235282 4.92259e-05 0.000124871 -0.0490112091 0.0143093292
10299940.0 -0.7890945605 -0.005886003 8.55424e-05 0.0001653726 0.0001778973 -1.14799e-05 -0.0430610615 0.0324426978
15299910.0 -0.7943950405 -0.0034454912 0.0001195175 6.5795e-06 0.0001517277 3.78024e-05 -0.0347935567 0.0466768412
20299880.0 -0.80080985 0.0010277058 2.98863e-05 2.56781e-05 0.0002265718 0.0002126532 -0.0249979401 0.0584343115
25299850.0 -0.8077562346 0.0064656152 2.28043e-05 3.95529e-05 -9.84677e-05 6.39536e-05 -0.0144258251 0.0676606069
30299820.0 -0.8135494623 0.0137441196 -9.3893e-06 -0.0001305434 0.0001294361 1.45593e-05 -0.0026870588 0.0747295831
35299790.0 -0.8183814202 0.023242095 1.45909e-05 -1.61393e-05 -0.000102166 0.0001100995 0.0085474369 0.0799845608
40299760.0 -0.8237059089 0.0318161674 9.38061e-05 -5.70089e-05 -9.42151e-05 3.00213e-05 0.0196179346 0.0825154958
45299730.0 -0.8268138343 0.0420023702 4.97128e-05 4.41666e-05 -8.4374e-06 9.92374e-05 0.0302733994 0.0841945151
50299700.0 -0.8292961759 0.0519019864 7.94894e-05 9.71059e-05 -1.5518e-05 5.60057e-05 0.0402709501 0.0844380901
55299670.0 -0.8311573882 0.0614906387 -4.09673e-05 -4.48268e-05 -5.4258e-05 6.7512e-06 0.0494533127 0.0835262851
60299640.0 -0.8322678721 0.0718951785 0.0001610354 3.5015e-05 0.0001155293 4.00001e-05 0.0576771541 0.0814217626
65299610.0 -0.8336144381 0.0817062867 -0.0002339457 -3.64096e-05 0.0002338097 0.0001535775 0.0656283663 0.0792442284
70299580.0 -0.8337291988 0.091483484 -2.40236e-05 1.17149e-05 -0.0001040025 2.65477e-05 0.0724112499 0.0767492574
75299550.0 -0.8337446737 0.1016857872 -0.0001062617 6.54946e-05 0.0002382092 3.52631e-05 0.0791887406 0.0736839584
80299520.0 -0.8341216919 0.1122501519 0.0001163941 0.0001149125 0.0001835614 -1.71485e-05 0.0847302597 0.0700460517
85299490.0 -0.8323977341 0.1213643219 0.0001649751 0.0001897894 2.51773e-05 8.90794e-05 0.0898615911 0.0666162719
90299460.0 -0.8324243679 0.1314385817 -0.0002001163 -0.000198196 -6.0346e-05 0.0001776071 0.0947779478 0.0627744239
95299430.0 -0.8316071157 0.1399404652 0.0001027253 9.62968e-05 6.96141e-05 0.0001698261 0.0986994802 0.0591191439
100299400.0 -0.8303921328 0.1497782785 -6.66244e-05 0.0003994087 0.0001918794 0.0001059478 0.1022090719 0.0556319412
105299370.0 -0.8291178042 0.1591466043 9.70268e-05 7.36495e-05 -0.0002152133 0.0001173528 0.1058608282 0.0515860551
110299340.0 -0.8274414928 0.1687628691 0.0003106519 1.32786e-05 0.0001929404 -1.9897e-06 0.1082344213 0.0475910817
115299310.0 -0.8261501196 0.1776697799 0.0001235634 0.0001213071 6.62098e-05 0.000102163 0.111001385 0.0439315638
120299280.0 -0.8246395432 0.1865876741 8.8924e-05 0.0002636284 2.86758e-05 5.60378e-05 0.1130572428 0.0400346968
125299250.0 -0.82239362 0.1952414465 -0.000212415 0.0001197783 -2.04323e-05 -2.8232e-06 0.1152796519 0.0364533099
130299220.0 -0.821394723 0.2052933171 -7.64312e-05 0.0001079773 6.06762e-05 0.0001237053 0.1172015305 0.0325772527
135299190.0 -0.8188622093 0.2142110072 8.12102e-05 0.0002302796 1.37608e-05 3.80443e-05 0.118839744 0.0290517423
140299160.0 -0.8169033868 0.2234312653 0.0001174177 -1.92395e-05 0.0001276904 5.6969e-06 0.1196843848 0.0257331242
145299130.0 -0.8150340741 0.2321414481 0.0002711298 0.0002156319 4.10599e-05 0.0001561439 0.1210234433 0.02237746
150299100.0 -0.8120484336 0.2414731316 9.9114e-06 0.0001699437 -4.01114e-05 0.0001095485 0.1216971067 0.0191729179
155299070.0 -0.8098737753 0.2500660935 0.0002325187 0.0003391689 0.0001047338 1.96672e-05 0.1225373564 0.0158953829
160299040.0 -0.8071462714 0.2591558635 -4.2405e-06 -7.67878e-05 0.0001120865 0.000147888 0.1231926837 0.0125000393
165299010.0 -0.8045354121 0.2673585331 5.87569e-05 0.000207068 8.13932e-05 0.0001588384 0.1242619174 0.0092792982
170298980.0 -0.8011459548 0.2763482744 -2.101e-06 -1.28877e-05 -1.54984e-05 8.85963e-05 0.1243360306 0.0062255144
175298950.0 -0.7983814702 0.2847742377 0.0001624816 -3.33303e-05 9.48562e-05 0.0003152796 0.1244439102 0.0040370496
180298920.0 -0.796124727 0.2935087567 8.94151e-05 4.33051e-05 7.4825e-05 0.0001473638 0.1249812106 0.0005376295
185298890.0 -0.7924629998 0.3021333529 0.00010555 0.0001421762 0.0004165644 2.5317e-05 0.125120824 -0.0025200574
190298860.0 -0.7895906237 0.3114477363 1.41949e-05 0.0001032174 -1.31939e-05 7.89635e-05 0.1252588189 -0.0052901768
195298830.0 -0.7863058723 0.3189270056 -0.0001400214 2.27174e-05 -4.92491e-05 0.0002599844 0.1249645589 -0.0074962855
200298800.0 -0.7830474133 0.3277762922 0.0002031599 -3.1109e-05 0.0002386997 0.0001128408 0.1249137465 -0.0105631294
205298770.0 -0.7789156872 0.3363266765 -3.3566e-06 4.04112e-05 0.0002014191 0.0002367789 0.1249061968 -0.013099402
210298740.0 -0.7765498364 0.3446221649 1.98515e-05 0.0001871325 1.2748e-06 -5.41097e-05 0.1245036421 -0.0154572486
215298710.0 -0.7724478088 0.3532009387 0.0002703726 0.0002988857 -9.9822e-06 0.0001231577 0.1242748212 -0.0182385717
220298680.0 -0.7688030788 0.3606099527 -7.55614e-05 -6.3812e-06 1.96308e-05 7.11737e-05 0.1238703248 -0.020515214
225298650.0 -0.7647644535 0.3697969459 -2.82637e-05 0.0003006997 3.1801e-05 9.29629e-05 0.1232077256 -0.0227523985
230298620.0 -0.7611770889 0.3777374141 5.67269e-05 7.87612e-05 3.49658e-05 0.0002269804 0.1227203619 -0.0251460691
235298590.0 -0.7567677744 0.3861320407 -0.0001271734 -4.59263e-05 8.25237e-05 0.0002770624 0.1222904543 -0.0270306184
240298560.0 -0.7526281369 0.3937448876 4.18363e-05 8.49414e-05 0.0002651118 0.0003662352 0.1217484795 -0.0296615334
245298530.0 -0.7486736548 0.4017142211 0.0002292934 3.4595e-05 0.0002194738 3.93818e-05 0.1212459465 -0.0316884372
250298500.0 -0.7445205395 0.4092657154 4.69232e-05 4.3578e-05 6.62312e-05 1.21056e-05 0.1204799408 -0.0334124837
255298470.0 -0.7406468307 0.4176948248 4.5509e-05 2.2931e-06 2.36904e-05 4.33019e-05 0.120014806 -0.0360095798
260298440.0 -0.7367606716 0.4250374292 9.29592e-05 -2.67588e-05 3.06537e-05 0.0001822037 0.1189780691 -0.0379431489
265298410.0 -0.7319575026 0.4331775679 0.0002686689 9.67741e-05 0.0002298476 2.67457e-05 0.1189604523 -0.0401732126
270298380.0 -0.7271761513 0.4406713351 0.0001767616 5.1092e-06 0.0002232037 7.99807e-05 0.1179360239 -0.0420208767
275298350.0 -0.7227008516 0.4479913031 -2.07108e-05 0.0001476554 0.0001621712 0.000284846 0.1173128718 -0.043904463
280298320.0 -0.7181059879 0.4553751847 0.0001422785 0.0001362856 7.43173e-05 -5.23137e-05 0.1163860245 -0.0457955287
285298290.0 -0.7132148191 0.4632927648 0.0002345188 0.000328059 0.000108452 0.0002583839 0.1155445928 -0.0473889983
290298260.0 -0.7086265101 0.4706563364 -4.39077e-05 1.26876e-05 0.0002784372 7.22322e-05 0.1148544215 -0.0491943454
295298230.0 -0.7036850836 0.4780971351 0.0001871831 0.0001773822 0.0002341616 0.0002271596 0.1136642824 -0.051167447
300298200.0 -0.6994487461 0.4859123624 0.0002417509 5.98599e-05 0.0002024023 0.0001942861 0.1131409837 -0.0527189619
305298170.0 -0.694675315 0.4924620608 0.0002356177 7.42032e-05 0.000197428 4.40422e-05 0.1123149826 -0.0543986187
310298140.0 -0.6885954708 0.4998622656 2.97926e-05 0.00015689 1.49691e-05 0.0003063531 0.1115264684 -0.0564681236
315298110.0 -0.6849228071 0.5070756551 0.0002936882 0.0002045399 0.0001022028 0.0001004514 0.1107671501 -0.0582211961
320298080.0 -0.6788029725 0.514086441 0.0001784073 0.0001280503 8.67453e-05 -3.3334e-06 0.1096621293 -0.059843668
325298050.0 -0.6733037639 0.5208417016 8.70272e-05 8.6467e-05 0.0002702507 -8.05504e-05 0.1090398502 -0.0619209616
330298020.0 -0.6677208097 0.5277290006 -8.39713e-05 -8.012e-07 0.0001233201 0.0001406513 0.1073915873 -0.0636931774
335297990.0 -0.6627350891 0.5348425623 -3.4638e-05 -0.0001058985 0.0001571087 -5.32689e-05 0.106139355 -0.0651710232
340297960.0 -0.6577710275 0.5414844638 -0.0001247029 -2.65207e-05 0.0002538998 0.0001546353 0.104924177 -0.0665147423
345297930.0 -0.6522139202 0.5484656797 0.0001340632 0.0001480106 9.02016e-05 0.0001151261 0.1036059398 -0.0679902422
350297900.0 -0.6462496712 0.5550452281 0.0002826752 0.000264505 0.0001150744 3.91244e-05 0.102073946 -0.0694655082
355297870.0 -0.6408798737 0.5615449853 2.5037e-05 5.3923e-05 0.0001560271 5.52268e-05 0.1011443967 -0.0707756914
360297840.0 -0.6345345369 0.5682413555 -1.99197e-05 2.07877e-05 9.06183e-05 0.0001273132 0.0998667185 -0.0721015407
365297810.0 -0.6290141665 0.5746829391 0.0002784929 0.0001442046 0.000272613 0.0002968859 0.0985849256 -0.073434185
370297780.0 -0.6235146225 0.5807331786 0.0002269443 0.0001782591 0.000409714 0.0001360453 0.0975054338 -0.0744802486
375297750.0 -0.617489697 0.5874290485 0.000152147 -1.29394e-05 0.0003072201 3.89412e-05 0.0961974189 -0.0758027216
380297720.0 -0.6120534114 0.593298244 0.0001943947 8.26844e-05 0.0002149492 2.34436e-05 0.0949648486 -0.0768380471
385297690.0 -0.6059745199 0.5995422534 4.53288e-05 0.0002370304 0.0001284371 3.50545e-05 0.0937860558 -0.0780440686
390297660.0 -0.598437928 0.6056037902 0.0003656229 0.0001415623 0.0003312254 9.79005e-05 0.0924446293 -0.0793323451
395297630.0 -0.5929729378 0.6116250721 0.0001514249 0.0002375661 0.0001500586 0.0001257788 0.0912495638 -0.080556725
400297600.0 -0.586391509 0.6185543088 0.0001037171 -4.10898e-05 5.43871e-05 0.0003232806 0.0902203459 -0.0814817244
405297570.0 -0.5803867953 0.6232940326 2.97817e-05 1.96022e-05 0.0001776416 3.5593e-05 0.0890762466 -0.0827045543
410297540.0 -0.5738816958 0.6299824472 0.0003053978 1.18848e-05 0.0001448778 2.53988e-05 0.0876008141 -0.0837432137
415297510.0 -0.5678503277 0.6355274626 0.000119578 4.14185e-05 8.8983e-05 0.0001781325 0.0862696806 -0.0847285043
420297480.0 -0.5605736344 0.6406552356 0.0003044823 0.0003665452 3.86831e-05 2.31842e-05 0.0854964666 -0.0855791082
425297450.0 -0.5543722881 0.6468852336 3.23191e-05 8.05877e-05 0.0003554222 -8.29775e-05 0.0835312015 -0.0871100183
430297420.0 -0.548096219 0.6517306488 0.0001976186 0.0002272899 0.0003516155 9.24751e-05 0.0825293669 -0.0879335938
435297390.0 -0.5408449655 0.6569020038 0.0003079811 0.0001670042 0.0002003068 9.83606e-05 0.0807904421 -0.0887684237
440297360.0 -0.5339696484 0.6629685137 0.0002467974 0.0001187638 0.0001289455 8.27617e-05 0.0800251888 -0.0895058803
445297330.0 -0.5271677471 0.6681713372 0.0003243884 0.0002039216 0.000233375 6.80541e-05 0.0786227538 -0.090530145
450297300.0 -0.5200390392 0.6735905208 1.54533e-05 0.0001899725 0.0001915733 2.26957e-05 0.0773365727 -0.0913176533
455297270.0 -0.5140386866 0.6787491135 0.0003175637 0.0002509722 0.0003052279 0.0001877642 0.0759273436 -0.0927411032
460297240.0 -0.5062236559 0.6838893301 0.0001095379 -5.76971e-05 0.0001068119 0.0002700793 0.0743876571 -0.0934151896
465297210.0 -0.4992351957 0.6890931845 0.0001382328 -3.83612e-05 0.0002494137 0.0002462934 0.0733798274 -0.0936476232
470297180.0 -0.4917958682 0.6941158533 0.0002258703 0.000190943 0.0003532091 0.0002606703 0.0719378755 -0.0950111992
475297150.0 -0.484708321 0.6987348641 9.80524e-05 0.0001821533 5.00478e-05 0.0001401582 0.0705300142 -0.0954944104
480297120.0 -0.4767393728 0.7039731327 0.0003572758 0.0003383712 0.0004459773 5.40554e-05 0.0688600757 -0.0961703385
485297090.0 -0.4698765323 0.7088748847 0.0002957437 -9.44514e-05 0.0003405092 3.57298e-05 0.0680370622 -0.0970714772
490297060.0 -0.4614305884 0.7138895994 0.0001629194 0.0001365783 0.0002167384 2.25701e-05 0.0663561299 -0.0980517185
495297030.0 -0.4547840763 0.7185068653 0.0004080856 -2.65716e-05 0.0002750857 0.0001107333 0.0650060567 -0.098693967
500297000.0 -0.4472272536 0.7224607708 0.0003489637 -2.1612e-05 7.25029e-05 8.30734e-05 0.0637534016 -0.0990716948
505296970.0 -0.439085165 0.7272062562 0.000224587 0.0001239312 0.000227377 -6.5801e-05 0.0621737962 -0.0996155313
510296940.0 -0.431676721 0.7313552989 0.000357989 -9.0381e-05 0.0002999413 8.3457e-06 0.0610390769 -0.1005136447
515296910.0 -0.4246082844 0.7358044594 0.0002348945 0.0002555048 0.0003329499 0.000116733 0.0592293131 -0.1013043636
520296880.0 -0.4159377116 0.7398607224 0.0002972887 0.0001294207 0.0005258983 8.31367e-05 0.0584667995 -0.1016323578
525296850.0 -0.4086281586 0.7441288166 0.0002982329 1.17572e-05 0.0004147094 -4.31305e-05 0.0567011929 -0.1023681015
530296820.0 -0.4012233481 0.7483136774 0.0002910966 -4.69952e-05 0.0003974022 -0.0001034164 0.0551908938 -0.1032008328
535296790.0 -0.3924856319 0.7516731297 0.0001707773 -3.64563e-05 0.0003664972 -2.91194e-05 0.0542078961 -0.1031885379
540296760.0 -0.3846620244 0.7561532409 0.00024147 -4.1036e-06 0.0003361509 9.93658e-05 0.0522634122 -0.1039018407
545296730.0 -0.3772593828 0.7600177657 0.0002265479 0.0001865625 0.0002582203 9.91632e-05 0.0510765537 -0.1045237361
550296700.0 -0.3686120089 0.7637817602 0.0006278622 4.2392e-05 5.45646e-05 0.0001416325 0.0495908424 -0.1048153847
555296670.0 -0.3610983414 0.7671049003 0.0004598425 -9.9982e-06 0.0002457177 0.0002404931 0.0480300235 -0.1055172724
560296640.0 -0.3533987854 0.770686384 0.0003435538 5.62168e-05 0.0003870154 0.0001983239 0.0465898788 -0.1060112253
565296610.0 -0.3454950136 0.7746078449 0.0004438281 -1.12724e-05 0.0001960217 -1.3431e-06 0.0456350205 -0.1063822131
570296580.0 -0.3369942176 0.7778796409 0.0004212867 0.0001184569 0.0003381084 3.46195e-05 0.0436245583 -0.1066903009
575296550.0 -0.3281706216 0.7815460973 0.0002611133 0.0002459349 0.0003943089 -5.5606e-05 0.0423068235 -0.1072046315
580296520.0 -0.3209534445 0.7844449552 0.0002757066 0.0002796854 0.0003469659 3.62466e-05 0.0409757158 -0.1073553969
585296490.0 -0.3122031474 0.7877625148 0.0004136347 1.47704e-05 0.000280488 0.0002833724 0.0397372274 -0.1074655612
590296460.0 -0.3038601767 0.7909416168 0.0005115375 -8.52443e-05 0.0002375071 8.08235e-05 0.0380408698 -0.1079875225
595296430.0 -0.2957681369 0.7939597483 0.0003169484 0.0001100765 0.0002542803 5.76862e-05 0.0364471398 -0.1085002085
600296400.0 -0.2881392775 0.7972879676 0.0003781725 -3.75941e-05 0.0002251532 8.87279e-05 0.035075329 -0.1085729911
605296370.0 -0.2799164773 0.7993702932 0.0003456749 6.66848e-05 0.0001101426 -0.0001352183 0.0336275742 -0.1089319522
610296340.0 -0.2717596355 0.8031842663 0.0004769457 -0.0002181027 0.0004372855 -2.62463e-05 0.0317583931 -0.1089447614
615296310.0 -0.2630005181 0.8053588249 0.0004171052 3.09397e-05 0.0003590853 4.51164e-05 0.0307574124 -0.109503175
620296280.0 -0.2553524126 0.8081521531 0.0003279695 9.0576e-05 0.0004074904 -0.0002559088 0.0291068559 -0.1091336282
625296250.0 -0.2475862014 0.8104110892 0.0003380296 6.70822e-05 0.0003513518 5.1937e-05 0.027960994 -0.1094016757
630296220.0 -0.238475154 0.8131538458 0.0002744443 -1.46999e-05 0.0002505444 -6.54709e-05 0.0265469693 -0.1096459284
635296190.0 -0.2306611838 0.8155150806 0.0003277564 -2.43611e-05 0.0003858847 9.55397e-05 0.0247084945 -0.1099512238
640296160.0 -0.2212108532 0.8176271965 -3.49648e-05 7.40181e-05 0.0003368179 -0.0001426903 0.0231887298 -0.1098594893
645296130.0 -0.2138258215 0.82039239 0.000539286 -0.0001334326 0.0005430412 -9.06558e-05 0.0214962574 -0.1100555327
650296100.0 -0.2056287158 0.8223888477 0.0001331168 9.14248e-05 0.0003422189 0.0001270412 0.0205741911 -0.1102179863
655296070.0 -0.1976409152 0.8242126055 0.0004641553 9.64931e-05 0.0003475764 7.47718e-05 0.0186552175 -0.1101740853
660296040.0 -0.1889433953 0.8263088261 0.0003351183 1.13737e-05 0.0003820088 8.93983e-05 0.0176704073 -0.1103848244
665296010.0 -0.18103191 0.828665726 0.0003873974 -0.0001249445 0.0003639461 3.51053e-05 0.0160345779 -0.1099871335
670295980.0 -0.1722963749 0.8302665838 0.0003082897 5.30008e-05 0.0001847459 0.0001592225 0.0147668505 -0.1101681224
675295950.0 -0.1640579969 0.8326151775 0.000292036 -0.0001415856 0.0004033059 8.05809e-05 0.0134101803 -0.1101272815
680295920.0 -0.1565656922 0.8338975305 0.0004888767 6.67969e-05 0.0003772863 -0.0001317206 0.0117399643 -0.1101630364
685295890.0 -0.1479834582 0.8357036448 0.00026578 -5.39594e-05 0.0004204124 5.1545e-05 0.01033786 -0.109823504
690295860.0 -0.139146504 0.8368607942 0.0002985669 -3.57726e-05 0.0003397155 -4.91727e-05 0.0088394394 -0.1097219629
695295830.0 -0.130680938 0.8386818424 0.0005153112 -0.0001089084 0.0006029874 6.9635e-06 0.0075979086 -0.1096857866
700295800.0 -0.1221270039 0.8402712545 0.0002468153 -5.52307e-05 0.0003698395 -4.9822e-06 0.0065321067 -0.1099699501
705295770.0 -0.1142123701 0.8416998382 0.0004556906 -0.0003396492 0.000423799 -0.000145264 0.0042882422 -0.1096760759
710295740.0 -0.1070938393 0.8420408998 0.000637232 -0.0002059432 9.8139e-05 -0.0001049884 0.0034275249 -0.1091320561
715295710.0 -0.0978172157 0.8436413354 0.0003564023 -5.0526e-05 0.0005040431 5.6539e-06 0.0016616317 -0.1094765438
720295680.0 -0.0889248372 0.8445335233 0.0001300036 4.4279e-06 0.000453237 -0.0002355543 0.0005223599 -0.1091140333
725295650.0 -0.0811200547 0.8458754869 0.0003768154 -2.48737e-05 0.0004322372 -9.21233e-05 -0.0010618023 -0.108505585
730295620.0 -0.073450814 0.8465030667 0.0005085231 -5.94117e-05 0.0004075084 -6.83621e-05 -0.002470386 -0.1085560807
735295590.0 -0.0654473954 0.8472717968 0.0002982661 7.24998e-05 0.0001792705 -1.498e-06 -0.0036029324 -0.1083146345
740295560.0 -0.0575976759 0.8477158891 0.0004344542 -0.0001995388 0.0001856043 -1.34014e-05 -0.0052485166 -0.1080895537
745295530.0 -0.0487102457 0.8486603179 0.0002337949 -0.000128336 0.000317 -3.38907e-05 -0.0066487919 -0.1076418567
750295500.0 -0.0410028543 0.8495070864 0.0004015622 -6.24459e-05 0.0005212497 -0.0001469915 -0.0082041401 -0.1072664378
755295470.0 -0.0323894966 0.849738015 0.0005368896 5.68109e-05 0.0001204163 0.0001052233 -0.0093716638 -0.1064979238
760295440.0 -0.0240987451 0.85067569 0.0003984152 0.0002704326 0.0005206621 -0.000221379 -0.0109540115 -0.1067776575
765295410.0 -0.0157687264 0.8503727001 0.00030696 -2.58706e-05 0.0003199628 -0.0003494832 -0.0120117123 -0.1062735326
770295380.0 -0.0081875738 0.8512052016 0.0005270828 -0.000170435 0.0004195507 4.1176e-05 -0.0137026346 -0.1059344861
775295350.0 -7.48172e-05 0.8509827058 0.0002739929 0.0001939526 0.0003648223 -7.2115e-06 -0.0149683766 -0.1058077204
780295320.0 0.008955302 0.8510222188 0.0003924771 -0.0001993479 0.0002012145 0.0001011356 -0.0161550532 -0.1052818531
785295290.0 0.017514864 0.8507260177 0.000263362 -6.72711e-05 0.0003759957 -1.5332e-06 -0.0177889398 -0.1047493148
790295260.0 0.0256202773 0.8505855175 0.0004440124 -0.0001225874 0.0005417357 -2.13581e-05 -0.0190004906 -0.1041935321
795295230.0 0.0332697923 0.8505350754 0.0005316607 0.0001161049 0.0004388766 -0.0003320381 -0.02054364 -0.1041933795
800295200.0 0.0417380602 0.8506946644 0.0004286433 2.10336e-05 0.0004589356 -2.07817e-05 -0.0219101813 -0.103471458
805295170.0 0.0493023323 0.8510954218 0.0003729848 -0.0003252042 0.0002841461 9.24642e-05 -0.0226713684 -0.1033135232
810295140.0 0.0580670005 0.8509211126 0.0002942596 -2.9779e-05 0.0004961541 -0.0001678465 -0.0241806737 -0.102424786
815295110.0 0.0653699715 0.8495597981 0.0005146352 -0.0001154649 0.0002542384 -0.0001082363 -0.0256711958 -0.1020623589
820295080.0 0.07375969 0.848953087 0.0002374402 -6.31102e-05 0.0003150208 -0.0001013385 -0.0271103463 -0.1011490625
825295050.0 0.0814548456 0.848336223 0.0003199144 4.1628e-05 0.0002991293 -0.0001262012 -0.0281182562 -0.1010564555
830295020.0 0.090721516 0.8475681838 0.0005672577 -9.59345e-05 0.0004949189 -8.14836e-05 -0.0294946219 -0.1003304957
835294990.0 0.0982215086 0.8463885116 0.000615898 -0.0003748959 0.0002927041 -0.0003276062 -0.0309852008 -0.099731076
840294960.0 0.1066272713 0.8448428121 0.0003606167 6.9776e-05 0.00048358 -2.75602e-05 -0.0323036441 -0.099035602
845294930.0 0.1149233959 0.8442392817 0.0004402163 -1.78904e-05 0.0001939135 -0.0002232878 -0.0335176438 -0.0983636476
850294900.0 0.1244914947 0.8432867043 0.0003319878 -0.0001531219 0.0005865571 0.0001201758 -0.0346136076 -0.0976531212
