!Created with skrf (http://scikit-rf.org).
# Hz S RI R 50.0 
!freq ReS11 ImS11 ReS21 ImS21 ReS12 ImS12 ReS22 ImS22
300000.0 -0.2337724735 -0.1312454352 0.4669527503 0.085397716 0.4682232213 0.0840534837 -0.2351102565 -0.1291452538
5299970.0 -0.2418690702 0.0052723799 0.474689395 0.0062547855 0.4753902343 0.0060748454 -0.2443644052 0.0045786136
10299940.0 -0.2388925195 0.0188100401 0.4775856244 0.0067991095 0.4770734155 0.0066767983 -0.2407967926 0.0175238818
15299910.0 -0.2339021227 0.0287461334 0.4804823693 0.0082665021 0.4808165082 0.0080517603 -0.2370384578 0.0265664939
20299880.0 -0.2286629453 0.037107901 0.4854380335 0.0080203911 0.4855687392 0.0085148359 -0.2320627976 0.0337957787
25299850.0 -0.2225885565 0.0435561473 0.4905747295 0.0074507032 0.4911108688 0.0074466597 -0.2269576698 0.0400395639
30299820.0 -0.2173049468 0.0486639766 0.4965671021 0.0050178889 0.4958748617 0.0050961909 -0.2220567035 0.045038773
35299790.0 -0.2112659008 0.0530072687 0.5006895405 0.0022367105 0.5014849631 0.0017771263 -0.2170591223 0.0491005273
40299760.0 -0.2061316117 0.0560428295 0.5063378517 -0.0020058974 0.5065019932 -0.0023381992 -0.2119137014 0.0523133995
45299730.0 -0.2011060671 0.0588515318 0.5113501583 -0.0064199489 0.5115949724 -0.0069449586 -0.2072457471 0.0547008271
50299700.0 -0.1961554966 0.0607655152 0.5156210379 -0.0123654015 0.5151519762 -0.0127262686 -0.202778901 0.0570339812
55299670.0 -0.1920997638 0.0624473747 0.5188631441 -0.017858778 0.5188682676 -0.0183105905 -0.1991111645 0.058388883
60299640.0 -0.1879396541 0.0639563073 0.5227112774 -0.0248904492 0.5224992481 -0.0246217679 -0.1952666085 0.0597593088
65299610.0 -0.1841671111 0.0653868816 0.5256222533 -0.0305419583 0.5253156297 -0.0310556568 -0.191911045 0.0609526365
70299580.0 -0.1809547323 0.0658602225 0.5274863396 -0.0370450419 0.5277328198 -0.0375002667 -0.1894169966 0.0617281208
75299550.0 -0.1780366287 0.0667767341 0.5296898953 -0.0446616981 0.5299477603 -0.0445416731 -0.1862467554 0.0628840406
80299520.0 -0.1753586938 0.0675603225 0.5314653138 -0.0511791361 0.5319105699 -0.0512469481 -0.183890595 0.0635496423
85299490.0 -0.1726855725 0.0683320553 0.5329131 -0.0583329279 0.5328951323 -0.0578738241 -0.1816755166 0.0639831887
90299460.0 -0.1703157947 0.0690886308 0.5335742551 -0.065009134 0.5337441514 -0.0647834512 -0.1794020794 0.0648427357
95299430.0 -0.1681246124 0.069887052 0.534653275 -0.0720508104 0.5347009254 -0.0720227579 -0.1779751327 0.0655916911
100299400.0 -0.166052153 0.0701157676 0.534989502 -0.0787616962 0.5351867471 -0.0789473529 -0.1758772597 0.066682171
105299370.0 -0.164249776 0.0708673088 0.5350480448 -0.0855120586 0.5359748355 -0.085723885 -0.1739490812 0.0666869691
110299340.0 -0.1623191403 0.0714799728 0.5352634415 -0.0922162098 0.5360926821 -0.0922491595 -0.1731532949 0.0672014499
115299310.0 -0.1608108144 0.0724570171 0.5353034702 -0.0993046158 0.5352625159 -0.0994221415 -0.1714411833 0.0683118542
120299280.0 -0.1595149467 0.0734158706 0.5353516971 -0.1066805799 0.5351816828 -0.1064873228 -0.1701580565 0.068590304
125299250.0 -0.1577012348 0.0742238932 0.5348744939 -0.1129925929 0.5346676119 -0.1128553306 -0.1689129578 0.069579513
130299220.0 -0.1566402517 0.0744614523 0.5340480666 -0.1196895366 0.5345250471 -0.1202820406 -0.167706084 0.0707950677
135299190.0 -0.1554228979 0.0757837122 0.5338104793 -0.125793508 0.5338798639 -0.1264897058 -0.1666500677 0.0709815753
140299160.0 -0.1543476119 0.0770143189 0.5333187271 -0.1331331554 0.532788812 -0.132785068 -0.1663789627 0.0718511716
145299130.0 -0.1536138924 0.0780263781 0.5318786872 -0.1396768476 0.5318621315 -0.1394320647 -0.1650323989 0.0726935663
150299100.0 -0.1519592685 0.0789565317 0.5306332368 -0.1461318182 0.5307445462 -0.1460494488 -0.1639354262 0.0737390725
155299070.0 -0.151127154 0.0800149639 0.5291823795 -0.1521315159 0.5296979418 -0.1526282207 -0.1630902831 0.0747566326
160299040.0 -0.1498678724 0.0813523373 0.5281567703 -0.1591072876 0.5280404479 -0.1591652731 -0.1625653178 0.0762428791
165299010.0 -0.148823432 0.0824337649 0.5268902731 -0.1652598327 0.5264887122 -0.1656623429 -0.161446078 0.0766302259
170298980.0 -0.1479462523 0.0832810641 0.5246864165 -0.1719241738 0.525501198 -0.171910449 -0.1613433559 0.0780047783
175298950.0 -0.1468683795 0.0846490694 0.5238608058 -0.177730186 0.5238213401 -0.1783736772 -0.1602438345 0.0794352572
180298920.0 -0.1460593844 0.0860037464 0.5216455986 -0.1843028935 0.5218077411 -0.1844425583 -0.1595950843 0.080115166
185298890.0 -0.1449976383 0.0872631652 0.5198827879 -0.1902296 0.5201995583 -0.1905255274 -0.1584385524 0.0807947933
190298860.0 -0.1435941383 0.0888939601 0.5175791545 -0.1967798285 0.5185174251 -0.1965732083 -0.1578717105 0.0822261816
195298830.0 -0.142954086 0.0899915833 0.5160222326 -0.2028221625 0.5160551368 -0.2028450054 -0.1574211427 0.0834436053
200298800.0 -0.1418887664 0.0910675561 0.5137273979 -0.2094589862 0.5142221059 -0.2092558307 -0.1564077404 0.0843580311
205298770.0 -0.1415028078 0.0924520641 0.5117375084 -0.2150126338 0.5118243396 -0.214754464 -0.1555363758 0.0858042519
210298740.0 -0.1401984551 0.0939663582 0.5096747474 -0.2207933264 0.5093964609 -0.2210562647 -0.1552888691 0.0868230514
215298710.0 -0.1391434899 0.0954242379 0.5066524408 -0.2264905611 0.5073344451 -0.2269864159 -0.1542044627 0.0882177026
220298680.0 -0.1381686139 0.0970899725 0.504877995 -0.2326780559 0.5046815836 -0.2328524995 -0.1534961434 0.0893711099
225298650.0 -0.1372528352 0.0982455942 0.5022168941 -0.2382608254 0.5024488675 -0.2379701357 -0.1527226505 0.0907097131
230298620.0 -0.1360026152 0.1000346267 0.4997639681 -0.2445062013 0.500259189 -0.2445816412 -0.1520221184 0.0919247733
235298590.0 -0.1356622318 0.1014136339 0.4971556025 -0.2506488153 0.497523957 -0.2502292156 -0.1510492339 0.0934565622
240298560.0 -0.1342067811 0.1030481696 0.4944032875 -0.2557302361 0.4945169627 -0.2556690701 -0.1506997208 0.0944922984
245298530.0 -0.1335951098 0.1040066458 0.4917312878 -0.261338488 0.4916257135 -0.2615800323 -0.1496310062 0.0958698738
250298500.0 -0.1322484788 0.1055004621 0.4886819383 -0.266958468 0.4888823311 -0.266985539 -0.149177276 0.0973302872
255298470.0 -0.1313240453 0.1072324557 0.4863462823 -0.2723144576 0.486873649 -0.2725787087 -0.1478686918 0.0988026112
260298440.0 -0.1300746248 0.108465638 0.4832266214 -0.2777058471 0.4832431793 -0.2780817569 -0.1472573079 0.09963202
265298410.0 -0.1293273543 0.1102664099 0.4800287102 -0.2839567076 0.4801915905 -0.2842094076 -0.1458032881 0.1010878482
270298380.0 -0.1281925884 0.1113902405 0.4765151614 -0.2891174071 0.4770213556 -0.2889558369 -0.1451878249 0.1026199083
275298350.0 -0.1269775156 0.112952206 0.4731791008 -0.2943047767 0.473604311 -0.2944707096 -0.1443639983 0.103923501
280298320.0 -0.1260821651 0.1143010379 0.4710239389 -0.2993817847 0.4711722837 -0.299797839 -0.1434547244 0.1053310353
285298290.0 -0.1250969441 0.1159445675 0.4674435551 -0.3049974145 0.4675700343 -0.3047819437 -0.1428498949 0.10664808
290298260.0 -0.1237545299 0.1173275815 0.4647365024 -0.310453785 0.4645816421 -0.3106042347 -0.1414124244 0.1079866778
295298230.0 -0.1226537193 0.1184817946 0.4608741699 -0.3159759624 0.4611283485 -0.3160449398 -0.1409022716 0.1092575865
300298200.0 -0.1213119448 0.1203464175 0.4570944791 -0.3212065787 0.457658299 -0.3208554796 -0.1398996323 0.1106093998
305298170.0 -0.1199880836 0.1210865266 0.4542676404 -0.3263218074 0.4541467167 -0.3261782779 -0.138728406 0.1114111045
310298140.0 -0.1186351598 0.1225189569 0.4504115446 -0.3314127296 0.450721122 -0.3313398105 -0.1376859798 0.11275436
315298110.0 -0.1178011408 0.1237368652 0.4470277109 -0.336964019 0.4469181341 -0.3369256564 -0.1366172159 0.114110668
320298080.0 -0.1163882414 0.1252673473 0.4426609419 -0.3418823216 0.4435696416 -0.3420817813 -0.1357105401 0.1154984307
325298050.0 -0.1158794456 0.1259756624 0.4393988347 -0.3462297251 0.4398754075 -0.3470311531 -0.1347237785 0.1165873253
330298020.0 -0.1148132728 0.1276838538 0.435150265 -0.3518451067 0.435692642 -0.3519260764 -0.1341373303 0.1181232812
335297990.0 -0.1133447504 0.1290310641 0.4317160249 -0.356633776 0.4316597393 -0.3565772946 -0.1329213097 0.1192565885
340297960.0 -0.1127219936 0.130409021 0.4270368887 -0.3614482998 0.4272837913 -0.3614609806 -0.1321141799 0.1208301036
345297930.0 -0.11100261 0.1315026692 0.4230177469 -0.3666442288 0.4234696355 -0.3664354141 -0.1310108718 0.1217246339
350297900.0 -0.1100297684 0.1329000474 0.4195079197 -0.3706718118 0.4194086594 -0.3704566588 -0.1298852699 0.1232257303
355297870.0 -0.1087515652 0.1342596156 0.4152953817 -0.3750627563 0.4150125777 -0.3751092251 -0.12869086 0.1245870422
360297840.0 -0.1074470857 0.1359463177 0.4104488524 -0.37997166 0.4112044529 -0.3798624074 -0.1280735001 0.1262731061
365297810.0 -0.1063576071 0.1371315905 0.4067740853 -0.3842974215 0.4067562485 -0.3844706894 -0.126958754 0.1273314602
370297780.0 -0.10474187 0.1382137131 0.4021243782 -0.3888386509 0.4029248472 -0.3884602126 -0.126107499 0.1286594111
375297750.0 -0.1033569257 0.1397615079 0.3979763275 -0.3933691791 0.3983595459 -0.3933149722 -0.1245566682 0.1300945289
380297720.0 -0.1022695043 0.1410816338 0.3942051527 -0.3977006419 0.3937710302 -0.3976965512 -0.123316145 0.1315843579
385297690.0 -0.1009237933 0.1421241584 0.3890902676 -0.4016689068 0.3897403266 -0.402249421 -0.1220661279 0.1331507394
390297660.0 -0.0990024213 0.1432550741 0.3848915564 -0.4057812921 0.3854898868 -0.4059956298 -0.1204183676 0.1338970569
395297630.0 -0.0975062432 0.1446910473 0.3809220233 -0.4097316246 0.380878176 -0.4100798524 -0.119547286 0.1352342228
400297600.0 -0.0964356813 0.1457113359 0.3765095011 -0.414390332 0.3765618979 -0.414303887 -0.1181159128 0.1368844619
405297570.0 -0.094911376 0.1465296008 0.372067688 -0.4183570009 0.3719730122 -0.4182656407 -0.1167211406 0.1379859861
410297540.0 -0.0929394887 0.1480712244 0.3669066404 -0.422770588 0.3673374758 -0.4225836605 -0.11570092 0.1394905444
415297510.0 -0.0918486655 0.1491272275 0.3625009279 -0.4262217711 0.3629087724 -0.4267093794 -0.1144415574 0.1405868303
420297480.0 -0.0901964164 0.1499868512 0.3575903617 -0.4307091554 0.3580751434 -0.4306033163 -0.1127605816 0.1422864695
425297450.0 -0.0879675595 0.1511555456 0.3529980693 -0.4343110622 0.3530499613 -0.4345008664 -0.1115841581 0.1430971791
430297420.0 -0.0868018428 0.1526031987 0.3485095151 -0.4381925555 0.3488360998 -0.4379429058 -0.1097660098 0.144466437
435297390.0 -0.0854601455 0.15351319 0.3434214707 -0.442461285 0.3433293867 -0.4420887751 -0.1089534448 0.1459905525
440297360.0 -0.0833450004 0.1542948043 0.3385192212 -0.4460991595 0.3386837015 -0.4457198473 -0.1075348339 0.1467787112
445297330.0 -0.081697855 0.1551319876 0.3339102137 -0.4491136312 0.3337626578 -0.4494981385 -0.105716883 0.148431939
450297300.0 -0.0798866026 0.1562650689 0.3289838833 -0.4529534548 0.329058613 -0.4529703568 -0.1040994382 0.1494620165
455297270.0 -0.0787586056 0.1573282476 0.3240013702 -0.4564557612 0.3240997916 -0.4567772644 -0.102549921 0.150671896
460297240.0 -0.0764823579 0.1582928426 0.3190217432 -0.4605637505 0.3192678606 -0.4601671237 -0.1016214791 0.1514690795
465297210.0 -0.0748678661 0.1591830304 0.3136801942 -0.4636228605 0.3135771691 -0.4639004531 -0.0995215591 0.1532804846
470297180.0 -0.0732503696 0.1602282869 0.3088427865 -0.4669151629 0.3088884977 -0.4669888807 -0.0983210928 0.1540698202
475297150.0 -0.0716980144 0.161274388 0.3036123437 -0.4700019298 0.3037029062 -0.4701579593 -0.0967166372 0.1548606249
480297120.0 -0.0692952425 0.1624794769 0.2982345613 -0.4737637403 0.2986532568 -0.4735241274 -0.0954944191 0.1559495244
485297090.0 -0.0675793616 0.1627660553 0.2931946159 -0.4769574934 0.2933680687 -0.4768334475 -0.0939698658 0.1574437833
490297060.0 -0.065231989 0.1637485118 0.2877685494 -0.4801412605 0.2881864009 -0.4801750734 -0.0925097861 0.1581842066
495297030.0 -0.0639791208 0.164447768 0.2829689508 -0.4828753457 0.2826657004 -0.483260331 -0.0906597041 0.1593693937
500297000.0 -0.0624046295 0.1654473311 0.2775054645 -0.4860170857 0.2773425086 -0.4862709772 -0.0889166011 0.1601553748
505296970.0 -0.0598844291 0.1664379481 0.2724776874 -0.4891919024 0.272225107 -0.4887230426 -0.0876051654 0.1605413005
510296940.0 -0.0581179853 0.166784681 0.2669232615 -0.4922950117 0.2674211217 -0.4924728341 -0.08573154 0.1620259882
515296910.0 -0.0563293921 0.1681000484 0.2611006867 -0.4951096515 0.2611650892 -0.4945797449 -0.0843520012 0.162601874
520296880.0 -0.054265825 0.1687711387 0.2558384108 -0.4974840532 0.2559623096 -0.4973068693 -0.0824421466 0.1641958818
525296850.0 -0.0523534864 0.1692098159 0.2505079079 -0.5001333368 0.2502219606 -0.5002503205 -0.0805337717 0.1648030288
530296820.0 -0.0506351173 0.1698119468 0.2450102352 -0.5026469221 0.2452640335 -0.5032341685 -0.0792874612 0.1656438044
535296790.0 -0.047831059 0.1706995077 0.2394613681 -0.505474848 0.2398819173 -0.5055555732 -0.0774608066 0.1669825954
540296760.0 -0.0460738329 0.1715308916 0.2340659431 -0.5080718187 0.2338325594 -0.5077835621 -0.0758404227 0.1673754648
545296730.0 -0.0448865083 0.1724463395 0.2289415183 -0.5104849489 0.2283351426 -0.5103027994 -0.0740725625 0.1684737941
550296700.0 -0.0419224067 0.1730153669 0.223102903 -0.5132116282 0.2223748845 -0.5132921205 -0.0721150929 0.1692044355
555296670.0 -0.0405086339 0.1734444902 0.2172863244 -0.5155487356 0.2173747256 -0.515217718 -0.0708430185 0.1695235525
560296640.0 -0.037826173 0.1739754474 0.2111494747 -0.5174319874 0.2117155657 -0.517587194 -0.0691918064 0.170912308
565296610.0 -0.0366004717 0.1748152075 0.2065025025 -0.5202236323 0.2063372573 -0.5197346389 -0.067202665 0.1718388851
570296580.0 -0.0344470306 0.1753248282 0.2007925755 -0.522052332 0.2004889213 -0.5220378284 -0.0657905913 0.1723941124
575296550.0 -0.0320337625 0.1757913719 0.1951138906 -0.524301323 0.194842873 -0.5240165366 -0.0639039719 0.1728989767
580296520.0 -0.0302180333 0.1766532824 0.1892372578 -0.5262129531 0.189088521 -0.526572158 -0.0625874985 0.1738301169
585296490.0 -0.0279620777 0.1768716606 0.183854266 -0.528162523 0.1830843758 -0.5283497365 -0.0604173719 0.17498543
590296460.0 -0.0254066323 0.17725964 0.1780670836 -0.5302200771 0.1777469019 -0.5303891692 -0.0590891562 0.1755257679
595296430.0 -0.0237414536 0.1778696745 0.1715695253 -0.5321694339 0.1713808518 -0.5319455572 -0.0571036195 0.1762038429
600296400.0 -0.021649164 0.1786094819 0.1655306667 -0.5338809805 0.1655110507 -0.5338522196 -0.0549895374 0.1763768541
605296370.0 -0.0198003706 0.1791168525 0.1606579813 -0.5355438529 0.1599379515 -0.535491807 -0.0534413363 0.1774763053
610296340.0 -0.0172602608 0.179590704 0.154023779 -0.5364687486 0.1545142213 -0.536902656 -0.0521255508 0.1781466515
615296310.0 -0.0151994945 0.1799743227 0.1487434533 -0.53894034 0.1482360265 -0.5387775935 -0.0498348933 0.1788506399
620296280.0 -0.0137831159 0.1806692584 0.1426938557 -0.5404770133 0.1423224601 -0.5405894251 -0.0485650475 0.1796459886
625296250.0 -0.0115734271 0.1806039873 0.1370109613 -0.5420156568 0.1368112237 -0.5419603058 -0.0470033587 0.1801065077
630296220.0 -0.0092750218 0.1816129147 0.1302677458 -0.5436462628 0.1307987044 -0.5432565862 -0.0448872727 0.1806985045
635296190.0 -0.0074358847 0.181742168 0.1251101954 -0.5443076487 0.1252865012 -0.544486553 -0.0431548477 0.1813436806
640296160.0 -0.0053691947 0.1819392895 0.1193118562 -0.54609326 0.1192710347 -0.5460054637 -0.041775002 0.1818501884
645296130.0 -0.0032249346 0.182659508 0.1134559431 -0.5472714791 0.113158773 -0.5470452628 -0.039844583 0.1822240201
650296100.0 -0.0010616203 0.1826658985 0.1072213858 -0.5481433503 0.1071921041 -0.548450624 -0.0374479104 0.1826779727
655296070.0 0.0007765452 0.18292447 0.1011477574 -0.5493447768 0.1012294021 -0.5491738528 -0.0360331276 0.1833752318
660296040.0 0.002974543 0.1831852936 0.0955970767 -0.5502926463 0.0951979901 -0.5506541741 -0.0341706294 0.1835081952
665296010.0 0.0052734559 0.1835232684 0.0888497184 -0.5512798842 0.0891916307 -0.5514188899 -0.0326136783 0.1840482749
670295980.0 0.0069893608 0.1838366248 0.0831495406 -0.5522964736 0.0835052594 -0.5518958936 -0.0311481888 0.1845212084
675295950.0 0.0091445246 0.1837333545 0.0776667507 -0.552931237 0.0773313221 -0.5529682807 -0.0291344668 0.1849607342
680295920.0 0.0109988039 0.1842645883 0.0715113005 -0.5535657738 0.0715937375 -0.5537881571 -0.0268727471 0.1852104666
685295890.0 0.0133556422 0.1844981684 0.065104296 -0.5544749339 0.0654769552 -0.5545411283 -0.0251352694 0.1859101061
690295860.0 0.0150134032 0.1843125925 0.0593266773 -0.5551780251 0.0594170411 -0.5552962464 -0.0235098815 0.1863360364
695295830.0 0.0172437238 0.184247797 0.053991207 -0.5562039748 0.0537642421 -0.5556901124 -0.0215443182 0.1867577312
700295800.0 0.0193890521 0.1845556584 0.0482137583 -0.5560199793 0.047641509 -0.5562207143 -0.019591968 0.1872778387
705295770.0 0.021255547 0.1848224736 0.0415994592 -0.5573615037 0.0418279281 -0.5565795372 -0.01813688 0.187479116
710295740.0 0.0227813462 0.1844644837 0.0359842886 -0.5572932772 0.0355815355 -0.5574728621 -0.0160002776 0.1878876987
715295710.0 0.0252840983 0.1849918083 0.0298075949 -0.5577643518 0.0295342922 -0.5576706202 -0.0142337683 0.1879676414
720295680.0 0.0277908313 0.1848793378 0.0236133761 -0.5576580524 0.0236809038 -0.5581212819 -0.0125431155 0.1882163478
725295650.0 0.0291572524 0.1851644172 0.0180823133 -0.5582825245 0.0175165312 -0.5581353815 -0.0109714153 0.1891084419
730295620.0 0.0304280238 0.1846146087 0.0120285374 -0.5578867002 0.011319745 -0.5579549547 -0.009226962 0.1896228795
735295590.0 0.0330706968 0.1846960815 0.0054348164 -0.5583386319 0.0061265487 -0.5582207813 -0.0072269398 0.189291489
740295560.0 0.0350810461 0.184261655 -0.0002469652 -0.5579925876 -0.0003332142 -0.5586351973 -0.0055397005 0.1902010773
745295530.0 0.0369289454 0.1840879116 -0.0062589143 -0.5573491428 -0.0056274816 -0.5579062091 -0.0040138792 0.1897879473
750295500.0 0.0384084046 0.1843284903 -0.0116835675 -0.5579243338 -0.01262256 -0.5580363425 -0.0020004416 0.1900361756
755295470.0 0.0404889139 0.183855237 -0.0178845444 -0.5578331465 -0.0178522416 -0.5581379116 0.0002257255 0.1905184062
760295440.0 0.0426322056 0.1842790777 -0.0244619365 -0.5577762639 -0.023978401 -0.5574215345 0.0019554195 0.1898312289
765295410.0 0.045018814 0.1832702182 -0.0300581535 -0.5568735075 -0.0299566362 -0.5571583289 0.00381711 0.1904177443
770295380.0 0.0464410596 0.1837243543 -0.035963645 -0.5565424065 -0.0360916463 -0.557061056 0.0054601289 0.1908423801
775295350.0 0.0481262112 0.1829353872 -0.041684099 -0.5567264129 -0.0420390835 -0.5562902941 0.0073603053 0.1909058122
780295320.0 0.0504016765 0.1831493229 -0.0477402784 -0.5554178483 -0.0477841861 -0.5557966492 0.0094109195 0.1908213923
785295290.0 0.0520940655 0.1823535545 -0.0537729633 -0.5555973864 -0.0537065632 -0.55531604 0.0106663664 0.1913230284
790295260.0 0.0542651869 0.1820438313 -0.0595251984 -0.5548780309 -0.0595626732 -0.5554191966 0.0125080179 0.1915711976
795295230.0 0.0559796068 0.1814052229 -0.0656758459 -0.553834606 -0.0662331773 -0.5541610517 0.0146310952 0.1908841835
800295200.0 0.0576207322 0.181555221 -0.0711405399 -0.5528155118 -0.0719277277 -0.553305981 0.0161640702 0.191112019
805295170.0 0.0596061086 0.1809495114 -0.0774578354 -0.5525085469 -0.0775508683 -0.5528384918 0.0186950908 0.191089875
810295140.0 0.0618448675 0.1805348468 -0.0834346125 -0.5516459388 -0.0833725169 -0.55157574 0.0205341013 0.190974721
815295110.0 0.0634401137 0.1800598854 -0.0894683999 -0.55057819 -0.0890613748 -0.5508363181 0.0217199258 0.1910163168
820295080.0 0.0654374036 0.1794349905 -0.0944878556 -0.5492915688 -0.0949828798 -0.5500525827 0.0232597666 0.1915427497
825295050.0 0.0671444068 0.1787026022 -0.1008699515 -0.5487461513 -0.1009612846 -0.5483541807 0.0257901216 0.1914183899
830295020.0 0.0691994074 0.178480235 -0.1070514508 -0.5474247015 -0.1070583924 -0.5474086274 0.0275700115 0.1908378441
