!Created with skrf (http://scikit-rf.org).
# Hz S RI R 50.0 
!freq ReS11 ImS11 ReS21 ImS21 ReS12 ImS12 ReS22 ImS22
300000.0 -0.2382391539 -0.0960624887 0.4710381342 0.0630555608 0.4695496183 0.060997651 -0.2386878952 -0.0977728379
5299970.0 -0.2451084223 0.0064271954 0.4746784384 0.0051491105 0.4748680982 0.0049597133 -0.2412266745 0.007278839
10299940.0 -0.2416793674 0.0176152495 0.4767361521 0.0061241334 0.476661041 0.0064027914 -0.2376172815 0.0204282819
15299910.0 -0.2375157655 0.0267238099 0.4804340654 0.0078668792 0.4805864623 0.0072947158 -0.2331035232 0.0301493094
20299880.0 -0.2328287526 0.0340942514 0.4850927398 0.0082169472 0.4849914067 0.0079304104 -0.2277327716 0.0381726584
25299850.0 -0.2276606421 0.040256117 0.490310496 0.0069540926 0.4900515773 0.00715247 -0.2218391421 0.0448122279
30299820.0 -0.2227635581 0.0451461727 0.4956912424 0.0047421229 0.4953949724 0.0048331957 -0.2160317346 0.0501095916
35299790.0 -0.2173932823 0.0489937081 0.5012016462 0.0012169127 0.5009938534 0.0014816298 -0.2105885679 0.0545071808
40299760.0 -0.2126251464 0.052320703 0.5057515357 -0.0021498859 0.5062000936 -0.002214371 -0.2052317295 0.0575727352
45299730.0 -0.2079879563 0.0547647862 0.5103651052 -0.0067282822 0.5107142985 -0.0068922997 -0.2003582 0.0605268135
50299700.0 -0.2035550466 0.0568110409 0.5151244602 -0.0129102397 0.5150718356 -0.0124526189 -0.1955889004 0.0624618596
55299670.0 -0.199829216 0.0584601749 0.5184755174 -0.0190238814 0.518725298 -0.0185345187 -0.1912923765 0.0643453217
60299640.0 -0.1961282539 0.0600556097 0.5217643691 -0.0247710726 0.5220563751 -0.0246727079 -0.1876242144 0.0654814886
65299610.0 -0.1930314575 0.0610824031 0.524601615 -0.0312192223 0.5248798483 -0.0309071876 -0.1842774381 0.0665091839
70299580.0 -0.1898848878 0.0622198762 0.5271225615 -0.0382046775 0.5271707309 -0.0375461775 -0.1808314484 0.0673813785
75299550.0 -0.1872458644 0.0631385535 0.5291404069 -0.0444145768 0.5287506268 -0.0444304574 -0.1778666568 0.0683727629
80299520.0 -0.1846115462 0.0637196904 0.5306641515 -0.0516445367 0.5310784974 -0.0515789628 -0.1753964487 0.0692017112
85299490.0 -0.1824532498 0.0642677728 0.5317922574 -0.0580073357 0.5322400158 -0.0577784905 -0.1728400996 0.069553431
90299460.0 -0.1802929861 0.0650488201 0.5328772351 -0.0652374702 0.5335691605 -0.0649383398 -0.1705501718 0.0705118432
95299430.0 -0.1779051401 0.0651764104 0.533954285 -0.0716760421 0.5339820553 -0.0724107061 -0.1681751361 0.0713596523
100299400.0 -0.1767405228 0.0664398027 0.5339290422 -0.0787107983 0.5343625019 -0.0790594927 -0.1661547267 0.0713877929
105299370.0 -0.1748904589 0.0669358027 0.5342212651 -0.0861354017 0.5348332043 -0.0857910912 -0.1639895465 0.0724294693
110299340.0 -0.1733501459 0.0673932073 0.5350027214 -0.0924020601 0.5346567418 -0.0926445626 -0.1629142556 0.0730034682
115299310.0 -0.1720837121 0.0679524719 0.535105533 -0.0994230962 0.5347916229 -0.0991491053 -0.1610855221 0.073828957
120299280.0 -0.1707727307 0.0685370861 0.5348469662 -0.1061671812 0.5343622998 -0.1062526921 -0.1593190856 0.074504623
125299250.0 -0.1695326333 0.0689011229 0.5336815187 -0.1127978855 0.5342816856 -0.1125875063 -0.1588999584 0.0747044635
130299220.0 -0.1685101484 0.0702146896 0.533172333 -0.1197248243 0.5332732967 -0.1198875933 -0.156856245 0.0758723654
135299190.0 -0.1671843035 0.0711305248 0.5328957172 -0.1264284586 0.5331110498 -0.1261954485 -0.1556524568 0.0768738924
140299160.0 -0.1665328779 0.0718780413 0.5320013912 -0.1332588965 0.5321018916 -0.1332190491 -0.1545710249 0.0780817986
145299130.0 -0.1655605466 0.0731660089 0.5314978601 -0.1398880197 0.5307001754 -0.1391283458 -0.1533696158 0.0791790176
150299100.0 -0.1644365074 0.0738762537 0.530197843 -0.1456597548 0.529822118 -0.145380232 -0.1525097333 0.0804624579
155299070.0 -0.1639739846 0.0746629755 0.5289953282 -0.1528503543 0.5289385942 -0.1524553671 -0.1511912327 0.081617504
160299040.0 -0.1629097455 0.0757076569 0.527514866 -0.1591943441 0.5271496766 -0.1593492598 -0.1508078227 0.082470125
165299010.0 -0.1621879452 0.0767946237 0.5255486479 -0.1655631444 0.5262042001 -0.1655632763 -0.1491099538 0.0839588234
170298980.0 -0.1614708712 0.0777154033 0.5241202569 -0.1718204659 0.524654714 -0.1716373635 -0.148508045 0.0849937018
175298950.0 -0.1605545605 0.0788201508 0.5232479525 -0.1781517581 0.5226647917 -0.1778770688 -0.1476651583 0.0860237254
180298920.0 -0.1599251998 0.0799298938 0.5211042495 -0.1841228836 0.5209327129 -0.1841517528 -0.1466127619 0.08745844
185298890.0 -0.1588020893 0.0810516543 0.5193683478 -0.1906304115 0.5192109987 -0.1900375933 -0.1455662687 0.0888880724
190298860.0 -0.1582016886 0.0823076806 0.5175695287 -0.1966745536 0.517423536 -0.1968421762 -0.1444767308 0.0899521212
195298830.0 -0.1574945023 0.0832209074 0.5151422754 -0.2029934675 0.5154720999 -0.2025026676 -0.1435542803 0.0911950231
200298800.0 -0.1567036286 0.0847252423 0.512960907 -0.2090642238 0.513212394 -0.2091022394 -0.1431321581 0.0923848961
205298770.0 -0.1560431527 0.0859528083 0.5105515391 -0.2154324891 0.510917614 -0.2150103607 -0.1419759624 0.0931623166
210298740.0 -0.1555721096 0.0870216494 0.5084736683 -0.2207567738 0.5085258718 -0.2205902396 -0.140992769 0.0954386241
215298710.0 -0.1549517074 0.088354054 0.5062988369 -0.2270383708 0.506274611 -0.2267335588 -0.1407276307 0.0963634463
220298680.0 -0.1541463495 0.0892930038 0.5037546591 -0.2324835801 0.5035964162 -0.2329615093 -0.1396258967 0.0975774029
225298650.0 -0.1533842509 0.0907474351 0.5014453908 -0.2383829892 0.5017234847 -0.2383859212 -0.1390323923 0.0984723628
230298620.0 -0.15245262 0.0920792105 0.4989407643 -0.2440183782 0.4993200583 -0.2443367638 -0.1379717402 0.1001908535
235298590.0 -0.1517701181 0.0937572751 0.496337738 -0.250255229 0.496724816 -0.2497548228 -0.1371338662 0.1015411113
240298560.0 -0.1509740895 0.095003259 0.4938425613 -0.2559215552 0.4937909934 -0.2557746287 -0.1360788393 0.1031608721
245298530.0 -0.1501880319 0.0965699112 0.4910368173 -0.2618418878 0.4910012222 -0.2616999355 -0.1349758709 0.104050984
250298500.0 -0.1490492325 0.0978433785 0.4874669568 -0.2671638784 0.4877605891 -0.2666197821 -0.133855255 0.1055966321
255298470.0 -0.1486450945 0.0986758508 0.4845921187 -0.2724706519 0.4851528561 -0.2723229769 -0.1328194607 0.1070043217
260298440.0 -0.147762941 0.0999104174 0.4818594298 -0.2785071272 0.4818137426 -0.2780670529 -0.1311453349 0.108403882
265298410.0 -0.1467075723 0.1017987708 0.4788823812 -0.2839217189 0.4792544348 -0.2835604789 -0.1306264005 0.1098054428
270298380.0 -0.1459259482 0.1029473734 0.4763984018 -0.2888344437 0.476198721 -0.2889290276 -0.1295174592 0.1111058925
275298350.0 -0.1449152474 0.1043114 0.4730030141 -0.2946485718 0.4732499184 -0.294500703 -0.128273067 0.1122977302
280298320.0 -0.1437567976 0.1056075401 0.469933457 -0.3000638055 0.4701477776 -0.2999473831 -0.1271385036 0.1135445733
285298290.0 -0.1430542885 0.1074024887 0.4663392824 -0.3055296895 0.4666547217 -0.305414097 -0.1257301161 0.1148557671
290298260.0 -0.1418469818 0.1083758631 0.4632564064 -0.3102323517 0.4635159274 -0.3106818186 -0.1243489578 0.1167188881
295298230.0 -0.1409766089 0.1094971706 0.4600499023 -0.3154994951 0.4599674779 -0.3158705902 -0.1228400667 0.1176244274
300298200.0 -0.1401985971 0.1111058793 0.4568293625 -0.3210275039 0.4567678379 -0.3208599098 -0.1216119614 0.1189025523
305298170.0 -0.138938827 0.1122015931 0.4528968873 -0.3263830104 0.4529346896 -0.3263069471 -0.1199527103 0.1201232263
310298140.0 -0.1379731058 0.1135556665 0.4494425505 -0.3315383096 0.44942599 -0.3314425048 -0.1190087116 0.1214818287
315298110.0 -0.1369429824 0.1145287458 0.4454670722 -0.3366889117 0.4461260209 -0.3364759569 -0.117682179 0.122847126
320298080.0 -0.1359674533 0.1158373546 0.4420107619 -0.3423477922 0.4421636878 -0.3414872811 -0.1161139537 0.1241279556
325298050.0 -0.1350204001 0.1171797825 0.4378687913 -0.3468063744 0.4381580616 -0.3464887185 -0.1153595636 0.1250932293
330298020.0 -0.1341988255 0.1182190586 0.43403295 -0.3517724529 0.4343900459 -0.3518910127 -0.1141393186 0.1268266394
335297990.0 -0.1328615925 0.1194359249 0.4298248766 -0.3564444931 0.4299833679 -0.3565404742 -0.1131707402 0.1284042861
340297960.0 -0.1326045657 0.1211462126 0.4258630496 -0.3614366532 0.4255111784 -0.3614889645 -0.1112726929 0.1295741915
345297930.0 -0.1315643331 0.1227826039 0.4216792862 -0.3661312724 0.4215105841 -0.3660789768 -0.1105290224 0.1306730508
350297900.0 -0.1304330065 0.123755401 0.4174805047 -0.3706358129 0.4173143957 -0.3709774965 -0.1095421285 0.1327156643
355297870.0 -0.129285046 0.1257509105 0.4130757563 -0.3753756521 0.4139997721 -0.3751344245 -0.1081043299 0.1338178125
360297840.0 -0.1282615419 0.1268653729 0.4099552885 -0.3794846162 0.4098685461 -0.3796534888 -0.1067839358 0.1354098129
365297810.0 -0.1273429373 0.1284414886 0.4051206535 -0.3841814258 0.4056335439 -0.384475616 -0.1050841629 0.1366924562
370297780.0 -0.1258601522 0.1291910487 0.4007194153 -0.3884631811 0.4009516264 -0.3882931365 -0.1040393984 0.1382430694
375297750.0 -0.1243391456 0.1308161356 0.3966233041 -0.3933211644 0.3972273517 -0.3929028861 -0.1024920692 0.1392657422
380297720.0 -0.1234259167 0.1321990954 0.3922582171 -0.3976191885 0.3927588227 -0.3966311807 -0.1012451449 0.1404156602
385297690.0 -0.1225079856 0.1334685743 0.387898341 -0.4016840613 0.3879876798 -0.4014810326 -0.0996847389 0.1417533017
390297660.0 -0.1211197665 0.1352050414 0.383442581 -0.406010328 0.3838450364 -0.4056212605 -0.0986551128 0.1430280252
395297630.0 -0.1198778764 0.1365756274 0.3791613376 -0.409962255 0.3791397161 -0.410232159 -0.096305439 0.1445783997
400297600.0 -0.1184404935 0.1378794346 0.3742074476 -0.4148491826 0.374642994 -0.4143090265 -0.0950689076 0.1456885089
405297570.0 -0.11772453 0.138913666 0.3700393722 -0.4182721326 0.3699639649 -0.4179087789 -0.0936677853 0.1468255487
410297540.0 -0.1159114549 0.1400609593 0.3654839795 -0.4225518293 0.3657449633 -0.422378162 -0.0922864518 0.1482884256
415297510.0 -0.1147052702 0.1412423863 0.3604832365 -0.4266774286 0.3612832555 -0.4265233145 -0.0905689457 0.1490759341
420297480.0 -0.1133460975 0.1427820225 0.3560340389 -0.4303543526 0.3559119644 -0.4303383416 -0.0891803805 0.1501500098
425297450.0 -0.1120517252 0.1438236089 0.3515762367 -0.4341868831 0.3517003849 -0.4343323301 -0.0878862301 0.1519083667
430297420.0 -0.1107693231 0.1447147086 0.3468665859 -0.4376357687 0.3467884484 -0.4372962477 -0.0859989424 0.1523771198
435297390.0 -0.1095439561 0.1462322792 0.341325607 -0.4419566282 0.3416262848 -0.4418041264 -0.0838814765 0.1534967619
440297360.0 -0.1078634202 0.147580654 0.3368782101 -0.4452409435 0.3374425914 -0.4452036177 -0.0826669699 0.1543138337
445297330.0 -0.1065714254 0.1483036033 0.3321346514 -0.4492751362 0.3322209192 -0.4484500747 -0.0804560788 0.1552967527
450297300.0 -0.1049428553 0.14962083 0.327195375 -0.4526264823 0.3269785917 -0.4527858173 -0.0789570166 0.1561001219
455297270.0 -0.1037307307 0.1508615305 0.3218667736 -0.455920335 0.3222872011 -0.4557078658 -0.0774503367 0.1570318302
460297240.0 -0.1026490617 0.1516092431 0.3170097512 -0.4593000951 0.3173302206 -0.4594703589 -0.0755703826 0.1584576776
465297210.0 -0.1006588495 0.153159135 0.3122299528 -0.4629298771 0.3121310617 -0.4632927769 -0.0734067533 0.1591144222
470297180.0 -0.0990348879 0.1537961412 0.3065769371 -0.466145561 0.3072821973 -0.4665247865 -0.0717318454 0.1603495937
475297150.0 -0.0978209636 0.1548702838 0.3015024613 -0.4693481688 0.3025272047 -0.4691716908 -0.0696481575 0.1606695036
480297120.0 -0.0961294623 0.1564789078 0.2965956036 -0.4729968009 0.2967938816 -0.473435271 -0.0675508546 0.1621930944
485297090.0 -0.0950756943 0.1572739556 0.2916953912 -0.476101229 0.2917183688 -0.4756716169 -0.0661782536 0.1629913354
490297060.0 -0.0939116657 0.1582937501 0.2869129505 -0.4792548838 0.2866465575 -0.479361938 -0.0640964353 0.1641175303
495297030.0 -0.0920213533 0.1594317477 0.2808097782 -0.4824970959 0.2813891692 -0.48206391 -0.0627954335 0.1647567395
500297000.0 -0.0902326235 0.1602129451 0.2756398398 -0.4850303273 0.2756320201 -0.4850342233 -0.0603884895 0.1661747843
505296970.0 -0.0886485602 0.1613612031 0.2707298785 -0.4881457572 0.2705400063 -0.4883084825 -0.0589989422 0.1667023412
510296940.0 -0.0874962269 0.1625788466 0.2654862505 -0.4910882864 0.2653423326 -0.4914542112 -0.0567573307 0.1675253553
515296910.0 -0.0857738393 0.1632720748 0.2597677138 -0.4938292923 0.2599103857 -0.4937751687 -0.0551749833 0.1683524755
520296880.0 -0.0841955266 0.1643010288 0.2541479401 -0.4972323539 0.2543342709 -0.4967437025 -0.053495984 0.1691606276
525296850.0 -0.0823632634 0.1649825678 0.2489211445 -0.4990180264 0.2494960965 -0.4993403131 -0.0516521564 0.1700322504
530296820.0 -0.0810296288 0.1663128424 0.2437572015 -0.5023949824 0.2435384353 -0.5019819612 -0.049741326 0.1709282169
535296790.0 -0.0797681592 0.16709181 0.2383261432 -0.5044392075 0.2383371181 -0.504119683 -0.0478734923 0.1709294574
540296760.0 -0.078027209 0.1682865801 0.2324528674 -0.5075578224 0.2323991858 -0.5074634179 -0.0460812434 0.1723995122
545296730.0 -0.0763459805 0.1690209068 0.2266860382 -0.5098129598 0.2271446613 -0.5096936185 -0.0446041364 0.1726384368
550296700.0 -0.07437716 0.1699537553 0.2214018765 -0.512039375 0.221414706 -0.5123652543 -0.0426854713 0.1736838694
555296670.0 -0.0730599049 0.1707363738 0.2158541368 -0.5145788894 0.2163146165 -0.5142280991 -0.0404277708 0.174229744
560296640.0 -0.0709629245 0.1722724789 0.2101048093 -0.5172432194 0.210626648 -0.5169350054 -0.0386160913 0.1750976659
565296610.0 -0.0697653944 0.1725125384 0.2044967951 -0.5190792028 0.205037419 -0.5189064918 -0.0367568105 0.1749768195
570296580.0 -0.0682825975 0.173310131 0.1993206623 -0.5214614847 0.1988731825 -0.5213056571 -0.0348659284 0.1761259379
575296550.0 -0.066520594 0.1745599614 0.1935858801 -0.5233452735 0.1934196495 -0.5235169644 -0.0328144824 0.1764759767
580296520.0 -0.0645103015 0.1750378815 0.1875273485 -0.5256154934 0.1877396788 -0.5255606421 -0.0306170464 0.1770447337
585296490.0 -0.0630335597 0.1752740632 0.1819627937 -0.526883869 0.182324898 -0.5271942647 -0.0292246461 0.1774041889
590296460.0 -0.0607456146 0.1764802786 0.1759491818 -0.5287995186 0.1766047255 -0.5289185842 -0.0277172563 0.1777301771
595296430.0 -0.0593092818 0.17723648 0.1702778507 -0.5310980888 0.1705497972 -0.5309047651 -0.0254686598 0.1780183374
600296400.0 -0.0581720481 0.1777525819 0.1648015079 -0.5329017956 0.164761428 -0.5326193623 -0.0236674082 0.1783541128
605296370.0 -0.0563788606 0.1785216992 0.1586752142 -0.5344799306 0.1592652166 -0.534707221 -0.0212350381 0.1788029929
610296340.0 -0.0542497668 0.1792997763 0.1526231447 -0.5360159101 0.1534261453 -0.5360511041 -0.0191363231 0.1791537303
615296310.0 -0.0522551307 0.1794380242 0.1471067454 -0.537517007 0.1473554036 -0.5380406113 -0.0168509575 0.1795302253
620296280.0 -0.0508983946 0.180236291 0.1413155243 -0.5394998022 0.1416445212 -0.5393111404 -0.0153384087 0.1796608027
625296250.0 -0.0493393016 0.1806041293 0.1360165511 -0.5409322937 0.1357065284 -0.5412470815 -0.0128127759 0.1799769746
630296220.0 -0.0465158914 0.1814824417 0.1293236493 -0.5423070639 0.1297270777 -0.541934558 -0.0108978216 0.1804145619
635296190.0 -0.0459928322 0.1819462402 0.1238103516 -0.5434827803 0.124417843 -0.5436588043 -0.0090891562 0.1807284611
640296160.0 -0.043817124 0.182764537 0.117944379 -0.5447198051 0.1186550372 -0.5446932032 -0.0067375791 0.1808069211
645296130.0 -0.0422622108 0.1837224061 0.1116766376 -0.5458274267 0.1126524636 -0.5459290942 -0.0048477043 0.1813505664
650296100.0 -0.0401384885 0.183884074 0.1060768698 -0.5472138935 0.1064310993 -0.5470190165 -0.0024764482 0.1808131629
655296070.0 -0.0388160271 0.1842586767 0.1004603955 -0.5482834416 0.1007296808 -0.5482882083 -0.0004003185 0.1811827154
660296040.0 -0.0369003571 0.1845437669 0.0947220458 -0.5493906261 0.0948519882 -0.5491402046 0.0016569375 0.1815765467
665296010.0 -0.0346023621 0.1849373456 0.0879815889 -0.5499094491 0.0884910098 -0.5500250754 0.0036686514 0.1820782532
670295980.0 -0.0337478947 0.1858073722 0.0823644436 -0.5511323226 0.0824068386 -0.550966259 0.0055480626 0.1819784622
675295950.0 -0.031588957 0.1865800435 0.0766420863 -0.5517347052 0.0772012428 -0.5514469259 0.0072301608 0.1822671543
680295920.0 -0.0301754105 0.186742755 0.0706485693 -0.5522917318 0.0704753285 -0.5529711234 0.0094538093 0.1829620398
685295890.0 -0.0280312391 0.1874730801 0.0647128667 -0.5534402655 0.0644580627 -0.5535093744 0.0117560453 0.182441529
690295860.0 -0.0257342058 0.1876995869 0.0590190016 -0.5538458772 0.0585469506 -0.554412738 0.0137139314 0.1833025574
695295830.0 -0.0244209595 0.1878913079 0.0529803215 -0.5542463765 0.0525079185 -0.5545495012 0.0157627709 0.1829437336
700295800.0 -0.0225685345 0.1881036106 0.0468141976 -0.5548307517 0.0464835432 -0.5547775476 0.0172551482 0.1832864765
705295770.0 -0.0208066449 0.1892060945 0.0407373519 -0.5555697067 0.0409008309 -0.5557376465 0.0195097164 0.183181472
710295740.0 -0.0183524454 0.189279243 0.0347510355 -0.5558496181 0.0351775534 -0.5560786129 0.0213968155 0.1827387901
715295710.0 -0.0171804553 0.1893516174 0.029408535 -0.5562717183 0.0285006632 -0.5560039104 0.0236907288 0.1826200154
720295680.0 -0.01511597 0.1898406325 0.0227199704 -0.5568171656 0.0229597457 -0.5563054826 0.0253515186 0.1829262396
725295650.0 -0.0132246652 0.1901865405 0.0165025036 -0.5566064398 0.0169313898 -0.5567284698 0.0270540324 0.1829507879
730295620.0 -0.011057794 0.1905397408 0.0107396036 -0.5562227583 0.0107751678 -0.5565369907 0.0289712249 0.1826894417
735295590.0 -0.0096596533 0.1908450182 0.0050270223 -0.55689657 0.0047346997 -0.5571075221 0.0308689752 0.1822919977
740295560.0 -0.0079058804 0.1910982296 -0.0008893819 -0.5566599363 -0.0010898116 -0.5564336764 0.0334552987 0.1823333844
745295530.0 -0.0059996211 0.1914389091 -0.0073424993 -0.5561967732 -0.0074121916 -0.5565743644 0.0354080104 0.181523664
750295500.0 -0.0040102933 0.1913943862 -0.0129882725 -0.5560967443 -0.013481163 -0.5567105387 0.0375308054 0.1814745971
755295470.0 -0.002228024 0.1915415609 -0.0188184598 -0.5565187495 -0.0190919259 -0.5566030244 0.0396639885 0.1809770883
760295440.0 -0.0005125775 0.1917604446 -0.0250969365 -0.5565423019 -0.0251419409 -0.5563824597 0.041277214 0.1808842393
765295410.0 0.0016062078 0.1917883794 -0.0314351719 -0.5556989061 -0.0313685688 -0.5560752032 0.0432703847 0.1806944095
770295380.0 0.0029916959 0.1919059364 -0.0373961401 -0.5553479076 -0.0370243399 -0.5553426724 0.0452690099 0.179918328
775295350.0 0.0048883921 0.1917492631 -0.0434743267 -0.5545544152 -0.0427641863 -0.5549030601 0.0467206998 0.1799042947
780295320.0 0.0068779808 0.1920735428 -0.0492422813 -0.554099695 -0.048489418 -0.5541864178 0.0489270952 0.1790019541
785295290.0 0.0085359902 0.1914387231 -0.0553222843 -0.5531954884 -0.0549182339 -0.5536254663 0.0515341812 0.1787245646
790295260.0 0.0110963806 0.1924625182 -0.0608282423 -0.5529729269 -0.0596824409 -0.5528028019 0.0534338997 0.1783445033
795295230.0 0.0126459682 0.1920079943 -0.0666673348 -0.5520708208 -0.0662131609 -0.552617375 0.0557634247 0.1780142114
800295200.0 0.0144210875 0.192330778 -0.0735240237 -0.5512600177 -0.0725146402 -0.5513756895 0.0578617635 0.1774709278
805295170.0 0.016096293 0.1920457465 -0.0788603333 -0.550331746 -0.0786779259 -0.5508529239 0.0593294826 0.1769069363
810295140.0 0.017876208 0.1918043786 -0.0843746493 -0.5496142361 -0.0845776382 -0.5498722598 0.0619940719 0.1767244346
815295110.0 0.0198849634 0.1916633551 -0.0900514988 -0.5482041357 -0.090179561 -0.5489397573 0.0634585628 0.1760684589
820295080.0 0.0216262615 0.1919914816 -0.0965545642 -0.547384834 -0.0957788885 -0.5477084467 0.0652653059 0.1757055765
825295050.0 0.0238376018 0.1917855995 -0.1019473606 -0.5463846359 -0.101927505 -0.5469206217 0.0677019486 0.1753075729
830295020.0 0.025432242 0.1920771479 -0.1080461716 -0.5453983544 -0.1079610891 -0.5452783369 0.0702686307 0.1744092771
