!Created with skrf (http://scikit-rf.org).
# Hz S RI R 50.0 
!freq ReS11 ImS11 ReS21 ImS21 ReS12 ImS12 ReS22 ImS22
300000.0 -0.7735958373 -0.0981145251 -5.2088e-06 0.001743288 0.0005581812 0.001039806 -0.2131165607 -0.0799236464
5299970.0 -0.7850155296 -0.0058575351 -6.14788e-05 0.000117192 8.81975e-05 -1.11275e-05 -0.2148770539 0.0083370498
10299940.0 -0.7875816049 -0.0037629551 7.1384e-05 0.0001796316 -1.6259e-05 0.000128799 -0.2113331368 0.0215423501
15299910.0 -0.7934062283 -0.0021476471 5.09544e-05 -5.95806e-05 0.0001388119 6.38452e-05 -0.2062965252 0.0312594887
20299880.0 -0.7998847481 0.0020069829 5.67483e-05 -4.33033e-05 0.0001308386 -1.67121e-05 -0.2004149788 0.0389693828
25299850.0 -0.8064746897 0.0070996593 -3.76643e-05 5.67732e-05 0.0001564164 3.72558e-05 -0.1938097569 0.0456837913
30299820.0 -0.8123252334 0.0154788224 -1.8481e-06 7.1218e-05 -5.51443e-05 -9.97617e-05 -0.1871669503 0.050683935
35299790.0 -0.8172661413 0.0244187837 0.000162547 4.94165e-05 -1.90054e-05 -6.35344e-05 -0.1810927127 0.0546020555
40299760.0 -0.8212944966 0.0337107875 3.6895e-05 7.35232e-05 0.0001065941 7.19366e-05 -0.1750903213 0.0571820127
45299730.0 -0.8242976442 0.042593027 0.0001579772 -0.0001121845 -7.7946e-06 1.50473e-05 -0.1693811908 0.0594654495
50299700.0 -0.8266745171 0.0527988645 -1.93879e-05 1.87006e-05 8.3846e-06 5.97123e-05 -0.1642580211 0.0607669771
55299670.0 -0.8292212227 0.0632725966 4.59939e-05 9.4015e-05 0.0002782417 3.0452e-06 -0.1596386834 0.0618994839
60299640.0 -0.8301738029 0.0734454827 0.0001283447 -4.51438e-05 2.58367e-05 3.56506e-05 -0.1548704064 0.0622520788
65299610.0 -0.8311600895 0.0832175189 -0.0001746084 0.0001123361 1.28026e-05 0.0002396533 -0.1515439217 0.0626143731
70299580.0 -0.8312287401 0.0929856821 -0.0002688751 0.0001082735 -1.06077e-05 0.0002006234 -0.1473810059 0.0628282259
75299550.0 -0.8319147602 0.1030835227 5.85309e-05 -6.45597e-05 -3.0495e-06 -2.53999e-05 -0.1445048435 0.0624838039
80299520.0 -0.831517117 0.1134053064 -0.0002405458 6.86729e-05 9.8665e-05 -1.07459e-05 -0.141731473 0.062726462
85299490.0 -0.8309084674 0.1226606743 -0.000214454 -5.29592e-05 3.64791e-05 1.98351e-05 -0.1394010086 0.0624798055
90299460.0 -0.82953487 0.1318534766 4.38997e-05 7.2257e-06 -3.68543e-05 0.0001996752 -0.1368337683 0.0619767541
95299430.0 -0.828668231 0.1413718853 5.71585e-05 8.83838e-05 8.59094e-05 0.0002196482 -0.1349046618 0.0620895592
100299400.0 -0.8278156053 0.1508066474 -4.28887e-05 -0.0001960543 -7.57854e-05 6.95503e-05 -0.1327069895 0.0620144028
105299370.0 -0.8266971705 0.1595421307 0.0001532545 -9.46681e-05 -0.0001021681 1.00466e-05 -0.1305522719 0.0615313134
110299340.0 -0.8253959177 0.1689840229 -0.0001025861 -3.02247e-05 1.60213e-05 0.000192454 -0.1295195624 0.0615999873
115299310.0 -0.823639868 0.1784707337 0.0001176304 4.54519e-05 1.56701e-05 0.0001072824 -0.1278424446 0.0613746483
120299280.0 -0.8220990492 0.1865052001 0.0001039849 8.2433e-06 0.0001310113 3.79503e-05 -0.1267419704 0.0613098746
125299250.0 -0.820253318 0.1954854386 2.55143e-05 -6.46836e-05 4.58715e-05 -0.0001242456 -0.1256337671 0.060938556
130299220.0 -0.8183099456 0.2051488941 6.24e-07 -7.17958e-05 0.0001372172 0.0001696208 -0.1244474936 0.0607936319
135299190.0 -0.8171784876 0.2137930004 2.37348e-05 -9.55793e-05 -3.77856e-05 0.000159179 -0.1232530343 0.0611070657
140299160.0 -0.8143533125 0.2232402013 -4.38804e-05 5.94622e-05 6.14256e-05 0.0002229252 -0.1225392414 0.0614077875
145299130.0 -0.8127140326 0.2317204382 -3.93548e-05 -1.47024e-05 8.57744e-05 1.5631e-06 -0.1220735461 0.0616010596
150299100.0 -0.8102926141 0.2406772152 9.06815e-05 0.0001557775 0.0001687636 0.0001613486 -0.1212059214 0.0624423503
155299070.0 -0.8078128432 0.2492735787 0.0001428108 0.0003275536 0.0001135115 0.0001509789 -0.1200636503 0.0624582622
160299040.0 -0.8049159111 0.2578571115 7.4142e-06 4.28946e-05 -0.0001533636 7.67345e-05 -0.1199459837 0.0627719603
165299010.0 -0.802441414 0.2666289378 -0.0002309211 -5.58435e-05 -0.0001203172 -0.000145776 -0.1190306839 0.063048945
170298980.0 -0.7999806659 0.2749359895 -0.0001727092 0.0001238878 0.0001650522 0.0001633222 -0.1181414818 0.0635950117
175298950.0 -0.797288153 0.284358225 0.0001838801 -6.05656e-05 7.61937e-05 -0.0001027895 -0.1180497057 0.0640918741
180298920.0 -0.7944632988 0.2925712163 -6.38013e-05 0.0001274709 1.01574e-05 2.05678e-05 -0.1175140718 0.0644646036
185298890.0 -0.7912349516 0.3006213612 -3.03969e-05 -7.52032e-05 0.0002672626 8.69429e-05 -0.1167106178 0.0648850731
190298860.0 -0.7884345374 0.3092715917 3.92545e-05 0.0001882164 -4.05556e-05 -5.15e-08 -0.1162410561 0.0657759033
195298830.0 -0.785151768 0.3178691888 6.9898e-06 0.0002130131 4.73354e-05 0.0001076037 -0.1158330917 0.0661203259
200298800.0 -0.7812959255 0.3255091982 1.54512e-05 4.26111e-05 9.14195e-05 2.48908e-05 -0.1154783801 0.0667628745
205298770.0 -0.7783015955 0.3342657703 0.0004422393 -4.6202e-06 0.0001740667 -6.80812e-05 -0.1146933553 0.0669227857
210298740.0 -0.7750348889 0.3422615817 2.55257e-05 -4.37786e-05 7.801e-05 -1.42386e-05 -0.1145112239 0.0677317781
215298710.0 -0.7712382177 0.3504295558 0.0001933883 -0.0001919009 0.0001100811 0.0001662389 -0.1142224165 0.0683051869
220298680.0 -0.7676595356 0.3583513919 9.10452e-05 0.0002716103 -0.0002232455 0.0001179402 -0.1139263137 0.0692339511
225298650.0 -0.7642691314 0.3665948267 5.116e-07 0.0001325415 3.27548e-05 0.0001887196 -0.1133996212 0.0697204654
230298620.0 -0.7601310624 0.3743572699 -1.01392e-05 4.93598e-05 7.08316e-05 8.18608e-05 -0.112775245 0.070577371
235298590.0 -0.7562047116 0.3827207327 1.5407e-05 -6.95283e-05 0.0001733385 -4.9473e-05 -0.1126387431 0.0716516842
240298560.0 -0.7520432586 0.3907326611 3.91178e-05 0.0001019621 7.4611e-06 5.37742e-05 -0.1117524649 0.0725213618
245298530.0 -0.7487854586 0.3979669875 0.0001856379 -4.95722e-05 0.0002631049 0.0001268832 -0.111442043 0.0731381718
250298500.0 -0.7444272647 0.4063893321 0.0002265804 -4.1354e-05 -2.51563e-05 5.73528e-05 -0.1111592888 0.0736121584
255298470.0 -0.7397746423 0.4134684725 -9.95257e-05 5.34536e-05 7.2154e-06 1.63308e-05 -0.110621208 0.0743487645
260298440.0 -0.7357484593 0.4210483374 7.74988e-05 7.57231e-05 0.0001813976 0.0001208336 -0.1098967581 0.0754809216
265298410.0 -0.7310894759 0.4292891111 0.0001806955 -1.40141e-05 7.37842e-05 9.94306e-05 -0.1094998267 0.0764805575
270298380.0 -0.7270253421 0.4373564402 3.8342e-06 7.84331e-05 -5.03346e-05 5.79066e-05 -0.1090435005 0.0773332956
275298350.0 -0.7220485754 0.4445694641 1.39505e-05 -2.74075e-05 6.46422e-05 9.32047e-05 -0.1081447893 0.078345355
280298320.0 -0.7169130256 0.4514940432 6.02647e-05 0.0001326562 -3.61415e-05 0.0002673021 -0.1075715438 0.0790550652
285298290.0 -0.7128691352 0.4592716386 8.97057e-05 8.22245e-05 4.8597e-06 0.000149303 -0.1070683489 0.0799132158
290298260.0 -0.7079749325 0.467070622 0.0001558271 5.59347e-05 7.71109e-05 -7.89605e-05 -0.1064799349 0.0808069494
295298230.0 -0.7025410115 0.4737368444 7.44487e-05 0.0001126369 2.63924e-05 0.0003335893 -0.1059354615 0.0817580056
300298200.0 -0.697933098 0.4816526378 1.97834e-05 8.09056e-05 8.46322e-05 9.22663e-05 -0.1052668748 0.0825261604
305298170.0 -0.6927239552 0.4875869512 0.0002471944 0.0002768828 -1.24476e-05 0.0002674131 -0.1043517644 0.0832431958
310298140.0 -0.6872072204 0.4962017528 0.0001327108 -9.95382e-05 0.0002466283 -1.18162e-05 -0.1043690025 0.0843112176
315298110.0 -0.6828731059 0.5027258171 3.35726e-05 -0.0001521006 0.0001099101 8.20615e-05 -0.1037044645 0.0849928418
320298080.0 -0.6775522947 0.5099936603 9.41389e-05 0.0002631193 -4.2072e-06 5.57746e-05 -0.1031244188 0.0860212709
325298050.0 -0.6717689053 0.5171196023 0.0001200786 3.94081e-05 7.75196e-05 -1.98004e-05 -0.1023421943 0.0867697937
330298020.0 -0.6664237906 0.5237422168 -6.95555e-05 9.18525e-05 0.000228846 0.0002127053 -0.1021090678 0.0880098111
335297990.0 -0.6608143413 0.5302604337 4.54538e-05 0.0003030766 -4.43146e-05 0.0002351713 -0.1019122471 0.0891724239
340297960.0 -0.6554215309 0.5373303915 0.0002161236 8.43563e-05 9.47754e-05 0.0001180903 -0.1005963635 0.0901970713
345297930.0 -0.6502840124 0.5439232838 8.5068e-05 2.05273e-05 -1.48958e-05 -3.25259e-05 -0.1002896516 0.0909101105
350297900.0 -0.6446355652 0.5503488463 -5.21068e-05 0.0001489016 0.0001975775 8.17382e-05 -0.1000236094 0.0925411731
355297870.0 -0.6378566575 0.5576145394 0.0001406954 -0.0001005129 2.19121e-05 -5.6644e-06 -0.0991515344 0.0935684444
360297840.0 -0.6324923716 0.5631439797 -6.13287e-05 3.98817e-05 4.99211e-05 -8.22032e-05 -0.0987989859 0.0941764652
365297810.0 -0.6271258698 0.570305675 0.0002415768 0.0002511346 0.0001089684 -6.17709e-05 -0.0976867889 0.0951470813
370297780.0 -0.6208744984 0.5763254181 0.000118408 -5.465e-06 8.79094e-05 4.8999e-05 -0.0967804964 0.0963384333
375297750.0 -0.6145043318 0.5823544552 0.0001949117 0.0001547096 2.24239e-05 6.4977e-05 -0.0966234077 0.097011245
380297720.0 -0.6085903875 0.5890899188 2.32278e-05 -9.12339e-05 0.0001173472 5.14668e-05 -0.0959770692 0.0981974805
385297690.0 -0.6036483731 0.5946738315 -8.49101e-05 0.0001235842 0.000127287 0.0002315278 -0.0947182832 0.0992902065
390297660.0 -0.5969268129 0.6009800671 -5.01441e-05 3.78423e-05 0.0002196196 -1.2845e-06 -0.0944707009 0.100414589
395297630.0 -0.5904710231 0.6078908849 -0.0002093047 0.0001407393 0.0002053793 0.0001040916 -0.093146914 0.1013401752
400297600.0 -0.5840987604 0.6134755816 -2.81661e-05 0.0001501757 3.41273e-05 0.0002293538 -0.0924375182 0.1024034866
405297570.0 -0.578311206 0.6195391417 -0.0001540999 8.69093e-05 -3.73746e-05 9.01618e-05 -0.0918385712 0.1030187721
410297540.0 -0.5708329123 0.6250634072 0.0003036311 0.0001230986 0.0001969169 5.89391e-05 -0.0909997636 0.1046296806
415297510.0 -0.5648578053 0.6308902588 0.0001429122 0.000333217 0.0002593313 1.63537e-05 -0.0900099125 0.105270409
420297480.0 -0.5591106426 0.63676489 0.000362295 -0.00015718 -0.0001486456 0.0001805949 -0.0892899397 0.1061162366
425297450.0 -0.5512934661 0.6418368902 -4.23568e-05 0.0002227058 1.59733e-05 0.0001180694 -0.0883159428 0.1073551666
430297420.0 -0.5451495311 0.6477429608 4.99256e-05 0.0001298826 0.000151418 0.0002826513 -0.0875710192 0.1081025621
435297390.0 -0.5389877416 0.6528438256 0.0002737426 3.0615e-06 5.00639e-05 6.56266e-05 -0.0864381828 0.1093602816
440297360.0 -0.5315586753 0.6588222201 6.2229e-06 2.74409e-05 -4.36529e-05 5.72554e-05 -0.0853986748 0.1101570928
445297330.0 -0.5247762737 0.6642873186 0.0002618273 4.68217e-05 0.0002172323 8.04216e-05 -0.0846320872 0.1108989148
450297300.0 -0.5184425343 0.6688720977 0.000161263 9.95742e-05 0.0002216651 0.0002046732 -0.0836007747 0.1119399223
455297270.0 -0.5117033895 0.6743646876 0.000194431 -2.39337e-05 0.0001563116 5.84342e-05 -0.0828969406 0.1127501069
460297240.0 -0.5050504027 0.6794005094 6.42771e-05 3.98456e-05 0.0001813342 0.0001124015 -0.0819382205 0.1140337177
465297210.0 -0.4977783659 0.6848100119 0.0002381525 0.0001541853 0.0001120871 0.0002402214 -0.0809830815 0.114747469
470297180.0 -0.4900926126 0.68989888 0.0004058818 -7.29956e-05 0.0001430074 0.0001883399 -0.0798237916 0.1159538783
475297150.0 -0.4837148932 0.694081601 5.02212e-05 -0.0002502085 0.0001806295 -4.87641e-05 -0.0786635594 0.1163089118
480297120.0 -0.476585251 0.6994028003 2.6058e-05 0.0001499948 0.0001175894 -9.84024e-05 -0.0780763793 0.1173188293
485297090.0 -0.4695098646 0.7041019833 0.0002150848 -0.0002656555 0.0004001047 -0.0001033568 -0.0767006652 0.1184303066
490297060.0 -0.4623257817 0.7080652453 0.0002241384 0.0001034832 -1.3431e-05 5.00551e-05 -0.075665273 0.1191749533
495297030.0 -0.4550041946 0.7127660025 0.0002555407 5.3655e-06 0.0001900451 -6.93963e-05 -0.0751090607 0.120412339
500297000.0 -0.4476239102 0.7179249145 -2.65965e-05 0.0001123068 7.30942e-05 -0.0001299847 -0.0734607234 0.1216056318
505296970.0 -0.4397636733 0.7222895639 0.0001322071 6.8808e-06 0.0001066041 0.0002806221 -0.0728424886 0.1220829008
510296940.0 -0.4331522589 0.7263384369 0.0001938352 0.0002159508 0.0001259701 0.0001125884 -0.0714461997 0.1230046869
515296910.0 -0.4246420458 0.7304403128 0.0003151942 0.0003773859 0.0002180551 0.0001384971 -0.070687428 0.1239783921
520296880.0 -0.418550471 0.7350231617 0.000412038 -3.12673e-05 0.0004129073 0.0001081361 -0.0695662691 0.1244660145
525296850.0 -0.4104474939 0.7387817654 0.0002852489 -8.90934e-05 0.0003644514 5.26828e-05 -0.0685547198 0.1257654213
530296820.0 -0.4027986366 0.7429481363 0.0002610669 0.0002292819 6.38255e-05 1.52738e-05 -0.0671920994 0.1265169351
535296790.0 -0.3956399713 0.7463150199 0.0002775715 0.0003242179 0.000151786 0.0002032849 -0.0667377792 0.1270247313
540296760.0 -0.3880557173 0.7503995497 0.0003047445 -0.0001533635 3.94073e-05 2.87051e-05 -0.0654507838 0.1283455529
545296730.0 -0.3803013031 0.7548255785 0.0002365946 0.0002507632 0.0001980842 4.58503e-05 -0.0640342976 0.1285998343
550296700.0 -0.3734747852 0.7589074592 0.0001145626 -0.0001907289 8.823e-07 2.58717e-05 -0.0632463451 0.129414855
555296670.0 -0.3651134167 0.760965091 0.0001563969 0.0001387926 0.0004372683 -4.51219e-05 -0.0620011092 0.1307393443
560296640.0 -0.3574560657 0.7661125073 0.0002945942 0.0002065891 9.52796e-05 -6.69615e-05 -0.0605390291 0.1314604244
565296610.0 -0.3494940405 0.7691183462 8.45411e-05 0.0002262806 0.00020737 0.0003246345 -0.0594824804 0.1318804175
570296580.0 -0.3427927062 0.7715402451 0.0003029382 0.0003257177 0.0003764047 8.8868e-05 -0.0584731236 0.1329309072
575296550.0 -0.3344871171 0.7760433431 0.0002832734 -8.7505e-06 0.0001917561 0.0001011205 -0.0572125175 0.1335102828
580296520.0 -0.3262797475 0.7787303989 0.0002170406 0.0001472378 -0.0001100138 4.74735e-05 -0.0557403722 0.1340291211
585296490.0 -0.3186937671 0.7820954441 -0.0001098142 -0.000156238 0.0004232861 7.49151e-05 -0.054944867 0.134743902
590296460.0 -0.3107234178 0.7853347535 4.56081e-05 -0.0001405104 0.0002472495 0.0001664018 -0.0538359242 0.1358473159
595296430.0 -0.3033429315 0.787825802 0.0001840816 0.0001211559 0.0003160044 4.44955e-05 -0.0521828615 0.1360743426
600296400.0 -0.2949776996 0.7915769944 0.0001570226 -0.0002930542 0.0001694585 -0.0001112955 -0.0511919298 0.1367363802
605296370.0 -0.2876818575 0.7942435723 0.0001392335 0.000127603 0.0004021821 9.02853e-05 -0.0495365946 0.1374221642
610296340.0 -0.279426778 0.7972188107 6.81096e-05 0.0001753381 0.0003138163 -5.48252e-05 -0.0483922328 0.13813524
615296310.0 -0.270540226 0.8001156265 -9.5006e-05 1.11554e-05 0.000202801 -6.43126e-05 -0.0469908958 0.1384273805
620296280.0 -0.2633875338 0.8022726473 -5.5275e-06 -9.3037e-06 5.05273e-05 6.09276e-05 -0.04617997 0.1394761425
625296250.0 -0.2550050098 0.8050241334 0.0003654434 2.90122e-05 0.0003137895 8.32562e-05 -0.0441967928 0.1398790791
630296220.0 -0.2466647174 0.8076836081 0.0002527936 -0.0001038979 0.0002177805 -3.02289e-05 -0.0433319112 0.1409846236
635296190.0 -0.2386400112 0.8101639284 0.0003464544 -0.0001135331 0.0001084278 -8.88966e-05 -0.041680536 0.1412622725
640296160.0 -0.2311729188 0.8119888844 0.0001792921 -2.65641e-05 0.0001904283 0.0001680659 -0.0404265605 0.1416794395
645296130.0 -0.2225540626 0.8150148155 0.0002789428 -7.23091e-05 0.0003413225 9.39872e-05 -0.0390282501 0.1428194622
650296100.0 -0.2144457341 0.8160224118 0.0003657433 -0.0001152095 7.30665e-05 0.0001325544 -0.0383619233 0.1429514845
655296070.0 -0.2065722507 0.8190592494 0.0001554509 -0.0001891947 0.0001636008 3.67871e-05 -0.0361914659 0.1434894395
660296040.0 -0.1981677012 0.8204527295 -5.78085e-05 0.0002034646 0.000256608 -1.3864e-05 -0.0348762821 0.1441075255
665296010.0 -0.1901198175 0.8219585259 0.0001197736 -9.97722e-05 0.0001276101 -4.73112e-05 -0.033698969 0.1449572148
670295980.0 -0.1820511071 0.8245019566 0.0001607254 3.751e-07 9.43798e-05 -9.67401e-05 -0.0326331441 0.1453847256
675295950.0 -0.1734602259 0.8255871902 0.000114131 -7.0761e-05 0.0003026989 0.0001478272 -0.0312010911 0.1460935492
680295920.0 -0.1654274122 0.8275213407 0.0002174805 1.66207e-05 8.96769e-05 0.0001162976 -0.0296300111 0.1467857879
685295890.0 -0.1573533371 0.8301097575 0.0002923751 0.0002714449 0.0003817475 1.74989e-05 -0.0283060059 0.1472316288
690295860.0 -0.1487370646 0.830296703 0.0001488619 0.000155893 9.61221e-05 3.29601e-05 -0.0270035793 0.1480604388
695295830.0 -0.1409180233 0.8316375328 1.03058e-05 -7.4353e-06 0.0002677571 -8.48085e-05 -0.0256973829 0.1481335121
700295800.0 -0.131645825 0.8339121581 0.0001933146 0.0001318461 0.0003354494 7.74399e-05 -0.0246514683 0.1484309558
705295770.0 -0.1244284609 0.8353866828 0.0001615753 0.0001457824 0.0002147153 3.34411e-05 -0.0231084022 0.1494216935
710295740.0 -0.1159065596 0.8360158684 4.51882e-05 0.0001102384 0.0003618441 3.35484e-05 -0.0219940441 0.1496347113
715295710.0 -0.1076894361 0.8368980605 0.0005155055 9.60738e-05 0.000400138 9.62235e-05 -0.0204909562 0.1498939703
720295680.0 -0.0993200313 0.838525322 0.0002150049 2.83142e-05 0.0002559109 8.35105e-05 -0.0189536096 0.150385706
725295650.0 -0.0903168676 0.8392011011 0.0003566397 9.82959e-05 0.0003163434 2.55953e-05 -0.0178688084 0.1509179495
730295620.0 -0.0829812032 0.8398754084 0.0002060385 -0.0001631156 0.0003512841 -9.33035e-05 -0.0165188933 0.1510786459
735295590.0 -0.0747462101 0.8412047895 0.0002277067 3.2112e-06 0.0002537769 7.13894e-05 -0.0151217905 0.1514886994
740295560.0 -0.0659498675 0.8417069364 0.0005494131 2.58654e-05 -2.56e-07 -6.39007e-05 -0.0132344638 0.1517866314
745295530.0 -0.0582382219 0.8421705151 0.0001955794 -0.0001088075 0.0002048566 -2.9949e-06 -0.0121841085 0.1522464716
750295500.0 -0.0494338323 0.8424443962 0.0001806354 -0.0002378441 0.0001358006 0.0001325442 -0.0106700863 0.1524657243
755295470.0 -0.0408641491 0.8428958008 0.0001327314 -1.42111e-05 0.0001267713 3.28833e-05 -0.0093741346 0.1520242073
760295440.0 -0.0326286948 0.8430675667 0.0003343326 -0.0001294738 0.0003401593 -4.8355e-05 -0.0078410884 0.1526927617
765295410.0 -0.024311763 0.8434100957 0.0002043618 5.2112e-06 0.0001057469 -0.0001409849 -0.006012094 0.1532878274
770295380.0 -0.0161764308 0.8440071932 0.0004231238 -0.0001292125 0.000223801 -0.0005508179 -0.0049990229 0.153108398
775295350.0 -0.0077953333 0.8438433605 0.000262966 -0.0002796386 0.0001436302 -7.24712e-05 -0.0035297633 0.1534220904
780295320.0 0.0007849502 0.8440295688 0.0001634548 3.32271e-05 0.000263182 -1.20894e-05 -0.0019975324 0.1537546538
785295290.0 0.0084102254 0.843307204 0.0002189996 -0.0001587072 0.0001857854 -0.000287574 -0.0001740996 0.1536071227
790295260.0 0.0175913895 0.8437678241 0.0004754523 -0.0002265428 0.0001002218 -0.0001333542 0.0014135771 0.1545194308
795295230.0 0.0254417658 0.8432579567 0.0001839634 -0.0001034163 0.0003857044 0.0001114321 0.0028423605 0.1544527152
800295200.0 0.0335173362 0.843041744 2.15965e-05 -7.45362e-05 0.0002380614 -0.0001834284 0.0041134329 0.1548526539
805295170.0 0.0422040554 0.8428841667 0.0001511069 7.68088e-05 0.0001557171 8.3552e-06 0.0051837331 0.154898843
810295140.0 0.0508246561 0.8422574027 0.000284591 -0.0001310973 0.0002749261 4.15544e-05 0.0074492127 0.1550313468
815295110.0 0.058703737 0.8414681874 0.0001728864 0.00026981 0.0001087762 0.000164652 0.0087435163 0.15490962
820295080.0 0.0671229435 0.8412317278 0.0002700088 0.0001523836 0.0003002989 -0.000252124 0.0103215645 0.1555776988
825295050.0 0.0766510365 0.8400127453 0.000239797 -3.52315e-05 0.0004093129 4.38946e-05 0.0119134743 0.1556410104
830295020.0 0.0837463352 0.8395983859 0.0003656457 -6.27827e-05 0.0004410976 -0.0002429066 0.0139003896 0.1554617308
835294990.0 0.091919784 0.8386544413 0.0002266007 7.41395e-05 0.000251989 -0.0001034665 0.0147370277 0.1557559297
840294960.0 0.1002974446 0.8382911415 0.0003318806 0.0001065671 0.0002081561 -5.2347e-05 0.0160461632 0.1558552162
845294930.0 0.1083733793 0.836603877 0.0001557441 0.0001301897 4.14547e-05 -0.000204829 0.0174876203 0.1558212629
850294900.0 0.1164739911 0.836292584 0.0002314007 -3.6414e-06 0.0002833328 -0.0002800196 0.0190862568 0.1558909217
