!Created with skrf (http://scikit-rf.org).
# Hz S RI R 50.0 
!freq ReS11 ImS11 ReS21 ImS21 ReS12 ImS12 ReS22 ImS22
300000.0 -0.0472213758 -0.0377118691 -0.0006561995 0.0005132657 -0.0006883361 -0.0001806244 -0.7725928199 -0.1220663846
5299970.0 -0.0488623841 0.0155523688 -0.0002376278 -5.5208e-05 0.0002812141 0.0001987703 -0.7856160275 -0.0068712231
10299940.0 -0.0430763612 0.032133656 -0.0001235002 0.0001277131 0.000163952 0.0001112319 -0.7883355011 -0.0037655518
15299910.0 -0.0350681709 0.0463768704 5.99326e-05 3.89503e-05 2.3121e-05 0.0002011115 -0.7938906621 -0.0015465622
20299880.0 -0.0252401822 0.057595514 0.0001367448 -0.0003416604 -1.14499e-05 6.27698e-05 -0.8005439242 0.0018773521
25299850.0 -0.0147226235 0.0666988947 -0.000104231 2.46875e-05 -3.39515e-05 3.19473e-05 -0.8068928488 0.0081240107
30299820.0 -0.0035766053 0.0731095232 -6.94208e-05 0.000284266 -0.0001592496 0.0001513881 -0.8128417929 0.015994725
35299790.0 0.0077874085 0.077690084 0.0001427215 0.0001046273 -8.66643e-05 8.64939e-05 -0.8180010292 0.0250482585
40299760.0 0.0188939112 0.080327993 0.0002081358 3.9906e-05 -6.60973e-05 -0.0002424524 -0.8217562582 0.0346214702
45299730.0 0.0293921375 0.081628109 3.74648e-05 -3.71636e-05 7.56716e-05 0.0001608783 -0.8255403157 0.0438738173
50299700.0 0.0391032459 0.0815634943 9.25403e-05 -0.0001945176 5.45585e-05 -0.0001212802 -0.827248436 0.0539384316
55299670.0 0.0483418673 0.0804676292 7.85727e-05 0.0001148032 -6.7638e-06 6.22633e-05 -0.8294706519 0.064134718
60299640.0 0.0565499788 0.0784476451 0.0001505612 5.615e-07 8.46889e-05 -0.0001339763 -0.8305776315 0.0741569737
65299610.0 0.0643073646 0.075921125 5.9034e-05 -0.0001099263 3.2645e-06 -3.22279e-05 -0.8319727511 0.083620515
70299580.0 0.0711533059 0.0733021463 0.0001123436 7.78589e-05 9.80855e-05 -3.34181e-05 -0.8312992679 0.0946896078
75299550.0 0.0773925596 0.070151621 6.02496e-05 5.94819e-05 7.39689e-05 -4.31303e-05 -0.8322825223 0.1039000216
80299520.0 0.0830491083 0.0665259387 -3.02484e-05 -0.0001195805 9.65819e-05 -4.815e-05 -0.8321829289 0.113723964
85299490.0 0.0875531887 0.0627889186 -0.0001564065 -5.33609e-05 0.0001048305 0.0002637428 -0.8315699733 0.1236058996
90299460.0 0.0922528105 0.0592535787 7.93524e-05 -3.09062e-05 -2.11643e-05 3.426e-07 -0.8306739795 0.132617215
95299430.0 0.0964263724 0.0549265744 4.28518e-05 0.0001246621 4.81982e-05 -2.77437e-05 -0.8293975457 0.1425240241
100299400.0 0.0999151591 0.0512208925 -0.0001225464 0.0001590781 0.000266221 0.0001655343 -0.8281321477 0.1519911517
105299370.0 0.1031462449 0.0473248663 0.0001223114 0.0002148716 0.000134856 0.0001039001 -0.8268796168 0.1607566194
110299340.0 0.1057796188 0.0433648537 -0.0002238038 -7.66055e-05 -0.000127665 2.18729e-05 -0.8258236436 0.1703906423
115299310.0 0.1082812527 0.0393947022 5.8441e-05 -8.20659e-05 7.34551e-05 -6.43651e-05 -0.8245175747 0.1798042777
120299280.0 0.1102279138 0.0355958061 -6.75e-07 0.0003691255 -3.65414e-05 -3.52345e-05 -0.8225358495 0.1889258591
125299250.0 0.1120321614 0.0315316367 -0.0001205323 7.05639e-05 6.0403e-06 4.91607e-05 -0.8214630686 0.197892641
130299220.0 0.1134950108 0.0280805019 0.0001311629 0.0002260482 0.0001337584 0.0001278785 -0.8191644801 0.207174797
135299190.0 0.1152993647 0.0244789645 3.15386e-05 -5.52418e-05 -4.38471e-05 -4.14339e-05 -0.8166446042 0.2161852964
140299160.0 0.1162454645 0.0206179079 0.0002106027 0.0001707905 8.86084e-05 0.0001313128 -0.8150441022 0.22495268
145299130.0 0.1174449579 0.0172365779 3.62859e-05 0.0002755171 0.000232811 1.844e-06 -0.8131021737 0.2341230233
150299100.0 0.1183745364 0.0138325967 0.0001019894 -2.49483e-05 8.30855e-05 0.0001089109 -0.8112854165 0.2431836989
155299070.0 0.118850895 0.0104016615 3.7057e-06 0.000165028 0.0001675939 -0.0001356853 -0.8082985623 0.2521214097
160299040.0 0.1194003739 0.0074176105 -0.0002037613 0.0001172249 -9.1009e-06 0.0001632764 -0.8060426466 0.261021305
165299010.0 0.1197027779 0.0037796858 3.453e-05 0.000267738 8.54216e-05 0.0001177455 -0.8034376421 0.2695230366
170298980.0 0.1199034744 0.0011817995 -2.81709e-05 8.0278e-05 4.1125e-06 1.4769e-05 -0.8000588886 0.2781120447
175298950.0 0.1201692556 -0.0021991729 -0.0001019136 1.77578e-05 0.0001488934 -1.14709e-05 -0.7980821863 0.2870078849
180298920.0 0.1206058518 -0.0051240513 0.0001692923 -1.71499e-05 -3.42281e-05 -5.0391e-05 -0.7943614277 0.294754572
185298890.0 0.1205453236 -0.0078732389 7.5872e-06 0.0001143022 -7.87071e-05 0.0001231982 -0.7908997449 0.3035091042
190298860.0 0.1205405875 -0.0108126857 0.0001286971 0.0003350149 0.0001618738 -0.0002314587 -0.7884527613 0.3124941159
195298830.0 0.1201248484 -0.0137946568 0.0002394772 0.0001048374 0.0001033461 1.2909e-06 -0.7850186305 0.3208126104
200298800.0 0.1201464216 -0.0163706959 3.10149e-05 2.64988e-05 5.49503e-05 -0.0001049385 -0.782185949 0.32884125
205298770.0 0.1193834186 -0.0190501075 5.50741e-05 8.84646e-05 -4.7635e-06 1.94455e-05 -0.7781882404 0.3370817711
210298740.0 0.1191414126 -0.0218291769 -2.9084e-06 -8.29694e-05 5.32093e-05 0.0002772354 -0.7746436374 0.3452671345
215298710.0 0.1186368231 -0.0238824884 0.0002003235 7.61537e-05 0.0001362239 0.0001047356 -0.7710648492 0.3536420036
220298680.0 0.1181295271 -0.026906763 0.0001254234 -5.95924e-05 5.70758e-05 -0.0001691774 -0.7672427392 0.3614845342
225298650.0 0.1173905043 -0.0292877305 0.000180896 -1.92886e-05 -4.88509e-05 -8.79878e-05 -0.7636645216 0.3698598282
230298620.0 0.1169731796 -0.0314126024 9.61241e-05 -6.64154e-05 0.0001163188 -5.52498e-05 -0.7601313436 0.3778456232
235298590.0 0.1166467206 -0.0338294542 4.36136e-05 0.0001070903 0.0002430076 4.97159e-05 -0.7559935185 0.3861030427
240298560.0 0.1158603395 -0.0364426188 -7.59152e-05 -0.0001007484 -2.44569e-05 0.0001925743 -0.7515491883 0.3945237185
245298530.0 0.1149496607 -0.0386231895 4.02616e-05 3.09832e-05 0.0001283943 -5.20126e-05 -0.7474336428 0.4022923844
250298500.0 0.1140808972 -0.0407316508 -1.09052e-05 -0.0001975627 4.1884e-06 -0.0001107589 -0.7437265654 0.40951496
255298470.0 0.1131373525 -0.0429109572 9.13003e-05 -5.2144e-05 7.80009e-05 5.9092e-06 -0.7386564764 0.417171504
260298440.0 0.1124989999 -0.0448618107 2.79454e-05 6.81049e-05 6.01984e-05 -5.3697e-06 -0.7349344808 0.4258463639
265298410.0 0.1116398987 -0.0466630683 -0.0002343566 0.0001516295 0.0001639094 3.44991e-05 -0.7298696862 0.4331826019
270298380.0 0.1107138399 -0.0487934446 -0.0001028572 -9.34005e-05 4.98154e-05 -4.7226e-06 -0.7256223602 0.4408451098
275298350.0 0.1097489348 -0.0511095909 -0.0001753145 -6.52307e-05 -0.0001890219 -0.0002025014 -0.7210823595 0.4484736226
280298320.0 0.1089288197 -0.0528951248 5.67872e-05 5.39812e-05 -2.06917e-05 0.0001822018 -0.7159793712 0.4561347559
285298290.0 0.1080803215 -0.054605678 0.0001140266 1.5134e-05 0.0002469216 0.0002894211 -0.710893883 0.4638720342
290298260.0 0.1070906918 -0.056601839 0.000190446 2.17147e-05 0.0001032248 0.0003045776 -0.7063780147 0.4709869302
295298230.0 0.1061206219 -0.0583947337 0.0001541054 0.000100633 -2.50194e-05 0.0001443821 -0.7015442757 0.4779528965
300298200.0 0.105031543 -0.060178307 -4.58576e-05 -0.0001893712 0.0001343691 2.71073e-05 -0.6966252795 0.485620107
305298170.0 0.10419654 -0.0619142141 0.0001198974 -8.19588e-05 -4.03329e-05 6.6265e-05 -0.6904494607 0.4929807077
310298140.0 0.1029778286 -0.0638269875 8.88342e-05 0.000274222 -0.0002270914 0.0001353796 -0.6867733368 0.4998333677
315298110.0 0.1018909572 -0.0657310875 -5.01732e-05 8.30321e-05 -5.7078e-05 0.0001856538 -0.6809152032 0.5075054877
320298080.0 0.1006814235 -0.0679850874 0.0001477983 0.0001371753 9.9068e-05 -8.99458e-05 -0.6755283618 0.5145848876
325298050.0 0.1000142809 -0.0697791071 -0.0001602407 0.0001466591 -4.79538e-05 0.0001099866 -0.6699687148 0.5212636024
330298020.0 0.0981588268 -0.0715420653 0.0003047481 8.2575e-05 1.16308e-05 0.0001299976 -0.6646338648 0.5285711685
335297990.0 0.0965104009 -0.0730890445 -0.0001534078 -0.000120111 -2.38469e-05 0.0001061969 -0.6594740874 0.5357218923
340297960.0 0.0949550798 -0.0744481286 3.72325e-05 0.0002551009 1.82548e-05 -0.0001389835 -0.6532919105 0.5422488643
345297930.0 0.093471983 -0.0759006533 0.0002342066 -0.0001498323 0.0001071487 0.0001156825 -0.6478569462 0.5485052844
350297900.0 0.0922106684 -0.077132883 2.07714e-05 4.11163e-05 -1.02673e-05 4.6845e-06 -0.6419941841 0.5557199604
355297870.0 0.0908721743 -0.0786286177 -6.3323e-05 0.0002726624 -0.0002472247 0.000161512 -0.6366212301 0.5617536615
360297840.0 0.089507179 -0.0800017808 0.0001143908 0.00023858 0.0001730792 1.43821e-05 -0.6301280002 0.5685372119
365297810.0 0.0880961563 -0.0809804044 0.0001147815 0.0001117201 6.2814e-06 0.0001376524 -0.6242283675 0.5751870689
370297780.0 0.0865536631 -0.0822824342 9.8895e-06 -5.4143e-05 0.0001909307 -0.0001175836 -0.6182058313 0.5821430141
375297750.0 0.0852763686 -0.0837516262 -5.0109e-05 4.72358e-05 -5.492e-07 0.0001650376 -0.6122449486 0.5875159782
380297720.0 0.0838542094 -0.0849670537 0.0002390439 -7.7847e-06 0.0003007486 1.25043e-05 -0.6063009056 0.5936674236
385297690.0 0.0821942927 -0.085830385 0.0001249167 0.0002169108 0.0001743504 -2.3275e-06 -0.599945187 0.6002289181
390297660.0 0.0810762277 -0.0870278701 0.0002585208 0.0001513117 0.0002201765 0.0001493995 -0.5931638837 0.6065481905
395297630.0 0.0797214024 -0.0884347229 -2.09436e-05 3.94518e-05 3.01169e-05 -9.59633e-05 -0.5872872422 0.6127136623
400297600.0 0.0782432759 -0.0895288651 -2.97109e-05 6.61647e-05 0.0002279357 -9.71693e-05 -0.5810747202 0.618477355
405297570.0 0.076516282 -0.0905536521 3.00169e-05 -7.4255e-06 -1.33887e-05 0.0002936532 -0.5743111893 0.6246474942
410297540.0 0.0750397988 -0.0914020083 5.97105e-05 5.8051e-05 -0.0001217251 5.12052e-05 -0.568141716 0.6301380612
415297510.0 0.0736547424 -0.0927378027 9.79174e-05 9.12477e-05 0.0002303007 7.63274e-05 -0.5615543387 0.6358691304
420297480.0 0.072336255 -0.0933684857 0.0001647874 0.0001141646 -0.0001099695 1.44428e-05 -0.5545861344 0.6419053983
425297450.0 0.0707664543 -0.0944812357 7.66002e-05 8.61307e-05 1.2108e-05 2.62517e-05 -0.5483442927 0.6473294547
430297420.0 0.0694713195 -0.0958314334 0.0001288124 3.14149e-05 -2.75807e-05 1.99861e-05 -0.5413790792 0.6523934899
435297390.0 0.0676114508 -0.0961133172 -5.05139e-05 -3.52e-06 -5.06984e-05 -8.68577e-05 -0.5340173029 0.6581821854
440297360.0 0.0662472702 -0.0974107289 0.0001566765 -0.0001448982 0.0001146465 0.0001906901 -0.5276111832 0.6639666352
445297330.0 0.0647808667 -0.0985439324 0.0002822464 1.05677e-05 -1.38101e-05 4.76089e-05 -0.5203268733 0.6684292146
450297300.0 0.0633364045 -0.0995896163 0.0002221955 4.41965e-05 0.0001149079 0.0001050766 -0.513711889 0.6740653067
455297270.0 0.0616196439 -0.1001452533 8.72239e-05 7.19998e-05 7.14784e-05 -0.0001037729 -0.5069061331 0.6791464368
460297240.0 0.0598074498 -0.1008581966 0.0001112138 7.90513e-05 5.86965e-05 3.33625e-05 -0.5002388655 0.6841031714
465297210.0 0.0586057108 -0.1014885951 0.0003132111 0.0001287421 3.02709e-05 1.0639e-06 -0.4924993974 0.6893525282
470297180.0 0.0569154718 -0.1023383431 4.65305e-05 1.40291e-05 -1.21462e-05 7.87625e-05 -0.485592622 0.6947207701
475297150.0 0.0552164599 -0.1034568594 0.000124186 -0.000216439 -7.61782e-05 -0.0001581506 -0.4784237318 0.6989017012
480297120.0 0.053669345 -0.103701081 0.0001054439 -0.0002516758 0.000118369 4.98167e-05 -0.4708165081 0.7045462537
485297090.0 0.052078493 -0.1044712841 7.09508e-05 0.0002094263 6.98066e-05 -0.0002425925 -0.4637222226 0.7091097036
490297060.0 0.0500100924 -0.1051142332 0.000106912 -0.00014307 0.0001603472 -0.0001475998 -0.4563888874 0.71323925
495297030.0 0.0489875278 -0.1057839983 0.000210519 0.000131753 -0.0001859324 2.86987e-05 -0.4495330384 0.7183741687
500297000.0 0.0471242075 -0.1062573035 -4.93317e-05 0.00015993 7.1908e-06 5.42618e-05 -0.4421393348 0.722671783
505296970.0 0.0459555503 -0.1070667266 6.39766e-05 -5.67308e-05 0.0001579395 0.0002085704 -0.4350892725 0.7272227011
510296940.0 0.0440035257 -0.1077680787 -3.32575e-05 0.000109229 -0.0001101194 6.97105e-05 -0.4269099908 0.7314299928
515296910.0 0.04239538 -0.1081923111 0.0001741313 -6.1348e-06 1.41351e-05 2.37737e-05 -0.4193452311 0.7351290558
520296880.0 0.0405348563 -0.1088110795 0.0001468875 -5.0259e-05 -0.0001110768 7.06443e-05 -0.4117350688 0.7398205773
525296850.0 0.0389842899 -0.1093154145 -7.74567e-05 0.0001569202 5.69077e-05 0.0001744781 -0.4051872132 0.7433137082
530296820.0 0.0373656099 -0.1096037521 -5.68291e-05 0.0001108703 0.0002017028 1.06524e-05 -0.397141467 0.7472495982
535296790.0 0.0360059405 -0.1099691305 0.0002815892 1.55597e-05 0.0003850217 -0.0001214639 -0.3903547459 0.751794144
540296760.0 0.0341321262 -0.110647308 -3.57885e-05 0.0001247589 0.0001926565 0.0001655054 -0.3816559511 0.755501543
545296730.0 0.0324105896 -0.1106831668 0.0001225558 -0.000164888 8.70843e-05 8.92031e-05 -0.3743530525 0.7594193896
550296700.0 0.0312516791 -0.1111825718 0.0001801666 0.0001904478 -5.82967e-05 -0.0001211067 -0.3661412973 0.7630201832
555296670.0 0.0291741044 -0.1115230439 1.87876e-05 -0.0001675763 0.0001309765 7.47849e-05 -0.359108766 0.7672282952
560296640.0 0.0275642539 -0.1117076714 0.0001842294 -0.0002400524 0.0002114516 0.0001100326 -0.3504774445 0.7699369769
565296610.0 0.0259396669 -0.1119836787 0.0002732746 -0.0001511084 -2.00345e-05 2.34544e-05 -0.3425670509 0.7734773448
570296580.0 0.0238641338 -0.1122371404 0.0002145902 -9.76737e-05 0.0002301769 3.67083e-05 -0.335254507 0.777361566
575296550.0 0.0226080437 -0.1124478208 -1.14811e-05 3.25332e-05 4.17237e-05 -0.0001493928 -0.3272389287 0.7806740263
580296520.0 0.0211333921 -0.1127733543 0.0002279284 -4.8318e-05 -6.24531e-05 -0.0001378601 -0.318602641 0.7836935167
585296490.0 0.0187813649 -0.113128549 0.0002548116 -0.0001216158 0.0002371139 0.000152628 -0.3110962024 0.7867875753
590296460.0 0.0178625014 -0.1131181705 0.0003887912 -6.80485e-05 0.0001917732 -0.0001172654 -0.3035173922 0.7897062973
595296430.0 0.0159188176 -0.1133643042 8.84722e-05 2.61584e-05 7.40819e-05 5.38751e-05 -0.295119305 0.792738609
600296400.0 0.0140062936 -0.1134032681 0.0002400535 -9.75315e-05 0.0001039878 0.0001626597 -0.2871260158 0.7954108426
605296370.0 0.0124849427 -0.1136581207 0.0002257573 -0.0001902708 0.0002718944 0.0001157084 -0.2782304973 0.798546874
610296340.0 0.0107889722 -0.1136902918 0.0002320492 3.75574e-05 6.93163e-05 -0.0001032293 -0.2707592731 0.8014731964
615296310.0 0.0092230669 -0.1137970391 1.859e-07 -9.16551e-05 3.20599e-05 -4.92034e-05 -0.2622625309 0.8037354435
620296280.0 0.0071885779 -0.1138311495 9.1654e-05 -0.0001494383 0.0001787703 8.8958e-06 -0.2547142081 0.8065908077
625296250.0 0.005623141 -0.1141388904 0.0001388609 -6.85319e-05 6.13952e-05 -6.72948e-05 -0.2458175372 0.808660481
630296220.0 0.0045146545 -0.1142947766 0.0002070585 -6.17134e-05 0.0002705342 -2.26337e-05 -0.2381225061 0.8111099748
635296190.0 0.0021954573 -0.1140029709 0.0003858972 -0.0002335434 9.00109e-05 0.0001087686 -0.2297527487 0.8137640248
640296160.0 0.0007169586 -0.113676626 0.0001912125 0.0001730066 0.0001081867 -0.0001158735 -0.2215687988 0.8161572018
645296130.0 -0.0008573283 -0.1133652597 0.0002084929 -0.0002281449 -1.4574e-06 7.4985e-06 -0.2141164657 0.8181995552
650296100.0 -0.0026432917 -0.113347798 -0.0002139748 2.59096e-05 0.0001551504 -0.0001558593 -0.2052325516 0.8194401146
655296070.0 -0.0044939154 -0.113615989 0.0001743631 -7.80074e-05 -0.0001630397 2.23903e-05 -0.1971278364 0.8217177253
660296040.0 -0.0059449694 -0.1134164503 4.72623e-05 -0.0002040792 -0.0001057317 -1.51427e-05 -0.1884119892 0.8238857026
665296010.0 -0.0073054984 -0.1134289916 -3.13472e-05 -0.0001134791 0.0002374986 -0.0001195382 -0.1801733748 0.826080451
670295980.0 -0.0096550544 -0.1128150486 -5.5896e-05 0.0001140224 0.0001213777 0.0001673474 -0.1724582092 0.827449482
675295950.0 -0.0109727522 -0.1125417418 2.36103e-05 -0.0001014587 0.0002625744 2.62765e-05 -0.1645966863 0.8289054991
680295920.0 -0.0123995578 -0.11231186 8.76638e-05 9.205e-06 1.57591e-05 5.76259e-05 -0.1557283462 0.8316839564
685295890.0 -0.0142184911 -0.11193655 0.0001986082 -8.21828e-05 2.01933e-05 -1.2423e-06 -0.1469031921 0.8321009516
690295860.0 -0.0158736124 -0.1118403223 9.95602e-05 -7.54292e-05 0.0001329401 -0.0001531373 -0.1387548252 0.8339064675
695295830.0 -0.0176419252 -0.1112791416 0.0001034229 5.40673e-05 0.0001319465 6.32413e-05 -0.130051154 0.8346637613
700295800.0 -0.0191031227 -0.11138598 0.0003287595 0.0002202149 -7.1635e-05 0.0002123235 -0.1229379822 0.8362881388
705295770.0 -0.0210077414 -0.1105707068 4.76339e-05 -1.72789e-05 0.0003051102 -5.5236e-05 -0.113772118 0.838288121
710295740.0 -0.0227456273 -0.1101671065 8.76437e-05 -0.0001606995 0.0001012874 5.17747e-05 -0.1057476862 0.8382641814
715295710.0 -0.0243097629 -0.1101343505 -8.4575e-06 -9.08745e-05 0.0001878896 0.0001861963 -0.0970647304 0.8398087983
720295680.0 -0.0260185691 -0.1095950635 4.96216e-05 3.80317e-05 0.0002218839 0.0001534785 -0.0885193428 0.8408943278
725295650.0 -0.0274568481 -0.1091039045 4.53939e-05 1.43964e-05 -4.08115e-05 -1.68597e-05 -0.0808499249 0.8414421887
730295620.0 -0.0289442866 -0.1082943024 9.75142e-05 0.0001655888 0.0002457005 4.16773e-05 -0.0729521873 0.8420151871
735295590.0 -0.0304547171 -0.1079917373 -0.0001590233 -3.27954e-05 -0.0001089632 1.34158e-05 -0.0634347131 0.8428452108
740295560.0 -0.0323681472 -0.1074752018 0.0002001976 8.25485e-05 0.0003153308 6.1486e-06 -0.0547300935 0.8436733107
745295530.0 -0.033773775 -0.1068570888 -3.6247e-05 -8.98249e-05 0.0001107599 -0.000165795 -0.0463296642 0.8438268347
750295500.0 -0.0353960842 -0.1064789037 0.0001164061 3.09249e-05 0.0003482355 4.46497e-05 -0.0383182332 0.8443066656
755295470.0 -0.0370474338 -0.1056325283 0.0002043933 -0.0001463413 0.0001735215 0.0001376244 -0.0297082517 0.8439919247
760295440.0 -0.0387514537 -0.1054291604 -1.86647e-05 3.53777e-05 6.0702e-06 2.84599e-05 -0.0215200405 0.8444268075
765295410.0 -0.0399805726 -0.1045563204 0.0003074251 3.04203e-05 0.0002641251 -0.0001305427 -0.0128985207 0.8452001817
770295380.0 -0.0417129607 -0.1037635001 -6.47973e-05 -0.0002600133 0.0002952805 7.72026e-05 -0.00459021 0.8450709152
775295350.0 -0.0433873508 -0.1033519509 7.84375e-05 1.15745e-05 0.0002390519 0.000124277 0.0033308269 0.8442939652
780295320.0 -0.0448783633 -0.102854594 7.38806e-05 -3.42336e-05 0.0001991832 -4.11188e-05 0.0117921676 0.8445790873
785295290.0 -0.0467494954 -0.102463169 0.0002352548 -0.0002048009 0.0001334703 -0.000227954 0.0206690109 0.8441061917
790295260.0 -0.0476817374 -0.101176338 0.0001214612 0.0001900801 -6.7284e-05 0.0001640932 0.0298961523 0.8444642339
795295230.0 -0.0491947774 -0.1003813342 0.0003268412 -0.0001199015 4.5222e-05 -0.0001614562 0.0380566381 0.8435414951
800295200.0 -0.0509135665 -0.0997666424 0.0005860314 -0.0002707382 7.49495e-05 9.9683e-05 0.0463126473 0.8436402584
805295170.0 -0.0522667382 -0.0992222935 4.70223e-05 -0.0001417102 7.85314e-05 -0.0001458114 0.0544980498 0.8431844314
810295140.0 -0.0533343503 -0.0983521676 0.0001786533 -8.93337e-05 0.0001627804 -3.75633e-05 0.0629629542 0.8424499305
815295110.0 -0.0554182573 -0.0975334356 0.0003599147 -0.0002346757 0.0001827586 -3.23561e-05 0.071950563 0.8419835525
820295080.0 -0.0567400936 -0.0960489468 -1.13636e-05 -4.8424e-06 0.0001076052 -7.2692e-05 0.0796401064 0.8413515808
825295050.0 -0.0578559742 -0.0955158239 0.0002690538 6.45618e-05 0.000161472 -0.0001737784 0.0877463546 0.8407606883
830295020.0 -0.0595159906 -0.0946149353 0.0002428141 0.0001519136 0.0001870545 -5.693e-07 0.0973750886 0.8397088142
835294990.0 -0.061172653 -0.093412434 6.40757e-05 -0.0001506947 0.000354541 3.46109e-05 0.10494837 0.8387560958
840294960.0 -0.0621461527 -0.092398081 0.0001899887 -0.000160926 4.72967e-05 -6.14337e-05 0.113419522 0.836986813
845294930.0 -0.0637164331 -0.0914856803 0.0002674901 0.0002830786 4.81216e-05 -0.0001355233 0.1212662358 0.8362245647
850294900.0 -0.0651226781 -0.0906353495 -0.0001086369 2.4859e-06 0.0003488626 -7.36606e-05 0.1292046509 0.8344842437
