!Created with skrf (http://scikit-rf.org).
# Hz S RI R 50.0 
!freq ReS11 ImS11 ReS21 ImS21 ReS12 ImS12 ReS22 ImS22
300000.0 0.8601158458 -0.0010373554 -0.0001734724 1.75012e-05 -0.0003034017 -0.0006653444 -0.7688598968 -0.1873942305
5299970.0 0.8601145847 -0.01058791 -7.84592e-05 -0.000187608 -0.000154703 0.0001749046 -0.7850566965 -0.0091254049
10299940.0 0.8584220332 -0.0185649695 -6.4877e-06 -0.0001301294 9.26963e-05 0.0002114073 -0.7879861026 -0.0052632463
15299910.0 0.8580903882 -0.0272607136 4.87895e-05 0.0002981768 1.06243e-05 0.0001003418 -0.7933283418 -0.0024108416
20299880.0 0.8573640741 -0.0353583255 2.065e-05 -6.70332e-05 2.92777e-05 -9.45628e-05 -0.7998049898 0.0021138468
25299850.0 0.8559612936 -0.0436489221 7.92513e-05 -4.71158e-05 -0.0001089979 9.50065e-05 -0.8063127756 0.0081082926
30299820.0 0.8558699454 -0.0523209185 4.62101e-05 -7.20751e-05 -0.0001043422 0.0001839363 -0.8122453327 0.0157004945
35299790.0 0.8549106017 -0.0600144228 -8.26406e-05 4.9389e-05 -0.0001114344 -4.9459e-06 -0.8170114018 0.0247183069
40299760.0 0.8543229042 -0.0683773746 2.37172e-05 8.6037e-06 0.0001562249 -0.0002059425 -0.8213204514 0.0338371356
45299730.0 0.8533971856 -0.0764473562 6.08207e-05 8.70682e-05 -6.35287e-05 -3.29531e-05 -0.8248585674 0.0438206912
50299700.0 0.8526227567 -0.084462191 -0.0002601823 4.38924e-05 -8.89549e-05 -3.23669e-05 -0.8267443723 0.0538798084
55299670.0 0.8521845265 -0.0927964492 0.0001428443 -0.0001233814 -7.4872e-06 -3.45772e-05 -0.8292012312 0.0637126078
60299640.0 0.8511039736 -0.10107293 -5.59255e-05 4.34175e-05 0.0001291494 0.0001238319 -0.8296210836 0.0742993827
65299610.0 0.849864355 -0.109281927 -5.63004e-05 -0.0001471154 -0.0002271769 -9.30086e-05 -0.8305487936 0.0839714103
70299580.0 0.8490457757 -0.1171227963 0.0001109315 8.91265e-05 0.0001328143 -2.78593e-05 -0.8311876456 0.0935886516
75299550.0 0.8471344204 -0.1257102858 0.0002082971 -1.32761e-05 -0.0001331298 0.0001847199 -0.8310490645 0.1039970852
80299520.0 0.8466091714 -0.1334588742 1.8258e-05 -0.0001301733 -2.45921e-05 -0.0001156271 -0.8307461214 0.1141774689
85299490.0 0.84484405 -0.1419439116 -0.0001552554 -4.31563e-05 0.0001081502 -0.0001879277 -0.8301907842 0.1233540657
90299460.0 0.8441734074 -0.1502893725 -0.0001014952 -8.01454e-05 0.0001572172 -0.0001283275 -0.8290803527 0.1327644026
95299430.0 0.8424798385 -0.1581934155 7.78553e-05 0.0001332619 -6.1303e-06 -1.73825e-05 -0.8284866076 0.1423373337
100299400.0 0.8404622231 -0.1660302815 -0.000111239 5.80282e-05 -0.0001323437 9.4172e-05 -0.8275704571 0.1513571816
105299370.0 0.8391106145 -0.1742472867 8.33467e-05 5.5581e-05 1.5721e-06 -0.0001662473 -0.8259759219 0.1609932815
110299340.0 0.837511206 -0.1826636735 0.000169631 -5.77667e-05 -9.69335e-05 -0.0001562894 -0.824388533 0.169657536
115299310.0 0.8358030315 -0.1906409302 -0.0001554946 1.4954e-05 -1.83608e-05 2.17337e-05 -0.8232983291 0.1791568821
120299280.0 0.8336924614 -0.1990411541 -3.37967e-05 0.0001346543 0.0001794443 -8.06724e-05 -0.8213701788 0.1881001354
125299250.0 0.8318579294 -0.2063794704 -3.852e-05 -2.48471e-05 5.4619e-06 0.0001243995 -0.81985696 0.1967192646
130299220.0 0.8300934724 -0.2146385234 -1.69887e-05 -7.58401e-05 6.30983e-05 4.6997e-05 -0.8176334497 0.2059714075
135299190.0 0.8283751619 -0.222956656 -4.71643e-05 -0.0001041613 4.25622e-05 -0.0002031117 -0.8162920822 0.2150657892
140299160.0 0.8256158428 -0.2302059393 0.0001643057 0.0002702164 7.90834e-05 -0.0002806989 -0.8140530555 0.223334686
145299130.0 0.8232292693 -0.2384595865 2.64594e-05 2.53397e-05 6.13183e-05 -0.0001205563 -0.8122422141 0.2322721251
150299100.0 0.8209369208 -0.2460641765 1.48887e-05 8.21385e-05 6.2205e-05 6.42607e-05 -0.8097921443 0.2416387943
155299070.0 0.8184592512 -0.25435777 -9.71418e-05 3.54895e-05 -0.0003113985 -0.0002589385 -0.8071860005 0.2507369123
160299040.0 0.8157604594 -0.2620101779 6.70615e-05 -0.0001957039 -5.9717e-05 6.86918e-05 -0.8047815355 0.2588768971
165299010.0 0.8135803998 -0.2694940573 -2.46459e-05 3.35617e-05 5.33128e-05 -0.0001193724 -0.8021567264 0.267249797
170298980.0 0.8114819769 -0.27757763 -6.47499e-05 1.15556e-05 -0.0001308499 -5.9049e-06 -0.7996551683 0.2755217486
175298950.0 0.8083131586 -0.2856029801 -0.0002010649 2.022e-06 9.47716e-05 -6.7293e-06 -0.7966275885 0.2846960805
180298920.0 0.8055697563 -0.2930419922 0.0001367174 6.07077e-05 0.00011944 -0.0001420455 -0.7934185066 0.2929869611
185298890.0 0.8024113444 -0.3008702583 -2.81323e-05 -8.6049e-06 3.24557e-05 -2.02428e-05 -0.7907951307 0.3016245031
190298860.0 0.7995132285 -0.3088659151 -3.16804e-05 4.7464e-05 0.000155116 -9.15036e-05 -0.7873886973 0.3102220317
195298830.0 0.7970181856 -0.3161288574 0.0001222205 3.20999e-05 -2.57527e-05 -8.0065e-06 -0.7841901987 0.3180948986
200298800.0 0.7936851379 -0.3237622294 -0.0001156219 1.85513e-05 -0.0001068014 8.96269e-05 -0.7806932027 0.3266964121
205298770.0 0.7904514143 -0.3316807481 5.4761e-06 -7.81643e-05 -3.35542e-05 2.36027e-05 -0.777964545 0.3347952832
210298740.0 0.7879733925 -0.3387912668 4.19517e-05 0.0001971339 -8.50306e-05 -0.0002064483 -0.7747042512 0.3434659476
215298710.0 0.7842861152 -0.3468340898 8.20592e-05 -9.45319e-05 -0.0001348273 -5.4466e-06 -0.7700819833 0.3511592816
220298680.0 0.7807226897 -0.3541330463 6.83153e-05 -0.0001102117 -0.0001175198 9.62667e-05 -0.7667560263 0.3595503031
225298650.0 0.7767816109 -0.3614881789 -1.66654e-05 2.89542e-05 4.21384e-05 5.58206e-05 -0.7633528091 0.368111321
230298620.0 0.7734859261 -0.3688727861 5.1668e-06 9.14353e-05 -4.43624e-05 6.86893e-05 -0.7592432692 0.3752703154
235298590.0 0.7703878508 -0.3763490505 8.05061e-05 -0.0002038802 2.96731e-05 -0.0001838828 -0.7552920723 0.3836754442
240298560.0 0.7662238688 -0.3837160264 8.14748e-05 0.0001008175 0.0001619014 -7.2594e-06 -0.7511752341 0.3908671146
245298530.0 0.7626412852 -0.3905154517 0.0002025708 8.2888e-06 -3.9477e-06 -8.61306e-05 -0.7473193377 0.3992105977
250298500.0 0.7591538405 -0.3983610512 3.72629e-05 -5.47166e-05 -7.26899e-05 8.00126e-05 -0.7429353693 0.4068978099
255298470.0 0.7552021605 -0.4048826593 5.99647e-05 3.65164e-05 -5.31213e-05 7.9485e-06 -0.7392836245 0.4143072016
260298440.0 0.7512614435 -0.4128181629 0.0001824807 -0.0001210144 7.82761e-05 -0.0002781426 -0.7342890038 0.4218267096
265298410.0 0.7465426012 -0.4197743837 -8.00092e-05 -0.000131084 8.02955e-05 -0.0001519938 -0.7299840443 0.4304389294
270298380.0 0.7431463405 -0.4263411621 -3.84276e-05 -0.0001378673 -8.92262e-05 -0.0001279737 -0.7253456969 0.4382554853
275298350.0 0.7387677916 -0.4337354074 5.30648e-05 0.0001550246 9.1267e-05 3.31864e-05 -0.7204744811 0.4456297652
280298320.0 0.7344293094 -0.4408497196 0.0001134595 0.0001337317 -3.92771e-05 0.0001027127 -0.7165054965 0.4529776632
285298290.0 0.7309608798 -0.4486053273 9.9473e-05 -4.80406e-05 -4.34228e-05 -8.77546e-05 -0.7117732851 0.4609538547
290298260.0 0.7258163364 -0.4556558296 -0.0001417858 -0.0002171493 0.0001184245 0.0002235461 -0.7066082121 0.4673346238
295298230.0 0.7225792437 -0.462473621 0.0001629192 -2.17158e-05 -0.0002291886 2.54425e-05 -0.701358075 0.4748071781
300298200.0 0.7179689368 -0.4692808208 0.0001845781 0.0001446666 0.0001058239 6.1162e-06 -0.6968721474 0.482276921
305298170.0 0.7137764302 -0.4773243197 0.0001735345 0.0001162756 9.49591e-05 1.53231e-05 -0.691570239 0.4891545227
310298140.0 0.7088071912 -0.4851369353 7.29296e-05 5.01938e-05 -4.98798e-05 0.0001719373 -0.6860506464 0.4966248918
315298110.0 0.7036221574 -0.4919355166 -0.0001515982 -0.0001424453 0.0001032842 1.78503e-05 -0.6811467126 0.5038383259
320298080.0 0.6982266308 -0.499374414 5.30348e-05 0.0001487815 -0.0001879279 0.0002860041 -0.6757445861 0.5102538098
325298050.0 0.6924378134 -0.5066214636 4.03092e-05 4.43987e-05 0.000115519 0.0003307081 -0.669863961 0.5179070831
330298020.0 0.6864254958 -0.5133882269 -1.3884e-05 -0.0001245367 -0.0001485413 -1.62392e-05 -0.6653728185 0.5239864122
335297990.0 0.6809890006 -0.5189762346 9.89228e-05 -2.94674e-05 -6.30549e-05 8.26783e-05 -0.6595621411 0.5315805704
340297960.0 0.6756061067 -0.5255756233 -8.62389e-05 5.07409e-05 9.51826e-05 -5.80792e-05 -0.6541874108 0.5383939941
345297930.0 0.6704249944 -0.5317545273 1.73257e-05 -2.3877e-06 -4.34349e-05 0.0001048721 -0.6485011377 0.5447268201
350297900.0 0.6651435286 -0.5381404618 0.0001274239 0.0001257222 -3.10237e-05 -0.0001054688 -0.6432536628 0.5515903829
355297870.0 0.6596459513 -0.5445493138 0.0001358896 9.94309e-05 -2.74679e-05 -3.60202e-05 -0.636826634 0.5589947755
360297840.0 0.6542423808 -0.550631885 -1.64553e-05 1.99197e-05 3.59417e-05 -1.14581e-05 -0.6310292681 0.5651898248
365297810.0 0.6486264268 -0.5565898754 9.82336e-05 -3.80571e-05 7.07826e-05 -2.05874e-05 -0.6258075302 0.5709297023
370297780.0 0.6435805065 -0.5630385341 -8.1887e-06 -6.56131e-05 -0.0001540729 0.0001059781 -0.6193756494 0.5777418257
375297750.0 0.6376344625 -0.5692358264 -0.0001180108 -0.0001400276 0.0001297814 -1.07741e-05 -0.6131748311 0.5835371426
380297720.0 0.6318072739 -0.5740111025 -3.92858e-05 1.67803e-05 1.46375e-05 -2.22734e-05 -0.6070868405 0.5902923696
385297690.0 0.6264011746 -0.5809719654 6.97251e-05 -4.34547e-05 0.0001204052 5.11766e-05 -0.6014863633 0.5967059276
390297660.0 0.6209908087 -0.5873639183 -0.0002472646 -0.0001458282 0.0001479096 5.89111e-05 -0.5947742193 0.6022116659
395297630.0 0.6153171512 -0.5924739504 2.28472e-05 2.60495e-05 -8.79546e-05 1.49255e-05 -0.5879536822 0.6075508978
400297600.0 0.6088230169 -0.5983821287 0.0001462247 -7.39449e-05 0.0001159632 -0.0002189182 -0.582727058 0.6142392803
405297570.0 0.6034292336 -0.6045592022 0.0001759594 -9.6121e-06 -3.46611e-05 0.0001952883 -0.5755681186 0.6200384965
410297540.0 0.5980412447 -0.6095199499 6.43968e-05 -0.0001089828 0.0001594919 1.57113e-05 -0.569615711 0.6262040943
415297510.0 0.5913376856 -0.6162028349 -5.355e-06 -0.0001264038 0.0002023784 4.65596e-05 -0.5629238178 0.6315147658
420297480.0 0.5857294454 -0.6215436666 0.0001709681 -3.93606e-05 3.77019e-05 0.0001196629 -0.5564836316 0.6383332144
425297450.0 0.5792541762 -0.6267796747 -6.101e-06 7.02471e-05 -9.2929e-05 0.0001667606 -0.5496581298 0.6422269333
430297420.0 0.5730166038 -0.6327622585 -4.77565e-05 2.28369e-05 5.18599e-05 8.86319e-05 -0.5431141102 0.6482391623
435297390.0 0.5671463034 -0.6383704507 2.68003e-05 4.677e-06 0.0001135909 1.66705e-05 -0.5370223031 0.6548204602
440297360.0 0.5610473548 -0.6441652371 2.4516e-06 -2.78232e-05 3.04459e-05 -0.0001315404 -0.5304077764 0.659565257
445297330.0 0.5556273543 -0.6491197762 0.000164686 -1.58847e-05 0.0001034313 -0.0001059816 -0.5230293764 0.664867079
450297300.0 0.5488299002 -0.6545568881 6.5131e-05 7.31037e-05 0.0001436624 5.02968e-05 -0.5157861655 0.6701437976
455297270.0 0.5427215203 -0.6598733928 -0.0001983341 -0.0001874423 0.0001628133 0.0001174064 -0.5095366559 0.6748744329
460297240.0 0.5356865475 -0.6645263512 -0.0001668205 -7.42241e-05 -4.60976e-05 0.0001301308 -0.5023728344 0.6798485765
465297210.0 0.5296866953 -0.6696904027 8.24591e-05 6.26562e-05 0.0001189829 4.20842e-05 -0.495146073 0.6855457472
470297180.0 0.5231002165 -0.6753887166 -7.78102e-05 -7.22852e-05 -5.63884e-05 3.73917e-05 -0.4887028138 0.6906452944
475297150.0 0.5161373804 -0.68051325 -4.52343e-05 8.532e-06 6.33461e-05 -3.23577e-05 -0.4809983528 0.6953064732
480297120.0 0.5102404605 -0.6851485797 -9.2353e-05 0.0001094546 5.37724e-05 5.14452e-05 -0.4748985627 0.6999025298
485297090.0 0.5028428434 -0.6897858434 2.16608e-05 -5.02776e-05 -8.40563e-05 2.22374e-05 -0.4672652308 0.70460401
490297060.0 0.4969294302 -0.6945911459 6.60098e-05 0.0002070228 0.0001311053 -6.539e-07 -0.4596754714 0.7091638424
495297030.0 0.4896707963 -0.6990024997 5.0788e-06 -8.38726e-05 2.67314e-05 -6.09724e-05 -0.4520896587 0.7138383478
500297000.0 0.483148689 -0.7041729174 -0.0001035253 -0.0001105194 -1.56012e-05 -2.40814e-05 -0.4453562058 0.7182931926
505296970.0 0.4760847863 -0.7089894151 0.0002622991 1.7507e-05 0.000161493 -4.41103e-05 -0.4371427129 0.722559428
510296940.0 0.4689737258 -0.7130269481 -1.52087e-05 0.0001079506 0.0001567463 0.000134149 -0.4300340775 0.7276779523
515296910.0 0.4624304015 -0.71804338 0.0001233097 -0.0002046584 -0.0001121401 4.34007e-05 -0.4229148485 0.7314418133
520296880.0 0.4566071068 -0.7220970003 -8.68756e-05 4.516e-06 7.41177e-05 -0.000104933 -0.4152633991 0.7361796387
525296850.0 0.4490058979 -0.7269807553 -1.06697e-05 -0.0001158005 -2.41109e-05 6.80204e-05 -0.4080344812 0.7393682744
530296820.0 0.4422395061 -0.7314128819 -2.29513e-05 -5.73231e-05 -7.65066e-05 -2.90388e-05 -0.4005523222 0.7435027837
535296790.0 0.4350308308 -0.7351141056 0.0001091597 0.0001252085 9.04671e-05 0.0001138074 -0.3931452947 0.748153647
540296760.0 0.4279892582 -0.7390902874 9.39537e-05 -0.0002552205 1.609e-07 8.28821e-05 -0.3853325688 0.7512576392
545296730.0 0.4198037105 -0.7438200116 0.0002447253 4.14049e-05 0.0001096047 -0.0001045369 -0.3776367363 0.755340822
550296700.0 0.4129011742 -0.7469450948 -9.52233e-05 0.0001167322 -6.9036e-06 0.0001528491 -0.3703265871 0.7591439731
555296670.0 0.405769709 -0.7515831152 0.0002647322 -2.73723e-05 7.26199e-05 -1.33806e-05 -0.362510567 0.762138458
560296640.0 0.3988678968 -0.7545463074 0.0002462074 0.0001264214 5.59912e-05 -0.000178009 -0.354265897 0.7665617943
565296610.0 0.3913087885 -0.7590751684 0.000119764 2.88241e-05 -5.89977e-05 9.77763e-05 -0.3472327283 0.7699539382
570296580.0 0.3838023071 -0.7624334808 -6.26584e-05 2.67693e-05 -4.39e-08 0.0001984476 -0.3390651584 0.7725932161
575296550.0 0.3766409544 -0.7664019078 6.05571e-05 0.0001178913 7.9599e-06 2.00841e-05 -0.3307865593 0.7759825948
580296520.0 0.3689793876 -0.7699799689 -0.0001176973 -0.0001090805 -3.30647e-05 2.99901e-05 -0.3238022119 0.7794232334
585296490.0 0.3615934578 -0.7724664925 -0.0001378509 6.17281e-05 -0.0001762007 2.39368e-05 -0.3154077063 0.783193278
590296460.0 0.354168592 -0.7757130049 -0.0002233176 -0.0001264089 7.11283e-05 -0.0001672855 -0.3080720821 0.7856236764
595296430.0 0.3462027516 -0.7799478355 6.00498e-05 4.7062e-06 2.86629e-05 0.0001235845 -0.3000416041 0.7893058949
600296400.0 0.3390948666 -0.7829252861 -6.87891e-05 0.0002051391 -4.4929e-06 2.08271e-05 -0.2920770132 0.7916947276
605296370.0 0.3308275424 -0.786154287 -0.0001438694 0.000168921 6.85543e-05 -2.77471e-05 -0.283322039 0.794899164
610296340.0 0.3229691585 -0.7893327622 6.70738e-05 -0.0001251069 7.47691e-05 8.129e-06 -0.2758992141 0.7974657725
615296310.0 0.3159528157 -0.7917960792 0.0001607312 -8.34332e-05 -0.0002129675 -1.9121e-05 -0.2673072725 0.8006879721
620296280.0 0.3075235411 -0.7949446112 8.07848e-05 0.0002065944 7.11646e-05 -7.46568e-05 -0.2599410518 0.8030334843
625296250.0 0.2995947885 -0.7983626483 -8.2586e-06 0.0001008038 4.76474e-05 2.40316e-05 -0.2516268162 0.8050025231
630296220.0 0.2917159311 -0.8005546289 -1.86113e-05 0.0001228084 5.69838e-05 -7.21174e-05 -0.2436222307 0.808415384
635296190.0 0.2836778965 -0.8032853408 4.36117e-05 -6.50052e-05 7.44297e-05 -3.84057e-05 -0.2352429316 0.8100163643
640296160.0 0.2759609249 -0.8058695057 -2.08023e-05 -5.99842e-05 8.75515e-05 5.45403e-05 -0.2274584077 0.8129916779
645296130.0 0.2689783928 -0.8078699497 3.67956e-05 -0.00013385 -2.86424e-05 -0.0001756634 -0.2193511049 0.8144249626
650296100.0 0.2604645951 -0.8101585818 -0.0001100388 -1.83553e-05 0.0001358922 -5.0901e-05 -0.2105816451 0.8170039731
655296070.0 0.2521111633 -0.8124761069 3.00431e-05 6.10189e-05 -5.7429e-05 7.64428e-05 -0.2032614257 0.8193996419
660296040.0 0.2434791117 -0.8150567308 0.0001276425 5.08355e-05 -7.08339e-05 9.33916e-05 -0.1942641849 0.820700363
665296010.0 0.2359388436 -0.8174327622 7.85188e-05 0.0001185623 -1.01302e-05 -0.0001658823 -0.1864931853 0.8223862683
670295980.0 0.2282291551 -0.8190515201 0.0001096626 -0.0001895393 -8.48062e-05 1.50891e-05 -0.1782763541 0.8243397754
675295950.0 0.2194916458 -0.8219238963 -2.63231e-05 -3.93955e-05 0.0001015281 -0.0001160186 -0.1697541139 0.8266096522
680295920.0 0.2112790559 -0.8232731848 -7.37316e-05 0.0001455885 0.0001476081 -8.8042e-06 -0.1612882409 0.8275930225
685295890.0 0.2030258876 -0.8243571658 1.57184e-05 2.34298e-05 6.513e-05 0.0001838045 -0.1533753706 0.8297464082
690295860.0 0.1944401716 -0.8268302785 -7.30104e-05 0.000195199 5.55424e-05 -7.43129e-05 -0.1449207482 0.8307856758
695295830.0 0.186415441 -0.8284652471 -5.25182e-05 -2.84438e-05 6.27829e-05 -0.0001527074 -0.1367648713 0.8327617082
700295800.0 0.1780844607 -0.8297357293 -5.32014e-05 -1.79111e-05 4.33611e-05 -0.0001043291 -0.1279987264 0.8335633915
705295770.0 0.1699397203 -0.831288836 -5.88631e-05 -0.0001657521 -3.30939e-05 -7.94802e-05 -0.1200949827 0.8354072751
710295740.0 0.1617991288 -0.8322011937 0.0001000838 4.76527e-05 -0.0001149812 -0.0001726473 -0.1118123218 0.8360664291
715295710.0 0.1537051362 -0.8335905361 5.30804e-05 0.0002615955 0.0001197436 0.000159247 -0.1026568211 0.836527808
720295680.0 0.1449740013 -0.834601224 0.0001355675 -0.0001819765 -0.000109196 -7.781e-05 -0.0947002846 0.8379181526
725295650.0 0.1365419699 -0.8359902958 -4.42552e-05 -0.0001619249 -4.93217e-05 -5.61686e-05 -0.0871579637 0.839393352
730295620.0 0.1280750202 -0.8376812028 -2.40391e-05 -0.0001269482 -0.0002151733 0.0001292593 -0.0786046993 0.8400891251
735295590.0 0.1199535837 -0.8380316045 -0.0001919991 8.08198e-05 -3.91628e-05 -6.39912e-05 -0.0696824315 0.8405638265
740295560.0 0.1116076478 -0.8396294188 -5.0191e-05 -8.8817e-05 -8.05453e-05 0.0002954208 -0.0616863067 0.8414761538
745295530.0 0.1031945101 -0.8397666762 2.32572e-05 -9.27696e-05 2.10106e-05 -4.535e-06 -0.0536324668 0.8417133442
750295500.0 0.0945016354 -0.840360605 3.4529e-06 5.05218e-05 -0.0001632636 -0.0001544771 -0.0448115521 0.8420904127
755295470.0 0.0864773018 -0.84064923 -7.61093e-05 -0.0001786385 8.65742e-05 -2.61823e-05 -0.0364606494 0.8427682314
760295440.0 0.0785228316 -0.842051436 -6.31519e-05 0.0001520674 3.7271e-05 4.61206e-05 -0.0275596457 0.8424292719
765295410.0 0.0702149251 -0.842197163 0.0001124878 7.88384e-05 9.46429e-05 2.31128e-05 -0.0195632483 0.8435695352
770295380.0 0.0618192542 -0.8420172389 -0.0001602904 -0.0001065775 -2.98043e-05 0.0001298857 -0.0112585211 0.8432905931
775295350.0 0.053261956 -0.8420621516 -7.63849e-05 -0.0002556673 0.0001360567 2.2442e-05 -0.0033043844 0.8429563535
780295320.0 0.0442272299 -0.8427012695 -0.0002084278 -4.6273e-06 3.39295e-05 -4.39594e-05 0.0055919484 0.8435268096
785295290.0 0.0364507834 -0.8431661662 2.84943e-05 -0.0002645542 0.0001596463 9.70626e-05 0.0134190508 0.8436711075
790295260.0 0.0280559271 -0.8432204444 5.65702e-05 8.28387e-05 0.0001115892 -1.82095e-05 0.0217184807 0.8431787145
795295230.0 0.0197575338 -0.8441896583 7.0928e-06 -0.000263168 2.17541e-05 -0.0001009409 0.0300160912 0.8423435366
800295200.0 0.0111429472 -0.8433485186 0.0001656761 0.0001190587 -9.36076e-05 7.5801e-06 0.038464692 0.8419281879
805295170.0 0.0029637789 -0.8433129723 0.0001119988 7.3505e-05 8.28602e-05 0.0001064995 0.0472538148 0.8421042818
810295140.0 -0.0054504038 -0.8426051494 4.42405e-05 -8.95535e-05 4.14358e-05 8.68738e-05 0.0557519888 0.8412622058
815295110.0 -0.0139199513 -0.842517215 -2.09421e-05 0.0001559776 4.09733e-05 0.0001306649 0.0635366138 0.8411786574
820295080.0 -0.022422964 -0.8425525037 -9.47421e-05 0.0001691219 -2.64926e-05 0.0001465656 0.0719246876 0.8405530119
825295050.0 -0.0319792488 -0.8415803296 2.31638e-05 5.33547e-05 1.3851e-06 7.18519e-05 0.0804050656 0.839932889
830295020.0 -0.0391948229 -0.8418377821 -6.6046e-05 -9.42778e-05 -6.9985e-06 -1.2446e-06 0.0883202651 0.8381345634
835294990.0 -0.0475340696 -0.8406574519 8.00961e-05 -2.19724e-05 0.0001478116 0.0001727783 0.0965957078 0.837775847
840294960.0 -0.05504766 -0.8402900852 9.28133e-05 0.0001761498 1.23173e-05 9.58463e-05 0.1055446022 0.8366214896
845294930.0 -0.0640126966 -0.8388179617 6.57706e-05 -2.93031e-05 5.33925e-05 -1.29721e-05 0.1142343714 0.8355291255
850294900.0 -0.0718165906 -0.8384718053 5.44773e-05 -5.61381e-05 -0.000157119 -2.3477e-06 0.1215115645 0.8349202857
