!Created with skrf (http://scikit-rf.org).
# Hz S RI R 50.0 
!freq ReS11 ImS11 ReS21 ImS21 ReS12 ImS12 ReS22 ImS22
300000.0 -0.3232363227 -0.1111289636 0.3733634898 0.0547177426 0.3762612345 0.0581775045 -0.319141636 -0.116944164
5299970.0 -0.3239860147 0.0047190863 0.3787858158 0.0028344874 0.3787416539 0.0030226338 -0.3261350924 0.0028081744
10299940.0 -0.3209824055 0.0154779785 0.3800260292 0.002325068 0.3795731308 0.0026054803 -0.3241125279 0.013017291
15299910.0 -0.318225552 0.0233748943 0.3820171147 0.0022442627 0.3820821392 0.0025179803 -0.3212493754 0.0197642741
20299880.0 -0.3145790846 0.0300135035 0.3851538219 0.0018466106 0.385185254 0.0016282105 -0.3184373604 0.0262643034
25299850.0 -0.3106241645 0.0355132359 0.3883102078 -0.0001357137 0.3886098492 9.68197e-05 -0.3156260503 0.0309789419
30299820.0 -0.3066069515 0.0402243023 0.39188974 -0.0020803483 0.3917038542 -0.0023094479 -0.3125501818 0.0355104181
35299790.0 -0.3027056389 0.0449171346 0.3950253109 -0.0051652526 0.3953876402 -0.0054259149 -0.3095553713 0.0394996994
40299760.0 -0.2994622872 0.0479485909 0.3982060418 -0.0084505963 0.3984931797 -0.0087997742 -0.3072002629 0.0432871726
45299730.0 -0.2963308604 0.0515586716 0.4010104971 -0.0126227917 0.4013357211 -0.0128262218 -0.3044703271 0.046230364
50299700.0 -0.2930298633 0.0538965754 0.4031553926 -0.0172657371 0.4035189462 -0.0176154351 -0.3019204082 0.0493045017
55299670.0 -0.2906085948 0.0570623944 0.4054079838 -0.0218866704 0.4055863709 -0.022060384 -0.3003231366 0.0520381763
60299640.0 -0.2879304168 0.0591252253 0.4075653625 -0.0271118878 0.4078123698 -0.0271537041 -0.2979372262 0.0548577357
65299610.0 -0.2860869208 0.0614403337 0.4090288695 -0.0315378413 0.4092073453 -0.031977106 -0.2960173715 0.0571108598
70299580.0 -0.28375279 0.0637251334 0.4104711327 -0.0368651047 0.4104290948 -0.0369629376 -0.2945046213 0.0597208704
75299550.0 -0.2817952074 0.0656061278 0.4113464175 -0.0419555191 0.4114622204 -0.0420938204 -0.2929540551 0.062200665
80299520.0 -0.2803228622 0.0680579321 0.4127685954 -0.0472635529 0.4127678293 -0.0473314593 -0.2915458443 0.0641253698
85299490.0 -0.278479728 0.0700280606 0.41327076 -0.0526951143 0.412656223 -0.0528332435 -0.2899031379 0.0664082618
90299460.0 -0.2770068842 0.0721418138 0.4134503904 -0.0579844314 0.4135791135 -0.0578411309 -0.2885604848 0.0688876282
95299430.0 -0.2753964687 0.0741857139 0.4138330219 -0.0631972894 0.4140332331 -0.0630523098 -0.2875144509 0.0712198593
100299400.0 -0.2743539763 0.0764455776 0.4135870065 -0.0685469365 0.4137497733 -0.0685100288 -0.2865843409 0.0733694157
105299370.0 -0.272898067 0.0784924121 0.4134729949 -0.0733466997 0.4137926448 -0.0735102447 -0.2851597852 0.0759113493
110299340.0 -0.2718146335 0.0803443094 0.4135861923 -0.0783078318 0.4134579705 -0.0787320406 -0.2846471088 0.0783360009
115299310.0 -0.2707463215 0.0824949219 0.4129077859 -0.0835561563 0.4133564361 -0.0836468245 -0.2832169347 0.0804299541
120299280.0 -0.2697714547 0.0846992078 0.4131274393 -0.0887040089 0.4129224788 -0.0887820364 -0.2823593813 0.0826656063
125299250.0 -0.2689027627 0.0868667008 0.4123951139 -0.0938245357 0.4121556737 -0.0941657885 -0.2813171108 0.0847690109
130299220.0 -0.2676246963 0.0890797476 0.4116707183 -0.0984594619 0.4113940788 -0.0991899519 -0.2804889859 0.0874592852
135299190.0 -0.2665696666 0.0911250653 0.4108301665 -0.1037455724 0.4105832662 -0.104052268 -0.2797174177 0.0897712178
140299160.0 -0.2658476742 0.0936172567 0.4100876815 -0.1089924187 0.4105733389 -0.1091245948 -0.2786557448 0.0923058086
145299130.0 -0.264545161 0.0959172983 0.4093604008 -0.1141654487 0.4088737229 -0.113647907 -0.2781657861 0.0945207947
150299100.0 -0.2636772293 0.0981356496 0.4081374616 -0.1187482255 0.408213868 -0.1192163597 -0.2770795583 0.0973291573
155299070.0 -0.2629090478 0.1011610937 0.407199233 -0.1243051027 0.406999025 -0.1242771175 -0.276342732 0.0997497159
160299040.0 -0.2618498662 0.1032251879 0.4057902208 -0.1285396351 0.4059950692 -0.1288553504 -0.2752615054 0.1023984181
165299010.0 -0.2610166476 0.1056221204 0.4048747746 -0.133534502 0.4047083819 -0.1335106817 -0.2740937968 0.1041830634
170298980.0 -0.2602612733 0.1078100247 0.4028821657 -0.1383157519 0.4030960266 -0.138465126 -0.2733057045 0.10709412
175298950.0 -0.2588953111 0.1103902476 0.4019838874 -0.1430823818 0.4021479733 -0.1429518148 -0.2722826413 0.1097918906
180298920.0 -0.257810802 0.1125918192 0.4003994214 -0.1478679542 0.4002732368 -0.1478556471 -0.270806777 0.1124071473
185298890.0 -0.2567707047 0.1152921532 0.3985250099 -0.1528794684 0.3988229195 -0.1526027946 -0.2704977666 0.1145732458
190298860.0 -0.2561090836 0.1177109246 0.3971625946 -0.1574646986 0.3971710992 -0.1575851979 -0.2689659784 0.1177784531
195298830.0 -0.2548640393 0.1198360077 0.3957293815 -0.1617498904 0.3956259559 -0.1621845859 -0.268079559 0.1198960618
200298800.0 -0.2538519957 0.1227714558 0.3939778866 -0.1659474908 0.3938899017 -0.1665112989 -0.2668827326 0.1228676194
205298770.0 -0.2524523111 0.1249930524 0.3923688687 -0.1711129567 0.392213173 -0.1712040963 -0.2654787968 0.1252126929
210298740.0 -0.2515324592 0.1278274098 0.3905950237 -0.1757329904 0.3908064509 -0.1760367959 -0.2644949366 0.1280519554
215298710.0 -0.2502071866 0.1302991098 0.3884274278 -0.1802230666 0.388676128 -0.1800766089 -0.2637393372 0.1305118224
220298680.0 -0.2494328442 0.1330892504 0.3866501226 -0.1846727784 0.3866603224 -0.1848054229 -0.262242941 0.1334736967
225298650.0 -0.2476708699 0.1355369737 0.3844002421 -0.1890665458 0.3844689977 -0.1889989549 -0.2609650868 0.1360617565
230298620.0 -0.2466585007 0.1378461381 0.382577578 -0.1934550452 0.3829416811 -0.1936072463 -0.2597549347 0.1387973115
235298590.0 -0.2453164748 0.1406154149 0.3803886252 -0.1977088684 0.3807115295 -0.1981200908 -0.2582999855 0.1413249176
240298560.0 -0.2441394821 0.143430302 0.3783504971 -0.2021191403 0.3783715467 -0.201858961 -0.2569615814 0.144363079
245298530.0 -0.2426610015 0.1458967165 0.3757921458 -0.2069328156 0.3758487675 -0.2065806455 -0.2557747858 0.1469837166
250298500.0 -0.2416498714 0.1481881998 0.373609621 -0.2106216391 0.3742172472 -0.2103165609 -0.2537060448 0.1495053056
255298470.0 -0.2399496172 0.1509736414 0.370968587 -0.2153105463 0.3710706941 -0.2149663804 -0.252579546 0.1523445886
260298440.0 -0.23850751 0.1532621486 0.3690012603 -0.219166749 0.3691723009 -0.2193435589 -0.2508227144 0.1548291672
265298410.0 -0.2371747912 0.1561556779 0.3666290792 -0.2238871778 0.3663886093 -0.2236086259 -0.2497101025 0.1575021795
270298380.0 -0.2353476847 0.1585570329 0.363519061 -0.2276718076 0.3643325573 -0.2275881863 -0.2477807008 0.160455519
275298350.0 -0.2341194615 0.1612408854 0.3617024746 -0.2320232502 0.3619493954 -0.2318441415 -0.2463125166 0.1631735756
280298320.0 -0.2326244556 0.1638309203 0.3588165568 -0.2353942639 0.3592840517 -0.236085167 -0.2447327538 0.1655882863
285298290.0 -0.231028692 0.1665051992 0.356341694 -0.2396865515 0.3565002794 -0.2398249739 -0.2431741162 0.1682975279
290298260.0 -0.2292813393 0.1690389304 0.3539422449 -0.2439724322 0.3538669582 -0.2438969245 -0.2408956717 0.1713065472
295298230.0 -0.2276549956 0.1713579387 0.3510893686 -0.2476609357 0.3508971651 -0.2478140346 -0.2393138075 0.1736060555
300298200.0 -0.2255115882 0.1738524649 0.348169738 -0.2519011867 0.3483619722 -0.2521553002 -0.2373844349 0.1764948495
305298170.0 -0.2240746438 0.1761554775 0.3459623486 -0.2558959755 0.3457906214 -0.2560149456 -0.2353281579 0.1793713567
310298140.0 -0.2220938116 0.1781752555 0.3431799737 -0.2596467073 0.3429880758 -0.2602692807 -0.2340158248 0.1820399022
315298110.0 -0.2205128011 0.1810452169 0.3400055247 -0.2638946685 0.340222911 -0.2638917665 -0.2317253255 0.1842571521
320298080.0 -0.2187438216 0.18348379 0.3371459163 -0.2678463598 0.3371359152 -0.2677848561 -0.2299272808 0.1865408343
325298050.0 -0.2170799036 0.1855895344 0.3344526316 -0.2717980274 0.3340633659 -0.2719867903 -0.2280985824 0.189345912
330298020.0 -0.2153154259 0.1881585868 0.3302252758 -0.2754175994 0.3310423106 -0.2756001465 -0.2266388372 0.1917877658
335297990.0 -0.2134049193 0.1903694925 0.3277058334 -0.2789908375 0.3277973064 -0.2789763272 -0.2248085107 0.1946478841
340297960.0 -0.2118027061 0.1928058035 0.3242476298 -0.2827318298 0.3244998736 -0.2826460871 -0.2224035297 0.1968507224
345297930.0 -0.2100421471 0.1952131993 0.3212610561 -0.2859204236 0.3211039984 -0.2859503515 -0.2206709393 0.1992897318
350297900.0 -0.207428545 0.1976210188 0.3177353209 -0.289191324 0.3181898436 -0.2896647793 -0.2186974618 0.2025624921
355297870.0 -0.2060740028 0.2000915937 0.3148174522 -0.2929575424 0.3146612482 -0.2933823902 -0.2167223255 0.2049000152
360297840.0 -0.2038219667 0.2023978955 0.3113250397 -0.2968941764 0.3114164816 -0.2967540972 -0.2145854311 0.2075437206
365297810.0 -0.2017339301 0.2043398119 0.3077794068 -0.29985215 0.3081017836 -0.3001098959 -0.2127173741 0.2101455907
370297780.0 -0.1994404308 0.2067757399 0.3044754357 -0.3032541696 0.3049471841 -0.303554734 -0.2102307831 0.2123210677
375297750.0 -0.1976931962 0.2092060221 0.3018625857 -0.3067544505 0.3014246865 -0.3069415919 -0.2081654002 0.2148192527
380297720.0 -0.1951028224 0.2114488608 0.2978473053 -0.3099366048 0.2978690512 -0.3103400269 -0.2054954207 0.217675237
385297690.0 -0.1930066566 0.2138931491 0.2940972555 -0.3132525314 0.2945692127 -0.3134899879 -0.2037056788 0.2202593783
390297660.0 -0.191128919 0.2157655537 0.2910749836 -0.3164598864 0.2907718764 -0.3169170546 -0.2010298133 0.2219667485
395297630.0 -0.1886477985 0.2179902263 0.2876845136 -0.3192043293 0.2872989919 -0.3197438463 -0.1991804075 0.2248234657
400297600.0 -0.186459712 0.220305172 0.2842263202 -0.3229618281 0.2839915152 -0.3227194727 -0.196890918 0.2264545185
405297570.0 -0.1841640787 0.2224622653 0.2801237661 -0.3260126044 0.2806948666 -0.3259544975 -0.1949785783 0.2293946238
410297540.0 -0.1820522427 0.2244248844 0.2764300166 -0.3290012694 0.2766481243 -0.3286153466 -0.1923866872 0.2315707305
415297510.0 -0.1794942177 0.2267991277 0.2732528617 -0.3317152793 0.2732731286 -0.3321017982 -0.1899747835 0.2340851977
420297480.0 -0.1770315819 0.2287676832 0.2690856742 -0.3351844178 0.269496937 -0.3349836148 -0.187480623 0.2358557551
425297450.0 -0.1746256038 0.230376973 0.265647923 -0.3376213375 0.265789312 -0.3378075145 -0.184655525 0.2384027691
430297420.0 -0.172457997 0.2327791847 0.2620659147 -0.3411426733 0.2620872959 -0.3406920405 -0.182807146 0.2402020994
435297390.0 -0.1698713296 0.2345543983 0.2579844443 -0.3434683372 0.2582589759 -0.3434943517 -0.1802018426 0.2425995638
440297360.0 -0.1674158604 0.2366280797 0.2539164175 -0.3462812675 0.2540751022 -0.3460889462 -0.1779032513 0.2442462121
445297330.0 -0.1644731299 0.2385591956 0.2499343915 -0.3491614657 0.2503643631 -0.3490171491 -0.174938201 0.2464078362
450297300.0 -0.1621951151 0.2399939935 0.2464434024 -0.3513529846 0.2468078944 -0.3517522773 -0.1729429914 0.2490591653
455297270.0 -0.1598663769 0.2424378688 0.2430825852 -0.3546028662 0.2428782779 -0.3543060082 -0.1696903885 0.250697482
460297240.0 -0.1576691889 0.2443151717 0.2388259275 -0.3568841237 0.2384127699 -0.3570022606 -0.1672693276 0.2530423787
465297210.0 -0.1546791207 0.2460525421 0.2348697491 -0.3597849763 0.2351036167 -0.3594378514 -0.1651021817 0.2545781959
470297180.0 -0.1521545083 0.2475520936 0.2308311036 -0.3618249708 0.2312844342 -0.3620110802 -0.1628827243 0.2567620334
475297150.0 -0.1498021627 0.2492776512 0.226755353 -0.3643975471 0.2268099637 -0.3642356318 -0.159515897 0.2587743545
480297120.0 -0.1469097769 0.2510331238 0.2224179337 -0.3665973514 0.223146942 -0.3667982812 -0.1573357174 0.2605020239
485297090.0 -0.1442115882 0.2526230172 0.2190861099 -0.3690024437 0.2188840263 -0.369287675 -0.1544380921 0.2623045666
490297060.0 -0.1415662389 0.2541024548 0.2147503691 -0.3715868228 0.2147887942 -0.3715869914 -0.151827328 0.2640760203
495297030.0 -0.1390732467 0.2560724755 0.2106112582 -0.3739744709 0.2104216908 -0.3740171328 -0.1488301313 0.2656908921
500297000.0 -0.1360440506 0.257715223 0.2063649141 -0.3763782909 0.2062140558 -0.3762844398 -0.1464997618 0.2677049476
505296970.0 -0.1336720833 0.2592279778 0.2020756281 -0.3780538379 0.202279381 -0.3781225628 -0.1440302128 0.2692506905
510296940.0 -0.1307197725 0.2608407824 0.197964743 -0.3806524168 0.1982026251 -0.3804501678 -0.1406888567 0.2711794659
515296910.0 -0.1284426787 0.2624912804 0.1939356191 -0.3823228938 0.194024485 -0.3824383347 -0.1378350185 0.2726176309
520296880.0 -0.1252614315 0.2638991677 0.1897880861 -0.3845734137 0.189770738 -0.3842771504 -0.1350884705 0.2743736809
525296850.0 -0.1227046535 0.2651651571 0.1855261315 -0.3862827679 0.1856876418 -0.3867138964 -0.131988805 0.2759790322
530296820.0 -0.1199244473 0.2664981403 0.1814263657 -0.3882067791 0.1812826232 -0.388236337 -0.1299374676 0.2773199269
535296790.0 -0.1169093923 0.268034378 0.1771429415 -0.390152731 0.177659056 -0.3901085285 -0.1267815639 0.2786491173
540296760.0 -0.114121638 0.2694792626 0.1730701875 -0.3925672915 0.1724934153 -0.3923336077 -0.1241062244 0.2805900496
545296730.0 -0.1112719685 0.2707158564 0.1684267981 -0.3939175636 0.1684590138 -0.3942763859 -0.1213984662 0.2816949589
550296700.0 -0.1086827639 0.272106623 0.1644403074 -0.3956424937 0.1646973838 -0.3960610067 -0.1184407633 0.2833286864
555296670.0 -0.1052284069 0.2731868358 0.1595029127 -0.3974617634 0.1600673678 -0.3979502678 -0.1154752677 0.2848889713
560296640.0 -0.1027573287 0.2746328591 0.1557742001 -0.3992336852 0.1557452143 -0.3990159767 -0.1122662339 0.2862158515
565296610.0 -0.1000359606 0.2756806235 0.1513907375 -0.4006950207 0.1511117416 -0.4006064383 -0.1096521241 0.287357256
570296580.0 -0.0968284736 0.2768896338 0.1464568358 -0.4022723895 0.1471034236 -0.4026442719 -0.106280409 0.2892632104
575296550.0 -0.093790231 0.278280588 0.1422547746 -0.4039425986 0.1427650506 -0.4036345319 -0.1032727211 0.2900074242
580296520.0 -0.0909251669 0.2799033236 0.138241485 -0.4055550045 0.138091141 -0.4052942934 -0.1002660438 0.2914510846
585296490.0 -0.0878303167 0.2799342764 0.1335967101 -0.4069167774 0.1337687918 -0.4067964003 -0.0976769365 0.2922888516
590296460.0 -0.085452299 0.2814569719 0.1293111369 -0.4082328473 0.1291370793 -0.4084121518 -0.0942043638 0.29352761
595296430.0 -0.0821698091 0.2826522457 0.1246400681 -0.4096351225 0.1246080598 -0.4097418967 -0.0912766841 0.294461024
600296400.0 -0.0793589142 0.2834921385 0.1202748631 -0.4107447736 0.1206303653 -0.4110295928 -0.0884620656 0.2959918644
605296370.0 -0.0763172997 0.2847594246 0.1158902054 -0.4123875559 0.1159924787 -0.412128483 -0.0850064037 0.297439191
610296340.0 -0.0735703223 0.2854225994 0.1115916075 -0.4132946486 0.1117532201 -0.4136369817 -0.0823274846 0.2983894037
615296310.0 -0.0702206685 0.2865624841 0.1068674922 -0.4145686415 0.1069023647 -0.4142694729 -0.0792408571 0.299041436
620296280.0 -0.0669021018 0.2872178192 0.1023842045 -0.4154764838 0.1025519507 -0.415631061 -0.0761611295 0.2998474514
625296250.0 -0.0642043973 0.2880205669 0.09756408 -0.4164828668 0.0977432183 -0.4166095249 -0.0730219692 0.3011629289
630296220.0 -0.0609673432 0.2892778296 0.0930405667 -0.4178375803 0.0938186788 -0.4176038402 -0.069919129 0.3020136183
635296190.0 -0.0581208588 0.2900064654 0.088726004 -0.4180007621 0.088703335 -0.4182138837 -0.0667726382 0.3027721501
640296160.0 -0.0549050168 0.2906236501 0.0841280891 -0.4194314592 0.0841769779 -0.4194808788 -0.0633961666 0.3034284917
645296130.0 -0.0519967023 0.2916600032 0.079558772 -0.4201815755 0.0796652649 -0.4201451165 -0.0610632845 0.3045304162
650296100.0 -0.0490214229 0.2925062243 0.0752496998 -0.4212778735 0.0752127277 -0.42126667 -0.0576709272 0.3053764
655296070.0 -0.0456170381 0.2926161567 0.0702377323 -0.4217603887 0.0706657978 -0.4217832334 -0.0540209855 0.3061128008
660296040.0 -0.0431861074 0.2934894763 0.0661801892 -0.4224380004 0.06605663 -0.4222579587 -0.0512106787 0.3063682436
665296010.0 -0.0398719867 0.2940688156 0.0615682092 -0.4232200334 0.062004086 -0.4230828075 -0.0480452604 0.3075982011
670295980.0 -0.0360564 0.2946124419 0.0567132902 -0.4238824164 0.0573930528 -0.4235024098 -0.0455896003 0.3082834676
675295950.0 -0.03332491 0.29514484 0.0519770099 -0.4243811765 0.0526246465 -0.4246452448 -0.0415920241 0.3088472779
680295920.0 -0.0302594042 0.295854457 0.0476142622 -0.4248792117 0.0474371079 -0.4247865294 -0.0384036681 0.309358355
685295890.0 -0.027123698 0.2960488861 0.0432112949 -0.4251778574 0.0428609395 -0.425441451 -0.0354283398 0.3097711244
690295860.0 -0.0239046017 0.296600786 0.0386247934 -0.4253324941 0.0382108549 -0.4255180819 -0.031767245 0.3105705463
695295830.0 -0.0206451767 0.2967767839 0.0334043802 -0.4258445494 0.0336876477 -0.4260339137 -0.0291631836 0.3109166173
700295800.0 -0.0175179831 0.2973312199 0.0290404059 -0.4264261389 0.0291252205 -0.4265014131 -0.0256030846 0.3111623917
705295770.0 -0.0142741789 0.2976784549 0.0243245623 -0.4266453048 0.0247256785 -0.4265040234 -0.0226685977 0.3115787132
710295740.0 -0.0112077747 0.2979219097 0.0199079659 -0.4264348918 0.0200631444 -0.42673994 -0.0197997994 0.3125900466
715295710.0 -0.0082762344 0.2983241249 0.0154058464 -0.4268470543 0.015812439 -0.4270042661 -0.0164773026 0.3123861342
720295680.0 -0.0052924389 0.297989729 0.0107762919 -0.4267636898 0.0109985862 -0.4272506585 -0.012918442 0.3129230261
725295650.0 -0.0016280891 0.2988209044 0.0055838581 -0.4271348446 0.0060688587 -0.4271540634 -0.0096322079 0.3131634965
730295620.0 0.0010006226 0.2985170587 0.0014014331 -0.4269530991 0.0015838439 -0.4269043991 -0.0063457253 0.3129914203
735295590.0 0.0047275882 0.2987906614 -0.0030789418 -0.4268536722 -0.0030479392 -0.4271469893 -0.0028515377 0.3134754776
740295560.0 0.0077280759 0.2992506417 -0.0078349007 -0.4267022944 -0.0079879326 -0.4270402513 0.0004048146 0.3133533569
745295530.0 0.0108359357 0.2988420582 -0.0127933823 -0.4264676257 -0.0120881565 -0.427184189 0.0032739202 0.3137223204
750295500.0 0.0139604144 0.2990061677 -0.0170612545 -0.4263026618 -0.0170403362 -0.4263062612 0.0066802403 0.3133010319
755295470.0 0.017748552 0.2991660809 -0.0218723732 -0.4264993909 -0.0215799624 -0.4264779033 0.0095773571 0.3139810363
760295440.0 0.0205140028 0.29921636 -0.026756203 -0.426012007 -0.0262202185 -0.4260571421 0.0125389605 0.313837881
765295410.0 0.023375003 0.298717929 -0.0305032482 -0.4252488718 -0.0307761574 -0.4259037145 0.0168917341 0.3141616318
770295380.0 0.0270640356 0.2990558924 -0.0354938118 -0.4250720686 -0.0355075913 -0.4253822665 0.0199522164 0.3137254054
775295350.0 0.0300406742 0.2987877769 -0.0401812008 -0.4246318929 -0.0399039674 -0.4246738622 0.0225261799 0.3133903911
780295320.0 0.0331573763 0.2984336085 -0.0442460314 -0.4241019626 -0.0446041471 -0.4245030443 0.0260519623 0.3136618488
785295290.0 0.036129805 0.2982929121 -0.048945174 -0.4233443406 -0.0491547757 -0.4237930617 0.0287905353 0.313719726
790295260.0 0.0392642518 0.2979464061 -0.0535544513 -0.423231876 -0.05398441 -0.4235069111 0.0328841648 0.3131014988
795295230.0 0.0422917441 0.2980315629 -0.0579442572 -0.4222693373 -0.0581769379 -0.422612661 0.0360652625 0.3133721687
800295200.0 0.0459330681 0.2976252306 -0.0631120076 -0.4216439794 -0.0630948645 -0.4220010073 0.0389201834 0.3129854015
805295170.0 0.0487806598 0.2973394799 -0.0671919714 -0.4207813998 -0.0676072801 -0.4210422034 0.0419283044 0.3125267912
810295140.0 0.0521334707 0.2966522828 -0.0717236746 -0.4202133747 -0.0718885452 -0.4208837148 0.0456769102 0.3127974053
815295110.0 0.0552097053 0.2965334227 -0.0763505918 -0.4193039349 -0.0767416417 -0.4192304689 0.0485339564 0.311852536
820295080.0 0.0583223361 0.2956772847 -0.0809775986 -0.4182967039 -0.0809427133 -0.4188244491 0.0516076874 0.3112947697
825295050.0 0.0616579313 0.2954174826 -0.08590611 -0.4173791771 -0.0850885585 -0.4177067208 0.0554850975 0.3110901663
830295020.0 0.0647443062 0.2952089688 -0.0899622609 -0.4165280766 -0.0900147088 -0.4166929756 0.0582193731 0.3103905822
