!Created with skrf (http://scikit-rf.org).
# Hz S RI R 50.0 
!freq ReS11 ImS11 ReS21 ImS21 ReS12 ImS12 ReS22 ImS22
300000.0 -0.7755770869 -0.1022708238 0.0006502756 0.0007801363 0.0002731219 0.0010134796 -0.2133023224 -0.0876874577
5299970.0 -0.7852741945 -0.0059038312 0.0003544183 1.11477e-05 -5.20488e-05 0.0001834362 -0.2151711146 0.0082226318
10299940.0 -0.788193516 -0.0045716258 -2.43103e-05 -0.0002776943 3.31641e-05 -0.0001401385 -0.2108410447 0.0216060827
15299910.0 -0.7933997929 -0.0020881881 1.60179e-05 0.0001364209 -0.000168123 -9.43855e-05 -0.2060947101 0.0311505696
20299880.0 -0.8002556537 0.001796293 1.07822e-05 -2.04937e-05 -6.91673e-05 1.29799e-05 -0.2002614282 0.0390360218
25299850.0 -0.8062386625 0.0077838511 -0.0001323533 -0.000134681 0.000240455 4.81044e-05 -0.1936091123 0.04589928
30299820.0 -0.812345964 0.0150786047 0.0001271357 -0.0001439161 6.169e-05 0.0002681911 -0.1873559312 0.0507643928
35299790.0 -0.8171104587 0.0245475827 -0.0001512197 0.0001294655 2.28443e-05 5.70088e-05 -0.1808920389 0.0548555238
40299760.0 -0.820887157 0.0336648169 -3.83546e-05 -0.0001099442 3.94334e-05 0.0001046645 -0.1749582752 0.0574187514
45299730.0 -0.8246171424 0.0428684382 -5.89375e-05 5.38173e-05 0.000291533 -2.11438e-05 -0.1690813453 0.0597244039
50299700.0 -0.8270740451 0.052905763 0.0001414378 0.0001087766 0.0001230264 0.0002612696 -0.1639036313 0.0609290281
55299670.0 -0.8292150293 0.0625202027 -7.72508e-05 -9.80788e-05 -9.59757e-05 1.35413e-05 -0.1596239883 0.0621432124
60299640.0 -0.8302280524 0.0729947929 0.000117453 -0.0001385189 0.0001249227 4.34714e-05 -0.1549066019 0.0624521541
65299610.0 -0.8313574156 0.0829531821 0.0002508419 -0.0001563548 -0.0001062965 -5.40872e-05 -0.1514616392 0.0627349535
70299580.0 -0.8320451455 0.0931454318 -9.67463e-05 6.25791e-05 -0.0001195953 -3.71217e-05 -0.1476939839 0.0625707833
75299550.0 -0.831719726 0.1037210247 -3.89694e-05 -2.09454e-05 5.45015e-05 3.07331e-05 -0.1444946847 0.0623500033
80299520.0 -0.8319493821 0.1132360182 -0.0001212626 -2.08035e-05 2.95263e-05 8.45311e-05 -0.1418634735 0.0629113836
85299490.0 -0.831472976 0.1224218462 3.35011e-05 0.0001320638 6.2966e-06 -0.0002265184 -0.1395396656 0.0624500273
90299460.0 -0.8300935329 0.1321820379 0.0001436273 8.07621e-05 4.33661e-05 0.0001003548 -0.1367511952 0.0623610933
95299430.0 -0.8294866171 0.1412624227 4.55373e-05 -9.13289e-05 -9.01694e-05 5.4579e-06 -0.1349760481 0.0621888157
100299400.0 -0.8279587066 0.1513271476 0.0001223253 0.000148358 -0.0001891884 -0.0001021974 -0.1327011451 0.061691392
105299370.0 -0.826920873 0.1603176556 8.0061e-05 -4.83457e-05 -0.0002392853 3.1722e-06 -0.1307672427 0.0616034192
110299340.0 -0.8254485999 0.1687551886 8.79926e-05 6.49514e-05 4.65578e-05 -2.8786e-06 -0.1294772175 0.0611237579
115299310.0 -0.8237302354 0.1785483144 -8.05185e-05 -8.45666e-05 -2.61935e-05 7.76355e-05 -0.1281373076 0.061177848
120299280.0 -0.8224643607 0.1865815882 -0.0001219452 -1.11639e-05 -0.0001223061 3.41573e-05 -0.1268256189 0.0611356928
125299250.0 -0.82012873 0.1958067092 -4.67246e-05 -1.8801e-05 5.16913e-05 0.0001363235 -0.1257857333 0.0606903077
130299220.0 -0.8186657067 0.2050905777 -1.70377e-05 -5.45489e-05 6.21228e-05 0.0001254 -0.1244526 0.060637576
135299190.0 -0.8169251712 0.2142755352 0.0001533804 2.50269e-05 0.0002570625 2.56101e-05 -0.1232944534 0.060900714
140299160.0 -0.8151604398 0.2227326233 -0.0002042443 -7.66017e-05 -9.70853e-05 -8.56988e-05 -0.1224996435 0.0612552819
145299130.0 -0.8130253985 0.2321123613 -2.67977e-05 3.01664e-05 3.08787e-05 -0.0001859163 -0.121641597 0.061508526
150299100.0 -0.8104286115 0.2411089171 3.8927e-06 6.01801e-05 -0.0001445957 0.0001314292 -0.1210408402 0.0619987727
155299070.0 -0.807684408 0.2494682627 1.17307e-05 0.0001181059 4.79819e-05 4.18121e-05 -0.1197111629 0.0623195139
160299040.0 -0.8054677188 0.2581243028 1.74303e-05 3.84473e-05 -9.1766e-06 -3.2301e-05 -0.1198198256 0.0626648457
165299010.0 -0.8026589219 0.2670095038 0.0001326939 2.78902e-05 -5.5874e-06 0.000159298 -0.1189088509 0.062996257
170298980.0 -0.8000436455 0.2751753973 -0.0001050158 2.54545e-05 -3.71576e-05 -0.0001499442 -0.1181360916 0.0632817331
175298950.0 -0.7974333705 0.2840496603 7.78488e-05 0.0002968834 -6.14539e-05 0.000173263 -0.1177875884 0.0639977075
180298920.0 -0.7948261187 0.2928211276 0.0003108129 0.000141578 -1.0345e-05 2.0857e-05 -0.1171432783 0.0646394234
185298890.0 -0.7909459987 0.300621587 -1.9218e-06 0.0001282277 0.0001826602 7.27641e-05 -0.116441033 0.0650570289
190298860.0 -0.7884565802 0.3097534684 0.0001550997 0.000191842 0.0001280706 0.0002092381 -0.1160407033 0.0657170485
195298830.0 -0.7848802401 0.3179308143 3.8774e-05 7.37178e-05 4.38234e-05 0.0001064808 -0.115513366 0.0662446253
200298800.0 -0.7816872998 0.3260005821 6.12892e-05 4.61824e-05 0.0001280017 6.95298e-05 -0.1152862874 0.0666020479
205298770.0 -0.7783637226 0.3339512122 3.41886e-05 -0.0001521658 1.43861e-05 2.15756e-05 -0.1148400092 0.067244416
210298740.0 -0.775107191 0.3423419679 -8.91665e-05 1.48096e-05 4.40954e-05 1.9445e-06 -0.1140519644 0.0680909142
215298710.0 -0.7714932419 0.3506788333 6.23599e-05 6.323e-05 7.47088e-05 4.60973e-05 -0.1144334725 0.0686684631
220298680.0 -0.7675230738 0.3586587827 -0.0001818146 -0.0001670369 -0.0001764346 -4.73949e-05 -0.1138249637 0.069271111
225298650.0 -0.7645240658 0.366334522 0.0002423697 6.3306e-05 9.80207e-05 0.0001434324 -0.1134085469 0.0701966037
230298620.0 -0.7606861418 0.3746629061 -7.68552e-05 9.17153e-05 3.79338e-05 0.000131631 -0.1128103301 0.0709646287
235298590.0 -0.7568824011 0.382811357 0.0001124148 -6.87642e-05 -0.0001380718 -4.40216e-05 -0.1124881093 0.0714273667
240298560.0 -0.7522979395 0.391277791 0.0002402468 0.0001789495 0.0001868065 0.0001399559 -0.1121141259 0.0724478623
245298530.0 -0.7484970961 0.3983817047 -0.000272868 0.0001249996 0.000232042 0.0001230718 -0.1118327499 0.0728290734
250298500.0 -0.743805551 0.4066676777 9.50108e-05 2.04334e-05 9.6652e-05 7.57548e-05 -0.111315441 0.0737473604
255298470.0 -0.7396299401 0.4136318961 -5.45947e-05 0.0001420703 0.0003214785 0.0001828251 -0.1106490803 0.0745959232
260298440.0 -0.7357235403 0.4216407764 -8.95314e-05 8.19578e-05 4.56145e-05 8.41691e-05 -0.1099614285 0.0754610829
265298410.0 -0.731459567 0.429549688 1.40777e-05 0.0002643217 0.0001526984 6.8604e-05 -0.1095500726 0.0762746623
270298380.0 -0.7270363959 0.4370189107 0.0001070803 0.0002172346 -0.0002503574 4.05425e-05 -0.1090055143 0.0769965254
275298350.0 -0.7223363427 0.4445428678 0.0001465032 0.0001957471 7.96707e-05 5.10013e-05 -0.1084652273 0.0781386269
280298320.0 -0.7173365278 0.4518098807 0.0001520641 -0.0002950668 0.0001042564 0.0002024997 -0.1079114778 0.0787113807
285298290.0 -0.712619066 0.4597600767 2.12006e-05 0.0001731656 8.61969e-05 0.0003552368 -0.1072384792 0.0796663616
290298260.0 -0.7077307441 0.4670862304 2.60252e-05 0.0001018653 -4.36386e-05 -5.2901e-06 -0.106252926 0.0808472015
295298230.0 -0.7026271391 0.4740722659 0.0002039537 -2.22748e-05 8.3294e-05 6.05737e-05 -0.1057841237 0.081446663
300298200.0 -0.6980351815 0.4818164481 0.000247344 0.0001215594 3.32863e-05 -8.9222e-06 -0.1051334962 0.0823249368
305298170.0 -0.6927098975 0.488259135 6.31819e-05 -0.0001153084 5.65308e-05 0.0003036556 -0.10419151 0.0831695812
310298140.0 -0.6878975078 0.4958276443 7.27444e-05 -3.30385e-05 8.38582e-05 9.7956e-06 -0.1040555838 0.0838374884
315298110.0 -0.6828434976 0.50334481 -0.0003000524 0.0002053229 2.78645e-05 0.0001022085 -0.1032744798 0.0847654565
320298080.0 -0.6774579074 0.5102657297 -5.735e-06 -2.8557e-05 0.0001695028 0.0001155979 -0.102578749 0.0862710751
325298050.0 -0.6716420065 0.5172485932 0.0001821416 3.1776e-06 0.0001889926 -4.46905e-05 -0.1025383728 0.0868441324
330298020.0 -0.6665417601 0.523895289 -8.35863e-05 2.0372e-05 9.06428e-05 6.99908e-05 -0.1016962853 0.0877516611
335297990.0 -0.6610400801 0.5301299432 0.0002410027 4.3369e-06 2.39665e-05 1.23322e-05 -0.1016132091 0.0889951139
340297960.0 -0.6560372994 0.5373623165 0.0001475275 1.56774e-05 0.0003012163 0.0001401477 -0.1002762527 0.0902390934
345297930.0 -0.6501203552 0.5441808324 0.0003664416 1.92903e-05 8.5042e-05 7.06987e-05 -0.1002452427 0.0909161318
350297900.0 -0.6443645579 0.5505490284 0.0004491864 -0.0001735588 0.0001345306 0.000237448 -0.0997679054 0.0924178518
355297870.0 -0.6382376343 0.5581528409 0.00010502 0.0001637738 5.70956e-05 0.000206624 -0.0991176729 0.0933626052
360297840.0 -0.6327084328 0.563591607 0.0002762117 0.0002303747 0.0001311401 1.03217e-05 -0.0983324247 0.0946656382
365297810.0 -0.6276240337 0.5702717428 -6.5294e-05 9.42952e-05 0.0001702164 9.96027e-05 -0.0976938138 0.0954814729
370297780.0 -0.6212493529 0.5763411844 -6.106e-07 -1.17813e-05 6.55728e-05 8.13924e-05 -0.0964093683 0.0962492588
375297750.0 -0.6151585813 0.5835189659 0.0002054487 5.53263e-05 0.0002828441 0.0002390787 -0.0963723836 0.0974157057
380297720.0 -0.6091694136 0.5886597343 0.0001897274 0.0001070261 0.0001375115 -0.0001147272 -0.0957028344 0.0985876985
385297690.0 -0.6034961881 0.5953960114 0.0001024234 -4.89172e-05 0.0003398688 -3.87339e-05 -0.0947509929 0.0994739825
390297660.0 -0.5969255948 0.6012718942 0.0001155856 0.0002430827 0.0001577592 0.0001286709 -0.0941303766 0.1010048039
395297630.0 -0.5907148063 0.6080228748 0.0001702769 0.0002558373 9.34498e-05 0.0001933371 -0.0931944704 0.1016420046
400297600.0 -0.584202933 0.6140748214 0.0001002373 0.0002109648 0.0002820628 4.74472e-05 -0.0925382022 0.1027862661
405297570.0 -0.5778985429 0.6195089684 0.0003870934 7.87953e-05 0.000366442 -8.26786e-05 -0.091903999 0.1033936266
410297540.0 -0.5711804972 0.6253658963 2.22583e-05 7.63541e-05 8.96821e-05 3.48041e-05 -0.0910886481 0.1047119683
415297510.0 -0.5646418762 0.6303491483 6.81028e-05 0.0001308512 0.000400179 9.96081e-05 -0.0902626771 0.1054503927
420297480.0 -0.5592657722 0.6368921768 0.0003323951 0.000105802 0.0003409826 -3.30997e-05 -0.0893116887 0.1065579969
425297450.0 -0.5517346759 0.6425522244 0.0001124623 -0.0001054628 0.00029276 3.82018e-05 -0.088621919 0.1073362502
430297420.0 -0.5455614761 0.6476603459 0.0001635782 7.97779e-05 7.20638e-05 0.0001143364 -0.0877550397 0.1084315039
435297390.0 -0.538667807 0.6530451394 2.94565e-05 0.0002262057 2.6344e-05 5.40303e-05 -0.0864265656 0.1091721768
440297360.0 -0.5316118782 0.6588769639 0.0002007109 -5.38377e-05 0.0002708841 0.0001408554 -0.0858797423 0.1101881497
445297330.0 -0.5246777028 0.6646430191 0.0003009431 8.10855e-05 0.0002830324 0.0001384554 -0.0848705529 0.1108919238
450297300.0 -0.5182166174 0.6691738609 -3.34283e-05 -4.69431e-05 0.0002867919 0.000260179 -0.0840893337 0.1116412252
455297270.0 -0.5114303091 0.674449049 -2.42137e-05 9.27428e-05 7.31057e-05 -6.77022e-05 -0.0828379675 0.1126613081
460297240.0 -0.5050156425 0.6795745252 0.0002464243 2.31137e-05 9.25596e-05 0.0001509216 -0.081884961 0.11397378
465297210.0 -0.4978644576 0.684801903 -9.4771e-06 0.0002211437 0.0001611535 3.55375e-05 -0.080736781 0.1146817424
470297180.0 -0.4904832533 0.6897820152 0.0002241433 0.000119139 5.836e-07 7.84342e-05 -0.0800204559 0.1159331032
475297150.0 -0.4837408874 0.6943015819 9.42079e-05 -5.62042e-05 0.0002714713 0.0001758588 -0.078620559 0.116400698
480297120.0 -0.4769615633 0.6993163691 0.0001362489 -2.29623e-05 -3.27848e-05 0.0002313459 -0.0775419265 0.1171916546
485297090.0 -0.4690849455 0.704004211 0.0002320659 0.0001119787 0.0003300453 0.0002756394 -0.0767473663 0.1181536528
490297060.0 -0.4625519465 0.7087539311 0.0002909538 -0.0002247145 0.0003962025 0.0001411184 -0.0754800175 0.1188951471
495297030.0 -0.4552639108 0.7127246348 0.0001821978 -1.00535e-05 -1.1718e-06 0.0001227854 -0.0747483462 0.1203997186
500297000.0 -0.4481509424 0.7178679844 -2.36553e-05 8.18938e-05 0.0002279292 0.0001144709 -0.0731656945 0.1213121906
505296970.0 -0.4406652477 0.7224945647 0.000217102 -0.0001245901 0.0001264835 2.59576e-05 -0.0723630474 0.1218583133
510296940.0 -0.4330279272 0.7267409409 7.73441e-05 5.8656e-06 0.0003855453 -4.2949e-05 -0.0714500056 0.122635467
515296910.0 -0.4245894809 0.7302145566 0.0003977059 0.0003252881 9.51675e-05 -0.0001000503 -0.0702205154 0.1238885976
520296880.0 -0.4187764512 0.7352913158 0.0001996865 -8.32505e-05 0.0001742612 8.01028e-05 -0.0692763311 0.124842357
525296850.0 -0.4108311627 0.73887275 0.0001854432 6.60101e-05 0.0001124163 -2.40298e-05 -0.068156027 0.1260055321
530296820.0 -0.4026088668 0.7431463067 0.0004227784 0.0002130462 9.04594e-05 0.0001783226 -0.0669302634 0.1267067605
535296790.0 -0.395892747 0.7468936993 6.89915e-05 -8.24379e-05 0.0001977735 5.79102e-05 -0.0662523152 0.1272587611
540296760.0 -0.3885575484 0.7509178638 9.46854e-05 -5.6752e-06 0.0002994795 5.97952e-05 -0.0649543842 0.1282626376
545296730.0 -0.3807873072 0.7550887095 0.0002012289 -3.4255e-05 -1.76211e-05 5.47076e-05 -0.0637092002 0.128928356
550296700.0 -0.3732405169 0.7587250451 0.0002280577 8.44016e-05 0.0001939905 -6.20684e-05 -0.0631101251 0.129601258
555296670.0 -0.3647810821 0.761117111 0.0001108038 0.0001896203 0.0002675806 0.000214305 -0.0617829025 0.1310794146
560296640.0 -0.357945552 0.7659805791 0.0001286958 8.77492e-05 0.000149173 0.0001970868 -0.0604027594 0.1316422697
565296610.0 -0.349831108 0.7698319611 0.0002053614 -1.9146e-06 5.86108e-05 8.93339e-05 -0.0594459379 0.1319703681
570296580.0 -0.3421030768 0.7723156149 -1.87411e-05 5.77142e-05 0.0001081711 5.6322e-05 -0.0586792239 0.132955473
575296550.0 -0.3345073743 0.77677836 9.91116e-05 -4.81067e-05 4.28833e-05 -9.36231e-05 -0.0573128127 0.1334929279
580296520.0 -0.3267654055 0.779492435 0.0001253497 -9.1216e-06 -3.19013e-05 5.4869e-06 -0.0560072545 0.1340924285
585296490.0 -0.3184893902 0.7821842004 0.0002801764 0.0001057346 0.0001663759 -0.0002607006 -0.0546169006 0.1348787337
590296460.0 -0.3109997181 0.7860637398 0.0001720797 2.96395e-05 0.0003269052 0.0001272884 -0.0536741138 0.1356433518
595296430.0 -0.3033680145 0.7884309899 8.64013e-05 0.0001058996 0.0001346608 9.04838e-05 -0.0524344582 0.1360750706
600296400.0 -0.2953973007 0.7920112064 5.71903e-05 -0.000228283 2.75295e-05 0.0001286094 -0.0512344871 0.1367011805
605296370.0 -0.2880367199 0.7949315034 0.0002986261 -3.70148e-05 0.0002705738 4.7862e-06 -0.0496454649 0.1373532729
610296340.0 -0.2793250534 0.7972640143 9.20607e-05 -4.56217e-05 0.0002309936 5.16435e-05 -0.0485572384 0.1383054162
615296310.0 -0.270718909 0.7999629839 0.000302643 4.42793e-05 0.0004177395 1.91731e-05 -0.0469154103 0.1386079848
620296280.0 -0.2628787525 0.8022930437 1.81085e-05 -0.0001014263 0.0002107825 4.20516e-05 -0.0460242998 0.139562551
625296250.0 -0.2550384737 0.8056011853 0.0002250388 4.37387e-05 0.0001684002 -4.94729e-05 -0.044696267 0.1397268641
630296220.0 -0.2461741495 0.8077095642 0.0001189555 -0.0002455423 0.000272008 -0.0002078419 -0.0431704542 0.1406277263
635296190.0 -0.23878187 0.8102176292 0.0001776567 0.0001016713 0.0001543537 2.00482e-05 -0.0419482995 0.1412014143
640296160.0 -0.230892686 0.8118601188 0.0003871478 9.26037e-05 0.00028624 -5.14104e-05 -0.0404758808 0.1418937222
645296130.0 -0.2231415484 0.8148883145 0.0001530125 -0.0001555111 0.0001175819 7.40181e-05 -0.039421605 0.1425204973
650296100.0 -0.215023563 0.8164951498 0.0002622995 8.79093e-05 0.0002726507 0.0002360342 -0.0377781718 0.1425187482
655296070.0 -0.2064124657 0.8188983292 0.0004602695 -6.3914e-05 0.0001454071 3.18507e-05 -0.036318225 0.1435002854
660296040.0 -0.1984197208 0.8209568768 0.0001296763 -0.0001369599 0.0002790462 0.0002758272 -0.0348730591 0.1442751612
665296010.0 -0.1896431137 0.8224545296 0.000349699 3.4469e-06 0.0004029629 3.69461e-05 -0.0337120199 0.1449028548
670295980.0 -0.1818088169 0.8246914692 0.0003103031 0.0001401952 0.0002231004 6.396e-07 -0.0324937645 0.1452560419
675295950.0 -0.1734176385 0.8266364356 0.0003694776 0.0002415441 0.0001640758 -6.16451e-05 -0.0312721081 0.1462307156
680295920.0 -0.1652048761 0.8280134727 0.0004710186 -0.0001143428 0.0002665573 -3.09904e-05 -0.0294401016 0.1465819215
685295890.0 -0.1566666843 0.8303081372 0.0003049257 -4.20602e-05 0.0002085644 0.000117501 -0.0283183344 0.1471508709
690295860.0 -0.149232384 0.8307388202 0.0002286229 -0.0002814177 0.0001155018 0.00010466 -0.0270925252 0.147695575
695295830.0 -0.1408023974 0.8323022059 0.0001234389 -8.34196e-05 5.00957e-05 5.23844e-05 -0.0255108704 0.1483460214
700295800.0 -0.1320060386 0.8340882669 0.0001597244 -0.0001823097 0.000297084 -0.0001279368 -0.0246010106 0.1487752394
705295770.0 -0.1246484072 0.8353186646 0.0001964984 0.0001138494 0.0003819861 -8.5118e-06 -0.0231437216 0.1494922079
710295740.0 -0.1159000705 0.837080231 5.11568e-05 -0.0001279209 0.0001683663 6.43736e-05 -0.0218004483 0.1493637801
715295710.0 -0.1075715664 0.8375162434 0.0004302921 -4.44289e-05 0.0003130487 3.07626e-05 -0.0201452994 0.1497934389
720295680.0 -0.0994780164 0.838199428 0.0002901285 -4.48057e-05 0.0002848855 -0.0001915442 -0.0186841734 0.150557341
725295650.0 -0.0912886224 0.8398192703 0.0004431241 0.0001196325 0.0001894669 8.49333e-05 -0.0174425488 0.150962499
730295620.0 -0.0824133629 0.8401117064 9.7007e-05 -0.0001367664 0.0003039331 -8.27263e-05 -0.016383287 0.1513968656
735295590.0 -0.0745560671 0.8412195381 0.0003944852 0.0002428739 0.0001184473 -3.88447e-05 -0.0151629584 0.1516406451
740295560.0 -0.066106614 0.8421959 0.0003492066 -1.57631e-05 0.0003495152 -3.9893e-06 -0.0135317398 0.152006764
745295530.0 -0.057421777 0.8430023002 -2.39619e-05 2.3355e-05 0.0001578056 -4.80433e-05 -0.0119831691 0.1522906979
750295500.0 -0.0487240312 0.8431168543 0.000175115 2.46415e-05 0.0003718771 3.1569e-05 -0.0108159145 0.1525619486
755295470.0 -0.040986305 0.8428773054 0.000136823 2.14758e-05 0.0003373902 -0.000260911 -0.0092460924 0.1523026587
760295440.0 -0.0324704111 0.8435256448 0.0002228006 2.09897e-05 0.0002742414 -0.0001813483 -0.0077784088 0.1528421353
765295410.0 -0.0243809577 0.8436769055 0.0002378149 -0.0001073318 0.0003146241 -8.06036e-05 -0.0064006568 0.1532715557
770295380.0 -0.015970834 0.8437911633 0.0003515557 -9.13827e-05 0.0002740402 5.74554e-05 -0.0049384814 0.1533897918
775295350.0 -0.0076337736 0.8440076442 0.0002210807 -2.09563e-05 0.0004501457 -2.25639e-05 -0.0039392396 0.153746681
780295320.0 0.0009766552 0.8442077576 0.0001154791 -1.94489e-05 0.0003415124 -0.0001619561 -0.0022565096 0.1536660148
785295290.0 0.0089338512 0.8431700942 0.0001256399 1.53099e-05 0.0003205243 -3.81329e-05 -0.0004391844 0.153840919
790295260.0 0.0176893933 0.8435765177 0.0001921708 4.63021e-05 3.53421e-05 -1.45718e-05 0.0013275362 0.1544224062
795295230.0 0.0255701181 0.8434017367 0.0004587491 -5.2519e-06 0.0002528746 -9.09229e-05 0.0028081587 0.154476152
800295200.0 0.0338836681 0.8432163687 0.0003241242 -2.76063e-05 0.0003070759 6.25153e-05 0.0041617897 0.1546234121
805295170.0 0.0427582675 0.8431140324 0.0001082304 -3.8306e-06 0.0004091357 4.20893e-05 0.0054764289 0.1549554257
810295140.0 0.0506205203 0.84241735 0.0001919911 -0.0001991366 0.0001379546 -3.15177e-05 0.0074656764 0.1551931214
815295110.0 0.0590695358 0.8419109948 0.0002727877 9.7007e-05 0.0003915247 -0.0001769102 0.0087307687 0.1551144576
820295080.0 0.0677040556 0.8411097611 0.0002536799 -0.0001505421 0.0003792195 -5.47043e-05 0.0105483982 0.1549317411
825295050.0 0.0761898724 0.8402563771 0.0001953979 -4.27547e-05 0.0001413627 7.65491e-05 0.0118102441 0.1553403626
830295020.0 0.0838019553 0.8398900698 0.0001522378 0.0001274331 0.000182912 2.42747e-05 0.0139878178 0.1553520223
835294990.0 0.0921385935 0.8389032444 0.0003814022 -5.5865e-05 0.0001898806 -9.78081e-05 0.0147307063 0.1557037359
840294960.0 0.0994390482 0.8383255338 0.0001249058 -0.0002589471 0.0001571688 -0.0001177261 0.0162408683 0.1558194767
845294930.0 0.1084220563 0.8368361054 0.0004045857 -6.002e-05 0.0001320642 -0.0002150321 0.0174824106 0.1556597454
850294900.0 0.1169646327 0.8365249047 0.0002497778 -7.68302e-05 0.0002394047 -0.0003085071 0.0195356778 0.1557589748
