!Created with skrf (http://scikit-rf.org).
# Hz S RI R 50.0 
!freq ReS11 ImS11 ReS21 ImS21 ReS12 ImS12 ReS22 ImS22
300000.0 -0.0480942648 -0.0599334921 -0.0004273072 0.0012556272 -0.0003552782 0.000356147 -0.7672449812 -0.1712562244
5299970.0 -0.0490773686 0.0158847931 -0.0001588458 -0.0001280851 3.84926e-05 -3.85755e-05 -0.785351921 -0.0086105019
10299940.0 -0.043070909 0.0334636336 -0.0001343178 -0.0002832829 -4.39336e-05 -0.0002262091 -0.7884846568 -0.0050288412
15299910.0 -0.0351426109 0.0479302424 -0.0002674146 -2.63612e-05 -0.0001897079 0.0003037803 -0.7938433135 -0.0033712031
20299880.0 -0.0248205659 0.0598902663 -0.0001211583 3.01006e-05 6.56044e-05 7.51759e-05 -0.8005111076 0.0016269023
25299850.0 -0.013173973 0.0691984961 -0.0001126056 -8.58321e-05 -0.0001402996 -2.4775e-05 -0.806896444 0.0071930421
30299820.0 -0.0014831728 0.0755203426 3.1823e-06 6.0547e-05 -0.0001299036 0.0001535295 -0.8126752152 0.014966828
35299790.0 0.0104753672 0.0806095339 0.0001851532 6.1005e-05 -8.67572e-05 2.10272e-05 -0.8176860485 0.0239110204
40299760.0 0.0220320871 0.0832626032 3.80408e-05 -5.749e-06 -0.0001047356 0.0001433525 -0.8217470624 0.033253602
45299730.0 0.0325613373 0.0846029928 0.0002307898 0.0001477317 -2.11022e-05 -7.06378e-05 -0.8255327502 0.0422245362
50299700.0 0.0432484334 0.0844105741 -2.84414e-05 0.0001097076 -0.0001028572 1.05407e-05 -0.8279986468 0.0523151984
55299670.0 0.0520836295 0.0834018717 -9.15672e-05 4.06412e-05 7.49401e-05 6.30415e-05 -0.8298261247 0.063246086
60299640.0 0.0608465708 0.0814586789 -4.96715e-05 0.0002483172 7.37717e-05 0.0001489317 -0.831125275 0.072939387
65299610.0 0.0686175679 0.0788896739 8.10486e-05 -5.90528e-05 3.8595e-05 -0.000243015 -0.831621624 0.0827271593
70299580.0 0.0755264097 0.0758233521 0.000335678 2.59595e-05 4.76783e-05 -0.0002041061 -0.8319670516 0.0932306635
75299550.0 0.0820196881 0.0719707115 0.0002058324 8.57251e-05 9.29285e-05 0.0001344603 -0.8324043399 0.1028443984
80299520.0 0.0874371431 0.0687771756 -0.0001034491 -0.0001382946 0.0001182283 0.0001626446 -0.8320392143 0.1120319154
85299490.0 0.0928689831 0.0642593023 -8.3957e-06 8.71612e-05 2.45136e-05 -0.0001199499 -0.8320700358 0.1218785138
90299460.0 0.0972085483 0.0610100555 0.0001605811 4.92082e-05 9.07246e-05 1.35822e-05 -0.8304432236 0.1308632207
95299430.0 0.1015492523 0.056833736 -3.37252e-05 -5.24817e-05 -9.57218e-05 -0.0001333869 -0.8295820169 0.1413097968
100299400.0 0.104822393 0.0529971153 5.36074e-05 3.21872e-05 -5.49067e-05 2.06109e-05 -0.828747675 0.1499510837
105299370.0 0.1080739458 0.0486651472 1.9823e-06 8.78846e-05 -1.51054e-05 0.0001448333 -0.8281171545 0.1591682119
110299340.0 0.1106870727 0.0447076985 -0.0001474687 2.18825e-05 -0.0002187024 0.0001209577 -0.8268014915 0.1686285502
115299310.0 0.1134818594 0.0402279932 -3.89797e-05 0.0001463702 7.2707e-06 0.0002029118 -0.8249906338 0.1770313388
120299280.0 0.1154116655 0.0369157363 0.0001050902 9.83741e-05 0.0002416116 0.0001057287 -0.8239609031 0.1860114042
125299250.0 0.1172332594 0.0325618928 -5.15183e-05 7.27459e-05 -0.0001804123 -0.0001157294 -0.8215126027 0.1954272788
130299220.0 0.1193375621 0.0291501666 0.0001269939 -2.94162e-05 2.8075e-05 -7.71718e-05 -0.820262449 0.203906636
135299190.0 0.1208390714 0.0252989272 0.000197593 -3.64275e-05 8.72562e-05 -1.98076e-05 -0.8179906623 0.2125241151
140299160.0 0.1221157961 0.0216168389 7.82733e-05 4.36876e-05 7.9569e-06 8.98836e-05 -0.8161331822 0.2210781774
145299130.0 0.123011207 0.0179717208 -8.24552e-05 7.03578e-05 9.072e-06 0.0001463437 -0.8138860977 0.2296923533
150299100.0 0.1237713409 0.0142575906 -0.0001495538 1.35219e-05 5.2649e-06 9.97203e-05 -0.8116807076 0.2382424962
155299070.0 0.1246059818 0.011074511 0.0001198716 -1.50009e-05 -0.0001071309 -0.0001365295 -0.8098829171 0.2476260765
160299040.0 0.1251995679 0.0074431723 1.69661e-05 0.0001050324 -6.61735e-05 0.0001156309 -0.8072303479 0.2564870986
165299010.0 0.125635721 0.0044006557 2.99668e-05 5.89436e-05 0.0001218577 -4.51018e-05 -0.8045448288 0.2647666933
170298980.0 0.1257565776 0.0010356748 -8.1956e-06 0.0002203655 6.85133e-05 -2.16903e-05 -0.8022164421 0.2730423885
175298950.0 0.126037642 -0.0018099457 3.82173e-05 5.05945e-05 -1.04226e-05 0.0001166625 -0.7990180356 0.2815489206
180298920.0 0.1262320141 -0.0051539128 8.28539e-05 0.0001006534 0.0001747879 3.90811e-05 -0.7958207374 0.290320301
185298890.0 0.1258888441 -0.0082749397 0.000123507 0.0003152157 -0.0001212611 -5.49521e-05 -0.7932844228 0.2982803785
190298860.0 0.1260390857 -0.0111465733 -0.000223988 -0.0001202863 4.8651e-05 0.0002284199 -0.7897305961 0.3075392852
195298830.0 0.126377924 -0.0141659578 0.0001463763 -1.22868e-05 0.0001352105 5.15533e-05 -0.7867645517 0.3154392904
200298800.0 0.1256489509 -0.0166147478 -2.5638e-05 0.0002471819 -7.38909e-05 -0.0001490905 -0.7833554339 0.3236264826
205298770.0 0.1253979394 -0.0196461136 0.0001341687 -1.5258e-05 -1.66988e-05 -9.05483e-05 -0.7803187131 0.3321664358
210298740.0 0.1251162726 -0.0219317472 -4.0515e-06 2.6146e-06 -8.86898e-05 -8.13609e-05 -0.7772904437 0.3403219054
215298710.0 0.1246429012 -0.0249176697 9.65815e-05 6.51443e-05 1.04788e-05 -2.95728e-05 -0.7734657332 0.3482427433
220298680.0 0.1243336888 -0.0274925935 3.61423e-05 -7.03523e-05 4.35188e-05 0.0002147402 -0.7697017755 0.3569969575
225298650.0 0.1236872326 -0.0298199346 -2.9878e-06 0.0001328857 0.0001517861 0.0003027955 -0.7658816276 0.3645629796
230298620.0 0.1230582036 -0.0323389045 -3.8906e-06 0.0001089876 0.0001442803 -5.73072e-05 -0.7618204462 0.3730856969
235298590.0 0.1223779889 -0.0349803259 9.53096e-05 6.78597e-05 -2.51191e-05 6.52918e-05 -0.7575314182 0.3803488454
240298560.0 0.1217424642 -0.0372255347 6.31226e-05 0.0001119949 -2.2864e-06 0.0001537702 -0.7541715695 0.3887070364
245298530.0 0.1211265878 -0.0395664839 8.23113e-05 -0.0001101977 0.0001082907 -1.52834e-05 -0.75018589 0.3963011155
250298500.0 0.1201406836 -0.0416170236 0.0003756417 8.95225e-05 -0.0001251566 2.84811e-05 -0.7459877259 0.4043065136
255298470.0 0.1194857781 -0.0440672643 8.07931e-05 -0.0001998796 7.34588e-05 4.7892e-06 -0.7416670254 0.4126141893
260298440.0 0.1188026661 -0.0459775712 6.69696e-05 0.0001816963 -0.0001331912 -1.90294e-05 -0.7370886276 0.4198859064
265298410.0 0.1177801192 -0.0479275784 6.07133e-05 -0.0001122833 0.0002179838 6.87987e-05 -0.7328551405 0.4277432979
270298380.0 0.1169372378 -0.0500113091 0.0001533937 0.0002307915 0.0001072959 -7.56153e-05 -0.7279379688 0.4354599768
275298350.0 0.1160433938 -0.0522360195 -0.000113075 8.18994e-05 6.57826e-05 -1.35555e-05 -0.7232786091 0.4432906755
280298320.0 0.1151821321 -0.0540735615 -4.80041e-05 0.0001532922 0.0001623748 0.0002056274 -0.7189583242 0.4497722599
285298290.0 0.1142126617 -0.0561422786 0.0002132776 0.0001072681 -0.0001547474 3.43146e-05 -0.7134322187 0.4583264817
290298260.0 0.1132821112 -0.0582192534 1.72909e-05 0.0001481415 1.26306e-05 0.0001377501 -0.7091448827 0.4657285392
295298230.0 0.1124806923 -0.0601732085 6.492e-07 -0.0001380023 1.99379e-05 -4.88009e-05 -0.7039412498 0.4730893827
300298200.0 0.1116316487 -0.0623459372 2.8913e-06 1.12102e-05 5.47398e-05 -6.30662e-05 -0.6984945742 0.4799266916
305298170.0 0.110465417 -0.0638219141 0.0001098897 0.000211892 0.0002607749 0.0001968973 -0.6934962915 0.487777593
310298140.0 0.109189668 -0.0664428609 0.0003205243 7.788e-05 0.00012783 1.97656e-05 -0.6890172433 0.4950676329
315298110.0 0.1075018421 -0.0681320004 2.78468e-05 -0.0001983552 -0.0001090046 0.0001206055 -0.6831728851 0.5020765776
320298080.0 0.1064189888 -0.0698154662 -1.04824e-05 0.0002908551 -2.11855e-05 4.87665e-05 -0.6781919563 0.5098735346
325298050.0 0.1050538857 -0.0717435229 -8.3858e-05 2.8531e-06 8.37081e-05 0.000399934 -0.6724584026 0.5160273076
330298020.0 0.1036414845 -0.073451735 7.94998e-05 4.63244e-05 0.0002031767 4.18403e-05 -0.666783909 0.5232969092
335297990.0 0.1021747994 -0.0750668881 -0.0002394454 -8.08974e-05 8.42508e-05 0.0002622462 -0.661519516 0.5299807627
340297960.0 0.1005612312 -0.0761713363 1.53031e-05 8.63462e-05 6.66264e-05 0.0001191565 -0.6559505425 0.5371750024
345297930.0 0.0992072573 -0.077772718 0.0001439696 0.0002039985 0.0001310871 -4.25118e-05 -0.6503022266 0.5437824346
350297900.0 0.098128927 -0.0794273164 0.0001262768 4.52996e-05 0.0001177567 0.0001536599 -0.6441259434 0.5508768935
355297870.0 0.0963471783 -0.0806826717 0.0001330267 1.79271e-05 -1.37291e-05 8.30474e-05 -0.6387852052 0.5575743199
360297840.0 0.0952461395 -0.0821678337 -0.0001646197 -1.56838e-05 0.0001477321 0.0001573494 -0.6327055987 0.5637948894
365297810.0 0.0938550486 -0.0834609993 -0.0001960966 -0.0001302667 9.67903e-05 3.45439e-05 -0.62636444 0.5703812428
370297780.0 0.0924944449 -0.0845804286 0.0001532317 1.16915e-05 0.0003294401 4.73223e-05 -0.6210676319 0.5762261394
375297750.0 0.0908272564 -0.0858886191 0.0001023381 8.39476e-05 0.0002719117 2.9479e-06 -0.6145622738 0.583148742
380297720.0 0.0898742852 -0.0872149185 0.0002061494 -7.12771e-05 -1.17328e-05 6.88741e-05 -0.6084163039 0.5902923889
385297690.0 0.0880432398 -0.088599728 0.00015338 4.26153e-05 -0.0001350952 -9.157e-05 -0.6020041396 0.5965898858
390297660.0 0.0869071914 -0.0899011183 3.08551e-05 0.0001736034 0.0001459336 4.81404e-05 -0.5955696223 0.6014947044
395297630.0 0.0855713977 -0.0911116332 2.94359e-05 6.50559e-05 0.0002240272 3.56889e-05 -0.589226455 0.6077454031
400297600.0 0.0841462637 -0.0921227712 0.000127475 -3.82345e-05 0.0001701105 0.0001078561 -0.5834503148 0.6139412245
405297570.0 0.0827299385 -0.0932078841 0.0002004021 9.61611e-05 0.0001176018 4.39704e-05 -0.57700177 0.6198643962
410297540.0 0.0810840531 -0.0943205743 0.0001751965 6.49147e-05 -9.5754e-06 -9.95858e-05 -0.570375425 0.6254115938
415297510.0 0.0796140809 -0.0955118204 0.0001134135 8.49098e-05 0.0001792758 0.0001052507 -0.5642042674 0.6319714306
420297480.0 0.0780203705 -0.0966137739 0.000158256 5.2935e-05 -2.21046e-05 3.54024e-05 -0.5571064051 0.6364954995
425297450.0 0.0766375072 -0.0977814878 0.0002795109 0.0001082317 0.0001471397 -3.1828e-05 -0.5506923072 0.6428477596
430297420.0 0.0748947018 -0.0986485566 -0.0002074118 -7.38296e-05 0.0001897695 0.000105434 -0.544203039 0.6483456726
435297390.0 0.0735321776 -0.0995793821 -2.49365e-05 6.08438e-05 6.87763e-05 8.69555e-05 -0.5372515699 0.6536573133
440297360.0 0.0719688865 -0.1008575837 7.89265e-05 -8.14441e-05 0.0001722824 -5.48234e-05 -0.5302879595 0.6591640549
445297330.0 0.0705007021 -0.1015302901 8.2608e-06 6.1677e-06 0.0002877737 0.0001679592 -0.5238347375 0.6644065336
450297300.0 0.0689210074 -0.1026786636 -9.5243e-06 4.9794e-05 7.82894e-05 0.0003341683 -0.5173800672 0.6699724819
455297270.0 0.0674806993 -0.1033513421 0.0002461804 -3.63254e-05 0.0001305643 -2.36372e-05 -0.5104553966 0.6745578561
460297240.0 0.0658096241 -0.1039324207 6.4918e-05 7.00656e-05 -3.451e-07 -4.29727e-05 -0.5027063385 0.6807613637
465297210.0 0.064290555 -0.1049058812 0.0004143793 8.22658e-05 -3.58408e-05 -8.5022e-05 -0.4964861535 0.6853087041
470297180.0 0.0624733558 -0.1056003772 0.0002539492 2.30792e-05 0.0001517825 -0.0001150749 -0.4897909832 0.6891359612
475297150.0 0.0607089599 -0.1064654202 1.87974e-05 -4.49551e-05 0.0001126265 9.74211e-05 -0.4824054761 0.6946027151
480297120.0 0.0592055623 -0.1072395326 0.000134671 -0.0002328541 -2.11385e-05 -0.0001041185 -0.4753616037 0.699961664
485297090.0 0.0579599638 -0.1079965004 -0.0001328971 0.000242995 5.71488e-05 -7.32433e-05 -0.4683884985 0.703994853
490297060.0 0.0563098738 -0.1088030192 0.0002612576 -9.4253e-05 0.0002221188 -2.15622e-05 -0.4616752477 0.7084432043
495297030.0 0.0545218948 -0.1094146482 0.000222701 0.0002308725 5.7732e-05 -1.66125e-05 -0.4537232752 0.7130477936
500297000.0 0.0530301233 -0.1104815564 0.0001120059 1.3523e-05 0.0002749628 0.0001834207 -0.4472807845 0.7178096804
505296970.0 0.0509809176 -0.1106390327 0.0001888788 0.0001052503 0.0001051445 0.0001716469 -0.4404205973 0.7221711846
510296940.0 0.0496971326 -0.1110658001 0.0003023281 -8.37554e-05 0.0002491011 0.0001241309 -0.4324491522 0.7262873035
515296910.0 0.0477484106 -0.1117823259 7.87022e-05 -0.0001466844 0.0001217713 -0.0001097615 -0.4250264355 0.7311198998
520296880.0 0.0464134306 -0.1123870685 0.000273903 -6.38994e-05 0.0002398745 -6.75005e-05 -0.4180225148 0.7347326176
525296850.0 0.0446787008 -0.112921883 0.0001120016 1.88814e-05 0.0002414075 -0.0001025549 -0.4101535395 0.7395781232
530296820.0 0.0431287263 -0.1134495749 2.14602e-05 0.000270698 3.58715e-05 -0.0001285147 -0.4034731724 0.7428021231
535296790.0 0.0414055175 -0.1137184425 0.0002424344 6.099e-07 4.02781e-05 4.33742e-05 -0.3957666663 0.7467609367
540296760.0 0.0397244764 -0.1144120712 0.0002337137 -0.000112939 0.0002114635 7.81228e-05 -0.3883310957 0.751013012
545296730.0 0.0380588467 -0.1146243626 6.61716e-05 2.99358e-05 8.89336e-05 -6.57281e-05 -0.3809848152 0.7539075108
550296700.0 0.0361705083 -0.1153170924 -5.84606e-05 3.13704e-05 0.0002551703 9.21901e-05 -0.3739246736 0.7583801259
555296670.0 0.0347124718 -0.1155218271 6.54656e-05 8.86239e-05 0.0001965241 0.0002104004 -0.3658216556 0.7616540132
560296640.0 0.0329638482 -0.1160242358 0.0001773947 -2.65976e-05 -8.18702e-05 0.0002267465 -0.3577910427 0.7659397664
565296610.0 0.0313191729 -0.1161230687 0.0001632653 0.0001178077 0.0001882783 -0.0001315105 -0.3505291796 0.768917415
570296580.0 0.0295435292 -0.1167861952 0.0001424707 -0.0001818187 -4.65871e-05 -0.0001202444 -0.3436473404 0.7730509245
575296550.0 0.02810646 -0.1169269932 -7.83973e-05 -0.0003067495 0.0001592484 -3.2196e-06 -0.3350492037 0.7763701271
580296520.0 0.0266138222 -0.1171565563 0.0002919382 5.87803e-05 0.0001637704 -4.74775e-05 -0.326981931 0.779020524
585296490.0 0.0244263476 -0.1174951501 0.0001087213 1.98987e-05 -2.46936e-05 4.72474e-05 -0.3197823881 0.7818463984
590296460.0 0.0225291424 -0.1176487397 0.000164073 0.0001714583 0.0001543465 -0.0001527859 -0.3119874156 0.785173096
595296430.0 0.0213107323 -0.1175924177 0.0001991988 0.0002400521 -1.66112e-05 -4.26223e-05 -0.3042352334 0.7874525252
600296400.0 0.0194727147 -0.1178305122 3.5002e-05 7.74637e-05 0.0001008229 6.14121e-05 -0.2967134096 0.7913344974
605296370.0 0.0178577104 -0.1181677322 0.0002690076 -8.67577e-05 0.0002575586 -0.0001593268 -0.2887647266 0.7944548077
610296340.0 0.0163156051 -0.118334824 0.0001882914 2.88041e-05 0.0001397814 0.0001130803 -0.2812978158 0.7967618287
615296310.0 0.0144563577 -0.1181460318 0.0002020466 8.64044e-05 0.0001290583 -2.69696e-05 -0.2727097426 0.7991253291
620296280.0 0.0125764618 -0.1183354881 0.0001161568 0.0001958103 0.0001954649 7.47572e-05 -0.2647845396 0.8016372182
625296250.0 0.0111062392 -0.1184852994 0.0002272783 0.0001999447 0.0001372538 9.36626e-05 -0.2575059388 0.8044699297
630296220.0 0.0093514646 -0.1183142405 0.0001611246 -7.93237e-05 0.0001581624 4.7167e-05 -0.2491621368 0.8076661641
635296190.0 0.0075883836 -0.118570274 -5.19494e-05 -6.31114e-05 0.0001064506 0.0001522845 -0.2414397824 0.8091331977
640296160.0 0.0057893509 -0.1183396477 -3.38771e-05 -7.51332e-05 0.0001411372 2.90478e-05 -0.2328151642 0.8117584078
645296130.0 0.0041527025 -0.1180793382 4.847e-07 3.30641e-05 0.0002288931 -7.56053e-05 -0.2256223097 0.8137690818
650296100.0 0.0026917958 -0.1179755355 0.0002040494 0.0001194329 -6.67164e-05 0.0002024686 -0.2167785045 0.816405576
655296070.0 0.0009648394 -0.1181233169 1.63434e-05 -7.22116e-05 0.0003973277 7.43254e-05 -0.2083893451 0.8178491025
660296040.0 -0.0010349041 -0.117829799 0.0001168593 -0.0001069477 -3.50686e-05 0.0001501972 -0.2009244615 0.8204226944
665296010.0 -0.0023013993 -0.1178200985 6.34709e-05 5.17549e-05 0.000148988 -9.20986e-05 -0.19278197 0.8222685225
670295980.0 -0.004189871 -0.1178398145 -0.000227647 6.10015e-05 0.0001608213 3.5438e-05 -0.1854171159 0.8241165158
675295950.0 -0.0057900307 -0.1175025473 0.0003253999 -4.54327e-05 0.0003441799 9.9083e-06 -0.1764808959 0.8258208708
680295920.0 -0.0077456673 -0.1170666762 -2.91979e-05 1.81889e-05 0.0002086528 -4.73362e-05 -0.1683105526 0.8275406975
685295890.0 -0.0091133471 -0.1168096956 0.0002080856 -4.79066e-05 5.76833e-05 -0.0001258729 -0.1597947932 0.8291860135
690295860.0 -0.0106680382 -0.1167610696 -7.89419e-05 4.10602e-05 0.0002881502 6.63308e-05 -0.1516806391 0.8308153868
695295830.0 -0.0123707335 -0.1165553188 0.0001078431 0.0001076052 -2.62714e-05 -2.33099e-05 -0.1437799994 0.8324086384
700295800.0 -0.01399078 -0.116263135 0.0001103971 0.0001005588 0.000120094 6.8383e-05 -0.1353090157 0.833816214
705295770.0 -0.0154718029 -0.115863508 0.0002050731 -0.00010777 0.0001030542 0.000103118 -0.1277079196 0.8357704164
710295740.0 -0.0172564606 -0.115598341 0.0001226331 -0.0003201674 0.0001954511 0.0001469313 -0.1199071999 0.8366280152
715295710.0 -0.0190386113 -0.1151558249 0.0002638378 -0.000226946 0.0001096972 -0.0001402439 -0.1110173074 0.8374612571
720295680.0 -0.0205047332 -0.1148647758 0.0001768043 -0.0001283315 6.25645e-05 8.79129e-05 -0.1026326847 0.8386608206
725295650.0 -0.0221055732 -0.1143157899 -0.000127035 -0.0002555069 8.35959e-05 -1.15742e-05 -0.0941029887 0.8394659007
730295620.0 -0.0237624073 -0.1138844235 6.02626e-05 -0.0002351026 4.97377e-05 -6.0803e-05 -0.0859635169 0.840672958
735295590.0 -0.0252905654 -0.1135111265 0.0002050437 0.0001392644 0.0002256427 -0.0001411156 -0.0776097123 0.8408451522
740295560.0 -0.0268788628 -0.1129249534 9.5418e-05 -2.09311e-05 0.0001925688 -0.0001119385 -0.069231952 0.8413992765
745295530.0 -0.0287869786 -0.1126098921 0.0004177702 -5.85294e-05 3.54938e-05 -2.22736e-05 -0.0608636392 0.8425537482
750295500.0 -0.0301705559 -0.1119079269 0.0002525 8.32284e-05 0.0001961971 9.25848e-05 -0.052776007 0.8422045396
755295470.0 -0.0317245116 -0.1113029569 0.000163028 6.20064e-05 -2.81866e-05 8.50932e-05 -0.0446571571 0.8434568826
760295440.0 -0.0334893626 -0.1105955177 3.11182e-05 -0.0001153387 4.34813e-05 -0.0001165947 -0.0369613415 0.8438301531
765295410.0 -0.0350249188 -0.1103400373 0.0001278741 6.2755e-06 0.0001561395 4.07022e-05 -0.0273783114 0.844372072
770295380.0 -0.0363177809 -0.109685968 -5.8456e-05 -0.0001503542 0.0001552147 -0.0002445629 -0.0196757346 0.8438693438
775295350.0 -0.0379056526 -0.1087801256 0.0001271679 1.24385e-05 0.0001702811 -9.83556e-05 -0.0117928777 0.844785513
780295320.0 -0.0396792724 -0.1085406063 0.0001823804 0.0001453063 3.6405e-05 -6.23915e-05 -0.0030696199 0.844700337
785295290.0 -0.041081256 -0.1074838129 -4.24628e-05 1.57505e-05 7.13583e-05 -7.23122e-05 0.0044621988 0.8448027592
790295260.0 -0.0426821708 -0.1069435831 0.0001593188 0.0001478881 0.0003664918 -2.15014e-05 0.0136411192 0.844954206
795295230.0 -0.0441762355 -0.1057165639 0.0003624218 -0.0001916342 0.0002111316 -7.32e-08 0.0220107966 0.8443816394
800295200.0 -0.045394353 -0.1054654751 0.0002377846 -0.0002160706 0.0002888435 8.22862e-05 0.0303196263 0.8442072117
805295170.0 -0.0471374903 -0.1047480548 7.64494e-05 -4.5304e-06 0.0002189372 -0.0001321253 0.0384902595 0.8434850748
810295140.0 -0.0485311983 -0.1037983763 0.000271371 -0.000133348 3.65914e-05 -3.58174e-05 0.0464645231 0.8441308125
815295110.0 -0.0500265637 -0.1028620482 0.0001942943 -0.0002066784 0.0001177309 8.5107e-06 0.0546452044 0.8432950975
820295080.0 -0.0517818946 -0.1024085594 0.0001085868 -0.0003031864 -4.54688e-05 -0.0001001821 0.0626381209 0.8422839035
825295050.0 -0.0530250168 -0.1012581264 3.41879e-05 -0.0002526439 0.0001906477 8.67607e-05 0.0713993606 0.8420961707
830295020.0 -0.0542397696 -0.1005076232 0.0003095243 -2.2312e-06 0.0002758178 -7.37848e-05 0.0791837859 0.840641978
835294990.0 -0.0559082307 -0.0996915788 0.0002458626 -4.93706e-05 0.000108972 -0.0002074099 0.0877070919 0.8401564123
840294960.0 -0.0573165479 -0.0990024468 0.0002427508 2.61907e-05 0.000279838 0.0001073766 0.0957083081 0.8398354013
845294930.0 -0.0586945324 -0.0976561063 0.00025527 -0.0001119718 0.000215912 5.48131e-05 0.1038468157 0.8383120214
850294900.0 -0.059857569 -0.0969995675 0.0002087561 -7.74692e-05 0.0001168378 -0.000212326 0.1120877668 0.8377388051
