!Created with skrf (http://scikit-rf.org).
# Hz S RI R 50.0 
!freq ReS11 ImS11 ReS21 ImS21 ReS12 ImS12 ReS22 ImS22
300000.0 -0.7696633621 -0.1615570668 -0.0006849462 -0.000607033 -0.0004552163 0.0001440136 0.8604922172 -0.0019032576
5299970.0 -0.7852966082 -0.0075068972 -4.23437e-05 9.62742e-05 0.0001365532 -1.62e-07 0.8587906892 -0.0104468044
10299940.0 -0.7877604622 -0.0041066491 -0.0001145954 -3.40843e-05 0.0001037338 -3.39062e-05 0.8584093767 -0.0185552551
15299910.0 -0.7932362683 -0.0016535498 0.0001477635 -7.64545e-05 -0.0001380997 -0.0001828847 0.8572329514 -0.0272763363
20299880.0 -0.7996967904 0.0023679556 2.91065e-05 -0.0001275536 9.32942e-05 5.34014e-05 0.8570480536 -0.0362890152
25299850.0 -0.8063749856 0.0085687084 3.30939e-05 0.0001277557 4.03279e-05 -8.95328e-05 0.8555313529 -0.0438887034
30299820.0 -0.8119248604 0.016366918 4.34019e-05 8.8637e-05 0.0001028657 0.0001344624 0.8547588951 -0.0525021957
35299790.0 -0.8168129794 0.0254169213 -0.0001615195 0.0001293748 8.59774e-05 -3.05775e-05 0.8540597098 -0.0606582193
40299760.0 -0.8218776248 0.0341693132 -8.37376e-05 5.19646e-05 2.98065e-05 5.99683e-05 0.8535304611 -0.0687373578
45299730.0 -0.8252634979 0.044302779 0.0001250421 0.0002107313 3.23576e-05 -0.0001608811 0.852874481 -0.0771528176
50299700.0 -0.8265640006 0.0540266193 -1.85993e-05 5.1461e-06 9.4442e-05 -4.81057e-05 0.8519301818 -0.0848230571
55299670.0 -0.8288629864 0.0643872758 5.3827e-06 8.61052e-05 0.0002075676 -0.0001745677 0.8506394681 -0.0933547231
60299640.0 -0.8298128192 0.0743447691 -8.1519e-06 0.000120945 7.08375e-05 -0.0001083856 0.8499504175 -0.1018082655
65299610.0 -0.8309538552 0.0846732591 -0.0001962073 8.49109e-05 -5.70365e-05 5.49398e-05 0.8486977827 -0.1103486463
70299580.0 -0.8311941083 0.0945947869 -8.5323e-06 -1.30095e-05 5.9988e-06 0.0001151093 0.8473593141 -0.1186919406
75299550.0 -0.8314747209 0.1048897734 5.24096e-05 0.000116278 4.16989e-05 6.61417e-05 0.8466721518 -0.1261893012
80299520.0 -0.8315122652 0.1147902788 -2.60536e-05 -1.02385e-05 -8.65242e-05 8.30864e-05 0.8447044985 -0.1346033441
85299490.0 -0.8308968284 0.1236580521 3.55917e-05 8.37011e-05 -0.0002070049 -0.0001355438 0.8439371691 -0.1433026247
90299460.0 -0.8295155346 0.1338681134 0.0001087755 -4.52162e-05 9.00291e-05 8.66708e-05 0.8418260655 -0.1509618161
95299430.0 -0.8289052407 0.143610546 -5.25615e-05 -0.0001266273 -4.8993e-05 8.501e-06 0.8402105286 -0.1592171062
100299400.0 -0.827839594 0.1531367935 8.39836e-05 -0.0001041479 2.50383e-05 -0.0001136258 0.8386646292 -0.1673992863
105299370.0 -0.8268058507 0.162144432 4.33251e-05 5.70318e-05 1.731e-06 5.19736e-05 0.8366988213 -0.1759640163
110299340.0 -0.8251578193 0.1708995731 0.0001713077 3.05609e-05 -0.0001106963 -2.41725e-05 0.8350944767 -0.1834728962
115299310.0 -0.82383559 0.1807052085 -1.09132e-05 -0.0001919379 -0.0001093009 -2.31192e-05 0.8329933753 -0.192585392
120299280.0 -0.8223236509 0.1898293933 -0.000114418 0.0001073587 -0.0001313285 -7.31897e-05 0.8312728504 -0.2001783149
125299250.0 -0.8204192296 0.1984296683 -6.81071e-05 0.0001092461 -7.35961e-05 0.000107476 0.8286059855 -0.2087509467
130299220.0 -0.8183433461 0.2079438764 -1.61724e-05 8.3145e-05 3.1629e-06 7.30916e-05 0.8269136982 -0.2162931833
135299190.0 -0.8168320883 0.216473199 2.01762e-05 -5.15573e-05 -8.3603e-05 -8.03636e-05 0.8253046676 -0.2243406089
140299160.0 -0.8144837351 0.2261632355 -0.0001813021 5.7023e-05 8.7251e-06 4.49245e-05 0.8227551604 -0.2328839492
145299130.0 -0.8122849659 0.2344485485 -2.6238e-05 0.0002690297 -0.0001598013 3.42803e-05 0.8198616205 -0.2402893228
150299100.0 -0.8100931191 0.2432312915 1.62538e-05 0.0001362024 0.0001338459 2.05055e-05 0.8174847786 -0.2487485276
155299070.0 -0.8078948794 0.2526285906 9.81504e-05 -0.0001278531 -6.14737e-05 -2.72727e-05 0.8151029303 -0.2559878378
160299040.0 -0.8051288884 0.2615150069 3.67248e-05 0.000214515 8.44307e-05 -5.52636e-05 0.812794093 -0.2647579034
165299010.0 -0.8021413914 0.2690402693 6.38852e-05 -6.52755e-05 -2.39916e-05 -5.0227e-06 0.8109576562 -0.2725342609
170298980.0 -0.8000805407 0.27802038 -4.22786e-05 -2.78519e-05 2.72135e-05 2.6175e-06 0.8071731243 -0.280390528
175298950.0 -0.7964711783 0.2872568945 3.75058e-05 -3.17269e-05 -8.52381e-05 1.21025e-05 0.8046176218 -0.2884848634
180298920.0 -0.7937712259 0.2948479452 -2.4512e-05 -4.72143e-05 5.04899e-05 -0.000148251 0.8018058131 -0.2960247261
185298890.0 -0.7908538732 0.3045204687 -2.41536e-05 1.91819e-05 -0.0001657966 1.86972e-05 0.7986338006 -0.303907716
190298860.0 -0.7874597404 0.3116788449 7.94693e-05 -1.4551e-06 5.2985e-06 0.0002129668 0.7962458047 -0.3114360648
195298830.0 -0.7837807935 0.3204531579 8.08028e-05 -7.55049e-05 1.77747e-05 0.0001594609 0.7929242814 -0.3195005539
200298800.0 -0.7806135688 0.3296918034 0.0002682705 -2.668e-06 -1.31797e-05 6.02094e-05 0.7902429706 -0.3276812975
205298770.0 -0.7776854688 0.3374863336 -8.08916e-05 -0.0002310426 -5.9267e-06 -0.0002084622 0.7865118093 -0.334880861
210298740.0 -0.7733232855 0.3457391363 8.33405e-05 -3.47235e-05 0.0002271737 -3.26663e-05 0.7834235136 -0.3426915897
215298710.0 -0.7701123097 0.3542465672 -2.4333e-06 3.95067e-05 6.7638e-06 -7.78199e-05 0.7795331534 -0.350073369
220298680.0 -0.7672188966 0.3624656386 8.31513e-05 4.75702e-05 0.0002542941 -0.000160942 0.7767587529 -0.3576618464
225298650.0 -0.7630061724 0.3707133675 -4.22235e-05 -5.4052e-06 -1.90862e-05 -0.0001479589 0.7727400405 -0.3650647634
230298620.0 -0.7588584346 0.3786880338 1.17725e-05 5.33727e-05 -1.97402e-05 -0.0001863879 0.7692282046 -0.372849941
235298590.0 -0.7546803664 0.3870305886 0.0002274079 -0.0001384783 -5.00592e-05 -7.49822e-05 0.7657436634 -0.380297935
240298560.0 -0.7512009559 0.3951057981 -0.0001325511 0.0001050957 0.0001798044 -0.0001196647 0.7621341987 -0.3875980791
245298530.0 -0.7460047513 0.4028458375 0.000112455 -1.5117e-05 0.0001777296 5.13922e-05 0.7578858796 -0.3947589396
250298500.0 -0.7425804463 0.4109953152 6.39226e-05 -6.43662e-05 2.36498e-05 0.0001102853 0.7548144266 -0.402189316
255298470.0 -0.7373985956 0.4187347294 9.31662e-05 -5.1056e-05 3.97008e-05 8.76991e-05 0.7506948632 -0.4093586103
260298440.0 -0.7336401228 0.4262584565 0.000163341 0.0001825729 -0.0003069669 -4.5695e-05 0.7467948398 -0.4169070564
265298410.0 -0.729164527 0.4345342594 -0.0001145995 0.0001165325 -1.96563e-05 0.0001109945 0.7430245934 -0.4240919869
270298380.0 -0.7246956747 0.4421487341 -4.93182e-05 3.51892e-05 0.0001395526 -0.0001077195 0.7391733912 -0.4307647385
275298350.0 -0.7193217848 0.4492626719 -1.21394e-05 0.000216753 -5.35236e-05 -8.52806e-05 0.734683827 -0.4375095289
280298320.0 -0.7153104633 0.4567624736 8.54798e-05 -8.52982e-05 -5.33937e-05 -8.85328e-05 0.7304786074 -0.4450306271
285298290.0 -0.7102344931 0.464423361 -0.0001088474 -4.18774e-05 9.86464e-05 -3.96365e-05 0.7259882975 -0.4525471033
290298260.0 -0.7052849454 0.4719519351 -0.0001214423 -0.0001016947 -3.58534e-05 -8.65723e-05 0.7219862153 -0.4593620378
295298230.0 -0.7008652564 0.4796496095 -7.89504e-05 0.0001153398 0.0001244589 8.62233e-05 0.7176024494 -0.4654265576
300298200.0 -0.6942851433 0.4866253124 8.00938e-05 0.0001106996 7.28464e-05 -1.12801e-05 0.7136190704 -0.4735506842
305298170.0 -0.6901815437 0.4944961721 0.0002203454 3.35494e-05 -0.000126298 -7.62189e-05 0.7097696936 -0.4802419617
310298140.0 -0.6848775437 0.5006531036 9.11122e-05 9.71363e-05 -0.0001356037 0.0001434559 0.7051439084 -0.4868974924
315298110.0 -0.6797956937 0.5077039365 0.0002653355 8.25408e-05 -1.1721e-06 2.60688e-05 0.7007930836 -0.4948404558
320298080.0 -0.6744532785 0.5158869305 9.78999e-05 -2.90829e-05 0.000153518 7.9479e-06 0.6964739221 -0.5021165524
325298050.0 -0.668341092 0.5224721571 2.49406e-05 -0.0001464961 0.0001307165 -0.0001494411 0.6905881458 -0.5096945226
330298020.0 -0.6633193026 0.529286116 -0.0001173856 -0.0001697912 -2.89126e-05 4.26666e-05 0.6854326782 -0.5169657228
335297990.0 -0.657490898 0.5362660891 6.92351e-05 -3.054e-06 4.753e-07 0.0001251025 0.6796935827 -0.5234787802
340297960.0 -0.6521909787 0.5427029959 -8.04905e-05 9.21337e-05 -9.37425e-05 0.0001533031 0.6741185829 -0.5296275063
345297930.0 -0.6462814512 0.5491048172 -8.30583e-05 -0.0001301393 3.96455e-05 0.0001013521 0.6679426638 -0.5358187492
350297900.0 -0.6402063849 0.55599455 0.0001513932 0.0002669684 5.9561e-06 -6.00179e-05 0.6631393396 -0.5414119512
355297870.0 -0.6343884599 0.5629718842 -0.000114345 1.08137e-05 -0.0001609822 1.90291e-05 0.6572875151 -0.548075546
360297840.0 -0.6280403652 0.5691009916 -1.05256e-05 2.50046e-05 -0.000124031 -1.25198e-05 0.6516097216 -0.5538603271
365297810.0 -0.6222396999 0.5757879468 5.46181e-05 -0.0001451423 -0.0001881274 -0.0001221738 0.6465074905 -0.5601217189
370297780.0 -0.6163142143 0.5814348007 0.0001067996 -1.45e-05 -4.48333e-05 -5.10039e-05 0.6409575004 -0.566142467
375297750.0 -0.6102897713 0.5888082263 6.30514e-05 -0.0002545823 -0.000176999 0.0001299035 0.6353344917 -0.5719305949
380297720.0 -0.6043432279 0.5954255263 -9.8172e-06 7.611e-05 9.67405e-05 -5.72235e-05 0.6298827641 -0.5775393559
385297690.0 -0.5983086025 0.6004238463 -3.59936e-05 0.0002038447 -0.0001737813 -4.56969e-05 0.623820013 -0.5833380093
390297660.0 -0.5911851351 0.6072549175 -0.0001101446 0.0001582982 -0.0001100733 2.70814e-05 0.6184006966 -0.5898600978
395297630.0 -0.5851829584 0.6136828607 -0.0001078704 -7.76795e-05 5.49402e-05 -6.64042e-05 0.6122755187 -0.595233716
400297600.0 -0.5786140691 0.6193015461 -0.0001037352 6.76188e-05 -2.20407e-05 -2.35196e-05 0.6069820565 -0.6014403593
405297570.0 -0.5725573494 0.6250323851 -0.0001188517 0.0001395915 -8.77019e-05 7.52166e-05 0.6009029522 -0.6070928288
410297540.0 -0.5659135842 0.6308676982 5.28038e-05 8.91406e-05 -8.73624e-05 2.97347e-05 0.5951758628 -0.6129072264
415297510.0 -0.5595196235 0.6362809727 3.73236e-05 -0.00034575 -9.52569e-05 -8.81666e-05 0.5883131184 -0.6178810739
420297480.0 -0.5514009175 0.6422028959 -9.09054e-05 0.0002721938 0.0001723574 -0.0001643661 0.5824511517 -0.6242411863
425297450.0 -0.545643827 0.6478989792 2.10831e-05 3.2907e-06 -0.0001008981 -4.33089e-05 0.576604275 -0.6295042716
430297420.0 -0.5395804611 0.6534541195 -8.0212e-06 0.0001041191 -0.0001067504 0.0001565883 0.5706224686 -0.6349735854
435297390.0 -0.5321369655 0.6596218201 -0.0001239718 -6.11388e-05 2.21879e-05 0.0001078273 0.5636610159 -0.6403787684
440297360.0 -0.5250648649 0.6643744422 -0.0001204846 0.0001672875 -2.0011e-06 -4.92576e-05 0.5577723497 -0.6459065972
445297330.0 -0.5184064198 0.6693459523 -0.0002405294 -6.3608e-06 0.0002221322 -0.0001325365 0.5520029611 -0.6514106025
450297300.0 -0.5111012632 0.6744840033 -5.02804e-05 7.23086e-05 -1.0753e-06 0.0002244599 0.5446844992 -0.6567069527
455297270.0 -0.5045273276 0.6802879432 -7.89394e-05 -1.92397e-05 0.000126696 -0.0001228329 0.5383063921 -0.6623005264
460297240.0 -0.4977118704 0.6857031056 2.97157e-05 -8.78589e-05 -1.07395e-05 -1.45983e-05 0.5327155097 -0.6663736752
465297210.0 -0.4899498646 0.6906085072 2.90804e-05 -1.46503e-05 -4.64515e-05 4.06242e-05 0.5250233315 -0.671967557
470297180.0 -0.4829020097 0.6948058901 0.0002321929 -2.23685e-05 -0.0001640672 1.13295e-05 0.5181982149 -0.677002878
475297150.0 -0.4754296578 0.7004188948 8.77863e-05 -0.0001835647 6.9684e-05 0.0001564503 0.512240044 -0.6821036699
480297120.0 -0.4690702163 0.7045377301 -5.09381e-05 -0.000182655 -0.0001237897 4.65478e-05 0.5050962885 -0.6869119517
485297090.0 -0.4612260196 0.7086940198 5.69998e-05 9.6056e-06 2.89619e-05 -3.30043e-05 0.4980928709 -0.6918167168
490297060.0 -0.4540315422 0.7143091791 0.0001797818 2.99245e-05 0.0003493528 -9.40984e-05 0.4919099343 -0.6968666229
495297030.0 -0.4468653398 0.7190006152 -0.0001475052 7.59223e-05 -9.68123e-05 0.0001096904 0.48493369 -0.7013374619
500297000.0 -0.4387872254 0.7233820067 2.81454e-05 -9.0928e-05 0.0001340757 4.92417e-05 0.4776081254 -0.7061413481
505296970.0 -0.4315860582 0.7274269223 -0.0001663422 9.86057e-05 0.0001490531 3.85412e-05 0.4702460791 -0.710820008
510296940.0 -0.4240244671 0.7322815212 9.43967e-05 0.0001687176 -0.0001807618 6.48839e-05 0.4631851102 -0.714635519
515296910.0 -0.4172774159 0.736174155 2.23771e-05 0.0001472819 -5.21737e-05 -0.0001616473 0.4557431032 -0.7188513318
520296880.0 -0.4090413566 0.74092733 6.61148e-05 -1.24399e-05 -0.0001570724 -4.66508e-05 0.4488328551 -0.7242341004
525296850.0 -0.4020716734 0.7445980584 0.0001670425 -4.1137e-06 1.91004e-05 0.0001249019 0.4419759859 -0.7280296436
530296820.0 -0.3940967786 0.7481203249 5.79355e-05 8.13554e-05 -3.14245e-05 -7.28453e-05 0.4340159917 -0.7324082026
535296790.0 -0.3856833349 0.7526046288 1.01843e-05 -2.56533e-05 -7.55773e-05 5.58873e-05 0.4271715511 -0.7368246348
540296760.0 -0.3784563684 0.7559879957 -1.85833e-05 1.2916e-06 0.0001351292 3.68906e-05 0.4193306749 -0.7410671865
545296730.0 -0.3709880206 0.759695937 -5.79335e-05 -4.84772e-05 9.11699e-05 8.6381e-05 0.4130295762 -0.7454058002
550296700.0 -0.363369545 0.7640139981 9.75343e-05 5.95267e-05 -0.0001144029 -6.45277e-05 0.4045485491 -0.7495174713
555296670.0 -0.3544601195 0.7670809426 -2.04008e-05 -1.06703e-05 -0.0001707073 -5.95145e-05 0.3972967688 -0.7526543955
560296640.0 -0.3469322876 0.7709145955 -8.32054e-05 -9.2361e-06 0.0001353562 -0.0001476784 0.3899505483 -0.7565178666
565296610.0 -0.3395899163 0.7737076872 9.727e-06 -0.0001861306 -4.8242e-05 -3.42226e-05 0.3821894556 -0.7604918932
570296580.0 -0.3321380329 0.7775494485 1.21203e-05 -9.75887e-05 -3.86063e-05 0.0001186946 0.3741933995 -0.7638577711
575296550.0 -0.3237055395 0.78099301 0.0001601597 -3.69561e-05 -1.39842e-05 -0.0001970471 0.3668398597 -0.7674633457
580296520.0 -0.3158139513 0.7840740753 0.0001630821 -4.99239e-05 -5.59617e-05 -0.0002126957 0.358645159 -0.7713058144
585296490.0 -0.3074201807 0.7865013594 0.0002569658 8.92737e-05 0.0001413804 1.94387e-05 0.3515093045 -0.7752201499
590296460.0 -0.2997723077 0.7899434918 9.44665e-05 1.3817e-05 2.1003e-05 0.0001374746 0.3436952351 -0.7773261007
595296430.0 -0.2915539879 0.793306998 -0.0001310366 -1.17317e-05 -1.6177e-05 0.000161454 0.3355277095 -0.7813250193
600296400.0 -0.2832684433 0.7961183463 -0.0001172359 -6.9267e-06 -2.5517e-05 -0.0001207927 0.3280944939 -0.7843202619
605296370.0 -0.2748299505 0.798900042 -0.0001028399 -8.2298e-05 6.76033e-05 0.0001402302 0.3199085548 -0.7877970515
610296340.0 -0.2671687025 0.8016629083 7.38214e-05 -3.55516e-05 2.02046e-05 6.96024e-05 0.3117179724 -0.7895965522
615296310.0 -0.2591039887 0.8042646075 -0.0001819487 -0.0001573704 -8.44839e-05 -1.3702e-05 0.3046015924 -0.794004957
620296280.0 -0.2505447937 0.8061105139 -6.22268e-05 1.6818e-06 0.0001077821 2.82399e-05 0.2964547278 -0.7966832969
625296250.0 -0.2426756015 0.8090769023 -7.7114e-06 -4.47897e-05 0.0001558045 -2.71619e-05 0.2881995212 -0.7984609921
630296220.0 -0.2343392165 0.8113927523 6.49357e-05 -0.0002343386 5.2199e-06 6.79726e-05 0.2802944586 -0.8011468721
635296190.0 -0.2266033837 0.8138681131 -0.0001600069 2.47875e-05 -1.42513e-05 -8.4912e-05 0.2720092547 -0.8040886333
640296160.0 -0.217706007 0.8153741942 -7.7569e-06 2.08536e-05 7.65069e-05 2.89436e-05 0.2638943446 -0.8071535024
645296130.0 -0.2096466097 0.8178980064 0.0002060751 4.21412e-05 5.45897e-05 -2.88854e-05 0.2558546994 -0.8090038786
650296100.0 -0.2013525947 0.8204170741 0.0001490602 -0.0002637647 -6.58983e-05 -9.9727e-05 0.2477641502 -0.8111630412
655296070.0 -0.1931011152 0.8218036158 -7.79183e-05 9.0709e-05 2.1364e-05 0.0001080722 0.2395820193 -0.8137847839
660296040.0 -0.184951568 0.8241025179 -0.0002287294 2.60468e-05 0.0002537461 3.368e-07 0.2311963214 -0.8157778922
665296010.0 -0.1763693125 0.8259572556 0.0001587372 -0.0001714682 -8.04974e-05 0.0001998221 0.2236380474 -0.8175617837
670295980.0 -0.1677655045 0.8273221654 -0.000112173 -6.6882e-05 -7.55878e-05 5.41083e-05 0.2157199077 -0.8198032443
675295950.0 -0.1596459012 0.8288907782 9.37727e-05 -4.4081e-06 -0.0001530336 -3.19809e-05 0.207258191 -0.8219964775
680295920.0 -0.1515438455 0.8306463155 -6.27817e-05 0.0001818377 2.08878e-05 1.86894e-05 0.1988583493 -0.8238956911
685295890.0 -0.1430333622 0.8320236062 -0.0003705161 -8.81707e-05 0.0002686583 8.5069e-05 0.191021494 -0.8259250514
690295860.0 -0.1344398448 0.833687931 -0.0001717232 -9.11363e-05 -5.15555e-05 -0.0002164236 0.1825161225 -0.8273970758
695295830.0 -0.1257968379 0.8341360407 -0.0001315791 2.19525e-05 -1.16903e-05 9.23913e-05 0.1736379468 -0.8290212286
700295800.0 -0.1178554246 0.8355461597 0.0001948107 -5.40138e-05 -0.0001511428 0.0002520802 0.1654324296 -0.8304793332
705295770.0 -0.1088298625 0.8376955223 6.26687e-05 -0.0001760298 -5.2158e-05 5.5153e-06 0.1571517788 -0.8311837883
710295740.0 -0.1009095172 0.8383018365 -0.0001059415 -3.16029e-05 0.0001070779 6.82705e-05 0.1490118833 -0.8325410697
715295710.0 -0.0933664498 0.8394509921 -0.0001875569 -0.0001450507 3.28685e-05 -0.000135796 0.140709797 -0.8343478501
720295680.0 -0.0845449534 0.8396609495 5.1022e-06 0.0001604109 -0.0001266856 -0.0001491425 0.1327787401 -0.8354701238
725295650.0 -0.0749740424 0.8407517686 5.68581e-05 0.0001350001 -7.06636e-05 -2.90074e-05 0.123821685 -0.8361917123
730295620.0 -0.067272349 0.8414262259 -3.27168e-05 -8.38466e-05 8.81011e-05 0.0001163426 0.1154073496 -0.8380825082
735295590.0 -0.0583508876 0.8416344427 7.30752e-05 -8.83906e-05 1.69253e-05 6.15487e-05 0.1078436663 -0.8380766321
740295560.0 -0.0501728364 0.842578178 -0.0001851295 -0.0002899271 -0.0001012099 -0.0001775736 0.0988168356 -0.8401276654
745295530.0 -0.0416564936 0.8424566028 4.35341e-05 -0.0002068177 -0.0001309418 0.000114704 0.0906510461 -0.8405409787
750295500.0 -0.0339745321 0.8432704686 0.0001268333 -0.0001745106 -5.10944e-05 -0.000227226 0.0826088464 -0.840910556
755295470.0 -0.0243370727 0.8438284035 0.0001097736 5.5267e-05 -0.0002486291 -3.68507e-05 0.073720833 -0.8417432444
760295440.0 -0.016274571 0.8439333879 -0.0001058668 0.0001142662 0.0002712609 -0.0001117884 0.064559796 -0.8426452362
765295410.0 -0.0081697653 0.8437506412 0.0001795086 0.0001040805 0.0001417553 0.0001710041 0.0568098166 -0.842314803
770295380.0 0.0008749132 0.8447202163 -2.65999e-05 -0.0001039573 5.6792e-05 -6.41824e-05 0.0485237078 -0.8432972398
775295350.0 0.0091576255 0.8439312166 7.81709e-05 2.44329e-05 -0.0002129765 -1.52669e-05 0.0404275299 -0.8445494585
780295320.0 0.0179136188 0.8434061412 1.49689e-05 3.34419e-05 -2.7892e-06 -0.000231302 0.0312600009 -0.8435382219
785295290.0 0.0261954839 0.8436300523 -0.0001472851 5.19663e-05 0.0001161617 0.000155879 0.023193543 -0.84383629
790295260.0 0.0344220936 0.843128139 4.45472e-05 -7.00222e-05 1.35666e-05 6.6025e-06 0.0151080935 -0.8438566312
795295230.0 0.0425093376 0.8432732751 -9.19588e-05 9.95805e-05 -0.0002211659 -0.0001488106 0.0064252934 -0.8439155995
800295200.0 0.0513307492 0.8424051694 0.0002195575 2.9302e-06 0.0001081006 -9.74936e-05 -0.0024726636 -0.8442378831
805295170.0 0.0602182716 0.8419889398 4.49002e-05 -6.6966e-06 8.07115e-05 3.60608e-05 -0.0109243523 -0.8440893895
810295140.0 0.0682029327 0.8413753855 -3.80908e-05 6.82704e-05 4.55179e-05 -6.36833e-05 -0.0190047738 -0.8431581871
815295110.0 0.0767579569 0.8404225098 -5.57654e-05 3.95812e-05 -0.000211576 -0.0001659051 -0.027456259 -0.8429551059
820295080.0 0.0855771755 0.8385824285 -0.0001012444 4.23214e-05 0.0001910928 3.06796e-05 -0.0360674448 -0.8425709318
825295050.0 0.0939716927 0.8384275811 -8.23194e-05 0.0002478956 -7.82556e-05 3.5717e-05 -0.0437785294 -0.8419081877
830295020.0 0.1023299666 0.8378770078 -8.38669e-05 3.10048e-05 -0.0001454159 -3.49798e-05 -0.0532291082 -0.8414787028
835294990.0 0.1104406873 0.8372854086 2.20937e-05 6.02127e-05 3.95027e-05 -5.10675e-05 -0.061374655 -0.8407021903
840294960.0 0.1190894095 0.8351032269 0.0002141569 -1.6904e-06 7.15612e-05 -3.29389e-05 -0.0704852435 -0.8392495995
845294930.0 0.1269180105 0.8343225339 9.97604e-05 -5.06282e-05 4.8321e-06 2.93153e-05 -0.0777644102 -0.838780455
850294900.0 0.1354470429 0.8328132722 0.0002612959 -0.0001123219 -2.0927e-05 0.0001136863 -0.0862244741 -0.837924748
