!Created with skrf (http://scikit-rf.org).
# Hz S RI R 50.0 
!freq ReS11 ImS11 ReS21 ImS21 ReS12 ImS12 ReS22 ImS22
300000.0 -0.2411713348 -0.08509245 0.4730302788 0.0558633616 0.4716456875 0.0537003414 -0.2409112452 -0.0911974299
5299970.0 -0.2454769334 0.006610786 0.4748899862 0.0048809422 0.474958926 0.0048992979 -0.241464499 0.0073825494
10299940.0 -0.2418818674 0.018168594 0.4767444716 0.0061152735 0.4765144814 0.0062524757 -0.2382808351 0.020567986
15299910.0 -0.237619975 0.0269615618 0.4804191969 0.0074607804 0.4806898167 0.0071533445 -0.233613547 0.0299098065
20299880.0 -0.2329289211 0.033919965 0.4851998746 0.0083940174 0.4851956307 0.0079731356 -0.2283691675 0.0380676395
25299850.0 -0.2278268392 0.0404188812 0.4902215839 0.0070967866 0.4900795638 0.007032415 -0.2223530534 0.0444940839
30299820.0 -0.2224854719 0.0450830882 0.495380124 0.0048643304 0.4956276412 0.0049864379 -0.2161568608 0.0500554643
35299790.0 -0.2175970736 0.0490193741 0.5008873886 0.0015829503 0.5012295435 0.0017615765 -0.2109058388 0.0544530915
40299760.0 -0.2125836081 0.0523822872 0.5058322029 -0.0022075746 0.5062735904 -0.0022581819 -0.205728797 0.0570386076
45299730.0 -0.2080013929 0.0549603957 0.510439441 -0.0071067052 0.5106535336 -0.0071819297 -0.2003222527 0.0605759699
50299700.0 -0.2038665636 0.0569601558 0.5150408905 -0.0125787985 0.5153315214 -0.0121832679 -0.1959175209 0.0622487025
55299670.0 -0.1999180096 0.0584594201 0.5187903591 -0.0187919739 0.5181267494 -0.0184705673 -0.1914801565 0.0640606808
60299640.0 -0.196053611 0.0598653521 0.5216146141 -0.0250926541 0.5218850114 -0.0244391499 -0.1872540133 0.0651208583
65299610.0 -0.1929693482 0.061024867 0.5250864274 -0.0312964355 0.524599508 -0.0310149075 -0.1837850384 0.0662646288
70299580.0 -0.1899185105 0.0619558284 0.5275148347 -0.0377551083 0.5273693245 -0.037647749 -0.1807095555 0.0674953636
75299550.0 -0.1872573754 0.0629637743 0.5291379727 -0.0445665867 0.5287477862 -0.0444987832 -0.1775737601 0.0680589657
80299520.0 -0.1848792653 0.0634594648 0.5308302329 -0.051341351 0.5311878774 -0.0514186665 -0.1753348221 0.0690165031
85299490.0 -0.1824466967 0.0640554875 0.5323390711 -0.0580805725 0.5323233006 -0.057919487 -0.1727718182 0.0694893373
90299460.0 -0.1803221187 0.0646921108 0.5326692908 -0.0650144731 0.5332279482 -0.0652260566 -0.1703235285 0.070353282
95299430.0 -0.1782622492 0.0652738723 0.5339522829 -0.0721870309 0.5341763365 -0.0721402192 -0.167984237 0.0713113242
100299400.0 -0.1766709194 0.0662166607 0.533660638 -0.0787243012 0.5341423501 -0.0786280402 -0.1658778625 0.0715463805
105299370.0 -0.1748569494 0.06661736 0.5347215341 -0.0861131449 0.5351076661 -0.0858652659 -0.1639470692 0.0726913025
110299340.0 -0.1731559322 0.0674857479 0.535068198 -0.091991974 0.5349472194 -0.0925599369 -0.1630800643 0.0731843496
115299310.0 -0.1720560535 0.0681172032 0.5351078918 -0.0994671583 0.534832159 -0.0995233042 -0.1610875251 0.0737925904
120299280.0 -0.1706916578 0.0685354131 0.5346117226 -0.1063337164 0.5348506377 -0.1062972914 -0.1596978764 0.0748856481
125299250.0 -0.1698117877 0.069167487 0.5340817715 -0.1129917908 0.534396153 -0.1125290681 -0.1587366107 0.075205455
130299220.0 -0.1687772303 0.0700066968 0.5333216031 -0.1197186451 0.533443681 -0.1196063691 -0.1570008627 0.0760453174
135299190.0 -0.1674507158 0.0711504958 0.5330965641 -0.1262910698 0.5327566487 -0.1258350435 -0.1558363814 0.0769548164
140299160.0 -0.1668382456 0.0719558893 0.5322008695 -0.1330233832 0.5324753995 -0.1328781899 -0.1547269524 0.0785466036
145299130.0 -0.1655847675 0.0729057196 0.531547812 -0.1398272346 0.5311106412 -0.1394643237 -0.1537289147 0.0792076121
150299100.0 -0.1645997323 0.0739873727 0.530432832 -0.1455674872 0.5301675489 -0.1457174506 -0.1526700434 0.080507563
155299070.0 -0.1640829688 0.0748112669 0.5289894648 -0.1531982659 0.5287857166 -0.1526124694 -0.1517922756 0.0814786803
160299040.0 -0.163090517 0.0758875303 0.5274463069 -0.1590707122 0.5273886904 -0.1590547133 -0.1511820726 0.0824372423
165299010.0 -0.1623724699 0.0769161808 0.5259316409 -0.1657127676 0.5262131952 -0.1654016738 -0.1495407588 0.0837069219
170298980.0 -0.1615336991 0.0779339381 0.5245944592 -0.1717523144 0.5246876514 -0.1718176509 -0.1487147316 0.0849381263
175298950.0 -0.1608621264 0.0787850924 0.5233292245 -0.1780622003 0.5228006971 -0.1782736781 -0.1478059746 0.0861340749
180298920.0 -0.160189017 0.0800274799 0.5211538356 -0.1846091341 0.5210375557 -0.1838856792 -0.1471659743 0.086996613
185298890.0 -0.1592199133 0.0811784589 0.5192759151 -0.1902960635 0.5193716724 -0.1900951619 -0.1462481583 0.0885094775
190298860.0 -0.1586346237 0.0823794876 0.5175810624 -0.1970692774 0.5177005606 -0.1964533606 -0.1449827212 0.0894119934
195298830.0 -0.1578066531 0.083318017 0.5156738563 -0.2028137348 0.5152602403 -0.2024215981 -0.1437795912 0.0908427041
200298800.0 -0.1567858418 0.0846536144 0.5132954962 -0.2090761814 0.5135536159 -0.2091112705 -0.1435962746 0.0924028556
205298770.0 -0.1563140311 0.0860732246 0.5108942417 -0.2155512647 0.511062486 -0.2148053134 -0.1420619576 0.093020888
210298740.0 -0.1550452987 0.0871819794 0.5086259968 -0.2209197273 0.5084160921 -0.2206355683 -0.1409205138 0.0950974811
215298710.0 -0.1551690629 0.0885688272 0.5067669176 -0.2271678299 0.5063660996 -0.2270276608 -0.1404012241 0.0961615348
220298680.0 -0.153825969 0.0892571311 0.5035414947 -0.2326404386 0.5038933873 -0.2327051642 -0.1397133059 0.0974793905
225298650.0 -0.1533154892 0.0905660156 0.5010853688 -0.2386448176 0.5019186938 -0.2388847954 -0.1390471868 0.0987205919
230298620.0 -0.1524270693 0.0923044155 0.4992742212 -0.2444340997 0.4998494787 -0.2443915975 -0.1378399714 0.099937093
235298590.0 -0.1518628606 0.0935737177 0.4963531972 -0.2498190343 0.4967560126 -0.2499398498 -0.1368534929 0.1015397477
240298560.0 -0.1509729409 0.094934192 0.4940270663 -0.2559388941 0.4933821093 -0.255779406 -0.1358474328 0.1029467259
245298530.0 -0.150245067 0.096688333 0.4915824172 -0.2614684824 0.4911025199 -0.2615683933 -0.1344282438 0.1038336317
250298500.0 -0.1493606387 0.0974410975 0.4877741287 -0.2672480371 0.4877186558 -0.2667686478 -0.1337333741 0.1054378456
255298470.0 -0.1487360818 0.0983870273 0.484694728 -0.272366206 0.4848563569 -0.2725312593 -0.1325509909 0.1068659468
260298440.0 -0.1481128781 0.0999007857 0.4820203642 -0.2783344625 0.4822659955 -0.278106655 -0.1313700892 0.1084559227
265298410.0 -0.146514491 0.101774787 0.4791702488 -0.2838773434 0.479176175 -0.2834231156 -0.1302816797 0.1097729938
270298380.0 -0.1461443796 0.1028303908 0.4763090418 -0.2891082141 0.4762830077 -0.2887979396 -0.1292713576 0.1113234988
275298350.0 -0.1449133332 0.1043211078 0.4730646613 -0.2947111204 0.4734526071 -0.2943557696 -0.1279111235 0.1123451734
280298320.0 -0.1439278934 0.1058596669 0.4703651467 -0.3000395547 0.4701007473 -0.2996994382 -0.1266523433 0.1139011177
285298290.0 -0.1430840167 0.1072553023 0.4666710016 -0.3053468599 0.4666617769 -0.3056180189 -0.1256325702 0.1152374896
290298260.0 -0.1419491813 0.1085611379 0.4635604683 -0.3102217766 0.4633665899 -0.3105435969 -0.1244018606 0.116996607
295298230.0 -0.1409889351 0.1094948971 0.4600927098 -0.3156412022 0.4598811177 -0.315768578 -0.1229108972 0.1178255584
300298200.0 -0.1404532958 0.1109118898 0.4570793159 -0.3207920815 0.4565940203 -0.3213489633 -0.1218408255 0.1192725813
305298170.0 -0.1390728884 0.1121173883 0.4527021205 -0.3266278187 0.4531345465 -0.3264224365 -0.120045845 0.1203684914
310298140.0 -0.1382147565 0.1136774316 0.4496664954 -0.3316529814 0.4497817567 -0.3313678032 -0.1191790163 0.1219765373
315298110.0 -0.1372437114 0.1148082758 0.4461777468 -0.3368055847 0.446165166 -0.3366885607 -0.1178613699 0.1230062309
320298080.0 -0.1360303398 0.1158868911 0.4418700159 -0.3420707929 0.4421637444 -0.3417515616 -0.1167058296 0.1245045767
325298050.0 -0.1352050325 0.1172748849 0.4382440668 -0.346869579 0.4383506175 -0.3469109811 -0.1157451874 0.1257627884
330298020.0 -0.1341874462 0.1184121929 0.4341693596 -0.3519131144 0.4341658503 -0.3515956949 -0.1148018431 0.1269271863
335297990.0 -0.1330084264 0.1195567764 0.4303091256 -0.356150705 0.4301191371 -0.356423527 -0.1140024443 0.1288400507
340297960.0 -0.1326045729 0.1211258951 0.4260863513 -0.3613526297 0.4258948252 -0.3615219719 -0.1118728172 0.1301139837
345297930.0 -0.1315884089 0.123139087 0.4220153911 -0.3665058308 0.4217675 -0.3662571958 -0.110911714 0.130796002
350297900.0 -0.1305912232 0.1239007671 0.4174205431 -0.3708199648 0.4176424243 -0.3708445201 -0.109901475 0.1326216465
355297870.0 -0.1291278635 0.1255845246 0.4136341247 -0.3754291168 0.4140255553 -0.3748564165 -0.1086828984 0.133715247
360297840.0 -0.128301961 0.1269625004 0.4099091846 -0.379427457 0.410003522 -0.3794043476 -0.1072431157 0.1353690311
365297810.0 -0.1271444777 0.1284217422 0.4053164291 -0.3845877985 0.4058338023 -0.3843147979 -0.1056757616 0.1367919907
370297780.0 -0.1256255384 0.1293273392 0.4007520203 -0.3885326555 0.4015232381 -0.3883206165 -0.103799924 0.1379881129
375297750.0 -0.1245788226 0.1305818536 0.3960429525 -0.3930105249 0.3974020108 -0.3931291301 -0.1024411125 0.139209481
380297720.0 -0.1231456078 0.1322414862 0.3923041147 -0.3976899281 0.3925697603 -0.3970215291 -0.1011762172 0.1404212574
385297690.0 -0.1225563411 0.1334703125 0.3879536155 -0.4014838018 0.3879155557 -0.4014775242 -0.0996865322 0.1418032493
390297660.0 -0.1212467177 0.1350211576 0.3839625987 -0.4062756668 0.383660751 -0.4056064136 -0.0984267704 0.1430748483
395297630.0 -0.1198794535 0.1361431571 0.3792292924 -0.4100699346 0.3788813461 -0.4105056751 -0.0959394872 0.1441676611
400297600.0 -0.1188281956 0.1376061194 0.3744403767 -0.4146195769 0.3749899627 -0.4141875643 -0.0950722804 0.1454586541
405297570.0 -0.117693584 0.1387794894 0.3702129935 -0.4178096803 0.3701726687 -0.4179713623 -0.0937805272 0.1467963644
410297540.0 -0.115997054 0.1399693796 0.3657422612 -0.4226991677 0.3661033659 -0.4225972412 -0.09239116 0.148122701
415297510.0 -0.1145290379 0.141014723 0.3605932454 -0.426703069 0.3609747843 -0.4264940598 -0.090653881 0.1492299514
420297480.0 -0.1133464092 0.1426084216 0.3561212561 -0.4301670514 0.3564438501 -0.4301039769 -0.0893175402 0.1502444844
425297450.0 -0.1122564993 0.1434005988 0.3514698625 -0.4340273914 0.3519560067 -0.4343930822 -0.0876541322 0.1518072499
430297420.0 -0.1106535575 0.1449225712 0.3467518294 -0.4377842714 0.3465766492 -0.4376123317 -0.0858315038 0.1524039651
435297390.0 -0.1094335656 0.1461260627 0.3415761256 -0.4419402694 0.3414252479 -0.4418962475 -0.0836526452 0.1535047548
440297360.0 -0.1078841134 0.1474753489 0.3368423091 -0.4453074326 0.3371744601 -0.4455388421 -0.0823660075 0.1545577749
445297330.0 -0.1068358079 0.1484435059 0.3323975504 -0.4488862931 0.3325390486 -0.448762563 -0.080766919 0.1553415715
450297300.0 -0.1051750808 0.1493458102 0.3269384412 -0.4525462723 0.3276992631 -0.4525998994 -0.0790575637 0.1561834044
455297270.0 -0.1039802218 0.1507049793 0.3223255022 -0.4559827459 0.3227155467 -0.456622523 -0.0773227438 0.1575094331
460297240.0 -0.1023851022 0.1519030589 0.3171025263 -0.4595726508 0.3172190832 -0.4595537291 -0.0754536564 0.1588362288
465297210.0 -0.1008348538 0.1528882258 0.3123950245 -0.4630959216 0.3123730411 -0.4634315333 -0.073922784 0.1592201038
470297180.0 -0.0992834176 0.1539984051 0.306866686 -0.4662603029 0.3072240294 -0.466622947 -0.0718319034 0.1607206925
475297150.0 -0.0979945622 0.1548608851 0.3017574649 -0.4692898505 0.302146666 -0.4696650994 -0.0698123898 0.1612519521
480297120.0 -0.0964074419 0.1566545852 0.2966634787 -0.473419577 0.2967479486 -0.4732778592 -0.0680760317 0.1624706964
485297090.0 -0.0950800649 0.1574158598 0.2918408464 -0.4758003564 0.2921398811 -0.4758837774 -0.0661316192 0.1631277078
490297060.0 -0.0940008686 0.1581919279 0.2867317693 -0.4797652091 0.2867229429 -0.4790966612 -0.0644861974 0.1643739964
495297030.0 -0.0921303163 0.1595016507 0.281111432 -0.4822101676 0.2815533901 -0.482010372 -0.0631223262 0.1650350061
500297000.0 -0.0904385465 0.1604665283 0.2760590573 -0.4850848808 0.2757273163 -0.4849075672 -0.0608365319 0.1663928394
505296970.0 -0.0886124988 0.1615280872 0.2705726079 -0.4881193552 0.2708478662 -0.4881750671 -0.0593780973 0.1667636996
510296940.0 -0.0873885455 0.1625577683 0.2654006974 -0.4912604012 0.2652905479 -0.4913888264 -0.057277446 0.1679759218
515296910.0 -0.0856112741 0.1634176013 0.2598927284 -0.4941555787 0.2600872723 -0.4938144753 -0.0554602753 0.1682190184
520296880.0 -0.084274733 0.1646444651 0.2548148183 -0.4974919212 0.2547242898 -0.4967297235 -0.0537382552 0.1690426831
525296850.0 -0.0825057035 0.1646959061 0.2488171291 -0.4993548127 0.2494406783 -0.4995054595 -0.0517670996 0.1700060847
530296820.0 -0.0808419902 0.1662702225 0.2435421661 -0.5022517516 0.2435908746 -0.5023350729 -0.0499782274 0.1707051992
535296790.0 -0.0797280547 0.167080453 0.2388173573 -0.5047056465 0.2382605521 -0.5045718088 -0.0480667347 0.1711461647
540296760.0 -0.0781908265 0.1680605281 0.2332496731 -0.5071906691 0.2328975154 -0.5073882198 -0.0466963191 0.1722116454
545296730.0 -0.0765140859 0.169056392 0.2266022101 -0.5098794969 0.2268361285 -0.5096621574 -0.0445606405 0.1725222954
550296700.0 -0.0743422022 0.170098869 0.221813958 -0.5122484967 0.2217341732 -0.5123950383 -0.0427569672 0.1738173476
555296670.0 -0.0731293546 0.1703861744 0.216295084 -0.5141308328 0.2161824161 -0.5142527942 -0.04084144 0.1741599007
560296640.0 -0.0709848754 0.1717952633 0.210481545 -0.51707997 0.2107405275 -0.5169649525 -0.0389335375 0.1744490815
565296610.0 -0.0697261919 0.1725613967 0.2046447268 -0.5192033659 0.2053123904 -0.5187248408 -0.0370843363 0.1749491706
570296580.0 -0.0682212593 0.1732374799 0.1994207258 -0.5216541694 0.1988505984 -0.521367952 -0.0349916991 0.1760370967
575296550.0 -0.066871262 0.1743393795 0.1941372433 -0.5240392287 0.1932398417 -0.5234583884 -0.0327491313 0.1763986458
580296520.0 -0.0644321583 0.1748925335 0.1878482809 -0.5259412578 0.1879422804 -0.5253199193 -0.0309206076 0.1766788076
585296490.0 -0.0633575622 0.1751501558 0.1829522896 -0.5273326394 0.1823889436 -0.5274914612 -0.0288006137 0.1773011981
590296460.0 -0.0608988511 0.1762622093 0.1761937973 -0.5285478496 0.1766037909 -0.5291723703 -0.0273038166 0.1779781636
595296430.0 -0.0594111219 0.1771781693 0.1701088193 -0.5312703426 0.170273439 -0.5311488831 -0.0252495555 0.1778481778
600296400.0 -0.0579969714 0.1778009413 0.1646293236 -0.5333249023 0.1648433973 -0.5327293912 -0.023369764 0.1784542635
605296370.0 -0.0563476004 0.1785934035 0.1591628282 -0.5344194511 0.1593057962 -0.5348058156 -0.0210601316 0.179169675
610296340.0 -0.0544787019 0.1792356053 0.153009982 -0.5365057765 0.1538108176 -0.536219883 -0.0188351208 0.1794244805
615296310.0 -0.0524324469 0.179587908 0.1472802838 -0.5378283782 0.1471697058 -0.5381105034 -0.0169521504 0.1799980032
620296280.0 -0.0509160687 0.1802356562 0.141267359 -0.5392405732 0.1417896783 -0.5392711986 -0.0152603233 0.1800492164
625296250.0 -0.0492676266 0.1805224381 0.1362427335 -0.5410826434 0.1361171178 -0.5414212339 -0.0127146062 0.18015697
630296220.0 -0.0467891171 0.1814998495 0.129397754 -0.5423660297 0.1296885222 -0.5424071927 -0.010985183 0.1810370685
635296190.0 -0.0457768616 0.1821335709 0.1239547003 -0.5434284455 0.1241316547 -0.5436650723 -0.0089172466 0.1809392489
640296160.0 -0.0440550439 0.1828832026 0.1182023731 -0.544722333 0.1187211264 -0.5452377498 -0.0067859891 0.181183585
645296130.0 -0.0423175578 0.1836580101 0.1121788811 -0.5460296277 0.1123757052 -0.5462882971 -0.0046669291 0.1817235344
650296100.0 -0.0402606457 0.1838811313 0.1065291418 -0.5468514331 0.1062127479 -0.5473340611 -0.0026113758 0.1813325594
655296070.0 -0.0387773789 0.1843089127 0.0999655542 -0.548564228 0.1008507814 -0.5483705303 -0.0006380489 0.1821169208
660296040.0 -0.0372862285 0.1844662035 0.0949153007 -0.549480495 0.0947678111 -0.5492888658 0.0012136231 0.1821558486
665296010.0 -0.0349099463 0.1850069359 0.0884213255 -0.5499277576 0.088479837 -0.5503384576 0.0033375197 0.182741056
670295980.0 -0.0340039135 0.1856509286 0.082680849 -0.550551302 0.0825832163 -0.5509374418 0.005153985 0.1825972846
675295950.0 -0.0317643547 0.1862884649 0.0767217655 -0.5516200117 0.0769750788 -0.5513564443 0.0068177353 0.1827993017
680295920.0 -0.0300185458 0.1867101605 0.0704519684 -0.5524810712 0.0705320138 -0.5532261687 0.0091969363 0.183171493
685295890.0 -0.0282316914 0.1874893289 0.0648395982 -0.5532279964 0.0644621411 -0.5534192629 0.0112721068 0.1826687229
690295860.0 -0.0260362034 0.1875835592 0.0586034865 -0.5538991104 0.0587209917 -0.5544894483 0.0131261315 0.183665154
695295830.0 -0.0241738396 0.1878705525 0.0527025643 -0.5543145624 0.0527074101 -0.5547270613 0.0151059089 0.1831774202
700295800.0 -0.0224988739 0.1879491185 0.0464384382 -0.5549131326 0.0470546703 -0.554820319 0.0168241931 0.1835163348
705295770.0 -0.0208685905 0.1892858726 0.0408575236 -0.5557451381 0.0411671989 -0.5558524157 0.0190907893 0.1836634605
710295740.0 -0.0187813195 0.1892757519 0.0350687383 -0.5565774025 0.0355140662 -0.5565238624 0.0211870009 0.1825252758
715295710.0 -0.0173808153 0.189199995 0.0289750105 -0.5562201846 0.0284875007 -0.5560412529 0.0237682959 0.1826659185
720295680.0 -0.0153891557 0.1897086824 0.0227124416 -0.5565535231 0.0230689804 -0.5563229522 0.0254301954 0.1829479327
725295650.0 -0.0132723314 0.1900074019 0.0168828413 -0.5567774209 0.0170912897 -0.556914201 0.0270706706 0.1826356791
730295620.0 -0.0113549476 0.1904133642 0.0108516895 -0.5565801078 0.0111834625 -0.5570801363 0.02870693 0.1822938628
735295590.0 -0.0096321493 0.1908501938 0.0047964976 -0.5570449871 0.0050037246 -0.5568687502 0.0310343668 0.1818658505
740295560.0 -0.008254533 0.1908737477 -0.000955127 -0.5565825155 -0.0011340136 -0.5572290285 0.0334052993 0.1823252625
745295530.0 -0.0061203356 0.1914896137 -0.0072263065 -0.5565772376 -0.0070309493 -0.5568364361 0.0354605886 0.1813626557
750295500.0 -0.0039304917 0.1914146142 -0.0131500985 -0.5563958237 -0.0126886061 -0.5570375257 0.0372111082 0.181568874
755295470.0 -0.0021775357 0.1911645078 -0.0187241805 -0.5562481239 -0.0188856019 -0.556701468 0.0398022375 0.1810373105
760295440.0 -0.0005667252 0.1917313875 -0.024644252 -0.5566546076 -0.0250080804 -0.5568000614 0.0415717851 0.1806010881
765295410.0 0.0013965363 0.1919472208 -0.0313331549 -0.555948805 -0.0313668131 -0.5561688227 0.0437990954 0.1805939663
770295380.0 0.0030324046 0.1917186636 -0.0370944004 -0.5555664355 -0.037390439 -0.5552574774 0.0455060712 0.1801645399
775295350.0 0.0046057004 0.1912262827 -0.0430505321 -0.5546897647 -0.0428081899 -0.5550739838 0.0470825786 0.1801376997
780295320.0 0.0067278285 0.1919424842 -0.04903845 -0.5544414063 -0.048413687 -0.554363442 0.0490948765 0.1791607486
785295290.0 0.0086428223 0.1916419114 -0.055330631 -0.5535426345 -0.0548722932 -0.553809048 0.0517221745 0.1789320771
790295260.0 0.01103331 0.1924238646 -0.0605899743 -0.5531448691 -0.0596980251 -0.5534101039 0.0535516728 0.1787625432
795295230.0 0.0126654993 0.1918967657 -0.0666555585 -0.5519754263 -0.0662538949 -0.5527547008 0.0560001426 0.1783126152
800295200.0 0.014119624 0.1923716919 -0.0730575114 -0.5513509516 -0.0726908518 -0.5516269552 0.0578017631 0.1778714754
805295170.0 0.0163118064 0.1921825733 -0.078973688 -0.5505090954 -0.0784999395 -0.5506571582 0.0594766307 0.1777418392
810295140.0 0.0179203577 0.1916018019 -0.0843294617 -0.549326568 -0.084288021 -0.5501066868 0.0619519092 0.1769655276
815295110.0 0.0199477382 0.1915859561 -0.0904590746 -0.5486012262 -0.0902749874 -0.5487897366 0.0634963241 0.1765675407
820295080.0 0.0216550023 0.1922871655 -0.0960220213 -0.5474922325 -0.0959797832 -0.5478657326 0.0657443902 0.1756875202
825295050.0 0.0238946978 0.1918450395 -0.1018865424 -0.5462263066 -0.1021206021 -0.5465727771 0.0677975885 0.1754815472
830295020.0 0.025749824 0.1916003517 -0.1081545374 -0.5451657919 -0.1081956188 -0.5457175278 0.070275956 0.1747794927
