!Created with skrf (http://scikit-rf.org).
# Hz S RI R 50.0 
!freq ReS11 ImS11 ReS21 ImS21 ReS12 ImS12 ReS22 ImS22
300000.0 -0.7754047436 -0.0793500268 0.0010920065 -0.0013279062 0.0022535965 0.0005632253 -0.7762576372 -0.1165081449
5299970.0 -0.7847149637 -0.0055393987 0.0001141935 6.7345e-06 -9.40226e-05 4.89691e-05 -0.7850413531 -0.0065702983
10299940.0 -0.788099884 -0.0039874832 -8.20982e-05 0.0001757067 2.76175e-05 -6.4341e-05 -0.788734532 -0.0035549231
15299910.0 -0.7935016906 -0.0020882109 7.34459e-05 3.43919e-05 6.31888e-05 -0.0001683997 -0.7938793223 -0.0013659323
20299880.0 -0.800296722 0.0019090003 3.23506e-05 8.8803e-06 9.5459e-06 -7.66359e-05 -0.8003747652 0.001830692
25299850.0 -0.806485649 0.008070915 -7.95431e-05 0.000145238 -2.6325e-05 -9.70496e-05 -0.8066461369 0.0082149728
30299820.0 -0.8125954604 0.0149379861 -3.74572e-05 0.0002574575 0.0001349628 -6.84749e-05 -0.8127061852 0.0160533795
35299790.0 -0.816947024 0.0243945597 -1.17007e-05 7.60565e-05 -9.09302e-05 -1.67554e-05 -0.8176321868 0.0250174088
40299760.0 -0.8217701558 0.0335342139 -3.08112e-05 -0.0001320805 -6.04031e-05 -5.802e-07 -0.8218706015 0.0345016352
45299730.0 -0.8247784093 0.0422335292 -7.86565e-05 -0.0001067373 -0.0001379293 -2.7881e-05 -0.8251078517 0.0438514718
50299700.0 -0.8269904237 0.0528907284 4.07136e-05 -0.0001082271 0.0002051525 0.0001009748 -0.8276094988 0.0537706781
55299670.0 -0.8290688355 0.0629960134 9.84638e-05 2.61585e-05 -1.44598e-05 -7.9555e-05 -0.8297952713 0.0642446191
60299640.0 -0.8299127817 0.0731262504 2.73582e-05 -0.0001356528 -8.10845e-05 -7.4422e-06 -0.8304583117 0.0741970336
65299610.0 -0.8313188243 0.0829832379 0.0002149409 -0.0001765301 -2.3969e-06 -2.5836e-06 -0.8319743147 0.0836803256
70299580.0 -0.8318761468 0.0930491251 2.03574e-05 -0.0001219494 -5.10072e-05 -4.00925e-05 -0.831590093 0.0942695199
75299550.0 -0.8317164962 0.1032822199 1.0522e-05 8.55382e-05 -2.19382e-05 7.48577e-05 -0.8319608457 0.1036692426
80299520.0 -0.8317317045 0.1128600097 -5.25253e-05 6.78511e-05 5.21254e-05 -1.1663e-05 -0.831765514 0.1139338957
85299490.0 -0.8316002763 0.1223057828 -3.60106e-05 3.88848e-05 -7.01772e-05 5.37676e-05 -0.831558992 0.1232883205
90299460.0 -0.8303641069 0.1316653588 -0.0001732105 -6.49431e-05 5.24918e-05 0.0001254328 -0.83059778 0.1331024558
95299430.0 -0.8288651946 0.1414720724 -0.0001000147 8.57081e-05 4.35033e-05 -9.92274e-05 -0.8290003997 0.1426727186
100299400.0 -0.8277009396 0.1505618204 0.000276734 1.25894e-05 -5.40194e-05 -0.0001172072 -0.8285129105 0.1521099798
105299370.0 -0.8269396986 0.1600971515 -7.7208e-05 -0.0001347695 -5.27666e-05 9.05427e-05 -0.8268409773 0.1609695801
110299340.0 -0.8251499615 0.1689478705 4.79458e-05 -0.0002991394 -2.28269e-05 3.87952e-05 -0.8260200776 0.170011167
115299310.0 -0.8236990457 0.1781723984 0.0001720268 2.28494e-05 6.65006e-05 0.0001176752 -0.8244519507 0.179632475
120299280.0 -0.8218761419 0.1866840669 2.25535e-05 0.0001005545 -0.00017355 -0.0001707293 -0.8224429404 0.1886778526
125299250.0 -0.8206155862 0.1957685955 -0.0002353615 -8.02626e-05 0.0001700396 -0.0001850083 -0.8213668467 0.1975698071
130299220.0 -0.8185168222 0.205103114 0.000283272 -5.9845e-06 2.58828e-05 -0.0001241076 -0.8196225976 0.2067995393
135299190.0 -0.8174428175 0.2141690179 2.9928e-06 -0.0001234834 0.0001238684 0.0001788114 -0.8171458139 0.2161427157
140299160.0 -0.8150990174 0.223092978 -0.0002703349 -0.0001994505 -6.32776e-05 7.76646e-05 -0.8148866096 0.2252723795
145299130.0 -0.8122252182 0.2318680844 -0.0001370828 3.09353e-05 -1.90376e-05 0.0002807575 -0.8125937436 0.2341562815
150299100.0 -0.8099690817 0.2405347779 9.89268e-05 -0.0001094028 -6.03672e-05 -7.35675e-05 -0.8113201624 0.243369002
155299070.0 -0.808042408 0.24948437 -4.16828e-05 0.0001398298 0.0001677528 -5.5804e-06 -0.8081927668 0.2518515072
160299040.0 -0.8050912449 0.2581716151 -4.52701e-05 0.0001242906 -9.0999e-05 -0.0001025863 -0.806137247 0.2610477463
165299010.0 -0.8030120392 0.2667367848 6.65162e-05 7.47184e-05 0.0001554834 5.95894e-05 -0.8035089974 0.2698796522
170298980.0 -0.7999116673 0.2750750835 -2.29821e-05 0.0001284027 -3.69051e-05 -0.0001792578 -0.8003812579 0.2781479938
175298950.0 -0.7975691374 0.2841730777 -8.93906e-05 -0.0001774558 0.0001782106 6.26247e-05 -0.797668155 0.2866571349
180298920.0 -0.795137504 0.2926876811 0.0001789134 -0.0001037832 -4.60793e-05 -4.84917e-05 -0.7946025293 0.2952425457
185298890.0 -0.7912023664 0.3010792199 -0.0002316696 -0.000144211 -9.3067e-06 6.96717e-05 -0.7913135422 0.3036171466
190298860.0 -0.7885395038 0.3094444178 0.0001457269 0.0001654753 5.44817e-05 -2.778e-07 -0.7885675108 0.3119540392
195298830.0 -0.7854307236 0.3178692235 -6.28343e-05 -2.73939e-05 4.37403e-05 8.83461e-05 -0.7849278109 0.3204420048
200298800.0 -0.7815051389 0.325702717 6.00878e-05 -0.0002060261 0.0001558329 -9.77733e-05 -0.7821859688 0.3290213458
205298770.0 -0.7785687507 0.3336876166 -9.69706e-05 -9.58118e-05 -0.0001852756 3.82633e-05 -0.7783079134 0.3369075602
210298740.0 -0.7748948252 0.3421889828 -7.93706e-05 0.0001116497 1.82539e-05 1.19468e-05 -0.7745243456 0.3454125482
215298710.0 -0.7720725298 0.3502016235 -1.6107e-06 -5.43681e-05 -2.18826e-05 2.40043e-05 -0.7714256834 0.3536644263
220298680.0 -0.7676257458 0.3580196713 -7.83764e-05 7.79192e-05 0.000157155 -5.68133e-05 -0.7678673355 0.3612752907
225298650.0 -0.7642384548 0.3660591583 -0.0001139261 1.13191e-05 6.36567e-05 -0.0001338833 -0.7640269425 0.3698705413
230298620.0 -0.7597646107 0.3741841486 7.12876e-05 -2.03057e-05 0.0001735174 -9.32863e-05 -0.7601866859 0.378300322
235298590.0 -0.7568416407 0.3825801851 -8.29468e-05 0.0002027512 8.66674e-05 6.8468e-06 -0.7556873027 0.385934336
240298560.0 -0.752126954 0.3906674729 -5.9845e-06 4.86484e-05 5.06711e-05 -1.776e-07 -0.7518717149 0.3945576381
245298530.0 -0.7492372707 0.3988487552 -0.000253247 -5.13428e-05 -1.07251e-05 0.000194882 -0.7482093686 0.4022546744
250298500.0 -0.7446364989 0.4067145331 0.0001990155 0.0001290793 -0.000187522 0.0001276903 -0.7434568003 0.4097976061
255298470.0 -0.739715836 0.4136545109 -1.00519e-05 0.0001088155 4.87497e-05 -6.53644e-05 -0.739060869 0.4175033917
260298440.0 -0.7359618123 0.4210535588 -0.0001418355 0.0001064541 1.04174e-05 -0.0001217519 -0.7348726859 0.4261853015
265298410.0 -0.7315366118 0.4292703235 6.54233e-05 0.000155183 1.0777e-06 -0.0001154364 -0.7305601524 0.4334482239
270298380.0 -0.7272617432 0.4372383638 -4.98644e-05 6.61776e-05 -2.38193e-05 -5.638e-07 -0.7256996506 0.4410904407
275298350.0 -0.7224610899 0.4440840244 -2.83013e-05 -1.56585e-05 -0.0001217789 0.0001823398 -0.721272393 0.4484860133
280298320.0 -0.7174252384 0.4521154635 5.92772e-05 -0.0001394815 -5.92312e-05 -9.60923e-05 -0.7162662718 0.4562283073
285298290.0 -0.7130649076 0.4601409613 -0.0001340189 -0.0001974949 -6.98017e-05 0.000172879 -0.7113246026 0.4635613751
290298260.0 -0.7087881574 0.4674667865 -0.0001810735 -0.0002138455 0.0001476161 0.0001351152 -0.7067285937 0.4708860783
295298230.0 -0.7027227492 0.4740073729 5.40735e-05 0.0001242991 6.488e-06 3.48011e-05 -0.7014466006 0.4784582652
300298200.0 -0.698253197 0.4813130055 -0.0001319793 -1.80515e-05 1.87582e-05 0.0001979569 -0.6965472078 0.4859652357
305298170.0 -0.6926437472 0.4880521964 0.0001807962 0.0001523607 0.000294723 -0.0001339815 -0.6910216428 0.4932617283
310298140.0 -0.6875312365 0.4956848538 -9.86022e-05 8.41e-08 0.0002190219 3.35216e-05 -0.6867422067 0.5001327583
315298110.0 -0.6831204603 0.5029583523 0.0001519567 1.46033e-05 -6.38864e-05 -0.0002304297 -0.6807867813 0.5071485324
320298080.0 -0.6772357665 0.5095133768 -4.87015e-05 4.06862e-05 -0.0001184048 -2.79348e-05 -0.6757060465 0.5148295274
325298050.0 -0.6719597012 0.5170140805 0.0001262609 -6.86122e-05 -7.37014e-05 9.29958e-05 -0.6695126368 0.5215774562
330298020.0 -0.6665262746 0.5239396149 -6.7037e-06 0.0002203639 -0.0002511772 -4.6331e-06 -0.6642404053 0.5286388021
335297990.0 -0.6610054292 0.5307943426 -7.67157e-05 -0.000133949 4.40679e-05 0.0001131472 -0.6593361935 0.5357269391
340297960.0 -0.6559208651 0.5372870812 -0.0001395136 5.83909e-05 -0.00016523 0.0001929107 -0.6538261905 0.5422680401
345297930.0 -0.6503328542 0.5442025868 0.0001157912 0.0001735389 5.38829e-05 -4.56219e-05 -0.6476878447 0.5490787723
350297900.0 -0.6446561733 0.5505599552 1.67503e-05 0.0002100634 1.55463e-05 9.4881e-06 -0.6423633191 0.5555820024
355297870.0 -0.638578538 0.557892917 0.0001394056 2.95299e-05 -6.94084e-05 0.0001659101 -0.6365170331 0.5618695149
360297840.0 -0.6325536948 0.5634233602 6.8616e-06 -7.98936e-05 -4.61291e-05 5.32317e-05 -0.6306332182 0.5687727673
365297810.0 -0.6276934868 0.5705486899 -4.28752e-05 4.98122e-05 -0.0001141806 0.0002394551 -0.6238488365 0.5749502409
370297780.0 -0.6214135977 0.5768372339 -1.27393e-05 0.0001324401 -0.0003301501 -0.0003100096 -0.6181995162 0.581508082
375297750.0 -0.6155237336 0.5834535534 5.97573e-05 5.97453e-05 -1.80354e-05 -8.74439e-05 -0.6119969334 0.5877081744
380297720.0 -0.6092241837 0.5890894047 -0.0002377686 0.0002775766 4.15422e-05 0.0001927169 -0.6066523583 0.5935761537
385297690.0 -0.6033438307 0.5955609432 -5.8552e-05 -6.84955e-05 -6.98228e-05 1.44936e-05 -0.5999918926 0.60054091
390297660.0 -0.5974800688 0.6012429879 0.0001870236 -9.22523e-05 -0.0001654864 6.79101e-05 -0.5938043345 0.606424426
395297630.0 -0.5903025338 0.6074086942 3.59594e-05 -6.32273e-05 -7.35532e-05 -8.63184e-05 -0.5868682356 0.6126675837
400297600.0 -0.5843492349 0.6134254941 3.01635e-05 3.90841e-05 -0.0001702821 0.0001284221 -0.5806149079 0.6185542204
405297570.0 -0.5782442869 0.6195212331 -3.6379e-05 3.45232e-05 -5.16177e-05 -9.60704e-05 -0.5750034302 0.6248119036
410297540.0 -0.5719380957 0.6251792587 1.85641e-05 -2.97079e-05 -8.2599e-05 -3.17212e-05 -0.5678057081 0.6304494277
415297510.0 -0.5646436651 0.6305437084 -3.83348e-05 1.32506e-05 0.000187564 2.80361e-05 -0.5614444355 0.6360533207
420297480.0 -0.5595714758 0.6369814552 4.73466e-05 -6.19697e-05 -0.0002096626 -8.70478e-05 -0.5547204691 0.6419328104
425297450.0 -0.5519319153 0.6423445832 0.0001567421 -6.37302e-05 8.40471e-05 -0.0001515552 -0.5483687874 0.6475709351
430297420.0 -0.5459769797 0.6478341488 -7.5765e-06 0.0001357275 4.87e-06 0.0001657146 -0.5414345387 0.6526559796
435297390.0 -0.5390849393 0.6531517525 -5.92116e-05 -3.47064e-05 -0.0001181385 -2.04463e-05 -0.5344342063 0.6583768983
440297360.0 -0.5324637487 0.6583828491 -2.17224e-05 -3.45046e-05 -9.90306e-05 0.000202775 -0.5274945431 0.6636087142
445297330.0 -0.5253532274 0.6645935552 -4.15614e-05 1.48233e-05 5.73272e-05 -8.16133e-05 -0.5207439034 0.6685700106
450297300.0 -0.5184677315 0.6686885018 -0.0001927913 -0.0002803346 -1.30452e-05 -4.93319e-05 -0.5137676394 0.6740050748
455297270.0 -0.5120488648 0.6742083748 -8.66762e-05 -1.254e-06 -7.34137e-05 -7.00123e-05 -0.5069338518 0.678856023
460297240.0 -0.5055655753 0.6794597147 -1.21679e-05 -4.2268e-06 0.000154514 8.83004e-05 -0.5002277589 0.6845679519
465297210.0 -0.4981400632 0.684734154 0.0001566814 -9.0465e-05 -9.3057e-05 7.30658e-05 -0.4925765666 0.6890606116
470297180.0 -0.4906845522 0.6898996277 0.0001006225 1.01457e-05 -0.0001179826 3.04948e-05 -0.4857374202 0.6948927519
475297150.0 -0.4838340176 0.6939805825 -0.0001147166 0.0001910745 -1.6938e-06 5.46498e-05 -0.4780621328 0.6994733824
480297120.0 -0.4769976259 0.6989836663 4.80641e-05 -0.0001241216 4.48391e-05 -1.6156e-05 -0.4711571351 0.7045699137
485297090.0 -0.469612824 0.7040348643 -5.6742e-05 3.56252e-05 7.82656e-05 0.0001684958 -0.4644709903 0.7086698823
490297060.0 -0.4624928834 0.7086801971 3.55597e-05 0.0001376407 -4.4664e-06 0.0001291178 -0.4567660893 0.7129394091
495297030.0 -0.4553377575 0.7130390865 6.86066e-05 0.0001098722 -0.0002420854 -3.56083e-05 -0.4496074245 0.7185730017
500297000.0 -0.4476435471 0.7181553358 -6.85448e-05 0.0002650393 -0.0001656699 0.0001424231 -0.4415118869 0.7230910845
505296970.0 -0.4406922135 0.7225333068 -0.0001707114 0.0001912569 1.62585e-05 -7.99707e-05 -0.4341843588 0.7271021244
510296940.0 -0.4333034492 0.7262172642 -4.04461e-05 0.000177502 8.40893e-05 0.0001247112 -0.4269591558 0.7313562613
515296910.0 -0.4248256212 0.7304780523 -6.35673e-05 -4.65004e-05 -3.51635e-05 0.0002599706 -0.4191461782 0.7356195907
520296880.0 -0.4185693327 0.7351331779 0.0001165758 3.49329e-05 1.32674e-05 6.8813e-06 -0.4117280373 0.7396400792
525296850.0 -0.4105171667 0.7384308263 -8.48955e-05 -9.24429e-05 0.0003691527 3.90511e-05 -0.4047652388 0.7440099793
530296820.0 -0.4029745893 0.7432694618 -0.0001329926 -9.36436e-05 0.0001194565 -6.43301e-05 -0.3972071333 0.747712009
535296790.0 -0.3958636349 0.7466689661 -1.00102e-05 2.7639e-05 0.0001053396 -3.59209e-05 -0.3897139574 0.7514504242
540296760.0 -0.388772168 0.7509612198 -4.66026e-05 -4.41362e-05 3.97144e-05 5.07817e-05 -0.3814142412 0.7556366366
545296730.0 -0.3814288946 0.755335407 -1.77676e-05 9.37139e-05 -0.0001787611 5.70502e-05 -0.3745449321 0.7592757249
550296700.0 -0.3733177283 0.7584998582 -0.0001476042 -3.5712e-05 -7.96928e-05 -7.90731e-05 -0.3664806377 0.7629625063
555296670.0 -0.3657717893 0.761162934 -0.0001250403 8.52635e-05 5.21666e-05 -6.70832e-05 -0.3583100812 0.7674105384
560296640.0 -0.3581212437 0.7667660406 0.0001274258 -8.49655e-05 -0.0001495955 0.0001901645 -0.3509679161 0.7703537269
565296610.0 -0.3508859812 0.769620113 5.3245e-05 7.99994e-05 6.46811e-05 0.0001380919 -0.3423343905 0.7734782777
570296580.0 -0.3427465923 0.7720181224 5.16602e-05 0.0001676996 0.0001249343 0.000140361 -0.3349374852 0.7774514929
575296550.0 -0.3352607351 0.7766834728 0.0001437816 7.16596e-05 2.81577e-05 -4.41108e-05 -0.3269766566 0.7806733822
580296520.0 -0.3269636396 0.7792544812 4.32369e-05 -0.0001047448 -9.4185e-05 0.0001265241 -0.3188247596 0.7834004638
585296490.0 -0.3191432319 0.7829240983 -1.20863e-05 -9.42971e-05 0.0002481156 6.058e-06 -0.3109780173 0.7869490103
590296460.0 -0.3102877265 0.7857951727 -0.000220771 0.0002636164 -8.00438e-05 0.0001131369 -0.3037695357 0.7903544812
595296430.0 -0.3032499311 0.7880676828 -5.52408e-05 4.00334e-05 0.0001542635 3.78016e-05 -0.2953287921 0.7924470152
600296400.0 -0.2951480149 0.7919114649 -0.0003195083 -0.000114577 -0.0001348923 9.99311e-05 -0.2870372292 0.7953499828
605296370.0 -0.2885196148 0.7942328079 -1.95376e-05 3.4544e-06 0.0001862752 -0.0001042145 -0.2786053248 0.7987439347
610296340.0 -0.2794859349 0.7971835555 -0.0001554903 -0.0001175491 -3.64005e-05 -7.53107e-05 -0.2704442498 0.8012226164
615296310.0 -0.2710196266 0.7997866195 3.88638e-05 -1.31268e-05 -0.0001102578 -0.0001223281 -0.2618754889 0.803647987
620296280.0 -0.26343823 0.8021616562 -2.185e-07 0.0001696604 5.79367e-05 0.0001272556 -0.254859894 0.8068747002
625296250.0 -0.2555175729 0.8056038528 -6.17774e-05 -6.63072e-05 2.13396e-05 -0.0001158108 -0.2458382577 0.8085973616
630296220.0 -0.2462634981 0.807482307 0.0001728826 0.0002853705 1.73911e-05 -0.0001029121 -0.2382255509 0.8114586865
635296190.0 -0.2388751835 0.8101877793 0.0002615214 1.81939e-05 -5.06727e-05 -0.0001598546 -0.2297937655 0.8132994596
640296160.0 -0.2317600441 0.8128230062 0.0001172829 8.72124e-05 0.0001485639 0.0001484646 -0.2216919698 0.8165374261
645296130.0 -0.2232122651 0.8153094865 5.9665e-06 4.2818e-06 7.32008e-05 -5.29744e-05 -0.2138386875 0.8183701416
650296100.0 -0.2148822374 0.8167191216 -0.0001797718 0.0001447066 3.20039e-05 -3.18622e-05 -0.2056407288 0.8199686782
655296070.0 -0.2067822745 0.818730281 0.0001136429 0.0001375018 3.3925e-06 6.13557e-05 -0.1971127197 0.821758619
660296040.0 -0.1984833352 0.8205912887 -0.0001628037 -0.0001945805 -2.93928e-05 -0.00015661 -0.1883452017 0.8241335085
665296010.0 -0.1898044043 0.8225135695 0.0002305962 -3.74882e-05 -0.0001517911 7.1286e-06 -0.1799002438 0.8256942074
670295980.0 -0.1823186591 0.8243733988 3.15636e-05 0.0002086048 -5.16155e-05 6.20929e-05 -0.1725474314 0.8274757012
675295950.0 -0.1737917135 0.825554577 -4.4399e-06 -0.0001651727 4.6358e-05 -7.55736e-05 -0.1644823012 0.8294621523
680295920.0 -0.1655291511 0.8279811322 0.0001102346 8.82425e-05 3.18092e-05 -0.0001533963 -0.1555705049 0.8317425495
685295890.0 -0.1571238378 0.83011644 -0.0001317653 -7.18909e-05 0.000134347 -7.34541e-05 -0.1469889952 0.8320640138
690295860.0 -0.1494901977 0.8311346248 0.0001179497 -0.0001016798 -2.53571e-05 0.0001352684 -0.1387778285 0.8336901528
695295830.0 -0.140713913 0.831755683 9.08929e-05 4.58592e-05 -7.09377e-05 -0.0001504356 -0.1301448748 0.8351246505
700295800.0 -0.1320437457 0.8338176844 -6.56372e-05 0.0001560588 9.8038e-05 -0.0002339729 -0.1228549821 0.8364274
705295770.0 -0.1244277154 0.835343023 -7.20274e-05 0.0001728535 0.0001522371 -0.0001075858 -0.114616981 0.8377152727
710295740.0 -0.1161740469 0.8365989839 0.0001415442 4.24666e-05 1.17714e-05 8.40642e-05 -0.1057697211 0.8381997339
715295710.0 -0.1079797105 0.8373092609 1.09988e-05 3.36288e-05 -0.0001023826 5.57159e-05 -0.0972245033 0.8395502291
720295680.0 -0.0996985057 0.8384319385 -9.13548e-05 -0.0001363677 -4.50485e-05 8.69822e-05 -0.0886305034 0.840667708
725295650.0 -0.091233469 0.8401826775 5.47382e-05 0.0001797546 -0.0001772484 4.77351e-05 -0.0804625248 0.8420343457
730295620.0 -0.0826099615 0.8402308715 -8.08068e-05 2.90917e-05 4.20656e-05 0.0001182073 -0.0725933355 0.8423174223
735295590.0 -0.0748109647 0.8415093501 0.0001954907 -8.33463e-05 -3.76733e-05 0.0001189579 -0.0638553542 0.8426434473
740295560.0 -0.0662682814 0.8423435211 -0.0002205091 3.937e-06 -4.23089e-05 -9.45047e-05 -0.0546205851 0.8439668139
745295530.0 -0.0580403049 0.8424869809 -3.11879e-05 -4.85742e-05 -1.42761e-05 5.72532e-05 -0.0465159676 0.8434724123
750295500.0 -0.0492190542 0.8434538822 -0.0001014833 -7.76473e-05 -0.0001550502 -2.71247e-05 -0.0383318028 0.8443360935
755295470.0 -0.0408825338 0.843197022 -2.62369e-05 -3.94517e-05 -1.92963e-05 -1.7326e-06 -0.0294019496 0.8441838202
760295440.0 -0.0331851041 0.8437019791 4.94224e-05 9.34557e-05 0.0002132728 1.06716e-05 -0.0214975003 0.8446497239
765295410.0 -0.0249846915 0.8437195629 0.0002829163 -7.56482e-05 -6.08469e-05 -2.52345e-05 -0.0127582085 0.8453188364
770295380.0 -0.0166125766 0.8441916181 1.96692e-05 1.41532e-05 -7.36899e-05 6.42558e-05 -0.0046743805 0.845198611
775295350.0 -0.0082486873 0.8443761766 -7.35434e-05 -2.86229e-05 -0.0002473423 0.0001109572 0.0034517611 0.845011933
780295320.0 0.0004901262 0.8444024428 -3.65314e-05 -9.46838e-05 5.3445e-06 2.2968e-05 0.0119554801 0.8445764837
785295290.0 0.008488418 0.8437512472 0.0001645387 -9.72711e-05 5.75106e-05 -5.40717e-05 0.0208781151 0.8442035416
790295260.0 0.0171596852 0.8438776135 -0.0001265644 -0.0003274009 -0.0001196927 3.65833e-05 0.0294362797 0.8447640522
795295230.0 0.0251429458 0.8430609324 5.75807e-05 -3.77796e-05 8.03733e-05 0.0001653677 0.0383802311 0.8439865866
800295200.0 0.0332283386 0.8434321415 -7.32741e-05 7.34465e-05 -2.77605e-05 -8.58795e-05 0.0465440919 0.8436155136
805295170.0 0.0425441231 0.8432760001 0.000128564 -5.0042e-06 -0.0001061344 3.06236e-05 0.0546342711 0.8436108233
810295140.0 0.0505939145 0.842890777 2.81095e-05 -2.5852e-06 7.99608e-05 -4.17593e-05 0.0626322502 0.8425630353
815295110.0 0.0589778667 0.841974805 -8.36521e-05 -0.000180335 -0.0001663736 0.0001656295 0.071905327 0.8421222139
820295080.0 0.0670849577 0.8412412954 0.0002146169 -9.298e-07 -5.64527e-05 -7.5743e-06 0.0800753802 0.841382588
825295050.0 0.0763498729 0.840843616 -0.0001352883 0.000262143 2.55835e-05 0.0001347004 0.0883111449 0.8406586699
830295020.0 0.0836166555 0.8401963258 3.84399e-05 7.24139e-05 -6.06292e-05 -9.95152e-05 0.0973225519 0.8390853277
835294990.0 0.0918605178 0.8394423183 0.0002441078 -4.32423e-05 8.61711e-05 -1.46673e-05 0.1044371723 0.8385770536
840294960.0 0.0996999164 0.8388816515 -0.0002741063 -5.80396e-05 -0.0001176437 0.0001510136 0.1131516862 0.8371180132
845294930.0 0.1082643787 0.8370906422 1.8241e-05 -1.50837e-05 -7.37674e-05 -4.25302e-05 0.1209327143 0.8357912899
850294900.0 0.1168648875 0.8365634704 0.0001075839 6.23385e-05 -0.0001098452 9.86976e-05 0.1294991047 0.8344401045
