!Created with skrf (http://scikit-rf.org).
# Hz S RI R 50.0 
!freq ReS11 ImS11 ReS21 ImS21 ReS12 ImS12 ReS22 ImS22
300000.0 0.8605731061 -0.0011917429 -0.0007776854 0.0005284542 -0.0007843034 9.45075e-05 -0.7629170766 -0.1944392627
5299970.0 0.8597294001 -0.0103474404 -0.0003036849 -4.14755e-05 0.0001419041 8.1676e-06 -0.7854972002 -0.0097539928
10299940.0 0.858360432 -0.018673927 3.52314e-05 -9.36814e-05 3.83726e-05 -0.0001243365 -0.7877235875 -0.0048933461
15299910.0 0.8579373865 -0.02715556 -3.08657e-05 7.86169e-05 6.42769e-05 -2.42012e-05 -0.7932100221 -0.0027734713
20299880.0 0.8568055811 -0.0355061133 -0.0001562354 -0.0001330638 3.1561e-06 -7.58825e-05 -0.7999457937 0.001913751
25299850.0 0.8559725793 -0.0437041744 -1.01448e-05 0.0002247643 2.86016e-05 0.0001309736 -0.8061690173 0.0082076339
30299820.0 0.8558912218 -0.0521017739 0.0002398474 -0.0001274087 8.58068e-05 -0.0001038962 -0.8121970774 0.0155979871
35299790.0 0.8552584211 -0.060082996 -0.0001058966 -5.13254e-05 -0.0001942692 0.0001498986 -0.8169200043 0.0246013853
40299760.0 0.8547840272 -0.0679666472 -0.0002736927 0.0001373011 -2.09849e-05 0.0002763563 -0.8212507476 0.0341756022
45299730.0 0.8531706486 -0.0765529667 0.0001244175 0.0001651895 1.88777e-05 0.000163614 -0.8245725801 0.0433643917
50299700.0 0.8526059154 -0.0842423509 3.88774e-05 -0.0002114224 1.13205e-05 6.59525e-05 -0.8267142953 0.0536016027
55299670.0 0.8521351645 -0.092790325 8.08328e-05 0.0001355343 7.09309e-05 1.88651e-05 -0.8286340604 0.0638856855
60299640.0 0.8512752564 -0.1006343572 -3.3446e-05 -6.19655e-05 -9.1504e-05 9.42743e-05 -0.8297307509 0.073829116
65299610.0 0.8500382477 -0.1093168201 -0.0001770436 -1.45411e-05 0.0001108993 2.83873e-05 -0.8305239914 0.0835237791
70299580.0 0.8483979548 -0.1174642509 -0.0001608647 7.0882e-05 8.26807e-05 2.34737e-05 -0.8313765061 0.0938298865
75299550.0 0.8473867532 -0.1251719774 0.0001113098 0.0001485106 -8.84075e-05 3.24897e-05 -0.8309843325 0.1040247597
80299520.0 0.8460887483 -0.1331454971 2.62964e-05 6.9342e-06 0.0001089026 -9.24929e-05 -0.8310311311 0.1138874701
85299490.0 0.8449543439 -0.1419038495 0.0001688061 1.35574e-05 7.39034e-05 -0.0001016943 -0.8301690583 0.1233306254
90299460.0 0.84428586 -0.150037471 0.0001473926 6.62276e-05 -0.000121408 -3.02261e-05 -0.8287688006 0.1326538763
95299430.0 0.8422067402 -0.1582348692 8.4616e-06 -7.2922e-05 -8.32413e-05 0.0001683383 -0.8284357872 0.1425861741
100299400.0 0.8403818521 -0.1660615127 2.72257e-05 -5.02902e-05 -1.9214e-06 0.0001341893 -0.8273769602 0.1517335456
105299370.0 0.8391041014 -0.1742700615 3.13374e-05 0.000207644 4.8638e-06 -5.38379e-05 -0.8260680568 0.1608396306
110299340.0 0.8374574863 -0.1830324931 0.0003512113 7.95147e-05 -0.00014566 0.0001079129 -0.8247067546 0.1699059728
115299310.0 0.8358397656 -0.1906521641 -8.6127e-06 8.54569e-05 -0.0002025778 9.35454e-05 -0.8232456071 0.1795013481
120299280.0 0.8337343916 -0.1985805916 0.000122733 -2.45575e-05 0.0002036119 0.0002667406 -0.8209333228 0.1877813214
125299250.0 0.8318595121 -0.2063710843 -2.26523e-05 -3.99383e-05 -4.4312e-06 0.0001026663 -0.8198667264 0.1968547775
130299220.0 0.8297750656 -0.2145920969 -0.0001038332 -0.0001266232 -0.0001987208 -0.0001540572 -0.8178835053 0.2056512163
135299190.0 0.8284250398 -0.2228196738 -0.0001280597 -8.57282e-05 6.98726e-05 1.23365e-05 -0.8162776332 0.2152817188
140299160.0 0.8257776844 -0.2294338112 5.54108e-05 0.0001745468 -8.1595e-06 -0.0002006756 -0.8141814027 0.2232858003
145299130.0 0.8231810425 -0.2380279402 2.87088e-05 8.47119e-05 1.30747e-05 0.0001356728 -0.8119656936 0.2324225169
150299100.0 0.820914484 -0.2458272883 0.0001031919 6.74043e-05 -3.52221e-05 -1.3727e-06 -0.8094457221 0.2412969923
155299070.0 0.818430378 -0.2537229259 9.58747e-05 -0.0001286997 -2.03366e-05 -5.06834e-05 -0.8077218449 0.2502572458
160299040.0 0.8160465383 -0.2618363687 6.15401e-05 -0.0001881179 1.90571e-05 -0.0001028857 -0.8047563434 0.2587980717
165299010.0 0.8139447553 -0.2697687106 -0.0001723902 -0.0001298207 0.0001497876 -8.32927e-05 -0.8017125309 0.2672630296
170298980.0 0.8117159499 -0.2778635103 -0.0001285058 -0.0001801001 -3.23472e-05 -0.0001799959 -0.8001297743 0.2758430556
175298950.0 0.8086995871 -0.2854453798 6.08538e-05 8.7817e-06 3.55337e-05 -0.0001210739 -0.7967321646 0.285188735
180298920.0 0.80577264 -0.2928471998 -0.0001348335 -0.0002310638 -3.27847e-05 -7.93047e-05 -0.7930758553 0.2931614448
185298890.0 0.8028071786 -0.3008821453 8.873e-06 7.10999e-05 -0.0001499016 -8.17893e-05 -0.7905673275 0.3016014365
190298860.0 0.7998551386 -0.3088550868 -0.0002425211 0.000163709 0.0001143128 -0.0001256167 -0.7873845155 0.3096130838
195298830.0 0.7970207263 -0.315899385 0.0001066963 0.0001521553 4.5454e-06 -1.57683e-05 -0.7842107406 0.3181015317
200298800.0 0.7938407306 -0.3233682037 -0.0003458514 0.0002339777 -0.0001397638 -4.14029e-05 -0.7812282386 0.3268225486
205298770.0 0.7909360121 -0.3319501145 -4.16169e-05 0.000263465 -0.0001331846 -0.000127118 -0.7778069925 0.3351238913
210298740.0 0.7878438953 -0.3385252554 7.33945e-05 -4.25266e-05 0.0001441243 -0.0001580832 -0.7743133868 0.3430597757
215298710.0 0.7848134782 -0.3468033743 0.0001736267 -0.0001628094 5.66051e-05 -0.0001883397 -0.7703615125 0.3512759136
220298680.0 0.7808492762 -0.3540853021 0.0001582451 -4.12648e-05 -0.0001130418 1.53583e-05 -0.7666906118 0.3593431875
225298650.0 0.7773706545 -0.3616144958 4.01615e-05 -0.0001174064 -0.000157064 0.0001331803 -0.7632228342 0.3677943655
230298620.0 0.7730954251 -0.3681541255 0.0001131157 -5.40815e-05 0.0002022774 0.0002263702 -0.7588542602 0.3750784892
235298590.0 0.7703392917 -0.3760608004 -6.20816e-05 0.0002175235 6.70477e-05 2.63322e-05 -0.7552866868 0.38322906
240298560.0 0.7663477507 -0.3836685318 0.0001330945 7.7537e-05 7.86669e-05 0.0001589681 -0.7510033654 0.3908943996
245298530.0 0.7624653623 -0.3905218464 -0.0001649245 3.7612e-05 3.56654e-05 -4.78247e-05 -0.7477836278 0.3992037222
250298500.0 0.7592885691 -0.3982901246 -0.0001180253 7.26985e-05 -6.45736e-05 0.0001819445 -0.7427399335 0.4070436801
255298470.0 0.7551862797 -0.4049572708 -9.16207e-05 6.69438e-05 1.64514e-05 -0.0001039369 -0.7390882039 0.4145722208
260298440.0 0.7514550808 -0.4125381151 5.03757e-05 -0.000259063 6.29494e-05 0.000101788 -0.7339580568 0.4218473575
265298410.0 0.7460927901 -0.4199514666 4.1417e-05 -2.91793e-05 9.18521e-05 8.99878e-05 -0.7299343996 0.4300177669
270298380.0 0.743429236 -0.4264822281 -1.37476e-05 -7.11434e-05 -6.15513e-05 -3.26775e-05 -0.7252803555 0.4384263998
275298350.0 0.7393367523 -0.4336180748 1.99238e-05 -6.25703e-05 -0.0001985665 -0.0001073235 -0.7208109881 0.445473402
280298320.0 0.734737932 -0.4411608697 -0.0001437794 -2.65119e-05 2.39174e-05 -5.5006e-05 -0.7164544398 0.4526985878
285298290.0 0.7308835712 -0.4484894081 -3.59236e-05 -0.0001491354 0.0001694119 0.0001732004 -0.7122862628 0.4608511341
290298260.0 0.725710668 -0.4553376538 -7.59249e-05 -8.07834e-05 0.0002149231 -0.0001197706 -0.7069654435 0.4680535771
295298230.0 0.7225308161 -0.4629247878 -6.00055e-05 -6.99332e-05 -0.0001802207 -2.1168e-05 -0.7017244617 0.4749050436
300298200.0 0.7185859685 -0.4694854258 9.55519e-05 2.8655e-05 3.44026e-05 9.93198e-05 -0.6964382879 0.4825325245
305298170.0 0.7137546466 -0.4769023696 -3.48423e-05 -0.0001011516 -9.0539e-05 8.11363e-05 -0.6912521316 0.4894997026
310298140.0 0.7089500964 -0.4851491471 -0.0001173558 9.46476e-05 7.73779e-05 0.0001493825 -0.6862924378 0.4971411964
315298110.0 0.704299895 -0.4918372774 6.89496e-05 -7.38919e-05 6.37132e-05 -3.83741e-05 -0.6811462403 0.5039968013
320298080.0 0.6984456479 -0.4987886831 3.42792e-05 0.0001069065 -9.43282e-05 2.62242e-05 -0.6757964499 0.5103293517
325298050.0 0.6924387234 -0.5067374536 -0.0001135565 8.16358e-05 -0.0001462848 -0.0001013922 -0.670037718 0.5173038033
330298020.0 0.6858643733 -0.5133856993 -0.0002160028 -5.54705e-05 -5.19643e-05 0.0001311901 -0.6650628482 0.5246527775
335297990.0 0.6813177903 -0.5186321382 -9.72367e-05 6.07852e-05 -3.61721e-05 0.0001044789 -0.6595207499 0.5317577288
340297960.0 0.6755055374 -0.5251991712 7.13537e-05 -0.0001414491 0.0001709444 8.10425e-05 -0.6542022905 0.5380379367
345297930.0 0.6703792816 -0.5321110341 -0.0001921347 -2.92956e-05 5.91525e-05 2.56731e-05 -0.6489477869 0.5450012899
350297900.0 0.6653632825 -0.5379159516 4.6992e-06 4.94807e-05 6.15748e-05 -2.96873e-05 -0.6434657537 0.5511761978
355297870.0 0.6598397471 -0.5448532525 -0.0001495082 4.06436e-05 -0.0001120253 -0.0001442328 -0.6369112502 0.5585749401
360297840.0 0.654056305 -0.5507696711 4.66759e-05 1.58373e-05 -5.41522e-05 -0.0001466357 -0.6308663712 0.5646961351
365297810.0 0.6486962077 -0.556802313 -5.68671e-05 4.67368e-05 7.46619e-05 -0.0001611338 -0.6260869702 0.5705136256
370297780.0 0.6432583607 -0.5628378293 -0.000173502 0.0001450051 -0.000166075 -3.96607e-05 -0.6199514979 0.5777750725
375297750.0 0.6373362887 -0.5688336877 -6.32592e-05 -7.1353e-05 4.78522e-05 7.13028e-05 -0.6134241081 0.583333088
380297720.0 0.6315913508 -0.5742720708 -0.0001321057 -5.83546e-05 3.96413e-05 -0.0001943358 -0.6067639517 0.5903186684
385297690.0 0.626393431 -0.5807101124 0.0002305858 2.26002e-05 2.05478e-05 -4.7746e-06 -0.6014864557 0.596125778
390297660.0 0.6212972143 -0.5871045871 -3.15521e-05 -8.56222e-05 1.96511e-05 -8.76309e-05 -0.5947061795 0.601791713
395297630.0 0.6153067522 -0.592126473 0.0001070486 4.9723e-05 1.96629e-05 2.28907e-05 -0.5885210215 0.6075180443
400297600.0 0.6084277445 -0.5986737921 -0.0001304522 0.0001796296 7.63461e-05 -6.62644e-05 -0.5828421543 0.6140790536
405297570.0 0.6036509151 -0.604489619 0.0001896972 8.49349e-05 -0.000138159 0.0001051654 -0.575726417 0.6199089098
410297540.0 0.5985158591 -0.6096161957 -0.0002068082 -6.23e-06 -3.08309e-05 0.0002444036 -0.5691997806 0.6257281758
415297510.0 0.5914332907 -0.6156297611 -0.0002358487 -9.50577e-05 1.93529e-05 -0.0001415887 -0.562821185 0.6316809227
420297480.0 0.5854758472 -0.6220482447 2.24075e-05 2.9668e-05 -0.0001357856 -0.0001791287 -0.5562338681 0.6380017188
425297450.0 0.5798472038 -0.6267055536 9.77786e-05 -1.47664e-05 0.0001008886 -0.0001175265 -0.5499533794 0.6422808363
430297420.0 0.5736006415 -0.632791756 -3.68081e-05 -1.35348e-05 -5.05553e-05 0.000174525 -0.5431245384 0.6486614374
435297390.0 0.5668552474 -0.6383979665 2.69424e-05 2.63043e-05 -7.02769e-05 -7.9804e-06 -0.5365482994 0.6543823177
440297360.0 0.5611700774 -0.6438588009 -0.0001188086 -1.29122e-05 -7.69382e-05 0.0002165994 -0.5302692717 0.6595786089
445297330.0 0.5555769394 -0.6489105175 -8.62233e-05 -6.15502e-05 -0.0001166907 -0.0001190502 -0.5225917712 0.664813022
450297300.0 0.5495281835 -0.6548476561 -4.91773e-05 0.0001968365 9.9695e-05 0.0001713942 -0.5158772417 0.6696789473
455297270.0 0.5420822576 -0.6596534954 3.48039e-05 4.16821e-05 -3.27962e-05 7.49878e-05 -0.509197078 0.6755480803
460297240.0 0.5360025871 -0.6649242861 -0.0002093039 6.31239e-05 4.71724e-05 -0.0001602307 -0.5024399696 0.6798503086
465297210.0 0.529542074 -0.6699933549 7.24329e-05 0.0001424586 8.93545e-05 -0.0001115586 -0.4954751768 0.685643922
470297180.0 0.523135196 -0.6748155544 4.78284e-05 -7.79238e-05 5.14057e-05 -1.52638e-05 -0.4882123117 0.690285398
475297150.0 0.5156404721 -0.6801438505 3.3873e-05 -5.1013e-05 -0.0001520824 0.0001947323 -0.4815532124 0.6953482112
480297120.0 0.5097593847 -0.6849026156 -2.20247e-05 0.0003332672 -8.00173e-05 -7.3309e-06 -0.4742243035 0.6999069344
485297090.0 0.5027804158 -0.6895190012 -0.000153665 0.0002245861 -0.0001291371 -2.77253e-05 -0.4670902357 0.70454144
490297060.0 0.4965868793 -0.6940863288 -9.84289e-05 -0.0001762823 -0.0001309535 -5.73769e-05 -0.4596745361 0.7086311882
495297030.0 0.4898640663 -0.6996167044 2.16454e-05 -1.6001e-06 8.69992e-05 -0.0002891385 -0.4524785765 0.7136580208
500297000.0 0.483360197 -0.7040606057 -0.0002344022 -3.9342e-06 -3.79684e-05 -0.0001180235 -0.4451284984 0.718558378
505296970.0 0.4760716592 -0.7088241523 7.54211e-05 -0.0001109331 -7.26772e-05 -7.56654e-05 -0.4380706982 0.7227748786
510296940.0 0.4689738994 -0.7132516394 7.6456e-05 2.62027e-05 -6.06367e-05 -9.18411e-05 -0.4301313834 0.7274869011
515296910.0 0.4621704253 -0.7180829594 -0.000183373 -9.54395e-05 -1.72781e-05 -4.54626e-05 -0.4229611417 0.7307244379
520296880.0 0.4564740155 -0.7225348314 1.78763e-05 -0.0001259042 4.59189e-05 -0.0001201187 -0.4152290249 0.7360045038
525296850.0 0.4493306038 -0.7268412493 -0.0001644805 -2.03708e-05 -0.0001641502 -4.23439e-05 -0.4081453252 0.7395071005
530296820.0 0.4419038493 -0.7313983648 -0.000223016 8.54491e-05 0.0001910495 8.88625e-05 -0.4003681425 0.7435763734
535296790.0 0.4350229881 -0.7350297038 -4.51388e-05 -2.22704e-05 0.0002356036 -0.0001938347 -0.3931557344 0.7477180595
540296760.0 0.4283819188 -0.738851251 -2.71452e-05 1.56722e-05 1.6898e-06 -0.0001021963 -0.3850890351 0.7514216825
545296730.0 0.4201480665 -0.7439188766 -0.0001584857 8.91968e-05 5.5505e-06 -5.56102e-05 -0.3777587666 0.755413594
550296700.0 0.4133360166 -0.7473249139 -0.0001524482 -8.39972e-05 6.00503e-05 -4.87732e-05 -0.3699822537 0.7589289031
555296670.0 0.406086218 -0.7513274301 -4.96277e-05 8.26196e-05 0.0001186339 4.78365e-05 -0.3626104454 0.7623662266
560296640.0 0.3992879141 -0.7547879663 7.79794e-05 0.0001268227 5.5155e-06 0.0002114755 -0.3545504766 0.7665347476
565296610.0 0.3916547357 -0.7587979871 -0.00013695 -0.0001131279 0.0001258934 7.00462e-05 -0.3467462222 0.7696651668
570296580.0 0.3841368325 -0.7624837038 6.57457e-05 0.0001475645 -3.44281e-05 -5.84581e-05 -0.3393137351 0.7732191619
575296550.0 0.3769240513 -0.7664132262 1.54097e-05 0.0001422288 5.8477e-05 0.0001160538 -0.3311180321 0.7763049469
580296520.0 0.3695097482 -0.7694323015 -6.4129e-06 0.0002322894 -0.0001417296 -0.0001715815 -0.3234082674 0.7798095993
585296490.0 0.3618664379 -0.7725203563 2.41091e-05 -0.000258811 -0.0001281987 0.0001624095 -0.3154668496 0.7832183201
590296460.0 0.3540443135 -0.7756121027 0.0001214755 -3.07277e-05 9.68992e-05 -7.53207e-05 -0.3080833857 0.7859584585
595296430.0 0.3467756951 -0.7799010391 -0.000137573 0.0002012132 0.0001241287 -0.0001544874 -0.2998759914 0.7891509753
600296400.0 0.3392738941 -0.7830895844 0.0001673894 -6.78899e-05 0.0001018095 6.8648e-06 -0.291683798 0.7916522751
605296370.0 0.3307275014 -0.7864018164 -8.03649e-05 0.0001272028 -7.13484e-05 8.65212e-05 -0.2839115678 0.7953950478
610296340.0 0.3237135865 -0.7894794579 7.02018e-05 2.34653e-05 7.42496e-05 -5.13279e-05 -0.2759982963 0.7977789827
615296310.0 0.3158247753 -0.7920578344 6.9742e-05 -0.0001258837 3.64611e-05 -3.98812e-05 -0.2676029751 0.8006132018
620296280.0 0.3082950296 -0.7942968976 1.81781e-05 -0.0002100396 -0.0001554015 -7.95713e-05 -0.2600240256 0.8032208367
625296250.0 0.2999228147 -0.797578371 3.56505e-05 -0.0001463371 -0.0001252333 8.69969e-05 -0.251582118 0.8047582043
630296220.0 0.2916976849 -0.8002488449 0.0001161878 8.6082e-06 -5.4836e-05 -0.0001075779 -0.2438059402 0.8078804662
635296190.0 0.2836412875 -0.8027329673 -4.72582e-05 2.58089e-05 -4.13463e-05 0.0002402996 -0.2352465405 0.8100087368
640296160.0 0.2760903633 -0.8058836793 -4.29295e-05 -0.0001371249 2.71888e-05 0.0001003877 -0.2273499805 0.8127583084
645296130.0 0.2691757071 -0.808330493 -4.06508e-05 0.0002266483 6.67494e-05 8.86163e-05 -0.2198714644 0.8147480911
650296100.0 0.2605686922 -0.8105275999 -8.1394e-06 2.51961e-05 -2.7653e-06 3.24356e-05 -0.2107648025 0.8170386305
655296070.0 0.2526262795 -0.8129884145 5.96274e-05 9.43707e-05 3.80859e-05 -0.0001243846 -0.2033701496 0.8191872738
660296040.0 0.243450022 -0.8145276677 -0.0001334033 8.39282e-05 3.05627e-05 3.43324e-05 -0.1946003153 0.8213290649
665296010.0 0.2362415229 -0.8171842194 -0.0001040588 5.1452e-05 0.0001035923 3.4305e-06 -0.1865026093 0.8222677081
670295980.0 0.2279922806 -0.8189344592 -3.83042e-05 -5.8535e-06 8.75764e-05 3.48704e-05 -0.1783844976 0.8242694321
675295950.0 0.219654255 -0.8214588151 -6.20533e-05 0.0001782422 -2.854e-07 -8.5389e-05 -0.169904721 0.8263154996
680295920.0 0.2115557568 -0.8232397544 0.0001685419 4.58603e-05 5.69256e-05 -0.0001119955 -0.1614195496 0.8276683152
685295890.0 0.2031998453 -0.8242985354 0.0001570461 0.0001729267 9.67233e-05 0.000153092 -0.1534558445 0.8299222425
690295860.0 0.1952319222 -0.8264037907 -0.0001426956 -6.8183e-06 -7.71695e-05 0.000139338 -0.1448553545 0.8309656291
695295830.0 0.1868392507 -0.8283375482 1.50264e-05 -4.9915e-06 0.0002799411 0.0001302249 -0.1371903238 0.8329886144
700295800.0 0.1785077035 -0.829723233 -2.48828e-05 1.92496e-05 6.9e-08 0.0001583167 -0.1284091524 0.8333661658
705295770.0 0.1702733042 -0.8311588998 -1.78686e-05 8.1702e-05 -1.83574e-05 -7.88676e-05 -0.1202621429 0.8353884679
710295740.0 0.1618869238 -0.8323095623 1.6476e-05 -4.44844e-05 0.0001158054 2.3578e-06 -0.1116386026 0.8359228013
715295710.0 0.1538565958 -0.8334203533 -0.0002899668 -3.81126e-05 -9.1793e-06 -0.0001831402 -0.1034755093 0.8369520981
720295680.0 0.1455566863 -0.8352797227 -0.0002134287 2.73906e-05 0.0001272016 2.36437e-05 -0.0946312497 0.8378087335
725295650.0 0.1364900876 -0.8362509168 -4.26332e-05 0.0002141769 -9.72505e-05 0.0001784291 -0.0868420778 0.83931451
730295620.0 0.1286566063 -0.8375808527 5.75204e-05 0.0001193907 1.97179e-05 0.0001141849 -0.0789612563 0.8403563113
735295590.0 0.1204091686 -0.8384418168 -6.20716e-05 0.0001651663 0.0001430749 -0.000104542 -0.0697646171 0.8406019656
740295560.0 0.1116415798 -0.8395646404 8.41169e-05 0.0002453817 1.10083e-05 -6.93743e-05 -0.0615107968 0.8412954915
745295530.0 0.1033665224 -0.84004755 -6.736e-05 -6.41779e-05 -4.35227e-05 -0.000113492 -0.0535426118 0.8415497655
750295500.0 0.0949350681 -0.8409225944 -3.3784e-05 0.0001529934 0.0002514808 3.61007e-05 -0.0446795691 0.8423324583
755295470.0 0.0864179794 -0.8405010856 -9.23152e-05 -4.80463e-05 0.0002120981 4.06484e-05 -0.0367662802 0.8427251424
760295440.0 0.0783422492 -0.8412787861 0.0001021182 0.0001222102 0.0001232832 -4.44112e-05 -0.0281067356 0.8427438475
765295410.0 0.0695896492 -0.8424147436 8.10097e-05 9.0903e-06 -8.89995e-05 -9.50784e-05 -0.0198739754 0.8437912313
770295380.0 0.0615074832 -0.8420052532 -7.65364e-05 -0.0002024537 -0.0001614334 7.75077e-05 -0.0113369128 0.8431397777
775295350.0 0.0531667194 -0.8421566302 4.99131e-05 1.88659e-05 3.10748e-05 6.86152e-05 -0.0033147649 0.8431402821
780295320.0 0.044255698 -0.842681339 -0.0001790509 0.00025747 -5.9696e-05 7.82773e-05 0.0052408341 0.8435792662
785295290.0 0.0361263902 -0.8424891289 0.0001303855 -0.0001600023 -0.0001819251 3.3861e-05 0.0137311139 0.8437915489
790295260.0 0.0283095391 -0.843783572 -2.56159e-05 -0.000206066 -0.0001595104 4.47813e-05 0.021887607 0.8433835881
795295230.0 0.0200146106 -0.8436640148 -0.000130786 0.0002648683 0.0001311844 -5.18505e-05 0.0299986753 0.8425439077
800295200.0 0.0111140551 -0.8432944355 0.0001178851 -9.6185e-05 -3.36538e-05 8.21932e-05 0.0383969834 0.8423168514
805295170.0 0.0027475872 -0.8433230778 -6.22462e-05 5.75758e-05 0.0001627562 8.00572e-05 0.0472142529 0.8420811222
810295140.0 -0.0058203412 -0.8420674317 -0.0001480756 -0.000150538 9.85918e-05 4.94576e-05 0.0556135326 0.8411961177
815295110.0 -0.013954666 -0.8424481977 -3.25853e-05 -6.85167e-05 -5.8017e-06 2.24235e-05 0.0630909665 0.8411153423
820295080.0 -0.02202149 -0.8425012535 -5.97404e-05 -0.0001031293 -5.7219e-05 2.82924e-05 0.0712252532 0.8406372323
825295050.0 -0.0313732833 -0.8413577792 -1.07037e-05 -9.44214e-05 -0.0001197971 5.05888e-05 0.0800110131 0.8397922727
830295020.0 -0.0391483023 -0.8416013323 -7.9645e-06 8.34809e-05 -1.96364e-05 9.779e-07 0.0883763999 0.8380813611
835294990.0 -0.0470591156 -0.8407176935 0.0002160235 0.0002554418 1.9751e-05 6.39732e-05 0.0965585313 0.8379533589
840294960.0 -0.0553174992 -0.8402235149 9.93686e-05 5.37418e-05 -0.0001326515 4.76696e-05 0.1055971486 0.836733649
845294930.0 -0.0644928007 -0.8389749868 5.04402e-05 -3.94814e-05 3.45177e-05 -8.85558e-05 0.1137425722 0.8356804167
