!Created with skrf (http://scikit-rf.org).
# Hz S RI R 50.0 
!freq ReS11 ImS11 ReS21 ImS21 ReS12 ImS12 ReS22 ImS22
300000.0 -0.3139376297 -0.1286937973 0.372902837 0.0638758858 0.3726991314 0.0636141099 -0.3183876606 -0.1275766142
5299970.0 -0.3252462548 0.0030346323 0.3784088911 0.0030032681 0.3788697654 0.0035264438 -0.3257381324 0.0020784612
10299940.0 -0.3227169328 0.0143473348 0.3801241737 0.0027749699 0.3799780606 0.0027915479 -0.3234897579 0.0127166881
15299910.0 -0.3189183627 0.0225698414 0.3823068209 0.0024445536 0.3825378791 0.0028519147 -0.3207932875 0.020059488
20299880.0 -0.3156601849 0.0291453959 0.3851087898 0.0018098337 0.3855972047 0.0020782845 -0.3180608787 0.0260874793
25299850.0 -0.3115588497 0.0349296033 0.3885985847 0.0006567558 0.3886293666 0.0004060878 -0.3149751465 0.0311348005
30299820.0 -0.3082179419 0.0394692435 0.3918495161 -0.0018366032 0.3922088018 -0.0021027593 -0.3123017242 0.0358156068
35299790.0 -0.3045240608 0.0436877591 0.3949538787 -0.0052235695 0.3952609575 -0.0051735796 -0.309164793 0.0399960076
40299760.0 -0.3013149598 0.0470704105 0.3985744996 -0.0087643641 0.3983805025 -0.0088086935 -0.3064840011 0.0434967827
45299730.0 -0.2981078771 0.0499688147 0.4012050928 -0.012288923 0.4016346835 -0.0124025886 -0.3035787438 0.0465325438
50299700.0 -0.2948292557 0.0528033182 0.403867575 -0.0171871578 0.4035243291 -0.017089369 -0.3014050611 0.0496468331
55299670.0 -0.2923522183 0.0551847574 0.4059687719 -0.0212386892 0.4058030208 -0.0215782739 -0.2994250092 0.0523371068
60299640.0 -0.2896601258 0.0578050189 0.4080680388 -0.0267956797 0.4081117902 -0.0267020515 -0.2972219062 0.0548859553
65299610.0 -0.2873023381 0.0601256087 0.4097156223 -0.0317327453 0.4097509168 -0.0317848386 -0.2953757262 0.057467341
70299580.0 -0.2854205864 0.0618802858 0.4106600335 -0.0365883655 0.4109928551 -0.0366829298 -0.2937682932 0.0596472313
75299550.0 -0.283491746 0.0642981502 0.4118085166 -0.0424992278 0.4119345559 -0.0417018255 -0.2917382829 0.062558337
80299520.0 -0.2819389272 0.0664135577 0.4129818506 -0.047196849 0.413107963 -0.0475218439 -0.290659744 0.0647709989
85299490.0 -0.2797252565 0.068251659 0.4131480819 -0.0526636349 0.4137356099 -0.0525481752 -0.2893443541 0.0669077852
90299460.0 -0.2784722717 0.0706343766 0.413602326 -0.0582817444 0.4138034722 -0.0578143528 -0.2875532411 0.0694774083
95299430.0 -0.2765559998 0.0726387701 0.4136720025 -0.0631781436 0.4141858203 -0.0633803511 -0.2864716695 0.0721085688
100299400.0 -0.2752872573 0.0748334869 0.4140425184 -0.0682271623 0.4141107548 -0.0683372384 -0.2854723682 0.0743623763
105299370.0 -0.2739394327 0.0767194495 0.4136562477 -0.0731015702 0.4141672771 -0.0733068637 -0.2841547773 0.0762257191
110299340.0 -0.2728670394 0.0786084139 0.4138551302 -0.0778066568 0.4141544083 -0.0786594529 -0.2832438803 0.0787427778
115299310.0 -0.2716472242 0.08097245 0.4135744725 -0.0833390048 0.413806641 -0.0838499331 -0.2821200765 0.0816712649
120299280.0 -0.2706345604 0.0833444766 0.4133572535 -0.0889988574 0.4129168536 -0.0889647593 -0.2811629118 0.0831165199
125299250.0 -0.2692504053 0.08500959 0.4121307121 -0.093773236 0.4126600527 -0.0939547025 -0.2802048027 0.0858441463
130299220.0 -0.2683667901 0.0874675325 0.4119733589 -0.0989314358 0.4121431112 -0.0993797155 -0.2790906576 0.0883057254
135299190.0 -0.26712283 0.0902171514 0.4114843224 -0.1037038608 0.4114986733 -0.1043095725 -0.2785608333 0.0907144929
140299160.0 -0.2663189759 0.0919797063 0.4105331649 -0.1089902428 0.4105188654 -0.1089588924 -0.2777259877 0.0931670144
145299130.0 -0.2654397799 0.0945868026 0.4097970282 -0.1139749889 0.4096187469 -0.1139152437 -0.276598559 0.0956349154
150299100.0 -0.2639539922 0.0969443266 0.4083360813 -0.1189815524 0.4084755523 -0.1189882508 -0.2757159344 0.0984517222
155299070.0 -0.263187951 0.099732905 0.4069067335 -0.1240328312 0.4077672575 -0.1240709848 -0.2747004733 0.1013547387
160299040.0 -0.2626177169 0.1020035716 0.4065070745 -0.1283811456 0.4062587127 -0.1289743993 -0.2742621359 0.1034008571
165299010.0 -0.2609434462 0.1044134208 0.405068198 -0.1332471557 0.4049277227 -0.1338725276 -0.272776924 0.1058950504
170298980.0 -0.2602816281 0.1065621669 0.4036317979 -0.1380108472 0.403600911 -0.1384547624 -0.2721716577 0.1085283285
175298950.0 -0.259042488 0.1092497978 0.4021885458 -0.1432007043 0.4024429653 -0.1432652786 -0.2707431588 0.11151473
180298920.0 -0.2581409378 0.1116073541 0.400713471 -0.1476627733 0.4009057694 -0.1481381409 -0.2698818162 0.1139603326
185298890.0 -0.257165648 0.1145172578 0.3995744782 -0.1523842768 0.3992856548 -0.1526958724 -0.2687098633 0.116711756
190298860.0 -0.2557065966 0.1171938649 0.3969727586 -0.1572984255 0.397751097 -0.1571463051 -0.2679733862 0.1191915495
195298830.0 -0.2548892992 0.119950112 0.3961962265 -0.1619976229 0.3960645543 -0.1620559809 -0.2666294118 0.1220918245
200298800.0 -0.2536529078 0.1219769902 0.3943343538 -0.1668715698 0.39433631 -0.166752878 -0.2656024135 0.1247624533
205298770.0 -0.2525196416 0.1246872696 0.3920385485 -0.1706751669 0.3924363353 -0.1709575188 -0.2643992228 0.1271620811
210298740.0 -0.2518617049 0.1272504407 0.3907871385 -0.1755791751 0.3902893812 -0.1757683472 -0.2636034565 0.1299027305
215298710.0 -0.2503500977 0.1302008175 0.3885727469 -0.1798102575 0.3885826987 -0.1801561537 -0.2624168857 0.1325645478
220298680.0 -0.2489217731 0.1325308953 0.3865734502 -0.1845450898 0.3866468811 -0.1847925528 -0.2610064275 0.135462506
225298650.0 -0.2476989236 0.1352841036 0.3845295518 -0.1891238923 0.3847834781 -0.1887540074 -0.2598116087 0.1380103159
230298620.0 -0.2463333179 0.1381325983 0.3825641152 -0.1936462823 0.3831210647 -0.1936677559 -0.2587165502 0.1406699243
235298590.0 -0.2457823278 0.1405595062 0.3808047436 -0.1981435132 0.3808259395 -0.1976368896 -0.2576964475 0.1432299476
240298560.0 -0.243945212 0.1431379178 0.3781481884 -0.2018794217 0.3785793067 -0.2022055886 -0.256379418 0.1460773914
245298530.0 -0.2427848012 0.1457918473 0.3760277228 -0.2063610769 0.3763095117 -0.2067988712 -0.2547145632 0.1488263161
250298500.0 -0.241464492 0.1481828714 0.3740772066 -0.2103837747 0.3739026069 -0.2104425276 -0.2535659887 0.1514081462
255298470.0 -0.2400074501 0.1511835463 0.3716962324 -0.2148331527 0.3719372301 -0.2149917229 -0.2522139785 0.1540954342
260298440.0 -0.238764134 0.1535241176 0.3696177048 -0.2186138026 0.3691784104 -0.2188896218 -0.250614914 0.1568439865
265298410.0 -0.2374169937 0.1563023114 0.3668153871 -0.2235528676 0.366898489 -0.2238236974 -0.2489697175 0.1594462196
270298380.0 -0.2361560877 0.158652093 0.3643959095 -0.2272287599 0.3647020568 -0.227529859 -0.2474699004 0.1620597983
275298350.0 -0.2346222195 0.1614123391 0.3616482169 -0.231151554 0.3617007719 -0.2315122997 -0.2459046178 0.1650253733
280298320.0 -0.2334503306 0.1639419664 0.3598313017 -0.2350321639 0.3598404566 -0.2358604325 -0.2444290197 0.1677830367
285298290.0 -0.2316741008 0.166695152 0.3568670881 -0.2395140441 0.3570061066 -0.2397911608 -0.242855436 0.1702181785
290298260.0 -0.229842369 0.1694206356 0.3543583223 -0.2434274437 0.3544095604 -0.2436602624 -0.2412630329 0.1729102898
295298230.0 -0.2283315105 0.171683755 0.3512699934 -0.2477086086 0.3515223693 -0.248078298 -0.2393858022 0.1752880306
300298200.0 -0.2267243749 0.17448578 0.3486055678 -0.2518401599 0.349188543 -0.2516371333 -0.2377442015 0.1779679818
305298170.0 -0.2251962025 0.1763827637 0.3462633015 -0.255499605 0.3465384576 -0.2559172919 -0.2356733768 0.1802606557
310298140.0 -0.2232845949 0.17902941 0.3432935722 -0.2596040662 0.3435769596 -0.2594479605 -0.2340207213 0.1831154714
315298110.0 -0.2219357575 0.1813709309 0.3406648763 -0.2637015863 0.3408005329 -0.2636454652 -0.2321337019 0.1855647636
320298080.0 -0.2201332178 0.1836498384 0.3371142091 -0.2672042078 0.3380091937 -0.2675408934 -0.2305322013 0.1882960699
325298050.0 -0.2188002755 0.1858116153 0.3344139434 -0.2711574955 0.3351053251 -0.2712813275 -0.2284129374 0.1901519358
330298020.0 -0.2171338751 0.1884576769 0.3314913919 -0.2750405117 0.3319578086 -0.2751977782 -0.2269773151 0.1928190424
335297990.0 -0.2154569023 0.1907963576 0.3283053735 -0.2785398367 0.3285436113 -0.2786484686 -0.2249394265 0.1953591897
340297960.0 -0.2137536229 0.1934297231 0.3248558138 -0.2825512761 0.3250503201 -0.2823948488 -0.2233094363 0.1978736979
345297930.0 -0.2120351082 0.1957131151 0.3220432805 -0.2858566671 0.3219699223 -0.2860152934 -0.2210186539 0.200319885
350297900.0 -0.2101165097 0.1979454676 0.3189169118 -0.2887363198 0.3188311373 -0.2891673703 -0.2196529063 0.2025200006
355297870.0 -0.2082199827 0.2002148824 0.3155539683 -0.2928232415 0.3156666142 -0.2926950462 -0.2170453339 0.2054775477
360297840.0 -0.2066991453 0.2028003671 0.3124246288 -0.2963502167 0.3122475797 -0.2965780395 -0.2148959359 0.2080312703
365297810.0 -0.2045654066 0.2049716513 0.3090609495 -0.2995914227 0.309228895 -0.2996094236 -0.2135737565 0.2099804966
370297780.0 -0.2023677026 0.2072115843 0.3052483357 -0.303345684 0.3058908859 -0.3030167849 -0.2112996782 0.212871807
375297750.0 -0.2005667498 0.2094165695 0.3022497016 -0.3061569765 0.3024306785 -0.3064304412 -0.2091098728 0.214986929
380297720.0 -0.1985849506 0.2119201738 0.2991209395 -0.309837625 0.2989775332 -0.309964599 -0.2067098203 0.2175683692
385297690.0 -0.1966374865 0.2141630951 0.2953807926 -0.3130710585 0.2957411732 -0.3133313392 -0.2043824673 0.2201182879
390297660.0 -0.1940173088 0.2162726044 0.2919642544 -0.3158974735 0.2921712079 -0.3162073938 -0.2020107152 0.2219993451
395297630.0 -0.1919308922 0.2182923008 0.2884649162 -0.3190072567 0.2884884697 -0.3193275254 -0.1997880198 0.224344093
400297600.0 -0.1903191486 0.220754153 0.2852552381 -0.3228266079 0.2853307593 -0.3223868638 -0.197603744 0.2265354973
405297570.0 -0.1881148161 0.2221650745 0.2814503537 -0.3252250519 0.2817003987 -0.3257641244 -0.1948878599 0.2289107101
410297540.0 -0.1855556456 0.2248014009 0.2776291188 -0.3288137418 0.2780856897 -0.3285239892 -0.1929006289 0.2313869168
415297510.0 -0.1834207758 0.2270709146 0.2739624581 -0.3318609389 0.2747892316 -0.3319107264 -0.19056467 0.2333906065
420297480.0 -0.1813189357 0.2284720002 0.2704688556 -0.3344839317 0.2705402644 -0.3348679239 -0.1875223979 0.2361107926
425297450.0 -0.1788321529 0.2307852018 0.2668000372 -0.3373885679 0.2667547576 -0.3375718386 -0.185434629 0.2372811439
430297420.0 -0.1764287785 0.2327334712 0.2633343919 -0.3407822795 0.2634969142 -0.3404401178 -0.182896833 0.2401306405
435297390.0 -0.1740599254 0.2345494576 0.2594648642 -0.3437617245 0.2595180981 -0.3432982486 -0.1808222344 0.2423995171
440297360.0 -0.1716560237 0.2365537451 0.2556534977 -0.3463963451 0.2554968172 -0.3462537911 -0.1782267885 0.244445696
445297330.0 -0.1689030812 0.2382540129 0.2516614318 -0.3485863814 0.2520364231 -0.3491509111 -0.1755986521 0.2465824576
450297300.0 -0.1667666286 0.2403000974 0.2480761141 -0.3511995188 0.2484754004 -0.3516505781 -0.172854127 0.2483081922
455297270.0 -0.1646389851 0.241929563 0.2440487575 -0.3538613627 0.2442376036 -0.3546690499 -0.1700077811 0.2504513662
460297240.0 -0.1614383549 0.2442234615 0.240141489 -0.3573728947 0.2401471125 -0.3569414507 -0.1677027709 0.2520309041
465297210.0 -0.1588771547 0.2458289993 0.2358111135 -0.3596214285 0.2358232912 -0.359823247 -0.1648406166 0.254560996
470297180.0 -0.1565073082 0.2475449937 0.2322023525 -0.3618223708 0.2323845757 -0.362420515 -0.1621577532 0.2559811481
475297150.0 -0.1541294956 0.2494392582 0.2283454697 -0.3644920222 0.228418613 -0.3648364691 -0.1595330713 0.2581488429
480297120.0 -0.1509853845 0.2511086252 0.2239920313 -0.3671071659 0.2241431994 -0.3668592077 -0.1570561827 0.259947885
485297090.0 -0.148493113 0.2529540204 0.2200345324 -0.369454688 0.2199097624 -0.3693430579 -0.1543045971 0.2615153424
490297060.0 -0.1453918622 0.2545676387 0.2157624435 -0.3719537497 0.2161357352 -0.3721013205 -0.1515827289 0.2633495462
495297030.0 -0.1431110243 0.2557612822 0.2121809001 -0.3744076594 0.2119872269 -0.3743522617 -0.1481939604 0.2645544939
500297000.0 -0.1401522517 0.2577656216 0.2077724977 -0.3760901023 0.2078749753 -0.3766669188 -0.1456955345 0.2668641416
505296970.0 -0.1372960439 0.2595111853 0.2038212981 -0.3788385015 0.2037598414 -0.3785241857 -0.1430021493 0.2682163823
510296940.0 -0.1348009893 0.2610638595 0.1995843985 -0.3813337907 0.200098845 -0.3811855479 -0.1396230248 0.2703473277
515296910.0 -0.1316932427 0.2629948097 0.1951887735 -0.3834257128 0.1949789457 -0.3829116358 -0.1372721624 0.2713617985
520296880.0 -0.1288704575 0.2644976865 0.1907253929 -0.3852003432 0.1906313541 -0.38525215 -0.134065276 0.2735632686
525296850.0 -0.1257444436 0.2653684666 0.1865382517 -0.3867836948 0.1863784169 -0.3870577121 -0.1312459678 0.2749574138
530296820.0 -0.1234143384 0.2669561798 0.1822279797 -0.3891591071 0.1825378587 -0.389001368 -0.1286638021 0.2760522172
535296790.0 -0.1198794106 0.2684710029 0.1784703445 -0.3906670728 0.1783350083 -0.3911937274 -0.1251804033 0.2778254966
540296760.0 -0.1172178969 0.2700450875 0.1737547799 -0.3929985844 0.1738012211 -0.3931494825 -0.1225462463 0.2791874902
545296730.0 -0.1145379642 0.2719027243 0.1697883272 -0.3948886917 0.1695016373 -0.3948145356 -0.1195808985 0.2808931612
550296700.0 -0.1113150536 0.2730118338 0.1653186406 -0.3967400728 0.1649681149 -0.3964846708 -0.1165325589 0.2820502277
555296670.0 -0.1083192096 0.2742336559 0.1608869024 -0.398555712 0.1608630677 -0.398326113 -0.1136715405 0.2833051831
560296640.0 -0.1049561205 0.275378876 0.1563807504 -0.3999323001 0.1568304512 -0.4002211405 -0.110711976 0.2849293079
565296610.0 -0.1023882188 0.2772317926 0.152189991 -0.40190689 0.1520782234 -0.401411265 -0.1073412164 0.2862310453
570296580.0 -0.0996213407 0.2783438637 0.1476519167 -0.4033458095 0.1478093296 -0.403064677 -0.1047005778 0.287063035
575296550.0 -0.0959526783 0.2793300993 0.1436263566 -0.4047830584 0.1430926062 -0.4048250332 -0.1013078597 0.2885791811
580296520.0 -0.0933125485 0.2806028027 0.1388705001 -0.4058621589 0.139137256 -0.4064281709 -0.0990053924 0.2895968825
585296490.0 -0.0899783101 0.2819218348 0.1344237312 -0.4076763546 0.1343455186 -0.4077087842 -0.095268658 0.290921015
590296460.0 -0.0867168856 0.2830609139 0.1299567801 -0.4092188659 0.1301063334 -0.4093198264 -0.0923844959 0.2922242844
595296430.0 -0.0839342514 0.284124299 0.1252752265 -0.4103924993 0.1250768545 -0.4106693506 -0.0893546991 0.2931918247
600296400.0 -0.0808094301 0.285172984 0.1204691842 -0.4113703783 0.1208058507 -0.4119342215 -0.0861997518 0.2940984416
605296370.0 -0.0780274143 0.2862536334 0.1168666253 -0.4125450925 0.1162939574 -0.4132447612 -0.082952268 0.2953292352
610296340.0 -0.0745257789 0.2878020689 0.1122285807 -0.4140095978 0.1121633803 -0.4143568478 -0.0798412827 0.2963133701
615296310.0 -0.0712162997 0.2883415651 0.1072851555 -0.4156413316 0.1071363337 -0.4151915405 -0.07665317 0.297300622
620296280.0 -0.068550588 0.2898460681 0.1028073864 -0.4163499948 0.102751989 -0.4164299486 -0.073691529 0.2983875651
625296250.0 -0.0655329599 0.2904434235 0.0984322306 -0.4174529824 0.0983894946 -0.4174527449 -0.0707610917 0.2988631808
630296220.0 -0.0623416435 0.2913370143 0.0934826051 -0.4184780858 0.0934782004 -0.4183546269 -0.0673172277 0.2997234677
635296190.0 -0.059315868 0.2925031703 0.0895706378 -0.4193030212 0.0890216504 -0.4195906514 -0.0642048534 0.3008128466
640296160.0 -0.056016651 0.2934610978 0.0845974185 -0.4204451509 0.0843841506 -0.4205108773 -0.061099537 0.3015428865
645296130.0 -0.0528245991 0.2943410097 0.0803243844 -0.4211841106 0.079968468 -0.4210198496 -0.0580512641 0.3021929602
650296100.0 -0.0497328208 0.2949794676 0.075394188 -0.4223141052 0.0751030317 -0.4221890066 -0.0544253369 0.302902971
655296070.0 -0.0468001508 0.2958456964 0.0709889093 -0.4229246231 0.07078852 -0.4225921646 -0.0514274208 0.303987949
660296040.0 -0.0437112076 0.2965761775 0.06658709 -0.4235004673 0.0660319181 -0.4236493076 -0.0482439517 0.3042880707
665296010.0 -0.0404383517 0.2974022268 0.0611904169 -0.4238144995 0.0613536163 -0.423790126 -0.044982482 0.3048493564
670295980.0 -0.0371374313 0.2982545684 0.0565486858 -0.4245757385 0.0569244052 -0.4244026762 -0.0419838534 0.3054330696
675295950.0 -0.0341291469 0.2987444473 0.0525747473 -0.4251884778 0.0525435654 -0.4252486282 -0.0388010149 0.3061764136
680295920.0 -0.0311981561 0.2995057962 0.0479229649 -0.4254002116 0.0476931169 -0.4255762754 -0.0353546989 0.306970725
685295890.0 -0.0276539719 0.2999308745 0.0430042981 -0.4264596171 0.0430863566 -0.426186 -0.0321576065 0.307380589
690295860.0 -0.0246967323 0.3007579241 0.0386139081 -0.4264974975 0.0383630084 -0.4265668098 -0.0292555986 0.3078740458
695295830.0 -0.0213223404 0.3010699021 0.0340855018 -0.4269437672 0.0339021143 -0.4268333868 -0.0258841141 0.3083546228
700295800.0 -0.0184470398 0.3016225148 0.0296996325 -0.4270437838 0.0291586122 -0.427227311 -0.0223522101 0.3086873139
705295770.0 -0.0156100393 0.3022719587 0.0249436639 -0.4279384148 0.0248280679 -0.4274961691 -0.0191931745 0.3094824977
710295740.0 -0.0127987582 0.3022752746 0.0201939933 -0.4275287522 0.0200327721 -0.4279138162 -0.0162073594 0.3094496216
715295710.0 -0.0092590772 0.3029757266 0.0156967101 -0.4275567575 0.0152329909 -0.4279768519 -0.0128623566 0.3095871388
720295680.0 -0.0059645084 0.3032834156 0.0111432972 -0.4278430613 0.0107858134 -0.4283587186 -0.0096403913 0.3099529846
725295650.0 -0.003250171 0.3038709403 0.006736921 -0.4281286557 0.0064169052 -0.4280593271 -0.0066552924 0.3104116338
730295620.0 -0.0003488025 0.3039296726 0.0020333365 -0.4277413303 0.0017206379 -0.4281468226 -0.0031270123 0.3108452622
735295590.0 0.0028799493 0.3045004492 -0.0024625874 -0.4283285021 -0.0031854705 -0.4279935187 4.05786e-05 0.3107438413
740295560.0 0.0058558618 0.3042474223 -0.0072553097 -0.4278419659 -0.0074671072 -0.4281537076 0.0032600726 0.3110607499
745295530.0 0.009146059 0.3047838902 -0.0118557408 -0.4272591669 -0.011482026 -0.4275207387 0.0063015038 0.3109177776
750295500.0 0.0119644676 0.3049024203 -0.0161841157 -0.4273401123 -0.0167813214 -0.4277186423 0.0099288001 0.3113893291
755295470.0 0.0151434465 0.3048803033 -0.0207253894 -0.4275544214 -0.021240157 -0.4278081514 0.0129452803 0.3114367355
760295440.0 0.0184279267 0.3052958231 -0.0262562877 -0.4272251749 -0.0261258676 -0.4269684112 0.0164213997 0.3108290309
765295410.0 0.0215149323 0.304911142 -0.0302239991 -0.4267208657 -0.0302354837 -0.4268074681 0.0196523303 0.3111462277
770295380.0 0.0238960047 0.3052325425 -0.034640818 -0.4260789827 -0.0350341195 -0.4267682524 0.0226020823 0.3110026035
775295350.0 0.0275037926 0.3048766576 -0.0393170113 -0.4258724652 -0.0396174243 -0.4257698988 0.0262180103 0.3108969642
780295320.0 0.0302559882 0.3049040134 -0.0439413573 -0.424854357 -0.0442950825 -0.4252493611 0.0296728267 0.3108924702
785295290.0 0.0335533152 0.3048426042 -0.0485798997 -0.4248453563 -0.0487496453 -0.4250444805 0.032369314 0.3108220229
790295260.0 0.0367451 0.3045540444 -0.05302636 -0.4241592405 -0.0531550801 -0.4246230539 0.0355512613 0.3108366962
795295230.0 0.0396894142 0.3042226536 -0.0577788259 -0.4235796742 -0.057841994 -0.4239375878 0.0390389904 0.310014236
800295200.0 0.042847103 0.3045200608 -0.0620443606 -0.4230793262 -0.0623384896 -0.4231116731 0.042272269 0.3096565369
805295170.0 0.0457357728 0.304244457 -0.0662882991 -0.4219848517 -0.0668728758 -0.4222883571 0.0458941061 0.3093609934
810295140.0 0.0488992394 0.303860642 -0.071095982 -0.4213681954 -0.0713726492 -0.4216149836 0.0487510737 0.3092402146
815295110.0 0.0514625431 0.3034101081 -0.0757433643 -0.420533248 -0.0756639782 -0.4210025656 0.0517345368 0.3089662573
820295080.0 0.0543875386 0.3032897713 -0.0797321815 -0.4195942731 -0.0804155114 -0.4202200414 0.0548395254 0.3092509328
825295050.0 0.0576855542 0.3028021253 -0.0851255315 -0.4189962408 -0.0850706246 -0.4189479266 0.0585016262 0.3083338166
830295020.0 0.0607817926 0.3022405031 -0.089322428 -0.4178311547 -0.0897217686 -0.4180370505 0.0617297644 0.3074330539
