!Created with skrf (http://scikit-rf.org).
# Hz S RI R 50.0 
!freq ReS11 ImS11 ReS21 ImS21 ReS12 ImS12 ReS22 ImS22
300000.0 -0.7784263724 -0.1027737239 0.0001738931 0.0002522806 -0.0002914609 0.0005083539 -0.0513324725 -0.0612276657
5299970.0 -0.7852319887 -0.0057415044 -0.0002749245 5.89476e-05 0.0001391107 -4.30268e-05 -0.0499108847 0.0153456321
10299940.0 -0.7879230874 -0.0036113482 4.25914e-05 -9.47387e-05 -0.0001609373 -5.76095e-05 -0.0441243424 0.0337031096
15299910.0 -0.7934094942 -0.0019565953 3.22121e-05 -6.38393e-05 -7.13816e-05 2.94866e-05 -0.0357046994 0.0480924084
20299880.0 -0.8004612795 0.0021765649 4.2573e-05 9.6369e-06 -0.0001588061 6.05736e-05 -0.0253533589 0.0599706779
25299850.0 -0.8064840648 0.0077095087 -0.0001596136 3.55087e-05 -3.54695e-05 6.62345e-05 -0.0140576802 0.0691358697
30299820.0 -0.812557671 0.0155435615 -0.000204353 4.92247e-05 9.93274e-05 -2.37879e-05 -0.0021530806 0.0761234016
35299790.0 -0.8170588735 0.0252121824 -0.0001057264 7.4955e-06 -5.04032e-05 -0.0001016241 0.0093287503 0.0809388995
40299760.0 -0.8211576984 0.0338089227 -0.0001418958 2.86666e-05 0.0001171486 0.0001162274 0.0207396333 0.0834582437
45299730.0 -0.8246769399 0.0430188453 8.01e-06 0.0002223134 8.81093e-05 4.11732e-05 0.0315687812 0.0848606543
50299700.0 -0.827026257 0.052881841 0.0002339085 1.4426e-05 4.7412e-05 3.92547e-05 0.0413798604 0.0847643189
55299670.0 -0.8293457976 0.0632588307 -2.28801e-05 -0.0001280945 -6.52569e-05 -8.11899e-05 0.0507207875 0.0836260319
60299640.0 -0.8305230525 0.0731835873 0.0001249504 8.12135e-05 2.84698e-05 -6.6785e-05 0.0594215165 0.0816146654
65299610.0 -0.8311843777 0.0839006313 0.000305411 0.0002436988 -8.34393e-05 7.61249e-05 0.0669503585 0.0789061364
70299580.0 -0.8316909309 0.0936283985 8.32134e-05 -0.0001872723 -0.0001477292 -9.45326e-05 0.0740569969 0.0758067897
75299550.0 -0.8314326892 0.1037100061 0.0001502847 -1.95021e-05 4.253e-06 0.0001710441 0.0804379168 0.0723853896
80299520.0 -0.8323234098 0.1133615295 8.9445e-05 0.0001466157 -8.17886e-05 3.3526e-06 0.0860943003 0.0690583061
85299490.0 -0.8316666752 0.1230908702 -0.0001884057 -4.09545e-05 0.0001472175 8.7e-08 0.0909212362 0.0648307698
90299460.0 -0.8301697036 0.1324383178 0.0001313489 -0.0001859361 6.14e-05 0.000147221 0.0955748955 0.0610734845
95299430.0 -0.8289230912 0.1418741653 0.0001212929 0.0001427222 1.38961e-05 9.0677e-05 0.0996976229 0.0570482231
100299400.0 -0.8282809415 0.1508414053 0.0001485418 -0.0001784245 -0.0001406335 6.33537e-05 0.1034029051 0.0529272956
105299370.0 -0.8269436746 0.1606890941 -0.000100732 0.0003405284 -8.68786e-05 3.44517e-05 0.1070126858 0.0486102624
110299340.0 -0.825369377 0.1698973267 -0.0001076089 -4.08857e-05 -7.2545e-05 0.0001402541 0.1096862185 0.0446566103
115299310.0 -0.8237251552 0.1782040053 6.09781e-05 -0.0002449561 4.71349e-05 -0.0001895253 0.1121952977 0.0406188199
120299280.0 -0.822068704 0.1873013109 0.0001854579 5.224e-05 -3.37882e-05 3.97747e-05 0.1145633802 0.0367558096
125299250.0 -0.8202468166 0.1958322637 0.0001580203 1.34703e-05 0.000179628 0.0001121897 0.1163443993 0.0325348296
130299220.0 -0.8185673717 0.2054285075 -5.98681e-05 1.5895e-06 -0.0001888394 -8.5683e-05 0.1179586184 0.0286977403
135299190.0 -0.8166400275 0.2146211612 0.000110206 2.59051e-05 -2.41658e-05 5.41555e-05 0.1200821046 0.0250593561
140299160.0 -0.8145459563 0.2234146669 -1.06831e-05 -0.0001654389 -5.06815e-05 9.9573e-05 0.1212509887 0.0216265353
145299130.0 -0.8126976796 0.231890185 -5.19803e-05 1.85113e-05 0.0001436604 0.0001186708 0.1220233246 0.0178719165
150299100.0 -0.8104726806 0.2412825401 0.0002815121 -2.44202e-05 -7.0538e-06 -0.0001220918 0.1230177211 0.0147387419
155299070.0 -0.8078816474 0.2496169178 0.0001206899 -0.0001639732 6.78344e-05 -2.21613e-05 0.1236416226 0.0112958588
160299040.0 -0.8054759924 0.2579014194 6.1854e-05 -3.51253e-05 0.0001303702 4.24512e-05 0.1239047253 0.0080745111
165299010.0 -0.8029184442 0.2670198126 -1.64061e-05 3.15277e-05 -8.6007e-05 -5.21785e-05 0.1246921754 0.0049693384
170298980.0 -0.8001151816 0.2754357368 -4.02749e-05 -3.10633e-05 6.20786e-05 0.0001389866 0.1250943525 0.0016116364
175298950.0 -0.7971099626 0.2841482196 -2.2766e-05 7.46404e-05 0.0002069366 3.03231e-05 0.1250052079 -0.0013727108
180298920.0 -0.7949257647 0.2926626027 0.0002947825 0.000115772 -3.11122e-05 -1.50757e-05 0.1253568992 -0.0041406077
185298890.0 -0.7911142176 0.3009872566 -0.0001908869 -4.6528e-06 -5.08956e-05 -3.03159e-05 0.1254551139 -0.0071190204
190298860.0 -0.7885221203 0.3101862286 0.0001222967 4.94266e-05 -6.67283e-05 5.33859e-05 0.1253267422 -0.0100379425
195298830.0 -0.7854897381 0.3184991263 -5.88986e-05 0.0002505407 0.0001010743 0.0001647897 0.1252844125 -0.0128053056
200298800.0 -0.7816111523 0.3261245732 0.0002387005 0.0001128169 4.08552e-05 0.0001192015 0.1248003643 -0.0159449655
205298770.0 -0.7782562429 0.3342973874 0.0001103176 -8.15172e-05 2.89251e-05 0.0001942229 0.1243677252 -0.0187284169
210298740.0 -0.7752729306 0.3422301851 -3.93391e-05 0.0002670727 -2.55333e-05 0.0001233464 0.1242974226 -0.0211208255
215298710.0 -0.7718725082 0.3502237277 2.19889e-05 0.0003910282 8.51557e-05 -7.22249e-05 0.1234723365 -0.0235859111
220298680.0 -0.7674044287 0.3584263691 -0.0002457097 4.72214e-05 6.64888e-05 -0.0001140294 0.1229504241 -0.0263327142
225298650.0 -0.7643912033 0.3663987824 0.0001744258 0.0001570845 2.50239e-05 0.0001084936 0.1221071031 -0.0287788081
230298620.0 -0.7598525329 0.3744561012 -9.2996e-05 0.0001237337 4.27553e-05 7.43067e-05 0.1217358126 -0.0314664686
235298590.0 -0.7565936061 0.3831705688 -3.31941e-05 0.0002695183 0.0001442566 -1.97738e-05 0.1209879814 -0.0335503917
240298560.0 -0.7525013285 0.3912048456 8.06601e-05 -0.0001050376 0.0001920708 0.00015347 0.1202410102 -0.0360190679
245298530.0 -0.7482183978 0.3984184676 5.4673e-06 0.0001019238 0.0001641269 -9.44937e-05 0.1195563918 -0.0385749738
250298500.0 -0.7440163521 0.4070546655 0.0001172144 0.0001832643 -9.41153e-05 7.99347e-05 0.1187664842 -0.0409365831
255298470.0 -0.7396242162 0.4143019777 9.00961e-05 0.0001894001 1.0591e-05 4.35022e-05 0.1182071876 -0.0435326846
260298440.0 -0.7350755638 0.4214013583 0.0001114755 2.65753e-05 -0.0001246438 -2.3327e-05 0.1175950137 -0.0454634271
265298410.0 -0.7316805188 0.4295691982 -2.0944e-06 0.0001796653 -2.97083e-05 0.0001337492 0.1163989708 -0.0471340113
270298380.0 -0.726803971 0.4374289451 -7.57191e-05 -2.41588e-05 0.0001033022 -2.4565e-06 0.1156509812 -0.0494139901
275298350.0 -0.7223487747 0.4450982914 9.15074e-05 -0.0001320331 0.0001602269 3.79006e-05 0.1148196134 -0.0512356787
280298320.0 -0.71686996 0.4527828491 -8.86234e-05 1.80807e-05 8.57953e-05 0.0002024375 0.1141445516 -0.0535740073
285298290.0 -0.71251484 0.4601939258 3.9282e-05 1.9361e-06 3.45745e-05 0.0001131833 0.1129710942 -0.0554478213
290298260.0 -0.7078154504 0.4676151256 0.000244913 -0.0001527992 0.0001383125 5.70963e-05 0.1120804011 -0.0574028988
295298230.0 -0.7025087993 0.4744359253 -1.57747e-05 0.0001477872 0.0001362875 1.43662e-05 0.1113082251 -0.0594553877
300298200.0 -0.697533155 0.4821217867 -6.52931e-05 -2.47387e-05 -3.85632e-05 -7.5936e-06 0.1103905665 -0.0613142245
305298170.0 -0.6922079747 0.4881168187 -1.38747e-05 0.0001386636 -0.0001112 -1.52847e-05 0.1095790168 -0.0635726351
310298140.0 -0.6867887334 0.496315026 5.60626e-05 -6.4386e-06 0.0001088773 -5.11429e-05 0.1080297015 -0.0657309711
315298110.0 -0.6824190311 0.5036443402 0.0002055106 6.8054e-05 -9.23425e-05 0.0002569866 0.1068266398 -0.0674575953
320298080.0 -0.6775056164 0.5102815026 0.0002061609 -7.513e-07 4.63414e-05 0.0001062969 0.1057385045 -0.0693049568
325298050.0 -0.6715822695 0.5169653815 0.0001098198 0.0001503741 -1.24618e-05 5.62562e-05 0.1043037114 -0.0710799409
330298020.0 -0.6662534856 0.5237206517 0.0001612097 0.0001295379 3.90306e-05 -4.1312e-06 0.1026758484 -0.0725025575
335297990.0 -0.6610529029 0.5307190002 5.35047e-05 -9.3249e-06 -6.0073e-06 0.0001179701 0.1011440021 -0.0737330493
340297960.0 -0.6555836391 0.5376772373 0.000148723 0.0001394557 5.0346e-05 0.0001453333 0.1004468918 -0.0752508226
345297930.0 -0.6501446508 0.5442685395 -6.3656e-06 4.07171e-05 -0.0001155387 0.0002337181 0.098708454 -0.0766137636
350297900.0 -0.6446649078 0.5509202652 0.0001479467 -5.74314e-05 1.88238e-05 6.37862e-05 0.0972537263 -0.0775590711
355297870.0 -0.6383043175 0.5583855554 -5.8008e-06 0.0001232627 -4.66305e-05 6.05528e-05 0.0956886743 -0.0792401102
360297840.0 -0.6325865557 0.5644257605 6.8627e-06 0.0001565908 0.0002996619 0.0001302724 0.0944115008 -0.0804339176
365297810.0 -0.6274256343 0.5706655082 -6.60476e-05 -7.01e-08 0.0001800829 3.66562e-05 0.0930406704 -0.0822320828
370297780.0 -0.6209362852 0.5764536034 0.0002758442 0.0001430047 7.78628e-05 -2.56226e-05 0.0917757647 -0.0829010849
375297750.0 -0.6144914424 0.5836104235 7.95599e-05 8.22428e-05 0.0001011565 -9.1533e-05 0.0901002093 -0.0846075704
380297720.0 -0.6084975744 0.589063068 -0.0002056162 3.86253e-05 5.9629e-05 1.0215e-05 0.0885495964 -0.0859129418
385297690.0 -0.6032445349 0.5953543655 6.48797e-05 0.0002197344 0.0001130979 -0.0002345883 0.0872402571 -0.0869394978
390297660.0 -0.5969056871 0.6009976317 -2.28997e-05 8.922e-06 0.0002163737 -8.3976e-06 0.0856280162 -0.0879308608
395297630.0 -0.5903376608 0.6080955982 -8.14462e-05 -0.0002291666 8.13919e-05 7.97534e-05 0.0843314833 -0.0892121663
400297600.0 -0.5843090094 0.6142281304 0.0001285063 4.61986e-05 -8.81304e-05 -4.96772e-05 0.0827093983 -0.090296654
405297570.0 -0.5776370532 0.6192522789 4.35542e-05 -8.52506e-05 1.98755e-05 0.0002617404 0.0811233352 -0.0915289048
410297540.0 -0.5706733988 0.6250656259 8.30309e-05 -3.0974e-05 0.0002605802 -5.41368e-05 0.0797685876 -0.0926626509
415297510.0 -0.564304904 0.6313435787 -0.0001327075 8.25423e-05 -1.27847e-05 -3.5591e-06 0.0779994522 -0.0940655857
420297480.0 -0.5592590565 0.6371097378 0.0001573115 -6.82467e-05 0.0001637199 -0.0001140439 0.0766024538 -0.094931344
425297450.0 -0.551708827 0.6427318832 0.0002231942 0.0001030371 8.5897e-05 -5.91291e-05 0.0756136232 -0.0961640428
430297420.0 -0.5454367808 0.6484189005 0.0001120953 0.0001461942 -1.79877e-05 -0.0001521282 0.0733294092 -0.0974189999
435297390.0 -0.5388847625 0.653515849 0.0001864142 3.46439e-05 -0.0001695629 2.09746e-05 0.0723219406 -0.0984245801
440297360.0 -0.5312236748 0.6591786182 -5.43818e-05 -0.0001459112 -5.72873e-05 4.48231e-05 0.0704216618 -0.099326747
445297330.0 -0.5246032837 0.6645905875 1.54492e-05 1.92485e-05 3.72569e-05 3.87839e-05 0.0694350932 -0.1007310493
450297300.0 -0.5182194148 0.6692115992 0.0002153618 0.0001591024 3.19549e-05 -8.703e-06 0.0676060262 -0.1014317972
455297270.0 -0.5112338442 0.6746155499 0.000244412 9.03499e-05 -1.21342e-05 -3.58427e-05 0.0659446334 -0.1021180524
460297240.0 -0.504875654 0.6796350317 7.39587e-05 -7.01721e-05 0.0001854284 4.97731e-05 0.0645233811 -0.1029651316
465297210.0 -0.4979724369 0.6853114319 0.00013028 8.34577e-05 0.0002896248 -8.9667e-06 0.0627443469 -0.1040763809
470297180.0 -0.4897691629 0.6900217349 0.0001974535 -0.0001165776 7.67951e-05 -2.95484e-05 0.0615106226 -0.1046187813
475297150.0 -0.4837489023 0.6944882391 0.0002461776 -9.00138e-05 -0.0001161373 5.48403e-05 0.060177292 -0.1054890645
480297120.0 -0.4765081128 0.6998239351 3.9786e-05 1.02948e-05 0.0001398541 5.85413e-05 0.0585902598 -0.1062618406
485297090.0 -0.4692202944 0.7044064593 0.0002300884 2.53713e-05 0.0001388326 -1.66053e-05 0.0568876584 -0.1069112183
490297060.0 -0.4621860658 0.7089525153 -3.25627e-05 -5.37739e-05 0.0001272964 -5.1981e-05 0.0551494753 -0.1075315984
495297030.0 -0.4551396198 0.7134394591 9.16125e-05 5.21588e-05 8.08538e-05 -0.0002459263 0.053597019 -0.1079181127
500297000.0 -0.4480299424 0.7185229442 -1.2298e-05 9.45606e-05 0.0002299022 9.71304e-05 0.0521219053 -0.1086165066
505296970.0 -0.4396623205 0.7224370296 0.000242396 -2.71925e-05 -0.000101608 9.51476e-05 0.0504380218 -0.1092095848
510296940.0 -0.4330221969 0.7264934349 8.42883e-05 0.0001097452 0.0001341178 -4.6717e-05 0.0489970307 -0.1097742182
515296910.0 -0.4241853057 0.7303944351 0.0001031599 -0.0002319023 3.36575e-05 1.35519e-05 0.0475580379 -0.1104751409
520296880.0 -0.4181921391 0.7352565073 6.50062e-05 5.8515e-06 0.0003350631 1.17527e-05 0.0455911364 -0.1111283634
525296850.0 -0.4102412601 0.7392824666 -5.36688e-05 -3.263e-07 2.1726e-05 -9.62762e-05 0.0438945552 -0.1108418401
530296820.0 -0.4025675759 0.7437314829 -8.69117e-05 7.90795e-05 0.0002011818 4.35598e-05 0.0424731458 -0.1118620899
535296790.0 -0.395607895 0.7475326336 0.0002474914 1.24795e-05 0.0001209321 4.57501e-05 0.0400319408 -0.1121031712
540296760.0 -0.3876475682 0.7509526346 9.36864e-05 0.0002003323 0.0001026024 -7.44527e-05 0.0389849634 -0.1125043553
545296730.0 -0.3807915847 0.7551125913 -8.85378e-05 -2.72552e-05 0.0001601875 -0.0001593364 0.0370124968 -0.1132628752
550296700.0 -0.3726920945 0.7589760704 4.97443e-05 5.31521e-05 2.80634e-05 -9.13199e-05 0.0353500466 -0.1135725964
555296670.0 -0.3646270002 0.7614631411 0.0001191791 0.0002475057 0.0002085401 4.3997e-06 0.033776645 -0.1132193075
560296640.0 -0.3575465207 0.7663863802 0.0001654739 4.86666e-05 0.0001927255 -3.8324e-06 0.0318689099 -0.1138482609
565296610.0 -0.3494249861 0.7692544656 0.0001572904 -3.44734e-05 0.0003024189 0.0001803889 0.0302658094 -0.1143936501
570296580.0 -0.3420196667 0.7725035091 3.87986e-05 -0.0001015035 -4.55189e-05 0.0002699129 0.028414482 -0.1143842297
575296550.0 -0.3342349944 0.7766934552 0.0001446923 8.58278e-05 -3.77542e-05 9.0219e-05 0.0267476856 -0.1150956075
580296520.0 -0.3265295819 0.7795610208 0.0001408513 0.0001962398 0.0002174493 -0.0001028147 0.0252570555 -0.115457063
585296490.0 -0.3185193979 0.7827189534 8.70929e-05 -2.7142e-05 0.0002479879 4.2107e-06 0.023388155 -0.1155162966
590296460.0 -0.3108796566 0.7855282147 0.0001758452 -0.0001350021 0.0003039459 -3.39494e-05 0.0213824445 -0.1158456571
595296430.0 -0.3030736177 0.7883456678 0.000162078 0.0003051128 0.0001404496 0.0001443048 0.0201523067 -0.1163402048
600296400.0 -0.2947689771 0.7922554287 0.000172753 -8.74438e-05 0.0001245157 0.0001026661 0.0182675134 -0.1165394968
605296370.0 -0.2874358113 0.795081561 0.000214827 -0.0001604834 5.08149e-05 -3.51149e-05 0.0166193617 -0.1163990472
610296340.0 -0.2792927441 0.7971339469 0.0002667472 -3.31e-05 0.0001532449 0.0001607254 0.0152696099 -0.11654902
615296310.0 -0.2702978606 0.8001500725 0.00031092 5.99572e-05 0.0002158762 -2.77394e-05 0.0134042952 -0.116917357
620296280.0 -0.2623944599 0.8021810042 0.0002160675 5.66143e-05 8.45124e-05 -0.0002884957 0.0115534284 -0.1170501812
625296250.0 -0.2547789912 0.8056493133 0.0001387175 3.03141e-05 -6.63762e-05 9.28348e-05 0.0101449587 -0.1168424097
630296220.0 -0.2462475882 0.8080231816 0.0001824244 0.0001027478 9.96165e-05 7.38506e-05 0.0083102036 -0.1170237716
635296190.0 -0.2385289471 0.8101752628 0.0001504034 0.0001408302 0.0002504379 8.48664e-05 0.0065629454 -0.1167027426
640296160.0 -0.2304845259 0.8126983872 0.0001248662 5.62276e-05 0.0001432064 3.37315e-05 0.0049958345 -0.1171900812
645296130.0 -0.2221811419 0.8149884756 0.0003309446 8.51448e-05 0.000185663 8.01986e-05 0.0031362713 -0.1166474806
650296100.0 -0.2138960031 0.8167662469 0.0001962395 2.15766e-05 0.000142979 0.0002211182 0.0020330503 -0.116975529
655296070.0 -0.2058947951 0.8193838033 0.0001715508 9.36918e-05 0.0001895862 -9.06784e-05 0.0003827671 -0.1164864752
660296040.0 -0.1978711175 0.8200448191 0.0001756858 -8.1783e-06 0.0001000867 0.0002359645 -0.000849096 -0.1168994256
665296010.0 -0.1897978921 0.8221790193 5.41597e-05 0.0002547391 -4.59692e-05 -2.3485e-06 -0.0027913835 -0.1162215381
670295980.0 -0.1816441999 0.8246118368 0.0001789562 5.22898e-05 4.81425e-05 -0.0001795868 -0.0046794713 -0.1159445618
675295950.0 -0.1733331756 0.8267249676 0.0002396572 7.6078e-05 0.0002428723 -8.45999e-05 -0.0064108944 -0.1158564513
680295920.0 -0.1649153034 0.8282218268 0.0001051364 4.0128e-05 0.0001528258 5.18054e-05 -0.0078443787 -0.1154377037
685295890.0 -0.1561628148 0.8299120932 0.0001385889 0.0001511596 6.87448e-05 -7.65475e-05 -0.0094770935 -0.1152973294
690295860.0 -0.1482352613 0.8308086067 0.0003246317 0.0002878425 0.0002535828 -0.0001379145 -0.0114150763 -0.1144082111
695295830.0 -0.1402483355 0.8322333326 0.0003985888 -7.6382e-05 6.25937e-05 9.23519e-05 -0.0128608244 -0.1142622747
700295800.0 -0.1312902183 0.8336496125 0.0003079387 -0.0001738224 0.0001277611 -0.0002842445 -0.0146337054 -0.1141286626
705295770.0 -0.1237586794 0.8352601382 0.0002103836 7.46432e-05 5.76656e-05 -0.0001260674 -0.0164115628 -0.1130386808
710295740.0 -0.1152608113 0.8364178012 0.0001903529 0.000145202 0.0001087979 -6.27983e-05 -0.0181680746 -0.1131059109
715295710.0 -0.1071041334 0.8373897187 0.0004113453 5.83175e-05 0.0002482652 -0.0001642408 -0.0194436314 -0.1126653065
720295680.0 -0.0991108008 0.8386608845 0.0005455811 0.0002047068 0.0001679877 5.02907e-05 -0.0212953526 -0.1124052125
725295650.0 -0.0906037247 0.8394510577 0.0001504597 0.0001668159 0.0002792231 -4.04667e-05 -0.0231486758 -0.1117820347
730295620.0 -0.0815481715 0.8402426633 9.01526e-05 7.23963e-05 9.12563e-05 -6.08332e-05 -0.024728568 -0.1113646931
735295590.0 -0.0738458052 0.8411074042 0.0004560977 -0.0002224435 0.0002092536 -0.0001070922 -0.0268079054 -0.1109886306
740295560.0 -0.0653848133 0.8419211111 0.0002273414 -0.000126953 5.9705e-06 -5.7215e-06 -0.0282420888 -0.1103502486
745295530.0 -0.0572214471 0.8423955971 0.0001167314 4.19607e-05 0.0001561697 0.0001355397 -0.029801086 -0.1099704429
750295500.0 -0.0480513571 0.8423104525 5.18653e-05 -0.0001498604 0.0001518446 -2.65702e-05 -0.0313727809 -0.1096242569
755295470.0 -0.0402010474 0.8431781255 0.0001380451 -6.47758e-05 0.0002393293 3.59674e-05 -0.0329066283 -0.1095612281
760295440.0 -0.0320687502 0.8434604986 1.20262e-05 8.18891e-05 0.0003387871 -0.0001038864 -0.0346952173 -0.1090251638
765295410.0 -0.023490732 0.8440766866 -3.50803e-05 6.31106e-05 0.0001080652 7.64749e-05 -0.0360467676 -0.1079569631
770295380.0 -0.015296984 0.8441961503 0.0001157674 -0.0001952084 0.0002660112 4.13793e-05 -0.0378276929 -0.1075688635
775295350.0 -0.0070752135 0.8438348592 0.0001802912 -1.91712e-05 9.15035e-05 8.21834e-05 -0.0392966414 -0.1071118575
780295320.0 0.0013746627 0.8441044232 5.74452e-05 -8.4858e-06 0.0001591897 7.35107e-05 -0.0410334703 -0.1061210924
785295290.0 0.0092310876 0.8437954046 0.0002203226 8.12071e-05 0.0001566491 -9.12644e-05 -0.0421757594 -0.1057999793
790295260.0 0.0183768699 0.8437018663 7.26956e-05 -6.69143e-05 0.0001463663 0.0001078866 -0.0432624241 -0.1049817556
795295230.0 0.0263081641 0.8432944759 0.0001851068 -3.48756e-05 1.40382e-05 3.76525e-05 -0.0452367337 -0.1043837599
800295200.0 0.0339589524 0.843206305 9.4417e-05 -0.0001018581 0.0001742879 -9.2752e-06 -0.0464093153 -0.1034172697
805295170.0 0.043255391 0.8427158217 5.32378e-05 -0.0001090466 0.0003525439 1.42451e-05 -0.0481205098 -0.102778922
810295140.0 0.0517321665 0.8420160646 5.75177e-05 -0.0001342498 3.04684e-05 -5.3251e-06 -0.0492026633 -0.1020189775
815295110.0 0.0599032241 0.8416183162 0.000319623 2.83969e-05 0.0001818328 -0.0003341917 -0.0506431139 -0.1013359368
820295080.0 0.0678422196 0.8412151172 0.0003014623 0.0001322137 5.48519e-05 -2.86389e-05 -0.052241428 -0.1004825002
825295050.0 0.0770251628 0.8403095995 0.000164928 -0.0002345005 0.0001893634 -2.34577e-05 -0.0535885531 -0.0997026659
830295020.0 0.0841621612 0.8395544462 0.0003175863 -1.03184e-05 0.0001043809 -0.0001732659 -0.0546561158 -0.0987263727
835294990.0 0.0927994279 0.8389236175 0.0001388027 -0.0001916957 0.0001024257 -9.30713e-05 -0.056442373 -0.0978679189
840294960.0 0.1004456011 0.8378401391 0.0002255967 -0.0001078071 0.0001874729 -7.51907e-05 -0.0574577329 -0.096751683
845294930.0 0.1089093288 0.836867763 0.0004249016 3.35971e-05 0.0001130943 -1.79205e-05 -0.0593051332 -0.0958795187
850294900.0 0.1173979207 0.8357255847 2.9772e-05 -0.0002657623 0.0002334778 -4.46058e-05 -0.0605454438 -0.0949209398
