!Created with skrf (http://scikit-rf.org).
# Hz S RI R 50.0 
!freq ReS11 ImS11 ReS21 ImS21 ReS12 ImS12 ReS22 ImS22
300000.0 -0.211487845 -0.1018571279 -0.0012959931 0.0029071826 -0.0007949163 0.0004698341 -0.7700163593 -0.1941406994
5299970.0 -0.2150303469 0.0067429853 0.0001842499 0.0001832215 0.0002080718 0.0002553538 -0.7850551409 -0.0097859922
10299940.0 -0.2117612627 0.0200595035 7.97147e-05 0.0001927051 3.63154e-05 -3.37302e-05 -0.7878242112 -0.0052245634
15299910.0 -0.206353837 0.0301780384 -8.73628e-05 7.82747e-05 1.38983e-05 -1.14666e-05 -0.7931254555 -0.0024541087
20299880.0 -0.2006526341 0.0382109468 -0.000264498 -2.60585e-05 -9.04376e-05 -3.75187e-05 -0.7998073401 0.0016507396
25299850.0 -0.1939767993 0.0448195092 8.09841e-05 5.44988e-05 6.92633e-05 -2.55524e-05 -0.8062471781 0.007908461
30299820.0 -0.1877903622 0.0495012275 7.94668e-05 -0.0002177656 0.0001763671 6.37868e-05 -0.8121580544 0.0158394762
35299790.0 -0.1812663505 0.0534298327 -0.000274512 -0.0001446228 3.79964e-05 -4.7893e-05 -0.8173496267 0.0247733318
40299760.0 -0.1753357343 0.0561237272 -1.21924e-05 -3.54218e-05 9.82287e-05 -2.24517e-05 -0.8212970387 0.0340084863
45299730.0 -0.1699767981 0.0577781579 -5.89828e-05 -0.0001750126 0.000177464 -7.52304e-05 -0.823983597 0.0435939055
50299700.0 -0.1643022736 0.0594981433 -5.76831e-05 5.76212e-05 -5.6973e-06 2.541e-06 -0.8264621787 0.0537792697
55299670.0 -0.1595815023 0.0606689422 -6.27952e-05 -5.04547e-05 -1.89154e-05 -2.44778e-05 -0.8288000639 0.0636503979
60299640.0 -0.1553608882 0.0609885335 -9.63402e-05 -3.32508e-05 5.92773e-05 -1.30927e-05 -0.8301444403 0.0735735525
65299610.0 -0.1510019378 0.0612251002 0.0001799468 0.0001304377 5.00112e-05 0.0001516209 -0.8304508938 0.083670357
70299580.0 -0.1479342955 0.0615155837 0.0002891235 -7.02523e-05 1.77856e-05 6.58847e-05 -0.8312850622 0.0935559856
75299550.0 -0.1446969596 0.0614704984 3.09633e-05 0.0002431928 -3.51441e-05 -0.000107196 -0.8308284913 0.1038703512
80299520.0 -0.141699714 0.0611916443 -5.51903e-05 0.0001480448 9.12432e-05 3.6884e-05 -0.8309077505 0.1139853529
85299490.0 -0.1387706959 0.0609887813 -3.50845e-05 -3.08335e-05 3.25135e-05 8.86319e-05 -0.8300541453 0.1229491959
90299460.0 -0.1362340954 0.0606941687 4.008e-05 3.69874e-05 5.89863e-05 0.0002231796 -0.8286595388 0.1327650527
95299430.0 -0.134250904 0.0607047725 1.41115e-05 0.0001281413 1.25847e-05 -0.0001007988 -0.8285178717 0.1424706621
100299400.0 -0.1320513331 0.0606070057 2.01451e-05 0.0004364527 8.14435e-05 -4.66908e-05 -0.8270303347 0.1516726868
105299370.0 -0.1303775501 0.0602037731 -0.0001087415 0.0001343318 -6.93087e-05 0.0001361344 -0.8258428616 0.1606586087
110299340.0 -0.129050867 0.0600907961 -0.0001539764 -0.0002284713 -6.09324e-05 8.62613e-05 -0.8246067023 0.1696320706
115299310.0 -0.1275082512 0.0601589713 7.45499e-05 1.95332e-05 -5.56033e-05 -3.09669e-05 -0.8236737134 0.1790785489
120299280.0 -0.12564631 0.0600024186 8.74069e-05 -3.62676e-05 6.77717e-05 -0.0001015952 -0.8205686291 0.1876875414
125299250.0 -0.1250868787 0.0595576178 -0.0001417287 0.0002118046 0.0001624262 0.0001080633 -0.8197689633 0.1972205431
130299220.0 -0.1238821119 0.0598740098 -0.0001708756 8.0014e-05 0.0001801208 3.7851e-05 -0.8179911205 0.2058759047
135299190.0 -0.1229221971 0.0600123976 -2.42009e-05 3.4913e-05 7.0069e-06 4.30982e-05 -0.8161201682 0.2153073349
140299160.0 -0.1219375134 0.0599157725 -0.0002196397 3.32482e-05 5.11599e-05 -2.6333e-06 -0.8144604532 0.2234031634
145299130.0 -0.1208210411 0.0604630206 -0.0001903361 -8.20629e-05 7.35359e-05 -5.33308e-05 -0.8121446998 0.2325491004
150299100.0 -0.1200476297 0.0604741727 0.000198344 5.81977e-05 -7.22736e-05 -9.1675e-06 -0.8100041137 0.2412566144
155299070.0 -0.1193543837 0.0610122226 -0.0001780801 0.0001014102 -9.1799e-06 -6.47584e-05 -0.8069828526 0.2504437445
160299040.0 -0.1186621719 0.061459685 3.30009e-05 5.22984e-05 0.0001899972 7.44113e-05 -0.8042939652 0.2593888052
165299010.0 -0.1178993976 0.0619985786 0.0001412526 0.000141046 -8.28664e-05 0.0002373187 -0.8019479675 0.2671440984
170298980.0 -0.1176661359 0.0621874942 0.0002223088 0.0001790721 -6.37968e-05 0.0001104648 -0.7993940958 0.2755828934
175298950.0 -0.1167498668 0.0625894619 0.0001419452 -4.98823e-05 9.75828e-05 0.0001001234 -0.7965771497 0.2844373403
180298920.0 -0.116412173 0.0631737402 -0.0002870007 -0.0001323713 0.0001041646 0.000129335 -0.7932634144 0.2932334964
185298890.0 -0.1155964335 0.0635091209 5.50728e-05 -1.48411e-05 0.0002024964 0.0002415516 -0.790320293 0.3017178835
190298860.0 -0.1150059879 0.0644005272 -3.9222e-06 -4.51796e-05 8.11999e-05 0.0001649251 -0.7868230911 0.3101765427
195298830.0 -0.1143533157 0.0651068156 0.000154919 -0.0001017537 0.0002146673 2.34238e-05 -0.7845596599 0.3177733332
200298800.0 -0.1136961501 0.0655846162 0.0002709084 -4.9347e-06 -8.96489e-05 -0.000100837 -0.7812608503 0.326331173
205298770.0 -0.113734003 0.0663337703 -2.02685e-05 -0.0002378238 8.85763e-05 0.0001264416 -0.7777730045 0.3353506903
210298740.0 -0.1132257455 0.067100324 -2.209e-06 -1.71842e-05 -2.41395e-05 5.38908e-05 -0.7741308704 0.3431037076
215298710.0 -0.1125646495 0.0679110573 0.0001214487 0.0002401586 0.0003763648 9.472e-06 -0.7705522259 0.3511848392
220298680.0 -0.1118650229 0.0683967885 0.0002753768 0.000213719 0.000195191 -8.60775e-05 -0.7668592405 0.3595690477
225298650.0 -0.1115868586 0.0691922846 -1.84827e-05 -6.7522e-06 -3.24629e-05 0.0002339397 -0.7631379533 0.3674252774
230298620.0 -0.1113045042 0.0704898289 0.0001651002 -7.80635e-05 9.72361e-05 -4.82067e-05 -0.7594902028 0.3753899614
235298590.0 -0.110730609 0.0712518507 0.0001564538 -0.000171604 -8.0002e-06 -0.0001022323 -0.7551040671 0.3831287951
240298560.0 -0.1105405074 0.0720009795 5.70716e-05 -0.0001124795 -8.20438e-05 -7.79173e-05 -0.7512647381 0.3908694244
245298530.0 -0.1099242154 0.0727066813 0.000199881 -3.37764e-05 0.0001558714 9.38853e-05 -0.7476032394 0.3992297258
250298500.0 -0.1094591358 0.0737371121 0.000258563 2.41277e-05 0.0001762943 5.24271e-05 -0.743162572 0.4067283271
255298470.0 -0.1090607108 0.0746781189 -4.74855e-05 0.0001679112 6.68174e-05 0.0001006143 -0.7390098101 0.414415702
260298440.0 -0.1084674058 0.0752174141 -5.64526e-05 5.53659e-05 0.0001432554 8.08519e-05 -0.7338457904 0.4218222283
265298410.0 -0.1079507048 0.0764743226 0.0001378201 3.73852e-05 0.000125013 -8.31867e-05 -0.730049834 0.4300761497
270298380.0 -0.1077187069 0.0773556257 0.0002174741 -3.03147e-05 5.40349e-05 0.0002861431 -0.7251975854 0.4379922273
275298350.0 -0.1072465534 0.0785853978 -5.47341e-05 -2.48505e-05 0.000203752 5.83496e-05 -0.7203688113 0.4455546095
280298320.0 -0.1068923447 0.0794367858 7.09311e-05 0.0001040506 0.0001713085 -4.27886e-05 -0.7164708551 0.4525392479
285298290.0 -0.1059505498 0.0803224656 0.0001005056 4.37171e-05 0.0001152065 2.41383e-05 -0.7118557782 0.4603138318
290298260.0 -0.1057072827 0.0813886903 3.92676e-05 -5.50107e-05 5.70755e-05 -2.07869e-05 -0.7062188074 0.4675449031
295298230.0 -0.105099721 0.082154973 0.0001567586 4.63946e-05 8.81724e-05 5.70483e-05 -0.7016620856 0.4746817
300298200.0 -0.1046443888 0.0831621943 0.0004116939 0.0001794644 0.0001609712 0.00035109 -0.6965649493 0.4824036778
305298170.0 -0.1042239895 0.0841119561 8.43752e-05 -0.0001513194 0.0001071988 0.0002361153 -0.6914433904 0.489727834
310298140.0 -0.1034085025 0.0846834604 7.5336e-06 -0.0001043883 5.67432e-05 0.0001322603 -0.6861352373 0.4970093117
315298110.0 -0.1033717341 0.085584376 9.10025e-05 0.0002305873 0.000256448 9.47979e-05 -0.6814534344 0.5036415113
320298080.0 -0.1025209769 0.0864856268 9.57658e-05 5.28482e-05 0.0001958591 0.0001209168 -0.6763275525 0.5105316603
325298050.0 -0.1023112673 0.0871702468 4.66249e-05 -0.0001552257 0.0001342421 4.18687e-05 -0.6701493733 0.5180440087
330298020.0 -0.1019027438 0.0884005398 0.0001153397 -4.17754e-05 5.06319e-05 0.0001096935 -0.6651286794 0.5242754703
335297990.0 -0.1014051816 0.0893398518 0.000359162 -2.7646e-06 -5.52002e-05 0.0002011924 -0.659644202 0.5319701279
340297960.0 -0.1010436229 0.0904885132 0.0001861285 -0.0001021197 0.0002274484 -5.57703e-05 -0.6541736769 0.5383482589
345297930.0 -0.1002203752 0.0916145138 0.0002202242 0.0001300517 -0.0001023802 5.26373e-05 -0.6489742141 0.5445201761
350297900.0 -0.0999043066 0.0922447315 7.6701e-05 0.0002188709 0.0001571212 -7.96861e-05 -0.6434768147 0.5512443364
355297870.0 -0.0993098694 0.0933024894 7.06702e-05 0.0002027737 1.52857e-05 -6.64006e-05 -0.6370371467 0.5586139311
360297840.0 -0.0987807303 0.0945871663 0.000148048 7.7413e-06 5.03328e-05 0.000145025 -0.6306317718 0.5647597962
365297810.0 -0.0979332118 0.0955687048 -2.20064e-05 0.0003724702 0.0001728954 0.0002617734 -0.6259446425 0.5713002125
370297780.0 -0.0973553435 0.0963599486 7.92699e-05 0.0003275247 7.19294e-05 -1.31417e-05 -0.6195635962 0.5772712685
375297750.0 -0.0966264399 0.0974236672 0.0001103281 4.65156e-05 5.3176e-06 0.0003208634 -0.6133010661 0.5840555838
380297720.0 -0.096093893 0.0986630328 0.0001433441 -7.82419e-05 0.0001809926 0.0002045849 -0.6068178578 0.590407396
385297690.0 -0.0954217946 0.0992680516 7.72315e-05 -2.40253e-05 -0.0001382262 0.0001803005 -0.6015991451 0.5964240494
390297660.0 -0.0945166028 0.1004595486 0.0002116406 7.22011e-05 5.77341e-05 9.99525e-05 -0.5944422832 0.6020225358
395297630.0 -0.0937469671 0.1016150509 7.96891e-05 -2.25654e-05 0.0002454676 5.15214e-05 -0.5886790168 0.6078574995
400297600.0 -0.0934144907 0.1024718275 0.0001335835 0.0001677206 0.0001742807 0.0002243258 -0.582740616 0.6138601834
405297570.0 -0.092437103 0.1030404355 0.0001309606 9.33934e-05 0.0001894909 0.0002327364 -0.5752511535 0.6198144016
410297540.0 -0.0914246449 0.103863485 0.0003326394 6.9888e-05 0.0001394442 0.0002021176 -0.5692405307 0.6260821139
415297510.0 -0.0910216044 0.1052003413 2.15225e-05 0.000238667 0.0002092985 4.36899e-05 -0.5628428131 0.6311466147
420297480.0 -0.0902536935 0.1056847521 8.40767e-05 3.45438e-05 0.0002911314 3.0488e-06 -0.556602714 0.6378774361
425297450.0 -0.0888150744 0.1068446979 0.0003138297 1.66229e-05 7.02394e-05 0.0001356431 -0.5502003008 0.6429363297
430297420.0 -0.088362824 0.1076167861 0.000360415 0.0001153252 0.000154886 -4.3719e-06 -0.5436934469 0.6483763028
435297390.0 -0.0874779347 0.1087453772 1.59868e-05 0.000143455 0.000128997 0.000213797 -0.5363095948 0.6540990002
440297360.0 -0.0866976752 0.109608185 0.0001257831 -0.0001026026 0.0001105797 0.0002213347 -0.5304852001 0.659773141
445297330.0 -0.0858015731 0.1100832643 0.0001328293 0.0001773956 0.0002256011 -1.7344e-06 -0.5227472983 0.6650311964
450297300.0 -0.0847973709 0.1111585934 0.0002312655 8.60336e-05 0.0002356809 -1.34025e-05 -0.515801958 0.6700104819
455297270.0 -0.0838969969 0.1121764284 0.0003147871 0.0002322578 0.0001121741 3.1179e-06 -0.5094677342 0.6754092751
460297240.0 -0.0827725118 0.1129388281 0.0003540139 0.0002572369 0.0001694219 0.000352311 -0.5021790378 0.6801711312
465297210.0 -0.0816753413 0.1139926836 0.000277974 -0.0001238051 7.13621e-05 8.90813e-05 -0.4946282794 0.6857357712
470297180.0 -0.0806291669 0.1149225834 0.0001744475 0.0001169506 0.0004649837 0.0001527567 -0.4880632772 0.689998718
475297150.0 -0.0801149808 0.1157914992 0.0001717086 0.0001234793 0.0001323311 8.39729e-05 -0.4813867553 0.6950841749
480297120.0 -0.0787053591 0.1165511028 0.000130371 7.85391e-05 1.57091e-05 0.0001334779 -0.4747679832 0.7002262823
485297090.0 -0.0775843189 0.1174418111 0.0002048315 1.22893e-05 0.0002844325 0.00011134 -0.4677840498 0.7046664251
490297060.0 -0.0760197743 0.1182342538 0.0002582693 9.46885e-05 0.0002649422 8.9853e-05 -0.4593724637 0.7092174873
495297030.0 -0.0753716131 0.1188720486 0.0002340837 0.0001684401 0.0003025942 -3.96823e-05 -0.4528273893 0.7137389062
500297000.0 -0.074486203 0.1199391008 0.0002553762 0.0001133387 0.0001770466 6.37415e-05 -0.4453047932 0.71852321
505296970.0 -0.0730682409 0.1207891441 0.000230221 -5.57727e-05 0.0002025885 0.0001809381 -0.438006468 0.7224733938
510296940.0 -0.0718471444 0.1214492799 3.32724e-05 0.0003166371 0.0001061368 -5.20748e-05 -0.4299627865 0.7274049529
515296910.0 -0.0707633577 0.1224561567 -0.0001097238 -7.74067e-05 0.0002798175 5.44838e-05 -0.4232982202 0.7307360186
520296880.0 -0.0695377775 0.1233966777 6.15024e-05 1.75721e-05 0.000234072 8.59618e-05 -0.4154988754 0.7362700955
525296850.0 -0.0684652041 0.1238613036 0.0002994653 0.0001559441 0.0001248634 6.29012e-05 -0.407959756 0.7396234579
530296820.0 -0.0674326004 0.1251681023 0.000133118 6.05521e-05 0.000131703 0.0001411246 -0.4003923237 0.7439951943
535296790.0 -0.0658696429 0.1256691114 -2.54072e-05 8.91023e-05 0.000228729 -2.30958e-05 -0.3930201474 0.7483684913
540296760.0 -0.0646940081 0.1264355224 0.0001097246 7.06399e-05 0.0002095932 0.000146275 -0.3850255801 0.7515769259
545296730.0 -0.0635467217 0.1277571012 4.19153e-05 -1.84808e-05 -3.38045e-05 -5.8108e-06 -0.3776992304 0.7560954632
550296700.0 -0.062320346 0.128090806 0.0001266251 -3.36539e-05 5.83792e-05 0.0001261853 -0.3705315663 0.759048523
555296670.0 -0.0609276743 0.1293581691 9.7374e-05 0.0001406149 0.0001596653 6.65349e-05 -0.3627048588 0.762024753
560296640.0 -0.0595985501 0.1295192977 0.0003077958 0.0001177021 0.0001000899 4.33359e-05 -0.3546480579 0.7665885597
565296610.0 -0.0585631351 0.1307034163 0.0002192341 3.19168e-05 0.0001134656 -3.06e-07 -0.3466353411 0.7699326932
570296580.0 -0.0573483465 0.1313377006 0.0003804643 -2.04404e-05 0.0002988457 9.12368e-05 -0.3390618361 0.7723064054
575296550.0 -0.0559719856 0.13211538 0.0001855889 0.0001984809 8.51298e-05 -4.37847e-05 -0.3309304527 0.7765383839
580296520.0 -0.0546312477 0.1331489579 0.0001302199 -9.96755e-05 0.0003892677 -3.88954e-05 -0.324074109 0.7794976319
585296490.0 -0.0533289531 0.1338493445 0.0001920846 0.0001268951 0.0002950489 -0.0001138635 -0.315643454 0.7829500492
590296460.0 -0.051562626 0.1346214319 0.0001092009 -2.85803e-05 4.13209e-05 1.56941e-05 -0.3083185296 0.7859450532
595296430.0 -0.0504516375 0.1351900669 0.0002391727 -9.1863e-05 0.0003254437 7.3041e-06 -0.3002188351 0.7890223487
600296400.0 -0.0493546316 0.1360295856 0.0004169226 5.57329e-05 4.64999e-05 4.8422e-05 -0.2923097079 0.7911639962
605296370.0 -0.0482049893 0.136888341 0.0002039692 0.0001341413 0.0003550692 0.0001659955 -0.2836953627 0.7952681952
610296340.0 -0.0465639233 0.1375942116 0.0001650182 5.2041e-05 0.000247498 6.7582e-05 -0.2763751883 0.7978451038
615296310.0 -0.0452772588 0.1382158381 0.0002676188 0.0001573528 0.0001276156 0.0001485074 -0.2674585543 0.8005678915
620296280.0 -0.0440819029 0.1393143925 0.0002290905 -0.0001539199 0.0001102926 -2.31023e-05 -0.2600795151 0.8034500853
625296250.0 -0.0429020188 0.1397348819 0.0001749533 -6.7703e-06 0.0002038394 0.0002466838 -0.2515091641 0.8048677551
630296220.0 -0.041658098 0.1407161172 0.0004068738 4.77741e-05 0.000227326 -0.0001772966 -0.2432115205 0.8076702477
635296190.0 -0.04022295 0.1414508884 0.0004173383 5.99486e-05 -5.746e-06 9.9593e-05 -0.2358749946 0.8098968989
640296160.0 -0.0387644854 0.1420279093 0.0002830468 -0.0001245427 0.0001261875 0.0001266613 -0.2275528628 0.8125040336
645296130.0 -0.0371596949 0.1427794577 6.48649e-05 -4.26869e-05 0.0001713988 -8.21101e-05 -0.2200102269 0.814458675
650296100.0 -0.0358707846 0.1435465437 0.0001278748 0.0002137836 5.11781e-05 9.7722e-05 -0.2110719613 0.8166678401
655296070.0 -0.0345266379 0.1440343633 0.0004144578 -4.47849e-05 0.0002749009 -8.6587e-05 -0.2037595452 0.8190322019
660296040.0 -0.0332288121 0.1449566675 0.0002051951 5.26036e-05 0.0003321134 9.19165e-05 -0.1946648581 0.8207249528
665296010.0 -0.0319715051 0.1453753874 0.0003022191 -6.59309e-05 0.0002667223 0.0001431064 -0.1862241619 0.8224206029
670295980.0 -0.031008903 0.1462506697 8.81253e-05 -0.000273079 0.0002067861 -0.0001710566 -0.1789639642 0.8239860115
675295950.0 -0.0290920898 0.1465908143 0.0003011708 -0.0003212857 0.0002262645 -6.34911e-05 -0.170038741 0.826880521
680295920.0 -0.0281595424 0.1476655325 0.0002724992 -0.0001257277 0.0004867892 -1.1328e-06 -0.1612643065 0.8280237153
685295890.0 -0.0264494069 0.1479871303 6.8407e-06 -0.0001197428 0.0002296185 0.0001105239 -0.1532259684 0.8294836512
690295860.0 -0.0251122435 0.1485680314 0.0003879986 -1.15322e-05 0.000334229 0.0002285673 -0.1455669954 0.8313889236
695295830.0 -0.024226495 0.1491564843 0.0001079378 0.0002661019 0.0002449264 -0.0001147125 -0.1371201545 0.8329576847
700295800.0 -0.0222148374 0.1496816487 0.0003110984 0.0001056851 0.0001985775 4.2373e-06 -0.1287739348 0.8335335433
705295770.0 -0.0213299515 0.1502877205 0.0001753588 -4.38902e-05 0.0001595105 4.63667e-05 -0.1203694554 0.8353074414
710295740.0 -0.0199475672 0.1507198424 0.000244383 -4.19495e-05 0.0001616335 6.78627e-05 -0.1116740555 0.8360449265
715295710.0 -0.0180082194 0.1515178722 0.0001911274 0.0001120839 0.0003487595 -5.64565e-05 -0.1031064207 0.8367935025
720295680.0 -0.0167079332 0.1517182981 5.68974e-05 -9.7352e-06 0.0001051018 -0.0001650693 -0.0951762501 0.8376726968
725295650.0 -0.0159037919 0.1525529406 0.0001898289 -0.0002657884 0.0001912634 -2.21688e-05 -0.0873260989 0.8392944762
730295620.0 -0.0147389847 0.1529416871 0.000307024 0.0001078292 0.0002431931 0.0001164155 -0.0791078376 0.8400965858
735295590.0 -0.0131813478 0.1535292271 0.000222809 -0.0001068299 0.0002645789 9.21419e-05 -0.0701560682 0.8406690415
740295560.0 -0.0122721591 0.1535126682 0.0003408342 -0.0002051944 0.0002279471 -3.36439e-05 -0.0617390535 0.8418001666
745295530.0 -0.0104089872 0.1539961358 0.0003805208 -0.0001114869 0.0001570225 0.0001339198 -0.0536289625 0.8417377727
750295500.0 -0.0093645459 0.1545740068 0.0002173524 1.5848e-05 0.000166597 4.13941e-05 -0.0447367662 0.8420017454
755295470.0 -0.0077215938 0.1549223264 0.0001130025 -8.51471e-05 0.0001591133 0.0001091089 -0.0371728585 0.8432617968
760295440.0 -0.006637625 0.1553597551 0.0003375405 6.10923e-05 8.73559e-05 4.3334e-05 -0.0278857369 0.8427324795
765295410.0 -0.0052043934 0.1554270718 6.9922e-05 2.27912e-05 0.0001327909 -8.87829e-05 -0.0197839245 0.8434978515
770295380.0 -0.0040553853 0.1559862738 0.0002149676 -4.55484e-05 0.0001863286 3.4516e-06 -0.0116074061 0.8431112127
775295350.0 -0.0027165442 0.1563808384 0.0001737679 0.0001087935 0.0004599132 -1.5201e-06 -0.0036878028 0.8429730272
780295320.0 -0.0009955957 0.1567503979 0.0002408038 3.53047e-05 0.0002429351 -8.98744e-05 0.0050811471 0.8441209898
785295290.0 0.0004163956 0.1570039473 0.0003471451 -0.0001879414 0.0002624318 0.0001313707 0.0130935105 0.8438283358
790295260.0 0.0015665424 0.156889987 3.85953e-05 -0.000133639 0.0002041233 7.37511e-05 0.0213909682 0.8434321029
795295230.0 0.0027798373 0.15730774 0.0002012377 -0.0003543751 0.000243839 -0.0001526181 0.0296957953 0.8425286094
800295200.0 0.0042564583 0.1578355083 0.0003076834 0.0001162042 0.0002890314 -5.34428e-05 0.0381374117 0.8423613926
805295170.0 0.00550727 0.1577703465 0.0003665502 -1.48885e-05 0.0003033087 -9.75228e-05 0.0469673523 0.8420768957
810295140.0 0.0071957074 0.1579597955 0.0002922717 -0.0002734532 0.000362968 -4.76327e-05 0.0554848287 0.8415225809
815295110.0 0.0082690338 0.1582824896 0.0002747825 -0.0001530636 0.0001808757 -0.0001619785 0.0630798221 0.8409843888
820295080.0 0.0094134136 0.1582678538 0.0002161524 -0.0001526458 0.0001409246 -0.0001229705 0.0712154834 0.8406649786
825295050.0 0.0105161575 0.1582639617 0.0002305713 2.61465e-05 0.0002787989 2.8465e-06 0.0798610934 0.8399020296
830295020.0 0.0124608378 0.158748086 0.000512759 -1.64273e-05 0.0003837598 -0.0001714685 0.0879074447 0.8382167697
835294990.0 0.0136556544 0.1585952049 0.0004842051 -0.0001908763 0.0002069491 -7.55514e-05 0.0962624125 0.838080741
840294960.0 0.0150784398 0.1587710834 0.0003087319 -9.69639e-05 0.0002095005 -0.0001587489 0.1050816959 0.8367047
845294930.0 0.0161782413 0.1588124987 0.0001458725 -0.0002283045 0.0001283867 -0.0001118653 0.1131743873 0.8354698453
850294900.0 0.0182032967 0.1583903119 2.77807e-05 1.83381e-05 0.0002518769 -0.0002494011 0.1213503081 0.834697731
