!Created with skrf (http://scikit-rf.org).
# Hz S RI R 50.0 
!freq ReS11 ImS11 ReS21 ImS21 ReS12 ImS12 ReS22 ImS22
300000.0 -0.3200034822 -0.0995309605 0.3731946782 0.050905497 0.3739150012 0.0548183891 -0.3174503665 -0.1109883449
5299970.0 -0.3238701734 0.0048846816 0.3786739838 0.0028304115 0.3782937637 0.0029406982 -0.3261471953 0.0030029691
10299940.0 -0.3211935773 0.015714663 0.3798378858 0.002152873 0.3796500635 0.0022470884 -0.3241529249 0.0127080032
15299910.0 -0.3181703036 0.0235874643 0.3816420607 0.0021580276 0.382059221 0.0024776176 -0.3213091885 0.0200186926
20299880.0 -0.314357704 0.0304493413 0.3851983672 0.0013783519 0.3852390937 0.0015166148 -0.3186347531 0.0262167956
25299850.0 -0.3107455708 0.0357578901 0.3883850189 -0.0003270178 0.3883952196 0.0002741856 -0.3158278551 0.0310988905
30299820.0 -0.3067202495 0.0405760504 0.3921228855 -0.002179241 0.3916164837 -0.0022118898 -0.3126637345 0.0357169781
35299790.0 -0.3030836981 0.0444222604 0.3949111947 -0.0051284133 0.3951066816 -0.0052350123 -0.3096633087 0.0391901935
40299760.0 -0.2993458766 0.0478918331 0.3981037809 -0.0087322352 0.3983028101 -0.0085484591 -0.3072314129 0.0429890591
45299730.0 -0.2963288387 0.0515384439 0.4011515043 -0.0128902065 0.4010326772 -0.0128809406 -0.3044242192 0.0462981473
50299700.0 -0.2933232877 0.0541410245 0.4036333641 -0.0172401923 0.403610516 -0.0174446374 -0.3017701644 0.0490312805
55299670.0 -0.2907275252 0.0569590228 0.4054263131 -0.0221053757 0.4061323682 -0.0218883216 -0.3005655257 0.0517799204
60299640.0 -0.288165312 0.0590080815 0.4073628348 -0.0269541222 0.4076928299 -0.0269145054 -0.2980255617 0.0546342373
65299610.0 -0.2861121562 0.061801269 0.409174727 -0.0317468449 0.4094247109 -0.0319854888 -0.2960413581 0.0571491167
70299580.0 -0.2840169629 0.0634030834 0.4105300173 -0.0369001062 0.4106294469 -0.0368751388 -0.294713075 0.0594464664
75299550.0 -0.2816471693 0.0658746139 0.411488687 -0.0420711732 0.4114077179 -0.0423888813 -0.2931971149 0.0618979847
80299520.0 -0.2803516243 0.0680894746 0.4128768666 -0.0474455017 0.4125081627 -0.0474426459 -0.2914929347 0.0640291614
85299490.0 -0.2783481577 0.0700474007 0.4129755232 -0.0527346698 0.4131592915 -0.052757462 -0.29038602 0.0666504598
90299460.0 -0.2770767221 0.0720928974 0.413582168 -0.057709202 0.4132420562 -0.0578402313 -0.2883763122 0.0687311416
95299430.0 -0.2756417296 0.073821968 0.4138589249 -0.0632681611 0.4138686671 -0.0630433522 -0.2875568979 0.0710824366
100299400.0 -0.274311734 0.0763723102 0.413725017 -0.0683149737 0.4138233451 -0.0681705425 -0.2866828537 0.0731564496
105299370.0 -0.2728498705 0.0783023305 0.4134604004 -0.073256936 0.4135514736 -0.0737717879 -0.2850640522 0.0755732924
110299340.0 -0.2718268403 0.0804813176 0.4135264274 -0.0785562053 0.4135202908 -0.0790557889 -0.2845550562 0.0779987324
115299310.0 -0.2706194813 0.0823986288 0.4131600932 -0.0835342466 0.413221028 -0.0834689829 -0.2830386367 0.0799832614
120299280.0 -0.2697076228 0.0845281509 0.4128024277 -0.0888449572 0.4126514296 -0.0892441587 -0.282220793 0.082378171
125299250.0 -0.2689347857 0.0865869167 0.4122126459 -0.0938822325 0.4123250829 -0.0941640114 -0.2812720042 0.0849229459
130299220.0 -0.2675095087 0.0889599704 0.4114784719 -0.0987588645 0.4114813558 -0.0992813979 -0.2804850856 0.087519223
135299190.0 -0.266514121 0.0909395388 0.4105836636 -0.1036514743 0.4108677176 -0.1041871178 -0.2796771111 0.0894215591
140299160.0 -0.2659595412 0.0939806374 0.4102809091 -0.1092872741 0.4102265884 -0.1093049696 -0.2785527885 0.0921642125
145299130.0 -0.2646516447 0.0957086645 0.4095565773 -0.1140262729 0.4089945837 -0.1139700537 -0.2779647465 0.0947216856
150299100.0 -0.2638092257 0.0979018912 0.4080599701 -0.1191198656 0.4081733681 -0.1189321652 -0.2769125762 0.0970812564
155299070.0 -0.262970785 0.101005304 0.4072969968 -0.1239686773 0.4075210894 -0.1242479315 -0.2763329054 0.0996320382
160299040.0 -0.2619714418 0.1032646557 0.4057773715 -0.128729395 0.406010758 -0.1288285797 -0.274990741 0.1023555133
165299010.0 -0.2610279116 0.1057348073 0.4047851656 -0.1339379664 0.4047429036 -0.1338232674 -0.274167769 0.1045307968
170298980.0 -0.2600626214 0.1077342891 0.4028063395 -0.1386423132 0.4031667582 -0.1385351345 -0.2730089193 0.1071610313
175298950.0 -0.2588033696 0.1102311773 0.4020625819 -0.1428691687 0.4020506831 -0.1431373818 -0.2723654952 0.1097129994
180298920.0 -0.2577379475 0.1124859096 0.4000251471 -0.1481500768 0.4008082582 -0.1478446818 -0.2710326075 0.1125120956
185298890.0 -0.2569938728 0.1154430222 0.3985739588 -0.1525782487 0.399038636 -0.1528603571 -0.2702574828 0.1145696518
190298860.0 -0.2558522907 0.1178214794 0.3971811779 -0.1575586823 0.3970710471 -0.1575415383 -0.2685881736 0.1177171904
195298830.0 -0.2545895449 0.1198758983 0.3958554885 -0.1617748019 0.3957433345 -0.162246114 -0.2682671887 0.1201646189
200298800.0 -0.2537059908 0.1229749962 0.394152037 -0.1662211487 0.3941895237 -0.1664635679 -0.2665188183 0.1229649915
205298770.0 -0.2526388524 0.1252525581 0.3923023431 -0.1711058018 0.3921583612 -0.1713001244 -0.2657129324 0.1253980316
210298740.0 -0.2514485161 0.1277348485 0.390427082 -0.1758557326 0.3906078267 -0.1761792012 -0.2645851524 0.1285358077
215298710.0 -0.2504461483 0.1301527224 0.3886230731 -0.1800147879 0.3885103645 -0.1800321048 -0.2635198311 0.1308126758
220298680.0 -0.2491593006 0.132796623 0.3862916976 -0.1847456816 0.3867013833 -0.1850144354 -0.262345834 0.133868839
225298650.0 -0.2479511043 0.1355637696 0.3844546872 -0.1889024375 0.3845764654 -0.189217997 -0.2613106816 0.1364222699
230298620.0 -0.2466446841 0.1380890897 0.3828238286 -0.1937637849 0.3826573797 -0.1937147093 -0.2596567225 0.138918743
235298590.0 -0.245483611 0.1405364392 0.3802792686 -0.1980344785 0.3804797106 -0.1981137985 -0.2583009932 0.1417147573
240298560.0 -0.2442136517 0.1432282689 0.3781416236 -0.2020020454 0.3782590473 -0.201795657 -0.2569287509 0.1444953909
245298530.0 -0.24258235 0.1456562932 0.3755313559 -0.2065668238 0.3756992681 -0.2067602763 -0.2554478393 0.1472132107
250298500.0 -0.2415304213 0.1484746538 0.3734281723 -0.210693234 0.3738174655 -0.2105010975 -0.2539308081 0.149729676
255298470.0 -0.2402142885 0.1508214077 0.3712929249 -0.2154570886 0.3712696908 -0.2148387173 -0.2527049716 0.1524813259
260298440.0 -0.2385467522 0.1534222283 0.3692639776 -0.219079803 0.3688197944 -0.2195099786 -0.2507522604 0.1550682862
265298410.0 -0.2372830224 0.1562895089 0.3666151535 -0.2236333757 0.3665357135 -0.2236335852 -0.2498192778 0.157719633
270298380.0 -0.2354273963 0.1587875613 0.3639077004 -0.2276337911 0.3641712572 -0.2278123209 -0.247788964 0.1604286343
275298350.0 -0.2340260011 0.16089875 0.3615150174 -0.2318106716 0.3619442035 -0.2318876139 -0.2465091699 0.1632317384
280298320.0 -0.2326308319 0.1634037604 0.3588750541 -0.2355583315 0.3589854876 -0.235916003 -0.2447191957 0.1658173012
285298290.0 -0.2308010392 0.1663538914 0.3564904831 -0.2398890271 0.3564088112 -0.2396614889 -0.2433974242 0.168642729
290298260.0 -0.22941777 0.1686414077 0.354122487 -0.2440111325 0.3538656924 -0.244026972 -0.2412345457 0.1713306637
295298230.0 -0.2276276556 0.1709224735 0.3515060518 -0.2474476724 0.3510551009 -0.2480451498 -0.2397996956 0.1740131869
300298200.0 -0.2256731364 0.1738455629 0.3483552849 -0.2520206716 0.3483902965 -0.2521356676 -0.237733326 0.1762900959
305298170.0 -0.2239966958 0.1761409243 0.3456186382 -0.2561543496 0.3458385657 -0.2562841966 -0.2357945433 0.1792681955
310298140.0 -0.221893143 0.1785309085 0.3432320243 -0.2603509215 0.3432458483 -0.2603286135 -0.2341294238 0.1820397918
315298110.0 -0.2205764713 0.1811531751 0.3398090666 -0.2638916525 0.339892496 -0.2641181601 -0.2319330028 0.1845212484
320298080.0 -0.2187760831 0.1834036006 0.3370402063 -0.2678456126 0.3368998155 -0.2677802144 -0.2301716011 0.1867146206
325298050.0 -0.2170426307 0.1855979901 0.3342868206 -0.2715433296 0.3341442815 -0.2715147069 -0.2284342694 0.1891098452
330298020.0 -0.2151436541 0.1882306526 0.330696549 -0.2755444474 0.3306911276 -0.275495783 -0.2264275116 0.1918077958
335297990.0 -0.2132732265 0.1902786635 0.3277031379 -0.2792135886 0.3276432186 -0.2788853541 -0.2249948531 0.1941460921
340297960.0 -0.2119182605 0.192931186 0.3245038577 -0.2829550697 0.3245321163 -0.2825855283 -0.2227629068 0.1967418793
345297930.0 -0.2097722566 0.1951117847 0.3210439579 -0.2860868809 0.3205039979 -0.2859452019 -0.2206142657 0.1992019883
350297900.0 -0.2077317994 0.1977646053 0.317774551 -0.2894079096 0.3181742391 -0.2898136409 -0.2188000545 0.2024002263
355297870.0 -0.2061953745 0.1996981953 0.3147128212 -0.2932027313 0.3144653609 -0.2934458252 -0.2166205497 0.2047012205
360297840.0 -0.2039576634 0.2022481453 0.3113134255 -0.296844354 0.3114476381 -0.2967089076 -0.2145105283 0.2072696791
365297810.0 -0.2017141765 0.2044735855 0.3080223101 -0.3001903264 0.3078276404 -0.2999888258 -0.2121155311 0.2098660908
370297780.0 -0.1996606567 0.2066387674 0.3049238033 -0.3033771986 0.3046943357 -0.3035728283 -0.2101988829 0.2119531432
375297750.0 -0.1976727582 0.2095058213 0.301838679 -0.3070863308 0.3012481361 -0.3069717692 -0.2079947724 0.2147899322
380297720.0 -0.1951975228 0.2111670923 0.2977952133 -0.3101168752 0.2980407255 -0.3100179016 -0.2058088033 0.2173851692
385297690.0 -0.1932716402 0.2135746455 0.2943901896 -0.3131105791 0.2943419982 -0.3132005262 -0.2037149901 0.2196092843
390297660.0 -0.1910928156 0.2157530435 0.2909038686 -0.3165452136 0.2907776824 -0.3165687422 -0.2011016624 0.2215144306
395297630.0 -0.1887123068 0.2180017505 0.2878389517 -0.3194552664 0.2872327629 -0.3199973826 -0.1990422019 0.2247595572
400297600.0 -0.1864918909 0.2202522828 0.2837409626 -0.3227785039 0.284392892 -0.323000918 -0.1972707234 0.226486494
405297570.0 -0.1843150258 0.2224686473 0.2804873023 -0.32604626 0.2804084419 -0.3260865246 -0.1945756463 0.2291077506
410297540.0 -0.1816225827 0.2245604236 0.276156844 -0.3289187091 0.2764703228 -0.328876807 -0.1924401444 0.231056
415297510.0 -0.1792882453 0.2268225053 0.2728031556 -0.332099527 0.2729934624 -0.3320894597 -0.1897921239 0.2336017514
420297480.0 -0.1770455293 0.2284750932 0.2690606259 -0.3353666656 0.2690655245 -0.3349012892 -0.1873775038 0.2357626371
425297450.0 -0.1745436501 0.2303734629 0.2654053612 -0.3377447559 0.2659658372 -0.3379224635 -0.1848048627 0.2382151773
430297420.0 -0.1724434294 0.2328373141 0.2619330303 -0.3413057861 0.2620638521 -0.3407668549 -0.1826228144 0.2399856036
435297390.0 -0.1697459383 0.2345812163 0.2579863837 -0.3435375204 0.2582494035 -0.3432473644 -0.1797567375 0.2424452838
440297360.0 -0.1672485622 0.2365512557 0.2540825155 -0.34661578 0.253917762 -0.346152282 -0.1775644748 0.2441860154
445297330.0 -0.1646678639 0.2383861624 0.2500461761 -0.3493065557 0.2505306878 -0.3491775964 -0.1751741891 0.2465053205
450297300.0 -0.1623100969 0.2403681767 0.246234351 -0.3517620667 0.246670731 -0.3517573674 -0.1726143558 0.2485207977
455297270.0 -0.15992167 0.2423087916 0.2428314621 -0.3545688468 0.2427569892 -0.3544024841 -0.1697175578 0.2507160097
460297240.0 -0.157694611 0.2440427067 0.2387748734 -0.3566849787 0.2383665286 -0.3569747774 -0.1671861202 0.2529541314
465297210.0 -0.1546767074 0.2457575499 0.234923759 -0.3598176744 0.2350396529 -0.3594811406 -0.1649342893 0.2546072536
470297180.0 -0.152273556 0.2474615159 0.2307469239 -0.3619696207 0.231178842 -0.3621615464 -0.1625635049 0.2566390278
475297150.0 -0.1497086016 0.2495006477 0.2265932233 -0.3645799133 0.2265404725 -0.3641398052 -0.1591001308 0.2585960086
480297120.0 -0.147045532 0.2505865265 0.2223514231 -0.3667378238 0.223176792 -0.3669325595 -0.1569360372 0.2608067889
485297090.0 -0.1443262699 0.2524820228 0.2186673737 -0.3691856113 0.2188430249 -0.3692360065 -0.1544597214 0.26229629
490297060.0 -0.141638396 0.2541277185 0.2145234441 -0.3716668981 0.214598903 -0.3718469632 -0.1515008091 0.2642634959
495297030.0 -0.139224668 0.2561820356 0.2106353687 -0.3740864688 0.2102235484 -0.3738314801 -0.148677743 0.2654927349
500297000.0 -0.1362709414 0.2576541009 0.2061985085 -0.3763756223 0.2067202009 -0.3760811869 -0.146268295 0.2674450466
505296970.0 -0.1335925844 0.2588943116 0.2020843399 -0.3780436238 0.2025354761 -0.3779423272 -0.1437371318 0.2693630623
510296940.0 -0.130743374 0.2608460309 0.1980477144 -0.380851271 0.1982536634 -0.3803942005 -0.1407078242 0.2713342426
515296910.0 -0.1283346626 0.2624620301 0.1937368581 -0.3824967519 0.1942855814 -0.3827438912 -0.137952858 0.2727375563
520296880.0 -0.1251454952 0.2638949709 0.1896297307 -0.3847757852 0.1898558357 -0.3843726503 -0.1348414455 0.2743019803
525296850.0 -0.12283996 0.2651164158 0.18547821 -0.3864925859 0.1857166421 -0.3867651636 -0.13206652 0.2762862239
530296820.0 -0.1200324403 0.2665859133 0.1816755062 -0.3883298692 0.1814695671 -0.3881965687 -0.1296366748 0.2774796851
535296790.0 -0.1169921589 0.2681592839 0.1768158647 -0.3902844871 0.1773594062 -0.3902804361 -0.1267093141 0.2788553106
540296760.0 -0.1141178247 0.2691961924 0.1724961867 -0.392508913 0.172553518 -0.3924105094 -0.1241735577 0.280786476
545296730.0 -0.1113765737 0.2707885051 0.1685518733 -0.394258787 0.1684445271 -0.3942412467 -0.1211858801 0.2820919291
550296700.0 -0.1088446364 0.2721568389 0.1644379737 -0.3960077799 0.1644946818 -0.396155418 -0.1180267036 0.283692595
555296670.0 -0.1050703484 0.2731301852 0.1595196966 -0.3976468548 0.1599452455 -0.3974586448 -0.1153889626 0.2851383069
560296640.0 -0.1026936013 0.2743050496 0.1554997133 -0.3988373241 0.1557116396 -0.3991170346 -0.1121831563 0.2862971988
565296610.0 -0.1002232167 0.2756095462 0.1511190893 -0.4007020954 0.1511366074 -0.4010001603 -0.109453684 0.2878005366
570296580.0 -0.097066892 0.2768065034 0.1466302582 -0.4022277138 0.1468462819 -0.40269459 -0.1065371035 0.2895144495
575296550.0 -0.0938210075 0.2782847895 0.1421648672 -0.4039078867 0.1428963278 -0.4037508511 -0.1032952992 0.2904607844
580296520.0 -0.091039823 0.2795057136 0.1383188296 -0.4057182969 0.1379817623 -0.4054737399 -0.1003224452 0.2915996409
585296490.0 -0.0879900171 0.2803138659 0.133520002 -0.407020144 0.1334468361 -0.4071175036 -0.0974797043 0.2921737958
590296460.0 -0.0855975657 0.2813466472 0.1293605077 -0.4081535978 0.1288638091 -0.4081576616 -0.0942199431 0.2937342731
595296430.0 -0.0823510798 0.282538174 0.1249706524 -0.4094441937 0.1244825908 -0.4099086819 -0.0915895339 0.2946721109
600296400.0 -0.0793836174 0.2834438896 0.1205907834 -0.4108012299 0.1207361896 -0.4112985356 -0.0885398493 0.2962868642
605296370.0 -0.0764079535 0.2847586375 0.1158049269 -0.412595798 0.1157035895 -0.4120388783 -0.085220937 0.2973045526
610296340.0 -0.0733083333 0.2853850768 0.1116103083 -0.413270097 0.1113878639 -0.4140694025 -0.0821319982 0.2987375866
615296310.0 -0.0704221357 0.2865836186 0.1068615364 -0.4147651391 0.106662371 -0.4144244049 -0.0790578851 0.2990823418
620296280.0 -0.0672757451 0.2870946045 0.1026786233 -0.4156041183 0.1024528139 -0.4156402549 -0.0762823331 0.2999268219
625296250.0 -0.0640666543 0.2881231537 0.0973556249 -0.4166342553 0.097474146 -0.4167455201 -0.0728574438 0.3010389437
630296220.0 -0.0610010759 0.2889544741 0.0932351536 -0.4178566866 0.0935378133 -0.4175848782 -0.0699917493 0.3024977445
635296190.0 -0.0580562124 0.2897433409 0.0888921562 -0.4183172794 0.0887089339 -0.4183203924 -0.0669445886 0.3027731277
640296160.0 -0.0551770341 0.2903304817 0.084370753 -0.4195328662 0.0841459841 -0.4195967729 -0.0636303546 0.3034272288
645296130.0 -0.0521937821 0.2915479229 0.0795535428 -0.4206306718 0.0797010196 -0.4204541694 -0.0609485846 0.3044732305
650296100.0 -0.0489521186 0.2922139304 0.0754137039 -0.4210697606 0.075075485 -0.4211131533 -0.0575406003 0.3051290477
655296070.0 -0.0457540885 0.2922811808 0.0705673224 -0.4217409234 0.0702866769 -0.4216969501 -0.0540114132 0.3058729928
660296040.0 -0.0429297527 0.2934314791 0.0660637728 -0.422090809 0.0657310376 -0.4224968639 -0.0512217721 0.3067396909
665296010.0 -0.0395564456 0.2937530717 0.0612009279 -0.4229740515 0.0620748363 -0.4233243691 -0.0483894027 0.3074963039
670295980.0 -0.0363533117 0.2943134011 0.0566997751 -0.4237730573 0.0571857657 -0.4238605883 -0.0454192724 0.3078287001
675295950.0 -0.0332758566 0.294780732 0.0519040298 -0.4244281099 0.0521801886 -0.4245954352 -0.0415391681 0.3084927065
680295920.0 -0.0304835762 0.2957752954 0.0476074314 -0.4250233265 0.0475831546 -0.424917283 -0.0387214181 0.3089570261
685295890.0 -0.0272854557 0.2961799944 0.0430992923 -0.4251323237 0.0427775363 -0.4255983127 -0.0350803409 0.3097080012
690295860.0 -0.0237807981 0.2965782232 0.038279652 -0.425398896 0.0383659606 -0.425570245 -0.0321434633 0.3102145421
695295830.0 -0.0207858016 0.2964924805 0.0332781384 -0.4257057391 0.0333464679 -0.4263460814 -0.0286900778 0.3108412254
700295800.0 -0.0174075086 0.2969662154 0.0285015625 -0.4262954553 0.0290376921 -0.4265935159 -0.0256623979 0.3107447683
705295770.0 -0.0142036247 0.2976676893 0.0243699538 -0.4266307808 0.0244296164 -0.4264304018 -0.0224789116 0.3115421908
710295740.0 -0.0114100892 0.2977970574 0.0199662148 -0.4268323097 0.0197373374 -0.4266211703 -0.0196920637 0.3124482347
715295710.0 -0.0084980761 0.2981951412 0.0151667484 -0.4270795378 0.015231193 -0.4274343085 -0.0162530354 0.3123545336
720295680.0 -0.0052737403 0.2983704073 0.0103912851 -0.4269930116 0.0107939284 -0.4274207668 -0.0128877707 0.3126800009
725295650.0 -0.0016725984 0.2986640792 0.0058606168 -0.4270893572 0.0058877437 -0.4273968003 -0.0094771496 0.3128951509
730295620.0 0.0011886841 0.2983201389 0.0013513139 -0.4268670653 0.0014605127 -0.4269380017 -0.0061978687 0.3125335861
735295590.0 0.0048058778 0.2985687781 -0.003175246 -0.4269994146 -0.003107581 -0.4273845377 -0.0027532813 0.3132931811
740295560.0 0.0077028279 0.2988791806 -0.0080507355 -0.4266188341 -0.0083049813 -0.4270763793 0.0004819873 0.3131763254
745295530.0 0.0107820065 0.2987449226 -0.0125304788 -0.4265543906 -0.0122974009 -0.4269913972 0.0033844597 0.3134832427
750295500.0 0.014296089 0.2988086314 -0.0171921796 -0.4263892634 -0.0171663928 -0.4265656203 0.006950703 0.3133968266
755295470.0 0.0175389423 0.2989756966 -0.0215338631 -0.4264352871 -0.0216841033 -0.4265681565 0.0097848881 0.313709654
760295440.0 0.0204690527 0.2990128019 -0.0267770532 -0.4261444831 -0.0263465829 -0.4261341531 0.0128487374 0.3135344281
765295410.0 0.0235916282 0.2986459263 -0.0308851058 -0.4255328187 -0.0307448326 -0.4259088344 0.0171446076 0.3137592172
770295380.0 0.0267517387 0.2987152575 -0.03556091 -0.4250836779 -0.0358036662 -0.4257334171 0.0199175911 0.3136868423
775295350.0 0.0297813701 0.2987458582 -0.0402714457 -0.4246216609 -0.039968908 -0.4247291825 0.0231064808 0.3129041685
780295320.0 0.0333443332 0.2982536655 -0.04499176 -0.4240199136 -0.0446316383 -0.4244311493 0.0262544337 0.3134615708
785295290.0 0.0362146724 0.2985712951 -0.0489034617 -0.423216992 -0.0492455449 -0.4237045485 0.0292722271 0.3132541648
790295260.0 0.0394231697 0.2980458531 -0.0536944169 -0.4233272909 -0.0540752281 -0.4234899496 0.0328106159 0.3128346806
795295230.0 0.0421922393 0.298250836 -0.0577648622 -0.4225142292 -0.0582397545 -0.4229142051 0.0361102464 0.31363306
800295200.0 0.0460439933 0.2977454094 -0.063249456 -0.4220816491 -0.0631917901 -0.4219538747 0.0393881425 0.3125052075
805295170.0 0.0487138558 0.2971630093 -0.0672875682 -0.4208339418 -0.0674987728 -0.4211004612 0.0423820802 0.312367949
810295140.0 0.0520769834 0.2969507874 -0.0717060121 -0.4203250591 -0.0719707442 -0.4207628861 0.0458763347 0.3124239246
815295110.0 0.0549755122 0.2961646395 -0.076836824 -0.4189707368 -0.0766436733 -0.4195252013 0.0491284232 0.3117965189
820295080.0 0.058381997 0.2954747974 -0.0810722824 -0.4185979635 -0.0809492284 -0.4187793408 0.0522185609 0.3114060675
825295050.0 0.0616858283 0.295417008 -0.085551871 -0.4172123417 -0.0854279798 -0.4177849405 0.0555114803 0.3112549204
830295020.0 0.0646490451 0.2949794551 -0.0901068911 -0.4164259212 -0.0905574877 -0.4168033376 0.0588182523 0.3104210888
