!Created with skrf (http://scikit-rf.org).
# Hz S RI R 50.0 
!freq ReS11 ImS11 ReS21 ImS21 ReS12 ImS12 ReS22 ImS22
300000.0 -0.2423769307 -0.081206233 0.4730496279 0.0557614369 0.4715915366 0.0522921077 -0.2412019955 -0.0925143128
5299970.0 -0.2452158115 0.0066825736 0.4746330769 0.0049498514 0.4747946134 0.0048395034 -0.2413972516 0.0075457691
10299940.0 -0.24187686 0.0182483208 0.4769259267 0.0056438185 0.4766963933 0.0061327454 -0.2379768909 0.0206319467
15299910.0 -0.2377153777 0.0269486099 0.480694432 0.0075762695 0.4805731236 0.0075826903 -0.2333531541 0.0301815842
20299880.0 -0.2328890161 0.0342389527 0.4851590714 0.0080793482 0.4849387052 0.0080551646 -0.2280630733 0.037933636
25299850.0 -0.2278433207 0.0405357222 0.4900984025 0.0070266799 0.4902308445 0.0071084364 -0.2223213097 0.0443912173
30299820.0 -0.2225612238 0.0450249018 0.49557762 0.0049029896 0.4956050077 0.0047879823 -0.2162959186 0.0500151776
35299790.0 -0.2174219152 0.0489212128 0.5009767986 0.0013155541 0.5008464413 0.0012702642 -0.2107124761 0.0542557724
40299760.0 -0.21271438 0.0524041198 0.505800376 -0.0021290886 0.5060828627 -0.0023814131 -0.2055854948 0.0572657129
45299730.0 -0.2077057637 0.0546714026 0.5105480948 -0.0071154515 0.5108048748 -0.0068082847 -0.2004298998 0.0600986706
50299700.0 -0.2039046407 0.0568106674 0.5147455676 -0.0126269376 0.5147601283 -0.0122493394 -0.1956722949 0.0621972376
55299670.0 -0.1998017915 0.0584412293 0.5188123737 -0.0190413383 0.5184131799 -0.0185289824 -0.1913921264 0.063918109
60299640.0 -0.1958039716 0.0599722411 0.5219666809 -0.0247969967 0.5220500467 -0.0247589309 -0.1873291163 0.0652771754
65299610.0 -0.1929152866 0.0608689262 0.5245784298 -0.0309078014 0.5249232039 -0.0310764119 -0.1841961969 0.0665988814
70299580.0 -0.1899249294 0.0620574945 0.5268832452 -0.0380705329 0.5271563847 -0.03765772 -0.1806983569 0.0674173606
75299550.0 -0.1870528807 0.0631210675 0.5289499958 -0.0446051829 0.5290324699 -0.044598023 -0.1778109997 0.0681797526
80299520.0 -0.1846145155 0.0636734439 0.5309172289 -0.0518805913 0.5310628551 -0.0515962867 -0.174893803 0.069022246
85299490.0 -0.1823200279 0.0640043075 0.5318706135 -0.0580001773 0.5322966029 -0.0577966432 -0.1729570524 0.0695083814
90299460.0 -0.1804758054 0.064734679 0.5330967471 -0.0652248577 0.5335016913 -0.0651249144 -0.1698696424 0.070368095
95299430.0 -0.1784345265 0.0651792451 0.5345433534 -0.0717247749 0.534049336 -0.072066346 -0.1679681209 0.0711510964
100299400.0 -0.1765102702 0.0661207606 0.5338978271 -0.0787896288 0.5342657779 -0.0788090406 -0.1660524361 0.0716529196
105299370.0 -0.1748467113 0.0668950836 0.534767109 -0.0862264891 0.5350250533 -0.0860623225 -0.1639918812 0.0729494809
110299340.0 -0.1733964749 0.0673795751 0.5348493577 -0.0924811961 0.5348571435 -0.0922622371 -0.1627020015 0.0731917895
115299310.0 -0.171887119 0.068009752 0.5349470712 -0.0991472387 0.5346982414 -0.099407506 -0.1610313072 0.0740129489
120299280.0 -0.1706723068 0.0684356684 0.5346959456 -0.1063883848 0.5344964566 -0.1061419587 -0.1594072566 0.0748688823
125299250.0 -0.1697354502 0.0690342516 0.5343289406 -0.1128130337 0.5341900732 -0.112683818 -0.1586997519 0.0751602221
130299220.0 -0.1686331788 0.0702720137 0.533366696 -0.1196912576 0.5333061903 -0.1196699262 -0.1572704298 0.076184462
135299190.0 -0.167439335 0.0713534478 0.5329437568 -0.1266201912 0.5328981721 -0.1259918057 -0.1559233876 0.0770945214
140299160.0 -0.1667453385 0.0719437795 0.5322099154 -0.133062151 0.532236406 -0.1331425504 -0.1548448724 0.0782865996
145299130.0 -0.1654020958 0.0731078467 0.5311371245 -0.1398633019 0.531122609 -0.1394167411 -0.1535751283 0.079249292
150299100.0 -0.1644289394 0.0739891688 0.5300009761 -0.1457333451 0.5301737343 -0.1455961801 -0.1527852443 0.0804227812
155299070.0 -0.1640518019 0.0746923347 0.5294064109 -0.1532925286 0.5290529157 -0.1524861383 -0.1514755582 0.0814883301
160299040.0 -0.1631311186 0.0760453892 0.5274106315 -0.1592677566 0.5272976597 -0.1587410947 -0.1511974745 0.0822362515
165299010.0 -0.1622556144 0.0769485351 0.5258354982 -0.1658981691 0.5260623852 -0.1656726816 -0.1493270261 0.0839246491
170298980.0 -0.1614357253 0.0778254552 0.5242297967 -0.1722305145 0.5247364735 -0.1720750461 -0.1486926874 0.0847951841
175298950.0 -0.1610393822 0.0789397256 0.5234090158 -0.1778604722 0.5225988456 -0.1775928025 -0.1481663229 0.0858523376
180298920.0 -0.1598616185 0.0800883398 0.5210357656 -0.1842847317 0.5209060701 -0.1836717961 -0.1468958325 0.0873833829
185298890.0 -0.158931604 0.0809485038 0.5193239545 -0.1905170313 0.5189576257 -0.1901454164 -0.1459187072 0.0886012758
190298860.0 -0.1583690329 0.0824535174 0.5173366886 -0.1964221656 0.5178572054 -0.196785818 -0.1452546425 0.0897771676
195298830.0 -0.1578450706 0.0832435925 0.5157332923 -0.2027336192 0.515498842 -0.2025373157 -0.1440475835 0.0908718299
200298800.0 -0.1570384581 0.0846324884 0.5133281132 -0.2089944585 0.5132882246 -0.2089515318 -0.1436033844 0.0920323249
205298770.0 -0.1562146412 0.085811622 0.5106683245 -0.215255382 0.5111413505 -0.2148258779 -0.1423955607 0.0929459222
210298740.0 -0.1556121128 0.0871533439 0.5085206186 -0.2207888295 0.5086359795 -0.2204843542 -0.1412224283 0.0949051748
215298710.0 -0.1549550111 0.0882361139 0.5064492895 -0.2269061226 0.5060381788 -0.2272199669 -0.1401728294 0.0961745344
220298680.0 -0.1540200009 0.0892697515 0.503765538 -0.2327927743 0.503721315 -0.2328053405 -0.1397673965 0.0971883892
225298650.0 -0.1532769727 0.0906133437 0.5011997928 -0.2384434881 0.501721264 -0.2384257768 -0.1388529938 0.0984415226
230298620.0 -0.1526710728 0.0922534445 0.4991112635 -0.2438130939 0.4995387971 -0.2443097167 -0.1377971424 0.099864106
235298590.0 -0.1517170539 0.0936180704 0.4965266726 -0.2496730568 0.4963733414 -0.2495684553 -0.1366620448 0.1016176868
240298560.0 -0.1510453483 0.095006947 0.4938054972 -0.2560208228 0.4938570989 -0.2558254271 -0.1357875316 0.1031717513
245298530.0 -0.1505272265 0.0961852313 0.4912745235 -0.2615812883 0.490793299 -0.2620439296 -0.1346713544 0.104027298
250298500.0 -0.1491730642 0.0975178944 0.4876478888 -0.2670855294 0.4878268103 -0.2668207147 -0.134084956 0.1054581659
255298470.0 -0.1485426712 0.0982644905 0.4846455968 -0.2726246253 0.4851775724 -0.2725481664 -0.1322559671 0.106845066
260298440.0 -0.1480752365 0.0999552871 0.4820741035 -0.2784093146 0.4824105304 -0.2784011267 -0.131188815 0.108286143
265298410.0 -0.1466440415 0.1014769644 0.4789353895 -0.2837635364 0.4793105534 -0.2832214328 -0.1306556968 0.1099603482
270298380.0 -0.146047225 0.1026871366 0.4764372133 -0.2889061682 0.4763496372 -0.2893000737 -0.1293223704 0.1111957474
275298350.0 -0.1449180355 0.104158563 0.4732836856 -0.2945822141 0.47335061 -0.2946342357 -0.1280043633 0.1125517268
280298320.0 -0.1438962541 0.1058477839 0.4698306078 -0.3002112962 0.4698438037 -0.2997670379 -0.1268030003 0.1137876076
285298290.0 -0.142909149 0.1072110495 0.4666356445 -0.3052647861 0.4664948042 -0.3052288676 -0.1254729732 0.1150656685
290298260.0 -0.1418813824 0.1083862833 0.46305715 -0.3102321409 0.4634029203 -0.3104131002 -0.1242971926 0.1171558859
295298230.0 -0.1409335608 0.1093992718 0.4600410103 -0.315682711 0.4598506575 -0.315659879 -0.1228217663 0.1179907634
300298200.0 -0.1405999818 0.1109124628 0.4570008794 -0.3207293454 0.4569859549 -0.3210836518 -0.1218884312 0.1196226147
305298170.0 -0.1389362497 0.1119724326 0.4528229779 -0.3264757735 0.4529616428 -0.3264333225 -0.1200733798 0.1205789906
310298140.0 -0.1382415796 0.1138772551 0.4496071398 -0.3317882064 0.4497527798 -0.3314775039 -0.1191422785 0.1220699439
315298110.0 -0.1371263751 0.1145020385 0.4458750181 -0.3364893102 0.4460688365 -0.336842359 -0.1178113015 0.1230958782
320298080.0 -0.1357838556 0.1160626499 0.4414726459 -0.3419598219 0.4422154439 -0.3419009261 -0.1165737634 0.124465091
325298050.0 -0.1353117093 0.1171904293 0.4382879647 -0.3467349163 0.4383626095 -0.3469340125 -0.1156763534 0.1257169835
330298020.0 -0.1341027782 0.1181313988 0.4338031293 -0.3516978744 0.4340307268 -0.3518849506 -0.1146078857 0.1267108819
335297990.0 -0.1329551839 0.1194588237 0.4300933157 -0.3564474326 0.4300470797 -0.3564096803 -0.1141138043 0.1284658687
340297960.0 -0.1327425155 0.1208744536 0.4257872406 -0.3611261245 0.4257771505 -0.361627926 -0.1120575943 0.1296985316
345297930.0 -0.1314191323 0.1228936171 0.4220367069 -0.3661090501 0.4216105299 -0.3663217345 -0.1110126931 0.1307835685
350297900.0 -0.1305914942 0.1238349438 0.4171795626 -0.3703745632 0.4176242193 -0.3709608394 -0.1097783929 0.132742245
355297870.0 -0.1290120628 0.1256728451 0.413419382 -0.3753039472 0.4139089137 -0.3754106693 -0.108463408 0.1336248422
360297840.0 -0.1281935657 0.1269154427 0.4100856048 -0.3795671141 0.410329715 -0.379680164 -0.1070054352 0.1353580445
365297810.0 -0.1272179087 0.1282609958 0.405019787 -0.3845014981 0.4055754444 -0.3843344576 -0.105479686 0.1364726061
370297780.0 -0.1255864939 0.1294106613 0.4006723511 -0.3886328481 0.4013679689 -0.3885214365 -0.1038512344 0.137943467
375297750.0 -0.124397154 0.1308658044 0.3967902549 -0.3925776934 0.3971578887 -0.3930886316 -0.1025231203 0.1389409476
380297720.0 -0.1234249771 0.1321886848 0.3924490865 -0.3978456252 0.3926249088 -0.3966080476 -0.101666522 0.140168747
385297690.0 -0.1225383512 0.1334057736 0.3880903521 -0.4015060567 0.3878758327 -0.4017114422 -0.0997598986 0.141874121
390297660.0 -0.1211585161 0.1349116403 0.3837668349 -0.4060685272 0.3833667525 -0.4056437478 -0.0981480672 0.1428508972
395297630.0 -0.1198250686 0.1364378871 0.3794153721 -0.4101985331 0.379509086 -0.4100801571 -0.0963817723 0.1441142702
400297600.0 -0.1187694605 0.1375860007 0.3742254518 -0.4150155876 0.374698225 -0.4142633988 -0.0948060481 0.1453803355
405297570.0 -0.1178296032 0.1385851551 0.3699287294 -0.4184023604 0.3703617664 -0.4183492069 -0.0939566477 0.1467803491
410297540.0 -0.1161583451 0.1399513046 0.3657549843 -0.4227806739 0.3661891017 -0.4223939024 -0.0922074125 0.1482755398
415297510.0 -0.1144887743 0.1408978435 0.3605052799 -0.4267452445 0.3609664323 -0.4264068489 -0.0904137212 0.1490430819
420297480.0 -0.1134927786 0.142718178 0.3559357262 -0.4303241381 0.3558552153 -0.4306990908 -0.0888763335 0.1500687203
425297450.0 -0.1121256119 0.1432046946 0.3518104671 -0.4340053 0.3521765768 -0.4342724968 -0.0875615193 0.1515899698
430297420.0 -0.1108489952 0.144481663 0.3465273992 -0.437363943 0.3467872202 -0.437619384 -0.085839356 0.152332401
435297390.0 -0.1097294191 0.1461071154 0.3415142474 -0.4418601029 0.3413318456 -0.4418534708 -0.0833950663 0.1537205073
440297360.0 -0.107758316 0.147316335 0.3369627391 -0.4450146976 0.337097834 -0.4453645184 -0.0823557096 0.1543607364
445297330.0 -0.1068955872 0.1482944991 0.3323452412 -0.4488209647 0.332338478 -0.4489239321 -0.0805728615 0.1552624223
450297300.0 -0.1052183885 0.1495028496 0.3271040441 -0.4527359377 0.3272440382 -0.4528032418 -0.0788975772 0.1565886371
455297270.0 -0.1037444811 0.1506852107 0.3220802001 -0.4562419482 0.322505541 -0.4560811194 -0.07712853 0.1569519506
460297240.0 -0.1024299665 0.1518395094 0.3173871319 -0.4596286449 0.3173629003 -0.459903924 -0.0755987842 0.1584603018
465297210.0 -0.1008641001 0.1531967403 0.3122620023 -0.4632092157 0.3118479649 -0.4634302123 -0.0736761135 0.1592403206
470297180.0 -0.0991677178 0.1540625969 0.3067775685 -0.4665921424 0.3069624952 -0.4668210264 -0.0717594471 0.1604637455
475297150.0 -0.0977173222 0.1549525946 0.3018891669 -0.469368569 0.3021196763 -0.469290457 -0.0698165171 0.1613526539
480297120.0 -0.0965553671 0.156625947 0.296785218 -0.4731231034 0.2970079191 -0.4731955291 -0.0682186058 0.1622366776
485297090.0 -0.0949943443 0.1573066246 0.2914649006 -0.4762084513 0.2918599885 -0.4757476062 -0.0662797864 0.1631248954
490297060.0 -0.093763841 0.1583742996 0.2867178875 -0.4794364098 0.286657916 -0.4789605428 -0.0645180943 0.1642177731
495297030.0 -0.0922992342 0.1595974336 0.2811433819 -0.4824389151 0.2816458253 -0.482454947 -0.063019906 0.1649902023
500297000.0 -0.0905132071 0.1603320093 0.2758917384 -0.4847689417 0.2758123962 -0.4849748551 -0.061051241 0.1664857989
505296970.0 -0.0886455485 0.161436018 0.2707046424 -0.4882712848 0.2705910681 -0.4882784251 -0.0593981496 0.166895991
510296940.0 -0.0873776883 0.1624123024 0.2654841208 -0.4912071731 0.2650683807 -0.4916993061 -0.057077805 0.1677219453
515296910.0 -0.0857810118 0.1635282307 0.259761943 -0.4939880523 0.2603548098 -0.4938508295 -0.0556566527 0.1686908983
520296880.0 -0.0842456147 0.1644709473 0.2543953456 -0.4971181176 0.2543666659 -0.496794783 -0.0537547612 0.1692856945
525296850.0 -0.0824181979 0.1647572503 0.2488308218 -0.4991236755 0.2495084272 -0.4997150129 -0.0520682606 0.1698797681
530296820.0 -0.0807332112 0.1664952473 0.2436045879 -0.5024548308 0.2436822467 -0.5020626724 -0.0497535103 0.1707128588
535296790.0 -0.0796791802 0.1672334653 0.2385724518 -0.5045680246 0.2386726183 -0.5044703219 -0.0480625733 0.1711264067
540296760.0 -0.0780665367 0.1682192654 0.2326043521 -0.5079255007 0.2324780024 -0.5073447061 -0.0465166048 0.1721939269
545296730.0 -0.0762973281 0.1692783475 0.2267207526 -0.5097760818 0.2274062982 -0.5095077007 -0.0443052527 0.172655469
550296700.0 -0.0745117786 0.1699396456 0.2213037436 -0.5120758612 0.221936167 -0.5122053667 -0.0427208406 0.1735203455
555296670.0 -0.073158523 0.1707146536 0.2161030621 -0.5145598193 0.2163542356 -0.5144101441 -0.0407366649 0.1742482609
560296640.0 -0.0711543941 0.1716644448 0.2105150534 -0.5171249265 0.2104140653 -0.5170133271 -0.0388299643 0.1744832222
565296610.0 -0.0697518413 0.1723944945 0.2048599366 -0.5190240719 0.2049065763 -0.519078149 -0.0367768248 0.1748864269
570296580.0 -0.0682228399 0.1731556417 0.1992064313 -0.5217618931 0.198726577 -0.5212870396 -0.0348759378 0.1761065332
575296550.0 -0.0663500673 0.1742859647 0.1933357456 -0.5234943255 0.193383906 -0.5235020224 -0.0329614567 0.1763905301
580296520.0 -0.0648084502 0.174763761 0.1880056965 -0.525705079 0.1880385714 -0.525634278 -0.0310599208 0.1768254189
585296490.0 -0.0631553714 0.1753893277 0.181892899 -0.5272403772 0.1826495377 -0.5275015597 -0.0289364561 0.1774185655
590296460.0 -0.061192269 0.1762234396 0.1765450807 -0.5288624698 0.1766043873 -0.5292651589 -0.0273595404 0.1775840038
595296430.0 -0.0596185281 0.1771777264 0.1701436338 -0.5311079608 0.1702141827 -0.5312703846 -0.0251129049 0.177781111
600296400.0 -0.0579996244 0.1775995398 0.1646170803 -0.5330223971 0.1650806295 -0.5328481714 -0.0234067202 0.1787927172
605296370.0 -0.0563494982 0.1783277991 0.1589522466 -0.5345872435 0.1593731446 -0.5347633823 -0.0212497908 0.1789753517
610296340.0 -0.0545226556 0.1790029513 0.1530662029 -0.5360000792 0.1533645677 -0.5360427998 -0.0190715859 0.1793418338
615296310.0 -0.0524666757 0.1794510724 0.1473278694 -0.5376731352 0.1474005649 -0.5383429913 -0.0167451347 0.1796793886
620296280.0 -0.0509667364 0.1799315091 0.1414967329 -0.5389241557 0.1415902217 -0.5392107323 -0.0152517662 0.1800819876
625296250.0 -0.0495363613 0.1807215284 0.1365519325 -0.5410569721 0.1361681213 -0.5411978761 -0.0125988874 0.1801717405
630296220.0 -0.0470087662 0.1814732018 0.1295566134 -0.5422503868 0.1296203899 -0.542237117 -0.0108654136 0.1809179183
635296190.0 -0.0459894567 0.1818563967 0.1242512062 -0.5433911848 0.1241830823 -0.5438640164 -0.0089720307 0.1812826957
640296160.0 -0.044086971 0.1828860497 0.118314353 -0.5447259317 0.1185614132 -0.5447643203 -0.0068543652 0.1812580823
645296130.0 -0.042021675 0.1836507443 0.1121116797 -0.5461203113 0.1125893907 -0.5462367432 -0.0047912638 0.181638306
650296100.0 -0.0402362908 0.184082771 0.1060164833 -0.5467534634 0.1063916004 -0.5472277433 -0.0025502458 0.1816199158
655296070.0 -0.0389054541 0.1844683406 0.1006463518 -0.5482820805 0.1005977447 -0.5480970799 -0.0005850544 0.1819610321
660296040.0 -0.037247347 0.1843934653 0.0949240399 -0.5491615007 0.0948646312 -0.5493911809 0.0015724552 0.1821812275
665296010.0 -0.0346484171 0.1850052945 0.0884703853 -0.5501530674 0.0887543633 -0.5505528052 0.0035064322 0.1825935502
670295980.0 -0.0337612376 0.1856346279 0.0825524135 -0.5511642041 0.0828161484 -0.5511782878 0.0052903832 0.1822912223
675295950.0 -0.0317700313 0.186390691 0.0767873201 -0.5516822086 0.0770843262 -0.5514900181 0.0069755593 0.1827113013
680295920.0 -0.0299675733 0.1865385466 0.0708058804 -0.552465048 0.0700101413 -0.553036333 0.0092245915 0.1830747938
685295890.0 -0.0280771759 0.187538802 0.0644894168 -0.5533814883 0.0647030068 -0.5534703793 0.0111690717 0.1829999046
690295860.0 -0.0259128446 0.1875130807 0.0586838535 -0.5532391256 0.0587497054 -0.5547297926 0.0130751169 0.1833581367
695295830.0 -0.0246009346 0.1879749947 0.0533537446 -0.5544169774 0.0525199206 -0.554339377 0.0152615688 0.1831020501
700295800.0 -0.0225363168 0.1880117087 0.0465300448 -0.5544856209 0.0465529859 -0.5552297877 0.0170114606 0.1834076937
705295770.0 -0.0208959652 0.1891002099 0.0408810717 -0.5554089744 0.0411935904 -0.5555648268 0.0190297603 0.1833710215
710295740.0 -0.0187053489 0.1892415174 0.0349416072 -0.5562313548 0.0351670557 -0.5563423509 0.0214133212 0.1825827215
715295710.0 -0.0173320631 0.1892125866 0.0292642268 -0.5562439585 0.0286725115 -0.5562938535 0.0233074238 0.1826135119
720295680.0 -0.0153880154 0.1894216034 0.022951339 -0.5565939861 0.0229535568 -0.5563813546 0.0255468926 0.1828939925
725295650.0 -0.0131819299 0.1900504666 0.0169245624 -0.55656626 0.0170530713 -0.5569078392 0.0270219881 0.1829588976
730295620.0 -0.011467665 0.1903443496 0.0108015572 -0.5565094044 0.011223237 -0.5567014079 0.0289299875 0.1823244779
735295590.0 -0.0095388013 0.1906667391 0.0047995349 -0.5570937855 0.0046465445 -0.5567939873 0.030897594 0.1821455117
740295560.0 -0.0079107302 0.1909191114 -0.0011235049 -0.5566337783 -0.0010810916 -0.5573557141 0.0335916881 0.1825202953
745295530.0 -0.0062493713 0.1911913048 -0.0073771079 -0.5560686331 -0.0073206207 -0.5568543942 0.035319329 0.1816229392
750295500.0 -0.0041900536 0.1912876118 -0.0130615829 -0.5564531647 -0.0129718384 -0.5567121843 0.0373474627 0.1814961012
755295470.0 -0.0025249726 0.19147779 -0.0187337847 -0.5563164606 -0.0188100627 -0.5566234314 0.0397416079 0.1809243165
760295440.0 -0.0006067921 0.1914211258 -0.0249895444 -0.556438373 -0.0250050728 -0.5563746031 0.0417340926 0.1807320005
765295410.0 0.0014337738 0.1920781261 -0.0313075188 -0.5558219722 -0.0310182512 -0.5558733082 0.043520206 0.1807088772
770295380.0 0.0031400502 0.1917459429 -0.0375472706 -0.5552414406 -0.037376293 -0.5557358323 0.0452558111 0.1801947413
775295350.0 0.0049279929 0.1914769161 -0.0430223722 -0.5545563523 -0.0427380064 -0.5549291124 0.0469202002 0.1801610555
780295320.0 0.007086024 0.1918971188 -0.0492682087 -0.5541500085 -0.0485215821 -0.5542584551 0.0488486295 0.1792297386
785295290.0 0.0084191866 0.1916300855 -0.0549938189 -0.5535347555 -0.0547660691 -0.5538867987 0.0515641978 0.1791901862
790295260.0 0.010935162 0.1922138561 -0.0605983842 -0.5531876371 -0.0600786114 -0.5529019396 0.0535267043 0.1785270722
795295230.0 0.0124954121 0.1919330327 -0.0666726001 -0.5520098606 -0.066475527 -0.5528473459 0.0558069316 0.1784991218
800295200.0 0.0142236889 0.1922229187 -0.0732912961 -0.551339961 -0.0726456337 -0.5518080961 0.0573539899 0.1778304995
805295170.0 0.016142994 0.1920770307 -0.0789710773 -0.5505108882 -0.0788910937 -0.5512189057 0.0596202369 0.1774315593
810295140.0 0.0180632674 0.1914548775 -0.0843275119 -0.5495594381 -0.0846069168 -0.5499864885 0.0620091039 0.177027689
815295110.0 0.0197349012 0.1916930582 -0.0907368132 -0.5483389176 -0.090422963 -0.549033472 0.0635641183 0.1764604763
820295080.0 0.0216400305 0.1922051567 -0.0965251081 -0.5475581814 -0.0959475374 -0.5478457922 0.0654844215 0.1760785067
825295050.0 0.0241603196 0.1916996956 -0.1019185288 -0.5460699171 -0.1020170518 -0.546803409 0.0676668871 0.175478515
830295020.0 0.0255475507 0.19180359 -0.1084851478 -0.5447774042 -0.10844611 -0.545272112 0.070074927 0.1745288241
