!Created with skrf (http://scikit-rf.org).
# Hz S RI R 50.0 
!freq ReS11 ImS11 ReS21 ImS21 ReS12 ImS12 ReS22 ImS22
300000.0 -0.2447735162 -0.0943003 0.4747765121 0.0613354015 0.4718399612 0.0590840903 -0.2400454075 -0.0999812683
5299970.0 -0.2449200375 0.006402812 0.4746538987 0.0051561603 0.475129436 0.005216146 -0.2411496613 0.0072073797
10299940.0 -0.2417572393 0.0179092435 0.4767591194 0.006186832 0.4769207855 0.0063163102 -0.2378658948 0.0206361634
15299910.0 -0.2375073595 0.0268715569 0.4803174338 0.0072652879 0.480676803 0.0073909092 -0.2330907397 0.0301988001
20299880.0 -0.233250879 0.0338253112 0.4853027345 0.0084801281 0.4854792685 0.0082222398 -0.227884767 0.0380196321
25299850.0 -0.2278386137 0.0404145564 0.490106166 0.007352018 0.490102107 0.0071836057 -0.2218660372 0.0445117612
30299820.0 -0.2222485085 0.0450056176 0.4953584018 0.0050053537 0.4955603873 0.0051805113 -0.2162574926 0.0500328261
35299790.0 -0.2173033485 0.0490361086 0.5008323681 0.0015055836 0.5008109754 0.0015801722 -0.2107109426 0.0546855064
40299760.0 -0.2124832932 0.0525465408 0.5058085503 -0.002465608 0.5060899431 -0.0020879112 -0.2053625492 0.0573864201
45299730.0 -0.2077264674 0.0549555714 0.5101932568 -0.0070804205 0.5108406279 -0.0068210862 -0.2004531842 0.0605676593
50299700.0 -0.2039934849 0.0567075123 0.5149664356 -0.0125494024 0.514945668 -0.0120961585 -0.1956858967 0.0625220415
55299670.0 -0.1999517249 0.0583944818 0.5190475353 -0.0190599251 0.5183554878 -0.0183749534 -0.1914248338 0.063939746
60299640.0 -0.1960446504 0.0601366082 0.5219316333 -0.0249793173 0.522136091 -0.0246807227 -0.1873263857 0.0649678523
65299610.0 -0.1929727252 0.0611190145 0.5246907806 -0.0311972915 0.5249537467 -0.0307977745 -0.1840021974 0.0666260126
70299580.0 -0.1900568319 0.0620880854 0.5273813525 -0.0376484254 0.5271065757 -0.0376557966 -0.1806321872 0.0676415253
75299550.0 -0.1870544621 0.0628176126 0.5284680075 -0.0445277617 0.528700485 -0.0446251494 -0.177706191 0.0683223128
80299520.0 -0.1847346161 0.0635775018 0.5307881588 -0.0516919176 0.5311260832 -0.0512954608 -0.1753473647 0.0694234081
85299490.0 -0.1825173443 0.064238243 0.5322350787 -0.0583338854 0.5321690292 -0.0577923502 -0.1728901948 0.0695578246
90299460.0 -0.1802413917 0.0649187813 0.5327076167 -0.0654546734 0.5334165285 -0.065165486 -0.1700828848 0.0706181802
95299430.0 -0.1782480082 0.0654088566 0.5340919249 -0.0721820405 0.534336278 -0.0722200983 -0.1684067576 0.0712027147
100299400.0 -0.1764088483 0.066400555 0.5339073261 -0.0789390966 0.5342444976 -0.079145147 -0.1659395158 0.0718019397
105299370.0 -0.1747682292 0.0666751588 0.5344060269 -0.0864383682 0.5353108637 -0.0858421993 -0.1639183517 0.0722489879
110299340.0 -0.1733533608 0.0674247539 0.5349350456 -0.0925592653 0.5344696896 -0.0924834988 -0.162659855 0.0731265769
115299310.0 -0.1717762757 0.0683333388 0.5345087104 -0.099637182 0.5346779956 -0.0997468603 -0.1611832241 0.0737214079
120299280.0 -0.170830167 0.0686349302 0.5340870943 -0.1062055855 0.5346340284 -0.1066160176 -0.1596323777 0.0744216607
125299250.0 -0.1694672857 0.0692303321 0.5343068558 -0.1129281108 0.534417406 -0.1128393471 -0.1584384227 0.074864439
130299220.0 -0.1688889041 0.0701773424 0.5334657083 -0.1196500258 0.5335346914 -0.1197590309 -0.1569794263 0.0759173974
135299190.0 -0.1674114042 0.0712917058 0.5331836354 -0.1263780411 0.5326004186 -0.1261713379 -0.155740774 0.076961312
140299160.0 -0.1666439582 0.0720377146 0.5321277748 -0.133034211 0.5323128555 -0.1331237172 -0.1546012214 0.0782427358
145299130.0 -0.1657761387 0.0729638319 0.5314174645 -0.1398214938 0.5313559804 -0.1392748264 -0.1535990094 0.0790584484
150299100.0 -0.1644569728 0.0739860399 0.5297136685 -0.1461013562 0.5298550045 -0.1454090717 -0.1523234358 0.0802101437
155299070.0 -0.1640148852 0.0746034713 0.5291513309 -0.1531408359 0.5287252347 -0.1526333366 -0.1512382106 0.0812916511
160299040.0 -0.1627835374 0.0758663578 0.5270852423 -0.1588174659 0.527115002 -0.1591257527 -0.150640798 0.0823581696
165299010.0 -0.1620425049 0.0767801329 0.5261195239 -0.1661129731 0.5259614653 -0.1654372774 -0.1492474712 0.0838300046
170298980.0 -0.1614732906 0.0779220152 0.5241934423 -0.1720005781 0.5245312057 -0.1717159855 -0.1482050855 0.0845683162
175298950.0 -0.1607375938 0.0789789534 0.5229550904 -0.1778383627 0.5223825017 -0.177839974 -0.1474939422 0.0859110278
180298920.0 -0.160005305 0.0800648221 0.5209257483 -0.1843178273 0.5212174856 -0.1842111043 -0.1467044728 0.0873333058
185298890.0 -0.1588710171 0.0810038259 0.5189939631 -0.1904229985 0.5191068369 -0.1902486806 -0.1455699774 0.0886079841
190298860.0 -0.1585164307 0.0823378745 0.5176759658 -0.1968488295 0.5176705416 -0.196595133 -0.1448495726 0.089736032
195298830.0 -0.1575939249 0.0830355842 0.5152304961 -0.2029210408 0.5153168255 -0.2027472996 -0.1435254241 0.091254192
200298800.0 -0.1567380016 0.0847970854 0.5131825264 -0.2088896874 0.5133318481 -0.2092341749 -0.1430634705 0.0925511883
205298770.0 -0.1562664542 0.0860383408 0.5107366843 -0.2155216342 0.5107062821 -0.2145180941 -0.1420017868 0.0933603726
210298740.0 -0.1551574145 0.0870380695 0.5084921862 -0.2209144549 0.5089733936 -0.2209108611 -0.1410608672 0.0955314649
215298710.0 -0.1550798476 0.0883314143 0.506677797 -0.2271439204 0.5063515306 -0.2269781311 -0.1405425089 0.0962584174
220298680.0 -0.1540013016 0.0892589313 0.5035588922 -0.2326030849 0.5039272178 -0.2325779112 -0.1397571462 0.0973927134
225298650.0 -0.1534435822 0.090645813 0.5016167805 -0.2385720923 0.5020589601 -0.2386508742 -0.1387022982 0.0988479194
230298620.0 -0.1526780573 0.0924867917 0.4989445793 -0.2444433214 0.4993654188 -0.2441081025 -0.1380703139 0.0999189648
235298590.0 -0.1516426649 0.0937395642 0.4961230019 -0.250119736 0.4967061833 -0.2497945965 -0.1368305002 0.1018035873
240298560.0 -0.1510989974 0.0950514506 0.4941717377 -0.2558272298 0.4940066459 -0.25585119 -0.1359054354 0.1035059589
245298530.0 -0.1503579296 0.0962614148 0.4913838322 -0.2617477071 0.491118317 -0.2614839919 -0.1347338783 0.1036620117
250298500.0 -0.1491039237 0.0978122395 0.487329145 -0.2675272502 0.4874219015 -0.2668951045 -0.1339093717 0.1057633066
255298470.0 -0.1486158199 0.0986551444 0.4843778538 -0.2727166342 0.4851557139 -0.2724398424 -0.1328229139 0.1066427621
260298440.0 -0.1479395797 0.0999164586 0.4820021687 -0.2782299404 0.4822541476 -0.2778605135 -0.1314655019 0.1084027705
265298410.0 -0.1466815586 0.1019417999 0.4790370827 -0.2838710411 0.4796288969 -0.283726714 -0.1306054248 0.1097419018
270298380.0 -0.1460945633 0.1030298664 0.4762648162 -0.2889344879 0.4764200789 -0.288859321 -0.1297169049 0.1108694556
275298350.0 -0.1448709251 0.104368398 0.4726851105 -0.2950399129 0.4732234516 -0.2943370845 -0.1280275734 0.1122815956
280298320.0 -0.1438969539 0.1059547385 0.4700587044 -0.3002684188 0.4700509009 -0.2997804172 -0.1269477568 0.113565755
285298290.0 -0.1428868501 0.1071012142 0.4669024519 -0.3055073321 0.466062657 -0.3054095119 -0.1253922255 0.1152351893
290298260.0 -0.1417561885 0.1085366087 0.4632756832 -0.310398871 0.4633947859 -0.3104986623 -0.1245137596 0.1167724555
295298230.0 -0.1409551449 0.1095717239 0.4600036839 -0.3156620439 0.4598901077 -0.3155066425 -0.122620312 0.117623558
300298200.0 -0.1400805731 0.1109811134 0.45676414 -0.3208192198 0.4569591394 -0.3210243105 -0.1217901648 0.1190483477
305298170.0 -0.1389561504 0.1120373135 0.4526152863 -0.3264061148 0.4529072863 -0.3261883067 -0.1198959249 0.1205374159
310298140.0 -0.137975044 0.1136774161 0.4493171427 -0.3314932574 0.4495451477 -0.3314379523 -0.1188410456 0.1215817182
315298110.0 -0.1372557032 0.1147009337 0.4461003975 -0.3365199458 0.4461445493 -0.3363829729 -0.1178118151 0.1227650099
320298080.0 -0.1360130946 0.116069644 0.4416430036 -0.3422514696 0.4419980686 -0.3416501226 -0.1164702222 0.1240802994
325298050.0 -0.1353070782 0.1171542915 0.4381299872 -0.3470493646 0.4384377116 -0.3469145476 -0.11549625 0.1254451492
330298020.0 -0.1342127474 0.1183952982 0.4340405662 -0.3518062501 0.4342621789 -0.3516471995 -0.1141958526 0.1266233518
335297990.0 -0.1330697076 0.1194194915 0.4299789569 -0.3563371608 0.4301764766 -0.3568617568 -0.1132727147 0.128597357
340297960.0 -0.1326936329 0.1211328193 0.4259666298 -0.3612808464 0.4258036204 -0.3617001002 -0.1116352323 0.1299581381
345297930.0 -0.1315291629 0.1226195738 0.4221071128 -0.3664467761 0.4217861033 -0.366418281 -0.1104281021 0.1311331269
350297900.0 -0.1304281445 0.1240000703 0.4173929268 -0.3710008311 0.4178886735 -0.3705015384 -0.1095097178 0.1328743526
355297870.0 -0.1293090092 0.1257229884 0.4137241248 -0.3754717437 0.41391028 -0.3748764671 -0.1082386982 0.1340178022
360297840.0 -0.1282846936 0.1267895196 0.4097655954 -0.3800447421 0.4100628499 -0.3796331628 -0.1068816258 0.1354579478
365297810.0 -0.1273351406 0.1284808749 0.4051693097 -0.3847597404 0.4057371669 -0.384395803 -0.1051123688 0.137061548
370297780.0 -0.12553456 0.1295170647 0.4009171735 -0.3884684509 0.4014544959 -0.3884117937 -0.1040447769 0.1381322245
375297750.0 -0.1243299743 0.1308113424 0.396835843 -0.3933277784 0.3973268751 -0.3932230807 -0.1023542896 0.139496052
380297720.0 -0.1232015237 0.1322400406 0.3922525539 -0.3976137549 0.3925032568 -0.3968445441 -0.1014134158 0.140418824
385297690.0 -0.1225098674 0.1334274402 0.3879874234 -0.4017885264 0.3881404094 -0.4016711874 -0.0994843928 0.1421393444
390297660.0 -0.1212040845 0.1350422107 0.3836282657 -0.4062318799 0.3832840277 -0.4054318381 -0.0983125888 0.142947822
395297630.0 -0.119696528 0.1363207029 0.379152763 -0.4102798154 0.378954165 -0.4100380728 -0.096167392 0.1445635647
400297600.0 -0.1186330356 0.1375855853 0.3744871641 -0.4147476884 0.3745056211 -0.4140532664 -0.0950363753 0.1456300315
405297570.0 -0.117600359 0.1387475898 0.3699331633 -0.4179342605 0.3699993845 -0.4178288798 -0.0937484384 0.1467583304
410297540.0 -0.1160840567 0.1402078707 0.3655564376 -0.4224555812 0.365709834 -0.4223011042 -0.0921755526 0.1481000674
415297510.0 -0.1147221235 0.1411237585 0.3610826882 -0.4264541369 0.3607753096 -0.4263670068 -0.0904907634 0.1493947488
420297480.0 -0.1133633862 0.1430420704 0.3559450844 -0.4305141008 0.3561559132 -0.4303290953 -0.0890114356 0.1501561657
425297450.0 -0.1121283959 0.1437511117 0.351448549 -0.433948348 0.3517835128 -0.4342123343 -0.0878690287 0.1516219704
430297420.0 -0.110633251 0.144917996 0.3463673631 -0.4378275332 0.3467151676 -0.4376441996 -0.0860590458 0.1523221629
435297390.0 -0.1094153078 0.1462777598 0.3416545532 -0.4418943092 0.3414121514 -0.4417464209 -0.0837484577 0.1535613557
440297360.0 -0.1079333922 0.147504427 0.3368543596 -0.4451054552 0.3370703718 -0.4453695229 -0.0825275561 0.1544453172
445297330.0 -0.1067709711 0.1483373412 0.3320549853 -0.4489750552 0.3323310065 -0.4486928734 -0.0804750235 0.1551730047
450297300.0 -0.1049868089 0.1494178955 0.327173148 -0.452627359 0.3271149657 -0.4532159251 -0.0791326186 0.1560624806
455297270.0 -0.1037318818 0.1506743537 0.3220889902 -0.4563135726 0.3224772269 -0.4561753458 -0.0771740478 0.1573401266
460297240.0 -0.1025603034 0.1518141698 0.3171575912 -0.4596389833 0.3174817355 -0.4597639893 -0.0758053476 0.1585616631
465297210.0 -0.1004045394 0.1528335956 0.3121279053 -0.46304085 0.3122120556 -0.4632052649 -0.073482532 0.1588824011
470297180.0 -0.0991748808 0.1539814523 0.3066853058 -0.4669255237 0.3074626332 -0.4666274675 -0.0717654228 0.1604446747
475297150.0 -0.0980256145 0.155079076 0.301551955 -0.4694831858 0.3019267244 -0.4693860624 -0.0697673747 0.1609659486
480297120.0 -0.096441244 0.1565636283 0.296779592 -0.4730178148 0.296605916 -0.4732884152 -0.067912949 0.1622801772
485297090.0 -0.0948457879 0.1573272277 0.2913641076 -0.4758718824 0.2916926362 -0.4759144308 -0.0659832626 0.1629740801
490297060.0 -0.0936191491 0.1583241134 0.2864774548 -0.4794806894 0.2864296306 -0.4790978038 -0.0645219582 0.1638927415
495297030.0 -0.0921607582 0.159419439 0.2809176152 -0.4824403036 0.2819080813 -0.4817388528 -0.0626565969 0.164895083
500297000.0 -0.0903168886 0.1603314154 0.2754745221 -0.4848437123 0.275369858 -0.4848157093 -0.0607099482 0.1663360478
505296970.0 -0.0887302368 0.1614499737 0.2706163473 -0.4880805414 0.2705446837 -0.4883922559 -0.0590578042 0.1668361722
510296940.0 -0.0873909492 0.1624163882 0.2651374929 -0.4912740834 0.2651382281 -0.4913464409 -0.0568163269 0.1676495359
515296910.0 -0.0856041894 0.1633062138 0.2596457656 -0.4941450997 0.2597539105 -0.4941190626 -0.0551965561 0.16833721
520296880.0 -0.0844148351 0.1644437602 0.2546009705 -0.4972270821 0.2544842606 -0.4964430426 -0.0534540807 0.1690169928
525296850.0 -0.0825077393 0.1647479562 0.2488166313 -0.4992284541 0.2493482236 -0.4993256716 -0.0517005717 0.1700117094
530296820.0 -0.0808873205 0.1662584552 0.243403574 -0.5024762133 0.2436706506 -0.5018611244 -0.0496224909 0.1704506334
535296790.0 -0.0796543736 0.1673895642 0.2384595538 -0.5047916571 0.2383623068 -0.5042991749 -0.0481798097 0.171313442
540296760.0 -0.077965569 0.1683756034 0.232656583 -0.5075257937 0.2326352357 -0.5075579378 -0.0461224395 0.1723661149
545296730.0 -0.0763216769 0.1691136856 0.2269860908 -0.5095213425 0.2270174222 -0.50970737 -0.0441543621 0.1729135645
550296700.0 -0.0742209731 0.1700275592 0.2213110641 -0.512131023 0.2216595478 -0.5122749178 -0.0427335292 0.1737461504
555296670.0 -0.0729244678 0.1707771701 0.2159153097 -0.5143969572 0.2161797175 -0.5141594768 -0.0406876585 0.1745576859
560296640.0 -0.0711508055 0.1717657656 0.2104843976 -0.5169130391 0.2103484408 -0.5165898195 -0.0387325061 0.1747672475
565296610.0 -0.0696537079 0.1726496477 0.2045465544 -0.5191827232 0.2050146992 -0.5190631741 -0.0369994896 0.1750529424
570296580.0 -0.0681656135 0.1732881096 0.1990970317 -0.5217068906 0.1988652728 -0.5214072931 -0.034904433 0.1763102601
575296550.0 -0.0664659113 0.1743571958 0.1935415699 -0.5236198385 0.1931441502 -0.5232594113 -0.0329279353 0.1766948826
580296520.0 -0.06467779 0.1752698886 0.1875754614 -0.525883856 0.1878654275 -0.5255810451 -0.031040283 0.1765102426
585296490.0 -0.0632990642 0.175200182 0.1819860066 -0.5268333057 0.1823078018 -0.5273785218 -0.0291603334 0.1776013403
590296460.0 -0.0610401184 0.1765033426 0.1761728397 -0.5286129431 0.1765323407 -0.5290328008 -0.0277715411 0.1778993153
595296430.0 -0.0595215998 0.1772247141 0.170349247 -0.5314097743 0.1703640453 -0.5310205728 -0.0252568798 0.1777332239
600296400.0 -0.0579987054 0.1779900221 0.1644295424 -0.5328606833 0.1649852106 -0.5324942412 -0.0232661969 0.1783434522
605296370.0 -0.0562922544 0.1786375979 0.1586824133 -0.5343750116 0.1595614725 -0.5343213569 -0.0211929252 0.1787897487
610296340.0 -0.0544017693 0.1790674634 0.1526643898 -0.5361178555 0.1535354999 -0.5357589876 -0.0190747995 0.1790835571
615296310.0 -0.0523874052 0.1796676003 0.1472627346 -0.5375381603 0.1473518872 -0.5379616167 -0.0170599249 0.1794504634
620296280.0 -0.0505603325 0.1801530178 0.1416174447 -0.5389942324 0.1416284303 -0.539312258 -0.0153263917 0.1800130189
625296250.0 -0.0493434813 0.1805517762 0.1362603479 -0.5408361817 0.1358703308 -0.5411566663 -0.0127681571 0.1800358203
630296220.0 -0.0466942393 0.1815035569 0.1297561069 -0.5424602321 0.1298972796 -0.5421175944 -0.0110979874 0.1806824261
635296190.0 -0.0458681277 0.1818571245 0.1240754478 -0.5432734179 0.1242278612 -0.5435361921 -0.0090356282 0.1807431425
640296160.0 -0.0442936114 0.1827291283 0.1181474744 -0.544721517 0.1183976839 -0.5450321954 -0.0068964854 0.1809982709
645296130.0 -0.0421797623 0.1833177034 0.1116191279 -0.5458688278 0.1128306007 -0.5457977504 -0.0048806013 0.1812942034
650296100.0 -0.0404193538 0.1839031247 0.105820563 -0.5468992567 0.1064456562 -0.546885627 -0.0025546248 0.1808020161
655296070.0 -0.0388607923 0.1842204638 0.1006233317 -0.5482557395 0.1004195539 -0.5482371627 -0.0006665001 0.1815989775
660296040.0 -0.0373809686 0.1846756561 0.094438012 -0.5495126392 0.0947498563 -0.5492049719 0.0019576238 0.181526045
665296010.0 -0.0348993646 0.1851179266 0.0881411629 -0.5501855632 0.0888125136 -0.5500599378 0.0033935231 0.1822775268
670295980.0 -0.0337647747 0.1857637956 0.0825366838 -0.5511808217 0.0825050047 -0.5509479309 0.0053451968 0.1822918969
675295950.0 -0.0317908207 0.1864026158 0.0768257182 -0.5518080133 0.0767827971 -0.5514315896 0.0072885138 0.1824021879
680295920.0 -0.0299658524 0.186630507 0.0703196734 -0.5524284767 0.0701414013 -0.5529504782 0.0095688213 0.1829726772
685295890.0 -0.0280342566 0.187917697 0.0647792679 -0.5536723516 0.0647462716 -0.5535471255 0.011457437 0.1828423264
690295860.0 -0.0259716758 0.1878380898 0.0588758863 -0.5535465963 0.0587309353 -0.5541177824 0.0134065073 0.1834567961
695295830.0 -0.0243066508 0.1877846773 0.0533291047 -0.5543009874 0.0524453356 -0.5545209198 0.0156881436 0.1829355215
700295800.0 -0.0225436796 0.1880832298 0.0467537228 -0.5547892015 0.0468220998 -0.5546350812 0.0172159259 0.1835666745
705295770.0 -0.0208809664 0.1891498715 0.0405982906 -0.5554975135 0.0411786265 -0.5551499499 0.0192471657 0.1831721978
710295740.0 -0.0185991301 0.1889485441 0.0346337021 -0.5561978596 0.0351143811 -0.5565270926 0.0215523303 0.1826410685
715295710.0 -0.0171009101 0.1892569969 0.0292407344 -0.5559421969 0.0286861943 -0.5560509144 0.0235319191 0.1829512995
720295680.0 -0.0152919086 0.1897993443 0.0231637409 -0.5571043667 0.0230908029 -0.5563860526 0.0256494688 0.1831163116
725295650.0 -0.0131127678 0.1901390744 0.0168790031 -0.5565140003 0.0174595735 -0.5570349175 0.0267123699 0.183005801
730295620.0 -0.0110995719 0.1910067369 0.0106449143 -0.5565935861 0.0113273345 -0.5565242135 0.0288090872 0.1824095639
735295590.0 -0.0096932709 0.1907788887 0.0047269313 -0.5569878333 0.0045308531 -0.5566126334 0.0311508349 0.1823071476
740295560.0 -0.0077497667 0.1911566174 -0.0008741754 -0.5563917897 -0.0007925329 -0.5567941792 0.0333037312 0.1823989122
745295530.0 -0.005956768 0.1913528187 -0.0072588783 -0.5562545926 -0.0072063163 -0.5567705232 0.0354145332 0.1816387553
750295500.0 -0.0038732475 0.1913144415 -0.0130588287 -0.5560079064 -0.0129462939 -0.55669723 0.0373555098 0.1815828225
755295470.0 -0.0020493799 0.1915641266 -0.01892315 -0.5564056087 -0.0189594255 -0.5564501889 0.0395377074 0.1808979974
760295440.0 -0.0005118744 0.1916559646 -0.0251080131 -0.5563557682 -0.0250894238 -0.5564805721 0.0411567073 0.1804959514
765295410.0 0.0013210851 0.1917411825 -0.0313396971 -0.5557215121 -0.031245162 -0.5563615596 0.0433675791 0.1806501379
770295380.0 0.0030640045 0.1918460794 -0.0372408727 -0.5552503406 -0.0372215275 -0.5550762665 0.0451447328 0.1801510351
775295350.0 0.0049235544 0.1915510873 -0.0435788676 -0.5545677247 -0.0424519301 -0.5548253332 0.0465851922 0.1799588105
780295320.0 0.0069412893 0.1919846542 -0.0492800962 -0.5539315998 -0.0485488345 -0.5542162953 0.0490195508 0.1791850684
785295290.0 0.0084074461 0.1918762128 -0.0553106897 -0.553491383 -0.0549995395 -0.5537092653 0.0516903917 0.178780392
790295260.0 0.0109965877 0.1923090184 -0.0608498169 -0.5530628337 -0.0601303985 -0.5526427953 0.0534511584 0.1783962483
795295230.0 0.0125657769 0.191842106 -0.0666232045 -0.5518881033 -0.0665733811 -0.5523867481 0.0556853384 0.178148917
800295200.0 0.014202846 0.1925247313 -0.0735117517 -0.5513636949 -0.0724535674 -0.5515263747 0.0577511417 0.177552551
805295170.0 0.0163345051 0.1918605584 -0.0787139453 -0.5507398642 -0.0787744407 -0.5510823642 0.059525097 0.1770302632
810295140.0 0.0178383146 0.1920155692 -0.0845324705 -0.549324905 -0.0845304901 -0.5502222078 0.0619626021 0.1767408371
815295110.0 0.0199820426 0.1913620334 -0.0904859378 -0.5479873161 -0.0899983519 -0.5488371853 0.0634379269 0.176215162
820295080.0 0.0214147301 0.192181418 -0.0964136807 -0.5475573052 -0.09581652 -0.5476514862 0.065675157 0.1757350487
825295050.0 0.0239985612 0.1917349329 -0.1016653701 -0.5463307011 -0.1024729119 -0.5464610115 0.0677413264 0.1751669342
830295020.0 0.0256358822 0.1918268872 -0.1083029097 -0.545160662 -0.1082249188 -0.5453360292 0.070363185 0.1745920046
