!Created with skrf (http://scikit-rf.org).
# Hz S RI R 50.0 
!freq ReS11 ImS11 ReS21 ImS21 ReS12 ImS12 ReS22 ImS22
300000.0 -0.3217510484 -0.1043833778 0.3749401287 0.0511729359 0.3746823781 0.0563302151 -0.3202477677 -0.1121305077
5299970.0 -0.3236503976 0.0047447713 0.3785888177 0.0028616075 0.3785560766 0.0032584333 -0.3259499269 0.0028532788
10299940.0 -0.3211475783 0.015398607 0.3798735168 0.0023359403 0.3796224626 0.0025190084 -0.3243098561 0.0126815635
15299910.0 -0.3180478146 0.023651948 0.3817730602 0.0023380551 0.3819591317 0.0024663554 -0.3211552666 0.0197774931
20299880.0 -0.3145188059 0.0302077993 0.3851873891 0.0015444339 0.3852144058 0.001784791 -0.3188772216 0.0261014892
25299850.0 -0.3105073221 0.0357366546 0.3884128629 -0.0003635969 0.3883884364 -3.63927e-05 -0.3154445037 0.0309634615
30299820.0 -0.306741366 0.0405115743 0.3922622056 -0.0023630826 0.3917793189 -0.0020586953 -0.3128239738 0.0354419721
35299790.0 -0.3029249289 0.0447205058 0.3950736141 -0.0050529759 0.394898675 -0.005379525 -0.3098230825 0.039380123
40299760.0 -0.2993817353 0.0480659791 0.398186354 -0.0087243414 0.398405487 -0.0087650453 -0.3072706702 0.0431055121
45299730.0 -0.2963521708 0.0515511596 0.4009978397 -0.0127354802 0.4011110344 -0.0126273416 -0.3047636723 0.0461312261
50299700.0 -0.2931815186 0.0541083281 0.40329842 -0.0175586409 0.4036545026 -0.0174435235 -0.3021429927 0.0494449605
55299670.0 -0.2909923692 0.0568046776 0.4054016671 -0.022084707 0.4056394813 -0.0219093527 -0.3001902872 0.0518863895
60299640.0 -0.28799827 0.058904458 0.4073801652 -0.026849419 0.4077347262 -0.0271248785 -0.2983382754 0.0546566165
65299610.0 -0.2859414542 0.0618099799 0.409225045 -0.0315443086 0.4093517246 -0.0317715148 -0.2959522384 0.0572957109
70299580.0 -0.2838483298 0.0636512695 0.4105026957 -0.0367884463 0.4107170459 -0.036962858 -0.2945809054 0.059680029
75299550.0 -0.2816432444 0.0657715488 0.411372037 -0.04191569 0.4116820487 -0.0425126508 -0.2930700163 0.0621054125
80299520.0 -0.2806019642 0.0679661101 0.4130128538 -0.0472669615 0.4125884804 -0.0474316917 -0.2915830229 0.0641596779
85299490.0 -0.27861808 0.0697229909 0.4132076329 -0.0526962979 0.4130160377 -0.0527780606 -0.2906116411 0.0666311393
90299460.0 -0.2770515448 0.0722101858 0.4133806274 -0.0580181005 0.4139122653 -0.0578968887 -0.2889927445 0.0688773023
95299430.0 -0.2754355741 0.0740764632 0.4139206829 -0.0632745102 0.4137260023 -0.0631779358 -0.2874375274 0.0712101594
100299400.0 -0.2745287663 0.0765463641 0.4136418869 -0.0682601773 0.4136723406 -0.0683037991 -0.2866390957 0.0732801123
105299370.0 -0.2730222944 0.078273874 0.4133418407 -0.0734478465 0.4138522508 -0.0737895342 -0.2853168515 0.0757425284
110299340.0 -0.2720167898 0.0805059205 0.4131444852 -0.0784778845 0.4137343693 -0.079027669 -0.2848084508 0.0780211763
115299310.0 -0.2708423616 0.0824103581 0.4131577921 -0.0833904598 0.4134119308 -0.0835063436 -0.283210013 0.0800060035
120299280.0 -0.2696689368 0.0849591894 0.412771313 -0.088992809 0.4130045343 -0.0890446294 -0.2824028562 0.0826162044
125299250.0 -0.2688136613 0.0867546569 0.4124066937 -0.0936568164 0.4122942231 -0.0939386061 -0.281371197 0.0849233149
130299220.0 -0.2678131863 0.0892246356 0.4116154902 -0.0987504895 0.411601828 -0.0987843373 -0.2808737335 0.0873174985
135299190.0 -0.2667165951 0.091210766 0.4108083381 -0.1035846795 0.4105759584 -0.1041175917 -0.2795322698 0.0897573553
140299160.0 -0.2658194479 0.0939688159 0.41008511 -0.1093034232 0.4101386798 -0.1089590965 -0.278496354 0.0917765694
145299130.0 -0.2646162321 0.0957956652 0.409309823 -0.1137913954 0.4090256954 -0.1137681811 -0.277954527 0.094566109
150299100.0 -0.2638412693 0.0983104646 0.4080606233 -0.1189436422 0.4080365434 -0.118978086 -0.2767779497 0.0970260018
155299070.0 -0.2630223789 0.1011364839 0.4072094925 -0.1241373675 0.4068417958 -0.1240420385 -0.2760501075 0.0996541705
160299040.0 -0.2618080533 0.1029769308 0.4057286097 -0.1285752424 0.4060381348 -0.1288131911 -0.275341176 0.102159408
165299010.0 -0.2611151868 0.1053246964 0.4049070602 -0.133767125 0.4047067365 -0.1334581301 -0.2742152447 0.104426029
170298980.0 -0.2600938435 0.10763516 0.4027007696 -0.1385419462 0.4034667838 -0.1384936059 -0.2734388257 0.1074101426
175298950.0 -0.2590090273 0.110457471 0.4022940242 -0.1430342845 0.4022440925 -0.143144 -0.2723562688 0.1096070258
180298920.0 -0.2578130613 0.1128550864 0.4003443485 -0.1481440333 0.4005934584 -0.1476992956 -0.2710805128 0.1121829495
185298890.0 -0.2569748053 0.1153357911 0.3985454158 -0.1525059899 0.3989743279 -0.1526814188 -0.2703914586 0.1146841253
190298860.0 -0.2559178817 0.1173528394 0.3969293465 -0.1570563383 0.3973537531 -0.1572806998 -0.268954142 0.1176180791
195298830.0 -0.2545882749 0.119918937 0.3957128896 -0.1616650312 0.3957119425 -0.1622849402 -0.2680210403 0.1199824601
200298800.0 -0.2534978479 0.12301229 0.3941395692 -0.166207415 0.3940577987 -0.1664963525 -0.2665833654 0.1229975655
205298770.0 -0.2527726189 0.1252811521 0.3924026155 -0.1707378987 0.3923944268 -0.1712605806 -0.2655674459 0.1252989869
210298740.0 -0.2516832855 0.1278211747 0.3905814165 -0.1759603726 0.3907561242 -0.1760167282 -0.2647654122 0.1282505149
215298710.0 -0.2500371188 0.130197495 0.3882921686 -0.1802013601 0.3884177103 -0.1799797034 -0.2637981558 0.1307791196
220298680.0 -0.2492550899 0.1328998345 0.3866838945 -0.1848438886 0.3868578061 -0.1849978688 -0.2622516287 0.1336094405
225298650.0 -0.2475888378 0.1357174439 0.3841341938 -0.1889334662 0.3844925958 -0.1887751347 -0.261279035 0.1362790132
230298620.0 -0.2466758082 0.1381910361 0.3827687819 -0.1934058365 0.3827104486 -0.1935567194 -0.2596652626 0.1388980401
235298590.0 -0.2455996533 0.1405476264 0.3804093764 -0.1978467335 0.3804792906 -0.1983387759 -0.2583252661 0.1415942676
240298560.0 -0.2441078963 0.1436682208 0.3782388381 -0.2019228672 0.3782912714 -0.2019669257 -0.2569192602 0.1444090687
245298530.0 -0.2425668573 0.1457384849 0.3756724192 -0.206518921 0.3761774145 -0.2070402751 -0.255921703 0.1473238642
250298500.0 -0.241632185 0.1482267883 0.3738466599 -0.2102642808 0.374015456 -0.2102356123 -0.2540250018 0.1499116158
255298470.0 -0.2401356003 0.1508085822 0.3710988054 -0.2148827589 0.3715129367 -0.2147530786 -0.2526493854 0.152293116
260298440.0 -0.2385857631 0.1535958368 0.3692324636 -0.2190000387 0.3691181834 -0.2193818713 -0.2509583665 0.1550508196
265298410.0 -0.2370135164 0.1563590038 0.3666088997 -0.2235540505 0.3666303149 -0.2235948154 -0.2498179095 0.1576139977
270298380.0 -0.2354920375 0.1586909385 0.3638147595 -0.2278160567 0.3643903112 -0.2278647199 -0.2479334026 0.1604275791
275298350.0 -0.2342466932 0.1610901307 0.3615982626 -0.2317243947 0.36178948 -0.2320556852 -0.2462790354 0.1629647789
280298320.0 -0.2327045631 0.1638601311 0.3592127999 -0.2355259307 0.3588725618 -0.2356627008 -0.2445593161 0.1657710834
285298290.0 -0.2308064266 0.166670311 0.3563713341 -0.2399326008 0.3564228695 -0.2399700574 -0.2432227758 0.1682830459
290298260.0 -0.2294784389 0.1691613053 0.354163388 -0.2435683863 0.3538309281 -0.2441686431 -0.2412508706 0.1710152912
295298230.0 -0.2275936809 0.1714385252 0.3513452054 -0.2481762804 0.3510970795 -0.2481837213 -0.2394554296 0.173658105
300298200.0 -0.2258790341 0.1737258257 0.3484359567 -0.2513899793 0.3485966832 -0.2518842415 -0.2378997645 0.1767778797
305298170.0 -0.2240152486 0.1761098594 0.3459434177 -0.2559131089 0.3458101512 -0.2561957067 -0.2354583017 0.179089476
310298140.0 -0.2219890388 0.1786763714 0.3431186458 -0.2598268376 0.3431698561 -0.2602072771 -0.2338577438 0.1819500027
315298110.0 -0.2207940121 0.1807073515 0.3400640025 -0.2637464507 0.3400781393 -0.2638324827 -0.2319359899 0.1842189941
320298080.0 -0.2187114899 0.1835758376 0.3372372376 -0.2677635733 0.3370918312 -0.2676205632 -0.2302602195 0.1867300492
325298050.0 -0.2168853063 0.1853429425 0.3344000985 -0.2714201089 0.3341632918 -0.2715554363 -0.2286879638 0.1892710109
330298020.0 -0.2151244692 0.1882317909 0.3306958726 -0.2752626993 0.3308361343 -0.2752965704 -0.226472213 0.1917020546
335297990.0 -0.2133793568 0.1903534742 0.3276768606 -0.2791737766 0.3278077874 -0.2790270885 -0.2249269315 0.1944682762
340297960.0 -0.2117988522 0.1929900586 0.3242257473 -0.2827435424 0.3248888974 -0.2825108374 -0.2225886676 0.1971541994
345297930.0 -0.2101708308 0.1953158679 0.321574853 -0.2859937681 0.320838605 -0.2860023702 -0.2205014101 0.1992217066
350297900.0 -0.2077970207 0.1978835727 0.3180222157 -0.2897019102 0.3182307267 -0.2894176092 -0.2187294427 0.2020537998
355297870.0 -0.2057118219 0.2001171249 0.3145320244 -0.292870318 0.3147997564 -0.2935218736 -0.2168332862 0.2047474134
360297840.0 -0.2036721574 0.202341015 0.3115797145 -0.2968365354 0.3113820071 -0.296398607 -0.2146497728 0.2073753634
365297810.0 -0.2016016805 0.2045222514 0.3078927495 -0.2999244892 0.308177582 -0.299870473 -0.2127333881 0.210082303
370297780.0 -0.1993817599 0.2065627921 0.3046554863 -0.3030041492 0.3048753405 -0.3033957913 -0.2104473828 0.2119865979
375297750.0 -0.1974888851 0.2094136597 0.3018496047 -0.3067344558 0.301383137 -0.3068435642 -0.2082146596 0.2148779183
380297720.0 -0.1951394933 0.2113741257 0.2980376517 -0.3099217141 0.2980589329 -0.3102326927 -0.2056890568 0.2173892206
385297690.0 -0.1931475466 0.2138723776 0.294415173 -0.3131745735 0.294401924 -0.3132262952 -0.2035630551 0.2195832484
390297660.0 -0.1910061238 0.2158038513 0.2912935288 -0.3163644047 0.2910333704 -0.3168915858 -0.201525806 0.2219389511
395297630.0 -0.1885329715 0.217851476 0.2874257537 -0.3193610524 0.2876686707 -0.3199114079 -0.1993855155 0.2246518409
400297600.0 -0.1867938396 0.2202232991 0.2840922904 -0.3226229798 0.2843251332 -0.322883001 -0.1972730278 0.2268264649
405297570.0 -0.1841691413 0.2225933413 0.280579172 -0.3257765046 0.2803639668 -0.3259957604 -0.1949140165 0.2292272114
410297540.0 -0.1817334643 0.2245738244 0.2763023298 -0.3290331658 0.2768565495 -0.3287109256 -0.1924509824 0.2313844574
415297510.0 -0.1796849674 0.2269264727 0.273208437 -0.3320391722 0.2732054812 -0.3317299967 -0.1899900952 0.2336852034
420297480.0 -0.1771085746 0.2285481906 0.2692611074 -0.3350360395 0.2695535095 -0.3346256869 -0.1875770894 0.2353540145
425297450.0 -0.1745964993 0.230515997 0.2657124754 -0.337692606 0.2661007794 -0.3378516546 -0.184848891 0.2385154805
430297420.0 -0.1726273475 0.2327502679 0.2619299483 -0.3410072888 0.2620462536 -0.3407944578 -0.1828387072 0.2406812694
435297390.0 -0.1696206333 0.2344689663 0.2581537186 -0.3433130191 0.2584136564 -0.3435345371 -0.180259129 0.24271422
440297360.0 -0.1672123433 0.2365108264 0.2541992054 -0.3462179484 0.2540583012 -0.3461990521 -0.1774615585 0.2444544159
445297330.0 -0.164821792 0.2386183175 0.2501471032 -0.349255485 0.2505370111 -0.3490163839 -0.1754484432 0.2461895314
450297300.0 -0.1620396225 0.2404413856 0.2463011886 -0.3517671242 0.2468247637 -0.3516772642 -0.1728634142 0.2487918086
455297270.0 -0.1597440829 0.2424645558 0.2427887517 -0.3543995533 0.2430188477 -0.3540529413 -0.1699783468 0.2505432733
460297240.0 -0.157751098 0.2440863057 0.2389244328 -0.3565980359 0.2385959049 -0.3571359901 -0.167612225 0.2534189993
465297210.0 -0.1549679635 0.2457736031 0.23506089 -0.3593931103 0.235224102 -0.359431965 -0.1650585988 0.2547024555
470297180.0 -0.1521295677 0.2477622194 0.2309020421 -0.3617050715 0.2312203033 -0.3618818429 -0.1629077093 0.256660159
475297150.0 -0.1495866935 0.2493792271 0.2265947209 -0.364189466 0.2272104182 -0.3644733709 -0.1597328641 0.2584129547
480297120.0 -0.1471467878 0.2510867771 0.2229506513 -0.3665613979 0.2233819692 -0.366825365 -0.157231892 0.2608002867
485297090.0 -0.1441256224 0.2527340365 0.2187003266 -0.3691902956 0.2190314501 -0.3692063316 -0.1545030453 0.2623091358
490297060.0 -0.1415195587 0.2543569303 0.2150768538 -0.3717112112 0.214459972 -0.37181451 -0.1517150975 0.264200128
495297030.0 -0.139005629 0.2562219247 0.21032983 -0.373695351 0.2104104881 -0.3742795949 -0.1486677081 0.2658507156
500297000.0 -0.1360422439 0.2577665424 0.2065124067 -0.3763899104 0.2064966309 -0.3760237526 -0.1463805227 0.2677802832
505296970.0 -0.1338536179 0.2590226464 0.2021123279 -0.3778642721 0.2025381887 -0.3780743423 -0.1442748589 0.2695361835
510296940.0 -0.1306798886 0.2607653804 0.1984338816 -0.3801534038 0.198374617 -0.3801485713 -0.1406212369 0.2712756618
515296910.0 -0.1283253971 0.2626218184 0.193994721 -0.382347002 0.1940851373 -0.3823879129 -0.1381605474 0.2727594226
520296880.0 -0.1252194562 0.2637322282 0.1896759993 -0.3845653884 0.1901741388 -0.3843878942 -0.1352236912 0.2743035388
525296850.0 -0.1228804868 0.2652736807 0.1854899663 -0.3864578671 0.1855792101 -0.3870131359 -0.1323752281 0.276152723
530296820.0 -0.1201062832 0.2664980182 0.1815658905 -0.3878849345 0.1811910933 -0.3882462615 -0.130062008 0.2778835073
535296790.0 -0.1168567563 0.2684547178 0.1773367518 -0.3904794693 0.1774091623 -0.3902571311 -0.1269183626 0.2790950818
540296760.0 -0.114379549 0.2693529334 0.1728013031 -0.3925560093 0.17289213 -0.3924421375 -0.1242865269 0.2806920308
545296730.0 -0.1114284682 0.2709349306 0.1684162278 -0.3937056092 0.1685955397 -0.3937116518 -0.121518589 0.2817825902
550296700.0 -0.1088190031 0.2722011798 0.1644481948 -0.3959334014 0.1648099471 -0.3961546694 -0.1186749062 0.2835520286
555296670.0 -0.1052170939 0.2732848729 0.1599306024 -0.3973766627 0.1603561789 -0.3975793203 -0.1154062438 0.2851376844
560296640.0 -0.1027666509 0.2744893372 0.1556048814 -0.3990473339 0.1559181734 -0.3992340785 -0.1123825477 0.2865091255
565296610.0 -0.1002524586 0.2759858567 0.1513295641 -0.4010103455 0.151108781 -0.4010334457 -0.1095748266 0.2877183373
570296580.0 -0.097070121 0.2769079684 0.1467977065 -0.4021863352 0.1472878383 -0.4025688409 -0.1065221638 0.2895335513
575296550.0 -0.0940135137 0.2784020353 0.1424729749 -0.4035968203 0.1427313509 -0.4040334386 -0.1034126968 0.2903497871
580296520.0 -0.0911137377 0.2795679382 0.1386649217 -0.4054559067 0.1380175701 -0.4057376836 -0.1007040887 0.2916779227
585296490.0 -0.0880370796 0.2799665617 0.1340023468 -0.4065917515 0.1340045849 -0.4067369627 -0.0978419241 0.2924036821
590296460.0 -0.0854537135 0.2813713526 0.129408162 -0.4082402704 0.1293500877 -0.4083498864 -0.0948367018 0.2936467008
595296430.0 -0.082209736 0.2825090998 0.1252373497 -0.4094948769 0.1247827583 -0.4100027083 -0.0914677683 0.2948746816
600296400.0 -0.0793406199 0.2836196024 0.1207839302 -0.4109315487 0.1209323477 -0.4110418003 -0.0889207253 0.2964474204
605296370.0 -0.0761208618 0.2846638816 0.1157989561 -0.4121598905 0.1161422071 -0.4121657171 -0.0853897258 0.2972051781
610296340.0 -0.0733016781 0.2853530378 0.1116810764 -0.4132906732 0.1117366305 -0.4135065234 -0.0826337948 0.2987841032
615296310.0 -0.070548013 0.2866487129 0.1069482591 -0.4142930796 0.1072284596 -0.414473211 -0.0795358366 0.2990715961
620296280.0 -0.0672558495 0.2872027987 0.102758545 -0.4152773935 0.102552665 -0.4155930506 -0.0764026486 0.299844447
625296250.0 -0.0642472061 0.288264991 0.0977968526 -0.4167851685 0.0978238136 -0.4167887593 -0.0730596907 0.3013170815
630296220.0 -0.061161494 0.2890363511 0.0933721713 -0.4176847561 0.0937086639 -0.4177663785 -0.0701564791 0.3022252117
635296190.0 -0.0581487826 0.290080964 0.089015599 -0.4184151696 0.0888723898 -0.4183005245 -0.0671498761 0.3029874862
640296160.0 -0.0549869621 0.2905672016 0.0844337559 -0.4194582866 0.0843119392 -0.4194672719 -0.0636458547 0.3036076105
645296130.0 -0.052130863 0.2914087342 0.0798588897 -0.4201386292 0.0800789658 -0.4203541212 -0.0610782651 0.3043681082
650296100.0 -0.0491295898 0.2924311741 0.0754553605 -0.4208926218 0.0753038596 -0.4211205274 -0.0577351114 0.3053350541
655296070.0 -0.0457467048 0.2926125273 0.0707353216 -0.4218130797 0.0706166452 -0.4220092786 -0.0541774011 0.3061981204
660296040.0 -0.0431507776 0.293552205 0.0663420732 -0.4219965161 0.0664090621 -0.4222477049 -0.0514159767 0.3069019867
665296010.0 -0.0398188002 0.2938867467 0.0619170956 -0.4230187247 0.0621600594 -0.4234191047 -0.0483597839 0.3076071301
670295980.0 -0.0363876239 0.2944350658 0.0571053131 -0.4237861474 0.057485791 -0.4234548236 -0.0458557189 0.3080249247
675295950.0 -0.0335271239 0.2948583686 0.0522196041 -0.4242611883 0.0527852955 -0.4246467657 -0.0417797232 0.3089149064
680295920.0 -0.0302219372 0.2956504542 0.0476846926 -0.4250631999 0.0475723144 -0.4248448727 -0.0386066628 0.3092554241
685295890.0 -0.0272486885 0.2960156271 0.0435144278 -0.4251370651 0.0433305473 -0.4258045776 -0.0355577888 0.3098610545
690295860.0 -0.0238371254 0.2965197794 0.038641293 -0.4255803128 0.038321686 -0.4256570186 -0.0318677261 0.3103673533
695295830.0 -0.0204020188 0.2966109657 0.0330594009 -0.4260739071 0.0337417435 -0.4262899319 -0.0290827906 0.3111579508
700295800.0 -0.017247785 0.2971591485 0.0288059769 -0.426154728 0.0294952194 -0.4263603845 -0.0257213381 0.3110776912
705295770.0 -0.0143065083 0.2975423926 0.0248189493 -0.4265064559 0.0250526468 -0.4266000321 -0.0228351202 0.3117685091
710295740.0 -0.0112198944 0.2980214639 0.0201744615 -0.4267564978 0.0204225404 -0.4267049031 -0.0198691946 0.3123895228
715295710.0 -0.0083015162 0.2981536123 0.0153103622 -0.426634476 0.0158455901 -0.4270163924 -0.0163305861 0.3123807161
720295680.0 -0.0051978269 0.297812983 0.0109811909 -0.4265939437 0.0109163871 -0.4274976557 -0.0126158516 0.3129515916
725295650.0 -0.0015163996 0.2986558233 0.0059318472 -0.4270175888 0.0064294352 -0.4270628261 -0.009593549 0.313115475
730295620.0 0.0009195285 0.2985501406 0.0012703704 -0.4270549809 0.0013265282 -0.42722808 -0.0062681092 0.3130883879
735295590.0 0.0048932195 0.2989728207 -0.0031480918 -0.4272407406 -0.0025939967 -0.4273123954 -0.0028781839 0.3133948633
740295560.0 0.0076419174 0.2992099531 -0.0078102748 -0.4265725836 -0.0076876475 -0.4267759172 0.0001601721 0.313260481
745295530.0 0.0109195376 0.2988543812 -0.0122009439 -0.4267065864 -0.0119940254 -0.4271078521 0.0031553451 0.3138149502
750295500.0 0.0138774214 0.2989416699 -0.016729279 -0.4263882177 -0.0168318704 -0.4263923737 0.0066701993 0.3135491697
755295470.0 0.0176483266 0.2990438496 -0.0212123687 -0.4258408427 -0.0213663016 -0.4268080675 0.0095006201 0.3141514517
760295440.0 0.020524914 0.2988938976 -0.026353685 -0.4256718418 -0.0260308271 -0.4262310619 0.0123274508 0.3140549262
765295410.0 0.0234927627 0.2987619782 -0.0303886748 -0.4253966721 -0.0305970819 -0.4259998261 0.016774865 0.3143730526
770295380.0 0.0266816439 0.2988770262 -0.0353708532 -0.4249783184 -0.0349158235 -0.4256934755 0.0195653824 0.3138185306
775295350.0 0.0297700197 0.2989617909 -0.0397014053 -0.4245515874 -0.0394043209 -0.4250235499 0.0225443197 0.313883858
780295320.0 0.0332167202 0.2984747952 -0.044250755 -0.4242948262 -0.0441534858 -0.4246783279 0.0260257521 0.3143100682
785295290.0 0.0361916917 0.2983148036 -0.0488940684 -0.4232941534 -0.0489273447 -0.4235816184 0.0290985666 0.3136510802
790295260.0 0.0392061061 0.2982293198 -0.0534448427 -0.4235065132 -0.0535663443 -0.4233402889 0.0326919241 0.3132511182
795295230.0 0.0426833564 0.2980473421 -0.0579284355 -0.4221855885 -0.0578353172 -0.4225771674 0.0358571572 0.3138015834
800295200.0 0.0456715062 0.2976566393 -0.0626772785 -0.4220187021 -0.0628897316 -0.4222697078 0.039047554 0.3129091873
805295170.0 0.0488103276 0.2969762028 -0.0673810871 -0.4205646744 -0.0672855056 -0.4208832479 0.041812888 0.3125625393
810295140.0 0.0519941274 0.2968818755 -0.0719814327 -0.4204123293 -0.0717715992 -0.4208416764 0.0454869064 0.3128037536
815295110.0 0.0551247264 0.2966501603 -0.0764075412 -0.4193078417 -0.0763299108 -0.4194620783 0.0485400842 0.3121714061
820295080.0 0.0582633369 0.2957496759 -0.0809485944 -0.418794331 -0.080746466 -0.4189736722 0.0518828584 0.3117640489
825295050.0 0.0612786655 0.2953864435 -0.0850512438 -0.4169183667 -0.0852960542 -0.4179651953 0.0553899829 0.3111506378
830295020.0 0.0646909336 0.2951282213 -0.0898505815 -0.4163735414 -0.0900216768 -0.4169902482 0.0581835994 0.3108745608
