!Created with skrf (http://scikit-rf.org).
# Hz S RI R 50.0 
!freq ReS11 ImS11 ReS21 ImS21 ReS12 ImS12 ReS22 ImS22
300000.0 -0.2388969741 -0.1237596034 0.4703146583 0.080269901 0.4665643838 0.0805348218 -0.2372593058 -0.1258457978
5299970.0 -0.2448376322 0.005108944 0.4734119916 0.0059480088 0.4738121784 0.0061592754 -0.2436076149 0.0049837405
10299940.0 -0.2417235727 0.0183548126 0.4759445801 0.0070933879 0.4761787561 0.0070156378 -0.2403656289 0.0178227823
15299910.0 -0.2371571313 0.0282886931 0.4793708758 0.0080346949 0.4799300074 0.0084768622 -0.2360326614 0.0274104941
20299880.0 -0.2316831289 0.0360507048 0.484243662 0.0084854484 0.4844515287 0.0085383396 -0.2309730371 0.0352571406
25299850.0 -0.2254852246 0.0426215462 0.4893339605 0.0079719818 0.489779001 0.0078228453 -0.2258554544 0.0417077064
30299820.0 -0.220137212 0.0476885648 0.4949447071 0.005486914 0.4951375298 0.0053846727 -0.2208495228 0.047110864
35299790.0 -0.2143796551 0.0516906507 0.4999653129 0.0025387386 0.5005617663 0.0024272588 -0.2158170704 0.0515026586
40299760.0 -0.20923243 0.0545613992 0.505627327 -0.001376625 0.5059954406 -0.0016092432 -0.2106504121 0.0546307302
45299730.0 -0.2041560003 0.0572296777 0.510514377 -0.0063731519 0.5107288908 -0.006284499 -0.2058459117 0.0577005511
50299700.0 -0.1991598815 0.0589574681 0.5145396225 -0.0117210924 0.5145676724 -0.0120114977 -0.2010645951 0.0601282557
55299670.0 -0.1950901568 0.0604707559 0.5182151016 -0.017531836 0.5184763535 -0.0177777713 -0.1975566033 0.0618662757
60299640.0 -0.1907299378 0.0618650422 0.5216828857 -0.0242311273 0.5216488321 -0.0242424276 -0.1934895928 0.0631953822
65299610.0 -0.1871431755 0.062802018 0.525108682 -0.0299975169 0.524741161 -0.0307310486 -0.190017265 0.0646891317
70299580.0 -0.1841180151 0.0628773454 0.5270260471 -0.0366748223 0.5273052183 -0.036965406 -0.1871586883 0.0659690241
75299550.0 -0.1811684508 0.063753806 0.52881859 -0.0438648877 0.5290151235 -0.043763556 -0.1841055807 0.067029121
80299520.0 -0.1783784616 0.0643879851 0.5307853418 -0.0507792211 0.5313950374 -0.0507158906 -0.1816116444 0.0680910742
85299490.0 -0.1759321975 0.0649808553 0.5325739254 -0.0580576359 0.5327689434 -0.0571891885 -0.1790655911 0.0688969652
90299460.0 -0.1736132626 0.0654114809 0.5331460844 -0.0644639111 0.5333871901 -0.0642069697 -0.1769671536 0.070021865
95299430.0 -0.1715490164 0.0658303386 0.5341209646 -0.0718260319 0.5345661052 -0.0720365171 -0.1748693067 0.0708812732
100299400.0 -0.1692341062 0.0658790285 0.5344638543 -0.078086556 0.5347460005 -0.0783612792 -0.1731119531 0.0716296882
105299370.0 -0.1676477942 0.06656162 0.5350184742 -0.0851634579 0.5356667612 -0.0853396515 -0.1710261879 0.0723386324
110299340.0 -0.1661306841 0.0667354077 0.5353481169 -0.0914437558 0.5353896989 -0.0917874319 -0.1698988832 0.0731224216
115299310.0 -0.1645297898 0.0677492072 0.5352636878 -0.0985451821 0.5352316936 -0.0989387513 -0.1682230627 0.0741894626
120299280.0 -0.1635521804 0.068002568 0.535301407 -0.1059916781 0.5348779086 -0.1059796288 -0.1667482342 0.0746264924
125299250.0 -0.1616713069 0.0688857053 0.5342936117 -0.1125138911 0.5348085902 -0.1123585785 -0.1651636889 0.075743971
130299220.0 -0.1606946206 0.0691651041 0.5339886297 -0.1194247734 0.5338393922 -0.1194764718 -0.1640782191 0.0768515836
135299190.0 -0.1596648241 0.0702808783 0.5337834387 -0.1256592642 0.5337559239 -0.1262502547 -0.1629202229 0.0778432321
140299160.0 -0.1587414131 0.0707492073 0.5330131034 -0.1327389317 0.5329218877 -0.1325043406 -0.1622629113 0.0787032311
145299130.0 -0.1578733105 0.0716434789 0.5316945705 -0.1391625865 0.5319272245 -0.1390704853 -0.1610514004 0.0798829915
150299100.0 -0.1565797816 0.0726130998 0.53046901 -0.1459469968 0.5308183626 -0.1455893973 -0.159761567 0.0812030693
155299070.0 -0.1555855425 0.0735110644 0.5287714618 -0.1520646232 0.5296699978 -0.1523902793 -0.1586943911 0.0821466418
160299040.0 -0.1549666049 0.074480797 0.5278969647 -0.1585672788 0.5282039908 -0.1586496144 -0.1581262708 0.0835265745
165299010.0 -0.1537477428 0.0752462938 0.5264234744 -0.1647566959 0.5268040999 -0.1654283612 -0.1566973996 0.0842401507
170298980.0 -0.1530418068 0.0762296983 0.5246823509 -0.1715761667 0.5249952662 -0.1713991381 -0.1563446978 0.0858163833
175298950.0 -0.1522298217 0.0775013882 0.523514457 -0.1778023243 0.5238539201 -0.1782512379 -0.1550233399 0.087357297
180298920.0 -0.1514225421 0.0784387437 0.5211749614 -0.1842010687 0.5216014071 -0.1843932201 -0.1540428879 0.0883542945
185298890.0 -0.1506064165 0.0795350477 0.5200815546 -0.1903342992 0.519861521 -0.1903063867 -0.1529957214 0.0896439436
190298860.0 -0.1496984572 0.0808303408 0.5173502338 -0.1963115348 0.5181318001 -0.1963234193 -0.15227711 0.0910973489
195298830.0 -0.149113474 0.0819747373 0.5164041849 -0.202649183 0.5162191909 -0.2027884724 -0.1513120113 0.0926492087
200298800.0 -0.1481473498 0.0826372912 0.5137522714 -0.2089616927 0.513896476 -0.2089521349 -0.1501319749 0.0935649327
205298770.0 -0.1479856629 0.0839378279 0.5118813153 -0.2146832087 0.5117618219 -0.2150252422 -0.1490558167 0.0950475232
210298740.0 -0.1467600607 0.0855043155 0.5096496621 -0.2206794944 0.509585595 -0.220835775 -0.1485378047 0.0963863596
215298710.0 -0.1461042662 0.0869488388 0.506689356 -0.2265704161 0.5071924263 -0.2269294493 -0.1472190307 0.0976084276
220298680.0 -0.1451861084 0.0879017011 0.5045357511 -0.2325759475 0.5049051449 -0.2329283329 -0.1464704912 0.0993669714
225298650.0 -0.1446288261 0.0892471863 0.5017834595 -0.2380474645 0.5025150322 -0.238240892 -0.145674312 0.1005115199
230298620.0 -0.1436594793 0.090503637 0.4999268269 -0.2444304567 0.499880487 -0.2443010602 -0.1446654738 0.1018275942
235298590.0 -0.1433081798 0.091783309 0.4970280299 -0.2505710918 0.4971312344 -0.2503035886 -0.1433873925 0.1034427433
240298560.0 -0.1424066406 0.0932206364 0.4945109081 -0.2553851118 0.4945847536 -0.2556491662 -0.1426946528 0.1045573855
245298530.0 -0.1414443265 0.094061531 0.4914691162 -0.2614855354 0.4917239871 -0.2614905778 -0.1416291244 0.1062600143
250298500.0 -0.1409974455 0.0955497993 0.4889369093 -0.2669429443 0.4889315718 -0.2669954543 -0.1404786593 0.1077303375
255298470.0 -0.1398679416 0.0972507199 0.4861370403 -0.2726352808 0.486325608 -0.273138097 -0.1391719129 0.109546118
260298440.0 -0.1390991186 0.0981876592 0.483118661 -0.2775785342 0.4832523227 -0.2780790435 -0.1383790419 0.1105316443
265298410.0 -0.1386263032 0.0997445037 0.4801369009 -0.2838144785 0.4798721714 -0.2841432122 -0.136596807 0.1119493885
270298380.0 -0.1376112194 0.1010095057 0.4767392489 -0.2891157437 0.4769155344 -0.2893655673 -0.1358900977 0.1133305506
275298350.0 -0.1366380794 0.1024515913 0.4732902264 -0.2944816413 0.473751119 -0.2942599107 -0.1348884979 0.1148730826
280298320.0 -0.1358074816 0.1036640001 0.4703701097 -0.2997274531 0.4710493179 -0.2999300722 -0.1333092121 0.1165353614
285298290.0 -0.1353802058 0.1052453284 0.4672662973 -0.3050916145 0.4673614938 -0.3051343093 -0.132366267 0.118177635
290298260.0 -0.1342959825 0.1065558195 0.4646450316 -0.3104100653 0.4642520632 -0.3106108011 -0.1311789852 0.1192080615
295298230.0 -0.1332925063 0.1075644125 0.4610265942 -0.3159608277 0.4604773297 -0.3164265492 -0.1298609146 0.120750257
300298200.0 -0.1324426861 0.1090206378 0.4576492617 -0.3210125973 0.4572775823 -0.3208786346 -0.1286877766 0.1222477758
305298170.0 -0.1315655604 0.1100096375 0.4540639727 -0.3265914213 0.4544171152 -0.326688677 -0.1274915625 0.1231976883
310298140.0 -0.129997506 0.1110187767 0.4503424732 -0.3314097464 0.4505260994 -0.3312823945 -0.1259491401 0.1244520426
315298110.0 -0.1296146006 0.112260277 0.4468198705 -0.3370450432 0.4466101577 -0.3369259452 -0.1247082285 0.1261482629
320298080.0 -0.1286687519 0.1136142673 0.4428040321 -0.3421693838 0.4435466784 -0.3419593278 -0.1235666961 0.1273007022
325298050.0 -0.1281534385 0.1145933224 0.4388848063 -0.3467755652 0.4396804431 -0.347156394 -0.1218427925 0.1285466893
330298020.0 -0.1277365202 0.1160348638 0.435374514 -0.3516130388 0.4358962987 -0.3521348781 -0.1212820712 0.1299065571
335297990.0 -0.12663341 0.1174871706 0.4312674086 -0.3563625482 0.4314743084 -0.3566765519 -0.1200457977 0.1311657292
340297960.0 -0.1257557413 0.1186455192 0.4268639512 -0.3619154643 0.426860638 -0.3616111972 -0.1185881038 0.1326641653
345297930.0 -0.1249294549 0.1199080015 0.423161171 -0.3664536932 0.4229789602 -0.3662256036 -0.1174020736 0.1338536025
350297900.0 -0.1243102418 0.1211301874 0.4190289821 -0.3702794078 0.4193616705 -0.3707172308 -0.1162715873 0.1350726941
355297870.0 -0.123197521 0.1222791158 0.4146629941 -0.3748283904 0.4148034775 -0.3752599938 -0.1144114403 0.136648059
360297840.0 -0.1221939784 0.1239896572 0.4107273777 -0.3802514582 0.4107274218 -0.3801809252 -0.1133516496 0.1380321343
365297810.0 -0.1210541772 0.1253273287 0.4062803093 -0.3843153698 0.4066316827 -0.3844735594 -0.1120916619 0.1394299155
370297780.0 -0.1199670033 0.1264271188 0.4019368958 -0.3887656945 0.4023571667 -0.3890015446 -0.1107526698 0.1408282141
375297750.0 -0.1190562114 0.1276880968 0.3980720409 -0.3930623564 0.398119202 -0.3933376125 -0.109144843 0.1422723081
380297720.0 -0.1179787702 0.1292679296 0.3937942258 -0.3981577163 0.3937530103 -0.3980045746 -0.1074138931 0.144055188
385297690.0 -0.1171660127 0.1303667083 0.3891292832 -0.4021866891 0.3893931073 -0.4024259618 -0.1060788573 0.1450830702
390297660.0 -0.1156204218 0.1310856699 0.3847678675 -0.4057142487 0.3849445662 -0.406238776 -0.1040307208 0.1458855923
395297630.0 -0.11431955 0.1324889548 0.3803649193 -0.409891334 0.3804214097 -0.4101451532 -0.1029534574 0.1474446605
400297600.0 -0.1135375039 0.1339345265 0.3761718457 -0.4144799004 0.3762553138 -0.4144348122 -0.1011703526 0.1488753226
405297570.0 -0.1120409766 0.1347189865 0.3713252455 -0.4182859885 0.3718569798 -0.4187617462 -0.0994589286 0.1506915709
410297540.0 -0.1109583198 0.1363512994 0.3663861885 -0.4228172037 0.3669845432 -0.4228621028 -0.0982337382 0.1515344395
415297510.0 -0.109999423 0.1373874988 0.3621784855 -0.4265282005 0.3624201418 -0.4270026278 -0.0963094299 0.1527310203
420297480.0 -0.1086486686 0.1383673003 0.3573661181 -0.4305490925 0.3573648958 -0.4307712096 -0.0943829926 0.1542084587
425297450.0 -0.1071318608 0.1394653204 0.3525634584 -0.4341346954 0.3526104849 -0.4345232039 -0.0928925595 0.1547665342
430297420.0 -0.1060567058 0.1406646747 0.3484277861 -0.438422476 0.3486637473 -0.4381670807 -0.0912545803 0.1562817486
435297390.0 -0.1047112617 0.1414918863 0.3430910042 -0.4424177193 0.3434453758 -0.4422033038 -0.0897815065 0.1580253583
440297360.0 -0.1032649884 0.1426720351 0.3374104735 -0.4461767306 0.3383644041 -0.4459116427 -0.0880056928 0.1588963955
445297330.0 -0.1019936912 0.1433599555 0.3335628301 -0.4492823355 0.3338744824 -0.4496007689 -0.085948341 0.1598761995
450297300.0 -0.1002946412 0.1447765316 0.3284434085 -0.4529172699 0.3285517309 -0.4530224788 -0.0839098825 0.1610928532
455297270.0 -0.0995718231 0.1458167208 0.3237221197 -0.4562617866 0.3236268399 -0.4565008113 -0.0823453858 0.162137439
460297240.0 -0.0975579097 0.1471767995 0.318385459 -0.4605477944 0.3186733203 -0.4606866407 -0.0806424038 0.1630869075
465297210.0 -0.096195075 0.1479026998 0.3128311629 -0.4637837724 0.3130213155 -0.464425333 -0.0784248288 0.1647477235
470297180.0 -0.0951560971 0.1489788573 0.308240205 -0.4668064307 0.3088888966 -0.4670682392 -0.0768340103 0.1651047574
475297150.0 -0.0937563489 0.1502553714 0.3030663839 -0.4705755565 0.3034840578 -0.4704388461 -0.0750271768 0.1660329509
480297120.0 -0.0918172628 0.15128603 0.2983609289 -0.4736864545 0.2985068998 -0.4734697336 -0.0735671123 0.1672797989
485297090.0 -0.0904804651 0.1517581037 0.2927656368 -0.4768494625 0.292934576 -0.476797463 -0.0714519763 0.1683695786
490297060.0 -0.0887069291 0.1530451404 0.2874651829 -0.4805042807 0.287422063 -0.4802725612 -0.0694575337 0.1691069834
495297030.0 -0.087744268 0.1536846086 0.2827651406 -0.4834481568 0.2824714004 -0.4833488353 -0.0672993309 0.1697613046
500297000.0 -0.0861753208 0.1549070552 0.2771152746 -0.4861469084 0.2773316298 -0.4863481509 -0.0655424035 0.1707697498
505296970.0 -0.0840870417 0.1560471794 0.2717416187 -0.4892637174 0.2720056811 -0.488893798 -0.0634694379 0.1712412478
510296940.0 -0.0826613987 0.1565682584 0.2664734814 -0.4926143355 0.2663562441 -0.492448889 -0.0610614592 0.1725817533
515296910.0 -0.0810578492 0.1576978724 0.2608920298 -0.4947711082 0.2606401778 -0.4949734434 -0.0600455027 0.1727144897
520296880.0 -0.0795689594 0.1587656356 0.2556873819 -0.4976381969 0.2554930745 -0.4977156289 -0.0572007294 0.1743308984
525296850.0 -0.0780357206 0.1594800977 0.2501335541 -0.5004148347 0.2496899713 -0.5000516305 -0.0553756483 0.1747172091
530296820.0 -0.0765476195 0.1603042107 0.2447678895 -0.5032563188 0.2450866385 -0.5028529147 -0.0539840434 0.1751984834
535296790.0 -0.0743708601 0.1612584219 0.2391761286 -0.5058328756 0.2391890884 -0.505538711 -0.0515408336 0.17645459
540296760.0 -0.0730114805 0.16234779 0.2331683534 -0.508394062 0.2333953521 -0.5080020086 -0.0494687917 0.1765548404
545296730.0 -0.0718418336 0.1633423023 0.2282418493 -0.5105354374 0.2279802091 -0.5107401531 -0.0473845701 0.1774427676
550296700.0 -0.0693431356 0.164089147 0.2226667655 -0.51315035 0.2219309236 -0.5132285496 -0.0452765781 0.1782186462
555296670.0 -0.068000766 0.1649045967 0.2169216093 -0.5156719485 0.2166712916 -0.5156561706 -0.0435758016 0.1783375162
560296640.0 -0.0658970944 0.1654463939 0.2109228131 -0.5179614943 0.2115941046 -0.5178310271 -0.041645975 0.1794540732
565296610.0 -0.0648506329 0.1663803743 0.2056576669 -0.5200514994 0.2054486261 -0.5196857803 -0.0392134661 0.1799681375
570296580.0 -0.0631314217 0.1673499553 0.1995002315 -0.5218942033 0.1998908457 -0.5223027384 -0.0377632379 0.1807061343
575296550.0 -0.0611745552 0.1677806238 0.1941921268 -0.5241935027 0.1940929883 -0.524146859 -0.0352944933 0.1807753161
580296520.0 -0.0593268885 0.1691140998 0.1885235396 -0.5264766488 0.1883711461 -0.52663252 -0.0333467934 0.1815600977
585296490.0 -0.0575904925 0.1695027992 0.183181724 -0.5282041911 0.1825176882 -0.5280504256 -0.031230545 0.1822386592
590296460.0 -0.0555479023 0.1703596766 0.1771515969 -0.5301883775 0.1771231726 -0.5306885519 -0.0296445405 0.182884316
595296430.0 -0.0539100039 0.1712609761 0.1708522795 -0.5322408697 0.1706097315 -0.5321430385 -0.0274571896 0.1828801599
600296400.0 -0.0522895734 0.1718998853 0.1649330811 -0.533711163 0.1651355194 -0.5341771908 -0.0250962233 0.1834099901
605296370.0 -0.0509994696 0.1726480105 0.160085441 -0.5354847781 0.1594363512 -0.535837683 -0.0231918567 0.1840098619
610296340.0 -0.0486078856 0.1735101312 0.1537019126 -0.5367594377 0.1540502907 -0.5375243132 -0.0213135465 0.1847719011
615296310.0 -0.0467078945 0.1739950666 0.1479118817 -0.5390575515 0.1474435692 -0.5393441076 -0.0190481892 0.1849905382
620296280.0 -0.0456278001 0.1750960449 0.1419470834 -0.5404597667 0.1415024989 -0.540281361 -0.0171287918 0.1852296651
625296250.0 -0.0437456658 0.1756388421 0.1361621413 -0.5421143054 0.1361635919 -0.5420472942 -0.0154997273 0.1851884917
630296220.0 -0.0416676564 0.1766408115 0.129971604 -0.5436408231 0.1297966863 -0.5434653134 -0.0127610809 0.1857241104
635296190.0 -0.040311378 0.1771343212 0.1249483335 -0.5445786632 0.1242234591 -0.544323996 -0.0108401739 0.1861461782
640296160.0 -0.0383976636 0.1779299634 0.1185971151 -0.5461595786 0.1179501392 -0.5460914094 -0.0090970567 0.1862149305
645296130.0 -0.0362610912 0.1786219593 0.1122697111 -0.5470845931 0.1126799933 -0.5468910707 -0.0071478944 0.1859734362
650296100.0 -0.0346077229 0.1786657927 0.1066508641 -0.5483499812 0.1063848173 -0.5486885527 -0.0045867697 0.1863225073
655296070.0 -0.0328207915 0.1797156786 0.1002576887 -0.5495973283 0.1004548143 -0.5491500927 -0.003018084 0.1869026676
660296040.0 -0.0314473123 0.1802824048 0.0949783117 -0.5506015633 0.0946094391 -0.5506139565 -0.0006077496 0.1866495286
665296010.0 -0.0294696957 0.1810940503 0.0883878211 -0.5510399826 0.0886017354 -0.5512604976 0.0012527367 0.1871638066
670295980.0 -0.0276427518 0.1815232491 0.0826142556 -0.5522761415 0.0824639853 -0.5522373763 0.0030541833 0.1871855499
675295950.0 -0.0259932739 0.1818526474 0.0765153795 -0.5530096847 0.0767349516 -0.5530744756 0.005278016 0.1872936572
680295920.0 -0.0244597506 0.1828538907 0.0710949225 -0.553980088 0.0706193305 -0.5537215256 0.0075709415 0.1871481386
685295890.0 -0.0223699697 0.1829719607 0.0646785025 -0.5542187963 0.0646951255 -0.5546262405 0.0095782338 0.1878749277
690295860.0 -0.0209206667 0.1835152975 0.0589954589 -0.5553131995 0.0585264176 -0.5551571632 0.0114519287 0.1875852361
695295830.0 -0.0187448476 0.1838848795 0.0530051417 -0.5557116294 0.0527686291 -0.5556507006 0.0138130737 0.1875444749
700295800.0 -0.0170388173 0.1844511325 0.0471957653 -0.5563483514 0.0468363128 -0.556118502 0.0157984179 0.1877400123
705295770.0 -0.0155023904 0.1848260609 0.0409013308 -0.5570233563 0.0408168346 -0.5566642211 0.0179212439 0.1874592892
710295740.0 -0.0137969808 0.1851642615 0.0351176754 -0.556848922 0.0347318748 -0.5574108746 0.020173586 0.1878020531
715295710.0 -0.0118761853 0.1856600839 0.0290482231 -0.557403219 0.0286009148 -0.5575466799 0.0220206858 0.1873630344
720295680.0 -0.0094181167 0.1858311371 0.0228182776 -0.5573031804 0.0228359918 -0.5579935675 0.0244021065 0.1873271539
725295650.0 -0.0083955541 0.1864850243 0.0171832201 -0.5578625904 0.0168877416 -0.5580157173 0.0259367993 0.1877390965
730295620.0 -0.0074451674 0.1866422426 0.0112152623 -0.5579551148 0.0107921929 -0.5577592331 0.0280450814 0.1877417931
735295590.0 -0.0047332123 0.1873157384 0.0051200265 -0.5578672208 0.0048097797 -0.5580473179 0.0303145586 0.1869317547
740295560.0 -0.0032634011 0.1872975446 -0.0007903724 -0.5576542004 -0.0008320987 -0.5582705552 0.0318900528 0.1871186417
745295530.0 -0.0018219672 0.1877570261 -0.0067282519 -0.5577778453 -0.0062924525 -0.5578457282 0.0337075084 0.1868161821
750295500.0 -0.0001194703 0.1879166154 -0.0127609753 -0.5576399273 -0.013012661 -0.5575642973 0.0360099198 0.1863396058
755295470.0 0.0013544609 0.188274205 -0.0184961489 -0.5577444531 -0.0185712448 -0.5580830807 0.0382410506 0.1869548373
760295440.0 0.0033750794 0.188944534 -0.025261113 -0.5572551075 -0.0249828025 -0.5569849772 0.0401904598 0.1855766855
765295410.0 0.0053874722 0.1885673408 -0.031250732 -0.5570831641 -0.0308829414 -0.5571719653 0.0423445089 0.1859260425
770295380.0 0.0069247945 0.1890804134 -0.0366908371 -0.5565598982 -0.0367970514 -0.5567825354 0.0440219578 0.1852681598
775295350.0 0.008745155 0.1891751691 -0.0425493444 -0.5563790447 -0.0429051956 -0.5558807918 0.0465651439 0.1850668868
780295320.0 0.0104162849 0.1894174252 -0.0487804459 -0.5552994124 -0.0487876538 -0.5555731665 0.0488372706 0.1846917088
785295290.0 0.0124074291 0.1890911031 -0.0546857339 -0.5548175634 -0.054414987 -0.5549003216 0.0499472316 0.1849910984
790295260.0 0.0139030137 0.1892366033 -0.0600618518 -0.5542274511 -0.0600551269 -0.555047223 0.0523814679 0.1844878876
795295230.0 0.0155842302 0.1890430409 -0.0670095269 -0.5537235246 -0.0665890164 -0.5537134788 0.0545904342 0.1833934959
800295200.0 0.0169433688 0.1897641334 -0.0719358362 -0.5525115085 -0.0725588307 -0.5529484245 0.0560523372 0.1830803575
805295170.0 0.0185351484 0.1896700734 -0.0781848378 -0.5520862137 -0.0782408081 -0.5524880051 0.0588560243 0.1828686107
810295140.0 0.020891221 0.1895236358 -0.0843697215 -0.5511632194 -0.0842285713 -0.5515424531 0.0608998219 0.1821943716
815295110.0 0.0220788539 0.1897113474 -0.0900876717 -0.550391662 -0.0897495848 -0.5507005175 0.0623789694 0.1819214837
820295080.0 0.0242774361 0.1895072674 -0.0954797247 -0.5489852883 -0.0956612909 -0.5495903011 0.0636361781 0.1817667297
825295050.0 0.02564594 0.1891957104 -0.1019422736 -0.5480741835 -0.1020498521 -0.5482481308 0.0667732878 0.1814068756
830295020.0 0.0274783365 0.189071429 -0.107556849 -0.5469611822 -0.1079126572 -0.5470371567 0.068273036 0.1799733835
