!Created with skrf (http://scikit-rf.org).
# Hz S RI R 50.0 
!freq ReS11 ImS11 ReS21 ImS21 ReS12 ImS12 ReS22 ImS22
300000.0 -0.7745873579 -0.1693766052 0.0011606723 0.0017572753 -0.0009659171 0.002328617 -0.7673253495 -0.1777405283
5299970.0 -0.7860138103 -0.0093354422 9.35451e-05 5.92972e-05 2.7326e-05 9.53357e-05 -0.7847594372 -0.0092831452
10299940.0 -0.7894601836 -0.0056829621 -4.51426e-05 6.43353e-05 0.0001493996 -0.0002318614 -0.7873921583 -0.0052642913
15299910.0 -0.7944964711 -0.0030742101 3.39138e-05 2.93008e-05 8.09247e-05 -9.53818e-05 -0.7929880618 -0.0028053959
20299880.0 -0.8009517267 0.0005225732 8.98491e-05 -4.67818e-05 -0.0001382959 4.54483e-05 -0.7996082815 0.0017747643
25299850.0 -0.8076134372 0.0067774909 -0.0001676058 3.46248e-05 5.01727e-05 0.0002014891 -0.8059903917 0.0082768469
30299820.0 -0.8136739307 0.0137645741 0.0001997817 0.0001351237 2.4226e-06 -0.0002626703 -0.8119958768 0.0159885607
35299790.0 -0.8190292368 0.0229626638 0.0002715838 -3.68478e-05 -0.0001317047 -7.95303e-05 -0.8170243856 0.0247312001
40299760.0 -0.8235398218 0.0321063623 3.73512e-05 -0.0001094502 2.84493e-05 2.23415e-05 -0.8213171781 0.0339856997
45299730.0 -0.8266039127 0.0418899204 2.96662e-05 0.0001746543 0.0001068516 0.000107681 -0.8238308059 0.044016043
50299700.0 -0.8293742762 0.0521382113 -7.27504e-05 -4.48754e-05 0.0001757191 5.57046e-05 -0.8264160932 0.0537187208
55299670.0 -0.8315212965 0.0614415471 -0.000129485 -1.80007e-05 -0.000156596 -0.0001772119 -0.8285130655 0.0634463095
60299640.0 -0.8327164226 0.0718518395 -0.0002161246 0.00017912 0.0001104718 -0.0001046649 -0.829871602 0.0741917731
65299610.0 -0.8337181197 0.0815134872 0.0002392807 0.0002744878 7.2493e-06 6.33769e-05 -0.8305175091 0.0839262775
70299580.0 -0.8340636255 0.0914889532 7.24737e-05 -0.0001792643 0.0001660935 -5.10514e-05 -0.8310632093 0.0936790021
75299550.0 -0.8338405616 0.1014320482 -9.97921e-05 7.97456e-05 4.5856e-06 -4.47193e-05 -0.8311029569 0.10411396
80299520.0 -0.8339520102 0.1121919412 5.1736e-06 0.0001311136 9.82782e-05 -3.86085e-05 -0.8309252309 0.1139790865
85299490.0 -0.8329905098 0.1212568643 7.3394e-05 -0.000167813 -0.0002063127 -9.20735e-05 -0.8300596675 0.1233990885
90299460.0 -0.832257893 0.1315245603 9.827e-05 -0.0003574746 0.000109772 0.0001766066 -0.8291517148 0.1328346893
95299430.0 -0.8321203894 0.1404041982 -0.000130925 -1.72378e-05 -0.0002173056 -0.0001440686 -0.8285434766 0.1427595719
100299400.0 -0.8302387646 0.1503392164 -1.96976e-05 -6.32216e-05 -6.61168e-05 -1.56049e-05 -0.8272148529 0.1516925782
105299370.0 -0.8291514499 0.1590350221 -6.49845e-05 -6.43471e-05 -2.9008e-05 -3.70392e-05 -0.8257271228 0.1606314717
110299340.0 -0.8273812454 0.1686028077 2.44492e-05 -3.19194e-05 -5.3911e-05 -0.0001441879 -0.8245181128 0.169854763
115299310.0 -0.8264619719 0.1776818212 -1.5201e-06 -0.0002080426 8.2404e-05 -0.0001176395 -0.8230037977 0.1791568293
120299280.0 -0.8245601076 0.1868157302 -3.11e-07 -9.77832e-05 0.0001470505 4.8442e-06 -0.8212337379 0.1884171338
125299250.0 -0.8221889372 0.1960246806 8.94817e-05 0.0001965118 4.96254e-05 -2.424e-06 -0.8195828163 0.1970045029
130299220.0 -0.8213783306 0.2049337063 0.0001854224 2.00887e-05 -0.0002002152 -3.03848e-05 -0.8173861853 0.2061776563
135299190.0 -0.8189424391 0.2144095744 -4.31384e-05 0.0002152144 -0.0001637931 -7.003e-07 -0.8157224881 0.215071131
140299160.0 -0.8177021814 0.2237580355 4.1366e-05 -0.000161971 9.97958e-05 0.0001230562 -0.813913401 0.2232583851
145299130.0 -0.8150079762 0.2320331288 -0.0001663538 -0.0001897349 -0.0001161955 -5.7327e-05 -0.8120434624 0.232625936
150299100.0 -0.8116486688 0.241262464 -0.0001666433 -0.0002854569 0.0001066285 -8.07959e-05 -0.8095509351 0.2410295691
155299070.0 -0.8097934138 0.2501362323 -9.85573e-05 4.15565e-05 -6.60534e-05 -0.0001809492 -0.8072678045 0.2503810926
160299040.0 -0.8075688945 0.2594928671 2.45139e-05 -4.44624e-05 -1.80295e-05 0.0001984164 -0.8050961649 0.2588763498
165299010.0 -0.8048514057 0.2672210269 -4.05582e-05 -0.0002086612 -1.90835e-05 1.4778e-06 -0.8018047763 0.2675279563
170298980.0 -0.8015525547 0.2761751314 0.0002384912 0.0001240822 0.0002560689 6.2228e-06 -0.7998129896 0.2755175935
175298950.0 -0.7991604119 0.2846977191 -0.0001679255 -0.0001390057 -3.39039e-05 -0.000134748 -0.7966531002 0.2849365877
180298920.0 -0.7956039325 0.2938698596 -6.4312e-06 2.72606e-05 0.0001261918 -7.34951e-05 -0.7935835874 0.2929730906
185298890.0 -0.7929706348 0.3022564431 0.0001423142 -0.0001740077 1.9451e-06 -0.0001028959 -0.7904121611 0.3020134301
190298860.0 -0.7893181643 0.3107572999 6.1642e-05 0.0001691978 1.24281e-05 7.05914e-05 -0.7872219151 0.3101077692
195298830.0 -0.7871487852 0.3190973507 0.0001838867 8.22272e-05 7.95086e-05 1.6873e-05 -0.784199054 0.3183265458
200298800.0 -0.7830347834 0.3279429062 -7.74408e-05 -0.0001414062 0.0001175566 -0.0001859223 -0.7804111504 0.3268290781
205298770.0 -0.7793842444 0.3367077572 -5.6917e-05 -0.0001315832 0.0002250117 0.0001049639 -0.7774793928 0.3351161409
210298740.0 -0.7759007411 0.3450687405 -0.0001171353 -0.000197978 9.6249e-06 -7.85934e-05 -0.7741677881 0.3433061982
215298710.0 -0.7721911331 0.3533284399 -0.0002135534 -0.000131134 -3.2909e-06 -2.41467e-05 -0.7702415195 0.3514404672
220298680.0 -0.7689494528 0.3610768212 -7.33128e-05 0.0001645297 4.1021e-05 2.83976e-05 -0.7669255747 0.3592487602
225298650.0 -0.7648777574 0.3695404973 -3.66868e-05 -0.000200589 -1.9926e-05 -4.5378e-05 -0.7628353045 0.367512553
230298620.0 -0.7612331864 0.3776963891 8.4223e-05 4.52302e-05 -0.0002487096 0.000141938 -0.7588925242 0.375063315
235298590.0 -0.7573592275 0.3860049046 5.86673e-05 0.0002491444 4.6e-09 -6.2163e-06 -0.7555878788 0.3833656949
240298560.0 -0.7531576548 0.393958845 -9.1845e-06 3.00622e-05 -0.0001334023 0.0001445251 -0.7511820067 0.3909961251
245298530.0 -0.7488250639 0.4022353137 0.0001557403 -0.0001289751 -9.8337e-06 2.85541e-05 -0.7475479525 0.3988343139
250298500.0 -0.7445006366 0.4094270277 -2.70953e-05 0.0001714755 -4.62552e-05 -0.0001888217 -0.7424996515 0.4066613099
255298470.0 -0.7406868926 0.4173805406 -0.0001766532 -0.0001085343 -2.07097e-05 -9.52995e-05 -0.7388685246 0.4146489102
260298440.0 -0.7367574465 0.4255160354 1.99527e-05 -3.18903e-05 -0.0001539069 3.59619e-05 -0.734405764 0.4217444452
265298410.0 -0.7319566727 0.4324773776 -0.0001123374 -8.59921e-05 -2.97907e-05 2.87394e-05 -0.7300459951 0.4303176254
270298380.0 -0.727085221 0.440360646 -4.64136e-05 9.14707e-05 5.55347e-05 0.0001814005 -0.7252612504 0.4379070631
275298350.0 -0.7232623459 0.4478452772 4.32208e-05 2.62519e-05 5.72661e-05 0.0001959822 -0.7204575453 0.4453154177
280298320.0 -0.7184035393 0.455613388 -1.20497e-05 2.71894e-05 0.0002133679 -8.222e-06 -0.7163727464 0.4528683305
285298290.0 -0.7135712904 0.4635000413 -1.70453e-05 9.64207e-05 6.82017e-05 1.4517e-06 -0.7121710068 0.4606626222
290298260.0 -0.7085970434 0.4711260958 0.0001352629 4.56085e-05 -0.0001211248 -0.0001031465 -0.7064436539 0.4680631973
295298230.0 -0.703985864 0.4786553209 0.0001257215 8.11308e-05 0.0001847536 5.17523e-05 -0.7018986676 0.4751681296
300298200.0 -0.6991596641 0.4855041163 -1.00887e-05 -5.81762e-05 -6.5083e-05 1.40481e-05 -0.6968575662 0.4821700533
305298170.0 -0.6945096997 0.4923121384 -6.46083e-05 5.34564e-05 5.24471e-05 -1.6576e-06 -0.6912920441 0.4896444574
310298140.0 -0.6893597142 0.4995570608 0.0001356686 -9.10297e-05 5.38842e-05 -8.70692e-05 -0.6861219979 0.4971335349
315298110.0 -0.6846173878 0.5071431407 -8.34603e-05 -2.68789e-05 2.76096e-05 0.0001497429 -0.6812135823 0.5040360779
320298080.0 -0.6788651724 0.5148404747 4.15134e-05 -1.88775e-05 -9.6236e-06 3.89371e-05 -0.6759967295 0.5107524945
325298050.0 -0.6734304284 0.5211998902 -5.9319e-06 0.0001199274 8.1493e-05 5.26457e-05 -0.6705081397 0.5178868134
330298020.0 -0.6680369856 0.528161582 0.0001648103 0.000180187 -0.0001238146 0.0002041208 -0.6651920357 0.5241149587
335297990.0 -0.6629529127 0.5352728563 -3.96472e-05 0.0001071128 5.00057e-05 3.87201e-05 -0.6594209805 0.531363425
340297960.0 -0.6579701123 0.5417437334 0.0004537437 -8.89239e-05 -6.21433e-05 -4.86828e-05 -0.6541815943 0.5382682157
345297930.0 -0.6518465354 0.5479320969 0.0001040176 -7.48312e-05 -1.46674e-05 5.2904e-06 -0.6488670417 0.5452342393
350297900.0 -0.646191548 0.5551397021 1.58355e-05 0.0001174469 -1.82106e-05 5.892e-05 -0.6433426955 0.5513562033
355297870.0 -0.6402903636 0.5614930125 0.0001445223 -1.08833e-05 -0.0001164623 6.11999e-05 -0.6372341566 0.5589340795
360297840.0 -0.634504052 0.5681909085 -3.2911e-06 0.0002363145 9.48688e-05 -6.34755e-05 -0.6304300917 0.56422612
365297810.0 -0.6291650932 0.5749911804 -1.68025e-05 -0.0002392373 -5.7691e-05 -6.79664e-05 -0.6262379168 0.5707786894
370297780.0 -0.6230453168 0.5801813993 2.96999e-05 3.86598e-05 -1.42648e-05 -5.2282e-06 -0.6196708988 0.577695416
375297750.0 -0.6178153249 0.5872804951 -2.67985e-05 -7.46867e-05 8.05292e-05 0.0001376482 -0.6131869898 0.5839481976
380297720.0 -0.6117335148 0.5939063231 3.74775e-05 -2.7785e-05 -4.62142e-05 -6.2743e-05 -0.6066690412 0.5902874677
385297690.0 -0.6059851969 0.5994437392 2.8712e-05 5.52125e-05 -0.0002411256 -2.10258e-05 -0.6015233746 0.5966293462
390297660.0 -0.5982034929 0.6055189945 -9.90229e-05 -3.02432e-05 0.0001682848 0.0002650401 -0.5946843708 0.6019117011
395297630.0 -0.5931037253 0.6124790151 -2.81643e-05 8.09276e-05 5.02884e-05 -0.0002894232 -0.5881860239 0.607664751
400297600.0 -0.5867011314 0.6181468463 5.94173e-05 -3.83158e-05 6.42418e-05 -0.0001149958 -0.5825615506 0.6148586925
405297570.0 -0.5808741492 0.6234645369 -6.31338e-05 6.84097e-05 -0.0001042504 -0.0001559235 -0.5755787793 0.6196558982
410297540.0 -0.5737181043 0.6298739525 -4.07224e-05 4.80605e-05 0.0002526839 5.49155e-05 -0.5692027808 0.6263854539
415297510.0 -0.5679670883 0.6353438325 -1.52467e-05 -8.76841e-05 0.0001410099 2.12446e-05 -0.562845453 0.6315132581
420297480.0 -0.5609107357 0.6412607298 5.93973e-05 -0.0002304043 -1.10096e-05 -2.61139e-05 -0.5562000263 0.6381785171
425297450.0 -0.5543417575 0.6466822193 8.45128e-05 -0.0001008973 3.70327e-05 -9.76223e-05 -0.5493639511 0.6428106181
430297420.0 -0.5479036024 0.651709851 -3.08495e-05 0.000165776 -6.2893e-05 0.0002019142 -0.5428021028 0.6482317937
435297390.0 -0.5407255357 0.6571771128 8.91386e-05 -5.244e-06 -2.5475e-06 -7.0217e-06 -0.5363764134 0.6540525289
440297360.0 -0.5343100675 0.6624693553 -8.49502e-05 0.0001417153 -6.8197e-06 0.00010774 -0.5304570112 0.6590824743
445297330.0 -0.5271637852 0.6677577123 -8.16767e-05 -4.12145e-05 -4.47806e-05 0.0001346419 -0.5229298877 0.6650058482
450297300.0 -0.5205330404 0.6736473266 3.25403e-05 4.18033e-05 -5.04077e-05 0.0001576127 -0.5161738125 0.6699601695
455297270.0 -0.5136085203 0.6788907047 -4.44813e-05 -3.04051e-05 8.80785e-05 -4.38255e-05 -0.5094616923 0.6747624993
460297240.0 -0.506049114 0.6847379002 4.20961e-05 -0.0001567043 -1.00256e-05 -0.0001197466 -0.5024052044 0.6799332313
465297210.0 -0.4992507922 0.6890269073 -7.00543e-05 -0.0001846448 1.3407e-05 -2.76555e-05 -0.4951920074 0.6855379111
470297180.0 -0.4918583954 0.6942191545 -9.77601e-05 2.71895e-05 -2.31816e-05 -7.11239e-05 -0.4877895944 0.6901511674
475297150.0 -0.4848780277 0.6987123311 -0.0001557506 0.0001346013 -1.64335e-05 -8.76871e-05 -0.481099381 0.6952673021
480297120.0 -0.4769100953 0.7044126766 8.03052e-05 -4.81808e-05 -0.0001642831 0.0001425236 -0.4742677667 0.6999225214
485297090.0 -0.469992198 0.7081135025 -0.000103005 -7.17758e-05 -0.000288956 7.55919e-05 -0.4672884723 0.7043490872
490297060.0 -0.4625946939 0.7137028012 -5.59274e-05 -9.8539e-06 0.0001467905 5.34202e-05 -0.4595060837 0.7092633586
495297030.0 -0.4546383406 0.7182770236 -0.0001846182 -3.99811e-05 -8.15305e-05 0.0002277156 -0.4526996866 0.7133954677
500297000.0 -0.4472670508 0.7221210657 7.088e-07 -5.81217e-05 -0.00011961 -6.17435e-05 -0.4449415982 0.7185037971
505296970.0 -0.4390847276 0.7272397806 -9.89897e-05 0.0001237143 0.0001638662 -5.14036e-05 -0.4375984836 0.7225095452
510296940.0 -0.4316956995 0.7312890813 8.33281e-05 -8.62087e-05 9.10275e-05 0.000165551 -0.4302263631 0.7276874518
515296910.0 -0.4240902555 0.7358863034 -7.97684e-05 -0.0002546115 5.8635e-06 -5.3066e-05 -0.4229661852 0.7310343246
520296880.0 -0.4163762066 0.739676479 2.91769e-05 -5.7001e-06 2.23196e-05 6.96688e-05 -0.4153958052 0.7359064884
525296850.0 -0.4085850241 0.7441977526 6.1259e-06 -8.17887e-05 2.18012e-05 -0.0001091853 -0.4077917843 0.7397149338
530296820.0 -0.4011470712 0.748079819 -5.68049e-05 -0.0001377715 -2.25108e-05 3.33089e-05 -0.4006901125 0.7435123352
535296790.0 -0.393033491 0.7519250367 3.5764e-06 7.39892e-05 -7.04227e-05 9.78298e-05 -0.3932712315 0.748130783
540296760.0 -0.3850903699 0.7558300349 3.3052e-06 1.84555e-05 -8.66941e-05 -0.0001698309 -0.3853099606 0.7511600359
545296730.0 -0.3774588228 0.7604086767 -9.70344e-05 -0.0001278555 5.37748e-05 6.17169e-05 -0.3775908721 0.7556465366
550296700.0 -0.3691458228 0.7638054906 6.78832e-05 0.0001666172 4.43279e-05 0.0001265308 -0.3699870318 0.7592706576
555296670.0 -0.3616614494 0.7675341986 -1.68927e-05 0.000239227 1.46705e-05 8.01465e-05 -0.362596748 0.7619816965
560296640.0 -0.3532803187 0.7710764479 -0.0001402658 -0.0001208407 -7.42344e-05 0.0001287591 -0.3546847135 0.7667743876
565296610.0 -0.3454699142 0.7745901439 -0.0001342589 -0.0001023765 3.08674e-05 -0.0001080645 -0.3469233637 0.7703308715
570296580.0 -0.3369698529 0.778326309 5.55639e-05 -7.15708e-05 -8.36078e-05 0.000192621 -0.3388806993 0.7730335883
575296550.0 -0.3280322167 0.781107801 -5.07081e-05 -4.37273e-05 6.35027e-05 0.0001911124 -0.3310972226 0.7764247816
580296520.0 -0.3212158468 0.7847797042 -0.0001681877 0.0001399254 0.0001071752 0.0002067044 -0.3236295763 0.7800005227
585296490.0 -0.3126164135 0.7878305889 -1.32577e-05 7.31308e-05 9.58031e-05 -0.0001044696 -0.3149142083 0.783149858
590296460.0 -0.3040576854 0.7913117436 -7.85684e-05 -0.0002633805 -3.68425e-05 7.509e-06 -0.3073919203 0.7857412126
595296430.0 -0.2959976459 0.7941312093 -9.52995e-05 0.0002823332 -2.8138e-06 -0.0001385145 -0.2999005163 0.7894205723
600296400.0 -0.2879719612 0.7968326948 -8.52593e-05 -5.74401e-05 6.74835e-05 -0.0001695835 -0.291663213 0.7915369234
605296370.0 -0.2797400024 0.7994727221 8.57048e-05 6.17768e-05 4.62644e-05 1.27381e-05 -0.2839206206 0.7950990904
610296340.0 -0.2716651367 0.803418679 8.42282e-05 -2.24418e-05 -2.40493e-05 1.488e-07 -0.276042907 0.7978072807
615296310.0 -0.2627399677 0.8056201197 4.44284e-05 6.9429e-06 -6.72948e-05 -8.17941e-05 -0.2674163177 0.8004196674
620296280.0 -0.255245663 0.8083917593 -3.66064e-05 5.01105e-05 2.54484e-05 -8.44194e-05 -0.2599299656 0.8028765781
625296250.0 -0.2472758236 0.8103183254 8.34049e-05 -0.0001028863 -0.0001292309 -4.8845e-05 -0.2516477473 0.805289676
630296220.0 -0.2391213817 0.8135518353 -7.24993e-05 -7.92334e-05 -0.0001443149 -3.33498e-05 -0.2433494682 0.8078695946
635296190.0 -0.2297079454 0.8156922902 0.0001740303 7.25599e-05 -0.0001121212 -1.83497e-05 -0.2354488401 0.8099477952
640296160.0 -0.2217693907 0.8178883557 -7.83645e-05 -5.18018e-05 0.0001605713 7.00339e-05 -0.2272446633 0.8126838524
645296130.0 -0.2136162129 0.8207715497 3.8597e-06 4.81216e-05 5.15482e-05 8.05062e-05 -0.2193908797 0.8142391112
650296100.0 -0.2053388649 0.8223050214 0.0001364599 0.0001536521 0.0001313111 -0.0001309317 -0.210392051 0.817149496
655296070.0 -0.1973547626 0.824326821 -1.94213e-05 5.18392e-05 4.0292e-06 4.82602e-05 -0.2026807048 0.818872178
660296040.0 -0.1889350605 0.826546934 9.83274e-05 -0.0001090893 -8.5537e-05 4.60099e-05 -0.1941017912 0.8212631408
665296010.0 -0.1808489935 0.828288777 -4.20529e-05 -8.2054e-05 -1.2863e-06 -1.4298e-05 -0.1863494468 0.8222384903
670295980.0 -0.1723475262 0.8308329282 -2.74795e-05 -0.000278944 -8.59957e-05 6.25061e-05 -0.1785732684 0.8246479526
675295950.0 -0.1640914137 0.8322229128 6.0413e-06 3.28199e-05 -0.0001666787 4.41319e-05 -0.1694790895 0.8264857454
680295920.0 -0.1561185282 0.8336015847 -2.26849e-05 -6.39465e-05 5.68954e-05 3.76934e-05 -0.1609606323 0.8275471129
685295890.0 -0.1473136024 0.8352933375 -0.0001008423 -1.96067e-05 5.01405e-05 -0.0001999703 -0.1532199153 0.8295810775
690295860.0 -0.1390719574 0.8368932749 -3.106e-07 -5.94552e-05 -4.97363e-05 -3.15281e-05 -0.1452770521 0.8310129088
695295830.0 -0.130674716 0.838856202 -4.407e-06 -6.34202e-05 0.0001398131 -4.18119e-05 -0.1368253146 0.8325949166
700295800.0 -0.1225859348 0.8402412406 0.0001070199 0.0002736874 -0.0001182523 -0.0001549445 -0.1287124594 0.8331088969
705295770.0 -0.1147046787 0.8416709518 -0.0001414397 -4.8485e-06 4.14922e-05 5.3022e-06 -0.1200734637 0.8350888314
710295740.0 -0.1066211042 0.8420878388 5.88724e-05 9.77885e-05 6.86921e-05 5.64662e-05 -0.1113585838 0.8359900157
715295710.0 -0.0974038705 0.8434517959 5.9679e-06 0.000189339 -0.0001341696 7.11629e-05 -0.1032186647 0.8368340491
720295680.0 -0.0886018378 0.8448419454 4.7938e-05 0.0001021697 8.70778e-05 0.0001859328 -0.0949596177 0.8374757101
725295650.0 -0.0814312035 0.8461145717 -0.0001962134 1.1164e-06 5.34183e-05 -9.40273e-05 -0.0868706059 0.8398818921
730295620.0 -0.0735194843 0.8467759284 6.99523e-05 4.34299e-05 0.0001186239 0.000118308 -0.0788296413 0.8401878995
735295590.0 -0.0655901173 0.8478818926 2.07098e-05 3.65415e-05 -1.7549e-05 -1.18505e-05 -0.0696104683 0.8404338185
740295560.0 -0.0575491346 0.847740443 3.38218e-05 0.0002364878 0.0002586961 0.0001373723 -0.0612465574 0.8410643193
745295530.0 -0.0484137064 0.8495183051 -0.0001630789 -1.72368e-05 -6.74696e-05 8.91311e-05 -0.0537518567 0.8416719925
750295500.0 -0.041123365 0.8490961783 3.44027e-05 -6.51814e-05 -1.71217e-05 6.19201e-05 -0.0449267612 0.8424234013
755295470.0 -0.0322661696 0.8502372871 -0.0001046572 -3.14543e-05 -4.84631e-05 6.24944e-05 -0.036618157 0.8428140383
760295440.0 -0.0241509868 0.8502743106 0.000110242 0.0001765815 2.25817e-05 -1.47225e-05 -0.0279755185 0.8424325631
765295410.0 -0.0164415147 0.8506689515 -8.5644e-05 0.0001411884 0.0002110189 -2.37304e-05 -0.0190186425 0.8431930449
770295380.0 -0.0081258468 0.8509878186 9.40028e-05 6.59757e-05 -0.000158812 5.45977e-05 -0.0114860874 0.8432974495
775295350.0 2.0048e-06 0.8508785864 0.0002279665 -0.0001275891 -9.5517e-05 0.0001091008 -0.003231753 0.8433089191
780295320.0 0.0087300612 0.8513353261 -0.000112437 6.85359e-05 -9.91247e-05 -0.0001132903 0.0058347908 0.8437212349
785295290.0 0.0172425602 0.8512644951 -8.79521e-05 -2.14035e-05 -8.25187e-05 -1.65078e-05 0.0136828645 0.8437417512
790295260.0 0.0250188583 0.8509683455 2.5107e-06 0.0001163594 -0.0001552206 3.9806e-05 0.0219497027 0.8433523203
795295230.0 0.0332643724 0.85065048 5.62397e-05 3.80433e-05 3.14505e-05 8.77957e-05 0.0300301688 0.8422405877
800295200.0 0.0410172265 0.8509143677 1.28066e-05 -5.00399e-05 -7.5773e-06 -1.17264e-05 0.0386573476 0.842179831
805295170.0 0.0493468807 0.8507322005 0.0001199739 4.47921e-05 -7.12367e-05 5.80196e-05 0.0477137265 0.8418003472
810295140.0 0.05775845 0.8506691782 0.0002043014 3.43109e-05 -3.87722e-05 -7.92389e-05 0.0561088694 0.8411861885
815295110.0 0.0651776754 0.8496942501 -0.0001277225 0.0001971096 -8.48694e-05 -0.0001112637 0.0636055117 0.8406878774
820295080.0 0.0739292515 0.8492752847 -0.0001760788 0.0002245504 0.0001259158 -2.82305e-05 0.0715473654 0.8398191735
825295050.0 0.0821008104 0.8479853875 0.0001784524 -3.13217e-05 8.20454e-05 -1.8452e-06 0.0802581909 0.8395962611
830295020.0 0.0908123482 0.8473697101 -3.3048e-05 7.61614e-05 -7.53121e-05 -2.50362e-05 0.0884880114 0.8377701239
835294990.0 0.0978590578 0.8465324368 0.0001234476 7.9143e-05 -7.23021e-05 -1.34632e-05 0.0970571368 0.8378894061
840294960.0 0.106838517 0.8452806845 0.0001169968 -3.46334e-05 -0.0001311186 -1.36232e-05 0.1055242125 0.8367246225
845294930.0 0.114336133 0.8447027093 -0.0001267907 9.56067e-05 1.48413e-05 9.61323e-05 0.1140348615 0.8354234816
850294900.0 0.1237968831 0.8433528227 0.0001576241 2.76323e-05 9.1966e-06 -3.08869e-05 0.1216240339 0.8343462563
