!Created with skrf (http://scikit-rf.org).
# Hz S RI R 50.0 
!freq ReS11 ImS11 ReS21 ImS21 ReS12 ImS12 ReS22 ImS22
300000.0 0.8606547839 -0.0016983935 -0.0008606966 -0.0001893857 -0.0006735302 -0.0005515214 -0.7636104346 -0.1759959056
5299970.0 0.8603463288 -0.0104563842 -8.98679e-05 -9.35021e-05 2.38247e-05 -1.1075e-05 -0.7845724601 -0.0092332105
10299940.0 0.8589500282 -0.0191607632 0.00031535 -7.79197e-05 5.36449e-05 -8.9885e-06 -0.7879031802 -0.0052840763
15299910.0 0.8578922561 -0.027197485 -9.89505e-05 5.05862e-05 4.11461e-05 -0.0001684813 -0.793532664 -0.0030586511
20299880.0 0.8576602054 -0.0356033486 0.0002002467 -2.06515e-05 -7.324e-07 -9.6776e-05 -0.7999315586 0.0016654679
25299850.0 0.8568880635 -0.0434405201 6.3839e-05 3.669e-06 -8.20304e-05 0.0001031339 -0.8064509069 0.0070021526
30299820.0 0.8557342252 -0.0522262817 0.0001024475 2.03213e-05 -0.0001677892 3.89063e-05 -0.8127222467 0.0150648856
35299790.0 0.8553883932 -0.060040764 -3.52873e-05 0.0001274375 0.000213301 -0.0001581308 -0.8175324455 0.0236120995
40299760.0 0.8541512757 -0.068123931 0.0002164913 -6.11851e-05 -6.09801e-05 3.03903e-05 -0.8213900122 0.0331924122
45299730.0 0.853828105 -0.0770370582 0.0001244548 5.4654e-05 -6.177e-06 -5.3894e-06 -0.82539704 0.042417148
50299700.0 0.8526296307 -0.0852033359 3.91209e-05 0.0001246801 6.38607e-05 1.87566e-05 -0.8276220679 0.0525870625
55299670.0 0.8515370705 -0.0934609416 0.0001160688 9.23617e-05 0.0001153316 0.0001315182 -0.8297281296 0.0632662718
60299640.0 0.8506873666 -0.1009307808 3.56549e-05 -7.99514e-05 -5.22965e-05 0.0001031575 -0.8310570783 0.0731889694
65299610.0 0.8501065707 -0.1096704944 -3.38042e-05 5.8357e-06 -3.05328e-05 -6.67944e-05 -0.8315557471 0.082660437
70299580.0 0.8487337663 -0.1182996017 -0.0002538143 -0.0001620502 -5.51488e-05 -2.24908e-05 -0.8321785223 0.0925471155
75299550.0 0.8472451948 -0.1266843412 -4.87671e-05 -0.0002676877 -2.00652e-05 8.60119e-05 -0.832437596 0.1021669178
80299520.0 0.8454719967 -0.1340194538 -2.01204e-05 4.6272e-06 3.42061e-05 0.0002452561 -0.8321273164 0.1122893629
85299490.0 0.8447193847 -0.1425728876 0.0002560041 -0.0001660762 0.0001791455 0.000235148 -0.8319274856 0.1220667793
90299460.0 0.843002583 -0.1505753664 3.06805e-05 -4.14178e-05 0.0001010884 0.0001562599 -0.8303492743 0.1313346298
95299430.0 0.8419631775 -0.1592765416 6.3096e-06 -9.40463e-05 -4.53696e-05 -5.43872e-05 -0.8298963848 0.1413713091
100299400.0 0.8394908924 -0.1666408584 6.32491e-05 6.29607e-05 -0.000177055 5.23257e-05 -0.8288524301 0.1499295896
105299370.0 0.8379946449 -0.1755802397 -7.3721e-06 -4.19944e-05 8.79313e-05 0.0001604047 -0.8273870497 0.1591523619
110299340.0 0.8367758133 -0.1833929921 0.0001640596 0.000151764 -5.66926e-05 2.69459e-05 -0.8271460402 0.1685224632
115299310.0 0.8343232194 -0.1919998817 3.39732e-05 0.0002697746 3.10606e-05 -2.45961e-05 -0.8246410724 0.1769074506
120299280.0 0.8324372387 -0.1991933953 -0.0001251025 -1.7888e-05 2.009e-05 4.19257e-05 -0.8238755348 0.186222812
125299250.0 0.8307731182 -0.2078611817 0.0001268187 0.0002041237 -7.38543e-05 -0.0001971002 -0.8214719145 0.1953141028
130299220.0 0.8290878218 -0.2160968986 7.82758e-05 6.29003e-05 0.0001236312 -9.538e-07 -0.8202563828 0.2042763593
135299190.0 0.8263641391 -0.2235947132 4.70127e-05 0.0001657758 4.2236e-06 7.09967e-05 -0.8179831311 0.2130881742
140299160.0 0.8248713846 -0.2319176534 -1.9082e-06 -0.000176051 -5.6049e-06 -7.04481e-05 -0.8159835608 0.2216528532
145299130.0 0.8219820759 -0.2397587218 1.3234e-05 -0.0001034177 -8.41445e-05 -9.8794e-06 -0.8140958201 0.2299410414
150299100.0 0.8193431039 -0.2474920902 -5.93835e-05 2.7295e-05 1.47423e-05 8.39727e-05 -0.8116291614 0.2383892485
155299070.0 0.8166250642 -0.2556017659 0.0002391292 0.0001659551 0.0001599373 0.0001655477 -0.8095904592 0.2475572166
160299040.0 0.8141140573 -0.2641059331 -0.0002499341 -3.85865e-05 -7.50022e-05 -0.0002479814 -0.8078169286 0.2565998982
165299010.0 0.8119030776 -0.2713639486 3.27871e-05 6.78867e-05 -0.0001399842 4.31138e-05 -0.8043926141 0.2648414356
170298980.0 0.809112589 -0.2792475657 -6.65587e-05 -6.81626e-05 0.0002124432 0.0002043902 -0.8020883012 0.273655865
175298950.0 0.8062492717 -0.2867655342 3.3718e-05 0.0001381087 -3.3808e-05 4.55724e-05 -0.7986625383 0.2822422464
180298920.0 0.8035205671 -0.2944852025 5.36186e-05 -4.40903e-05 2.50984e-05 1.7029e-06 -0.7958462444 0.2906807395
185298890.0 0.800675871 -0.3027338023 -0.0001099014 -0.0001381437 0.0001529273 -0.000125406 -0.7936055256 0.2988091235
190298860.0 0.7974657819 -0.3107753094 0.0001383582 8.99322e-05 -0.0001307826 2.0727e-05 -0.7897810498 0.3071506984
195298830.0 0.7949632603 -0.3176968663 7.02167e-05 0.0001149461 2.65652e-05 0.0002328904 -0.7868331738 0.3156092377
200298800.0 0.7907872557 -0.3270952425 0.0001033319 -0.0001111981 2.27762e-05 -2.19884e-05 -0.7833081832 0.3237025416
205298770.0 0.7883464924 -0.3338203822 0.0002622965 5.10058e-05 -1.06136e-05 -2.17762e-05 -0.7798687248 0.3323228308
210298740.0 0.7852497346 -0.3408334568 -5.2395e-06 0.0001133646 -5.29223e-05 -0.0001462393 -0.7770245506 0.3404701466
215298710.0 0.7812855255 -0.3487444739 0.0001915959 5.67085e-05 -4.11231e-05 -0.0001024318 -0.7733279157 0.3483599812
220298680.0 0.7780846978 -0.356539985 0.0002063126 0.0001712449 -3.68994e-05 8.07296e-05 -0.7695065291 0.3564617162
225298650.0 0.7743084471 -0.3636121528 9.98911e-05 -0.0002059716 0.0001078155 -5.85825e-05 -0.7657898518 0.3646530276
230298620.0 0.7710019291 -0.3719476975 -0.0001076231 0.0001601292 -1.23792e-05 7.89546e-05 -0.7615159789 0.3727349041
235298590.0 0.7673261529 -0.3789822107 6.70874e-05 0.0002016851 -7.053e-05 -0.0001429138 -0.7573823756 0.3806374052
240298560.0 0.7632314556 -0.3872681152 -7.08311e-05 -6.01537e-05 -0.0002279339 -0.00016485 -0.7536100507 0.3884748752
245298530.0 0.760005394 -0.3934024571 -4.76706e-05 0.0001442219 2.85136e-05 -7.17734e-05 -0.7494818363 0.3968648749
250298500.0 0.756409213 -0.4009199959 -0.000137357 9.4178e-06 2.21106e-05 4.29446e-05 -0.7455744745 0.4045320071
255298470.0 0.7521255512 -0.4075574342 9.35161e-05 -0.0001938992 2.3902e-05 -2.06306e-05 -0.7409674777 0.4122431858
260298440.0 0.747580794 -0.4157088429 -5.95764e-05 0.000148456 0.0001767591 -2.51839e-05 -0.7366643855 0.4202208719
265298410.0 0.7439641063 -0.4224099373 0.0001608556 -0.0001081171 1.61973e-05 0.0001110605 -0.7323591545 0.4276712496
270298380.0 0.7402674025 -0.4296733456 1.66504e-05 5.33016e-05 -0.0002499998 3.84666e-05 -0.7277165414 0.4352028255
275298350.0 0.7359076197 -0.4373256733 -0.0002145387 0.0001539045 -0.0001042853 -4.27779e-05 -0.7224242938 0.4428777595
280298320.0 0.731745399 -0.4443191791 0.00020365 4.20076e-05 -0.0001486006 7.04199e-05 -0.7183574413 0.4497947118
285298290.0 0.7272907694 -0.4510120919 6.20191e-05 -8.39108e-05 5.01419e-05 0.000126201 -0.7131973088 0.4574545237
290298260.0 0.7236289801 -0.4586149808 -0.0002351206 -8.27753e-05 5.9913e-06 -4.22667e-05 -0.708217865 0.4658816331
295298230.0 0.71879304 -0.466334578 3.52298e-05 0.0002242369 -0.0001323962 -0.0001035475 -0.703339271 0.472900455
300298200.0 0.714778474 -0.4736380832 4.44641e-05 -0.0001015172 6.4472e-06 0.0001463798 -0.6989469547 0.4802685575
305298170.0 0.7104212076 -0.4802813645 0.0002003477 0.0001534814 0.000122316 -6.02434e-05 -0.6928341572 0.4876199381
310298140.0 0.7061591312 -0.4881698904 5.97299e-05 0.0001290923 4.54867e-05 -0.0001171187 -0.68862639 0.4950861419
315298110.0 0.7007406831 -0.4954978667 -0.000141868 -7.53168e-05 -0.0001144537 5.55149e-05 -0.6833017102 0.5013895012
320298080.0 0.694841309 -0.5024724454 2.8455e-05 0.0003038973 -5.16885e-05 -2.47202e-05 -0.677544273 0.5093130322
325298050.0 0.6900037844 -0.5101079942 1.39101e-05 -6.14547e-05 0.0001310421 -4.97383e-05 -0.671735322 0.5157612902
330298020.0 0.683858034 -0.5165964094 -1.00194e-05 -0.0002240526 -0.0001132133 -1.99599e-05 -0.666658257 0.5231578339
335297990.0 0.6785711744 -0.5226585727 7.06221e-05 1.16852e-05 0.0001472134 1.94412e-05 -0.6607899619 0.5294883236
340297960.0 0.6728988912 -0.5292157491 3.188e-05 2.89515e-05 -0.0001201414 -0.0002232428 -0.6549659666 0.53682951
345297930.0 0.6668122209 -0.5353579316 0.0001287357 -0.000199168 8.42923e-05 -1.6381e-06 -0.6497874032 0.5442228315
350297900.0 0.6617266952 -0.5418409887 -0.0001342409 0.0001748091 7.86554e-05 -0.0001515652 -0.6438763538 0.5510994437
355297870.0 0.6562660787 -0.5481133457 7.61228e-05 -4.46279e-05 -9.88876e-05 7.58682e-05 -0.6382590325 0.5572821311
360297840.0 0.6503699932 -0.5546310928 4.61536e-05 -4.88183e-05 -0.0001044858 0.0001399725 -0.6324681489 0.5638136097
365297810.0 0.6456827839 -0.5605769611 -3.822e-07 -0.000258796 0.0001117046 0.0002951947 -0.6260905964 0.5704744324
370297780.0 0.6400744713 -0.5663072921 -0.0001099769 -0.000176266 -0.0001666151 7.43605e-05 -0.6205719061 0.5766439398
375297750.0 0.6336943912 -0.572440845 0.0001602308 -0.0001371515 9.8345e-05 -0.0001172506 -0.61395401 0.5832100308
380297720.0 0.6290340311 -0.578484148 2.13977e-05 -0.0001025348 3.81595e-05 6.72562e-05 -0.6078092391 0.5901206198
385297690.0 0.6221590916 -0.5843356278 0.0001701176 4.23996e-05 -6.0695e-05 -2.07074e-05 -0.6022902912 0.5962700246
390297660.0 0.6169970426 -0.5901609839 2.75949e-05 3.92922e-05 1.58457e-05 0.0001113923 -0.5955593283 0.6019482076
395297630.0 0.6113094428 -0.5963660594 0.0001044971 -9.73806e-05 0.0001570092 1.36402e-05 -0.589031519 0.6084152433
400297600.0 0.6047256721 -0.6019417839 -6.23027e-05 -0.0001721226 -0.0001448094 -0.0001506028 -0.5834791426 0.6138821664
405297570.0 0.5990772689 -0.608285676 -3.76561e-05 -0.0001772499 -3.67133e-05 -5.8566e-06 -0.5775278948 0.6198657089
410297540.0 0.5933229358 -0.6132984043 0.0001294249 0.0001620182 -0.0001343481 -5.85587e-05 -0.570260889 0.6261088678
415297510.0 0.5875823222 -0.6187093883 -0.000125925 8.72598e-05 0.0001695977 0.0001542148 -0.5637268198 0.6318733771
420297480.0 0.5808477363 -0.625004284 -5.31969e-05 -0.0001329386 -8.54053e-05 -0.0001278449 -0.5570786296 0.6368209407
425297450.0 0.5749903791 -0.6301573882 6.85177e-05 5.67703e-05 -7.61477e-05 -6.74325e-05 -0.5501788596 0.6435016944
430297420.0 0.5687209144 -0.6359593042 0.0002504532 6.81493e-05 5.69006e-05 1.9782e-06 -0.5435143244 0.6487764224
435297390.0 0.5624504347 -0.6417457754 -4.42941e-05 6.45534e-05 0.000150498 -0.0001424519 -0.5369214924 0.6537621293
440297360.0 0.5561897469 -0.6470894494 2.37659e-05 9.71733e-05 0.0002304445 0.000134223 -0.5302411285 0.659045048
445297330.0 0.5497395633 -0.6521576683 -0.0001686802 -2.17251e-05 -1.86703e-05 0.000112559 -0.5236998909 0.6642298461
450297300.0 0.5435294652 -0.6575051006 7.95618e-05 -0.0001914456 2.11212e-05 -3.49986e-05 -0.5174429565 0.6699283146
455297270.0 0.5369950879 -0.6628517253 -2.51011e-05 -0.0002572759 -0.0001264468 4.49924e-05 -0.5098590594 0.6749897426
460297240.0 0.5301712262 -0.6673874594 0.0001677994 -0.0001150915 -9.73738e-05 -0.0001901062 -0.503080884 0.6803163954
465297210.0 0.5235420964 -0.672892035 8.47226e-05 -9.35523e-05 -0.0001280875 2.99682e-05 -0.4961625781 0.6850019989
470297180.0 0.5165727936 -0.677784899 6.76525e-05 -0.000118078 1.5378e-05 5.37104e-05 -0.4898176996 0.6892489167
475297150.0 0.5104028273 -0.6830181687 6.68323e-05 3.76813e-05 -0.000105777 7.97352e-05 -0.4821518244 0.6944155138
480297120.0 0.5034905526 -0.6871956629 -0.0001501998 0.0003372878 6.18961e-05 -1.32523e-05 -0.4753878197 0.6998393631
485297090.0 0.4967638302 -0.6925190913 8.80759e-05 -0.0002074249 0.0001954528 -5.53699e-05 -0.4679417051 0.7040098667
490297060.0 0.4897057544 -0.6971876819 6.05402e-05 4.4773e-06 5.94375e-05 6.39959e-05 -0.460925627 0.7085779938
495297030.0 0.4827257924 -0.7024588343 0.0001157708 5.97204e-05 -6.18413e-05 -0.0002038653 -0.4530667173 0.712725558
500297000.0 0.4764063774 -0.7068728283 -5.16338e-05 -0.0001395434 5.6749e-05 -6.9703e-05 -0.4463588047 0.7176588524
505296970.0 0.4685864852 -0.7111644334 0.0001409937 5.20928e-05 -5.28099e-05 9.78794e-05 -0.4399213311 0.7216053678
510296940.0 0.4614890617 -0.715168038 -4.54383e-05 0.000170357 -0.0001007358 0.0002126419 -0.431575838 0.7264530046
515296910.0 0.4548274633 -0.7198834535 -0.0001528968 -6.96548e-05 -2.93713e-05 0.0001628268 -0.4249343382 0.7302801839
520296880.0 0.4480462342 -0.7243329422 -0.0002532299 -0.0001706474 -0.0002258377 -0.0001106884 -0.417508873 0.734447596
525296850.0 0.4406935026 -0.7284525968 8.36412e-05 6.60453e-05 0.0001479905 -8.12115e-05 -0.4100933856 0.7390890408
530296820.0 0.4331987945 -0.7328514749 -0.0001421525 -0.0001061934 0.0001014346 -3.33385e-05 -0.4029148423 0.7426701183
535296790.0 0.4259590977 -0.7369165143 -7.79329e-05 -9.69721e-05 -7.61186e-05 -0.0002174202 -0.3957595829 0.7463074469
540296760.0 0.4187092168 -0.7410548179 3.66012e-05 -7.40588e-05 8.25231e-05 -3.8205e-05 -0.3880789826 0.7507716825
545296730.0 0.4109134573 -0.7442840431 -3.98622e-05 -0.0001026978 -0.0001629405 -4.04963e-05 -0.3807348382 0.7539589434
550296700.0 0.4039580999 -0.7490133841 5.77481e-05 4.56444e-05 1.65345e-05 0.0001167143 -0.3728093497 0.7578135835
555296670.0 0.3964416192 -0.752344471 0.0003161721 8.26261e-05 -9.43267e-05 0.0001935545 -0.3656957257 0.7611380516
560296640.0 0.3895455176 -0.7566726937 -0.000203306 -0.0001552958 3.93847e-05 -7.39163e-05 -0.3575217261 0.7655630035
565296610.0 0.3814445331 -0.7606404142 -4.93224e-05 -4.21129e-05 0.0001362771 4.8778e-05 -0.3498677795 0.7685919591
570296580.0 0.3745291734 -0.7641825937 -0.0001158589 -0.0001819057 6.30062e-05 -9.9355e-05 -0.3429605268 0.772529685
575296550.0 0.3669647865 -0.7669608135 -0.0001970463 -0.0001640317 0.0002888901 -0.0001140457 -0.3350352671 0.7757398996
580296520.0 0.3597503053 -0.7707591112 -0.0002796947 0.0001259992 -2.68589e-05 -3.11593e-05 -0.327049597 0.7791723598
585296490.0 0.3511633762 -0.7740124707 0.0001309937 -8.84546e-05 0.0001279432 0.0001608487 -0.3193792126 0.7818674688
590296460.0 0.3433728785 -0.7777199338 0.0002223715 8.87435e-05 7.36733e-05 9.66382e-05 -0.3116236784 0.7847672182
595296430.0 0.33604306 -0.7805530264 -8.14254e-05 8.14836e-05 -6.8175e-06 6.52629e-05 -0.3039430543 0.7871701642
600296400.0 0.3280813514 -0.7838821716 -0.0001025306 0.0001516306 8.2587e-05 -0.0002524515 -0.2959476345 0.7910480059
605296370.0 0.320896541 -0.7865563001 -5.33591e-05 -7.92164e-05 8.78655e-05 -0.0001745376 -0.2884131163 0.7945323482
610296340.0 0.3128082053 -0.7898174326 -8.37378e-05 0.0001479293 3.77305e-05 -0.0001623775 -0.2802233287 0.7968900795
615296310.0 0.3051417232 -0.7926399877 5.17367e-05 8.80559e-05 -7.13157e-05 -8.36701e-05 -0.2724591698 0.79906324
620296280.0 0.2971462839 -0.7958037799 -1.52302e-05 -0.0001104946 8.853e-05 -2.86297e-05 -0.264467372 0.801600641
625296250.0 0.2897166613 -0.7983764558 -9.29604e-05 -2.15668e-05 -7.85158e-05 5.4426e-05 -0.2567838955 0.8045740317
630296220.0 0.2812299585 -0.8008892149 -0.0002542429 -9.91526e-05 0.0002137681 0.0001333809 -0.249165374 0.8072708291
635296190.0 0.2738420694 -0.8042643077 -2.31883e-05 0.0001298597 0.000202809 4.11675e-05 -0.2404443884 0.8094620521
640296160.0 0.2657465419 -0.8060485723 5.17956e-05 -0.0001409882 8.28625e-05 3.8558e-05 -0.2325506993 0.8119405544
645296130.0 0.2575149635 -0.8085829166 0.0001329289 7.80031e-05 6.21889e-05 6.79051e-05 -0.2243867603 0.813812444
650296100.0 0.2495115655 -0.811275233 -0.0001471169 -0.0002509114 6.24932e-05 0.0001356946 -0.2163683389 0.8163322467
655296070.0 0.2419816075 -0.8136920541 0.0001434545 0.0001262211 -0.0002710726 0.0001485151 -0.2081797017 0.8182659959
660296040.0 0.2329345119 -0.8151107034 -5.3555e-05 0.0001977775 5.07249e-05 -0.0001583357 -0.2003464894 0.8202712002
665296010.0 0.2256273182 -0.8177111132 0.0002614458 6.79972e-05 0.0001776242 3.99409e-05 -0.1928506237 0.8219536378
670295980.0 0.2179302186 -0.8201646758 9.19771e-05 8.24213e-05 -3.98441e-05 -0.0001126111 -0.1848657474 0.8237250269
675295950.0 0.2089433412 -0.8216686867 -3.42037e-05 -2.2931e-05 -4.8687e-06 3.29517e-05 -0.1760916634 0.8262210505
680295920.0 0.2007167904 -0.823595283 0.0001467831 0.000174511 0.0001503208 1.77525e-05 -0.1680237046 0.8279708
685295890.0 0.193119829 -0.825135654 -0.0001065357 3.92374e-05 -8.32575e-05 0.0001301364 -0.1593940147 0.829340512
690295860.0 0.185398755 -0.8272653466 -0.0001469625 -2.35028e-05 -2.3405e-06 4.22482e-05 -0.1514946497 0.8308496031
695295830.0 0.1769380108 -0.8291083756 -0.0002758295 -2.11594e-05 -8.59418e-05 1.16901e-05 -0.1435145061 0.8327969656
700295800.0 0.1688991016 -0.8301751537 -0.0001083988 0.0002215849 2.44329e-05 0.0001741331 -0.1349324776 0.8332621532
705295770.0 0.1602563485 -0.8320218464 -9.90496e-05 -8.12994e-05 8.68689e-05 6.62913e-05 -0.127530235 0.8356861761
710295740.0 0.1524933858 -0.8333273041 0.0002157646 -0.0001457436 -6.27688e-05 0.0002641224 -0.1188455175 0.8365048642
715295710.0 0.1436452343 -0.8340412275 1.5245e-06 0.0001426705 -6.69703e-05 9.17308e-05 -0.1104677744 0.8372458944
720295680.0 0.1353515524 -0.8359606667 2.11066e-05 2.24998e-05 -6.87367e-05 4.5895e-05 -0.1022489331 0.8382615239
725295650.0 0.127431391 -0.8369046951 5.64609e-05 -0.0001325595 -0.0001751501 0.0001194115 -0.0937372213 0.839712626
730295620.0 0.1191946418 -0.8385698711 -5.14485e-05 -0.0001121202 0.0001685557 3.27517e-05 -0.0858997482 0.8402004859
735295590.0 0.1113607788 -0.8387028443 0.0002084556 0.0001032359 1.68129e-05 -0.000146945 -0.0766019395 0.8410943353
740295560.0 0.1025011676 -0.8400119379 -9.48876e-05 4.08759e-05 8.56441e-05 4.79627e-05 -0.0690397675 0.8408978986
745295530.0 0.0938452078 -0.8415493275 -0.0001012334 0.0001151552 -6.97532e-05 -6.295e-07 -0.0609308304 0.8421081102
750295500.0 0.0860148836 -0.8413442185 3.2318e-05 -1.56428e-05 -1.44596e-05 0.0001296337 -0.0523308167 0.8429747782
755295470.0 0.0780035535 -0.8425686972 -3.79809e-05 3.00559e-05 8.25441e-05 -6.269e-06 -0.0447848305 0.8439472399
760295440.0 0.069042958 -0.8431414244 7.46607e-05 -1.06526e-05 6.67639e-05 0.0001044092 -0.0361336116 0.8436770062
765295410.0 0.0608622108 -0.8439116332 0.0002061221 -3.11894e-05 7.84777e-05 -6.67341e-05 -0.0272518396 0.8443642488
770295380.0 0.0524694636 -0.8441330916 -0.000195458 -2.79957e-05 0.0001261856 -3.69401e-05 -0.0191180717 0.843979036
775295350.0 0.0438800957 -0.8439280148 -8.72137e-05 -8.07154e-05 0.0001021685 -0.0001848581 -0.0115281166 0.8437714664
780295320.0 0.0347208855 -0.8445227281 6.1102e-06 -0.0001100228 8.47093e-05 -4.11346e-05 -0.0027906903 0.8443359082
785295290.0 0.0273122497 -0.8446842082 2.88925e-05 -8.99327e-05 8.97733e-05 0.0001565691 0.0050977531 0.8446176038
790295260.0 0.0193533875 -0.8450033064 4.8471e-06 2.20558e-05 0.0001463241 -0.0001154307 0.0144595053 0.8443320163
795295230.0 0.0112495013 -0.8446398174 0.0001650112 -3.46377e-05 0.0001744331 0.0002411242 0.0223988205 0.8445478536
800295200.0 0.0028325612 -0.8441066919 7.51184e-05 -0.0001008386 -4.12626e-05 0.0001722309 0.0305318433 0.8434000856
805295170.0 -0.0059969661 -0.8450216911 0.0001755369 -0.0001765587 7.14219e-05 0.0001123119 0.0380723472 0.8435229289
810295140.0 -0.0144106428 -0.8440638041 -5.33197e-05 0.0001365395 4.5005e-05 0.0002853995 0.0467091543 0.8438096833
815295110.0 -0.0222419101 -0.8437941564 -0.000250853 1.10482e-05 -5.4059e-06 -7.08442e-05 0.0548921916 0.8427509372
820295080.0 -0.0311616003 -0.8438509818 2.45016e-05 -0.000237456 9.3999e-06 9.24064e-05 0.0630186794 0.8420551221
825295050.0 -0.0391119471 -0.8433440662 1.0836e-06 -8.60052e-05 -8.92853e-05 0.0002059047 0.0714940432 0.8410347739
830295020.0 -0.0475316742 -0.8422280811 0.0001327904 -1.9777e-06 -3.39176e-05 0.000233905 0.0795276062 0.8405797503
835294990.0 -0.0555324845 -0.8414274446 8.802e-07 0.0001065905 0.0001364186 0.000206003 0.0881963492 0.8398520187
840294960.0 -0.064190512 -0.841367109 0.0002244725 4.32176e-05 0.0003811499 8.3239e-05 0.0958720295 0.8387165466
845294930.0 -0.0718819697 -0.8406709133 0.0002342547 0.0001330615 9.20151e-05 1.22547e-05 0.1045544938 0.8377785752
850294900.0 -0.0808991289 -0.8391383997 0.0002521328 8.74386e-05 -4.97352e-05 7.549e-06 0.1129889373 0.8369974943
