!Created with skrf (http://scikit-rf.org).
# Hz S RI R 50.0 
!freq ReS11 ImS11 ReS21 ImS21 ReS12 ImS12 ReS22 ImS22
300000.0 -0.09552735 -0.0980639341 0.6239624152 0.0908471673 0.6205093737 0.0923169921 -0.0946744917 -0.1031123123
5299970.0 -0.1013974891 0.0116525465 0.6303349905 0.0111021298 0.6307267283 0.0112877541 -0.1019500517 0.0112712847
10299940.0 -0.0969270512 0.0289751108 0.6344334045 0.0158982558 0.6338975591 0.0167382055 -0.0965666343 0.0286858001
15299910.0 -0.0892625386 0.0422532209 0.6404741163 0.0215225089 0.6405896895 0.021307028 -0.0895902453 0.0416947921
20299880.0 -0.080679561 0.0534700314 0.649158212 0.024488889 0.6493562965 0.0245616322 -0.0808192192 0.0531099784
25299850.0 -0.0701964801 0.0624197928 0.6583312938 0.0256451263 0.6583394539 0.0254289635 -0.0715095723 0.0618963077
30299820.0 -0.0609532834 0.0687328984 0.6680941769 0.0247562477 0.6680828411 0.0241729428 -0.0616639071 0.0684279398
35299790.0 -0.0504836102 0.0735526079 0.6769667495 0.0219337185 0.6773369445 0.0219771861 -0.0523369462 0.0738601463
40299760.0 -0.0410420336 0.076387113 0.6866525234 0.0177758395 0.6868250302 0.0174782704 -0.0427367116 0.0767702507
45299730.0 -0.0320885293 0.0782548992 0.6958624944 0.0124501921 0.6958889912 0.012283292 -0.0334178589 0.0792046816
50299700.0 -0.0227444444 0.0789843267 0.7037145438 0.0053043344 0.7031631277 0.0050680684 -0.0245465872 0.08034903
55299670.0 -0.0150347117 0.0791559634 0.7113216025 -0.0023712558 0.7108912533 -0.0027390848 -0.0170469058 0.080216096
60299640.0 -0.0076159479 0.0785888867 0.7176426174 -0.0110453139 0.7179136297 -0.0114117165 -0.0095543608 0.0795863721
65299610.0 -0.0011262302 0.0770814068 0.7244046539 -0.019477341 0.7241263748 -0.0197540485 -0.0026968117 0.0785605722
70299580.0 0.0051896367 0.0752189478 0.7293466128 -0.0287085571 0.7292245517 -0.0293072607 0.0029435284 0.0773299526
75299550.0 0.0105821775 0.0733894554 0.7335779865 -0.0392079691 0.7332683585 -0.0388958013 0.0086171547 0.0751864696
80299520.0 0.0155190034 0.0715750036 0.7378502032 -0.0483239386 0.7379792588 -0.0489929307 0.0138670265 0.0733183892
85299490.0 0.0199461264 0.0691156111 0.741032426 -0.0588116308 0.7408807718 -0.0580689353 0.0180434353 0.071219463
90299460.0 0.0239943782 0.0668472255 0.7433121221 -0.068648378 0.7438629877 -0.0685830451 0.0228788612 0.0692255821
95299430.0 0.0279407756 0.0642127111 0.7461547694 -0.0785075204 0.7466090589 -0.0791356904 0.026159382 0.0664547274
100299400.0 0.03139178 0.0616353692 0.7479207975 -0.0886612668 0.7475825786 -0.0889822356 0.0291870299 0.0645459954
105299370.0 0.0343998516 0.0589887266 0.7488740825 -0.0989926408 0.7491457091 -0.0990486011 0.0326724633 0.0614643906
110299340.0 0.0374145111 0.056399692 0.7502630306 -0.1086973635 0.7507259768 -0.1086459476 0.034872639 0.0593955865
115299310.0 0.0395484066 0.0544523998 0.7513182698 -0.118534843 0.7514989281 -0.1187473487 0.0375062177 0.0576128377
120299280.0 0.0416369102 0.0520141468 0.7521097244 -0.1297211827 0.7516255879 -0.1291353547 0.0397351828 0.0545043171
125299250.0 0.0437913675 0.0497769962 0.7519949386 -0.1389735129 0.7522657248 -0.1389239433 0.0425155142 0.0529229666
130299220.0 0.0456510266 0.0467885508 0.7520067387 -0.149106276 0.751701298 -0.1491883176 0.0438672207 0.050680248
135299190.0 0.0467982901 0.0454810325 0.7519474728 -0.1585718708 0.7520632426 -0.1587584042 0.0455250462 0.0479873829
140299160.0 0.0488976673 0.043270715 0.7519447816 -0.1687542656 0.7510442288 -0.1682194528 0.0462408616 0.0455675764
145299130.0 0.0495099653 0.0412852572 0.7506547552 -0.1782467891 0.7505776849 -0.178158732 0.0480299374 0.0435712709
150299100.0 0.0506953728 0.0391283713 0.7493478011 -0.1880916126 0.7493305324 -0.1879402271 0.049124578 0.041784156
155299070.0 0.0524484485 0.0370547399 0.7476893826 -0.1978666416 0.7479678625 -0.197458485 0.0507460515 0.0394099369
160299040.0 0.0533700971 0.035465996 0.7468071999 -0.2069472877 0.7466477303 -0.2068155537 0.0511414211 0.0382374242
165299010.0 0.0542494755 0.0337640379 0.7456180939 -0.2168259234 0.745080971 -0.2168754095 0.0522440165 0.0359224023
170298980.0 0.0552258937 0.0320236571 0.7429920575 -0.2259304117 0.7434200549 -0.2259194563 0.0523862253 0.034034399
175298950.0 0.0559902311 0.0301892692 0.741539226 -0.2352290063 0.7417460963 -0.2357124363 0.0535104347 0.0325492817
180298920.0 0.0561523834 0.0287482771 0.7394342041 -0.2448459181 0.7391679989 -0.2443749574 0.0539656108 0.0307915852
185298890.0 0.056574937 0.0271648211 0.7378918215 -0.2536155386 0.7375207159 -0.2534819049 0.0552191329 0.0291291368
190298860.0 0.0578004692 0.0256795458 0.7340125834 -0.2629430316 0.7349543354 -0.262557541 0.0552924948 0.0271279247
195298830.0 0.0575978188 0.0243100102 0.732706788 -0.2717021677 0.7331177215 -0.2715682492 0.0555670856 0.0262204311
200298800.0 0.0584248564 0.0225115198 0.7298179859 -0.2810933632 0.7293980788 -0.2812319319 0.0561013381 0.0237539829
205298770.0 0.058263316 0.020994551 0.7268857259 -0.2897084765 0.7271203526 -0.2891820235 0.0568329163 0.022383645
210298740.0 0.0588597337 0.01998508 0.7239352492 -0.2988357436 0.7238505796 -0.2985037355 0.0566917463 0.0209982718
215298710.0 0.0593757403 0.0186131656 0.7206048818 -0.3067981127 0.7208098922 -0.3068824558 0.0570585595 0.0198985838
220298680.0 0.0596907352 0.0174906664 0.7177223812 -0.3157412416 0.7172068591 -0.3159693727 0.0572864874 0.0180327678
225298650.0 0.059646331 0.0159920638 0.714191042 -0.3237900145 0.7147067596 -0.3237927335 0.0576289699 0.0164447247
230298620.0 0.0601481372 0.0151837748 0.7116054056 -0.3330859512 0.7112078455 -0.3330126346 0.0571806737 0.014915357
235298590.0 0.0597533889 0.0138699907 0.7077582604 -0.3418742246 0.7078524218 -0.3413537269 0.0579914246 0.0141725569
240298560.0 0.0603123307 0.0128909958 0.7040775456 -0.3494289552 0.7039373802 -0.3492566153 0.0576316209 0.012737931
245298530.0 0.0600153539 0.0110475977 0.7002762242 -0.3585690252 0.6998434576 -0.3579844478 0.0577913439 0.0117694425
250298500.0 0.0601229353 0.0101049323 0.6970779235 -0.3662129846 0.6963700002 -0.3658117839 0.057609023 0.0105264482
255298470.0 0.0606605524 0.009695886 0.6931231735 -0.3738314711 0.693329086 -0.3743283377 0.0578255627 0.0097617236
260298440.0 0.060538386 0.0082543941 0.689429704 -0.3812968254 0.6888801587 -0.3822280613 0.057545436 0.0076851303
265298410.0 0.0601062145 0.0075214146 0.6842140095 -0.3911770953 0.684247352 -0.3908072709 0.0586415591 0.0064464175
270298380.0 0.0597407831 0.0059984981 0.6804445439 -0.3982828462 0.6800905059 -0.3983618624 0.0583100612 0.0059169387
275298350.0 0.0603306658 0.0057985032 0.6754836532 -0.4058584635 0.6755056663 -0.4060652858 0.0577163212 0.005006467
280298320.0 0.0595923057 0.0044093443 0.6716568962 -0.4137880529 0.6722749513 -0.4141324279 0.0585640315 0.003806615
285298290.0 0.0599239071 0.0034533553 0.6673674199 -0.4221233339 0.6675777684 -0.4212639454 0.0578199007 0.0027239551
290298260.0 0.0597555135 0.0025487477 0.6636045455 -0.4300142768 0.662804928 -0.429596669 0.058196471 0.0015419058
295298230.0 0.0599668084 0.0012753338 0.6583340106 -0.4380350476 0.6581430084 -0.4379700041 0.0579150043 0.0004427976
300298200.0 0.0601698313 0.0010891512 0.6536564388 -0.4453311751 0.6534679568 -0.4448978903 0.0580144838 -0.0008261502
305298170.0 0.0599816156 -0.0009619722 0.6489531456 -0.4529664547 0.6488688255 -0.4533254196 0.0578326026 -0.0024399444
310298140.0 0.0603463448 -0.0016102468 0.6443613949 -0.4606277919 0.6439829301 -0.4604563065 0.0579244428 -0.0036850336
315298110.0 0.0598243687 -0.0031089433 0.639440747 -0.468569688 0.6387017069 -0.4684688904 0.0575855537 -0.0047174485
320298080.0 0.0594867414 -0.0037210656 0.6335516179 -0.4755519159 0.6342235784 -0.4761882255 0.0572190925 -0.005904369
325298050.0 0.0585889124 -0.0052147532 0.6283876051 -0.482992361 0.6289081365 -0.4832188074 0.0570395426 -0.0070616423
330298020.0 0.0574088899 -0.0060677403 0.6228910032 -0.4906085571 0.6231782449 -0.490709853 0.0559652535 -0.007877289
335297990.0 0.0576285122 -0.0067338321 0.6176766878 -0.4976921454 0.6169373064 -0.4975144049 0.0554582978 -0.0091035026
340297960.0 0.0567623848 -0.0077695988 0.6109895934 -0.505041099 0.6111843455 -0.5049869565 0.0552217763 -0.0093050774
345297930.0 0.0562001853 -0.0085393158 0.605703216 -0.5119029802 0.605304615 -0.511651561 0.0550358652 -0.0105501094
350297900.0 0.0556431568 -0.0089831023 0.6005506577 -0.5179799854 0.6006358006 -0.5180032483 0.0544955921 -0.0114229119
355297870.0 0.0558410896 -0.0098884408 0.5940896275 -0.5242682722 0.5939563042 -0.5247156573 0.0546762835 -0.0121816191
360297840.0 0.0553232295 -0.0102572379 0.5882778201 -0.5317080137 0.5886252296 -0.5316732244 0.0533624532 -0.0125799724
365297810.0 0.0546128202 -0.0110542482 0.5820010209 -0.5382653785 0.5820806732 -0.5384955026 0.0530791949 -0.0133374837
370297780.0 0.0544337062 -0.0113312724 0.5759152121 -0.5443427811 0.5762644683 -0.5445028958 0.0526215833 -0.0141405186
375297750.0 0.0544197246 -0.0121343335 0.5708480914 -0.55095314 0.570421089 -0.551033358 0.0529767391 -0.0148694526
380297720.0 0.0535886621 -0.0127105479 0.5645336844 -0.5580610834 0.5638902994 -0.5576769254 0.0523061499 -0.0151264103
385297690.0 0.0531356483 -0.0136149482 0.5576900538 -0.563483591 0.5581977575 -0.5642665409 0.051925016 -0.015532117
390297660.0 0.0530165409 -0.0143493678 0.552315404 -0.5693295783 0.5520290744 -0.5700647759 0.0520209873 -0.0168823959
395297630.0 0.0531307894 -0.0149377901 0.545979244 -0.575638516 0.5455816502 -0.5754374051 0.0513193408 -0.0174076468
400297600.0 0.0519702795 -0.0158863777 0.5386287071 -0.5820537282 0.539766964 -0.5814547036 0.0509964374 -0.017457791
405297570.0 0.0520356901 -0.0167770208 0.5336941398 -0.5873672788 0.5328160351 -0.5880003122 0.0509178516 -0.0179842716
410297540.0 0.0514231522 -0.0165325564 0.5267169146 -0.593698954 0.5266609137 -0.593876489 0.0503947083 -0.0188400453
415297510.0 0.0509256663 -0.0172521607 0.5201731563 -0.5996583047 0.5205187212 -0.5994775107 0.0503238055 -0.0191538862
420297480.0 0.050567818 -0.0183909911 0.5136047312 -0.6054151559 0.5135938025 -0.6053908206 0.050173398 -0.0197125869
425297450.0 0.0507730654 -0.0187812504 0.5071268619 -0.611178307 0.5066911837 -0.6111881968 0.0498343027 -0.0206543846
430297420.0 0.0501308496 -0.0193050363 0.5005007828 -0.6167024871 0.5008023662 -0.6163874647 0.0498985811 -0.0210612027
435297390.0 0.0496494141 -0.020179854 0.4933777051 -0.6227098919 0.4933064846 -0.6219882476 0.0487088268 -0.021327862
440297360.0 0.0495109105 -0.0210319793 0.4862622488 -0.6283069444 0.4858634336 -0.6279067014 0.0485901249 -0.0218353033
445297330.0 0.0493531119 -0.0218786385 0.4801391486 -0.6327816269 0.4793548829 -0.6332108663 0.0483778814 -0.0222599296
450297300.0 0.0489163164 -0.0222354384 0.4726585868 -0.6379215674 0.4730701029 -0.6376935828 0.0481304183 -0.0229962123
455297270.0 0.0478723149 -0.0229635844 0.4657675174 -0.6434482626 0.4659205553 -0.6437629041 0.0476165457 -0.0235735957
460297240.0 0.0480799551 -0.0232601311 0.459053182 -0.6494616658 0.4583168335 -0.6488910274 0.0474730182 -0.0244623908
465297210.0 0.0475571363 -0.0242546152 0.4509532336 -0.6539169203 0.4507354152 -0.6541361833 0.0474487402 -0.0240196797
470297180.0 0.0471468205 -0.025130485 0.4443047974 -0.6587625615 0.4445991406 -0.6585490869 0.0470840532 -0.0253178224
475297150.0 0.046478156 -0.02499103 0.4367186346 -0.6634987602 0.4372270827 -0.6639777938 0.046897072 -0.0255880535
480297120.0 0.046533604 -0.0248752528 0.4297050876 -0.6687311906 0.4297416226 -0.6684623323 0.0459312431 -0.0263282219
485297090.0 0.0460607626 -0.0268395894 0.4222820001 -0.6738691244 0.4217167198 -0.6729921214 0.0456313213 -0.0266152566
490297060.0 0.0461333239 -0.0264121922 0.4144788243 -0.6778516267 0.4142596225 -0.6782408037 0.0450861012 -0.0273079389
495297030.0 0.0451127317 -0.027921762 0.4076815434 -0.6829030267 0.4075029049 -0.6825205341 0.045527887 -0.0279414482
500297000.0 0.0448580187 -0.0276632485 0.3998964427 -0.6867353761 0.3996904638 -0.6869312271 0.0446462067 -0.0279897387
505296970.0 0.0449287477 -0.0282516725 0.3923984089 -0.6918162861 0.3922589764 -0.690725256 0.0441394099 -0.0291891763
510296940.0 0.0443707048 -0.0290930834 0.3848723792 -0.6962426652 0.3849456926 -0.6963274261 0.0441424413 -0.0293029688
515296910.0 0.0436230793 -0.0290301621 0.3765008439 -0.700249153 0.3767073771 -0.6998305363 0.043873643 -0.0306218764
520296880.0 0.0433851698 -0.0295828805 0.3696164689 -0.7036283902 0.3690914123 -0.7036564082 0.0439227385 -0.0297925613
525296850.0 0.0431851454 -0.0302796883 0.3620100862 -0.7078718138 0.3615088092 -0.7079675894 0.0437024685 -0.0309560593
530296820.0 0.0425292314 -0.0309368299 0.3540937426 -0.71205496 0.3538539547 -0.7117779238 0.043003696 -0.0315109149
535296790.0 0.042928681 -0.0310208167 0.3460182366 -0.7156470872 0.3462347257 -0.7154335015 0.0428973865 -0.0312631023
540296760.0 0.0419750439 -0.0313238303 0.3374547805 -0.7196144477 0.338399525 -0.7193397962 0.0419722248 -0.0325847849
545296730.0 0.0408634209 -0.031818223 0.3299867876 -0.7230406713 0.3302278302 -0.722685679 0.0419322683 -0.0328789042
550296700.0 0.0415857206 -0.0324116877 0.3221238196 -0.7270084107 0.3216215537 -0.7271658306 0.0418044943 -0.033246549
555296670.0 0.0407147797 -0.0326663854 0.3142221549 -0.731029696 0.314474823 -0.7301252549 0.0410212513 -0.0341669327
560296640.0 0.0412343361 -0.033248863 0.3058122535 -0.7333603994 0.3068637271 -0.7336513721 0.0403734547 -0.0340083371
565296610.0 0.0396485081 -0.0335523069 0.2982259474 -0.7372410691 0.2984500528 -0.7364403568 0.0402815048 -0.0343452324
570296580.0 0.0392588605 -0.0336021339 0.2896662064 -0.7403629968 0.2905395474 -0.7404919735 0.0395354389 -0.0351472175
575296550.0 0.0389216089 -0.0342720712 0.2825071953 -0.7437027272 0.2821652469 -0.743665839 0.0393207799 -0.0356096197
580296520.0 0.0386677446 -0.0340166919 0.274027122 -0.746636661 0.2735250988 -0.7465901748 0.03828183 -0.035752586
585296490.0 0.0381090364 -0.0345245649 0.265852785 -0.7491302156 0.2652343208 -0.7491838414 0.0386357151 -0.0358670269
590296460.0 0.0385907021 -0.0349362431 0.2577195697 -0.7524580218 0.2577404437 -0.7526725813 0.0371769335 -0.0363020999
595296430.0 0.0378617645 -0.0352411292 0.2487644923 -0.7553103265 0.2488163735 -0.7550971237 0.0372958728 -0.0372307067
600296400.0 0.0375907144 -0.0353970852 0.2408058513 -0.7574889558 0.2407567197 -0.7575054659 0.0368505062 -0.0374204924
605296370.0 0.036124048 -0.0357536269 0.2330491632 -0.7603362249 0.2324643903 -0.7604593321 0.0359934161 -0.0375055161
610296340.0 0.0362502596 -0.0356408168 0.2245218499 -0.7621108461 0.2248255265 -0.7626183874 0.0353443055 -0.0377492274
615296310.0 0.0360684623 -0.0363886113 0.2159981278 -0.7652417174 0.2156349777 -0.7650897878 0.0354404035 -0.0380281411
620296280.0 0.0348350379 -0.0359858769 0.2069332215 -0.7675885388 0.2071009527 -0.7674253289 0.0345617853 -0.0381358579
625296250.0 0.0345310918 -0.0366988955 0.1990756467 -0.7699185672 0.199064614 -0.7698593188 0.0335259706 -0.039244704
630296220.0 0.0342286683 -0.0364384149 0.190283495 -0.7720336333 0.1904900676 -0.7714669813 0.0337737759 -0.0391497794
635296190.0 0.0333297321 -0.0366519245 0.1822706142 -0.7739304833 0.1820659276 -0.7732275365 0.0331491982 -0.0397670258
640296160.0 0.0328155073 -0.036834924 0.1734967404 -0.7761238041 0.1738502187 -0.7759638905 0.0322319488 -0.039856276
645296130.0 0.0327491179 -0.036466168 0.1651105362 -0.7776308992 0.1655119647 -0.7774508137 0.0317441072 -0.0405968314
650296100.0 0.0321218615 -0.0374101187 0.1569133526 -0.7798139605 0.1565173074 -0.7795303341 0.0321246651 -0.0405626492
655296070.0 0.0317426404 -0.0373611173 0.1479414947 -0.7813636467 0.1484022301 -0.7807203641 0.0306001199 -0.0407648896
660296040.0 0.0311221573 -0.0373175223 0.1399818707 -0.78276909 0.1397213601 -0.7828590533 0.0296994179 -0.0413397261
665296010.0 0.0306321307 -0.0377653263 0.1304478607 -0.7838225341 0.1305649688 -0.7842021934 0.0291403708 -0.0408626685
670295980.0 0.0300978126 -0.0376819067 0.1225319192 -0.7856474453 0.1223039096 -0.7846857195 0.0284607895 -0.0417728839
675295950.0 0.0293156952 -0.03805859 0.1141111026 -0.7865802472 0.1144271844 -0.7866855245 0.0279445889 -0.0418942721
680295920.0 0.028768531 -0.0378520637 0.1058644442 -0.7873916305 0.1059197601 -0.7874076846 0.0277544413 -0.0425447429
685295890.0 0.0283569305 -0.03784282 0.0965255686 -0.7895983575 0.0973293838 -0.7889279685 0.0272515402 -0.0418222724
690295860.0 0.0273329395 -0.0379009393 0.08812069 -0.7900738568 0.0881190946 -0.7903759605 0.0264086352 -0.0427528825
695295830.0 0.0273034971 -0.0384018997 0.0801643334 -0.7913943846 0.079691304 -0.7907109496 0.0255935662 -0.0423728083
700295800.0 0.02675489 -0.0381023754 0.0713164801 -0.7918608641 0.0712548499 -0.791784401 0.0250018424 -0.0423541745
705295770.0 0.0259145812 -0.0381224724 0.0625467863 -0.7928797032 0.0622355324 -0.7922196693 0.0242981629 -0.0424361104
710295740.0 0.0254250253 -0.0384281227 0.0539470301 -0.793194009 0.053759168 -0.7934664783 0.0239368653 -0.0423015083
715295710.0 0.0248039293 -0.0378902522 0.0454547278 -0.7936905623 0.0455425378 -0.7934991229 0.0231051776 -0.0428286095
720295680.0 0.0246085939 -0.0381744103 0.0363735535 -0.793864301 0.0366319771 -0.7941296976 0.0225938528 -0.042957443
725295650.0 0.0232395159 -0.0382698594 0.0283719081 -0.7944627508 0.0284663193 -0.7946566199 0.0214831692 -0.0425906597
730295620.0 0.022285821 -0.0386375023 0.0191703193 -0.7939944775 0.0195560708 -0.7938161555 0.0208916551 -0.0423424601
735295590.0 0.0223842602 -0.0384893283 0.0106029768 -0.7953368181 0.0108204607 -0.7942681543 0.0201194768 -0.0432985221
740295560.0 0.0216420083 -0.0387669443 0.0021123775 -0.795088855 0.0021986953 -0.7951907354 0.0191032215 -0.0426912319
745295530.0 0.0208692459 -0.0382801735 -0.0065313204 -0.7942061181 -0.0054371214 -0.7943679743 0.0176831984 -0.0430977847
750295500.0 0.0199897943 -0.0381824361 -0.0147139701 -0.7947938506 -0.0148292331 -0.7943297656 0.0178315578 -0.0428582837
755295470.0 0.0194830862 -0.0381188341 -0.0236455762 -0.7947458768 -0.0231146411 -0.7946283729 0.0176869095 -0.0422674677
760295440.0 0.0187858788 -0.0376150286 -0.0327901111 -0.7939155281 -0.0326072123 -0.7932446145 0.0169718225 -0.0437300881
765295410.0 0.0186090606 -0.0384333059 -0.0410320852 -0.7934669466 -0.0405812852 -0.7938318249 0.0159595879 -0.0431301985
770295380.0 0.0178122986 -0.0381156611 -0.048935549 -0.7921783038 -0.0492152902 -0.793365401 0.0151293204 -0.0426379388
775295350.0 0.0171043124 -0.0382321458 -0.0582523557 -0.7927281236 -0.0576543339 -0.7918994963 0.0153404126 -0.0428357397
780295320.0 0.0162627013 -0.037909513 -0.066645685 -0.7910498806 -0.0665391568 -0.7917876779 0.0143407785 -0.0434158793
785295290.0 0.015570612 -0.0381213367 -0.0756518652 -0.7910635989 -0.0748949214 -0.7908827435 0.0128678735 -0.0423149048
790295260.0 0.0154605922 -0.0383663904 -0.0835872128 -0.790770517 -0.0831772548 -0.7902778792 0.0123040354 -0.0420802154
795295230.0 0.0146659869 -0.0382696629 -0.092180373 -0.7897834324 -0.0922672934 -0.7893275677 0.0122476845 -0.0430920148
800295200.0 0.0134480644 -0.0376681998 -0.1002316351 -0.7872007258 -0.1006055509 -0.7881386267 0.0110496486 -0.0424073512
805295170.0 0.0127893125 -0.0378940458 -0.1095553807 -0.7871037697 -0.1089160001 -0.7872335572 0.011478226 -0.042289988
810295140.0 0.0128787949 -0.0378303504 -0.1179617016 -0.7854382114 -0.117957982 -0.7855608485 0.0105364204 -0.0424084524
815295110.0 0.0119669865 -0.0377342663 -0.1262915674 -0.7843557734 -0.1257229321 -0.7844893196 0.0097232084 -0.0421433995
820295080.0 0.0114994447 -0.0377236914 -0.1340868107 -0.7826111303 -0.1344688485 -0.782802709 0.0082534354 -0.0412088262
825295050.0 0.0105336202 -0.0375724273 -0.1434208914 -0.7816055697 -0.1434104295 -0.7813457392 0.0085243157 -0.041023793
830295020.0 0.0098520742 -0.0374834076 -0.1514839217 -0.7796134866 -0.1516872971 -0.7798474637 0.0075118384 -0.0419868151
