!Created with skrf (http://scikit-rf.org).
# Hz S RI R 50.0 
!freq ReS11 ImS11 ReS21 ImS21 ReS12 ImS12 ReS22 ImS22
300000.0 -0.3225951027 -0.0862283443 0.3773592001 0.0440686198 0.3743154012 0.0419055319 -0.3209495349 -0.0962529994
5299970.0 -0.3267180055 0.0041761975 0.3785824551 0.0027668174 0.3785779757 0.0026823286 -0.3241366966 0.0046789178
10299940.0 -0.3240943021 0.0133617562 0.3793346076 0.0020901636 0.3795764895 0.0022078485 -0.3215312544 0.0158713445
15299910.0 -0.3215092285 0.0202301532 0.3817325389 0.0024244098 0.3817959352 0.002161553 -0.3185233743 0.0235881057
20299880.0 -0.3186199447 0.0262458872 0.3847613942 0.0019309778 0.3847728512 0.001842188 -0.3150295859 0.0302190652
25299850.0 -0.3158778189 0.0314772045 0.3880189839 0.000175404 0.3879247439 0.0001216388 -0.3108400621 0.0357532048
30299820.0 -0.3130560827 0.0359300515 0.3916651756 -0.0023914872 0.3915703202 -0.0023992587 -0.3073121947 0.0408140417
35299790.0 -0.3099864536 0.0399833381 0.3948860502 -0.0054960329 0.3947359919 -0.0053181665 -0.3035516989 0.045078566
40299760.0 -0.3070736514 0.0432863962 0.3978679105 -0.0085356344 0.3981304642 -0.0087601363 -0.3002901538 0.0485794992
45299730.0 -0.3046807981 0.0465660238 0.4006320814 -0.0125789754 0.4009872811 -0.0127171246 -0.2973132058 0.0518549948
50299700.0 -0.3024957373 0.049576412 0.4036634446 -0.0171328625 0.4037344286 -0.0171938137 -0.2941630984 0.0546026083
55299670.0 -0.3000480716 0.0524288466 0.4055130166 -0.0223826808 0.4054675628 -0.0219319559 -0.2917947196 0.0572546618
60299640.0 -0.2980807285 0.0548489372 0.4076247091 -0.0267971135 0.4077568967 -0.0268725857 -0.2891577259 0.0594504359
65299610.0 -0.2963726477 0.0573869632 0.4091800613 -0.032030541 0.4090200781 -0.0317296855 -0.2869249972 0.0615438532
70299580.0 -0.2948820793 0.0600058532 0.410399427 -0.0371576892 0.4103322667 -0.0368996431 -0.2852459956 0.0638724843
75299550.0 -0.292866821 0.0625445743 0.4112787613 -0.0420762117 0.4111451407 -0.0423511042 -0.2831106632 0.0659195433
80299520.0 -0.2914944308 0.0649684313 0.4123601782 -0.0474359471 0.4123502942 -0.0473866526 -0.281494585 0.068047354
85299490.0 -0.2902807116 0.0667497338 0.4126139209 -0.0524296896 0.4130488827 -0.0522248133 -0.2799557162 0.070295361
90299460.0 -0.2887343085 0.0691942492 0.4130537202 -0.0579303498 0.4132977153 -0.0578676644 -0.278302032 0.0720720912
95299430.0 -0.2874542715 0.0715095973 0.4138524874 -0.0632057106 0.4134877756 -0.0630700509 -0.2765578038 0.0742847474
100299400.0 -0.2864441068 0.0740832336 0.4133718859 -0.06815538 0.4132545369 -0.0679780921 -0.2749892985 0.075696842
105299370.0 -0.2852117825 0.0762101371 0.4131262642 -0.0736790227 0.4136007937 -0.0734298176 -0.2737987967 0.0782482651
110299340.0 -0.2838565219 0.0788412543 0.4133477069 -0.0785134203 0.4130467315 -0.0785129614 -0.2727871202 0.0802826688
115299310.0 -0.2829870251 0.0811128731 0.4130476822 -0.0840345374 0.412781138 -0.0835226508 -0.271417522 0.0825019226
120299280.0 -0.2818165788 0.0831518774 0.4121069422 -0.0892221186 0.4125981383 -0.088936465 -0.2704542927 0.0843700891
125299250.0 -0.2808288923 0.085542411 0.4116761542 -0.0939296622 0.4122264611 -0.0936284864 -0.2695673663 0.0862680376
130299220.0 -0.2801875886 0.0884270756 0.4111626028 -0.0994606153 0.411103936 -0.0990225913 -0.2684449475 0.0886955678
135299190.0 -0.2792027217 0.0908012798 0.4106201821 -0.1040172352 0.4104493787 -0.1038388343 -0.2671373588 0.0910440536
140299160.0 -0.2782926062 0.0930689124 0.4093772309 -0.1090045272 0.4100747189 -0.1089213196 -0.2660716624 0.0935856308
145299130.0 -0.2775541528 0.0959884193 0.4088374738 -0.1141517676 0.4088605063 -0.1138769949 -0.2654365832 0.0957419509
150299100.0 -0.2762602213 0.0980834938 0.4076915141 -0.1186499764 0.4076778907 -0.1185055326 -0.2644933498 0.0985733875
155299070.0 -0.2753643291 0.1005401072 0.4067475232 -0.1240366928 0.4065891096 -0.1238542797 -0.2630784902 0.1009788552
160299040.0 -0.2746791332 0.1035547769 0.4054609445 -0.1285082618 0.4049389391 -0.1287586788 -0.2625548381 0.1034083167
165299010.0 -0.2734716542 0.105916432 0.403909693 -0.1338708541 0.4045268385 -0.1338223065 -0.2610966835 0.1058623714
170298980.0 -0.2729268121 0.1086585918 0.4028897344 -0.1383756653 0.4030073749 -0.1384067869 -0.2601246663 0.1081557718
175298950.0 -0.2717984332 0.1113256257 0.4017814434 -0.1431198765 0.40127534 -0.1430203779 -0.2595637211 0.1107330556
180298920.0 -0.2710799221 0.1141566957 0.4004789719 -0.1478814278 0.3997908231 -0.1472885022 -0.2583243423 0.1131456151
185298890.0 -0.2694198134 0.1162207786 0.3985649369 -0.1524288528 0.3982330574 -0.1523833985 -0.2571653146 0.1160471266
190298860.0 -0.2686155811 0.1194803882 0.397049339 -0.1574560979 0.3969590198 -0.1571727935 -0.2563717811 0.118148074
195298830.0 -0.2676093574 0.121888778 0.3950816978 -0.1619100724 0.395526855 -0.1618793679 -0.2551524712 0.1208310929
200298800.0 -0.2664179762 0.1247423774 0.3934732653 -0.1668504772 0.3936900801 -0.1667219753 -0.2545413655 0.1234239917
205298770.0 -0.2655897229 0.1271511786 0.3914659187 -0.171142535 0.3917325917 -0.1710234249 -0.2532038579 0.125555722
210298740.0 -0.2645157409 0.1298348547 0.389922808 -0.1750850159 0.389815719 -0.1755601925 -0.2518993988 0.1287654445
215298710.0 -0.2637194517 0.1329086149 0.3882607226 -0.180073737 0.3878261675 -0.1802256443 -0.2509417334 0.1310504451
220298680.0 -0.2620730353 0.1350550455 0.3857605943 -0.1844847873 0.3859282014 -0.1845658412 -0.2501483127 0.1332475067
225298650.0 -0.2609369086 0.1379724417 0.3840267645 -0.1891920591 0.3842115956 -0.189228089 -0.2491490928 0.1359905498
230298620.0 -0.2596163679 0.1410369562 0.3818099839 -0.1936980016 0.3822890423 -0.1935327764 -0.2478512511 0.1384639224
235298590.0 -0.2582161321 0.1436524668 0.3800848695 -0.1977944831 0.3800555997 -0.1974764186 -0.2466932458 0.141111068
240298560.0 -0.2569315708 0.1465324022 0.3779263812 -0.2027211528 0.3776661506 -0.2021095318 -0.2453061242 0.1438499427
245298530.0 -0.2558518288 0.149142564 0.3755831519 -0.2066915344 0.3758653092 -0.2065008123 -0.2440981381 0.1458276865
250298500.0 -0.2542957835 0.151922576 0.3726675141 -0.211000137 0.372910721 -0.2103555048 -0.2425352539 0.1484350614
255298470.0 -0.2529966982 0.154259023 0.3704773212 -0.2144454707 0.3706627383 -0.2149262399 -0.2412792977 0.1511662073
260298440.0 -0.2514683411 0.1567478192 0.3684037379 -0.2191104738 0.3686467301 -0.2192725061 -0.2396143747 0.1536752932
265298410.0 -0.2499310812 0.1599019316 0.3657799363 -0.2236398137 0.3665525398 -0.2231883751 -0.2381292669 0.1561639875
270298380.0 -0.2487475152 0.1624422057 0.3639296714 -0.227320221 0.3636952706 -0.2276106887 -0.2369515214 0.1589218936
275298350.0 -0.2468111113 0.1652729016 0.3612231815 -0.2320720054 0.3613390757 -0.2315653086 -0.2352046398 0.1610998737
280298320.0 -0.2452642344 0.1678256408 0.3586729767 -0.2356991954 0.3586110291 -0.2354400879 -0.2330907754 0.1633116249
285298290.0 -0.2434975117 0.170661222 0.3561127943 -0.2396746078 0.3559193886 -0.2396217106 -0.2317413068 0.165738546
290298260.0 -0.2418015347 0.173395523 0.3531119631 -0.2435042814 0.3534989898 -0.2437099685 -0.230130179 0.1685325249
295298230.0 -0.239957028 0.1756727173 0.3507589482 -0.2477109984 0.3507541088 -0.2478358134 -0.2282127784 0.1707843658
300298200.0 -0.2387342639 0.177968766 0.3480067528 -0.2513657736 0.3482413767 -0.2518305694 -0.2266514243 0.1731764264
305298170.0 -0.2365060916 0.1805385813 0.3448216624 -0.2559188547 0.3449961512 -0.2558371723 -0.2244660941 0.1756339271
310298140.0 -0.2349223856 0.1835458302 0.3422780238 -0.2597617096 0.3426274842 -0.2593479946 -0.2232512242 0.1782597744
315298110.0 -0.2328612235 0.1858413169 0.3393856877 -0.2633053451 0.339660162 -0.2633589777 -0.2212770622 0.1805962112
320298080.0 -0.231114387 0.1882765162 0.3361795218 -0.2678665871 0.3365916645 -0.2672644901 -0.2192710715 0.1830240103
325298050.0 -0.2291291093 0.1909911268 0.3333349532 -0.2716399782 0.3336940175 -0.2710551108 -0.2178934099 0.1854851943
330298020.0 -0.2274515553 0.1932859121 0.3299597454 -0.2751600007 0.3304700921 -0.2748750985 -0.216355223 0.1879218862
335297990.0 -0.2255354004 0.1955124885 0.3271288543 -0.2783529527 0.3271395404 -0.2787220466 -0.2148268833 0.1904969255
340297960.0 -0.2242560056 0.1982653951 0.3237564147 -0.2819869525 0.3238347359 -0.2825353741 -0.2121184701 0.1930688956
345297930.0 -0.2220617156 0.2011037682 0.3207114289 -0.2860455082 0.3209565373 -0.285640352 -0.2108117696 0.1951111458
350297900.0 -0.2202591383 0.2031599948 0.317188218 -0.2893900791 0.317491337 -0.2893879189 -0.2088635328 0.1981428923
355297870.0 -0.2180535649 0.206011285 0.3141342006 -0.2931749958 0.3142039674 -0.2925938132 -0.2070221094 0.2000654859
360297840.0 -0.215883186 0.2083401734 0.311346717 -0.2960884683 0.3114485953 -0.2963733912 -0.2050995222 0.2027430733
365297810.0 -0.2140219845 0.2110588062 0.3075002728 -0.2998672074 0.308037489 -0.2997874905 -0.2027430344 0.2050192563
370297780.0 -0.2119948559 0.213193502 0.3040512603 -0.3030556382 0.3047908978 -0.3028233225 -0.2006993714 0.2075133934
375297750.0 -0.2092869517 0.2154968751 0.3008147213 -0.3065183666 0.3012713523 -0.3062737615 -0.1988758207 0.2094447747
380297720.0 -0.2074509958 0.2176051676 0.2976764576 -0.3098040611 0.2978636627 -0.309130372 -0.1971117 0.2117648585
385297690.0 -0.2056159328 0.2205474142 0.2941853343 -0.3129407991 0.2941463652 -0.3126331869 -0.1945299033 0.2144520553
390297660.0 -0.2030088857 0.2228064057 0.2905809557 -0.3161036969 0.2905659765 -0.3156401822 -0.1928487899 0.2163102759
395297630.0 -0.2009516112 0.2251206362 0.2874398156 -0.3191124121 0.2873960547 -0.3192939835 -0.1901750705 0.2183993134
400297600.0 -0.1985199828 0.2274498008 0.2832664972 -0.3226788613 0.2836625092 -0.3224004019 -0.1882375918 0.2207133402
405297570.0 -0.1965359422 0.2292757358 0.2801316091 -0.3252253283 0.2799564616 -0.3251575939 -0.1861403294 0.2229113082
410297540.0 -0.1940869635 0.2318764213 0.2766414962 -0.3285822642 0.2768109438 -0.3286426421 -0.1840254772 0.225007732
415297510.0 -0.1914540218 0.2336887619 0.2727448079 -0.3318833302 0.2730392607 -0.3314829544 -0.1813478588 0.2271484657
420297480.0 -0.1892064105 0.2362770269 0.2687742014 -0.3343526168 0.2691001904 -0.3343797137 -0.1793947717 0.2290780157
425297450.0 -0.186524914 0.2380789866 0.2653284113 -0.337200071 0.2661391287 -0.3373545248 -0.1773292256 0.2312449687
430297420.0 -0.184202529 0.2404496329 0.2615617141 -0.3401892299 0.2617440487 -0.3398947829 -0.1746348861 0.2330413255
435297390.0 -0.181804537 0.2422707546 0.2577771138 -0.3427611773 0.2580622833 -0.3430975738 -0.1717244457 0.2348048168
440297360.0 -0.1791444157 0.244570512 0.2539798844 -0.3456465593 0.2541810564 -0.3459274277 -0.1695759773 0.2366734535
445297330.0 -0.1767497961 0.2459753716 0.2503715494 -0.3482875803 0.2503148184 -0.3484723265 -0.1670985915 0.2383521259
450297300.0 -0.1742121076 0.2482150083 0.2466763646 -0.3514794179 0.2465963721 -0.3514439635 -0.1646856814 0.2404152796
455297270.0 -0.1715765774 0.2503445931 0.2421538955 -0.3537563746 0.2429715541 -0.3538981537 -0.162351176 0.2421841277
460297240.0 -0.1691758064 0.2526964227 0.2384069868 -0.3567195905 0.2386367248 -0.3565922685 -0.1595926278 0.244593752
465297210.0 -0.1662542488 0.2545764195 0.2347265764 -0.3594218365 0.2347073909 -0.3594623232 -0.156912091 0.2463860857
470297180.0 -0.1633871868 0.2564755121 0.2304467086 -0.3616990376 0.2309058799 -0.3615115596 -0.154310955 0.2481630201
475297150.0 -0.1610063382 0.2578969581 0.2263555813 -0.3637594853 0.2269572418 -0.363470286 -0.1513647449 0.2493932061
480297120.0 -0.1583762615 0.2600812923 0.2225106216 -0.3669082336 0.222492498 -0.3667065671 -0.1489390951 0.2514226853
485297090.0 -0.1555840985 0.2618122117 0.2188997471 -0.3686985889 0.2188408319 -0.3688292461 -0.1460817078 0.2533783836
490297060.0 -0.1532471219 0.2637910221 0.2149203353 -0.3713188128 0.2149135406 -0.3711135245 -0.1435317783 0.2551202956
495297030.0 -0.1503174601 0.2651412664 0.2102320727 -0.3734690207 0.2110122289 -0.3734943891 -0.1409436118 0.2569506539
500297000.0 -0.1474113024 0.2671063124 0.2063306868 -0.3755087411 0.2064463639 -0.3755914355 -0.1380862234 0.2589554923
505296970.0 -0.1444195582 0.2688358551 0.2021873955 -0.3777427934 0.2021597536 -0.3779574814 -0.1353984263 0.2600958575
510296940.0 -0.1417301685 0.2703257893 0.1978462212 -0.3801870562 0.1980720933 -0.3801552559 -0.1330278021 0.2616508478
515296910.0 -0.1386531041 0.2721343336 0.1940163639 -0.3823685269 0.1940250198 -0.3823853013 -0.1299880417 0.2633444245
520296880.0 -0.1360936858 0.2737597278 0.1899421886 -0.3848125339 0.1899375101 -0.3842971497 -0.1274661665 0.2647508452
525296850.0 -0.13304647 0.2750268948 0.1851501096 -0.3863457837 0.1859659889 -0.3864599221 -0.1248108832 0.2666136249
530296820.0 -0.1301785446 0.2769110981 0.1811587665 -0.3883791875 0.1814401156 -0.3883550896 -0.121905173 0.2678886086
535296790.0 -0.1275375574 0.2783081608 0.1770396388 -0.3898183604 0.1770604758 -0.3896219956 -0.1193739353 0.2689790382
540296760.0 -0.1245881188 0.2798460338 0.172457924 -0.3920701816 0.1726772647 -0.3922426336 -0.1167877542 0.2707359176
545296730.0 -0.1218765906 0.2815418229 0.1681530696 -0.3936249786 0.1685909266 -0.3938405836 -0.1137142265 0.2721064733
550296700.0 -0.1189259525 0.2830800163 0.1640366728 -0.3957970618 0.1645425454 -0.3955990623 -0.1111124405 0.273610067
555296670.0 -0.1158455321 0.2836348753 0.1599376751 -0.3972935224 0.1599944701 -0.3974140784 -0.1080046141 0.275458906
560296640.0 -0.1128054249 0.2858029115 0.155476079 -0.3991131191 0.1558004153 -0.3989286725 -0.105022594 0.2763670746
565296610.0 -0.1101939319 0.2868035143 0.1511385186 -0.4008866428 0.1512684782 -0.4007797743 -0.1023952816 0.2773968542
570296580.0 -0.1068439837 0.2879045514 0.1466915004 -0.4028094766 0.1466072439 -0.4026666358 -0.0998355922 0.2791287429
575296550.0 -0.1042521457 0.289584751 0.142479663 -0.4043328009 0.142260957 -0.4039430354 -0.0962477473 0.2801031194
580296520.0 -0.1007239974 0.2907772926 0.1381169201 -0.4055376589 0.1380592645 -0.4053754695 -0.0934015214 0.2811767245
585296490.0 -0.0978336245 0.291682756 0.1332476871 -0.4065144814 0.1336777515 -0.4069675471 -0.0905980279 0.28247725
590296460.0 -0.0945373292 0.2931821023 0.1287939407 -0.4081631576 0.1291565123 -0.4081328407 -0.0876905657 0.2831114213
595296430.0 -0.091501882 0.2941957016 0.1240836584 -0.410028861 0.1244538121 -0.4093028725 -0.0847192459 0.2840894694
600296400.0 -0.0886931341 0.2952288892 0.1200061618 -0.4107696318 0.1200856829 -0.4106345446 -0.0819834373 0.2852881527
605296370.0 -0.0855425674 0.2962169303 0.1156342304 -0.4120442066 0.1158160792 -0.4120116722 -0.078517012 0.2862114866
610296340.0 -0.0826400572 0.2973634341 0.1111671297 -0.4132689219 0.1112871002 -0.4132461512 -0.0757592376 0.2868901169
615296310.0 -0.0792510999 0.2982406431 0.1065593531 -0.4143385361 0.1065065048 -0.414975914 -0.0725745037 0.2878952297
620296280.0 -0.0761411928 0.2990866897 0.1019657996 -0.4154981942 0.1022509003 -0.4152260131 -0.0697529346 0.2887423403
625296250.0 -0.0732852126 0.3001344744 0.0981264357 -0.4165045462 0.0976960781 -0.4166690964 -0.0660922449 0.2896453329
630296220.0 -0.0691953244 0.3007665887 0.092585705 -0.4173931352 0.092454032 -0.4175393396 -0.0630575868 0.2907716555
635296190.0 -0.0670297195 0.3016949937 0.0883304153 -0.4182596394 0.088612153 -0.418395785 -0.060233217 0.291358807
640296160.0 -0.0636545107 0.3026255872 0.0836602205 -0.4192403599 0.083864447 -0.4193842553 -0.0572522411 0.2920817214
645296130.0 -0.0605531299 0.3037896464 0.0792169112 -0.420109541 0.0796353969 -0.4202403488 -0.0537359199 0.2932257276
650296100.0 -0.0571094087 0.3042449928 0.0745336782 -0.4207611071 0.0746630305 -0.4208278395 -0.0505385244 0.2933446674
655296070.0 -0.0544254783 0.3049228211 0.0701078343 -0.4215387953 0.0704556132 -0.4219797414 -0.0474786583 0.294386493
660296040.0 -0.0511207964 0.3052622913 0.0659027007 -0.4221484884 0.0658026941 -0.4224314986 -0.0443343048 0.2950749937
665296010.0 -0.0475722344 0.3058507085 0.0608047625 -0.4226834222 0.0611237846 -0.422921474 -0.041047369 0.2960849557
670295980.0 -0.0449044739 0.3069632752 0.0565667829 -0.4233912297 0.0566828608 -0.423599697 -0.0384468837 0.2962513523
675295950.0 -0.0414260653 0.3075421525 0.0519024255 -0.4238755048 0.0521656334 -0.4235925525 -0.0356286569 0.2972104741
680295920.0 -0.0380565871 0.3081259519 0.0472559897 -0.4244260269 0.0470539308 -0.4246935824 -0.0322589172 0.2978397301
685295890.0 -0.0349386657 0.3089302889 0.0425600477 -0.4252350148 0.042558784 -0.4250744314 -0.0291098932 0.298240329
690295860.0 -0.0315607245 0.3090835457 0.0379025448 -0.4250451028 0.0380617074 -0.4255698798 -0.0260393999 0.2990519299
695295830.0 -0.0286471373 0.3095967217 0.0340053152 -0.4256188139 0.0333261095 -0.4259909517 -0.0226585473 0.2994834088
700295800.0 -0.0252952812 0.3098924895 0.0289802163 -0.4259042622 0.0284389829 -0.4262673549 -0.0196350292 0.2999721047
705295770.0 -0.0219903104 0.3108162296 0.0240224273 -0.426510518 0.0243782352 -0.4264800849 -0.0168784262 0.3002699258
710295740.0 -0.0186184333 0.3107109213 0.0196934945 -0.4266988033 0.0199332135 -0.4266744981 -0.0137283265 0.3002758837
715295710.0 -0.0159558501 0.3110580679 0.0152307507 -0.4269410094 0.0148507047 -0.4266007055 -0.0102520556 0.3005972037
720295680.0 -0.0121950556 0.3113598025 0.0102767527 -0.4270130282 0.0110710899 -0.4267832196 -0.007373986 0.3012280457
725295650.0 -0.0091263211 0.3116880912 0.0057355066 -0.4266801793 0.0058439885 -0.4270520953 -0.0044445636 0.3016229847
730295620.0 -0.005465029 0.3122550879 0.0007510657 -0.4266802274 0.0011280968 -0.426975098 -0.0013109104 0.3014497103
735295590.0 -0.0025466597 0.3123558249 -0.0031519323 -0.4270096411 -0.0034509333 -0.426844341 0.0016289961 0.3016844211
740295560.0 0.0006245371 0.3128040357 -0.0081334315 -0.4267946371 -0.008139441 -0.4267329633 0.0056111715 0.3020609702
745295530.0 0.0039346908 0.3127533578 -0.0124824789 -0.4262635114 -0.0130099484 -0.426597739 0.0084656318 0.3016906123
750295500.0 0.0074599777 0.312511302 -0.0174152813 -0.4260225032 -0.0169005338 -0.42647491 0.0113047294 0.3018584371
755295470.0 0.0104754832 0.3125809506 -0.0216314775 -0.4261995359 -0.0219364488 -0.4260953609 0.0151025914 0.3012874698
760295440.0 0.013588559 0.3123320329 -0.0264028921 -0.4260316693 -0.0266165006 -0.4258681261 0.0179059115 0.3011933522
765295410.0 0.016882557 0.3126680661 -0.0309331446 -0.4256152413 -0.0312720181 -0.4256877304 0.0210693009 0.301852582
770295380.0 0.0200383767 0.3124951929 -0.0362303117 -0.4252765917 -0.0359819033 -0.4248967343 0.023949414 0.3012187348
775295350.0 0.0233845222 0.3121677516 -0.0410103391 -0.4241064884 -0.0400538307 -0.4246798307 0.0270132994 0.3012190832
780295320.0 0.0266315541 0.3122282883 -0.0450085894 -0.4238228745 -0.0446820128 -0.4240349548 0.0303437709 0.3008224884
785295290.0 0.0295847598 0.31156382 -0.0497773611 -0.4229464637 -0.0492567308 -0.4231918885 0.0338758872 0.3005109619
790295260.0 0.0335079714 0.3120961849 -0.0539646231 -0.4229774871 -0.0533809647 -0.4227179057 0.0370881572 0.300897094
795295230.0 0.036332032 0.3114608272 -0.0585314658 -0.4222686951 -0.0581900415 -0.4224417088 0.0403549721 0.3001912115
800295200.0 0.0396398039 0.3113051018 -0.0636497557 -0.4214674769 -0.0629692791 -0.4216345084 0.0436742918 0.3000773912
805295170.0 0.0430816542 0.3109034963 -0.0681308288 -0.4208089314 -0.067600671 -0.4210838055 0.0464891683 0.3000614102
810295140.0 0.0462724581 0.3102924938 -0.0719829645 -0.4198672126 -0.072138473 -0.4199053037 0.0501242276 0.2995753231
815295110.0 0.0492742988 0.3100398153 -0.0768762497 -0.4188534596 -0.0762973242 -0.4192855641 0.0530790496 0.2993110048
820295080.0 0.0525635076 0.3098945793 -0.0811987469 -0.4181142884 -0.0809906377 -0.4181295708 0.0560811475 0.2988305404
825295050.0 0.0564605165 0.3092462327 -0.0856877858 -0.4169966411 -0.0856781514 -0.4172818498 0.0594681903 0.298107649
830295020.0 0.0590474801 0.3092322949 -0.0904779378 -0.4162323277 -0.0900362312 -0.4160970366 0.063266678 0.2978904514
