!Created with skrf (http://scikit-rf.org).
# Hz S RI R 50.0 
!freq ReS11 ImS11 ReS21 ImS21 ReS12 ImS12 ReS22 ImS22
300000.0 -0.2352991398 -0.1334738194 0.4674297755 0.0872769343 0.4684462266 0.0848336609 -0.2360631593 -0.130611907
5299970.0 -0.2419113272 0.0052293813 0.474958223 0.0062605759 0.4754506686 0.005846215 -0.2443655793 0.0046220465
10299940.0 -0.2386976657 0.0188464659 0.4775637054 0.0067787867 0.477002958 0.0071117416 -0.2407818872 0.0172832432
15299910.0 -0.2339420356 0.0289098964 0.4808179977 0.0078951945 0.4804085193 0.0082345603 -0.236788351 0.0263549635
20299880.0 -0.2286759604 0.0368857853 0.4853275759 0.0079063806 0.4858411568 0.0080634365 -0.2322633737 0.0337092759
25299850.0 -0.2226434173 0.0436580371 0.4907672423 0.0077274421 0.4909151077 0.007423554 -0.2269967981 0.0399624538
30299820.0 -0.2171479232 0.0486602513 0.4962345558 0.005178538 0.4962860231 0.0049539719 -0.2216201486 0.0448003999
35299790.0 -0.211527069 0.0529385323 0.5010183986 0.0017854622 0.5013523436 0.0017305611 -0.2169354278 0.0493787585
40299760.0 -0.2061165901 0.0560253752 0.506416823 -0.0019870774 0.5066221881 -0.0022042223 -0.2117692049 0.0521738911
45299730.0 -0.2010142581 0.0588047548 0.5113446257 -0.0064243998 0.511538502 -0.0068363512 -0.2070990522 0.0545834956
50299700.0 -0.1961725363 0.0609190208 0.5153728898 -0.0123891356 0.5154694871 -0.012538152 -0.2027369149 0.0571447043
55299670.0 -0.1918246968 0.0623816514 0.5187012674 -0.0176846406 0.5185760115 -0.0184173354 -0.1991813171 0.0587657167
60299640.0 -0.1879807977 0.0639779268 0.5226490733 -0.0244867918 0.5222935105 -0.0249223666 -0.1954605216 0.0596086471
65299610.0 -0.1841766956 0.0651461794 0.5258311767 -0.030881533 0.5256898129 -0.0311568406 -0.1919504042 0.0611502119
70299580.0 -0.1808522564 0.0656205053 0.5276501681 -0.0374018462 0.5276458172 -0.0374633512 -0.1893808619 0.0619130973
75299550.0 -0.1779685883 0.0664564345 0.5293891156 -0.0442788054 0.5297598655 -0.0446818454 -0.1861882621 0.0626326729
80299520.0 -0.1752100722 0.0677451468 0.5313262342 -0.0509855912 0.5320134881 -0.0514217643 -0.1838963691 0.0636953165
85299490.0 -0.172446779 0.0683201822 0.5328062192 -0.058491689 0.5328516832 -0.0579221932 -0.1817111319 0.0637483807
90299460.0 -0.1702370196 0.0689811136 0.5335677943 -0.0648695286 0.533625451 -0.0647297149 -0.1793390936 0.0646468899
95299430.0 -0.1681118792 0.0696314578 0.5347254313 -0.0720497316 0.5348085578 -0.0721249487 -0.1775609418 0.0653105731
100299400.0 -0.1658271047 0.0702873987 0.5346840386 -0.079029107 0.5353412081 -0.0790478596 -0.1759116131 0.0662930759
105299370.0 -0.1641100511 0.0708868753 0.5353155615 -0.085395177 0.5355514518 -0.0858238884 -0.1739061246 0.0668240962
110299340.0 -0.1622700476 0.0715898682 0.535646167 -0.0922021271 0.5357039022 -0.0920512624 -0.1727880374 0.0673369909
115299310.0 -0.1608354968 0.0725182812 0.5354349039 -0.0991379272 0.5355437347 -0.0994722845 -0.1714800616 0.0681978129
120299280.0 -0.1594277361 0.0732725364 0.5353704562 -0.1064512571 0.5353110598 -0.1063937521 -0.170087681 0.0687693943
125299250.0 -0.1580540743 0.0742085932 0.5349885082 -0.112986018 0.5348941801 -0.1126136933 -0.1687092338 0.0696310672
130299220.0 -0.1566302475 0.0744819702 0.5340723347 -0.1196221779 0.534263015 -0.1202926402 -0.1674321563 0.0704332694
135299190.0 -0.1554475171 0.076043946 0.5339536131 -0.1259562947 0.5336469914 -0.126759298 -0.166688483 0.0708272742
140299160.0 -0.1539543858 0.0767716711 0.532990267 -0.1332844458 0.532838376 -0.1328303651 -0.1665068408 0.0718423277
145299130.0 -0.1533788857 0.0779948476 0.5317324257 -0.1393482525 0.5318143509 -0.1393055672 -0.1650493959 0.0726875136
150299100.0 -0.1519152026 0.0788899003 0.5306639218 -0.1461797854 0.5305723637 -0.1461037408 -0.1640737075 0.0741775863
155299070.0 -0.150827736 0.0800707838 0.5289540119 -0.1526947095 0.5295989938 -0.1527758541 -0.1631919479 0.0750705031
160299040.0 -0.1496075874 0.0809581586 0.528201292 -0.1587005302 0.5282165898 -0.1593480706 -0.1626089579 0.0761544512
165299010.0 -0.1488425289 0.0822805781 0.5265146009 -0.1652019376 0.5264841797 -0.1653733099 -0.161502266 0.0766050677
170298980.0 -0.1479628557 0.0833655012 0.5248603021 -0.171497953 0.5253061669 -0.1718696169 -0.161171438 0.0776065102
175298950.0 -0.1466750329 0.0846761123 0.5236850701 -0.177704912 0.5237830116 -0.1784688004 -0.1603543524 0.0790021895
180298920.0 -0.1460351241 0.0860633267 0.5217985498 -0.1844972227 0.5220266149 -0.1843671828 -0.1594141657 0.0801069578
185298890.0 -0.1451952901 0.0872621666 0.5203637641 -0.1905725188 0.519881895 -0.1904865949 -0.1583522472 0.0809590275
190298860.0 -0.1438142976 0.0886257247 0.517502218 -0.1967277933 0.5182859819 -0.1967494934 -0.1578221019 0.0821102321
195298830.0 -0.1429738647 0.0900456032 0.5162080798 -0.2026731067 0.5163878492 -0.2029065308 -0.1573552989 0.0835550199
200298800.0 -0.1418261822 0.0912002756 0.5142379549 -0.2093779109 0.5142760765 -0.2089081882 -0.1562527306 0.0844198686
205298770.0 -0.1412592183 0.0923790959 0.5114485612 -0.2148201083 0.512166011 -0.2150541308 -0.1555397922 0.0861325496
210298740.0 -0.1402847062 0.093946681 0.5095958105 -0.2210047259 0.5096586961 -0.2211008499 -0.1552582371 0.0868798112
215298710.0 -0.1395239089 0.0955745548 0.5069862254 -0.2265019224 0.5071550586 -0.2269567457 -0.1540397085 0.0882289021
220298680.0 -0.1380365254 0.0968827958 0.5045229658 -0.232686646 0.5044063591 -0.2328420449 -0.1533766003 0.0896245946
225298650.0 -0.1372517006 0.098278984 0.5022506209 -0.2383778717 0.5022678634 -0.2382814861 -0.1527118753 0.0906297951
230298620.0 -0.1361882344 0.1000170711 0.4999075769 -0.2447909382 0.4998538251 -0.2445611421 -0.1519763226 0.0917198699
235298590.0 -0.1355544727 0.1012958893 0.4972473279 -0.2507586298 0.4973452299 -0.2499592026 -0.1512102678 0.0932726153
240298560.0 -0.134099129 0.1027974216 0.4941403738 -0.2556303433 0.4943481767 -0.2558733641 -0.150620388 0.0943547944
245298530.0 -0.1335286516 0.1038783172 0.4920607843 -0.2614895626 0.491693178 -0.2617459782 -0.1497461383 0.0958135477
250298500.0 -0.1323795048 0.1054227491 0.4889918821 -0.2670202033 0.489052823 -0.26687651 -0.1490690021 0.0974033045
255298470.0 -0.1311981803 0.1072645629 0.485918597 -0.2723243503 0.4864865842 -0.2727300237 -0.148172907 0.0987269427
260298440.0 -0.1298881441 0.1084819526 0.483427483 -0.2779575189 0.4832374634 -0.2781894856 -0.1475097205 0.0998032779
265298410.0 -0.129140044 0.1099925424 0.4797141075 -0.2839241474 0.4797311868 -0.284017046 -0.1458854452 0.1008382883
270298380.0 -0.1279845454 0.111403128 0.4766495144 -0.2893688988 0.4768182151 -0.2892369784 -0.1451498979 0.1028598601
275298350.0 -0.126981418 0.1130691131 0.4733050927 -0.2942604913 0.4735627008 -0.2942246199 -0.1443890634 0.1040809811
280298320.0 -0.1262242044 0.1143315017 0.4707144531 -0.2995491034 0.4710537434 -0.2999086926 -0.143390631 0.1053942721
285298290.0 -0.1249385303 0.1160640053 0.4671517524 -0.3052672232 0.4677308798 -0.3049163661 -0.1428955225 0.1066144384
290298260.0 -0.1235357057 0.1173279589 0.4643944682 -0.3103111687 0.4644896623 -0.3104382981 -0.141527411 0.1079933252
295298230.0 -0.1225920161 0.1185823527 0.4608074414 -0.3163260573 0.4611267028 -0.3162440206 -0.1409388885 0.1091645833
300298200.0 -0.1211747619 0.1203631426 0.4577333093 -0.3210328497 0.4577983235 -0.3210641174 -0.1400247709 0.1109361047
305298170.0 -0.1200190665 0.1212371123 0.4541158894 -0.3265476828 0.4544765291 -0.3264027291 -0.1386830372 0.1115637883
310298140.0 -0.1186441327 0.1224418704 0.4504351324 -0.3311340979 0.4505821032 -0.3311165331 -0.1374119328 0.1129524591
315298110.0 -0.1178210462 0.123577433 0.4469254833 -0.3369909361 0.447013541 -0.3366316685 -0.1363169677 0.113945757
320298080.0 -0.1164371432 0.124863844 0.442866173 -0.3420216946 0.4435978681 -0.3422192998 -0.1357413867 0.1155126245
325298050.0 -0.1158196429 0.1262943195 0.4392611785 -0.34654654 0.4397937185 -0.3469762714 -0.1344093548 0.1165286563
330298020.0 -0.1149273027 0.1277031838 0.4355354313 -0.3518268853 0.4357544044 -0.3520032446 -0.1337053758 0.1178381288
335297990.0 -0.1132881103 0.1290278153 0.4313051316 -0.356536026 0.4317352085 -0.3564980717 -0.1330363043 0.1190986756
340297960.0 -0.1123600344 0.1305617256 0.4268779367 -0.3618994089 0.4272960836 -0.3613746309 -0.1323626814 0.1206742851
345297930.0 -0.1111668564 0.1314014312 0.4230434045 -0.3662607632 0.4234049336 -0.3662383075 -0.1311735139 0.1217480877
350297900.0 -0.1102150368 0.132958837 0.4195279219 -0.3705818128 0.4194539705 -0.370618182 -0.1300992959 0.1229462167
355297870.0 -0.1088359965 0.1343290213 0.4150180807 -0.3748028919 0.4152571346 -0.3750383135 -0.1288206516 0.1245996076
360297840.0 -0.1073275597 0.1358450195 0.4105863685 -0.3800795505 0.4110389234 -0.3803029631 -0.1280015854 0.1264048315
365297810.0 -0.106369171 0.137057325 0.4065764682 -0.3839675741 0.4069103869 -0.384165845 -0.1268789744 0.1273300916
370297780.0 -0.1047657183 0.1385020363 0.4022542069 -0.389122708 0.4023246313 -0.3883239146 -0.1257673598 0.1284285825
375297750.0 -0.1033687476 0.1397483148 0.3981214999 -0.3926909358 0.3979607144 -0.3930836768 -0.1243910459 0.1300610208
380297720.0 -0.1023925832 0.1411164265 0.3945918453 -0.3978032324 0.3935783868 -0.3977723409 -0.1231714431 0.1316697386
385297690.0 -0.1008499652 0.1421945885 0.3894473975 -0.401619302 0.3895944634 -0.4023681004 -0.1219320742 0.1333393746
390297660.0 -0.0991233594 0.1433212913 0.3851790022 -0.4057280159 0.3849546701 -0.4062345787 -0.1204561605 0.1340252503
395297630.0 -0.0973307423 0.144911494 0.3806810434 -0.4099256576 0.3807607661 -0.4096778118 -0.119578305 0.1353662161
400297600.0 -0.0962644164 0.1457685937 0.3763110274 -0.414000062 0.3765270583 -0.4144333526 -0.1180864758 0.1368317585
405297570.0 -0.0948850695 0.1466679808 0.3715331725 -0.4181416502 0.37145034 -0.4185835084 -0.1168188032 0.1383297111
410297540.0 -0.0932745628 0.1483710163 0.3670097444 -0.4228657231 0.3670937147 -0.4225102368 -0.1153470334 0.1395870044
415297510.0 -0.0919995871 0.1492154737 0.3622146017 -0.4266605787 0.362631583 -0.4267284274 -0.1139593356 0.1404740685
420297480.0 -0.0902317975 0.1500888412 0.3574994424 -0.4305237304 0.3576375809 -0.4307761976 -0.1127210175 0.1425034256
425297450.0 -0.0882225626 0.1513551421 0.3532634125 -0.4343052569 0.3528779358 -0.4341723057 -0.1114244272 0.1428732249
430297420.0 -0.0870960236 0.1525060827 0.3485749028 -0.4382298731 0.3484761704 -0.4378064454 -0.1100346229 0.1443448487
435297390.0 -0.0852243489 0.1535393587 0.3430118045 -0.4425289587 0.3431655097 -0.4420778912 -0.1088831708 0.1459523226
440297360.0 -0.0835327745 0.1543778079 0.3386929828 -0.4457222896 0.338629412 -0.4458662216 -0.1074453307 0.1469904726
445297330.0 -0.0818115384 0.1551801092 0.3339589513 -0.4488103185 0.3338252484 -0.4495172439 -0.1057022617 0.1483849116
450297300.0 -0.0800158726 0.1563481283 0.3285985983 -0.4527373977 0.329142265 -0.4523985211 -0.1041639223 0.1491540383
455297270.0 -0.0785915255 0.1572146289 0.3238806918 -0.4564549744 0.3239124797 -0.4565830458 -0.10277217 0.1502550294
460297240.0 -0.0764955275 0.158284095 0.3187842298 -0.4606758909 0.3189171688 -0.460313924 -0.1016591886 0.1513570092
465297210.0 -0.0749476323 0.159152891 0.3135129118 -0.4639107723 0.3134783925 -0.4637185521 -0.0998534892 0.1531070812
470297180.0 -0.0731647527 0.1600239965 0.3087171535 -0.466683381 0.3090561598 -0.466804163 -0.0985909194 0.1535488859
475297150.0 -0.0716252773 0.1612295779 0.3034815103 -0.4701645039 0.3037420876 -0.4703042467 -0.0967381565 0.1549016772
480297120.0 -0.0693867361 0.1624798114 0.2980036054 -0.4738700375 0.2985527326 -0.4733079405 -0.0956993934 0.1558295912
485297090.0 -0.0676772138 0.162609121 0.2932060833 -0.4767495414 0.2930386832 -0.4766514841 -0.0938757038 0.1569632964
490297060.0 -0.0653094369 0.1637356099 0.2875692307 -0.4801688544 0.2876906811 -0.4799708551 -0.0924400952 0.1578797587
495297030.0 -0.0640679418 0.1643099227 0.2830779532 -0.482889878 0.2826840085 -0.4835532253 -0.0904743702 0.1593149586
500297000.0 -0.0622519883 0.1654778046 0.2775901984 -0.4855310934 0.2774014229 -0.4865171914 -0.0889702487 0.1604312712
505296970.0 -0.0597414523 0.1662634812 0.2723424275 -0.4893856913 0.2720320818 -0.4888443877 -0.08764706 0.1605484603
510296940.0 -0.0580481146 0.1669419409 0.2668355891 -0.4925027826 0.2669941724 -0.4924159786 -0.085723298 0.1623395699
515296910.0 -0.0562730491 0.1679932943 0.2611728033 -0.494725362 0.2611067774 -0.4947676596 -0.0844366954 0.162565139
520296880.0 -0.0542354398 0.168565079 0.2560666108 -0.4974244502 0.2559182346 -0.4977752358 -0.0821604187 0.1643078377
525296850.0 -0.0523522409 0.169236823 0.2503631331 -0.5002581603 0.2501582225 -0.5002391742 -0.0806043178 0.1650729306
530296820.0 -0.0506410321 0.169945739 0.2447771544 -0.5029725196 0.245096095 -0.5027766727 -0.0793522749 0.1652739801
535296790.0 -0.0480512379 0.1707047287 0.2398137829 -0.505579237 0.2395281369 -0.5055272329 -0.0772934312 0.16685728
540296760.0 -0.0461771755 0.1715787849 0.2337929219 -0.508078896 0.2337857072 -0.5082150182 -0.0759608006 0.1673185012
545296730.0 -0.0448757288 0.1724111839 0.228579611 -0.5103741678 0.2281903759 -0.5102742746 -0.0740177145 0.1685883084
550296700.0 -0.0422281764 0.1728873578 0.2229847732 -0.513126041 0.2221868863 -0.5133516407 -0.0724198043 0.1689919985
555296670.0 -0.0404692129 0.1735337788 0.2172353911 -0.515763832 0.217381577 -0.5156973615 -0.0711065961 0.1694190988
560296640.0 -0.0378464911 0.174028485 0.2117055253 -0.517502297 0.2120195166 -0.5177620292 -0.0690584471 0.1709032114
565296610.0 -0.0364714338 0.1745442922 0.2062541825 -0.5202662966 0.2060839529 -0.5194955406 -0.067374832 0.1718369563
570296580.0 -0.0343880477 0.1752814632 0.2003441321 -0.5217426981 0.2002496305 -0.5223166847 -0.0658679285 0.1725284741
575296550.0 -0.0322453282 0.175705611 0.194636258 -0.5242419625 0.1946704581 -0.5243266054 -0.0639178999 0.1729182392
580296520.0 -0.0303031729 0.1766174746 0.1891324044 -0.5262059102 0.1888738413 -0.5263360261 -0.0627612227 0.1738364797
585296490.0 -0.0277367563 0.1771112408 0.1833433329 -0.5279564339 0.182859382 -0.5282574619 -0.0601491581 0.1750281466
590296460.0 -0.0254549066 0.1776637875 0.1774890841 -0.5299121257 0.1774249213 -0.5307537824 -0.0589925743 0.1755707404
595296430.0 -0.0235213876 0.1780297802 0.1712336674 -0.5321829698 0.1713745025 -0.5317932145 -0.0572614679 0.1759811914
600296400.0 -0.0215400521 0.1782972408 0.1651325366 -0.5339326708 0.1657363551 -0.5339516837 -0.0553343422 0.176442164
605296370.0 -0.019954031 0.1790261238 0.1603405723 -0.535304657 0.1595754871 -0.5357527827 -0.0533613731 0.1776027334
610296340.0 -0.0174025093 0.1797941946 0.1545270601 -0.5369726928 0.1547660974 -0.5372408123 -0.0521037547 0.1782564839
615296310.0 -0.0152623986 0.1800008094 0.1488170132 -0.5395209797 0.1482416999 -0.538854154 -0.0498986544 0.1788746117
620296280.0 -0.0134658113 0.180992519 0.1423527097 -0.5404928391 0.1420837305 -0.5401895673 -0.0485306204 0.1793909715
625296250.0 -0.0116799644 0.1806913223 0.1368386658 -0.5417090896 0.1365126031 -0.5422237922 -0.0468716253 0.1798889057
630296220.0 -0.0093416225 0.1814592237 0.130168029 -0.5434015405 0.1304043165 -0.5431742411 -0.0449876372 0.1806262109
635296190.0 -0.0074678639 0.1819074437 0.1252954981 -0.5443121815 0.1246294035 -0.5442357323 -0.0431942564 0.1809145032
640296160.0 -0.0054823914 0.1820656277 0.1190787244 -0.5459297505 0.1187466423 -0.5460747144 -0.041745128 0.1816043525
645296130.0 -0.0027767959 0.1827244251 0.1130833521 -0.5469564645 0.1131566899 -0.5466734956 -0.0397136985 0.1815940621
650296100.0 -0.0011188437 0.1826551211 0.1073986489 -0.5479939718 0.1068149817 -0.548327942 -0.0373719806 0.1826074176
655296070.0 0.0008876014 0.1829416617 0.1009875406 -0.5496571293 0.100996821 -0.5494105927 -0.0364797023 0.1829847268
660296040.0 0.0031400999 0.1832308905 0.0953050737 -0.5503392369 0.0952500751 -0.5505162727 -0.0343558431 0.1832070529
665296010.0 0.0052316772 0.1835279623 0.0887868762 -0.5512129989 0.0886841451 -0.5511686525 -0.0323968368 0.1841719702
670295980.0 0.0069302901 0.1839134303 0.083143154 -0.552523327 0.0832368112 -0.5518198934 -0.0311673324 0.1843608361
675295950.0 0.0089570648 0.1837984487 0.0773326881 -0.5529098975 0.0772761522 -0.5530993725 -0.0289927141 0.1850885884
680295920.0 0.0108237301 0.1844320703 0.0711584309 -0.553558541 0.0716318572 -0.5537910366 -0.0269962565 0.1853509373
685295890.0 0.0131063298 0.1844462877 0.0655016576 -0.5549029078 0.0655411607 -0.5548025454 -0.0252906469 0.1860672817
690295860.0 0.0150616045 0.1845851233 0.0595586521 -0.5553335907 0.0590244966 -0.555448537 -0.0235994996 0.1863549716
695295830.0 0.0171326431 0.1844491499 0.0538252557 -0.5556650206 0.0533431287 -0.5561624388 -0.0217528612 0.1865386878
700295800.0 0.0193862507 0.1844684499 0.04806275 -0.5557737732 0.0477771477 -0.5561994119 -0.0198293103 0.1869991759
705295770.0 0.0210025724 0.1848330779 0.0416269703 -0.5572118919 0.0414063788 -0.5566266131 -0.0181285867 0.1875071249
710295740.0 0.0231626401 0.1846243967 0.0359552574 -0.5573002066 0.0352503015 -0.5575746985 -0.0160320068 0.187871254
715295710.0 0.0250820502 0.1849571067 0.0296300084 -0.5576169341 0.0294370032 -0.5574458 -0.0141256965 0.1880007788
720295680.0 0.027753431 0.1848414147 0.0233806388 -0.5574604308 0.023379157 -0.5580650091 -0.0124584133 0.1879510862
725295650.0 0.029156085 0.1849399356 0.0177172655 -0.5578423457 0.0175340084 -0.5580548906 -0.0112002563 0.1887015756
730295620.0 0.0305643134 0.1846184495 0.0117592307 -0.5578129464 0.0114894267 -0.5577256555 -0.0092984784 0.1893201843
735295590.0 0.0330644648 0.1846310607 0.0059301045 -0.5584335862 0.0051636222 -0.5582681208 -0.0072449754 0.1890948018
740295560.0 0.0349458845 0.184476112 -0.000452868 -0.5582765084 -0.0001840277 -0.5581641372 -0.0056129406 0.1896395477
745295530.0 0.0371709414 0.1845290261 -0.0062857034 -0.5578385077 -0.0060463096 -0.5579215939 -0.0039998799 0.1895617816
750295500.0 0.0384109387 0.184536662 -0.0119399112 -0.5581480936 -0.0124702887 -0.5577520958 -0.0020136741 0.1899011843
755295470.0 0.0405132584 0.1842314302 -0.0178155926 -0.5580221094 -0.0181759477 -0.557932187 -1.46411e-05 0.1905517566
760295440.0 0.0426382202 0.1843092904 -0.02449495 -0.5576056141 -0.0242796379 -0.5573791094 0.0018881429 0.189636205
765295410.0 0.0448340697 0.1836632232 -0.0304755742 -0.5572105395 -0.0299916167 -0.5573117056 0.0037462549 0.1904576552
770295380.0 0.0463054071 0.1835764415 -0.0359366768 -0.5563079704 -0.0362277971 -0.5569399967 0.0051562198 0.1903810989
775295350.0 0.0483470638 0.183166695 -0.0421834102 -0.5562525763 -0.0421506765 -0.5558602572 0.0073472784 0.190552381
780295320.0 0.0504517666 0.1829850387 -0.047985587 -0.5554974731 -0.0477671834 -0.5556248692 0.0095034052 0.1906331591
785295290.0 0.0520345712 0.1824750382 -0.0539117884 -0.5552379283 -0.0541313589 -0.5555551944 0.0104385759 0.1911645376
790295260.0 0.0541455823 0.1820173557 -0.0596766761 -0.5549000739 -0.0598282926 -0.5548562347 0.0127067545 0.191443395
795295230.0 0.0561001795 0.1814617955 -0.0660217581 -0.5538971299 -0.0659491952 -0.5540771063 0.0146160231 0.1905667017
800295200.0 0.057919989 0.1815083547 -0.0713056148 -0.5529371963 -0.0717591087 -0.5535343543 0.0160400647 0.191151492
805295170.0 0.0595077724 0.181132288 -0.0776636903 -0.5529241485 -0.0774891164 -0.5524165951 0.0186996035 0.1907026065
810295140.0 0.0616369029 0.1805846861 -0.0832456726 -0.5516144438 -0.0837638998 -0.5515981725 0.0205017117 0.1910498395
815295110.0 0.0633214955 0.1801089025 -0.0893126683 -0.5508062925 -0.0894278649 -0.5507128875 0.0221223741 0.1910525126
820295080.0 0.0653188998 0.1795759895 -0.0948737781 -0.5493677911 -0.0951876486 -0.549874879 0.0230646311 0.1912234904
825295050.0 0.0670103489 0.1789476399 -0.1014334087 -0.5487611205 -0.1014232197 -0.5487312169 0.0261315058 0.1911195634
830295020.0 0.0690153515 0.1782746219 -0.1071222141 -0.5469655979 -0.1069635338 -0.5473548918 0.0272557116 0.1904823117
