!Created with skrf (http://scikit-rf.org).
# Hz S RI R 50.0 
!freq ReS11 ImS11 ReS21 ImS21 ReS12 ImS12 ReS22 ImS22
300000.0 -0.2383169065 -0.1141836451 0.4668847556 0.0765478074 0.4664508195 0.0777146082 -0.2341013386 -0.1245278422
5299970.0 -0.2448095042 0.0054506113 0.473575674 0.005777996 0.4740239421 0.0057712486 -0.2439180422 0.0052531555
10299940.0 -0.241990528 0.0187869123 0.4763046004 0.0067093601 0.4758471414 0.0071424266 -0.2403147105 0.0181335917
15299910.0 -0.2368937085 0.0283633863 0.4793260404 0.0084481706 0.4798074747 0.0084288669 -0.2362259848 0.0273438142
20299880.0 -0.2317478031 0.0361638979 0.4840316234 0.0084570045 0.4843442139 0.0088666792 -0.231136666 0.0354161105
25299850.0 -0.2257156315 0.0428128612 0.489470653 0.0078880332 0.4897486296 0.0074068828 -0.2261646414 0.0418733739
30299820.0 -0.2204492599 0.0476306714 0.4951104073 0.0055404422 0.4953443002 0.0054502927 -0.2209139617 0.0469572448
35299790.0 -0.2143595812 0.0516358695 0.4997953787 0.0028936487 0.5005217314 0.0024063511 -0.2157383628 0.0512420415
40299760.0 -0.2090913428 0.0549558364 0.5055226044 -0.0015222672 0.5056430923 -0.0018711055 -0.2108706744 0.055014004
45299730.0 -0.2041538119 0.0572158204 0.5103464273 -0.0062100222 0.5105619411 -0.00617574 -0.2057696182 0.0575992412
50299700.0 -0.1989891313 0.0587574512 0.514485796 -0.0114496092 0.5145339867 -0.0120636589 -0.2013467325 0.0601849731
55299670.0 -0.1951111979 0.0605017326 0.5186755777 -0.017483288 0.5183140457 -0.017692851 -0.1976856091 0.0619669541
60299640.0 -0.1907439843 0.0617658051 0.5215982922 -0.0237599707 0.5218184819 -0.0242072905 -0.1937172183 0.0632694247
65299610.0 -0.186977424 0.0625102403 0.5249019412 -0.0303981192 0.524767921 -0.0305950048 -0.1902196861 0.0647614022
70299580.0 -0.1838445772 0.0628468527 0.5268263783 -0.0363890826 0.5268489475 -0.0371348087 -0.1873230756 0.0658599642
75299550.0 -0.1809866627 0.0636652478 0.5288610286 -0.0440836279 0.5294744291 -0.0439050064 -0.1842875308 0.0670862072
80299520.0 -0.1783171313 0.0646741599 0.5308103298 -0.0507435143 0.5312585802 -0.0508774744 -0.1816014886 0.0680282731
85299490.0 -0.175820968 0.0647472403 0.5323347216 -0.0578050032 0.5324719675 -0.057415607 -0.1792992141 0.0688553817
90299460.0 -0.1733858899 0.0655147305 0.5331516336 -0.0647614976 0.5331373041 -0.0647298774 -0.1769117166 0.0698305714
95299430.0 -0.1714827925 0.0658904162 0.5343379167 -0.0714391019 0.5346338128 -0.0720644624 -0.1749961321 0.0704014444
100299400.0 -0.1693177346 0.0659908702 0.5344949867 -0.0780328757 0.5346959883 -0.0785861562 -0.1730914967 0.0718579875
105299370.0 -0.1675553696 0.0663050255 0.5345709063 -0.0851629313 0.5356709262 -0.0853121732 -0.1707902057 0.0719263398
110299340.0 -0.1656284315 0.0668226953 0.535170566 -0.0915980092 0.5355611334 -0.0917861012 -0.1698233086 0.0732468742
115299310.0 -0.1646413242 0.0677903955 0.5351973471 -0.0987122888 0.5353695725 -0.098858757 -0.1683493461 0.0741771736
120299280.0 -0.1630534079 0.0683679938 0.5350250419 -0.1062504469 0.5351757135 -0.1060308548 -0.1667654137 0.0747945676
125299250.0 -0.1619427238 0.0688854581 0.5345652269 -0.1125816019 0.5349301174 -0.1121051341 -0.1656178834 0.0760761792
130299220.0 -0.1608304464 0.0689629505 0.534063503 -0.1190153686 0.5338979672 -0.1197834054 -0.1639463624 0.0770603668
135299190.0 -0.159561824 0.0701771274 0.5336204922 -0.1258722086 0.5336602341 -0.1259037841 -0.1628423554 0.0776691029
140299160.0 -0.1585612856 0.0710277368 0.532858736 -0.1324522171 0.5325981065 -0.1319248238 -0.1624784973 0.0786806008
145299130.0 -0.1580031223 0.0715879607 0.5317838904 -0.1392091723 0.531722046 -0.1390960112 -0.1609328708 0.0799257838
150299100.0 -0.1567206164 0.0724003577 0.5305752551 -0.1456840108 0.5307340865 -0.1454970902 -0.1600536853 0.0810125198
155299070.0 -0.1552915863 0.0732762935 0.5287938015 -0.1524476111 0.5293341077 -0.1526620096 -0.1587482635 0.0821306574
160299040.0 -0.1548947919 0.0743983567 0.5279685822 -0.1586144292 0.5280218333 -0.1588217132 -0.1580772111 0.0835800451
165299010.0 -0.1541222849 0.0755014572 0.526898904 -0.1652522185 0.5266560546 -0.1652073084 -0.1567394969 0.0843154066
170298980.0 -0.1532149132 0.0762389321 0.52464713 -0.1711648191 0.5250651655 -0.1716861732 -0.1563971264 0.0856638775
175298950.0 -0.1521609681 0.0774029969 0.5234315025 -0.1779078817 0.5237282874 -0.1782498864 -0.1550530059 0.0872864073
180298920.0 -0.1513880105 0.0786133103 0.5216665227 -0.1844673559 0.5218130883 -0.1846001526 -0.1539560691 0.0882359936
185298890.0 -0.1507564883 0.0796309056 0.5201755038 -0.1904622611 0.5199288446 -0.1904433981 -0.1529353184 0.0895314489
190298860.0 -0.1498871113 0.0808383566 0.5174914419 -0.1963294737 0.5182467491 -0.1963472033 -0.1521730763 0.0908538085
195298830.0 -0.149125356 0.0820346187 0.5158794805 -0.2025586448 0.516189344 -0.2024366484 -0.1514187296 0.0922642496
200298800.0 -0.1481570536 0.0826696655 0.513709557 -0.2090323899 0.5139102971 -0.2088550128 -0.1502347025 0.093394735
205298770.0 -0.1478554983 0.0840289112 0.5116047912 -0.2149886294 0.5118859413 -0.2145948133 -0.1491501042 0.0951006456
210298740.0 -0.1470014964 0.0856713881 0.5096911145 -0.2208558269 0.5092521017 -0.2208916664 -0.1486250742 0.0961651437
215298710.0 -0.1461276967 0.0867925086 0.5069715244 -0.2263780307 0.5070645997 -0.2267043936 -0.1473200459 0.0975735685
220298680.0 -0.1451433997 0.0878328317 0.5042179263 -0.2326619456 0.5042809232 -0.2328551494 -0.1463321772 0.0991380967
225298650.0 -0.144437593 0.0890403857 0.501843716 -0.2383047072 0.5023691831 -0.2379493451 -0.1455194704 0.10008699
230298620.0 -0.1437196765 0.090693937 0.49988712 -0.2444196141 0.4998368147 -0.2443094931 -0.1445779389 0.1018252557
235298590.0 -0.1430204218 0.0919490733 0.496982114 -0.250743906 0.4972112195 -0.2503362632 -0.1432777264 0.1031485012
240298560.0 -0.1422881164 0.0933274999 0.494248202 -0.2555858712 0.4942013777 -0.2557829753 -0.1426088702 0.1043173602
245298530.0 -0.1416115419 0.094092203 0.4913085768 -0.2614128857 0.4917475837 -0.2614633988 -0.1415237199 0.106151775
250298500.0 -0.140891352 0.0956558721 0.4889276187 -0.266874248 0.4888910017 -0.2670356437 -0.1407104071 0.1076420852
255298470.0 -0.1399652613 0.0971606681 0.486314331 -0.2725830245 0.4862435725 -0.2726415625 -0.1395448282 0.1093318166
260298440.0 -0.1392916484 0.0981490077 0.4831723548 -0.2777165543 0.4833259292 -0.277996263 -0.1386556481 0.1103309255
265298410.0 -0.1387103551 0.0997237043 0.4798680467 -0.2839525985 0.4795707659 -0.2836994821 -0.1368891524 0.1113035993
270298380.0 -0.1377585536 0.1009121667 0.4770617195 -0.289266558 0.4771652255 -0.2892245691 -0.1358942237 0.1132050787
275298350.0 -0.1367228634 0.1024633661 0.4730170125 -0.2943533569 0.4732454951 -0.2946039898 -0.1346496492 0.114991143
280298320.0 -0.1362045574 0.103500854 0.4705433297 -0.2995578035 0.4706999696 -0.2998551354 -0.1335089725 0.1162107894
285298290.0 -0.1353138816 0.1051044209 0.4668304135 -0.3047240934 0.46752075 -0.3051462804 -0.1325781396 0.1179981601
290298260.0 -0.1342497593 0.1063746234 0.4641184204 -0.3107822311 0.4641700268 -0.3104058168 -0.1311007996 0.1191590882
295298230.0 -0.133595081 0.1076534462 0.4610452821 -0.3162399816 0.4607440041 -0.3163306575 -0.1299250957 0.1205996606
300298200.0 -0.1324773257 0.1090765566 0.4573778879 -0.3207938805 0.4573218043 -0.3212402892 -0.1287437867 0.1219466808
305298170.0 -0.1313356208 0.1099111515 0.4538338921 -0.326582285 0.4542980677 -0.3266104864 -0.1272224273 0.1232259633
310298140.0 -0.1303560727 0.1112001796 0.4499763081 -0.331421666 0.4505253859 -0.3315451058 -0.1259419087 0.1246579877
315298110.0 -0.1294941645 0.1122616523 0.4465982149 -0.3374213323 0.44675821 -0.3367491023 -0.124756251 0.125847988
320298080.0 -0.1284367278 0.1137258352 0.4422668421 -0.3421496502 0.4433028506 -0.3422635976 -0.1237610949 0.1270610366
325298050.0 -0.1283835787 0.1144071471 0.438871226 -0.3465606475 0.4397573365 -0.3466196576 -0.1222341516 0.1281072399
330298020.0 -0.1275900969 0.1162655552 0.4348782535 -0.3521819593 0.4355181459 -0.352054201 -0.1214927475 0.1296811697
335297990.0 -0.126680195 0.1172464672 0.4313467591 -0.356459126 0.4313137768 -0.356745104 -0.120058143 0.1310926629
340297960.0 -0.1258085609 0.1186623024 0.4270822618 -0.3617592028 0.4269710111 -0.3616766885 -0.1185167382 0.1328932047
345297930.0 -0.1247478592 0.1197677616 0.4231674385 -0.3665904171 0.4229931642 -0.3665977403 -0.1172207227 0.1338869319
350297900.0 -0.1241140959 0.1212669377 0.4193462905 -0.3703342251 0.4190895183 -0.3706732882 -0.1159558818 0.1349689439
355297870.0 -0.1230115862 0.1222901798 0.4150827965 -0.3748308441 0.4148494261 -0.3753120136 -0.1145712412 0.136899377
360297840.0 -0.1221426455 0.1239277354 0.4105644717 -0.3798595729 0.4110189052 -0.3801120412 -0.1133817783 0.1382021792
365297810.0 -0.121327406 0.1252306442 0.4061104772 -0.3843349366 0.4064201838 -0.3843971095 -0.112223564 0.1390433651
370297780.0 -0.1199624001 0.126547724 0.4018596717 -0.3889663848 0.4019346898 -0.3889525272 -0.110357492 0.1407309702
375297750.0 -0.1192095077 0.1277861021 0.3981005324 -0.393091585 0.3979436835 -0.3933136609 -0.1089974321 0.1421730395
380297720.0 -0.1180181166 0.1292561434 0.3936289101 -0.3979826816 0.3935633949 -0.397912543 -0.1076031574 0.1435162696
385297690.0 -0.1168547378 0.1301108914 0.3889776505 -0.4021939156 0.3893183437 -0.4021835239 -0.1058601387 0.144911168
390297660.0 -0.115499343 0.1311280898 0.3846223283 -0.4057328714 0.3849500165 -0.4059767622 -0.1042799121 0.1457591378
395297630.0 -0.1142704073 0.1326213587 0.3804000267 -0.4099105099 0.3803678328 -0.410097218 -0.1029656981 0.1470755898
400297600.0 -0.1135645884 0.1338209096 0.3756447817 -0.4146574293 0.3761416956 -0.4146079741 -0.1013360564 0.1489580863
405297570.0 -0.1124082177 0.1349544712 0.3716454754 -0.4183483681 0.3714504979 -0.4188223053 -0.0994550401 0.1500646844
410297540.0 -0.1107681516 0.1362265959 0.3664549263 -0.4227137978 0.3671531623 -0.4223287685 -0.0980438714 0.1512454593
415297510.0 -0.109817601 0.1374908212 0.3615707082 -0.4267165345 0.3626180506 -0.4269903706 -0.0963091427 0.1523547923
420297480.0 -0.1087194938 0.1384585899 0.3575076612 -0.4307934992 0.3576852869 -0.4306854591 -0.0941309431 0.1539151384
425297450.0 -0.1070198367 0.1392144105 0.3523111074 -0.4343391543 0.3523453602 -0.4347258662 -0.0928575979 0.1547596162
430297420.0 -0.1061951944 0.140983911 0.3482579181 -0.4386453368 0.3485324567 -0.437939822 -0.0908466156 0.1562023483
435297390.0 -0.1049028526 0.1416967169 0.3429186343 -0.4428921136 0.3428203937 -0.4421985201 -0.0898500562 0.1576235642
440297360.0 -0.1031157392 0.1427364583 0.337620027 -0.4460820347 0.3380544857 -0.4461841041 -0.0880829882 0.1585893544
445297330.0 -0.1020245448 0.1433419612 0.3333342963 -0.4492290614 0.3333352415 -0.4495905484 -0.085852512 0.1596000606
450297300.0 -0.1005062753 0.1449099844 0.3282409049 -0.4529908324 0.3286412923 -0.4528422647 -0.0841279003 0.1609077777
455297270.0 -0.0993968586 0.1457492028 0.3236963299 -0.4565096721 0.3235651514 -0.4568630529 -0.0823843666 0.1616894126
460297240.0 -0.0977753077 0.1468939422 0.3183637318 -0.4608571328 0.3183179506 -0.4605622823 -0.0805628248 0.1628717461
465297210.0 -0.0964489937 0.147948283 0.313003417 -0.463754597 0.3127587084 -0.4638234651 -0.0784437911 0.1643385766
470297180.0 -0.0950726282 0.1489271654 0.3083722736 -0.4668761597 0.3086224708 -0.4670881505 -0.0768116082 0.1649269532
475297150.0 -0.0939002254 0.1500095444 0.3034553397 -0.4701106263 0.3031048742 -0.4703422518 -0.074937575 0.165887482
480297120.0 -0.0918439575 0.1512420658 0.2975499982 -0.4733642093 0.2982393367 -0.4738312943 -0.0734506269 0.1670474104
485297090.0 -0.0906031755 0.1515808105 0.2928650936 -0.4771715479 0.2928878516 -0.4770374074 -0.0716409335 0.1679339842
490297060.0 -0.0885726101 0.153162704 0.2869529658 -0.4801290534 0.2874604471 -0.4803416762 -0.069427967 0.1688611438
495297030.0 -0.087725786 0.1537980533 0.2826419296 -0.483629722 0.2822706781 -0.4836462183 -0.067281181 0.1695246516
500297000.0 -0.085994765 0.1550934605 0.2771655501 -0.4861154882 0.2769725024 -0.4865147035 -0.0654949228 0.1709545706
505296970.0 -0.0840399096 0.155869657 0.2717449413 -0.4894606336 0.2718888981 -0.4889646551 -0.06378363 0.1713007279
510296940.0 -0.0827769707 0.1567002585 0.2664475541 -0.4927326225 0.2666566894 -0.4922147319 -0.0615697975 0.1721741134
515296910.0 -0.081284387 0.1580908854 0.2606176643 -0.4949932115 0.2608254307 -0.4952966594 -0.0598579633 0.1726996323
520296880.0 -0.0796935445 0.158905288 0.2555345535 -0.4976814439 0.2550115249 -0.4976802072 -0.0572912896 0.173965071
525296850.0 -0.077750091 0.1595408323 0.24974077 -0.5004407573 0.2499036212 -0.5002322663 -0.055354193 0.1748667228
530296820.0 -0.0766997772 0.1602330347 0.2442855733 -0.5032742337 0.244329837 -0.5031662829 -0.0536609444 0.1749402084
535296790.0 -0.0742952126 0.1611014391 0.2388976232 -0.5057114683 0.2388104836 -0.5059135986 -0.0511545195 0.1761672879
540296760.0 -0.0728892307 0.1623504438 0.2334810103 -0.5083274146 0.2330904466 -0.5080939095 -0.0495173084 0.1763670775
545296730.0 -0.0716853605 0.1633986729 0.227951931 -0.5104179879 0.2274472551 -0.5105834553 -0.0473444132 0.1772534227
550296700.0 -0.0693417198 0.1639691907 0.2221205068 -0.5133199383 0.221774527 -0.5131335443 -0.0452862696 0.1778397384
555296670.0 -0.0682467574 0.1646942234 0.2169510552 -0.5156489009 0.2164134113 -0.5151020418 -0.0439090718 0.1779878644
560296640.0 -0.0658612325 0.1655626773 0.210711045 -0.5176931287 0.2112312824 -0.5178845473 -0.0418218425 0.1791643686
565296610.0 -0.0647671329 0.1663971987 0.2053653375 -0.5200696028 0.2057567188 -0.5198443919 -0.0394223583 0.1801620829
570296580.0 -0.0631507684 0.1674213658 0.1996473174 -0.5224099283 0.1996987459 -0.5222188398 -0.0377091227 0.1801642921
575296550.0 -0.0611428867 0.1680064114 0.1942148495 -0.5242905424 0.1941283187 -0.5241416505 -0.0356118809 0.1809198216
580296520.0 -0.0593798007 0.1689479759 0.188405266 -0.5264187159 0.1881136797 -0.5263712461 -0.0336859186 0.1814524504
585296490.0 -0.0578372181 0.1698457242 0.1828040719 -0.5283443387 0.182128166 -0.5281800239 -0.031069122 0.1818327217
590296460.0 -0.055258627 0.1703532328 0.176671001 -0.5300691134 0.1769880605 -0.5302320704 -0.0295815117 0.1823765467
595296430.0 -0.0540897793 0.1713706506 0.1705336084 -0.5321619436 0.17041705 -0.5321011035 -0.0273381982 0.1827706161
600296400.0 -0.0522038309 0.1721100728 0.1648135755 -0.5338695581 0.1648327805 -0.5338555025 -0.0252788348 0.1829424085
605296370.0 -0.0507091032 0.1727911262 0.1597143657 -0.5355419665 0.1591854619 -0.5356852333 -0.0232175145 0.1834447583
610296340.0 -0.0485923076 0.1737886076 0.1537223218 -0.5368848261 0.1537669158 -0.5370081051 -0.0212767681 0.1841866513
615296310.0 -0.0469061278 0.1744307374 0.1475480812 -0.5393262079 0.147181591 -0.5390914137 -0.0187722859 0.1844943367
620296280.0 -0.0453330582 0.1752545901 0.1417569426 -0.5406446325 0.1415795537 -0.5404065556 -0.0172428156 0.1851875439
625296250.0 -0.0435922699 0.1756467468 0.1355449674 -0.5416066631 0.1358540134 -0.5418154777 -0.0154275083 0.1850532574
630296220.0 -0.0414622524 0.1766268123 0.1295288113 -0.543858142 0.1300241144 -0.5430265262 -0.0129206835 0.1852876649
635296190.0 -0.0402993035 0.1773729303 0.124286719 -0.5444874881 0.1244231979 -0.5448528446 -0.0109792429 0.1858063828
640296160.0 -0.0383445057 0.1779388409 0.1182656179 -0.5461186479 0.1180751554 -0.546078136 -0.0089612888 0.185926933
645296130.0 -0.0363896388 0.1788090584 0.1121341811 -0.5472208605 0.1123886192 -0.5467867013 -0.0074997861 0.1855944685
650296100.0 -0.0347484982 0.1790585754 0.1065303208 -0.5486672559 0.1061941532 -0.5487089199 -0.004352943 0.1861380244
655296070.0 -0.0331013279 0.1795862946 0.0999721981 -0.5492832691 0.1004129785 -0.5494642707 -0.0030400927 0.1869245952
660296040.0 -0.0312559063 0.1803852597 0.0943778647 -0.5503788045 0.0943429399 -0.550522617 -0.0007001195 0.1865106122
665296010.0 -0.0294911959 0.180904394 0.0883018484 -0.5510294828 0.0883734756 -0.5512329003 0.0013887626 0.1865522102
670295980.0 -0.0275300185 0.1814420731 0.0821944979 -0.5520583364 0.0823458423 -0.5516595597 0.0030903736 0.1865455631
675295950.0 -0.0260049075 0.1817991757 0.0766038909 -0.5527253239 0.0767201391 -0.5528872535 0.005351476 0.1870633924
680295920.0 -0.0244340582 0.1827154805 0.0705278899 -0.5530832246 0.0705621678 -0.55376723 0.0075512945 0.1870981965
685295890.0 -0.0223429001 0.1831340348 0.0646678892 -0.5544983142 0.0645168092 -0.5545705814 0.0095840792 0.1874182611
690295860.0 -0.0207518189 0.1836746301 0.058740892 -0.5553003036 0.0582728817 -0.5552323536 0.0117023416 0.187137951
695295830.0 -0.018642399 0.1839029334 0.0528865944 -0.5556820709 0.0524595958 -0.5554587904 0.0136265866 0.1874952641
700295800.0 -0.0166500414 0.1843222063 0.0467132301 -0.556054969 0.0468153614 -0.5560747114 0.0157125126 0.1872409616
705295770.0 -0.015533977 0.1850433768 0.0409846164 -0.5572900579 0.0406016625 -0.5565505827 0.0179938356 0.1876613424
710295740.0 -0.0137017397 0.1850531987 0.0349009438 -0.5570639116 0.0344926056 -0.5575043152 0.020110916 0.1872687926
715295710.0 -0.0117999543 0.1859852853 0.0288681745 -0.5576678184 0.0284777118 -0.5577354607 0.0222643452 0.186979638
720295680.0 -0.0097432465 0.1860869358 0.0227771716 -0.5575749849 0.0228063525 -0.5581752489 0.0240385802 0.1871243936
725295650.0 -0.0084740202 0.1868516101 0.0168539934 -0.5579317129 0.0168827273 -0.5578708885 0.025942207 0.1873307226
730295620.0 -0.0071176979 0.1867150442 0.0108277339 -0.5574383886 0.0107481529 -0.5577480127 0.0275859469 0.1871956502
735295590.0 -0.0051043906 0.1872244254 0.0048689118 -0.5582991974 0.0042406614 -0.5578411434 0.0301801363 0.1865965011
740295560.0 -0.0034601095 0.1872087075 -0.0015130137 -0.5580294417 -0.0011172127 -0.5579069064 0.0321133283 0.1869476604
745295530.0 -0.0016410033 0.1878082135 -0.0069690916 -0.5575573618 -0.0066817592 -0.5577059563 0.033744975 0.1864908658
750295500.0 -0.0002655368 0.1880243619 -0.0126614345 -0.5574865015 -0.0133559704 -0.5577978247 0.0360719275 0.1864690181
755295470.0 0.0018360753 0.1883816816 -0.019262556 -0.5578767254 -0.0194341793 -0.5579154301 0.0383792051 0.1866470326
760295440.0 0.0034442065 0.1892539621 -0.0262013894 -0.5572305381 -0.0254066649 -0.556914412 0.0405215016 0.1851757306
765295410.0 0.0053010309 0.1886582102 -0.0312561886 -0.5569036078 -0.0310065526 -0.5567602075 0.042560351 0.1853998127
770295380.0 0.0069438494 0.1891343704 -0.0370218193 -0.5565696769 -0.0372002566 -0.5568476097 0.0437856343 0.1850686858
775295350.0 0.0089166272 0.1891729286 -0.0431254662 -0.5561140402 -0.0430884131 -0.5556147289 0.0463729805 0.184889753
780295320.0 0.0105818766 0.1894645866 -0.0487300168 -0.5552289473 -0.0488424619 -0.5552534668 0.048543892 0.1844278878
785295290.0 0.0121995533 0.1892124371 -0.054677745 -0.5548543621 -0.0549783138 -0.5551839282 0.050251808 0.1845123888
790295260.0 0.0140969542 0.1891480535 -0.0610019435 -0.5544219321 -0.0605449136 -0.5550470915 0.0519681073 0.1844077941
795295230.0 0.0156722642 0.189320034 -0.0669480156 -0.5540720344 -0.0668820959 -0.5536702619 0.0543967956 0.1828637798
800295200.0 0.017210255 0.1896972691 -0.0720483317 -0.5525497871 -0.0729497115 -0.553036314 0.0559955127 0.1830167144
805295170.0 0.0186619543 0.1897921666 -0.0784289816 -0.5523756184 -0.0784764103 -0.5520629796 0.0588157392 0.1824114981
810295140.0 0.0208541843 0.1897583964 -0.084380799 -0.5509249189 -0.0845945386 -0.5512502755 0.0607430261 0.181899514
815295110.0 0.0225817851 0.1895960915 -0.0902975899 -0.5499563184 -0.0902916942 -0.5503393705 0.0623047999 0.1816138053
820295080.0 0.0240727401 0.1897530838 -0.0957863029 -0.549325325 -0.0960821147 -0.5494128476 0.0638617324 0.1814477686
825295050.0 0.0256724376 0.1894753269 -0.1020277035 -0.5484867573 -0.1023407561 -0.5480483231 0.0666186593 0.1809791889
830295020.0 0.0275647982 0.1896244347 -0.1077653625 -0.546899027 -0.1078211843 -0.5469832269 0.0682709762 0.1795724993
