!Created with skrf (http://scikit-rf.org).
# Hz S RI R 50.0 
!freq ReS11 ImS11 ReS21 ImS21 ReS12 ImS12 ReS22 ImS22
300000.0 -0.7747102597 -0.1454548654 0.0002148322 0.0005324856 -0.0009948562 0.0006348949 0.8599268572 -0.0014938006
5299970.0 -0.7850299506 -0.007156369 -0.0001080995 -3.435e-05 -2.0554e-05 6.46324e-05 0.8587999151 -0.0105079486
10299940.0 -0.7879465385 -0.0043210851 3.54746e-05 0.0001598309 -0.0001540818 1.46958e-05 0.8581407317 -0.018622841
15299910.0 -0.7933833003 -0.0016470294 7.34915e-05 -0.000280282 0.0001173374 -1.67871e-05 0.8572590547 -0.027560445
20299880.0 -0.7997846272 0.0026174389 -1.61572e-05 3.29273e-05 3.23362e-05 0.0002251001 0.8566970759 -0.0364063341
25299850.0 -0.8065441887 0.0084122772 -6.45984e-05 -0.0001086769 -8.94149e-05 6.57665e-05 0.8554691503 -0.0438442467
30299820.0 -0.8122159984 0.016439835 -0.0001185123 1.41297e-05 3.77215e-05 -0.0001453702 0.8551939651 -0.0523281242
35299790.0 -0.8171460436 0.0246747444 -3.89679e-05 4.44094e-05 -2.4377e-06 -1.07033e-05 0.8540783284 -0.0603847044
40299760.0 -0.821571755 0.0343235427 3.38429e-05 1.82393e-05 4.9489e-06 0.0002019489 0.8539247369 -0.069286542
45299730.0 -0.8247273177 0.044180648 -0.0001622037 0.0001298168 -2.2735e-06 0.0002241307 0.8522642609 -0.0770716471
50299700.0 -0.8268105275 0.0539288183 8.25261e-05 5.78399e-05 -0.0002274378 -5.43838e-05 0.8517151441 -0.0853000858
55299670.0 -0.8290229498 0.064341649 -1.25564e-05 -2.26988e-05 1.9765e-06 9.64849e-05 0.8502346715 -0.0931540843
60299640.0 -0.8297514803 0.0742654731 -0.0001509775 5.00783e-05 -3.84018e-05 -0.0001119786 0.8498229589 -0.1016765598
65299610.0 -0.8309910202 0.0847803819 -0.0001570553 0.0001544004 -2.3226e-05 9.346e-06 0.8482086631 -0.1103525989
70299580.0 -0.8310692157 0.0942877878 1.29141e-05 0.0001795616 -9.91173e-05 -1.48649e-05 0.847941119 -0.1188055113
75299550.0 -0.8310810581 0.1043195204 3.00532e-05 -0.0001136153 0.0001990877 -3.17908e-05 0.8472497995 -0.1271682931
80299520.0 -0.8311556545 0.1144579956 -0.0002980556 4.2239e-05 -0.0001724107 -0.0001036377 0.8451340761 -0.1344217473
85299490.0 -0.8308017481 0.1241184234 -0.0002058312 -7.7689e-06 8.90411e-05 8.44978e-05 0.843560494 -0.1427747479
90299460.0 -0.8301510736 0.1337647611 -7.6672e-05 0.0001176607 -1.76445e-05 0.0001540655 0.8416917779 -0.1514292093
95299430.0 -0.8285496512 0.1435708259 2.05316e-05 -0.0001197828 9.22624e-05 -7.17351e-05 0.8404902728 -0.1592612703
100299400.0 -0.8278096699 0.1530642885 -5.82468e-05 -2.9596e-05 -1.62554e-05 6.30389e-05 0.8388376906 -0.1673545017
105299370.0 -0.8266857863 0.1621097328 -9.76745e-05 -5.8448e-06 2.70903e-05 -8.83434e-05 0.8369990916 -0.1756618903
110299340.0 -0.8254185521 0.1708457224 8.06867e-05 7.31886e-05 9.64541e-05 0.0001173232 0.834994583 -0.1839528857
115299310.0 -0.8236830514 0.1802859001 0.0001658723 3.58453e-05 8.09558e-05 2.09081e-05 0.8330592013 -0.1925414564
120299280.0 -0.8215388889 0.1897074535 0.0001739296 -0.000140993 4.36903e-05 -0.0002102666 0.8311590572 -0.1999030265
125299250.0 -0.8204480078 0.1986333885 7.3878e-06 -6.3459e-06 -4.92889e-05 0.0001334071 0.8290264285 -0.2085957683
130299220.0 -0.8181680119 0.2076674445 -1.89193e-05 0.0002448802 -5.0657e-05 0.0002694242 0.8268624516 -0.2162962851
135299190.0 -0.8166609972 0.2170397057 7.31333e-05 1.27764e-05 5.1552e-06 7.97402e-05 0.8251598896 -0.2244394437
140299160.0 -0.8146058206 0.2255491794 0.0002384594 -0.0001061975 -0.0001146252 4.97857e-05 0.8230069182 -0.2322520199
145299130.0 -0.8127796637 0.2341859065 -7.73336e-05 0.0001244839 6.2264e-06 0.000101452 0.8203889845 -0.2407959538
150299100.0 -0.8098342934 0.2434960153 -0.0001997078 -4.0681e-06 -0.0001053188 0.0001024419 0.8178074 -0.2487084396
155299070.0 -0.8080373031 0.2523640842 5.26442e-05 -0.0002130946 -5.36658e-05 -1.69826e-05 0.8154900172 -0.2563688925
160299040.0 -0.8048733679 0.2611565257 7.3418e-05 -0.000107919 0.0001640339 6.4817e-05 0.8128124008 -0.2646779916
165299010.0 -0.8024123726 0.2696476371 0.0001073575 0.0001033778 0.0002095339 -0.0003276545 0.8105782241 -0.2725612261
170298980.0 -0.7995911999 0.278126719 -4.86364e-05 -0.0002296741 -0.0001271574 -0.000133725 0.8077933464 -0.2799868487
175298950.0 -0.7970976804 0.2871846103 -0.0003161088 -1.23017e-05 0.0001004584 -0.0001040289 0.8046489474 -0.2881580426
180298920.0 -0.7938100592 0.2953889547 -8.86617e-05 0.0002340497 3.52483e-05 6.50819e-05 0.802075 -0.2960000807
185298890.0 -0.7907094133 0.3047261572 0.0001158492 -3.27766e-05 -0.0002223747 -0.0001438701 0.7994159607 -0.3043414727
190298860.0 -0.7875966936 0.3124063252 -9.20931e-05 2.31924e-05 -1.38657e-05 -0.000128198 0.796164962 -0.3116740775
195298830.0 -0.7839380167 0.3211437269 -0.0001943187 0.0001227375 -0.0002647353 1.76816e-05 0.793220424 -0.3191929762
200298800.0 -0.7806728692 0.3294388077 -2.0077e-05 9.25972e-05 1.7354e-06 3.42671e-05 0.7901187477 -0.3276276055
205298770.0 -0.7772829647 0.3373916769 1.0167e-05 8.05979e-05 2.15365e-05 -0.0002660679 0.7868464342 -0.3349970225
210298740.0 -0.7736777552 0.3456863281 0.0001324534 -0.0001479715 -5.87575e-05 3.32034e-05 0.7832783992 -0.3428819899
215298710.0 -0.7704749791 0.3538163009 9.10103e-05 1.54699e-05 0.000215864 -0.0001398383 0.7800114275 -0.3501565333
220298680.0 -0.7672090577 0.3619977155 2.28325e-05 -0.0002181163 -9.36001e-05 5.3468e-06 0.7768098661 -0.3576923701
225298650.0 -0.7634842262 0.3707527489 9.01385e-05 0.0001993249 0.0001524983 -8.00653e-05 0.772994589 -0.364732607
230298620.0 -0.7586987707 0.3785149872 9.16517e-05 2.27426e-05 -8.93691e-05 6.86143e-05 0.7691035661 -0.3730026054
235298590.0 -0.7547545351 0.3873609952 -4.30067e-05 -0.0002071293 -7.13731e-05 2.20148e-05 0.7663271686 -0.3798360037
240298560.0 -0.7509005984 0.3953976467 5.71906e-05 4.51136e-05 -0.000115018 -0.0001098665 0.7622387213 -0.3870094361
245298530.0 -0.7463907192 0.4029155323 0.0002126071 -2.93611e-05 1.392e-05 -0.0001635664 0.7583133558 -0.3948485664
250298500.0 -0.742841645 0.4104651989 -4.57764e-05 -0.0001263561 1.26647e-05 8.33048e-05 0.7544642418 -0.4019474755
255298470.0 -0.7377491402 0.4191696372 -7.40098e-05 -7.79689e-05 -4.76076e-05 -0.0001063051 0.7508764779 -0.4093543054
260298440.0 -0.7338017637 0.4263370765 6.76622e-05 -0.0002427744 8.82108e-05 5.26289e-05 0.7463820845 -0.4170450255
265298410.0 -0.7296033362 0.4343964421 -3.08286e-05 -0.0001984915 2.33999e-05 -4.10038e-05 0.7432779331 -0.424293879
270298380.0 -0.7246888605 0.4418516659 -5.76585e-05 7.34345e-05 0.000201036 -3.85341e-05 0.739325587 -0.4309180245
275298350.0 -0.7195948562 0.4491410659 0.0001034937 -4.6579e-05 -0.0001539531 -2.42917e-05 0.7348284905 -0.4380647182
280298320.0 -0.7150429724 0.4566660197 -7.724e-06 4.58594e-05 -0.0001097717 -4.9591e-05 0.7308847841 -0.4455090897
285298290.0 -0.7104004796 0.464147368 4.61877e-05 4.29032e-05 4.84602e-05 -8.75806e-05 0.7265477976 -0.4519936653
290298260.0 -0.7050464713 0.4719352521 9.52474e-05 2.0578e-05 -6.00117e-05 -1.3558e-06 0.7220710394 -0.4597278195
295298230.0 -0.7004865427 0.4791976085 -0.0001030179 9.38632e-05 -6.40563e-05 -0.0001059285 0.7183683082 -0.4659011595
300298200.0 -0.6949269235 0.4863197846 2.61552e-05 0.000111893 -0.0001332135 0.0001720534 0.7136757697 -0.4732970775
305298170.0 -0.689923586 0.494575526 -2.65966e-05 8.64782e-05 -8.15733e-05 7.49321e-05 0.7102036102 -0.4791396603
310298140.0 -0.6843023432 0.5008424474 0.0002070617 -7.28479e-05 -3.63242e-05 0.0001177718 0.7050716802 -0.4872467647
315298110.0 -0.679689516 0.5079949616 2.42514e-05 6.26364e-05 0.0001144669 5.20249e-05 0.7009295567 -0.4940519091
320298080.0 -0.6745194975 0.516081551 -0.0002074287 -0.0001955769 2.03552e-05 -1.23057e-05 0.6962154791 -0.5018024625
325298050.0 -0.6681113799 0.5221217827 -3.02186e-05 -3.69121e-05 -0.0001208861 1.55277e-05 0.6909713422 -0.5098081815
330298020.0 -0.6627284866 0.5294236275 3.6958e-06 -1.55854e-05 6.73619e-05 -9.68984e-05 0.685414917 -0.5169202487
335297990.0 -0.6569890794 0.5363565742 0.0001354068 0.0001165343 -0.0001027173 -0.0001155788 0.6798690753 -0.5237336375
340297960.0 -0.6520446733 0.5426694743 -9.20738e-05 0.0001432035 -2.28371e-05 -7.39125e-05 0.6741356782 -0.52976276
345297930.0 -0.6461235775 0.5488934019 -0.0001748919 -9.28207e-05 -0.0001407867 -2.94338e-05 0.6681565398 -0.5359902852
350297900.0 -0.6403086413 0.5561814899 -0.00010921 -2.3522e-05 1.9937e-06 -0.0001594115 0.6630635745 -0.5415478568
355297870.0 -0.6350030799 0.5626673076 6.92491e-05 -9.4564e-06 2.36525e-05 -5.24115e-05 0.6574516549 -0.5479502361
360297840.0 -0.6287690096 0.5693464587 6.60809e-05 6.22121e-05 -0.0001252826 -0.0001916225 0.6520145405 -0.5538676755
365297810.0 -0.6222030687 0.5756039859 0.0002402095 0.0001223514 -0.000222244 -9.3675e-06 0.6467582148 -0.5604178636
370297780.0 -0.6162525013 0.5818418242 5.81775e-05 -2.93617e-05 -8.245e-07 -2.74576e-05 0.6407750474 -0.5659686946
375297750.0 -0.6099753928 0.5882549683 0.0001674419 -0.0001402947 -0.0001352522 6.95134e-05 0.6349828123 -0.572085064
380297720.0 -0.6037112953 0.5944071968 -0.0002798213 -0.0001656831 8.27896e-05 3.12293e-05 0.6299627706 -0.5776540672
385297690.0 -0.597863284 0.6007239932 1.46275e-05 0.0001808965 -0.0001517522 4.8961e-06 0.6237277198 -0.5830351693
390297660.0 -0.5914597955 0.6069717095 4.15649e-05 -0.0001744523 -5.8917e-05 1.65924e-05 0.6187839452 -0.5901542301
395297630.0 -0.5850879196 0.6134871876 6.85133e-05 -0.0001927473 -0.0001008601 -4.38902e-05 0.6128487672 -0.5951686362
400297600.0 -0.5784820285 0.6195315184 -0.0002099664 -0.0003647938 -1.97242e-05 -8.1974e-06 0.6065874236 -0.6013739774
405297570.0 -0.5724193983 0.6247128278 5.57171e-05 7.05935e-05 -3.97483e-05 -2.83576e-05 0.6013207693 -0.6069484843
410297540.0 -0.5656251954 0.630696684 7.98109e-05 7.52764e-05 -8.52282e-05 -2.36872e-05 0.5950707762 -0.6125943629
415297510.0 -0.5591196922 0.6365487566 0.0001032547 -3.0493e-05 3.50978e-05 0.0001376504 0.5886240061 -0.6181704523
420297480.0 -0.5521021771 0.6424310027 0.0002320604 -0.0001230203 4.56161e-05 -0.0001014565 0.5832591323 -0.6242535496
425297450.0 -0.5455277681 0.6476190081 -5.29289e-05 -3.52151e-05 2.56428e-05 -4.10574e-05 0.5764366386 -0.6289093288
430297420.0 -0.5394710825 0.653597879 5.53528e-05 -7.10825e-05 5.94061e-05 7.73434e-05 0.5707685724 -0.6348600832
435297390.0 -0.5323537324 0.6590664513 0.0001132859 -9.83007e-05 -8.26294e-05 0.000155412 0.564437785 -0.6405060499
440297360.0 -0.525155849 0.6646494669 -0.0001035228 0.000125129 3.77697e-05 5.60121e-05 0.5580152687 -0.6455674962
445297330.0 -0.5188871396 0.6701009793 8.31023e-05 0.0003455894 1.87029e-05 -3.15037e-05 0.5516627384 -0.6515790751
450297300.0 -0.5109556443 0.6744761728 2.87136e-05 -0.0001345134 -3.04022e-05 9.65281e-05 0.5448636646 -0.6561776448
455297270.0 -0.5041322066 0.6803516606 0.0001242111 -9.20756e-05 -0.0001898774 0.000111797 0.5387728549 -0.6621739845
460297240.0 -0.4977606685 0.6856206116 0.0001267763 5.03214e-05 9.45094e-05 0.0001511739 0.5328076329 -0.6666642792
465297210.0 -0.4898103966 0.6899678678 -2.53327e-05 8.99798e-05 0.0001258095 2.42293e-05 0.5253057651 -0.6723808947
470297180.0 -0.4826865989 0.6949232128 6.09374e-05 -9.37842e-05 -4.62392e-05 -7.56477e-05 0.518431548 -0.6768100892
475297150.0 -0.4757871523 0.70041974 5.36453e-05 -0.0002479594 -9.82361e-05 4.14718e-05 0.5122520828 -0.6819495052
480297120.0 -0.4689359499 0.7046682729 0.000189804 -0.0002500707 -0.0001296071 -1.62476e-05 0.5052107866 -0.6866165906
485297090.0 -0.4608729782 0.7092316712 -6.3786e-05 0.0002244844 0.000216703 -2.09977e-05 0.4983789955 -0.6920689981
490297060.0 -0.4539436986 0.7139356067 -7.67546e-05 1.58493e-05 0.0002298665 0.000180329 0.4912937363 -0.6963157106
495297030.0 -0.4472621816 0.7192092654 4.00579e-05 8.16309e-05 0.0001616019 -1.355e-07 0.4852249896 -0.7014371504
500297000.0 -0.4385827193 0.7237252187 0.0002578933 -4.84703e-05 -0.0001191898 0.0002995239 0.4774917721 -0.7060127312
505296970.0 -0.4310975817 0.7270723165 6.28735e-05 -4.66978e-05 -3.64466e-05 -3.65576e-05 0.470218065 -0.71107593
510296940.0 -0.4241364396 0.7315986596 0.0001343098 -1.22174e-05 -9.55426e-05 0.0001180302 0.4632412479 -0.7148994709
515296910.0 -0.417383615 0.7358261172 6.32215e-05 0.0002424883 -1.6739e-06 -2.92102e-05 0.4558596416 -0.7189976599
520296880.0 -0.4096127465 0.7406439783 -0.0001325054 3.48208e-05 -0.0001264475 -0.0001578692 0.4491463131 -0.723787382
525296850.0 -0.4022043355 0.7443740107 -7.02719e-05 0.000197455 -0.0001017029 -6.50257e-05 0.4420493289 -0.7276498525
530296820.0 -0.3944235612 0.7484308436 -1.14861e-05 -7.16341e-05 8.33714e-05 -1.71069e-05 0.4341642326 -0.7325565078
535296790.0 -0.3860367857 0.7521446043 0.0001200613 -2.1947e-05 0.0002814522 6.98513e-05 0.4269837756 -0.7372286527
540296760.0 -0.3787182446 0.7561427562 2.29752e-05 -1.0769e-05 -3.48109e-05 -8.07585e-05 0.4195934545 -0.7409009808
545296730.0 -0.3711333557 0.7598535559 0.000117246 -2.3083e-06 -9.44972e-05 9.28533e-05 0.4123663377 -0.7455733593
550296700.0 -0.3633712219 0.7638533529 -5.2627e-06 0.0002249329 -7.65311e-05 0.0001041824 0.4051548464 -0.7493638756
555296670.0 -0.3549262512 0.7668309775 -4.13082e-05 3.12126e-05 0.0002598402 4.53018e-05 0.3976392713 -0.7525618884
560296640.0 -0.3471570758 0.7709707913 -0.0001200359 6.92908e-05 8.68333e-05 8.38321e-05 0.3899422286 -0.7565392536
565296610.0 -0.3399478702 0.7738653156 -0.0001252604 4.32598e-05 -0.0002725112 0.000127871 0.3827328159 -0.7603821428
570296580.0 -0.3319279426 0.7770532437 8.09781e-05 7.29314e-05 -3.634e-06 1.02572e-05 0.374526291 -0.76353914
575296550.0 -0.3235533395 0.780486088 -5.5727e-05 2.25042e-05 -9.00851e-05 0.0002036037 0.3666902166 -0.767337809
580296520.0 -0.3152243281 0.7839013303 -0.0001505538 -9.85089e-05 4.0977e-06 -4.95507e-05 0.3589948464 -0.7708541178
585296490.0 -0.3078875992 0.7865203465 -0.0001791985 -0.0001686382 0.0001271591 -6.37522e-05 0.3518821634 -0.7750117522
590296460.0 -0.3000202928 0.7899499144 0.000150053 1.23478e-05 8.9691e-05 0.0001115555 0.3436565708 -0.778141676
595296430.0 -0.2914931672 0.7935356319 5.84193e-05 0.0001066096 8.95937e-05 -0.0001097293 0.3353067963 -0.780724034
600296400.0 -0.2833152181 0.7955901593 0.0002317203 -4.60524e-05 7.2274e-06 -7.78743e-05 0.3278881356 -0.783933217
605296370.0 -0.2754976854 0.7985256986 -6.02865e-05 0.0001644833 -1.90998e-05 2.81335e-05 0.3199771275 -0.7876578554
610296340.0 -0.2674937572 0.801258767 7.5833e-06 0.0003219832 6.28695e-05 -0.0001633399 0.3119113366 -0.7899340131
615296310.0 -0.2590973469 0.8044404526 -8.11162e-05 0.000147424 0.0001110844 -5.55419e-05 0.304763501 -0.7936243866
620296280.0 -0.2507859515 0.806476583 -4.51184e-05 -0.0001408772 3.06034e-05 0.000131337 0.2963470572 -0.7965837695
625296250.0 -0.2430555334 0.8093446924 -0.0002048928 -1.3026e-06 -0.0001077964 1.02362e-05 0.2877668115 -0.7982637915
630296220.0 -0.2346065808 0.812103179 -0.0003348125 3.62552e-05 -7.31806e-05 6.31507e-05 0.2800883569 -0.8013600591
635296190.0 -0.2261401843 0.8137636294 0.000145892 -0.000154251 -0.0001201303 0.0001030219 0.2724941352 -0.8037086182
640296160.0 -0.2180793351 0.8154117046 -3.19385e-05 -6.72299e-05 -1.55835e-05 -9.42873e-05 0.2640891215 -0.80685242
645296130.0 -0.2099111197 0.8177032929 8.52044e-05 5.7355e-06 1.32567e-05 0.0001652529 0.2560083808 -0.8090363929
650296100.0 -0.2020764307 0.8203377399 -9.71232e-05 -3.35136e-05 3.28688e-05 7.17556e-05 0.2479586313 -0.8109808857
655296070.0 -0.1926451857 0.8221968745 -0.0001338701 1.6279e-06 1.09537e-05 5.92781e-05 0.2394809708 -0.8136672853
660296040.0 -0.1850394996 0.8241130246 2.06628e-05 0.0002055433 -8.09145e-05 8.16392e-05 0.2317196033 -0.8157635641
665296010.0 -0.1771821345 0.8259740959 7.09633e-05 8.37639e-05 4.5252e-06 -2.98199e-05 0.2240366747 -0.8179269836
670295980.0 -0.1677253273 0.8271130538 0.0001789862 -9.99213e-05 0.0002430614 0.0001456859 0.2154824575 -0.8201399009
675295950.0 -0.1598930089 0.8288312067 -0.0002483343 0.000153239 1.00494e-05 2.54586e-05 0.2075490973 -0.8214509356
680295920.0 -0.1515476414 0.8309369318 -9.17372e-05 -3.8179e-05 -0.0001406735 -0.0001741908 0.198773406 -0.8239722683
685295890.0 -0.1429998527 0.8319572528 3.56638e-05 3.4402e-06 8.8023e-06 -0.0002095507 0.1909419032 -0.8256093021
690295860.0 -0.1345459118 0.8334109397 -0.0002099937 4.40552e-05 -7.57595e-05 -3.90488e-05 0.1830768733 -0.826992573
695295830.0 -0.1260260793 0.8341334002 -5.3601e-05 1.07065e-05 7.11055e-05 -0.0001302929 0.1738670392 -0.8287598217
700295800.0 -0.1179753199 0.8357343807 1.04003e-05 -8.2129e-05 -3.83033e-05 7.39758e-05 0.1656997091 -0.8302225268
705295770.0 -0.108495959 0.8374973628 -0.0002962682 1.6432e-05 -0.0001292861 -0.000282723 0.1571416465 -0.8312187205
710295740.0 -0.1011420261 0.8386363549 -5.93728e-05 -0.0001400151 0.0002532904 9.80129e-05 0.1487252308 -0.832776724
715295710.0 -0.0928773676 0.8392827683 5.01515e-05 9.3697e-06 9.61505e-05 -4.53973e-05 0.1412837732 -0.8345504077
720295680.0 -0.0840162968 0.839710556 0.0001183049 -5.58071e-05 0.0001204658 2.69495e-05 0.1324911946 -0.8357666659
725295650.0 -0.0754920957 0.8407457302 -3.49547e-05 0.0001965827 7.732e-07 -0.0001058931 0.1244263401 -0.8365350761
730295620.0 -0.067335276 0.8412330121 0.000175204 0.0002346828 -2.478e-05 -0.000135468 0.1158278146 -0.837998659
735295590.0 -0.0582805617 0.8418874497 7.94376e-05 -0.0001471598 -5.85473e-05 5.04304e-05 0.107596533 -0.8390802935
740295560.0 -0.049813383 0.8424341968 -0.0001180978 2.14101e-05 6.60835e-05 -8.56854e-05 0.0991815783 -0.8399247162
745295530.0 -0.041845868 0.8427864635 2.13918e-05 0.000122199 -6.39984e-05 3.80224e-05 0.090290798 -0.8402524137
750295500.0 -0.033592833 0.8430159431 2.71103e-05 -2.73774e-05 9.7626e-05 -0.0001246791 0.0828683233 -0.8416866641
755295470.0 -0.024157912 0.8435406288 5.6504e-06 3.65707e-05 2.01323e-05 -0.0001475679 0.0737727196 -0.8411407194
760295440.0 -0.0159403362 0.8432189656 1.52719e-05 -0.0001023519 5.94958e-05 -5.61757e-05 0.0650755495 -0.8427474286
765295410.0 -0.0078955112 0.8438918311 -0.000129185 1.31727e-05 0.0001052771 -1.2811e-06 0.057307102 -0.8426112295
770295380.0 0.0008108168 0.8439296779 0.0002449451 -2.16964e-05 3.34792e-05 -6.8826e-06 0.0489765964 -0.8432643034
775295350.0 0.0087831762 0.8435640655 -3.19171e-05 8.26343e-05 0.0001194054 -1.87033e-05 0.0402374647 -0.8444981993
780295320.0 0.0181167595 0.8431932891 0.0001287915 -6.95795e-05 4.5353e-06 -9.89857e-05 0.0317672547 -0.8433865557
785295290.0 0.0257821859 0.8441373998 -8.82213e-05 6.43724e-05 -0.0001093337 -7.22093e-05 0.0231505298 -0.8437198605
790295260.0 0.0342321818 0.8429398478 -0.0001253776 9.78529e-05 8.86308e-05 0.0001287011 0.0151015576 -0.8443443093
795295230.0 0.0427285755 0.843173943 0.0002617816 0.0001314963 -8.83096e-05 -0.0001839576 0.0065339406 -0.8439404805
800295200.0 0.0515590658 0.8426612912 8.57584e-05 9.40631e-05 7.739e-06 9.1528e-05 -0.0020185991 -0.8439250325
805295170.0 0.0601994219 0.8423855262 -0.0001262411 -4.76928e-05 -9.40664e-05 -0.0001234307 -0.0102939917 -0.8438339856
810295140.0 0.0679953971 0.8411916582 -0.0001036705 1.70403e-05 -3.49655e-05 -5.58559e-05 -0.0183517632 -0.8429149772
815295110.0 0.0765507418 0.8406811872 -0.0001012421 -7.4936e-05 -0.0001701407 9.74737e-05 -0.0279259429 -0.8426520191
820295080.0 0.0854033096 0.8388821072 -0.0001184108 0.0002590321 -0.0001522663 0.000100343 -0.0361342171 -0.8428783378
825295050.0 0.094056552 0.8386303581 4.87536e-05 -0.0001352456 -2.09916e-05 -3.31376e-05 -0.0438710562 -0.8420921855
830295020.0 0.1019667555 0.8375529509 -0.000159654 0.0001135264 -3.0122e-05 0.0001088484 -0.053055749 -0.8417672961
835294990.0 0.1102598201 0.8370306751 0.0001556517 -4.42729e-05 3.03685e-05 3.8376e-06 -0.0608472324 -0.8410617063
840294960.0 0.1189326253 0.8350921202 -0.0001594449 2.75968e-05 -8.76509e-05 -2.24479e-05 -0.0699678234 -0.8390987743
845294930.0 0.1268771468 0.834994391 0.0001160129 3.56187e-05 -1.98887e-05 -0.0001471927 -0.0773346399 -0.8388942194
850294900.0 0.1354957268 0.8323784363 -0.0001146962 -0.0001924413 -9.99728e-05 7.85153e-05 -0.0861180295 -0.8378781092
