!Created with skrf (http://scikit-rf.org).
# Hz S RI R 50.0 
!freq ReS11 ImS11 ReS21 ImS21 ReS12 ImS12 ReS22 ImS22
300000.0 -0.0473713212 -0.0423989757 -0.0006232133 0.0011353057 0.0003547281 0.0012362563 -0.7757681746 -0.1272304251
5299970.0 -0.0498505911 0.0161660047 3.66488e-05 7.61224e-05 -0.0001907057 -6.31001e-05 -0.7849477366 -0.0069011684
10299940.0 -0.0441601542 0.0328282091 -0.0003202701 -7.5871e-06 -8.00013e-05 -6.64243e-05 -0.7873342016 -0.0035130602
15299910.0 -0.0360655903 0.0468446008 8.27171e-05 -4.55903e-05 -0.0001468057 7.46594e-05 -0.7930284916 -0.001529211
20299880.0 -0.0260473132 0.058671782 5.56799e-05 -8.47103e-05 -0.0001298066 -0.0002341638 -0.7997983111 0.0021869515
25299850.0 -0.0153118218 0.0681854444 -0.0001977134 -6.4038e-06 -0.0002066351 -4.18206e-05 -0.8062798448 0.0078584867
30299820.0 -0.0043722262 0.0748841279 -0.000122421 8.3351e-05 -0.000170915 0.000139948 -0.8120033229 0.0161138715
35299790.0 0.0070807895 0.079692555 -3.24897e-05 -1.44725e-05 4.02861e-05 -4.35965e-05 -0.8175685664 0.025237923
40299760.0 0.0186771857 0.0827318462 -8.196e-06 0.0002407233 -7.88801e-05 -5.07672e-05 -0.8212303204 0.0347309105
45299730.0 0.0294570886 0.0842668402 -2.01717e-05 -4.28941e-05 -8.33001e-05 8.19172e-05 -0.8248758422 0.043629393
50299700.0 0.0391624132 0.0846574636 9.19719e-05 0.0001669022 4.01212e-05 -8.46336e-05 -0.8270303785 0.0536991271
55299670.0 0.0484014751 0.0837047279 -1.27878e-05 -5.45783e-05 -6.61646e-05 -1.108e-06 -0.8294085375 0.0647330658
60299640.0 0.0570604409 0.082173246 0.0001454313 2.15097e-05 -3.37834e-05 6.44716e-05 -0.8303930082 0.0741810264
65299610.0 0.064687373 0.0794215185 0.0001752779 -0.0001510813 0.0002346419 -6.16485e-05 -0.8318617428 0.0838237147
70299580.0 0.0716564192 0.0769940064 4.19551e-05 -7.06332e-05 7.52949e-05 0.0001460779 -0.8319733417 0.0944570671
75299550.0 0.0779705607 0.0740357336 9.84828e-05 -5.6939e-06 -4.16711e-05 0.0001339432 -0.8325286169 0.1037315239
80299520.0 0.0837845123 0.0705592174 0.0001489248 -8.0037e-06 0.0001058399 -4.30612e-05 -0.8320093534 0.1137559509
85299490.0 0.0885585554 0.0665968596 -7.4225e-06 7.50255e-05 -3.9967e-06 5.5115e-05 -0.8317778751 0.1234796228
90299460.0 0.0932968423 0.0633948284 0.0001031348 8.86465e-05 -6.6508e-06 0.0001262853 -0.8308507589 0.1332031744
95299430.0 0.0976617599 0.05908199 -9.92738e-05 -1.30306e-05 0.0001766865 4.77612e-05 -0.8291882978 0.1430461857
100299400.0 0.1009945195 0.0555599351 3.45607e-05 7.06111e-05 -2.16774e-05 0.000132745 -0.8283179137 0.1522174705
105299370.0 0.1045043827 0.0518191283 0.0002588834 -9.96093e-05 -1.55172e-05 5.22665e-05 -0.8271106511 0.1609023969
110299340.0 0.1074043524 0.0479061629 0.0001951101 -5.36e-06 5.717e-07 0.0001652664 -0.8258299168 0.1706486149
115299310.0 0.1100833895 0.0439664029 0.0002035337 0.0002803908 0.0001526236 0.0001468423 -0.8239589873 0.1798345569
120299280.0 0.1123397964 0.0401784375 1.8468e-06 -1.6157e-05 -0.0001488577 -2.92575e-05 -0.8224740919 0.1885847743
125299250.0 0.1141664969 0.0362612669 8.58789e-05 0.0001389517 4.44556e-05 0.0003144928 -0.8210137937 0.198010789
130299220.0 0.1159035913 0.0330961824 7.60951e-05 1.91721e-05 3.28577e-05 9.20376e-05 -0.8191833286 0.2071349526
135299190.0 0.1175839984 0.0295299856 -4.13179e-05 0.0002786876 -8.63903e-05 0.0001300871 -0.8168119613 0.2157693838
140299160.0 0.1185624213 0.026006548 8.1073e-06 0.0002315394 0.0001907806 9.34409e-05 -0.81423884 0.224859403
145299130.0 0.1200311736 0.0221823812 2.01165e-05 0.0002006232 -2.7216e-05 -4.32002e-05 -0.8120514653 0.2337832034
150299100.0 0.1209236643 0.0191630209 0.0001750013 -6.04618e-05 0.0001663747 0.0002286647 -0.8104973346 0.2427528206
155299070.0 0.12134542 0.0158111496 2.32149e-05 8.71225e-05 9.27684e-05 0.0001936634 -0.807739806 0.2518833646
160299040.0 0.1221068026 0.0127234376 4.02897e-05 0.0001080174 8.30951e-05 0.0002080977 -0.8052704354 0.2606470165
165299010.0 0.1229906216 0.0099034661 -6.36693e-05 2.01484e-05 3.97694e-05 5.98245e-05 -0.8029334681 0.2697176817
170298980.0 0.1232072272 0.0069311307 0.0001518481 0.0001105755 4.94822e-05 7.08292e-05 -0.7993783208 0.2780406373
175298950.0 0.1235032864 0.0038381969 -3.32847e-05 0.0002160593 0.0001229967 0.0002433961 -0.7969631938 0.2872179803
180298920.0 0.1237120455 0.0011883196 5.83606e-05 0.0001147428 5.13107e-05 8.29947e-05 -0.7937231569 0.295567548
185298890.0 0.1240530038 -0.0018493468 0.0001753471 7.9604e-05 -0.0001526162 1.32593e-05 -0.7902996975 0.3039005511
190298860.0 0.1241566831 -0.0047835505 -0.0002402503 0.0002046107 3.0657e-05 0.0001785494 -0.7885637277 0.3122777137
195298830.0 0.1239826745 -0.007231202 -4.79322e-05 6.49729e-05 0.000186569 3.32964e-05 -0.78454577 0.3209919491
200298800.0 0.1237764041 -0.0095836741 0.0001006471 8.01893e-05 0.0001166617 0.0002493863 -0.7819872672 0.3286608389
205298770.0 0.1239134857 -0.0123858624 -2.3248e-06 -4.72358e-05 0.0002456662 0.0001750409 -0.7778426166 0.3371184524
210298740.0 0.1234379795 -0.0149410118 8.55707e-05 0.0001711821 -4.21336e-05 0.000139304 -0.7743017473 0.3457256528
215298710.0 0.1230881671 -0.0173668183 4.22245e-05 0.0002614876 0.0001343635 4.31702e-05 -0.7707590395 0.3543379298
220298680.0 0.1228549836 -0.0199144206 0.0002457408 9.62318e-05 -2.24641e-05 0.0002008561 -0.7675200582 0.3621640321
225298650.0 0.1220518884 -0.0222082413 -0.0001050456 0.000228385 -0.0001169915 -0.0001159552 -0.7639008482 0.3702644456
230298620.0 0.1217252964 -0.0246046877 0.0002118578 0.0001755271 0.0001657613 4.42077e-05 -0.76004186 0.3783777059
235298590.0 0.1214588899 -0.0267253202 -3.4627e-05 -6.76306e-05 8.131e-05 -0.0001557053 -0.7555208221 0.3870893312
240298560.0 0.1208484303 -0.029086743 -1.55969e-05 6.27384e-05 0.0001710351 8.84738e-05 -0.7517279676 0.3950732073
245298530.0 0.1203922047 -0.0312248014 0.000161038 0.0002651189 5.82196e-05 0.0002397683 -0.7475354588 0.4023571589
250298500.0 0.1197556815 -0.0332871571 0.0004737045 0.0001809092 0.0001871858 -0.000133293 -0.7435867585 0.4100281994
255298470.0 0.1187667015 -0.0353630205 0.0001029251 -2.86634e-05 0.0002030547 0.0002023179 -0.7387513971 0.4180137602
260298440.0 0.1182086767 -0.037479031 0.0004201951 0.0001861193 0.0001466235 -7.37232e-05 -0.7345906871 0.4263899616
265298410.0 0.117485079 -0.0391953814 -4.54638e-05 0.0001236536 0.0001852005 8.74523e-05 -0.7301254965 0.4338064272
270298380.0 0.1167737305 -0.0412743312 0.000102022 0.0002651827 4.06552e-05 -0.0001025485 -0.7257562904 0.4412570247
275298350.0 0.1157920081 -0.0432078333 0.0002312376 0.0001531996 0.0001408456 0.0001419166 -0.7206965329 0.4486558035
280298320.0 0.1154651828 -0.0449606123 -6.10268e-05 0.0002792905 2.47052e-05 0.0001149027 -0.7157761898 0.4561663497
285298290.0 0.1148891892 -0.0465833314 0.0002101439 0.0001234094 0.0001295572 0.0002931771 -0.7108494603 0.4640526246
290298260.0 0.1139386755 -0.0486429324 0.0001783444 0.0001328039 0.0001956044 -6.51586e-05 -0.706291744 0.4711146789
295298230.0 0.1129778217 -0.0507767609 0.0001312311 8.56659e-05 0.0001226194 0.0002501303 -0.7009749327 0.4776796272
300298200.0 0.1121907024 -0.0521163199 0.0001367047 9.64114e-05 0.0001290685 0.0001215411 -0.6962743317 0.4855767705
305298170.0 0.1114448929 -0.0540650662 8.13689e-05 -6.89931e-05 0.0002170748 7.70256e-05 -0.6897955261 0.4929922094
310298140.0 0.1102992597 -0.0556245578 -2.9005e-05 0.0001848056 8.02513e-05 0.0002985569 -0.6859727983 0.4996992285
315298110.0 0.1096430354 -0.0576647822 0.000152411 0.0001789159 9.01876e-05 -0.0001084431 -0.680464486 0.5071224113
320298080.0 0.1086891646 -0.0593370498 1.6361e-06 0.0001295549 0.0002652109 5.58465e-05 -0.6749585427 0.5146061953
325298050.0 0.1076254497 -0.0612773237 0.0002145915 0.0002790488 0.0002217091 -0.0001211528 -0.6692373482 0.5211240991
330298020.0 0.1063702807 -0.0630802114 2.3568e-05 0.0003295841 3.53434e-05 -7.36785e-05 -0.6633907868 0.5288758633
335297990.0 0.105000369 -0.0647355981 -3.27766e-05 0.0001658829 0.0001607924 0.000105003 -0.6580889564 0.5349237007
340297960.0 0.103444356 -0.0660959538 0.0002036273 -0.0001303855 1.96902e-05 0.000281346 -0.6527223558 0.5425595364
345297930.0 0.1022204385 -0.0672055381 0.0002630651 -0.0001390851 0.0002957325 7.34629e-05 -0.6467848904 0.5486787292
350297900.0 0.1012284271 -0.0686600763 1.42849e-05 9.14209e-05 0.0001047227 9.491e-07 -0.6415704388 0.5555801849
355297870.0 0.1001373748 -0.0701737417 0.000251147 0.0003108685 -6.1015e-06 8.86446e-05 -0.6353151949 0.5618858731
360297840.0 0.0989313355 -0.0711077008 8.86152e-05 3.62096e-05 -2.85329e-05 1.76544e-05 -0.6297249422 0.5689370193
365297810.0 0.0975109927 -0.0724360256 0.0001278828 0.0001631872 0.0003796178 0.0001059308 -0.6234601237 0.5752506621
370297780.0 0.0965914291 -0.0735261377 6.60809e-05 0.0003422621 0.0001515739 5.11058e-05 -0.617584875 0.5819774463
375297750.0 0.0955159092 -0.0749453536 0.000161994 0.000252672 0.0001364945 -0.0002241144 -0.6116306788 0.5878250155
380297720.0 0.0941043626 -0.0762738655 -5.70481e-05 0.0001921793 0.0002010979 0.0001903731 -0.605379828 0.5944780665
385297690.0 0.0924857884 -0.0767603795 0.00041964 -3.86077e-05 0.0001747897 -1.48625e-05 -0.5988055783 0.6007363032
390297660.0 0.0915700885 -0.078274006 0.0002828186 8.86304e-05 0.0001327495 9.81387e-05 -0.5934119877 0.6067211698
395297630.0 0.0903569973 -0.0796028597 0.0002467721 9.96084e-05 0.0002312865 5.77704e-05 -0.5862938453 0.6132774523
400297600.0 0.0893550185 -0.0803938929 0.000182269 0.0002890348 0.0005267859 -1.33741e-05 -0.5806461073 0.6191141603
405297570.0 0.0876106442 -0.0815104989 0.0002016061 0.0001357284 0.0003504962 0.0002612909 -0.5738206241 0.6252338845
410297540.0 0.0864729441 -0.0826301826 0.0001906624 1.56488e-05 0.0002277492 0.0002161463 -0.5673101028 0.6308864058
415297510.0 0.085216621 -0.0838848868 0.0002028311 0.0001892448 0.0004010167 -9.9405e-06 -0.561039856 0.636503245
420297480.0 0.0841919836 -0.084557697 0.0004010605 9.70674e-05 0.000152863 0.0001264277 -0.5543625019 0.6430082063
425297450.0 0.0828963995 -0.0859029513 0.0001080001 0.0002716705 0.0002364012 0.0001840659 -0.5480788468 0.6479944633
430297420.0 0.0814491561 -0.0868356855 0.000168992 -6.88782e-05 0.0002217472 -3.06598e-05 -0.5415380959 0.6529918232
435297390.0 0.0803261982 -0.0880289256 0.000127248 0.0001858001 0.0002732738 0.0001807142 -0.5340313549 0.6585400339
440297360.0 0.0786819689 -0.0886000477 7.21149e-05 -2.27777e-05 0.0002980895 8.56528e-05 -0.5270983588 0.6641553732
445297330.0 0.077562841 -0.0895578083 0.0005512759 0.000116661 0.0001522334 0.0001070003 -0.5203359345 0.6685911197
450297300.0 0.0762261633 -0.090614748 4.5429e-05 0.0002318186 -5.73823e-05 -0.0001644063 -0.5132706648 0.6739192468
455297270.0 0.0747378224 -0.0913902337 0.0003070715 0.0002272137 9.2938e-06 6.2912e-06 -0.5066009853 0.678787366
460297240.0 0.0735583949 -0.0923291083 0.0002368511 0.0002047385 0.0001765889 6.68047e-05 -0.4997506906 0.6840661419
465297210.0 0.0722044524 -0.0930768758 0.0001353381 0.0002605708 0.0001833218 0.0002255763 -0.4921849228 0.6892445179
470297180.0 0.0708356348 -0.0937128148 0.0005365725 0.0001343418 0.0003764158 7.45387e-05 -0.4845122869 0.6943443344
475297150.0 0.0693620842 -0.0948288183 0.0003217055 -5.11724e-05 0.0002697303 0.0002083003 -0.4778076086 0.6986995571
480297120.0 0.0682105796 -0.0951962528 0.000451216 -7.90212e-05 0.0002981697 -2.00103e-05 -0.4702328392 0.703953091
485297090.0 0.0667010866 -0.0959921751 0.0002705289 -3.03023e-05 0.0005400983 0.0002102987 -0.463357191 0.7083836348
490297060.0 0.0652564613 -0.0965750365 4.47566e-05 7.69129e-05 0.0004440761 -9.04831e-05 -0.4560011333 0.7125291707
495297030.0 0.0637549639 -0.0975311485 0.0004494529 0.0001598431 0.000114429 0.0002769717 -0.4484276671 0.7177451893
500297000.0 0.0624375112 -0.0984068792 0.0003519841 0.0002704214 0.0003255361 0.0001584445 -0.4409066812 0.7222948763
505296970.0 0.0614405201 -0.0987645509 0.0003538674 0.0001157199 0.0001691755 0.0001862321 -0.43380948 0.7268116271
510296940.0 0.059790112 -0.099740315 0.0003475776 0.0001601925 2.72534e-05 2.11998e-05 -0.426279331 0.7307668976
515296910.0 0.0584285961 -0.1003099027 0.0002538148 3.94632e-05 0.000363681 7.91464e-05 -0.4184378111 0.7354019764
520296880.0 0.0569407265 -0.1006303919 0.0003775522 0.0001920544 0.0001756944 0.0001755581 -0.4107764388 0.7391886713
525296850.0 0.0557810217 -0.1014593384 0.0001807285 9.6007e-05 0.0002167206 -0.0001007334 -0.4042624474 0.7438612947
530296820.0 0.0540652376 -0.1017465758 0.0002527134 9.54596e-05 0.0001737906 0.0001309321 -0.3961470892 0.7480241362
535296790.0 0.0527284643 -0.1023287123 0.0003788426 0.0002366997 0.0002105339 0.0001181476 -0.3893284684 0.7513933573
540296760.0 0.0510886469 -0.1030655832 0.0001883587 0.0002260284 0.0003095238 0.0001979555 -0.3808285887 0.7556976537
545296730.0 0.0499391512 -0.1032775954 0.0001799994 0.0001908261 0.000160444 0.000253562 -0.3737439778 0.7592873406
550296700.0 0.0487235243 -0.103687532 0.0003678715 1.07146e-05 0.0002957478 0.0001376023 -0.3660861404 0.7634408477
555296670.0 0.0469510337 -0.1041506222 0.0003079327 0.0001948884 0.0003878559 -0.0002118559 -0.3579348778 0.7670142659
560296640.0 0.0456765042 -0.1046253824 0.0003276895 -0.0001186679 0.0001860317 5.6172e-05 -0.3497551646 0.7709413302
565296610.0 0.0441429704 -0.1047654466 0.0003480504 -2.6582e-06 0.0002104246 0.0002076038 -0.3418335971 0.7739483593
570296580.0 0.0427670925 -0.1052689186 0.0003306397 2.88679e-05 0.0002083415 -9.3299e-06 -0.3345826305 0.7782524481
575296550.0 0.0410927253 -0.1054701158 0.0001622615 0.0001600658 0.0004891431 0.0001781955 -0.3264503765 0.7810681624
580296520.0 0.0400847027 -0.1061754893 0.0001134039 0.0002277308 0.0004313492 0.0002253828 -0.3180428752 0.7842534677
585296490.0 0.0380191797 -0.1068648332 0.0001398099 -1.53574e-05 0.0002443014 1.97079e-05 -0.3108874044 0.787874286
590296460.0 0.0372362395 -0.1063877171 0.000413774 -4.67033e-05 0.0001706028 0.0002717962 -0.3030684332 0.78993247
595296430.0 0.0352614189 -0.1070314446 0.0003531423 1.72807e-05 0.0004065915 9.37447e-05 -0.2946719761 0.7922913668
600296400.0 0.03373596 -0.1070726113 -6.54024e-05 -1.06918e-05 0.0004945266 6.40729e-05 -0.2865659169 0.7956635101
605296370.0 0.032465281 -0.1076569163 0.0004269172 0.0001215468 0.0003827094 5.16879e-05 -0.2777783811 0.7987253413
610296340.0 0.0309881723 -0.1075829697 9.65836e-05 -6.4648e-05 0.0003771903 0.0001759718 -0.2706841815 0.8010885945
615296310.0 0.0296426991 -0.1079330077 0.0003132277 -4.03262e-05 0.0004472927 -0.0001427277 -0.2618432981 0.8036727087
620296280.0 0.0279872059 -0.1079402498 0.0001960982 0.000137703 0.000235941 -0.0001847376 -0.2542816881 0.8064302233
625296250.0 0.0265416349 -0.10853753 0.0004939684 9.78251e-05 0.0005593352 9.94804e-05 -0.2456449879 0.8083074798
630296220.0 0.0254406492 -0.1086952137 0.0003610315 9.40579e-05 0.0002413532 5.58734e-05 -0.2375057843 0.8113765514
635296190.0 0.023696871 -0.1086273425 0.000263227 3.23052e-05 0.0006022269 -2.05122e-05 -0.2294809725 0.8129178664
640296160.0 0.0222647536 -0.1088168686 0.0003759771 1.32002e-05 0.0003029444 2.28527e-05 -0.2212031703 0.8157270541
645296130.0 0.0207754987 -0.1084435065 0.0003746519 1.62068e-05 0.0003426765 9.74132e-05 -0.2132117764 0.81788164
650296100.0 0.019420448 -0.1088834028 0.0003860367 -8.41391e-05 0.0002764473 0.0001154478 -0.2049157606 0.819095897
655296070.0 0.0179864973 -0.1087403732 0.0004001768 0.000117985 0.0003942713 -3.85176e-05 -0.1960540309 0.8210376144
660296040.0 0.016235916 -0.1087742063 0.0003526383 -5.07164e-05 0.0003577525 0.0002130647 -0.1873357612 0.8235594669
665296010.0 0.0152041996 -0.1094448162 0.0003693272 0.0001423694 0.0003747694 2.84931e-05 -0.1798722764 0.8255475925
670295980.0 0.013294602 -0.109094638 0.0003966322 -6.40364e-05 0.0002488232 0.0001752495 -0.171520319 0.8265455717
675295950.0 0.01226883 -0.1088402369 0.0003397462 -4.87777e-05 0.0002690417 0.0001230663 -0.1633548385 0.8289499739
680295920.0 0.0106671589 -0.1084616875 0.0003813269 0.0001177114 0.0003773274 6.02293e-05 -0.1543492476 0.8310546073
685295890.0 0.0094975147 -0.1085308893 0.0002099784 -2.94921e-05 0.0001734916 0.0001964896 -0.1459863817 0.8319754236
690295860.0 0.0079586101 -0.1086547111 0.0002821222 -0.0001926567 0.0003778827 0.0001758688 -0.1382164988 0.8334995764
695295830.0 0.0062851696 -0.1084239929 0.0003723722 1.06933e-05 0.0003841959 -0.0003194893 -0.1293140582 0.8346522974
700295800.0 0.0050653488 -0.1083476273 0.0001323334 -8.2126e-06 0.00034456 -1.3665e-06 -0.1214898379 0.8362223961
705295770.0 0.0035093015 -0.1080125759 0.0002040395 0.0003606436 0.000334104 1.78168e-05 -0.113330946 0.8382725721
710295740.0 0.002081658 -0.1078082741 0.0005275578 4.848e-06 0.0002207121 -5.94736e-05 -0.1044755188 0.8389467734
715295710.0 0.0005288697 -0.1078708952 0.0003224732 -0.0001015104 0.0003080799 8.72331e-05 -0.0961435737 0.8397614309
720295680.0 -0.0008710977 -0.1077113251 0.0004327737 6.5669e-06 0.0003822881 -9.43548e-05 -0.0880016583 0.8406346134
725295650.0 -0.0020828558 -0.1073144857 0.0004185537 -0.0002382562 0.0002832566 7.4147e-06 -0.0798130576 0.8420668217
730295620.0 -0.0035464208 -0.106829268 0.0004081268 -9.95503e-05 0.0003745674 1.50334e-05 -0.0716060328 0.8418508013
735295590.0 -0.0049294075 -0.1065883252 0.0003352847 -6.09682e-05 0.0005598674 0.0001803713 -0.0630744579 0.8430013987
740295560.0 -0.0064257328 -0.1063297142 0.0004000504 5.70632e-05 0.0003061537 -0.00014558 -0.0540791383 0.8436923002
745295530.0 -0.0080479175 -0.1061067368 0.0002095236 -1.06554e-05 0.0005637239 -7.06922e-05 -0.0458386427 0.8437976216
750295500.0 -0.0092090958 -0.1059316054 0.0005209377 -5.78267e-05 0.0003996673 -4.71521e-05 -0.0378981666 0.8443736451
755295470.0 -0.0106304267 -0.1055036785 0.0002146193 -0.0002579953 0.0004458728 -0.0001314448 -0.0287505538 0.8438246784
760295440.0 -0.0120774545 -0.1053165764 0.0007450837 -0.0002145916 0.0004433205 -4.66723e-05 -0.0204615159 0.844644134
765295410.0 -0.0135491068 -0.1048986378 0.0002727714 -0.0001190249 0.0004094018 -2.80068e-05 -0.0121996495 0.8451025571
770295380.0 -0.014827482 -0.104376916 0.0003250037 -1.55024e-05 0.0003517914 -9.0901e-05 -0.0038899484 0.844883386
775295350.0 -0.0164057098 -0.1041233003 0.0002369351 -0.0001092266 0.0004700537 0.0001410374 0.0039192751 0.8443706528
780295320.0 -0.0174358958 -0.1035180738 0.0002887041 0.0001802441 0.0005442838 6.04988e-05 0.012326617 0.8440339129
785295290.0 -0.0193481359 -0.103346594 0.0003938312 6.44241e-05 0.0004321255 -0.0001595783 0.0216526032 0.8440081367
790295260.0 -0.0199899614 -0.1026217617 0.0001621586 -0.0001564697 0.0003340906 2.8134e-06 0.0300837945 0.8442107954
795295230.0 -0.0216308634 -0.1020062963 0.0004271354 7.2782e-06 0.0003388232 -0.000141026 0.0387316264 0.843138126
800295200.0 -0.0231107211 -0.1018524941 0.0004672486 -4.8811e-06 0.0004718671 -5.85219e-05 0.0473534136 0.8426110953
805295170.0 -0.0241363186 -0.1014293305 0.0004910169 -4.53448e-05 0.0004216024 -0.0001441383 0.054929823 0.8425968311
810295140.0 -0.0255349711 -0.1008418639 0.0006614647 -0.0003059641 0.000330544 -7.77802e-05 0.0638714795 0.8416376689
815295110.0 -0.026977662 -0.1006042796 0.0004702055 -0.0003702794 0.0003653071 -4.33786e-05 0.0720013515 0.8413260551
820295080.0 -0.0284563369 -0.0996531359 0.0003964624 -0.000223066 0.0003868888 0.0001991819 0.0804453737 0.8406410888
825295050.0 -0.0294140959 -0.099375717 0.000363064 0.0001642104 0.0003135633 -7.35763e-05 0.0888692674 0.8398649973
830295020.0 -0.0310382071 -0.0987041068 0.000681516 -0.0004073252 0.0002671495 -0.0001500861 0.0980720339 0.8384719388
835294990.0 -0.0320271592 -0.097768874 0.0005488187 -0.0002136882 0.0003538243 2.58647e-05 0.1054919689 0.8379311114
840294960.0 -0.0334228999 -0.0973552976 0.0003300214 7.09318e-05 0.0006046713 -0.0003748024 0.1137369065 0.8364635249
845294930.0 -0.0345349748 -0.0964546206 0.0004406725 -0.0001548324 0.0003525998 -0.0002162244 0.1216120204 0.835358241
850294900.0 -0.0358529624 -0.0956999888 0.0006681305 -0.0002298541 0.000414438 -0.0002976334 0.1304462781 0.8338239892
