!Created with skrf (http://scikit-rf.org).
# Hz S RI R 50.0 
!freq ReS11 ImS11 ReS21 ImS21 ReS12 ImS12 ReS22 ImS22
300000.0 0.8596308097 -0.0021540852 -0.0008456322 -0.0003752058 -0.0005568822 0.0003286863 -0.7668000798 -0.1227188558
5299970.0 0.8590298969 -0.0107924071 -7.18088e-05 5.49405e-05 -0.0001861296 -0.0001139073 -0.7839320727 -0.0073168844
10299940.0 0.8579945697 -0.0192215846 0.0001091384 6.99466e-05 -6.94317e-05 4.62426e-05 -0.7871610868 -0.0034975121
15299910.0 0.8569939434 -0.0271709195 -4.9687e-05 4.86772e-05 -0.000148454 -0.0001474687 -0.7927982997 -0.0014177511
20299880.0 0.8567022862 -0.0355058147 -7.23396e-05 -9.09215e-05 4.3768e-05 2.23344e-05 -0.7998093921 0.0025091482
25299850.0 0.8559383887 -0.044359644 -0.0001281031 1.72147e-05 -4.30342e-05 6.166e-06 -0.8057780729 0.0083146905
30299820.0 0.8547592255 -0.052986041 -0.0001274202 -0.0002176444 -0.0001240681 -3.39023e-05 -0.8119442562 0.0163090122
35299790.0 0.8541080173 -0.0602987618 -0.0001111979 0.000173352 1.8721e-06 0.0001489272 -0.8170181315 0.0249250314
40299760.0 0.8534423685 -0.0695155015 7.04043e-05 -0.0001375136 -0.0001267993 3.17791e-05 -0.8210847435 0.0346111306
45299730.0 0.8533251348 -0.0775810908 1.87871e-05 4.4167e-06 1.86094e-05 5.27005e-05 -0.8249740434 0.0446776677
50299700.0 0.851919857 -0.0856199351 -3.27965e-05 8.41784e-05 0.0001638482 -1.83031e-05 -0.8271553602 0.0545069782
55299670.0 0.8507853131 -0.0938394652 1.47554e-05 5.6209e-06 2.10407e-05 -0.0001819023 -0.8297385763 0.0649685641
60299640.0 0.8495184693 -0.1015521625 -8.84675e-05 -7.28194e-05 0.000238433 -7.88116e-05 -0.8306387322 0.0744582264
65299610.0 0.8481859996 -0.1101577383 7.35288e-05 -0.0002610772 0.000113011 4.08113e-05 -0.8323476242 0.0842906954
70299580.0 0.8477517723 -0.1191497315 0.0002920885 7.84617e-05 0.0002596704 -0.0001120919 -0.8320916164 0.0944423129
75299550.0 0.8465577341 -0.1271768622 2.79716e-05 9.42183e-05 0.0001458033 -0.0001632362 -0.8326501948 0.1040017368
80299520.0 0.8443491629 -0.135255816 -1.37819e-05 0.0001025978 4.00622e-05 -5.97874e-05 -0.8324597242 0.1141264274
85299490.0 0.8434043008 -0.1437083529 -0.0001657309 0.0001095741 0.0001335285 0.0001033741 -0.8318428542 0.1240953762
90299460.0 0.8413911889 -0.1515659307 -1.77262e-05 0.0002744888 -2.12684e-05 -2.88929e-05 -0.8314056567 0.1330124066
95299430.0 0.8400003899 -0.1603239906 -6.20014e-05 7.22607e-05 -4.03674e-05 -0.0001344065 -0.829379433 0.1434506474
100299400.0 0.8381144679 -0.1681437759 -5.6776e-06 -7.94233e-05 9.75298e-05 -5.74037e-05 -0.8286450767 0.1525404022
105299370.0 0.8370950883 -0.1760564879 -8.18286e-05 0.0001047994 -5.43157e-05 -1.38126e-05 -0.8270072982 0.1611816806
110299340.0 0.8356913967 -0.184422355 4.29944e-05 -0.0002243821 -0.000191197 7.9243e-06 -0.8255660282 0.170949912
115299310.0 0.8331662021 -0.1927401856 6.78184e-05 0.0001437891 4.27824e-05 1.12253e-05 -0.8243607549 0.1799503861
120299280.0 0.8317716931 -0.2005538503 -2.34228e-05 3.85507e-05 1.94073e-05 -0.0001542016 -0.8224308813 0.1889974281
125299250.0 0.8289617054 -0.2089142746 6.1316e-06 1.32729e-05 8.78989e-05 -0.0001807195 -0.8213589289 0.1980250056
130299220.0 0.8273688833 -0.2167827218 -1.0921e-06 -7.3206e-06 -0.0001104149 -1.93147e-05 -0.8190012584 0.2071820648
135299190.0 0.8256162443 -0.2245327792 -0.0002128873 -8.65798e-05 5.12698e-05 0.0001067847 -0.8165172045 0.2163500876
140299160.0 0.8233945665 -0.2327672419 8.16694e-05 -0.0001530703 -0.0001976115 9.02273e-05 -0.8141019255 0.2255280528
145299130.0 0.8202992258 -0.2412986409 4.2323e-05 4.94512e-05 -9.52779e-05 0.0001688122 -0.8116776705 0.2343535462
150299100.0 0.818414458 -0.2492424229 0.0001479429 3.47212e-05 3.22063e-05 0.0002696455 -0.8105050721 0.2431148385
155299070.0 0.8150939272 -0.2572385667 1.15565e-05 -3.76729e-05 1.74819e-05 -4.75721e-05 -0.8072125074 0.2518757977
160299040.0 0.812237282 -0.2652066149 -3.25753e-05 -0.000220001 2.97185e-05 -0.0001137714 -0.8050008758 0.2606317474
165299010.0 0.8107426719 -0.2726735603 -7.78087e-05 9.44994e-05 -0.0001017761 -0.0001813711 -0.8022448863 0.2693911575
170298980.0 0.807280177 -0.2808831131 -0.0002840317 0.0001383106 -5.714e-05 7.61979e-05 -0.7992517544 0.2779794098
175298950.0 0.8045776107 -0.2888221768 -6.70907e-05 -4.91763e-05 0.000178149 -0.0002696115 -0.7963543992 0.2869574219
180298920.0 0.8018858558 -0.2962892148 0.00018038 8.73449e-05 -8.4915e-06 1.98973e-05 -0.7931740197 0.2955396006
185298890.0 0.7988090404 -0.3048766006 -0.0001455772 -0.0001773145 -0.0002168379 5.98924e-05 -0.7899627786 0.3042188931
190298860.0 0.7957057189 -0.3122037386 -4.69705e-05 -6.98304e-05 -0.0001927023 7.4198e-06 -0.7878753874 0.3124580687
195298830.0 0.7927851615 -0.3198019881 0.0001131892 2.40321e-05 2.25676e-05 -1.08994e-05 -0.784233345 0.3214256905
200298800.0 0.7886788377 -0.3272596698 -0.0001366716 -0.0001178937 -0.0001171897 1.4145e-05 -0.7815515045 0.3296431236
205298770.0 0.785475761 -0.3351341178 6.34987e-05 0.0001648386 6.1788e-06 8.79379e-05 -0.7774991816 0.3376276001
210298740.0 0.7822415292 -0.3426525106 5.45304e-05 -3.66153e-05 0.0001265708 -3.38994e-05 -0.7737568112 0.3464537826
215298710.0 0.7787623964 -0.3512349019 -0.0001719842 -7.40874e-05 5.1294e-05 -0.0001023445 -0.7708745357 0.3544828079
220298680.0 0.7756056417 -0.3581832991 -5.02948e-05 2.89893e-05 3.93951e-05 -0.0001570301 -0.7679074497 0.3621022091
225298650.0 0.7718321071 -0.3659390551 1.02065e-05 -7.94699e-05 -4.36351e-05 8.29215e-05 -0.7633340767 0.3699827408
230298620.0 0.7684475135 -0.3731831016 -8.86035e-05 0.0001388515 0.0001653847 0.000268004 -0.7593798825 0.3788188381
235298590.0 0.7638617941 -0.3806592694 0.0001471982 0.0001548234 0.0001185498 -4.03984e-05 -0.7556640112 0.3873468803
240298560.0 0.761072261 -0.3885480997 -0.0001221399 -8.05815e-05 -0.0001332696 0.0001252973 -0.7520638627 0.3960975444
245298530.0 0.7566507697 -0.3958511634 5.34945e-05 -4.00487e-05 -6.89112e-05 -5.50154e-05 -0.7481125671 0.4025395116
250298500.0 0.7527629507 -0.4028777487 -8.58725e-05 0.0001039244 -0.0002335995 -5.25154e-05 -0.7436199663 0.4106588188
255298470.0 0.7485347334 -0.4105455007 0.0002318289 6.9494e-06 0.000103252 0.0001267682 -0.7390109214 0.4182182586
260298440.0 0.7445590185 -0.4172221934 0.0002157512 -7.24655e-05 -4.50575e-05 -5.36632e-05 -0.7349580877 0.4266702979
265298410.0 0.7407551623 -0.4246747659 2.11197e-05 0.0002876456 -0.0001474087 5.05394e-05 -0.7301998553 0.4337129242
270298380.0 0.7362296598 -0.4317239989 -0.0001833108 -8.0242e-05 -3.00237e-05 -0.0001298217 -0.7260048507 0.4417197682
275298350.0 0.7322342014 -0.4388393912 2.80225e-05 -0.0002936986 9.1551e-05 0.0001157548 -0.7209874585 0.449270332
280298320.0 0.7277465896 -0.4461147933 4.09352e-05 -0.000154794 -0.0001655558 -3.76744e-05 -0.7154249118 0.456228206
285298290.0 0.7238448934 -0.4535544586 -0.000133189 -2.15889e-05 3.3614e-05 8.48995e-05 -0.7104350669 0.4634282839
290298260.0 0.7191798904 -0.460605944 0.0001766772 -9.67251e-05 3.14324e-05 -0.0001094794 -0.705931588 0.4711539308
295298230.0 0.7153194831 -0.4678625683 0.0002263251 -0.0001882098 -1.82215e-05 -0.0002424156 -0.7010106769 0.4777176504
300298200.0 0.7113129034 -0.4751252042 7.24644e-05 -1.27871e-05 -0.0001460491 4.2356e-05 -0.6958020103 0.485543216
305298170.0 0.706391027 -0.4823775503 1.1647e-05 6.57475e-05 -0.0002069703 3.73175e-05 -0.6901519617 0.4929257238
310298140.0 0.702067436 -0.4891211469 -0.0001158447 -0.0001242221 9.46965e-05 -8.16633e-05 -0.6852334895 0.5000306651
315298110.0 0.6975662147 -0.497256854 3.4145e-06 6.02929e-05 5.15989e-05 0.000158144 -0.6802244831 0.5069825305
320298080.0 0.692558734 -0.5041011376 -0.0001049156 7.76564e-05 5.7606e-06 0.0002522153 -0.6743311535 0.5145800301
325298050.0 0.6873166462 -0.5111325609 0.000120993 0.0001314484 -0.0002367918 -5.90564e-05 -0.6686472715 0.5214671789
330298020.0 0.6813217265 -0.5190454023 -7.59054e-05 -0.000322283 -0.0001399577 -8.03923e-05 -0.6630502717 0.5284786535
335297990.0 0.6751254793 -0.5252888893 6.36375e-05 -8.57716e-05 -2.55311e-05 -2.16668e-05 -0.6581792989 0.5354035425
340297960.0 0.6692327056 -0.5326108531 -0.0001027839 -0.0001375198 -0.0001382065 0.0001556183 -0.6523503252 0.5423266234
345297930.0 0.6637200568 -0.5386859949 -9.88302e-05 -9.85855e-05 -3.1702e-06 0.0002287908 -0.6468357172 0.5488013948
350297900.0 0.657889419 -0.5443195816 -0.0001220802 7.45741e-05 0.0001192382 7.85184e-05 -0.6408469467 0.5554375842
355297870.0 0.6524494148 -0.5505159102 0.0001094814 2.0389e-05 -0.0001077829 -0.0002134229 -0.6351214661 0.5620275628
360297840.0 0.6468380863 -0.5567980478 5.89702e-05 -5.2595e-05 -7.35892e-05 -0.0001192688 -0.629664106 0.5690906745
365297810.0 0.6400023542 -0.5628871738 0.0001298524 -4.53567e-05 -5.25852e-05 1.44767e-05 -0.6223411784 0.5756807023
370297780.0 0.6353830544 -0.5693752405 -2.9047e-05 8.9929e-06 5.31233e-05 8.00791e-05 -0.6170655514 0.5819792831
375297750.0 0.6294689041 -0.5750710146 -0.0001516178 -3.37317e-05 0.000172308 0.0001049533 -0.611250352 0.588088219
380297720.0 0.6234458625 -0.5813358872 -0.000187099 -9.8689e-06 -0.0001113294 -5.8999e-05 -0.6054900191 0.5942585183
385297690.0 0.6174147278 -0.5874288873 9.14937e-05 3.5607e-06 0.0001050914 -9.25537e-05 -0.5984880974 0.601135136
390297660.0 0.6118642454 -0.5926270452 -2.88758e-05 9.41291e-05 1.00928e-05 0.0001938301 -0.5925013202 0.6069138196
395297630.0 0.6057500145 -0.5990535426 -9.27407e-05 -1.56855e-05 -7.62406e-05 -0.0001503712 -0.5863808771 0.6136362446
400297600.0 0.6001380928 -0.6041603226 0.0001029157 0.0001775555 5.3599e-05 -7.37679e-05 -0.5806114164 0.6194633504
405297570.0 0.5939972311 -0.6098504358 -9.0886e-06 -6.16598e-05 8.33215e-05 3.2612e-06 -0.5740802441 0.6249075841
410297540.0 0.5871690678 -0.6160716905 -1.08308e-05 -0.0001687331 -0.0001266512 0.000140891 -0.5674777973 0.631470099
415297510.0 0.5818593469 -0.622076621 -6.08e-06 -7.02612e-05 0.000149007 0.0001187127 -0.5610534492 0.6367654516
420297480.0 0.5750636403 -0.6272724995 -4.6753e-06 -9.6593e-06 9.9806e-06 -8.39439e-05 -0.5543596616 0.6427783417
425297450.0 0.5686489225 -0.6331770796 -0.0001084153 -4.86225e-05 3.9743e-05 0.0001173305 -0.54785341 0.6482299628
430297420.0 0.5627032929 -0.6379724444 -0.000152589 0.0001469314 -9.75395e-05 0.000280321 -0.5409716196 0.6532711766
435297390.0 0.5564974607 -0.6436355702 -4.68859e-05 -4.254e-05 5.13195e-05 0.0001026194 -0.5337416136 0.6585584717
440297360.0 0.5506214147 -0.6493471527 0.000232202 -0.0001076564 1.45429e-05 -6.25691e-05 -0.5273746936 0.6640249893
445297330.0 0.5434875565 -0.6544374512 -0.0001099217 0.0001191071 -7.69183e-05 0.0001187951 -0.5200660561 0.6690402537
450297300.0 0.537457624 -0.6595911833 -0.0001294593 0.0001316523 4.8843e-06 8.50572e-05 -0.5129273825 0.6742627049
455297270.0 0.5305880713 -0.6648534704 -0.0001090014 0.0002120095 -5.06181e-05 8.9847e-05 -0.5063430901 0.6788442591
460297240.0 0.5239569691 -0.6703287651 -0.0001070949 7.6016e-06 9.63125e-05 -9.48488e-05 -0.4997513556 0.6841354209
465297210.0 0.5167903911 -0.6753842436 -9.82989e-05 -2.46533e-05 7.03505e-05 -0.0001083538 -0.4916970166 0.6892374729
470297180.0 0.5101063115 -0.6802226253 -0.000149184 -2.6666e-05 3.792e-05 6.02604e-05 -0.4846060351 0.6944569191
475297150.0 0.5042299798 -0.6852562932 3.93743e-05 4.27453e-05 -0.000219777 -1.93078e-05 -0.4773320105 0.6987676108
480297120.0 0.4962011228 -0.6902569057 3.26792e-05 2.22359e-05 -0.0001562896 0.0001098544 -0.4697018843 0.7036022422
485297090.0 0.4900790921 -0.6941822679 -0.0001025463 8.72984e-05 3.7934e-05 -0.0001527026 -0.4629546629 0.7083160177
490297060.0 0.4826025274 -0.6994856233 -0.0003170271 -4.50184e-05 2.74471e-05 -6.08916e-05 -0.4556124892 0.7122074718
495297030.0 0.4755358398 -0.7039191996 0.000389276 -4.7131e-06 -8.67726e-05 -6.29959e-05 -0.4484607282 0.7177376296
500297000.0 0.4687491065 -0.7086716939 -2.10241e-05 -0.0001028787 0.0001262997 -0.0002033329 -0.4407242085 0.7226843249
505296970.0 0.462209787 -0.713234225 0.0001271847 7.09208e-05 -3.68366e-05 -0.0001179251 -0.4331673972 0.7269128118
510296940.0 0.4540341955 -0.7179546998 0.0002525631 3.98769e-05 -6.0925e-06 6.53925e-05 -0.4257246514 0.7307880705
515296910.0 0.4479555336 -0.7217993906 7.70721e-05 0.0002305393 3.14352e-05 -0.0001179694 -0.4180261769 0.735028342
520296880.0 0.4396428844 -0.7265704038 -5.75893e-05 0.0001428866 0.0002230022 -5.34684e-05 -0.4109229816 0.7393608423
525296850.0 0.4334973645 -0.7305864875 -5.49763e-05 -0.0002165782 -8.28872e-05 -2.00817e-05 -0.4038664814 0.7435859167
530296820.0 0.4255163773 -0.7340258854 2.34568e-05 -1.06245e-05 3.41702e-05 -0.0001717066 -0.3959408025 0.7474798078
535296790.0 0.4187380208 -0.7384326226 -2.65118e-05 5.62373e-05 -6.47387e-05 6.9292e-05 -0.388785964 0.7515650906
540296760.0 0.4109991588 -0.742647363 -0.0001002638 0.0001790735 -0.0001111791 3.66135e-05 -0.3806504957 0.7558943094
545296730.0 0.4035762688 -0.7466321336 -5.37471e-05 0.0002335307 0.0001487398 -0.0001374181 -0.3728887616 0.7593903613
550296700.0 0.3963724195 -0.7494267894 5.40609e-05 -0.000163712 -0.0001005397 -1.34403e-05 -0.3656768164 0.7636499634
555296670.0 0.388287075 -0.7539934741 -0.0001543138 0.0001127798 7.57738e-05 -2.7319e-06 -0.3574646302 0.7673312049
560296640.0 0.381202046 -0.7574170085 -0.0001121658 6.7211e-05 3.9773e-05 -5.4994e-06 -0.3497473171 0.7714427609
565296610.0 0.3734436703 -0.761279289 4.62228e-05 -3.9775e-05 -5.31512e-05 -3.0023e-05 -0.3419056345 0.7741413748
570296580.0 0.3657941699 -0.7646202004 -9.75197e-05 0.0002007774 -6.2294e-06 -0.0002286339 -0.3346640959 0.7776642621
575296550.0 0.3581412984 -0.7676127217 -1.19208e-05 -0.0001212173 9.87488e-05 -1.70602e-05 -0.326506157 0.7805219574
580296520.0 0.3509032279 -0.7717469597 0.000124332 -0.0001060176 -4.42565e-05 4.9678e-06 -0.3178850725 0.7842312814
585296490.0 0.3426069636 -0.7752450668 1.33804e-05 -4.61984e-05 3.46464e-05 -0.0001715658 -0.3102535637 0.7877546658
590296460.0 0.3355903567 -0.7774856898 0.0001496628 9.85955e-05 -7.41806e-05 2.46503e-05 -0.3027331847 0.7905205253
595296430.0 0.3270007493 -0.7812469257 -4.71677e-05 0.0001849745 -0.0001676659 0.0002178313 -0.2943312355 0.7930408025
600296400.0 0.3191046016 -0.7841763456 -9.01032e-05 -8.79728e-05 1.64081e-05 -1.6178e-05 -0.2866089755 0.7958061496
605296370.0 0.3114648494 -0.7872690548 -1.8985e-05 3.05289e-05 -0.0001051598 3.77101e-05 -0.2776870397 0.7986879642
610296340.0 0.3037204805 -0.7907494654 -4.35597e-05 -0.0002313867 -0.0001493814 6.09294e-05 -0.2699219333 0.8011156585
615296310.0 0.2962220505 -0.7936757671 4.58995e-05 8.34888e-05 8.38853e-05 -6.5948e-06 -0.2612327294 0.8037730311
620296280.0 0.2879514468 -0.7956716048 -4.15029e-05 -0.0002008656 -7.81935e-05 0.0002351781 -0.2539604121 0.8064188516
625296250.0 0.28078253 -0.7993583179 -4.40708e-05 -7.71209e-05 -4.19683e-05 -7.6117e-06 -0.2449105019 0.8084619024
630296220.0 0.2725356207 -0.8016237476 -2.68076e-05 0.0002681318 -8.43956e-05 0.0001558534 -0.2373243217 0.8110220588
635296190.0 0.2640394304 -0.8041339993 9.34016e-05 -0.0001856987 -5.73922e-05 0.0002657504 -0.2291206481 0.8131754734
640296160.0 0.2562883483 -0.8071948582 0.0001531872 -0.000192519 3.42677e-05 0.0001036007 -0.2209609652 0.8154921108
645296130.0 0.2479419638 -0.8088583364 3.58447e-05 -0.0002078655 7.23316e-05 -0.000102195 -0.2128134295 0.8175025835
650296100.0 0.240074842 -0.811232894 0.0001644327 2.67676e-05 -0.0001457751 -0.0001638196 -0.2044342382 0.8190200549
655296070.0 0.2318354534 -0.813731099 5.54971e-05 0.0002294734 -0.0001540447 2.6981e-06 -0.1955497129 0.8207192858
660296040.0 0.2236517476 -0.815560924 -6.5315e-06 -0.0002052053 5.69297e-05 6.40248e-05 -0.187131183 0.823048662
665296010.0 0.2156140882 -0.8176174667 0.0001884097 0.0002946498 -0.000141759 3.57053e-05 -0.1787444836 0.8249489923
670295980.0 0.2071273026 -0.8197964121 9.98607e-05 -9.5851e-06 -0.0002007949 5.55309e-05 -0.1712096378 0.826747314
675295950.0 0.1995127845 -0.8211256684 0.0001093947 6.24922e-05 -0.0003614551 -7.7771e-05 -0.1630467176 0.8287498561
680295920.0 0.1907704104 -0.8229730378 -8.92654e-05 4.28555e-05 -5.77434e-05 7.4024e-06 -0.1545336098 0.8311077002
685295890.0 0.1831297885 -0.8244977382 0.0001846178 -0.0001295629 0.0001429443 9.85273e-05 -0.1455604588 0.8319212017
690295860.0 0.1746229445 -0.8262457517 -0.0001681631 -0.0001481461 4.79678e-05 -5.53047e-05 -0.13753603 0.833814608
695295830.0 0.1667490957 -0.8280390689 0.0001600812 0.0001651223 -5.38469e-05 7.7746e-06 -0.1288458486 0.8344693325
700295800.0 0.1583616484 -0.8295678748 8.6481e-05 -1.66447e-05 9.64829e-05 -3.48877e-05 -0.1212801347 0.8358384025
705295770.0 0.1495455642 -0.8305406334 -0.000128141 -4.46596e-05 3.7383e-05 -9.2051e-05 -0.1125151834 0.8381122326
710295740.0 0.14132183 -0.8326793086 -1.60658e-05 0.0001848892 3.37698e-05 -5.6035e-06 -0.1038208538 0.8391536224
715295710.0 0.1328221925 -0.8339044518 -7.52783e-05 0.0002281679 0.0001096173 7.04869e-05 -0.0958921865 0.8397410323
720295680.0 0.1247300377 -0.8348699795 0.00019403 5.67477e-05 -7.10979e-05 -9.67948e-05 -0.0873473711 0.8404292029
725295650.0 0.1161061988 -0.8347960547 0.0002457184 7.70109e-05 0.0001984526 7.2507e-05 -0.0791197162 0.8420282079
730295620.0 0.1081426736 -0.8363889623 -6.36547e-05 -8.89675e-05 -1.49039e-05 0.0002168387 -0.0714169022 0.8425790526
735295590.0 0.0997712539 -0.8366051665 0.0001768985 -1.54713e-05 0.0001451981 3.1833e-06 -0.0625394488 0.843170888
740295560.0 0.0914761168 -0.8377103891 -4.06781e-05 0.0002930073 -5.0196e-06 3.14276e-05 -0.0535226597 0.8437288275
745295530.0 0.0832144935 -0.8390985788 8.92571e-05 -0.0001840373 9.01747e-05 7.01437e-05 -0.0450232168 0.8441170941
750295500.0 0.0742818546 -0.8394668503 -0.0001099401 0.0001827089 0.0001798223 -7.6905e-06 -0.0373216552 0.8443993252
755295470.0 0.0653295727 -0.8399628378 8.73983e-05 0.0001084322 3.23394e-05 0.0001523121 -0.0287603895 0.8443129742
760295440.0 0.0571999471 -0.8405629069 -0.0001661889 -0.0001418689 -0.0001423144 -2.29425e-05 -0.020715694 0.8445586238
765295410.0 0.0493223001 -0.8409231537 0.000156608 0.0002920522 0.0002098705 5.99324e-05 -0.0121245761 0.8448272992
770295380.0 0.0405993683 -0.8407707856 2.77806e-05 9.73132e-05 -9.40106e-05 -0.0001207844 -0.0033880669 0.8447538578
775295350.0 0.032149136 -0.8417434284 0.00012204 -9.7287e-06 5.57139e-05 -0.0002871733 0.0043180964 0.8442252659
780295320.0 0.0239791226 -0.8410491747 0.0001415084 7.64311e-05 -6.5922e-06 0.000117391 0.0127502714 0.8440724575
785295290.0 0.0153366582 -0.8421922661 0.0001521858 0.0001327158 6.6868e-06 0.0001038785 0.0215230721 0.8436699605
790295260.0 0.0071122577 -0.8415946698 -5.57554e-05 -0.0001183383 3.94085e-05 -0.000224403 0.030492325 0.8438976546
795295230.0 -0.00141976 -0.8412430005 6.21399e-05 0.0001715887 7.371e-06 7.18574e-05 0.039161818 0.8427147013
800295200.0 -0.0102215014 -0.8408792178 4.47086e-05 -4.32786e-05 -9.64477e-05 -0.0001523991 0.0475101417 0.8426569272
805295170.0 -0.0187996777 -0.8411492033 -1.68359e-05 0.000237807 -0.0002814804 -0.000101918 0.055365133 0.8423599134
810295140.0 -0.0262266096 -0.8407091238 -0.0001069613 -3.30264e-05 -1.43644e-05 -5.03592e-05 0.0637738771 0.8411284225
815295110.0 -0.0354759914 -0.8401259012 9.16889e-05 5.19219e-05 6.8846e-05 -0.000122627 0.0726075504 0.8404590509
820295080.0 -0.0436301161 -0.8394324797 -0.000119175 0.0003347623 -0.0001926273 1.69563e-05 0.0806592262 0.8399749741
825295050.0 -0.0514575067 -0.8388304841 8.0045e-06 -3.761e-05 0.0001380094 4.73603e-05 0.0891307534 0.8395623679
830295020.0 -0.0598065844 -0.8382085232 -0.0001103666 0.0001662524 -1.83558e-05 -0.0001045361 0.0982636479 0.8382531183
835294990.0 -0.0683532475 -0.8372503952 3.23885e-05 0.0001597392 2.13471e-05 1.42509e-05 0.1058580812 0.8376265798
840294960.0 -0.0768439959 -0.8365649629 0.0001225223 3.04498e-05 0.0002785287 -1.2103e-05 0.1140574562 0.8364326896
845294930.0 -0.0852721412 -0.8354634349 -6.5859e-06 1.38228e-05 5.79179e-05 0.0001221773 0.1226502321 0.8346402502
