!Created with skrf (http://scikit-rf.org).
# Hz S RI R 50.0 
!freq ReS11 ImS11
300000.0 0.9994115685 -0.0007754103
5299970.0 1.000218527 -0.0012870582
10299940.0 1.000188351 -0.0023312489
15299910.0 1.000303404 -0.0044157285
20299880.0 1.000032805 -0.0061012065
25299850.0 1.000114291 -0.00664799
30299820.0 0.9997382875 -0.0082554669
35299790.0 1.000111168 -0.0092283867
40299760.0 0.9994059256 -0.0113688944
45299730.0 0.9994839512 -0.0129958325
50299700.0 0.9991820964 -0.0136235319
55299670.0 0.9992342176 -0.0156265102
60299640.0 0.9992145477 -0.0167065873
65299610.0 0.9995195333 -0.0173935381
70299580.0 0.9988104365 -0.0193608249
75299550.0 0.9991471548 -0.0212337279
80299520.0 0.9993815972 -0.0222642451
85299490.0 0.999050185 -0.023891801
90299460.0 0.9987865235 -0.0249987027
95299430.0 0.998650695 -0.0265500789
100299400.0 0.9987290874 -0.0283377664
105299370.0 0.9987362386 -0.0298473677
110299340.0 0.9988007792 -0.0307028045
115299310.0 0.998841781 -0.0322693183
120299280.0 0.999379432 -0.0343284956
125299250.0 0.9992586337 -0.0347676771
130299220.0 0.9992905775 -0.0372643839
135299190.0 0.9989666574 -0.0375433811
140299160.0 0.9991130791 -0.0389575564
145299130.0 0.9989580225 -0.0409983977
150299100.0 0.9996361091 -0.0426632517
155299070.0 0.9990607018 -0.0430758892
160299040.0 0.9990410877 -0.0449663095
165299010.0 0.9987477595 -0.0463778585
170298980.0 0.9987989256 -0.0474098081
175298950.0 0.9994206423 -0.0490679438
180298920.0 0.9993325241 -0.050717068
185298890.0 0.998861799 -0.0523126335
190298860.0 0.9986695079 -0.0528516284
195298830.0 0.9982830298 -0.0547590868
200298800.0 0.9977024896 -0.0562792505
205298770.0 0.9980825865 -0.0570682249
210298740.0 0.9979061334 -0.0587476389
215298710.0 0.9978139584 -0.0598376697
220298680.0 0.997509319 -0.0613612249
225298650.0 0.9969714662 -0.0631906387
230298620.0 0.9971120522 -0.0637414475
235298590.0 0.9968907246 -0.0657279233
240298560.0 0.9966988116 -0.0671070868
245298530.0 0.9963495121 -0.0686415694
250298500.0 0.9965221213 -0.0702917905
255298470.0 0.9962363998 -0.0713967298
260298440.0 0.9960757458 -0.0730286314
265298410.0 0.9963104726 -0.0743438663
270298380.0 0.99607227 -0.0751751344
275298350.0 0.9957386354 -0.0773638729
280298320.0 0.9964458508 -0.0788687207
285298290.0 0.9965340765 -0.0798589808
290298260.0 0.9960089216 -0.0816657992
295298230.0 0.9958581075 -0.0823964733
300298200.0 0.9962253478 -0.083816279
305298170.0 0.9964675577 -0.0857557289
310298140.0 0.9959801655 -0.086851678
315298110.0 0.9958752252 -0.0885497584
320298080.0 0.9963973936 -0.0898251727
325298050.0 0.9964414555 -0.0908157502
330298020.0 0.995603003 -0.0931636732
335297990.0 0.9960781194 -0.0932274608
340297960.0 0.9957486728 -0.0958301994
345297930.0 0.9955604315 -0.0972455981
350297900.0 0.9947949756 -0.0981630304
355297870.0 0.9954733511 -0.09926018
360297840.0 0.9954100926 -0.1010977948
365297810.0 0.9947888611 -0.1025171081
370297780.0 0.9941937247 -0.1034282737
375297750.0 0.993998318 -0.1046663138
380297720.0 0.9936336098 -0.1064755356
385297690.0 0.9933664276 -0.1080658662
390297660.0 0.9935466574 -0.1091713906
395297630.0 0.9928004802 -0.1113916821
400297600.0 0.9928279746 -0.1121073955
405297570.0 0.9927542586 -0.1138848295
410297540.0 0.9930567782 -0.1153313984
415297510.0 0.9918634369 -0.1165882805
420297480.0 0.9921368643 -0.1175825128
425297450.0 0.9919667234 -0.1189144855
430297420.0 0.9922021581 -0.1206860313
435297390.0 0.9917996717 -0.1222413514
440297360.0 0.9915754649 -0.123382733
445297330.0 0.9918184949 -0.1251353133
450297300.0 0.9910873134 -0.1263360977
455297270.0 0.9912189763 -0.1273699536
460297240.0 0.9915300602 -0.1294907503
465297210.0 0.9905186847 -0.1300712929
470297180.0 0.991120468 -0.1319770058
475297150.0 0.9904367784 -0.1337221348
480297120.0 0.9899774826 -0.1347709157
485297090.0 0.9905986306 -0.135683232
490297060.0 0.9905533973 -0.1378030706
495297030.0 0.9903694837 -0.138439398
500297000.0 0.9904645386 -0.1402105313
505296970.0 0.989847177 -0.1415806816
510296940.0 0.9898531991 -0.1437491657
515296910.0 0.989665446 -0.1444448395
520296880.0 0.9892896202 -0.1457378565
525296850.0 0.9888282406 -0.1471124106
530296820.0 0.9891673322 -0.1478108107
535296790.0 0.9887496952 -0.1500894092
540296760.0 0.9879375102 -0.1509543259
545296730.0 0.9878186458 -0.152508306
550296700.0 0.988124491 -0.1537183789
555296670.0 0.9876180084 -0.1555083868
560296640.0 0.9869307457 -0.157473014
565296610.0 0.9866856287 -0.1584905001
570296580.0 0.9864441293 -0.1598006679
575296550.0 0.9862187173 -0.1609165923
580296520.0 0.9858408822 -0.1624807652
585296490.0 0.985857466 -0.1640351529
590296460.0 0.9849428012 -0.1652370335
595296430.0 0.9841704454 -0.1669797874
600296400.0 0.9848731143 -0.1671098681
605296370.0 0.9848930116 -0.1693724688
610296340.0 0.9841391277 -0.1701714929
615296310.0 0.9842403619 -0.1723137849
620296280.0 0.9843002376 -0.1740809019
625296250.0 0.9837409887 -0.1750499547
630296220.0 0.9836481387 -0.1768109954
635296190.0 0.983769244 -0.1774098408
640296160.0 0.9831198086 -0.1802826947
645296130.0 0.9830277887 -0.1806507759
650296100.0 0.9842539351 -0.1811318283
655296070.0 0.9828618394 -0.1829348133
660296040.0 0.9833090985 -0.1845958533
665296010.0 0.9824021179 -0.1858640754
670295980.0 0.9829187485 -0.1876549527
675295950.0 0.9817969356 -0.1883783472
680295920.0 0.9822987921 -0.1898717227
685295890.0 0.9811307367 -0.1911072805
690295860.0 0.9814616463 -0.192154471
695295830.0 0.9805384732 -0.1939664921
700295800.0 0.9808802438 -0.1949795324
705295770.0 0.9801308514 -0.1967023352
710295740.0 0.9797599201 -0.19862602
715295710.0 0.9790956058 -0.1995457079
720295680.0 0.979274714 -0.2009882198
725295650.0 0.978397879 -0.2024119309
730295620.0 0.9787552284 -0.2041606709
735295590.0 0.9776080654 -0.2049939129
740295560.0 0.9775721049 -0.2072334877
745295530.0 0.9767726126 -0.2081705466
750295500.0 0.977077227 -0.2094260472
755295470.0 0.9766233553 -0.2103318466
760295440.0 0.9759971369 -0.2123341688
765295410.0 0.9763157853 -0.213307882
770295380.0 0.9756170173 -0.21518422
775295350.0 0.975006725 -0.2165972329
780295320.0 0.9749038772 -0.2174345604
785295290.0 0.9749785511 -0.2190611502
790295260.0 0.97494072 -0.2205660133
795295230.0 0.973957242 -0.2218697982
800295200.0 0.9742815823 -0.2232083373
805295170.0 0.9735063317 -0.2249523747
810295140.0 0.9742888883 -0.2251931474
815295110.0 0.9736386554 -0.2275666021
820295080.0 0.9730811265 -0.2290892503
825295050.0 0.9731749641 -0.2296807293
830295020.0 0.972227071 -0.2320245635
835294990.0 0.9729327993 -0.2327867924
840294960.0 0.9718645479 -0.2341551985
845294930.0 0.9712347089 -0.2359328229
850294900.0 0.971289835 -0.2362465758
855294870.0 0.9716477845 -0.2384639248
860294840.0 0.9707729639 -0.2396730351
865294810.0 0.9704546936 -0.2404554459
870294780.0 0.9702539814 -0.2426166308
875294750.0 0.9690389678 -0.2435267207
880294720.0 0.9698687458 -0.2450897657
885294690.0 0.968425581 -0.246692209
890294660.0 0.9682448167 -0.2476160672
895294630.0 0.9679839325 -0.2497472712
900294600.0 0.967423365 -0.2505204499
905294570.0 0.966613056 -0.2520992504
910294540.0 0.9665122759 -0.2525123305
915294510.0 0.967356315 -0.2548815851
920294480.0 0.965474201 -0.2562961431
925294450.0 0.9656628718 -0.2569116859
930294420.0 0.9652731455 -0.2586464769
935294390.0 0.9643183264 -0.2601402714
940294360.0 0.9639700217 -0.2619437276
945294330.0 0.96461108 -0.2631139483
950294300.0 0.9631281717 -0.2642143874
955294270.0 0.9637781325 -0.2651486361
960294240.0 0.9630879278 -0.2671255058
965294210.0 0.9631968748 -0.2680034866
970294180.0 0.9626699114 -0.269831329
975294150.0 0.9622371418 -0.2717606225
980294120.0 0.962022316 -0.2720868816
985294090.0 0.9601853155 -0.2730638879
990294060.0 0.9614393402 -0.2748588902
995294030.0 0.9608101586 -0.2761870354
1000294000.0 0.9605909018 -0.2784756202
1005293970.0 0.9594759975 -0.2788280286
1010293940.0 0.960674929 -0.2799647095
1015293910.0 0.958942449 -0.2816140737
1020293880.0 0.9585391941 -0.2831997225
1025293850.0 0.9592227286 -0.2839695443
1030293820.0 0.9579818598 -0.2852368022
1035293790.0 0.9574331032 -0.2870856297
1040293760.0 0.957467611 -0.2883032025
1045293730.0 0.9568642252 -0.2902845054
1050293700.0 0.9565776991 -0.2909548447
1055293670.0 0.9553618639 -0.2919915351
1060293640.0 0.9558136962 -0.2932895728
1065293610.0 0.9540155005 -0.2947291231
1070293580.0 0.9542719785 -0.2962545275
1075293550.0 0.9536916191 -0.2978996223
1080293520.0 0.9533623727 -0.2985217419
1085293490.0 0.9531658107 -0.3003321877
1090293460.0 0.9522353625 -0.3017954589
1095293430.0 0.9520835076 -0.3030610689
1100293400.0 0.9520597099 -0.3046263137
1105293370.0 0.9517670595 -0.3059072311
1110293340.0 0.9506341518 -0.3076434444
1115293310.0 0.9502900124 -0.3085641514
1120293280.0 0.9504586442 -0.3099678991
1125293250.0 0.9493348643 -0.3111713891
1130293220.0 0.9490101172 -0.3126050748
1135293190.0 0.9488243095 -0.3143311468
1140293160.0 0.9481928496 -0.315309513
1145293130.0 0.9482972069 -0.3168155973
1150293100.0 0.9475063078 -0.3184509067
1155293070.0 0.9466197956 -0.3192950161
1160293040.0 0.9465928251 -0.320191089
1165293010.0 0.9473412471 -0.3222024243
1170292980.0 0.9460421602 -0.3234837628
1175292950.0 0.9460883757 -0.3243343944
1180292920.0 0.9454032271 -0.3263105371
1185292890.0 0.9452941887 -0.3274204636
1190292860.0 0.944444511 -0.3284572685
1195292830.0 0.9437417238 -0.3300819836
1200292800.0 0.9431148133 -0.3309194378
1205292770.0 0.9422034555 -0.3326813028
1210292740.0 0.9418244785 -0.3337044295
1215292710.0 0.9418717452 -0.3350304898
1220292680.0 0.9411621248 -0.3365431868
1225292650.0 0.9405858352 -0.3374537082
1230292620.0 0.9404591623 -0.3392392134
1235292590.0 0.9390953308 -0.3403532245
1240292560.0 0.9391617589 -0.3422021568
1245292530.0 0.938262087 -0.3434696808
1250292500.0 0.9375970249 -0.3445176417
1255292470.0 0.937085728 -0.3450654288
1260292440.0 0.9371880218 -0.3470008616
1265292410.0 0.9369547924 -0.3489134924
1270292380.0 0.9357276744 -0.3503769568
1275292350.0 0.9351558587 -0.3510033237
1280292320.0 0.9350594792 -0.3523752428
1285292290.0 0.9344669387 -0.353547409
1290292260.0 0.9338381649 -0.3550176676
1295292230.0 0.9326868449 -0.3565747039
1300292200.0 0.9332887646 -0.3574168511
1305292170.0 0.9323189542 -0.3591535538
1310292140.0 0.9321954873 -0.3605980977
1315292110.0 0.9317129457 -0.3611808803
1320292080.0 0.9312872318 -0.3629527926
1325292050.0 0.9310432528 -0.364313993
1330292020.0 0.9304995106 -0.3658051834
1335291990.0 0.930585067 -0.367118904
1340291960.0 0.9289871938 -0.3678139636
1345291930.0 0.9291268267 -0.3695777278
1350291900.0 0.9287992791 -0.3707647199
1355291870.0 0.9279851422 -0.3729035183
1360291840.0 0.9267848931 -0.3731670787
1365291810.0 0.9263048302 -0.3747156586
1370291780.0 0.9267081878 -0.3754739885
1375291750.0 0.9255873716 -0.3774105093
1380291720.0 0.9249955777 -0.3784637362
1385291690.0 0.9239323632 -0.3797166234
1390291660.0 0.9236797063 -0.3813741404
1395291630.0 0.9235140162 -0.3822404209
1400291600.0 0.9224623361 -0.3833727043
1405291570.0 0.921927358 -0.3849545281
1410291540.0 0.9211093154 -0.3865754595
1415291510.0 0.9206613509 -0.3874045741
1420291480.0 0.9202102555 -0.3892248831
1425291450.0 0.9196355396 -0.3900545528
1430291420.0 0.9193390608 -0.3921159397
1435291390.0 0.9180974214 -0.3928039593
1440291360.0 0.9176948172 -0.3943974617
1445291330.0 0.9172063608 -0.3959184892
1450291300.0 0.916492306 -0.3970915114
1455291270.0 0.9171782308 -0.397798988
1460291240.0 0.9154671239 -0.3994654334
1465291210.0 0.9152073898 -0.4009685197
1470291180.0 0.9152897975 -0.4021626776
1475291150.0 0.9143017814 -0.4028903841
1480291120.0 0.9136632473 -0.4051202235
1485291090.0 0.9130566199 -0.4060806712
1490291060.0 0.9126871815 -0.4078775622
1495291030.0 0.9124338117 -0.4086067452
1500291000.0 0.9119702364 -0.4091017653
1505290970.0 0.9118469427 -0.4113523828
1510290940.0 0.9116212842 -0.4119564396
1515290910.0 0.9101594314 -0.4135558113
1520290880.0 0.9096549182 -0.4151956224
1525290850.0 0.9096725257 -0.4163840957
1530290820.0 0.908447839 -0.4172784542
1535290790.0 0.9079135754 -0.4191147582
1540290760.0 0.90749186 -0.4191436285
1545290730.0 0.9067925261 -0.4208672387
1550290700.0 0.9058295363 -0.42242181
1555290670.0 0.9054471831 -0.4239819751
1560290640.0 0.9044934922 -0.4246924126
1565290610.0 0.9041145722 -0.4259212209
1570290580.0 0.9033386751 -0.4275499122
1575290550.0 0.9025969149 -0.4283745181
1580290520.0 0.9017901533 -0.4301506694
1585290490.0 0.9016510823 -0.431208285
1590290460.0 0.9009019088 -0.4329057074
1595290430.0 0.9001092701 -0.4343366376
1600290400.0 0.898731544 -0.4353136039
1605290370.0 0.8980299403 -0.4366143481
1610290340.0 0.8984940798 -0.4381278103
1615290310.0 0.8979008453 -0.4390483036
1620290280.0 0.8968513841 -0.44117386
1625290250.0 0.8961246852 -0.4420033509
1630290220.0 0.8952164661 -0.4433009684
1635290190.0 0.8946342654 -0.444113862
1640290160.0 0.894480101 -0.4451281723
1645290130.0 0.893826714 -0.4468239482
1650290100.0 0.8928439451 -0.4477294581
1655290070.0 0.8932390733 -0.4487210924
1660290040.0 0.8927684353 -0.4505345922
1665290010.0 0.8914424598 -0.4522745122
1670289980.0 0.8900982523 -0.4524471922
1675289950.0 0.8904002293 -0.4539821317
1680289920.0 0.8901448577 -0.455630526
1685289890.0 0.8899662012 -0.4560796339
1690289860.0 0.8883875598 -0.4573612851
1695289830.0 0.8888874037 -0.4591735135
1700289800.0 0.8875788655 -0.4604617854
1705289770.0 0.8870351494 -0.4615117627
1710289740.0 0.8866286264 -0.4631074554
1715289710.0 0.8856542171 -0.4641732671
1720289680.0 0.8854633427 -0.4649343965
1725289650.0 0.883975929 -0.4661053766
1730289620.0 0.8832545891 -0.4675719473
1735289590.0 0.8829342867 -0.4689177694
1740289560.0 0.8819420783 -0.4699366437
1745289530.0 0.8810208947 -0.4713536525
1750289500.0 0.8801188538 -0.4726135246
1755289470.0 0.8794758167 -0.4739124241
1760289440.0 0.8792029671 -0.4754391969
1765289410.0 0.8780556646 -0.4765304637
1770289380.0 0.8774333761 -0.4774915137
1775289350.0 0.877110224 -0.4789310921
1780289320.0 0.8765015844 -0.4795965313
1785289290.0 0.8757694848 -0.4813936306
1790289260.0 0.8744086719 -0.4823876172
1795289230.0 0.8742063918 -0.4841878705
1800289200.0 0.87416158 -0.4844123599
1805289170.0 0.873365885 -0.4861744577
1810289140.0 0.8714563648 -0.4884884939
1815289110.0 0.8716399686 -0.4891602585
1820289080.0 0.8707237039 -0.4901876654
1825289050.0 0.870992026 -0.4909960688
1830289020.0 0.8691547261 -0.4922817386
1835288990.0 0.8698972636 -0.4946791396
1840288960.0 0.868048118 -0.4945249765
1845288930.0 0.8682404636 -0.4965968401
1850288900.0 0.8674340635 -0.4974766798
1855288870.0 0.8663258472 -0.4978355369
1860288840.0 0.8658463151 -0.4995523539
1865288810.0 0.865919571 -0.5006731383
1870288780.0 0.8650269583 -0.5022595015
1875288750.0 0.8639692834 -0.5033272099
1880288720.0 0.8629552265 -0.5044330397
1885288690.0 0.8625939314 -0.5055713881
1890288660.0 0.8613380617 -0.5069963663
1895288630.0 0.8610886986 -0.507615891
1900288600.0 0.8595360577 -0.5091629575
1905288570.0 0.8588893634 -0.5105246334
1910288540.0 0.8579986376 -0.5122056554
1915288510.0 0.8575414751 -0.5130884076
1920288480.0 0.856767204 -0.5142638164
1925288450.0 0.8557063607 -0.5148468457
1930288420.0 0.8552977664 -0.5169102947
1935288390.0 0.8540024603 -0.5181790524
1940288360.0 0.8526730393 -0.5187256713
1945288330.0 0.8523671561 -0.5201875457
1950288300.0 0.8524924904 -0.522166903
1955288270.0 0.8509050131 -0.5231239873
1960288240.0 0.8514875303 -0.5245814044
1965288210.0 0.8496612184 -0.5253625723
1970288180.0 0.849119945 -0.527421392
1975288150.0 0.8485274901 -0.5277356148
1980288120.0 0.8478020342 -0.5292669894
1985288090.0 0.847808616 -0.5305407812
1990288060.0 0.8465581058 -0.5314245984
1995288030.0 0.8463668969 -0.5322424604
2000288000.0 0.8448033209 -0.5337764781
2005287970.0 0.8440046456 -0.5355135131
2010287940.0 0.843918645 -0.5355898313
2015287910.0 0.842953678 -0.5372716414
2020287880.0 0.8420365878 -0.538240136
2025287850.0 0.8419882894 -0.5396140093
2030287820.0 0.8403586511 -0.5409367706
2035287790.0 0.8403475293 -0.5421887295
2040287760.0 0.8401504547 -0.5429397371
2045287730.0 0.83827327 -0.5439765724
2050287700.0 0.8379045856 -0.5456294468
2055287670.0 0.8365996519 -0.5463617874
2060287640.0 0.8361529718 -0.5475798241
2065287610.0 0.8355274847 -0.5490953587
2070287580.0 0.8342851121 -0.5504315518
2075287550.0 0.8342270665 -0.5508417641
2080287520.0 0.8329831081 -0.5527341104
2085287490.0 0.8322227964 -0.5527267916
2090287460.0 0.8315288633 -0.5551084012
2095287430.0 0.8302195823 -0.5561266612
2100287400.0 0.8293656676 -0.5567194171
2105287370.0 0.8289429489 -0.5588513059
2110287340.0 0.8276125208 -0.5594973392
2115287310.0 0.8272175689 -0.5603387574
2120287280.0 0.8260532975 -0.5623812141
2125287250.0 0.8257899984 -0.5632167761
2130287220.0 0.8244717852 -0.564430752
2135287190.0 0.8234971255 -0.5657624433
2140287160.0 0.8229873505 -0.5670546091
2145287130.0 0.8223382527 -0.5675124468
2150287100.0 0.8216944474 -0.5689672041
2155287070.0 0.8204479927 -0.5700339802
2160287040.0 0.8202369989 -0.5714131798
2165287010.0 0.8198114045 -0.5720684339
2170286980.0 0.8185087548 -0.5736984841
2175286950.0 0.8179750596 -0.5747724979
2180286920.0 0.8169241632 -0.5760214543
2185286890.0 0.8168058795 -0.5771513878
2190286860.0 0.816015856 -0.578562189
2195286830.0 0.8152795885 -0.5793673401
2200286800.0 0.8145774009 -0.581007981
2205286770.0 0.8138983854 -0.580777578
2210286740.0 0.8128284692 -0.5828100147
2215286710.0 0.8118941597 -0.5842819338
2220286680.0 0.8105971518 -0.5844735254
2225286650.0 0.8105761015 -0.5858351149
2230286620.0 0.8087604654 -0.586247611
2235286590.0 0.8079866724 -0.5879653445
2240286560.0 0.8076447412 -0.5892682149
2245286530.0 0.8067716577 -0.5903741872
2250286500.0 0.8055942112 -0.5914953445
2255286470.0 0.8045150004 -0.5927775416
2260286440.0 0.8033665773 -0.5932664879
2265286410.0 0.8024534964 -0.5939949813
2270286380.0 0.8018223981 -0.5958620993
2275286350.0 0.8010590991 -0.5973105039
2280286320.0 0.8006300825 -0.5978480068
2285286290.0 0.799602358 -0.5994940624
2290286260.0 0.7979126108 -0.6007376274
2295286230.0 0.7973364999 -0.6020400319
2300286200.0 0.7969623692 -0.6025765063
2305286170.0 0.7957200382 -0.6039941259
2310286140.0 0.7952934737 -0.6056447514
2315286110.0 0.7945364388 -0.6064715013
2320286080.0 0.7933057647 -0.6086682756
2325286050.0 0.7925007808 -0.6091294929
2330286020.0 0.7918541669 -0.6096944889
2335285990.0 0.7910253986 -0.6109965453
2340285960.0 0.7908960317 -0.6121523864
2345285930.0 0.7891480723 -0.6133063074
2350285900.0 0.7890441541 -0.6144591095
2355285870.0 0.7875650839 -0.6155987551
2360285840.0 0.7864527542 -0.6165301227
2365285810.0 0.7863147834 -0.6176926574
2370285780.0 0.7851032911 -0.619321353
2375285750.0 0.7846113001 -0.6200945605
2380285720.0 0.7831433577 -0.620937567
2385285690.0 0.7825336065 -0.6215280853
2390285660.0 0.781710412 -0.6236684578
2395285630.0 0.780999665 -0.6236224849
2400285600.0 0.779250692 -0.6252750073
2405285570.0 0.7786449591 -0.6258321687
2410285540.0 0.7783626836 -0.6273376927
2415285510.0 0.7769933858 -0.628384109
2420285480.0 0.7764431519 -0.6295927892
2425285450.0 0.775066346 -0.6300724152
2430285420.0 0.774364937 -0.6314832309
2435285390.0 0.7734214962 -0.6318829516
2440285360.0 0.7724550687 -0.6333078497
2445285330.0 0.7717805823 -0.635369346
2450285300.0 0.7702751744 -0.6357167003
2455285270.0 0.7693264707 -0.6369927853
2460285240.0 0.7682439841 -0.6384568268
2465285210.0 0.7676179472 -0.6389909142
2470285180.0 0.7670447017 -0.6406610986
2475285150.0 0.7661507174 -0.6413813109
2480285120.0 0.7655503363 -0.6426495381
2485285090.0 0.7644951275 -0.6441876165
2490285060.0 0.7637301144 -0.6441400113
2495285030.0 0.7629146197 -0.6456712442
2500285000.0 0.763127044 -0.6469047291
2505284970.0 0.7610205568 -0.6475994114
2510284940.0 0.7603679705 -0.6490006765
2515284910.0 0.7595895702 -0.6507014186
2520284880.0 0.7583630205 -0.6509762178
2525284850.0 0.7570764917 -0.6520623942
