!Created with skrf (http://scikit-rf.org).
# Hz S RI R 50.0 
!freq ReS11 ImS11 ReS21 ImS21 ReS12 ImS12 ReS22 ImS22
300000.0 -0.3193113919 -0.1017957095 0.3736261786 0.0504827947 0.3738987626 0.0539125257 -0.3184234008 -0.1090669191
5299970.0 -0.3234553664 0.0044978077 0.3786087474 0.0031025829 0.3783594016 0.0030491753 -0.3263490366 0.0030597387
10299940.0 -0.3209865474 0.0154586688 0.3796784557 0.0024609626 0.3796957937 0.002505053 -0.3243537182 0.0128611333
15299910.0 -0.3180789343 0.023634203 0.3820676592 0.0022196474 0.3818755507 0.0025120991 -0.3212762647 0.0200341316
20299880.0 -0.3143952509 0.0301264216 0.385176399 0.0015850238 0.3853313037 0.0016850592 -0.3189599023 0.0260851697
25299850.0 -0.310851412 0.035714401 0.3886210943 -0.0001835385 0.3886925272 3.11509e-05 -0.315985544 0.0312006504
30299820.0 -0.3067880662 0.0403593598 0.3921191379 -0.0022891808 0.3918408473 -0.0023398513 -0.3127240081 0.0352357426
35299790.0 -0.302863065 0.0447594465 0.3951473067 -0.0053233725 0.3951341 -0.0048387116 -0.3097671877 0.0394181009
40299760.0 -0.2995216813 0.0478361933 0.3983483053 -0.0083131829 0.3985109762 -0.0086082869 -0.3073924386 0.0429023228
45299730.0 -0.2964504117 0.0514814984 0.4012622165 -0.0126818424 0.4013478255 -0.0127294931 -0.3048462463 0.0460866214
50299700.0 -0.2931897935 0.0542477231 0.4033319134 -0.017341596 0.403699941 -0.0172925226 -0.3023884068 0.0491663701
55299670.0 -0.2908334456 0.0567226095 0.4054211639 -0.0223366357 0.4061531017 -0.0219803186 -0.3005072849 0.0519711691
60299640.0 -0.2881591056 0.0591041131 0.4075791549 -0.0267571031 0.4077042076 -0.0270242605 -0.2982837727 0.0546225059
65299610.0 -0.2861832842 0.0613166106 0.4094168616 -0.0314793647 0.4096099911 -0.031791887 -0.2962479655 0.0571773753
70299580.0 -0.2838929085 0.0636074637 0.410647755 -0.036897771 0.4105585635 -0.0369011853 -0.2945203809 0.0591566629
75299550.0 -0.2817980685 0.0658051465 0.4115948697 -0.0424007456 0.4116087192 -0.0421394654 -0.2928858754 0.062027949
80299520.0 -0.280495477 0.0679202645 0.4126467423 -0.0473466216 0.4125823795 -0.0474912686 -0.2916917547 0.0638773309
85299490.0 -0.2784299361 0.069718889 0.4129099118 -0.052746785 0.4129608911 -0.052666276 -0.2903285672 0.0662703674
90299460.0 -0.2772431437 0.0720794919 0.4137373721 -0.0576376519 0.413552592 -0.0577457606 -0.2884512672 0.0685910924
95299430.0 -0.2755010064 0.0742702929 0.4138856649 -0.0634944214 0.4140270837 -0.0630076894 -0.2876864872 0.0712083762
100299400.0 -0.2744167928 0.0766157734 0.4135779704 -0.0684862359 0.4138352335 -0.0681632943 -0.287005138 0.0733628689
105299370.0 -0.2731624227 0.0786498621 0.4135872665 -0.0737699914 0.4135729553 -0.0737604667 -0.2851502382 0.0758151695
110299340.0 -0.2721005603 0.0802785162 0.4134324875 -0.078650903 0.4135097888 -0.0786089927 -0.2842744478 0.0777789336
115299310.0 -0.2704960546 0.0822382163 0.4130973682 -0.0834899387 0.4132993593 -0.0836569134 -0.2832394261 0.0800482573
120299280.0 -0.2697582588 0.0847210968 0.4129338534 -0.0889771315 0.4131371471 -0.089047777 -0.2825321938 0.0826330196
125299250.0 -0.2689039342 0.0868942046 0.4123345898 -0.0939330462 0.4125856888 -0.0940409964 -0.2811787493 0.0849912284
130299220.0 -0.2678730289 0.0891676408 0.4116171186 -0.0985722806 0.411607658 -0.0990976347 -0.2807637462 0.0871691184
135299190.0 -0.2667421596 0.0911006145 0.4110027673 -0.1037084628 0.4108959267 -0.1041837977 -0.2797455534 0.0896668951
140299160.0 -0.2659482448 0.0936150476 0.4101891853 -0.1088365069 0.4101293474 -0.1092395741 -0.2784718374 0.0919407234
145299130.0 -0.2649451421 0.0957002015 0.4093353586 -0.1139792912 0.4092077898 -0.1137132296 -0.2778070929 0.0944383851
150299100.0 -0.264022236 0.0980915454 0.4082674067 -0.1192948626 0.4082582569 -0.1187612808 -0.2767471463 0.0965341102
155299070.0 -0.2628875606 0.100769906 0.4071249603 -0.1237635109 0.4068833624 -0.1240084743 -0.2761485872 0.0995426435
160299040.0 -0.2619203577 0.102962812 0.4055645977 -0.1284151608 0.4060660414 -0.1285820994 -0.2753240655 0.1020410443
165299010.0 -0.2611969557 0.1051999775 0.4048749188 -0.133623863 0.4046129518 -0.1337405862 -0.2742615788 0.1046425578
170298980.0 -0.2598886506 0.1075674078 0.4026526696 -0.1383102498 0.4032089167 -0.138796363 -0.2731895046 0.107581585
175298950.0 -0.2589718328 0.1102996014 0.4022336883 -0.1430990151 0.4022761972 -0.1431452746 -0.2721541907 0.1100439415
180298920.0 -0.2578633715 0.1127561161 0.400611484 -0.1480949038 0.400723752 -0.1477971036 -0.2710884683 0.1126539414
185298890.0 -0.2569211796 0.1153426123 0.398677438 -0.1529561781 0.399055197 -0.1524283907 -0.270405879 0.1148234697
190298860.0 -0.2558142894 0.1174939094 0.3970781908 -0.1571654993 0.397495524 -0.1572934417 -0.2686674937 0.1176761503
195298830.0 -0.2547522353 0.1196657093 0.3958897957 -0.1617780941 0.3956682914 -0.1623529863 -0.2680493265 0.1197387641
200298800.0 -0.2538515427 0.1227373081 0.3940688016 -0.1662023912 0.3939691823 -0.1663854342 -0.2667327668 0.1231320648
205298770.0 -0.2527524606 0.1251690878 0.3923179161 -0.1710127666 0.3922570134 -0.1710407546 -0.2656849483 0.1255771448
210298740.0 -0.2512763745 0.1278507503 0.3904233392 -0.1757412028 0.3908120644 -0.1760566223 -0.2645791845 0.1284013318
215298710.0 -0.2504121331 0.1305554067 0.3886751842 -0.1801975587 0.3885715103 -0.1799219762 -0.2637331933 0.1311645327
220298680.0 -0.2493634349 0.1330083945 0.3864032283 -0.1848622672 0.3868340909 -0.1847080798 -0.2622367077 0.1337764312
225298650.0 -0.2477113275 0.1357394082 0.3842038192 -0.1889253026 0.3844493019 -0.1888982931 -0.2613208215 0.1365830295
230298620.0 -0.246964452 0.1383776328 0.3827892738 -0.193375648 0.3826625849 -0.1936447442 -0.2596045027 0.139084719
235298590.0 -0.2454461167 0.1407021527 0.3803837757 -0.1979023144 0.380545368 -0.1978827754 -0.2584004299 0.1413565827
240298560.0 -0.2443930222 0.1434502405 0.3785064421 -0.2020685248 0.3785692464 -0.2020601179 -0.2571506569 0.1443774345
245298530.0 -0.2425824907 0.1459146709 0.3755262323 -0.2067743015 0.3758622628 -0.2062978218 -0.2555326247 0.1468541644
250298500.0 -0.2417408723 0.1485087575 0.3739250676 -0.2105290161 0.3741102068 -0.2103374421 -0.2540650893 0.1497867132
255298470.0 -0.2399156188 0.1508589045 0.3711679074 -0.215112018 0.3714696274 -0.2153653752 -0.2526084032 0.1525917059
260298440.0 -0.238500447 0.1531764554 0.3691008145 -0.2192416099 0.369222161 -0.21945541 -0.2509589075 0.1549987219
265298410.0 -0.2372089131 0.1563078811 0.3663459648 -0.2237438326 0.3665585561 -0.2236465509 -0.2499930899 0.1576041133
270298380.0 -0.2353861198 0.1584155305 0.3638605204 -0.2273906556 0.3638753923 -0.2277992614 -0.2480949898 0.1603579645
275298350.0 -0.2340925581 0.1611253557 0.361602548 -0.2319645814 0.362189633 -0.2318103962 -0.2463103524 0.1634627807
280298320.0 -0.2327404929 0.1638069288 0.3592442532 -0.2358118648 0.358967121 -0.2361484682 -0.2449320314 0.1658580868
285298290.0 -0.2310729365 0.1663925093 0.3567118094 -0.2397699804 0.356438589 -0.2396284846 -0.2434066636 0.1685442949
290298260.0 -0.2294726276 0.1688143682 0.354035908 -0.2435275928 0.3538399924 -0.2440667348 -0.2413046686 0.1710949815
295298230.0 -0.2274823222 0.171566897 0.3512577239 -0.2480793299 0.3512205863 -0.248055387 -0.2396568534 0.1737385684
300298200.0 -0.2259641719 0.1737405159 0.3484633834 -0.2519442852 0.3487232931 -0.2519404289 -0.2380124169 0.1765631403
305298170.0 -0.2239607271 0.1762675561 0.3457580306 -0.2561682763 0.346044327 -0.2561003351 -0.2356188052 0.1793213675
310298140.0 -0.2219441815 0.1782911942 0.3429956271 -0.2598781894 0.3429486739 -0.2601176484 -0.2342455857 0.1823193395
315298110.0 -0.2207924696 0.1809099327 0.340098286 -0.2637837543 0.3398794916 -0.2640655732 -0.2318735471 0.1842768882
320298080.0 -0.2189913566 0.183282816 0.3373716518 -0.267550667 0.3371629828 -0.2677975725 -0.2302207663 0.1866486006
325298050.0 -0.2170753866 0.1855133611 0.3343728603 -0.271817792 0.3342652336 -0.2716279603 -0.2285897505 0.1892233193
330298020.0 -0.2152638948 0.1878478534 0.3307629677 -0.2752413658 0.33075649 -0.2749984917 -0.226649462 0.1916938373
335297990.0 -0.2133514533 0.1904783725 0.3281082555 -0.2791956446 0.3280210489 -0.2793420224 -0.2246965233 0.1944647898
340297960.0 -0.2119138481 0.1928263005 0.3243325531 -0.2828905831 0.3247583077 -0.2826199067 -0.2227387238 0.1970686992
345297930.0 -0.2100921647 0.1950064534 0.3214478661 -0.2857699669 0.3211442775 -0.2860981173 -0.2208242109 0.1996029043
350297900.0 -0.2076152253 0.1978370682 0.3179165143 -0.2895429187 0.3180934838 -0.2895955277 -0.2188185676 0.2022387169
355297870.0 -0.2058421049 0.1998935554 0.3144803491 -0.2930201458 0.3147641926 -0.2931483315 -0.2166628639 0.2045900213
360297840.0 -0.2038302048 0.2020689218 0.3112261981 -0.2963267442 0.3114567215 -0.2969306059 -0.2147975889 0.2074548831
365297810.0 -0.2016492299 0.204230367 0.307948142 -0.3001886988 0.3082344333 -0.3001302589 -0.2126341995 0.2097861118
370297780.0 -0.1995116004 0.2068050672 0.3046216871 -0.3032223751 0.3050265738 -0.3037389519 -0.2105932381 0.2120829487
375297750.0 -0.1971779678 0.2092630008 0.301860462 -0.3068176014 0.3014742324 -0.3072290829 -0.2082423373 0.2149018992
380297720.0 -0.1952489422 0.2113979007 0.2979892155 -0.3096472094 0.2977827751 -0.3098361902 -0.2057807191 0.2172852124
385297690.0 -0.1930841102 0.2139586894 0.2943585803 -0.312837359 0.2946814388 -0.3133135424 -0.2039182786 0.2195888297
390297660.0 -0.190875937 0.2157570054 0.2908837199 -0.3168458863 0.2912532338 -0.3168092613 -0.2014558102 0.2218147734
395297630.0 -0.1888235736 0.2180472363 0.2876276909 -0.3194675027 0.2876414563 -0.3196032862 -0.1991896569 0.224277661
400297600.0 -0.1864404204 0.2203935797 0.2839972394 -0.3227487582 0.2845545127 -0.3227128258 -0.1975914518 0.2265656024
405297570.0 -0.1843533787 0.2225619229 0.2803536089 -0.3260100211 0.2804795606 -0.3261423472 -0.1947524878 0.2290837941
410297540.0 -0.1817216258 0.2245270534 0.2763380599 -0.3286576605 0.2765060036 -0.3290033726 -0.1921981927 0.2311298396
415297510.0 -0.1795645741 0.2264626498 0.2730103866 -0.3317527077 0.273431641 -0.3320758354 -0.1899472963 0.2338030318
420297480.0 -0.1769688555 0.2283536068 0.2692611691 -0.3350135292 0.2693672213 -0.3349014777 -0.1874689801 0.2356226721
425297450.0 -0.1748118369 0.2303198481 0.2657401546 -0.337730621 0.2661032358 -0.3376264069 -0.1847489877 0.2381658795
430297420.0 -0.1723001037 0.2325292453 0.261950513 -0.3406143005 0.2622232356 -0.3409346415 -0.1826574182 0.240129104
435297390.0 -0.1699021486 0.2345922835 0.2582734793 -0.3434815693 0.2585217182 -0.3430662843 -0.1800321512 0.2424684897
440297360.0 -0.1671277524 0.2365527644 0.2540059252 -0.346229968 0.2540379452 -0.3462387001 -0.177702777 0.244436088
445297330.0 -0.1647048268 0.2386477631 0.2500157071 -0.3493308542 0.2505790317 -0.349160465 -0.1752480483 0.2464930245
450297300.0 -0.1622296684 0.2402560424 0.2461719275 -0.3517652817 0.2467603077 -0.351614763 -0.1727108734 0.2486480274
455297270.0 -0.1600561256 0.2422516785 0.2430013852 -0.3544701605 0.2433803325 -0.3543759508 -0.1700060079 0.2509429754
460297240.0 -0.1576803623 0.2438988647 0.2391069115 -0.3564583099 0.2388226626 -0.357319913 -0.167256592 0.2533392828
465297210.0 -0.1546611432 0.2459917542 0.2347613482 -0.35981271 0.235143163 -0.3595323011 -0.1651045811 0.2546069993
470297180.0 -0.1524004611 0.2476640903 0.2312350156 -0.3620313699 0.2311786282 -0.3621127613 -0.162845849 0.2567597798
475297150.0 -0.1497023801 0.2494159999 0.2270596809 -0.3643195262 0.2270125395 -0.3640093079 -0.1595447104 0.2583971603
480297120.0 -0.1471311526 0.2506499133 0.2228388032 -0.3666420201 0.2232899081 -0.3667171863 -0.1573091645 0.2607388723
485297090.0 -0.1442067618 0.2526734287 0.218799955 -0.3695175617 0.2191567847 -0.3693342133 -0.1545104588 0.2623074445
490297060.0 -0.1415539418 0.2540566893 0.2147392093 -0.3715551791 0.2147150423 -0.3716520346 -0.151759744 0.2642951628
495297030.0 -0.1393026033 0.2561239987 0.2109072449 -0.3740636868 0.2103475502 -0.3737548322 -0.1489396348 0.2657608526
500297000.0 -0.1363671442 0.2575174986 0.2066509801 -0.3763778823 0.2067251255 -0.3761955899 -0.1461948031 0.2679410704
505296970.0 -0.1336513753 0.2590107936 0.2019568904 -0.3778737509 0.202420344 -0.3782302646 -0.1439758731 0.2696698866
510296940.0 -0.1308727116 0.2609667024 0.1982699118 -0.3804344276 0.1983294926 -0.3805287055 -0.1407595758 0.2715212555
515296910.0 -0.1283232519 0.2623938422 0.1939845799 -0.3820097275 0.1942059826 -0.3825571728 -0.1381326996 0.2731415201
520296880.0 -0.1253056253 0.2637332908 0.1896569995 -0.3846128913 0.1901314625 -0.3845828091 -0.1354110563 0.2743862972
525296850.0 -0.1225600994 0.2650136976 0.1859336822 -0.3864970539 0.1857429116 -0.3865484123 -0.1319204017 0.2759318134
530296820.0 -0.1198858707 0.2667914503 0.1818427551 -0.3882282128 0.1817199143 -0.3881481736 -0.1299611674 0.2776234564
535296790.0 -0.1170773522 0.2677168342 0.1772403024 -0.3900805194 0.1773730512 -0.3901364118 -0.1269810672 0.2788759211
540296760.0 -0.1145508379 0.2691924316 0.17288627 -0.3924073519 0.1728772828 -0.3923263401 -0.1243168866 0.2806335483
545296730.0 -0.1111917688 0.2708052392 0.1685624168 -0.3941975187 0.1686533709 -0.3941445539 -0.121532424 0.2818955012
550296700.0 -0.1088196276 0.2723877849 0.1642998184 -0.3959988652 0.1649158719 -0.3962781 -0.1186509356 0.2835565969
555296670.0 -0.1052397033 0.2733491428 0.1598545577 -0.3976308011 0.1599138783 -0.3977615239 -0.1155031644 0.2850707086
560296640.0 -0.1029499271 0.2746682735 0.1555869417 -0.3989854343 0.1558332137 -0.3991578024 -0.1125322967 0.2865369881
565296610.0 -0.1001235597 0.2758309351 0.1512138523 -0.4008183956 0.1513462743 -0.4006800861 -0.1096517872 0.2876165707
570296580.0 -0.0969248242 0.2766361402 0.1466566758 -0.4023904412 0.1473021419 -0.4025420637 -0.1068852171 0.2893891347
575296550.0 -0.0938057435 0.2785584635 0.1426531258 -0.4040121189 0.1427199178 -0.4038806141 -0.1035369488 0.2905474611
580296520.0 -0.0910095176 0.2792883101 0.1384562571 -0.4057559659 0.1383243834 -0.4054245462 -0.1007255305 0.2915778891
585296490.0 -0.0881598369 0.2803265174 0.1338613938 -0.4070039569 0.1338355648 -0.4071366736 -0.0978071056 0.2922596684
590296460.0 -0.0854994554 0.2812887461 0.129358568 -0.4079245577 0.1292040873 -0.4082506156 -0.09478829 0.2940270867
595296430.0 -0.0822781472 0.282373446 0.1251249526 -0.4097646237 0.1249450416 -0.4098665605 -0.0915378253 0.2948729444
600296400.0 -0.0792954102 0.2835057276 0.1206701728 -0.41102684 0.1205126715 -0.4109334743 -0.0887475307 0.2960705918
605296370.0 -0.0763203245 0.2849042617 0.1161272803 -0.4121984965 0.1162455639 -0.4120689217 -0.0855529541 0.2972597114
610296340.0 -0.0732234031 0.285436877 0.1117276322 -0.4133431925 0.1116228601 -0.4136278283 -0.0826890124 0.2985352967
615296310.0 -0.0701507636 0.2865323583 0.1068498563 -0.4143261808 0.1068639147 -0.4145152204 -0.0794086999 0.2991888743
620296280.0 -0.0675244744 0.2871363991 0.102814723 -0.4155230438 0.102755959 -0.4154273609 -0.0765699553 0.299765989
625296250.0 -0.0641886823 0.2880563655 0.0976912736 -0.4166476472 0.0978003669 -0.416886212 -0.0732155676 0.3011949846
630296220.0 -0.0612229467 0.28907493 0.0935226356 -0.4176410866 0.0935485689 -0.4176749897 -0.0701611807 0.3019320573
635296190.0 -0.0580582276 0.2900451997 0.0888514256 -0.4183405273 0.0889391875 -0.4183051841 -0.0672132296 0.3029565417
640296160.0 -0.0551517272 0.2903517771 0.0843426347 -0.4193186173 0.0842750864 -0.41955064 -0.0634205994 0.3035997629
645296130.0 -0.0519313068 0.2912144244 0.0794803422 -0.4202926851 0.0798828409 -0.420344716 -0.0610391111 0.3042127856
650296100.0 -0.0491081221 0.2921091924 0.0756947113 -0.4209007784 0.0753686885 -0.4210170881 -0.0575620736 0.3053980015
655296070.0 -0.0457439491 0.292452569 0.0708718834 -0.4216838253 0.0702359797 -0.4219347833 -0.0537049547 0.3060025734
660296040.0 -0.0430356259 0.2935704305 0.0663732395 -0.4223083647 0.0663332631 -0.4221790061 -0.0514133356 0.3063314513
665296010.0 -0.0395529367 0.2940434769 0.0616296072 -0.4232396643 0.0619341648 -0.4233112929 -0.0485378162 0.3076286771
670295980.0 -0.0361124411 0.2944934642 0.0568125761 -0.4236886614 0.0574165093 -0.4238020093 -0.0454137503 0.3079413104
675295950.0 -0.0333151069 0.2951321966 0.0522864905 -0.4244257882 0.0526030376 -0.4247932734 -0.0416780687 0.3086343482
680295920.0 -0.0302364187 0.2959491357 0.0477092016 -0.4248817343 0.0476839899 -0.4250629935 -0.0385499839 0.3091116834
685295890.0 -0.0270928069 0.2959884537 0.0435749549 -0.4254053949 0.0429964497 -0.425704831 -0.0352633031 0.3099443606
690295860.0 -0.0238010062 0.2966250154 0.0386434954 -0.4254787864 0.0383533761 -0.4254861012 -0.0320429877 0.3104218467
695295830.0 -0.0205102867 0.2963458268 0.0330623253 -0.4254584064 0.0339928444 -0.4262036857 -0.0292155164 0.310934806
700295800.0 -0.0174826799 0.2970873043 0.0290789587 -0.4261746487 0.0293166985 -0.4266507888 -0.0255825513 0.3109978688
705295770.0 -0.0145572324 0.297612817 0.0246041566 -0.4264459483 0.0249172995 -0.4267317122 -0.0227781217 0.3119225189
710295740.0 -0.0112685611 0.297969672 0.020016522 -0.4265856581 0.0200819124 -0.4267267293 -0.0197621312 0.312502756
715295710.0 -0.0081929892 0.2981790518 0.0150262429 -0.4267967365 0.0156831603 -0.42692423 -0.0164140824 0.3122913694
720295680.0 -0.004938865 0.2982346276 0.0106819595 -0.4272033457 0.0109307549 -0.4274899186 -0.0126290046 0.3127344055
725295650.0 -0.0016006778 0.298458199 0.0057852638 -0.4267570937 0.0061357715 -0.427133593 -0.0095193671 0.3134010972
730295620.0 0.0012973601 0.2985963023 0.0015711892 -0.4271015236 0.0013563316 -0.4272859543 -0.0060841621 0.3132941447
735295590.0 0.0048874002 0.2984514434 -0.0030052655 -0.426933234 -0.0028271597 -0.4272056126 -0.0029973458 0.3133374831
740295560.0 0.0077402929 0.298896084 -0.0077060484 -0.4266482581 -0.0078606722 -0.4270311984 0.0002690434 0.3134744467
745295530.0 0.0107713069 0.2988471815 -0.0126196528 -0.4265379923 -0.0121078666 -0.4271389738 0.0031568072 0.3136994202
750295500.0 0.0139024153 0.2990253946 -0.016593551 -0.4266852566 -0.0169325286 -0.4265483983 0.0066220095 0.313396907
755295470.0 0.0174994744 0.2989532034 -0.0214967424 -0.4264870206 -0.0212607468 -0.426273909 0.0096261782 0.3138181581
760295440.0 0.0201461001 0.2988325952 -0.026168348 -0.4257716026 -0.0260086947 -0.4261117643 0.0127409357 0.3139529133
765295410.0 0.0234939102 0.2987297896 -0.0308453153 -0.4254414407 -0.0305689736 -0.4258354849 0.0167176819 0.3142668599
770295380.0 0.0269416815 0.2993116916 -0.0356156127 -0.4254537596 -0.0353097549 -0.4255954767 0.020087858 0.313658149
775295350.0 0.0297464034 0.2987884189 -0.0395518353 -0.4244463034 -0.039802914 -0.4247867726 0.0227219378 0.3134186503
780295320.0 0.0331185528 0.2985270699 -0.044203156 -0.4244357963 -0.044278063 -0.4245377055 0.0261567009 0.3140042054
785295290.0 0.036387041 0.2986339617 -0.0493312892 -0.4234682734 -0.0489747098 -0.4237413423 0.0291641274 0.3134943962
790295260.0 0.0391138349 0.2982339425 -0.0534129969 -0.4234355277 -0.0533658396 -0.4236125789 0.03295383 0.3134271112
795295230.0 0.0424735747 0.2982517916 -0.0579287786 -0.4223242232 -0.0576791664 -0.4225913462 0.0361213731 0.3136665762
800295200.0 0.0458192669 0.2973299116 -0.0630095172 -0.4219046048 -0.0630318701 -0.4222567146 0.0390443772 0.3130960168
805295170.0 0.048877001 0.297298459 -0.0672873746 -0.4208549107 -0.0672583337 -0.4210225178 0.0418938585 0.312819843
810295140.0 0.0519301838 0.296995813 -0.071660466 -0.4204244613 -0.0714909397 -0.4209648314 0.0456701022 0.3125011947
815295110.0 0.0550880904 0.2963744108 -0.0764589128 -0.4193879516 -0.0765256758 -0.4195050373 0.0487907425 0.3125884472
820295080.0 0.0581838273 0.2955202045 -0.0810008442 -0.4185539365 -0.0808543098 -0.4188923156 0.0520861353 0.3117471241
825295050.0 0.0617833495 0.2955674821 -0.0854527062 -0.4174051413 -0.0853741211 -0.4179040717 0.0556433574 0.3114752408
830295020.0 0.0647545816 0.294880862 -0.0898071092 -0.4165602031 -0.0901609071 -0.4167221829 0.0582047623 0.3109582132
