!Created with skrf (http://scikit-rf.org).
# Hz S RI R 50.0 
!freq ReS11 ImS11 ReS21 ImS21 ReS12 ImS12 ReS22 ImS22
300000.0 -0.0989551667 -0.0724507446 0.6283729041 0.0674536632 0.6230732061 0.067882931 -0.0990678155 -0.0794448756
5299970.0 -0.1023098834 0.0127845441 0.6303685041 0.0101443971 0.6305037578 0.0105560994 -0.1008175942 0.0130532139
10299940.0 -0.097342551 0.0293593248 0.6337305492 0.0152346891 0.6340876194 0.0157212238 -0.0958348315 0.0302724943
15299910.0 -0.0899860894 0.0426885286 0.6406516662 0.0202360142 0.6405859367 0.0206375619 -0.0887366842 0.0434614658
20299880.0 -0.0816443715 0.0531892128 0.648560116 0.0245761921 0.6483469854 0.024271917 -0.0798947551 0.054392345
25299850.0 -0.0725045691 0.0621797021 0.6575803317 0.0253487272 0.6578267057 0.0254927748 -0.0696978327 0.0635246436
30299820.0 -0.0622134494 0.0687787661 0.6673572996 0.0245177519 0.6674339313 0.0244926964 -0.0598422424 0.069916322
35299790.0 -0.0525315939 0.0735967085 0.6769611464 0.0213451595 0.6772495309 0.0217042813 -0.0502008644 0.0751474694
40299760.0 -0.0433461237 0.0773083321 0.6862571683 0.0172661863 0.6867393917 0.0176262531 -0.0405132741 0.0774394749
45299730.0 -0.0341156441 0.0794301834 0.695148102 0.0119623914 0.695507942 0.0121994951 -0.0313338954 0.0796542417
50299700.0 -0.0257467825 0.0801042779 0.7039333704 0.0054324698 0.7037734677 0.0054435996 -0.0227429833 0.0803319781
55299670.0 -0.0176521309 0.0803967549 0.7109676244 -0.0033208889 0.7109004983 -0.0028417791 -0.0144865021 0.0807641678
60299640.0 -0.0099662668 0.0801391335 0.7173129953 -0.0114953551 0.7174456598 -0.0108322008 -0.0078912703 0.0794007084
65299610.0 -0.0036352094 0.0788105548 0.7231803771 -0.0199179836 0.7233818172 -0.019837191 -0.0011403894 0.0785512086
70299580.0 0.0026642078 0.0777140241 0.7288313635 -0.0295958193 0.7286876514 -0.0288395598 0.0047977559 0.0769013359
75299550.0 0.0083770498 0.0757900294 0.7327186889 -0.0389524191 0.7328822624 -0.0390027038 0.0101459408 0.0749328651
80299520.0 0.0130939695 0.0734948065 0.7370007754 -0.0490912622 0.7374384786 -0.0487940404 0.0151319801 0.0729093774
85299490.0 0.0176542215 0.0715488739 0.7402611726 -0.0583864314 0.7406402678 -0.0583680803 0.0192073479 0.0700723002
90299460.0 0.0218174432 0.0691430316 0.7430737056 -0.0690719986 0.7432226983 -0.0682400076 0.0238206094 0.0682566429
95299430.0 0.0259227719 0.0664312507 0.7459342177 -0.0785333386 0.7458930121 -0.0792828685 0.0276320617 0.0655743556
100299400.0 0.0288575498 0.0648121679 0.746488994 -0.088732409 0.7469775567 -0.0890001943 0.0311764234 0.0628906324
105299370.0 0.0323909076 0.0621607926 0.7487251312 -0.0990914099 0.7492541442 -0.0989228687 0.0341013128 0.0606754117
110299340.0 0.0348046544 0.0598898522 0.7497778496 -0.1087656956 0.7495967853 -0.1087759102 0.0361475033 0.0578847932
115299310.0 0.0377528132 0.0574771147 0.7509091018 -0.1187526638 0.7509671003 -0.1189125357 0.039007201 0.0557893863
120299280.0 0.0397012181 0.0543623955 0.7510437562 -0.1292404679 0.7516640046 -0.1292776407 0.0413556478 0.0530423831
125299250.0 0.0418933586 0.0522907981 0.7517745283 -0.1386462502 0.7518700573 -0.1387483123 0.0426774895 0.0503228756
130299220.0 0.0434054732 0.0501744922 0.7512705305 -0.1490783565 0.7514531354 -0.1491984218 0.0452952679 0.0482768618
135299190.0 0.0455125379 0.0484992866 0.7516002416 -0.1588418947 0.751200989 -0.1585515577 0.0467362171 0.0459260979
140299160.0 0.04647582 0.0463327482 0.7510912554 -0.1684160718 0.7509784924 -0.1686378951 0.0479319953 0.0446801466
145299130.0 0.048368892 0.0440002555 0.7502600133 -0.1785738747 0.7497264532 -0.1781781322 0.0493970455 0.0422815249
150299100.0 0.0497868187 0.0421183323 0.7490685964 -0.1873347409 0.7490958829 -0.1871647575 0.0507164123 0.040207227
155299070.0 0.0504858969 0.0399163776 0.7485713583 -0.1981359279 0.7475090693 -0.1977951278 0.0517597591 0.0385573931
160299040.0 0.0518789994 0.0383774055 0.7463979815 -0.2069836107 0.745562823 -0.2075678396 0.0519776975 0.0361696309
165299010.0 0.0525896058 0.0363566068 0.7447725043 -0.2168498291 0.7444333449 -0.2166544741 0.0534048041 0.0349281498
170298980.0 0.0532032877 0.0338908444 0.7430795619 -0.2261580903 0.7436522465 -0.2258110594 0.0540691861 0.0334216728
175298950.0 0.0537493066 0.0324215725 0.7417097694 -0.2351092005 0.7405062508 -0.2351477944 0.0550602745 0.0314920121
180298920.0 0.0545084372 0.0307547002 0.7390530145 -0.2444958844 0.7388544526 -0.2440449075 0.0555019653 0.0301191992
185298890.0 0.0554091399 0.02899436 0.7365416387 -0.2537761822 0.7366179345 -0.2534768842 0.0558328916 0.0285333923
190298860.0 0.0557004727 0.0273475616 0.7346466982 -0.2631616403 0.7345841426 -0.2628733864 0.0566425714 0.0263802945
195298830.0 0.0561420906 0.0255330242 0.731842302 -0.271884481 0.7323548799 -0.271702373 0.0572655208 0.0251955986
200298800.0 0.0564674396 0.0241346591 0.7288192792 -0.2810141132 0.7294910076 -0.2807954644 0.0566386348 0.0239581492
205298770.0 0.0568766154 0.0227850439 0.7257917332 -0.2895352736 0.7263460968 -0.2891983486 0.0573166488 0.0214858666
210298740.0 0.0573116896 0.0211941069 0.7231828232 -0.2982450985 0.7233705841 -0.2977704532 0.0579999257 0.0213150258
215298710.0 0.0569874099 0.0199705386 0.7203347061 -0.3073502744 0.7205071785 -0.3072626439 0.0575345022 0.0199959479
220298680.0 0.0575916874 0.0180656621 0.7166607966 -0.3158228986 0.7169169443 -0.3155598308 0.0574670644 0.0180965547
225298650.0 0.0576349449 0.0168014907 0.7140354728 -0.3243077695 0.7142086736 -0.3245628214 0.0575891932 0.0166505763
230298620.0 0.0579539509 0.015649325 0.7111428099 -0.3327222153 0.711403228 -0.3327012268 0.0577149473 0.0150845516
235298590.0 0.0581065494 0.0145782816 0.7070436271 -0.3413038303 0.7070739419 -0.3405975328 0.0576434558 0.0137703223
240298560.0 0.05809469 0.0134383415 0.7035901481 -0.3496504133 0.7033593272 -0.3495069257 0.0576005412 0.0132018557
245298530.0 0.0578217574 0.011946652 0.7001692254 -0.3583295791 0.6997376352 -0.3582589269 0.0584610216 0.0110429124
250298500.0 0.0585993836 0.0110726495 0.6950775228 -0.3663318079 0.6952953447 -0.3658547443 0.0578584891 0.0104323856
255298470.0 0.0585907617 0.0093168864 0.6915309805 -0.3737469248 0.6919753529 -0.3739269477 0.0585193689 0.0089227605
260298440.0 0.0580404378 0.0083179496 0.6877075571 -0.3830126233 0.6882377653 -0.3823600181 0.0587569002 0.0079022915
265298410.0 0.0588325733 0.0077446068 0.6839461125 -0.3909804821 0.684059554 -0.3897353874 0.058283763 0.0072151746
270298380.0 0.0587105616 0.006446002 0.6803043185 -0.3981401207 0.6794336592 -0.3981543546 0.0582507906 0.0057382118
275298350.0 0.059174523 0.0052612329 0.6756496751 -0.4068088724 0.6754592382 -0.4065373014 0.0585679262 0.0044905596
280298320.0 0.0587431123 0.0044827487 0.6711655241 -0.4149514571 0.6711274327 -0.4141839313 0.0588068447 0.0032758831
285298290.0 0.0585749963 0.0030786495 0.6665794327 -0.4221997605 0.6664066571 -0.4220909568 0.0585153539 0.0025339107
290298260.0 0.0590590108 0.002245797 0.6621501479 -0.4291340395 0.6622054628 -0.4299302272 0.0588156469 0.0019303627
295298230.0 0.0589369051 0.0010850313 0.6576709602 -0.4377463333 0.6576803688 -0.4370088582 0.059473872 0.0002862006
300298200.0 0.0585114931 -0.00010217 0.6531732091 -0.4450958242 0.6531002486 -0.4455976706 0.0585427922 -0.0008412816
305298170.0 0.058819192 -0.0013464982 0.6476504779 -0.4535621665 0.6475400809 -0.4528696334 0.0595446164 -0.001955655
310298140.0 0.0584872557 -0.0023496777 0.6438060571 -0.4609154098 0.6438353381 -0.4601613846 0.0594374335 -0.0029489481
315298110.0 0.0582619992 -0.0038853759 0.6382758274 -0.4683253359 0.6384895126 -0.4684152269 0.0588137054 -0.0040655391
320298080.0 0.0587371636 -0.0048702884 0.6324227365 -0.4763567893 0.6331899474 -0.4757558832 0.0587379708 -0.0052929917
325298050.0 0.05798085 -0.0059220572 0.6273554129 -0.4838905575 0.6277367412 -0.4833418929 0.0583479827 -0.0063167179
330298020.0 0.0575532646 -0.0074146257 0.6215588003 -0.4907538578 0.6222778138 -0.4902828609 0.0573651639 -0.007241835
335297990.0 0.0571157275 -0.0082758691 0.6160232141 -0.4976149863 0.6160352127 -0.4977915891 0.0567950359 -0.0074475282
340297960.0 0.0560456624 -0.0088929089 0.6099902269 -0.5046808758 0.6095242539 -0.504849115 0.057089967 -0.0085991398
345297930.0 0.0557220506 -0.0088545437 0.6041903251 -0.5117829648 0.6043962034 -0.5122198954 0.0566440979 -0.0095387107
350297900.0 0.0552598906 -0.0107015449 0.5976849514 -0.5190053054 0.5981076352 -0.5181423151 0.0556729162 -0.0095957632
355297870.0 0.0551948944 -0.0104441886 0.5928473627 -0.5248404303 0.5930798978 -0.5249285038 0.0550596475 -0.0107822075
360297840.0 0.0547387299 -0.0110113951 0.5874178348 -0.5312234816 0.5878546482 -0.5313193503 0.0551096658 -0.0110017796
365297810.0 0.0541418524 -0.0116966354 0.5806100012 -0.5386268805 0.5818556708 -0.5381708238 0.0550471073 -0.0116475377
370297780.0 0.0545433748 -0.0130056191 0.5745847563 -0.5447792808 0.5750834032 -0.5437175595 0.0542803196 -0.0122599673
375297750.0 0.053782511 -0.0136982569 0.5693985094 -0.551037028 0.569589675 -0.5508212342 0.0540981255 -0.0128676531
380297720.0 0.0538328063 -0.0140433394 0.5632952442 -0.5574702942 0.5635134939 -0.5565920277 0.0535315642 -0.0138701802
385297690.0 0.0530245275 -0.0150988085 0.5564052765 -0.5636368764 0.5565086319 -0.5630361241 0.0535250582 -0.0143212134
390297660.0 0.0526749696 -0.0153625544 0.5505524499 -0.5703794308 0.5505437896 -0.5692794798 0.0525563477 -0.0153105231
395297630.0 0.0523731998 -0.0160271578 0.5443468563 -0.5756624295 0.5446083875 -0.5756757324 0.0531693265 -0.01565517
400297600.0 0.0520347996 -0.0167263825 0.5375005872 -0.5825368775 0.5376995825 -0.5818439999 0.0526517461 -0.0163884478
405297570.0 0.0513760454 -0.0173008405 0.5314763899 -0.587865538 0.5315212127 -0.5875461175 0.0518994535 -0.0167056652
410297540.0 0.0513683412 -0.018228475 0.5252038174 -0.5943208876 0.5257196165 -0.5939184999 0.0514400279 -0.0171017169
415297510.0 0.0513964199 -0.01836197 0.5183219772 -0.6001972832 0.518964005 -0.5997572708 0.0513260039 -0.0181193474
420297480.0 0.0510573241 -0.0190774317 0.5116904952 -0.605806255 0.5114477215 -0.6056510611 0.050750372 -0.0192035865
425297450.0 0.0502775733 -0.0204043209 0.5055397734 -0.6110386654 0.5055416878 -0.6111014133 0.0500999966 -0.0189723749
430297420.0 0.0502648115 -0.0207874733 0.4984131491 -0.6160667024 0.4985331015 -0.616093667 0.0496096103 -0.0203453047
435297390.0 0.049707863 -0.0210895682 0.4910042505 -0.6220080375 0.4911996032 -0.62201495 0.0502445369 -0.0205271982
440297360.0 0.0494110637 -0.0215997862 0.4849007205 -0.6275693283 0.484614673 -0.6278493116 0.0492893362 -0.0212214327
445297330.0 0.0490255106 -0.0227522089 0.4782398195 -0.6328459204 0.4782292383 -0.6325317133 0.0492832685 -0.022128449
450297300.0 0.048883778 -0.0230404037 0.4711655043 -0.6378435907 0.4711613405 -0.6383678954 0.0488457894 -0.0227529673
455297270.0 0.0484012039 -0.0235944599 0.4635590614 -0.6431885172 0.464172738 -0.643384246 0.0485112113 -0.0231277704
460297240.0 0.0476656603 -0.0243064437 0.4567101293 -0.6484805023 0.4565305396 -0.6486440059 0.0477568609 -0.0237036081
465297210.0 0.0478238672 -0.024905984 0.4495389179 -0.6539680482 0.4497897721 -0.6544619639 0.0478022771 -0.024706135
470297180.0 0.046966917 -0.0254836805 0.4415427202 -0.6586989258 0.4420745188 -0.6585067023 0.0474049937 -0.0248850838
475297150.0 0.0467092563 -0.0261706412 0.4350799711 -0.6626615919 0.4354701436 -0.6633137162 0.0475355643 -0.0259104568
480297120.0 0.046223119 -0.0258095195 0.4273771717 -0.668454575 0.4274492473 -0.6683810615 0.0468831584 -0.0256582108
485297090.0 0.0456894125 -0.0266695027 0.4209058361 -0.672538604 0.42061114 -0.6724818643 0.0465614426 -0.0268641009
490297060.0 0.0450094829 -0.0275750569 0.4133972022 -0.6776728501 0.4134371928 -0.6769886617 0.046253174 -0.0263584461
495297030.0 0.0448713715 -0.0278690549 0.4053208159 -0.6820766903 0.4063213359 -0.6821302775 0.0451748482 -0.0274887714
500297000.0 0.0441952013 -0.028696052 0.3977164385 -0.6857718819 0.3976944134 -0.6858718781 0.0451631777 -0.027333274
505296970.0 0.0440771185 -0.0292881689 0.3903572414 -0.6901898745 0.389818324 -0.6909055815 0.0448189764 -0.0280789398
510296940.0 0.0435922564 -0.0292436463 0.382759146 -0.6953483977 0.3823659502 -0.6954828149 0.044371095 -0.0284232366
515296910.0 0.0428195166 -0.0294754922 0.3748851226 -0.6993252438 0.3753049197 -0.6989673182 0.0439242905 -0.0287480189
520296880.0 0.0423899359 -0.0301786225 0.3676994645 -0.7035335764 0.3677592248 -0.7028811561 0.0433136691 -0.0294554037
525296850.0 0.0421353568 -0.0313132557 0.3594574669 -0.7072095483 0.3601067261 -0.706928567 0.0424758176 -0.029808794
530296820.0 0.0414263085 -0.0312512988 0.3514914894 -0.7112146435 0.3521883838 -0.7109963006 0.0427073894 -0.0296736999
535296790.0 0.0407564607 -0.0316502371 0.344351977 -0.7149058608 0.3447384059 -0.7146377735 0.0418940657 -0.0308893833
540296760.0 0.0402912337 -0.0318357412 0.336278089 -0.7194174926 0.3362639911 -0.7190213383 0.0410828981 -0.0303974226
545296730.0 0.0398364896 -0.0324087104 0.3276686234 -0.7225929441 0.3284538063 -0.7223525193 0.04053995 -0.0312380871
550296700.0 0.040044627 -0.0324558778 0.320366297 -0.7261291718 0.3208121504 -0.7265254244 0.0397413941 -0.0312588996
555296670.0 0.0387792635 -0.0329484486 0.3125386647 -0.7293529519 0.3129333902 -0.7293506472 0.0396530833 -0.0319299075
560296640.0 0.0387217785 -0.0328096718 0.3042562515 -0.7330214934 0.3050314317 -0.732630378 0.0392110465 -0.0328580195
565296610.0 0.037654172 -0.0338666256 0.2958681657 -0.7364039356 0.2966868331 -0.7360240786 0.0381786089 -0.0329894308
570296580.0 0.0373633143 -0.0337536834 0.2884081902 -0.7401364313 0.2882714927 -0.7398229831 0.0377483489 -0.0326646281
575296550.0 0.0365629257 -0.0341365682 0.2806524313 -0.7429935242 0.279968092 -0.7428610592 0.037617445 -0.033695299
580296520.0 0.0362006409 -0.0345940465 0.271937932 -0.7459299672 0.2721010693 -0.7457543801 0.0368282053 -0.0342288687
585296490.0 0.0356108791 -0.0355691975 0.2640873229 -0.7480011263 0.2642801898 -0.7484290693 0.0364116622 -0.0344091451
590296460.0 0.0356892488 -0.0353750867 0.2558431434 -0.7505408995 0.255797934 -0.7509376961 0.0351366527 -0.0344215697
595296430.0 0.0352559091 -0.0357323103 0.2471483376 -0.7542245545 0.2471371149 -0.7544548965 0.0351835274 -0.0354970437
600296400.0 0.0339318723 -0.0360461556 0.2390840577 -0.7569511357 0.2393781448 -0.7568080743 0.0344787697 -0.035319394
605296370.0 0.0337354599 -0.0366275664 0.2312028116 -0.7592567748 0.2311021208 -0.7597604695 0.0337037115 -0.0356086689
610296340.0 0.0331961628 -0.0366797156 0.2225194849 -0.7619807127 0.2230622158 -0.7618446116 0.0338054155 -0.0362604294
615296310.0 0.0330142776 -0.0373410663 0.2141700834 -0.7640887151 0.2138539434 -0.7648946742 0.0332712043 -0.0362348994
620296280.0 0.0324380083 -0.0379340772 0.2063637274 -0.7666398015 0.2060707941 -0.76598508 0.0321974946 -0.0367402267
625296250.0 0.0312759305 -0.0384070025 0.1983760028 -0.7689542711 0.1978701946 -0.7693103894 0.0327138342 -0.0369976532
630296220.0 0.0317217835 -0.0380415611 0.1887188412 -0.7708829413 0.1887854595 -0.7703525319 0.0318450558 -0.0370412669
635296190.0 0.0298338419 -0.0390256059 0.1807282773 -0.7731386817 0.1808361456 -0.7726437787 0.0313572112 -0.0377883493
640296160.0 0.02963911 -0.0388486736 0.1719928349 -0.7745430195 0.1726334228 -0.7746367512 0.0307208332 -0.03765925
645296130.0 0.0292885733 -0.0392073938 0.1634237869 -0.7762878017 0.1644485716 -0.7761185365 0.0303597974 -0.0378581943
650296100.0 0.0287166932 -0.0392810815 0.1553590185 -0.7782177299 0.1558701682 -0.7784253333 0.0303138711 -0.03900474
655296070.0 0.0276033726 -0.0400938065 0.1467536011 -0.7801962753 0.1473610111 -0.7799407002 0.0297663371 -0.0384067926
660296040.0 0.0266172281 -0.0405421002 0.1380001189 -0.7818232496 0.1388091208 -0.7813987384 0.0290749631 -0.0387771601
665296010.0 0.0271482691 -0.0403916111 0.1290612456 -0.7826588077 0.1302154416 -0.782885622 0.0284895715 -0.0383447881
670295980.0 0.0251317148 -0.0403454107 0.1216710922 -0.7838978599 0.1211679969 -0.78420676 0.0272937861 -0.0391160895
675295950.0 0.0252170053 -0.0404455801 0.1126319433 -0.784900932 0.1129893966 -0.7849296474 0.0264654545 -0.0394437402
680295920.0 0.0240299856 -0.040945098 0.103958894 -0.7862479202 0.1034712466 -0.7875602314 0.0263726935 -0.038575187
685295890.0 0.0241955742 -0.0401850612 0.0956640806 -0.7874292302 0.0954919426 -0.787924494 0.0256375387 -0.0392183057
690295860.0 0.0238845868 -0.0405021198 0.0874473519 -0.7879515112 0.0864703676 -0.7890080854 0.0249423207 -0.0384791603
695295830.0 0.023394733 -0.0413884157 0.0787323222 -0.7895332271 0.0779377067 -0.7891562878 0.0239747288 -0.0390534467
700295800.0 0.022787279 -0.0415494894 0.0694917849 -0.7902710906 0.0694315734 -0.7899538916 0.0235631723 -0.0384351456
705295770.0 0.0214900801 -0.0406548246 0.0609155576 -0.7909400705 0.0616902739 -0.7911254122 0.023067289 -0.0391345871
710295740.0 0.0213365309 -0.0412052481 0.0526211539 -0.7923619571 0.0530453521 -0.7921653477 0.0227548447 -0.0398829887
715295710.0 0.0199956028 -0.0416568509 0.0444418106 -0.7922495792 0.044337241 -0.792174318 0.0221355999 -0.0395935652
720295680.0 0.0198779091 -0.0417081802 0.0352437641 -0.7931265007 0.0356482031 -0.7922195442 0.0214536168 -0.0390829206
725295650.0 0.0195676734 -0.0416007047 0.0267382426 -0.7929965606 0.0270707108 -0.7930216075 0.020111788 -0.0395264202
730295620.0 0.0191836095 -0.0411987586 0.017930587 -0.7927300688 0.0183043386 -0.7929806088 0.0195608513 -0.0398300585
735295590.0 0.0183350482 -0.0412974918 0.0094490717 -0.7932010688 0.0093324844 -0.7936153788 0.019215319 -0.0399587937
740295560.0 0.0173295276 -0.0414901379 0.0007911088 -0.7929890078 0.0009908525 -0.7932923566 0.0189422729 -0.0398410368
745295530.0 0.0166345755 -0.0414924802 -0.0081239075 -0.792894906 -0.0076782052 -0.7937988754 0.0181460834 -0.0407040968
750295500.0 0.0163674487 -0.0416217324 -0.01629052 -0.7925527476 -0.0162381171 -0.793115436 0.0174190454 -0.0401165963
755295470.0 0.0158038972 -0.0419654132 -0.0246910505 -0.7931495431 -0.0246888681 -0.7934090121 0.0176676715 -0.0405049131
760295440.0 0.0151252563 -0.041865624 -0.0334765193 -0.7927097372 -0.0338527494 -0.7928524512 0.0164888704 -0.0407344607
765295410.0 0.0143347141 -0.0417391733 -0.042432352 -0.7922783249 -0.0422597497 -0.7926905296 0.0163081192 -0.0406742845
770295380.0 0.0133941217 -0.0420605685 -0.0512809109 -0.7918568001 -0.0508471315 -0.7917531634 0.0150289949 -0.0410481405
775295350.0 0.0128764833 -0.0425388644 -0.0597877514 -0.7912323745 -0.0588697168 -0.7907049118 0.0137707909 -0.0405265577
780295320.0 0.0127850804 -0.0422400048 -0.0679186216 -0.7900554644 -0.0669103103 -0.7898401037 0.013697729 -0.0413220796
785295290.0 0.0115834008 -0.0427523067 -0.0772935598 -0.7891660084 -0.0765944619 -0.7893330988 0.0138235855 -0.0404645973
790295260.0 0.0116628739 -0.0417421244 -0.0850023858 -0.7886204229 -0.0843347907 -0.7882266558 0.0128157176 -0.0411086425
795295230.0 0.0109177506 -0.0423402702 -0.0938345792 -0.7872159118 -0.0930792884 -0.7875596992 0.0125450319 -0.0403608771
800295200.0 0.0098843779 -0.0417458123 -0.1030126055 -0.7859275142 -0.1019099839 -0.786705185 0.0118802847 -0.0409799744
805295170.0 0.0092494731 -0.042312 -0.1109220642 -0.7849895164 -0.1109103898 -0.7852616764 0.0113838682 -0.0408113023
810295140.0 0.0084142847 -0.0426530489 -0.1190717735 -0.7837389664 -0.1190590538 -0.7842401623 0.0114102744 -0.0404116088
815295110.0 0.0083131091 -0.0426873527 -0.127800405 -0.7817136795 -0.1276945995 -0.7823420083 0.0100577766 -0.0403564096
820295080.0 0.0066850021 -0.0415926668 -0.136398668 -0.7805143138 -0.1359497759 -0.7809481514 0.0095429706 -0.0404097177
825295050.0 0.0072806828 -0.0420073636 -0.1438341035 -0.779301716 -0.1446993844 -0.7794357914 0.009443732 -0.0401357301
830295020.0 0.0062078563 -0.0416063283 -0.1534545301 -0.7777485246 -0.1529440962 -0.7777391951 0.0093149535 -0.039756109
