!Created with skrf (http://scikit-rf.org).
# Hz S RI R 50.0 
!freq ReS11 ImS11 ReS21 ImS21 ReS12 ImS12 ReS22 ImS22
300000.0 -0.0965954232 -0.0881088649 0.6236583634 0.0831428524 0.6249436471 0.0878761559 -0.0968968626 -0.0982488498
5299970.0 -0.1000988116 0.012745676 0.6307799733 0.0108864164 0.6301373078 0.0113216245 -0.1019320597 0.0116783194
10299940.0 -0.0950718079 0.0297099774 0.6342690608 0.0154921801 0.6344094712 0.0159455993 -0.0972131608 0.0289165129
15299910.0 -0.0886147492 0.0430958257 0.6404478941 0.0210242677 0.6405311074 0.0209408906 -0.0898995237 0.0419581314
20299880.0 -0.0794167964 0.054427571 0.6485332489 0.0240572261 0.6485756046 0.0241552394 -0.0816194211 0.0531326408
25299850.0 -0.0696224866 0.06289123 0.6577150188 0.0249331107 0.6582816537 0.025595086 -0.0724347518 0.0619273773
30299820.0 -0.059496601 0.0692714553 0.6681447698 0.0246855389 0.6673485224 0.0245335649 -0.0624135036 0.0687385089
35299790.0 -0.0492627689 0.0741873485 0.6770738632 0.0215373919 0.6777483006 0.0219225829 -0.0523578448 0.073686182
40299760.0 -0.0394716249 0.0769791065 0.6862913442 0.0176741964 0.6865615118 0.0172754472 -0.0434961485 0.0770548517
45299730.0 -0.0302980055 0.079130113 0.6958538434 0.0117424027 0.6957446206 0.0120662015 -0.0340276973 0.079028025
50299700.0 -0.0215785662 0.0798182896 0.7030793831 0.0047130559 0.7036112549 0.0048560205 -0.0254479244 0.0801460553
55299670.0 -0.0142462526 0.0799275911 0.7101888762 -0.0031424719 0.7111052026 -0.0025711208 -0.0174648435 0.0799270283
60299640.0 -0.0065389617 0.078700467 0.7171963213 -0.011333326 0.7175281954 -0.0110923724 -0.0103772231 0.0798994808
65299610.0 -8.06509e-05 0.0780100011 0.7240379357 -0.0196516562 0.7241035233 -0.019914448 -0.0035187719 0.0784785938
70299580.0 0.0061771641 0.0757921946 0.7284326223 -0.0291080743 0.7288148385 -0.0292909882 0.0024894784 0.0772526598
75299550.0 0.0117782762 0.0743721872 0.7329375284 -0.0388583863 0.7329337061 -0.0389777504 0.0083361746 0.075724827
80299520.0 0.0163178749 0.0719756091 0.7377723942 -0.0493288781 0.7377380125 -0.0488779683 0.0132363787 0.0729733597
85299490.0 0.0207957268 0.0694908142 0.7407821374 -0.0590281028 0.7406473774 -0.0589841482 0.017386558 0.0709312318
90299460.0 0.0246733014 0.0673320158 0.7429789757 -0.0688560424 0.7435616498 -0.0691298376 0.0224152949 0.0688692237
95299430.0 0.0283784752 0.0653491473 0.746209167 -0.0792599453 0.745993504 -0.0789606335 0.0251592297 0.0663816899
100299400.0 0.031524083 0.0626305713 0.7475584169 -0.0893752963 0.7471751952 -0.0894930589 0.0284476466 0.0639359724
105299370.0 0.0345317146 0.0602853762 0.7486529711 -0.0991388967 0.7491065623 -0.099550703 0.0321391894 0.0618014135
110299340.0 0.0369470729 0.0576765228 0.7500180314 -0.1094383266 0.7501235994 -0.1093610965 0.034402214 0.0594181741
115299310.0 0.0397993786 0.0547747065 0.7509347593 -0.1191541064 0.7512071542 -0.1190377149 0.0370945725 0.0565210606
120299280.0 0.0412843363 0.0527516089 0.7517578832 -0.1298735278 0.7513046642 -0.1297396657 0.0390137112 0.0543718312
125299250.0 0.0433599729 0.0503390978 0.7518099661 -0.1390123962 0.7520100913 -0.1393910584 0.0411853773 0.0512191044
130299220.0 0.0450994664 0.0478810927 0.7515711578 -0.1488716257 0.7518609425 -0.1490221677 0.0430463682 0.0496411184
135299190.0 0.0468274607 0.0453491195 0.7513643231 -0.1587633373 0.7509407197 -0.1590755164 0.0446075548 0.0476461582
140299160.0 0.0476945309 0.0444643254 0.7507612441 -0.1682463777 0.7510861902 -0.1686829883 0.0457631712 0.0454843073
145299130.0 0.0492460213 0.0418064308 0.7502617374 -0.1785144866 0.7495769704 -0.1784958431 0.0471608877 0.0429690427
150299100.0 0.0507486793 0.0399932963 0.7492871941 -0.188567991 0.748877733 -0.1882706062 0.0486364424 0.0407956144
155299070.0 0.0509777058 0.0383991065 0.7477230523 -0.1983505556 0.7476758475 -0.1983491034 0.0492592755 0.0387711669
160299040.0 0.052188554 0.0359243668 0.7460008459 -0.2067206994 0.7462468741 -0.2073860456 0.0508108047 0.0372575168
165299010.0 0.0528645912 0.0343213348 0.7454202974 -0.2166840902 0.7451723784 -0.2170362469 0.0515688535 0.0346118051
170298980.0 0.0536104048 0.0326067634 0.7420353587 -0.2263906982 0.7427914897 -0.226576672 0.0525937633 0.0327495381
175298950.0 0.0544253979 0.0307048837 0.7414650749 -0.2351813973 0.7417439902 -0.2354626064 0.0531951642 0.0311060425
180298920.0 0.0552705122 0.0293833002 0.7395427423 -0.2447795236 0.7388318769 -0.2439729949 0.0535590465 0.0296876737
185298890.0 0.056130863 0.0274442877 0.7369239471 -0.2540186209 0.7367076778 -0.2535811354 0.0542005496 0.0276589249
190298860.0 0.0563241119 0.025659633 0.7341228158 -0.2629542786 0.73485463 -0.262980052 0.0554897523 0.0260971486
195298830.0 0.05627661 0.0239989473 0.7317750863 -0.2715685697 0.7320743274 -0.272192777 0.0557903762 0.0240668517
200298800.0 0.0568949767 0.0226212829 0.7296312909 -0.2798254349 0.7292882586 -0.2804892162 0.0561466241 0.0233326536
205298770.0 0.0571432458 0.0214671574 0.7270771685 -0.289276641 0.7266177688 -0.2900453131 0.0563744263 0.0209580432
210298740.0 0.0574032369 0.019676284 0.7238700206 -0.2986218397 0.723793214 -0.2987914484 0.0566476183 0.0198166852
215298710.0 0.0579725095 0.018794364 0.7207941108 -0.3067235517 0.720628775 -0.3070309153 0.0569884056 0.0181551658
220298680.0 0.0584235383 0.0174749863 0.7175124297 -0.3159091166 0.7175441556 -0.3157790331 0.0575716221 0.0170825649
225298650.0 0.0586468276 0.0162172846 0.7140366069 -0.3240361501 0.7138061054 -0.3240407308 0.0577134417 0.0156322556
230298620.0 0.0581564475 0.0147753008 0.7111393001 -0.3327831275 0.7112073986 -0.3329136146 0.0575597412 0.0141500855
235298590.0 0.058509682 0.0132663676 0.7076197644 -0.3407924241 0.7078361379 -0.3418809221 0.0580068253 0.0124177729
240298560.0 0.0583881375 0.0119383048 0.7041490415 -0.3493769013 0.7038718948 -0.348772298 0.0584316421 0.0117394942
245298530.0 0.0587683361 0.0114160176 0.6990121953 -0.3578197035 0.6998504246 -0.3579073495 0.058602998 0.010729569
250298500.0 0.0583981532 0.0098739992 0.6957183423 -0.365572292 0.6963635786 -0.3657256853 0.0587377625 0.0085953683
255298470.0 0.0582206034 0.0089224849 0.6916999946 -0.3745842222 0.6923721288 -0.3744641804 0.0591225411 0.0072991879
260298440.0 0.05841935 0.0078664594 0.6880542131 -0.3823077763 0.6884580114 -0.3825271622 0.059645217 0.0067333294
265298410.0 0.0592054183 0.0070897496 0.6844170848 -0.390626459 0.6840435059 -0.3906186855 0.058962838 0.0051746453
270298380.0 0.0593176664 0.0057324523 0.6795961297 -0.3986449707 0.6799323444 -0.398414839 0.0591099063 0.0050064408
275298350.0 0.0585290195 0.0049290311 0.6754141512 -0.4065993503 0.676001837 -0.4065145773 0.0592455539 0.0034501028
280298320.0 0.058680988 0.0039794354 0.6707730319 -0.4137786478 0.6711865804 -0.4145534056 0.0594733399 0.0027669258
285298290.0 0.0589333276 0.0029443317 0.6665504924 -0.4220467272 0.6666386819 -0.422167153 0.0591386465 0.0014813062
290298260.0 0.058949598 0.002019508 0.6627289809 -0.42962602 0.6621347935 -0.4299013206 0.0597397393 0.0006205785
295298230.0 0.058808758 0.0008912154 0.6577149722 -0.4379668023 0.6573935444 -0.4375109274 0.0598447045 -0.000242171
300298200.0 0.0591537961 -0.0001722542 0.6529680025 -0.4451850075 0.6531714966 -0.4450189379 0.0595164907 -0.0014067174
305298170.0 0.0590462615 -0.0013375272 0.6479046896 -0.453255277 0.6488533749 -0.4531078274 0.0599798797 -0.0023762371
310298140.0 0.0595301967 -0.0025645451 0.6436845486 -0.4608072044 0.6435331467 -0.4613160891 0.0601066652 -0.0030757325
315298110.0 0.0587534591 -0.0036125244 0.6383458211 -0.4679251539 0.6386948958 -0.4680341582 0.0600366913 -0.004493451
320298080.0 0.0586179997 -0.0044053127 0.6333230512 -0.4761845479 0.6331587958 -0.4760378098 0.0595979233 -0.0059379822
325298050.0 0.0583594465 -0.0059901173 0.6283429924 -0.4838004258 0.6282573384 -0.4832520237 0.0593495637 -0.0068101842
330298020.0 0.0578959191 -0.0065218246 0.6216531164 -0.4900888966 0.6219946079 -0.490781075 0.0586679484 -0.0081855797
335297990.0 0.0574738615 -0.0079776963 0.6162556888 -0.4975619239 0.6161553829 -0.4978800699 0.058390611 -0.0087557817
340297960.0 0.0566692788 -0.0078825987 0.6105273455 -0.5046586478 0.6108523132 -0.5045224962 0.0577508328 -0.0097001108
345297930.0 0.0562502101 -0.0085347734 0.6049919571 -0.5108644208 0.6048254661 -0.5115414201 0.0579160068 -0.0105424222
350297900.0 0.0567235079 -0.0094920748 0.598348706 -0.5175015482 0.5994198598 -0.5177855821 0.0568497645 -0.0105632095
355297870.0 0.0560294877 -0.0102203276 0.5932873658 -0.5246251382 0.593041577 -0.5250756699 0.0566315852 -0.0112609
360297840.0 0.0560374014 -0.0108482292 0.5878665314 -0.5315871829 0.5874918481 -0.5313877919 0.0566004339 -0.0116538091
365297810.0 0.0558743505 -0.0114500641 0.5815344478 -0.5376495662 0.5814839814 -0.5384031351 0.0558853565 -0.0121680305
370297780.0 0.0557601665 -0.0122187496 0.5751586611 -0.5438782683 0.5759888645 -0.5449488406 0.0561150435 -0.0126270858
375297750.0 0.0550571726 -0.0125119682 0.5702413555 -0.550864636 0.5697897021 -0.5514301534 0.0556664943 -0.0135553131
380297720.0 0.0551328597 -0.0136773443 0.5632635499 -0.5569981982 0.5632472177 -0.5571205266 0.0554943155 -0.0139977347
385297690.0 0.0546855821 -0.0141461723 0.5571004648 -0.5629402108 0.5573130215 -0.5634118702 0.0547189194 -0.0144083309
390297660.0 0.0541917482 -0.01465583 0.5514407051 -0.5700902301 0.5512125811 -0.5703197961 0.0551159428 -0.0158533614
395297630.0 0.0546496228 -0.0156743834 0.5448676234 -0.575411853 0.5449328857 -0.5758051329 0.054317442 -0.0156039163
400297600.0 0.0537717489 -0.015897274 0.5379604298 -0.5819582203 0.5390155631 -0.5821621944 0.0532693411 -0.0169091572
405297570.0 0.0540135203 -0.0163928271 0.5321933202 -0.5878866423 0.5322389785 -0.587672368 0.0535381152 -0.0169401166
410297540.0 0.0536350624 -0.0175447964 0.5246822482 -0.5937602124 0.5252023661 -0.5938820733 0.0533111553 -0.0177307245
415297510.0 0.0531274539 -0.0172408573 0.5186394149 -0.599257761 0.5191188773 -0.5998550992 0.0528836702 -0.0179052827
420297480.0 0.0528864032 -0.0191648773 0.5118620809 -0.6055525914 0.5124863234 -0.6057403181 0.0526994655 -0.0189890912
425297450.0 0.0532048079 -0.0197454281 0.5056296255 -0.6107895869 0.5061077931 -0.6113036344 0.052169731 -0.0187839278
430297420.0 0.0525745954 -0.0196161272 0.4992476583 -0.6170690842 0.4991964569 -0.6170919979 0.0513579507 -0.0204949719
435297390.0 0.0523834707 -0.020611662 0.4923741723 -0.6215080128 0.4921120318 -0.6219653503 0.050969162 -0.0198347809
440297360.0 0.0522599193 -0.0214229037 0.4850670145 -0.6275985561 0.4845933134 -0.6280007917 0.0510489296 -0.021330144
445297330.0 0.0522543327 -0.0219610441 0.4777848365 -0.633687973 0.4777506416 -0.6332964236 0.0507946485 -0.0214565013
450297300.0 0.0519413759 -0.0223547379 0.4713812048 -0.6381162398 0.4713240154 -0.6388661649 0.0503770047 -0.0219703244
455297270.0 0.0512928558 -0.0234133793 0.464685664 -0.6437185371 0.4647360334 -0.6432987907 0.0500600774 -0.0225580763
460297240.0 0.0505211572 -0.0237055421 0.4567601576 -0.6484558056 0.4569334848 -0.6491785138 0.0494645767 -0.022596932
465297210.0 0.0507435818 -0.0246288772 0.4500114651 -0.6534885031 0.4506179819 -0.6540022037 0.0489056235 -0.0237335861
470297180.0 0.0497772448 -0.0252467166 0.443045805 -0.6587046646 0.4434257854 -0.6590271034 0.0477952413 -0.0239451235
475297150.0 0.0494767299 -0.0264567063 0.4351622457 -0.6635433673 0.4356946905 -0.6628412182 0.0482093236 -0.0246742823
480297120.0 0.0499413168 -0.0268739629 0.428421945 -0.667729699 0.428538085 -0.6680957629 0.047424996 -0.02483887
485297090.0 0.0495150828 -0.0273208953 0.4218001088 -0.6730290023 0.4214487902 -0.6730471916 0.0468149392 -0.0257091235
490297060.0 0.0490056518 -0.0281321286 0.4137098415 -0.6780110215 0.413895371 -0.6778140063 0.0470312538 -0.0255936539
495297030.0 0.0479666467 -0.0281158644 0.4056312154 -0.6824645704 0.4061809906 -0.6824679301 0.0465172158 -0.0265189435
500297000.0 0.0479283585 -0.029321937 0.3988860384 -0.6863056473 0.3983487624 -0.6868412624 0.0452339144 -0.0270855967
505296970.0 0.0473255108 -0.0297346861 0.3906237316 -0.6908229185 0.3906650344 -0.6908443183 0.0448742485 -0.0272851982
510296940.0 0.0468832792 -0.0300594153 0.3836009425 -0.6952019706 0.3838409232 -0.6953896321 0.0451544739 -0.0271533805
515296910.0 0.0461335812 -0.0303599288 0.3759244305 -0.6992888872 0.3760557861 -0.6993895517 0.0440553887 -0.0280009503
520296880.0 0.0461363884 -0.0314901939 0.3681762351 -0.7035544457 0.3684150076 -0.7038821272 0.0438594585 -0.0284886741
525296850.0 0.0455699219 -0.0321274767 0.3603976345 -0.7078859504 0.3604418549 -0.7075951464 0.0437728527 -0.0289790024
530296820.0 0.0451406516 -0.0326093667 0.3536637965 -0.7111396429 0.3523028237 -0.7116682475 0.0427442904 -0.0300318988
535296790.0 0.0443191533 -0.0332674592 0.3446718599 -0.7146553729 0.3449980549 -0.7153854417 0.0426428694 -0.0304236642
540296760.0 0.0439351888 -0.033858155 0.3372965959 -0.7196360169 0.336566636 -0.7194763496 0.0416725566 -0.0303838011
545296730.0 0.0435000175 -0.0337730857 0.3288198422 -0.7221700575 0.3290354637 -0.7233729965 0.0411728805 -0.0313659947
550296700.0 0.0427362379 -0.0345251004 0.3215065081 -0.7266372037 0.3219646266 -0.7266093367 0.0404883811 -0.0307437072
555296670.0 0.0425524482 -0.0353731361 0.3133012582 -0.7300338585 0.3134622108 -0.7299166711 0.0400252794 -0.0314019991
560296640.0 0.0419245331 -0.035613201 0.3058363141 -0.7330638559 0.3052393303 -0.7331830149 0.0395985249 -0.0315685554
565296610.0 0.0407815507 -0.0361893312 0.297053881 -0.7367288041 0.296829673 -0.7370910007 0.0392119268 -0.0324465801
570296580.0 0.0411089249 -0.0366798015 0.2893331415 -0.7396208588 0.2894685682 -0.7400997497 0.0387575173 -0.0319161029
575296550.0 0.0403805471 -0.0362084022 0.281053664 -0.7426908034 0.28145577 -0.7426522329 0.0384570164 -0.0328518937
580296520.0 0.0395410847 -0.0371706636 0.2734222163 -0.7460685381 0.2725478163 -0.7461006231 0.0378006898 -0.0333322903
585296490.0 0.0394009007 -0.0377391023 0.2657934797 -0.7487706024 0.2646439222 -0.7489718394 0.0372261212 -0.0340039963
590296460.0 0.0379870616 -0.0384739119 0.2564605104 -0.7521978942 0.2563633619 -0.7519549951 0.0368547942 -0.0333206755
595296430.0 0.03772024 -0.0384384344 0.2488644019 -0.7547500347 0.248382932 -0.7548849889 0.0363894094 -0.0340943853
600296400.0 0.0370715903 -0.0389201375 0.2403726519 -0.7574736186 0.2406209883 -0.7570888602 0.0355881129 -0.0341058246
605296370.0 0.0368025739 -0.0386058608 0.2321547454 -0.7599004843 0.2318727223 -0.7596829562 0.0354188222 -0.0351444178
610296340.0 0.0357880495 -0.0397194472 0.2241985866 -0.7623081024 0.2238725072 -0.7625129276 0.0347410346 -0.0342213395
615296310.0 0.0352053472 -0.0394590843 0.2145178115 -0.7645560277 0.2154752585 -0.7649591875 0.0343164032 -0.0351426022
620296280.0 0.034473753 -0.0400758337 0.2070489496 -0.7671356567 0.2071721477 -0.7672755336 0.0335901899 -0.0358800499
625296250.0 0.0344266214 -0.040518575 0.1983702171 -0.7691633569 0.1985259237 -0.7694884731 0.0333903986 -0.0355614036
630296220.0 0.0334183167 -0.0406138792 0.1903534734 -0.7718530427 0.1906742801 -0.7712288712 0.0318031043 -0.0357603787
635296190.0 0.0331667062 -0.0409015894 0.1821152815 -0.7730153825 0.1814099354 -0.7726773259 0.0315964967 -0.0364591813
640296160.0 0.0323722401 -0.041305726 0.1732828719 -0.7748480917 0.1733908237 -0.7754856627 0.0319667148 -0.0365106262
645296130.0 0.0319686901 -0.0411114305 0.1646861378 -0.7772661016 0.1648845879 -0.7771068965 0.0300088761 -0.037354426
650296100.0 0.0309506789 -0.0409833913 0.1570675336 -0.7785594883 0.1564986342 -0.7783585851 0.0302970975 -0.037179154
655296070.0 0.0303199196 -0.0421860341 0.1483143386 -0.7801518881 0.1476310149 -0.7802215266 0.0302102057 -0.0369983545
660296040.0 0.0292158532 -0.0414683005 0.1394571045 -0.7815092524 0.1394636465 -0.7815863908 0.0286618732 -0.037890898
665296010.0 0.0292730488 -0.0424427703 0.1309753753 -0.7833366107 0.1315924791 -0.7833582433 0.0278874131 -0.0373525986
670295980.0 0.0292162171 -0.0422434257 0.122193181 -0.7848980184 0.1227053044 -0.7846273269 0.0270902001 -0.038258522
675295950.0 0.0284816508 -0.0423499659 0.1140986414 -0.7855411152 0.1142256731 -0.7866034568 0.0270166426 -0.0380467135
680295920.0 0.0274810025 -0.0423439984 0.105538544 -0.7872530991 0.104955973 -0.7879092593 0.0269862751 -0.0382486014
685295890.0 0.0267688531 -0.0428250372 0.0975272472 -0.7881519983 0.096534111 -0.7887058979 0.0258592781 -0.0380360964
690295860.0 0.02654805 -0.0431046192 0.0880199339 -0.7887247085 0.0878315641 -0.7886937525 0.0256941733 -0.0379633705
695295830.0 0.026493458 -0.0433411435 0.0785949848 -0.790222781 0.0787603852 -0.7898803643 0.0243979174 -0.0385337381
700295800.0 0.0259039131 -0.0433699668 0.0707509542 -0.7907534433 0.0707356905 -0.7916392248 0.0239269055 -0.0392267405
705295770.0 0.0249347823 -0.0435455591 0.0619752828 -0.792100407 0.0622342917 -0.7916566971 0.0232398142 -0.0389881499
710295740.0 0.0241245354 -0.0432835407 0.0533025649 -0.7919873379 0.0532295291 -0.7917010849 0.0217177574 -0.038704979
715295710.0 0.0237310812 -0.0440686193 0.0451348611 -0.7932361624 0.0453729649 -0.792933832 0.0219131316 -0.0397348153
720295680.0 0.0227345436 -0.0441313089 0.0361551371 -0.7931863373 0.0362055952 -0.7941175327 0.0217732699 -0.0391874094
725295650.0 0.0226075817 -0.044092577 0.0272372004 -0.7931991113 0.0279654402 -0.7934287907 0.0207488666 -0.0392700459
730295620.0 0.0215085791 -0.0444752493 0.0188710329 -0.7934864263 0.0190101795 -0.7941700531 0.0204058545 -0.0401038444
735295590.0 0.0215402396 -0.0442759418 0.0110832487 -0.7940988072 0.0106763498 -0.7940405116 0.0195922044 -0.0393617942
740295560.0 0.0203035653 -0.0441896999 0.0017590194 -0.7935012064 0.0015616467 -0.7939291018 0.0194639982 -0.039958419
745295530.0 0.0200829339 -0.0446921104 -0.0065823632 -0.7936779999 -0.0066793977 -0.7945733195 0.0180906217 -0.0396908088
750295500.0 0.0191756125 -0.0448151385 -0.0150357981 -0.7930788692 -0.0156138378 -0.7935832469 0.0183217612 -0.0404743466
755295470.0 0.019001201 -0.0444870359 -0.0237627916 -0.7933995451 -0.0240597405 -0.7936810057 0.016631186 -0.0399094664
760295440.0 0.0179329191 -0.0446415458 -0.0332784254 -0.7930852308 -0.0328502433 -0.7930757907 0.016026805 -0.0401240725
765295410.0 0.0168074543 -0.0451230551 -0.0405418304 -0.7927660876 -0.0410837363 -0.7933490303 0.0166896289 -0.0398792313
770295380.0 0.0169021429 -0.0449174376 -0.0502025614 -0.7917868653 -0.0496005663 -0.7923348831 0.0157292172 -0.0400060038
775295350.0 0.0161883864 -0.0446654881 -0.0584639696 -0.7911594493 -0.0586291203 -0.7916460671 0.0145540473 -0.0407087362
780295320.0 0.0157760761 -0.0449961001 -0.0665906873 -0.7908759248 -0.0665837842 -0.7913109224 0.0143917455 -0.0400435686
785295290.0 0.0147779975 -0.0446241272 -0.0751824493 -0.7895722553 -0.0758689977 -0.7903383953 0.0129647134 -0.0406208949
790295260.0 0.0142778277 -0.0446303024 -0.0839182844 -0.789717263 -0.0840761601 -0.7895929339 0.0132236941 -0.0403232971
795295230.0 0.013619652 -0.0447284053 -0.0925245053 -0.787946534 -0.092379063 -0.7885914172 0.0122108366 -0.0397400923
800295200.0 0.0130302468 -0.0445131055 -0.1017492964 -0.7870834257 -0.1017820422 -0.7873574089 0.0118237972 -0.0401084801
805295170.0 0.0117302548 -0.0449519693 -0.1092848558 -0.7857242582 -0.1100234205 -0.7863060869 0.0108293166 -0.0405337955
810295140.0 0.011647592 -0.0449053959 -0.1181357711 -0.7844833132 -0.1179321841 -0.7852798463 0.0106970586 -0.0398781587
815295110.0 0.010924399 -0.0446605773 -0.1272669769 -0.7832394173 -0.1274931469 -0.7835238976 0.0096700416 -0.0405486401
820295080.0 0.0102204822 -0.044792874 -0.135333585 -0.7823006354 -0.135908534 -0.7822409278 0.0087943963 -0.0397063954
825295050.0 0.0094064837 -0.044805219 -0.1441198443 -0.7801910597 -0.1438602 -0.7798995311 0.0088311146 -0.0395587707
830295020.0 0.008827143 -0.0444556552 -0.1524333583 -0.7786706677 -0.1531203905 -0.7792327289 0.0082331244 -0.0401075477
