!Created with skrf (http://scikit-rf.org).
# Hz S RI R 50.0 
!freq ReS11 ImS11 ReS21 ImS21 ReS12 ImS12 ReS22 ImS22
300000.0 -0.3182041382 -0.103697626 0.3717774719 0.0524150984 0.3730289638 0.0553448544 -0.3145876787 -0.1113576591
5299970.0 -0.3234243621 0.0050813826 0.3783782347 0.0027452607 0.3785246697 0.0030095589 -0.3259722465 0.0025392991
10299940.0 -0.3209213953 0.0155651701 0.3800439576 0.0021599876 0.3797564381 0.0024022675 -0.3240355379 0.0127413999
15299910.0 -0.3179537722 0.0235051146 0.3818069909 0.0021315196 0.3817829909 0.0024097959 -0.3209822049 0.0197142039
20299880.0 -0.3143347053 0.0302930401 0.3850923776 0.001443957 0.3850638265 0.0015094102 -0.3185289935 0.0258912988
25299850.0 -0.3104904323 0.0358135104 0.3885474979 -0.000218184 0.3883966818 4.87259e-05 -0.3154772906 0.0311167887
30299820.0 -0.3063822102 0.040586154 0.3921793976 -0.0023585048 0.3918136835 -0.0023779116 -0.3129080159 0.0358023191
35299790.0 -0.3028763546 0.044809824 0.3953840514 -0.0051643474 0.3951066479 -0.0050966654 -0.3094569126 0.0394222512
40299760.0 -0.2995443657 0.0481487738 0.3985743577 -0.0083774828 0.398423525 -0.0088501831 -0.3071772919 0.0432903274
45299730.0 -0.2964762154 0.0515408104 0.4013640655 -0.0128198585 0.4015630924 -0.0125480468 -0.3048143613 0.0462042511
50299700.0 -0.2932131044 0.054153426 0.403598566 -0.0174629456 0.4037227879 -0.0173846782 -0.3022952694 0.0493199906
55299670.0 -0.2909208904 0.0568511326 0.4057398319 -0.0217185528 0.4057423428 -0.0220227201 -0.300013555 0.0519758915
60299640.0 -0.2881187687 0.0592959505 0.4076848587 -0.0273370167 0.4079560479 -0.0268231144 -0.2981780145 0.0545593371
65299610.0 -0.2861415762 0.0617821659 0.4092905674 -0.0318921427 0.4091822405 -0.0316330935 -0.2960535677 0.0570830798
70299580.0 -0.2837064529 0.0635105871 0.4105540576 -0.0367842766 0.4107922903 -0.0370555549 -0.2946378132 0.0596604483
75299550.0 -0.281792671 0.0657732028 0.4114201126 -0.0420526894 0.4115891936 -0.0422449708 -0.2930648767 0.0618419598
80299520.0 -0.2805475414 0.0679254316 0.413031924 -0.0474272425 0.4125108497 -0.0475426534 -0.2914057896 0.0642507488
85299490.0 -0.2785190743 0.0698387308 0.4128816753 -0.0526372722 0.4130495408 -0.052464944 -0.2905331598 0.0662687641
90299460.0 -0.2771541018 0.0720319692 0.4133717609 -0.0577057585 0.4137096236 -0.0580348318 -0.2888172457 0.0689464024
95299430.0 -0.2756507112 0.0742682405 0.4140112052 -0.0636076236 0.4137465485 -0.0632248114 -0.2876119425 0.0712543004
100299400.0 -0.2745816136 0.0765532247 0.4135445356 -0.0683171234 0.4138137003 -0.0683892801 -0.2867399418 0.0735266153
105299370.0 -0.273159811 0.0783611934 0.4134748937 -0.0731670722 0.413519473 -0.0735346134 -0.2851178253 0.0757943853
110299340.0 -0.2718618622 0.0804848068 0.4132940385 -0.0785458803 0.4134722185 -0.0789397816 -0.284186177 0.078166998
115299310.0 -0.2705345024 0.0823408263 0.4130266499 -0.0834346082 0.4132941442 -0.0835950615 -0.283056838 0.0801066858
120299280.0 -0.2696819207 0.0845951981 0.4128732987 -0.0889436852 0.4128453817 -0.0888715975 -0.2824493973 0.0825665687
125299250.0 -0.2689047379 0.0866898429 0.4123957696 -0.0939110854 0.4124086655 -0.0941167528 -0.2812741664 0.0849970755
130299220.0 -0.2677932393 0.0891637539 0.411764058 -0.0987642954 0.4114605465 -0.0995078631 -0.2804498994 0.0874889142
135299190.0 -0.2666176929 0.0911108774 0.4107697172 -0.1037828971 0.4104753213 -0.1039538168 -0.2796817402 0.0897523547
140299160.0 -0.2657501095 0.0937487967 0.4102741171 -0.1089103651 0.4102245067 -0.1091071599 -0.278321475 0.0923065156
145299130.0 -0.2649308446 0.0958651739 0.4096071983 -0.1140656503 0.4091452099 -0.1137482698 -0.2782311071 0.0944837804
150299100.0 -0.2638486231 0.0980511905 0.4080291646 -0.1188253208 0.4081367058 -0.1187459907 -0.2769501572 0.0965903212
155299070.0 -0.2630705363 0.1012278873 0.4067923774 -0.1241146842 0.407056102 -0.1241998516 -0.2760991345 0.0993860641
160299040.0 -0.2616524894 0.1029366242 0.405734267 -0.1283499893 0.4058269339 -0.1288578523 -0.2752527873 0.1022577561
165299010.0 -0.2610859295 0.1053490046 0.4046366371 -0.1336083689 0.404936313 -0.1337297535 -0.2746949114 0.1049704107
170298980.0 -0.2603838671 0.1079763766 0.4027451461 -0.138608019 0.4030138139 -0.1386038917 -0.2728119009 0.1072519695
175298950.0 -0.2589281977 0.1103642874 0.4022635778 -0.1429089376 0.4019293615 -0.1431641112 -0.2721211405 0.1098053941
180298920.0 -0.2578624681 0.1126879786 0.4005380746 -0.1483333288 0.4003822937 -0.1477202896 -0.2707246804 0.1122705268
185298890.0 -0.256873438 0.1153696279 0.3986200226 -0.152675496 0.3989639198 -0.1524159521 -0.2704696932 0.114919605
190298860.0 -0.2556918607 0.117896663 0.397212796 -0.1573768128 0.3973348951 -0.1575330224 -0.2688891917 0.1175801421
195298830.0 -0.2545772373 0.1196434194 0.395757266 -0.1619443388 0.3958689237 -0.1621410421 -0.2679085244 0.1197498345
200298800.0 -0.25372108 0.123076555 0.3938760198 -0.1662958364 0.3937325769 -0.166643696 -0.266564682 0.123013041
205298770.0 -0.2526351271 0.1249469602 0.3924608238 -0.170806471 0.3923454252 -0.1712111777 -0.2654587855 0.1252014104
210298740.0 -0.2514168359 0.1276959353 0.3904393701 -0.1759027789 0.390290806 -0.1759713592 -0.264595169 0.1280560624
215298710.0 -0.2502990383 0.1304784398 0.3887167547 -0.180422667 0.3886375302 -0.1801002102 -0.2638966013 0.1306420263
220298680.0 -0.2493065734 0.133088328 0.3866121915 -0.1849153372 0.3863365688 -0.1847095474 -0.2621117918 0.1340016826
225298650.0 -0.2476671383 0.1355399133 0.3842669971 -0.1889678091 0.3845635141 -0.1888540627 -0.2612533883 0.1361952166
230298620.0 -0.2467527588 0.1381866759 0.3826751723 -0.193523953 0.382698483 -0.1937029806 -0.2594625467 0.1388105278
235298590.0 -0.245322131 0.1405179705 0.3803502006 -0.1977076631 0.3804317737 -0.1981883033 -0.2582905829 0.1415169282
240298560.0 -0.2441178432 0.1432781471 0.3783953796 -0.2022569435 0.3782857586 -0.2020120534 -0.2572587915 0.1441221537
245298530.0 -0.2427019865 0.1458724833 0.37559628 -0.2066555261 0.3757950143 -0.2066949317 -0.2556002904 0.1469499858
250298500.0 -0.2416589338 0.1483433361 0.3736727857 -0.2106495836 0.3739080501 -0.2103558067 -0.2539151946 0.1497092721
255298470.0 -0.2400071706 0.1508518984 0.3710982007 -0.2149917435 0.3713172141 -0.2152005966 -0.2526491799 0.1519717355
260298440.0 -0.2386224695 0.1533848706 0.3690125165 -0.2192739713 0.3688168574 -0.2193788183 -0.2507965237 0.1548768295
265298410.0 -0.2368871977 0.1563710777 0.3663030632 -0.2237165773 0.3666877837 -0.2235485006 -0.2497014371 0.1575379003
270298380.0 -0.2354330622 0.1584804507 0.363885785 -0.2274026906 0.3641595332 -0.2275925705 -0.247868981 0.160401925
275298350.0 -0.2344737158 0.1612173587 0.3616434103 -0.2320531566 0.3617612162 -0.2319455966 -0.2461688836 0.1631459445
280298320.0 -0.2326025141 0.1637291196 0.3589494538 -0.2355527985 0.3589893481 -0.2358898792 -0.2445464491 0.1659846938
285298290.0 -0.2308928776 0.1663518233 0.3562264011 -0.2397048458 0.3564348713 -0.2399755046 -0.2430011527 0.1684724978
290298260.0 -0.2292466186 0.1687695034 0.3539163898 -0.2439910518 0.3540222975 -0.2439154518 -0.2408956619 0.1713442966
295298230.0 -0.2276905312 0.1713797291 0.3514958409 -0.248011915 0.3510409512 -0.2480324486 -0.2395330705 0.1738339068
300298200.0 -0.2257521344 0.173777111 0.3484692098 -0.2522418035 0.3484725883 -0.2520965088 -0.2377938058 0.1764595371
305298170.0 -0.2240216767 0.1764014445 0.3458427963 -0.2562961628 0.3456385577 -0.2560984154 -0.2356518703 0.1792465122
310298140.0 -0.2220178954 0.1783414325 0.3429250506 -0.2599296393 0.3426620685 -0.2604593954 -0.2339637193 0.1819364986
315298110.0 -0.2207364494 0.1810618683 0.339748408 -0.2640221329 0.340222388 -0.2637024302 -0.2319762447 0.1842179592
320298080.0 -0.2186598186 0.1832949976 0.3370606743 -0.2678563143 0.3372532249 -0.2677236709 -0.2300079171 0.1867784336
325298050.0 -0.2168010393 0.1853066102 0.3341275356 -0.2715597094 0.3343187492 -0.2719325187 -0.2282997849 0.1897109172
330298020.0 -0.2150594846 0.1880746238 0.3304544797 -0.2756374277 0.3308434692 -0.275525626 -0.226456649 0.1922083029
335297990.0 -0.2133821619 0.190293937 0.3275185422 -0.2788238802 0.3276845512 -0.2792704801 -0.2245020259 0.1947298834
340297960.0 -0.2119631149 0.1928762841 0.3241442448 -0.2828116038 0.3244688445 -0.2827478534 -0.2224291769 0.1972545162
345297930.0 -0.2097783242 0.1952820868 0.3213157766 -0.2863390463 0.3208032503 -0.286055625 -0.2206535636 0.1995287316
350297900.0 -0.2077044825 0.1975144428 0.317815044 -0.2893546486 0.3181317044 -0.2898907255 -0.2186134947 0.2021939946
355297870.0 -0.2060635091 0.1998139925 0.3147875186 -0.2931129369 0.3146692091 -0.2933935666 -0.2168224338 0.2046405636
360297840.0 -0.2038590573 0.2021957955 0.3110803953 -0.2967402842 0.3111893966 -0.296964778 -0.2141622862 0.2073918114
365297810.0 -0.201714525 0.2045126798 0.3079579837 -0.2998690637 0.3079963991 -0.3002233702 -0.2122758868 0.2100878711
370297780.0 -0.1996837601 0.2067425314 0.3046995052 -0.3034146126 0.3047681312 -0.3035713843 -0.2103966986 0.211962839
375297750.0 -0.1978108912 0.2091461318 0.3019712648 -0.3070261313 0.3011503169 -0.3069750632 -0.2081558451 0.2148614118
380297720.0 -0.195066704 0.2113627005 0.2979246899 -0.3100301737 0.2982714293 -0.3101305428 -0.205836908 0.2176166768
385297690.0 -0.1929197413 0.2138258445 0.2941350175 -0.313246105 0.2943547146 -0.3133203525 -0.2036562456 0.2199517332
390297660.0 -0.1912393063 0.21601472 0.2910352402 -0.3168103799 0.2909657668 -0.3167290716 -0.2014491505 0.2217965907
395297630.0 -0.1885339145 0.217876293 0.2874155249 -0.3194344516 0.2874729266 -0.3197087825 -0.199502539 0.2247251464
400297600.0 -0.1866419633 0.2204781308 0.2838473646 -0.3230500117 0.2840562917 -0.3225869784 -0.1969806477 0.2263391477
405297570.0 -0.1841194744 0.2223584693 0.280386174 -0.3259416435 0.2805052008 -0.326203498 -0.1947373461 0.2291539588
410297540.0 -0.1818808492 0.2245767832 0.27643604 -0.328856657 0.2763735862 -0.3286115369 -0.1920688097 0.2311901384
415297510.0 -0.1798347114 0.2268785238 0.2731404756 -0.3317322718 0.2730229285 -0.3321307226 -0.1896163801 0.2340843777
420297480.0 -0.1769544452 0.2287976087 0.2692103597 -0.3351465782 0.2690625528 -0.3346086406 -0.1872180974 0.2356588999
425297450.0 -0.1744868062 0.2305269847 0.2653616708 -0.3379562589 0.2656438264 -0.3379630683 -0.1847497371 0.2383369594
430297420.0 -0.1723407127 0.2328162827 0.2618058581 -0.3410702608 0.2620636894 -0.3409320624 -0.182602738 0.24052717
435297390.0 -0.1697082486 0.2348398298 0.2580242281 -0.3435765525 0.2582923756 -0.3435676991 -0.1799943273 0.2426752416
440297360.0 -0.1674817577 0.2367743677 0.254039199 -0.3464722874 0.2539049729 -0.3460737495 -0.1776727344 0.2444017478
445297330.0 -0.1646345058 0.2385568104 0.2499648737 -0.3492576107 0.249936981 -0.348828547 -0.1746183961 0.2463634245
450297300.0 -0.1623434478 0.2403033426 0.2464942076 -0.3517570112 0.2464982845 -0.3517455194 -0.1728386374 0.2487397565
455297270.0 -0.1597786463 0.2422060803 0.2428575874 -0.354923981 0.2427362854 -0.3544307063 -0.1696148976 0.2507627067
460297240.0 -0.1574705372 0.2440265825 0.2386607608 -0.3568975911 0.2383766464 -0.3571575364 -0.1668989906 0.2531785454
465297210.0 -0.1546158738 0.2459282511 0.2345476053 -0.3597267547 0.2349437492 -0.3595408589 -0.1652122738 0.2545408354
470297180.0 -0.1521224929 0.2477295038 0.2307821306 -0.3621961099 0.2311083419 -0.3619627854 -0.1627635895 0.2565597033
475297150.0 -0.149874298 0.2493498688 0.2268719254 -0.364275215 0.2268310556 -0.364144836 -0.1593813958 0.2584093023
480297120.0 -0.1467255364 0.2508751616 0.2225114319 -0.3670323873 0.2230180244 -0.3669641748 -0.1571334437 0.2608950057
485297090.0 -0.1444029788 0.2527144667 0.2190994823 -0.3694180706 0.2187235573 -0.3694031038 -0.1546194352 0.2623075308
490297060.0 -0.1418728459 0.2541538129 0.2147636372 -0.3715990069 0.2150034944 -0.3716788662 -0.1516349536 0.2640900342
495297030.0 -0.1392817789 0.2562773232 0.2106995577 -0.3737860538 0.210402073 -0.3738200253 -0.1487785997 0.2656099293
500297000.0 -0.1363786418 0.2574467324 0.2066544956 -0.3763055195 0.206539665 -0.3762697003 -0.1464500752 0.2674764956
505296970.0 -0.1335641786 0.2591972741 0.2019639116 -0.378261345 0.2021391994 -0.3778195165 -0.1439391548 0.2695453789
510296940.0 -0.130821857 0.2611303976 0.1981884915 -0.3806462607 0.1981987052 -0.3805627734 -0.1408473487 0.2711767884
515296910.0 -0.1283832891 0.2627662102 0.1937492649 -0.3826790921 0.1941212637 -0.382655051 -0.1382366267 0.2729370663
520296880.0 -0.1252355668 0.2637803735 0.189424534 -0.3843681816 0.1896976843 -0.3843926822 -0.1349345952 0.2743132737
525296850.0 -0.1227031675 0.2650650794 0.1858211401 -0.3865667727 0.1855939346 -0.3866879095 -0.131960524 0.2761619019
530296820.0 -0.1198920549 0.2665856694 0.1815354893 -0.388376001 0.1813472904 -0.3884441785 -0.1298156595 0.2773433857
535296790.0 -0.1169728057 0.2679234042 0.1770332575 -0.390453424 0.177220243 -0.3901917815 -0.1266588202 0.2786696238
540296760.0 -0.1142040107 0.2690826346 0.172704883 -0.3926226519 0.1727019656 -0.3923532742 -0.1239446146 0.2805781516
545296730.0 -0.1113963923 0.2706702017 0.1686314531 -0.3937511353 0.1685457414 -0.3939482472 -0.1212937017 0.2816171077
550296700.0 -0.108722502 0.2720590918 0.16452471 -0.3960608267 0.1646433219 -0.395996926 -0.1183497569 0.2834909751
555296670.0 -0.1054917851 0.2734463717 0.1599680416 -0.3977550216 0.1599531641 -0.3976586823 -0.1155938432 0.2849923967
560296640.0 -0.1026251924 0.2744791207 0.1555975122 -0.399138028 0.1557197053 -0.3994053691 -0.1121682961 0.2863040317
565296610.0 -0.1003509411 0.2759158957 0.1513921204 -0.4008901153 0.1510365251 -0.4008567969 -0.1096593911 0.2874385068
570296580.0 -0.0968044954 0.2769918088 0.1464893435 -0.401910274 0.1473389447 -0.4026291129 -0.1066336521 0.289207562
575296550.0 -0.0939291793 0.2784857513 0.1425121182 -0.4037406476 0.1425990746 -0.4039431885 -0.1034810192 0.2902846357
580296520.0 -0.0912718969 0.2794892094 0.13824165 -0.4060195368 0.1380572704 -0.4055042918 -0.1003891113 0.2914099138
585296490.0 -0.0882927068 0.2802725286 0.1338538374 -0.4071487536 0.1334512545 -0.4066410744 -0.097534711 0.2923064788
590296460.0 -0.0855365492 0.2813741692 0.1293183728 -0.4082536149 0.1293085285 -0.4082099918 -0.094410924 0.2935620918
595296430.0 -0.0823207398 0.2825995154 0.1247242037 -0.4095808088 0.1247334263 -0.4098509163 -0.0914043634 0.2945856158
600296400.0 -0.0793616299 0.2836876789 0.1201587463 -0.4111393473 0.1206762358 -0.4111854604 -0.0882494139 0.2963312174
605296370.0 -0.0762135527 0.2846423931 0.1156774125 -0.4124927363 0.1159701774 -0.4118610857 -0.085091701 0.2970899552
610296340.0 -0.0733924795 0.2855683326 0.1116929647 -0.4134282319 0.1115774322 -0.4135948684 -0.0818386976 0.2984919798
615296310.0 -0.0701760248 0.2865748654 0.1064418723 -0.4144915067 0.106821143 -0.4144336147 -0.0789505123 0.2992105676
620296280.0 -0.0670266982 0.2872303283 0.1024300098 -0.4155592076 0.1022969832 -0.4155745983 -0.0763457081 0.2999500313
625296250.0 -0.0641773759 0.2881540536 0.0975913785 -0.4168449619 0.097581672 -0.4166394748 -0.0729480888 0.3011697858
630296220.0 -0.0609900227 0.289141333 0.0933314664 -0.4177199053 0.0936073329 -0.4180356466 -0.0699376454 0.3019832076
635296190.0 -0.0582071877 0.2901040673 0.0884979796 -0.4183584949 0.0886134511 -0.4184653104 -0.0667333105 0.3028354885
640296160.0 -0.0550687915 0.290514959 0.0844241179 -0.4195797877 0.0841116295 -0.4195715984 -0.0633954272 0.3036547454
645296130.0 -0.0522390491 0.2915647518 0.0794625571 -0.4207333744 0.0798187002 -0.4201136793 -0.0611514127 0.3043419569
650296100.0 -0.049003917 0.2924612579 0.0754463065 -0.421128081 0.0753851368 -0.4208244001 -0.0575038852 0.3052327414
655296070.0 -0.0458410414 0.2926688171 0.0705069564 -0.4215629466 0.0705690874 -0.4219047383 -0.0539553243 0.3061380851
660296040.0 -0.0429932247 0.2937341564 0.0661830464 -0.42256692 0.0659454549 -0.4222673392 -0.0510399464 0.3065799112
665296010.0 -0.0396462613 0.2939246292 0.0614516044 -0.4233436765 0.0617186023 -0.4231295563 -0.048070599 0.3076729066
670295980.0 -0.0364003209 0.2947186096 0.0568065522 -0.4240142289 0.0572637556 -0.4237684195 -0.04514597 0.3081245234
675295950.0 -0.0334290033 0.2948958677 0.052288786 -0.424272874 0.0524280921 -0.4245985357 -0.0415483388 0.3088110212
680295920.0 -0.0304274975 0.2956176393 0.047712623 -0.424690095 0.047499411 -0.4250024263 -0.0380275559 0.3093604257
685295890.0 -0.0269951686 0.2957794441 0.0432495567 -0.4254049701 0.043008923 -0.4256825607 -0.0354608401 0.3097373617
690295860.0 -0.0238077872 0.2968124237 0.0382286891 -0.4256300585 0.0380607164 -0.4255176713 -0.0316551701 0.3105532767
695295830.0 -0.0204854629 0.2968121515 0.0332411442 -0.4260206457 0.0335946489 -0.4263690798 -0.0289554199 0.311158106
700295800.0 -0.0171665577 0.2971356794 0.0287834997 -0.4264824635 0.0292768078 -0.4267528506 -0.0260263443 0.3110922447
705295770.0 -0.0143443097 0.2976145121 0.024460562 -0.42649284 0.0242594202 -0.4267342614 -0.0225210001 0.3117225787
710295740.0 -0.0111069668 0.2977709013 0.0195562285 -0.4267387466 0.0199038714 -0.4266824924 -0.0200628001 0.3125548971
715295710.0 -0.0084354392 0.2979535198 0.0152640214 -0.4266445644 0.0154728855 -0.4269529198 -0.0162788481 0.3121411718
720295680.0 -0.0051285603 0.2980744872 0.0104539011 -0.4267791991 0.0107523721 -0.4274003533 -0.012864077 0.3127835676
725295650.0 -0.0016037047 0.2984510534 0.0056756896 -0.4268180512 0.005992668 -0.4271747173 -0.009589253 0.3130580929
730295620.0 0.0013638433 0.2986332606 0.0013478972 -0.4269409854 0.0014939597 -0.4270057112 -0.0064684342 0.313086433
735295590.0 0.0047326598 0.2988291808 -0.0031682913 -0.4268993144 -0.0033646834 -0.4272226611 -0.0026285243 0.3133839972
740295560.0 0.0076015457 0.2992262703 -0.0075520567 -0.4268021741 -0.0080727947 -0.426849839 0.0004244741 0.3135212631
745295530.0 0.0107396316 0.2988830485 -0.0124809977 -0.4267321158 -0.012662893 -0.4271206116 0.0035639528 0.3138725118
750295500.0 0.0139229286 0.2989895968 -0.0171243921 -0.4262450009 -0.0171487693 -0.4264423306 0.00693257 0.3132631786
755295470.0 0.0177823735 0.2992935151 -0.0217756919 -0.4261428531 -0.0219059288 -0.4262427648 0.0099543498 0.3137098055
760295440.0 0.0203850806 0.298943893 -0.0267379585 -0.4259070256 -0.0263096659 -0.4261639574 0.0126258172 0.3138782854
765295410.0 0.0232079331 0.298562073 -0.0303120035 -0.425294117 -0.03101951 -0.4259475775 0.0167436468 0.3137867992
770295380.0 0.026772603 0.2989039748 -0.0357881728 -0.4251535776 -0.0354318137 -0.4253989757 0.0199763744 0.3138502757
775295350.0 0.0297943285 0.298969791 -0.0401569166 -0.4245741394 -0.040132082 -0.424752801 0.0227589912 0.313457576
780295320.0 0.0331889364 0.2983684349 -0.0445416741 -0.4242520519 -0.0446203375 -0.4245182015 0.0261645348 0.3135631786
785295290.0 0.036318886 0.2986345643 -0.0493628815 -0.4231825117 -0.0491480537 -0.4237240276 0.0291057632 0.3132920297
790295260.0 0.039379199 0.2979995652 -0.0536743815 -0.4231406891 -0.0539174234 -0.4234810497 0.0327312664 0.3134858465
795295230.0 0.0422997209 0.2979392142 -0.0579883411 -0.4221795594 -0.0581561592 -0.4223730024 0.0362086654 0.3131962477
800295200.0 0.0456136235 0.2975890663 -0.0631726523 -0.4218733565 -0.0633282571 -0.4221501796 0.0392178792 0.3126101048
805295170.0 0.0489115676 0.2971562605 -0.0672976721 -0.4207426762 -0.0675019595 -0.4209939518 0.0422662412 0.3120897754
810295140.0 0.0521468744 0.2967579799 -0.0717698026 -0.4203042491 -0.0717884306 -0.4206424495 0.0457056664 0.3127241533
815295110.0 0.0551431128 0.2964959736 -0.0765449193 -0.4191362372 -0.0765952062 -0.4192218479 0.0486670782 0.3118129327
820295080.0 0.0584987199 0.2956749889 -0.0809395829 -0.4184758171 -0.0809567492 -0.4187171321 0.0518478119 0.3114830835
825295050.0 0.0615259098 0.2953504301 -0.0857803988 -0.4173542823 -0.0855036441 -0.4176894626 0.0553732351 0.3111202341
830295020.0 0.0646716409 0.2950076154 -0.0899316121 -0.4168267559 -0.090295695 -0.4167482538 0.0585565783 0.3105290262
