!Created with skrf (http://scikit-rf.org).
# Hz S RI R 50.0 
!freq ReS11 ImS11 ReS21 ImS21 ReS12 ImS12 ReS22 ImS22
300000.0 -0.2097602131 -0.1009923887 -0.0028955631 0.0006642156 -0.0007751171 0.0004874331 -0.7625538386 -0.1925363614
5299970.0 -0.2152536043 0.0067699389 3.23654e-05 -0.0001234021 -0.000122552 0.0001401564 -0.785520806 -0.0097243346
10299940.0 -0.211393199 0.0203013034 0.0002627651 5.26711e-05 -3.76755e-05 1.09459e-05 -0.7876408648 -0.0054887528
15299910.0 -0.206334364 0.0300372065 0.0002894873 -2.82403e-05 1.63192e-05 -0.0001719421 -0.7930746731 -0.0027181924
20299880.0 -0.2007774532 0.0379483643 -0.0001168343 4.30607e-05 -4.95592e-05 0.0001392662 -0.7999211015 0.0018636705
25299850.0 -0.1941493291 0.0448138329 -0.0001155046 8.58659e-05 0.0001146156 4.627e-07 -0.8063404352 0.0079394281
30299820.0 -0.1878476601 0.0497055119 0.0001408795 7.06484e-05 -6.31284e-05 -0.0003255294 -0.8118622816 0.0155293508
35299790.0 -0.1814649781 0.0533330082 -7.06482e-05 0.0002017065 4.27262e-05 -2.78038e-05 -0.8171243454 0.0246130106
40299760.0 -0.1753843749 0.0563377032 6.17124e-05 0.0001474336 7.65529e-05 0.0001385471 -0.8214270533 0.0337935941
45299730.0 -0.1700350215 0.0579786044 -0.0001389677 0.0001345326 -5.25051e-05 -8.5968e-06 -0.8241223177 0.0439597326
50299700.0 -0.164577205 0.0594515438 7.84017e-05 3.52751e-05 -1.58996e-05 0.0002953619 -0.8267782912 0.0540044004
55299670.0 -0.1597127882 0.0605858802 0.0001315044 -4.22617e-05 -9.90457e-05 4.70732e-05 -0.8286544183 0.0638576215
60299640.0 -0.1551923791 0.0610891453 0.0001003939 5.2309e-06 0.0001034248 -0.0002456368 -0.8297363194 0.0739309005
65299610.0 -0.151029146 0.0614676781 2.71369e-05 -0.0001646772 6.65136e-05 0.0001082134 -0.8300803413 0.0841579452
70299580.0 -0.1479532711 0.0613833206 0.0003782152 0.0002300128 0.0001728022 -8.16152e-05 -0.8312981752 0.0935506361
75299550.0 -0.1446840254 0.0614969499 -0.000294036 -4.1233e-06 -0.0001271152 6.33607e-05 -0.8306125357 0.1041193809
80299520.0 -0.1417010364 0.0612954206 -0.0001989098 0.0001273134 -0.0001278476 -8.52848e-05 -0.8308691425 0.1138987346
85299490.0 -0.1389868151 0.0609452735 2.28467e-05 0.0002357051 5.04824e-05 0.0002842877 -0.8302935699 0.1237621828
90299460.0 -0.1363203199 0.0609509743 9.14643e-05 4.36253e-05 0.0002275354 0.0001291671 -0.8294490589 0.1327852362
95299430.0 -0.1344650178 0.0607475853 0.0002421717 0.0003492287 -0.0003343847 6.74778e-05 -0.8281972674 0.1428754556
100299400.0 -0.132435087 0.0604567539 0.000134173 1.6468e-05 -2.45165e-05 0.0001386868 -0.8270459869 0.1520445864
105299370.0 -0.1305283189 0.0601254497 -0.0002289026 9.36595e-05 -0.0001431208 -0.0001033616 -0.8257621745 0.1607592674
110299340.0 -0.1289369187 0.0600027601 4.86534e-05 0.0002748155 1.02693e-05 0.0001417048 -0.824362318 0.1698192409
115299310.0 -0.1274249356 0.0602316415 0.000118666 0.0001052243 0.0001985627 -8.7584e-05 -0.8231731537 0.1794423654
120299280.0 -0.1258212547 0.0598399777 9.20698e-05 0.0001286673 -4.96909e-05 1.52763e-05 -0.8208984932 0.1879757255
125299250.0 -0.1249785945 0.0597050462 6.8185e-06 -0.000239349 9.90496e-05 4.17846e-05 -0.8198252533 0.1972277315
130299220.0 -0.1239014447 0.0597566282 1.91823e-05 0.0002475338 5.23753e-05 3.82492e-05 -0.8176099211 0.2059922901
135299190.0 -0.12269706 0.0599590681 -0.0001754118 5.41882e-05 0.000151572 -2.05068e-05 -0.8157856934 0.2149145493
140299160.0 -0.1218442881 0.0601415726 -0.0002053649 -6.6049e-05 3.3389e-05 0.0001623053 -0.8143096602 0.2236639917
145299130.0 -0.120908497 0.0602928645 9.38276e-05 7.03553e-05 -3.91451e-05 0.0001396449 -0.8119419492 0.2323677611
150299100.0 -0.1199317429 0.0605913923 -0.0001888147 -0.0001730146 -3.00587e-05 0.0001080612 -0.8094623336 0.2415924469
155299070.0 -0.1193271461 0.0612710814 6.46595e-05 7.99629e-05 8.49568e-05 0.0001429305 -0.8071417559 0.2503633936
160299040.0 -0.1185723423 0.0615998722 -8.15363e-05 0.0001054433 1.22248e-05 7.77404e-05 -0.8049549314 0.2589631287
165299010.0 -0.1179611285 0.0619901894 -1.13921e-05 0.0001917911 0.0001145663 -6.6314e-06 -0.8018008895 0.2674923349
170298980.0 -0.1172685902 0.0621707886 0.0002661672 0.0002755083 -0.0002410997 -4.76487e-05 -0.7999857385 0.2756128144
175298950.0 -0.1166320318 0.0626797712 1.02017e-05 0.0002301069 0.0002078471 6.41263e-05 -0.7962488709 0.284634489
180298920.0 -0.1163304794 0.0632728618 -0.0002947791 0.0002183013 -4.4645e-06 0.0002015362 -0.7933495842 0.293029808
185298890.0 -0.1156963885 0.0635148953 -8.33706e-05 0.0001825902 5.9666e-05 5.72043e-05 -0.7905047967 0.301178395
190298860.0 -0.1152432969 0.0646885804 -6.10108e-05 -3.30768e-05 0.0001702351 -6.9131e-05 -0.787477279 0.3100401621
195298830.0 -0.1143333719 0.0652406922 -0.0002111009 -6.85057e-05 -6.3089e-06 0.0001457245 -0.7842952512 0.3177270094
200298800.0 -0.1138647435 0.0656404844 2.65664e-05 -0.0001245054 -3.99106e-05 -0.0001114362 -0.7808044287 0.3262151344
205298770.0 -0.1138117275 0.0664660597 -0.0001445614 9.32841e-05 -5.5367e-05 7.91106e-05 -0.7775707282 0.3352710427
210298740.0 -0.1129155252 0.0669580588 0.0003019947 0.0001286298 1.3123e-05 -7.01525e-05 -0.7741124162 0.3430799343
215298710.0 -0.1127134243 0.0678387923 -5.9168e-06 -0.0002130352 0.0003397895 0.0001361023 -0.7700951139 0.351290433
220298680.0 -0.1119536163 0.0685161815 6.89448e-05 0.0002222107 -1.07471e-05 0.0001325805 -0.7668256984 0.3597120045
225298650.0 -0.111397543 0.0691823186 8.53798e-05 3.26022e-05 3.38559e-05 0.0002154542 -0.7628697695 0.3675596629
230298620.0 -0.1112079451 0.0703059537 0.0001069289 0.0001300708 6.95455e-05 4.15177e-05 -0.7588925424 0.3756811523
235298590.0 -0.1108511619 0.0711147144 -1.69108e-05 -0.0001218244 4.69619e-05 0.0001570761 -0.7551246896 0.3831559228
240298560.0 -0.1105038373 0.0721667266 0.0001547664 2.82021e-05 3.72457e-05 6.25986e-05 -0.7511106438 0.3907573271
245298530.0 -0.1099363867 0.0729430089 0.0003486083 0.000102291 0.0002080104 0.0001036738 -0.7473019005 0.3991908976
250298500.0 -0.1093763794 0.0736470684 -4.3236e-06 0.0001602145 0.000119463 -9.47874e-05 -0.7425736122 0.4068645877
255298470.0 -0.1088858933 0.0747761726 4.42689e-05 6.2804e-06 0.0001689427 2.52388e-05 -0.7392217337 0.4142800599
260298440.0 -0.1084695987 0.0754951643 0.0001138372 0.0002901454 0.0001769625 8.44162e-05 -0.7340887849 0.4215585469
265298410.0 -0.1081088982 0.0765541351 -0.0001038776 -6.43892e-05 0.000215199 0.0002264485 -0.7298632708 0.429898703
270298380.0 -0.1075367554 0.0772573648 9.61151e-05 0.000146269 8.6629e-05 0.0002889404 -0.7255584708 0.4378341519
275298350.0 -0.1071311442 0.0784717165 3.94089e-05 -0.000162144 -3.77283e-05 -6.12827e-05 -0.7202993671 0.4454635615
280298320.0 -0.1068201218 0.0792600792 1.75706e-05 4.05275e-05 0.0001881735 0.0001914447 -0.7163202757 0.4529578895
285298290.0 -0.1061295901 0.0803505063 6.17738e-05 8.91634e-05 0.0001771902 8.01255e-05 -0.7119886369 0.4604401275
290298260.0 -0.1054972293 0.0812977265 4.73628e-05 -5.66428e-05 -4.25953e-05 -8.14095e-05 -0.7068243228 0.4673531827
295298230.0 -0.1052084579 0.0820036902 0.0001031025 6.27738e-05 5.33279e-05 0.0001237606 -0.7013836222 0.4745708496
300298200.0 -0.1046191067 0.0833178869 0.000140877 -4.2606e-06 -0.0001091088 0.000135685 -0.6963673639 0.481931882
305298170.0 -0.1040899311 0.0840731964 0.0003043598 2.39547e-05 -0.0001010664 6.94654e-05 -0.6912504451 0.4897291173
310298140.0 -0.1036689679 0.0846650303 0.00022555 -8.0518e-06 0.000326749 1.55471e-05 -0.6861315047 0.4968080518
315298110.0 -0.1031860306 0.0855167406 0.0001205552 0.0002906286 3.92071e-05 -1.0009e-06 -0.6818557651 0.5038559102
320298080.0 -0.1029083606 0.0864696112 0.0003077093 0.0001097821 0.0002083122 6.8047e-06 -0.6767272928 0.5108125334
325298050.0 -0.1025475785 0.0870629658 0.0002342926 0.0001414141 1.65381e-05 7.76538e-05 -0.6703200858 0.5176684892
330298020.0 -0.1019067884 0.0886605576 0.0001939253 -8.37493e-05 9.02383e-05 -1.19846e-05 -0.664971375 0.5245530553
335297990.0 -0.1014567114 0.089346219 0.000206826 0.0002217988 5.32209e-05 4.11701e-05 -0.6594636558 0.5311904378
340297960.0 -0.1010408385 0.090532952 0.0002397594 0.0001602499 0.0002351355 5.76958e-05 -0.6545043947 0.5384433761
345297930.0 -0.1003644403 0.0915933205 -9.0805e-06 6.18592e-05 8.32605e-05 0.000262293 -0.6484738607 0.5451997963
350297900.0 -0.0998829635 0.0921599837 -0.000126512 -0.0002271708 0.0001912774 2.11125e-05 -0.6433739836 0.551106571
355297870.0 -0.0996457985 0.0935175774 0.0001778119 -3.61378e-05 0.0001138739 0.0002945964 -0.6368106818 0.5587009116
360297840.0 -0.0986736236 0.0944881749 3.38828e-05 5.36298e-05 0.0002024211 5.49193e-05 -0.6304354565 0.5647654976
365297810.0 -0.098002972 0.0955428626 6.70737e-05 0.0001281635 4.15806e-05 0.0001287585 -0.6261109594 0.5705267442
370297780.0 -0.0974194206 0.0964392052 0.000124161 0.0001918578 0.0002036952 -6.3348e-05 -0.6195837092 0.5778320917
375297750.0 -0.0968853594 0.0972541489 0.0001847633 0.0001032798 0.0002636661 5.39e-07 -0.6134904598 0.5834159274
380297720.0 -0.0961309741 0.0987155396 9.55422e-05 -1.69049e-05 0.0001837253 0.0003114325 -0.6071543069 0.5904161449
385297690.0 -0.0954579788 0.0995823433 7.93103e-05 0.0001058347 3.97521e-05 0.0002365148 -0.6010875574 0.5965642948
390297660.0 -0.0945704555 0.1002052883 4.21025e-05 2.11258e-05 8.43316e-05 7.97214e-05 -0.594900352 0.6021369063
395297630.0 -0.0936549627 0.1012219017 -2.56506e-05 9.69404e-05 0.0002602518 -1.17842e-05 -0.5885564737 0.6081065703
400297600.0 -0.0935462817 0.1025682623 0.0003210603 -1.20651e-05 5.85337e-05 1.70987e-05 -0.5829904667 0.6142528813
405297570.0 -0.0926055237 0.1030049173 0.0001575499 2.14525e-05 0.0002379841 0.0001566688 -0.5758709759 0.6204562859
410297540.0 -0.0912824466 0.104147175 0.0003242034 0.0002142224 9.43635e-05 -0.0001215059 -0.5696080278 0.625981651
415297510.0 -0.0909172554 0.1049889069 -2.31375e-05 0.000121718 3.1424e-05 -2.64176e-05 -0.5629940664 0.6315381673
420297480.0 -0.0902793612 0.1059099408 0.0001159651 8.52216e-05 0.0001120285 -2.68095e-05 -0.5563494409 0.6378583423
425297450.0 -0.0892189304 0.1067436916 -0.0001052512 0.0001043141 -8.71357e-05 -4.31564e-05 -0.5491895896 0.6428925723
430297420.0 -0.0883824747 0.1078626215 0.0002415815 7.98977e-05 0.0001366692 6.43396e-05 -0.5429446662 0.6490376879
435297390.0 -0.0875893479 0.1085274451 9.46441e-05 0.0002266772 9.47738e-05 7.61329e-05 -0.5368936441 0.6541449887
440297360.0 -0.0865722497 0.1094600931 0.0001085072 3.34567e-05 0.0001896918 -7.1109e-06 -0.5302246067 0.6592975832
445297330.0 -0.0856354907 0.110231936 6.8816e-05 8.05724e-05 0.0001605334 0.0003103952 -0.5231500825 0.6652805943
450297300.0 -0.084764709 0.111101774 0.0001647578 0.0001306218 -3.8787e-06 5.95863e-05 -0.5158421315 0.6698539923
455297270.0 -0.0837827353 0.1120963083 0.0002415311 0.0001073039 0.0002441822 7.72863e-05 -0.5089819639 0.6754275756
460297240.0 -0.0828351312 0.1131326748 0.0002880183 0.0001227818 0.0003232656 9.53689e-05 -0.502646088 0.6801222017
465297210.0 -0.0816060963 0.1141194615 -0.0001183578 0.0001552277 -4.24966e-05 9.83102e-05 -0.4954054252 0.6857374633
470297180.0 -0.0807432514 0.114841208 0.0001659871 0.0001572224 7.58121e-05 -0.0001220972 -0.4883406795 0.689985868
475297150.0 -0.0800711732 0.1156779176 8.27629e-05 -6.65537e-05 0.0001100949 0.0001942176 -0.4815000362 0.6951985445
480297120.0 -0.0785148487 0.1167181412 0.0001420318 -0.0002355173 0.0002337219 -0.0001194892 -0.4746061632 0.7001158995
485297090.0 -0.0776680543 0.1173582301 4.82059e-05 -4.98547e-05 4.83613e-05 -0.0001717944 -0.4670023436 0.7045333188
490297060.0 -0.0762827538 0.1182505731 0.0002208867 9.61454e-05 0.0001969101 0.0001164204 -0.4598449303 0.7089668507
495297030.0 -0.0751165426 0.1190585355 4.95819e-05 -1.17129e-05 0.0001764861 4.3903e-06 -0.4523765717 0.7138214473
500297000.0 -0.0741642483 0.1199630418 0.0001905232 3.3431e-06 -0.0001308659 -1.36867e-05 -0.4452068895 0.7182984015
505296970.0 -0.072987237 0.1207930198 9.8884e-05 7.15725e-05 3.66735e-05 0.0001622947 -0.4378025504 0.7228367853
510296940.0 -0.0717853033 0.1217652144 0.0001944632 5.95514e-05 0.0002514552 4.63396e-05 -0.4301454063 0.7273194354
515296910.0 -0.0707837788 0.1225253063 0.0001819692 -6.59854e-05 5.74809e-05 -0.0001586216 -0.4231299984 0.7313671076
520296880.0 -0.0695611627 0.1233594715 0.0001238521 -8.27268e-05 0.0002028621 0.0001576224 -0.4152182832 0.7362627106
525296850.0 -0.0683338491 0.1238956265 0.0002668376 5.61192e-05 0.0001605272 2.21199e-05 -0.4082674995 0.7392745115
530296820.0 -0.0675695191 0.1249437322 1.26115e-05 2.02641e-05 0.0001691674 0.0001687279 -0.4002703622 0.7433466709
535296790.0 -0.0659674916 0.1257899581 9.10426e-05 -8.77793e-05 0.0001238786 0.0001947166 -0.3936191988 0.7482018161
540296760.0 -0.0646429224 0.12648694 0.0001654226 2.72895e-05 0.0002953829 0.0001473612 -0.385251013 0.7514043014
545296730.0 -0.0637320047 0.1277128227 6.34693e-05 7.46366e-05 0.000241736 0.0001334439 -0.3776253272 0.7553974479
550296700.0 -0.0623129584 0.1285042825 5.64471e-05 0.0001608614 5.19237e-05 -7.30395e-05 -0.3697378999 0.7590693819
555296670.0 -0.0608238523 0.1293666427 0.000393981 5.25538e-05 0.0003125471 0.0001266519 -0.3624720718 0.7624967649
560296640.0 -0.0594167781 0.1297032783 0.0001827633 -2.9444e-05 0.0002819551 1.23652e-05 -0.354747422 0.7664430825
565296610.0 -0.0585102884 0.1307002547 5.4379e-05 0.0002073267 6.74407e-05 -8.7069e-06 -0.3468902344 0.7701013925
570296580.0 -0.0574809417 0.1316328113 0.0004436086 0.0001487525 0.0002777957 5.93802e-05 -0.3394147099 0.7730546604
575296550.0 -0.0559605779 0.1322566038 0.0001703274 -8.8564e-05 0.0001620548 1.33384e-05 -0.3311367312 0.7761687821
580296520.0 -0.0548935611 0.1333580476 0.0001252495 -6.5949e-06 0.0002312288 -4.12495e-05 -0.324029697 0.7796310013
585296490.0 -0.0532225499 0.1339229241 0.0003154385 -4.58761e-05 0.0001751594 -4.83117e-05 -0.3155112778 0.7831493471
590296460.0 -0.0518855846 0.1347792457 0.0001608356 0.0001207059 0.0003256561 2.22154e-05 -0.3078195465 0.7856970963
595296430.0 -0.050550431 0.1352219557 5.8782e-05 0.0001854287 0.0003582758 0.0002365361 -0.300188899 0.7889539782
600296400.0 -0.0492487006 0.1361353756 0.0001125701 0.0001447117 0.0001585145 0.000132421 -0.2918240333 0.7917359013
605296370.0 -0.0480580169 0.1367569502 -9.981e-07 3.31021e-05 0.0001766554 0.0001789933 -0.2838866074 0.7952221865
610296340.0 -0.0463487417 0.1377972063 -6.99873e-05 2.94082e-05 0.0001335867 -6.90182e-05 -0.2765482962 0.7977176392
615296310.0 -0.0450152357 0.1384617882 0.0001325486 4.3694e-05 0.0002767086 3.11727e-05 -0.2674653509 0.8004180529
620296280.0 -0.0439346762 0.1394961396 -3.23865e-05 0.0002821341 0.000239655 6.15964e-05 -0.2598670364 0.8034183486
625296250.0 -0.0426947985 0.1398387442 0.0001954615 -7.62191e-05 0.0001716199 2.6786e-06 -0.2518783917 0.8048674109
630296220.0 -0.041270543 0.1404172202 0.00011371 -3.29012e-05 0.0001137301 7.35743e-05 -0.2439108817 0.8080441607
635296190.0 -0.0399776483 0.1415669073 0.0001980731 -4.82374e-05 0.0002241958 7.67134e-05 -0.235615725 0.8100634666
640296160.0 -0.0385471481 0.1419032918 0.0001525842 -1.78754e-05 0.0002661049 -5.0867e-06 -0.2274023104 0.8127843548
645296130.0 -0.0370872213 0.142938376 0.000151251 0.0001678671 0.0003053495 -2.70007e-05 -0.2196442185 0.8141381667
650296100.0 -0.035740074 0.1435334014 0.000216993 -2.54537e-05 0.000314718 0.0002536284 -0.2108575951 0.8168532333
655296070.0 -0.0345020273 0.14410535 0.0005216436 6.08511e-05 0.0003801211 -4.28287e-05 -0.2033955212 0.8193688815
660296040.0 -0.0334618111 0.1448208769 9.72219e-05 -0.0001948813 0.0001594519 -2.45038e-05 -0.1943370127 0.8212461299
665296010.0 -0.03197368 0.1456369278 3.42707e-05 3.66639e-05 9.75697e-05 2.33719e-05 -0.1866136227 0.822873986
670295980.0 -0.0306876918 0.146029988 0.0001225399 -0.0002153684 5.04188e-05 0.0001224245 -0.1789443564 0.8252903365
675295950.0 -0.0290496593 0.1465665019 0.0002537287 5.52128e-05 9.75089e-05 -0.0001370473 -0.1698572069 0.8267584508
680295920.0 -0.0282214892 0.1477019081 8.07966e-05 0.0001457094 0.0004326118 0.0001639097 -0.1613958509 0.8278794233
685295890.0 -0.0264887953 0.1480920232 0.0002326266 -2.79587e-05 9.5982e-05 9.78348e-05 -0.1538628353 0.8297104175
690295860.0 -0.0251691351 0.1486576145 0.0002481132 0.0003818035 0.0002187871 0.0001269594 -0.1451878875 0.8312775169
695295830.0 -0.0239161927 0.1493020641 0.0002629468 -0.0001993504 0.0001119785 3.60801e-05 -0.1370230849 0.8329708381
700295800.0 -0.022436421 0.149989766 0.0001893812 -0.0002513291 0.0002498354 2.72614e-05 -0.1286832574 0.8338900512
705295770.0 -0.0210280793 0.1503767951 0.0001056315 3.50223e-05 0.000307818 2.36634e-05 -0.1204072938 0.8353588184
710295740.0 -0.0201212604 0.1508026108 0.0002993593 -8.99922e-05 0.0002310493 0.0001320613 -0.1118203626 0.8364190263
715295710.0 -0.0182960501 0.1515191143 0.0002262587 -0.0001557385 3.33225e-05 0.0001657389 -0.1035395388 0.8365310842
720295680.0 -0.0169435498 0.1516745056 0.0001774739 6.96185e-05 0.0002409857 -0.0001502187 -0.0949712224 0.837909531
725295650.0 -0.0157922873 0.1523128106 3.77704e-05 -0.0001084051 0.0003191417 -2.70762e-05 -0.0873416767 0.8394824329
730295620.0 -0.0146494468 0.1528099369 0.0002549618 0.0001265596 0.0001642674 -2.7655e-05 -0.078760238 0.8404627708
735295590.0 -0.0131395148 0.1532181008 2.22337e-05 8.25169e-05 0.0001299894 -0.0001295076 -0.0697573897 0.8404216329
740295560.0 -0.0121796317 0.1537445603 6.016e-05 -1.9206e-06 0.0002095663 -0.0002946364 -0.0615960215 0.8415993776
745295530.0 -0.0109551373 0.1540265459 0.0001653866 -8.46325e-05 0.0002864431 7.64395e-05 -0.0539807459 0.841770948
750295500.0 -0.0093984174 0.1547248423 8.13949e-05 -1.14607e-05 0.0002514948 -6.04705e-05 -0.0446797769 0.842287662
755295470.0 -0.0079080016 0.1547108406 0.0001841472 4.825e-07 0.0003627368 -3.87923e-05 -0.0372614499 0.842793486
760295440.0 -0.0065753012 0.1556220382 -0.0001098483 -8.26096e-05 0.0004231768 -1.41681e-05 -0.028386563 0.8432107253
765295410.0 -0.0051624211 0.1555188149 0.0001070823 -0.0002211649 0.0002601711 -1.84507e-05 -0.019912129 0.8432679802
770295380.0 -0.0039483674 0.1560756633 0.0002838175 -4.44664e-05 0.0001867522 6.09e-06 -0.0115127743 0.8435520703
775295350.0 -0.0026713854 0.1562262256 0.0002434548 -0.0001841349 0.0002990454 -0.0002177152 -0.0031885244 0.8432348632
780295320.0 -0.0012992828 0.1568412592 0.0002894569 -1.54659e-05 2.70628e-05 -0.0001048098 0.0053775883 0.8435885059
785295290.0 0.0001515115 0.1567404054 0.0001600976 -0.0001475442 0.000283263 -8.69534e-05 0.0128793544 0.8436232997
790295260.0 0.0014376827 0.1570142285 0.0004001315 -9.9879e-06 0.0003394894 -0.000192446 0.0219357172 0.8435360951
795295230.0 0.0028414235 0.1572776928 0.0003539986 -0.0001496105 0.000228046 4.13454e-05 0.0297148637 0.8425725328
800295200.0 0.0042821539 0.157696881 0.000197548 -7.69813e-05 0.0003903916 2.80929e-05 0.0381539257 0.8423104817
805295170.0 0.0054465989 0.1578308607 0.0003416644 -0.0001717851 0.0003435616 -4.45655e-05 0.0471566761 0.8418936359
810295140.0 0.0068691914 0.1582769288 0.0003435974 9.37168e-05 0.0003905677 -1.00239e-05 0.0555256702 0.8416041301
815295110.0 0.0081809532 0.1583397055 0.0001518884 -6.04917e-05 0.000274453 3.94539e-05 0.0633370959 0.8410453289
820295080.0 0.0095540358 0.1582529738 0.0002672547 -0.0001212017 0.000236993 -5.02387e-05 0.0710525615 0.8403634858
825295050.0 0.0108183979 0.1582565457 0.0001837636 0.000134242 0.0002568552 -8.60305e-05 0.0800949541 0.8395723435
830295020.0 0.0123333518 0.1584735055 0.0001896031 2.66969e-05 0.0002785205 -0.000112257 0.0878474177 0.838208279
835294990.0 0.0133305819 0.1585715281 0.0002845847 -8.34516e-05 0.0001220835 9.7018e-06 0.096573378 0.8380195315
840294960.0 0.0148934339 0.1586303402 0.0002592507 -8.1055e-05 0.0005201114 -1.21941e-05 0.1051006556 0.8370964893
845294930.0 0.0164615248 0.1587222296 0.0003114052 -6.53358e-05 0.0003575891 -0.0001422926 0.1133673819 0.8358710159
850294900.0 0.0181309584 0.158781001 0.000200386 -0.0001618905 0.0002438009 -0.0001145275 0.1213260492 0.8344183435
