!Created with skrf (http://scikit-rf.org).
# Hz S RI R 50.0 
!freq ReS11 ImS11 ReS21 ImS21 ReS12 ImS12 ReS22 ImS22
300000.0 -0.1003103587 -0.0665857903 0.6309957251 0.0615395825 0.6240095854 0.0617109981 -0.1013622216 -0.0733770491
5299970.0 -0.1020182079 0.0133110641 0.6307157808 0.0096730531 0.6304174457 0.0105790389 -0.1010960382 0.0131633909
10299940.0 -0.0971819665 0.0294405327 0.6340343683 0.0155553693 0.6344790034 0.0158266238 -0.0958007268 0.0303484062
15299910.0 -0.0901811216 0.0425668336 0.6402910059 0.0203192835 0.6406285178 0.0206448785 -0.089110566 0.0436376132
20299880.0 -0.0816514104 0.0531817915 0.6482268898 0.0240525804 0.6488744109 0.0239672202 -0.0798309732 0.0544863564
25299850.0 -0.072269944 0.0622393926 0.6582274413 0.0251158644 0.6575675666 0.0254457891 -0.0702141861 0.063216645
30299820.0 -0.0621790082 0.0690218774 0.6674750409 0.0244673133 0.6669923301 0.0246323641 -0.0599583342 0.0697800829
35299790.0 -0.052495941 0.0737586338 0.6770495429 0.0214507473 0.6772145056 0.0216718947 -0.0498845759 0.0747629567
40299760.0 -0.0433056206 0.0770301147 0.6860278351 0.0173646768 0.6865387477 0.0181100975 -0.0406020882 0.0774011135
45299730.0 -0.0340069724 0.0794170228 0.6950494853 0.0120274495 0.6953976431 0.0121685227 -0.03139113 0.0795551528
50299700.0 -0.025611436 0.0801476536 0.7035790415 0.005070454 0.7034270326 0.0056304282 -0.0228294786 0.0803626571
55299670.0 -0.017467935 0.0805449469 0.710629645 -0.0034020968 0.7110148799 -0.0022750764 -0.0148258589 0.0803573323
60299640.0 -0.0100044076 0.0804465329 0.7174416568 -0.0111275226 0.7174397395 -0.0107720636 -0.0074852409 0.0795663139
65299610.0 -0.0034455461 0.0789843565 0.7231608868 -0.0199045796 0.7234188078 -0.0199592044 -0.0010281306 0.0786434231
70299580.0 0.0025002627 0.0777902588 0.728419283 -0.0290817523 0.7285720323 -0.0288973797 0.0048441617 0.0767565916
75299550.0 0.0081633883 0.075847826 0.7324164633 -0.0384317461 0.7330947405 -0.0389242163 0.010391642 0.0750005558
80299520.0 0.0132162826 0.0736318252 0.737276509 -0.0488487886 0.7373099045 -0.0488272525 0.0153027327 0.0728138796
85299490.0 0.0179037186 0.0712888169 0.7404310549 -0.0579153874 0.7407471918 -0.0581919581 0.0198030865 0.0700250275
90299460.0 0.0218741642 0.0690385564 0.7429806879 -0.069008445 0.7434098659 -0.0682712345 0.0236262584 0.067931366
95299430.0 0.0261490371 0.0665270409 0.7456280524 -0.0791315878 0.7454806298 -0.0787705832 0.027468504 0.065630719
100299400.0 0.0290742649 0.0643539921 0.7468107364 -0.0891657762 0.7470365664 -0.0890073889 0.0313704968 0.0629430815
105299370.0 0.0322794476 0.0618691866 0.7485903189 -0.0993446252 0.7491708465 -0.0989463792 0.0342580557 0.0607337124
110299340.0 0.0351452951 0.059487266 0.7500685277 -0.1088511329 0.7497785424 -0.1088058416 0.0363475975 0.0579664706
115299310.0 0.0375283561 0.0573183273 0.7508585567 -0.119203038 0.7508900627 -0.1186580715 0.0392647372 0.0556775867
120299280.0 0.0398489415 0.0543167438 0.7511537678 -0.1291670287 0.7515093383 -0.1289941504 0.0411212638 0.0534523073
125299250.0 0.0421144748 0.0521422433 0.7513852312 -0.1388395111 0.7515424579 -0.1384937489 0.0428997568 0.0507975889
130299220.0 0.0436048595 0.0500362525 0.7511272848 -0.1492675662 0.7517696745 -0.1490542003 0.0449088184 0.0483969123
135299190.0 0.0454227719 0.0482567362 0.7516389352 -0.158700097 0.7509132489 -0.1584506352 0.0465330663 0.0462294318
140299160.0 0.0463320522 0.0462343964 0.7508959124 -0.1688805478 0.7510767262 -0.1688348109 0.0479925918 0.0447593679
145299130.0 0.0479617952 0.0439493965 0.7501333421 -0.1783300979 0.7498043248 -0.1781910578 0.049182535 0.0422139378
150299100.0 0.0497175796 0.0421312835 0.7486619314 -0.1873293708 0.7491492098 -0.1875475495 0.0505523917 0.0404542278
155299070.0 0.0503951627 0.0397918823 0.7481166217 -0.1980548004 0.747427302 -0.1976582098 0.0517856871 0.038790352
160299040.0 0.0516965537 0.0382558116 0.746747986 -0.2072182827 0.7458486335 -0.2071868244 0.0516861094 0.0363932163
165299010.0 0.0524795399 0.0364910134 0.7443900554 -0.2166493578 0.7449179909 -0.2166957568 0.0533760536 0.0350117616
170298980.0 0.0530871823 0.0339972123 0.7428929902 -0.2263417877 0.7428295776 -0.2257056267 0.0538676296 0.0333033473
175298950.0 0.0535454662 0.0323295346 0.7414834455 -0.2351176084 0.7405803432 -0.2350661937 0.0546082868 0.031542965
180298920.0 0.054414157 0.0307959953 0.7390653731 -0.2444372941 0.7386896793 -0.244608766 0.0551308548 0.0296630295
185298890.0 0.0556989349 0.0288006725 0.7365969141 -0.2533007391 0.7365103276 -0.2535155172 0.0558039029 0.0282718541
190298860.0 0.0554010954 0.0275284127 0.7342920927 -0.2631498057 0.7349706469 -0.2625220269 0.0559566448 0.026345576
195298830.0 0.0562033657 0.0253970263 0.7318392045 -0.2717728686 0.732081243 -0.2713807656 0.0569903528 0.025066524
200298800.0 0.0564295368 0.0241553632 0.7288247395 -0.2805378737 0.7292587972 -0.2806978871 0.0568202355 0.0234602191
205298770.0 0.0570292846 0.0230254421 0.7256164897 -0.2904437425 0.726201632 -0.2894334166 0.0571991778 0.0213152913
210298740.0 0.0572043577 0.0212480648 0.7230218604 -0.2980740912 0.7233716948 -0.2978171793 0.0580370984 0.0210293774
215298710.0 0.0569624552 0.0198718006 0.7203839428 -0.3073563316 0.720460141 -0.3071227217 0.0576848266 0.0197576073
220298680.0 0.0577310769 0.0175834858 0.7165840182 -0.3156758047 0.7169042831 -0.315527072 0.0576601404 0.0177820226
225298650.0 0.0580234942 0.0167149283 0.7136995448 -0.3247301562 0.7136503804 -0.3242620278 0.0574832274 0.0160388937
230298620.0 0.058063044 0.0157624369 0.7109491451 -0.3327106213 0.7110651928 -0.3326777902 0.0576230957 0.0149063691
235298590.0 0.0580473111 0.0147847923 0.7067555074 -0.3409344522 0.7071987692 -0.340903763 0.0578329017 0.0134517924
240298560.0 0.058133732 0.0135685347 0.7037801886 -0.3496991105 0.7033211979 -0.3498431926 0.0579327566 0.0129218858
245298530.0 0.0581327157 0.0121093253 0.7000283773 -0.3582713602 0.6998495427 -0.3583109038 0.0587075364 0.0108958881
250298500.0 0.058559624 0.0109757418 0.6953252665 -0.3663361982 0.695330479 -0.3659860567 0.058324515 0.0102378326
255298470.0 0.0585715996 0.0094452606 0.6913770061 -0.373921356 0.6919187382 -0.3738413758 0.058555587 0.0091823891
260298440.0 0.0581640655 0.008164831 0.6875044068 -0.3832305067 0.6879084998 -0.3822586739 0.0587870921 0.0077948429
265298410.0 0.0590533363 0.0075720268 0.6835144612 -0.391224935 0.6841023454 -0.3902701115 0.0585807391 0.0069379068
270298380.0 0.0587403217 0.006361923 0.6799687361 -0.3984864227 0.6799395972 -0.3981994305 0.058472048 0.0059471526
275298350.0 0.0592531289 0.0050573577 0.6755966474 -0.4065759706 0.6759412965 -0.4062688321 0.058535686 0.0046118283
280298320.0 0.0585280679 0.0042428675 0.6714481706 -0.4143303236 0.6709434276 -0.4141790083 0.0589050062 0.0035065222
285298290.0 0.0586243297 0.0031679428 0.6666914761 -0.4219483857 0.6669372953 -0.4220174089 0.0589153876 0.002627803
290298260.0 0.0587860713 0.0022346986 0.6617880038 -0.4297909195 0.6623766978 -0.4300602186 0.0586273167 0.0017564858
295298230.0 0.0587239921 0.0009124828 0.6579609512 -0.4375896032 0.657544808 -0.437488038 0.0598488503 0.0004127229
300298200.0 0.0583195108 -0.0001626208 0.6535422738 -0.4450127749 0.6534899119 -0.4452182912 0.0589155518 -0.0005819416
305298170.0 0.0586735901 -0.0014918194 0.6476415475 -0.4536395597 0.6479556965 -0.4527513989 0.059320514 -0.0015864298
310298140.0 0.0583249317 -0.0022187098 0.6432349334 -0.4611555986 0.6433302789 -0.4605020885 0.0594724376 -0.0027348046
315298110.0 0.0583556187 -0.0039381595 0.6379947539 -0.4684055649 0.6383549856 -0.4682812845 0.0586731384 -0.0041803163
320298080.0 0.0584923969 -0.0047625532 0.6325890298 -0.4758319499 0.6328815729 -0.4753174233 0.0583013142 -0.0050663226
325298050.0 0.0577299909 -0.0058706263 0.6277741714 -0.4836036554 0.6269345661 -0.4830385434 0.057873656 -0.0061559671
330298020.0 0.0573039898 -0.0071771444 0.6216021204 -0.4908438017 0.6219061794 -0.4904177949 0.0572781804 -0.0072843366
335297990.0 0.057135823 -0.0085655304 0.6164228123 -0.4972165244 0.6157155736 -0.4980004506 0.0564609126 -0.0078142017
340297960.0 0.055861456 -0.0089906442 0.6098041255 -0.5045977321 0.6100413234 -0.5048264824 0.0567861747 -0.0084274599
345297930.0 0.05572984 -0.0090489372 0.6039638081 -0.5118005151 0.6042344809 -0.5116985041 0.05622035 -0.0098681569
350297900.0 0.0550913277 -0.0106393218 0.5979901357 -0.5186815147 0.5981140598 -0.5184021137 0.0555208071 -0.0097242381
355297870.0 0.054777169 -0.0103593439 0.592082343 -0.5245183724 0.5928425406 -0.5246773802 0.0551634467 -0.0106817691
360297840.0 0.0549118761 -0.0114859357 0.5871530018 -0.5315496891 0.5876758493 -0.53116363 0.0548785572 -0.0112925613
365297810.0 0.0541075529 -0.0118471736 0.5807891265 -0.5385749469 0.5811606844 -0.5387072133 0.0545830386 -0.0120507073
370297780.0 0.0544912258 -0.0130229449 0.5747343968 -0.544996153 0.5751056148 -0.5436899281 0.0540918197 -0.0124463195
375297750.0 0.0537844375 -0.0137808219 0.5687707942 -0.5511109274 0.5700987855 -0.5508147383 0.0542682452 -0.0132277957
380297720.0 0.0537752186 -0.0142888952 0.563033549 -0.5577371478 0.5630024807 -0.5567874579 0.0535750962 -0.0140978862
385297690.0 0.0531451056 -0.0151483905 0.5567491808 -0.563746262 0.556323977 -0.5632947778 0.0535318334 -0.0141565445
390297660.0 0.0528706803 -0.0152934597 0.5506546929 -0.5701439537 0.5501274013 -0.5690381463 0.0526864007 -0.0155791053
395297630.0 0.0523425864 -0.0161624069 0.5440096856 -0.5760284745 0.5445264659 -0.5759833896 0.0530193909 -0.0158651918
400297600.0 0.0520032168 -0.0168080911 0.5375338239 -0.5823186797 0.5378216508 -0.5819212895 0.0523649125 -0.016227705
405297570.0 0.0513170416 -0.0174987733 0.531392028 -0.5878444663 0.5315824921 -0.5874383229 0.0518816385 -0.0171411729
410297540.0 0.0513682129 -0.0183717508 0.5252087955 -0.5940934759 0.5254396703 -0.5937749496 0.0514281239 -0.0174461863
415297510.0 0.051386733 -0.0187418068 0.5179666944 -0.6000196 0.5185987966 -0.5998139247 0.0512576088 -0.0180684098
420297480.0 0.0508045984 -0.0191925377 0.5117118441 -0.6056721961 0.5120001197 -0.6058640153 0.0508678293 -0.0193645596
425297450.0 0.0505354959 -0.0205497754 0.5051847014 -0.6110848928 0.5054811736 -0.6109960281 0.0497014501 -0.0189564296
430297420.0 0.0498607254 -0.0211270785 0.4983536315 -0.6166459319 0.4986128595 -0.6164411763 0.0497758949 -0.0204565137
435297390.0 0.0493224938 -0.0213244555 0.4909638423 -0.6224223046 0.4913882793 -0.6220608063 0.0503650793 -0.0205991384
440297360.0 0.049342329 -0.0214232328 0.4844487071 -0.6273043845 0.4844722617 -0.6273170794 0.0490678525 -0.0215252812
445297330.0 0.0484758896 -0.0227962167 0.4780798359 -0.6331758519 0.4781489439 -0.6327268264 0.0493260609 -0.0222181472
450297300.0 0.0488064101 -0.0231291172 0.4705697978 -0.6380431532 0.4711026575 -0.6384821315 0.0484766743 -0.0228901169
455297270.0 0.0483099576 -0.0237714024 0.4630657615 -0.6436825346 0.4643520686 -0.6434141161 0.0485126679 -0.0231511075
460297240.0 0.0476617224 -0.0244736229 0.4563117644 -0.6489045606 0.4566591548 -0.6487427213 0.0478463048 -0.0233036587
465297210.0 0.0475959615 -0.0248738929 0.449744419 -0.6536877594 0.4492232842 -0.6541413107 0.0473467318 -0.0244969664
470297180.0 0.0468108577 -0.0256469611 0.4421675178 -0.6586221151 0.4421496807 -0.6582882533 0.0470628383 -0.0245271925
475297150.0 0.0468191015 -0.0262542964 0.43473676 -0.663096121 0.4347642395 -0.6626251081 0.0471792528 -0.0257355689
480297120.0 0.0460227435 -0.0257806476 0.4275898133 -0.6686915473 0.4277804594 -0.6687719714 0.0469069212 -0.0254206663
485297090.0 0.0454070563 -0.0264885742 0.4204021323 -0.6725314409 0.420682168 -0.6723550252 0.0465075869 -0.0266188264
490297060.0 0.0447091119 -0.0275408899 0.4134291776 -0.6779551244 0.4134174537 -0.6766645456 0.0459934209 -0.0262554924
495297030.0 0.0447170548 -0.0279001086 0.4049026194 -0.6823488694 0.4057301234 -0.6816926407 0.0450870079 -0.0275026238
500297000.0 0.044285755 -0.0284995161 0.3974440963 -0.6864392858 0.3975819467 -0.6856032709 0.0450003221 -0.0271192101
505296970.0 0.043978592 -0.0291683634 0.3903223619 -0.6908749489 0.3900918879 -0.6906026319 0.0442760235 -0.027957697
510296940.0 0.0431621164 -0.0294420618 0.3825613134 -0.6946772521 0.3823900058 -0.6949531243 0.0443149033 -0.0282565308
515296910.0 0.0426886496 -0.0294871867 0.3746729344 -0.699352905 0.3751126353 -0.6989722186 0.0438388466 -0.0288190671
520296880.0 0.0423878796 -0.0301948555 0.3669554373 -0.7039750726 0.367754883 -0.7033077888 0.0430905017 -0.0294328118
525296850.0 0.0421337357 -0.0312009064 0.3594324382 -0.7075086222 0.3600537762 -0.7072202862 0.04226276 -0.0296076434
530296820.0 0.0414077742 -0.0313984093 0.3516680609 -0.7114617442 0.3518720021 -0.711323699 0.042185654 -0.0300084298
535296790.0 0.0404835927 -0.0318597771 0.3443716426 -0.7149166453 0.3440959443 -0.7145593778 0.0418616846 -0.0314177037
540296760.0 0.0404060641 -0.0319215892 0.336289205 -0.7191561318 0.3359383632 -0.7190829267 0.0409776395 -0.0307180507
545296730.0 0.040081534 -0.0324784678 0.3277862159 -0.7226315807 0.3284299586 -0.722374352 0.0401473782 -0.0315521381
550296700.0 0.0398709356 -0.0327649442 0.3201956004 -0.7255302034 0.3205044833 -0.7263498188 0.0395956217 -0.0318065298
555296670.0 0.0388009801 -0.0330121991 0.3123476788 -0.7297461888 0.3129953132 -0.7294398987 0.0394978581 -0.0321342453
560296640.0 0.0386049888 -0.0331007556 0.3042197944 -0.7327281887 0.3043004288 -0.7328384052 0.0390095683 -0.0324087535
565296610.0 0.0375447971 -0.0339698359 0.2955655888 -0.7362817955 0.2965483044 -0.7364249811 0.0378492373 -0.033371638
570296580.0 0.0370929691 -0.0341437852 0.2882474072 -0.7400299801 0.2879095483 -0.7394038084 0.0378031531 -0.0328313166
575296550.0 0.0364654369 -0.0342507913 0.2800190956 -0.7424720655 0.2798480846 -0.7430890818 0.0376268994 -0.0339241023
580296520.0 0.0364333165 -0.0348923701 0.2717757803 -0.7458853811 0.272074649 -0.7456581596 0.036889735 -0.0344634971
585296490.0 0.035588313 -0.0357174941 0.2640158456 -0.7482139717 0.2645402427 -0.748483166 0.036455556 -0.0342699679
590296460.0 0.0354307219 -0.0356287249 0.255534273 -0.750372948 0.2557459328 -0.7510140177 0.0350309531 -0.0349927727
595296430.0 0.0348885207 -0.0357963734 0.2474680863 -0.7541663445 0.2477268681 -0.7540018624 0.0354076573 -0.0356371466
600296400.0 0.0339017536 -0.0364285692 0.2389707116 -0.7571945979 0.2395325667 -0.7563277239 0.0347721489 -0.0357485738
605296370.0 0.0334764282 -0.0365643449 0.2310367461 -0.7591495308 0.2310877901 -0.7593331023 0.0339995137 -0.0356203116
610296340.0 0.0331632974 -0.0367700956 0.222207709 -0.761594177 0.2232422434 -0.7616159843 0.0340128618 -0.0360536932
615296310.0 0.0327320343 -0.0376928497 0.2141593651 -0.7639476149 0.2137532685 -0.764913539 0.0331259525 -0.0361481612
620296280.0 0.0320718951 -0.0376308 0.2059426277 -0.766329164 0.205779345 -0.766170176 0.0324285621 -0.036951463
625296250.0 0.0313118256 -0.038573794 0.198352214 -0.7687047172 0.1980332997 -0.7689329194 0.0330801719 -0.0369320164
630296220.0 0.0318191822 -0.0381836786 0.1882504622 -0.7702642849 0.1883540272 -0.7703725511 0.0314452879 -0.0369770101
635296190.0 0.0299928315 -0.039136411 0.180569261 -0.772381342 0.1803404642 -0.7726397233 0.031360512 -0.0373729505
640296160.0 0.029370632 -0.0387541041 0.1723360893 -0.7745254879 0.1727278856 -0.7743148361 0.0305714642 -0.0375702049
645296130.0 0.0291127073 -0.0389741812 0.1635342186 -0.7766684983 0.1640015022 -0.7762651122 0.0302140232 -0.0377980455
650296100.0 0.0287845781 -0.0394283711 0.1552535224 -0.7784353243 0.1556627362 -0.7783233567 0.0300667917 -0.0387998264
655296070.0 0.0277251089 -0.0399789961 0.1466382642 -0.780177384 0.1476113993 -0.7799173064 0.0293995554 -0.0382140379
660296040.0 0.0267698976 -0.0405070922 0.1385110414 -0.7816709996 0.1385113024 -0.7816448561 0.0289082884 -0.0386151099
665296010.0 0.0273541741 -0.0404794526 0.129736012 -0.7828620104 0.1302684115 -0.7826454523 0.0286742159 -0.03813
670295980.0 0.0249634051 -0.0404947442 0.1208292956 -0.7843301539 0.1214997711 -0.7843007713 0.0271719291 -0.0389300862
675295950.0 0.0252738864 -0.0403930534 0.1130290483 -0.7850908712 0.1128345644 -0.7845341958 0.0263641891 -0.0391570131
680295920.0 0.0242427201 -0.040889409 0.1040574292 -0.7867238044 0.1034664698 -0.7864710936 0.0261471181 -0.0385510153
685295890.0 0.0241265089 -0.0405048092 0.0955001404 -0.7876247755 0.0950325407 -0.7877075895 0.0256660285 -0.0392620868
690295860.0 0.0238971495 -0.040482899 0.0870246747 -0.7879274956 0.0865682163 -0.7889455795 0.0245887771 -0.0385710034
695295830.0 0.02282849 -0.0412769165 0.0786563983 -0.7894062465 0.0780077312 -0.7893729176 0.0241648257 -0.0391710484
700295800.0 0.0222961981 -0.0416126503 0.0694491896 -0.7899462412 0.0696812601 -0.7896081742 0.0234000592 -0.0386824118
705295770.0 0.0214687535 -0.0408932138 0.0605683644 -0.7908287587 0.0611569942 -0.7910323294 0.0226768613 -0.0392987818
710295740.0 0.0214983776 -0.0414133052 0.0525975767 -0.7923815478 0.0527755453 -0.792329239 0.0227212243 -0.0401131106
715295710.0 0.019838497 -0.0415364815 0.044509571 -0.7922940356 0.0436342994 -0.7920852003 0.0221104207 -0.0398165189
720295680.0 0.0198014325 -0.0419789112 0.0351874895 -0.7925452428 0.035769866 -0.7923131913 0.0215729111 -0.0392240572
725295650.0 0.0191712711 -0.0415696494 0.0264772887 -0.7927080469 0.026926131 -0.7931429364 0.0200417606 -0.0396254719
730295620.0 0.0189043792 -0.0413509502 0.0179922617 -0.7924884441 0.0182802593 -0.7931925975 0.0194726773 -0.0402074957
735295590.0 0.0181326091 -0.0415378484 0.0092180026 -0.7936346304 0.0095890492 -0.7929774305 0.0188280735 -0.0404540589
740295560.0 0.0170334363 -0.0415122717 0.000676622 -0.7928538876 0.0004022031 -0.7933571677 0.0191548541 -0.0399918111
745295530.0 0.0165230164 -0.0418006809 -0.0080607832 -0.7924685912 -0.0078084548 -0.7930990908 0.0184441829 -0.0406323335
750295500.0 0.0163558833 -0.0416313371 -0.0163955599 -0.7924080553 -0.0160728834 -0.7930462594 0.017389546 -0.0404197467
755295470.0 0.0157020842 -0.0419707833 -0.0248293768 -0.7928007387 -0.0245679632 -0.7927191072 0.0177880175 -0.040964976
760295440.0 0.0149348162 -0.0418324807 -0.0337306277 -0.7925710657 -0.0334419286 -0.7925796358 0.0167723832 -0.040743816
765295410.0 0.0142411584 -0.0418734931 -0.042889481 -0.7919496456 -0.0423782881 -0.7920104009 0.0160654633 -0.0407630295
770295380.0 0.0134401245 -0.0423343015 -0.0511591042 -0.7915942346 -0.0508482853 -0.7917535991 0.0154769573 -0.0408529786
775295350.0 0.0128943916 -0.0429185242 -0.0600103493 -0.7904959218 -0.0592374205 -0.7906651925 0.0138526026 -0.0404039638
780295320.0 0.0123825896 -0.0422936692 -0.0682857296 -0.7896409028 -0.067679021 -0.7899920896 0.0138304247 -0.0414089485
785295290.0 0.0116066638 -0.0428440345 -0.077520613 -0.7888715578 -0.076667898 -0.7891810721 0.014288587 -0.0405524947
790295260.0 0.011708907 -0.0416351533 -0.0849267946 -0.7883700157 -0.0842042774 -0.7882620015 0.0131027353 -0.0408739356
795295230.0 0.0106890378 -0.0424782895 -0.093806736 -0.7871428634 -0.0930413689 -0.7874046419 0.0126965406 -0.0401420674
800295200.0 0.0096598545 -0.0418370186 -0.1026898803 -0.7862339614 -0.1018766681 -0.7865643317 0.0119875724 -0.0407994584
805295170.0 0.0093237086 -0.0423169403 -0.1113797151 -0.7848324148 -0.1107316215 -0.7854496835 0.0111828138 -0.0403928931
810295140.0 0.0081553347 -0.0426473667 -0.1190254387 -0.7837698083 -0.1192564251 -0.7841651859 0.0114196677 -0.0401474135
815295110.0 0.0082614323 -0.0427580033 -0.1279731618 -0.7824597576 -0.1279476964 -0.7823088282 0.0101820737 -0.0400698492
820295080.0 0.006916979 -0.0418558882 -0.1364131252 -0.7807845865 -0.1357213706 -0.7808911104 0.0095106691 -0.0403780529
825295050.0 0.007442197 -0.0420656499 -0.1439118873 -0.7789995607 -0.1448719604 -0.7794972884 0.0094644563 -0.0402345971
830295020.0 0.0061614034 -0.0417539246 -0.1535851948 -0.7773326072 -0.1530805589 -0.7770885015 0.0092591953 -0.0397347268
