!Created with skrf (http://scikit-rf.org).
# Hz S RI R 50.0 
!freq ReS11 ImS11 ReS21 ImS21 ReS12 ImS12 ReS22 ImS22
300000.0 -0.2397202961 -0.1006043356 0.4671314897 0.0650412666 0.4673526096 0.0705614192 -0.2351210042 -0.1098039074
5299970.0 -0.2437630908 0.0072196427 0.4739992084 0.0052157206 0.4736759002 0.0059385032 -0.2436949964 0.0059981953
10299940.0 -0.2400514368 0.0198975574 0.4760227908 0.0062340278 0.4759185641 0.006573423 -0.2409826433 0.018394861
15299910.0 -0.2359340864 0.0294205329 0.4793664821 0.0075403504 0.4792487323 0.0080516259 -0.2364636699 0.0276292842
20299880.0 -0.2303556637 0.0371297204 0.4838592487 0.0082416276 0.4842562332 0.0082420405 -0.232003314 0.0355124296
25299850.0 -0.2247557338 0.0434390566 0.4892966678 0.007043645 0.4894671762 0.007285503 -0.226777312 0.0419106985
30299820.0 -0.218609253 0.0486618012 0.4951456919 0.0055702632 0.4946616189 0.0054274097 -0.2217377046 0.046934179
35299790.0 -0.2129200762 0.0529909778 0.5002403279 0.0018578754 0.5002020218 0.0020356554 -0.2160398916 0.0510420679
40299760.0 -0.2076244073 0.0557088288 0.505536764 -0.0014886092 0.5052770679 -0.0019514387 -0.2112560338 0.0546725956
45299730.0 -0.2025247965 0.0582923056 0.5100404585 -0.0063488161 0.5101835088 -0.0064403258 -0.2065668733 0.0573767759
50299700.0 -0.197645587 0.0601349671 0.5143773224 -0.0123257507 0.5143900108 -0.0123161741 -0.2021409299 0.059633127
55299670.0 -0.1937694607 0.0618283603 0.5177527742 -0.0178933548 0.5182546321 -0.0177462963 -0.1982938008 0.0615080198
60299640.0 -0.1893988709 0.062800566 0.5212109146 -0.0243496287 0.521467911 -0.024236697 -0.1944588467 0.0634178402
65299610.0 -0.1860084193 0.0638483317 0.5241539855 -0.0300620474 0.5242121453 -0.0305077339 -0.1908559556 0.0646152108
70299580.0 -0.1824746696 0.0641822688 0.5267186753 -0.0370869695 0.526904677 -0.0369438151 -0.1878748524 0.065532714
75299550.0 -0.1795456274 0.0650630935 0.5286794506 -0.0436938108 0.5289959557 -0.0442027483 -0.1852192395 0.0671299957
80299520.0 -0.177235366 0.0656952169 0.5309779114 -0.0508480321 0.5307581366 -0.050972633 -0.1825968375 0.0674017739
85299490.0 -0.1746126663 0.0656952768 0.5322416381 -0.0578318808 0.5317348574 -0.0579391179 -0.1800876539 0.0686931842
90299460.0 -0.1726698441 0.0664522831 0.5331433193 -0.0644109985 0.5331239476 -0.0646304356 -0.1776258191 0.0692307215
95299430.0 -0.170478908 0.067116525 0.5338786495 -0.0720699188 0.5343830885 -0.0718462728 -0.1758414548 0.07022523
100299400.0 -0.168814137 0.0678314532 0.5348733642 -0.0788284491 0.5342933503 -0.0786574839 -0.1743348536 0.070701059
105299370.0 -0.1667872738 0.0681018887 0.5345042328 -0.0853829796 0.5347523742 -0.0857551109 -0.172153069 0.0718558521
110299340.0 -0.1654510104 0.0683853952 0.5346907241 -0.0923320136 0.534912659 -0.0926528872 -0.1707748341 0.0726116028
115299310.0 -0.163986216 0.0688210327 0.5346856395 -0.099085452 0.5350551443 -0.0992354967 -0.1689432992 0.0733086267
120299280.0 -0.16278816 0.0692535508 0.5347609282 -0.1062240954 0.5347273109 -0.1060511631 -0.1679632125 0.0743738693
125299250.0 -0.1618178975 0.0700244138 0.5343273801 -0.1126048979 0.5345384383 -0.1127310059 -0.1664928122 0.0748468997
130299220.0 -0.1606650957 0.0704899693 0.5339610079 -0.1190619003 0.5338455978 -0.1194912453 -0.1652183542 0.0759230046
135299190.0 -0.1593997741 0.0709788106 0.5332002351 -0.1258748525 0.5329615518 -0.1262395432 -0.16426179 0.077153505
140299160.0 -0.1586915537 0.0722220445 0.5324583312 -0.1328103395 0.5325170499 -0.132925646 -0.1627176444 0.0779941159
145299130.0 -0.1573761686 0.0726639001 0.5316033467 -0.1397529928 0.5312067017 -0.1392391084 -0.1623890527 0.0790571949
150299100.0 -0.1565613604 0.073415167 0.5301110093 -0.1459555603 0.5301037071 -0.1460316172 -0.1609789582 0.0800501928
155299070.0 -0.1557579519 0.0746686613 0.5291571011 -0.1524224948 0.5289833738 -0.1526916315 -0.1602263408 0.0810562436
160299040.0 -0.1548541413 0.0753407331 0.5272357877 -0.1585127883 0.5276705402 -0.1587898452 -0.1590441927 0.0826082684
165299010.0 -0.1543318025 0.0761759239 0.5264876013 -0.1653218336 0.5261392678 -0.1653571586 -0.1578385285 0.0831963249
170298980.0 -0.1534882788 0.0771708995 0.5241998535 -0.1715270895 0.5247041236 -0.1717800602 -0.1567882509 0.0843890538
175298950.0 -0.152844959 0.0784636722 0.5237028724 -0.1777948636 0.5233517558 -0.1780974842 -0.1560896169 0.0856064578
180298920.0 -0.1519351986 0.0791913275 0.5215815794 -0.1846014882 0.5213738036 -0.1842349081 -0.1547329461 0.0871259558
185298890.0 -0.1511218321 0.0802519793 0.519290212 -0.1908071054 0.5192966071 -0.1904826769 -0.153863123 0.0878732145
190298860.0 -0.150421874 0.0811751769 0.5175796844 -0.1965972979 0.5175532859 -0.1967489722 -0.1526024216 0.0895611277
195298830.0 -0.1492850851 0.0821453513 0.5157320216 -0.2026607056 0.5154858451 -0.2027485864 -0.1522200802 0.0902602046
200298800.0 -0.1489405641 0.0834447385 0.5140232638 -0.2082788011 0.5136635023 -0.2086637484 -0.150907386 0.092123285
205298770.0 -0.1481591842 0.0846811545 0.5116181837 -0.2149968479 0.5114850823 -0.214957837 -0.1501478358 0.0929947451
210298740.0 -0.147481461 0.085831317 0.5091878257 -0.2209836289 0.5091185711 -0.2212378504 -0.149062602 0.0946653996
215298710.0 -0.1467268123 0.0868433068 0.5070575794 -0.2270898911 0.5068133112 -0.2268790343 -0.148454527 0.0959932261
220298680.0 -0.1460251335 0.0882587006 0.5039288549 -0.2331363064 0.5040844857 -0.232870039 -0.1471137592 0.0976244364
225298650.0 -0.1448744531 0.0893471897 0.5017075982 -0.2381756448 0.5017017179 -0.2387872867 -0.1461700944 0.0987924019
230298620.0 -0.1444641014 0.0905699125 0.4998948325 -0.2446789481 0.4995384898 -0.2445449974 -0.1450928576 0.1002232281
235298590.0 -0.1436229394 0.0914967999 0.4966052526 -0.2498544997 0.4968231714 -0.2506155709 -0.1439779073 0.1012893811
240298560.0 -0.1429479792 0.0930073287 0.4943925631 -0.2553793666 0.4943406966 -0.255456502 -0.1430889276 0.1029587253
245298530.0 -0.1421020541 0.094512237 0.4906037374 -0.2617562641 0.4912864153 -0.2619161667 -0.1420329865 0.1047440468
250298500.0 -0.1413549241 0.0952987823 0.4882035728 -0.2665431975 0.4884565557 -0.2665914102 -0.1406234289 0.1058830648
255298470.0 -0.1405436388 0.0965746056 0.4852637286 -0.272919986 0.4855390711 -0.2728499717 -0.1397608271 0.1070031843
260298440.0 -0.1400447 0.0978697747 0.4828569275 -0.2778386452 0.4828790282 -0.278318493 -0.1382234002 0.108846361
265298410.0 -0.1385932856 0.0993872504 0.479577121 -0.2840411453 0.4793578592 -0.2840270228 -0.1371584264 0.1101858563
270298380.0 -0.1376158593 0.100554353 0.4760285446 -0.289374737 0.4764482868 -0.2893423829 -0.1357486561 0.1119320467
275298350.0 -0.1370540576 0.101975137 0.4732160937 -0.2951463069 0.4731662417 -0.2949437694 -0.13474329 0.1133713416
280298320.0 -0.1363097517 0.1032557465 0.4700513376 -0.2996957079 0.4698816548 -0.3004087527 -0.1332712037 0.1148578708
285298290.0 -0.1353308809 0.1046406952 0.4671446292 -0.3048756617 0.4667932452 -0.3057477327 -0.1322864925 0.1160992028
290298260.0 -0.1344304458 0.1058098664 0.4634788924 -0.3105433069 0.4636262263 -0.3108342195 -0.1304813138 0.1177768734
295298230.0 -0.1332738133 0.1071626998 0.4603295646 -0.3158396851 0.4596178895 -0.3159746457 -0.1295321442 0.1193166088
300298200.0 -0.1318812398 0.1085022294 0.4564248777 -0.3213756189 0.4567901206 -0.321465801 -0.1283798347 0.1209858897
305298170.0 -0.1309726275 0.1094102659 0.4532683863 -0.3266709886 0.4538363472 -0.3266660689 -0.1267493162 0.1224916274
310298140.0 -0.129798058 0.1107964377 0.450020169 -0.3322177748 0.449806663 -0.3321543894 -0.1253309745 0.1241671323
315298110.0 -0.1290063149 0.1118116525 0.4458252608 -0.3370517193 0.4460902214 -0.3372492392 -0.1238436789 0.1249281412
320298080.0 -0.1280004008 0.1132575343 0.4421998722 -0.3422145558 0.4424985445 -0.3421526557 -0.1226800502 0.1262512428
325298050.0 -0.1273211267 0.1141105225 0.4388391276 -0.347211576 0.438491989 -0.3476129783 -0.121357753 0.1276536135
330298020.0 -0.126355264 0.1158179279 0.4336870031 -0.3524137143 0.4344596644 -0.3523954659 -0.1203082124 0.1286936941
335297990.0 -0.1253765893 0.1165251415 0.4302297496 -0.3570169528 0.430601563 -0.3571070657 -0.1189460611 0.1303334655
340297960.0 -0.1247265094 0.1181687666 0.4260135327 -0.3621659428 0.4262646522 -0.3617423996 -0.1177896251 0.131878384
345297930.0 -0.1237997361 0.1193810335 0.4220373925 -0.3662298802 0.422051562 -0.3662690885 -0.1162745358 0.1330844656
350297900.0 -0.1223198981 0.1208093278 0.4177414963 -0.3711013424 0.4186335355 -0.371238307 -0.1147439198 0.1350294936
355297870.0 -0.1214466971 0.121980219 0.4135628957 -0.3755461842 0.4138269536 -0.3758744936 -0.1136695746 0.1366525876
360297840.0 -0.1203782491 0.123416821 0.4099208899 -0.3806988059 0.4095284881 -0.3804385326 -0.1122078839 0.1380543027
365297810.0 -0.1191223709 0.1245427828 0.4052104365 -0.3846758039 0.4054281958 -0.3849526049 -0.1107408648 0.1396550046
370297780.0 -0.1179225303 0.1257792851 0.4010216055 -0.3893100342 0.401380209 -0.3894749165 -0.1090073254 0.1408860949
375297750.0 -0.1165538834 0.127379494 0.3971674683 -0.3938767908 0.3968187453 -0.3937792654 -0.1076015436 0.1423988311
380297720.0 -0.1154205948 0.1283017903 0.3923730654 -0.3977668752 0.392777848 -0.3979830336 -0.1059859698 0.1435115193
385297690.0 -0.1142730293 0.1297631934 0.3879479255 -0.4016917619 0.3879551478 -0.4020165604 -0.1047122682 0.1452428027
390297660.0 -0.1132325698 0.1309698372 0.3835682171 -0.4068822135 0.383826591 -0.4070231351 -0.1031046244 0.1463950926
395297630.0 -0.1116846275 0.1322838771 0.3793911889 -0.4102433451 0.3790203637 -0.4105306464 -0.101252898 0.1481123406
400297600.0 -0.110650326 0.1334667009 0.3747029486 -0.4147670783 0.3747533165 -0.4151168367 -0.1002420554 0.1488833361
405297570.0 -0.1093957392 0.1348307914 0.3702027558 -0.4189868801 0.3699080098 -0.4192375592 -0.0984395798 0.1507185914
410297540.0 -0.1077274728 0.1357866694 0.3650676695 -0.4228677937 0.3652853261 -0.4229651209 -0.0968870138 0.151956722
415297510.0 -0.1067287887 0.1374010901 0.3607186324 -0.4269504093 0.3610554325 -0.42706357 -0.0953816138 0.1535508222
420297480.0 -0.1052259713 0.1379814515 0.3556333352 -0.4307928829 0.3559817842 -0.4309454864 -0.0934589426 0.1541944471
425297450.0 -0.1042301996 0.1392228421 0.3514954857 -0.4349051891 0.3512855502 -0.4346376323 -0.0916110516 0.1558319724
430297420.0 -0.1028582574 0.1405129003 0.3469571417 -0.4387673949 0.3465213657 -0.4386428736 -0.0901349408 0.1567685789
435297390.0 -0.1013743956 0.1415759655 0.3418769632 -0.4423212692 0.3417263518 -0.4419900787 -0.0888257268 0.1581789773
440297360.0 -0.0997037008 0.1426344459 0.3364255971 -0.4462637759 0.3366986447 -0.4457088055 -0.0870253022 0.1585272373
445297330.0 -0.0982252976 0.1436652304 0.3313945204 -0.4500570487 0.3315819733 -0.4496229966 -0.0850864512 0.1601412003
450297300.0 -0.0966539255 0.1444465334 0.3265116826 -0.4534639945 0.3267884329 -0.4534800664 -0.0836339424 0.1617009145
455297270.0 -0.0956517732 0.1457493132 0.322213588 -0.4569687475 0.322094961 -0.4567223301 -0.0814229252 0.1625837249
460297240.0 -0.0945623491 0.1469749989 0.316688388 -0.4599862692 0.3163397158 -0.4600482616 -0.0796904056 0.1640372632
465297210.0 -0.0928657325 0.1477772102 0.3119856755 -0.4634360264 0.3123447545 -0.4639024358 -0.0786083532 0.1647281464
470297180.0 -0.0914370942 0.1489007918 0.3070054021 -0.4668111813 0.3071595125 -0.4668606581 -0.0769080794 0.1657295181
475297150.0 -0.0902185428 0.1497529723 0.3012980713 -0.469814674 0.3018435033 -0.4700045737 -0.0743947902 0.1669296831
480297120.0 -0.0882841171 0.150658528 0.2964558642 -0.4734097301 0.2968619497 -0.4732730625 -0.073020212 0.1681894159
485297090.0 -0.0866963976 0.1516321599 0.2913588679 -0.4764995872 0.2914787501 -0.476879762 -0.0712000233 0.1689640466
490297060.0 -0.0853504416 0.1524664536 0.286115096 -0.4800278027 0.2861662252 -0.4795623615 -0.0693768453 0.1699091438
495297030.0 -0.0843701067 0.1536592969 0.2806948597 -0.4828468174 0.2806417358 -0.482837312 -0.067319553 0.1707523496
500297000.0 -0.0823721307 0.1544081327 0.2756479997 -0.4859717837 0.2759683502 -0.4857355619 -0.0661567943 0.1718726859
505296970.0 -0.0813329484 0.1552576397 0.2701301043 -0.4887007701 0.2702183091 -0.4886666157 -0.0646656066 0.1725319063
510296940.0 -0.0795292675 0.1563598034 0.2649857194 -0.4921300709 0.264925341 -0.4917390502 -0.0617621992 0.1735973966
515296910.0 -0.0782854516 0.157542309 0.2594450947 -0.4944676627 0.259619047 -0.4944412164 -0.0603780943 0.1745105898
520296880.0 -0.0766084741 0.1580635347 0.2539253576 -0.4975281391 0.2539932401 -0.4972538648 -0.0582734093 0.1753376311
525296850.0 -0.0750713064 0.1588738678 0.2491492051 -0.5001039372 0.248797437 -0.5002524205 -0.0563221859 0.1765053866
530296820.0 -0.0733738641 0.1598055906 0.2432989766 -0.5018535308 0.2430818111 -0.502643115 -0.0549144842 0.1766746214
535296790.0 -0.0720367205 0.1604269647 0.2377222411 -0.5043504936 0.2378963451 -0.5051247697 -0.0528633504 0.1769811599
540296760.0 -0.0704136723 0.1611144652 0.2321317579 -0.5076990339 0.2320943722 -0.5077617209 -0.0510047545 0.1783375979
545296730.0 -0.0687489648 0.1624282268 0.2265626034 -0.5102718394 0.2264324599 -0.5102329135 -0.048754602 0.1790951254
550296700.0 -0.0675164774 0.1627913801 0.2211884051 -0.5123097309 0.2217432754 -0.5127331402 -0.0471241976 0.1801378132
555296670.0 -0.0657219481 0.1636360504 0.2156818027 -0.5148527732 0.2155220043 -0.5148584726 -0.0449860654 0.1806764589
560296640.0 -0.0642946258 0.1642111007 0.2103202297 -0.5169202884 0.2101538902 -0.516780186 -0.0430233903 0.1811050993
565296610.0 -0.0627259531 0.165123779 0.2040802214 -0.5196046071 0.2041376595 -0.5192409491 -0.0412042808 0.1816761973
570296580.0 -0.0607337135 0.1658145799 0.1985169866 -0.5214541092 0.1989759246 -0.5216598551 -0.0391779058 0.1829295796
575296550.0 -0.0593931605 0.166766793 0.1931452138 -0.5233934657 0.1933577217 -0.5234169953 -0.037187748 0.1830815801
580296520.0 -0.0576531357 0.1673646596 0.1876839172 -0.5255624418 0.1874054318 -0.5254450921 -0.0352276447 0.1838394418
585296490.0 -0.0559088253 0.1678197957 0.1820819958 -0.527447455 0.1816501 -0.5275043761 -0.0335398386 0.1838667445
590296460.0 -0.0547550088 0.1683392626 0.1757017012 -0.5293542148 0.1759566154 -0.5295510762 -0.0313639202 0.1845075912
595296430.0 -0.0530208431 0.1694387602 0.1705033609 -0.5315392703 0.1701659406 -0.5315945759 -0.0289275063 0.185104961
600296400.0 -0.0512061622 0.1701062796 0.1646614872 -0.5331943931 0.1650724235 -0.5332062037 -0.0273014812 0.1859674263
605296370.0 -0.0495390903 0.170683565 0.1590256867 -0.5351451422 0.1587041899 -0.5344698573 -0.025356193 0.18612101
610296340.0 -0.048059603 0.1715085728 0.1531849731 -0.53659801 0.1529389676 -0.5368406043 -0.0229125924 0.1870312133
615296310.0 -0.0462435949 0.1719577361 0.1468418252 -0.5379195886 0.1470571086 -0.5378388373 -0.0210165891 0.1872417971
620296280.0 -0.044767087 0.1723576544 0.1415054388 -0.5396172511 0.1412514183 -0.5395865327 -0.0195141169 0.1870123033
625296250.0 -0.042735857 0.1730945074 0.1350149378 -0.5413306208 0.1355330351 -0.5414472392 -0.0173737783 0.1879268182
630296220.0 -0.0412938519 0.1738270047 0.1295504494 -0.5427238185 0.1299613508 -0.5425977863 -0.0155775033 0.1884875293
635296190.0 -0.0395828442 0.1743939315 0.1236432938 -0.5434903549 0.1234547524 -0.5430587875 -0.0131221324 0.188396567
640296160.0 -0.0380455196 0.1745208936 0.1180637877 -0.5451476125 0.1178601702 -0.5449555507 -0.0110317217 0.188605761
645296130.0 -0.0361405045 0.1754111288 0.11173179 -0.546446529 0.1120851948 -0.546316754 -0.0094358804 0.1887914333
650296100.0 -0.0345274616 0.1761920264 0.1063774075 -0.5473064644 0.1061163895 -0.5471623269 -0.0072501373 0.1893681726
655296070.0 -0.0328626476 0.1760700363 0.1000089942 -0.5484349966 0.1000756687 -0.5481893085 -0.004883968 0.1897964952
660296040.0 -0.0315273334 0.1771474191 0.0942036238 -0.5492337897 0.0943482294 -0.5491957769 -0.0030137784 0.189355632
665296010.0 -0.0291783481 0.1771173015 0.0880906575 -0.5504001221 0.0888400074 -0.550264362 -0.0014185572 0.1900841746
670295980.0 -0.0274469952 0.1775929438 0.0825073054 -0.5512683196 0.082711028 -0.5511166005 0.0008519649 0.1900420703
675295950.0 -0.0257862176 0.1781069009 0.0761460739 -0.5522046441 0.0765857116 -0.5522890678 0.0032698422 0.1906210673
680295920.0 -0.0241606402 0.1787666897 0.0702315593 -0.5531714923 0.0704377637 -0.5530103765 0.0053332556 0.1902885106
685295890.0 -0.0223502226 0.1793162647 0.0648508272 -0.5536977294 0.0640822519 -0.5537642207 0.0074770725 0.190632119
690295860.0 -0.0202606064 0.1794796869 0.0581312841 -0.5541072946 0.0581844135 -0.5536752412 0.0097075213 0.1907743023
695295830.0 -0.0184303499 0.1793487323 0.0515985108 -0.5548280832 0.0520828852 -0.555089715 0.0113262827 0.190953587
700295800.0 -0.0167345863 0.1799298913 0.0460261933 -0.5553265863 0.0462319525 -0.555537533 0.0135069249 0.1901104637
705295770.0 -0.0148864074 0.1802997666 0.0398918766 -0.5553936362 0.0406905563 -0.5558000316 0.0151994339 0.1907954445
710295740.0 -0.013295569 0.1808444149 0.0343169251 -0.5561071349 0.0345343174 -0.5559366192 0.0169609997 0.1908021175
715295710.0 -0.0114305921 0.1809157788 0.0284476725 -0.5561340463 0.0284038341 -0.5563144815 0.0193698073 0.1902709907
720295680.0 -0.0101496425 0.1810231822 0.022320148 -0.5564562119 0.0227874892 -0.5568811116 0.0216372017 0.1906837397
725295650.0 -0.0077344688 0.1815784228 0.0159580901 -0.5566581728 0.0160926327 -0.5570605218 0.0234942452 0.1904350798
730295620.0 -0.0064687048 0.1814168966 0.0102070758 -0.5569282216 0.0104723546 -0.5568075524 0.0259789921 0.1900561903
735295590.0 -0.0039530156 0.1815750765 0.004644633 -0.556751194 0.0045679841 -0.5569351688 0.0281626762 0.1901770492
740295560.0 -0.0025358628 0.182230668 -0.0013992256 -0.5566421268 -0.0016955731 -0.5567733593 0.0300045759 0.1897014406
745295530.0 -0.0007589139 0.1821317253 -0.0076746955 -0.5564821344 -0.0074001705 -0.5570366747 0.0322394578 0.1897724524
750295500.0 0.000881313 0.1823078893 -0.013816472 -0.5563520858 -0.0137410605 -0.5568697863 0.0344446764 0.1891434145
755295470.0 0.0032470282 0.1825410707 -0.0192203937 -0.5563216677 -0.0193780354 -0.5569168867 0.035958206 0.1892830035
760295440.0 0.00451703 0.1827428983 -0.0260585296 -0.5563934693 -0.0257047243 -0.5561808617 0.037673866 0.1889544271
765295410.0 0.006150857 0.1825890177 -0.0313080878 -0.5556598856 -0.0314396769 -0.5560925784 0.0407200496 0.1889530569
770295380.0 0.0083746431 0.1827782735 -0.0375572853 -0.5552593513 -0.0371171712 -0.5560133696 0.0425334123 0.1884965128
775295350.0 0.0100131766 0.1829252234 -0.0431244858 -0.5546291231 -0.0432561306 -0.5548793584 0.0440176983 0.1876780218
780295320.0 0.0120609039 0.182793978 -0.0493699934 -0.5543113036 -0.0493771355 -0.5544054025 0.0464136302 0.1877942865
785295290.0 0.0137521111 0.1830896461 -0.0554180351 -0.5530272237 -0.0554737856 -0.5539421602 0.0480927951 0.187340167
790295260.0 0.0154797477 0.1830718888 -0.0611153699 -0.553202604 -0.061412246 -0.5535747734 0.0505752569 0.1868446435
795295230.0 0.0169503585 0.1831310431 -0.0665592548 -0.5520267629 -0.0670691492 -0.5524928117 0.052507437 0.1869842658
800295200.0 0.0190570859 0.1833465955 -0.0737098751 -0.5518256316 -0.073744253 -0.5519531003 0.0548155241 0.1860012912
805295170.0 0.0204476385 0.1829914653 -0.0789124048 -0.5508813617 -0.0791983855 -0.5506400604 0.0562772085 0.1852960993
810295140.0 0.0225425293 0.1829338391 -0.084952896 -0.5499154953 -0.0852159854 -0.5505169299 0.0585461521 0.1855560096
815295110.0 0.0245356336 0.1829592539 -0.0912529322 -0.5488070417 -0.0915494994 -0.5485174187 0.0603932998 0.1843480961
820295080.0 0.0261660574 0.1824864144 -0.0966761205 -0.5478691459 -0.0970410481 -0.5482568829 0.0623229143 0.1839028525
825295050.0 0.028051804 0.1827413793 -0.1025327963 -0.5461576319 -0.1030299798 -0.5466984868 0.064884908 0.1836334803
830295020.0 0.0298347609 0.1826986883 -0.1089407104 -0.5455680599 -0.1092972903 -0.5459531854 0.0664186661 0.1829220178
