!Created with skrf (http://scikit-rf.org).
# Hz S RI R 50.0 
!freq ReS11 ImS11 ReS21 ImS21 ReS12 ImS12 ReS22 ImS22
300000.0 -0.0490083203 -0.0458500002 -0.0007215685 0.0002489873 -0.0001155876 0.0018765429 -0.7704957143 -0.1368495155
5299970.0 -0.0485300468 0.0154946279 -0.0001821064 6.97547e-05 0.0001518292 8.4119e-06 -0.7844584597 -0.0072451507
10299940.0 -0.0431171862 0.0320032384 8.80848e-05 -8.06564e-05 -0.0002837544 -1.67176e-05 -0.7870644589 -0.003682991
15299910.0 -0.0350899301 0.0461069248 -0.0002977962 1.84054e-05 -0.0002989428 0.000165128 -0.7930087444 -0.0020508853
20299880.0 -0.0252471848 0.0574335653 3.9126e-05 -7.18754e-05 0.0002152597 8.43313e-05 -0.7992420051 0.0024833489
25299850.0 -0.0143292206 0.0666969483 -6.0556e-05 9.58059e-05 0.0001857873 -5.24404e-05 -0.8054491623 0.008292966
30299820.0 -0.0036367674 0.0730681293 4.5198e-06 3.69129e-05 7.41451e-05 -9.585e-06 -0.8117636783 0.0164851883
35299790.0 0.0080444572 0.0775591232 5.10403e-05 -0.0001940475 -1.91393e-05 -6.1784e-06 -0.8170070221 0.0251923018
40299760.0 0.0188258777 0.0806849106 -9.27269e-05 0.0002457776 -3.54134e-05 7.3855e-06 -0.8211994554 0.0343410214
45299730.0 0.0296237332 0.0816365506 0.0002448378 1.38315e-05 -3.6625e-06 1.49416e-05 -0.8253109248 0.0439997203
50299700.0 0.0392623849 0.0815946543 4.91554e-05 0.0001045268 -5.28863e-05 2.90718e-05 -0.8271390307 0.0538947662
55299670.0 0.0482383585 0.0803425114 0.0001075281 -0.0001069785 0.0001918031 3.57558e-05 -0.8296311942 0.0644753819
60299640.0 0.0566474682 0.0788514611 2.13137e-05 -5.98759e-05 -3.01344e-05 -7.02186e-05 -0.8301663408 0.0741462319
65299610.0 0.0642740679 0.0762972602 0.0001016233 -5.73734e-05 -8.0122e-06 2.8983e-05 -0.8320886603 0.084125958
70299580.0 0.0710141074 0.073399168 -2.78718e-05 0.0002784176 2.16346e-05 1.2058e-06 -0.8318280756 0.0946405045
75299550.0 0.0773536099 0.0703396027 8.28369e-05 -9.85963e-05 0.0001303859 -7.93735e-05 -0.8320825902 0.104232636
80299520.0 0.0831112786 0.0666857109 -3.52721e-05 3.96763e-05 -6.65577e-05 8.82636e-05 -0.8316877839 0.1137289848
85299490.0 0.0875304925 0.0627761149 -0.0001681168 -4.90107e-05 0.000106875 -1.63258e-05 -0.832057142 0.1239401767
90299460.0 0.092213392 0.059021964 0.0001176684 3.66071e-05 0.000206227 -7.37782e-05 -0.8311071688 0.1335568222
95299430.0 0.0964862274 0.0548900843 -0.0002004744 1.29123e-05 5.29597e-05 -0.0001452599 -0.8293936147 0.1427635885
100299400.0 0.0996791186 0.0511850148 -1.30584e-05 0.0001044895 8.12127e-05 0.0001409375 -0.8284395738 0.1527279813
105299370.0 0.1029449945 0.0470028445 4.66724e-05 0.0001860896 8.9026e-06 0.0001814302 -0.8268741904 0.1612408647
110299340.0 0.105708877 0.0432153095 -1.85953e-05 0.0001374146 -0.0001142121 1.90238e-05 -0.8253825307 0.1710041749
115299310.0 0.1084031374 0.0391324128 2.6906e-05 0.0001813813 3.15299e-05 8.25911e-05 -0.8237811137 0.1796942502
120299280.0 0.110426147 0.0351898812 0.0001815184 0.0001015539 6.91232e-05 0.0001258166 -0.8220807621 0.1892066629
125299250.0 0.1119318307 0.0312223871 0.0002433469 -0.0002166473 -1.18524e-05 0.0003205945 -0.8207617019 0.1980943789
130299220.0 0.1135009185 0.0279815406 -2.06571e-05 0.000195704 -3.29399e-05 9.99494e-05 -0.8183302259 0.2065598443
135299190.0 0.1153994989 0.0243633355 -2.34962e-05 2.22891e-05 0.0001142046 -0.0001617634 -0.8163787976 0.2161529889
140299160.0 0.1164802532 0.0206130916 -6.66793e-05 7.3606e-06 -0.0001834057 0.0002850499 -0.8143621094 0.224920499
145299130.0 0.1173925122 0.0168166622 9.09077e-05 -1.32827e-05 -6.77656e-05 -5.69775e-05 -0.8122058368 0.2341142699
150299100.0 0.1183877897 0.0135660612 -3.28421e-05 -0.0002245433 0.0002666535 -2.618e-07 -0.809997457 0.2428606471
155299070.0 0.1188867864 0.0102022683 0.0002144223 0.0002715207 5.54609e-05 -2.98921e-05 -0.8071291152 0.2517338679
160299040.0 0.1193290516 0.0070447481 7.308e-06 -0.0001133665 -0.0001360583 -0.0001536343 -0.8047191293 0.2607563899
165299010.0 0.1197737107 0.0037829403 6.66866e-05 0.0002233426 0.00022228 -7.07077e-05 -0.8017881156 0.269438112
170298980.0 0.1198481742 0.0008094891 5.10993e-05 6.28503e-05 5.65572e-05 -1.18041e-05 -0.7988830388 0.2778379572
175298950.0 0.120204913 -0.0022606807 3.34288e-05 0.0001024278 2.8756e-05 -6.08665e-05 -0.7963396235 0.2865775063
180298920.0 0.1205310183 -0.0053510453 0.0001646862 -5.30595e-05 1.24994e-05 0.0001776493 -0.793631146 0.2954175807
185298890.0 0.1205788222 -0.0083845301 -6.504e-07 -9.50122e-05 7.95738e-05 9.96114e-05 -0.7898547022 0.3039529658
190298860.0 0.1204646692 -0.011011855 6.57074e-05 0.0001016669 -3.7465e-06 8.61075e-05 -0.7876465183 0.3127193509
195298830.0 0.1202191299 -0.0137220578 -4.3764e-05 0.0003834681 -0.000252775 4.20754e-05 -0.7841858041 0.3208743841
200298800.0 0.1200128246 -0.0166461304 0.0001465875 0.0001916838 2.65367e-05 0.000160977 -0.7808871342 0.32883409
205298770.0 0.119647434 -0.0191324727 -9.26767e-05 -8.92934e-05 -0.0001492355 -1.01241e-05 -0.7770697049 0.3376087211
210298740.0 0.1192523254 -0.0216289378 -9.98773e-05 6.12184e-05 0.0001987155 5.31284e-05 -0.7741053993 0.346238207
215298710.0 0.1186369945 -0.0243440696 9.4656e-06 -5.10243e-05 0.0001730465 1.01487e-05 -0.7710313154 0.3546102235
220298680.0 0.1180772843 -0.0269407846 -0.0001028742 0.0001415323 6.25064e-05 0.0001889211 -0.7673621078 0.3621214345
225298650.0 0.1174110916 -0.0294321361 -7.27852e-05 4.3915e-06 9.63823e-05 0.0001243222 -0.7634469677 0.3701947751
230298620.0 0.1169004301 -0.0315416242 1.37183e-05 -6.30062e-05 -6.08479e-05 0.0001643491 -0.7602624264 0.3787305392
235298590.0 0.11662698 -0.0340058684 7.81599e-05 -6.59401e-05 -0.0001681317 7.94554e-05 -0.755884186 0.3872093789
240298560.0 0.1158032896 -0.0363137695 0.0001898663 -5.78098e-05 8.73095e-05 -0.000110691 -0.7515774741 0.3952239512
245298530.0 0.1148410168 -0.0386966388 8.6203e-06 -0.0001239944 -1.0386e-06 9.4086e-06 -0.7478515391 0.4024422977
250298500.0 0.1141308288 -0.0406652987 0.0001243068 5.66512e-05 4.1423e-05 4.2242e-05 -0.7436008527 0.4104164722
255298470.0 0.1130899912 -0.0432999302 -9.72736e-05 0.0001106993 0.0001017935 6.19338e-05 -0.7387169612 0.4182994324
260298440.0 0.1121453035 -0.0451176965 0.0001952718 0.0001063746 -6.3595e-06 7.017e-06 -0.7343869461 0.4265344733
265298410.0 0.1115078521 -0.0469360266 7.8026e-05 -7.84304e-05 -0.000126433 -1.79529e-05 -0.730003765 0.4335531603
270298380.0 0.1106434135 -0.0490113013 -2.1366e-05 -0.0002057724 3.56716e-05 3.23016e-05 -0.7256047843 0.4411649212
275298350.0 0.1096575531 -0.0510632352 0.0001749559 6.92127e-05 -0.0002296299 -7.79998e-05 -0.7205526181 0.4486145576
280298320.0 0.1087970443 -0.053238841 0.0002082396 0.0002352458 -0.0001036505 7.59723e-05 -0.7154189369 0.4556419667
285298290.0 0.1081759716 -0.0549385365 7.39367e-05 1.412e-05 5.64613e-05 -2.99511e-05 -0.7107083858 0.4636329154
290298260.0 0.1069913362 -0.0566421512 0.0001511667 0.0002257975 6.73399e-05 -5.84353e-05 -0.7060099987 0.4706781346
295298230.0 0.1059126698 -0.0588636975 -3.23805e-05 6.0899e-06 0.0001150649 -2.69537e-05 -0.7011403496 0.4778736535
300298200.0 0.1053051325 -0.0604223698 9.50574e-05 3.52283e-05 -2.46413e-05 -2.98486e-05 -0.6955013828 0.4850445894
305298170.0 0.1039957714 -0.0622924354 -1.96673e-05 1.40892e-05 3.31198e-05 -0.0001178825 -0.6897883717 0.4931209838
310298140.0 0.1027650647 -0.0641052987 6.48316e-05 3.17528e-05 1.91386e-05 0.0001839891 -0.6853132746 0.49993164
315298110.0 0.1019500838 -0.0662044917 0.0001864212 7.27162e-05 -3.10907e-05 -2.86684e-05 -0.6800392444 0.5062286995
320298080.0 0.1008161256 -0.0679086411 0.0002869936 8.73895e-05 0.0001730076 -7.70187e-05 -0.6742706774 0.5145698267
325298050.0 0.0993768838 -0.0697502474 0.0001320253 0.0001054734 4.29647e-05 9.91527e-05 -0.6686046119 0.5211548435
330298020.0 0.0982230308 -0.0718540497 -7.62333e-05 -1.2973e-06 -1.77157e-05 -6.8336e-05 -0.663588826 0.5283801875
335297990.0 0.0967081019 -0.0732042237 0.0002155773 -8.59141e-05 1.81646e-05 4.4754e-05 -0.6581148067 0.5348405079
340297960.0 0.0950106829 -0.0749841929 2.84487e-05 -1.64454e-05 0.0001157243 7.42125e-05 -0.6520188973 0.542407844
345297930.0 0.093441202 -0.0761981968 -0.0001472584 9.21192e-05 -4.90102e-05 -0.0001308899 -0.6467520279 0.5480520562
350297900.0 0.0924372128 -0.0774450452 -0.0002345021 0.0001415269 9.88906e-05 0.0001316077 -0.6410336374 0.5551777586
355297870.0 0.0908621442 -0.0787269253 1.83108e-05 0.0002077843 -2.84573e-05 -3.57628e-05 -0.6356836797 0.561994893
360297840.0 0.0893114727 -0.0800790718 5.84056e-05 0.0002002426 6.90248e-05 -3.2145e-06 -0.629378461 0.5686650308
365297810.0 0.0879872447 -0.0812190809 -8.63123e-05 -1.08493e-05 -5.22966e-05 -9.97484e-05 -0.6230584907 0.5751035538
370297780.0 0.0866191449 -0.0826720032 0.0001221292 0.0002995583 -1.50811e-05 8.38409e-05 -0.6168751412 0.5818900401
375297750.0 0.0853208322 -0.08388403 8.69065e-05 0.0001215474 0.0001173194 -0.0001375805 -0.6114731984 0.5879453546
380297720.0 0.0837672902 -0.0851083623 0.000170622 0.0001004957 2.75188e-05 3.69059e-05 -0.6055278227 0.5946755107
385297690.0 0.0822161536 -0.0861915715 0.0003229237 6.23181e-05 2.4651e-05 3.47715e-05 -0.59867127 0.6006542894
390297660.0 0.0807047488 -0.0872231888 0.0001098762 6.88447e-05 0.0001719329 -9.36755e-05 -0.5931684626 0.6066571655
395297630.0 0.0797664636 -0.0883652796 2.10685e-05 -0.000179479 -0.0002018377 0.0001301067 -0.5866202343 0.6134684549
400297600.0 0.0782582969 -0.0895744885 9.14258e-05 3.11194e-05 0.0002968977 0.000180269 -0.5803793597 0.618916335
405297570.0 0.0764533423 -0.0907152856 -4.46828e-05 0.0001046073 8.16428e-05 1.16086e-05 -0.5739929453 0.6247633606
410297540.0 0.0746942066 -0.0916631157 2.67825e-05 0.0001187521 7.33851e-05 -0.0001068011 -0.5674441333 0.6308793619
415297510.0 0.0735539689 -0.0931739713 0.0002043474 0.0002080013 0.0001529798 8.58201e-05 -0.5609381634 0.6366208566
420297480.0 0.0720658109 -0.0935300835 -7.36674e-05 -0.0001065529 -4.77022e-05 0.0001596401 -0.5544648375 0.6422998367
425297450.0 0.0706769916 -0.0945898182 8.73691e-05 5.96939e-05 -7.242e-06 -0.0001138395 -0.5480669527 0.6480191584
430297420.0 0.0692072927 -0.0961177184 2.98636e-05 -7.50642e-05 0.0001737553 2.00528e-05 -0.540773444 0.6533141515
435297390.0 0.0676875185 -0.0966274694 0.0002037461 9.14442e-05 -6.0388e-06 -6.4962e-05 -0.5340108661 0.6583957348
440297360.0 0.0660080019 -0.0979399869 6.62434e-05 -2.56528e-05 1.12256e-05 4.42192e-05 -0.5271806268 0.6638497815
445297330.0 0.0645437055 -0.0985566758 -2.39213e-05 6.4977e-05 0.0001003671 -0.0001047534 -0.5201347466 0.6687902072
450297300.0 0.0629292183 -0.09958198 0.0001212347 -0.0003354352 0.0001945305 7.9734e-05 -0.5130378975 0.6742078761
455297270.0 0.061373736 -0.1003915224 0.0002864274 0.0001195349 0.0001113868 0.0001305888 -0.5065375178 0.6782511936
460297240.0 0.0597300495 -0.1011461381 -0.0001310404 0.0002435571 7.86238e-05 0.0001710738 -0.4996552806 0.6843484286
465297210.0 0.0580737407 -0.1018067594 0.0001687853 0.0001307283 0.0001461668 8.4739e-06 -0.4917342066 0.6891008838
470297180.0 0.0564578674 -0.1027280957 -2.584e-05 0.0001057389 -8.52938e-05 0.0002409211 -0.4843185043 0.6942097257
475297150.0 0.0548620127 -0.1035146595 0.0001207794 -0.0002176258 0.0001205034 0.0002641315 -0.4772229081 0.6984330688
480297120.0 0.0534927254 -0.1040765154 0.0003130125 0.0001890128 0.0001893919 7.27267e-05 -0.4696223729 0.703326491
485297090.0 0.0519375019 -0.1048500348 0.0001554862 6.23147e-05 0.0001828015 -6.77276e-05 -0.4629141476 0.7081635248
490297060.0 0.0500803906 -0.1053883464 9.18637e-05 0.0001756231 0.0001498475 -2.88795e-05 -0.4555937837 0.7122610643
495297030.0 0.0484552856 -0.1056543279 0.0002504047 0.0002635988 0.0001751951 0.0002194821 -0.4481289996 0.7177250997
500297000.0 0.0471294835 -0.1065084193 0.0003685262 0.0001771893 4.74641e-05 8.30164e-05 -0.4405187856 0.7224089795
505296970.0 0.0456321039 -0.107354696 6.55999e-05 -0.0002247355 0.0001214659 -5.82577e-05 -0.4331214079 0.7264596343
510296940.0 0.0437252205 -0.1076905286 6.16707e-05 0.0001557426 -4.67404e-05 0.0002911319 -0.4256721952 0.7305030277
515296910.0 0.0422425487 -0.1084995231 -7.1053e-06 0.0001102809 0.0002589084 -9.41018e-05 -0.4183823624 0.7353411384
520296880.0 0.0404535988 -0.1090009598 1.67592e-05 1.20914e-05 5.06257e-05 -0.000130623 -0.4106847882 0.7388590495
525296850.0 0.0387351286 -0.1096500982 -9.29712e-05 6.25417e-05 -4.04401e-05 2.22197e-05 -0.4038355149 0.7434532852
530296820.0 0.037523438 -0.109951636 0.0002301638 -3.7383e-06 -4.44092e-05 0.0001499347 -0.3962438764 0.7469803536
535296790.0 0.0357439679 -0.1102239047 0.0002233877 -3.3805e-05 0.0002461233 -5.02277e-05 -0.3888105786 0.75113497
540296760.0 0.0338514104 -0.11061961 -1.48033e-05 -2.92721e-05 0.0002399453 -3.23801e-05 -0.3807464762 0.7551870653
545296730.0 0.0321674613 -0.1109930547 0.0001435766 1.15742e-05 0.0001545188 -7.80785e-05 -0.3728608163 0.7592253364
550296700.0 0.0309847725 -0.111359912 2.07961e-05 -2.70226e-05 8.65687e-05 8.59547e-05 -0.3653943766 0.763267957
555296670.0 0.0289327762 -0.1120030676 0.0001605176 0.000177167 0.0001018481 0.0001264396 -0.3582463904 0.7673037338
560296640.0 0.0276016894 -0.1120480237 0.0003120939 5.01175e-05 0.0002034087 -0.0001193196 -0.3500909907 0.7710060635
565296610.0 0.0256949044 -0.1119380077 -3.55873e-05 -8.33825e-05 0.0001214045 0.0001618118 -0.3423239193 0.7743609109
570296580.0 0.0239303936 -0.1126852201 0.0001435291 -5.85475e-05 0.0001500486 0.000141549 -0.3344876049 0.7776810532
575296550.0 0.0223586288 -0.1126146157 0.0002503321 4.77159e-05 0.0002690441 0.0001309095 -0.326951101 0.7804327173
580296520.0 0.0205187867 -0.1132747865 8.01083e-05 9.43101e-05 0.0001674915 -2.0816e-06 -0.3178681016 0.7839728159
585296490.0 0.0185492631 -0.1134687226 -6.06961e-05 0.0002244363 3.66199e-05 0.0001199676 -0.3106053088 0.7872304106
590296460.0 0.0173276057 -0.1133562156 6.38801e-05 -3.1948e-06 -2.97637e-05 0.0002647402 -0.3028394763 0.7900839637
595296430.0 0.0155912683 -0.1136185703 -1.09619e-05 -9.6016e-06 0.0002137805 -5.58678e-05 -0.2947317821 0.7926455743
600296400.0 0.0136220818 -0.1139310053 2.8339e-05 3.11301e-05 -2.4396e-05 0.0001787747 -0.2864762165 0.7956243252
605296370.0 0.012257621 -0.1138016834 0.000319088 8.89851e-05 -2.12571e-05 0.0001311865 -0.2776985094 0.798184236
610296340.0 0.0105563763 -0.1136566358 0.0001110325 0.0001229414 9.13916e-05 -0.0001860515 -0.2699674969 0.8008834871
615296310.0 0.0087854174 -0.1140905883 0.0003270726 -9.20659e-05 0.0001805268 -4.72876e-05 -0.2616993219 0.80322097
620296280.0 0.0068873849 -0.1141238373 -3.3205e-06 1.52443e-05 0.0001401671 -0.0002512557 -0.2540776799 0.8057908467
625296250.0 0.0054204341 -0.114147721 0.0001934041 0.000287065 0.0001514364 -6.45062e-05 -0.2450194736 0.8078741672
630296220.0 0.0040637791 -0.11426676 0.0002445749 -0.0002320164 0.0003317529 7.08101e-05 -0.2376549116 0.8106642798
635296190.0 0.0019002808 -0.1141333811 0.0001808797 -0.0003463766 -9.3277e-06 1.13375e-05 -0.229549558 0.8127483644
640296160.0 0.0003187735 -0.1140179319 0.0003286979 7.59739e-05 0.0002926301 0.0002624246 -0.2211300538 0.8152193939
645296130.0 -0.0013025707 -0.1136325477 0.0002467776 0.0001938778 0.0002613977 0.0001223049 -0.2129411213 0.8172381874
650296100.0 -0.0029946703 -0.1136440864 0.0001975459 0.0002465267 0.0001228612 -8.63033e-05 -0.2041929123 0.8190464011
655296070.0 -0.0046755264 -0.1136850101 0.0001719013 -0.000121537 0.0003198025 -0.0001500391 -0.1958758458 0.820623736
660296040.0 -0.0062150416 -0.1135896083 0.0001439035 0.0001062199 0.000319281 -6.17068e-05 -0.1872163017 0.8233978961
665296010.0 -0.0077383824 -0.11356093 0.0002478774 5.37299e-05 0.0003038904 6.80913e-05 -0.1791625107 0.8249824571
670295980.0 -0.0099094249 -0.1129892065 0.0002035003 1.71833e-05 -1.73234e-05 1.10549e-05 -0.1711724339 0.8262239545
675295950.0 -0.0112592607 -0.1127437361 0.0003055383 8.16514e-05 0.000236755 2.48471e-05 -0.1632780635 0.8279904918
680295920.0 -0.0129397419 -0.1125203445 0.0001904495 -3.35972e-05 9.32532e-05 -6.08484e-05 -0.1546603997 0.8306662746
685295890.0 -0.014285624 -0.1120942781 0.0002786142 2.2739e-06 2.17551e-05 -4.91029e-05 -0.1462777956 0.8314106152
690295860.0 -0.0161596021 -0.1120113095 0.0001041418 6.40773e-05 0.000315713 6.99561e-05 -0.1384381298 0.8334742136
695295830.0 -0.0178543446 -0.1116282578 6.13019e-05 -4.35122e-05 0.0003312054 0.000230685 -0.1287347756 0.8343726652
700295800.0 -0.0193633329 -0.1113229278 8.43309e-05 0.0001057378 -7.42822e-05 1.03409e-05 -0.1217849536 0.8360214188
705295770.0 -0.0213172117 -0.1106947515 0.0001678697 -4.75579e-05 0.0005311024 -0.0002300962 -0.1127038526 0.8373803222
710295740.0 -0.0228481136 -0.1106240126 2.14206e-05 -0.0001206308 7.33022e-05 0.0001153512 -0.1048400907 0.8388121288
715295710.0 -0.0246042047 -0.1105059265 0.00020535 -0.0002397344 7.02996e-05 0.0002011 -0.0956940196 0.8398897041
720295680.0 -0.0261223801 -0.109798339 0.0001551279 0.0001519532 0.000106921 8.16901e-05 -0.0873824878 0.8410754259
725295650.0 -0.0275280894 -0.1092778412 -5.58453e-05 -9.78584e-05 0.0001314962 3.53319e-05 -0.0793565826 0.8416885606
730295620.0 -0.0291926646 -0.1085431601 3.3121e-06 -0.000124243 4.23257e-05 -2.78949e-05 -0.0715984347 0.8421499335
735295590.0 -0.0308433815 -0.1080393684 0.0001290584 -6.95402e-05 8.86485e-05 -0.000189716 -0.0631181125 0.8420696273
740295560.0 -0.0325606746 -0.107481099 0.0002291683 -5.2238e-05 5.28818e-05 -7.22753e-05 -0.0538333431 0.8437546854
745295530.0 -0.0343425187 -0.1070241585 0.0002911294 -2.85381e-05 0.0002637034 -4.55804e-05 -0.0455956017 0.843840713
750295500.0 -0.0354667322 -0.1065285201 7.6804e-05 -0.0001360731 8.60582e-05 -3.27645e-05 -0.0374293924 0.8440312227
755295470.0 -0.0373842823 -0.1056852904 0.0002432218 -5.18017e-05 5.67356e-05 -7.3136e-05 -0.0286966889 0.843591251
760295440.0 -0.0388317669 -0.1052442572 0.0002589943 -9.27744e-05 0.0002603951 -4.30738e-05 -0.0207302531 0.8442464565
765295410.0 -0.0404113238 -0.1046313271 1.0822e-05 5.4134e-05 5.78054e-05 -8.384e-05 -0.0121138506 0.8444645874
770295380.0 -0.0419542598 -0.103824662 3.83398e-05 -0.0002422294 0.0002110803 0.0002228723 -0.0038343849 0.8444933159
775295350.0 -0.043759278 -0.1036124685 0.0002857943 -3.57778e-05 0.0002848091 0.0002045712 0.0038929563 0.8439703641
780295320.0 -0.0449855218 -0.1026527735 3.4681e-06 5.93457e-05 4.38183e-05 -0.0001027472 0.0127618859 0.8438256991
785295290.0 -0.0466411738 -0.102494638 0.0002740197 4.54116e-05 -3.69928e-05 -7.48671e-05 0.0214022949 0.843601499
790295260.0 -0.0481094175 -0.1012026377 0.0001844943 -0.000198819 0.0002481402 1.64499e-05 0.0299518712 0.8437814758
795295230.0 -0.0497433575 -0.100610061 0.0003092732 0.0001690366 4.92155e-05 -2.93544e-05 0.0390104588 0.8421575584
800295200.0 -0.0514044578 -0.0997646155 0.0001324362 -0.000113229 -2.93674e-05 4.4105e-06 0.0473393827 0.8422725286
805295170.0 -0.0527359551 -0.0993012802 0.000418853 -0.0001066013 7.30945e-05 0.0001712259 0.0547228608 0.8419004552
810295140.0 -0.0539590104 -0.09822514 7.88569e-05 5.97737e-05 1.90173e-05 -2.00294e-05 0.063827862 0.8412921932
815295110.0 -0.0558024547 -0.09769086 5.34616e-05 -0.0001946465 0.0001334645 -0.0001191177 0.0722645176 0.8403911402
820295080.0 -0.0571412862 -0.096529526 0.0003371011 -0.0002437808 0.000107265 0.0002381911 0.0803916836 0.8400161594
825295050.0 -0.0584007556 -0.0958416967 0.0001915185 -1.25248e-05 0.0001108945 1.41601e-05 0.0888337979 0.8392124578
830295020.0 -0.0597041044 -0.0946132253 3.96579e-05 4.81439e-05 3.94459e-05 -0.0001382746 0.0980833414 0.838143572
835294990.0 -0.061299092 -0.0939121848 0.0001852372 -2.90018e-05 0.000189098 -0.0001213228 0.1057162003 0.8373771813
840294960.0 -0.062714066 -0.092820515 0.0002165001 0.0002553934 9.36366e-05 0.000136041 0.1142168869 0.836139547
845294930.0 -0.0641761348 -0.0919304604 8.03395e-05 -7.04349e-05 0.0001608463 -6.39376e-05 0.1219148545 0.8348542908
850294900.0 -0.0654030478 -0.0907935206 8.14276e-05 -1.86591e-05 -5.6383e-05 -0.0001265185 0.1301033754 0.8337529658
