!Created with skrf (http://scikit-rf.org).
# Hz S RI R 50.0 
!freq ReS11 ImS11 ReS21 ImS21 ReS12 ImS12 ReS22 ImS22
300000.0 -0.7812249652 -0.1262273255 -0.0009746226 0.0013039363 -0.0003965693 0.0012282793 0.8591596758 -0.0027760433
5299970.0 -0.7851745878 -0.0067299545 2.70581e-05 2.48094e-05 0.0001252769 -6.48056e-05 0.8595485165 -0.0100172814
10299940.0 -0.7879876825 -0.004430539 0.000113518 -0.0001015961 2.09658e-05 6.86313e-05 0.8584901966 -0.0191877266
15299910.0 -0.7933321152 -0.0025153423 -1.83598e-05 0.0001101071 1.39698e-05 8.95455e-05 0.85755898 -0.0271097352
20299880.0 -0.800243763 0.0015770787 0.000123136 -0.0001714157 -6.63636e-05 2.76185e-05 0.8569622165 -0.0358344304
25299850.0 -0.8060377601 0.0073585497 -5.01712e-05 -0.0002015272 -9.8016e-06 0.0002043021 0.856728125 -0.0434797405
30299820.0 -0.8125393935 0.0148008785 6.30514e-05 0.0001134707 -7.05959e-05 -8.86017e-05 0.855348921 -0.0523006253
35299790.0 -0.8169415079 0.0242646271 -5.13419e-05 9.0974e-06 2.02427e-05 6.70115e-05 0.8548373548 -0.0593703789
40299760.0 -0.8210303828 0.0334966194 -7.47179e-05 1.37779e-05 -4.98064e-05 -3.68772e-05 0.8537981519 -0.0680462042
45299730.0 -0.8246641819 0.0430762806 1.92866e-05 5.22247e-05 -0.0001871648 -5.92234e-05 0.8525745483 -0.0765098282
50299700.0 -0.8269612922 0.0529739649 2.88349e-05 9.35796e-05 -3.2796e-06 1.76724e-05 0.8518914042 -0.0846335379
55299670.0 -0.8294389634 0.0625504553 -9.6117e-05 3.54584e-05 7.36037e-05 -2.48289e-05 0.8512255586 -0.0925618947
60299640.0 -0.8299733561 0.0737752105 6.0151e-06 -0.000132423 7.91332e-05 0.000162766 0.8497229888 -0.1005741867
65299610.0 -0.8312766703 0.0833006883 -3.26633e-05 -0.0001531157 7.74649e-05 -0.0002600361 0.8490284405 -0.1088846433
70299580.0 -0.831527807 0.0933832793 -3.38354e-05 5.23077e-05 -8.02495e-05 0.0002051253 0.8475224347 -0.1174227476
75299550.0 -0.8316614727 0.1032647163 1.40146e-05 -8.91211e-05 -0.0001366081 -0.0001300374 0.8462157616 -0.1257996098
80299520.0 -0.8321016045 0.1132666416 0.000126507 -1.48107e-05 -2.61605e-05 0.0001857862 0.8453522249 -0.1333734959
85299490.0 -0.8307739729 0.1222739851 7.17141e-05 -4.96676e-05 -0.0002018804 -6.54067e-05 0.8440460013 -0.1419767493
90299460.0 -0.8298534923 0.1324262076 -0.0001049173 6.11248e-05 1.63889e-05 -0.0001593292 0.8421129299 -0.1499275744
95299430.0 -0.8294003722 0.1416542314 -1.73659e-05 0.0001081028 0.0001211459 1.9572e-06 0.8406151659 -0.1584556079
100299400.0 -0.8280412722 0.1507887971 -0.0001584662 1.8975e-06 6.18147e-05 4.56603e-05 0.8389373976 -0.166605054
105299370.0 -0.8271529241 0.1598893627 -0.0001896136 -0.000202817 2.09937e-05 -0.0001063273 0.8374460849 -0.1750496996
110299340.0 -0.8253644722 0.1695737433 0.0001434939 -7.4319e-05 0.0001793607 3.49614e-05 0.8358366973 -0.1824250801
115299310.0 -0.8240153616 0.1783615618 0.0001768165 -0.0002080042 3.0435e-06 -5.1366e-05 0.8345727067 -0.1905547627
120299280.0 -0.822502207 0.1866760745 -7.8317e-05 -5.78626e-05 -9.04003e-05 9.8536e-06 0.8328427339 -0.1986474377
125299250.0 -0.8206914014 0.1955123936 0.0001328805 -0.000116895 4.78403e-05 0.0001193929 0.8304880826 -0.2063314632
130299220.0 -0.8188858848 0.2051337057 3.82913e-05 -0.0001787398 5.00126e-05 -7.13214e-05 0.8288332973 -0.2150525766
135299190.0 -0.8168483753 0.2141088474 -0.0001978195 5.35971e-05 -0.0001168626 -0.0001593407 0.8262707604 -0.222500509
140299160.0 -0.8148020324 0.2227967899 0.0001306172 -0.0001508604 0.0001233441 -1.72447e-05 0.824136443 -0.2303137093
145299130.0 -0.8128958676 0.2320646476 0.0001517928 7.54801e-05 0.0001818842 0.000110203 0.8221509861 -0.2383451992
150299100.0 -0.8102810656 0.2409294566 -1.14322e-05 -3.05253e-05 -0.0001443275 1.63397e-05 0.8199003889 -0.2467369559
155299070.0 -0.8080770924 0.2497978197 -1.38514e-05 -9.64177e-05 0.0002326794 5.77412e-05 0.8174130788 -0.2544261616
160299040.0 -0.8053811968 0.2581994993 -2.383e-05 8.85391e-05 8.26062e-05 0.0001680559 0.8145756367 -0.2619072344
165299010.0 -0.8029950576 0.2668936045 -0.0001314622 0.0001196618 -7.50605e-05 -0.0001024166 0.8118131262 -0.2701209828
170298980.0 -0.8003770634 0.2746920499 -0.0001338352 0.0001245253 -0.0001008971 -4.4634e-05 0.8096202645 -0.2778956807
175298950.0 -0.7973403117 0.2840646995 7.38924e-05 7.4731e-05 -0.0001621057 7.31202e-05 0.8071365596 -0.2858675982
180298920.0 -0.7948975922 0.2926502923 -6.08561e-05 9.69912e-05 0.0002246567 -2.113e-06 0.8037849887 -0.293815788
185298890.0 -0.7913587044 0.3004775079 2.20094e-05 6.3311e-06 0.0001207965 -8.82804e-05 0.8011446316 -0.3017267751
190298860.0 -0.7883747832 0.3092381013 -1.91876e-05 -9.81069e-05 -0.0002059357 -7.40673e-05 0.7974184443 -0.3082119486
195298830.0 -0.7851214481 0.3174555716 8.39751e-05 2.83261e-05 -2.41603e-05 -3.36506e-05 0.7950569884 -0.3162731226
200298800.0 -0.7816737612 0.3262711682 -0.0002286632 7.01114e-05 0.0001714646 -0.0001091514 0.7915019143 -0.324680489
205298770.0 -0.7788528442 0.3338097242 6.33488e-05 -6.35326e-05 5.0182e-05 0.0001562572 0.7880850193 -0.331703811
210298740.0 -0.7751495469 0.3422540176 -0.0002241329 9.48777e-05 0.000105975 -8.29871e-05 0.7845358442 -0.3392083467
215298710.0 -0.7720020684 0.3504057308 0.0001563646 0.0001158637 -5.38122e-05 -8.12762e-05 0.781328868 -0.3469937123
220298680.0 -0.76792843 0.3584835214 -1.70378e-05 0.0001506764 -2.83212e-05 0.0001422948 0.7778921119 -0.3541325494
225298650.0 -0.7648219401 0.3662227193 -0.0001002728 -0.0001165335 6.34646e-05 -7.67285e-05 0.7740834329 -0.3619454438
230298620.0 -0.76035467 0.3745281627 4.16339e-05 -7.30126e-05 0.0001017754 -3.49966e-05 0.7706898775 -0.3692169724
235298590.0 -0.7564423532 0.3828695681 -8.1242e-06 3.75587e-05 6.08624e-05 -9.78444e-05 0.7670342573 -0.3773520883
240298560.0 -0.7524155518 0.3909575159 0.0001580891 -0.0001231211 -6.73297e-05 -7.96686e-05 0.7633554737 -0.3844176234
245298530.0 -0.748839129 0.39867987 0.00012488 0.000236415 -3.56545e-05 0.0001308593 0.7595137017 -0.3918977943
250298500.0 -0.744390578 0.4068849283 1.08506e-05 0.0003122623 -9.78564e-05 -4.45833e-05 0.7555874379 -0.3990401586
255298470.0 -0.7398375413 0.4132715832 0.0001893335 -0.0001079719 0.0001382959 -0.0001780168 0.7519301822 -0.4067834575
260298440.0 -0.735639343 0.4214163068 -0.000139697 0.0001332173 -0.0001331739 -6.66548e-05 0.748190275 -0.4136164807
265298410.0 -0.7316420364 0.4296875393 -0.0001206358 0.0001423325 0.0001166865 8.61277e-05 0.7443054986 -0.4209736621
270298380.0 -0.727055214 0.437334783 0.0001706661 0.000309576 -2.6752e-05 -0.0001248707 0.7401330154 -0.427761072
275298350.0 -0.7222550793 0.4445047607 3.79775e-05 -5.44246e-05 -5.03109e-05 0.0001771257 0.7359182238 -0.4356999901
280298320.0 -0.7174034021 0.4526038607 1.50074e-05 -8.5853e-05 -1.65746e-05 -1.37526e-05 0.7323200103 -0.4431704321
285298290.0 -0.7129998129 0.4599162277 -4.8633e-06 -4.69305e-05 -2.23917e-05 7.2265e-05 0.7282959113 -0.4500719537
290298260.0 -0.7076128905 0.467234649 0.000195238 -0.0001962011 -0.0002115639 9.29333e-05 0.7236568559 -0.4565308477
295298230.0 -0.7026053312 0.474095212 2.31216e-05 0.0001142615 6.27293e-05 0.000102393 0.7199137169 -0.4640624017
300298200.0 -0.6978235126 0.4818222043 -5.71341e-05 2.16491e-05 2.04765e-05 -0.0001453386 0.7159757731 -0.4710658427
305298170.0 -0.6928918916 0.4880868143 2.45221e-05 2.79101e-05 -1.4672e-06 -2.27527e-05 0.7119671934 -0.4787801023
310298140.0 -0.6875812498 0.4958126803 2.91871e-05 -0.0001080862 7.25903e-05 4.76492e-05 0.7065727672 -0.4870455625
315298110.0 -0.6826364221 0.5034251332 -0.0001371007 0.0001140849 -1.17164e-05 -4.10167e-05 0.700907452 -0.4939068853
320298080.0 -0.6773851088 0.5098985757 -6.78991e-05 1.42281e-05 9.04354e-05 2.02045e-05 0.6956290633 -0.5014889405
325298050.0 -0.6717437438 0.5171589437 -6.48697e-05 5.70901e-05 0.0001758675 -0.0001077579 0.6906651879 -0.508858647
330298020.0 -0.6666818957 0.5234197514 0.0001329929 0.0001030434 0.000136581 0.0002047272 0.6840325626 -0.5143483089
335297990.0 -0.6609716367 0.530606884 -2.77295e-05 -8.03077e-05 0.0001040412 7.52303e-05 0.6790736473 -0.5210331884
340297960.0 -0.6560922561 0.5380433592 -3.39863e-05 -0.0002561818 -3.99738e-05 -3.238e-05 0.6740524441 -0.5273675358
345297930.0 -0.6504638865 0.5440470051 -4.38135e-05 -0.0001228598 -6.15505e-05 8.55286e-05 0.6679070433 -0.5343312998
350297900.0 -0.6444601849 0.550999508 -8.57435e-05 1.27979e-05 -2.37061e-05 -0.0001512096 0.6625312835 -0.5390783931
355297870.0 -0.6382443633 0.5577506602 -0.0001073607 -7.41819e-05 8.22017e-05 -0.0001344073 0.6571069684 -0.5460541871
360297840.0 -0.6329529795 0.5635452135 6.93564e-05 -1.77225e-05 0.000156832 -6.33715e-05 0.6514725205 -0.5523558622
365297810.0 -0.6272215099 0.5701489852 0.0002117466 4.98145e-05 9.38454e-05 -7.9563e-05 0.6463005817 -0.5584034665
370297780.0 -0.6212750071 0.5764236202 5.17856e-05 6.66711e-05 -7.45667e-05 -0.0001729354 0.6405850306 -0.5640942895
375297750.0 -0.6146995555 0.5832630642 2.32192e-05 7.49893e-05 -0.000144192 2.11662e-05 0.6351722822 -0.570302512
380297720.0 -0.6088819131 0.5888886228 2.65619e-05 -6.55724e-05 0.0002252704 -0.0001116658 0.6289376466 -0.5762760528
385297690.0 -0.603516793 0.5948794671 7.91406e-05 0.0001552394 0.000136011 -4.0115e-06 0.6234519019 -0.581958485
390297660.0 -0.5970251533 0.601679876 4.87802e-05 -7.16035e-05 -4.13784e-05 6.6105e-06 0.617470773 -0.5881337586
395297630.0 -0.5904871088 0.6078728616 2.05845e-05 -1.23178e-05 0.0001103318 -7.0102e-06 0.6115431419 -0.5935957747
400297600.0 -0.5841494789 0.6137527111 4.44834e-05 6.86563e-05 -0.0001689776 -8.3179e-05 0.605885114 -0.5994450663
405297570.0 -0.5777684753 0.6192574737 -4.92994e-05 3.41893e-05 -0.0001223907 9.7974e-06 0.5997707778 -0.6055662264
410297540.0 -0.5708169611 0.6253248723 0.0001200045 0.0001456923 0.0001051812 4.85415e-05 0.5941554682 -0.611330373
415297510.0 -0.5647395619 0.6306813321 -0.0001963227 5.3504e-06 0.0001645516 2.41853e-05 0.5875679762 -0.6166289662
420297480.0 -0.5589670349 0.6370007321 -0.0003165435 -8.18643e-05 0.0001683394 -0.000167188 0.5823110022 -0.6230423141
425297450.0 -0.5517467388 0.6427410684 -2.13066e-05 -0.0004053394 2.02572e-05 -0.0001119107 0.575621433 -0.6284183773
430297420.0 -0.5455626282 0.6482367715 -4.91859e-05 5.2868e-06 0.000115985 5.1972e-05 0.5691538284 -0.6343165908
435297390.0 -0.5391146218 0.6535108195 0.0002251273 -3.70171e-05 5.66547e-05 -4.36832e-05 0.5630433825 -0.6397330456
440297360.0 -0.5320775579 0.6590673603 -2.5155e-06 -0.0002093496 -3.69841e-05 5.9293e-06 0.5570473908 -0.6447932327
445297330.0 -0.525045952 0.6644083882 8.60952e-05 3.238e-07 9.8431e-06 2.42655e-05 0.5510455568 -0.6509066945
450297300.0 -0.5185150564 0.669230084 -7.96499e-05 0.0001475645 1.25284e-05 -5.25811e-05 0.5444704528 -0.6554041559
455297270.0 -0.5115530767 0.6744301006 -0.0001650051 2.92909e-05 1.68165e-05 7.34023e-05 0.5383293416 -0.6613067075
460297240.0 -0.505117333 0.6794924815 3.16585e-05 0.000116033 -4.03844e-05 4.57925e-05 0.5308588031 -0.6661168262
465297210.0 -0.4980333948 0.6848208892 0.0001553041 2.39214e-05 -2.5367e-06 -2.10314e-05 0.5252426882 -0.6711154653
470297180.0 -0.4905503366 0.6895223363 -8.7638e-06 -0.0001194507 0.0001996835 0.000108742 0.5182999569 -0.6761522429
475297150.0 -0.4834174782 0.6942538745 -2.09698e-05 -0.0001271267 -3.07582e-05 0.0001946665 0.5111757421 -0.6814157216
480297120.0 -0.4767756421 0.699301092 -0.0001349248 -0.0001611168 2.16818e-05 2.43079e-05 0.5053829036 -0.6856165422
485297090.0 -0.4696655539 0.7042527738 9.87132e-05 -0.0002665751 1.39924e-05 4.94495e-05 0.4981611803 -0.6904354833
490297060.0 -0.4625764349 0.7085149858 -0.0001292957 6.75501e-05 -3.66768e-05 -1.2957e-05 0.4909777729 -0.6959959812
495297030.0 -0.455427726 0.7131111301 -0.0001378586 6.46383e-05 -1.6034e-05 4.01004e-05 0.483885314 -0.699830374
500297000.0 -0.448003017 0.7179741052 -2.24887e-05 0.0001067663 0.0001778357 6.62627e-05 0.4777676075 -0.7050097081
505296970.0 -0.4402678379 0.7225657574 9.98222e-05 8.30594e-05 5.06108e-05 0.000139724 0.4704101446 -0.7094543135
510296940.0 -0.4334887281 0.7266668718 0.0001264314 6.02037e-05 7.43947e-05 1.1398e-06 0.4629750183 -0.7136819477
515296910.0 -0.4249325844 0.7304327242 -9.82982e-05 0.0003135818 0.0001061502 9.60865e-05 0.4565027311 -0.7173039122
520296880.0 -0.4183736141 0.7356703347 -2.2681e-05 -6.3304e-05 3.52702e-05 -4.76838e-05 0.4490152702 -0.7226991823
525296850.0 -0.4107204951 0.7389473863 7.62375e-05 5.62986e-05 1.0217e-05 5.85475e-05 0.4421892471 -0.726066088
530296820.0 -0.4032832846 0.7435029514 6.94616e-05 2.91241e-05 0.0001728318 4.36199e-05 0.4353588716 -0.7309961533
535296790.0 -0.3964769662 0.7468540089 5.58126e-05 -0.0001701531 -6.1295e-05 -4.12644e-05 0.4276087414 -0.735205197
540296760.0 -0.3879565718 0.7511251687 0.0001120491 0.000223607 -0.0001891257 -2.43268e-05 0.4203528704 -0.7386328352
545296730.0 -0.3805874933 0.7551472887 -0.0003231694 3.91316e-05 -4.30242e-05 5.43604e-05 0.4131300172 -0.7435675078
550296700.0 -0.3733778053 0.7587639626 0.0001495313 0.0001731409 8.66342e-05 0.000154398 0.4055860785 -0.7477216593
555296670.0 -0.3648570516 0.7620733023 0.0001499596 2.87648e-05 3.24119e-05 7.89062e-05 0.3978316577 -0.7508592703
560296640.0 -0.3579091754 0.7661670536 0.0003446566 -6.54147e-05 5.39766e-05 4.05831e-05 0.3906226305 -0.7543588419
565296610.0 -0.3502180765 0.7699158537 -0.0001635386 7.17275e-05 2.6728e-05 5.81015e-05 0.3829282906 -0.7582405065
570296580.0 -0.342410491 0.772144121 8.6404e-05 4.40129e-05 3.32972e-05 0.0001691375 0.3756636898 -0.7618848261
575296550.0 -0.3348829397 0.7769866109 -0.0001517008 -5.62042e-05 2.99281e-05 6.64444e-05 0.3678694255 -0.7651246763
580296520.0 -0.3269022996 0.7792080829 -0.0003354286 0.0001340758 -6.47684e-05 -0.0001178021 0.3603974928 -0.7691368766
585296490.0 -0.3191331776 0.782957554 8.7412e-05 3.59835e-05 4.92582e-05 -3.42575e-05 0.3529205637 -0.7722289317
590296460.0 -0.3108254726 0.7858514975 0.0001159516 7.51702e-05 2.07547e-05 9.99625e-05 0.3447955958 -0.7753336655
595296430.0 -0.3033190606 0.788230884 -1.46051e-05 -5.34905e-05 -0.0002011828 -2.17049e-05 0.3372676536 -0.7789882421
600296400.0 -0.2952864046 0.7918272983 0.0001207673 -0.0001516185 -0.0001136681 -0.0002044916 0.3303396956 -0.7828541037
605296370.0 -0.2879864612 0.7945655583 -0.0001297708 -0.0001087478 7.32228e-05 2.06657e-05 0.3221423131 -0.7856695481
610296340.0 -0.2795995025 0.7978416844 7.4751e-06 -1.5108e-05 -8.04924e-05 -1.33796e-05 0.3144967357 -0.7883807023
615296310.0 -0.2705784948 0.8005575672 2.76615e-05 1.78573e-05 8.16062e-05 -2.22415e-05 0.3068169715 -0.7915508369
620296280.0 -0.2634548111 0.8022167425 -3.37513e-05 4.87634e-05 0.0001350984 -5.76153e-05 0.2990183734 -0.7942761817
625296250.0 -0.2552900883 0.8051732799 1.1754e-06 -0.0001375699 -0.0001499851 5.51178e-05 0.2912495603 -0.797075929
630296220.0 -0.2464091595 0.8075866951 0.0001075619 0.0001413527 0.0001475718 -6.54605e-05 0.2826976583 -0.7999269127
635296190.0 -0.2388095526 0.8102895509 -3.61282e-05 6.04229e-05 -4.54269e-05 -9.67219e-05 0.2758987263 -0.8028490885
640296160.0 -0.2316176855 0.8120879999 -0.0001194189 -0.0001512939 -8.91249e-05 0.0001519381 0.2671870323 -0.8050792615
645296130.0 -0.2227925059 0.8152938162 0.0001567172 -9.89243e-05 -1.02393e-05 4.87672e-05 0.2591907022 -0.8074373134
650296100.0 -0.2151532152 0.8166324462 -0.0001161069 -2.57788e-05 0.0001472493 2.33979e-05 0.2518964246 -0.8108019806
655296070.0 -0.206577497 0.819043667 -4.36981e-05 -7.53377e-05 0.0001811587 -5.6264e-06 0.2445808791 -0.8120022988
660296040.0 -0.1982862505 0.8204363436 4.13569e-05 0.0001020422 4.24239e-05 0.0001101101 0.2359803921 -0.8150127883
665296010.0 -0.190107496 0.8222397796 -1.70663e-05 -0.0001180595 -0.0001291034 -3.37387e-05 0.2276552391 -0.8164954715
670295980.0 -0.1818373153 0.8245371285 7.74287e-05 0.0002864281 9.63451e-05 0.0001372541 0.2192358004 -0.8190447866
675295950.0 -0.17349994 0.8259627389 3.9131e-06 1.59e-08 -5.44778e-05 -6.74147e-05 0.2112331858 -0.8205726204
680295920.0 -0.1650799346 0.8280922179 -1.6548e-06 -0.0001576337 7.45147e-05 7.04551e-05 0.2035270164 -0.8221765633
685295890.0 -0.1567015404 0.830584328 -0.0002016479 6.411e-05 0.0001133986 -8.00342e-05 0.1950627969 -0.8237312765
690295860.0 -0.1494213723 0.8310115713 7.27135e-05 -0.0001688078 -0.0001706164 0.0002150208 0.1868580233 -0.8257205198
695295830.0 -0.1412952752 0.8317694015 0.0001485857 -0.0002446233 2.1009e-05 -9.14924e-05 0.1790859045 -0.8271267002
700295800.0 -0.1322140714 0.834177105 0.0001525516 5.82863e-05 1.57112e-05 -0.0001680487 0.1702779191 -0.8295440261
705295770.0 -0.1243681438 0.8352142778 1.98432e-05 1.36652e-05 -2.49706e-05 0.0001198051 0.1622983569 -0.8295445949
710295740.0 -0.116059591 0.8361272818 -6.81162e-05 -5.34385e-05 4.02302e-05 0.0001738789 0.1538193814 -0.8317230241
715295710.0 -0.1077568089 0.8373652691 -0.00021894 3.46425e-05 -3.23956e-05 -7.99271e-05 0.1458350788 -0.833251392
720295680.0 -0.0989134157 0.8383579267 2.0994e-05 1.3271e-06 0.0002702546 -9.2356e-06 0.1375742429 -0.8344115334
725295650.0 -0.0908072323 0.8395960665 5.72399e-05 -0.0003353519 -0.0001114487 4.34341e-05 0.1289984266 -0.8347168473
730295620.0 -0.0820177415 0.8404219444 -0.0001500171 -4.95633e-05 -4.32182e-05 0.0001617256 0.1198589808 -0.8371387653
735295590.0 -0.0745581519 0.8410125519 9.881e-05 -5.01325e-05 -6.17493e-05 0.0001017176 0.1124056569 -0.8381270923
740295560.0 -0.0664920241 0.8424061458 8.17809e-05 5.37048e-05 5.12912e-05 -6.20234e-05 0.103979328 -0.8380547026
745295530.0 -0.0578046496 0.8427955434 0.0001242698 -0.0001011068 -0.0001960517 0.0001166174 0.0959846165 -0.8391647302
750295500.0 -0.0494966825 0.8430150863 -4.7985e-06 7.7965e-05 0.0002575406 -4.27245e-05 0.0872652982 -0.8395084817
755295470.0 -0.0409116995 0.8432834219 0.0002164754 7.31322e-05 -0.000335076 -1.9275e-06 0.0797573309 -0.8417577555
760295440.0 -0.0328902426 0.8435024963 -0.000124151 -0.0001584656 0.0001098932 0.0001024835 0.0713550068 -0.8416200319
765295410.0 -0.024698053 0.8440229534 1.30458e-05 -9.68415e-05 -1.21855e-05 0.0001861381 0.0630474717 -0.8421693388
770295380.0 -0.0164975295 0.8441477738 -7.37819e-05 -2.21852e-05 0.0001849897 2.04573e-05 0.0539660639 -0.8430168682
775295350.0 -0.0078990262 0.8442542377 -8.5871e-05 -0.0001885909 -0.0001027053 -2.02916e-05 0.0451089176 -0.8430093914
780295320.0 0.0010601942 0.8442684082 1.66074e-05 0.0002533936 -5.87152e-05 -4.39035e-05 0.0376776514 -0.8432955962
785295290.0 0.0083754638 0.8436896749 -0.0001414201 7.90133e-05 5.00725e-05 -0.0001942574 0.0297052269 -0.8434918158
790295260.0 0.0174333024 0.8435119559 3.31035e-05 3.1736e-05 -1.21948e-05 9.8154e-05 0.0221127291 -0.8441350986
795295230.0 0.025481281 0.8438568316 1.17856e-05 -0.0001576097 -1.9248e-05 -3.05605e-05 0.0128623937 -0.8446308693
800295200.0 0.0339100357 0.8431211191 -0.0001089435 9.41933e-05 -9.24832e-05 4.83025e-05 0.0042108764 -0.8437415874
805295170.0 0.0419985161 0.8432388722 -0.0001132822 0.0001579419 -9.69515e-05 -5.0372e-05 -0.0037470951 -0.8433811004
810295140.0 0.0504288657 0.8423994119 -4.22308e-05 -4.661e-06 6.60498e-05 9.96952e-05 -0.0117554225 -0.8437073017
815295110.0 0.0591407635 0.8418848582 7.60754e-05 -5.99567e-05 0.0001737013 -0.000109534 -0.0208662128 -0.8433683149
820295080.0 0.066625887 0.8415087831 4.88943e-05 -3.12486e-05 0.000165864 8.96082e-05 -0.0289389093 -0.84294924
825295050.0 0.0762252714 0.8406142145 -2.91831e-05 3.40039e-05 -6.388e-05 -5.5939e-05 -0.0365054577 -0.8423429166
830295020.0 0.083611366 0.8401394673 3.50954e-05 9.9739e-06 -6.05305e-05 7.55099e-05 -0.0450070547 -0.8415705002
835294990.0 0.0914822124 0.8394568498 5.7901e-06 -3.42e-07 -0.000238762 2.25438e-05 -0.0536910211 -0.8411474523
840294960.0 0.0997099274 0.8383185883 0.0001096023 0.0003014084 -0.000164245 -1.56921e-05 -0.0619687053 -0.8405403357
845294930.0 0.1079259056 0.8371339098 -8.0477e-06 -0.0001350861 -9.42748e-05 -0.0001888531 -0.0704035806 -0.8393244439
850294900.0 0.116169333 0.8365018137 -3.09489e-05 7.03782e-05 0.0001660615 0.0001068708 -0.0789071537 -0.8382190611
