!Created with skrf (http://scikit-rf.org).
# Hz S RI R 50.0 
!freq ReS11 ImS11 ReS21 ImS21 ReS12 ImS12 ReS22 ImS22
300000.0 -0.7731655918 -0.1727764273 -0.0012816055 0.0018278957 0.0005108014 0.00094514 -0.7681242684 -0.1900545794
5299970.0 -0.7863180971 -0.0093923242 0.0001969242 -0.0001271592 1.40632e-05 -2.92974e-05 -0.7850853748 -0.0094076451
10299940.0 -0.7894998403 -0.0059411646 0.0001374462 -0.0001589353 -6.0071e-05 2.92812e-05 -0.787912661 -0.005198824
15299910.0 -0.7939805024 -0.0030965816 0.0001338986 -4.49067e-05 4.11727e-05 -3.18886e-05 -0.7931547717 -0.0025204417
20299880.0 -0.8009151316 0.0007262474 0.0002325334 -8.19663e-05 -8.52604e-05 -6.28146e-05 -0.7996209201 0.0017004486
25299850.0 -0.8075786276 0.0064621405 -3.97271e-05 -0.0001029313 -2.08175e-05 -0.0001158831 -0.8060576599 0.0081252891
30299820.0 -0.8139537061 0.0142255174 0.0001706416 -0.0001222701 -0.0001971704 -6.69583e-05 -0.812215059 0.0160284344
35299790.0 -0.8187641909 0.0230174481 0.0002989407 -7.59422e-05 5.63621e-05 -0.0001092962 -0.8170753667 0.0245429739
40299760.0 -0.8237485259 0.0319965294 8.90065e-05 0.0001431129 -7.21614e-05 -0.000164934 -0.821176834 0.0341275048
45299730.0 -0.8266840023 0.0418842065 6.02919e-05 8.411e-05 -8.16252e-05 -3.4974e-06 -0.8244470262 0.043187298
50299700.0 -0.8294878486 0.0516533013 -6.31704e-05 -0.0003567516 -9.24013e-05 -0.0001126981 -0.8264759342 0.053673553
55299670.0 -0.831238779 0.061373395 1.9637e-06 0.0001997371 -0.0001817461 8.98187e-05 -0.8291551507 0.0636781548
60299640.0 -0.8327228803 0.0718045042 1.26553e-05 -0.0001749562 -0.0001736329 1.47155e-05 -0.8294934851 0.0741297359
65299610.0 -0.8333148541 0.0817777016 3.5168e-06 -7.40517e-05 -8.96759e-05 -8.87701e-05 -0.830350817 0.0837557734
70299580.0 -0.8338556616 0.0914580183 4.81368e-05 -0.0001787453 -7.55579e-05 0.0001718327 -0.8314971394 0.0935221254
75299550.0 -0.8338472155 0.1018849327 -0.0002598273 0.0001032623 -3.60768e-05 6.49229e-05 -0.8310668811 0.1041194925
80299520.0 -0.8340996362 0.1121116153 -0.0001371845 9.04581e-05 -0.0001184325 -5.18549e-05 -0.8309895144 0.1137527744
85299490.0 -0.833135041 0.1208933443 -0.0002110105 -9.72434e-05 7.4316e-06 1.87652e-05 -0.8304499406 0.1229574991
90299460.0 -0.8326227819 0.132131305 -0.0002909261 -8.80503e-05 -4.46852e-05 -0.000200648 -0.8291041855 0.1329809111
95299430.0 -0.8318293103 0.1401022366 -2.62549e-05 -0.0001137768 1.0549e-05 0.0001042941 -0.8284932064 0.1431573448
100299400.0 -0.8304824293 0.1496750704 0.0002212579 0.0002585699 -0.0001456054 0.0001117383 -0.8273364661 0.1518948452
105299370.0 -0.8286140998 0.1589748208 0.0001461695 -0.0001800352 -6.93051e-05 2.08151e-05 -0.8263621595 0.1607829195
110299340.0 -0.8273783469 0.1685009691 5.82044e-05 0.0001260695 4.01936e-05 2.93725e-05 -0.8249704303 0.1694348289
115299310.0 -0.826147982 0.177225315 -5.65057e-05 -8.39276e-05 0.0001917951 0.0001547458 -0.8238160751 0.1789425977
120299280.0 -0.8247618747 0.186503958 -0.0002060326 5.5096e-06 9.20409e-05 -0.0001333243 -0.8211543038 0.1880748421
125299250.0 -0.8224133979 0.1954900752 0.0001066687 -9.95337e-05 -5.25579e-05 -0.0001522954 -0.8197387968 0.1968949158
130299220.0 -0.8210716396 0.2052361377 -0.000244739 -8.76502e-05 4.58659e-05 5.65839e-05 -0.8180296897 0.2059552915
135299190.0 -0.8189351458 0.2141990285 5.3244e-05 3.15317e-05 -8.43688e-05 -0.0001022439 -0.8159411009 0.2148627247
140299160.0 -0.8173048282 0.2233315173 0.0001189332 2.93444e-05 -3.55513e-05 -9.46703e-05 -0.8141405965 0.2234036042
145299130.0 -0.8156878456 0.2322572835 -0.0001108996 -2.05603e-05 0.0001176517 1.35404e-05 -0.8117341913 0.2322749783
150299100.0 -0.8125657183 0.2409048907 -0.0002419765 -0.0001599902 -0.0001160427 0.0001063456 -0.8102585904 0.2411544587
155299070.0 -0.8099517479 0.250154936 -0.0001413869 -6.74649e-05 -6.22561e-05 2.50764e-05 -0.807250653 0.2508874925
160299040.0 -0.807096682 0.2592604634 0.0002113317 -0.0001847737 6.60143e-05 6.02603e-05 -0.804878606 0.2588496248
165299010.0 -0.8044866136 0.2678843005 0.000155459 -0.0002238605 -0.0001495426 -0.000159437 -0.8022203018 0.2670416535
170298980.0 -0.801385366 0.2762812711 0.0002061325 0.000105068 5.70147e-05 -0.0001456358 -0.799771208 0.2760229915
175298950.0 -0.7995375283 0.2843421888 -0.0001704597 0.0002522316 8.5042e-06 1.58744e-05 -0.7966985386 0.2850807018
180298920.0 -0.7958583685 0.2929454805 1.36689e-05 0.0001184436 3.51388e-05 0.0001220748 -0.7932266881 0.2933369877
185298890.0 -0.7932355566 0.3020831825 -8.3359e-06 -7.76444e-05 -0.000171698 -1.3524e-05 -0.7903269062 0.302026088
190298860.0 -0.7895262962 0.3110469558 0.0001331048 -1.9409e-06 -9.8919e-05 -0.0001776744 -0.7870830995 0.310305047
195298830.0 -0.786188439 0.319210943 -0.0002814047 0.0002152024 -0.0001455726 -0.0001235197 -0.7840895798 0.3184728534
200298800.0 -0.7827862937 0.3279763317 0.0001630684 0.00013664 8.0805e-05 8.9427e-06 -0.7814916102 0.3269447329
205298770.0 -0.7788636519 0.3362191375 -5.66742e-05 1.30096e-05 0.0001394688 0.0001418364 -0.7780309902 0.3354146152
210298740.0 -0.7763993072 0.3446335682 4.26453e-05 -5.78718e-05 8.75423e-05 -0.0003003488 -0.7742889209 0.3433457695
215298710.0 -0.7724407227 0.3534291447 -1.87074e-05 0.0001262988 7.79891e-05 0.0001035339 -0.7703754997 0.3515808443
220298680.0 -0.768343689 0.3614078573 0.0003385322 9.02361e-05 -2.73684e-05 -0.0002023041 -0.7665671562 0.3594057673
225298650.0 -0.7650121418 0.3692489725 5.37764e-05 -2.91038e-05 -5.98791e-05 1.12782e-05 -0.7630832554 0.3681674411
230298620.0 -0.760829973 0.3774642907 5.43743e-05 -9.91086e-05 -2.30478e-05 2.96323e-05 -0.7589948562 0.3754592632
235298590.0 -0.7571942131 0.3855975926 -0.0002750051 5.60764e-05 -5.18996e-05 0.0002147124 -0.7554570705 0.3833314366
240298560.0 -0.7527453858 0.3934079232 -0.0001490116 2.88858e-05 0.0001042432 5.3893e-06 -0.7510647172 0.3907800681
245298530.0 -0.7488385913 0.401817292 -0.0001553824 0.0001788791 2.10212e-05 -0.0002333811 -0.7475399528 0.399098032
250298500.0 -0.7447293859 0.4089124621 2.43538e-05 -0.0002380806 -9.13823e-05 -0.0001783643 -0.7429368868 0.4071641224
255298470.0 -0.7406429156 0.4171429797 0.0001387226 3.89854e-05 -2.65359e-05 -8.38956e-05 -0.7387391516 0.4147698065
260298440.0 -0.7366992267 0.424639163 -0.0001050031 4.11407e-05 -0.0001044771 -0.0001363635 -0.7351304852 0.4217182573
265298410.0 -0.7319429346 0.4325049292 -1.30449e-05 0.0001590972 7.81562e-05 0.0002102195 -0.7301550099 0.4301968568
270298380.0 -0.7273634893 0.4402707986 0.0001926676 2.76055e-05 -5.48746e-05 1.7657e-06 -0.725110685 0.4380399265
275298350.0 -0.7232779389 0.4479705378 7.63611e-05 0.0001318833 -4.34845e-05 0.0002532078 -0.7208236139 0.4453223164
280298320.0 -0.7182454589 0.4556042309 0.0001382235 -7.5207e-05 -0.0001124575 0.0002709095 -0.7164171789 0.4526734991
285298290.0 -0.7132756465 0.4634989787 1.85999e-05 -4.20446e-05 -1.70351e-05 -1.78832e-05 -0.7121587704 0.4608865406
290298260.0 -0.7087368219 0.4706248763 0.0001120192 -0.0001004938 -1.09359e-05 -0.0001213267 -0.7060792658 0.4675803571
295298230.0 -0.7044070767 0.4780377902 -5.82642e-05 0.0001070374 -0.0001577416 -4.4059e-06 -0.7023166104 0.4748537415
300298200.0 -0.6993639391 0.4852395298 -0.0001612555 0.0001103405 -1.54953e-05 -0.0001161114 -0.6970282157 0.482484983
305298170.0 -0.694632361 0.4922328444 -3.80724e-05 -7.99533e-05 0.0001927143 6.31565e-05 -0.69129813 0.4891858979
310298140.0 -0.6893061906 0.4996903325 0.0001447745 5.47738e-05 0.000172025 -2.99817e-05 -0.6864180823 0.4970000085
315298110.0 -0.684445125 0.5071559171 -6.00357e-05 -1.53075e-05 8.96252e-05 -1.47898e-05 -0.6815687543 0.503789659
320298080.0 -0.6788871375 0.5141234553 6.5533e-06 4.8412e-05 0.0001535669 -9.7469e-06 -0.6769975032 0.5108224596
325298050.0 -0.6735242255 0.5212244811 -6.3987e-06 -0.0003014611 -5.31993e-05 8.3758e-05 -0.6705391309 0.5177304417
330298020.0 -0.6682887599 0.5276107979 -0.0001708034 6.73952e-05 -0.0002370854 -0.0001491843 -0.6650066455 0.5245326154
335297990.0 -0.6627741261 0.534035929 0.0001224804 0.0001280933 0.0001036938 -0.0001300085 -0.6595156218 0.5314933039
340297960.0 -0.6581432186 0.541288617 -0.0001396788 2.9255e-06 0.0001206043 1.93511e-05 -0.6543849585 0.5383067823
345297930.0 -0.6520953485 0.5486206381 -4.82522e-05 -3.91841e-05 3.41463e-05 2.82044e-05 -0.6486974032 0.5446721161
350297900.0 -0.6464882165 0.5545777026 -9.05548e-05 -3.59435e-05 0.000112788 -5.245e-06 -0.6432460169 0.5508845076
355297870.0 -0.6406876498 0.5612631446 0.0001450437 9.56778e-05 5.64185e-05 0.00017893 -0.6372657946 0.5584806207
360297840.0 -0.6348049005 0.5682117367 0.0001231135 -6.48469e-05 -0.0001112179 7.0356e-06 -0.6310049046 0.5650532253
365297810.0 -0.6292888676 0.57420273 -0.0001111006 -1.98909e-05 1.95243e-05 2.36255e-05 -0.625874706 0.570576834
370297780.0 -0.6236803264 0.5806647295 -0.000141845 4.31285e-05 0.0001463732 -1.64574e-05 -0.6193894293 0.5774727236
375297750.0 -0.6179659542 0.5871750145 3.1179e-05 -0.0003107472 4.11712e-05 0.0002740735 -0.6137054083 0.5838705525
380297720.0 -0.6121559333 0.5933876629 -4.806e-06 -5.63471e-05 -5.56587e-05 6.08762e-05 -0.6071075534 0.5901061065
385297690.0 -0.6057665965 0.5996928397 -8.27716e-05 -2.97647e-05 0.0001080243 1.78909e-05 -0.6015238161 0.596350415
390297660.0 -0.598395609 0.6053944167 -0.0001805936 -0.0001087659 -0.0001151868 -0.0002403371 -0.5947864815 0.6020963136
395297630.0 -0.592945114 0.6115073188 -0.0001316872 8.98379e-05 -8.8407e-05 -1.2939e-05 -0.5886999408 0.6082111831
400297600.0 -0.5866335654 0.617814006 -1.75814e-05 -0.0001036158 9.72193e-05 -0.0001250973 -0.5834391039 0.6143427934
405297570.0 -0.5813175567 0.6226275483 0.0001469497 0.000130222 -5.69842e-05 3.4312e-06 -0.5758332236 0.6200595279
410297540.0 -0.5745442821 0.6297281519 -0.0001670026 5.8277e-05 1.33867e-05 8.45875e-05 -0.5696779129 0.6259755111
415297510.0 -0.568287609 0.6355320259 -1.56134e-05 5.96786e-05 0.0001054543 -6.573e-07 -0.5628820266 0.631659996
420297480.0 -0.5607022349 0.641285917 2.65186e-05 1.55367e-05 7.74712e-05 5.54322e-05 -0.5568309224 0.6380713276
425297450.0 -0.5547448483 0.6468081663 -7.2216e-06 -6.205e-05 -3.34638e-05 1.24459e-05 -0.5496953056 0.6423784974
430297420.0 -0.5483227787 0.651467671 5.18891e-05 -0.000224155 -0.0001188717 0.0002009958 -0.5433768226 0.64839411
435297390.0 -0.5409984793 0.6574298499 2.4951e-06 -0.0001226867 -0.0001510419 -6.72243e-05 -0.5371415887 0.6545231231
440297360.0 -0.533707675 0.6628976119 -8.63399e-05 0.000372614 1.21949e-05 1.33307e-05 -0.5306345938 0.6593085321
445297330.0 -0.5274112938 0.6681634102 1.76034e-05 5.27712e-05 9.01338e-05 -9.09376e-05 -0.5230604954 0.6650338594
450297300.0 -0.5205058194 0.6732350713 6.73393e-05 1.75231e-05 -0.0001127193 1.37996e-05 -0.5157881443 0.6698279116
455297270.0 -0.5139231115 0.6782254851 1.02694e-05 2.59666e-05 4.69594e-05 -3.43105e-05 -0.5095201952 0.6752070588
460297240.0 -0.5062091154 0.6839570681 0.0001349593 -2.7367e-06 2.099e-06 -3.96283e-05 -0.5024457717 0.6800289939
465297210.0 -0.4990104167 0.6886905083 0.0002496426 0.0003038151 7.42903e-05 -3.42237e-05 -0.4954429397 0.6857630544
470297180.0 -0.4921541783 0.6940497504 -5.75973e-05 0.0001757524 0.0001088857 -6.54568e-05 -0.4883776283 0.6902589675
475297150.0 -0.4853506744 0.6989290018 0.0001082794 6.80375e-05 -0.0001432271 0.0001513935 -0.4816139291 0.6954015785
480297120.0 -0.4771006788 0.7041401736 0.0001983051 -2.35713e-05 6.67584e-05 6.25464e-05 -0.4743207942 0.7001105196
485297090.0 -0.4705166469 0.7085414294 2.27667e-05 -6.72095e-05 -5.07865e-05 0.0001700345 -0.4676659907 0.7049494477
490297060.0 -0.4623788296 0.7137932454 5.459e-07 -0.0001577408 -5.09918e-05 -0.0002583338 -0.4596735418 0.7088089903
495297030.0 -0.4551356327 0.7182150846 0.0001762231 9.32204e-05 -4.42816e-05 -0.0001364955 -0.4526824742 0.713261692
500297000.0 -0.447610264 0.7219863096 -4.45983e-05 -2.5154e-06 0.0001135823 5.3103e-06 -0.445433482 0.71814743
505296970.0 -0.4397412952 0.7273982711 2.98354e-05 0.0001604172 -0.0002260377 -0.0002722058 -0.4378128597 0.7227080613
510296940.0 -0.4322234754 0.7312265027 -3.59672e-05 2.88911e-05 -6.84913e-05 0.0001301711 -0.4302410077 0.7272818434
515296910.0 -0.4245930467 0.7356527376 0.0002148147 0.000244346 -0.0001376978 -0.0001227103 -0.4236016965 0.7307045022
520296880.0 -0.4164899648 0.7398457008 -7.36837e-05 -0.0001753235 -0.0001309981 -4.381e-07 -0.4155411013 0.7360233335
525296850.0 -0.4084870958 0.7443575667 3.99214e-05 4.3422e-05 0.0001293742 -3.10873e-05 -0.4082599988 0.7395179068
530296820.0 -0.4014744441 0.7479942035 -3.15536e-05 -0.0002846946 0.0001043737 4.62022e-05 -0.4008549726 0.7438413059
535296790.0 -0.3929180005 0.7516276694 0.0001604096 2.67628e-05 -0.0001121316 -0.000150662 -0.393199289 0.7479409415
540296760.0 -0.3854023603 0.7557759496 -2.60999e-05 2.76366e-05 0.0001362093 -4.23407e-05 -0.3853819923 0.7514140825
545296730.0 -0.3774014455 0.7606500745 -1.81214e-05 7.65e-05 -4.77617e-05 -5.14146e-05 -0.3780447338 0.7556302225
550296700.0 -0.3697494731 0.7638950705 6.43345e-05 0.0002757506 -3.59156e-05 1.4041e-06 -0.3704752108 0.7592312814
555296670.0 -0.36175476 0.7675956619 -4.89135e-05 -2.53962e-05 -5.73745e-05 -3.20844e-05 -0.3630722814 0.7623283143
560296640.0 -0.3535634028 0.7706240535 8.5403e-05 -2.4968e-06 -0.0001624788 -3.2924e-06 -0.35493292 0.7665807331
565296610.0 -0.3460712181 0.7742374293 -5.10949e-05 -9.55379e-05 -5.4458e-06 6.30585e-05 -0.3467888183 0.7700222403
570296580.0 -0.3370201722 0.7781866684 -3.61646e-05 0.000191407 0.0001137006 2.13006e-05 -0.3393314607 0.7726891681
575296550.0 -0.3284151782 0.7815499606 -6.57881e-05 0.0001674972 -4.94956e-05 -0.0001583009 -0.3307601953 0.7762848735
580296520.0 -0.3214209957 0.7847093892 -9.55481e-05 -0.0001043975 0.0001216832 9.34155e-05 -0.3237448542 0.7797412497
585296490.0 -0.3127834672 0.7880049613 -3.2257e-05 0.0001219446 -0.0001436547 -8.241e-05 -0.3161465408 0.7831982938
590296460.0 -0.3035164122 0.7908998275 0.0001492021 -7.0655e-06 0.0001176579 8.77583e-05 -0.3077157494 0.7858311505
595296430.0 -0.2961237779 0.7938421332 7.14809e-05 -3.59358e-05 6.05352e-05 3.61942e-05 -0.3002258474 0.7889822559
600296400.0 -0.288366457 0.7966934554 -0.0001609753 0.0001040901 -1.19648e-05 5.67265e-05 -0.2922860254 0.7916883559
605296370.0 -0.2801571226 0.7996898243 -0.0001269497 2.95869e-05 -7.97526e-05 -5.49574e-05 -0.2834341854 0.7953308499
610296340.0 -0.2714337929 0.802893082 0.0001908885 -0.0001384728 0.0001515839 8.66409e-05 -0.2765613041 0.7978807748
615296310.0 -0.2625186015 0.8052381394 5.3924e-06 -1.25694e-05 4.0579e-06 0.0001678543 -0.2681378468 0.8006542405
620296280.0 -0.2552396856 0.8085848984 -0.0001173919 0.000144716 -9.64547e-05 -9.40065e-05 -0.2603099419 0.8031868446
625296250.0 -0.2473545706 0.8097159846 7.98931e-05 0.0002322723 -2.84258e-05 -4.63441e-05 -0.2519661756 0.8050631874
630296220.0 -0.2387974054 0.8131146581 0.0001025885 2.50932e-05 -0.0001612264 0.0001052778 -0.2436642018 0.8081138008
635296190.0 -0.2301708055 0.8156151572 -1.0148e-05 5.99896e-05 -5.24691e-05 0.0002398579 -0.2354462826 0.810360414
640296160.0 -0.2225218367 0.8179457014 1.61837e-05 -9.94987e-05 8.19136e-05 3.1714e-06 -0.2276099398 0.8123332333
645296130.0 -0.2140891627 0.8200945293 0.0001229584 0.0001501203 -3.6239e-06 -4.72255e-05 -0.2199524057 0.8144828514
650296100.0 -0.2055300027 0.8218353304 0.000240878 0.0002865677 6.55e-08 -0.0002025347 -0.2110409758 0.8167646024
655296070.0 -0.1980229679 0.8240885115 5.2961e-06 -4.03618e-05 -6.31421e-05 0.0001070076 -0.2035359338 0.8191641932
660296040.0 -0.1891057815 0.8263072633 -6.15824e-05 3.1415e-05 6.19567e-05 2.86231e-05 -0.194692979 0.8212980804
665296010.0 -0.1806248795 0.8280317716 4.12373e-05 0.0001436988 0.0001036686 0.0003117286 -0.1863134563 0.8225281691
670295980.0 -0.1729063078 0.8308343366 -0.0001034532 3.08579e-05 5.39717e-05 -2.84937e-05 -0.1787410662 0.824358557
675295950.0 -0.1641745525 0.8317201978 0.0001117322 -5.97437e-05 -0.0001151584 0.0001936566 -0.1700283381 0.8266549171
680295920.0 -0.1567429392 0.8342199959 6.38382e-05 8.59473e-05 0.0002097151 1.98334e-05 -0.1616920604 0.8275704921
685295890.0 -0.1477844661 0.8356459521 7.9621e-06 -0.000212741 5.99663e-05 -0.0001045739 -0.1535816834 0.8298178817
690295860.0 -0.1400242531 0.836858109 -5.3405e-05 8.4083e-05 5.59707e-05 -0.000148393 -0.1454612239 0.8314326812
695295830.0 -0.1309671007 0.8383074339 -6.09373e-05 1.101e-06 -3.82998e-05 7.1537e-06 -0.1374484167 0.8330770497
700295800.0 -0.1225533194 0.8400898995 -0.0003679118 0.000193365 0.0001866487 0.0001275267 -0.1288239104 0.833272798
705295770.0 -0.1150999883 0.8415540553 5.35877e-05 2.99162e-05 -0.0001322494 4.88094e-05 -0.1206341103 0.8354643977
710295740.0 -0.1067152633 0.8424446557 7.99914e-05 0.0001151955 -1.77935e-05 -0.0001617566 -0.1120486384 0.8361946186
715295710.0 -0.0976554821 0.8438562451 -3.78474e-05 2.53643e-05 0.0001011526 -0.0001921154 -0.1034043328 0.8370705735
720295680.0 -0.0891801534 0.8444496269 -0.0001647779 0.0001699685 6.94417e-05 0.000129634 -0.0950682794 0.8378910385
725295650.0 -0.0821123525 0.846094953 -0.0001847048 -3.74552e-05 -4.98242e-05 8.12904e-05 -0.0877045132 0.8393219876
730295620.0 -0.073997243 0.8464543731 -0.0001286897 8.03671e-05 0.000107391 -1.13467e-05 -0.0790297156 0.8405559442
735295590.0 -0.0659270988 0.8480797475 -1.2628e-06 -0.0001027065 7.28101e-05 0.0001255989 -0.069831529 0.8405648375
740295560.0 -0.0577315038 0.8473572301 -7.62521e-05 5.6291e-05 -0.0002933598 -8.809e-05 -0.0619928841 0.8416425807
745295530.0 -0.0492543077 0.8486013785 -8.21106e-05 -0.0001569931 0.000101416 -6.37819e-05 -0.0534060663 0.8417265954
750295500.0 -0.0411250852 0.8492826211 -0.0002084554 -0.0001477862 -0.0002604841 -3.495e-07 -0.0452986526 0.8428219956
755295470.0 -0.0327430399 0.8498158271 -6.9361e-06 4.6669e-06 -9.50457e-05 0.0001162627 -0.0372122238 0.8430495839
760295440.0 -0.0243633244 0.8510256444 -0.0001593925 7.3119e-06 0.0001887162 6.7118e-05 -0.0280923973 0.8428090544
765295410.0 -0.0162929794 0.8506097325 0.0001128591 8.84767e-05 -4.1569e-06 -7.3362e-06 -0.0197530377 0.843614697
770295380.0 -0.0091759772 0.8508624702 2.31648e-05 0.0001307637 -8.49031e-05 -4.455e-06 -0.0113397245 0.8439304087
775295350.0 -5.55497e-05 0.8513910014 -7.8707e-05 -0.0001062963 -7.56221e-05 0.0002119856 -0.0034706693 0.8432724175
780295320.0 0.0083473759 0.851690191 0.0002033399 -0.0001266285 -0.0001066911 -0.0001332421 0.0048647777 0.8441566542
785295290.0 0.0166516063 0.8509895126 0.000145407 2.82941e-05 -4.26454e-05 7.62399e-05 0.0131888935 0.8438138756
790295260.0 0.0246124544 0.8506278711 0.0001071481 6.61813e-05 0.000259269 -6.66558e-05 0.021546542 0.8435898461
795295230.0 0.0331711168 0.8505205268 0.0001767478 2.12085e-05 8.69113e-05 1.5824e-05 0.0295933423 0.8427072128
800295200.0 0.0411667945 0.8508931171 6.10596e-05 6.35781e-05 -9.14877e-05 0.0003283595 0.0381668066 0.8425022879
805295170.0 0.0489509901 0.8508162048 7.01476e-05 -0.0001791593 6.01581e-05 -0.000128939 0.047178233 0.8423457805
810295140.0 0.0574402227 0.8503054467 -4.76571e-05 -5.4685e-06 0.0001275969 -2.48504e-05 0.0552123987 0.8414623423
815295110.0 0.06538249 0.8498132062 0.0001023077 0.0001781844 -0.000138824 4.58391e-05 0.0629948396 0.8414075677
820295080.0 0.0733376197 0.8493056412 0.0001741958 -6.7423e-05 2.847e-06 1.70408e-05 0.0711324367 0.8405629542
825295050.0 0.0813884565 0.8482945983 -1.40869e-05 0.0001059717 7.67281e-05 1.43966e-05 0.0796929863 0.8399412954
830295020.0 0.0902047346 0.8476160388 0.0002003697 0.0001333125 -6.99395e-05 -0.0001027084 0.0876199725 0.838449161
835294990.0 0.097899677 0.8465416534 1.28994e-05 -4.86236e-05 -9.76034e-05 2.32164e-05 0.0962611161 0.8382707183
840294960.0 0.1065976846 0.8456188457 -1.96673e-05 -1.95831e-05 1.78577e-05 0.0001804245 0.1050203888 0.8370975412
845294930.0 0.1150244706 0.8449064494 -4.6122e-06 -0.0001432588 -4.2265e-05 -4.43196e-05 0.1134250232 0.836138314
850294900.0 0.1241584427 0.8431054601 4.45041e-05 -0.0001118624 3.96392e-05 6.4786e-05 0.1210615551 0.8351038616
