!Created with skrf (http://scikit-rf.org).
# Hz S RI R 50.0 
!freq ReS11 ImS11 ReS21 ImS21 ReS12 ImS12 ReS22 ImS22
300000.0 -0.3234712104 -0.0846661053 0.3755123948 0.0446564597 0.372977818 0.0417757576 -0.3205919948 -0.0974243493
5299970.0 -0.3265364593 0.0038946354 0.3785249939 0.0023518988 0.3785730289 0.0025564471 -0.3241687614 0.004593643
10299940.0 -0.3241753477 0.0134067535 0.379377612 0.0020447757 0.3795919534 0.0024942652 -0.3217575181 0.0160352304
15299910.0 -0.3214318681 0.0203596969 0.3820334287 0.001938898 0.3819716912 0.0019749219 -0.3185927799 0.0238403707
20299880.0 -0.3184604557 0.0261268938 0.3847023991 0.0018309454 0.3850603228 0.0018096664 -0.3148429053 0.0302628625
25299850.0 -0.3157347784 0.0314532398 0.3884010911 6.91835e-05 0.3878837907 0.0003627564 -0.3110101982 0.0359190508
30299820.0 -0.3127446672 0.0358672581 0.3915879384 -0.002266196 0.3916726527 -0.0021577737 -0.3075827961 0.0412144346
35299790.0 -0.3100372702 0.0397978155 0.3948090483 -0.0051632032 0.3950042921 -0.0054949909 -0.3034194381 0.0451028964
40299760.0 -0.3072577972 0.0436985835 0.3979932449 -0.0086709251 0.3979682526 -0.008664 -0.3000620818 0.0480232668
45299730.0 -0.3044602231 0.0463569291 0.4005058304 -0.0125667 0.4008783739 -0.0127679551 -0.2972972262 0.0519961395
50299700.0 -0.3025745036 0.049274836 0.4037134277 -0.0169636243 0.4035510205 -0.0170338096 -0.2939655776 0.0547674499
55299670.0 -0.3003422564 0.0522237494 0.4056976009 -0.0224209087 0.4054111983 -0.0218479619 -0.2918165688 0.0568586795
60299640.0 -0.2979900537 0.0548376396 0.4075200092 -0.0271046924 0.4076770391 -0.026791474 -0.2889189002 0.0595149118
65299610.0 -0.2962478153 0.0572432216 0.4092227037 -0.0320136859 0.4091163235 -0.0318746328 -0.287181845 0.0616669573
70299580.0 -0.2950151356 0.0599007333 0.4106856146 -0.036886034 0.4102049568 -0.036838561 -0.284944084 0.0636167662
75299550.0 -0.2930431604 0.062489626 0.4113391925 -0.0420444361 0.4111124384 -0.0421146643 -0.283358262 0.0657821695
80299520.0 -0.2916639629 0.0647903236 0.4122028475 -0.0473536372 0.4123886801 -0.0473703233 -0.2816018738 0.0681396967
85299490.0 -0.2901318044 0.0669068767 0.412632831 -0.0523932758 0.4127932354 -0.0523236282 -0.2801957661 0.0700826401
90299460.0 -0.2888480023 0.0696206527 0.4128454493 -0.0581286406 0.4132942115 -0.0577714386 -0.2782991034 0.0718824907
95299430.0 -0.2872526042 0.071570075 0.41363685 -0.0631620052 0.4134257299 -0.0634134878 -0.2767592126 0.0744585103
100299400.0 -0.2863297346 0.074150216 0.4128724945 -0.068436764 0.4133259458 -0.068337022 -0.2752661969 0.076151312
105299370.0 -0.2851084722 0.0764432151 0.4131331643 -0.0740672946 0.4136318454 -0.0735745207 -0.2737217926 0.0782734679
110299340.0 -0.2839237827 0.0787102607 0.4132090914 -0.0782740758 0.413054915 -0.078257217 -0.2729199645 0.0802052515
115299310.0 -0.2827462467 0.0809128436 0.4130301432 -0.0837474325 0.4127233396 -0.0838239904 -0.2714862847 0.0826550436
120299280.0 -0.2820978206 0.0831355615 0.4121445506 -0.0888463922 0.4125262725 -0.0887683547 -0.2704761292 0.0845637068
125299250.0 -0.2810186933 0.0854648033 0.4117875327 -0.093925488 0.412164535 -0.0937449743 -0.2695500664 0.086531827
130299220.0 -0.2801176531 0.0882531152 0.4111004047 -0.0991612677 0.4111442174 -0.0991281489 -0.2684747856 0.0886314528
135299190.0 -0.2791622979 0.0908030437 0.4102761618 -0.103770942 0.4103475705 -0.1039861778 -0.2671365789 0.091165401
140299160.0 -0.2784291713 0.0930742659 0.4095576953 -0.1090900901 0.4099511687 -0.1089467557 -0.2663646018 0.093484194
145299130.0 -0.2775682499 0.0954620254 0.4090015931 -0.1140054207 0.4084266233 -0.1137770698 -0.2654555793 0.0958384533
150299100.0 -0.2761530056 0.0982843144 0.4075759025 -0.119027251 0.4078336101 -0.118575803 -0.2644360793 0.0984691508
155299070.0 -0.2754990087 0.1007397839 0.4067586311 -0.1244765766 0.4065292345 -0.1238900698 -0.2631950807 0.1008805884
160299040.0 -0.2744520834 0.1033866931 0.4053449932 -0.1287436637 0.4053897965 -0.1284573871 -0.2626892852 0.1031363862
165299010.0 -0.273783498 0.1059482675 0.4043503797 -0.1336231559 0.4043041831 -0.133733464 -0.2614035892 0.1059037579
170298980.0 -0.2728731932 0.1084617982 0.4025595564 -0.1384318344 0.4029612636 -0.1383461883 -0.2602374195 0.1083602093
175298950.0 -0.2719036975 0.1114068515 0.4015139677 -0.1431583209 0.4013636856 -0.143028438 -0.2595544154 0.1108841723
180298920.0 -0.2711474114 0.1139532078 0.4003401888 -0.1480984325 0.4001429386 -0.1475221366 -0.2586281305 0.1132275217
185298890.0 -0.2696057758 0.1164916753 0.3983520301 -0.152406532 0.3982459112 -0.1525189416 -0.2570378056 0.1162045928
190298860.0 -0.2687931098 0.1193504203 0.3969782113 -0.1575439248 0.3973192205 -0.1570043895 -0.2561231041 0.1183687899
195298830.0 -0.2678317096 0.1218967073 0.3953576979 -0.1619746737 0.3952900597 -0.1616766601 -0.2552051498 0.1210209651
200298800.0 -0.2663724238 0.1245572805 0.3937440836 -0.1663937579 0.3937544819 -0.1667711247 -0.2545223109 0.1232562826
205298770.0 -0.2655700429 0.1274959736 0.3913904785 -0.1712468138 0.3915080604 -0.1708782794 -0.2531645178 0.1257731364
210298740.0 -0.2644018536 0.1297331746 0.3902011918 -0.1753955701 0.389649231 -0.1754015983 -0.2519474278 0.1285103423
215298710.0 -0.2635220801 0.1328540426 0.3880157722 -0.18004465 0.3879562965 -0.1801931475 -0.2510309038 0.1309113659
220298680.0 -0.2620229338 0.1351554024 0.3854848834 -0.1844175589 0.3859503048 -0.1845193926 -0.2501091312 0.1332464093
225298650.0 -0.2608317139 0.1379989808 0.3839561137 -0.1892120392 0.384106366 -0.1887430621 -0.2491430802 0.1359051575
230298620.0 -0.259540586 0.1408801146 0.3820919168 -0.1933732386 0.3824347494 -0.1933623743 -0.2478474962 0.1385742446
235298590.0 -0.2580446653 0.1435531009 0.3800329586 -0.1978986043 0.3801220084 -0.1974827416 -0.246474045 0.1411006168
240298560.0 -0.2571074211 0.146364256 0.3778216796 -0.2021826772 0.3778476789 -0.2023012643 -0.2453184714 0.143843515
245298530.0 -0.2558897255 0.148803427 0.3758825386 -0.2065473035 0.3756053432 -0.2064876365 -0.2439059291 0.1456588185
250298500.0 -0.2543307662 0.1516982124 0.3728341562 -0.2106434019 0.3727113823 -0.2103901867 -0.2429145989 0.1483708892
255298470.0 -0.2530553779 0.1542540011 0.3705780111 -0.2145395408 0.3708209174 -0.2149920989 -0.2411633393 0.1509505577
260298440.0 -0.2515065916 0.156828281 0.3683156802 -0.219271978 0.3684678964 -0.2191906902 -0.2393522634 0.1537357803
265298410.0 -0.2499702415 0.1598308599 0.3658943099 -0.2235720843 0.3663354761 -0.2230876381 -0.2381584357 0.1561121213
270298380.0 -0.2485556712 0.1626677288 0.3634945562 -0.2276131644 0.3639228422 -0.2277298218 -0.2369314397 0.1587557989
275298350.0 -0.2467800024 0.16516396 0.3608719647 -0.2317680534 0.3614287921 -0.2316828727 -0.2350349859 0.1611095599
280298320.0 -0.2449508318 0.1676756258 0.3586096275 -0.2358365555 0.3588803372 -0.235646243 -0.2335023631 0.163481693
285298290.0 -0.2436200114 0.1708329668 0.3560440304 -0.2400619817 0.3558551925 -0.239654279 -0.231623381 0.1660765096
290298260.0 -0.241681322 0.1733916335 0.3529740911 -0.2436760617 0.3534502763 -0.2439900331 -0.2303050825 0.1688426596
295298230.0 -0.2400180857 0.175675623 0.3508476394 -0.2475634782 0.3507443051 -0.2477131939 -0.2283328255 0.1707768579
300298200.0 -0.2387450343 0.1781607921 0.3482330587 -0.2510428636 0.3480334092 -0.2517777185 -0.2267521206 0.1736005527
305298170.0 -0.2368578461 0.1806592806 0.3450439379 -0.2559900382 0.345249779 -0.2556661571 -0.2243341434 0.1756684833
310298140.0 -0.2349600735 0.1836153252 0.3422235477 -0.2596848759 0.3426590567 -0.259460842 -0.2230807911 0.177921783
315298110.0 -0.2333501099 0.1857337343 0.3394820372 -0.2634857642 0.3394749915 -0.2634477552 -0.2211918573 0.180558821
320298080.0 -0.2313535455 0.1882572112 0.3363684711 -0.2678249851 0.3366053599 -0.2672988115 -0.2196561164 0.1831129555
325298050.0 -0.2293373931 0.1910409619 0.333311221 -0.2716098599 0.3333613053 -0.2711518511 -0.2179175412 0.185279566
330298020.0 -0.2278181923 0.193064973 0.3302126277 -0.2748780561 0.3305238777 -0.2752512524 -0.2162518753 0.1878825913
335297990.0 -0.2258941752 0.1956172838 0.3272227796 -0.2787001862 0.3269593949 -0.2787398792 -0.2147955544 0.1904448241
340297960.0 -0.2241858207 0.1984149396 0.3237208895 -0.2823566862 0.323696393 -0.2822566211 -0.2121639079 0.1930692696
345297930.0 -0.2222337792 0.200789009 0.3206339344 -0.2858360089 0.3206216619 -0.2858215073 -0.2106572769 0.1949372092
350297900.0 -0.2202528848 0.2029792403 0.317328899 -0.2895386132 0.317284272 -0.289287347 -0.2086843719 0.1982278641
355297870.0 -0.2179480023 0.2062610718 0.3142335761 -0.2930661654 0.3142619363 -0.2926770379 -0.2070834496 0.2000958143
360297840.0 -0.2162081845 0.2082420402 0.311260068 -0.2959785842 0.3116838715 -0.2960521449 -0.205077527 0.2028029846
365297810.0 -0.2141940642 0.2110259333 0.3077202298 -0.3000090671 0.3078832869 -0.2996348758 -0.2028097652 0.2051292549
370297780.0 -0.2120792823 0.2133495199 0.3043157552 -0.3028289615 0.3044949097 -0.3029631739 -0.2007965861 0.2076653025
375297750.0 -0.2093745511 0.2156690645 0.3009504306 -0.3064809643 0.3013229217 -0.3065314332 -0.1987399385 0.2096143192
380297720.0 -0.2074403506 0.2181122507 0.2975194245 -0.309673565 0.2977477027 -0.3092789038 -0.1971564324 0.2115946112
385297690.0 -0.2056100177 0.2200695007 0.2943799966 -0.3128627392 0.2940354016 -0.3129105241 -0.194758674 0.2141696846
390297660.0 -0.2030966172 0.2226541151 0.290820788 -0.3159808958 0.2905869927 -0.3159430468 -0.1929106696 0.2162770837
395297630.0 -0.2006215985 0.2249114902 0.2874232084 -0.3190598632 0.2872577302 -0.3191024386 -0.1901329964 0.2184989683
400297600.0 -0.1984575766 0.227529541 0.2833934799 -0.3226632392 0.2835442049 -0.3225423207 -0.1881103678 0.2208765896
405297570.0 -0.1965612289 0.2294092061 0.2798023705 -0.3251468059 0.2801673122 -0.32539418 -0.1860455027 0.2227891638
410297540.0 -0.1938577892 0.2318062002 0.2764883905 -0.328847311 0.2768974946 -0.3284734103 -0.1838138369 0.2249406908
415297510.0 -0.1913856883 0.2336206993 0.2726309951 -0.3318150855 0.2730984743 -0.3316028742 -0.1816586334 0.2272792597
420297480.0 -0.1893494834 0.2361827904 0.2689233821 -0.3343013189 0.2691769729 -0.3347303754 -0.179182501 0.2296175785
425297450.0 -0.1867566334 0.2382499571 0.2654399707 -0.3375903117 0.2657815732 -0.3374587899 -0.1772244127 0.2312236716
430297420.0 -0.1844236789 0.2404834624 0.2617344585 -0.3402510081 0.2618116172 -0.3404149944 -0.1747655152 0.233100808
435297390.0 -0.1817697852 0.2423860001 0.2577217013 -0.3428995326 0.2578106502 -0.3431492176 -0.1718606795 0.2351606797
440297360.0 -0.1791340292 0.2448000565 0.2540206458 -0.3459794944 0.254408857 -0.345961628 -0.1697041429 0.2371815154
445297330.0 -0.1767646499 0.2465453015 0.2501400191 -0.3485751099 0.2506783545 -0.3481030839 -0.1672965299 0.238615696
450297300.0 -0.17403517 0.2484679678 0.2465799486 -0.3512963371 0.2465114041 -0.3514915457 -0.1646582557 0.2404095967
455297270.0 -0.1714960293 0.2506890064 0.2421229567 -0.3541031756 0.2431000893 -0.3540066883 -0.1624258472 0.2423559392
460297240.0 -0.1692570353 0.2523307674 0.2388112582 -0.3564979873 0.2388322776 -0.3567549117 -0.15986686 0.2445681243
465297210.0 -0.1662594896 0.2546996027 0.2347776432 -0.3592738863 0.2347025053 -0.3592630984 -0.1570880153 0.246084699
470297180.0 -0.1637075436 0.2561279101 0.2309470688 -0.3614546605 0.2309947271 -0.3617184016 -0.154143928 0.2480930038
475297150.0 -0.1608396763 0.2579946211 0.2264541328 -0.36394015 0.2267452326 -0.3641161663 -0.1512302769 0.249169306
480297120.0 -0.1583786532 0.2599098009 0.2224127429 -0.3665454956 0.2225941964 -0.366906108 -0.1485106412 0.2516816301
485297090.0 -0.1557282437 0.2619220605 0.2186660572 -0.3687297794 0.2186907353 -0.3687545784 -0.1461681423 0.2533850528
490297060.0 -0.1533173076 0.2635752305 0.214807114 -0.3712792084 0.2148103222 -0.3713668042 -0.1434472135 0.2549610588
495297030.0 -0.1501908971 0.2654197735 0.2103469924 -0.3735475379 0.2110294497 -0.3733972325 -0.1411854561 0.2567820175
500297000.0 -0.1474245118 0.2671727049 0.2066074875 -0.375502772 0.2059592394 -0.3750843419 -0.1379555413 0.2588075417
505296970.0 -0.1444942936 0.2687880191 0.2024847706 -0.3779623306 0.2022119847 -0.3781377203 -0.1356625428 0.2603416611
510296940.0 -0.1419260157 0.2705791311 0.1981286964 -0.3799441504 0.1980288434 -0.3802120421 -0.1326455339 0.2619124539
515296910.0 -0.138942129 0.2719474161 0.1938142235 -0.3820761055 0.1939711295 -0.3823302133 -0.1298194809 0.2633252147
520296880.0 -0.1361204918 0.2737739162 0.1897701269 -0.3843913086 0.1897109097 -0.3840381891 -0.1273569216 0.2648882808
525296850.0 -0.1332957344 0.2750406776 0.1853384254 -0.3864356695 0.186046669 -0.3860528758 -0.1248728836 0.2664759222
530296820.0 -0.1301152491 0.2767217959 0.1809556649 -0.3884560139 0.1815735095 -0.3882297562 -0.12188123 0.2678461377
535296790.0 -0.1277966885 0.2783374749 0.1773649419 -0.3898735263 0.177201904 -0.3896359073 -0.1193381159 0.2689991814
540296760.0 -0.1245656512 0.2796980102 0.1725780375 -0.39190333 0.1727432466 -0.3923153256 -0.1162849768 0.2710574716
545296730.0 -0.1218591472 0.2814223477 0.1681321625 -0.3938399014 0.1684206985 -0.3939056998 -0.1137314811 0.2721740234
550296700.0 -0.1183656753 0.2826129369 0.1640743343 -0.3957523929 0.1643583554 -0.3958493848 -0.1108277389 0.2735459371
555296670.0 -0.115699467 0.2840373057 0.1597550428 -0.3974595336 0.1601528905 -0.3972653128 -0.1080725583 0.2753181409
560296640.0 -0.1124667509 0.2856699726 0.1551865692 -0.3991588916 0.1555355851 -0.3990497795 -0.1050249041 0.2765749293
565296610.0 -0.1099258557 0.287003847 0.1509123711 -0.400477638 0.1510969363 -0.4007989367 -0.1024695873 0.277558008
570296580.0 -0.1070522251 0.2881384662 0.1464415111 -0.4026081034 0.146374591 -0.4026153802 -0.0996467951 0.2791846401
575296550.0 -0.1037602106 0.289583611 0.1421768962 -0.4039497922 0.1421858052 -0.4041035297 -0.096350315 0.2800981615
580296520.0 -0.100737291 0.2907401361 0.1379849042 -0.4054633759 0.1378546168 -0.4054053208 -0.0933817633 0.2810900207
585296490.0 -0.098110037 0.2915809422 0.1336330946 -0.4064434078 0.1339239853 -0.4069953142 -0.0906932916 0.2821756804
590296460.0 -0.0946392828 0.2931394368 0.1292486491 -0.4078593958 0.1294294284 -0.4082002147 -0.0879957824 0.2833078637
595296430.0 -0.0914035146 0.2938713861 0.1243586215 -0.4096385549 0.1245494155 -0.4093407595 -0.0848038036 0.2836339208
600296400.0 -0.0888659348 0.2956640666 0.1200720774 -0.4112102051 0.1201457329 -0.410524663 -0.0819139106 0.2853954837
605296370.0 -0.0857938886 0.2962782491 0.1152909581 -0.412252109 0.1159321824 -0.412136173 -0.0785883195 0.286440579
610296340.0 -0.0825717507 0.2974283373 0.1108590349 -0.4132234176 0.1112554339 -0.4132298945 -0.0757208959 0.2872185417
615296310.0 -0.0789124614 0.2979355483 0.1063629782 -0.4141727254 0.1061306144 -0.4147575512 -0.0722891437 0.288151559
620296280.0 -0.0761134579 0.2987236833 0.1019288146 -0.4151757905 0.1022313514 -0.4152974905 -0.0697733464 0.2890580353
625296250.0 -0.0732077139 0.2996366355 0.0979237393 -0.4167257673 0.0973280357 -0.4166718462 -0.0659257875 0.2899996821
630296220.0 -0.06944477 0.3010410131 0.0922269226 -0.417499014 0.092565241 -0.4174973356 -0.0634916951 0.2906217894
635296190.0 -0.0671698775 0.3015023139 0.0885812163 -0.4183104726 0.0884984061 -0.4188206042 -0.0603668865 0.2916415821
640296160.0 -0.0637226276 0.3024811126 0.0840168494 -0.4188992396 0.0841586098 -0.4194123191 -0.0571197285 0.2921147952
645296130.0 -0.060165573 0.3037703507 0.0792156986 -0.420042149 0.079562924 -0.4204310915 -0.0540557486 0.2931861517
650296100.0 -0.0572091039 0.3041345091 0.0743586236 -0.4205696252 0.0749387682 -0.4204068494 -0.0509435418 0.2933896114
655296070.0 -0.054183209 0.3049698464 0.0703286791 -0.421484837 0.0702024324 -0.421546609 -0.0476913668 0.2939425131
660296040.0 -0.0509834504 0.3053237019 0.0657004214 -0.4222104172 0.0660153272 -0.4223490377 -0.0443969704 0.2948074092
665296010.0 -0.0475216251 0.3057582831 0.0610823588 -0.4229513538 0.0611743316 -0.4229690776 -0.0413401114 0.2959653386
670295980.0 -0.0450129293 0.3068170283 0.0566226454 -0.4233170944 0.0568259869 -0.4236215037 -0.0386355603 0.2963882401
675295950.0 -0.041574761 0.3074774051 0.0520898459 -0.4236996642 0.0521225179 -0.4236490626 -0.0356068435 0.2972715422
680295920.0 -0.0383496776 0.3078108848 0.0473958097 -0.4242277859 0.0470226464 -0.4247836684 -0.0323364536 0.2981801542
685295890.0 -0.0347707255 0.3089816004 0.0427817667 -0.4251071262 0.0426805657 -0.4248190189 -0.0290117626 0.2980199946
690295860.0 -0.0315269777 0.3090392286 0.037964401 -0.4249616156 0.0381871072 -0.4257685926 -0.0262291423 0.2992568399
695295830.0 -0.0287024668 0.3094218218 0.0337003104 -0.4256511132 0.03345189 -0.4259220827 -0.0225845671 0.2994713929
700295800.0 -0.0254169496 0.3099023397 0.0287161858 -0.4259325472 0.0286518654 -0.425938911 -0.0198487586 0.3000557638
705295770.0 -0.022443262 0.3105929597 0.0243011176 -0.4262843872 0.024312627 -0.4262633956 -0.01678639 0.3004816184
710295740.0 -0.0186421719 0.3109843869 0.0198371651 -0.4268598142 0.0195068725 -0.4269430848 -0.0135536403 0.3003385985
715295710.0 -0.0158025836 0.3109358195 0.0155181993 -0.4265662546 0.0146582738 -0.4266643116 -0.0103642465 0.3006885042
720295680.0 -0.0123690684 0.3115413205 0.0104543165 -0.4268366194 0.0106924708 -0.4270118648 -0.0074007667 0.3011164104
725295650.0 -0.0089245598 0.3119195944 0.0056233016 -0.4272680125 0.0060185463 -0.427164075 -0.0041376114 0.3015786129
730295620.0 -0.0056958058 0.3123457458 0.0012165688 -0.4269239831 0.0015701321 -0.4270942354 -0.0011864346 0.3015157116
735295590.0 -0.0025488452 0.3123657668 -0.0033594864 -0.4273415071 -0.0036232698 -0.4265192879 0.0018646104 0.3014817372
740295560.0 0.0003051454 0.3126674153 -0.007933317 -0.4268922369 -0.0081078502 -0.4269601935 0.0054686355 0.3018478688
745295530.0 0.0039123483 0.3128741731 -0.0131103881 -0.426543196 -0.0127344836 -0.4264300368 0.0085036923 0.3014447343
750295500.0 0.0074658166 0.3127340584 -0.017272533 -0.4261041856 -0.0169803256 -0.4265005095 0.0111669761 0.3018524627
755295470.0 0.0104556845 0.3127409367 -0.0218798263 -0.4263076169 -0.0218178355 -0.4261902652 0.0150387182 0.3015438633
760295440.0 0.0136679806 0.3129188779 -0.0264893476 -0.4262227341 -0.0265553599 -0.4257848138 0.0179645502 0.3012803025
765295410.0 0.0170150358 0.3129016497 -0.0313371732 -0.4253505513 -0.03135772 -0.4257153527 0.0211243155 0.3018017654
770295380.0 0.0199079553 0.3124361471 -0.0359945289 -0.4249998435 -0.0356710887 -0.4249592704 0.0240549046 0.3014592662
775295350.0 0.0233159945 0.3123086664 -0.040735969 -0.4242605349 -0.0400991206 -0.4246894898 0.0267310273 0.3014566618
780295320.0 0.0267807621 0.3122748607 -0.0454186218 -0.4240046579 -0.0445505368 -0.4240595215 0.0300726308 0.3009133918
785295290.0 0.0298168563 0.3117229586 -0.0498519752 -0.4231140183 -0.0497034321 -0.4236651938 0.0335516875 0.3008638159
790295260.0 0.0335397576 0.3120503708 -0.0538410528 -0.4227683402 -0.0532637662 -0.4226045773 0.0369901817 0.3005685894
795295230.0 0.0364688459 0.3117110846 -0.058839677 -0.4221733761 -0.0582376964 -0.422551023 0.0403432684 0.3001736255
800295200.0 0.0396637519 0.311350596 -0.0637264947 -0.4212521987 -0.0629776129 -0.4212979042 0.0434599315 0.2999687334
805295170.0 0.0431422055 0.310987932 -0.067758922 -0.4208939972 -0.0672893538 -0.4209560622 0.0462442435 0.2999370095
810295140.0 0.0463296786 0.310516357 -0.0718173315 -0.4197517668 -0.0722939873 -0.41995505 0.0499851516 0.2995521541
815295110.0 0.0492829371 0.3098607919 -0.0765921515 -0.4187046526 -0.0762765597 -0.4189721012 0.0529448484 0.2991937373
820295080.0 0.0523442117 0.3100862853 -0.0811574932 -0.418083853 -0.0806383138 -0.4181587727 0.0563839184 0.2987669634
825295050.0 0.0563642112 0.3093168832 -0.0855508777 -0.4173598047 -0.0858457286 -0.4171775466 0.059383733 0.2984546946
830295020.0 0.0591837336 0.3092817231 -0.0901862045 -0.4161642575 -0.0904807288 -0.4161571772 0.0634249288 0.2976900482
