!Created with skrf (http://scikit-rf.org).
# Hz S RI R 50.0 
!freq ReS11 ImS11 ReS21 ImS21 ReS12 ImS12 ReS22 ImS22
300000.0 -0.2398672868 -0.0826578194 0.4716154741 0.0554876067 0.4676232705 0.0534473022 -0.2411988839 -0.0929585599
5299970.0 -0.2441729401 0.0070950047 0.4733297516 0.0049501141 0.4736261425 0.0051787838 -0.2442459229 0.0069611173
10299940.0 -0.2411029455 0.0187661387 0.4753292308 0.0060724078 0.4754719436 0.0063930005 -0.2407642957 0.0203807866
15299910.0 -0.2366197739 0.0279018837 0.4794963239 0.0076644808 0.4793058426 0.0078372141 -0.236184688 0.0296516567
20299880.0 -0.2318666695 0.0356469045 0.4839755811 0.0084334978 0.4839401666 0.0085080032 -0.2309036627 0.0375408442
25299850.0 -0.2269135531 0.0420609392 0.4890599573 0.0077713079 0.4890420561 0.007474553 -0.2249431987 0.0439898004
30299820.0 -0.2213464336 0.0467378422 0.4946083907 0.0055218549 0.494543131 0.0057509531 -0.2191964673 0.048906481
35299790.0 -0.2164399767 0.0513955196 0.5000626009 0.0020699107 0.4998646983 0.0023379258 -0.2137006621 0.0532263756
40299760.0 -0.2114427291 0.0551461374 0.5049622885 -0.0019604876 0.5051356521 -0.0017748816 -0.2082708753 0.0562462954
45299730.0 -0.2066730154 0.0576855466 0.5096384269 -0.0065619759 0.509873835 -0.0066432786 -0.2033921904 0.0589191502
50299700.0 -0.2024906809 0.0598037962 0.5142178805 -0.0119949249 0.5138303423 -0.0118675344 -0.1984133108 0.0605836849
55299670.0 -0.1983441421 0.0616637531 0.517743138 -0.0184986104 0.5176907436 -0.0175893558 -0.1943517283 0.0622717283
60299640.0 -0.1940913442 0.06346197 0.5207426291 -0.0241906267 0.5212677672 -0.0238588307 -0.1903535959 0.0630478505
65299610.0 -0.191260035 0.0649097232 0.5242718104 -0.0305966955 0.5241008774 -0.0305105891 -0.1870180972 0.0641066965
70299580.0 -0.187788245 0.0662678633 0.5263801696 -0.0375607241 0.5266377532 -0.0372502646 -0.1837173282 0.0651371203
75299550.0 -0.1852353413 0.0672968892 0.5284522131 -0.0440997722 0.5283680645 -0.0440975597 -0.1810243096 0.0654364854
80299520.0 -0.1824361675 0.068113456 0.5302270878 -0.050786859 0.5307025183 -0.0507888733 -0.1784794347 0.0660381178
85299490.0 -0.180203888 0.0689448814 0.5317087314 -0.0577209344 0.5318922623 -0.0574001009 -0.1761554205 0.0662597969
90299460.0 -0.1779327728 0.0694563807 0.5321807158 -0.0647659389 0.5328004406 -0.0647668 -0.1737607642 0.066875485
95299430.0 -0.175449741 0.0704834299 0.533587162 -0.0716427098 0.5339387531 -0.0719391453 -0.171863036 0.0673853429
100299400.0 -0.1738324755 0.0716169671 0.5336808048 -0.0785823657 0.5336668629 -0.0782144863 -0.1694210385 0.067250063
105299370.0 -0.1722208864 0.072528609 0.5346177172 -0.085713772 0.5349429341 -0.0856774941 -0.1675915614 0.0681048497
110299340.0 -0.1703618557 0.073404432 0.5343428513 -0.0924508457 0.5341656505 -0.0921330497 -0.1666191412 0.0683728454
115299310.0 -0.1688619923 0.0740933894 0.5343877069 -0.0990001979 0.5341896145 -0.0990073309 -0.1649239363 0.0689960448
120299280.0 -0.1674736314 0.074731263 0.5341648134 -0.1058063154 0.5342227609 -0.1059959847 -0.1632834014 0.0695997526
125299250.0 -0.1661209101 0.075532972 0.5339718211 -0.1125758947 0.5339534156 -0.1126318674 -0.1622920599 0.0695243328
130299220.0 -0.1650017268 0.0768603191 0.5333799714 -0.1193376199 0.5335758594 -0.1190687413 -0.1609727787 0.0700319003
135299190.0 -0.1636803123 0.0777881546 0.5328381982 -0.1262022558 0.5327060944 -0.1255844569 -0.1596872813 0.071259195
140299160.0 -0.1628807964 0.0787780361 0.5323849255 -0.1328808567 0.5320217268 -0.1326714243 -0.1587665663 0.0723054412
145299130.0 -0.1614458937 0.0800668361 0.5310668189 -0.1394049294 0.530934929 -0.1387415251 -0.1579614054 0.0727328461
150299100.0 -0.1599765385 0.0811766167 0.529639895 -0.1455316688 0.5297470418 -0.1455523849 -0.1569219096 0.073876018
155299070.0 -0.1594636155 0.0822992117 0.528979811 -0.1528009599 0.528542257 -0.1521389096 -0.1560538819 0.0746404789
160299040.0 -0.1582097573 0.0833460035 0.5271792177 -0.1588591234 0.5270352685 -0.1587497735 -0.1552909043 0.0756327224
165299010.0 -0.1575332363 0.0846658748 0.5258156909 -0.1652742627 0.5260793326 -0.165283879 -0.1539674313 0.0767129182
170298980.0 -0.1567341379 0.0857649207 0.5243482492 -0.1717077424 0.5248747794 -0.1716183792 -0.1531964665 0.0777757536
175298950.0 -0.1554673738 0.0870460777 0.5225774346 -0.1776093428 0.5225019942 -0.1775840176 -0.1531271069 0.0788346012
180298920.0 -0.1547756835 0.0883952636 0.521297059 -0.1839160029 0.5209890375 -0.1836722172 -0.1519428368 0.0797120096
185298890.0 -0.1532780923 0.0894505292 0.5191029927 -0.190057265 0.5189369286 -0.1899218373 -0.1511464395 0.0810200718
190298860.0 -0.1526427624 0.0909802625 0.5171557108 -0.1967751262 0.5176764228 -0.1966830551 -0.1505964992 0.0819079698
195298830.0 -0.1516577206 0.0921837174 0.5149086995 -0.20275296 0.5151620251 -0.202527817 -0.1496841225 0.0827732614
200298800.0 -0.1505707419 0.0935894123 0.5128432816 -0.2088803786 0.5130753266 -0.2092092493 -0.1494803502 0.0839788888
205298770.0 -0.1496657901 0.0949808728 0.5106827483 -0.2149816113 0.5108586735 -0.2149602138 -0.1485627999 0.0849008519
210298740.0 -0.1486774438 0.09617937 0.5083385375 -0.2208299838 0.5086543748 -0.2205791384 -0.1474592498 0.0870323759
215298710.0 -0.1482783612 0.0977261102 0.5063371468 -0.2268681025 0.5064743355 -0.2269965377 -0.1475957989 0.0877639291
220298680.0 -0.1469635045 0.0986851741 0.5033163841 -0.2321727292 0.5037536851 -0.2325221429 -0.147053243 0.0885136769
225298650.0 -0.1463075839 0.1005741837 0.5015086345 -0.238750304 0.5015896847 -0.2383836872 -0.1459528878 0.0895107993
230298620.0 -0.1451726198 0.1020743091 0.4992735199 -0.2439768312 0.4992233866 -0.2444373807 -0.1453442258 0.0912250175
235298590.0 -0.1440569957 0.1036979532 0.4960637884 -0.2499243704 0.496534779 -0.2495956155 -0.1447512141 0.0922963921
240298560.0 -0.1431538799 0.1049054495 0.4936645149 -0.2562659645 0.4934797527 -0.2561487014 -0.1441524109 0.0936869597
245298530.0 -0.1422339616 0.1066551836 0.4910258472 -0.2615809056 0.4909439697 -0.2619016862 -0.1432568068 0.0942824112
250298500.0 -0.1408213844 0.1083089208 0.487405994 -0.2676253166 0.4874408165 -0.2667710342 -0.1425356329 0.095693677
255298470.0 -0.1399505536 0.1089656261 0.4846864566 -0.2721240959 0.4849121327 -0.2724602833 -0.1413847654 0.0965270473
260298440.0 -0.1390510974 0.1105482218 0.4818547533 -0.2783706149 0.482132047 -0.2781171544 -0.1405007107 0.0982267267
265298410.0 -0.1374727382 0.1125152657 0.4788018822 -0.2840294119 0.4791890202 -0.2836799107 -0.1398440637 0.0996617223
270298380.0 -0.1363830578 0.114034642 0.476118559 -0.2893519371 0.4762482981 -0.2890970778 -0.1391992357 0.100531672
275298350.0 -0.1350595082 0.1152010046 0.4726091463 -0.2949465658 0.4729336886 -0.2945959891 -0.1377561131 0.1017689473
280298320.0 -0.1337997836 0.1169296688 0.4697206266 -0.2998026305 0.4698617341 -0.300071227 -0.1369010036 0.1029938433
285298290.0 -0.1330795235 0.1183869724 0.4666531873 -0.3052007008 0.4664997663 -0.305225625 -0.1357903013 0.1041055141
290298260.0 -0.1313105458 0.1197793209 0.463039051 -0.3102288445 0.4629036996 -0.3105167426 -0.1350619462 0.105798761
295298230.0 -0.1300023872 0.1208908217 0.4591906769 -0.3159496082 0.4598778829 -0.3160456238 -0.1336177271 0.1066490833
300298200.0 -0.1291932481 0.1224684519 0.4565097128 -0.3208093064 0.4565096128 -0.3211033721 -0.1329100272 0.1081385259
305298170.0 -0.1277123772 0.1236048971 0.4525229724 -0.3269888778 0.452922543 -0.3262024021 -0.1310128249 0.1089687872
310298140.0 -0.1266101333 0.1253815407 0.4493069496 -0.3319431499 0.4495638615 -0.3315240546 -0.1304201336 0.1103506161
315298110.0 -0.1253361191 0.1260804192 0.4455353331 -0.3366853143 0.445675038 -0.336656208 -0.1296845741 0.1114066556
320298080.0 -0.1235932449 0.127510569 0.4410073259 -0.3421005901 0.4417907285 -0.3419607848 -0.1286297517 0.1127289789
325298050.0 -0.1227627465 0.1289756452 0.4378890702 -0.3472309131 0.4380588256 -0.3468438723 -0.1280720878 0.1138730903
330298020.0 -0.1214248117 0.1301420098 0.4336945013 -0.352135659 0.4338503186 -0.3518259452 -0.1269683424 0.1153533174
335297990.0 -0.1199463385 0.1312941942 0.4299571358 -0.3563336154 0.4295264973 -0.3572436222 -0.1263892659 0.1167984606
340297960.0 -0.1194454583 0.1330599326 0.4256868484 -0.3614767319 0.425474274 -0.3617261971 -0.1249492937 0.1181830967
345297930.0 -0.1178718256 0.1345086107 0.4216333159 -0.3665076181 0.4216148423 -0.3663745073 -0.1240648702 0.1191918898
350297900.0 -0.11644234 0.1355496449 0.41678924 -0.3710414221 0.4171465763 -0.3707621893 -0.1233165159 0.1210556209
355297870.0 -0.1148155923 0.1374809816 0.4129838783 -0.375485679 0.4132165775 -0.3752797252 -0.122469573 0.1219137184
360297840.0 -0.1136588609 0.1388133008 0.4096387931 -0.3795556623 0.4096143521 -0.3796817638 -0.1213590063 0.1237498488
365297810.0 -0.1124664587 0.1403984861 0.4049006122 -0.3846158155 0.405539549 -0.3848137552 -0.1201998536 0.1252298555
370297780.0 -0.1108828049 0.1413279268 0.4008243888 -0.3886701917 0.4008748056 -0.3890277058 -0.1189984385 0.1264966003
375297750.0 -0.1093885017 0.1428800972 0.3965651349 -0.3934168485 0.396750807 -0.39328126 -0.1179409788 0.127281928
380297720.0 -0.1077147787 0.1443094327 0.3920690703 -0.3979335622 0.3920767016 -0.3971110653 -0.1170957301 0.128490763
385297690.0 -0.106447636 0.145331571 0.3876355536 -0.4020008439 0.3876019778 -0.4019772898 -0.1159371474 0.1305109997
390297660.0 -0.1048008209 0.1471420968 0.3831164194 -0.4064171921 0.3833326729 -0.4058474344 -0.1151565894 0.1314111099
395297630.0 -0.1033050469 0.1485502905 0.3790804196 -0.4103953771 0.3788676279 -0.4103831545 -0.1130129315 0.1325847614
400297600.0 -0.1017283724 0.1497402105 0.3741696185 -0.414810995 0.3742499744 -0.4146781915 -0.1120918604 0.1338421733
405297570.0 -0.1004910642 0.1506022661 0.3695434623 -0.4185894284 0.369468528 -0.4182040846 -0.1109847535 0.1351467422
410297540.0 -0.0985503532 0.1520769913 0.3653247175 -0.4227515982 0.3653111787 -0.4226031389 -0.1099181792 0.1363009553
415297510.0 -0.0968264837 0.1533199559 0.3601280994 -0.4270303274 0.3601387892 -0.4266292153 -0.1086084418 0.1375648203
420297480.0 -0.0952120238 0.1548012842 0.3553097323 -0.4303419196 0.3556658418 -0.4305595468 -0.1073934413 0.1384333415
425297450.0 -0.0935366051 0.1554107189 0.3512437032 -0.4342353047 0.3512428424 -0.4345199561 -0.1064485905 0.1399766417
430297420.0 -0.0916690065 0.1566274929 0.3458578966 -0.4377439405 0.3463049934 -0.437595005 -0.1051307719 0.140589729
435297390.0 -0.0901965477 0.1578782427 0.3408155934 -0.4420487048 0.3408046399 -0.4418146935 -0.1033561559 0.1421015813
440297360.0 -0.0883426252 0.1590922232 0.336438032 -0.4456426186 0.336715902 -0.4455905464 -0.1021910928 0.1428290343
445297330.0 -0.0867315834 0.1600652534 0.3315252675 -0.4492178916 0.3314516532 -0.4486390541 -0.1009738487 0.143815475
450297300.0 -0.0846587006 0.1607585212 0.326475679 -0.4524436656 0.3266377423 -0.452918673 -0.0995589108 0.1446278858
455297270.0 -0.0830772212 0.1621680633 0.3216735263 -0.4561444355 0.3219213059 -0.4563988773 -0.0978871917 0.1457884143
460297240.0 -0.0815712773 0.1631786444 0.3163724801 -0.4598395124 0.3166763558 -0.4596005941 -0.0967203633 0.147196936
465297210.0 -0.0794467635 0.164468954 0.3115810146 -0.4634900701 0.3114642019 -0.4636749059 -0.0950372075 0.1480120415
470297180.0 -0.0777938598 0.1652447038 0.3061554822 -0.4669112881 0.3065331297 -0.4666210663 -0.0934542323 0.1492256452
475297150.0 -0.0758751066 0.1659632436 0.3013012495 -0.4694140012 0.3014505587 -0.4694918967 -0.0918455388 0.1499787067
480297120.0 -0.0740179482 0.167505944 0.2961467294 -0.4735775389 0.2959619641 -0.4731148663 -0.0902528508 0.1511545923
485297090.0 -0.0723765529 0.1680820518 0.291178122 -0.4759844411 0.2911555356 -0.476141769 -0.0888626533 0.152048755
490297060.0 -0.0709867756 0.1693535378 0.2860200867 -0.479656574 0.2861124711 -0.4792310128 -0.0873287542 0.1534643106
495297030.0 -0.0688665085 0.1700471511 0.2803544951 -0.4829969539 0.2810316878 -0.4824337112 -0.0862495656 0.1544092476
500297000.0 -0.0669704035 0.1706891204 0.274884903 -0.4854058902 0.2750238597 -0.48535032 -0.0845168402 0.1559786715
505296970.0 -0.0647821236 0.171842921 0.2701377878 -0.4881905434 0.2698933352 -0.4882303561 -0.0832485796 0.1566653109
510296940.0 -0.0630711358 0.172640671 0.2646642277 -0.4910610895 0.2645974824 -0.4911973526 -0.081427077 0.1574601384
515296910.0 -0.0610269982 0.1735494545 0.2591652815 -0.4941473735 0.2592943132 -0.4943708186 -0.0800450689 0.1585121982
520296880.0 -0.0594654847 0.1745437811 0.2534720112 -0.4971238083 0.2539559782 -0.4968008441 -0.0783676239 0.1592346246
525296850.0 -0.0572861061 0.1746367448 0.2479793755 -0.4994607319 0.2486715431 -0.4992766166 -0.0772233347 0.1602430537
530296820.0 -0.0551561626 0.1759510361 0.2431244427 -0.5025227114 0.2431286651 -0.5023217734 -0.0754954249 0.161506981
535296790.0 -0.0537751314 0.1765914666 0.2378920241 -0.5047812061 0.237976314 -0.5045439628 -0.0740611851 0.1618965256
540296760.0 -0.0519046763 0.1772750067 0.2320876045 -0.5077194431 0.2316505692 -0.5076445068 -0.0726134801 0.1634038814
545296730.0 -0.049987083 0.1778575625 0.2261034468 -0.5094427382 0.2265267187 -0.5096530898 -0.0713763094 0.1640744609
550296700.0 -0.0473870582 0.178890691 0.2207241279 -0.5122421526 0.2208541036 -0.5125644693 -0.0695786703 0.1649395817
555296670.0 -0.04575755 0.1794467048 0.215271988 -0.5148425301 0.2156129663 -0.5143058537 -0.0681183218 0.1658357409
560296640.0 -0.0435928384 0.1804664279 0.2097298075 -0.517326742 0.2097164214 -0.516961124 -0.0662423238 0.1666203927
565296610.0 -0.0417020099 0.1808926698 0.2035985278 -0.5193153429 0.2043500602 -0.5191520567 -0.0650308042 0.1671311148
570296580.0 -0.0399652884 0.1814783193 0.1985362392 -0.521780904 0.1981318884 -0.5214295642 -0.0634610304 0.1686534981
575296550.0 -0.0380859107 0.1822903246 0.1927586346 -0.5236771795 0.19269004 -0.5235810529 -0.0617967415 0.1691900441
580296520.0 -0.0357390642 0.1827058873 0.1868719589 -0.5257290666 0.1869856713 -0.5256089672 -0.060054796 0.169320098
585296490.0 -0.0340592155 0.1829191439 0.1814004607 -0.5272774144 0.1814611778 -0.5275286728 -0.0587310926 0.1702902988
590296460.0 -0.0315868317 0.1837021336 0.1753368835 -0.5287641792 0.1757755949 -0.5290679411 -0.0574241936 0.171035992
595296430.0 -0.0297424082 0.1840672012 0.1694668992 -0.5315678334 0.169958511 -0.5313302482 -0.0550518737 0.1713924306
600296400.0 -0.0278227899 0.1844667972 0.1637791043 -0.5329147974 0.1641572382 -0.5327188868 -0.0539068779 0.1721333778
605296370.0 -0.0259553679 0.1852013492 0.1579512006 -0.534836594 0.1584089089 -0.5344133712 -0.0521422394 0.1726488378
610296340.0 -0.0235296171 0.1854406221 0.1520056274 -0.535996754 0.1525769705 -0.5361028078 -0.0503059998 0.1733069589
615296310.0 -0.021326787 0.1858626178 0.1461344974 -0.5376663377 0.1458451308 -0.5382863694 -0.0483103882 0.1743010228
620296280.0 -0.0196360639 0.1857621514 0.1404755291 -0.5392258328 0.1408641295 -0.5391380664 -0.0468770336 0.1744996905
625296250.0 -0.0178541244 0.1859283224 0.1354136317 -0.5412765724 0.1350123342 -0.5410311265 -0.0448476909 0.1751673955
630296220.0 -0.014916826 0.1865413305 0.1284204322 -0.542514713 0.1284945718 -0.5421742774 -0.0431390093 0.175872316
635296190.0 -0.0138841892 0.1864576925 0.1235896272 -0.5433142575 0.1229951374 -0.5435864149 -0.041648795 0.1762521363
640296160.0 -0.0115188095 0.1870780422 0.1172930321 -0.5448726172 0.1175361085 -0.5446293327 -0.039615237 0.1770250076
645296130.0 -0.009515249 0.187574623 0.1112553699 -0.5457123418 0.1117432913 -0.5460012129 -0.0379348325 0.1774308186
650296100.0 -0.0071768944 0.1876687914 0.1052082824 -0.5472090475 0.1056247995 -0.5470042178 -0.0360480273 0.1773050652
655296070.0 -0.0053500685 0.1877413385 0.0992196623 -0.5482381083 0.0998805321 -0.5481706693 -0.0342990643 0.1783737302
660296040.0 -0.0035663129 0.1877405063 0.093541871 -0.5489296815 0.0940529917 -0.5493714719 -0.0324808787 0.178846941
665296010.0 -0.0011458726 0.1878466334 0.0875959255 -0.5496850945 0.0874872698 -0.5501524832 -0.0304039961 0.179880293
670295980.0 0.0002030243 0.1885942443 0.0820852555 -0.5509441939 0.0818316324 -0.5512398631 -0.0292722051 0.1800993946
675295950.0 0.0027103418 0.1886091608 0.0755211249 -0.5519905135 0.0757487502 -0.55090879 -0.0279727367 0.1804458018
680295920.0 0.0046617564 0.1883424518 0.0693960778 -0.5520915977 0.0695505787 -0.5529701125 -0.0254312039 0.1815469268
685295890.0 0.0072031014 0.1891791841 0.0638001004 -0.5535678063 0.0637645851 -0.5531764796 -0.0240595908 0.181563104
690295860.0 0.0093650072 0.1888361636 0.0578219776 -0.5532716587 0.0578724105 -0.5542055708 -0.0222172461 0.1825060219
695295830.0 0.0109704865 0.1888021818 0.0526822376 -0.5545255398 0.0517141286 -0.5542243523 -0.0204076309 0.1826418246
700295800.0 0.0131138575 0.1885168943 0.0457422689 -0.5545948345 0.0453443192 -0.5546602622 -0.0188209568 0.1832764735
705295770.0 0.0153138177 0.1890823228 0.0392470414 -0.5552140157 0.0401953244 -0.5553731473 -0.0172533947 0.1839013031
710295740.0 0.0173522068 0.1887885682 0.0341792953 -0.5561164413 0.0343167623 -0.5560119644 -0.0151395378 0.1835930449
715295710.0 0.0188550968 0.188920826 0.0284646695 -0.556323181 0.0279229981 -0.5559220913 -0.0136578861 0.1838306356
720295680.0 0.0214671836 0.1886062959 0.0216157886 -0.5564133787 0.0220967173 -0.556297212 -0.0117790066 0.1845125754
725295650.0 0.0237748143 0.1887817782 0.0155328863 -0.5566176736 0.016114206 -0.5565507225 -0.0105768935 0.1849843309
730295620.0 0.0259550337 0.1888690738 0.0100078482 -0.5566422662 0.010088427 -0.5566566143 -0.0087882688 0.1846516574
735295590.0 0.0276736852 0.1888743833 0.0041633327 -0.5570065657 0.0039868852 -0.5567927478 -0.0070209701 0.1848912673
740295560.0 0.029911129 0.1883873151 -0.0017413807 -0.5564804546 -0.0020412041 -0.5566752471 -0.0043044732 0.1852934061
745295530.0 0.0317719355 0.1885204369 -0.0081630691 -0.5561540266 -0.0081232994 -0.5561877553 -0.0029362517 0.1852120446
750295500.0 0.0340922943 0.1882289697 -0.0138887187 -0.5559727769 -0.0139925276 -0.5563830945 -0.0011090809 0.1854136793
755295470.0 0.0363135754 0.1874897535 -0.019994912 -0.5561904258 -0.019644763 -0.556500497 0.0007207259 0.1854730296
760295440.0 0.0380075068 0.1875142451 -0.026380886 -0.5563124649 -0.0262497012 -0.5560185816 0.002564069 0.1856685177
765295410.0 0.0402176218 0.1871446163 -0.0323202492 -0.5554451687 -0.0322658597 -0.5556322134 0.0042945795 0.1856821562
770295380.0 0.0418741944 0.1867434648 -0.0382848662 -0.5555482391 -0.0383346321 -0.5548141309 0.005933138 0.1859443968
775295350.0 0.0439456298 0.1860874639 -0.0445654318 -0.554108924 -0.0436697584 -0.554515353 0.007177131 0.1859729869
780295320.0 0.0460805928 0.1860241317 -0.0500380536 -0.5536756485 -0.0492975248 -0.5538759026 0.0093315133 0.1855262098
785295290.0 0.0481454502 0.1851468186 -0.0563827721 -0.5528385696 -0.0559733684 -0.5531685126 0.0116366576 0.1858570806
790295260.0 0.0506740003 0.1854390233 -0.0614007509 -0.5525790085 -0.0612275686 -0.5522325361 0.0132586586 0.1861257176
795295230.0 0.0523151553 0.1846702838 -0.0679132958 -0.55213327 -0.0673093463 -0.5520994347 0.0156811454 0.1861893025
800295200.0 0.0538835622 0.1844194848 -0.0740883374 -0.5507502018 -0.0738403614 -0.5509081228 0.017366068 0.1861061479
805295170.0 0.0564158496 0.1837291413 -0.0797750261 -0.5503701156 -0.0798013987 -0.5505898923 0.0186897022 0.1859928745
810295140.0 0.0583365456 0.1829763398 -0.0852252206 -0.5489679151 -0.0855838769 -0.5491883993 0.021160292 0.1861274681
815295110.0 0.0602463071 0.1825913895 -0.0912375413 -0.5481371356 -0.0914428511 -0.5481200269 0.0223411964 0.185943713
820295080.0 0.0620932816 0.1822899938 -0.0977895074 -0.5473611088 -0.0970647867 -0.5471221468 0.0245533377 0.1860885426
825295050.0 0.0646897128 0.1814482416 -0.1028838552 -0.5457712951 -0.1027101134 -0.5464515775 0.0267802587 0.1859753621
830295020.0 0.066525602 0.1813118112 -0.109338806 -0.545173867 -0.1094404405 -0.5450008906 0.0291631534 0.1857948008
