!Created with skrf (http://scikit-rf.org).
# Hz S RI R 50.0 
!freq ReS11 ImS11 ReS21 ImS21 ReS12 ImS12 ReS22 ImS22
300000.0 -0.2313379269 -0.1364371377 0.4658782649 0.0892763543 0.46662299 0.0888850141 -0.233932901 -0.1369533955
5299970.0 -0.2421547673 0.0048496525 0.4751706314 0.0062886716 0.4751270446 0.0059354416 -0.2440575302 0.0047747799
10299940.0 -0.2387067342 0.0186728212 0.4773279136 0.0067974673 0.4771896877 0.0069546714 -0.2407887758 0.0172691585
15299910.0 -0.2335524996 0.0287079343 0.4806010777 0.0080620271 0.4810442307 0.0081967296 -0.2366305646 0.026205452
20299880.0 -0.2287498614 0.0369536271 0.4856169814 0.0078869627 0.4855465408 0.0082768485 -0.2315326079 0.033928862
25299850.0 -0.2225845909 0.0436417185 0.4905710429 0.0075554985 0.4912395284 0.0072363056 -0.2267595032 0.0400862196
30299820.0 -0.2171172429 0.0487664942 0.4961083628 0.005087803 0.4961590125 0.0049891994 -0.221203491 0.0447878631
35299790.0 -0.2111322231 0.0528102652 0.5007873945 0.002167602 0.5015471722 0.0018708891 -0.2164877947 0.0492412453
40299760.0 -0.2059815595 0.0560345253 0.5066315751 -0.0020859645 0.5063650471 -0.0020473117 -0.2115041845 0.0520300454
45299730.0 -0.2009512463 0.0590078264 0.5109565497 -0.0064031387 0.5113713375 -0.0066808613 -0.2070424942 0.054972404
50299700.0 -0.1959621306 0.0608967351 0.5151386704 -0.0127217248 0.5154226368 -0.0127577143 -0.2023917435 0.0570255512
55299670.0 -0.1916235701 0.0626558075 0.5189280293 -0.018033234 0.5189877558 -0.0184554355 -0.1990097719 0.0585557336
60299640.0 -0.187791916 0.0641200143 0.5226290471 -0.0248110064 0.5223564289 -0.0247017688 -0.1951322391 0.059801451
65299610.0 -0.1840476518 0.0651186456 0.5255826606 -0.0309280111 0.525411697 -0.0309318374 -0.1917858178 0.0608605103
70299580.0 -0.1808739818 0.0656480907 0.527239694 -0.0372211089 0.52796825 -0.0374662368 -0.1892082751 0.0618866734
75299550.0 -0.1777934968 0.0668337771 0.5292194367 -0.0448115593 0.529767491 -0.044705333 -0.1860342849 0.0627332426
80299520.0 -0.1752823947 0.0675295846 0.5315068076 -0.0511883746 0.5315676358 -0.0513482725 -0.1834577439 0.0634854758
85299490.0 -0.1724031243 0.0684328509 0.5329304795 -0.0581125886 0.5329213824 -0.0582467309 -0.1814994909 0.0639113122
90299460.0 -0.1699360858 0.069215352 0.5332927681 -0.0648837241 0.533495504 -0.0652111561 -0.178911759 0.0648256442
95299430.0 -0.1678824023 0.0696803833 0.534524861 -0.0721041969 0.5347610189 -0.0724905819 -0.1773772832 0.0656204349
100299400.0 -0.1658819968 0.0702893203 0.5347928249 -0.0788109114 0.53480832 -0.0790345099 -0.1756972874 0.0664792303
105299370.0 -0.163887358 0.0708977016 0.5347646034 -0.0854390207 0.535634074 -0.0858883131 -0.1738111128 0.0668124521
110299340.0 -0.1622182937 0.0714413981 0.5352938145 -0.0922853314 0.5357487251 -0.0923328793 -0.1726536767 0.0673549293
115299310.0 -0.1609417687 0.0725771754 0.5354397355 -0.0992041043 0.5357114247 -0.0993725429 -0.171426598 0.068516478
120299280.0 -0.1593545323 0.0733314278 0.5353968213 -0.1067239751 0.5354036636 -0.1064825367 -0.1698987203 0.0687342051
125299250.0 -0.1579376348 0.0739171065 0.5346176418 -0.1123754683 0.5346384147 -0.1130472124 -0.168292587 0.0696782898
130299220.0 -0.1563757455 0.0745076863 0.5343698227 -0.1198714091 0.5338839219 -0.1202424215 -0.1674056961 0.0705678588
135299190.0 -0.1553967958 0.0758572586 0.5337615901 -0.1259038554 0.5338687117 -0.126258208 -0.1664036901 0.071049807
140299160.0 -0.1542803886 0.0766986985 0.5329811507 -0.133046811 0.5326889794 -0.1326585994 -0.1661249958 0.0717049694
145299130.0 -0.1534966569 0.0780122847 0.5316470218 -0.1395584298 0.5318200381 -0.1395521456 -0.164674382 0.0731168443
150299100.0 -0.1520291763 0.0788896118 0.5304773247 -0.1461281392 0.5307519189 -0.1461885854 -0.1638259702 0.0741664722
155299070.0 -0.1507688986 0.0800662503 0.5288072201 -0.1526014139 0.5295324785 -0.1527944992 -0.1627767264 0.0748009128
160299040.0 -0.1497598517 0.0813372304 0.5278157527 -0.159042949 0.5281370978 -0.1592585967 -0.16251509 0.0760553098
165299010.0 -0.1487552462 0.0823963488 0.5267915129 -0.1651193029 0.5264706562 -0.1655425641 -0.1614227287 0.0767163425
170298980.0 -0.1481680643 0.0835030086 0.5249112456 -0.1717163055 0.5254198919 -0.1716550734 -0.1607476499 0.0780291828
175298950.0 -0.1467480315 0.0848814349 0.5235909362 -0.1780667361 0.5240428947 -0.1785782478 -0.160121349 0.0793310474
180298920.0 -0.1461387631 0.0859685248 0.5219069148 -0.1842601349 0.5219985309 -0.184808496 -0.159146431 0.0802769328
185298890.0 -0.1449555832 0.0871044634 0.5201672816 -0.1902310477 0.5199413642 -0.1905304812 -0.1582804491 0.0812003556
190298860.0 -0.1437890897 0.0886783186 0.5175431033 -0.1966251319 0.5180149881 -0.1966379361 -0.1578944913 0.0822772448
195298830.0 -0.1431465699 0.0898389392 0.5162312496 -0.2028477994 0.5161155501 -0.2027381146 -0.1572406704 0.0834956696
200298800.0 -0.141717517 0.0910270183 0.5140016325 -0.2094563825 0.5140355186 -0.2090148848 -0.1562099573 0.0848754709
205298770.0 -0.1414441346 0.0927596984 0.5114403341 -0.2148491624 0.5120727725 -0.2145793527 -0.1552808966 0.086044898
210298740.0 -0.1403358905 0.0941100347 0.5096335385 -0.2210590683 0.509346439 -0.2209140221 -0.1547044028 0.0870765727
215298710.0 -0.1393715837 0.0953944068 0.507176863 -0.2262103296 0.5073017592 -0.2270637323 -0.1541626254 0.0882360672
220298680.0 -0.138268201 0.0969996894 0.5041931268 -0.2327926513 0.5046495449 -0.2330582273 -0.1527390841 0.0894963375
225298650.0 -0.1375920007 0.0982046 0.5017353087 -0.2383959058 0.5019907492 -0.2382211398 -0.1523105253 0.0907641476
230298620.0 -0.1360440174 0.0999060256 0.4995339642 -0.2443475589 0.4998219813 -0.2445227196 -0.1518373936 0.0920747298
235298590.0 -0.1352403611 0.101219375 0.4971769519 -0.2507105222 0.4971718092 -0.2501255539 -0.151099024 0.0934759143
240298560.0 -0.1343608579 0.1028637172 0.4943225733 -0.2557745166 0.4946072393 -0.2557972703 -0.1504110438 0.0946373203
245298530.0 -0.1331715597 0.1039092581 0.4914813301 -0.2617168001 0.4917653045 -0.2615954464 -0.1495435939 0.0962565461
250298500.0 -0.1322489622 0.1053446912 0.4883487524 -0.2671452474 0.489060852 -0.2667575163 -0.1487644027 0.0973297779
255298470.0 -0.1311594889 0.1072154649 0.4865506112 -0.2724078629 0.4864208652 -0.2729351182 -0.1479029178 0.0988728764
260298440.0 -0.1301067692 0.1086107075 0.4833641657 -0.2777683416 0.4832088125 -0.2777775242 -0.1472440061 0.0996985883
265298410.0 -0.1292850215 0.1099985001 0.4802132921 -0.2839972828 0.4798315886 -0.2840335389 -0.145485386 0.1012334445
270298380.0 -0.1282240136 0.1111554388 0.476913075 -0.2891258589 0.4768566047 -0.2891130087 -0.1450195662 0.1030520264
275298350.0 -0.1268787914 0.1131463798 0.4734148643 -0.2942049471 0.4736536365 -0.2948574776 -0.1443692942 0.1045272485
280298320.0 -0.1259866803 0.1141792535 0.4707698797 -0.2995620489 0.4710496735 -0.3002237004 -0.1430111409 0.1057687383
285298290.0 -0.1250207775 0.1158263098 0.4673437711 -0.3050642112 0.4676400371 -0.304930382 -0.1426035924 0.1068943655
290298260.0 -0.1235955706 0.1175105373 0.4643180453 -0.3106455299 0.4643296718 -0.3106141932 -0.1414495697 0.1082533986
295298230.0 -0.1228984038 0.1185556656 0.4604818482 -0.3158846571 0.4607580501 -0.3162784744 -0.1406581082 0.1092471794
300298200.0 -0.1212333199 0.1202115117 0.4578595457 -0.3209649609 0.457567413 -0.3209297318 -0.1396034427 0.1107480873
305298170.0 -0.1202261299 0.1210167067 0.4542653036 -0.3262236444 0.4541548165 -0.3265877482 -0.1385029162 0.1118597037
310298140.0 -0.118532444 0.1225038686 0.4503817964 -0.3313750351 0.4506178924 -0.331470021 -0.1371929359 0.1132808089
315298110.0 -0.1175870255 0.1234507192 0.4469180803 -0.3369633104 0.4470809505 -0.3370423143 -0.1365473247 0.1142623936
320298080.0 -0.1163715635 0.1251199186 0.4431331743 -0.3418828582 0.4432976834 -0.3421229825 -0.1356270397 0.1158299446
325298050.0 -0.1157296289 0.125969521 0.4391412302 -0.3463509294 0.4397310356 -0.34699479 -0.1342228705 0.1167570322
330298020.0 -0.1148379815 0.1276977634 0.4354208976 -0.351826293 0.4357239352 -0.3519531623 -0.1338545257 0.1180652538
335297990.0 -0.1134302059 0.129065776 0.4314115201 -0.3565341149 0.4316526243 -0.3567115838 -0.1328361166 0.1193653955
340297960.0 -0.1126945614 0.1300149386 0.4267660216 -0.3610771633 0.4269308853 -0.3615130064 -0.1316718575 0.1211929609
345297930.0 -0.1114546301 0.1315291951 0.4232259161 -0.3661844559 0.4228754796 -0.3661395687 -0.1305906393 0.121858002
350297900.0 -0.1099409054 0.1328545914 0.4194374584 -0.3703121224 0.4193614131 -0.3704910214 -0.129878801 0.1233532881
355297870.0 -0.1087358816 0.1342671361 0.4151974505 -0.3749389505 0.4150594865 -0.3747548544 -0.1284943771 0.1251121908
360297840.0 -0.107324399 0.1358068485 0.4106169777 -0.3799389255 0.4111812149 -0.3799874542 -0.1277163654 0.1263960669
365297810.0 -0.1063670576 0.1370827546 0.4067799145 -0.3844828021 0.406676771 -0.3843259878 -0.1268909739 0.1273169869
370297780.0 -0.1045712629 0.1384507083 0.4020939368 -0.3887726162 0.4026160311 -0.3888263445 -0.12571925 0.1292373377
375297750.0 -0.1035055932 0.1397320868 0.3979061499 -0.3926902027 0.3983314956 -0.3931769353 -0.1243886874 0.1302554102
380297720.0 -0.102123024 0.1413253557 0.3939331553 -0.3979544323 0.3939082602 -0.3977752766 -0.1231952758 0.1320169885
385297690.0 -0.1006899311 0.1421290164 0.389223138 -0.4019378636 0.389773044 -0.4023702291 -0.1219842882 0.1334196625
390297660.0 -0.099327569 0.1435285897 0.3848136664 -0.405970905 0.3849899086 -0.4059426433 -0.1204674373 0.1342834917
395297630.0 -0.0975350328 0.1447097638 0.3810451363 -0.409542835 0.3808154404 -0.4101361101 -0.1195092548 0.1356630391
400297600.0 -0.0964015346 0.1458586142 0.376333531 -0.4145250167 0.3764876677 -0.4146576682 -0.1181194112 0.137010934
405297570.0 -0.0948897783 0.1464986026 0.3712227235 -0.4179102837 0.3718722774 -0.418716747 -0.116593228 0.1383971338
410297540.0 -0.0930087144 0.1483306564 0.3669648221 -0.4224784009 0.3671172884 -0.4227892842 -0.1155332351 0.1398215351
415297510.0 -0.0918025518 0.1495168376 0.362268874 -0.4261033375 0.3626158343 -0.4266356589 -0.1138565139 0.1407073869
420297480.0 -0.0902891276 0.1502027848 0.35764467 -0.4299370058 0.3578848622 -0.4306073023 -0.1125494147 0.1424866949
425297450.0 -0.0880104001 0.1516726182 0.3527695266 -0.434474394 0.3528585925 -0.4343441066 -0.1115065178 0.1430775823
430297420.0 -0.086819818 0.1523500708 0.3488030731 -0.438667694 0.3486396015 -0.4379079759 -0.1097221726 0.1447835465
435297390.0 -0.085332057 0.1536383893 0.3434135994 -0.4426887979 0.3435487807 -0.4419447304 -0.1089958816 0.1461727761
440297360.0 -0.0835092195 0.1543996099 0.3383895729 -0.4457545093 0.3383833538 -0.4458808083 -0.1074262602 0.1473306194
445297330.0 -0.0818942864 0.1553440957 0.3337684004 -0.4489880069 0.3335699635 -0.4496715068 -0.1055865152 0.148484383
450297300.0 -0.0800435935 0.1565071515 0.3289277798 -0.4528195599 0.3292126535 -0.452930676 -0.1044929927 0.149482405
455297270.0 -0.0787895636 0.1573601309 0.3239746407 -0.4565437248 0.324438237 -0.4566109311 -0.1029394444 0.1507034209
460297240.0 -0.0764224073 0.1586510533 0.3189681578 -0.4606349504 0.3186669145 -0.4603216547 -0.1016804076 0.1515818661
465297210.0 -0.074814317 0.1592330437 0.3135796038 -0.4635053069 0.3137305296 -0.4638384292 -0.099601909 0.1533717929
470297180.0 -0.0731721383 0.1601821406 0.30847335 -0.466519031 0.3093509743 -0.4671489558 -0.0984357893 0.1540168981
475297150.0 -0.071675364 0.1611831694 0.3036137589 -0.4703192654 0.3036955692 -0.4704446506 -0.0967791188 0.1553742403
480297120.0 -0.0693085712 0.1624134583 0.2983501482 -0.4737774911 0.2985038718 -0.4731556306 -0.0954989431 0.1561317751
485297090.0 -0.0676685378 0.1626294467 0.2930290309 -0.4765986316 0.2930952779 -0.4769759311 -0.0939420347 0.1577372167
490297060.0 -0.0653662471 0.1636478416 0.2875591801 -0.480086318 0.2883161878 -0.4802264807 -0.0923813206 0.1584468377
495297030.0 -0.064075518 0.1642789665 0.2832097933 -0.4829041081 0.2829518374 -0.4832972976 -0.0902501746 0.1591971263
500297000.0 -0.0623930253 0.1653749383 0.2774326182 -0.4857075742 0.2774772851 -0.4862837102 -0.0889846777 0.1604206992
505296970.0 -0.0597340574 0.1662883268 0.2726066343 -0.4894217922 0.2719580628 -0.4887364235 -0.0873305895 0.1609698721
510296940.0 -0.0580762105 0.1670975652 0.2669167614 -0.4923664265 0.2670274032 -0.4923215196 -0.0856953079 0.1627128396
515296910.0 -0.0563049778 0.1679761847 0.2610019748 -0.4948695267 0.2611318962 -0.4948602781 -0.0842859405 0.1631032889
520296880.0 -0.0542858141 0.1687771284 0.2559682039 -0.4974016693 0.2554346543 -0.4972509598 -0.0822679113 0.164320046
525296850.0 -0.0522644905 0.1690435734 0.2502982342 -0.5000061026 0.2503221547 -0.5002092813 -0.0808810041 0.1649694956
530296820.0 -0.0509179125 0.169750406 0.2448079409 -0.5032520918 0.2449992099 -0.5026836885 -0.0789357464 0.1657160284
535296790.0 -0.0481798815 0.1705348845 0.2396122311 -0.5053035399 0.2394741419 -0.5054746918 -0.077080478 0.1670387647
540296760.0 -0.0462194898 0.1716212091 0.2337049491 -0.5079244085 0.2338294709 -0.5081134019 -0.0758409736 0.167801269
545296730.0 -0.0447072158 0.1725140448 0.2285356177 -0.5106691932 0.2284495361 -0.5102574887 -0.0740579135 0.1685884884
550296700.0 -0.0420370723 0.1727597302 0.2227854333 -0.512995684 0.2226391776 -0.513211156 -0.0723558471 0.1694812682
555296670.0 -0.0404533024 0.1735008143 0.217346733 -0.5154043132 0.2173394014 -0.5154573653 -0.0708213111 0.169964527
560296640.0 -0.0380674288 0.1738664028 0.2112832432 -0.5176019651 0.211999948 -0.5177888616 -0.0692073777 0.1710204323
565296610.0 -0.0365450101 0.1748127204 0.2063782261 -0.5198192443 0.2061778231 -0.5193931349 -0.0673546998 0.1720228996
570296580.0 -0.0345143106 0.1752161267 0.2005470583 -0.5216831971 0.2005732649 -0.5224362062 -0.0662496414 0.1723864018
575296550.0 -0.0320740559 0.1756477528 0.1950020267 -0.5240859739 0.1945000839 -0.5240624947 -0.0641402393 0.1734392239
580296520.0 -0.0301106006 0.1764996226 0.1891576927 -0.5262232134 0.1889171183 -0.5263811921 -0.0627225896 0.1740063051
585296490.0 -0.0278701635 0.1769705991 0.1836935722 -0.5280470475 0.1830830222 -0.5283091753 -0.0602787483 0.1750377575
590296460.0 -0.0253901345 0.1774406122 0.1777620887 -0.5305672144 0.1776973321 -0.5303363326 -0.0589302868 0.1753824144
595296430.0 -0.0236498554 0.1780930138 0.171416952 -0.5318195322 0.1713842571 -0.5322442923 -0.0570334914 0.1762005008
600296400.0 -0.0216918742 0.1784404457 0.1658137706 -0.5336836447 0.1655670223 -0.534183895 -0.0552382713 0.1769043678
605296370.0 -0.0197675388 0.178880551 0.1602053944 -0.5353139308 0.160085237 -0.5355160599 -0.0538070286 0.177627987
610296340.0 -0.0172752563 0.1796301006 0.1544808124 -0.5367326051 0.1543870812 -0.5369145102 -0.0521876852 0.1786346508
615296310.0 -0.0152789048 0.1799549936 0.1482433595 -0.5393126563 0.1480867762 -0.5390411361 -0.0499891074 0.1789764774
620296280.0 -0.013493067 0.1805836008 0.1424009006 -0.5403401027 0.1424117493 -0.5403916686 -0.0488241474 0.1796768248
625296250.0 -0.0116038434 0.1807043612 0.1369456864 -0.5419698595 0.1368962537 -0.5419703693 -0.0469370894 0.1800064807
630296220.0 -0.0092983192 0.1812038017 0.1304263467 -0.543504548 0.1305404331 -0.5434474602 -0.0448548993 0.1807529851
635296190.0 -0.0075909013 0.1817493855 0.1255942876 -0.5443771018 0.1247915556 -0.5445289184 -0.0433517295 0.1814006251
640296160.0 -0.0051919714 0.1818629554 0.1189595363 -0.5463307336 0.1187580811 -0.5457559805 -0.0416729358 0.1817948089
645296130.0 -0.0029806633 0.1825222993 0.1131164289 -0.5470771348 0.1132103079 -0.547047586 -0.0400388414 0.181995133
650296100.0 -0.0009824058 0.1825385941 0.1076115747 -0.5485824778 0.1066457045 -0.548412092 -0.0372608304 0.1828710397
655296070.0 0.0007607922 0.1828766392 0.1010999359 -0.5492960141 0.1011031601 -0.5490637556 -0.0363099252 0.1834343443
660296040.0 0.0030595553 0.1833913005 0.0953235073 -0.5504202444 0.0953191143 -0.550768802 -0.0343142427 0.1836375836
665296010.0 0.0053784097 0.183614566 0.0884744494 -0.5511356149 0.0890850581 -0.5511934737 -0.0327499216 0.1841298025
670295980.0 0.0070894646 0.183774975 0.0833362283 -0.5520324098 0.0831752524 -0.5519510023 -0.0311117615 0.1843888368
675295950.0 0.0090859707 0.1839361598 0.0773107725 -0.5529033126 0.0775428353 -0.5531776347 -0.0290990856 0.185261867
680295920.0 0.0107356242 0.1842951875 0.071641227 -0.5538199487 0.0715262056 -0.5536045896 -0.0271809969 0.1854135275
685295890.0 0.0134783091 0.1844664776 0.0652751138 -0.5549124351 0.0650046596 -0.5547017542 -0.0253738343 0.1860011448
690295860.0 0.0150075518 0.1846324336 0.0595430551 -0.5551403731 0.0591421451 -0.5552813793 -0.0237511731 0.1864026965
695295830.0 0.0173942296 0.1843728585 0.0537039851 -0.5558647642 0.0536292063 -0.555624689 -0.0219335482 0.1869502919
700295800.0 0.0192877772 0.1847169887 0.0481359608 -0.5561777326 0.0477043966 -0.5562118829 -0.0198691298 0.1868831282
705295770.0 0.0211589053 0.1847483364 0.0413999287 -0.5569556016 0.041381662 -0.5567010425 -0.0181704638 0.1878266227
710295740.0 0.0231941302 0.1847184703 0.0356287532 -0.5573168856 0.035345342 -0.5574310692 -0.0161347081 0.1880348722
715295710.0 0.0254730679 0.1847766059 0.0294268112 -0.5579900321 0.0292324105 -0.557605579 -0.0144893072 0.1881416484
720295680.0 0.0275454781 0.1846778248 0.023477727 -0.5576306893 0.0233911895 -0.5577928824 -0.0125973412 0.1883752877
725295650.0 0.0290763343 0.1847977412 0.0178709389 -0.5581121702 0.0173721321 -0.5580642369 -0.0111155172 0.189318777
730295620.0 0.0305374261 0.1846398172 0.011799064 -0.5576640151 0.0111960328 -0.55758164 -0.009258748 0.1894397251
735295590.0 0.0330529255 0.1847198314 0.0057172984 -0.5581238486 0.0055674603 -0.5583610094 -0.0074157353 0.1893166074
740295560.0 0.0348070463 0.1842643419 -0.0003398478 -0.558184173 -0.0004808937 -0.5583053424 -0.0053544135 0.1896546498
745295530.0 0.0369842755 0.1843108565 -0.0063072138 -0.5575759632 -0.0055835683 -0.5578839181 -0.0040565602 0.1898579972
750295500.0 0.0384020887 0.1844050656 -0.0118471882 -0.5575708206 -0.012422131 -0.5579893178 -0.0022009681 0.1901998444
755295470.0 0.0403880484 0.1841137514 -0.0178764693 -0.5579562016 -0.0182561025 -0.5580977829 -0.0001411802 0.1908386705
760295440.0 0.0424233092 0.1842248697 -0.0245405696 -0.5572331361 -0.0245132198 -0.5572377688 0.0017965846 0.1898544103
765295410.0 0.0448772867 0.1835309346 -0.0300782701 -0.5574920191 -0.0300370484 -0.5573138058 0.0035702854 0.1905818485
770295380.0 0.0466867743 0.1836180258 -0.0360863079 -0.5562036202 -0.0361502442 -0.5572892297 0.0048605765 0.190765516
775295350.0 0.0483874952 0.1830165834 -0.041832351 -0.5567528944 -0.0419871136 -0.5560302656 0.0073168955 0.1906904242
780295320.0 0.0504140518 0.182990353 -0.0476843825 -0.5549609815 -0.047946049 -0.5557348632 0.0093651337 0.1908277937
785295290.0 0.0521486974 0.1822808329 -0.053917345 -0.5553411573 -0.0539263367 -0.5554257804 0.0104877769 0.1911927011
790295260.0 0.0541741336 0.1817531411 -0.0595172485 -0.5546095885 -0.0597135089 -0.5549433044 0.0126081886 0.1914257824
795295230.0 0.0559304213 0.1813484361 -0.0659175265 -0.554154575 -0.0659652083 -0.5542757836 0.0145519697 0.1907822073
800295200.0 0.0579200352 0.1813913866 -0.0714681154 -0.5533622241 -0.0716792425 -0.553230216 0.0161206774 0.1910611139
805295170.0 0.0594680114 0.1809914754 -0.07735778 -0.5521353007 -0.0776482554 -0.5528393303 0.0187225884 0.1911486663
810295140.0 0.0618362612 0.1805139704 -0.0834284957 -0.5513815924 -0.083697129 -0.5515138035 0.0204275456 0.1910726778
815295110.0 0.0634796982 0.1802223208 -0.0894680293 -0.5506776794 -0.0891488848 -0.5507824508 0.0215865963 0.1910307481
820295080.0 0.0655131392 0.1794619488 -0.0953316624 -0.5493010133 -0.0954077294 -0.5498858329 0.0231013072 0.1915393843
825295050.0 0.0670144563 0.178733733 -0.1008656425 -0.5484966034 -0.1012045804 -0.5486152737 0.0258784981 0.1916379266
830295020.0 0.0691347635 0.1782083779 -0.1071517388 -0.5472064763 -0.1073021771 -0.5477100415 0.027549551 0.1909285352
