!Created with skrf (http://scikit-rf.org).
# Hz S RI R 50.0 
!freq ReS11 ImS11 ReS21 ImS21 ReS12 ImS12 ReS22 ImS22
300000.0 -0.2396848502 -0.096902642 0.4672017433 0.0642961141 0.467380143 0.0682352183 -0.2354289649 -0.1071910843
5299970.0 -0.2440269124 0.0071226735 0.4742078181 0.0050318453 0.4739750268 0.0064768903 -0.2439730504 0.0058364778
10299940.0 -0.240006834 0.0198387214 0.4759032292 0.0065000986 0.4760694996 0.0066319625 -0.2411677476 0.0183110177
15299910.0 -0.2360990129 0.029418568 0.4794335584 0.0079520402 0.4791054217 0.0082319192 -0.2368976331 0.0274417038
20299880.0 -0.2303041768 0.0374071562 0.4840102417 0.0084862859 0.4844152832 0.0083553647 -0.2321530328 0.0354950305
25299850.0 -0.2247056185 0.0436814489 0.4891322978 0.0067336323 0.4897111107 0.0076527809 -0.2270712574 0.0418481115
30299820.0 -0.2187657902 0.0484113952 0.4951389454 0.0056869265 0.494948278 0.0052465094 -0.2216865329 0.0469576656
35299790.0 -0.2129370182 0.0528243919 0.5003882574 0.002215366 0.5002729636 0.0024977655 -0.2164934846 0.0509555279
40299760.0 -0.20758445 0.0557633212 0.5053807885 -0.0013872643 0.5055793447 -0.0018131352 -0.2114328511 0.054638262
45299730.0 -0.2028343603 0.0584169071 0.5102421996 -0.0067015479 0.5101434455 -0.0063767512 -0.2066233481 0.0572103912
50299700.0 -0.1977744104 0.0602655571 0.5141898139 -0.012110369 0.5144682443 -0.0120181337 -0.2020063963 0.0596417676
55299670.0 -0.1936904844 0.0617232459 0.5177974298 -0.0179403026 0.5182273965 -0.0180316725 -0.1984950298 0.0613054056
60299640.0 -0.1893642172 0.0627905054 0.5211057936 -0.0246067316 0.5212954231 -0.0242670963 -0.1945106526 0.0631017425
65299610.0 -0.1859719463 0.0639137264 0.5245938767 -0.0300305489 0.5246268254 -0.0306027815 -0.1910412866 0.0645528869
70299580.0 -0.1825789242 0.0643364787 0.5266825068 -0.0369871818 0.5268212976 -0.0372362374 -0.1881478723 0.0654311427
75299550.0 -0.1795209072 0.0651717357 0.5286596683 -0.0440033315 0.528968051 -0.0442357756 -0.1851561779 0.0668290925
80299520.0 -0.1772041829 0.0659767808 0.5309824624 -0.0509909333 0.5308239171 -0.0507350563 -0.1824743112 0.0674324244
85299490.0 -0.1746433794 0.0660268468 0.532299387 -0.0577413217 0.531930838 -0.0580483865 -0.1802059384 0.0681954332
90299460.0 -0.1727053404 0.0663900532 0.5331852265 -0.0645654873 0.5333334728 -0.0647536659 -0.1777267769 0.0692801538
95299430.0 -0.1706615034 0.0671288815 0.5343557116 -0.0721085239 0.534550052 -0.0714847742 -0.1762931921 0.0703735462
100299400.0 -0.1688967558 0.067750083 0.5344800556 -0.0784488277 0.5346830141 -0.0785805987 -0.1746137277 0.0707406287
105299370.0 -0.1671153446 0.0680776654 0.5346727651 -0.0852075592 0.5350018152 -0.0854942382 -0.1721503708 0.0717541423
110299340.0 -0.1655784537 0.0683243471 0.5346542932 -0.091834982 0.5348916482 -0.0924248209 -0.1706135016 0.072783325
115299310.0 -0.1638955672 0.0687428032 0.534502692 -0.099269668 0.5351711791 -0.0991053182 -0.1688893219 0.0729690618
120299280.0 -0.1628173899 0.0694891163 0.534789781 -0.1061395992 0.5346904213 -0.1060833589 -0.1679057675 0.0741332794
125299250.0 -0.1617988578 0.0699328477 0.5344711074 -0.1126209828 0.534597097 -0.1128102285 -0.1663785364 0.0747724718
130299220.0 -0.1603848055 0.0705317231 0.5335228904 -0.1189998974 0.5336691893 -0.1196790415 -0.1650369879 0.0761935397
135299190.0 -0.1592188804 0.0712309974 0.5333135085 -0.1258088024 0.5328492071 -0.1263464242 -0.1641408379 0.0769316941
140299160.0 -0.1585251505 0.0720071178 0.5322995427 -0.1325638175 0.5326237433 -0.1326575571 -0.1628807052 0.0779935423
145299130.0 -0.1572816834 0.0727317772 0.5313848171 -0.1394217991 0.5313316153 -0.1390566576 -0.1620041074 0.0788555791
150299100.0 -0.1565121377 0.0733953572 0.5303954632 -0.145717729 0.5301305591 -0.1456614042 -0.1608760653 0.0797046743
155299070.0 -0.1558050668 0.0748262014 0.5289449309 -0.1527084266 0.5290714032 -0.1527366063 -0.1601740011 0.0811867901
160299040.0 -0.1549505466 0.0753598754 0.5274049521 -0.15864709 0.5275251231 -0.1587510536 -0.1587725924 0.0825690639
165299010.0 -0.1543725931 0.0761270794 0.5264884791 -0.1654894013 0.5265399907 -0.1653709152 -0.158211197 0.0833196624
170298980.0 -0.1534981054 0.0770781931 0.5241074389 -0.1715515441 0.5247518953 -0.1716903207 -0.1567662049 0.0844939552
175298950.0 -0.1526788269 0.0783425825 0.523670661 -0.1775498589 0.5232510602 -0.1778927286 -0.1558401275 0.0857639916
180298920.0 -0.1516698198 0.0790912542 0.5212773557 -0.1842218427 0.5215509947 -0.1840556079 -0.1547814704 0.0873121221
185298890.0 -0.1510544048 0.0802766129 0.5191670528 -0.1907164941 0.519643295 -0.1902450568 -0.1541027156 0.0880958931
190298860.0 -0.150306734 0.0813356603 0.5177288402 -0.1970061417 0.5178182587 -0.1966005315 -0.1525605655 0.0894619132
195298830.0 -0.1497032031 0.0820635012 0.5156418804 -0.2025584753 0.5157121841 -0.2031563395 -0.1523363776 0.090521894
200298800.0 -0.1489950077 0.0833565264 0.5138834208 -0.2084276701 0.5132857074 -0.20857415 -0.1506059395 0.0923934259
205298770.0 -0.1480251013 0.0845845345 0.511786547 -0.2145339236 0.5115156252 -0.2148313024 -0.1501690891 0.0932059523
210298740.0 -0.1475382749 0.0856468315 0.5094144609 -0.2211900448 0.5093431306 -0.2214400872 -0.1488454872 0.0949092489
215298710.0 -0.1466244532 0.086641379 0.5070162002 -0.2265311326 0.5070901092 -0.2268466601 -0.1484356374 0.096095973
220298680.0 -0.145923926 0.0881794762 0.5043083679 -0.2328196837 0.5045234816 -0.2326942299 -0.1470216714 0.0976798624
225298650.0 -0.1448519977 0.0894593781 0.5016524639 -0.238366473 0.5017817412 -0.2383935024 -0.1462724696 0.0992219057
230298620.0 -0.1445621345 0.0904811233 0.4997097745 -0.2444205819 0.4996366651 -0.2445987576 -0.1453028682 0.1003762041
235298590.0 -0.1436676298 0.0914361834 0.4970288547 -0.2497689611 0.497222396 -0.2502668837 -0.144072922 0.101377107
240298560.0 -0.1432221828 0.0929435378 0.4944697229 -0.2554098056 0.4940506739 -0.2554990168 -0.1431654662 0.1030911389
245298530.0 -0.1420192852 0.0940814168 0.4907910737 -0.2612592365 0.4910926795 -0.2616258914 -0.1417966356 0.1050136217
250298500.0 -0.1415303783 0.0952991165 0.4883556583 -0.2666739345 0.488781986 -0.2667179638 -0.1406376872 0.1061297189
255298470.0 -0.140535405 0.0966016285 0.4854025195 -0.2727852675 0.4858472757 -0.2727438538 -0.1395691406 0.1074452828
260298440.0 -0.1396555382 0.0979637792 0.4825297086 -0.2779658511 0.4826891058 -0.2782467662 -0.1382708275 0.1090081751
265298410.0 -0.1386338693 0.0994173013 0.4796154898 -0.2839473859 0.4793210482 -0.2834577826 -0.1374328511 0.1103527191
270298380.0 -0.1376868313 0.1007406004 0.4759392608 -0.2889727317 0.4767889139 -0.2894514362 -0.1362468073 0.1122344529
275298350.0 -0.1373225876 0.1018922784 0.4736184031 -0.2947809829 0.4734355233 -0.2950103775 -0.1349807832 0.1131999756
280298320.0 -0.1361683345 0.1034189654 0.4701727129 -0.2999984903 0.4700580339 -0.3002217316 -0.1335068786 0.1149796239
285298290.0 -0.1353230185 0.1047001521 0.4668044571 -0.3050937492 0.46698179 -0.3053248891 -0.1327157435 0.1162072917
290298260.0 -0.134372341 0.1057960795 0.463956031 -0.3105245878 0.4635449785 -0.3110011794 -0.1307279999 0.1180366339
295298230.0 -0.133238318 0.1070736608 0.4604089484 -0.3155188967 0.4602081007 -0.316048253 -0.1298348537 0.1193235496
300298200.0 -0.1319289297 0.1083260139 0.4568262381 -0.3211422236 0.4569541181 -0.3213023437 -0.12857981 0.1208808254
305298170.0 -0.1311997278 0.1096623714 0.4534693294 -0.3265858232 0.4535466273 -0.32645503 -0.1267984294 0.122496308
310298140.0 -0.1298055465 0.1107822632 0.4502160464 -0.3321684492 0.4500355967 -0.3321201123 -0.1256260993 0.1240414769
315298110.0 -0.1291027439 0.1120407396 0.4462642331 -0.3370022497 0.4460940653 -0.3372015181 -0.124210467 0.1250929323
320298080.0 -0.1280358631 0.1132618332 0.4422730123 -0.3424068422 0.4425345836 -0.3422401742 -0.123131227 0.12627037
325298050.0 -0.1271475491 0.1142476138 0.4389434848 -0.3476076203 0.4390233493 -0.3473099011 -0.121562609 0.1277677001
330298020.0 -0.1262544839 0.1152747854 0.4337948946 -0.351950149 0.4344051672 -0.3523349746 -0.1205004174 0.1289551542
335297990.0 -0.1250639833 0.1167493616 0.4304456361 -0.3576577827 0.4309762709 -0.3571523437 -0.1192536621 0.1303084481
340297960.0 -0.124954882 0.1180582277 0.4261168286 -0.3620315932 0.4264978586 -0.3615562245 -0.1180726009 0.1317629421
345297930.0 -0.1237164734 0.119612611 0.4222038314 -0.3661953194 0.4217620557 -0.3659320151 -0.1162593833 0.1330255225
350297900.0 -0.1221126005 0.1206712096 0.4181036073 -0.3705580958 0.4184135537 -0.3710367622 -0.1151418887 0.1351191659
355297870.0 -0.1215755737 0.1220380175 0.4136885369 -0.3756727335 0.4136963767 -0.3759825513 -0.1137788748 0.1363046079
360297840.0 -0.1201775369 0.1233884971 0.4099437581 -0.3802940577 0.4097201658 -0.3802345914 -0.1121447933 0.1378879426
365297810.0 -0.1191730945 0.1247627354 0.4052835282 -0.3845737305 0.4053918204 -0.3848504255 -0.1105046137 0.1395412514
370297780.0 -0.1179565443 0.1258194155 0.4012020185 -0.3887972661 0.4011589484 -0.3894318428 -0.1092886586 0.1406433214
375297750.0 -0.1168253139 0.1275301517 0.3973588945 -0.3936879644 0.3971049109 -0.3937421881 -0.1078595503 0.1421284172
380297720.0 -0.1154155546 0.1285122677 0.3925481907 -0.3979532437 0.3927671155 -0.3981661608 -0.1061960372 0.1439361888
385297690.0 -0.1142442189 0.130013748 0.387983736 -0.4021838796 0.3881408503 -0.4020688105 -0.1049360297 0.1452613911
390297660.0 -0.1131730988 0.1309463587 0.3835120244 -0.4063892788 0.3838704211 -0.4067276268 -0.1029436626 0.1463034349
395297630.0 -0.1116207465 0.1320952591 0.3794722775 -0.4105469522 0.3795055269 -0.4104817219 -0.1013150976 0.1477859392
400297600.0 -0.11075073 0.1335476354 0.3748347199 -0.414564221 0.3750534735 -0.4151731445 -0.1004148828 0.1488379391
405297570.0 -0.1091993641 0.134715614 0.3701346884 -0.4190977986 0.3702456384 -0.4191425302 -0.0985984758 0.1507120416
410297540.0 -0.1078255116 0.1358293565 0.3650313155 -0.4229692823 0.365487255 -0.4228508262 -0.0968783798 0.1518288945
415297510.0 -0.1069171486 0.1372683427 0.361075546 -0.4266770183 0.3611112928 -0.4267671964 -0.0950099757 0.1531762907
420297480.0 -0.1051993212 0.1379094875 0.3558971212 -0.4311664115 0.356153071 -0.4309363613 -0.0934888107 0.1541730524
425297450.0 -0.1036826627 0.1389592556 0.3509327234 -0.4345638962 0.3517980508 -0.4347987458 -0.0919296872 0.1559038115
430297420.0 -0.1028742559 0.1406463852 0.3464987087 -0.4389126786 0.3467928951 -0.4387092944 -0.0904324575 0.1568169949
435297390.0 -0.1012962345 0.1415821343 0.3420966687 -0.4423706092 0.3419119152 -0.4421647963 -0.0883338337 0.1582990555
440297360.0 -0.0999388729 0.1425395982 0.3367511874 -0.4458657575 0.3365105524 -0.4457182563 -0.0865338309 0.1588133389
445297330.0 -0.0982437822 0.1438001865 0.3315640336 -0.450278921 0.3318218259 -0.4495111321 -0.0848346126 0.1602679449
450297300.0 -0.0967794733 0.1445186838 0.3264982295 -0.4531963547 0.3273679685 -0.4534744579 -0.0834904528 0.1616286699
455297270.0 -0.0958199607 0.1458846549 0.3222291461 -0.4569308787 0.3222241031 -0.4565966491 -0.0812655781 0.1625640056
460297240.0 -0.0943639264 0.1470460536 0.3169080236 -0.4602220758 0.3168115015 -0.4602256307 -0.0796013181 0.1642625359
465297210.0 -0.0924878756 0.147997168 0.3119420873 -0.463711511 0.3124818624 -0.4635680689 -0.0782868878 0.1646365218
470297180.0 -0.0915231714 0.148842014 0.3071400378 -0.4665873211 0.3070366146 -0.4669672865 -0.0767101043 0.1661754289
475297150.0 -0.0900417119 0.149480524 0.3018751443 -0.4696593205 0.3017628203 -0.4693806323 -0.0744366661 0.1668899205
480297120.0 -0.0881663416 0.1504135648 0.2965509105 -0.4731620733 0.2969591432 -0.4734316884 -0.0728368793 0.1684491137
485297090.0 -0.0866770432 0.1517567445 0.2913283281 -0.4768156934 0.2914644629 -0.4767347555 -0.0713255489 0.1689818299
490297060.0 -0.0855692227 0.1525829769 0.2864447703 -0.479946167 0.286594423 -0.4799069847 -0.0694006054 0.1699941612
495297030.0 -0.0842460695 0.1537622861 0.2808432534 -0.4830048929 0.2808898501 -0.4826590343 -0.0672871953 0.1706234474
500297000.0 -0.0824259175 0.154355477 0.2755399112 -0.4859542761 0.275885293 -0.4858177207 -0.0657668401 0.171825194
505296970.0 -0.0811114709 0.1554270142 0.270056618 -0.4887678843 0.2704423193 -0.4886525973 -0.0643531406 0.1728462985
510296940.0 -0.0796245008 0.156135067 0.2651349511 -0.4915291938 0.2651261618 -0.4916563735 -0.0618580408 0.1741760583
515296910.0 -0.078487834 0.1573066079 0.2595228505 -0.4940299608 0.2597117483 -0.494310786 -0.0601727932 0.1746191945
520296880.0 -0.0765120136 0.1581125282 0.2540376545 -0.497251148 0.254305802 -0.4971092557 -0.0582955256 0.1757223126
525296850.0 -0.0751876193 0.1589194432 0.2490645994 -0.4997745179 0.2493631621 -0.5001955875 -0.0558648788 0.1764242
530296820.0 -0.0734032268 0.1596323558 0.2435175049 -0.502358871 0.2435537661 -0.502243983 -0.0547487481 0.1769605483
535296790.0 -0.0720002561 0.1603861033 0.2379225894 -0.5046057113 0.2382870928 -0.5045933701 -0.052719748 0.1773761406
540296760.0 -0.070356385 0.1610912349 0.232362205 -0.5076465139 0.232087237 -0.5078499203 -0.0511245764 0.1786364846
545296730.0 -0.0688886953 0.1622502727 0.226653663 -0.5099602325 0.2269493289 -0.5104216866 -0.0492047761 0.1789184126
550296700.0 -0.067551141 0.1630714815 0.2214182687 -0.5124985061 0.2219603383 -0.5126634024 -0.0470736449 0.1803887404
555296670.0 -0.0653611756 0.1635532241 0.2156775244 -0.514678903 0.2160738635 -0.5148121751 -0.045365823 0.1807621982
560296640.0 -0.0640256139 0.1643523045 0.2103741897 -0.5168234315 0.2103952772 -0.5165896166 -0.0431442227 0.1813346779
565296610.0 -0.06301637 0.165071043 0.2046686721 -0.5190452807 0.2043733034 -0.5193859212 -0.0416082248 0.1818040294
570296580.0 -0.0606583277 0.1658532943 0.1992243723 -0.5213040703 0.1991152391 -0.5213187279 -0.0394123802 0.1831598311
575296550.0 -0.0594599619 0.1670226289 0.1934560633 -0.5232950704 0.1936062798 -0.5235786964 -0.0373895746 0.1834573728
580296520.0 -0.057837855 0.1673534647 0.1882447053 -0.5254029277 0.187535078 -0.5255071385 -0.0355882358 0.1841537891
585296490.0 -0.0557437343 0.1678300107 0.1820701987 -0.5274995055 0.1820109247 -0.5276163815 -0.033586156 0.1839390092
590296460.0 -0.0547340801 0.1684038109 0.1764438943 -0.5292906989 0.1758968059 -0.529914336 -0.0313700961 0.185053187
595296430.0 -0.0529519039 0.1694040993 0.1707151543 -0.5313246649 0.170455021 -0.5314571199 -0.0292368592 0.1852053086
600296400.0 -0.0514128357 0.1700484002 0.1650975679 -0.5330127171 0.1650043387 -0.5332244052 -0.027369769 0.185899901
605296370.0 -0.0493850567 0.1708515961 0.1587202856 -0.5350409606 0.1591958934 -0.5345841474 -0.0254699435 0.1864672847
610296340.0 -0.0480577922 0.1711481466 0.1535434115 -0.5364837585 0.1532986535 -0.5368275552 -0.0232727258 0.1868144481
615296310.0 -0.0463556488 0.1720904612 0.1471135525 -0.5375878568 0.147613579 -0.5379408773 -0.0215205195 0.1871582329
620296280.0 -0.0448069226 0.1724218295 0.1416678483 -0.5394139719 0.14186406 -0.5395207155 -0.0194390955 0.18712575
625296250.0 -0.0428903503 0.1731915851 0.1354747835 -0.5413213181 0.1355517427 -0.5411155639 -0.0173972623 0.1878526496
630296220.0 -0.0411102378 0.1739334096 0.1297203283 -0.5427206961 0.130389188 -0.5425969934 -0.0157414146 0.1883721159
635296190.0 -0.0395591033 0.1743457878 0.1237698437 -0.5435164713 0.1238621055 -0.5433869599 -0.0135090142 0.1884573356
640296160.0 -0.038070298 0.1745065985 0.1181861634 -0.5449309969 0.1180391816 -0.5451147578 -0.0111309072 0.188638421
645296130.0 -0.0360876674 0.1755654093 0.1119102609 -0.5465910604 0.1120837321 -0.5463350073 -0.0097152785 0.1889493179
650296100.0 -0.0345087815 0.1761020884 0.106406375 -0.5473789179 0.106484094 -0.5470214713 -0.0076429811 0.1894263761
655296070.0 -0.0327668809 0.1763553098 0.100326993 -0.5486656577 0.100439881 -0.548382385 -0.0052137161 0.1897130773
660296040.0 -0.0314454795 0.1770728232 0.0946841381 -0.5491644937 0.0943730297 -0.5493851003 -0.0030478655 0.1897181407
665296010.0 -0.0292109206 0.1771838304 0.0885162181 -0.550368772 0.0891136447 -0.5500531733 -0.0012592256 0.1901183064
670295980.0 -0.0272844211 0.1776563953 0.0828826054 -0.5513221433 0.0830265964 -0.551317985 0.0006734987 0.1899089175
675295950.0 -0.0256072906 0.1779913767 0.0764670101 -0.5517394683 0.07711326 -0.5525182201 0.0029590292 0.1903788805
680295920.0 -0.0243133022 0.1789712054 0.0706086125 -0.5530534781 0.0705214192 -0.5532813236 0.0052890436 0.190196602
685295890.0 -0.022418051 0.1787871657 0.0649540172 -0.5536642123 0.0646518984 -0.5540785795 0.0071109494 0.1906101426
690295860.0 -0.0203522165 0.1795239811 0.0584069322 -0.5538850742 0.0583824065 -0.553856649 0.009349145 0.1905619837
695295830.0 -0.0184279961 0.1793217768 0.0519907512 -0.5544246604 0.052484287 -0.5550528835 0.0111106146 0.1908547681
700295800.0 -0.0164930547 0.1798484421 0.0461136956 -0.5554365031 0.0466598321 -0.5553639472 0.013517915 0.1902782437
705295770.0 -0.0151155842 0.1803116925 0.040438518 -0.5559112614 0.0410231416 -0.5560025451 0.0152115982 0.1906323891
710295740.0 -0.013422713 0.180930407 0.0346769025 -0.5561175784 0.0344735692 -0.5559686386 0.0167266331 0.190450376
715295710.0 -0.0116270999 0.1808273737 0.0287834583 -0.5560877546 0.0289211554 -0.5563421205 0.0192836074 0.1902460049
720295680.0 -0.0101775582 0.1809244732 0.0226590845 -0.556688542 0.0229371481 -0.5575968821 0.0216318949 0.1905293497
725295650.0 -0.0078441042 0.1814517948 0.016325539 -0.5564545342 0.016664842 -0.5569795333 0.0237983443 0.1905271434
730295620.0 -0.0065114179 0.1815379556 0.0106161526 -0.5566690088 0.0105494447 -0.5567987875 0.0260861243 0.1897849602
735295590.0 -0.0042194644 0.1818268469 0.0049700114 -0.5570679731 0.0049382576 -0.5572562467 0.028145082 0.1899422134
740295560.0 -0.0026133394 0.1821789091 -0.0012443108 -0.5560779295 -0.0012257571 -0.5567594827 0.0299629789 0.1896091508
745295530.0 -0.0008805944 0.1821260373 -0.0074268125 -0.5569183309 -0.0071989942 -0.5570700476 0.0318897128 0.189865648
750295500.0 0.0008956307 0.1821963602 -0.0131678893 -0.5567215692 -0.0133154422 -0.5567155526 0.034332527 0.189265769
755295470.0 0.0030975794 0.1827002958 -0.0195815897 -0.5564567125 -0.0192234422 -0.5567535295 0.0356051397 0.1893446257
760295440.0 0.0043676462 0.1827157009 -0.0252179912 -0.5561942732 -0.0253803992 -0.556574627 0.0377811395 0.1890566563
765295410.0 0.0060500654 0.1824060508 -0.0307141405 -0.5555306092 -0.0308390696 -0.5561636305 0.0408053964 0.1891220694
770295380.0 0.0083863666 0.1828846474 -0.0372939018 -0.555335125 -0.0371302762 -0.5555499431 0.0427883243 0.1886663965
775295350.0 0.0099069273 0.1830676263 -0.0432600422 -0.5546851589 -0.0431669253 -0.5547438017 0.0441015765 0.1876967336
780295320.0 0.0121546717 0.1830398854 -0.0487651259 -0.5547911206 -0.048899057 -0.5547384353 0.0465430714 0.188048469
785295290.0 0.0133921723 0.1833133246 -0.0549480902 -0.5535526832 -0.0550044037 -0.5540940182 0.048078662 0.187519485
790295260.0 0.0152738231 0.1831905817 -0.0610253019 -0.553443548 -0.0611189798 -0.5536409566 0.0507820794 0.1870016707
795295230.0 0.0170733839 0.1833091113 -0.0665417083 -0.5521401967 -0.0668951876 -0.5526112184 0.0525075383 0.1872657945
800295200.0 0.0192408239 0.1833515633 -0.0735216456 -0.5518025054 -0.0729208229 -0.552099613 0.0547186767 0.186289282
805295170.0 0.0203490173 0.1831820648 -0.0785714111 -0.5504240235 -0.0787870338 -0.5506718556 0.0562539469 0.1855125951
810295140.0 0.0226464766 0.183079292 -0.0846084525 -0.5498615345 -0.0845846681 -0.5504869601 0.0586450096 0.1856385313
815295110.0 0.0243528558 0.1832150559 -0.0909553346 -0.5486102013 -0.0908445408 -0.5488882946 0.0605269602 0.1848020254
820295080.0 0.0260239786 0.1826995284 -0.0965204903 -0.5481985227 -0.0967217031 -0.5483697652 0.0621681875 0.1844425141
825295050.0 0.0280068678 0.1827833099 -0.1022552541 -0.5466888306 -0.1027256521 -0.5469361984 0.0646326356 0.1841556351
830295020.0 0.029799616 0.1828542566 -0.1084174949 -0.5456723245 -0.1086355725 -0.5459048815 0.0665170771 0.1832833769
