!Created with skrf (http://scikit-rf.org).
# Hz S RI R 50.0 
!freq ReS11 ImS11 ReS21 ImS21 ReS12 ImS12 ReS22 ImS22
300000.0 -0.2395342927 -0.082800136 0.4698071808 0.0553118048 0.4679198506 0.0545735136 -0.2387538715 -0.0943277833
5299970.0 -0.2443020157 0.0070386169 0.4735659999 0.0050306102 0.4735613093 0.0051275844 -0.2441014361 0.0070722281
10299940.0 -0.2409068079 0.0188599556 0.4756111115 0.0060571553 0.4755442125 0.006652386 -0.2403131563 0.020396915
15299910.0 -0.2365614127 0.0280693195 0.4792272431 0.007461766 0.4791079094 0.007855045 -0.2359696136 0.0295865373
20299880.0 -0.2321546141 0.0355858177 0.4840030735 0.0086612645 0.4837565391 0.0081509732 -0.2305208681 0.0377060968
25299850.0 -0.2267808752 0.0418466828 0.4889244861 0.0074224376 0.4889591465 0.0075669494 -0.2247236022 0.0440243917
30299820.0 -0.2214051756 0.0470115853 0.4943975169 0.0054813559 0.4943202459 0.0054237036 -0.2191664978 0.0489834971
35299790.0 -0.2161963407 0.0514763919 0.4999918541 0.0018181275 0.4996510444 0.0020613986 -0.2135362807 0.0533827926
40299760.0 -0.2113171907 0.054996499 0.5049544109 -0.0018108321 0.5053214689 -0.0016402481 -0.2083952959 0.0563593427
45299730.0 -0.2066359471 0.0578529478 0.5099130065 -0.0066679615 0.5100817699 -0.0065163827 -0.2033454448 0.0590341276
50299700.0 -0.2023578815 0.0597247075 0.5143607776 -0.0119461125 0.514070661 -0.0120620976 -0.1984057655 0.0609720251
55299670.0 -0.1982749023 0.0619026055 0.5177822988 -0.0182820607 0.5177305727 -0.0182248159 -0.19427594 0.0623355633
60299640.0 -0.1944143407 0.0635985071 0.5208881146 -0.0244946215 0.5213728778 -0.0242143917 -0.1904059332 0.0634261283
65299610.0 -0.1909701681 0.064768999 0.5241367213 -0.0310270103 0.5242381653 -0.0309164493 -0.1871139487 0.064220386
70299580.0 -0.1878552591 0.0661363527 0.526393916 -0.0373380346 0.526791409 -0.0370857901 -0.1840708087 0.0647795
75299550.0 -0.1850493303 0.0674425926 0.5282739354 -0.0441216747 0.5284880392 -0.0444447275 -0.1811678869 0.065424391
80299520.0 -0.1824127826 0.0680336584 0.5304296205 -0.0511561271 0.5303051917 -0.0514104602 -0.1782103072 0.0661216541
85299490.0 -0.1802383261 0.068949112 0.5314977361 -0.0578186047 0.5319232999 -0.0572683804 -0.1763884071 0.0662681156
90299460.0 -0.1779187502 0.0697206672 0.5323479511 -0.0649416494 0.533010944 -0.064868984 -0.1737651863 0.0667424466
95299430.0 -0.1755142934 0.0708268508 0.5337431493 -0.0718185822 0.5335369935 -0.0719375833 -0.1714477395 0.0672467867
100299400.0 -0.1740456789 0.0716372167 0.5336460596 -0.0787013104 0.5336010168 -0.0786798816 -0.1694595329 0.0673751368
105299370.0 -0.1722064016 0.0723886341 0.5343787485 -0.0857789256 0.5345162718 -0.0856145874 -0.1674800504 0.0679813354
110299340.0 -0.1704972361 0.0733097673 0.5344600345 -0.0922653083 0.5342449366 -0.0921867489 -0.1664962298 0.0683806138
115299310.0 -0.1686305549 0.0740144325 0.5343508144 -0.0992277057 0.5344728246 -0.0991960571 -0.164710683 0.0687283649
120299280.0 -0.1673705848 0.074749214 0.5342821564 -0.1062275226 0.5341542794 -0.1058656464 -0.1632334244 0.0693152377
125299250.0 -0.1659174993 0.0756159575 0.5335728638 -0.1129568746 0.5337950329 -0.1125938129 -0.1622346184 0.0697358058
130299220.0 -0.164870495 0.0767779298 0.5328248329 -0.1195584752 0.5331241192 -0.1193870838 -0.1610316222 0.0703737466
135299190.0 -0.1636433112 0.0779843881 0.5324113219 -0.126519855 0.5326293985 -0.1261045786 -0.1600053841 0.070834044
140299160.0 -0.1626883744 0.0788394752 0.5320054901 -0.1328351029 0.5316067035 -0.1326922097 -0.1586017841 0.0719650145
145299130.0 -0.1612999583 0.0800167983 0.5308442435 -0.1397886136 0.5304969232 -0.1393028784 -0.157718823 0.0725992454
150299100.0 -0.1600802751 0.0811120468 0.5299911335 -0.1457393042 0.5295777884 -0.1451797998 -0.1567274694 0.0737705855
155299070.0 -0.1592881109 0.0824213658 0.5289434706 -0.1529128993 0.5284157479 -0.1524943643 -0.1558093528 0.0746862545
160299040.0 -0.1582485794 0.08364984 0.5271357371 -0.1588321686 0.526950483 -0.1590297903 -0.1552097741 0.0754552255
165299010.0 -0.1571759958 0.0845852073 0.5255821445 -0.1658669126 0.525925638 -0.1653919081 -0.1540839803 0.0768060558
170298980.0 -0.1562512668 0.0857512544 0.5240943313 -0.1717157765 0.5242857717 -0.1716327495 -0.1532959791 0.0773742062
175298950.0 -0.1552913242 0.0870315062 0.5228634854 -0.1779001835 0.5220100537 -0.1782997076 -0.1526689331 0.0786505534
180298920.0 -0.1545292446 0.088543402 0.5207757543 -0.1843088286 0.5206961376 -0.1838372488 -0.1519096499 0.0797367688
185298890.0 -0.1532609529 0.0894809111 0.5188255771 -0.1905350143 0.5186444927 -0.1905632283 -0.1510871404 0.0812270032
190298860.0 -0.1526148401 0.0909295461 0.5168428885 -0.1968191968 0.5174892185 -0.1965540399 -0.1501987331 0.0818077907
195298830.0 -0.1518095417 0.0919834614 0.5151552816 -0.2029746132 0.5151764831 -0.2026254162 -0.1493418572 0.0831423998
200298800.0 -0.1507789305 0.0933072164 0.5128609146 -0.2090256862 0.5129416109 -0.2091047477 -0.1491636241 0.0842980802
205298770.0 -0.1494694999 0.094896067 0.5103385783 -0.2152965582 0.510611248 -0.2149025252 -0.1483414211 0.0847832695
210298740.0 -0.1486881937 0.0963367571 0.508327615 -0.2206608635 0.5082123447 -0.2205226534 -0.1475721614 0.0866275149
215298710.0 -0.1482517341 0.0977856194 0.5062414895 -0.2270082026 0.5060795527 -0.2274263571 -0.1471812726 0.087964071
220298680.0 -0.1469680935 0.0985846275 0.503405655 -0.2325368512 0.5035082035 -0.2330527042 -0.1466076024 0.0888260722
225298650.0 -0.146245882 0.1004638275 0.5013191018 -0.2388598658 0.5013376657 -0.2387441283 -0.1462547444 0.0900682432
230298620.0 -0.1449557002 0.1020627164 0.4987885083 -0.2442411774 0.499178583 -0.2443701667 -0.1456846025 0.0911219095
235298590.0 -0.1440762578 0.1035187084 0.4959845525 -0.2502849735 0.4958548333 -0.250242782 -0.1445941928 0.0923004904
240298560.0 -0.1432730845 0.1049907131 0.4937540125 -0.2563086022 0.4931057978 -0.256060746 -0.144009025 0.0936910289
245298530.0 -0.1420798726 0.1065677424 0.4910837632 -0.2618167005 0.4907567215 -0.2619704717 -0.1431930618 0.0944453086
250298500.0 -0.1406949569 0.1082510017 0.4870759198 -0.267223692 0.4874275497 -0.2669499203 -0.1426030222 0.0957550143
255298470.0 -0.1400476086 0.1092335671 0.4844453011 -0.2725042416 0.4845870097 -0.2726385398 -0.141570972 0.0969307109
260298440.0 -0.1393079383 0.1105585739 0.4816243882 -0.2785844004 0.4821086661 -0.278376591 -0.1406773431 0.0981760557
265298410.0 -0.1376404266 0.1127183931 0.4784452205 -0.2842794695 0.4791932293 -0.2837156258 -0.1401634176 0.099431939
270298380.0 -0.1368647774 0.1138249343 0.4761291227 -0.2894251419 0.4761132943 -0.2890312997 -0.1390179115 0.1006068445
275298350.0 -0.1353627689 0.1155508541 0.4726208093 -0.2951145473 0.472969603 -0.2947198072 -0.1380646225 0.1015477309
280298320.0 -0.1339234464 0.1166684041 0.4696425324 -0.3002800434 0.4695361663 -0.3001537979 -0.1368173412 0.1029362907
285298290.0 -0.132938569 0.1185201153 0.4664038852 -0.3054302947 0.4658857918 -0.3056677281 -0.1360550097 0.1041600066
290298260.0 -0.131372407 0.1197110982 0.4626943236 -0.3107567029 0.4627771927 -0.3107719161 -0.1347047264 0.1056906468
295298230.0 -0.1301481173 0.120831783 0.4596319411 -0.3160181517 0.4594726553 -0.3162978092 -0.1337659147 0.1065185893
300298200.0 -0.1291551952 0.1223511992 0.4560870409 -0.3210574008 0.4563813109 -0.3215669682 -0.1328268936 0.1076241618
305298170.0 -0.1277413807 0.1234065644 0.452273569 -0.3271178779 0.4524253582 -0.3262367348 -0.1312316911 0.1088512292
310298140.0 -0.1266361149 0.1251403818 0.4489962614 -0.3317222009 0.4492762571 -0.331424973 -0.130184119 0.1100960464
315298110.0 -0.1250592518 0.125949047 0.445437782 -0.3368172891 0.445373641 -0.336809278 -0.1294495438 0.1114327145
320298080.0 -0.1236184849 0.1274901916 0.4414954653 -0.3422041769 0.4415536327 -0.3420719884 -0.1283414728 0.1125800452
325298050.0 -0.1225542213 0.1289262812 0.4378274263 -0.3473692278 0.4378845265 -0.3469025697 -0.1277894076 0.1137458406
330298020.0 -0.1211744819 0.1299924362 0.4336689709 -0.3521149548 0.4336073567 -0.3519468884 -0.1266046436 0.114983909
335297990.0 -0.1199775719 0.131141111 0.4293035048 -0.3563997203 0.4294578728 -0.3569075569 -0.1262806638 0.1167451834
340297960.0 -0.1191316531 0.1329083236 0.4253703427 -0.3615325866 0.4251811343 -0.3620169749 -0.1246518143 0.1178555843
345297930.0 -0.1177611201 0.1344742322 0.4214291528 -0.3665430017 0.420938779 -0.366534637 -0.1241772203 0.1190539957
350297900.0 -0.1164862164 0.1355771411 0.4165945984 -0.3712281332 0.4171469611 -0.3708609879 -0.1233057632 0.1210299936
355297870.0 -0.1151965799 0.1375625702 0.4130605098 -0.3755779198 0.413327286 -0.3754354164 -0.1222762122 0.1223271238
360297840.0 -0.1137189812 0.1386778531 0.409652876 -0.3800662464 0.4094709466 -0.3799200324 -0.1213278114 0.1235690837
365297810.0 -0.1123161708 0.1403987293 0.4048406159 -0.3846363263 0.4050271339 -0.3846978547 -0.119857803 0.1248742456
370297780.0 -0.1107188971 0.1413763943 0.4000443566 -0.3889101031 0.4008910105 -0.3885393254 -0.1186944994 0.1264584471
375297750.0 -0.1089898372 0.1426103139 0.3964987512 -0.3934386268 0.3966545768 -0.3934986464 -0.1177549994 0.1276927843
380297720.0 -0.107707118 0.14398164 0.3918942054 -0.3981951701 0.3916688659 -0.3970922448 -0.1167954327 0.1284167363
385297690.0 -0.1064339129 0.145474563 0.3874447194 -0.4020212823 0.3868937266 -0.4018288887 -0.1158448357 0.1301519895
390297660.0 -0.1047925285 0.1468905651 0.3830892811 -0.4062128422 0.3829619922 -0.4058703084 -0.1146792064 0.1316467689
395297630.0 -0.1031954233 0.1483362531 0.3781077034 -0.4105436712 0.378479756 -0.4108614647 -0.1132131745 0.1325499415
400297600.0 -0.101567791 0.1497211757 0.3734082718 -0.4149475137 0.3738022962 -0.4149473113 -0.1123330959 0.1340191035
405297570.0 -0.1002611578 0.1509603665 0.3693224796 -0.4183493783 0.369445971 -0.4186355447 -0.1111237102 0.1353232562
410297540.0 -0.098538879 0.1519669865 0.364651142 -0.4229603959 0.3652336411 -0.4225127928 -0.1101235679 0.1362322129
415297510.0 -0.0966973454 0.1530462357 0.3602691734 -0.4270292549 0.3604508027 -0.4268553069 -0.108941923 0.1377831035
420297480.0 -0.0952626631 0.154667988 0.3555492152 -0.4309085478 0.3550658475 -0.4308014888 -0.1074412439 0.138754779
425297450.0 -0.0935791383 0.1553862296 0.3507261269 -0.4345097138 0.3510121802 -0.4349872668 -0.1064688621 0.1400216395
430297420.0 -0.0917145961 0.1564976832 0.3459855213 -0.4376168268 0.3460899144 -0.4380564242 -0.1053356071 0.1407079044
435297390.0 -0.0901709233 0.1580927209 0.3405691764 -0.4420991145 0.340654146 -0.4422335597 -0.103601385 0.1417807331
440297360.0 -0.0882495784 0.1590855944 0.3360643387 -0.4455707333 0.336438723 -0.4456452016 -0.1024304582 0.1428685495
445297330.0 -0.0867450751 0.1599777284 0.3314813222 -0.4493350463 0.3312671876 -0.44891879 -0.1007490329 0.143371753
450297300.0 -0.0848319191 0.1608457764 0.3265025701 -0.4525969615 0.326255946 -0.4531458408 -0.0995801092 0.1446013338
455297270.0 -0.08302411 0.1620071062 0.3213632639 -0.456144387 0.3214262483 -0.4566599275 -0.0982496533 0.145639542
460297240.0 -0.0815747071 0.1633337247 0.3160215392 -0.4599893936 0.3163822878 -0.4601623047 -0.096866313 0.147010477
465297210.0 -0.0793321546 0.1641000968 0.3112662582 -0.4633254617 0.3111350581 -0.4639109509 -0.0950387766 0.1474929303
470297180.0 -0.077552602 0.1649346912 0.3057103803 -0.466600242 0.3061491922 -0.466724412 -0.0936024454 0.1495249976
475297150.0 -0.0759641472 0.1656974749 0.3008996309 -0.4696315022 0.3010446713 -0.4695736535 -0.0919304416 0.1498237843
480297120.0 -0.0741057817 0.1673901108 0.2956866098 -0.4733172356 0.2952832328 -0.4737027727 -0.0903795508 0.151086952
485297090.0 -0.0722539751 0.1681641353 0.2910015266 -0.4765171242 0.2906134046 -0.4763767839 -0.0888821532 0.1517124307
490297060.0 -0.071021834 0.1689386086 0.2856170769 -0.4797773325 0.2854234395 -0.4788795298 -0.0873124845 0.1531152244
495297030.0 -0.0687797473 0.1697889032 0.2799703626 -0.4822780112 0.2804995103 -0.4824926257 -0.0860804213 0.1539343673
500297000.0 -0.0668957694 0.1705522658 0.2749865604 -0.4851950374 0.2746807609 -0.4851996195 -0.0844600671 0.1556873818
505296970.0 -0.0648653131 0.1716112455 0.2695557407 -0.4882487446 0.2695744715 -0.4883057994 -0.0831578957 0.1564529787
510296940.0 -0.0630757191 0.172715873 0.2643627926 -0.491536009 0.2638704903 -0.4913807218 -0.0809608241 0.1575499336
515296910.0 -0.0614035637 0.1734490797 0.2585089141 -0.4940175081 0.2588238834 -0.4939604898 -0.0797776331 0.1580915671
520296880.0 -0.0594666071 0.1740080437 0.2533586393 -0.4973263626 0.2535288395 -0.4967668035 -0.0784486519 0.159179365
525296850.0 -0.0573833063 0.1744402845 0.247608627 -0.4994633217 0.248230243 -0.4996790517 -0.0768442989 0.1602262387
530296820.0 -0.0551630217 0.1757061811 0.242179873 -0.5020987409 0.2425758011 -0.5023615846 -0.0751410502 0.1613738583
535296790.0 -0.0537512429 0.176432235 0.2377413557 -0.5047859422 0.2372789038 -0.5043533027 -0.073840898 0.1619359018
540296760.0 -0.0519558349 0.1774563875 0.2314957774 -0.5078421573 0.231566273 -0.5075823344 -0.0727780047 0.1633638847
545296730.0 -0.0498790395 0.1781224078 0.2260459934 -0.510068946 0.2258312887 -0.5099679873 -0.0708821019 0.1638788493
550296700.0 -0.0478096746 0.1787420232 0.2205688448 -0.5122104287 0.2206169429 -0.5128035402 -0.0696840048 0.1649338208
555296670.0 -0.0458254825 0.1791715008 0.2151393794 -0.5144544322 0.215235363 -0.5145999142 -0.067912324 0.1661174472
560296640.0 -0.0435659031 0.1802313244 0.2093349195 -0.5170754097 0.209285854 -0.5169099847 -0.0663795975 0.1666879913
565296610.0 -0.0421309979 0.180734611 0.2037700184 -0.5190423633 0.2040275498 -0.5190640578 -0.0648657319 0.1670756995
570296580.0 -0.0399136943 0.1814121638 0.1979209304 -0.5217738976 0.1973387324 -0.5213894936 -0.0635585143 0.1685331046
575296550.0 -0.0379465446 0.182280111 0.1923667 -0.5240707429 0.1921444163 -0.5237011087 -0.0618454189 0.1690711202
580296520.0 -0.0357273702 0.182614161 0.1866645102 -0.5258505812 0.1864909422 -0.5256416818 -0.0599818028 0.1695268222
585296490.0 -0.0341461322 0.1828432063 0.1813815758 -0.5277006338 0.1811694864 -0.5275741607 -0.0586692189 0.1703807568
590296460.0 -0.0314420703 0.1836947841 0.1748227321 -0.5289695304 0.1754737337 -0.5292458035 -0.0576850226 0.1711544552
595296430.0 -0.0294845781 0.1838419416 0.168829709 -0.5317343611 0.1691957765 -0.5312831998 -0.0557400916 0.1714754981
600296400.0 -0.0278486552 0.1841383068 0.1635677098 -0.5331286183 0.1636657064 -0.532808022 -0.0539107935 0.1720235925
605296370.0 -0.0259207854 0.1846063284 0.1577343839 -0.5342790354 0.1581887999 -0.5347443295 -0.0524517547 0.1729691954
610296340.0 -0.0239258721 0.1851841419 0.1517103676 -0.5364401053 0.1522251664 -0.5361564788 -0.0503043415 0.1731727905
615296310.0 -0.0213373653 0.1851345303 0.1458130417 -0.5378403046 0.1455859492 -0.5381377836 -0.048539249 0.1737906819
620296280.0 -0.0196613223 0.1856671828 0.1402098128 -0.5394607381 0.1402029573 -0.5388897147 -0.0471486021 0.1743543593
625296250.0 -0.0178377026 0.1856759552 0.1348748572 -0.5411635631 0.134504042 -0.541089073 -0.0446478396 0.1746683708
630296220.0 -0.0146537478 0.186399297 0.1277580517 -0.5425369067 0.1279094943 -0.5421285039 -0.0435080263 0.1756175676
635296190.0 -0.0136113369 0.1865765317 0.1224053332 -0.5434928184 0.1225772505 -0.5434705771 -0.0416807352 0.1761038253
640296160.0 -0.011640069 0.1868324743 0.1170120237 -0.5444643874 0.1168274754 -0.5445868935 -0.0397739371 0.176886116
645296130.0 -0.0093317141 0.1874759247 0.1108041512 -0.5455315359 0.1109973836 -0.5461839081 -0.0381481961 0.1770775378
650296100.0 -0.0072093748 0.1874856885 0.1049137922 -0.5468238369 0.1053116762 -0.5469225713 -0.0361085789 0.1773242563
655296070.0 -0.0052134957 0.1875173104 0.0989242722 -0.5484845287 0.0991667718 -0.5483098056 -0.0340780017 0.1778128868
660296040.0 -0.0036078861 0.1873392856 0.0932729162 -0.5492630831 0.0932494736 -0.5493492754 -0.032102443 0.1785195704
665296010.0 -0.0007059773 0.1879162168 0.0869502618 -0.5499847667 0.08735318 -0.5502047236 -0.0303143885 0.179581573
670295980.0 0.0002386742 0.1879495088 0.0809947807 -0.5508328846 0.0813839936 -0.5507462669 -0.0291701979 0.1796636723
675295950.0 0.0026450861 0.1883388708 0.0754839206 -0.5515141878 0.0754134534 -0.5514074228 -0.02758817 0.1803542699
680295920.0 0.004461995 0.1882380685 0.0694708789 -0.5521608501 0.0687344782 -0.552934352 -0.0251493051 0.1812846046
685295890.0 0.0071134512 0.1889252052 0.0633306735 -0.5534471304 0.0631523101 -0.553372929 -0.0235655855 0.1813733038
690295860.0 0.0092465421 0.1887608318 0.0573933829 -0.553490827 0.057489851 -0.5541292198 -0.0220695452 0.1824669898
695295830.0 0.0110928932 0.1885432443 0.0516833528 -0.5542037045 0.051061589 -0.5542712604 -0.0200667846 0.1825478637
700295800.0 0.0134165238 0.1884689799 0.0451988191 -0.5544834636 0.045013334 -0.5542403639 -0.01889437 0.1832789223
705295770.0 0.0151713605 0.1891225704 0.0392691675 -0.5552339373 0.0397629029 -0.5552899558 -0.0168196133 0.1837857478
710295740.0 0.0173283595 0.1886676101 0.0337800612 -0.5562393472 0.0337716641 -0.5560539715 -0.0152142563 0.1834998968
715295710.0 0.0193047354 0.1886520427 0.0279620129 -0.5560231303 0.0273882777 -0.5562841884 -0.0132797236 0.1841673031
720295680.0 0.0213628166 0.1884663035 0.0212263458 -0.5564591128 0.0215869366 -0.556142555 -0.0115587386 0.1843883809
725295650.0 0.0237144721 0.1886322618 0.015364392 -0.5563465789 0.0159852078 -0.5566542363 -0.0103620775 0.1851371518
730295620.0 0.0260482302 0.1884703887 0.0091102539 -0.5557272812 0.0094328449 -0.5565446267 -0.0083879294 0.1849660843
735295590.0 0.0278080693 0.1887438985 0.0039035744 -0.5565951951 0.0032538443 -0.5563939825 -0.0068414396 0.1847027779
740295560.0 0.0297085769 0.1882734646 -0.0024756529 -0.556557891 -0.0027723485 -0.5565616584 -0.0043160423 0.1856575063
745295530.0 0.0318614455 0.1882115921 -0.0088686461 -0.5560845405 -0.0088128941 -0.5562008867 -0.0029016628 0.1853898198
750295500.0 0.0342161249 0.1877734365 -0.0145880071 -0.556112479 -0.0144016806 -0.5567067233 -0.0012436988 0.1856029431
755295470.0 0.0361465235 0.1874828596 -0.0204124627 -0.5559282646 -0.0205849426 -0.5559668364 0.0008477621 0.1853931962
760295440.0 0.0381304488 0.1871283278 -0.0266506877 -0.5560143956 -0.0266555483 -0.5562250774 0.0024646862 0.1855822353
765295410.0 0.04017663 0.1869198127 -0.0325724914 -0.5553042661 -0.0328678958 -0.5553505515 0.0041883873 0.1857286226
770295380.0 0.0418033088 0.1863242303 -0.0387107011 -0.5545568147 -0.0385980947 -0.5548049127 0.0057003323 0.1858119189
775295350.0 0.04391233 0.1856238133 -0.0446971063 -0.5542441438 -0.0441182006 -0.5546772418 0.0073092062 0.1859148826
780295320.0 0.0462567095 0.1858373724 -0.0504197837 -0.5539612633 -0.0499535544 -0.5538818621 0.0089372987 0.1854766955
785295290.0 0.047794121 0.1847817214 -0.056554082 -0.5528226333 -0.0564490846 -0.5532862327 0.0119119994 0.18590327
790295260.0 0.0504197751 0.185204726 -0.0621053502 -0.5525508199 -0.0614256973 -0.5523876297 0.0134545906 0.1857971523
795295230.0 0.0524960058 0.1842852131 -0.0688061435 -0.5515773229 -0.0677826881 -0.5518861779 0.0153521825 0.1859852104
800295200.0 0.0539065014 0.1842826486 -0.0743472792 -0.5510008371 -0.0743083155 -0.5508127862 0.0173005934 0.1857259511
805295170.0 0.0564093895 0.1835564575 -0.0798055529 -0.5501438009 -0.0803458828 -0.5504637069 0.0188881095 0.1857429803
810295140.0 0.0583131625 0.1825894009 -0.0858850588 -0.5491231806 -0.0862021899 -0.5493664099 0.0212267153 0.1858510284
815295110.0 0.0601909235 0.1818774224 -0.0919326535 -0.5477669437 -0.0918407458 -0.547990793 0.0226686346 0.1857302266
820295080.0 0.0620434072 0.1824876578 -0.0980086897 -0.5472449314 -0.0974757633 -0.5471078723 0.0247875611 0.1856558484
825295050.0 0.0646608454 0.1811926561 -0.1034467017 -0.5455538434 -0.1033253484 -0.5463316577 0.0268317341 0.1857782947
830295020.0 0.0662871888 0.1811165067 -0.1098415587 -0.544769533 -0.1095762015 -0.5445085456 0.0288751155 0.1855215236
