!Created with skrf (http://scikit-rf.org).
# Hz S RI R 50.0 
!freq ReS11 ImS11 ReS21 ImS21 ReS12 ImS12 ReS22 ImS22
300000.0 -0.7685208888 -0.1648238745 -0.0013618586 0.0031701538 0.0005976569 0.001655984 -0.7681703196 -0.1836230074
5299970.0 -0.7861579897 -0.0089994119 1.12163e-05 -3.1599e-06 -9.139e-06 -7.61442e-05 -0.785030409 -0.0093790986
10299940.0 -0.7892439813 -0.0055015063 -8.79792e-05 4.33561e-05 3.55616e-05 3.80882e-05 -0.7875956404 -0.0052223346
15299910.0 -0.7942441808 -0.0033497433 4.48942e-05 0.000140077 6.62309e-05 -2.22383e-05 -0.7927980201 -0.0023287241
20299880.0 -0.8009507081 0.0009496278 -0.0001011757 0.0002228165 0.00014639 -3.5774e-06 -0.799817785 0.0016442994
25299850.0 -0.8076881976 0.0065930862 -4.624e-05 -2.90198e-05 -0.0002802048 0.0001092639 -0.8058856897 0.0078445176
30299820.0 -0.8139692175 0.0140808343 -9.1778e-06 0.0002691121 -0.0001500384 0.0001798953 -0.811832001 0.0158407291
35299790.0 -0.8186808298 0.0233036391 0.0002440343 -3.04427e-05 -4.12081e-05 5.5193e-06 -0.8172111631 0.0246806801
40299760.0 -0.823624549 0.0322312267 -4.50341e-05 -0.0001613245 -8.00806e-05 -9.2682e-05 -0.8210018653 0.0339732105
45299730.0 -0.8262898172 0.0420768522 -0.0001431165 -1.06426e-05 0.0001734264 2.44841e-05 -0.8243964868 0.0436339207
50299700.0 -0.829255299 0.0520319533 -0.0003187 -0.0001878835 0.0001483728 -0.0001239862 -0.8263965731 0.0539140868
55299670.0 -0.8311727744 0.0614366781 -0.0001586784 0.0001905154 -0.0001145496 0.0001342286 -0.8286529889 0.0635961716
60299640.0 -0.8319957535 0.0720443744 -6.60893e-05 -0.0001887804 -5.45498e-05 0.0001022849 -0.8292901323 0.0739382891
65299610.0 -0.8335999896 0.0818699269 -0.0002169644 -1.05051e-05 -0.000195393 -7.83175e-05 -0.8307044407 0.0839006393
70299580.0 -0.8336638029 0.0916603446 1.3861e-06 2.28734e-05 2.48494e-05 -0.0001315765 -0.8308819675 0.0939317648
75299550.0 -0.8342116577 0.1015499989 4.86589e-05 3.47629e-05 -3.62e-06 -0.0002056435 -0.8308820996 0.1042043703
80299520.0 -0.8339433015 0.1125980847 0.0002875287 2.5014e-06 6.7093e-05 1.60974e-05 -0.8304848131 0.1141629257
85299490.0 -0.8325361696 0.12141383 -0.0001335703 -0.0001354115 3.6665e-06 -2.24346e-05 -0.830309516 0.1234258446
90299460.0 -0.8322822371 0.1317151696 0.0001361913 0.0001974579 -0.0001013711 5.46254e-05 -0.8290940475 0.1326765724
95299430.0 -0.8312209411 0.1406456658 -0.0002565723 -0.0001058701 -4.9126e-05 5.87267e-05 -0.8282874161 0.1426917438
100299400.0 -0.8304090073 0.1503086707 1.12783e-05 0.000131494 1.28583e-05 1.9433e-05 -0.8268884552 0.1517023464
105299370.0 -0.8286799728 0.1595293985 0.0001789044 4.82503e-05 4.90175e-05 6.28744e-05 -0.8261056342 0.1604919925
110299340.0 -0.8277725731 0.1686271656 0.0001282424 -0.0002470234 9.71197e-05 -4.63991e-05 -0.8246530729 0.1697734116
115299310.0 -0.8259789267 0.1781400239 8.86747e-05 -5.76271e-05 3.37443e-05 1.89137e-05 -0.8231705642 0.1789910842
120299280.0 -0.824857113 0.1867431242 0.0001768452 5.47625e-05 7.2454e-05 7.10372e-05 -0.821000162 0.1877518634
125299250.0 -0.8224808373 0.1956188102 -1.49501e-05 -8.9702e-06 -7.58598e-05 4.51705e-05 -0.8200344655 0.1968411674
130299220.0 -0.8208400817 0.2054708522 0.0001461979 0.0001680764 9.79947e-05 0.0001857442 -0.8176369967 0.2057214021
135299190.0 -0.8185343792 0.2139371152 -3.15708e-05 -0.0001231205 -0.0001071437 -0.0001324744 -0.8164280669 0.2152742708
140299160.0 -0.8172314184 0.2232464306 -5.78877e-05 -9.3548e-06 -0.0001205009 -8.31605e-05 -0.8138597502 0.2230095872
145299130.0 -0.8146119389 0.2321197157 -0.000325505 8.04415e-05 -8.79635e-05 3.60305e-05 -0.812116919 0.2323518535
150299100.0 -0.8117046852 0.241003946 -0.0003378955 -7.01128e-05 8.04396e-05 2.83575e-05 -0.8095754204 0.2412657914
155299070.0 -0.8094602275 0.24998466 0.0001066826 -9.4749e-06 -0.0001074123 -5.83608e-05 -0.8070652348 0.2502031887
160299040.0 -0.8075795601 0.2591104331 0.0001285208 -0.0001742582 -0.0003270428 -0.0001871728 -0.8045728535 0.2591243385
165299010.0 -0.8041533228 0.2675383145 0.0002308243 -5.12098e-05 0.0001474526 -1.84704e-05 -0.8019004282 0.2669632159
170298980.0 -0.8018736322 0.2765860511 -4.0708e-06 6.3025e-05 0.0002768837 -0.0001366351 -0.7994228276 0.2756371975
175298950.0 -0.7990312114 0.2845959055 -6.35578e-05 -0.0001214035 9.50036e-05 -2.98369e-05 -0.7963751432 0.2848104643
180298920.0 -0.7961934153 0.2936093156 -5.8709e-06 0.0001561284 8.33317e-05 0.0002204012 -0.7934405961 0.2929855044
185298890.0 -0.7929547349 0.302469467 5.90671e-05 9.1052e-05 -2.56909e-05 -0.0001284674 -0.7906422051 0.3014292493
190298860.0 -0.7892391636 0.3111163061 0.0001038765 -8.86284e-05 0.0001841614 6.44558e-05 -0.7873663564 0.3101611511
195298830.0 -0.7864365533 0.3193393614 -0.0002268843 -1.5246e-05 -0.0001084311 -0.0001801026 -0.7835201441 0.3177659545
200298800.0 -0.7829535821 0.3279061316 0.0002446497 -1.657e-06 -1.20409e-05 6.24169e-05 -0.7811113787 0.3262036785
205298770.0 -0.7792002868 0.3365674572 -7.23778e-05 -2.4541e-05 2.70686e-05 0.0002055549 -0.7776695853 0.3351358425
210298740.0 -0.7762230054 0.3445327785 -2.08374e-05 0.0001153579 5.8581e-06 -0.0001069576 -0.7742401678 0.3429317992
215298710.0 -0.7719884969 0.3535510221 -4.2046e-06 0.0001569797 0.0003018086 4.54483e-05 -0.7704398158 0.3512772883
220298680.0 -0.7685964694 0.360757253 0.0001193723 0.0001799018 1.18178e-05 5.1771e-05 -0.766424462 0.3593415908
225298650.0 -0.7647872714 0.3700803566 -0.0001062941 -0.0001818248 -4.10247e-05 -0.0001050305 -0.7629267919 0.3677529871
230298620.0 -0.7607202524 0.3777701913 0.000235985 -0.0001217552 -1.92767e-05 2.38292e-05 -0.7590840316 0.3756829405
235298590.0 -0.7577683665 0.3860371588 0.0001300317 0.0001119 0.0001047266 -0.0001935495 -0.7550255256 0.3831786893
240298560.0 -0.7529664119 0.3936941014 -5.90565e-05 0.0001643403 0.0001109064 -0.0001681774 -0.7511553185 0.3907763798
245298530.0 -0.7486718279 0.4015479245 5.6686e-05 3.52247e-05 -3.86054e-05 -2.53933e-05 -0.7471937617 0.3985483912
250298500.0 -0.7442912165 0.4092379273 2.3066e-05 -0.0001298536 0.000262059 6.31e-05 -0.7429796385 0.4071949768
255298470.0 -0.7408266873 0.4174667184 0.0001392611 -0.0001040671 -5.3358e-05 -1.62406e-05 -0.7388408356 0.4147917748
260298440.0 -0.7364694045 0.4250184946 -7.15345e-05 5.0034e-06 4.46079e-05 0.000167046 -0.7341196008 0.4218995832
265298410.0 -0.7319982029 0.4328837534 0.000114917 -1.66736e-05 8.00794e-05 -9.90743e-05 -0.7302564943 0.4297468202
270298380.0 -0.7272432637 0.4403617211 -6.11064e-05 9.77309e-05 -0.0001204485 -0.0001490058 -0.7253127583 0.4382061583
275298350.0 -0.7231867574 0.4483497439 -0.0001377471 0.0001803413 -0.0001295833 0.0001963116 -0.7203679449 0.4455124584
280298320.0 -0.7181412111 0.4556577344 -3.60915e-05 5.83589e-05 5.84218e-05 -6.86591e-05 -0.7161816044 0.4529709937
285298290.0 -0.7135749199 0.4636432658 0.0002172956 2.75872e-05 2.07544e-05 -0.000115041 -0.7120710707 0.4609166112
290298260.0 -0.7089692735 0.4710659618 -1.52423e-05 -0.0001190013 -1.84253e-05 2.3691e-05 -0.7067649092 0.4673948513
295298230.0 -0.70387718 0.4775073312 -1.42694e-05 0.0001178522 0.0002016878 -7.20636e-05 -0.7016482925 0.4748930537
300298200.0 -0.6990656178 0.4857206451 0.0001139718 -3.34793e-05 -7.90501e-05 9.88236e-05 -0.6972146551 0.4825849405
305298170.0 -0.6946164406 0.492589081 -5.51795e-05 0.0002179156 -0.0001411747 -3.46773e-05 -0.6914138716 0.4888333856
310298140.0 -0.6887729917 0.4993635878 7.63925e-05 0.0001119844 3.90514e-05 -0.0001254109 -0.6863341053 0.4968491306
315298110.0 -0.6840845802 0.5069339868 -6.08199e-05 3.27176e-05 0.0001487569 -4.2243e-06 -0.6815562457 0.5034371598
320298080.0 -0.6788230901 0.5144284815 0.0001557744 8.69651e-05 -5.09051e-05 3.69132e-05 -0.6761507464 0.5102636981
325298050.0 -0.6736635581 0.5207039695 -1.40202e-05 -3.13254e-05 3.90629e-05 -4.7631e-05 -0.6698467173 0.5173236519
330298020.0 -0.6678816745 0.5281254488 -7.20505e-05 5.03622e-05 0.0001998893 5.84005e-05 -0.6650626043 0.5250408294
335297990.0 -0.6625769937 0.5349937862 -0.0002418283 -0.0001866486 8.07321e-05 -4.2046e-06 -0.6594427675 0.5316850087
340297960.0 -0.6577134404 0.5410701598 0.0002284546 -7.2015e-06 2.0207e-05 9.39029e-05 -0.6539676076 0.5382682627
345297930.0 -0.6516124674 0.5485106237 0.0001625118 -2.5491e-05 0.0001326302 3.65888e-05 -0.6486439933 0.5445732539
350297900.0 -0.6460638754 0.5549084017 0.0001743437 8.08598e-05 -2.18082e-05 -0.0001098006 -0.6430415817 0.5511233655
355297870.0 -0.640894381 0.5613729365 3.36099e-05 -3.4407e-05 6.31433e-05 6.4592e-05 -0.6373662714 0.5582961049
360297840.0 -0.6345846664 0.5682048575 0.0001943665 0.0001176985 1.98213e-05 -9.2904e-05 -0.6305744989 0.5645767101
365297810.0 -0.6287588532 0.5748406866 9.22497e-05 -0.0001488887 0.000104801 -0.0001139351 -0.6257547842 0.5706442292
370297780.0 -0.6233232784 0.5806456428 0.0001033708 0.0002301685 0.0001643717 -3.78012e-05 -0.6194047069 0.5776855821
375297750.0 -0.6178423458 0.586713105 0.0001228982 3.37837e-05 8.62334e-05 9.8286e-06 -0.6135264266 0.5836590878
380297720.0 -0.6121796744 0.5938405262 -2.9959e-05 4.01152e-05 2.79496e-05 -4.08935e-05 -0.606538505 0.5902186574
385297690.0 -0.6059746518 0.5996700016 3.81239e-05 2.78014e-05 3.20885e-05 4.89953e-05 -0.6014268389 0.5965377153
390297660.0 -0.5985911935 0.6054211042 0.0002172831 -1.6166e-06 1.67034e-05 4.1995e-06 -0.5946260956 0.6021454971
395297630.0 -0.5932597795 0.6118002701 3.52298e-05 0.0001001094 6.00786e-05 3.76271e-05 -0.5881817923 0.6076121709
400297600.0 -0.5867330128 0.6182204252 7.83863e-05 9.61326e-05 -7.73131e-05 -1.4781e-05 -0.5827226422 0.6141466186
405297570.0 -0.5808796041 0.623147997 8.5992e-05 4.3447e-06 5.29365e-05 8.49503e-05 -0.5756746219 0.620487178
410297540.0 -0.573572717 0.6296225039 -0.0002091851 6.6309e-06 0.0001068157 -0.0001002074 -0.5690544977 0.6256723889
415297510.0 -0.5673405251 0.635563388 -0.0001325549 4.93051e-05 -2.42087e-05 -6.37797e-05 -0.5626111704 0.6313219787
420297480.0 -0.5609447172 0.6407019686 7.63006e-05 -2.64398e-05 7.03574e-05 -9.9873e-05 -0.556340121 0.6377657836
425297450.0 -0.5543341444 0.6465275376 0.0002171093 2.74391e-05 -0.0001908758 -0.000108596 -0.5498469889 0.6427279946
430297420.0 -0.5476307705 0.651545634 0.0001003323 1.71085e-05 -2.44684e-05 8.3177e-06 -0.54272329 0.6483119316
435297390.0 -0.540016387 0.6575374372 5.88545e-05 -9.9006e-06 -1.943e-06 0.0001022512 -0.5364592174 0.6544850663
440297360.0 -0.5336818198 0.6628981839 -3.58975e-05 2.35351e-05 0.0001417883 0.0001952038 -0.5301254949 0.6598212981
445297330.0 -0.5274134431 0.6679036667 5.2496e-06 -9.3748e-06 -3.9349e-05 3.53462e-05 -0.5228541835 0.6649368281
450297300.0 -0.5206023745 0.673758072 0.0002562018 0.0002143223 -1.9696e-05 6.36975e-05 -0.5154021711 0.6694918295
455297270.0 -0.5131225664 0.6786749894 -7.85037e-05 -2.75669e-05 -4.50936e-05 -2.3658e-06 -0.5091454075 0.6753099373
460297240.0 -0.5058372238 0.6838312531 -9.63102e-05 5.33627e-05 2.56182e-05 5.70921e-05 -0.5024587057 0.6801184217
465297210.0 -0.4996113464 0.6891980022 -2.01586e-05 -6.38613e-05 2.88014e-05 -0.0001270636 -0.494905821 0.6859531074
470297180.0 -0.4919894997 0.6940027325 6.3454e-06 0.0001957865 0.0001169509 -4.54296e-05 -0.4877150968 0.6904798521
475297150.0 -0.4847121464 0.6990022425 -3.25517e-05 -0.0001599496 7.58889e-05 0.0001082029 -0.4812019491 0.695059901
480297120.0 -0.4769944903 0.7040939595 -6.11394e-05 -8.0586e-06 3.83445e-05 -0.0001703087 -0.4740790058 0.7001995973
485297090.0 -0.4698009114 0.7083756056 -7.40444e-05 -6.72673e-05 0.000118589 -9.71634e-05 -0.4667782055 0.7047956441
490297060.0 -0.4616251152 0.7137888045 -4.43951e-05 -4.27491e-05 5.99358e-05 -2.55076e-05 -0.4590535679 0.7092487216
495297030.0 -0.4548011478 0.7179684638 0.0001070083 0.0001583503 -2.9393e-06 -1.11409e-05 -0.4523109316 0.7138028695
500297000.0 -0.44733302 0.7221087156 0.0001864141 -0.0001962171 -0.0001229389 -1.29583e-05 -0.4454409691 0.7184366963
505296970.0 -0.4390812863 0.7274049316 -0.0002093841 -7.94109e-05 7.28164e-05 0.0001378068 -0.4378121946 0.7224247388
510296940.0 -0.4317814789 0.7310982813 8.36847e-05 -0.0001376778 6.95676e-05 0.0001952273 -0.4299230252 0.7273758215
515296910.0 -0.4239045244 0.7361170606 -3.53622e-05 1.59874e-05 0.0001486592 0.0001204738 -0.4233539889 0.7309243101
520296880.0 -0.4157639486 0.7399105226 -3.90538e-05 0.0001836692 1.89325e-05 8.3816e-06 -0.4151669208 0.7361028078
525296850.0 -0.4086168214 0.7441564703 -0.0001051277 -1.17968e-05 6.6389e-06 4.74877e-05 -0.4078567124 0.7400821176
530296820.0 -0.4012976857 0.7481336467 -3.11559e-05 -0.0001038432 0.0002081188 5.10243e-05 -0.4001936037 0.7434515323
535296790.0 -0.3924625352 0.7522165612 -1.57979e-05 7.66795e-05 -5.11472e-05 -0.00013273 -0.3928976766 0.7480220663
540296760.0 -0.3844806855 0.7561791972 8.0236e-05 1.37569e-05 0.0001108585 0.0001067814 -0.3852291086 0.7508571356
545296730.0 -0.3772294976 0.760209575 5.12256e-05 -7.2995e-06 -0.000115523 6.35316e-05 -0.3773444758 0.755764281
550296700.0 -0.369283279 0.7635545447 -1.17732e-05 -4.95199e-05 0.000106395 8.36411e-05 -0.3700316018 0.7592232043
555296670.0 -0.3615254838 0.7676441543 0.0001097849 0.0001423696 1.28453e-05 1.91881e-05 -0.3625339798 0.7621583673
560296640.0 -0.3533953509 0.7707719863 4.31119e-05 -5.96153e-05 0.0002419868 1.99763e-05 -0.3546455034 0.7668707962
565296610.0 -0.3456798197 0.7743863694 -2.66008e-05 4.13988e-05 -6.01873e-05 -5.50674e-05 -0.346459591 0.7699050289
570296580.0 -0.3369868342 0.7779455808 -0.0001043566 5.25638e-05 -0.0001396033 1.88306e-05 -0.338793114 0.7727860927
575296550.0 -0.328517478 0.7814650656 -5.52878e-05 -3.82097e-05 7.5395e-06 5.5849e-06 -0.3303890122 0.7760687622
580296520.0 -0.3213090647 0.784478562 0.0002285597 -0.000194873 -2.58417e-05 -2.92597e-05 -0.3233835761 0.7796970852
585296490.0 -0.3124374279 0.7876102792 0.0001010954 -1.21196e-05 2.40272e-05 6.2492e-06 -0.3152967175 0.7831633386
590296460.0 -0.3041224303 0.7912219809 -2.97706e-05 -2.55928e-05 5.47801e-05 6.52192e-05 -0.3072901256 0.7859386059
595296430.0 -0.2960452131 0.7938130346 -1.69608e-05 -0.0001140771 -0.0001026239 -2.43803e-05 -0.2997465112 0.7889056725
600296400.0 -0.2884212199 0.7967146949 5.96773e-05 -2.40843e-05 0.0001540081 -3.2337e-06 -0.2916892725 0.7915281174
605296370.0 -0.2797140139 0.7996310288 1.1473e-06 0.0002729772 0.0001005864 0.0001695398 -0.2840871759 0.7953890745
610296340.0 -0.2713191633 0.8028988952 0.0001255115 0.0001167461 -0.0001449644 -9.3269e-05 -0.2759812943 0.7979696547
615296310.0 -0.2628345043 0.8052737917 4.111e-05 0.0001167066 4.30287e-05 -7.26873e-05 -0.2675066071 0.800382896
620296280.0 -0.2551439956 0.8081461358 2.71094e-05 -0.0001565472 -0.0001416331 -0.00010577 -0.2598709976 0.802777555
625296250.0 -0.2473774731 0.8100181085 -5.95422e-05 -2.75872e-05 -8.75385e-05 -0.0001209464 -0.2516540154 0.8050876305
630296220.0 -0.2384353104 0.8137069685 -2.31562e-05 -3.08073e-05 -3.35226e-05 0.0001524622 -0.2435067379 0.808101682
635296190.0 -0.2303838884 0.815330052 -0.0002231264 -2.78258e-05 4.36021e-05 7.7278e-06 -0.2352825817 0.8102814649
640296160.0 -0.2216762749 0.8179082865 0.0001484986 -0.0001544198 6.51001e-05 0.0001253988 -0.2272624507 0.812850776
645296130.0 -0.2132534549 0.8207337206 -0.0001466231 -3.32391e-05 -2.84049e-05 -7.08532e-05 -0.2196907801 0.8142531618
650296100.0 -0.2051629214 0.8215411831 0.0002105748 -9.13077e-05 0.0002623262 -1.25608e-05 -0.2106473289 0.8171807883
655296070.0 -0.1977271082 0.8242534289 -9.42041e-05 4.31013e-05 2.99616e-05 6.6627e-05 -0.2027777183 0.8188316839
660296040.0 -0.1897120966 0.8262586709 2.85344e-05 7.84041e-05 -9.5108e-06 0.0001799533 -0.1942409943 0.8206099111
665296010.0 -0.1808357829 0.828224442 -1.30115e-05 0.0001351415 0.0001070081 0.0001247679 -0.1860543619 0.8225136958
670295980.0 -0.1722653365 0.8308155064 -0.0001412489 -2.44192e-05 -0.00011987 0.0001188259 -0.1779571206 0.8241683999
675295950.0 -0.1632134392 0.8321813209 4.99631e-05 0.0001278816 -4.78887e-05 -3.63088e-05 -0.1697596913 0.8263195263
680295920.0 -0.1564631021 0.8338099202 3.0505e-05 0.0001685631 -2.1705e-06 -4.72145e-05 -0.1610243785 0.8277187324
685295890.0 -0.1471838553 0.8356914874 3.75897e-05 4.0608e-05 0.0001033303 8.5816e-05 -0.1532238546 0.829558467
690295860.0 -0.1393526722 0.8372902138 -3.94236e-05 4.60785e-05 0.000112368 -6.9599e-06 -0.1450162761 0.8309162472
695295830.0 -0.1302170468 0.8385072628 6.52911e-05 -0.0001811088 2.41167e-05 -4.58689e-05 -0.1365858158 0.8326037333
700295800.0 -0.1224987875 0.8398848715 -0.0001180866 -2.49418e-05 7.64731e-05 -0.000154185 -0.1284327253 0.8334173494
705295770.0 -0.1148789964 0.8412324802 -0.0002288679 1.66129e-05 -0.0001031267 0.0001175114 -0.1204216832 0.8352266625
710295740.0 -0.106885324 0.8418104948 -0.0001034405 -2.60403e-05 -3.22329e-05 -2.32042e-05 -0.1113568789 0.8357040222
715295710.0 -0.0974191075 0.8436513757 -2.94736e-05 1.47482e-05 -2.72609e-05 -8.58331e-05 -0.102956262 0.8366667212
720295680.0 -0.0887782834 0.8443946688 -2.67362e-05 -7.00603e-05 0.0001480851 -5.28533e-05 -0.0942599043 0.8378209422
725295650.0 -0.0816766812 0.8458523578 8.89503e-05 2.12563e-05 3.91545e-05 0.000145323 -0.0869253466 0.8390198483
730295620.0 -0.0734181353 0.8466122593 -5.77554e-05 -1.78169e-05 -4.04268e-05 -7.02276e-05 -0.0786078206 0.8402846795
735295590.0 -0.065497875 0.8474532212 -0.0001512068 -2.16742e-05 0.0001510808 0.0001142855 -0.0692482403 0.8404582848
740295560.0 -0.0574742637 0.84780562 -0.0001442529 -4.93269e-05 7.9782e-06 -0.0001354768 -0.061218191 0.8411657561
745295530.0 -0.0485565879 0.8484220806 4.52278e-05 -0.0003005788 0.0002414787 -0.0001822048 -0.0533611246 0.8412078467
750295500.0 -0.0408914307 0.8486435279 -1.32204e-05 1.6819e-06 8.70282e-05 7.5022e-05 -0.0448932411 0.8420237249
755295470.0 -0.0322537998 0.8494317326 -1.34394e-05 -1.82375e-05 -0.000156725 -0.0002135675 -0.0366743818 0.8427698503
760295440.0 -0.0242436909 0.850291753 -0.0001522678 0.0002039109 -2.674e-07 0.0001642162 -0.0277502438 0.8427016055
765295410.0 -0.0158024494 0.8503625939 1.97036e-05 4.10021e-05 7.86956e-05 -8.49363e-05 -0.0196010624 0.8429325501
770295380.0 -0.0080515459 0.8510693999 -1.91917e-05 -0.0001444194 -7.91403e-05 0.0001001135 -0.0111808616 0.8432269346
775295350.0 0.0001015643 0.8514181563 -9.51814e-05 -7.7673e-05 3.3628e-06 -2.187e-07 -0.0029227093 0.8430992133
780295320.0 0.0089813791 0.8509142505 -3.35905e-05 -0.0001078807 -7.25819e-05 -0.0001809254 0.0054161041 0.843121238
785295290.0 0.0172342713 0.8508468843 3.51299e-05 2.705e-05 -3.6693e-05 4.37124e-05 0.0137381191 0.8432860291
790295260.0 0.025273785 0.850980113 -5.99275e-05 -0.0002178603 3.87238e-05 -6.08993e-05 0.0218562295 0.8430107277
795295230.0 0.0334733332 0.8507537331 1.4322e-05 -4.95992e-05 -2.96728e-05 -7.65439e-05 0.0301803793 0.8420417226
800295200.0 0.0414790539 0.8506515775 1.68162e-05 -7.61353e-05 3.4283e-05 1.18393e-05 0.03850449 0.8420343389
805295170.0 0.0492636783 0.8505530222 9.59979e-05 -1.2169e-05 -0.000242537 -8.19919e-05 0.0473502018 0.8418837764
810295140.0 0.0577199748 0.8507490208 9.51813e-05 -0.0001230458 -0.0001397236 -0.0001734495 0.0557000861 0.8414627401
815295110.0 0.0654523118 0.8499339069 -0.0001033611 -0.0001485211 -6.81712e-05 0.0002039639 0.0634726859 0.8408331083
820295080.0 0.0742614962 0.8488289904 -3.45088e-05 0.0001180064 2.86449e-05 -4.11742e-05 0.0717686638 0.8406233693
825295050.0 0.0819315144 0.8480754963 0.0001228724 -0.0002317206 0.0001081553 -9.6408e-06 0.0804921036 0.839445684
830295020.0 0.0910731596 0.847396741 5.29587e-05 5.01511e-05 0.0001438038 -3.96259e-05 0.0883977629 0.8379497561
835294990.0 0.0983454343 0.8467188757 -7.34895e-05 -0.0001509405 -6.7834e-06 -6.889e-06 0.0966687316 0.837991862
840294960.0 0.1072147491 0.8453861451 -5.63312e-05 0.0002203391 -7.22479e-05 0.0001186667 0.1056870164 0.8368976124
845294930.0 0.1147358973 0.8448904994 4.9945e-05 -2.13277e-05 0.000167773 -9.74759e-05 0.1140631494 0.8360682342
850294900.0 0.1243384749 0.8436236137 1.24772e-05 -2.26923e-05 -5.37813e-05 0.0001007697 0.1216319567 0.8346666602
