!Created with skrf (http://scikit-rf.org).
# Hz S RI R 50.0 
!freq ReS11 ImS11 ReS21 ImS21 ReS12 ImS12 ReS22 ImS22
300000.0 -0.1008699473 -0.0679832917 0.631644562 0.0633135837 0.6239390722 0.0648012168 -0.1003094684 -0.0753594481
5299970.0 -0.1021978704 0.0133361951 0.6304436646 0.0097206761 0.630566421 0.0104790409 -0.1007263541 0.013220504
10299940.0 -0.09717945 0.029307695 0.6339574635 0.0153397287 0.6345003786 0.0156934086 -0.0957361243 0.0301618666
15299910.0 -0.0898985531 0.042573115 0.6401042018 0.0202326634 0.6411299844 0.0203952706 -0.0885112529 0.0437799078
20299880.0 -0.0815324249 0.0533770928 0.6486632131 0.0242749828 0.6487661678 0.0240601586 -0.0797312861 0.0544539289
25299850.0 -0.0723049938 0.0620949271 0.6575348949 0.0252691952 0.6576998532 0.0253631608 -0.0698312977 0.0632735027
30299820.0 -0.0622801887 0.0689427143 0.6675079075 0.0245476715 0.6673045245 0.0245766829 -0.0596174109 0.0700835367
35299790.0 -0.0522606476 0.0734167728 0.6773121293 0.0211722737 0.6769880295 0.0216072243 -0.0501415977 0.074986988
40299760.0 -0.0431788387 0.0770860012 0.6861260183 0.0175201478 0.6866837079 0.0174948402 -0.040460845 0.0773413517
45299730.0 -0.0340961613 0.0794502725 0.6946402567 0.0115399238 0.6953644179 0.0119268691 -0.0313360325 0.0799946167
50299700.0 -0.0255319183 0.0799608106 0.7038058497 0.0052216472 0.7035267463 0.0049672721 -0.0226606981 0.0804901877
55299670.0 -0.0176455304 0.0804560573 0.7110048532 -0.0034444979 0.7107453773 -0.0025374879 -0.0147270517 0.0806189676
60299640.0 -0.0100817838 0.0801044351 0.7173715681 -0.0113874588 0.7177452819 -0.0109608914 -0.008106156 0.0796256578
65299610.0 -0.0037690928 0.0785994658 0.7232264593 -0.0200933483 0.7232467354 -0.0204471246 -0.0009191867 0.0785319465
70299580.0 0.0026830413 0.0776308423 0.7287823257 -0.0295367875 0.7285216956 -0.0292936903 0.004840583 0.0768017391
75299550.0 0.007972492 0.0758648902 0.7326309692 -0.0389995311 0.7326683898 -0.0385914983 0.0100840132 0.0747131603
80299520.0 0.0128652347 0.0735356808 0.7369758527 -0.049004558 0.7373410107 -0.0490574494 0.0149596791 0.0727477727
85299490.0 0.0178466305 0.0715300807 0.7403945764 -0.0585049205 0.7407164385 -0.0581676025 0.0192980363 0.0697523728
90299460.0 0.0215781692 0.0688365566 0.7425156868 -0.0688368463 0.7433921637 -0.0687817692 0.0236167379 0.06798191
95299430.0 0.0258228806 0.0664293344 0.7459962909 -0.0790606515 0.7457344312 -0.0793092721 0.0276163743 0.0656369006
100299400.0 0.0289565554 0.0647570628 0.7468692431 -0.0889522929 0.7473767929 -0.0892918256 0.0310709678 0.0626889678
105299370.0 0.0322261099 0.061981286 0.748417685 -0.0992836943 0.7490330087 -0.0992540748 0.0341492845 0.0608772064
110299340.0 0.0348782219 0.0597293717 0.7498006842 -0.1091662871 0.7497035649 -0.1088605717 0.0363497272 0.0579835253
115299310.0 0.037495069 0.057302026 0.7504620676 -0.1193791406 0.7511152153 -0.1189101581 0.0387892283 0.0554429532
120299280.0 0.039885372 0.0546908762 0.751052973 -0.1289049421 0.7518562268 -0.1294236187 0.0412237465 0.0531217525
125299250.0 0.0419199196 0.0522871828 0.7514510608 -0.1389769773 0.7515972023 -0.1387449234 0.0430354332 0.050588119
130299220.0 0.0435324532 0.0502198403 0.750967669 -0.1492180755 0.7511236451 -0.1492514873 0.0449948221 0.0483095665
135299190.0 0.0451467229 0.0480820876 0.7514594983 -0.1587909534 0.7511056381 -0.1585209211 0.0467307957 0.0461584635
140299160.0 0.0462895277 0.0462687127 0.7509828398 -0.1687540533 0.7505387293 -0.1689290749 0.0478728555 0.0445405965
145299130.0 0.0481502191 0.0436673435 0.7499185281 -0.1784483789 0.7496569156 -0.1782053682 0.049626074 0.0420662472
150299100.0 0.0497255512 0.0422107144 0.7487097693 -0.1876977873 0.7490477271 -0.1877283038 0.0507194758 0.0401800377
155299070.0 0.0502506931 0.0396971444 0.7479592455 -0.1983722167 0.7476034622 -0.1978771958 0.0516393021 0.0381086574
160299040.0 0.0518492178 0.037992616 0.7462354472 -0.207074313 0.7455976357 -0.2074151832 0.0519382676 0.0363890472
165299010.0 0.0525373639 0.0364321899 0.7445604227 -0.2172617733 0.744697392 -0.2170754739 0.0536898778 0.0350865616
170298980.0 0.0533391852 0.0339364875 0.7426423051 -0.2260989775 0.7430182382 -0.2266313044 0.0543446325 0.0329917615
175298950.0 0.0537561576 0.0322168119 0.7414470162 -0.2352967931 0.7405818729 -0.2355320646 0.0546113149 0.0315613285
180298920.0 0.0542349818 0.0303685815 0.7384673874 -0.2450950756 0.7386574431 -0.2445901208 0.0553947606 0.0298428879
185298890.0 0.0554576182 0.0288998016 0.7369737466 -0.2534723301 0.7363267111 -0.2538277829 0.0557498337 0.0282051819
190298860.0 0.0553555806 0.0275801016 0.7340285098 -0.2626807541 0.7345056563 -0.2633421752 0.0562650396 0.0263125818
195298830.0 0.0559664833 0.0252237397 0.7321043558 -0.2712755859 0.7319402374 -0.271805004 0.0570271673 0.0246909714
200298800.0 0.0564303527 0.0241427747 0.728963534 -0.2811548194 0.7293137253 -0.281435253 0.056887265 0.0237374413
205298770.0 0.0569495625 0.0226883585 0.7256037187 -0.2898934337 0.7260900934 -0.2901108321 0.0574539747 0.0212340546
210298740.0 0.0572581442 0.0209623361 0.7228060198 -0.298082978 0.7232163244 -0.2978125861 0.0579902763 0.0213414958
215298710.0 0.056850191 0.0196207962 0.7197216211 -0.3073030758 0.7201231725 -0.3074959913 0.0574981048 0.0195672039
220298680.0 0.0574844514 0.0177105358 0.7166648368 -0.3158256644 0.7167092886 -0.3158815461 0.057517884 0.0180007379
225298650.0 0.0577113678 0.0167961043 0.7140248214 -0.3245660136 0.7139227558 -0.3243379332 0.0574750745 0.0164277435
230298620.0 0.0581776078 0.0155694974 0.710495317 -0.3332444359 0.7107931262 -0.3332404757 0.0574623478 0.0149580383
235298590.0 0.0578599158 0.0146491168 0.7071378522 -0.3418177959 0.7071660652 -0.3410991725 0.0576160397 0.0139006096
240298560.0 0.0577594582 0.0132422088 0.7035892743 -0.3498386845 0.7029372108 -0.3498701505 0.0575250601 0.0130220813
245298530.0 0.057991664 0.0120857766 0.6998028003 -0.3582981644 0.6999037132 -0.3585768797 0.0582304898 0.0111582304
250298500.0 0.0585549529 0.0110836165 0.6949127237 -0.366534035 0.6950404493 -0.3660410053 0.0577674438 0.0101036241
255298470.0 0.0582628145 0.0092838167 0.6909883067 -0.3741895028 0.6917706629 -0.3743627557 0.0579865462 0.0088632991
260298440.0 0.0579931305 0.0080507726 0.6877245568 -0.3829163627 0.6880406493 -0.3823427806 0.058330245 0.0079292502
265298410.0 0.0588281568 0.007630773 0.683758402 -0.3907817855 0.6839055973 -0.3903279011 0.057876112 0.0069418647
270298380.0 0.0587096366 0.0061070769 0.6800535379 -0.3983072864 0.6795405302 -0.398318163 0.0579153528 0.0057403722
275298350.0 0.0588972724 0.0051121988 0.6752089852 -0.4067452631 0.6751255594 -0.4066747693 0.0586791734 0.0043549741
280298320.0 0.0586391342 0.0043578758 0.6711571048 -0.4142628835 0.6706401663 -0.4143995751 0.0587571088 0.0033053077
285298290.0 0.0586279476 0.0031464296 0.6664571562 -0.4221670161 0.6662965984 -0.4223101859 0.0586144283 0.0022754038
290298260.0 0.0590481826 0.0021704128 0.6617594855 -0.4298208508 0.662137937 -0.4301655234 0.0587887516 0.0017552533
295298230.0 0.0587190926 0.0008074831 0.6577928742 -0.4375396383 0.657359127 -0.4381335221 0.0591493205 0.0003252512
300298200.0 0.0583607742 -0.0001657465 0.6527384063 -0.4448096086 0.6530865778 -0.4458357464 0.058610605 -0.0006484955
305298170.0 0.0587223367 -0.0016099417 0.648110444 -0.4537099453 0.6480946566 -0.4529094246 0.0594502016 -0.0022400293
310298140.0 0.0585101446 -0.0023256844 0.6432258793 -0.4606666286 0.6432070929 -0.4606628574 0.0592175632 -0.0031593664
315298110.0 0.0582730168 -0.0043286129 0.6379739487 -0.468417382 0.6382619572 -0.4686324644 0.0590021148 -0.0042865852
320298080.0 0.0586020612 -0.0049657372 0.632367825 -0.4764579105 0.6326910798 -0.4758928099 0.0585618903 -0.0053087188
325298050.0 0.057800818 -0.006156025 0.6271276728 -0.483950586 0.6271607525 -0.4836963219 0.0579645339 -0.0066764608
330298020.0 0.0574178536 -0.0075813699 0.6213125002 -0.4907484286 0.6212428471 -0.4908997386 0.0573482997 -0.0076918105
335297990.0 0.0570434837 -0.0086777383 0.6154841156 -0.4973896557 0.6157329033 -0.4980105006 0.0564639195 -0.0076384119
340297960.0 0.0563279683 -0.0090818837 0.6099799251 -0.5048647297 0.609361531 -0.505358566 0.057044476 -0.0087284832
345297930.0 0.0556287595 -0.0093867268 0.6039285734 -0.5118403636 0.6038756496 -0.5121217284 0.0565974882 -0.0098570076
350297900.0 0.0551620783 -0.0109226363 0.5974230747 -0.5188948316 0.5975651484 -0.5186712679 0.0553361639 -0.0098318705
355297870.0 0.0549722966 -0.0107193339 0.5922365401 -0.5250996214 0.5922676067 -0.5249778352 0.0551531521 -0.0110357689
360297840.0 0.0546117144 -0.0114863509 0.5874201767 -0.5317012015 0.5873143531 -0.5318163228 0.0550310452 -0.0110484642
365297810.0 0.0540412389 -0.0121394664 0.5803459036 -0.5384389564 0.5811238226 -0.5387230318 0.0545947525 -0.0117302098
370297780.0 0.0541615162 -0.0134485267 0.5743905445 -0.5447509482 0.5748904667 -0.5445558327 0.0540660379 -0.0124355582
375297750.0 0.0539326428 -0.0138988057 0.5686251839 -0.5516188958 0.5695941036 -0.5513018562 0.0543855499 -0.0129006226
380297720.0 0.0536198858 -0.0141237231 0.5624456789 -0.5576786324 0.562903491 -0.5565632754 0.0532891996 -0.0141679135
385297690.0 0.0527117781 -0.0153655249 0.5558799475 -0.5638205737 0.5561157326 -0.5638040215 0.0531898871 -0.0142333843
390297660.0 0.052737923 -0.0154181851 0.5500777302 -0.570099515 0.550197968 -0.5697544769 0.0528482902 -0.0153652879
395297630.0 0.0521877358 -0.016111466 0.5442196139 -0.576250059 0.5440083379 -0.5762530181 0.052939565 -0.0156869733
400297600.0 0.0518219043 -0.016913153 0.5372227325 -0.582675602 0.5371513034 -0.5825013329 0.0521378766 -0.0165170693
405297570.0 0.0512158502 -0.0174675523 0.5310111091 -0.5880351017 0.5308866995 -0.587944479 0.0516435399 -0.0168925349
410297540.0 0.0512866502 -0.0181794679 0.5250034704 -0.5943900598 0.5251268907 -0.5941515093 0.0511552231 -0.0173696352
415297510.0 0.0511575122 -0.018604961 0.5174805633 -0.5998894714 0.5182272492 -0.6000604254 0.0509687351 -0.0178385661
420297480.0 0.0511231525 -0.0192342426 0.5111185929 -0.6060163262 0.5113879898 -0.6061231955 0.05027317 -0.0192184755
425297450.0 0.0503610209 -0.0206422817 0.5050540388 -0.6113311557 0.5049247109 -0.6111572496 0.049705831 -0.0187784093
430297420.0 0.0497524203 -0.0209993746 0.4978443104 -0.6161331818 0.497790136 -0.6163069828 0.0494238154 -0.0202908452
435297390.0 0.0495607576 -0.0213594633 0.4905552632 -0.6228925512 0.4908447765 -0.6222098332 0.0501868564 -0.0207375141
440297360.0 0.0493741561 -0.0216795474 0.4839674471 -0.6278961798 0.4842209134 -0.6279628408 0.0488689154 -0.0216051234
445297330.0 0.0484423402 -0.0227893652 0.4776414684 -0.6332489112 0.4780087018 -0.6328301485 0.0491673535 -0.0221814952
450297300.0 0.0488209298 -0.0232504764 0.4708046665 -0.6386472478 0.4699215376 -0.6389814419 0.0481776916 -0.0227896129
455297270.0 0.0480028999 -0.0236941002 0.462762622 -0.6437685151 0.4635902472 -0.6437254477 0.0479928826 -0.0232899771
460297240.0 0.0476300844 -0.0241929255 0.4560925523 -0.648894796 0.4559613452 -0.648878971 0.0478528024 -0.0238573564
465297210.0 0.0476350773 -0.0249549194 0.449166521 -0.6542393719 0.4487271623 -0.6543219695 0.0474326733 -0.0246383456
470297180.0 0.0471114114 -0.0259474116 0.4413183214 -0.6581743662 0.4419664018 -0.6594094157 0.0469491799 -0.0252193446
475297150.0 0.0467757078 -0.0266215202 0.4342902041 -0.6630534487 0.4345777317 -0.6629654281 0.0471484053 -0.0256884524
480297120.0 0.0459918992 -0.0260500537 0.427274175 -0.6683366113 0.42686735 -0.6687210251 0.0468728261 -0.0259185261
485297090.0 0.0455345306 -0.0270774274 0.4201246915 -0.6728364007 0.4203323865 -0.6730296572 0.0464294964 -0.0268068521
490297060.0 0.0446829623 -0.0276165563 0.4128577289 -0.6780416649 0.4127987113 -0.6773513397 0.0457324975 -0.0266174436
495297030.0 0.0445978115 -0.0281472531 0.4048380387 -0.6823786511 0.4057105983 -0.6820769666 0.0451677829 -0.0275466447
500297000.0 0.0438910037 -0.0289137659 0.3973003999 -0.6861330489 0.3970140389 -0.6860217718 0.0448955505 -0.0272413386
505296970.0 0.0437994334 -0.0292740536 0.3897243128 -0.6905722513 0.3899070117 -0.6907395012 0.0444150773 -0.0280934019
510296940.0 0.0432498303 -0.0296933758 0.3819094275 -0.6952564836 0.3822442173 -0.6957152884 0.0444978244 -0.0284538922
515296910.0 0.0424263266 -0.0297423566 0.3745252566 -0.698939814 0.3746071493 -0.6990931939 0.0438487213 -0.02895458
520296880.0 0.0421105331 -0.0304951505 0.366710205 -0.703977483 0.3674142201 -0.7034780789 0.043378953 -0.0293840462
525296850.0 0.0418437114 -0.031530423 0.3591412642 -0.7073230421 0.3594815663 -0.7073230604 0.0422919439 -0.0298670328
530296820.0 0.0412984568 -0.0314313077 0.3510727289 -0.7113292981 0.3512460332 -0.7113507065 0.0424156762 -0.0301632685
535296790.0 0.0402661959 -0.0318153528 0.3433724648 -0.7153017867 0.3436981456 -0.7147334067 0.0418125986 -0.0311272187
540296760.0 0.0401078583 -0.0319384039 0.336085441 -0.719107037 0.3356703989 -0.719374223 0.0408441774 -0.0303797406
545296730.0 0.0394752937 -0.0327012839 0.3274201448 -0.7222202656 0.3276970807 -0.7224433068 0.0401982309 -0.0312035119
550296700.0 0.0397773248 -0.0326171671 0.3196556202 -0.7260571172 0.3198213599 -0.7263417012 0.0393346121 -0.0316566737
555296670.0 0.038666948 -0.0333053159 0.3123673443 -0.729897271 0.3124572564 -0.7296750252 0.0392960837 -0.0320973363
560296640.0 0.0384629404 -0.0332895117 0.3038943067 -0.7331285527 0.3038658095 -0.7331891804 0.0387687999 -0.0324141639
565296610.0 0.0372637112 -0.0339273954 0.2954570198 -0.7362397214 0.2961480408 -0.7365627614 0.0379980067 -0.0332327159
570296580.0 0.0372205316 -0.0341364922 0.287773856 -0.7403310683 0.2869705628 -0.7394660031 0.0378657927 -0.0326806298
575296550.0 0.0362542576 -0.0342103227 0.2800570456 -0.7425943767 0.2795435777 -0.7426950852 0.0375408712 -0.0335475036
580296520.0 0.0360494173 -0.0347271951 0.2717251101 -0.7463500054 0.271541499 -0.7457493748 0.0366874546 -0.0341510566
585296490.0 0.0352129066 -0.0357458624 0.2632341612 -0.748302224 0.26377881 -0.7489995889 0.0361132191 -0.0341101139
590296460.0 0.0355190328 -0.0354963766 0.2553485386 -0.750699575 0.2553296946 -0.7510222491 0.0347140331 -0.0345182148
595296430.0 0.0352813157 -0.0357325856 0.247174324 -0.7543127319 0.2467047754 -0.7542165245 0.0348031748 -0.0355247174
600296400.0 0.033757308 -0.0363555637 0.238512212 -0.7568418315 0.2383670606 -0.756770943 0.0342538328 -0.0356188958
605296370.0 0.0332341077 -0.0363691562 0.2301893265 -0.7596221305 0.2306192799 -0.7595932394 0.033666465 -0.0358845115
610296340.0 0.0329666378 -0.0369844827 0.2217610338 -0.7614964479 0.2225678509 -0.7616361321 0.0334687397 -0.0360625269
615296310.0 0.0328708634 -0.0375487592 0.2137274616 -0.7639381654 0.2132416133 -0.7645216706 0.0330921874 -0.0362675952
620296280.0 0.0321326342 -0.0379385223 0.2057807398 -0.7662508763 0.2051835304 -0.7663028788 0.0320840136 -0.0365863226
625296250.0 0.0310573846 -0.0385983709 0.1981125636 -0.7688007118 0.1969673818 -0.7689541076 0.0324511665 -0.0368961101
630296220.0 0.0316871763 -0.0384842955 0.1881856456 -0.7703449117 0.1880647999 -0.7707050893 0.0312985381 -0.0373985296
635296190.0 0.0297791813 -0.0392007339 0.1803846318 -0.7727514938 0.1801925755 -0.7729466193 0.031136808 -0.0374311456
640296160.0 0.029265986 -0.0389379828 0.1714925842 -0.7745097118 0.1718651211 -0.7746432203 0.0303340612 -0.0379769146
645296130.0 0.0289630746 -0.0391050677 0.1629449228 -0.7761626357 0.1635790447 -0.7763008544 0.0298212945 -0.0377639701
650296100.0 0.0284565109 -0.0395669893 0.1549872855 -0.7781002913 0.1553296518 -0.7784891319 0.0303754248 -0.0389603933
655296070.0 0.0274518008 -0.0401042909 0.1462939676 -0.7798340188 0.1465874187 -0.7796760934 0.0295165494 -0.0384017284
660296040.0 0.0264669701 -0.0404029344 0.1376623985 -0.7813302576 0.1382618425 -0.7817421537 0.0290042981 -0.0388852641
665296010.0 0.0268480901 -0.0404199096 0.1285910986 -0.782661021 0.1293172811 -0.7826848231 0.0282844255 -0.0384472992
670295980.0 0.0246614191 -0.0404998072 0.1207432485 -0.784131951 0.1206730368 -0.7839446178 0.0269223789 -0.0389385896
675295950.0 0.0249421934 -0.0402065917 0.1125847876 -0.7850915239 0.1121389651 -0.784525991 0.0263486312 -0.0390245335
680295920.0 0.0239154071 -0.0411797656 0.1032081105 -0.7861433146 0.1026802533 -0.7870509205 0.0262554476 -0.0387031394
685295890.0 0.0237855584 -0.0403084902 0.0949959552 -0.787251129 0.0948738343 -0.7874227251 0.0252783104 -0.0390399104
690295860.0 0.0235806897 -0.0409081718 0.0867432132 -0.7878707406 0.0862104861 -0.7889084721 0.024927221 -0.038429622
695295830.0 0.0226888663 -0.0412831148 0.0778584284 -0.7893515456 0.0774592984 -0.7889576485 0.0242328568 -0.0389312586
700295800.0 0.022412609 -0.0420001749 0.0691955899 -0.7899461603 0.0688235283 -0.7899446847 0.0234703853 -0.0383172457
705295770.0 0.021463538 -0.0408834272 0.0605727531 -0.7908348518 0.0608004986 -0.7913532949 0.0230788941 -0.0389041102
710295740.0 0.0213262263 -0.0413730258 0.0521277356 -0.7923821464 0.0527982142 -0.7920776735 0.0227944645 -0.0397531705
715295710.0 0.0196800615 -0.0417400128 0.0439431793 -0.7925037989 0.042995253 -0.7924086735 0.022157327 -0.0395897802
720295680.0 0.0195381669 -0.0417452598 0.0347521178 -0.792431362 0.0351198806 -0.7920335258 0.0214539544 -0.0392177844
725295650.0 0.0192416647 -0.0418097328 0.0262267577 -0.7927979555 0.0259414661 -0.7930402952 0.0203287776 -0.039064507
730295620.0 0.0189238139 -0.0417233134 0.0175623449 -0.7930348837 0.0176271163 -0.7932968845 0.019561274 -0.039780215
735295590.0 0.0178446531 -0.0415317649 0.0086648676 -0.7934608026 0.0085803756 -0.7932144654 0.0192971447 -0.0400457569
740295560.0 0.0170441921 -0.0416100664 0.000232914 -0.7931381568 -0.00010811 -0.7931574417 0.0191213131 -0.0396955365
745295530.0 0.0165997036 -0.0417982696 -0.008050298 -0.792449827 -0.0085006838 -0.7929317167 0.0183861617 -0.0404970109
750295500.0 0.0161006014 -0.0419777437 -0.0164227764 -0.7923635894 -0.0168455392 -0.7931025407 0.0173587217 -0.0401363939
755295470.0 0.0157578535 -0.0420932588 -0.0253250952 -0.7925864272 -0.0252113446 -0.7930807857 0.0172331199 -0.0405574503
760295440.0 0.0148332306 -0.0419259386 -0.033970658 -0.7926444342 -0.0342054902 -0.7928409928 0.0166499178 -0.0404800717
765295410.0 0.014127271 -0.0419812785 -0.0425459276 -0.7920509663 -0.0434459549 -0.7925545478 0.015969678 -0.0402776368
770295380.0 0.0131137379 -0.0423889674 -0.0519193347 -0.7916280675 -0.0516115914 -0.7915862887 0.0149528102 -0.0410290798
775295350.0 0.0126232701 -0.0428167596 -0.0608984405 -0.7903579806 -0.0598938081 -0.7903047151 0.0138243176 -0.0404100644
780295320.0 0.0122913389 -0.0423259256 -0.0688491463 -0.7896108 -0.0682775228 -0.7898744679 0.0136598774 -0.0411252718
785295290.0 0.0114405865 -0.0428595281 -0.0777708268 -0.7884275299 -0.0772757719 -0.7889127766 0.013631186 -0.0407154075
790295260.0 0.0114925128 -0.0418381372 -0.0856673978 -0.7877986399 -0.0845404359 -0.7879719868 0.0126999999 -0.0409342917
795295230.0 0.0104202299 -0.0425749544 -0.0946287018 -0.7872274766 -0.0937837664 -0.787235875 0.0126622352 -0.0403814937
800295200.0 0.0093122323 -0.0420502338 -0.1041278836 -0.7856379681 -0.1032675183 -0.785944739 0.0117583838 -0.0407226531
805295170.0 0.0092987738 -0.0424281571 -0.1110510775 -0.784785182 -0.1116541176 -0.7854842007 0.011239773 -0.0406965604
810295140.0 0.008040199 -0.0426369179 -0.1196865157 -0.7833293064 -0.1198139974 -0.7835878069 0.0112946165 -0.0403754137
815295110.0 0.0077684452 -0.0427582077 -0.1286126261 -0.7820511094 -0.1280461625 -0.7821087068 0.0100068693 -0.0402248131
820295080.0 0.0066251633 -0.0419975751 -0.1370219796 -0.7801760014 -0.1369872328 -0.7809081127 0.0094786885 -0.0405808837
825295050.0 0.0067729318 -0.0420909819 -0.144116553 -0.7788020968 -0.1452473042 -0.7792762951 0.009532212 -0.0400965891
830295020.0 0.0059052517 -0.041698505 -0.1537710702 -0.776899217 -0.1538333149 -0.7772499414 0.0092798456 -0.039978775
