!Created with skrf (http://scikit-rf.org).
# Hz S RI R 50.0 
!freq ReS11 ImS11 ReS21 ImS21 ReS12 ImS12 ReS22 ImS22
300000.0 -0.2409623663 -0.0757636543 0.4736544851 0.0516480517 0.4677207115 0.0502555789 -0.2420246339 -0.0899782203
5299970.0 -0.2443707338 0.007154313 0.4737385119 0.0051633949 0.4735844024 0.0047774315 -0.2443381285 0.0075091627
10299940.0 -0.2410025567 0.0188184976 0.4756466017 0.006076774 0.4755410997 0.0062184884 -0.2406701629 0.0202105814
15299910.0 -0.2367268451 0.027913349 0.478983659 0.0076860028 0.4791081669 0.0075367116 -0.236245008 0.0296264285
20299880.0 -0.2320722181 0.0351508186 0.4836807935 0.0085669251 0.4838366567 0.0080486236 -0.2309108596 0.0375358928
25299850.0 -0.2268286588 0.0419408891 0.4891262287 0.0076675665 0.4891208599 0.007567184 -0.2249215847 0.0438241449
30299820.0 -0.2215193167 0.0471300947 0.4944735958 0.0054374625 0.4944871006 0.0055783512 -0.2193371499 0.0490176677
35299790.0 -0.2164526926 0.0513467492 0.5000960414 0.0018762984 0.4999662316 0.0017441815 -0.2135069642 0.0534736565
40299760.0 -0.2115376326 0.0549532561 0.5049991273 -0.0015928101 0.5051605555 -0.0019691304 -0.2083170766 0.0560966937
45299730.0 -0.206743602 0.0574738827 0.5092340944 -0.0062641496 0.5099165726 -0.0064755627 -0.2033331217 0.058811595
50299700.0 -0.2025111551 0.0596738244 0.5142401408 -0.0121018439 0.5141262618 -0.0118570796 -0.198610432 0.0606386855
55299670.0 -0.198310306 0.0617951682 0.5177775916 -0.0184233362 0.5179797289 -0.0180322198 -0.1943236332 0.0621434009
60299640.0 -0.1944301336 0.0635335771 0.5211386576 -0.0242862634 0.5218391138 -0.0239963977 -0.1903884554 0.0629945531
65299610.0 -0.191047313 0.0647560046 0.5240081237 -0.0307652102 0.5241817069 -0.0306155992 -0.1871194883 0.0640937676
70299580.0 -0.1879290677 0.066161345 0.5269789514 -0.0372104696 0.5264635241 -0.0369826352 -0.1838052364 0.0647186257
75299550.0 -0.1850513709 0.0673139561 0.528540059 -0.0441685849 0.5282833576 -0.0445319855 -0.1810170749 0.0653676314
80299520.0 -0.1825364083 0.0680996659 0.5304278783 -0.0510909465 0.5308690349 -0.0509048478 -0.178522003 0.066139279
85299490.0 -0.1802120579 0.068852794 0.5317068785 -0.05759206 0.5320800451 -0.0576569241 -0.1761763441 0.0662028421
90299460.0 -0.1779031467 0.0698135324 0.5322491408 -0.0648572766 0.5331225154 -0.0648878315 -0.1737910227 0.0668802314
95299430.0 -0.1758232759 0.0705829456 0.5340022293 -0.0716810112 0.5336952409 -0.0718796987 -0.1714235282 0.0675761771
100299400.0 -0.173918041 0.0715082229 0.5337486932 -0.0784834339 0.533721385 -0.0786934401 -0.1693558274 0.0676131311
105299370.0 -0.172146595 0.0725561679 0.5342336524 -0.0856771958 0.5346737223 -0.0855424006 -0.1677249626 0.0680081044
110299340.0 -0.1703864181 0.0730895172 0.5345540583 -0.0918771864 0.5346678445 -0.0919860618 -0.1664521668 0.0682410211
115299310.0 -0.168722597 0.0741882934 0.5343998295 -0.0991540296 0.5341793223 -0.0989629693 -0.1649465083 0.0691318416
120299280.0 -0.1673663599 0.0747174428 0.534188704 -0.105950309 0.5341871702 -0.1061912491 -0.1631743709 0.0695385686
125299250.0 -0.1660958177 0.075476779 0.5340275069 -0.1123748608 0.5340138683 -0.1122952683 -0.1624431609 0.069810765
130299220.0 -0.1649497953 0.0767989489 0.533414686 -0.1193960109 0.5335032176 -0.1195091999 -0.1613271875 0.0702496267
135299190.0 -0.1637219647 0.0780073801 0.5329066212 -0.1261429473 0.5327781705 -0.1259236349 -0.1599077526 0.0711453924
140299160.0 -0.1627116775 0.0789972363 0.5317851212 -0.1330724902 0.5319114134 -0.1326553609 -0.1590069343 0.0722583504
145299130.0 -0.1617241266 0.0799396389 0.5312574347 -0.1392283696 0.5307042647 -0.1394821875 -0.1578487635 0.0728734778
150299100.0 -0.1600438073 0.0811483724 0.5296732559 -0.1453241204 0.5299063455 -0.1457066059 -0.156994898 0.0740016565
155299070.0 -0.15950457 0.082203785 0.5289019697 -0.1528134466 0.5281645444 -0.1520454106 -0.1562437541 0.0746660003
160299040.0 -0.1582302337 0.0834742268 0.5272431892 -0.1586886835 0.5269661669 -0.158617514 -0.1557596794 0.0755383365
165299010.0 -0.1572648981 0.0845765143 0.5256793695 -0.1655089853 0.5260078915 -0.1654756561 -0.1543811637 0.0766985169
170298980.0 -0.1564764689 0.0858200397 0.5244368834 -0.1717196545 0.5242160978 -0.1716202323 -0.1535254257 0.0776921407
175298950.0 -0.1557258305 0.086890866 0.5228441349 -0.1774135662 0.5225313422 -0.1776467625 -0.1532056747 0.0786048649
180298920.0 -0.154634388 0.0883565416 0.5206330531 -0.1845030241 0.520901567 -0.1839999283 -0.152171073 0.0798012229
185298890.0 -0.1532059265 0.089255547 0.5189015611 -0.1904090535 0.5187191636 -0.1902936718 -0.1512431199 0.0809018735
190298860.0 -0.152793149 0.0910676823 0.5172420318 -0.1969400999 0.5175483997 -0.1966125612 -0.150584832 0.0817186801
195298830.0 -0.1518207381 0.0919508626 0.5151929074 -0.2024888722 0.5152214345 -0.2026860055 -0.1496694001 0.0828355866
200298800.0 -0.1507077953 0.0935649624 0.5132712303 -0.2086438471 0.5130984818 -0.2091048518 -0.1495987967 0.084068677
205298770.0 -0.1497772806 0.0952018522 0.510445949 -0.2152661753 0.5105414727 -0.2148161796 -0.148641316 0.0847347885
210298740.0 -0.1489852382 0.0963372807 0.508659923 -0.2207503208 0.5085264135 -0.2205789838 -0.1474261088 0.0867508502
215298710.0 -0.1481612402 0.0978776084 0.5063641017 -0.2271938062 0.5062043827 -0.2270665048 -0.1473249329 0.0876680856
220298680.0 -0.1467639027 0.0987201223 0.5033730565 -0.232691182 0.503921549 -0.2327587386 -0.1468734648 0.0884436796
225298650.0 -0.1463274361 0.1003910377 0.501524493 -0.2387118508 0.5014856351 -0.2386164968 -0.146230899 0.0895953421
230298620.0 -0.1453907455 0.1022590014 0.498984382 -0.2443436618 0.499235734 -0.2443473618 -0.1455273339 0.0907932802
235298590.0 -0.1439439739 0.10381872 0.4959994035 -0.2504191034 0.4965066116 -0.2497777513 -0.1445942417 0.0920409778
240298560.0 -0.1430541582 0.1051594378 0.4936038163 -0.2560009065 0.493205566 -0.2560891435 -0.1436613848 0.0936291039
245298530.0 -0.1421407642 0.106696882 0.4912157927 -0.2615785922 0.49084605 -0.2617817659 -0.1430097045 0.0941969145
250298500.0 -0.1409130669 0.1080923501 0.4873276984 -0.2674711181 0.4873955032 -0.2668630059 -0.142370897 0.0956189261
255298470.0 -0.1399620661 0.1093309315 0.4840488349 -0.2724874318 0.4848343899 -0.2728247704 -0.1414955128 0.0970620234
260298440.0 -0.1392661992 0.1105564444 0.4817541351 -0.2783468832 0.4822037413 -0.2781304668 -0.1406385101 0.0979771155
265298410.0 -0.1375633689 0.1124869285 0.4788789883 -0.2841290574 0.4792662578 -0.2837696096 -0.1397953036 0.099572883
270298380.0 -0.1362648715 0.1136915324 0.4759970688 -0.2891838261 0.4762554558 -0.2890008965 -0.1389830004 0.1006159361
275298350.0 -0.1351686379 0.1152947711 0.47272795 -0.29481245 0.4731059373 -0.2947446998 -0.1381009002 0.1018386958
280298320.0 -0.1340188153 0.1167210299 0.4695941324 -0.3003051677 0.4698431878 -0.299983001 -0.1368167326 0.1030426228
285298290.0 -0.132895949 0.1185193861 0.4664703706 -0.3054156212 0.4659107686 -0.3053711453 -0.1358806125 0.104157288
290298260.0 -0.1314551406 0.1196035026 0.4628854426 -0.3104664034 0.4629653823 -0.3107873476 -0.1347987186 0.1059749934
295298230.0 -0.1300972591 0.1206961686 0.4596997541 -0.3158515694 0.4594778027 -0.3162622711 -0.1337605277 0.1068050255
300298200.0 -0.1293872561 0.1224341438 0.4566492358 -0.3211202675 0.4565133099 -0.3212351124 -0.1327651375 0.1077846197
305298170.0 -0.1278213458 0.1234838554 0.4527527175 -0.3265232757 0.4527672648 -0.3260633751 -0.1312399696 0.1091205283
310298140.0 -0.1265098941 0.1252348735 0.4490482248 -0.3319095515 0.4495437169 -0.3316018897 -0.1305956853 0.1105085561
315298110.0 -0.1254009008 0.1262046121 0.4457769321 -0.3364449141 0.4457651588 -0.3366546317 -0.1297902535 0.1116735383
320298080.0 -0.1237004875 0.127764756 0.4414018602 -0.3419256267 0.4418530579 -0.3421945481 -0.12882956 0.1127743177
325298050.0 -0.1227606175 0.1287785432 0.4375293526 -0.3470049993 0.4378061349 -0.3469085959 -0.1282073033 0.1136408786
330298020.0 -0.1214660351 0.1300173382 0.4339119521 -0.3524133617 0.4341673653 -0.351742219 -0.1272955568 0.1151829794
335297990.0 -0.1201884089 0.1311272348 0.4296828109 -0.3563019637 0.4297589059 -0.3567276891 -0.1265607025 0.1167740941
340297960.0 -0.1192840035 0.1328601008 0.4254792216 -0.3615897055 0.4253444511 -0.3618696689 -0.1248594208 0.1180485726
345297930.0 -0.1178579588 0.1346290624 0.4213725409 -0.3663520383 0.4213685701 -0.3665122774 -0.1242462783 0.1192733714
350297900.0 -0.1166169056 0.1356662001 0.4169723411 -0.3706158903 0.4172765107 -0.3706696634 -0.1236923592 0.1210735982
355297870.0 -0.1151602833 0.1377380109 0.4128421136 -0.3754605141 0.413475847 -0.3753200557 -0.1225450514 0.1219425836
360297840.0 -0.1135164019 0.1388089943 0.4094832519 -0.379650108 0.4097414326 -0.3799516942 -0.1212411886 0.1237423843
365297810.0 -0.1122369806 0.1402945793 0.4048317391 -0.3848860051 0.404832916 -0.3847915281 -0.1201385063 0.1248604494
370297780.0 -0.1107842572 0.1413329299 0.4002189874 -0.3888780442 0.4007331043 -0.38851139 -0.1190293447 0.1262825278
375297750.0 -0.1092758124 0.1429445269 0.3963561034 -0.3934072072 0.396535874 -0.3934496044 -0.1179338998 0.1273643518
380297720.0 -0.1079895158 0.143953107 0.3918145459 -0.3975815817 0.3920482899 -0.3969726892 -0.1171258011 0.1286568962
385297690.0 -0.1066278336 0.1457370635 0.3874279157 -0.401891192 0.3872755655 -0.4018668799 -0.1155631249 0.1301173929
390297660.0 -0.1048668384 0.1471736637 0.3834110158 -0.4063631059 0.3831101411 -0.406050955 -0.1150094492 0.1315659067
395297630.0 -0.1032705263 0.1484035947 0.3788157299 -0.4104096949 0.3787499688 -0.4107095707 -0.1132511666 0.1326202996
400297600.0 -0.1016578656 0.1496430037 0.373981243 -0.4149320237 0.3742934025 -0.4150834835 -0.112224033 0.1339669816
405297570.0 -0.1004828441 0.1508118528 0.3695946319 -0.4186025711 0.3695972074 -0.4184038556 -0.1112503961 0.135142373
410297540.0 -0.0985384688 0.1520561207 0.3652350901 -0.4229145498 0.3653893756 -0.4226649723 -0.1099171404 0.1366283475
415297510.0 -0.0966981941 0.1531071854 0.3601102236 -0.4269582946 0.3606429331 -0.4272332226 -0.1086550073 0.1378924769
420297480.0 -0.0951176831 0.1547804665 0.3550959979 -0.4309842989 0.3555543918 -0.4311629443 -0.1075652449 0.1384290721
425297450.0 -0.0935230405 0.1552311842 0.3508442883 -0.434515559 0.3510257765 -0.4346180783 -0.1065328186 0.1400011642
430297420.0 -0.091614422 0.1563572834 0.345922659 -0.4377033055 0.3465070881 -0.4380791273 -0.1054392849 0.1406368589
435297390.0 -0.0902260092 0.1578389504 0.3410040595 -0.4420571625 0.3408367846 -0.4421918574 -0.1034407966 0.1420522993
440297360.0 -0.0882926211 0.1590973802 0.3362959905 -0.4456302438 0.336434799 -0.4457042064 -0.102275974 0.1427656064
445297330.0 -0.0866283775 0.159752961 0.3317397572 -0.4493823319 0.3317132662 -0.4491185283 -0.1007931785 0.1437632031
450297300.0 -0.0850646774 0.1609787124 0.3267306548 -0.4531373441 0.3265566205 -0.453216334 -0.0994719067 0.1450116538
455297270.0 -0.0832017998 0.1620598087 0.3217957089 -0.4565002329 0.321748191 -0.4567638182 -0.098356042 0.1459391433
460297240.0 -0.0816781346 0.163299072 0.3165584178 -0.4599354387 0.3167047689 -0.4597088688 -0.0966285486 0.1472667135
465297210.0 -0.0793623478 0.1643296442 0.3116694415 -0.463469657 0.3115978311 -0.4636685721 -0.0952655555 0.1479690433
470297180.0 -0.0778687224 0.1649025076 0.3066816833 -0.4667781164 0.3064127981 -0.4668252924 -0.0935806833 0.1493468092
475297150.0 -0.0761108561 0.1660354566 0.3014366695 -0.4698688356 0.30139578 -0.4697614709 -0.0919058262 0.1499796047
480297120.0 -0.0744215071 0.1674943736 0.2959740485 -0.4736938187 0.2958919315 -0.4735236754 -0.0905175335 0.1512361716
485297090.0 -0.07235735 0.1681825739 0.291103214 -0.4760291922 0.2909479077 -0.476338459 -0.089019095 0.1521266357
490297060.0 -0.0706745271 0.1691029418 0.2858394773 -0.4794141186 0.2862273998 -0.4792419002 -0.0877729115 0.1535181374
495297030.0 -0.068882393 0.1701270977 0.2804774116 -0.4823143849 0.2812002154 -0.4826096313 -0.0862120154 0.1544466695
500297000.0 -0.0669774476 0.1708361613 0.2752868969 -0.4851926676 0.2749766574 -0.4853961738 -0.0845215125 0.1557712655
505296970.0 -0.0649334157 0.1717774688 0.2702384958 -0.4885172686 0.2698375834 -0.4881537054 -0.0833067167 0.1565873468
510296940.0 -0.0629860102 0.1726027486 0.2643189354 -0.4915733039 0.2643759624 -0.4914047587 -0.0815185332 0.1574509186
515296910.0 -0.061091411 0.1732874125 0.2588573989 -0.4938249009 0.25926582 -0.4941729312 -0.0799001732 0.1584054746
520296880.0 -0.0594591832 0.1742934753 0.2540364069 -0.4974052088 0.2538611371 -0.4969527501 -0.0786085262 0.1593547397
525296850.0 -0.0570236072 0.1745462342 0.2477985418 -0.4993718098 0.2485933105 -0.4993571991 -0.0772167084 0.1604043085
530296820.0 -0.0552425862 0.1758102136 0.2425838383 -0.5023154882 0.2429724841 -0.5023518079 -0.0756350537 0.1612977962
535296790.0 -0.053830628 0.1765222944 0.2375135434 -0.5049536068 0.2377224724 -0.504412975 -0.0741583537 0.1617867702
540296760.0 -0.0519771531 0.1775145611 0.2322383298 -0.5080900615 0.2319170299 -0.5080325015 -0.0730367314 0.1636122084
545296730.0 -0.0499463969 0.1781305571 0.2260971547 -0.5099544548 0.2261472474 -0.5102092856 -0.0710954376 0.163908072
550296700.0 -0.0473905691 0.1790340357 0.2206895801 -0.5121926997 0.2209015348 -0.512671239 -0.0697203176 0.1651791377
555296670.0 -0.0459078906 0.1791128099 0.2153173727 -0.5145780838 0.2152865698 -0.5145050657 -0.068031375 0.1660426608
560296640.0 -0.0434096116 0.1802167059 0.2095220316 -0.5173363415 0.2098054606 -0.5170433041 -0.0664921042 0.1667808671
565296610.0 -0.0417980546 0.1806997326 0.2036336768 -0.5192088217 0.2043075571 -0.5191914593 -0.0651286064 0.1672189601
570296580.0 -0.0401806157 0.1815570701 0.1983032256 -0.5220580649 0.1977282536 -0.5216348793 -0.0637161399 0.1684521075
575296550.0 -0.0382841314 0.1821845792 0.1930716099 -0.5238371354 0.192595627 -0.5236032002 -0.0617489313 0.1690563495
580296520.0 -0.0358020451 0.1826059868 0.1870271522 -0.5257932268 0.1868556036 -0.5256370977 -0.0601157514 0.1695137687
585296490.0 -0.0338010707 0.1826904609 0.1813192108 -0.527509929 0.1815273608 -0.5274557827 -0.058635824 0.1705948022
590296460.0 -0.0316899619 0.183536667 0.1754817614 -0.5293033385 0.1757603576 -0.5294985344 -0.0575899189 0.171046522
595296430.0 -0.0297407371 0.1840237148 0.1694326984 -0.531701846 0.1695030847 -0.5310929479 -0.0552907715 0.1713072121
600296400.0 -0.0278534351 0.1845572292 0.1639822696 -0.5331227909 0.1641351852 -0.5328606933 -0.0539955463 0.1722213734
605296370.0 -0.0259616275 0.1848438045 0.1580975921 -0.5345153247 0.1586392264 -0.5348033119 -0.0521364852 0.1729198234
610296340.0 -0.023502955 0.185412707 0.1518335516 -0.535991783 0.1524731565 -0.5363168903 -0.0503760878 0.1734151504
615296310.0 -0.0214067167 0.1853279032 0.1461610003 -0.5376742233 0.1463481881 -0.5386206782 -0.0486220335 0.1739063465
620296280.0 -0.0195407335 0.1857224132 0.1408291843 -0.5393091888 0.1406977901 -0.5393951047 -0.0471912476 0.1748772156
625296250.0 -0.0175904099 0.1857992262 0.1350451185 -0.541066646 0.13493283 -0.5413098891 -0.0443961286 0.1748685369
630296220.0 -0.0148188638 0.1865781837 0.1284112025 -0.5421257858 0.1285724463 -0.5422368243 -0.0433201833 0.1759340663
635296190.0 -0.0137492475 0.1866985086 0.1230664829 -0.5434280864 0.1226395483 -0.5435357868 -0.0413697405 0.1763795209
640296160.0 -0.011623485 0.1870373046 0.117090154 -0.5445071331 0.1174573452 -0.5449240351 -0.0397040582 0.1769980962
645296130.0 -0.0094028087 0.1876327101 0.1110243276 -0.5457808109 0.1112794037 -0.5460855095 -0.0379506676 0.1775125761
650296100.0 -0.0072050393 0.1874866124 0.1052281033 -0.5469957989 0.105362364 -0.5469122126 -0.0360726218 0.1776052596
655296070.0 -0.0051241186 0.1875762167 0.0993066913 -0.5484013382 0.099358726 -0.5482145072 -0.0343465448 0.1784062122
660296040.0 -0.0037137164 0.1874749353 0.0934590405 -0.5488615863 0.0934037248 -0.549398004 -0.0325993949 0.1787627652
665296010.0 -0.0009823091 0.1877280982 0.0871663467 -0.5499042119 0.0874408319 -0.5503029908 -0.0306882735 0.1801127416
670295980.0 0.0001577861 0.1883189112 0.0816222145 -0.5510474709 0.0813395127 -0.5512988883 -0.0291305114 0.1800581633
675295950.0 0.0029132924 0.1885342186 0.075967019 -0.5518140237 0.0755040149 -0.5513192561 -0.0275666427 0.1804464947
680295920.0 0.0045571033 0.188381578 0.0697192093 -0.5523270529 0.0691826818 -0.553375138 -0.0253665382 0.1815934257
685295890.0 0.0069333773 0.188987716 0.0638904149 -0.5529304727 0.0635223281 -0.5533695639 -0.0238993205 0.1813703022
690295860.0 0.0092191923 0.1889832521 0.0578122926 -0.5537076716 0.0573167207 -0.5542686033 -0.02224522 0.1827194001
695295830.0 0.011135498 0.1889137639 0.0518399675 -0.5543495463 0.0515637728 -0.5544259123 -0.020732759 0.1826695766
700295800.0 0.0132837296 0.1885200721 0.0457357169 -0.5547424555 0.0453817182 -0.5548445632 -0.0195361224 0.183459261
705295770.0 0.0149320047 0.1892395159 0.0397410193 -0.5552715885 0.0400949438 -0.5556529723 -0.0172364524 0.1838492167
710295740.0 0.0174010291 0.1889442252 0.0337512732 -0.5561413144 0.0340089689 -0.5558716115 -0.015306852 0.1833648389
715295710.0 0.0189512872 0.1885266641 0.0283634403 -0.5560186472 0.0277982076 -0.5559800708 -0.0133839748 0.1839810208
720295680.0 0.0215890996 0.1886610515 0.0218891111 -0.5564550299 0.0222457065 -0.5562599857 -0.0115195682 0.1845176158
725295650.0 0.02387627 0.1886474701 0.0157023772 -0.5564347451 0.0156791314 -0.5567437271 -0.0102829718 0.1851593141
730295620.0 0.0257808428 0.1888535434 0.0098500427 -0.5563096162 0.0099483165 -0.5565369102 -0.0087400719 0.1848645186
735295590.0 0.0276650469 0.1885156648 0.0036977088 -0.5565811224 0.0035754424 -0.5566779179 -0.0069655568 0.1852297928
740295560.0 0.0293311548 0.1886356532 -0.0015546671 -0.5565187887 -0.0022421688 -0.5568147525 -0.0044417175 0.1856042756
745295530.0 0.0318192046 0.188289039 -0.0082473047 -0.556094789 -0.0082082783 -0.5565709283 -0.0030567488 0.184985595
750295500.0 0.0340741419 0.1878837796 -0.0138378379 -0.5559637983 -0.0141578639 -0.5564637761 -0.0014518825 0.1855775045
755295470.0 0.0362706904 0.1875351519 -0.0200184216 -0.5557799851 -0.0203326438 -0.5562155268 0.0010309517 0.1851756428
760295440.0 0.0380034494 0.1875126577 -0.0261948077 -0.5562283788 -0.0263666284 -0.5565432269 0.0023243278 0.1857770318
765295410.0 0.0401383918 0.1870681868 -0.0324527511 -0.555481634 -0.0327067332 -0.5556622649 0.0044234016 0.1859810656
770295380.0 0.0420102182 0.1864748292 -0.0384147484 -0.5548383441 -0.0385004925 -0.55519253 0.0056148737 0.1858210979
775295350.0 0.0439160937 0.1858758512 -0.0447942627 -0.5542784358 -0.0440392138 -0.5546022446 0.0070819452 0.1860616099
780295320.0 0.046235756 0.1859255251 -0.0504774697 -0.553628372 -0.0498933758 -0.5540661056 0.0092049998 0.1857601636
785295290.0 0.0479877164 0.1849315147 -0.0567404479 -0.5525409213 -0.0562711577 -0.553237272 0.011722506 0.1861564181
790295260.0 0.0507414678 0.1855202666 -0.0617864209 -0.5526051354 -0.0614524331 -0.5525257787 0.0136378286 0.186039805
795295230.0 0.0522870656 0.1845845913 -0.0682097518 -0.5518342346 -0.0675551176 -0.5526212089 0.0153976458 0.1861764194
800295200.0 0.0541555141 0.1844465015 -0.0747580492 -0.5511677337 -0.0737266237 -0.5509739797 0.0172232098 0.1858977299
805295170.0 0.0565178594 0.1838408297 -0.079925438 -0.5503329122 -0.0800034486 -0.5505255352 0.0188130436 0.1861783624
810295140.0 0.058196091 0.1829611454 -0.085291325 -0.5489692318 -0.086053307 -0.5493273375 0.0211491562 0.1861748286
815295110.0 0.0602088611 0.1822834982 -0.0916511381 -0.5481775662 -0.0917958322 -0.5485548183 0.0228973111 0.1860221147
820295080.0 0.0620745821 0.1823734129 -0.0974168241 -0.5471369604 -0.0972440348 -0.5470199769 0.0243511976 0.1857213242
825295050.0 0.0647427166 0.1815757361 -0.1029448808 -0.5458525737 -0.103406494 -0.5461764627 0.0267729392 0.1858844829
830295020.0 0.0662682 0.180890079 -0.1095696079 -0.5445458384 -0.109364023 -0.5448403868 0.0288209052 0.1857690985
