!Created with skrf (http://scikit-rf.org).
# Hz S RI R 50.0 
!freq ReS11 ImS11 ReS21 ImS21 ReS12 ImS12 ReS22 ImS22
300000.0 -0.240506043 -0.0920041474 0.4705824079 0.0617854349 0.4696443208 0.0587561552 -0.238620145 -0.1005682524
5299970.0 -0.2449402989 0.0059120041 0.475099474 0.0052914532 0.474761097 0.0049336701 -0.2411654113 0.0074360481
10299940.0 -0.2417069513 0.0180154319 0.476796969 0.0062298531 0.4770820074 0.0065483187 -0.2375700233 0.020553824
15299910.0 -0.2378218007 0.0268363182 0.4807258385 0.0072688476 0.4804314543 0.0074192208 -0.2331604039 0.0299791902
20299880.0 -0.232926248 0.0341188227 0.4850536262 0.008441548 0.4852953819 0.0078138185 -0.2277790841 0.0382276353
25299850.0 -0.2277736441 0.0402813239 0.490349007 0.0072694826 0.4901612169 0.0072810627 -0.2221015865 0.044702068
30299820.0 -0.2222774991 0.0452645347 0.4955853976 0.0047714171 0.4956977541 0.0050047542 -0.2160452464 0.0500126251
35299790.0 -0.217256003 0.049158995 0.500853814 0.001552299 0.5010620304 0.0015640639 -0.2107654007 0.0546176767
40299760.0 -0.2125591519 0.0524561876 0.5057684902 -0.0025166603 0.5057591675 -0.0022796714 -0.205034972 0.0573219553
45299730.0 -0.2078854355 0.0548526568 0.5102988652 -0.0066941911 0.5110135386 -0.0066315005 -0.2005353714 0.0605142237
50299700.0 -0.2036499342 0.0568043642 0.5148626825 -0.0126551546 0.5150334135 -0.0122315513 -0.1957298132 0.0623681691
55299670.0 -0.1999063775 0.0585011492 0.5190165247 -0.0192027058 0.5186631209 -0.0182412951 -0.1915503941 0.064106954
60299640.0 -0.196054402 0.060133261 0.5220579237 -0.0247696869 0.5221084079 -0.0244295556 -0.1871743602 0.0652690168
65299610.0 -0.1930033046 0.0610112269 0.524663832 -0.031052621 0.5249438553 -0.0309792462 -0.1841745056 0.0665214049
70299580.0 -0.1896730969 0.0621855739 0.526845059 -0.0381534029 0.5271351501 -0.0374222683 -0.1807825851 0.0676712264
75299550.0 -0.1872071452 0.0629881264 0.5287521833 -0.0443446495 0.5288243662 -0.0445381016 -0.177830463 0.0680837683
80299520.0 -0.184479697 0.063558985 0.5308328292 -0.0515655818 0.5310713388 -0.0515792894 -0.1751189295 0.0689934204
85299490.0 -0.1822860708 0.0641304344 0.5320197734 -0.0580133776 0.5320764026 -0.0578831369 -0.1726267163 0.06957108
90299460.0 -0.1801848577 0.06478427 0.5331151708 -0.0652260449 0.5332385859 -0.0653008516 -0.1703056098 0.0704793738
95299430.0 -0.1782107228 0.06523529 0.5340600167 -0.0722039142 0.5342133215 -0.0720438805 -0.1682448956 0.0709206497
100299400.0 -0.1765303104 0.0663733096 0.5339517993 -0.0794099386 0.5344383675 -0.0789395339 -0.1657467964 0.0715011197
105299370.0 -0.1750117501 0.0668555715 0.5345056235 -0.0858867907 0.53499303 -0.0858803584 -0.1639954749 0.0724785197
110299340.0 -0.1732787411 0.0673719404 0.5349820546 -0.0921903083 0.5346930102 -0.0922421712 -0.1628878851 0.0730865971
115299310.0 -0.1720155145 0.0680923367 0.5347873366 -0.0997814013 0.5346110118 -0.0993919449 -0.1610843046 0.0737174991
120299280.0 -0.170731505 0.0685228454 0.5344587659 -0.1061505575 0.53474719 -0.1061738512 -0.1594724216 0.074434296
125299250.0 -0.1695247986 0.0691033526 0.5340985927 -0.1126336971 0.5341617259 -0.1126186313 -0.1583499596 0.0751441803
130299220.0 -0.1685326657 0.0703908463 0.5333853809 -0.1200007743 0.5335044518 -0.1194293271 -0.1571394238 0.0757150481
135299190.0 -0.1674904478 0.0710794632 0.5333402298 -0.1266176156 0.5327858227 -0.1261484352 -0.1555232237 0.0769269705
140299160.0 -0.166686047 0.07207139 0.5320285732 -0.1331113775 0.5323044941 -0.1330093594 -0.1545268159 0.0779640168
145299130.0 -0.1654644254 0.0728293684 0.5311024205 -0.1395572757 0.5309456362 -0.1394062082 -0.1535965723 0.0789695136
150299100.0 -0.1645913079 0.0739237947 0.5300147819 -0.145795802 0.529816025 -0.1454407524 -0.1521071963 0.0804478015
155299070.0 -0.1640670723 0.0747209001 0.529073096 -0.1531956721 0.5287912726 -0.1526481073 -0.1512257978 0.0812247193
160299040.0 -0.1629372891 0.0758413901 0.5271878285 -0.1589702095 0.5267913622 -0.1590338624 -0.1506789243 0.0824205315
165299010.0 -0.162068778 0.0767514252 0.5258510272 -0.165773892 0.5259039084 -0.1655447032 -0.149313231 0.0837452093
170298980.0 -0.1612905052 0.0777260093 0.5240883819 -0.1720096613 0.5249050823 -0.1717159408 -0.1483920958 0.0847541492
175298950.0 -0.1609323461 0.0789501906 0.5233055414 -0.1781910039 0.5229418798 -0.178067122 -0.1472756291 0.0860901043
180298920.0 -0.160103966 0.080135241 0.5210663668 -0.1843910959 0.5211075047 -0.1842880841 -0.1466099084 0.0874392111
185298890.0 -0.1588315312 0.0809936791 0.5189904711 -0.190321421 0.5189776634 -0.1904786154 -0.1456147209 0.0889359142
190298860.0 -0.1583417272 0.082456889 0.5174218341 -0.1965301062 0.5175449652 -0.1968046318 -0.1445818607 0.0897173882
195298830.0 -0.1577405713 0.0831752721 0.5155657924 -0.2032155379 0.5155683078 -0.2025712076 -0.1439171527 0.0909891363
200298800.0 -0.1569989919 0.0846788125 0.5133835775 -0.2090595539 0.5130826189 -0.2090983254 -0.1432185863 0.0923616976
205298770.0 -0.1564457394 0.0861205712 0.5110788864 -0.2152443159 0.5107145346 -0.2145853158 -0.1419651948 0.093110359
210298740.0 -0.1554855438 0.0870341095 0.5084535363 -0.2205098466 0.5087865328 -0.220617652 -0.1410986391 0.0954882549
215298710.0 -0.1551266177 0.088317364 0.5064438056 -0.227008476 0.5063926694 -0.2273079331 -0.1401230895 0.0967062688
220298680.0 -0.1539556512 0.0891700189 0.503760507 -0.2323782474 0.5039738935 -0.2328511143 -0.1396829301 0.0977685206
225298650.0 -0.1534661909 0.0907120164 0.5015884243 -0.2385929916 0.5016233799 -0.2386184664 -0.1386948236 0.098768867
230298620.0 -0.1523433582 0.0921832843 0.4994206708 -0.2441418261 0.499631784 -0.2439958697 -0.1380030654 0.1000175466
235298590.0 -0.1517724733 0.0936810539 0.4966546049 -0.2500191839 0.4966239285 -0.2497126441 -0.1369476381 0.1016872653
240298560.0 -0.1512380348 0.0948474564 0.4939053107 -0.2560986716 0.4937674479 -0.2559689437 -0.1356890797 0.1030465841
245298530.0 -0.1505507371 0.0963274486 0.4909556555 -0.261594827 0.4912201814 -0.2616606985 -0.1345662383 0.1040716632
250298500.0 -0.1493291893 0.0978044529 0.4877498631 -0.2672205564 0.4876413287 -0.266689244 -0.1338033477 0.1057294729
255298470.0 -0.1483973348 0.098784215 0.4847036076 -0.2723217748 0.4851489203 -0.2728732141 -0.1328544715 0.1069987686
260298440.0 -0.1480402825 0.1000611272 0.4823664988 -0.2784454234 0.4818306655 -0.2780184088 -0.1311902806 0.1081151485
265298410.0 -0.146626289 0.1017620198 0.4789816468 -0.2839910409 0.4793716081 -0.2836386689 -0.1307726335 0.1096511327
270298380.0 -0.1461385474 0.1030038339 0.4763516794 -0.2892156923 0.4764341834 -0.2891793194 -0.1293890502 0.1111277318
275298350.0 -0.145053696 0.1041586019 0.4729526173 -0.2945289748 0.4732436463 -0.2946759925 -0.1280963397 0.1123652602
280298320.0 -0.1437645068 0.10581399 0.4700019892 -0.3002472801 0.469829593 -0.2998528874 -0.1268573376 0.1137648241
285298290.0 -0.1431064874 0.1071715994 0.4665903876 -0.3053010126 0.466497819 -0.3053129287 -0.1259235779 0.1149759505
290298260.0 -0.1418772909 0.108431323 0.4634173005 -0.3101295793 0.4631602803 -0.310734173 -0.1244482289 0.1168803134
295298230.0 -0.1409070575 0.1096391811 0.4598419792 -0.3157569619 0.4602075875 -0.3158524243 -0.1227219121 0.1175831732
300298200.0 -0.1401364783 0.1110863958 0.4566624426 -0.3207290958 0.4567773477 -0.3210967703 -0.1215504897 0.1190974465
305298170.0 -0.1390746832 0.112089122 0.4530530206 -0.3266530632 0.4527027769 -0.3263482369 -0.1199291195 0.1204436809
310298140.0 -0.1382859902 0.1137834759 0.4492886071 -0.3315432979 0.4496675641 -0.3313595941 -0.1190144144 0.1218878596
315298110.0 -0.1369672961 0.1147321612 0.4461648774 -0.3365303878 0.4457025146 -0.3364513487 -0.1178996659 0.1227486399
320298080.0 -0.1358143572 0.1157396199 0.4416682975 -0.3418643209 0.4422826658 -0.3418366476 -0.1163775243 0.1240715723
325298050.0 -0.1350310991 0.117155804 0.4380697623 -0.3469557694 0.4382043372 -0.3464876002 -0.1155192581 0.1255047109
330298020.0 -0.1338830833 0.1186067113 0.4340575946 -0.3518288275 0.4345012486 -0.3520793056 -0.1142109329 0.1266384425
335297990.0 -0.1332156503 0.119510305 0.4304547469 -0.356530198 0.4300629698 -0.356665233 -0.1134344479 0.1284464718
340297960.0 -0.1324304992 0.1211694046 0.4259142425 -0.3612391482 0.4257420629 -0.3614309289 -0.1115156875 0.1297416556
345297930.0 -0.1312574127 0.1226092572 0.421711686 -0.3664735426 0.4214945316 -0.3660612153 -0.1106976863 0.130522574
350297900.0 -0.1301217898 0.1234405932 0.4171317961 -0.3708036134 0.4176458035 -0.3708554494 -0.1095531956 0.1328423368
355297870.0 -0.129354114 0.1257019183 0.4133076238 -0.3749965705 0.4133906008 -0.37478916 -0.1081015914 0.1340082669
360297840.0 -0.1281831523 0.1267579786 0.4099704346 -0.3797593388 0.4099697469 -0.379485629 -0.1068227701 0.135527141
365297810.0 -0.127322676 0.1285791642 0.4050595863 -0.3845727367 0.4054304872 -0.3845456634 -0.1050443006 0.1369060216
370297780.0 -0.1256919254 0.129519861 0.400824019 -0.3888472199 0.4014272566 -0.3882297552 -0.1036323351 0.1382152336
375297750.0 -0.1245381991 0.1309169167 0.3969599567 -0.3931185495 0.3967633944 -0.392925885 -0.1022191463 0.1388964861
380297720.0 -0.1234864862 0.1319294 0.392110018 -0.397843689 0.3925240986 -0.3969662649 -0.1016160882 0.1405875081
385297690.0 -0.12235869 0.1335222097 0.3878755996 -0.4019289674 0.387868318 -0.4015742777 -0.0995676232 0.1420280339
390297660.0 -0.120997083 0.1349099417 0.3835612559 -0.4058714581 0.3836441371 -0.4056542817 -0.0985646392 0.1430224127
395297630.0 -0.1197666837 0.1363904326 0.379319333 -0.4102173873 0.3794188824 -0.4104276741 -0.096573411 0.1442290703
400297600.0 -0.1186022416 0.1376209144 0.3740906697 -0.4147465654 0.3746277763 -0.4146796388 -0.0948632581 0.1458191929
405297570.0 -0.1176563627 0.1388861703 0.3701056506 -0.4183641561 0.370272586 -0.4179794189 -0.0935153727 0.1467857814
410297540.0 -0.1161332738 0.1400027623 0.3653862092 -0.4225715336 0.3657829026 -0.4224023886 -0.0920843266 0.1482139484
415297510.0 -0.1142386017 0.1412793328 0.3604405282 -0.4265989804 0.3613861633 -0.4264222266 -0.0905953048 0.1490963699
420297480.0 -0.1133353608 0.1429366416 0.3558136312 -0.4308526741 0.3560875745 -0.4302044134 -0.0890682537 0.1500400925
425297450.0 -0.1120398204 0.143620642 0.3515982113 -0.4340120511 0.3519824622 -0.4342429702 -0.0877214894 0.1515570746
430297420.0 -0.1107967213 0.1449016765 0.3463640207 -0.4373958351 0.3466373018 -0.437640952 -0.0862200578 0.1522781798
435297390.0 -0.109381001 0.1460707938 0.3411938739 -0.4417241375 0.341766923 -0.441628729 -0.0834849392 0.1533634624
440297360.0 -0.1079024439 0.1474835072 0.3368447177 -0.4452055244 0.3368892509 -0.4452791569 -0.0822968523 0.1544034728
445297330.0 -0.1065839897 0.148242608 0.3321699054 -0.4492849259 0.3324172016 -0.4488210621 -0.080797217 0.155164566
450297300.0 -0.104939385 0.14958423 0.3271928831 -0.452623703 0.3271759192 -0.4528451008 -0.0788585216 0.1561913966
455297270.0 -0.1038316476 0.1508207483 0.3217640555 -0.4560411779 0.3222363384 -0.4566119794 -0.077222435 0.1572061273
460297240.0 -0.102507122 0.1519922325 0.3171163627 -0.4597989429 0.3170910195 -0.4596278607 -0.0756111731 0.1584803859
465297210.0 -0.1007156044 0.1530522584 0.3120746722 -0.4630974001 0.3121935732 -0.4634548719 -0.0735579196 0.1589430552
470297180.0 -0.099176859 0.1540074936 0.306859243 -0.4669449513 0.3069551083 -0.4663958068 -0.0716016824 0.1603930005
475297150.0 -0.0976846768 0.1548845484 0.3016944653 -0.4693085873 0.3020532802 -0.4693091741 -0.069709802 0.1609591327
480297120.0 -0.0964743841 0.1564529745 0.2965262385 -0.4731165676 0.2963843735 -0.4735068579 -0.067652558 0.1621425106
485297090.0 -0.0951289562 0.1574572894 0.2921446122 -0.4764481833 0.2921402729 -0.4757253204 -0.0662835168 0.1630585427
490297060.0 -0.093786342 0.158536911 0.2869512265 -0.4797908443 0.286661034 -0.4787608365 -0.0641825621 0.1638616016
495297030.0 -0.092183884 0.1591664465 0.2810288851 -0.4824806676 0.2817943695 -0.4821234638 -0.0627293836 0.1653069185
500297000.0 -0.0903530989 0.1602915762 0.275883603 -0.4848803777 0.2755371958 -0.4848459695 -0.0607813888 0.1660482235
505296970.0 -0.0885215154 0.1614246619 0.2707313423 -0.4881003519 0.2708673724 -0.4881763285 -0.0587804359 0.1669362743
510296940.0 -0.0872144405 0.1622753546 0.2653172671 -0.4911878086 0.2653243294 -0.4912294479 -0.0566401188 0.1675748581
515296910.0 -0.0856821557 0.1635272545 0.2595733226 -0.4941658129 0.2597989013 -0.4941313543 -0.0548982355 0.1682894708
520296880.0 -0.0842524225 0.1645706512 0.2543995491 -0.4970502136 0.2542940007 -0.4965971998 -0.0532694033 0.1690426239
525296850.0 -0.0823137523 0.1648373404 0.2485109391 -0.4993573515 0.2492855383 -0.4993233707 -0.0517104701 0.1701956499
530296820.0 -0.0806731321 0.166517453 0.2435411534 -0.5024728752 0.2435744561 -0.50212999 -0.0495932492 0.1705337799
535296790.0 -0.0795331279 0.1669606991 0.2385300608 -0.5047770937 0.2385364046 -0.504244921 -0.0479036447 0.1710910722
540296760.0 -0.0781397096 0.1683110759 0.2327620997 -0.5073492542 0.2327868055 -0.5072648744 -0.0465173555 0.1724822852
545296730.0 -0.0763181438 0.1688901658 0.2268576686 -0.5092225355 0.2271126275 -0.5096443337 -0.044209603 0.172789013
550296700.0 -0.0741191571 0.1702947699 0.2217037427 -0.5123733644 0.2218393009 -0.5122105742 -0.0426557196 0.1734929188
555296670.0 -0.0730361296 0.1704403165 0.2162879846 -0.5143165767 0.2162740132 -0.5146130898 -0.0406777874 0.1745916384
560296640.0 -0.0708394006 0.1719189615 0.2104241386 -0.5170814002 0.2108442056 -0.5168793026 -0.0387609839 0.1748104782
565296610.0 -0.0697150911 0.1722653797 0.2041623122 -0.518903958 0.2051028065 -0.5189377201 -0.0366445561 0.1750862731
570296580.0 -0.0682782 0.1733569097 0.1990942187 -0.5217556421 0.1989286043 -0.5211331166 -0.0349849962 0.1760919065
575296550.0 -0.0663330222 0.1746429089 0.1934014396 -0.5236075873 0.193357012 -0.5233781991 -0.0327595502 0.1763278841
580296520.0 -0.0646376718 0.1750492177 0.1876708536 -0.5258651018 0.1875704551 -0.5253891685 -0.0310173062 0.1768732165
585296490.0 -0.0634098993 0.1753916176 0.1822249886 -0.5268864126 0.1826109073 -0.5274459851 -0.0290279557 0.1769957416
590296460.0 -0.0608512127 0.176167548 0.1763757644 -0.5286067334 0.1765887273 -0.5290052606 -0.0276384437 0.1778193225
595296430.0 -0.0593862305 0.1771224531 0.169972918 -0.531360699 0.1707481812 -0.5309656056 -0.0254711999 0.1776988001
600296400.0 -0.0581148251 0.1779065625 0.1645517262 -0.5329742447 0.1650779511 -0.5322445502 -0.0235038054 0.1783421158
605296370.0 -0.0562448363 0.1782989578 0.159203608 -0.5343670914 0.159399527 -0.5348322149 -0.0214070026 0.1790323547
610296340.0 -0.0545385646 0.1792727224 0.1531276791 -0.5360424921 0.1533146268 -0.5362927984 -0.0191175334 0.179329244
615296310.0 -0.0523428002 0.1798256856 0.1473590433 -0.5377523812 0.1469734163 -0.5382561443 -0.0171621468 0.1794889447
620296280.0 -0.0506303287 0.1799957527 0.1412841609 -0.5389965259 0.1416060093 -0.5387214511 -0.0154355257 0.1799143727
625296250.0 -0.0491121027 0.1809171954 0.1360347296 -0.5413837251 0.1357998674 -0.5410754469 -0.0126311187 0.1799919005
630296220.0 -0.0466069393 0.1814510299 0.1293650886 -0.5418137156 0.1297411516 -0.5418595245 -0.0107755946 0.1806111297
635296190.0 -0.0459026475 0.181784297 0.1239750932 -0.5435954977 0.1242794372 -0.5434585858 -0.0087130354 0.1809338556
640296160.0 -0.0441518573 0.1828977436 0.1178193859 -0.544694798 0.1185478709 -0.5447470433 -0.0068284428 0.180827535
645296130.0 -0.0422433259 0.1833290669 0.1120477041 -0.5454400698 0.1123991673 -0.5460210836 -0.004566694 0.1813598563
650296100.0 -0.03997003 0.18382644 0.1058812634 -0.5470174114 0.1063994284 -0.5470538832 -0.0024655819 0.1809888425
655296070.0 -0.0388578518 0.1842817557 0.1002590362 -0.548384091 0.1006110449 -0.5482643426 -0.0003944539 0.1812381169
660296040.0 -0.0368759548 0.1845815589 0.094645266 -0.549401203 0.094884914 -0.5496038422 0.001811568 0.1819973819
665296010.0 -0.0346114009 0.185051513 0.0880469809 -0.5498904095 0.0886318404 -0.5500102135 0.003699186 0.1823598395
670295980.0 -0.033704563 0.1858315786 0.0822867966 -0.5509810245 0.0827777473 -0.5512874772 0.0052349188 0.1820898771
675295950.0 -0.0316789149 0.1861824163 0.0770941401 -0.5517650366 0.0769789214 -0.5510761079 0.007234867 0.1821285227
680295920.0 -0.0300624634 0.1864941742 0.0704782309 -0.5525796333 0.0699845823 -0.5529255019 0.009575703 0.183001012
685295890.0 -0.0279291387 0.1873958401 0.0649002844 -0.5531690803 0.0645693134 -0.5533101069 0.0115918185 0.182620099
690295860.0 -0.0259000319 0.1874758953 0.0590448705 -0.5533183853 0.0587767433 -0.5540591332 0.013243213 0.18319628
695295830.0 -0.0241876423 0.1880469014 0.0529117213 -0.5543155668 0.0522471811 -0.554476473 0.0155517472 0.1829091757
700295800.0 -0.0223065326 0.1881602565 0.046712014 -0.5547766265 0.0463321371 -0.5547283765 0.0171293732 0.1834325688
705295770.0 -0.0209822842 0.1890463389 0.0406303893 -0.5553646457 0.0411298963 -0.5554126388 0.019563037 0.1836310911
710295740.0 -0.018604549 0.1891042054 0.0350877149 -0.5564192526 0.0352643387 -0.5562789217 0.0213000174 0.1827663009
715295710.0 -0.0173604649 0.1895531612 0.0292139351 -0.5561828439 0.0287270871 -0.5563011196 0.0234549191 0.1828808026
720295680.0 -0.0152371626 0.189946463 0.0227845789 -0.5567343891 0.0232024435 -0.5567123753 0.0256894126 0.1830998988
725295650.0 -0.0131457613 0.190218547 0.0162017694 -0.5564121568 0.0169219268 -0.5568171304 0.0270522025 0.1832413591
730295620.0 -0.0113183014 0.1906853443 0.0107277535 -0.5566269318 0.0111109673 -0.5566064053 0.0291491385 0.1823709137
735295590.0 -0.0096303251 0.1908003824 0.0046715753 -0.5569364544 0.0047370341 -0.5565212365 0.0309619654 0.1820253795
740295560.0 -0.008240396 0.1911757743 -0.0009304082 -0.556609087 -0.0009930411 -0.5568998093 0.0335538591 0.1823537787
745295530.0 -0.005896886 0.1914248405 -0.0073060906 -0.556437717 -0.0071988229 -0.5568710007 0.0352925077 0.1817531043
750295500.0 -0.0038371049 0.1911945086 -0.0132809884 -0.55597163 -0.0129909559 -0.5564472167 0.0371232603 0.1814514666
755295470.0 -0.0021344374 0.1914485735 -0.0185587367 -0.5562455139 -0.018924839 -0.5563608519 0.0394824027 0.1808656793
760295440.0 -0.0002887655 0.1918348197 -0.0250345123 -0.5564791826 -0.0250579612 -0.5565885224 0.0414391244 0.1808930402
765295410.0 0.0013740695 0.1917630873 -0.0313322657 -0.5557933023 -0.0317004388 -0.5559276638 0.0435509409 0.1807963066
770295380.0 0.0030362504 0.1916380257 -0.0374742035 -0.5554397702 -0.0371209501 -0.5548793821 0.0451941136 0.1801042766
775295350.0 0.0048045755 0.1916418987 -0.04333076 -0.5545438644 -0.042826125 -0.5546941839 0.0466476287 0.1799341566
780295320.0 0.0068318093 0.1920081848 -0.0490494125 -0.5540042825 -0.0483841276 -0.5544116579 0.0492416645 0.1789782618
785295290.0 0.0085871516 0.1914264678 -0.0554689832 -0.5532935581 -0.054853106 -0.553569759 0.0517049828 0.1789106821
790295260.0 0.0109525891 0.1923418928 -0.060717435 -0.5531419569 -0.059896324 -0.5530197243 0.0533547049 0.1786059066
795295230.0 0.0126777591 0.1919925604 -0.0670479265 -0.5524388308 -0.0663362217 -0.5526662832 0.0558661104 0.1782261427
800295200.0 0.0143469197 0.1922482339 -0.0734190965 -0.5512631432 -0.0728972542 -0.5517592683 0.0578113522 0.1775829029
805295170.0 0.0163907127 0.1921236852 -0.0791317003 -0.5506095007 -0.0784725854 -0.5508229248 0.0594684424 0.1773899225
810295140.0 0.0175478879 0.1916888462 -0.0842739705 -0.5495878478 -0.0842164791 -0.5501233489 0.0618965553 0.1764712315
815295110.0 0.0200103272 0.1916652024 -0.0905792463 -0.5483535936 -0.0899588964 -0.5489945846 0.0636334416 0.1762865365
820295080.0 0.0215106071 0.1922107546 -0.0962641045 -0.5473395582 -0.096202266 -0.5476526103 0.0656637417 0.1756885477
825295050.0 0.0238754199 0.1919542419 -0.1018139441 -0.5463866613 -0.1018603834 -0.5468774238 0.0679587561 0.1751470975
830295020.0 0.0257087874 0.1920182126 -0.108502902 -0.5448273152 -0.1078475422 -0.5453787936 0.0703076144 0.1746725841
